!Created with skrf (http://scikit-rf.org).
# Hz S RI R 50.0 
!freq ReS11 ImS11
300000.0 -0.9752463526 -0.1196256792
50299700.0 -0.999967606 0.0151835527
100299400.0 -0.998182534 0.028172532
150299100.0 -1.002813985 0.045091603
200298800.0 -0.9995478885 0.058404693
250298500.0 -0.9973407121 0.0719451343
300298200.0 -0.9858525898 0.087617759
350297900.0 -0.9939887787 0.0985569915
400297600.0 -0.9931376378 0.1150639745
450297300.0 -0.9911902116 0.1290793038
500297000.0 -0.9896104111 0.1437090149
550296700.0 -0.9842243063 0.1562128316
600296400.0 -1.017405833 0.1895122058
650296100.0 -0.9823021676 0.1862665858
700295800.0 -0.9794242465 0.2004104061
750295500.0 -0.9764739613 0.2142940053
800295200.0 -0.9728303655 0.2284671385
850294900.0 -0.9697492233 0.2422648729
900294600.0 -0.9658258359 0.2560653593
950294300.0 -0.962308242 0.2695889555
1000294000.0 -0.958236461 0.2836822119
1050293700.0 -0.9535252657 0.2973538698
1100293400.0 -0.9492974764 0.3119283194
1150293100.0 -0.9455938916 0.3237718571
1200292800.0 -0.9402073274 0.3379740723
1250292500.0 -0.9346896344 0.351458109
1300292200.0 -0.928984787 0.3646080327
1350291900.0 -0.9235312283 0.3787875587
1400291600.0 -0.9181262767 0.3920311725
1450291300.0 -0.9125273969 0.4043172015
1500291000.0 -0.9062309563 0.4176879797
1550290700.0 -0.899749273 0.4309728116
1600290400.0 -0.8935031561 0.4438827824
1650290100.0 -0.8867290812 0.4561004679
1700289800.0 -0.8799378085 0.4696320769
1750289500.0 -0.8727229086 0.4818776202
1800289200.0 -0.8654647427 0.4948429955
1850288900.0 -0.8588484072 0.5060157256
1900288600.0 -0.8509369781 0.5191030999
1950288300.0 -0.842847916 0.5315452775
2000288000.0 -0.8354883347 0.54300971
2050287700.0 -0.8271060511 0.555345207
2100287400.0 -0.8190233568 0.5672916102
2150287100.0 -0.810664457 0.5790333033
2200286800.0 -0.8029536936 0.5893644853
2250286500.0 -0.7939512196 0.6012899643
2300286200.0 -0.7852502885 0.6131335753
2350285900.0 -0.7764794981 0.6240414106
2400285600.0 -0.7676984063 0.6350638831
2450285300.0 -0.7590347809 0.6453404042
2500285000.0 -0.7491339769 0.6566868319
2550284700.0 -0.7402262017 0.6670143281
2600284400.0 -0.7311033358 0.6770007354
2650284100.0 -0.7219128356 0.6877516219
2700283800.0 -0.7112973904 0.6981382055
2750283500.0 -0.7011211152 0.7087061835
2800283200.0 -0.6914610317 0.7185791448
2850282900.0 -0.681100255 0.7283906189
2900282600.0 -0.6706903627 0.737736303
2950282300.0 -0.6605812969 0.7473543472
3000282000.0 -0.6499508384 0.7567158694
3050281700.0 -0.6386461723 0.7658132592
3100281400.0 -0.6266905013 0.7754387592
3150281100.0 -0.6149654659 0.784702905
3200280800.0 -0.6033630866 0.7930488544
3250280500.0 -0.5923263681 0.8009250351
3300280200.0 -0.5812484958 0.8088480515
3350279900.0 -0.5696014294 0.816403641
3400279600.0 -0.5574421097 0.82399933
3450279300.0 -0.5464153574 0.8312393135
3500279000.0 -0.5346505283 0.8384286666
3550278700.0 -0.5219093683 0.8454812214
3600278400.0 -0.5095447465 0.8527845893
3650278100.0 -0.4964839106 0.8605499105
3700277800.0 -0.4845208971 0.8669327609
3750277500.0 -0.4723562902 0.8735883943
3800277200.0 -0.4597137839 0.8796954867
3850276900.0 -0.4474338142 0.8858050728
3900276600.0 -0.4368377338 0.8914724765
3950276300.0 -0.4242801369 0.8974861788
4000276000.0 -0.4123387204 0.9034965828
4050275700.0 -0.39954668 0.9095715644
4100275400.0 -0.3886141465 0.9151447756
4150275100.0 -0.37565295 0.920335172
4200274800.0 -0.3627325574 0.9262912715
4250274500.0 -0.3505084982 0.9312595722
4300274200.0 -0.337624119 0.9368543614
4350273900.0 -0.3238025281 0.9420432438
4400273600.0 -0.3088279186 0.9472464621
4450273300.0 -0.2935141422 0.9523273853
4500273000.0 -0.2800614994 0.9566226805
4550272700.0 -0.2657842666 0.9610693645
4600272400.0 -0.2504449975 0.9649930643
4650272100.0 -0.2386780428 0.9683050482
4700271800.0 -0.2254553418 0.97167051
4750271500.0 -0.2136984197 0.9743976839
4800271200.0 -0.2012007147 0.9771378273
4850270900.0 -0.1872343559 0.9797964584
4900270600.0 -0.1733636815 0.9822967098
4950270300.0 -0.1591093698 0.9849882978
5000270000.0 -0.144854257 0.9873330861
5050269700.0 -0.1312159696 0.9886327726
5100269400.0 -0.1175753817 0.9903607138
5150269100.0 -0.104387047 0.9921275524
5200268800.0 -0.0908792213 0.9929568902
5250268500.0 -0.0778171906 0.9942567932
5300268200.0 -0.064716205 0.9944040671
5350267900.0 -0.052585203 0.9951854042
5400267600.0 -0.03619921 0.9966241099
5450267300.0 -0.0231234399 0.9966448102
5500267000.0 -0.0079232774 0.9971157889
5550266700.0 0.0067761799 0.9973061288
5600266400.0 0.0223821878 0.9973454635
5650266100.0 0.0389626488 0.9971240156
5700265800.0 0.0534358861 0.9961118032
5750265500.0 0.0687810865 0.9955712176
5800265200.0 0.0822477258 0.9940970305
5850264900.0 0.0958587007 0.9935511163
5900264600.0 0.1126367725 0.9910969934
5950264300.0 0.124581135 0.9903230822
6000264000.0 0.1381777781 0.9881167523
6050263700.0 0.1506582635 0.9870361316
6100263400.0 0.1631928818 0.9848979783
6150263100.0 0.1776883829 0.9829935022
6200262800.0 0.1880905976 0.9808896692
6250262500.0 0.2005999341 0.9784572204
6300262200.0 0.213648247 0.9757229623
6350261900.0 0.2263322793 0.9727682581
6400261600.0 0.2404775819 0.9695775805
6450261300.0 0.2517652986 0.9668578719
6500261000.0 0.264632192 0.9634222121
6550260700.0 0.2775196836 0.9594462965
6600260400.0 0.2908720239 0.9550481364
6650260100.0 0.3046695105 0.9510709532
6700259800.0 0.3168734742 0.9464797652
6750259500.0 0.3305912075 0.9416969559
6800259200.0 0.3439765982 0.9368287184
6850258900.0 0.3560346259 0.9316000932
6900258600.0 0.3680910837 0.926594893
6950258300.0 0.3803229598 0.9211560358
7000258000.0 0.3925954253 0.9157469122
7050257700.0 0.4049165013 0.9097872778
7100257400.0 0.4178089754 0.9033865657
7150257100.0 0.4279123286 0.8982295074
7200256800.0 0.4408706112 0.8919293699
7250256500.0 0.452775648 0.8855649964
7300256200.0 0.4659415782 0.8786253043
7350255900.0 0.4781188269 0.8716818783
7400255600.0 0.4914771908 0.8643104667
7450255300.0 0.5066283965 0.855483769
7500255000.0 0.5184079207 0.8484248424
7550254700.0 0.5324041602 0.8401838282
7600254400.0 0.5451449889 0.8317360542
7650254100.0 0.5565897777 0.8240532262
7700253800.0 0.5686516434 0.8159930614
7750253500.0 0.5797099088 0.808193578
7800253200.0 0.5905385234 0.8005668125
7850252900.0 0.600066785 0.79353689
7900252600.0 0.6117600283 0.7848648853
7950252300.0 0.620522518 0.7783669912
8000252000.0 0.6307188871 0.7703449482
8050251700.0 0.6412754903 0.7625535989
8100251400.0 0.6514021031 0.7542571851
8150251100.0 0.6612895445 0.7454753187
8200250800.0 0.6707616016 0.7375759409
8250250500.0 0.6796352926 0.7298456899
8300250200.0 0.6889478922 0.7210269777
8350249900.0 0.6979904543 0.7124481796
8400249600.0 0.7062293105 0.7045114093
8450249300.0 0.7153558508 0.6953253013
8500249000.0 0.7236694613 0.6864637407
8550248700.0 0.7322236421 0.6771625167
8600248400.0 0.740641934 0.6676734631
8650248100.0 0.7484309458 0.658341901
8700247800.0 0.7580530851 0.6470960853
8750247500.0 0.7663294832 0.6367966523
8800247200.0 0.7743240363 0.6265682256
8850246900.0 0.783341752 0.6150675862
8900246600.0 0.7916843076 0.6035629318
8950246300.0 0.8013645009 0.5907894144
9000246000.0 0.8104973445 0.5782513519
9050245700.0 0.8194795758 0.5652282187
9100245400.0 0.8280879561 0.5527236995
9150245100.0 0.8372617642 0.5391103301
9200244800.0 0.8473237203 0.5240458131
9250244500.0 0.8565299239 0.5087048547
9300244200.0 0.8650011588 0.4943314131
9350243900.0 0.8725976982 0.4805819198
9400243600.0 0.8794292505 0.4681752428
9450243300.0 0.885181091 0.4565758748
9500243000.0 0.8914382186 0.4443846016
9550242700.0 0.8953878895 0.4365770738
9600242400.0 0.8993275302 0.4295050653
9650242100.0 0.9029498229 0.4226732136
9700241800.0 0.9074157178 0.4145667474
9750241500.0 0.9117874365 0.4070799388
9800241200.0 0.9163401147 0.3979320615
9850240900.0 0.9219025064 0.3861204945
9900240600.0 0.9276021197 0.3745989883
9950240300.0 0.9343890345 0.3586196885
10000240000.0 0.9388267214 0.3469214243
10050239700.0 0.9445794848 0.3314111211
10100239400.0 0.9496154321 0.3160036791
10150239100.0 0.9540173949 0.3010053474
10200238800.0 0.9582256232 0.2862472857
10250238500.0 0.9613999855 0.2727957307
10300238200.0 0.9645643818 0.2589027944
10350237900.0 0.9672903378 0.2458065986
10400237600.0 0.9697476118 0.2324915187
10450237300.0 0.9725248418 0.2189259581
10500237000.0 0.9747061507 0.2066291571
10550236700.0 0.9769434757 0.1923547054
10600236400.0 0.9788174816 0.1790720772
10650236100.0 0.9810255024 0.1637507165
10700235800.0 0.9836290192 0.1517984539
10750235500.0 0.9856337277 0.1385728762
10800235200.0 0.9876354606 0.1245431671
10850234900.0 0.9895128784 0.1099595328
10900234600.0 0.9915966668 0.0952568675
10950234300.0 0.9934329659 0.081995475
11000234000.0 0.9951890806 0.0669219849
11050233700.0 0.9969304326 0.050379182
11100233400.0 0.9984821915 0.0333665031
11150233100.0 0.9993715289 0.0171185831
11200232800.0 1.000162693 0.00194261
11250232500.0 1.00061487 -0.014790499
11300232200.0 1.001997607 -0.0326630238
11350231900.0 1.001756313 -0.0484320571
11400231600.0 1.001423598 -0.0636421215
11450231300.0 1.000901649 -0.0787592672
11500231000.0 1.000324439 -0.095809366
11550230700.0 0.9993435531 -0.1090571036
11600230400.0 0.9971421139 -0.1216149767
11650230100.0 0.9950386408 -0.1324923347
11700229800.0 0.993225172 -0.1472549672
11750229500.0 0.9909147688 -0.162280136
11800229200.0 0.9881579261 -0.1754954709
11850228900.0 0.9846038377 -0.188146192
11900228600.0 0.9810884799 -0.1980371401
11950228300.0 0.9776982097 -0.2087813102
12000228000.0 0.9748399133 -0.2177268484
12050227700.0 0.9717872327 -0.2304837849
12100227400.0 0.9688242474 -0.2412797881
12150227100.0 0.9629614088 -0.2580216045
12200226800.0 0.9592993397 -0.2693550938
12250226500.0 0.9555464241 -0.2816446361
12300226200.0 0.9516626929 -0.2938462616
12350225900.0 0.946268756 -0.3073607875
12400225600.0 0.9417242738 -0.3207000939
12450225300.0 0.9377728803 -0.3341164438
12500225000.0 0.9323840062 -0.3482144871
12550224700.0 0.9271086103 -0.3624552905
12600224400.0 0.9221037679 -0.3753314249
12650224100.0 0.9162133609 -0.389487689
12700223800.0 0.9109705322 -0.4023831033
12750223500.0 0.9052892059 -0.415563293
12800223200.0 0.900012448 -0.4282470355
12850222900.0 0.8950264659 -0.4400834581
12900222600.0 0.8891064748 -0.4524226467
12950222300.0 0.8824597089 -0.4649694973
13000222000.0 0.8769646748 -0.4768024284
13050221700.0 0.8699499003 -0.4893721879
13100221400.0 0.8637609903 -0.5014286904
13150221100.0 0.8566881673 -0.5132244488
13200220800.0 0.8501135147 -0.5246841867
13250220500.0 0.8425871084 -0.5369672588
13300220200.0 0.8351607311 -0.5479679129
13350219900.0 0.8270971336 -0.5597171223
13400219600.0 0.818771578 -0.571909919
13450219300.0 0.8090834441 -0.5854400329
13500219000.0 0.7995299018 -0.5988408411
13550218700.0 0.7888516828 -0.6122673679
13600218400.0 0.7794264813 -0.6239744415
13650218100.0 0.7697236488 -0.6349398502
13700217800.0 0.758260824 -0.6473297409
13750217500.0 0.7490719254 -0.6588010351
13800217200.0 0.7373278217 -0.6701512217
13850216900.0 0.7259937656 -0.6816597927
13900216600.0 0.7165032775 -0.6896880322
13950216300.0 0.7060904774 -0.7007839512
14000216000.0 0.6961893291 -0.7101655661
14050215700.0 0.6863050027 -0.7185177077
14100215400.0 0.6762310954 -0.7278062537
14150215100.0 0.6667800296 -0.7360357023
14200214800.0 0.6574882331 -0.7448485715
14250214500.0 0.647197146 -0.7541370624
14300214200.0 0.6368312695 -0.7635039997
14350213900.0 0.6256617745 -0.7732324009
14400213600.0 0.6137149778 -0.7825878219
14450213300.0 0.6007830947 -0.793185366
14500213000.0 0.5874285859 -0.8033836585
14550212700.0 0.5750050098 -0.8128671616
14600212400.0 0.562461368 -0.821319155
14650212100.0 0.5496583924 -0.8299902209
14700211800.0 0.5357506179 -0.8397074411
14750211500.0 0.5236248964 -0.8481688769
14800211200.0 0.5114606201 -0.8558851882
14850210900.0 0.4994710395 -0.8632009568
14900210600.0 0.4861955951 -0.8711986767
14950210300.0 0.4727166873 -0.8787092571
15000210000.0 0.4599088796 -0.8858358387
15050209700.0 0.4478822046 -0.8917844069
15100209400.0 0.4345855212 -0.8977204841
15150209100.0 0.4222958412 -0.9029701679
15200208800.0 0.4096836315 -0.9084356289
15250208500.0 0.3990217966 -0.9132606201
15300208200.0 0.3865854812 -0.9178455569
15350207900.0 0.3744557084 -0.9227391838
15400207600.0 0.3584273377 -0.928147688
15450207300.0 0.3442401068 -0.9326456466
15500207000.0 0.329833175 -0.9378308595
15550206700.0 0.315149798 -0.9423404605
15600206400.0 0.2992201881 -0.9469704408
15650206100.0 0.2828293834 -0.9512909423
15700205800.0 0.2691581626 -0.9549085724
15750205500.0 0.255097206 -0.95871654
15800205200.0 0.2405410534 -0.9620749409
15850204900.0 0.2260931469 -0.9655370621
15900204600.0 0.2111380828 -0.9691284527
15950204300.0 0.1968310598 -0.9720546375
16000204000.0 0.1830281942 -0.9752571269
16050203700.0 0.1678473378 -0.9777863381
16100203400.0 0.1530997305 -0.9796720333
16150203100.0 0.1391047298 -0.9823305038
16200202800.0 0.1243193891 -0.9844771526
16250202500.0 0.1097327774 -0.9860438964
16300202200.0 0.0943981578 -0.9876975452
16350201900.0 0.0791444517 -0.9888523957
16400201600.0 0.0645656978 -0.9904540182
16450201300.0 0.0492856718 -0.9912657204
16500201000.0 0.0327367366 -0.9920607552
16550200700.0 0.017209807 -0.9924636255
16600200400.0 0.0012736204 -0.9928347441
16650200100.0 -0.014703786 -0.9926033263
16700199800.0 -0.0309065649 -0.9922329311
16750199500.0 -0.0493793953 -0.9916774473
16800199200.0 -0.0656235984 -0.990974656
16850198900.0 -0.0810224016 -0.9890778911
16900198600.0 -0.0942724929 -0.9884744038
16950198300.0 -0.1076264138 -0.9877125341
17000198000.0 -0.1208358298 -0.9861553649
17050197700.0 -0.1333516475 -0.9844853193
17100197400.0 -0.1462728597 -0.9825650534
17150197100.0 -0.1588987258 -0.980189407
17200196800.0 -0.1715582674 -0.9782587999
17250196500.0 -0.1843767044 -0.9759348702
17300196200.0 -0.1968442958 -0.9734343157
17350195900.0 -0.2084947003 -0.9712633792
17400195600.0 -0.2207459739 -0.9689631395
17450195300.0 -0.2340119423 -0.9660636082
17500195000.0 -0.2472727651 -0.9627428054
17550194700.0 -0.2612680844 -0.9592577185
17600194400.0 -0.2753293361 -0.9551330253
17650194100.0 -0.2888914021 -0.9511050583
17700193800.0 -0.3019322074 -0.9466763239
17750193500.0 -0.3166036203 -0.9419415875
17800193200.0 -0.3310582259 -0.9368054655
17850192900.0 -0.3460408555 -0.9314147288
17900192600.0 -0.3611655302 -0.9250337027
17950192300.0 -0.3766345058 -0.9184287276
18000192000.0 -0.3914401921 -0.9110655732
18050191700.0 -0.4054083722 -0.9033255604
18100191400.0 -0.4195262816 -0.8956381835
18150191100.0 -0.4346211228 -0.887634516
18200190800.0 -0.4514269281 -0.8784404077
18250190500.0 -0.4687498425 -0.868872991
18300190200.0 -0.4837861987 -0.8605140622
18350189900.0 -0.4988220117 -0.8523018038
18400189600.0 -0.513348082 -0.8439697253
18450189300.0 -0.5271228131 -0.8356082362
18500189000.0 -0.5402356531 -0.8273400637
18550188700.0 -0.5525940646 -0.8197151741
18600188400.0 -0.5641672538 -0.8133330097
18650188100.0 -0.5752918492 -0.8074414627
18700187800.0 -0.5863024086 -0.8005316962
18750187500.0 -0.5969097844 -0.7939823541
18800187200.0 -0.6073172536 -0.7870224383
18850186900.0 -0.61738548 -0.7800968408
18900186600.0 -0.6279251465 -0.7728144318
18950186300.0 -0.6377535552 -0.7650082825
19000186000.0 -0.6446882287 -0.7588377777
19050185700.0 -0.6538708561 -0.7516006551
19100185400.0 -0.6644181337 -0.7436063948
19150185100.0 -0.6743382644 -0.7350163492
19200184800.0 -0.6837482906 -0.7266192469
19250184500.0 -0.6938024977 -0.7182108512
19300184200.0 -0.7055857899 -0.7084764683
19350183900.0 -0.7157071713 -0.6976567693
19400183600.0 -0.7263570141 -0.6886093274
19450183300.0 -0.7347729457 -0.678268
19500183000.0 -0.742581175 -0.6683903023
19550182700.0 -0.7533087882 -0.6576197149
19600182400.0 -0.7626913181 -0.6458541645
19650182100.0 -0.7735202029 -0.6336791217
19700181800.0 -0.7844158297 -0.620322249
19750181500.0 -0.7951110726 -0.606053698
19800181200.0 -0.8057527634 -0.5910147968
19850180900.0 -0.8152778216 -0.5756899738
19900180600.0 -0.8231463462 -0.5613344119
19950180300.0 -0.8323970058 -0.5449341156
20000180000.0 -0.8261245744 -0.5477079164
20050179700.0 -0.833717352 -0.5341185854
20100179400.0 -0.8426994286 -0.5201395631
20150179100.0 -0.8500585538 -0.5075531849
20200178800.0 -0.859299734 -0.4959134777
20250178500.0 -0.868200355 -0.4818784318
20300178200.0 -0.8777537072 -0.4671382895
20350177900.0 -0.8875703669 -0.4532555883
20400177600.0 -0.8964055425 -0.4385368388
20450177300.0 -0.9043927291 -0.4239740521
20500177000.0 -0.9125329436 -0.4104052481
20550176700.0 -0.9206655385 -0.3970024627
20600176400.0 -0.927760523 -0.3838080364
20650176100.0 -0.93428608 -0.3716303471
20700175800.0 -0.9404963584 -0.3595528723
20750175500.0 -0.9469252698 -0.3481809608
20800175200.0 -0.9520053093 -0.3371413259
20850174900.0 -0.9569310201 -0.3259122207
20900174600.0 -0.9603157654 -0.3144283094
20950174300.0 -0.9648404566 -0.3033166882
21000174000.0 -0.9686254556 -0.2915788092
21050173700.0 -0.9708972054 -0.2814397763
21100173400.0 -0.9756394062 -0.2691692626
21150173100.0 -0.9802450263 -0.256909891
21200172800.0 -0.9833648989 -0.2437469475
21250172500.0 -0.9855952499 -0.2300160512
21300172200.0 -0.9886999494 -0.2160533115
21350171900.0 -0.9899550864 -0.201757486
21400171600.0 -0.9923678893 -0.1875296631
21450171300.0 -0.9915190371 -0.1730078008
21500171000.0 -0.9927921916 -0.1580267243
21550170700.0 -0.9926821597 -0.1413949451
21600170400.0 -0.9919346059 -0.1258810792
21650170100.0 -0.9920300967 -0.1105373475
21700169800.0 -0.9911368591 -0.0961028734
21750169500.0 -0.9892043973 -0.0792520719
21800169200.0 -0.9875481661 -0.0626644976
21850168900.0 -0.9870712828 -0.0464206778
21900168600.0 -0.9863754962 -0.0298034984
21950168300.0 -0.9844669924 -0.014190431
22000168000.0 -0.9841663302 0.0008148655
22050167700.0 -0.984222899 0.0153653079
22100167400.0 -0.9843308705 0.0306796367
22150167100.0 -0.9848341491 0.0463776584
22200166800.0 -0.985336906 0.062086861
22250166500.0 -0.9846093807 0.080444646
22300166200.0 -0.9839283444 0.0972670255
22350165900.0 -0.9832159793 0.1132367906
22400165600.0 -0.9807148152 0.1288340594
22450165300.0 -0.9787523518 0.1430959449
22500165000.0 -0.9776932858 0.1578433849
22550164700.0 -0.9762961783 0.1727746539
22600164400.0 -0.9745413249 0.1891001791
22650164100.0 -0.9725936718 0.2029583012
22700163800.0 -0.9689787594 0.2188207741
22750163500.0 -0.9666709326 0.2339631198
22800163200.0 -0.9638439772 0.2471516951
22850162900.0 -0.9616458734 0.2610065211
22900162600.0 -0.9602625445 0.273786324
22950162300.0 -0.9590633742 0.2866978877
23000162000.0 -0.9579391483 0.2984464171
23050161700.0 -0.9559862151 0.3108610768
23100161400.0 -0.9541252718 0.3243132998
23150161100.0 -0.9508254747 0.3363816992
23200160800.0 -0.9481064734 0.348897403
23250160500.0 -0.9453988618 0.3609009501
23300160200.0 -0.9425879173 0.373469864
23350159900.0 -0.9387822506 0.3857334915
23400159600.0 -0.9342541233 0.399720831
23450159300.0 -0.9290828045 0.411957579
23500159000.0 -0.9246690716 0.4250971776
23550158700.0 -0.9201574005 0.4391844713
23600158400.0 -0.9150072825 0.4520054612
23650158100.0 -0.9084554142 0.4664305554
23700157800.0 -0.9008989134 0.4803516188
23750157500.0 -0.8922277348 0.4944111966
23800157200.0 -0.8837907383 0.5074805281
23850156900.0 -0.8746158334 0.5203856959
23900156600.0 -0.8651251906 0.533567056
23950156300.0 -0.856611433 0.5459206733
24000156000.0 -0.8469528874 0.5566939847
24050155700.0 -0.8368989642 0.5693820421
24100155400.0 -0.8274634512 0.5811071926
24150155100.0 -0.8168177068 0.5927676817
24200154800.0 -0.8052569661 0.6043951302
24250154500.0 -0.7941940184 0.6163663288
24300154200.0 -0.7831919125 0.6270432733
24350153900.0 -0.7715088507 0.6384070636
24400153600.0 -0.7592458493 0.6483580945
24450153300.0 -0.7474421716 0.6584082985
24500153000.0 -0.7363047012 0.6678665342
24550152700.0 -0.7252146747 0.6777568506
24600152400.0 -0.7130276031 0.6867080065
24650152100.0 -0.7014516486 0.6953089367
