!Created with skrf (http://scikit-rf.org).
# Hz S RI R 50.0 
!freq ReS11 ImS11
300000.0 -0.9790055382 -0.1082441362
50299700.0 -1.000087395 0.0158596539
100299400.0 -0.9979625517 0.0288198086
150299100.0 -1.002803107 0.0457038207
200298800.0 -0.9996866762 0.0590735117
250298500.0 -0.9974962518 0.0725633287
300298200.0 -0.9859672218 0.0884311421
350297900.0 -0.9938611829 0.0993621072
400297600.0 -0.9933509922 0.1160740701
450297300.0 -0.9910721518 0.1297722865
500297000.0 -0.9894300219 0.1444850242
550296700.0 -0.9845429057 0.1566249788
600296400.0 -1.017432392 0.190377054
650296100.0 -0.9820365779 0.1869472559
700295800.0 -0.9792214455 0.2013147881
750295500.0 -0.9761388016 0.2151510711
800295200.0 -0.9726336135 0.2291931072
850294900.0 -0.969486705 0.2430994975
900294600.0 -0.9657166025 0.2568954599
950294300.0 -0.9620282257 0.2704559032
1000294000.0 -0.9581046456 0.2846080207
1050293700.0 -0.9533283486 0.2983856045
1100293400.0 -0.9491390583 0.3126428745
1150293100.0 -0.9453269654 0.3244961222
1200292800.0 -0.9400898308 0.3389810456
1250292500.0 -0.9345106474 0.3521914833
1300292200.0 -0.9286421593 0.3656570676
1350291900.0 -0.9231270762 0.3796045794
1400291600.0 -0.9177367974 0.3927182641
1450291300.0 -0.9121371307 0.4049428413
1500291000.0 -0.9059459049 0.4182904236
1550290700.0 -0.8993458226 0.4317756072
1600290400.0 -0.8931457102 0.4446109878
1650290100.0 -0.8865327973 0.4567381815
1700289800.0 -0.8796922611 0.4701953682
1750289500.0 -0.8725919601 0.4823763135
1800289200.0 -0.8650298643 0.4953548945
1850288900.0 -0.8584918348 0.5066919642
1900288600.0 -0.8507788063 0.5196146283
1950288300.0 -0.8424391854 0.5322611427
2000288000.0 -0.8351370645 0.5437539962
2050287700.0 -0.8267864154 0.555839643
2100287400.0 -0.8189314266 0.5676479458
2150287100.0 -0.8102449423 0.5798360252
2200286800.0 -0.802522856 0.5899509254
2250286500.0 -0.7937110979 0.60214354
2300286200.0 -0.7847714769 0.6137094586
2350285900.0 -0.7759588845 0.6248700175
2400285600.0 -0.7667818865 0.6356514859
2450285300.0 -0.7583564255 0.6460003532
2500285000.0 -0.7486526984 0.6575110801
2550284700.0 -0.7397467399 0.6679519127
2600284400.0 -0.7302153636 0.677686074
2650284100.0 -0.7209967291 0.6882384312
2700283800.0 -0.7105477119 0.6988176099
2750283500.0 -0.7004483343 0.7097096293
2800283200.0 -0.6905097968 0.7192776185
2850282900.0 -0.680227647 0.7290070769
2900282600.0 -0.67016028 0.7387350647
2950282300.0 -0.6599140624 0.7477711916
3000282000.0 -0.6490855956 0.7574493162
3050281700.0 -0.6378827352 0.7664957594
3100281400.0 -0.6259504566 0.7759981205
3150281100.0 -0.6142355244 0.7853119312
3200280800.0 -0.6025662115 0.7937281007
3250280500.0 -0.5918250482 0.801302417
3300280200.0 -0.5806229407 0.8094391969
3350279900.0 -0.5690320711 0.816826691
3400279600.0 -0.5568452013 0.8244250711
3450279300.0 -0.5460211611 0.8314871337
3500279000.0 -0.5339382133 0.8385701844
3550278700.0 -0.5214979871 0.8460257092
3600278400.0 -0.5092030724 0.8529487018
3650278100.0 -0.4958340189 0.8607205322
3700277800.0 -0.4837332255 0.8674374824
3750277500.0 -0.4715805975 0.8739325167
3800277200.0 -0.459257134 0.8803583663
3850276900.0 -0.4471289393 0.8861950068
3900276600.0 -0.4360628345 0.8920420585
3950276300.0 -0.4235954039 0.8980401773
4000276000.0 -0.4114573889 0.9039164351
4050275700.0 -0.3985905989 0.910069238
4100275400.0 -0.3872201739 0.9154772264
4150275100.0 -0.3745640557 0.9208499669
4200274800.0 -0.3617980896 0.9264133525
4250274500.0 -0.349292515 0.9315712234
4300274200.0 -0.3364626788 0.9368346691
4350273900.0 -0.3227941013 0.9421633805
4400273600.0 -0.3077364018 0.947449502
4450273300.0 -0.2922912144 0.952645515
4500273000.0 -0.2786675465 0.9569581474
4550272700.0 -0.2645379146 0.961238731
4600272400.0 -0.2489694046 0.9653682365
4650272100.0 -0.237335277 0.9685570657
4700271800.0 -0.2240828012 0.9717658869
4750271500.0 -0.2123327793 0.9748194705
4800271200.0 -0.1998218322 0.9773604572
4850270900.0 -0.1859600393 0.9802119864
4900270600.0 -0.172102238 0.9824314312
4950270300.0 -0.15778459 0.9851072685
5000270000.0 -0.1438220222 0.9874424268
5050269700.0 -0.1300798488 0.9888580219
5100269400.0 -0.116536598 0.9906456065
5150269100.0 -0.1034455149 0.9922992279
5200268800.0 -0.0901361489 0.9931363332
5250268500.0 -0.0768431069 0.9939919375
5300268200.0 -0.0639731279 0.994794891
5350267900.0 -0.05165826 0.9951446411
5400267600.0 -0.0355299873 0.9965853555
5450267300.0 -0.0224450838 0.9967479578
5500267000.0 -0.0073048303 0.9971298007
5550266700.0 0.007509939 0.9973417334
5600266400.0 0.0233858066 0.99751716
5650266100.0 0.0398053376 0.9969853155
5700265800.0 0.0541731827 0.9962717672
5750265500.0 0.069337813 0.9955381457
5800265200.0 0.0834316108 0.9942938402
5850264900.0 0.0967845834 0.993223001
5900264600.0 0.1130866363 0.9917702152
5950264300.0 0.125392344 0.9896270791
6000264000.0 0.1395549007 0.9882557137
6050263700.0 0.1520420673 0.9864184154
6100263400.0 0.164173908 0.9846094392
6150263100.0 0.1788784686 0.9822161179
6200262800.0 0.1892613131 0.9804644925
6250262500.0 0.2020971947 0.9780826956
6300262200.0 0.2149854602 0.9753860055
6350261900.0 0.2281272374 0.9722272043
6400261600.0 0.2420041213 0.9690885699
6450261300.0 0.253492807 0.9664589268
6500261000.0 0.2662068861 0.962816775
6550260700.0 0.2788463462 0.9588169353
6600260400.0 0.2925068408 0.9550622785
6650260100.0 0.3062721814 0.9502593206
6700259800.0 0.3184744534 0.9462763641
6750259500.0 0.3320200195 0.9412050709
6800259200.0 0.3450885924 0.9363700646
6850258900.0 0.3573524535 0.9311992989
6900258600.0 0.3693344634 0.9262263384
6950258300.0 0.3820361046 0.9209710403
7000258000.0 0.3936719772 0.9154612015
7050257700.0 0.4059762398 0.9094105004
7100257400.0 0.4187962885 0.9029167963
7150257100.0 0.4291513737 0.8981325324
7200256800.0 0.4417724967 0.8914130137
7250256500.0 0.453406696 0.8850028157
7300256200.0 0.4666672311 0.8783545074
7350255900.0 0.4791200627 0.871488407
7400255600.0 0.4922215878 0.8644224655
7450255300.0 0.507086657 0.8550947043
7500255000.0 0.5186688141 0.8480726829
7550254700.0 0.5330548672 0.8397050669
7600254400.0 0.5456840948 0.8311469487
7650254100.0 0.5573150961 0.8235675851
7700253800.0 0.5690789168 0.815465107
7750253500.0 0.5805183796 0.8076761277
7800253200.0 0.5911450728 0.7999015283
7850252900.0 0.6009320094 0.7928155869
7900252600.0 0.6126873759 0.7840686314
7950252300.0 0.6214416799 0.7775558596
8000252000.0 0.6316924043 0.769717283
8050251700.0 0.6418977519 0.7615417299
8100251400.0 0.6522153786 0.7533034399
8150251100.0 0.6623873259 0.744753228
8200250800.0 0.6717408831 0.7366079504
8250250500.0 0.6807125014 0.7289778749
8300250200.0 0.6900468888 0.720098531
8350249900.0 0.6990035084 0.7115024298
8400249600.0 0.7072637519 0.7032696457
8450249300.0 0.7162096093 0.6940778574
8500249000.0 0.7250468436 0.6851757958
8550248700.0 0.7332404304 0.676406379
8600248400.0 0.7416139369 0.6669263477
8650248100.0 0.7490836863 0.6574175697
8700247800.0 0.7587756799 0.6462253978
8750247500.0 0.7671241867 0.6360790272
8800247200.0 0.775100797 0.6257184516
8850246900.0 0.7839963538 0.6144201381
8900246600.0 0.792237553 0.6030972677
8950246300.0 0.8020069295 0.5901379486
9000246000.0 0.8113489503 0.5772594925
9050245700.0 0.8200826278 0.5644047077
9100245400.0 0.8288421216 0.5518824186
9150245100.0 0.8382070856 0.5381633792
9200244800.0 0.8480465969 0.5227961753
9250244500.0 0.8576938865 0.5071958082
9300244200.0 0.8661380918 0.492472027
9350243900.0 0.8738663166 0.4786050001
9400243600.0 0.8804606678 0.4660663288
9450243300.0 0.886307467 0.4543669954
9500243000.0 0.8925756108 0.4421477348
9550242700.0 0.8963308579 0.434301223
9600242400.0 0.9004003985 0.4270204542
9650242100.0 0.9036900613 0.4205935424
9700241800.0 0.9083895239 0.4122298455
9750241500.0 0.9121923313 0.4048626954
9800241200.0 0.9171923713 0.3954828359
9850240900.0 0.9228478853 0.38374368
9900240600.0 0.928078301 0.3722976856
9950240300.0 0.9349374363 0.3561407051
10000240000.0 0.9396639214 0.3442279209
10050239700.0 0.9451938198 0.3289772802
10100239400.0 0.9499997705 0.3139405493
10150239100.0 0.9544630377 0.2993562692
10200238800.0 0.9582973215 0.2844670096
10250238500.0 0.9619589626 0.2709685589
10300238200.0 0.9650101782 0.2570604888
10350237900.0 0.9676034639 0.2438302134
10400237600.0 0.9700400979 0.2309853205
10450237300.0 0.9725676546 0.2170720543
10500237000.0 0.9750233378 0.2046974013
10550236700.0 0.9770247051 0.1914654745
10600236400.0 0.9793486576 0.1780845602
10650236100.0 0.9811417342 0.1634894019
10700235800.0 0.9834778162 0.1508431588
10750235500.0 0.9857955275 0.1376698131
10800235200.0 0.9878722071 0.1236127625
10850234900.0 0.9894634192 0.1091663563
10900234600.0 0.9918271177 0.0944684012
10950234300.0 0.9932996712 0.0812064321
11000234000.0 0.9952777254 0.0662612125
11050233700.0 0.9969701315 0.049834091
11100233400.0 0.9982285515 0.0324873933
11150233100.0 0.9993699599 0.0161056139
11200232800.0 1.000120598 0.0008918003
11250232500.0 1.001114 -0.015301712
11300232200.0 1.001528177 -0.0334387307
11350231900.0 1.002207276 -0.0494887869
11400231600.0 1.001366268 -0.0644927987
11450231300.0 1.000718712 -0.0807057435
11500231000.0 0.9988829707 -0.0973958879
11550230700.0 0.9981489282 -0.1102813933
11600230400.0 0.9965469965 -0.1229747523
11650230100.0 0.9946359373 -0.1340660222
11700229800.0 0.9927833504 -0.1490404543
11750229500.0 0.9903049096 -0.1633273488
11800229200.0 0.9877047814 -0.1777359179
11850228900.0 0.9839992922 -0.1899984251
11900228600.0 0.9806487535 -0.1998599402
11950228300.0 0.9770757697 -0.2105503385
12000228000.0 0.9742606191 -0.2193840634
12050227700.0 0.9708762265 -0.2321414769
12100227400.0 0.9679843846 -0.2423543033
12150227100.0 0.9632807768 -0.259278064
12200226800.0 0.9595955405 -0.2700711417
12250226500.0 0.9559350356 -0.2831512293
12300226200.0 0.9510159637 -0.295950049
12350225900.0 0.946461327 -0.3094553297
12400225600.0 0.9416549829 -0.3220423653
12450225300.0 0.9374833982 -0.3345564853
12500225000.0 0.9316318911 -0.3494787891
12550224700.0 0.9264957294 -0.3628761586
12600224400.0 0.9218339526 -0.375660275
12650224100.0 0.9161101796 -0.3900811627
12700223800.0 0.910830371 -0.4027903442
12750223500.0 0.905408477 -0.4156281403
12800223200.0 0.9000537471 -0.4281536199
12850222900.0 0.8949770819 -0.4403479152
12900222600.0 0.8891559945 -0.4523422971
12950222300.0 0.8824441571 -0.4656060764
13000222000.0 0.8768288541 -0.4769120082
13050221700.0 0.8699003999 -0.4897785198
13100221400.0 0.863205876 -0.5015221938
13150221100.0 0.8563931463 -0.5133437898
13200220800.0 0.849323721 -0.525460448
13250220500.0 0.8417946377 -0.5373300587
13300220200.0 0.8345921059 -0.5484555934
13350219900.0 0.8263359141 -0.56055362
13400219600.0 0.818021628 -0.5726374377
13450219300.0 0.80823389 -0.5862271605
13500219000.0 0.7979291235 -0.60045316
13550218700.0 0.7880768717 -0.6135915653
13600218400.0 0.7774735138 -0.6253233031
13650218100.0 0.7676187392 -0.6371104724
13700217800.0 0.7574767049 -0.6486530955
13750217500.0 0.7473112503 -0.6600351149
13800217200.0 0.7355281914 -0.6719583463
13850216900.0 0.7239565282 -0.6836905208
13900216600.0 0.7148786243 -0.6924175257
13950216300.0 0.7032330759 -0.7022220342
14000216000.0 0.6943606666 -0.7116321136
14050215700.0 0.684287451 -0.7199056344
14100215400.0 0.6746536598 -0.7292188189
14150215100.0 0.6653509347 -0.7377152965
14200214800.0 0.656098219 -0.7461724094
14250214500.0 0.6458501364 -0.7553294309
14300214200.0 0.6354026635 -0.7647127205
14350213900.0 0.6244262097 -0.7740917898
14400213600.0 0.6125198483 -0.783817233
14450213300.0 0.5997359032 -0.7943144367
14500213000.0 0.5861229202 -0.8040414922
14550212700.0 0.5739911452 -0.8132071829
14600212400.0 0.5616099411 -0.8218892886
14650212100.0 0.5487340305 -0.8307873865
14700211800.0 0.5346323647 -0.8401973626
14750211500.0 0.5220528732 -0.8488701128
14800211200.0 0.5103043756 -0.8566576871
14850210900.0 0.4981840058 -0.8638747505
14900210600.0 0.4848733992 -0.8718413343
14950210300.0 0.4712884442 -0.879665063
15000210000.0 0.4585482812 -0.8862832123
15050209700.0 0.4464338881 -0.8924491617
15100209400.0 0.4333764065 -0.8985664536
15150209100.0 0.4210377979 -0.9034502628
15200208800.0 0.4079976387 -0.9089930862
15250208500.0 0.3964260353 -0.9141042955
15300208200.0 0.3844451647 -0.9187417843
15350207900.0 0.3706749263 -0.9225840532
15400207600.0 0.3560468941 -0.9281068077
15450207300.0 0.3415339242 -0.9336614948
15500207000.0 0.3267431861 -0.9381638573
15550206700.0 0.3122080926 -0.9432327744
15600206400.0 0.2964412766 -0.9478476441
15650206100.0 0.2802007962 -0.9525135571
15700205800.0 0.2663542322 -0.9559419658
15750205500.0 0.2518788563 -0.9593852394
15800205200.0 0.2372786553 -0.9629446808
15850204900.0 0.2231066202 -0.966194816
15900204600.0 0.2082657421 -0.9697649274
15950204300.0 0.1943709335 -0.9724948262
16000204000.0 0.18008022 -0.9751751611
16050203700.0 0.1650701231 -0.9782627699
16100203400.0 0.1506777011 -0.980444024
16150203100.0 0.1370120988 -0.9832135188
16200202800.0 0.1226519422 -0.9848885416
16250202500.0 0.1078508697 -0.9864787755
16300202200.0 0.0926741703 -0.9882702083
16350201900.0 0.0778888173 -0.9892688104
16400201600.0 0.0632066507 -0.9902427973
16450201300.0 0.0482739214 -0.9912756756
16500201000.0 0.0315467062 -0.9919887286
16550200700.0 0.0157945929 -0.9924801747
16600200400.0 2.2637e-05 -0.992770583
16650200100.0 -0.0159648892 -0.992520443
16700199800.0 -0.0325949242 -0.9921379601
16750199500.0 -0.0511812099 -0.991479944
16800199200.0 -0.0674993011 -0.9905621907
16850198900.0 -0.0818880421 -0.989491075
16900198600.0 -0.09624407 -0.9884581544
16950198300.0 -0.109788309 -0.9868981302
17000198000.0 -0.1224211661 -0.9863214412
17050197700.0 -0.1352063755 -0.9840342431
17100197400.0 -0.1489080769 -0.9817882846
17150197100.0 -0.1608044791 -0.979326756
17200196800.0 -0.1735042667 -0.977671846
17250196500.0 -0.1864566552 -0.9752452255
17300196200.0 -0.1987606409 -0.9729234135
17350195900.0 -0.2107692517 -0.9706554147
17400195600.0 -0.2229140693 -0.9681685785
17450195300.0 -0.2359950315 -0.9653309716
17500195000.0 -0.2495262549 -0.9620672935
17550194700.0 -0.2634695193 -0.9584220175
17600194400.0 -0.2772041061 -0.9542481305
17650194100.0 -0.2908046358 -0.9503642622
17700193800.0 -0.3040694994 -0.9457327891
17750193500.0 -0.3184771959 -0.941166598
17800193200.0 -0.3326060673 -0.936021161
17850192900.0 -0.3479539507 -0.9307643887
17900192600.0 -0.3628595736 -0.9249676232
17950192300.0 -0.3781478718 -0.9177924578
18000192000.0 -0.3929990866 -0.9104908003
18050191700.0 -0.4068302835 -0.9027352293
18100191400.0 -0.4210380556 -0.8949676941
18150191100.0 -0.4359446244 -0.8868569197
18200190800.0 -0.4527911886 -0.8777587264
18250190500.0 -0.4697676865 -0.868464658
18300190200.0 -0.4849914707 -0.85920421
18350189900.0 -0.5001386531 -0.8510436309
18400189600.0 -0.5148343015 -0.8425312052
18450189300.0 -0.5278076126 -0.8346913989
18500189000.0 -0.5413326832 -0.8266653745
18550188700.0 -0.5536211907 -0.8191584591
18600188400.0 -0.5657385352 -0.8124033907
18650188100.0 -0.5764575737 -0.8058891246
18700187800.0 -0.5874510806 -0.7992486653
18750187500.0 -0.5981573874 -0.792358216
18800187200.0 -0.6087758439 -0.7853039699
18850186900.0 -0.6190326127 -0.7782080384
18900186600.0 -0.629308725 -0.7709339018
18950186300.0 -0.6398137181 -0.7630151659
19000186000.0 -0.6470062412 -0.7567284678
19050185700.0 -0.656353993 -0.7498396435
19100185400.0 -0.666100237 -0.7408291658
19150185100.0 -0.6762467183 -0.7326088692
19200184800.0 -0.686216558 -0.72427784
19250184500.0 -0.6965720655 -0.7149427348
19300184200.0 -0.7080040505 -0.7056918391
19350183900.0 -0.7186558846 -0.6960506699
19400183600.0 -0.7277894543 -0.6858327587
19450183300.0 -0.7363297905 -0.6754583638
19500183000.0 -0.7451629288 -0.665727659
19550182700.0 -0.7553659396 -0.6549406685
19600182400.0 -0.7653973968 -0.642986658
19650182100.0 -0.7759890341 -0.6308082794
19700181800.0 -0.7865687749 -0.6177823209
19750181500.0 -0.7969369941 -0.6037959434
19800181200.0 -0.8074677423 -0.5887397571
19850180900.0 -0.8169768451 -0.5734927641
19900180600.0 -0.8244721143 -0.5592270899
19950180300.0 -0.8339209608 -0.5426162965
20000180000.0 -0.8274094684 -0.5454368661
20050179700.0 -0.8345754036 -0.5316360056
20100179400.0 -0.8437893683 -0.5182707778
20150179100.0 -0.8512768986 -0.5061191204
20200178800.0 -0.8603478921 -0.4929484086
20250178500.0 -0.8702491066 -0.4797014991
20300178200.0 -0.8798234441 -0.4649841068
20350177900.0 -0.8888032692 -0.4506259766
20400177600.0 -0.8970037847 -0.4356586784
20450177300.0 -0.9053911598 -0.4213027535
20500177000.0 -0.9134954043 -0.4073436217
20550176700.0 -0.9214483833 -0.3938114635
20600176400.0 -0.9284734168 -0.381058603
20650176100.0 -0.93516053 -0.3678785711
20700175800.0 -0.9415327849 -0.3561459559
20750175500.0 -0.9479087508 -0.3437974008
20800175200.0 -0.9534614066 -0.334198684
20850174900.0 -0.9581888322 -0.3215720541
20900174600.0 -0.9621887096 -0.310544751
20950174300.0 -0.9662288707 -0.2993233987
21000174000.0 -0.9703422977 -0.2877518431
21050173700.0 -0.972875584 -0.2766353938
21100173400.0 -0.9770448485 -0.2645647133
21150173100.0 -0.9814239505 -0.2518665587
21200172800.0 -0.9850619052 -0.2378639727
21250172500.0 -0.9879300591 -0.2243230991
21300172200.0 -0.9909520495 -0.2100482627
21350171900.0 -0.9924312404 -0.1955644043
21400171600.0 -0.9936921092 -0.1811465946
21450171300.0 -0.9935258226 -0.1667296022
21500171000.0 -0.9938427843 -0.1511529181
21550170700.0 -0.9926997477 -0.1357539758
21600170400.0 -0.9931739459 -0.1208020052
21650170100.0 -0.9923840472 -0.1055547348
21700169800.0 -0.9900567655 -0.0897066195
21750169500.0 -0.9893715154 -0.0737604595
21800169200.0 -0.9882744442 -0.0572009179
21850168900.0 -0.9863855042 -0.0401168988
21900168600.0 -0.985119557 -0.024345808
21950168300.0 -0.983879772 -0.0086183899
22000168000.0 -0.9826887838 0.0057319884
22050167700.0 -0.9822915456 0.0201874656
22100167400.0 -0.9824772107 0.0353781231
22150167100.0 -0.9831839215 0.050353492
22200166800.0 -0.9834160917 0.0664656584
22250166500.0 -0.9824146417 0.084252546
22300166200.0 -0.9821696751 0.100641331
22350165900.0 -0.9803225485 0.1171730391
22400165600.0 -0.9788297507 0.1326820205
22450165300.0 -0.9773654594 0.1476354111
22500165000.0 -0.975315733 0.1620467866
22550164700.0 -0.9739023779 0.1767877682
22600164400.0 -0.9715429329 0.1921728521
22650164100.0 -0.9699389631 0.2073444994
22700163800.0 -0.9672363261 0.2230374186
22750163500.0 -0.9651448068 0.2382514706
22800163200.0 -0.9623901604 0.2516125274
22850162900.0 -0.9600751176 0.2649450229
22900162600.0 -0.9585502386 0.2783626786
22950162300.0 -0.9576185219 0.290794932
23000162000.0 -0.9564834846 0.3028814281
23050161700.0 -0.95446224 0.3149089827
23100161400.0 -0.9527877141 0.3278842633
23150161100.0 -0.9494055725 0.3401543672
23200160800.0 -0.9467693342 0.3521748397
23250160500.0 -0.9437616908 0.3637236573
23300160200.0 -0.941669878 0.375097233
23350159900.0 -0.9369117228 0.3894963407
23400159600.0 -0.932684857 0.4024772492
23450159300.0 -0.9276000897 0.4150474923
23500159000.0 -0.9235492552 0.4283882068
23550158700.0 -0.9192450283 0.4413962502
23600158400.0 -0.9136200683 0.4546875004
23650158100.0 -0.9075322267 0.4682790007
23700157800.0 -0.8997110039 0.4822198217
23750157500.0 -0.8915402752 0.4961351389
23800157200.0 -0.882705472 0.5096519978
23850156900.0 -0.8739243935 0.5219769317
23900156600.0 -0.8649419775 0.5349269795
23950156300.0 -0.8560072399 0.5470813382
24000156000.0 -0.8463151283 0.5591323601
24050155700.0 -0.8361229521 0.570375518
24100155400.0 -0.8258598565 0.5829039702
24150155100.0 -0.8159392583 0.5941836101
24200154800.0 -0.8038830281 0.6058504809
24250154500.0 -0.7931104038 0.6176964961
24300154200.0 -0.7814284546 0.6288899998
24350153900.0 -0.7698122438 0.6395202125
24400153600.0 -0.7576961198 0.6495327588
24450153300.0 -0.7459198862 0.6594709688
24500153000.0 -0.7337878133 0.6689801035
24550152700.0 -0.7233274905 0.6786984699
24600152400.0 -0.7116118042 0.6869842834
24650152100.0 -0.7007618865 0.6965246055
