!Created with skrf (http://scikit-rf.org).
# Hz S RI R 50.0 
!freq ReS11 ImS11
300000.0 -0.9961966603 -0.0421803668
50299700.0 -0.999358923 0.0162784191
100299400.0 -0.9971813955 0.0288251551
150299100.0 -1.002160145 0.0456316115
200298800.0 -0.9988866216 0.0589773649
250298500.0 -0.9964335706 0.0724424885
300298200.0 -0.98505223 0.0881528831
350297900.0 -0.9928673664 0.0988963747
400297600.0 -0.9921050676 0.1155582921
450297300.0 -0.989914484 0.1291246095
500297000.0 -0.9882665291 0.1439510262
550296700.0 -0.9830150936 0.1560741424
600296400.0 -1.015915558 0.1894659698
650296100.0 -0.9808088179 0.1858291728
700295800.0 -0.9778282047 0.2001862189
750295500.0 -0.9747691321 0.2141981026
800295200.0 -0.9714896047 0.227998296
850294900.0 -0.9680292768 0.2417118268
900294600.0 -0.9644102467 0.2553400395
950294300.0 -0.960555057 0.2690027768
1000294000.0 -0.9568805225 0.2830605116
1050293700.0 -0.9521478455 0.2968020825
1100293400.0 -0.9478702278 0.3110880054
1150293100.0 -0.9443849333 0.3229563617
1200292800.0 -0.9389320513 0.3371521493
1250292500.0 -0.933748306 0.3507146502
1300292200.0 -0.9278473669 0.3638361502
1350291900.0 -0.9226320193 0.3778273918
1400291600.0 -0.9172445383 0.3909394023
1450291300.0 -0.9119615388 0.4031764896
1500291000.0 -0.9055254045 0.4164651855
1550290700.0 -0.8990881149 0.4296539829
1600290400.0 -0.892979498 0.4425543277
1650290100.0 -0.88649774 0.454625471
1700289800.0 -0.8796212572 0.4683414631
1750289500.0 -0.8726488112 0.4805062751
1800289200.0 -0.865465381 0.4932252049
1850288900.0 -0.8588280406 0.5045001056
1900288600.0 -0.8510925214 0.5175645678
1950288300.0 -0.8429776499 0.5299845158
2000288000.0 -0.8354867461 0.5414135982
2050287700.0 -0.8276225053 0.5537880978
2100287400.0 -0.8195543312 0.5651837756
2150287100.0 -0.8108870928 0.5775516516
2200286800.0 -0.8031001322 0.5876936442
2250286500.0 -0.7943489606 0.599854163
2300286200.0 -0.7857097505 0.6113479115
2350285900.0 -0.7768295938 0.6223157364
2400285600.0 -0.7677477544 0.63353442
2450285300.0 -0.7590157485 0.6439886721
2500285000.0 -0.7494704283 0.6549667193
2550284700.0 -0.7403226303 0.6653679727
2600284400.0 -0.7307369701 0.6756632878
2650284100.0 -0.7221290726 0.6859628635
2700283800.0 -0.7117608195 0.6964462756
2750283500.0 -0.7015429222 0.7068492424
2800283200.0 -0.6914493894 0.7164306546
2850282900.0 -0.6813408817 0.7263029583
2900282600.0 -0.6710010141 0.7360938569
2950282300.0 -0.6609091889 0.745138464
3000282000.0 -0.6501104586 0.7546632512
3050281700.0 -0.6390249569 0.7637971455
3100281400.0 -0.6280279745 0.7728829277
3150281100.0 -0.6165406495 0.7819269741
3200280800.0 -0.6049226801 0.7907330076
3250280500.0 -0.5939196401 0.7986806177
3300280200.0 -0.5826775621 0.8070476929
3350279900.0 -0.5716063578 0.8141961167
3400279600.0 -0.5593157125 0.822436791
3450279300.0 -0.5480936956 0.8298225933
3500279000.0 -0.5362718587 0.8371907038
3550278700.0 -0.5241123432 0.8444691768
3600278400.0 -0.5124276138 0.8516253105
3650278100.0 -0.4993301698 0.8593219085
3700277800.0 -0.4873099897 0.8658832694
3750277500.0 -0.4753149369 0.8721569539
3800277200.0 -0.4627796439 0.8789977434
3850276900.0 -0.450484215 0.8854393725
3900276600.0 -0.4391734465 0.8911495476
3950276300.0 -0.4259735185 0.8973517694
4000276000.0 -0.4143117157 0.9031450673
4050275700.0 -0.4007653321 0.9094699985
4100275400.0 -0.3893042027 0.914747996
4150275100.0 -0.3764004205 0.9205369036
4200274800.0 -0.3631009956 0.9260428895
4250274500.0 -0.3507646445 0.9310475376
4300274200.0 -0.3379380034 0.9359715775
4350273900.0 -0.3243953443 0.9411763873
4400273600.0 -0.3105441251 0.9460339563
4450273300.0 -0.2956464651 0.950805008
4500273000.0 -0.2825339955 0.9548880906
4550272700.0 -0.2689850618 0.9590421377
4600272400.0 -0.2534951068 0.9631384533
4650272100.0 -0.2414192536 0.9665074591
4700271800.0 -0.2279487677 0.9697828707
4750271500.0 -0.2154352516 0.9729097904
4800271200.0 -0.2025100043 0.9757011415
4850270900.0 -0.1886738269 0.978586786
4900270600.0 -0.1748466775 0.9809173953
4950270300.0 -0.1614851895 0.9832081773
5000270000.0 -0.1473810185 0.9856993878
5050269700.0 -0.1338939099 0.9872405157
5100269400.0 -0.1201219889 0.9886252809
5150269100.0 -0.106440003 0.9908957774
5200268800.0 -0.0927721063 0.9919268071
5250268500.0 -0.0796387142 0.9928079033
5300268200.0 -0.0660885133 0.9938109061
5350267900.0 -0.0540796815 0.994755592
5400267600.0 -0.0381939905 0.9956480257
5450267300.0 -0.0258024588 0.9959193011
5500267000.0 -0.0111720662 0.996252837
5550266700.0 0.0026358575 0.996367589
5600266400.0 0.0177620996 0.9964522375
5650266100.0 0.0333536792 0.9963267518
5700265800.0 0.0473473826 0.995337595
5750265500.0 0.0620604748 0.9952500586
5800265200.0 0.0760076787 0.9940276299
5850264900.0 0.0893802127 0.9932024563
5900264600.0 0.1053147059 0.9911935192
5950264300.0 0.1174573578 0.9897604283
6000264000.0 0.1314332006 0.9880451409
6050263700.0 0.1443462068 0.9867573786
6100263400.0 0.1574732412 0.9844404717
6150263100.0 0.1726291668 0.9820451901
6200262800.0 0.1834479308 0.9803177163
6250262500.0 0.1965339607 0.9776921514
6300262200.0 0.2094423489 0.9748278718
6350261900.0 0.2224594787 0.9720474113
6400261600.0 0.2367834416 0.9685948762
6450261300.0 0.2484143596 0.9658992082
6500261000.0 0.2610645042 0.9622996283
6550260700.0 0.2745823023 0.9584778317
6600260400.0 0.2876436954 0.9548153477
6650260100.0 0.3012509446 0.9504958458
6700259800.0 0.3134917658 0.9465531957
6750259500.0 0.3266443053 0.9416225615
6800259200.0 0.3402927502 0.9369771118
6850258900.0 0.3521341536 0.9319450867
6900258600.0 0.3648944346 0.9270656501
6950258300.0 0.3774712614 0.9220695078
7000258000.0 0.3895095625 0.9166771772
7050257700.0 0.4015751749 0.9113194945
7100257400.0 0.4150361249 0.9050798391
7150257100.0 0.4256154332 0.8997867977
7200256800.0 0.4384684435 0.8935097654
7250256500.0 0.449829889 0.887587344
7300256200.0 0.4629939115 0.8812458297
7350255900.0 0.4747972576 0.8744672708
7400255600.0 0.4865409566 0.8681906029
7450255300.0 0.5009972302 0.8596933606
7500255000.0 0.5122787919 0.8529573965
7550254700.0 0.5249989826 0.8454792766
7600254400.0 0.537543941 0.8376557673
7650254100.0 0.5488481749 0.8301972996
7700253800.0 0.5609194704 0.8221456376
7750253500.0 0.5720733375 0.8144696834
7800253200.0 0.583244446 0.8060829019
7850252900.0 0.5929490582 0.7991379435
7900252600.0 0.6049808177 0.7902627106
7950252300.0 0.614323429 0.7832121598
8000252000.0 0.6247920603 0.7750719995
8050251700.0 0.6353711851 0.7666710598
8100251400.0 0.6453216333 0.758505498
8150251100.0 0.6558168096 0.7496068846
8200250800.0 0.6657122497 0.741226919
8250250500.0 0.675165687 0.7325838932
8300250200.0 0.6849625505 0.7237406485
8350249900.0 0.6936944071 0.7149590153
8400249600.0 0.70274258 0.706308107
8450249300.0 0.7125741345 0.6969243345
8500249000.0 0.7215688124 0.6875587756
8550248700.0 0.7304702212 0.677941425
8600248400.0 0.739417266 0.6681340334
8650248100.0 0.7471007506 0.6587867623
8700247800.0 0.7565689011 0.6480434244
8750247500.0 0.7651884826 0.6379415708
8800247200.0 0.7733655276 0.6276895724
8850246900.0 0.7817311164 0.6168790079
8900246600.0 0.7903044427 0.6056664479
8950246300.0 0.7991369397 0.5937664923
9000246000.0 0.8077395409 0.5822978707
9050245700.0 0.8160932161 0.5706459458
9100245400.0 0.8244858986 0.558534589
9150245100.0 0.8326402733 0.5462952237
9200244800.0 0.8410810389 0.5337398376
9250244500.0 0.8497721209 0.5199376119
9300244200.0 0.8574280693 0.5071889297
9350243900.0 0.8647534914 0.4940834172
9400243600.0 0.8718803459 0.4815827229
9450243300.0 0.8781007478 0.4700135549
9500243000.0 0.8851744383 0.4568348622
9550242700.0 0.8904631993 0.4461210571
9600242400.0 0.8958259415 0.4356510646
9650242100.0 0.9003437341 0.426670676
9700241800.0 0.9055079031 0.4167407108
9750241500.0 0.9101509028 0.4069542473
9800241200.0 0.9152511877 0.3957467526
9850240900.0 0.9202836741 0.3843130698
9900240600.0 0.9250696435 0.3737576249
9950240300.0 0.9311867796 0.3593557828
10000240000.0 0.9362266779 0.3466194052
10050239700.0 0.9415960244 0.3325522746
10100239400.0 0.9461218095 0.3184511185
10150239100.0 0.9502462008 0.3045471415
10200238800.0 0.95487835 0.2899913797
10250238500.0 0.9587152926 0.2763622944
10300238200.0 0.9622439893 0.262562257
10350237900.0 0.9652061058 0.2495380466
10400237600.0 0.9682944495 0.2364797594
10450237300.0 0.9715244073 0.2223730878
10500237000.0 0.9740711261 0.2099624895
10550236700.0 0.9766384238 0.1958177636
10600236400.0 0.978807902 0.1834212182
10650236100.0 0.9816645965 0.1679698723
10700235800.0 0.9834230571 0.1560372936
10750235500.0 0.9857171606 0.1427874638
10800235200.0 0.9873865047 0.1291948687
10850234900.0 0.9894085449 0.1147355345
10900234600.0 0.9913504101 0.1004530255
10950234300.0 0.9926396444 0.087257935
11000234000.0 0.994140806 0.0732565292
11050233700.0 0.9956451106 0.0587301855
11100233400.0 0.9967937416 0.0426132953
11150233100.0 0.997831025 0.027262118
11200232800.0 0.9982911481 0.0129777273
11250232500.0 0.9988114495 -0.0018684461
11300232200.0 0.9987450043 -0.0180851847
11350231900.0 0.9990471051 -0.0335965183
11400231600.0 0.9988233352 -0.0480633859
11450231300.0 0.9982671674 -0.0621601481
11500231000.0 0.9969176033 -0.078651277
11550230700.0 0.9962585365 -0.0929408542
11600230400.0 0.9947518183 -0.1060753095
11650230100.0 0.9934237454 -0.1182837554
11700229800.0 0.9916736944 -0.1332702176
11750229500.0 0.9890856112 -0.1468662782
11800229200.0 0.9872852213 -0.1609250447
11850228900.0 0.9841329477 -0.1746711164
11900228600.0 0.9811770345 -0.1867947679
11950228300.0 0.9780235613 -0.1992426239
12000228000.0 0.9754326051 -0.2096079802
12050227700.0 0.9720548303 -0.2229987815
12100227400.0 0.9691402563 -0.2340823711
12150227100.0 0.9648100858 -0.250723533
12200226800.0 0.9611528128 -0.2627568884
12250226500.0 0.9571436776 -0.2753511959
12300226200.0 0.9534793756 -0.2883875218
12350225900.0 0.9494693232 -0.3022019799
12400225600.0 0.9450608102 -0.3147483151
12450225300.0 0.9407859225 -0.326655859
12500225000.0 0.9358130709 -0.3413839703
12550224700.0 0.930316688 -0.3554645658
12600224400.0 0.9257139495 -0.3676021644
12650224100.0 0.9198941143 -0.3818978033
12700223800.0 0.914748729 -0.3944656759
12750223500.0 0.9092841356 -0.4074556679
12800223200.0 0.903710911 -0.4204470503
12850222900.0 0.8983204534 -0.4325707448
12900222600.0 0.8925860687 -0.444753419
12950222300.0 0.8858094307 -0.4577569767
13000222000.0 0.8797586979 -0.4692154862
13050221700.0 0.8729616168 -0.4824989295
13100221400.0 0.8660319581 -0.4943409858
13150221100.0 0.8593370603 -0.5068895375
13200220800.0 0.8523670471 -0.5182651221
13250220500.0 0.8448784115 -0.5307429664
13300220200.0 0.8373654841 -0.5418567796
13350219900.0 0.8291391872 -0.5544576787
13400219600.0 0.8215409715 -0.5661445764
13450219300.0 0.8127443857 -0.5785756
13500219000.0 0.803277731 -0.5915215626
13550218700.0 0.794269467 -0.6037028895
13600218400.0 0.7841931071 -0.6160198709
13650218100.0 0.7754094713 -0.6263951788
13700217800.0 0.7642138993 -0.6385515427
13750217500.0 0.7547989504 -0.6503864219
13800217200.0 0.7452240863 -0.6621350755
13850216900.0 0.7345782403 -0.6737180056
13900216600.0 0.7249295536 -0.6833159036
13950216300.0 0.7137042654 -0.6936166796
14000216000.0 0.7045029496 -0.7028067565
14050215700.0 0.6950141473 -0.7118187108
14100215400.0 0.684251666 -0.7220470358
14150215100.0 0.6749487258 -0.7309339522
14200214800.0 0.6652845935 -0.7400962019
14250214500.0 0.654772876 -0.7493801796
14300214200.0 0.6441203665 -0.759092664
14350213900.0 0.6332818279 -0.7682213403
14400213600.0 0.6222968553 -0.7774409422
14450213300.0 0.6101658733 -0.7873921291
14500213000.0 0.597762031 -0.7963434763
14550212700.0 0.5861248646 -0.8055670619
14600212400.0 0.5734305725 -0.8143786519
14650212100.0 0.5613844234 -0.8223474537
14700211800.0 0.5478880799 -0.8311662593
14750211500.0 0.5359444928 -0.8398962865
14800211200.0 0.5229331309 -0.8479621651
14850210900.0 0.5113235279 -0.8556753426
14900210600.0 0.4982109893 -0.8637076909
14950210300.0 0.4852214205 -0.8711461585
15000210000.0 0.4721776714 -0.8780561778
15050209700.0 0.4597649983 -0.8848511598
15100209400.0 0.4463478388 -0.8912492551
15150209100.0 0.4342941141 -0.8970730503
15200208800.0 0.4213039299 -0.9027435771
15250208500.0 0.4088578483 -0.9087909012
15300208200.0 0.3955354998 -0.9142663111
15350207900.0 0.3821561397 -0.9195536532
15400207600.0 0.3684590639 -0.9252036954
15450207300.0 0.3538579724 -0.9302888688
15500207000.0 0.3399812056 -0.9345410272
15550206700.0 0.3254902567 -0.9398701812
15600206400.0 0.3106000606 -0.9451893236
15650206100.0 0.2960952514 -0.949300315
15700205800.0 0.2819381845 -0.9532665901
15750205500.0 0.2675045386 -0.9571112074
15800205200.0 0.2537125861 -0.9607253035
15850204900.0 0.2397094299 -0.9642130292
15900204600.0 0.2247924877 -0.9679280119
15950204300.0 0.2107030461 -0.9711029342
16000204000.0 0.1965128964 -0.9740776868
16050203700.0 0.1820440004 -0.977168478
16100203400.0 0.1682110511 -0.9793886836
16150203100.0 0.1536315636 -0.9819422614
16200202800.0 0.1389549668 -0.9844615084
16250202500.0 0.1244579536 -0.9857367846
16300202200.0 0.1088811497 -0.9879815733
16350201900.0 0.0942083556 -0.9896182617
16400201600.0 0.0797171697 -0.9906807111
16450201300.0 0.0646516988 -0.9916021967
16500201000.0 0.0487280773 -0.9928596634
16550200700.0 0.0333799665 -0.9935004205
16600200400.0 0.0178662865 -0.9941653108
16650200100.0 0.0021917527 -0.9939873142
16700199800.0 -0.0132237595 -0.9942313313
16750199500.0 -0.0306054399 -0.9938842702
16800199200.0 -0.0460207913 -0.9934352939
16850198900.0 -0.0617478905 -0.9922964325
16900198600.0 -0.0763900521 -0.9914607725
16950198300.0 -0.0909297031 -0.9904281195
17000198000.0 -0.1043123417 -0.9888510977
17050197700.0 -0.1181949348 -0.9875912101
17100197400.0 -0.1322211535 -0.985446199
17150197100.0 -0.1455942263 -0.9833523944
17200196800.0 -0.1596242811 -0.9809562594
17250196500.0 -0.173105119 -0.9788845518
17300196200.0 -0.186348869 -0.9763229765
17350195900.0 -0.1995986597 -0.9737021449
17400195600.0 -0.2124334197 -0.9708114536
17450195300.0 -0.2258786453 -0.9680689396
17500195000.0 -0.2393747779 -0.9646720675
17550194700.0 -0.2531938526 -0.961408086
17600194400.0 -0.2670562088 -0.9574759858
17650194100.0 -0.2814367232 -0.9534444055
17700193800.0 -0.2944008649 -0.9493881069
17750193500.0 -0.3083577659 -0.9448539408
17800193200.0 -0.3221459686 -0.9402341756
17850192900.0 -0.3363373021 -0.9350196353
17900192600.0 -0.3510142833 -0.9296278469
17950192300.0 -0.3661297293 -0.9230472328
18000192000.0 -0.3807519395 -0.9167868294
18050191700.0 -0.3948954203 -0.9096995346
18100191400.0 -0.4089901048 -0.9028894861
18150191100.0 -0.4230939612 -0.8958393751
18200190800.0 -0.4384987461 -0.8879944583
18250190500.0 -0.4543636004 -0.8798564042
18300190200.0 -0.4693631295 -0.871864537
18350189900.0 -0.4840857572 -0.8641872223
18400189600.0 -0.4984078172 -0.8561852267
18450189300.0 -0.5119396585 -0.8487445961
18500189000.0 -0.5254913357 -0.8405900505
18550188700.0 -0.5386576592 -0.8323858812
18600188400.0 -0.5508848308 -0.8255327058
18650188100.0 -0.5625169803 -0.8179285786
18700187800.0 -0.5742336725 -0.8105597468
18750187500.0 -0.585537804 -0.8029908797
18800187200.0 -0.5968019616 -0.7951220433
18850186900.0 -0.6078466857 -0.7870606052
18900186600.0 -0.6183403233 -0.7793603817
18950186300.0 -0.6294142461 -0.7706553891
19000186000.0 -0.6382312666 -0.7627416813
19050185700.0 -0.6485680521 -0.7548185292
19100185400.0 -0.6590338148 -0.7460707121
19150185100.0 -0.6690146602 -0.7372165942
19200184800.0 -0.6792002739 -0.7275539535
19250184500.0 -0.6893614189 -0.7190508507
19300184200.0 -0.6996374338 -0.7089513445
19350183900.0 -0.71051474 -0.6989758032
19400183600.0 -0.7197589029 -0.689361728
19450183300.0 -0.7295212922 -0.67863381
19500183000.0 -0.7378800972 -0.668572
19550182700.0 -0.747456705 -0.6578085201
19600182400.0 -0.7567970081 -0.6468228708
19650182100.0 -0.7668457836 -0.6352740828
19700181800.0 -0.7766549975 -0.6226544631
19750181500.0 -0.786384286 -0.6101019647
19800181200.0 -0.7962240315 -0.5967799157
19850180900.0 -0.8058478126 -0.5832718341
19900180600.0 -0.8138257548 -0.5702437278
19950180300.0 -0.8234919327 -0.5553290121
20000180000.0 -0.823985088 -0.5499130787
20050179700.0 -0.8325270797 -0.5373078389
20100179400.0 -0.8412743771 -0.5240987781
20150179100.0 -0.8494707531 -0.5117847734
20200178800.0 -0.8577269121 -0.4997643401
20250178500.0 -0.8651191326 -0.4867018854
20300178200.0 -0.8746704645 -0.4733852149
20350177900.0 -0.8826157533 -0.4600370286
20400177600.0 -0.8905723225 -0.4461027881
20450177300.0 -0.8978602223 -0.4327671069
20500177000.0 -0.9050018021 -0.4192672326
20550176700.0 -0.9118409252 -0.4055872321
20600176400.0 -0.9182320406 -0.3923841753
20650176100.0 -0.9248758434 -0.3801868055
20700175800.0 -0.9310703644 -0.3672555827
20750175500.0 -0.9373262165 -0.3550645396
20800175200.0 -0.9415013915 -0.3429824202
20850174900.0 -0.9464512804 -0.331357874
20900174600.0 -0.9516300659 -0.3185860598
20950174300.0 -0.9556541951 -0.3061976154
21000174000.0 -0.9590642727 -0.2947136869
21050173700.0 -0.9619580491 -0.2817077741
21100173400.0 -0.9659324057 -0.2695027291
21150173100.0 -0.9697675547 -0.2560745725
21200172800.0 -0.9733843206 -0.2426293951
21250172500.0 -0.976944091 -0.2287350531
21300172200.0 -0.9807135555 -0.2152873541
21350171900.0 -0.9824880725 -0.2009730817
21400171600.0 -0.9851107048 -0.1869718217
21450171300.0 -0.9863895686 -0.1727044594
21500171000.0 -0.987879818 -0.1577691253
21550170700.0 -0.9881491622 -0.143266331
21600170400.0 -0.9897335401 -0.1284372099
21650170100.0 -0.9908721395 -0.1125249
21700169800.0 -0.99097369 -0.0965063751
21750169500.0 -0.9906219701 -0.081997807
21800169200.0 -0.9912742858 -0.0661992048
21850168900.0 -0.99035154 -0.050428466
21900168600.0 -0.990418228 -0.035553707
21950168300.0 -0.9892870964 -0.0198326238
22000168000.0 -0.9890796126 -0.0051157349
22050167700.0 -0.9889672673 0.0092150655
22100167400.0 -0.9883222052 0.0243225111
22150167100.0 -0.9887572898 0.0391298004
22200166800.0 -0.9881460198 0.0544889579
22250166500.0 -0.9873076008 0.0711955474
22300166200.0 -0.9866288681 0.0858455288
22350165900.0 -0.9856406697 0.1013954054
22400165600.0 -0.9849483271 0.116674318
22450165300.0 -0.9818951227 0.1312154284
22500165000.0 -0.9802643975 0.1443704606
22550164700.0 -0.9788340462 0.1594998515
22600164400.0 -0.9764010723 0.174789451
22650164100.0 -0.9746247946 0.1884172245
22700163800.0 -0.972200106 0.2025184009
22750163500.0 -0.9691264008 0.2176759996
22800163200.0 -0.966522824 0.2311310883
22850162900.0 -0.9632352745 0.2438719503
22900162600.0 -0.9617740541 0.257362674
22950162300.0 -0.9593203009 0.2708877821
23000162000.0 -0.9570041763 0.2835404029
23050161700.0 -0.9543674276 0.2963906046
23100161400.0 -0.9518568912 0.3093366347
23150161100.0 -0.9486314639 0.3223117317
23200160800.0 -0.945210783 0.3347566111
23250160500.0 -0.9421742036 0.347181194
23300160200.0 -0.9391235693 0.3593539424
23350159900.0 -0.9348234919 0.3724050526
23400159600.0 -0.929706 0.3848489451
23450159300.0 -0.9254674767 0.3976292836
23500159000.0 -0.9204392357 0.4105953842
23550158700.0 -0.9160342133 0.4231536296
23600158400.0 -0.9106889841 0.4355647467
23650158100.0 -0.9046425043 0.4488998096
23700157800.0 -0.8979546688 0.4617001129
23750157500.0 -0.890175986 0.4748329034
23800157200.0 -0.8829633293 0.487804366
23850156900.0 -0.8749709885 0.5002441611
23900156600.0 -0.8662208371 0.5128279947
23950156300.0 -0.8582452243 0.5246421208
24000156000.0 -0.8507509118 0.5371427907
24050155700.0 -0.8418942289 0.5489793689
24100155400.0 -0.8328109397 0.5608304791
24150155100.0 -0.8229395623 0.5721045946
24200154800.0 -0.8140325038 0.5833468647
24250154500.0 -0.803319755 0.5954328272
24300154200.0 -0.7939925704 0.6072183079
24350153900.0 -0.7833989224 0.6183709912
24400153600.0 -0.7724300897 0.6291435421
24450153300.0 -0.7620258583 0.6396284674
24500153000.0 -0.7516167519 0.6497303458
24550152700.0 -0.7411529471 0.6603527825
24600152400.0 -0.7303019005 0.6703915129
24650152100.0 -0.7201510383 0.680086308
