!Created with skrf (http://scikit-rf.org).
# Hz S RI R 50.0 
!freq ReS11 ImS11
300000.0 -0.9774458795 -0.1140596215
50299700.0 -0.9999508262 0.0157184918
100299400.0 -0.9980735032 0.0287878703
150299100.0 -1.002794626 0.0455817013
200298800.0 -0.9997806712 0.0587866531
250298500.0 -0.9975052635 0.0721740892
300298200.0 -0.9860598128 0.0879853545
350297900.0 -0.9941375288 0.0989344629
400297600.0 -0.9932348739 0.1155827406
450297300.0 -0.9913502256 0.129419121
500297000.0 -0.9894027218 0.1442442042
550296700.0 -0.9842773219 0.1565521788
600296400.0 -1.017436 0.1899384256
650296100.0 -0.9822436894 0.1866839775
700295800.0 -0.979472143 0.2009490987
750295500.0 -0.9762296365 0.2148289841
800295200.0 -0.9730382946 0.22913338
850294900.0 -0.9697621738 0.2427495874
900294600.0 -0.965786947 0.2565789149
950294300.0 -0.9619215481 0.2704896036
1000294000.0 -0.9582149083 0.2844135952
1050293700.0 -0.95348095 0.2981299525
1100293400.0 -0.9492028575 0.3124480364
1150293100.0 -0.9455561431 0.3242590164
1200292800.0 -0.939946585 0.3387279378
1250292500.0 -0.9346600828 0.3520238422
1300292200.0 -0.9289043856 0.3653289645
1350291900.0 -0.9233005643 0.3794488516
1400291600.0 -0.9178676095 0.3924727392
1450291300.0 -0.9123186124 0.4048220374
1500291000.0 -0.9060283534 0.4181119444
1550290700.0 -0.8993396478 0.4315869034
1600290400.0 -0.8933511148 0.4446923023
1650290100.0 -0.8866144544 0.4566945596
1700289800.0 -0.8797501009 0.4698104609
1750289500.0 -0.8727656793 0.4825079216
1800289200.0 -0.8655388296 0.4952845494
1850288900.0 -0.8585709579 0.5065067558
1900288600.0 -0.8508037629 0.5194924622
1950288300.0 -0.842724321 0.5321438182
2000288000.0 -0.8350603892 0.5434664475
2050287700.0 -0.8270769613 0.5558959531
2100287400.0 -0.81894509 0.5674192478
2150287100.0 -0.8104937466 0.579604981
2200286800.0 -0.8026872071 0.5899281417
2250286500.0 -0.7937690069 0.6020327207
2300286200.0 -0.7848818101 0.6137414668
2350285900.0 -0.775948016 0.6246356921
2400285600.0 -0.7672447298 0.6354977249
2450285300.0 -0.7584988971 0.6459132083
2500285000.0 -0.7488935627 0.6572431277
2550284700.0 -0.739799997 0.6673726442
2600284400.0 -0.7305732871 0.6777603437
2650284100.0 -0.721629191 0.6881718581
2700283800.0 -0.7108598052 0.6986640886
2750283500.0 -0.7005358656 0.7092902557
2800283200.0 -0.6908346663 0.7191849592
2850282900.0 -0.6806613967 0.7288206951
2900282600.0 -0.6700482009 0.7383328912
2950282300.0 -0.6602531914 0.7477653952
3000282000.0 -0.6494840318 0.7569707542
3050281700.0 -0.6382038712 0.7663648658
3100281400.0 -0.6261677379 0.7759795197
3150281100.0 -0.6143622219 0.7850779016
3200280800.0 -0.6028223667 0.7937458099
3250280500.0 -0.5919576433 0.8013077859
3300280200.0 -0.5808230354 0.8091266334
3350279900.0 -0.5693134418 0.8167279988
3400279600.0 -0.5571721897 0.8242692545
3450279300.0 -0.5461326861 0.8314253122
3500279000.0 -0.534007697 0.8385689727
3550278700.0 -0.5218206347 0.8461588929
3600278400.0 -0.5094629437 0.8530457175
3650278100.0 -0.4958236782 0.8606437791
3700277800.0 -0.4838617369 0.8672041342
3750277500.0 -0.4717743608 0.8736502701
3800277200.0 -0.4592920637 0.8800814226
3850276900.0 -0.447050586 0.8860014036
3900276600.0 -0.4362284271 0.8915379731
3950276300.0 -0.4237227884 0.897834404
4000276000.0 -0.4117775249 0.9036806227
4050275700.0 -0.3988167723 0.909723995
4100275400.0 -0.3875310997 0.9152808124
4150275100.0 -0.3753132578 0.9209736801
4200274800.0 -0.362190882 0.9264377789
4250274500.0 -0.3498579169 0.9314177535
4300274200.0 -0.3369668676 0.936863998
4350273900.0 -0.3230041206 0.9421844975
4400273600.0 -0.3081452277 0.9474378352
4450273300.0 -0.2928189716 0.9523112631
4500273000.0 -0.2790813406 0.9569075492
4550272700.0 -0.2647087256 0.9612544159
4600272400.0 -0.2494513877 0.96533826
4650272100.0 -0.2376655117 0.9685577543
4700271800.0 -0.2244070323 0.9718263369
4750271500.0 -0.2126167492 0.9746768182
4800271200.0 -0.2002494038 0.9774431617
4850270900.0 -0.1863213836 0.9802402931
4900270600.0 -0.1725367135 0.9826532388
4950270300.0 -0.1582608732 0.9853553333
5000270000.0 -0.1439796504 0.9871653227
5050269700.0 -0.130566622 0.9889625157
5100269400.0 -0.1169290035 0.9909601931
5150269100.0 -0.1037279347 0.9923556836
5200268800.0 -0.0904237629 0.9933946028
5250268500.0 -0.0772962248 0.9938821777
5300268200.0 -0.0642591851 0.9947613104
5350267900.0 -0.0521270179 0.9954006797
5400267600.0 -0.0358033161 0.9963947091
5450267300.0 -0.0229266298 0.9965812088
5500267000.0 -0.0074526759 0.9971931516
5550266700.0 0.007516379 0.9973675843
5600266400.0 0.0228572966 0.9972861679
5650266100.0 0.0395620207 0.9969399784
5700265800.0 0.0542641968 0.9963611235
5750265500.0 0.0693637884 0.9957648281
5800265200.0 0.0833778797 0.9945694505
5850264900.0 0.0961942228 0.9932005615
5900264600.0 0.1132760472 0.9914638526
5950264300.0 0.1250785262 0.9898373834
6000264000.0 0.1391290439 0.9882768097
6050263700.0 0.1520385519 0.9870146738
6100263400.0 0.1637221354 0.9847071801
6150263100.0 0.1787196982 0.9826318831
6200262800.0 0.1892054975 0.9806036206
6250262500.0 0.2016758783 0.9783166177
6300262200.0 0.214655822 0.9755079976
6350261900.0 0.2277322859 0.9727129207
6400261600.0 0.2415343287 0.9693837384
6450261300.0 0.2528105255 0.9666160047
6500261000.0 0.2656504314 0.9631484368
6550260700.0 0.2787502617 0.9591939835
6600260400.0 0.2922088279 0.9553063471
6650260100.0 0.3059370667 0.9507050945
6700259800.0 0.3178772694 0.9465917369
6750259500.0 0.3318490246 0.9414495098
6800259200.0 0.3447987843 0.9364295905
6850258900.0 0.3566032437 0.9312989966
6900258600.0 0.3689183315 0.9263166586
6950258300.0 0.38140506 0.9210461524
7000258000.0 0.3935895969 0.9155447593
7050257700.0 0.4056305373 0.9095978525
7100257400.0 0.4183082394 0.9033348714
7150257100.0 0.4287932597 0.8980560069
7200256800.0 0.4415854417 0.8916215384
7250256500.0 0.4534763979 0.8851549716
7300256200.0 0.4666970824 0.87846179
7350255900.0 0.4784163658 0.8713770257
7400255600.0 0.4919341678 0.8646210058
7450255300.0 0.5074909489 0.8554702278
7500255000.0 0.5188983691 0.848160939
7550254700.0 0.5328379438 0.8398127873
7600254400.0 0.5454761206 0.831247011
7650254100.0 0.5568331235 0.8236133834
7700253800.0 0.5690054973 0.8159255586
7750253500.0 0.5804526023 0.807853368
7800253200.0 0.5910051478 0.8000407038
7850252900.0 0.6004368482 0.7929759428
7900252600.0 0.6122853372 0.7842523141
7950252300.0 0.6210985221 0.7777706819
8000252000.0 0.6311957607 0.7700273066
8050251700.0 0.6419243121 0.7618166536
8100251400.0 0.6517716477 0.7537233429
8150251100.0 0.662485475 0.7450702308
8200250800.0 0.6713080392 0.7372291593
8250250500.0 0.6799887933 0.7291857739
8300250200.0 0.689548978 0.7205929192
8350249900.0 0.6984017985 0.7119965738
8400249600.0 0.7067937449 0.7036740361
8450249300.0 0.7160277847 0.6945705022
8500249000.0 0.7245731493 0.6857359977
8550248700.0 0.7328380055 0.6766314544
8600248400.0 0.7411311378 0.667342312
8650248100.0 0.7491597045 0.657868518
8700247800.0 0.7585759442 0.6466661124
8750247500.0 0.7668472662 0.6366129414
8800247200.0 0.7749082565 0.6262797014
8850246900.0 0.7837491465 0.6148631864
8900246600.0 0.7918153567 0.6034664904
8950246300.0 0.8017790865 0.5905766944
9000246000.0 0.8113390371 0.5775811298
9050245700.0 0.8201796215 0.5645963856
9100245400.0 0.8287247244 0.5521839091
9150245100.0 0.8386868544 0.5381064727
9200244800.0 0.8479095338 0.5228845091
9250244500.0 0.857877954 0.5074078303
9300244200.0 0.8659073647 0.4926984401
9350243900.0 0.8736641357 0.4788068051
9400243600.0 0.8802186794 0.4662042341
9450243300.0 0.8863706467 0.4546289552
9500243000.0 0.8925597616 0.4424672383
9550242700.0 0.8963155762 0.434986594
9600242400.0 0.9000552749 0.4275822197
9650242100.0 0.9037046161 0.4211959351
9700241800.0 0.908154554 0.4130035328
9750241500.0 0.9121575777 0.4055081018
9800241200.0 0.9170412615 0.3960014292
9850240900.0 0.9225234428 0.3847503221
9900240600.0 0.9283308682 0.3729192906
9950240300.0 0.9348541653 0.3568048776
10000240000.0 0.93902714 0.3454915845
10050239700.0 0.9450234623 0.3300064236
10100239400.0 0.9501714277 0.3143379974
10150239100.0 0.9542520285 0.2998183934
10200238800.0 0.9584402567 0.284944244
10250238500.0 0.9618169984 0.2715619925
10300238200.0 0.9647462716 0.2576408122
10350237900.0 0.9673750789 0.2446685258
10400237600.0 0.9698254085 0.2315644885
10450237300.0 0.9725448349 0.217871491
10500237000.0 0.974936549 0.2053380863
10550236700.0 0.9773262762 0.1913208695
10600236400.0 0.9791227275 0.1779818169
10650236100.0 0.9810919841 0.163853649
10700235800.0 0.9833391827 0.151101758
10750235500.0 0.9861127035 0.1378353916
10800235200.0 0.9877675669 0.1237580711
10850234900.0 0.9896348539 0.1091280187
10900234600.0 0.9917036849 0.0946097369
10950234300.0 0.9934726971 0.0812765737
11000234000.0 0.9951915562 0.0661922461
11050233700.0 0.9971231663 0.0497338411
11100233400.0 0.9984805299 0.0326115688
11150233100.0 0.9992630491 0.0160925078
11200232800.0 1.000352918 0.0003493344
11250232500.0 1.001429878 -0.0156511298
11300232200.0 1.001516522 -0.0323299182
11350231900.0 1.001701228 -0.048943507
11400231600.0 1.001945323 -0.0646081283
11450231300.0 1.001087681 -0.0806614957
11500231000.0 1.000258842 -0.0968721262
11550230700.0 0.9987118916 -0.1105322023
11600230400.0 0.9969863932 -0.1226713536
11650230100.0 0.9947066775 -0.133880088
11700229800.0 0.9931562802 -0.1494150166
11750229500.0 0.9905361839 -0.1633783392
11800229200.0 0.9877196091 -0.1771142424
11850228900.0 0.9842393453 -0.1896274939
11900228600.0 0.9806718935 -0.1992481963
11950228300.0 0.9774514466 -0.2092233218
12000228000.0 0.9747593811 -0.2182194512
12050227700.0 0.9710414751 -0.23083891
12100227400.0 0.9673924766 -0.2427023284
12150227100.0 0.962946791 -0.2589110134
12200226800.0 0.959413853 -0.2691455459
12250226500.0 0.9556329997 -0.2829013396
12300226200.0 0.9506323826 -0.2941446029
12350225900.0 0.9463070892 -0.3080069065
12400225600.0 0.9424245262 -0.3216590387
12450225300.0 0.937471125 -0.3346733872
12500225000.0 0.9320235782 -0.3492960301
12550224700.0 0.9266886518 -0.3632944703
12600224400.0 0.921874628 -0.3756663476
12650224100.0 0.9160294361 -0.3900522727
12700223800.0 0.9108544619 -0.4027456374
12750223500.0 0.9053713158 -0.4156867646
12800223200.0 0.8998672966 -0.4284493023
12850222900.0 0.8947797876 -0.4405267805
12900222600.0 0.8887437054 -0.4525407719
12950222300.0 0.8831360233 -0.4652934947
13000222000.0 0.8765063467 -0.4769764123
13050221700.0 0.8695888059 -0.4895966434
13100221400.0 0.8630757061 -0.5020059386
13150221100.0 0.8566058908 -0.5134975026
13200220800.0 0.8494766714 -0.525264964
13250220500.0 0.8419614927 -0.5374908047
13300220200.0 0.8347505684 -0.5484949882
13350219900.0 0.8267088353 -0.559978791
13400219600.0 0.8183441223 -0.5725002323
13450219300.0 0.8088323214 -0.5859818621
13500219000.0 0.7981814906 -0.6002675779
13550218700.0 0.7879404657 -0.6129927601
13600218400.0 0.7783335855 -0.6251054956
13650218100.0 0.7676564498 -0.6362893857
13700217800.0 0.7576374783 -0.6486986227
13750217500.0 0.7476492673 -0.6594848112
13800217200.0 0.7363639718 -0.6717751544
13850216900.0 0.7247631698 -0.6833627171
13900216600.0 0.7144356931 -0.6925247915
13950216300.0 0.7041851763 -0.7019749618
14000216000.0 0.6945259075 -0.7111386211
14050215700.0 0.6844918609 -0.7194546788
14100215400.0 0.674752259 -0.7289091171
14150215100.0 0.6654977093 -0.7372771115
14200214800.0 0.656232343 -0.7458345774
14250214500.0 0.6460036737 -0.755199372
14300214200.0 0.6356466859 -0.7645123909
14350213900.0 0.6247992643 -0.7739987238
14400213600.0 0.6129951145 -0.7840470566
14450213300.0 0.5996183117 -0.7943394042
14500213000.0 0.5863745457 -0.804004202
14550212700.0 0.5737187475 -0.8133891785
14600212400.0 0.5618690792 -0.8224384728
14650212100.0 0.5488135837 -0.8309880881
14700211800.0 0.5346802615 -0.8406375983
14750211500.0 0.5223128717 -0.8485186621
14800211200.0 0.5104663833 -0.8561877619
14850210900.0 0.4982986915 -0.86379496
14900210600.0 0.4849801896 -0.8718803943
14950210300.0 0.4716995579 -0.8794170501
15000210000.0 0.4588679306 -0.8863112581
15050209700.0 0.4464752073 -0.892551251
15100209400.0 0.4341112909 -0.8980713613
15150209100.0 0.4215161679 -0.9040218043
15200208800.0 0.4082269014 -0.9094551602
15250208500.0 0.3970337881 -0.9144066675
15300208200.0 0.3850144196 -0.9182159029
15350207900.0 0.3725120045 -0.922868572
15400207600.0 0.3566893503 -0.9284240789
15450207300.0 0.3421566251 -0.9333357124
15500207000.0 0.3281667085 -0.9382429575
15550206700.0 0.3123496691 -0.9433228741
15600206400.0 0.2967775735 -0.9475588178
15650206100.0 0.2806934942 -0.9520621381
15700205800.0 0.2670712636 -0.9555592036
15750205500.0 0.252559743 -0.9591365343
15800205200.0 0.2377877518 -0.9624175318
15850204900.0 0.223468822 -0.9659824776
15900204600.0 0.2084362994 -0.9695031792
15950204300.0 0.194579987 -0.972406047
16000204000.0 0.1802319369 -0.9755661055
16050203700.0 0.1653455896 -0.9779677012
16100203400.0 0.1507895695 -0.9802653078
16150203100.0 0.1366274533 -0.9825288245
16200202800.0 0.1227370716 -0.9845834569
16250202500.0 0.1078463149 -0.9859811909
16300202200.0 0.0924960705 -0.98804366
16350201900.0 0.0776062233 -0.989114589
16400201600.0 0.0630991103 -0.9904211323
16450201300.0 0.0479312041 -0.9912157519
16500201000.0 0.0314700204 -0.9919805036
16550200700.0 0.0157932044 -0.9925707191
16600200400.0 0.0001042276 -0.9927703865
16650200100.0 -0.0162040037 -0.9924319154
16700199800.0 -0.03270442 -0.991962645
16750199500.0 -0.0514804822 -0.9914333871
16800199200.0 -0.0670663323 -0.9905324466
16850198900.0 -0.0821879684 -0.9891819019
16900198600.0 -0.0967884027 -0.9886599164
16950198300.0 -0.1093669416 -0.9876607782
17000198000.0 -0.1228083558 -0.9858865043
17050197700.0 -0.1352766776 -0.9836457954
17100197400.0 -0.1480738222 -0.9820389668
17150197100.0 -0.160770948 -0.980004023
17200196800.0 -0.173641062 -0.9778799518
17250196500.0 -0.1863347275 -0.9756730458
17300196200.0 -0.1984151126 -0.9731262958
17350195900.0 -0.2102761435 -0.9708153778
17400195600.0 -0.222541035 -0.9681561007
17450195300.0 -0.2356764627 -0.9654252847
17500195000.0 -0.2491501656 -0.9622324093
17550194700.0 -0.2631480587 -0.9585655882
17600194400.0 -0.2770019661 -0.9546903467
17650194100.0 -0.2903347294 -0.9504441634
17700193800.0 -0.303652023 -0.9460528916
17750193500.0 -0.3179169791 -0.9417266556
17800193200.0 -0.3327177006 -0.9363386308
17850192900.0 -0.3471937998 -0.9311979199
17900192600.0 -0.3627276689 -0.9247746781
17950192300.0 -0.3783291299 -0.9180576852
18000192000.0 -0.3929478337 -0.9106434543
18050191700.0 -0.4066392189 -0.9027006903
18100191400.0 -0.4209005107 -0.8950036526
18150191100.0 -0.435796914 -0.8868380851
18200190800.0 -0.4529017052 -0.8776755622
18250190500.0 -0.4695980575 -0.8681091286
18300190200.0 -0.485080636 -0.8595322137
18350189900.0 -0.499795359 -0.8510632284
18400189600.0 -0.5141979087 -0.8425927593
18450189300.0 -0.5276565487 -0.8347571289
18500189000.0 -0.541376237 -0.8264466691
18550188700.0 -0.5540854834 -0.8189133015
18600188400.0 -0.56540196 -0.811970785
18650188100.0 -0.5768967453 -0.8060849626
18700187800.0 -0.5869859688 -0.7991049412
18750187500.0 -0.5977986279 -0.7927925674
18800187200.0 -0.6086943961 -0.7856912614
18850186900.0 -0.6188128987 -0.7787261494
18900186600.0 -0.6292778242 -0.7713306514
18950186300.0 -0.6389977379 -0.7638376491
19000186000.0 -0.6462749391 -0.75750299
19050185700.0 -0.6559727554 -0.7499703735
19100185400.0 -0.6656900587 -0.7416667422
19150185100.0 -0.675833035 -0.7334648598
19200184800.0 -0.6858507515 -0.7247491287
19250184500.0 -0.6959338943 -0.7157443689
19300184200.0 -0.7073398664 -0.7058406732
19350183900.0 -0.7182854004 -0.696910012
19400183600.0 -0.7276630015 -0.686336816
19450183300.0 -0.7361331115 -0.6762512146
19500183000.0 -0.7447739073 -0.6668071784
19550182700.0 -0.7546575979 -0.6559705333
19600182400.0 -0.7650630667 -0.6438721642
19650182100.0 -0.7758949819 -0.6316303455
19700181800.0 -0.7862895419 -0.6188066799
19750181500.0 -0.7969608988 -0.6040726894
19800181200.0 -0.8071439442 -0.5893501121
19850180900.0 -0.8170079489 -0.5740648522
19900180600.0 -0.8244727127 -0.5595767383
19950180300.0 -0.8336232122 -0.5430915979
20000180000.0 -0.8266057634 -0.5456954547
20050179700.0 -0.8349513257 -0.5318875378
20100179400.0 -0.8437933014 -0.5188538526
20150179100.0 -0.8511888688 -0.506106468
20200178800.0 -0.860296081 -0.4935273695
20250178500.0 -0.8697413524 -0.4796132375
20300178200.0 -0.879550286 -0.4648078189
20350177900.0 -0.888437212 -0.4504240583
20400177600.0 -0.8973068941 -0.43604993
20450177300.0 -0.9055613209 -0.4217502536
20500177000.0 -0.9134667183 -0.4077926244
20550176700.0 -0.9214600625 -0.3940009855
20600176400.0 -0.9286365 -0.3809243004
20650176100.0 -0.9350772577 -0.3683075636
20700175800.0 -0.941415629 -0.3567157674
20750175500.0 -0.9485626648 -0.3451689699
20800175200.0 -0.9531994896 -0.3350950521
20850174900.0 -0.9584990001 -0.3239527209
20900174600.0 -0.9626373013 -0.3116495352
20950174300.0 -0.9662315267 -0.2999134192
21000174000.0 -0.9702050776 -0.2894129033
21050173700.0 -0.9732023695 -0.2773323399
21100173400.0 -0.9769396972 -0.2658489734
21150173100.0 -0.9813949322 -0.252872611
21200172800.0 -0.9847615971 -0.2395014598
21250172500.0 -0.9877331755 -0.2256326117
21300172200.0 -0.9902639568 -0.2117825707
21350171900.0 -0.9918773806 -0.1970699268
21400171600.0 -0.9931054237 -0.1828587214
21450171300.0 -0.9931167413 -0.1679431269
21500171000.0 -0.9931870823 -0.1535428891
21550170700.0 -0.99279416 -0.1376419006
21600170400.0 -0.9929416729 -0.1210414978
21650170100.0 -0.9926745023 -0.1054857055
21700169800.0 -0.9901969157 -0.0907398473
21750169500.0 -0.9886843959 -0.0751019595
21800169200.0 -0.9882694564 -0.0587858373
21850168900.0 -0.9858338006 -0.0418946471
21900168600.0 -0.9851973484 -0.0258918621
21950168300.0 -0.9842100622 -0.0099694558
22000168000.0 -0.9831507482 0.0048077914
22050167700.0 -0.9825181748 0.018840289
22100167400.0 -0.9827348843 0.0344797289
22150167100.0 -0.9834082678 0.0499889828
22200166800.0 -0.9838533171 0.0659706358
22250166500.0 -0.9832259192 0.0830719206
22300166200.0 -0.9829844895 0.1000350059
22350165900.0 -0.9811630705 0.1161536788
22400165600.0 -0.979601167 0.1321962227
22450165300.0 -0.9776217529 0.147399933
22500165000.0 -0.9750602313 0.1606831969
22550164700.0 -0.9746617514 0.1766810453
22600164400.0 -0.9723110165 0.1919217022
22650164100.0 -0.9702567722 0.2064431643
22700163800.0 -0.968410713 0.2228173604
22750163500.0 -0.9655552438 0.2378461842
22800163200.0 -0.9624646869 0.2507305207
22850162900.0 -0.9601217402 0.2647036328
22900162600.0 -0.9587682885 0.2775786317
22950162300.0 -0.957796017 0.2904305559
23000162000.0 -0.9569328673 0.3025232067
23050161700.0 -0.9544743635 0.3149092912
23100161400.0 -0.9530639666 0.3279655786
23150161100.0 -0.9499129134 0.3398391152
23200160800.0 -0.9477722769 0.3517476918
23250160500.0 -0.944069228 0.3641913266
23300160200.0 -0.9417292295 0.3767674861
23350159900.0 -0.9376680611 0.3892430952
23400159600.0 -0.9328855933 0.4024884018
23450159300.0 -0.9283206025 0.4151750241
23500159000.0 -0.9241169514 0.4285866181
23550158700.0 -0.9193816222 0.4411471169
23600158400.0 -0.9138727038 0.4545533499
23650158100.0 -0.9076619728 0.4688644811
23700157800.0 -0.9002443118 0.4825169757
23750157500.0 -0.8917565518 0.4963943039
23800157200.0 -0.8826194348 0.5097375928
23850156900.0 -0.8737998965 0.5223946565
23900156600.0 -0.8649344153 0.53485881
23950156300.0 -0.8558344862 0.5475061199
24000156000.0 -0.8461201146 0.5593959665
24050155700.0 -0.8360152444 0.5713616844
24100155400.0 -0.8259075013 0.5833516165
24150155100.0 -0.8153460281 0.5953145617
24200154800.0 -0.8037909858 0.606323236
24250154500.0 -0.7924733233 0.6183063461
24300154200.0 -0.7815166908 0.6294395427
24350153900.0 -0.7695478177 0.6398233915
24400153600.0 -0.7574173336 0.6500492325
24450153300.0 -0.7453928586 0.6604776949
24500153000.0 -0.7340668688 0.6694810393
24550152700.0 -0.7229042081 0.6798104411
24600152400.0 -0.7114556712 0.6879120236
24650152100.0 -0.6998417426 0.6967272462
