!Created with skrf (http://scikit-rf.org).
# Hz S RI R 50.0 
!freq ReS11 ImS11
300000.0 -0.9734112274 -0.1221763013
50299700.0 -0.9998834713 0.0149842662
100299400.0 -0.9979718573 0.0279626052
150299100.0 -1.002558446 0.044679958
200298800.0 -0.9995975627 0.0581834033
250298500.0 -0.9973510215 0.0717126282
300298200.0 -0.9858497906 0.087208508
350297900.0 -0.9939614288 0.0982654485
400297600.0 -0.9929766363 0.1147114043
450297300.0 -0.9908046944 0.1288068341
500297000.0 -0.9892845968 0.1433585993
550296700.0 -0.9842650308 0.155724287
600296400.0 -1.017331059 0.1890224764
650296100.0 -0.982271756 0.1855002168
700295800.0 -0.9793115049 0.2000295194
750295500.0 -0.9762930859 0.2138978584
800295200.0 -0.9729163815 0.2281853176
850294900.0 -0.96967303 0.2418519969
900294600.0 -0.9657328891 0.2555936406
950294300.0 -0.9620917786 0.2691462842
1000294000.0 -0.9582475481 0.2833038597
1050293700.0 -0.9535357593 0.2970080369
1100293400.0 -0.9493190921 0.3114354385
1150293100.0 -0.945537803 0.323519595
1200292800.0 -0.940225704 0.3378264003
1250292500.0 -0.9347586676 0.35126874
1300292200.0 -0.9290712836 0.3644367725
1350291900.0 -0.9236245231 0.3785322265
1400291600.0 -0.917891634 0.3915375606
1450291300.0 -0.9125204695 0.4038184606
1500291000.0 -0.9062925241 0.4173261078
1550290700.0 -0.8996534353 0.4306496059
1600290400.0 -0.8934013412 0.4434559058
1650290100.0 -0.886844923 0.4557898079
1700289800.0 -0.8798117162 0.4693152309
1750289500.0 -0.8727652272 0.4815240045
1800289200.0 -0.8655942057 0.494314294
1850288900.0 -0.858656843 0.5057240111
1900288600.0 -0.8510052419 0.5187115229
1950288300.0 -0.8429117416 0.5312795166
2000288000.0 -0.8354578498 0.5429586674
2050287700.0 -0.8271765742 0.5550708261
2100287400.0 -0.8194569237 0.5664389515
2150287100.0 -0.8108354389 0.5784598662
2200286800.0 -0.80306404 0.5892825719
2250286500.0 -0.7940240319 0.6014356016
2300286200.0 -0.7852092591 0.612715024
2350285900.0 -0.7768537427 0.6234975273
2400285600.0 -0.7678436903 0.6342453365
2450285300.0 -0.7590939314 0.6451132132
2500285000.0 -0.7489678383 0.6566836885
2550284700.0 -0.7403484463 0.6668655725
2600284400.0 -0.7310873556 0.6767099074
2650284100.0 -0.7221688862 0.6870466479
2700283800.0 -0.7120857863 0.6976050854
2750283500.0 -0.7015242411 0.7082384523
2800283200.0 -0.6915421558 0.7182434809
2850282900.0 -0.6812151089 0.7281438678
2900282600.0 -0.6708528645 0.7376497328
2950282300.0 -0.6602391209 0.7474161751
3000282000.0 -0.6496630749 0.7568986761
3050281700.0 -0.6382965955 0.7659677322
3100281400.0 -0.6267281089 0.7751237002
3150281100.0 -0.6156193689 0.7838429307
3200280800.0 -0.6041356078 0.7923598085
3250280500.0 -0.5931387319 0.8003631796
3300280200.0 -0.581552387 0.8084797909
3350279900.0 -0.5693150321 0.8165620101
3400279600.0 -0.5565128605 0.824392615
3450279300.0 -0.5457304432 0.8317513778
3500279000.0 -0.5337107154 0.838351003
3550278700.0 -0.5216635852 0.8454575269
3600278400.0 -0.509944192 0.8524353827
3650278100.0 -0.496818778 0.8599281284
3700277800.0 -0.4846657404 0.8664223513
3750277500.0 -0.4723124537 0.8731357618
3800277200.0 -0.4598545094 0.8796321973
3850276900.0 -0.4479000505 0.8854926029
3900276600.0 -0.4371147892 0.8912456416
3950276300.0 -0.4246864998 0.897083597
4000276000.0 -0.413308003 0.9030870332
4050275700.0 -0.4005155628 0.9088563124
4100275400.0 -0.3893968186 0.9147366413
4150275100.0 -0.3760734833 0.9204864862
4200274800.0 -0.3626584967 0.9259684049
4250274500.0 -0.3500702941 0.9315714033
4300274200.0 -0.3367233282 0.936727246
4350273900.0 -0.3226937385 0.9418227629
4400273600.0 -0.3077689184 0.9471074494
4450273300.0 -0.2929117136 0.9518980265
4500273000.0 -0.2797347732 0.9563556569
4550272700.0 -0.2661292031 0.9605550457
4600272400.0 -0.2510017032 0.9647221879
4650272100.0 -0.2397360091 0.9678822309
4700271800.0 -0.2266842033 0.9711732679
4750271500.0 -0.2151034694 0.9740067016
4800271200.0 -0.2029434653 0.97673683
4850270900.0 -0.1890874858 0.9794416532
4900270600.0 -0.1753083464 0.9821278259
4950270300.0 -0.1606992451 0.9845141463
5000270000.0 -0.1462153901 0.9865367762
5050269700.0 -0.1328592596 0.9880742138
5100269400.0 -0.118613703 0.9902073234
5150269100.0 -0.1046785875 0.9916875394
5200268800.0 -0.091420678 0.99255055
5250268500.0 -0.0781860044 0.9937337285
5300268200.0 -0.0645283561 0.9943415186
5350267900.0 -0.0516446338 0.9952593527
5400267600.0 -0.0356698443 0.9963472569
5450267300.0 -0.022219406 0.9963554787
5500267000.0 -0.0067450766 0.9969237492
5550266700.0 0.0082225369 0.9970400142
5600266400.0 0.0239523009 0.9970858154
5650266100.0 0.0404834047 0.9968759572
5700265800.0 0.0547334621 0.9959021289
5750265500.0 0.0695387856 0.9951116383
5800265200.0 0.0828816703 0.9937886298
5850264900.0 0.0961881387 0.9928436192
5900264600.0 0.113320994 0.9919353251
5950264300.0 0.1246675691 0.9897449447
6000264000.0 0.1376633225 0.9879380331
6050263700.0 0.1496364844 0.9865396557
6100263400.0 0.1620057669 0.9850523139
6150263100.0 0.1762972869 0.9823510731
6200262800.0 0.1861285886 0.9810147852
6250262500.0 0.1986853438 0.9787693182
6300262200.0 0.2109223878 0.9761750748
6350261900.0 0.2239613938 0.9734650147
6400261600.0 0.2376991922 0.9702245171
6450261300.0 0.2487895629 0.9676809755
6500261000.0 0.2619545145 0.9640192136
6550260700.0 0.2751100748 0.9601462255
6600260400.0 0.2887738552 0.956139357
6650260100.0 0.3025435203 0.9514122555
6700259800.0 0.3148068483 0.9473791059
6750259500.0 0.3285087099 0.9424559037
6800259200.0 0.3421579705 0.937196985
6850258900.0 0.3543998457 0.9319251428
6900258600.0 0.3668769823 0.9266575134
6950258300.0 0.3796334928 0.9215243855
7000258000.0 0.3913019086 0.9161207727
7050257700.0 0.4030975861 0.9104179223
7100257400.0 0.4166059596 0.9040347465
7150257100.0 0.4272925537 0.8984843475
7200256800.0 0.4403877558 0.8919811843
7250256500.0 0.4532169311 0.885339514
7300256200.0 0.466264191 0.8785555825
7350255900.0 0.4786400928 0.8715605905
7400255600.0 0.4930873668 0.8641199101
7450255300.0 0.5084997014 0.8551494195
7500255000.0 0.5208985495 0.8474185842
7550254700.0 0.534990351 0.8380110927
7600254400.0 0.5480233186 0.8300701527
7650254100.0 0.5594333764 0.8220687385
7700253800.0 0.5710274568 0.8140434774
7750253500.0 0.5820877643 0.8064279208
7800253200.0 0.5925616773 0.7984560084
7850252900.0 0.6022624041 0.7913031544
7900252600.0 0.6136784888 0.7826714999
7950252300.0 0.6222839725 0.7762286259
8000252000.0 0.6321660721 0.7688152514
8050251700.0 0.6426363778 0.7604998619
8100251400.0 0.6524142089 0.7525933135
8150251100.0 0.6624026399 0.744087633
8200250800.0 0.672143085 0.7359529677
8250250500.0 0.6808027453 0.7281447191
8300250200.0 0.6895394899 0.71965726
8350249900.0 0.699093149 0.7107595686
8400249600.0 0.7071426141 0.702872911
8450249300.0 0.7157234972 0.694210084
8500249000.0 0.7245147939 0.6854510291
8550248700.0 0.7327421346 0.6763950409
8600248400.0 0.7410741125 0.6668000179
8650248100.0 0.748581803 0.6573292587
8700247800.0 0.7580410223 0.6461423354
8750247500.0 0.7662999185 0.636219264
8800247200.0 0.7740316699 0.6260605257
8850246900.0 0.7827691179 0.6144214685
8900246600.0 0.7913315387 0.6031087445
8950246300.0 0.8005341273 0.5904336505
9000246000.0 0.8089998736 0.5787215867
9050245700.0 0.8177434643 0.5661195311
9100245400.0 0.8263705569 0.5539556121
9150245100.0 0.8348244351 0.5410871357
9200244800.0 0.844266062 0.5268913712
9250244500.0 0.8531981732 0.5119681022
9300244200.0 0.8615809999 0.4985829457
9350243900.0 0.8689339247 0.4853928404
9400243600.0 0.8756174412 0.4736019303
9450243300.0 0.8809619205 0.4632266616
9500243000.0 0.8875240376 0.451525083
9550242700.0 0.8914292756 0.4439831153
9600242400.0 0.895896962 0.4364228977
9650242100.0 0.8998683837 0.4292529024
9700241800.0 0.9049245619 0.4205732642
9750241500.0 0.909109006 0.4130390261
9800241200.0 0.9141014944 0.4037108698
9850240900.0 0.919805134 0.3918685422
9900240600.0 0.9257803066 0.3801118398
9950240300.0 0.932831124 0.3635874511
10000240000.0 0.9378485616 0.3514737619
10050239700.0 0.9438468527 0.3354344627
10100239400.0 0.9492461535 0.3189176926
10150239100.0 0.9539308419 0.3033197479
10200238800.0 0.9581971753 0.2877218711
10250238500.0 0.9615316185 0.274350411
10300238200.0 0.964609199 0.2604055403
10350237900.0 0.9674609601 0.2470940345
10400237600.0 0.9700316525 0.2335687201
10450237300.0 0.972836302 0.2194801246
10500237000.0 0.9750421115 0.2072332514
10550236700.0 0.9771534942 0.1929049665
10600236400.0 0.979225492 0.1791297603
10650236100.0 0.981481384 0.1645755746
10700235800.0 0.9836386392 0.1519957105
10750235500.0 0.986219693 0.1386962841
10800235200.0 0.9878941606 0.1246728964
10850234900.0 0.9900350729 0.1092969406
10900234600.0 0.9921721678 0.0947132027
10950234300.0 0.9938249977 0.0810933161
11000234000.0 0.9955084483 0.0654415305
11050233700.0 0.9973471655 0.0488403176
11100233400.0 0.9987531199 0.0311436572
11150233100.0 0.9998310654 0.0143537647
11200232800.0 1.000752704 -0.0013369262
11250232500.0 1.002241814 -0.0203136628
11300232200.0 1.002481986 -0.0381430285
11350231900.0 1.002560524 -0.0542932684
11400231600.0 1.001492415 -0.0696823118
11450231300.0 1.001640507 -0.0847952629
11500231000.0 0.9996364979 -0.1012571388
11550230700.0 0.9980409283 -0.1155757183
11600230400.0 0.9966408615 -0.1277849452
11650230100.0 0.9950727208 -0.1395293047
11700229800.0 0.9926995091 -0.1542839011
11750229500.0 0.9904417327 -0.1679393223
11800229200.0 0.9874245097 -0.1819857475
11850228900.0 0.9836870195 -0.1934288999
11900228600.0 0.9798045383 -0.2031954845
11950228300.0 0.9762939745 -0.2134864291
12000228000.0 0.9735321633 -0.2226284281
12050227700.0 0.9696018713 -0.2349216484
12100227400.0 0.9664928476 -0.2460261137
12150227100.0 0.9617161783 -0.2623065329
12200226800.0 0.95818498 -0.2729757993
12250226500.0 0.9540679009 -0.2862255348
12300226200.0 0.9496941994 -0.298044971
12350225900.0 0.9444298228 -0.3117630474
12400225600.0 0.9399133672 -0.3243460538
12450225300.0 0.9358742861 -0.3366923865
12500225000.0 0.9303044867 -0.3515266302
12550224700.0 0.9249064081 -0.3656379862
12600224400.0 0.9201764291 -0.3782756449
12650224100.0 0.914009709 -0.3925532723
12700223800.0 0.908799678 -0.4055448443
12750223500.0 0.9032108479 -0.4186335695
12800223200.0 0.8980733251 -0.4308569132
12850222900.0 0.8926285408 -0.443373935
12900222600.0 0.8870283825 -0.4551142486
12950222300.0 0.8810765732 -0.4677044877
13000222000.0 0.8750198325 -0.4796481513
13050221700.0 0.8682509747 -0.4924066119
13100221400.0 0.8615047964 -0.5046277721
13150221100.0 0.8545816196 -0.5167959376
13200220800.0 0.8476750632 -0.5282196223
13250220500.0 0.8402994231 -0.5408098393
13300220200.0 0.8328680344 -0.5515311137
13350219900.0 0.8248557861 -0.563166985
13400219600.0 0.8163974588 -0.5751743734
13450219300.0 0.8070065286 -0.5881078926
13500219000.0 0.7970960481 -0.6016103027
13550218700.0 0.7878334499 -0.6136552752
13600218400.0 0.7773594617 -0.6256443091
13650218100.0 0.7681866264 -0.636148762
13700217800.0 0.7572237519 -0.6486373047
13750217500.0 0.7479337333 -0.6587819476
13800217200.0 0.7367804599 -0.6697599274
13850216900.0 0.7258296732 -0.6815197167
13900216600.0 0.7155992901 -0.6900935971
13950216300.0 0.7054909718 -0.7008368987
14000216000.0 0.6950858006 -0.7094986212
14050215700.0 0.6860368148 -0.7171166195
14100215400.0 0.6766158455 -0.7265404953
14150215100.0 0.667474436 -0.7350934876
14200214800.0 0.6578651973 -0.744044447
14250214500.0 0.6476396801 -0.7535684109
14300214200.0 0.6371320779 -0.7628112962
14350213900.0 0.625998188 -0.7725490517
14400213600.0 0.6141405277 -0.7822021793
14450213300.0 0.601323226 -0.7930044157
14500213000.0 0.5882490948 -0.8026316344
14550212700.0 0.5757707544 -0.8118588077
14600212400.0 0.5632812839 -0.8203435651
14650212100.0 0.5504653791 -0.829053556
14700211800.0 0.5374343779 -0.8390439454
14750211500.0 0.5246881917 -0.8468631309
14800211200.0 0.5125073885 -0.8551566044
14850210900.0 0.5003060285 -0.8630334178
14900210600.0 0.4867779774 -0.8709050711
14950210300.0 0.4735386855 -0.8785770979
15000210000.0 0.4608506815 -0.8853578695
15050209700.0 0.4488664994 -0.8915237159
15100209400.0 0.4358424406 -0.8973500119
15150209100.0 0.4232367165 -0.9028732349
15200208800.0 0.4103467455 -0.9078899126
15250208500.0 0.4000486173 -0.9126054277
15300208200.0 0.3874641128 -0.9174459223
15350207900.0 0.3747946419 -0.9223227065
15400207600.0 0.3599071716 -0.9278957145
15450207300.0 0.3451886072 -0.9325538026
15500207000.0 0.3301908956 -0.9372697099
15550206700.0 0.3158732652 -0.9423717478
15600206400.0 0.2997163782 -0.9464646394
15650206100.0 0.2835150471 -0.9506667592
15700205800.0 0.2703700316 -0.9543991654
15750205500.0 0.2564026267 -0.9577836406
15800205200.0 0.2424626222 -0.961140239
15850204900.0 0.2282803952 -0.9646147407
15900204600.0 0.2132114238 -0.9683514905
15950204300.0 0.1986600011 -0.9712930972
16000204000.0 0.1844103972 -0.9742555043
16050203700.0 0.1693268468 -0.9773956506
16100203400.0 0.1549333479 -0.9796199613
16150203100.0 0.1394566343 -0.9819735
16200202800.0 0.1255538346 -0.9840596309
16250202500.0 0.1109275149 -0.9860328119
16300202200.0 0.094801447 -0.9876339055
16350201900.0 0.080118411 -0.9890480593
16400201600.0 0.0653647793 -0.9900508196
16450201300.0 0.049976135 -0.9911308476
16500201000.0 0.0327845291 -0.9920528199
16550200700.0 0.0169495325 -0.9925173102
16600200400.0 0.0009853931 -0.9928161649
16650200100.0 -0.0151510478 -0.9924484285
16700199800.0 -0.0318230435 -0.992280734
16750199500.0 -0.0511395307 -0.9914156699
16800199200.0 -0.0664463893 -0.9904851316
16850198900.0 -0.0824654039 -0.9896176206
16900198600.0 -0.0966418022 -0.9889008613
16950198300.0 -0.1104412167 -0.9870908588
17000198000.0 -0.1229217644 -0.9858883391
17050197700.0 -0.1354247327 -0.9839095138
17100197400.0 -0.1488071645 -0.981678308
17150197100.0 -0.1615760021 -0.9799143741
17200196800.0 -0.1741805926 -0.9778136459
17250196500.0 -0.1869338748 -0.9751080671
17300196200.0 -0.1993102935 -0.9731944998
17350195900.0 -0.2111160534 -0.9707625281
17400195600.0 -0.2230084522 -0.9680997287
17450195300.0 -0.2359088935 -0.9653340738
17500195000.0 -0.2493040302 -0.9621056437
17550194700.0 -0.2631015888 -0.9584367964
17600194400.0 -0.2766249512 -0.9545979941
17650194100.0 -0.2901168862 -0.950713976
17700193800.0 -0.303194895 -0.9464440149
17750193500.0 -0.3177542325 -0.9417209364
17800193200.0 -0.3315514463 -0.9366324409
17850192900.0 -0.3462518038 -0.9309587368
17900192600.0 -0.3618694539 -0.9249093547
17950192300.0 -0.3771466114 -0.9176582548
18000192000.0 -0.3919717184 -0.9106087099
18050191700.0 -0.4057925633 -0.9025706389
18100191400.0 -0.4199772278 -0.8950340586
18150191100.0 -0.4347812956 -0.886968047
18200190800.0 -0.4517969931 -0.877941799
18250190500.0 -0.4685786425 -0.8685126935
18300190200.0 -0.4844877014 -0.8595857255
18350189900.0 -0.4994142122 -0.8515316226
18400189600.0 -0.5138947999 -0.8427536625
18450189300.0 -0.527718201 -0.8345835763
18500189000.0 -0.5406326673 -0.826883872
18550188700.0 -0.5536250924 -0.8190885384
18600188400.0 -0.5654148942 -0.8118332865
18650188100.0 -0.5768132744 -0.8056650421
18700187800.0 -0.5881338793 -0.7988935887
18750187500.0 -0.5986472372 -0.792112954
18800187200.0 -0.6092888888 -0.7852670381
18850186900.0 -0.6196273362 -0.7783728259
18900186600.0 -0.6296603734 -0.7708535408
18950186300.0 -0.6399314918 -0.7634165128
19000186000.0 -0.6475944181 -0.7568659248
19050185700.0 -0.6567843403 -0.749866345
19100185400.0 -0.6669747237 -0.741445059
19150185100.0 -0.6770575712 -0.7333651549
19200184800.0 -0.6862914625 -0.7249086531
19250184500.0 -0.6973239165 -0.7153392957
19300184200.0 -0.7076579616 -0.7065057085
19350183900.0 -0.7192048952 -0.6961414477
19400183600.0 -0.7283326755 -0.686635234
19450183300.0 -0.7377841632 -0.6764870894
19500183000.0 -0.7458288609 -0.6667662819
19550182700.0 -0.7554992169 -0.6559629685
19600182400.0 -0.7655158412 -0.6441802457
19650182100.0 -0.7762982191 -0.6319874452
19700181800.0 -0.7863723034 -0.6183595645
19750181500.0 -0.7968503855 -0.6043828628
19800181200.0 -0.8070384649 -0.5895271385
19850180900.0 -0.8165881606 -0.5739448108
19900180600.0 -0.8242981637 -0.5592603689
19950180300.0 -0.8337403768 -0.5433400743
20000180000.0 -0.8227731531 -0.5471073758
20050179700.0 -0.8316268843 -0.5351262808
20100179400.0 -0.8396110192 -0.5211064371
20150179100.0 -0.8471322641 -0.5100907013
20200178800.0 -0.8560282092 -0.497343803
20250178500.0 -0.8658008725 -0.4856841202
20300178200.0 -0.8747410299 -0.4719957216
20350177900.0 -0.884459935 -0.4579927482
20400177600.0 -0.8935909031 -0.4435373491
20450177300.0 -0.9019677414 -0.4291093062
20500177000.0 -0.9100190719 -0.4152784355
20550176700.0 -0.9181661445 -0.4018178641
20600176400.0 -0.9249214973 -0.3887968622
20650176100.0 -0.9309042483 -0.3768909732
20700175800.0 -0.9375099815 -0.3651561082
20750175500.0 -0.9443798784 -0.3527158501
20800175200.0 -0.9492712171 -0.3431050689
20850174900.0 -0.953369528 -0.3317965746
20900174600.0 -0.9580369136 -0.3205699876
20950174300.0 -0.9615016081 -0.3098098405
21000174000.0 -0.9637068431 -0.2989008741
21050173700.0 -0.9656177224 -0.2891713754
21100173400.0 -0.968944239 -0.2786179763
21150173100.0 -0.9733645662 -0.2663026675
21200172800.0 -0.9772940928 -0.2532059665
21250172500.0 -0.9806013892 -0.239743919
21300172200.0 -0.9842616173 -0.2259782209
21350171900.0 -0.9861696862 -0.2115246358
21400171600.0 -0.9879575803 -0.1971826086
21450171300.0 -0.9886868067 -0.1833140716
21500171000.0 -0.9893902887 -0.1669037348
21550170700.0 -0.9904301765 -0.1529437764
21600170400.0 -0.9906370159 -0.1370979446
21650170100.0 -0.9904644324 -0.1214795201
21700169800.0 -0.9899693789 -0.1063060257
21750169500.0 -0.9901185843 -0.0907805132
21800169200.0 -0.9903648136 -0.0728780814
21850168900.0 -0.9899688235 -0.0562293139
21900168600.0 -0.9893210605 -0.0405087988
21950168300.0 -0.9890516273 -0.0251769685
22000168000.0 -0.9888015497 -0.010806704
22050167700.0 -0.9895376093 0.0046581275
22100167400.0 -0.9904013376 0.0201518494
22150167100.0 -0.9909498221 0.0360825616
22200166800.0 -0.9916461448 0.0524668548
22250166500.0 -0.9913378564 0.069917856
22300166200.0 -0.9903342018 0.0865399734
22350165900.0 -0.9897149503 0.1027054508
22400165600.0 -0.9878989526 0.1183537659
22450165300.0 -0.9866471844 0.1334296137
22500165000.0 -0.9848935456 0.1474147992
22550164700.0 -0.9830500471 0.1641216317
22600164400.0 -0.9809983518 0.1800232367
22650164100.0 -0.9785847245 0.1955320845
22700163800.0 -0.9749242836 0.2113664625
22750163500.0 -0.9719581367 0.2266731257
22800163200.0 -0.9692465244 0.2391099385
22850162900.0 -0.9664121754 0.2532339085
22900162600.0 -0.9645125801 0.266813138
22950162300.0 -0.9627333978 0.280752997
23000162000.0 -0.961214704 0.2934111652
23050161700.0 -0.9583054258 0.3065463006
23100161400.0 -0.9557730533 0.3201333567
23150161100.0 -0.9529237045 0.3328714021
23200160800.0 -0.9501854675 0.3460750154
23250160500.0 -0.9468473655 0.3583371883
23300160200.0 -0.9436612768 0.3705932794
23350159900.0 -0.9397524201 0.3846752644
23400159600.0 -0.9355623682 0.3980150512
23450159300.0 -0.9299675338 0.4125201207
23500159000.0 -0.9250314638 0.4259443005
23550158700.0 -0.9205415051 0.440004336
23600158400.0 -0.9138990874 0.4538060535
23650158100.0 -0.907003827 0.4683929901
23700157800.0 -0.8985969702 0.4828360782
23750157500.0 -0.88932214 0.4968736566
23800157200.0 -0.8792694699 0.510783586
23850156900.0 -0.8699073625 0.5236232803
23900156600.0 -0.8599292117 0.5357359751
23950156300.0 -0.8497869012 0.5482289287
24000156000.0 -0.8398957922 0.5614078636
24050155700.0 -0.8305879571 0.5729348919
24100155400.0 -0.820003318 0.5861970367
24150155100.0 -0.8087184772 0.5975015026
24200154800.0 -0.7974645475 0.6091123504
24250154500.0 -0.7866703257 0.6220522748
24300154200.0 -0.7747127959 0.6340561265
24350153900.0 -0.7628089251 0.6447575895
24400153600.0 -0.7504072691 0.6555541537
24450153300.0 -0.7381529652 0.6659807648
24500153000.0 -0.7264990787 0.6759620735
24550152700.0 -0.7153048397 0.6857442761
24600152400.0 -0.7031241332 0.6953085575
24650152100.0 -0.6911419064 0.7041324159
