!Created with skrf (http://scikit-rf.org).
# Hz S RI R 50.0 
!freq ReS11 ImS11
300000.0 -0.9773573336 -0.1117246855
50299700.0 -1.000167061 0.0157927942
100299400.0 -0.9980573996 0.0286511894
150299100.0 -1.002958134 0.0455719187
200298800.0 -0.9997109188 0.0590114398
250298500.0 -0.997522467 0.0726280523
300298200.0 -0.9860242837 0.0882278364
350297900.0 -0.9940777281 0.0992169328
400297600.0 -0.9934060106 0.1157707895
450297300.0 -0.9910773791 0.1295954458
500297000.0 -0.9895233351 0.1443529063
550296700.0 -0.9845284371 0.1566067337
600296400.0 -1.017458685 0.1903420482
650296100.0 -0.9823966622 0.1867599532
700295800.0 -0.9792138873 0.2010229553
750295500.0 -0.9761297136 0.2151538575
800295200.0 -0.9730257803 0.22936774
850294900.0 -0.9695625151 0.2429334573
900294600.0 -0.9657472574 0.2568973916
950294300.0 -0.9618805529 0.2703247716
1000294000.0 -0.9581139614 0.2844928388
1050293700.0 -0.9534483342 0.2982678947
1100293400.0 -0.9492575545 0.3126161963
1150293100.0 -0.9453720204 0.3245352342
1200292800.0 -0.9398312974 0.3388401463
1250292500.0 -0.93453752 0.352263237
1300292200.0 -0.9288021807 0.3653827895
1350291900.0 -0.9232729365 0.3795301143
1400291600.0 -0.917764813 0.3928245783
1450291300.0 -0.9124604216 0.405165386
1500291000.0 -0.9059913532 0.4183160763
1550290700.0 -0.8994324885 0.4315258542
1600290400.0 -0.8934171593 0.4445991869
1650290100.0 -0.8865736741 0.4567831641
1700289800.0 -0.8797679494 0.4701743591
1750289500.0 -0.8726114354 0.4825273137
1800289200.0 -0.8653881728 0.4953900376
1850288900.0 -0.8585574734 0.5066360117
1900288600.0 -0.8506333388 0.5196697005
1950288300.0 -0.8425160543 0.5321678655
2000288000.0 -0.8350803636 0.5435973645
2050287700.0 -0.8269106881 0.5560613584
2100287400.0 -0.8189386142 0.567592283
2150287100.0 -0.8101914556 0.5798146316
2200286800.0 -0.8027240012 0.5901574203
2250286500.0 -0.7937733474 0.6021271097
2300286200.0 -0.7848570468 0.6134311112
2350285900.0 -0.7762317088 0.6246496018
2400285600.0 -0.767011818 0.6356902671
2450285300.0 -0.7585193789 0.6459900435
2500285000.0 -0.7489038775 0.6571549975
2550284700.0 -0.7398868255 0.6675238625
2600284400.0 -0.7303526875 0.6777296991
2650284100.0 -0.721479025 0.6882894603
2700283800.0 -0.710656378 0.6988237435
2750283500.0 -0.7002966828 0.7095179591
2800283200.0 -0.6904314571 0.7190098985
2850282900.0 -0.6804338517 0.7291063745
2900282600.0 -0.670208975 0.7386758302
2950282300.0 -0.6599815472 0.7478980502
3000282000.0 -0.6491446699 0.7572604813
3050281700.0 -0.6380124739 0.7666020364
3100281400.0 -0.6261001419 0.7760104415
3150281100.0 -0.6141829086 0.7853011738
3200280800.0 -0.6027115884 0.7937306949
3250280500.0 -0.5918219451 0.8014013459
3300280200.0 -0.5807499286 0.8092445826
3350279900.0 -0.5692040913 0.8168939688
3400279600.0 -0.5570154645 0.8244616377
3450279300.0 -0.5458656676 0.8315571666
3500279000.0 -0.533771804 0.8384745046
3550278700.0 -0.5213767594 0.8461458851
3600278400.0 -0.509210723 0.8532372227
3650278100.0 -0.4959841276 0.8609372253
3700277800.0 -0.4838334316 0.8672862069
3750277500.0 -0.4716194362 0.8736796633
3800277200.0 -0.4592561426 0.8800484045
3850276900.0 -0.4470432671 0.8861828133
3900276600.0 -0.4362654818 0.8917456071
3950276300.0 -0.4235262516 0.8977745566
4000276000.0 -0.4117048189 0.9038665835
4050275700.0 -0.3987328835 0.9100156708
4100275400.0 -0.3874636512 0.9154694853
4150275100.0 -0.3749438779 0.9208645253
4200274800.0 -0.3619562581 0.9263257553
4250274500.0 -0.3496422809 0.931424378
4300274200.0 -0.3367756663 0.9369606927
4350273900.0 -0.3227341963 0.9423199798
4400273600.0 -0.3078931619 0.947426091
4450273300.0 -0.2925180099 0.9524351851
4500273000.0 -0.2789844197 0.9568065585
4550272700.0 -0.2646131367 0.9610447994
4600272400.0 -0.2491599376 0.9652559837
4650272100.0 -0.2376082011 0.9685622871
4700271800.0 -0.2242908905 0.9719173685
4750271500.0 -0.212528524 0.9747560396
4800271200.0 -0.1999973619 0.9774461581
4850270900.0 -0.1861541882 0.980171501
4900270600.0 -0.172258437 0.9825455203
4950270300.0 -0.1580135478 0.9852144952
5000270000.0 -0.1438978426 0.9874465458
5050269700.0 -0.1301251925 0.9888644876
5100269400.0 -0.1169430918 0.9904364057
5150269100.0 -0.1034889843 0.9923209351
5200268800.0 -0.090268079 0.992899072
5250268500.0 -0.0769347662 0.9945555942
5300268200.0 -0.0639665537 0.9951301509
5350267900.0 -0.0517943151 0.9956806553
5400267600.0 -0.0358646218 0.9964090778
5450267300.0 -0.0226323432 0.9968194063
5500267000.0 -0.0074748275 0.9971788606
5550266700.0 0.0075560158 0.9973706482
5600266400.0 0.0229116711 0.9972208894
5650266100.0 0.0397584033 0.9971988553
5700265800.0 0.0543395602 0.9963052574
5750265500.0 0.0692787881 0.9953498435
5800265200.0 0.0838041792 0.9947374938
5850264900.0 0.0967298531 0.9934846973
5900264600.0 0.1129664973 0.9914102962
5950264300.0 0.1254214921 0.9900382589
6000264000.0 0.1393623262 0.9877514437
6050263700.0 0.151767717 0.9865563013
6100263400.0 0.1643571623 0.9850430087
6150263100.0 0.1788375965 0.9823643386
6200262800.0 0.1893851353 0.9805050502
6250262500.0 0.2018894362 0.9782963861
6300262200.0 0.2148721799 0.9755682402
6350261900.0 0.2277705351 0.9724275789
6400261600.0 0.2417321271 0.9690576847
6450261300.0 0.2530673305 0.9664782902
6500261000.0 0.2656992696 0.9629459813
6550260700.0 0.2788192481 0.9590964629
6600260400.0 0.2924529767 0.954927038
6650260100.0 0.3061001573 0.9506564904
6700259800.0 0.3183442622 0.9462999635
6750259500.0 0.3318437337 0.9410934354
6800259200.0 0.3450758954 0.9362386709
6850258900.0 0.3569935247 0.9312537958
6900258600.0 0.3690699385 0.9261963234
6950258300.0 0.3817026724 0.9210082395
7000258000.0 0.3936272704 0.9155267978
7050257700.0 0.4059572016 0.9095416165
7100257400.0 0.4185966394 0.9032329645
7150257100.0 0.4289086227 0.8978071313
7200256800.0 0.4417679592 0.8913914218
7250256500.0 0.453429341 0.885117937
7300256200.0 0.4665730115 0.8781141298
7350255900.0 0.4786947338 0.8714965453
7400255600.0 0.4922154382 0.8643061576
7450255300.0 0.5075444413 0.8551742132
7500255000.0 0.5193006522 0.8483032468
7550254700.0 0.5328926914 0.8398220695
7600254400.0 0.545810341 0.8311604827
7650254100.0 0.5573950217 0.8232563252
7700253800.0 0.5692805181 0.8154231715
7750253500.0 0.5805511219 0.8079172581
7800253200.0 0.5908102752 0.7998913524
7850252900.0 0.6007151255 0.7929360067
7900252600.0 0.6124184452 0.7841806815
7950252300.0 0.6211893565 0.7775351013
8000252000.0 0.6314680063 0.7696921658
8050251700.0 0.6419774255 0.7615839164
8100251400.0 0.6520942812 0.7533753142
8150251100.0 0.6621275567 0.7449498081
8200250800.0 0.6713351339 0.7367575975
8250250500.0 0.6802347065 0.7288593744
8300250200.0 0.6896649272 0.720271266
8350249900.0 0.6987118162 0.7115198783
8400249600.0 0.7072822358 0.7036442159
8450249300.0 0.7164141862 0.6942127723
8500249000.0 0.7247518121 0.6853856375
8550248700.0 0.7327560628 0.6764521257
8600248400.0 0.7412865743 0.6669491766
8650248100.0 0.748952001 0.6576343985
8700247800.0 0.7586061519 0.6462407136
8750247500.0 0.7669141669 0.6363291061
8800247200.0 0.7749973299 0.6260200992
8850246900.0 0.7841349799 0.6144304629
8900246600.0 0.7923480525 0.6030040039
8950246300.0 0.8020862155 0.5901487891
9000246000.0 0.8114589798 0.5772444576
9050245700.0 0.82049581 0.5640938916
9100245400.0 0.8287936407 0.5516320062
9150245100.0 0.8382857136 0.5383514677
9200244800.0 0.848219915 0.5228755717
9250244500.0 0.8575852225 0.5069473547
9300244200.0 0.8659669065 0.492390522
9350243900.0 0.8740351152 0.4784130047
9400243600.0 0.8804806063 0.4660310317
9450243300.0 0.8863755494 0.4544618318
9500243000.0 0.8924819877 0.4420770444
9550242700.0 0.8962709295 0.4345419428
9600242400.0 0.9002671933 0.4271272452
9650242100.0 0.9037833122 0.4206972944
9700241800.0 0.9084210947 0.4124961347
9750241500.0 0.9123453224 0.4048583105
9800241200.0 0.9169621855 0.3956752417
9850240900.0 0.9224127503 0.3844042785
9900240600.0 0.9284361716 0.3724440441
9950240300.0 0.9348530178 0.3565795533
10000240000.0 0.939598003 0.3445915879
10050239700.0 0.9447703536 0.3296981074
10100239400.0 0.950320463 0.314112813
10150239100.0 0.9545655773 0.2996295519
10200238800.0 0.9583500374 0.2843857898
10250238500.0 0.9619349696 0.2711625396
10300238200.0 0.9649285805 0.2572920556
10350237900.0 0.9676709615 0.2440535201
10400237600.0 0.9700810922 0.231077734
10450237300.0 0.9725616466 0.2175833274
10500237000.0 0.9747246904 0.2055617642
10550236700.0 0.9769653867 0.1915273926
10600236400.0 0.9792455805 0.1777241072
10650236100.0 0.981153712 0.1632694112
10700235800.0 0.9839632176 0.1509987547
10750235500.0 0.9858254067 0.137253474
10800235200.0 0.9877722835 0.1240339153
10850234900.0 0.9898324638 0.1091055181
10900234600.0 0.9918586976 0.0946317069
10950234300.0 0.9934090542 0.0811922641
11000234000.0 0.9952643448 0.0660764877
11050233700.0 0.9970969154 0.0495349455
11100233400.0 0.9984150276 0.0318960096
11150233100.0 0.9993636372 0.0161735091
11200232800.0 1.000154212 0.0007977485
11250232500.0 1.001708289 -0.0162633607
11300232200.0 1.001836441 -0.034335433
11350231900.0 1.001670125 -0.0496657627
11400231600.0 1.001608234 -0.064374968
11450231300.0 1.000966773 -0.0810760845
11500231000.0 0.9998281447 -0.0967290366
11550230700.0 0.9981759028 -0.1102059165
11600230400.0 0.9973663425 -0.1235713747
11650230100.0 0.9948933803 -0.1345660553
11700229800.0 0.9930680781 -0.1496833132
11750229500.0 0.9904963338 -0.1635090064
11800229200.0 0.9878573215 -0.1775087016
11850228900.0 0.9841930904 -0.1898623184
11900228600.0 0.9806422364 -0.1994450977
11950228300.0 0.977444604 -0.2097770849
12000228000.0 0.9747775298 -0.2189411977
12050227700.0 0.9708170642 -0.2321403152
12100227400.0 0.9680184686 -0.2432369082
12150227100.0 0.9636501283 -0.2589328595
12200226800.0 0.9590641935 -0.2702875175
12250226500.0 0.9553134645 -0.282833068
12300226200.0 0.9515006395 -0.2942375879
12350225900.0 0.9463762704 -0.309494653
12400225600.0 0.9421849281 -0.3210939541
12450225300.0 0.9375387571 -0.3347197158
12500225000.0 0.9322694121 -0.3493002785
12550224700.0 0.9265588762 -0.3628738872
12600224400.0 0.9219648042 -0.3759536003
12650224100.0 0.9159799077 -0.390235364
12700223800.0 0.9108533224 -0.4028286803
12750223500.0 0.9053966855 -0.4157748269
12800223200.0 0.8998227779 -0.428538543
12850222900.0 0.8947524973 -0.4408400689
12900222600.0 0.8891335105 -0.4526083162
12950222300.0 0.8825994029 -0.465424366
13000222000.0 0.8765897192 -0.4771728956
13050221700.0 0.8700645783 -0.4897038815
13100221400.0 0.863146282 -0.5014958569
13150221100.0 0.8566689505 -0.5138995164
13200220800.0 0.8494442947 -0.5254589972
13250220500.0 0.8419314635 -0.5375365681
13300220200.0 0.8344101023 -0.5484468198
13350219900.0 0.8264929413 -0.5604489829
13400219600.0 0.8179315632 -0.5726978492
13450219300.0 0.8086402425 -0.5864085022
13500219000.0 0.7984520386 -0.6001454056
13550218700.0 0.7882654937 -0.6132651492
13600218400.0 0.7773521057 -0.6256425451
13650218100.0 0.7684352347 -0.6365824978
13700217800.0 0.757263599 -0.6490766517
13750217500.0 0.7472287223 -0.6597935012
13800217200.0 0.7351897421 -0.6727389564
13850216900.0 0.7239137218 -0.6835904806
13900216600.0 0.7145911905 -0.6923679735
13950216300.0 0.7041812655 -0.7024678086
14000216000.0 0.694215288 -0.7117826281
14050215700.0 0.6844794079 -0.719774097
14100215400.0 0.6745183452 -0.729158141
14150215100.0 0.6655393897 -0.7376634266
14200214800.0 0.6560330092 -0.7461172228
14250214500.0 0.645987441 -0.7554561968
14300214200.0 0.635455039 -0.7646134025
14350213900.0 0.6244107188 -0.7741617047
14400213600.0 0.6126959631 -0.7837611442
14450213300.0 0.5995597545 -0.7942732832
14500213000.0 0.5860783894 -0.8039005426
14550212700.0 0.573734641 -0.8129871238
14600212400.0 0.5614499298 -0.8218611578
14650212100.0 0.5480847233 -0.8311722345
14700211800.0 0.5343503073 -0.8409076677
14750211500.0 0.5225305068 -0.8486390138
14800211200.0 0.5101100188 -0.8565140361
14850210900.0 0.4980930706 -0.8640733484
14900210600.0 0.4848084468 -0.8718888703
14950210300.0 0.4714580016 -0.8797397568
15000210000.0 0.4586605245 -0.8863253809
15050209700.0 0.4459556892 -0.8927677915
15100209400.0 0.4333125452 -0.8985993302
15150209100.0 0.4212570986 -0.9039520279
15200208800.0 0.4078626289 -0.909864371
15250208500.0 0.3963027851 -0.9138397966
15300208200.0 0.384160493 -0.9184355896
15350207900.0 0.3718808106 -0.9224318529
15400207600.0 0.3564258149 -0.928949743
15450207300.0 0.3416182434 -0.9337014153
15500207000.0 0.3284954013 -0.9383762907
15550206700.0 0.3121027732 -0.9435016997
15600206400.0 0.2957904867 -0.947936125
15650206100.0 0.2809971615 -0.9522068136
15700205800.0 0.2666097692 -0.9559979761
15750205500.0 0.2522579127 -0.9590864447
15800205200.0 0.2378124152 -0.96286294
15850204900.0 0.2233896553 -0.966157808
15900204600.0 0.2081359034 -0.969623937
15950204300.0 0.1941356859 -0.9725801856
16000204000.0 0.1801587086 -0.9753923454
16050203700.0 0.1653502452 -0.978232724
16100203400.0 0.1511097295 -0.9806004366
16150203100.0 0.1364006629 -0.9824814057
16200202800.0 0.1225764287 -0.984700888
16250202500.0 0.1080979296 -0.9862761214
16300202200.0 0.0926663307 -0.987707474
16350201900.0 0.0771696252 -0.9892227474
16400201600.0 0.0631975772 -0.9901947471
16450201300.0 0.0476237548 -0.9914550346
16500201000.0 0.0311935377 -0.9921157526
16550200700.0 0.0157210155 -0.9926454804
16600200400.0 -0.0002411929 -0.9927172501
16650200100.0 -0.0167204422 -0.9926034347
16700199800.0 -0.0328102028 -0.9919517083
16750199500.0 -0.0515201035 -0.9914191949
16800199200.0 -0.0673815165 -0.9905151706
16850198900.0 -0.0826113005 -0.9893823325
16900198600.0 -0.0967065905 -0.9882738845
16950198300.0 -0.1100223446 -0.9874211434
17000198000.0 -0.1227599024 -0.9858802586
17050197700.0 -0.1353826697 -0.9838364339
17100197400.0 -0.1482847431 -0.9820355052
17150197100.0 -0.1609628732 -0.9798557846
17200196800.0 -0.1737096112 -0.9777350695
17250196500.0 -0.1866582385 -0.9752047275
17300196200.0 -0.1987972781 -0.9730743585
17350195900.0 -0.210803951 -0.9707876354
17400195600.0 -0.22291963 -0.9682812007
17450195300.0 -0.2361176454 -0.9655118461
17500195000.0 -0.2494998378 -0.9622317109
17550194700.0 -0.263150241 -0.9583857865
17600194400.0 -0.2775075553 -0.9544566268
17650194100.0 -0.2910399177 -0.9505806023
17700193800.0 -0.3037809903 -0.9462688296
17750193500.0 -0.3184264904 -0.9417215553
17800193200.0 -0.3328451325 -0.9364248198
17850192900.0 -0.3479065697 -0.9310838293
17900192600.0 -0.362835071 -0.9249446368
17950192300.0 -0.3785403886 -0.917691571
18000192000.0 -0.3933549815 -0.9106732045
18050191700.0 -0.4070146404 -0.9024966103
18100191400.0 -0.4212022704 -0.8947303005
18150191100.0 -0.4362084463 -0.8868649809
18200190800.0 -0.4531504948 -0.8775591785
18250190500.0 -0.4701115563 -0.8680338205
18300190200.0 -0.4854524268 -0.859295361
18350189900.0 -0.500286529 -0.8507827087
18400189600.0 -0.5146625825 -0.8425681121
18450189300.0 -0.5279141944 -0.8342639855
18500189000.0 -0.5413561502 -0.8267053895
18550188700.0 -0.5545390565 -0.8189630555
18600188400.0 -0.5659162209 -0.8122215644
18650188100.0 -0.5768934256 -0.8058381479
18700187800.0 -0.5876595509 -0.7990575989
18750187500.0 -0.5984760668 -0.7925052641
18800187200.0 -0.6088551229 -0.785420417
18850186900.0 -0.6191607404 -0.7784969996
18900186600.0 -0.6297529108 -0.7710251816
18950186300.0 -0.639419089 -0.7633638413
19000186000.0 -0.646454907 -0.7572999861
19050185700.0 -0.6561519224 -0.7493544729
19100185400.0 -0.666347704 -0.7417227341
19150185100.0 -0.6763208163 -0.7330061565
19200184800.0 -0.6856019283 -0.7247227543
19250184500.0 -0.6957838894 -0.7157577072
19300184200.0 -0.7079333461 -0.7065204142
19350183900.0 -0.7182930821 -0.6958579575
19400183600.0 -0.728527259 -0.685750441
19450183300.0 -0.7362276306 -0.6762183726
19500183000.0 -0.7453954316 -0.6663723199
19550182700.0 -0.7549655104 -0.6546599894
19600182400.0 -0.7654798862 -0.6435627743
19650182100.0 -0.7759468236 -0.6310869317
19700181800.0 -0.7865173807 -0.6179252565
19750181500.0 -0.797086806 -0.6040089429
19800181200.0 -0.8075633626 -0.5890316609
19850180900.0 -0.8170095632 -0.5735444608
19900180600.0 -0.8249003383 -0.5593079766
19950180300.0 -0.8341452491 -0.5425547176
20000180000.0 -0.8268165132 -0.5453621458
20050179700.0 -0.8352185257 -0.5321889626
20100179400.0 -0.8430808601 -0.5187999634
20150179100.0 -0.8515118569 -0.5065523953
20200178800.0 -0.8603129123 -0.4934805756
20250178500.0 -0.8698661602 -0.4795330113
20300178200.0 -0.8790602479 -0.4648361795
20350177900.0 -0.8889126728 -0.4505107223
20400177600.0 -0.8970376072 -0.4363860184
20450177300.0 -0.9056040707 -0.4217411957
20500177000.0 -0.9137351081 -0.4078530999
20550176700.0 -0.9213569611 -0.3939343171
20600176400.0 -0.9286342901 -0.3809989283
20650176100.0 -0.9353266815 -0.3691899232
20700175800.0 -0.9419549167 -0.3568428535
20750175500.0 -0.9485141198 -0.3446850145
20800175200.0 -0.9526570714 -0.3344636178
20850174900.0 -0.9579588232 -0.3223997389
20900174600.0 -0.9623478835 -0.3119260509
20950174300.0 -0.9667302265 -0.2996849187
21000174000.0 -0.9692632784 -0.2880694234
21050173700.0 -0.9722936727 -0.2775065677
21100173400.0 -0.9773286051 -0.2651127763
21150173100.0 -0.9815431414 -0.2530546459
21200172800.0 -0.9844972462 -0.2388179304
21250172500.0 -0.9880599458 -0.2248014617
21300172200.0 -0.9908265136 -0.211072193
21350171900.0 -0.9918793004 -0.1965536267
21400171600.0 -0.9938891292 -0.182101617
21450171300.0 -0.9935602019 -0.1677737769
21500171000.0 -0.9937196338 -0.1525073455
21550170700.0 -0.9924954629 -0.1370950009
21600170400.0 -0.9938677986 -0.1217055633
21650170100.0 -0.9918067707 -0.1053674239
21700169800.0 -0.9903665557 -0.0905939848
21750169500.0 -0.9892027461 -0.075042372
21800169200.0 -0.9882097733 -0.0582704628
21850168900.0 -0.9868244211 -0.0421122396
21900168600.0 -0.9854334586 -0.0268300004
21950168300.0 -0.9842527736 -0.0097275274
22000168000.0 -0.9829661896 0.0051431309
22050167700.0 -0.9829273946 0.0192941185
22100167400.0 -0.982870743 0.0345435147
22150167100.0 -0.9836352073 0.0494012047
22200166800.0 -0.9839898085 0.0657538566
22250166500.0 -0.9834541354 0.0837778623
22300166200.0 -0.9825723599 0.100299822
22350165900.0 -0.9807786112 0.116423155
22400165600.0 -0.9794148301 0.1319703691
22450165300.0 -0.9771737426 0.1470619432
22500165000.0 -0.9752698783 0.1612348818
22550164700.0 -0.974612959 0.1763952966
22600164400.0 -0.9727774848 0.1915201352
22650164100.0 -0.9707685638 0.2063237817
22700163800.0 -0.9677452638 0.2232220663
22750163500.0 -0.9652322958 0.2379423261
22800163200.0 -0.962279549 0.2509960637
22850162900.0 -0.9602964023 0.2644582716
22900162600.0 -0.9589126166 0.2780121055
22950162300.0 -0.9576836836 0.2904956025
23000162000.0 -0.9564929857 0.3023558533
23050161700.0 -0.9540661159 0.3150290596
23100161400.0 -0.9524908088 0.3282533912
23150161100.0 -0.9498125546 0.3402742275
23200160800.0 -0.9467230971 0.3524031676
23250160500.0 -0.9443638275 0.3645441377
23300160200.0 -0.9421524166 0.375317633
23350159900.0 -0.9381944235 0.3890945398
23400159600.0 -0.9330280228 0.401911186
23450159300.0 -0.9280481237 0.4151091097
23500159000.0 -0.9237718689 0.4278228712
23550158700.0 -0.9190656971 0.4414860662
23600158400.0 -0.9142219636 0.4545679994
23650158100.0 -0.9074462167 0.4687290932
23700157800.0 -0.9001301579 0.4825217499
23750157500.0 -0.8916698094 0.496418382
23800157200.0 -0.8824400142 0.5095099264
23850156900.0 -0.873816253 0.5227158026
23900156600.0 -0.8646155422 0.5347055359
23950156300.0 -0.8554284066 0.5468859834
24000156000.0 -0.8468314055 0.5593336025
24050155700.0 -0.8361431387 0.5707341212
24100155400.0 -0.8262420197 0.583019069
24150155100.0 -0.8152170229 0.5950974079
24200154800.0 -0.8045771426 0.6059240823
24250154500.0 -0.7933643434 0.61777072
24300154200.0 -0.7815100258 0.6292054515
24350153900.0 -0.7696012202 0.6399502785
24400153600.0 -0.7574464912 0.6498759707
24450153300.0 -0.74575992 0.6600393879
24500153000.0 -0.73440948 0.6693037883
24550152700.0 -0.7226320115 0.6792372976
24600152400.0 -0.7108907398 0.6877184477
24650152100.0 -0.699140257 0.6964259698
