!Created with skrf (http://scikit-rf.org).
# Hz S RI R 50.0 
!freq ReS11 ImS11
300000.0 -0.9794838655 -0.1080144531
50299700.0 -0.9999973426 0.0160494777
100299400.0 -0.998130963 0.0289809481
150299100.0 -1.002898736 0.0458841179
200298800.0 -0.9995172917 0.0590650812
250298500.0 -0.9973803213 0.0726377885
300298200.0 -0.9861188013 0.088450375
350297900.0 -0.9941488197 0.0992420558
400297600.0 -0.993275958 0.1159085865
450297300.0 -0.9911497007 0.1297315137
500297000.0 -0.9897120535 0.1444733782
550296700.0 -0.9843905079 0.1568935166
600296400.0 -1.017255454 0.190402864
650296100.0 -0.9823594626 0.1869491042
700295800.0 -0.9791939315 0.2011012566
750295500.0 -0.9761956303 0.2151887223
800295200.0 -0.9729640273 0.2292865505
850294900.0 -0.9695057996 0.243081238
900294600.0 -0.9656113392 0.2569796623
950294300.0 -0.9618768605 0.2707024508
1000294000.0 -0.9579509024 0.2844912081
1050293700.0 -0.9532292886 0.2983778192
1100293400.0 -0.949044516 0.3128747692
1150293100.0 -0.9452778703 0.3245133652
1200292800.0 -0.9399355113 0.3391051438
1250292500.0 -0.934490166 0.3524582644
1300292200.0 -0.9287420721 0.3655863856
1350291900.0 -0.9231709202 0.3797097285
1400291600.0 -0.9175614663 0.3926300697
1450291300.0 -0.9121606247 0.405073117
1500291000.0 -0.9058615885 0.4184750931
1550290700.0 -0.8992552548 0.4318447382
1600290400.0 -0.8931401404 0.4446062843
1650290100.0 -0.8864210824 0.4568220306
1700289800.0 -0.8797579659 0.4701673702
1750289500.0 -0.8726039981 0.4826230027
1800289200.0 -0.8651239143 0.4954952022
1850288900.0 -0.8583063378 0.5069205081
1900288600.0 -0.8505985591 0.5196977222
1950288300.0 -0.8424263213 0.5323157785
2000288000.0 -0.8350137009 0.5436959077
2050287700.0 -0.8270021643 0.5560782519
2100287400.0 -0.8189241674 0.5676796588
2150287100.0 -0.8101051502 0.579826406
2200286800.0 -0.8026114493 0.5900273608
2250286500.0 -0.7936125404 0.6021533631
2300286200.0 -0.7846261445 0.6139626319
2350285900.0 -0.775835688 0.624825452
2400285600.0 -0.7667880725 0.6358185775
2450285300.0 -0.7583073067 0.6464181214
2500285000.0 -0.7485943264 0.6573620679
2550284700.0 -0.7395290977 0.6679084961
2600284400.0 -0.7301225112 0.6778904709
2650284100.0 -0.7207917916 0.6884016494
2700283800.0 -0.7104739304 0.6989827533
2750283500.0 -0.700504675 0.709684686
2800283200.0 -0.6904348992 0.7191707646
2850282900.0 -0.6802485781 0.7291947841
2900282600.0 -0.6698888969 0.7385774822
2950282300.0 -0.65967921 0.7479596733
3000282000.0 -0.6489505441 0.7571922022
3050281700.0 -0.6379576472 0.7667093838
3100281400.0 -0.626075373 0.7760861289
3150281100.0 -0.6140767171 0.7852497049
3200280800.0 -0.6026159614 0.7938879254
3250280500.0 -0.5917790289 0.8013968296
3300280200.0 -0.5805247351 0.8093587765
3350279900.0 -0.5691374518 0.816998845
3400279600.0 -0.5571229544 0.8245924713
3450279300.0 -0.5459690333 0.8316320017
3500279000.0 -0.5337659745 0.8387560807
3550278700.0 -0.5213828747 0.8460727769
3600278400.0 -0.5092868762 0.8532794844
3650278100.0 -0.495994374 0.8611184499
3700277800.0 -0.4836901031 0.867250276
3750277500.0 -0.4715128214 0.8737419365
3800277200.0 -0.4589500579 0.8803153605
3850276900.0 -0.446803617 0.8861488448
3900276600.0 -0.4358874401 0.8920119305
3950276300.0 -0.4235103987 0.8977801321
4000276000.0 -0.4115447515 0.9040878449
4050275700.0 -0.3983182119 0.9098990197
4100275400.0 -0.3870709725 0.9155698536
4150275100.0 -0.3747916406 0.9209314217
4200274800.0 -0.3615189244 0.9266574562
4250274500.0 -0.3492522935 0.9315776455
4300274200.0 -0.3363408842 0.9367812919
4350273900.0 -0.3224724965 0.9419790809
4400273600.0 -0.3076433739 0.9475077803
4450273300.0 -0.2922063537 0.9525046864
4500273000.0 -0.278718273 0.9570516413
4550272700.0 -0.2643868299 0.9611977149
4600272400.0 -0.2488260342 0.9653370738
4650272100.0 -0.2371866384 0.968642849
4700271800.0 -0.2238863815 0.9717271511
4750271500.0 -0.2121225161 0.9747970301
4800271200.0 -0.1996933407 0.9774943605
4850270900.0 -0.1857563396 0.9800384003
4900270600.0 -0.1719600613 0.9827168834
4950270300.0 -0.1576717024 0.9851333858
5000270000.0 -0.1435821859 0.9871880521
5050269700.0 -0.1300936571 0.9888899809
5100269400.0 -0.1165457846 0.9905387882
5150269100.0 -0.103177111 0.9919278868
5200268800.0 -0.0898701399 0.9933644029
5250268500.0 -0.0767400012 0.9943445321
5300268200.0 -0.0637799429 0.9951312679
5350267900.0 -0.0515703556 0.9954726561
5400267600.0 -0.0354363545 0.9964426726
5450267300.0 -0.0223533917 0.9968635843
5500267000.0 -0.0072733533 0.9969153646
5550266700.0 0.0077730645 0.9972360126
5600266400.0 0.0234024314 0.9973163665
5650266100.0 0.039636766 0.9968598041
5700265800.0 0.054249738 0.9960563003
5750265500.0 0.0694654448 0.9952199889
5800265200.0 0.0832059776 0.9938115922
5850264900.0 0.0971238161 0.9932520564
5900264600.0 0.1132778296 0.9915145011
5950264300.0 0.1255348955 0.9897542108
6000264000.0 0.1395148316 0.9881510443
6050263700.0 0.152182353 0.9867518741
6100263400.0 0.1644941613 0.9847643328
6150263100.0 0.1792672961 0.9823320133
6200262800.0 0.1895867972 0.9803677886
6250262500.0 0.2023459419 0.9779756365
6300262200.0 0.215307423 0.9752610129
6350261900.0 0.228312631 0.9721205528
6400261600.0 0.2422847822 0.9688621532
6450261300.0 0.2534595841 0.9663051336
6500261000.0 0.2659977329 0.9627598132
6550260700.0 0.2795242436 0.9590278673
6600260400.0 0.2922632664 0.9546511926
6650260100.0 0.3065863707 0.9506279888
6700259800.0 0.3178789028 0.9457989729
6750259500.0 0.3326059697 0.9410949205
6800259200.0 0.3454750636 0.9363192997
6850258900.0 0.3571317178 0.931173227
6900258600.0 0.3691943872 0.926097936
6950258300.0 0.3818400533 0.9208656595
7000258000.0 0.3937815487 0.9154154124
7050257700.0 0.4062599349 0.9091612299
7100257400.0 0.4188310685 0.9030415186
7150257100.0 0.4293162119 0.8977503455
7200256800.0 0.4420087075 0.8914147098
7250256500.0 0.4533751907 0.8850263531
7300256200.0 0.4667120419 0.878354099
7350255900.0 0.4792690259 0.871094522
7400255600.0 0.4922681671 0.8641170623
7450255300.0 0.507407921 0.855246599
7500255000.0 0.5191349258 0.8482339513
7550254700.0 0.532992159 0.8396567252
7600254400.0 0.5459221099 0.8314724146
7650254100.0 0.5574326496 0.8235793392
7700253800.0 0.5693520716 0.8154757405
7750253500.0 0.5806507413 0.8076861859
7800253200.0 0.5910862004 0.7998916081
7850252900.0 0.6009094894 0.7928561133
7900252600.0 0.6125950912 0.7838373405
7950252300.0 0.6212814669 0.7775326634
8000252000.0 0.6315299862 0.7696293331
8050251700.0 0.6418799612 0.7613771902
8100251400.0 0.6524438141 0.7533011436
8150251100.0 0.6624135881 0.7444139904
8200250800.0 0.6716193093 0.7365622093
8250250500.0 0.6806320746 0.7285560104
8300250200.0 0.6898929517 0.7198142879
8350249900.0 0.6991353155 0.7110695061
8400249600.0 0.7073632105 0.7029933906
8450249300.0 0.7163986845 0.6938504628
8500249000.0 0.7251540729 0.6851081808
8550248700.0 0.7332947779 0.6761270538
8600248400.0 0.7416725238 0.6664626635
8650248100.0 0.749526352 0.6571130726
8700247800.0 0.7589415802 0.6459296983
8750247500.0 0.7672909617 0.6359162768
8800247200.0 0.7753218436 0.6254397825
8850246900.0 0.7840312238 0.6141046403
8900246600.0 0.7924591618 0.6027782271
8950246300.0 0.8018434413 0.5899618793
9000246000.0 0.8114074953 0.5771861924
9050245700.0 0.8206378031 0.5641159844
9100245400.0 0.8290631389 0.5516019694
9150245100.0 0.8386421411 0.538145824
9200244800.0 0.8481295096 0.5228422583
9250244500.0 0.8576244637 0.5073920202
9300244200.0 0.8662925196 0.4926025499
9350243900.0 0.8737465736 0.4787170777
9400243600.0 0.8805237426 0.4661933462
9450243300.0 0.8861855534 0.4546532112
9500243000.0 0.8923425666 0.4421035752
9550242700.0 0.8964848237 0.4342607304
9600242400.0 0.9002252645 0.4267638346
9650242100.0 0.9039637801 0.4202932973
9700241800.0 0.908453038 0.4120888988
9750241500.0 0.9122400107 0.4046509406
9800241200.0 0.9169256456 0.3955127133
9850240900.0 0.9225461674 0.3836199283
9900240600.0 0.9282666629 0.3719644533
9950240300.0 0.9345948641 0.3560984824
10000240000.0 0.9395186433 0.3442576962
10050239700.0 0.9446988972 0.3291790751
10100239400.0 0.9498885193 0.3138478901
10150239100.0 0.9544670143 0.2990524342
10200238800.0 0.9585705363 0.2839878802
10250238500.0 0.9618183667 0.2707942418
10300238200.0 0.9648685147 0.2568215191
10350237900.0 0.967515285 0.2438204746
10400237600.0 0.9700474981 0.230414899
10450237300.0 0.9727094518 0.2172063852
10500237000.0 0.9752294456 0.2045427845
10550236700.0 0.9770339821 0.1911786146
10600236400.0 0.9794676535 0.1769898036
10650236100.0 0.9815029736 0.1635305045
10700235800.0 0.9833649789 0.1506723697
10750235500.0 0.9859379398 0.1371383492
10800235200.0 0.9880549095 0.1232153345
10850234900.0 0.9895450138 0.1089701224
10900234600.0 0.9916275272 0.094323262
10950234300.0 0.9935591709 0.0810458974
11000234000.0 0.9952141586 0.0658900686
11050233700.0 0.9970078391 0.0497171399
11100233400.0 0.9983512898 0.0319592412
11150233100.0 0.9994113123 0.0160965743
11200232800.0 1.000280515 0.0002368074
11250232500.0 1.001280252 -0.0153200457
11300232200.0 1.001897618 -0.0329161595
11350231900.0 1.001499865 -0.0497438385
11400231600.0 1.001338027 -0.065090598
11450231300.0 1.000873964 -0.0808401965
11500231000.0 0.9993506268 -0.0968518975
11550230700.0 0.9978938386 -0.1109295437
11600230400.0 0.9963908436 -0.1234644676
11650230100.0 0.9944934647 -0.1348027534
11700229800.0 0.9924714165 -0.1494657924
11750229500.0 0.9901100163 -0.1638165182
11800229200.0 0.9874455021 -0.1779248412
11850228900.0 0.9839507535 -0.1904722831
11900228600.0 0.9804057116 -0.2003963265
11950228300.0 0.9770672291 -0.2105381678
12000228000.0 0.9746310096 -0.2191349872
12050227700.0 0.9702288393 -0.2331553822
12100227400.0 0.9673776702 -0.243832322
12150227100.0 0.9623942536 -0.2600723018
12200226800.0 0.958542845 -0.2713400173
12250226500.0 0.9549887484 -0.2841766054
12300226200.0 0.9506615388 -0.2957095338
12350225900.0 0.9459428089 -0.3098777556
12400225600.0 0.9416308548 -0.3224314818
12450225300.0 0.9369839566 -0.3354520158
12500225000.0 0.9316043555 -0.3500940126
12550224700.0 0.9264243023 -0.3636343946
12600224400.0 0.9216392866 -0.3761608262
12650224100.0 0.9158542246 -0.3904308073
12700223800.0 0.9106606524 -0.4030983347
12750223500.0 0.9051438053 -0.4161347601
12800223200.0 0.8996885668 -0.4286591908
12850222900.0 0.8943322189 -0.4410044743
12900222600.0 0.8887669989 -0.4527894744
12950222300.0 0.8822010821 -0.4660038233
13000222000.0 0.8768477464 -0.4763682903
13050221700.0 0.8695651008 -0.4894053788
13100221400.0 0.8625229297 -0.5020122935
13150221100.0 0.8562365457 -0.5139475277
13200220800.0 0.8490774613 -0.5256919586
13250220500.0 0.8413568348 -0.5378649748
13300220200.0 0.834122739 -0.5487004609
13350219900.0 0.826151373 -0.5610310145
13400219600.0 0.8175885341 -0.5733105031
13450219300.0 0.8079245227 -0.586897993
13500219000.0 0.797604736 -0.6007429705
13550218700.0 0.7872006502 -0.6137458589
13600218400.0 0.777193499 -0.6260648195
13650218100.0 0.7678044309 -0.6364463328
13700217800.0 0.7567630621 -0.6493921887
13750217500.0 0.7464029512 -0.6609643173
13800217200.0 0.7358735266 -0.6726017247
13850216900.0 0.7239940558 -0.6842147184
13900216600.0 0.7141642354 -0.693289784
13950216300.0 0.7032355329 -0.7030222058
14000216000.0 0.6933044219 -0.7125605472
14050215700.0 0.683910252 -0.7203001189
14100215400.0 0.6744031757 -0.7293331332
14150215100.0 0.6650939255 -0.7379798887
14200214800.0 0.6557167419 -0.7465365481
14250214500.0 0.6456036681 -0.7556825811
14300214200.0 0.6352349522 -0.7648911692
14350213900.0 0.6242493071 -0.7743158316
14400213600.0 0.6123884057 -0.7840856721
14450213300.0 0.5996689857 -0.7942564679
14500213000.0 0.5862724561 -0.8033633583
14550212700.0 0.5736970402 -0.8136292118
14600212400.0 0.5616446843 -0.8222626796
14650212100.0 0.5487761048 -0.8307724649
14700211800.0 0.5340914011 -0.8407358323
14750211500.0 0.5223275019 -0.8487630785
14800211200.0 0.5101941591 -0.8567054193
14850210900.0 0.4978044498 -0.8639572353
14900210600.0 0.4845958453 -0.8719991639
14950210300.0 0.471051457 -0.8795816871
15000210000.0 0.4581456824 -0.8866357874
15050209700.0 0.4454181657 -0.8925533936
15100209400.0 0.4327382547 -0.8986745111
15150209100.0 0.4207807014 -0.903834117
15200208800.0 0.4075507931 -0.9088955259
15250208500.0 0.396004536 -0.914294088
15300208200.0 0.3841349735 -0.9187547809
15350207900.0 0.3709715121 -0.9235511656
15400207600.0 0.3554869345 -0.92897597
15450207300.0 0.3413133194 -0.9340692885
15500207000.0 0.32629787 -0.9381168622
15550206700.0 0.3117076336 -0.9435299403
15600206400.0 0.2956224111 -0.9479836491
15650206100.0 0.2798774927 -0.9521170109
15700205800.0 0.2663455663 -0.9558294939
15750205500.0 0.2516187376 -0.9592594473
15800205200.0 0.2372075734 -0.9628363123
15850204900.0 0.2226625675 -0.9661863413
15900204600.0 0.207932981 -0.9698052612
15950204300.0 0.1937486471 -0.972703866
16000204000.0 0.1797926063 -0.975497143
16050203700.0 0.1650230033 -0.9779386401
16100203400.0 0.1507075491 -0.9801267174
16150203100.0 0.1362478712 -0.9827756894
16200202800.0 0.1223759191 -0.9849223694
16250202500.0 0.1081108119 -0.9862317276
16300202200.0 0.0925725451 -0.9875375238
16350201900.0 0.077857675 -0.9889671607
16400201600.0 0.0634154604 -0.9904715735
16450201300.0 0.0478911122 -0.9911587952
16500201000.0 0.0315144841 -0.9920371366
16550200700.0 0.015844518 -0.9925184602
16600200400.0 -0.0001573256 -0.9925735166
16650200100.0 -0.0165728526 -0.992332218
16700199800.0 -0.0330494728 -0.9922497434
16750199500.0 -0.0515250329 -0.9916474268
16800199200.0 -0.0678420035 -0.9905190112
16850198900.0 -0.0827957575 -0.9887496787
16900198600.0 -0.096503176 -0.9879188938
16950198300.0 -0.1099184465 -0.9878522223
17000198000.0 -0.1234388012 -0.9863677174
17050197700.0 -0.1353153263 -0.9840088561
17100197400.0 -0.1489542494 -0.9818960221
17150197100.0 -0.1615162604 -0.9797721124
17200196800.0 -0.1742627069 -0.9774317066
17250196500.0 -0.1871770319 -0.9750357809
17300196200.0 -0.1993118792 -0.9730989483
17350195900.0 -0.2111976174 -0.9706730762
17400195600.0 -0.2236771305 -0.9680312906
17450195300.0 -0.2366582105 -0.9652735722
17500195000.0 -0.2500493791 -0.9619798926
17550194700.0 -0.2640176091 -0.9583362277
17600194400.0 -0.2776487525 -0.9545353593
17650194100.0 -0.2915338544 -0.950026
17700193800.0 -0.304420099 -0.9457201518
17750193500.0 -0.3188754283 -0.9415968957
17800193200.0 -0.3331640507 -0.9365266833
17850192900.0 -0.3481095669 -0.9307048518
17900192600.0 -0.3632750821 -0.9242504935
17950192300.0 -0.378714564 -0.9178070912
18000192000.0 -0.393577566 -0.9104779181
18050191700.0 -0.407120226 -0.9026271268
18100191400.0 -0.4212169642 -0.8950217567
18150191100.0 -0.4361873883 -0.8868207113
18200190800.0 -0.4529521896 -0.8775564229
18250190500.0 -0.4698149079 -0.8681202212
18300190200.0 -0.4853662949 -0.8594939722
18350189900.0 -0.4999228543 -0.8510909766
18400189600.0 -0.5147819524 -0.8424817052
18450189300.0 -0.5280560501 -0.8346785909
18500189000.0 -0.5414010791 -0.8263855433
18550188700.0 -0.5539404224 -0.8186969617
18600188400.0 -0.5660817467 -0.8115461391
18650188100.0 -0.5773329806 -0.805433462
18700187800.0 -0.587890697 -0.798851885
18750187500.0 -0.598809615 -0.7919896779
18800187200.0 -0.6093866194 -0.7849471098
18850186900.0 -0.6197310959 -0.7779128255
18900186600.0 -0.6300884225 -0.7705010461
18950186300.0 -0.6402549044 -0.7626667136
19000186000.0 -0.6475523468 -0.7565415812
19050185700.0 -0.6567899939 -0.7489841758
19100185400.0 -0.6672983142 -0.7406209923
19150185100.0 -0.6770841042 -0.732002696
19200184800.0 -0.6867003796 -0.7232882282
19250184500.0 -0.6973789578 -0.714439338
19300184200.0 -0.7086739337 -0.704708898
19350183900.0 -0.7190379603 -0.6950885928
19400183600.0 -0.7290921924 -0.6851052526
19450183300.0 -0.7374472059 -0.6751068825
19500183000.0 -0.7457970921 -0.6652202994
19550182700.0 -0.7558759515 -0.6539997627
19600182400.0 -0.7660268899 -0.6423082145
19650182100.0 -0.7764381452 -0.6304518719
19700181800.0 -0.7873108589 -0.6170105924
19750181500.0 -0.7976380839 -0.6033299142
19800181200.0 -0.8078355729 -0.5883857659
19850180900.0 -0.8172163629 -0.5729719463
19900180600.0 -0.8248669591 -0.558607014
19950180300.0 -0.8341442773 -0.5424718138
20000180000.0 -0.8270076578 -0.5452971329
20050179700.0 -0.8348414095 -0.5317726784
20100179400.0 -0.8437651962 -0.5183124863
20150179100.0 -0.8516846021 -0.5059777374
20200178800.0 -0.8604238891 -0.4931368952
20250178500.0 -0.870263373 -0.4794567032
20300178200.0 -0.8789020504 -0.4645323586
20350177900.0 -0.8883106235 -0.4505233929
20400177600.0 -0.8972817282 -0.4359784389
20450177300.0 -0.9057918753 -0.4209856302
20500177000.0 -0.91333552 -0.4073572797
20550176700.0 -0.9210579628 -0.3938805787
20600176400.0 -0.9283947385 -0.3804429972
20650176100.0 -0.934759789 -0.3680449478
20700175800.0 -0.9409727009 -0.3563792078
20750175500.0 -0.9480242865 -0.3447530454
20800175200.0 -0.9521305647 -0.3330184233
20850174900.0 -0.9577565704 -0.3219327069
20900174600.0 -0.9625770753 -0.3107307913
20950174300.0 -0.967423778 -0.299279694
21000174000.0 -0.9704404205 -0.2875203801
21050173700.0 -0.973300395 -0.276773796
21100173400.0 -0.9770217026 -0.2645534046
21150173100.0 -0.9806634882 -0.2513431067
21200172800.0 -0.9847572669 -0.2384012205
21250172500.0 -0.9879312029 -0.2248147456
21300172200.0 -0.9906586473 -0.2101952999
21350171900.0 -0.9919999915 -0.1961535517
21400171600.0 -0.9933238394 -0.1818173639
21450171300.0 -0.9935248932 -0.1675782574
21500171000.0 -0.9933462106 -0.1521569661
21550170700.0 -0.9935535256 -0.1358019183
21600170400.0 -0.9930495372 -0.1206500515
21650170100.0 -0.9919471966 -0.1051690195
21700169800.0 -0.9900691023 -0.0901036403
21750169500.0 -0.9880897829 -0.0734798093
21800169200.0 -0.9882059657 -0.0580131418
21850168900.0 -0.9875614467 -0.0416463301
21900168600.0 -0.985497284 -0.0246978691
21950168300.0 -0.9842220731 -0.0094904354
22000168000.0 -0.9833963757 0.0055634525
22050167700.0 -0.9830202143 0.0202056305
22100167400.0 -0.9828124583 0.0350475641
22150167100.0 -0.9835507244 0.050305986
22200166800.0 -0.9832346685 0.0665830297
22250166500.0 -0.9832407372 0.0842447981
22300166200.0 -0.9823777088 0.0998295613
22350165900.0 -0.9805810618 0.1161915386
22400165600.0 -0.9789996293 0.1324172679
22450165300.0 -0.9767369963 0.1471308932
22500165000.0 -0.976749202 0.1613032664
22550164700.0 -0.9729488694 0.1763924712
22600164400.0 -0.9731221664 0.1923232712
22650164100.0 -0.9702695876 0.2068508476
22700163800.0 -0.9679473197 0.2226648766
22750163500.0 -0.9653777232 0.2376761627
22800163200.0 -0.9620760765 0.2510941193
22850162900.0 -0.9595732575 0.2645564024
22900162600.0 -0.9586346996 0.2779908895
22950162300.0 -0.9572486826 0.2909755747
23000162000.0 -0.9564234696 0.3024694923
23050161700.0 -0.9545583985 0.3151651022
23100161400.0 -0.9522206188 0.32788716
23150161100.0 -0.949156471 0.3406623685
23200160800.0 -0.946155018 0.3522989555
23250160500.0 -0.9438515444 0.3642696156
23300160200.0 -0.9406958501 0.3758828548
23350159900.0 -0.9371945436 0.3887649802
23400159600.0 -0.9327578723 0.4024738874
23450159300.0 -0.9277798792 0.4151916123
23500159000.0 -0.9238193676 0.4279961994
23550158700.0 -0.9187931739 0.4418950399
23600158400.0 -0.9134997585 0.4549284803
23650158100.0 -0.907196308 0.4686693901
23700157800.0 -0.8994287777 0.4825034889
23750157500.0 -0.8909212233 0.4962631872
23800157200.0 -0.8821584301 0.5094638447
23850156900.0 -0.8739586455 0.5219926785
23900156600.0 -0.864461644 0.5343974711
23950156300.0 -0.8549574689 0.547125189
24000156000.0 -0.8459334856 0.5588875168
24050155700.0 -0.8356186193 0.5704166838
24100155400.0 -0.8258453805 0.5828448867
24150155100.0 -0.8151149613 0.5944446911
24200154800.0 -0.8038704501 0.6057637688
24250154500.0 -0.7930830649 0.6173095632
24300154200.0 -0.7811214543 0.6298248388
24350153900.0 -0.7692006593 0.6397641524
24400153600.0 -0.7571698736 0.6498327602
24450153300.0 -0.7451889674 0.6602707483
24500153000.0 -0.7338878929 0.6694634636
24550152700.0 -0.721979793 0.6797946062
24600152400.0 -0.7103948644 0.6884560237
24650152100.0 -0.6989747887 0.6971615829
