!Created with skrf (http://scikit-rf.org).
# Hz S RI R 50.0 
!freq ReS11 ImS11
300000.0 -0.9741193754 -0.122451467
50299700.0 -0.9998350943 0.015094236
100299400.0 -0.9979956592 0.0278550771
150299100.0 -1.002761142 0.044749397
200298800.0 -0.9994952763 0.0580176722
250298500.0 -0.9973735572 0.0714788023
300298200.0 -0.9858357206 0.087297764
350297900.0 -0.9940227934 0.0982877594
400297600.0 -0.9930254316 0.1147795967
450297300.0 -0.9908556675 0.1284749826
500297000.0 -0.9894485289 0.1435086949
550296700.0 -0.9845676416 0.1557334507
600296400.0 -1.017117122 0.1890386284
650296100.0 -0.9822646655 0.18553517
700295800.0 -0.9791028598 0.1999453616
750295500.0 -0.9762758319 0.214020952
800295200.0 -0.972890088 0.2280114322
850294900.0 -0.9696383005 0.241824967
900294600.0 -0.965803708 0.2556727849
950294300.0 -0.9623116407 0.2692146178
1000294000.0 -0.9582108674 0.283215599
1050293700.0 -0.953710016 0.2970138824
1100293400.0 -0.94940348 0.3115062809
1150293100.0 -0.9454477608 0.3233624837
1200292800.0 -0.9400457306 0.3377001055
1250292500.0 -0.9345942805 0.3512158011
1300292200.0 -0.9288971696 0.3643791114
1350291900.0 -0.9234644874 0.3785237147
1400291600.0 -0.9178986006 0.3915760075
1450291300.0 -0.9123992905 0.4039357493
1500291000.0 -0.9063495366 0.4172887951
1550290700.0 -0.899779476 0.4306144978
1600290400.0 -0.8933862073 0.4436779288
1650290100.0 -0.8868449119 0.4556353407
1700289800.0 -0.8799880665 0.4692256731
1750289500.0 -0.8728105703 0.4814873644
1800289200.0 -0.8655248991 0.4943804814
1850288900.0 -0.8586827474 0.5057294751
1900288600.0 -0.8510326175 0.5185827501
1950288300.0 -0.8431084335 0.5313662385
2000288000.0 -0.8354571795 0.5426953119
2050287700.0 -0.8269751877 0.5551642492
2100287400.0 -0.8193975732 0.5664508627
2150287100.0 -0.8110093695 0.5785064352
2200286800.0 -0.8030672014 0.5893876237
2250286500.0 -0.7938261952 0.6013392
2300286200.0 -0.785263779 0.6128825824
2350285900.0 -0.776968072 0.6233828551
2400285600.0 -0.7680756917 0.6342836254
2450285300.0 -0.7592541195 0.6451497992
2500285000.0 -0.7490753266 0.6566426774
2550284700.0 -0.7399723362 0.6668266898
2600284400.0 -0.7310180879 0.6769008114
2650284100.0 -0.7225400081 0.6871912467
2700283800.0 -0.7118764297 0.6973652511
2750283500.0 -0.7017617063 0.7082658952
2800283200.0 -0.6916147605 0.7181028245
2850282900.0 -0.6811971733 0.7284550523
2900282600.0 -0.6707387397 0.7376858667
2950282300.0 -0.660189552 0.7473772839
3000282000.0 -0.6495453245 0.7568775602
3050281700.0 -0.6384583892 0.7658522923
3100281400.0 -0.6270025459 0.7750499113
3150281100.0 -0.6155675052 0.7838543657
3200280800.0 -0.6042382418 0.7923417561
3250280500.0 -0.593107076 0.8001715028
3300280200.0 -0.5814287787 0.8083986288
3350279900.0 -0.569262668 0.8165147024
3400279600.0 -0.556482798 0.824353744
3450279300.0 -0.5454858794 0.8316613852
3500279000.0 -0.5337236314 0.8382813298
3550278700.0 -0.5217690746 0.8454877405
3600278400.0 -0.5098194171 0.8523375085
3650278100.0 -0.4968850025 0.8599784104
3700277800.0 -0.4846760086 0.8661905006
3750277500.0 -0.4722595124 0.8733400016
3800277200.0 -0.4595232193 0.8798053865
3850276900.0 -0.4478217675 0.8857345515
3900276600.0 -0.4365648524 0.8913076896
3950276300.0 -0.4249507604 0.8973765618
4000276000.0 -0.413174359 0.9032523343
4050275700.0 -0.4002526975 0.9091008162
4100275400.0 -0.3892987754 0.9143873847
4150275100.0 -0.3760756944 0.9201630025
4200274800.0 -0.3625113281 0.9262571256
4250274500.0 -0.3500717516 0.9313248339
4300274200.0 -0.3368751592 0.9366476573
4350273900.0 -0.3224715245 0.9419898332
4400273600.0 -0.3079067859 0.9471981722
4450273300.0 -0.2928790047 0.9522236785
4500273000.0 -0.279627584 0.956418499
4550272700.0 -0.2661293987 0.9605528265
4600272400.0 -0.2511050073 0.964694033
4650272100.0 -0.2395294393 0.9678531004
4700271800.0 -0.2268011715 0.9710667882
4750271500.0 -0.215088233 0.9739462895
4800271200.0 -0.2029752541 0.9767049801
4850270900.0 -0.1892087869 0.9794443429
4900270600.0 -0.1751746636 0.9821503022
4950270300.0 -0.1607641561 0.9845638858
5000270000.0 -0.1462986035 0.9867995026
5050269700.0 -0.1326046557 0.9883980451
5100269400.0 -0.1182988767 0.9900096776
5150269100.0 -0.1048341799 0.9914921534
5200268800.0 -0.0913860378 0.9929300431
5250268500.0 -0.078153859 0.9938159774
5300268200.0 -0.0644271113 0.9945977214
5350267900.0 -0.0516048761 0.9952736044
5400267600.0 -0.0354678702 0.9963325742
5450267300.0 -0.0221082102 0.9966970487
5500267000.0 -0.0069979141 0.9968895965
5550266700.0 0.0079678057 0.996895248
5600266400.0 0.0236055992 0.9971871149
5650266100.0 0.040521976 0.9968824195
5700265800.0 0.0545122715 0.9960570091
5750265500.0 0.0697013395 0.9949434516
5800265200.0 0.0830371945 0.9939727223
5850264900.0 0.0964612118 0.9934115955
5900264600.0 0.1130292605 0.9911997663
5950264300.0 0.124285076 0.9895179124
6000264000.0 0.1381485609 0.9884045257
6050263700.0 0.1493888004 0.9864694531
6100263400.0 0.1617189269 0.9848481446
6150263100.0 0.176537954 0.9824711837
6200262800.0 0.1862398278 0.9810348858
6250262500.0 0.1987186855 0.9788921569
6300262200.0 0.2110808392 0.9761689957
6350261900.0 0.2238394559 0.9734496996
6400261600.0 0.2375724968 0.9700781795
6450261300.0 0.2486603147 0.9675802729
6500261000.0 0.2620386687 0.9640319299
6550260700.0 0.2751417834 0.9601997238
6600260400.0 0.2885728727 0.9558812488
6650260100.0 0.3028696716 0.9516149756
6700259800.0 0.314926505 0.9471801683
6750259500.0 0.3283501963 0.9423245724
6800259200.0 0.3421377889 0.9371628562
6850258900.0 0.3545574725 0.9319216744
6900258600.0 0.3672930178 0.9268592329
6950258300.0 0.3795668789 0.9215293485
7000258000.0 0.391340473 0.9162429445
7050257700.0 0.4031640742 0.9104504874
7100257400.0 0.4166142131 0.9040791921
7150257100.0 0.4271251222 0.8987564918
7200256800.0 0.4403160912 0.8920422448
7250256500.0 0.4529864978 0.8857415592
7300256200.0 0.4661041383 0.8786832821
7350255900.0 0.4785558494 0.8717574396
7400255600.0 0.4926495456 0.8638863355
7450255300.0 0.5086410824 0.8553751792
7500255000.0 0.520659415 0.847294227
7550254700.0 0.5351939929 0.8383646289
7600254400.0 0.547671263 0.8299440496
7650254100.0 0.5592837066 0.8222281885
7700253800.0 0.5709589078 0.8138327637
7750253500.0 0.5818967405 0.8063332144
7800253200.0 0.5924702543 0.7985255162
7850252900.0 0.6021590417 0.7914865546
7900252600.0 0.6137104627 0.7826557683
7950252300.0 0.6222035778 0.7764669345
8000252000.0 0.6320204126 0.768674038
8050251700.0 0.6426089441 0.7604239131
8100251400.0 0.6525730809 0.7524999381
8150251100.0 0.6624416008 0.7440888076
8200250800.0 0.6719515039 0.7359119451
8250250500.0 0.6809171466 0.7280406619
8300250200.0 0.6901400853 0.719882532
8350249900.0 0.6993119269 0.7108614027
8400249600.0 0.7071339854 0.7030201376
8450249300.0 0.7160833444 0.6940952695
8500249000.0 0.7244798195 0.6854400165
8550248700.0 0.7326886836 0.6763217831
8600248400.0 0.7411645385 0.6668810102
8650248100.0 0.7485702293 0.6574817776
8700247800.0 0.7580968808 0.6463755465
8750247500.0 0.7661322268 0.636249443
8800247200.0 0.7744668201 0.6260587669
8850246900.0 0.7829639868 0.6145342637
8900246600.0 0.7913557551 0.6031571035
8950246300.0 0.8005765453 0.590451814
9000246000.0 0.8092585033 0.5786491223
9050245700.0 0.8174960727 0.5663070703
9100245400.0 0.8257207981 0.5540079752
9150245100.0 0.8348322985 0.5411395026
9200244800.0 0.8441946372 0.5266848888
9250244500.0 0.8533772935 0.5121316522
9300244200.0 0.8611774344 0.4985704097
9350243900.0 0.8690864594 0.4854035593
9400243600.0 0.8755634511 0.4737222242
9450243300.0 0.8811512267 0.463162154
9500243000.0 0.8872474754 0.4514393969
9550242700.0 0.8915639679 0.4438661141
9600242400.0 0.8957158927 0.4363563485
9650242100.0 0.8998147955 0.4294924326
9700241800.0 0.9047944292 0.4209412134
9750241500.0 0.9087973205 0.4133254213
9800241200.0 0.913985556 0.4037342773
9850240900.0 0.9202082009 0.3918816488
9900240600.0 0.9257227673 0.3805585629
9950240300.0 0.9330202181 0.3634379888
10000240000.0 0.9381363758 0.3510893501
10050239700.0 0.9437392915 0.3349083054
10100239400.0 0.9494977158 0.3185554785
10150239100.0 0.9540629793 0.3031766293
10200238800.0 0.95837192 0.2877449005
10250238500.0 0.9616429369 0.274267643
10300238200.0 0.9646232298 0.2603824958
10350237900.0 0.9673911677 0.2470522237
10400237600.0 0.9699426076 0.2336620975
10450237300.0 0.9727045467 0.2200987294
10500237000.0 0.9749628821 0.2077718504
10550236700.0 0.977417799 0.1932564301
10600236400.0 0.9794286275 0.1794527325
10650236100.0 0.9817473253 0.1644217881
10700235800.0 0.9838168327 0.152503221
10750235500.0 0.9862207938 0.1387292513
10800235200.0 0.9878459275 0.1243358813
10850234900.0 0.9901221253 0.1093631779
10900234600.0 0.9918379097 0.0948760705
10950234300.0 0.9938137675 0.0810552336
11000234000.0 0.9955415739 0.0655645978
11050233700.0 0.9974472147 0.0487746194
11100233400.0 0.9990189688 0.0309068222
11150233100.0 1.000173959 0.0139887327
11200232800.0 1.000877276 -0.0014742986
11250232500.0 1.001979419 -0.0194054006
11300232200.0 1.001791742 -0.0376248863
11350231900.0 1.002673369 -0.0549833879
11400231600.0 1.001625474 -0.0701283703
11450231300.0 1.001162111 -0.0857610233
11500231000.0 1.000010005 -0.1015737639
11550230700.0 0.9982434134 -0.1140696332
11600230400.0 0.9966247862 -0.1274659842
11650230100.0 0.9946815263 -0.1401020395
11700229800.0 0.9925189062 -0.1543706546
11750229500.0 0.9901229661 -0.1685167081
11800229200.0 0.9873166689 -0.1816306114
11850228900.0 0.9835778813 -0.193440189
11900228600.0 0.979883203 -0.2031584277
11950228300.0 0.9765684185 -0.2130719357
12000228000.0 0.9738472393 -0.2221866528
12050227700.0 0.9693719276 -0.2352185599
12100227400.0 0.9657788617 -0.2467553728
12150227100.0 0.9619040966 -0.2617136322
12200226800.0 0.9583663083 -0.2733791534
12250226500.0 0.9529003982 -0.2866503408
12300226200.0 0.9496139956 -0.2985039726
12350225900.0 0.9445885211 -0.3125812898
12400225600.0 0.9405423987 -0.3246604897
12450225300.0 0.93585955 -0.3364311629
12500225000.0 0.9305430081 -0.3520519061
12550224700.0 0.9248404922 -0.3659739394
12600224400.0 0.9197736849 -0.3783843549
12650224100.0 0.9140203455 -0.3927143318
12700223800.0 0.9086731018 -0.405520227
12750223500.0 0.9031180226 -0.4185207547
12800223200.0 0.8980067917 -0.4311301769
12850222900.0 0.8926746752 -0.4432761502
12900222600.0 0.8872410353 -0.4552880522
12950222300.0 0.8810141584 -0.4683553755
13000222000.0 0.8753679056 -0.47914822
13050221700.0 0.8680423113 -0.492774288
13100221400.0 0.861093279 -0.5050700738
13150221100.0 0.8545630377 -0.5168507167
13200220800.0 0.8475480551 -0.5285084573
13250220500.0 0.8403905848 -0.5403609859
13300220200.0 0.8328113363 -0.5514701847
13350219900.0 0.8246899584 -0.5632727585
13400219600.0 0.8162041913 -0.5751632209
13450219300.0 0.8072738585 -0.587981462
13500219000.0 0.7971302548 -0.6013185489
13550218700.0 0.7874753394 -0.6138602638
13600218400.0 0.7773566837 -0.6253223726
13650218100.0 0.7679207955 -0.6360509527
13700217800.0 0.7573879904 -0.6478244721
13750217500.0 0.7470955699 -0.6589103414
13800217200.0 0.7367635202 -0.6702680067
13850216900.0 0.7255095222 -0.6816312067
13900216600.0 0.7159703814 -0.6898930538
13950216300.0 0.7051644315 -0.7006053048
14000216000.0 0.6954250414 -0.7097241646
14050215700.0 0.6860443084 -0.7172705133
14100215400.0 0.6766630456 -0.7262657996
14150215100.0 0.6673804194 -0.7350949215
14200214800.0 0.6579675006 -0.7439439486
14250214500.0 0.6475608443 -0.7534378406
14300214200.0 0.6369448101 -0.7629271231
14350213900.0 0.6259605643 -0.772416594
14400213600.0 0.6140254345 -0.7826456127
14450213300.0 0.6012793896 -0.7928284198
14500213000.0 0.5882551958 -0.8027295242
14550212700.0 0.5757521052 -0.8122205687
14600212400.0 0.5635810586 -0.8206237744
14650212100.0 0.5505537755 -0.8288703528
14700211800.0 0.5369468213 -0.8388197705
14750211500.0 0.524959164 -0.8468871658
14800211200.0 0.5123335985 -0.8556766554
14850210900.0 0.5001132675 -0.8631027245
14900210600.0 0.4867744116 -0.8708823566
14950210300.0 0.4734345579 -0.8785764715
15000210000.0 0.4607522487 -0.8854638443
15050209700.0 0.4483739202 -0.8912804999
15100209400.0 0.4352191814 -0.8972664624
15150209100.0 0.4232468679 -0.9032536849
15200208800.0 0.4110828083 -0.9081481757
15250208500.0 0.3999228133 -0.9121354636
15300208200.0 0.3874339035 -0.9172848102
15350207900.0 0.3746181231 -0.9221928868
15400207600.0 0.3598199348 -0.9276389853
15450207300.0 0.3446970012 -0.9324089409
15500207000.0 0.3294873529 -0.9370699036
15550206700.0 0.3162393355 -0.9419881874
15600206400.0 0.2994413174 -0.9461160862
15650206100.0 0.283654773 -0.951260035
15700205800.0 0.2702413835 -0.9542279969
15750205500.0 0.2565840306 -0.9575263526
15800205200.0 0.2423437318 -0.9612524749
15850204900.0 0.2281322297 -0.9646068083
15900204600.0 0.2130687209 -0.9683438461
15950204300.0 0.1985926776 -0.9713813237
16000204000.0 0.1843921357 -0.9743011853
16050203700.0 0.1691618215 -0.9776275386
16100203400.0 0.1540721582 -0.9798419856
16150203100.0 0.1396179735 -0.981985752
16200202800.0 0.1254860002 -0.9844637088
16250202500.0 0.1110426787 -0.9858112199
16300202200.0 0.0951542947 -0.987671618
16350201900.0 0.0801198036 -0.9888405394
16400201600.0 0.0654955283 -0.9901065885
16450201300.0 0.0498978194 -0.9912630744
16500201000.0 0.0327434868 -0.9921207553
16550200700.0 0.0166037911 -0.9925553979
16600200400.0 0.000698746 -0.9928226285
16650200100.0 -0.015383898 -0.9925730302
16700199800.0 -0.0320798618 -0.9921843275
16750199500.0 -0.0504659575 -0.9913091139
16800199200.0 -0.0665879838 -0.9910013405
16850198900.0 -0.0818908082 -0.9897122532
16900198600.0 -0.0966533693 -0.9885495654
16950198300.0 -0.1099325762 -0.9879396754
17000198000.0 -0.1231456717 -0.9858403598
17050197700.0 -0.1364182516 -0.9841816794
17100197400.0 -0.1487243299 -0.9819771444
17150197100.0 -0.1615499719 -0.9798722543
17200196800.0 -0.1742798747 -0.9779650349
17250196500.0 -0.187242131 -0.9755164109
17300196200.0 -0.1994088563 -0.9730405045
17350195900.0 -0.2111876065 -0.9706487276
17400195600.0 -0.2232659796 -0.9681472846
17450195300.0 -0.2360487055 -0.9653933416
17500195000.0 -0.2492693918 -0.9621174543
17550194700.0 -0.263087521 -0.9584199197
17600194400.0 -0.2772142467 -0.9545509587
17650194100.0 -0.2902640915 -0.9503774237
17700193800.0 -0.3037040079 -0.94650419
17750193500.0 -0.3175354265 -0.9413126986
17800193200.0 -0.3317209107 -0.9363756466
17850192900.0 -0.3465885261 -0.9309492245
17900192600.0 -0.3616120948 -0.924988777
17950192300.0 -0.3775554066 -0.9178823097
18000192000.0 -0.3919334793 -0.9107064857
18050191700.0 -0.405685037 -0.9027193417
18100191400.0 -0.4198980679 -0.895122166
18150191100.0 -0.4347743529 -0.8872279999
18200190800.0 -0.4516298706 -0.8780703797
18250190500.0 -0.4684826436 -0.8685192682
18300190200.0 -0.4839561299 -0.8595093884
18350189900.0 -0.4993427872 -0.8511785271
18400189600.0 -0.5142885902 -0.8429509314
18450189300.0 -0.5276024674 -0.8347527463
18500189000.0 -0.5405907427 -0.8270367298
18550188700.0 -0.5536691088 -0.8191981279
18600188400.0 -0.565501765 -0.8121167814
18650188100.0 -0.5767972017 -0.8056817997
18700187800.0 -0.588010018 -0.7989071923
18750187500.0 -0.5987107357 -0.7922504402
18800187200.0 -0.6093230692 -0.7853920179
18850186900.0 -0.6194650852 -0.7783842604
18900186600.0 -0.6298224097 -0.7709646298
18950186300.0 -0.6399474435 -0.7633912562
19000186000.0 -0.6476103951 -0.7573549041
19050185700.0 -0.6564635245 -0.7502861918
19100185400.0 -0.6670014669 -0.7419434767
19150185100.0 -0.677179106 -0.7331180231
19200184800.0 -0.68622264 -0.7254737053
19250184500.0 -0.6962991512 -0.7162257996
19300184200.0 -0.7079318385 -0.7059617258
19350183900.0 -0.718526665 -0.6969915221
19400183600.0 -0.7282691196 -0.6866679318
19450183300.0 -0.737349511 -0.6763703198
19500183000.0 -0.7454287811 -0.6665908382
19550182700.0 -0.7555855702 -0.6557748675
19600182400.0 -0.766132621 -0.6442795209
19650182100.0 -0.7762783592 -0.6319696435
19700181800.0 -0.7864634673 -0.6187515374
19750181500.0 -0.7969432256 -0.6045320222
19800181200.0 -0.8071783672 -0.5894722757
19850180900.0 -0.8167334153 -0.5743658064
19900180600.0 -0.8243577035 -0.5599514155
19950180300.0 -0.8334060874 -0.5435935565
20000180000.0 -0.8235769473 -0.5469444986
20050179700.0 -0.8316108614 -0.5349334685
20100179400.0 -0.8399565246 -0.5219695847
20150179100.0 -0.8466392438 -0.5100782877
20200178800.0 -0.8563266001 -0.4985386544
20250178500.0 -0.8653406739 -0.4852818815
20300178200.0 -0.8748747454 -0.4720393023
20350177900.0 -0.8844212892 -0.4581678027
20400177600.0 -0.8938050103 -0.4436886365
20450177300.0 -0.9017692295 -0.4293158387
20500177000.0 -0.9101285492 -0.4155294848
20550176700.0 -0.9176329546 -0.401843034
20600176400.0 -0.9247309765 -0.3892542432
20650176100.0 -0.9314449675 -0.3766196504
20700175800.0 -0.9379032556 -0.3645224215
20750175500.0 -0.9442708969 -0.3531895406
20800175200.0 -0.9487732567 -0.3427680366
20850174900.0 -0.9540950163 -0.3317409398
20900174600.0 -0.9581166396 -0.3206174916
20950174300.0 -0.960778064 -0.3108326029
21000174000.0 -0.963889029 -0.3004699481
21050173700.0 -0.9650693863 -0.2902208959
21100173400.0 -0.9691262109 -0.2790276405
21150173100.0 -0.9731973467 -0.2667996638
21200172800.0 -0.9766542472 -0.2541392109
21250172500.0 -0.9801349797 -0.2401344051
21300172200.0 -0.9840076216 -0.2264640016
21350171900.0 -0.9855182958 -0.2119515073
21400171600.0 -0.9875589731 -0.1971044716
21450171300.0 -0.9878978032 -0.1836539606
21500171000.0 -0.9890873825 -0.1673557497
21550170700.0 -0.9889960769 -0.1534865738
21600170400.0 -0.9904601848 -0.1384404045
21650170100.0 -0.9909082161 -0.1219651047
21700169800.0 -0.9893965439 -0.1060609638
21750169500.0 -0.9899135695 -0.0912673272
21800169200.0 -0.9899836522 -0.0746229323
21850168900.0 -0.9901638935 -0.0572699978
21900168600.0 -0.9896890272 -0.0413664095
21950168300.0 -0.9896278441 -0.0253753015
22000168000.0 -0.9886919177 -0.010678832
22050167700.0 -0.9897774744 0.0042856122
22100167400.0 -0.9901291706 0.0200800192
22150167100.0 -0.9910602644 0.0357769557
22200166800.0 -0.9920289532 0.0524549626
22250166500.0 -0.9913342861 0.0698857428
22300166200.0 -0.9906764518 0.0857372275
22350165900.0 -0.9896644267 0.1024221172
22400165600.0 -0.9879045903 0.1179379402
22450165300.0 -0.9859584169 0.1335871289
22500165000.0 -0.9857020822 0.1465074331
22550164700.0 -0.9834477882 0.1639159161
22600164400.0 -0.9812308516 0.1800519134
22650164100.0 -0.9779301565 0.195449819
22700163800.0 -0.9750864288 0.2117648109
22750163500.0 -0.9719223594 0.2262060164
22800163200.0 -0.9690354764 0.2392672395
22850162900.0 -0.9666387511 0.2526075937
22900162600.0 -0.9649733105 0.2666641998
22950162300.0 -0.9627668045 0.2803472589
23000162000.0 -0.9611405836 0.2928338352
23050161700.0 -0.9583390775 0.3063415001
23100161400.0 -0.9557348164 0.3199381065
23150161100.0 -0.9529167195 0.3327795818
23200160800.0 -0.9496984391 0.3456073251
23250160500.0 -0.9467493554 0.3577007954
23300160200.0 -0.9437889707 0.3711657745
23350159900.0 -0.9403615968 0.384368913
23400159600.0 -0.9350571327 0.3981768221
23450159300.0 -0.9304127256 0.4122454015
23500159000.0 -0.9251643054 0.4253163615
23550158700.0 -0.9201755008 0.4397748838
23600158400.0 -0.9141731594 0.4535743871
23650158100.0 -0.9068233221 0.4684788937
23700157800.0 -0.8985920525 0.4826262636
23750157500.0 -0.8891106087 0.4971755955
23800157200.0 -0.8789402413 0.5105579937
23850156900.0 -0.8699716221 0.523374135
23900156600.0 -0.8594054232 0.5356457546
23950156300.0 -0.8498692814 0.5485868401
24000156000.0 -0.840543815 0.5606921048
24050155700.0 -0.829423113 0.5733229605
24100155400.0 -0.8196091613 0.5857459077
24150155100.0 -0.8091587488 0.5975283096
24200154800.0 -0.7980092593 0.6089451296
24250154500.0 -0.7867011095 0.6216088385
24300154200.0 -0.7750380091 0.6339371333
24350153900.0 -0.7632761273 0.6445552539
24400153600.0 -0.7506866159 0.6552484215
24450153300.0 -0.7383972307 0.6656885938
24500153000.0 -0.727192057 0.675571595
24550152700.0 -0.7151357812 0.6858250436
24600152400.0 -0.7035733302 0.6951895098
24650152100.0 -0.6914855762 0.7039668744
