!Created with skrf (http://scikit-rf.org).
# Hz S RI R 50.0 
!freq ReS11 ImS11
300000.0 -0.973211687 -0.1212352068
50299700.0 -0.9998588941 0.0149005661
100299400.0 -0.9978229082 0.0277938403
150299100.0 -1.002791106 0.0447985208
200298800.0 -0.9995199511 0.058200003
250298500.0 -0.9974336484 0.071702663
300298200.0 -0.986010003 0.0873660859
350297900.0 -0.9939583862 0.0985221047
400297600.0 -0.9930477794 0.1147900116
450297300.0 -0.9909646529 0.1287024787
500297000.0 -0.9893757182 0.1434452227
550296700.0 -0.9841527234 0.1558190031
600296400.0 -1.01719111 0.1890546431
650296100.0 -0.982086379 0.185552975
700295800.0 -0.9793919485 0.2000092995
750295500.0 -0.9761528485 0.2140117595
800295200.0 -0.9730298233 0.2282166348
850294900.0 -0.9696158244 0.2418728514
900294600.0 -0.9658013708 0.2556508529
950294300.0 -0.9621862178 0.2692844939
1000294000.0 -0.9581258603 0.2832377477
1050293700.0 -0.9535476855 0.2970094731
1100293400.0 -0.9492248532 0.3115774187
1150293100.0 -0.9455562779 0.3234207007
1200292800.0 -0.9401415642 0.3378832425
1250292500.0 -0.9345280523 0.3512954242
1300292200.0 -0.9290391954 0.3644363984
1350291900.0 -0.9234004859 0.3785906824
1400291600.0 -0.9178261819 0.3916564404
1450291300.0 -0.9124201364 0.4038540924
1500291000.0 -0.9061002354 0.4173897882
1550290700.0 -0.8996833762 0.4308822573
1600290400.0 -0.8932595149 0.4435417769
1650290100.0 -0.8866419516 0.4556678969
1700289800.0 -0.8799125359 0.4693311774
1750289500.0 -0.8728249562 0.4813785971
1800289200.0 -0.8656519935 0.4945216495
1850288900.0 -0.8588787321 0.5058970713
1900288600.0 -0.8510354327 0.5187595697
1950288300.0 -0.8429788632 0.5314267473
2000288000.0 -0.8352863969 0.5427377455
2050287700.0 -0.8270185759 0.5553635841
2100287400.0 -0.8194162169 0.5666880096
2150287100.0 -0.8109100134 0.5787341967
2200286800.0 -0.8028367308 0.5891651667
2250286500.0 -0.7941011293 0.6015285986
2300286200.0 -0.7851748593 0.6127660137
2350285900.0 -0.7769567447 0.6235163506
2400285600.0 -0.7679689156 0.6344773133
2450285300.0 -0.7592442645 0.6452002317
2500285000.0 -0.7492186525 0.6566020036
2550284700.0 -0.7400663335 0.6671380728
2600284400.0 -0.7309057242 0.6767433192
2650284100.0 -0.7222763628 0.6871547447
2700283800.0 -0.7119175477 0.6975649448
2750283500.0 -0.7015787058 0.7082105105
2800283200.0 -0.6919423619 0.7183404952
2850282900.0 -0.680866263 0.7279625637
2900282600.0 -0.6706937333 0.7378085556
2950282300.0 -0.6603078156 0.7475765096
3000282000.0 -0.6494546635 0.7565212427
3050281700.0 -0.6382511356 0.7660491902
3100281400.0 -0.6268149091 0.7750636628
3150281100.0 -0.6154869877 0.7839738587
3200280800.0 -0.6042006007 0.7923811058
3250280500.0 -0.5929664668 0.8002822527
3300280200.0 -0.5814262996 0.8084953425
3350279900.0 -0.5692097455 0.8165159499
3400279600.0 -0.5566191698 0.8246095413
3450279300.0 -0.5456501479 0.8317050059
3500279000.0 -0.5337008662 0.8386621613
3550278700.0 -0.521493325 0.8456937462
3600278400.0 -0.5098128698 0.8524592294
3650278100.0 -0.4969200215 0.8601580166
3700277800.0 -0.4845788785 0.866546996
3750277500.0 -0.4721919017 0.8731231851
3800277200.0 -0.4597878791 0.8797152562
3850276900.0 -0.4477278966 0.8857209625
3900276600.0 -0.4367410813 0.8912157084
3950276300.0 -0.4247771284 0.8972658989
4000276000.0 -0.4128814168 0.9031610315
4050275700.0 -0.4005297504 0.9090936661
4100275400.0 -0.3893491645 0.914875702
4150275100.0 -0.3761556231 0.9203490373
4200274800.0 -0.3628391384 0.9260427713
4250274500.0 -0.3502196006 0.9314502714
4300274200.0 -0.3365339485 0.9368887023
4350273900.0 -0.3223413189 0.9419849778
4400273600.0 -0.307816115 0.9472467255
4450273300.0 -0.2927861387 0.9522309948
4500273000.0 -0.2795685197 0.9564802952
4550272700.0 -0.2660030365 0.9606107145
4600272400.0 -0.2509509881 0.9648863107
4650272100.0 -0.2396924602 0.9677591668
4700271800.0 -0.226572879 0.971218042
4750271500.0 -0.215107754 0.9740764966
4800271200.0 -0.202806928 0.9766776815
4850270900.0 -0.1891408035 0.9793385706
4900270600.0 -0.1753008586 0.9817365744
4950270300.0 -0.1606266937 0.9845279889
5000270000.0 -0.1463366903 0.9866885826
5050269700.0 -0.1326808106 0.9884607799
5100269400.0 -0.1186167137 0.9903805129
5150269100.0 -0.1044673373 0.9918974364
5200268800.0 -0.0912808459 0.992689593
5250268500.0 -0.0782226802 0.9939166978
5300268200.0 -0.0645232831 0.9945873068
5350267900.0 -0.0518029887 0.9951719715
5400267600.0 -0.0356795983 0.9960118517
5450267300.0 -0.0221572601 0.9963536856
5500267000.0 -0.0069128745 0.9971054715
5550266700.0 0.0081782301 0.9970995597
5600266400.0 0.0238167616 0.9972393719
5650266100.0 0.04035593 0.9966260016
5700265800.0 0.0545169858 0.9961386293
5750265500.0 0.070052459 0.9953580456
5800265200.0 0.0834617306 0.9941734938
5850264900.0 0.0968053598 0.9930930995
5900264600.0 0.1128490688 0.9913601268
5950264300.0 0.1244650376 0.9893854872
6000264000.0 0.1380472855 0.9879423249
6050263700.0 0.1499607491 0.9867703792
6100263400.0 0.1616419126 0.9847262266
6150263100.0 0.1766804489 0.9823997927
6200262800.0 0.1860349908 0.9809037477
6250262500.0 0.1987362948 0.9786706025
6300262200.0 0.2109870636 0.9759989653
6350261900.0 0.2239591419 0.9735788101
6400261600.0 0.2378017787 0.9701516213
6450261300.0 0.2489012307 0.9675992415
6500261000.0 0.2624251066 0.9640653351
6550260700.0 0.2751491894 0.9602294991
6600260400.0 0.2888048161 0.9562111376
6650260100.0 0.3032320023 0.9516836077
6700259800.0 0.3149713541 0.9472186912
6750259500.0 0.3284768271 0.9424353726
6800259200.0 0.342540708 0.9373037444
6850258900.0 0.354616668 0.9320618215
6900258600.0 0.3671412518 0.9268426162
6950258300.0 0.3794786521 0.9215215307
7000258000.0 0.391334693 0.916152863
7050257700.0 0.4032467177 0.9104124004
7100257400.0 0.4167364356 0.9039787335
7150257100.0 0.4274227852 0.8985350926
7200256800.0 0.4405729973 0.8920630637
7250256500.0 0.4531112755 0.8855286751
7300256200.0 0.4657423717 0.8787472482
7350255900.0 0.4785517695 0.8717076421
7400255600.0 0.4927798551 0.8639049903
7450255300.0 0.5085081571 0.8549594411
7500255000.0 0.5212432533 0.8474333594
7550254700.0 0.5356221065 0.8383529268
7600254400.0 0.547978675 0.8300674719
7650254100.0 0.5591791552 0.8221023767
7700253800.0 0.5710066212 0.8139584248
7750253500.0 0.5818735566 0.8063958706
7800253200.0 0.5927548503 0.7986917259
7850252900.0 0.6024123451 0.7913759629
7900252600.0 0.6137237077 0.782583596
7950252300.0 0.6222414374 0.7761281774
8000252000.0 0.6319898019 0.7686242432
8050251700.0 0.6425447168 0.7605603591
8100251400.0 0.6524954801 0.7523837023
8150251100.0 0.6623770379 0.7442139197
8200250800.0 0.6721778974 0.73592133
8250250500.0 0.6808846383 0.7280466146
8300250200.0 0.6899955337 0.7197264771
8350249900.0 0.6993029156 0.7108471713
8400249600.0 0.7071891997 0.702792968
8450249300.0 0.7157629761 0.6941073595
8500249000.0 0.7245507966 0.6851740489
8550248700.0 0.7326517826 0.6760204488
8600248400.0 0.741055047 0.6667598402
8650248100.0 0.748791444 0.6573723613
8700247800.0 0.7579329963 0.6461290495
8750247500.0 0.766263966 0.6361556456
8800247200.0 0.774360882 0.6257878398
8850246900.0 0.783174015 0.6143816883
8900246600.0 0.7914691226 0.6030194715
8950246300.0 0.8006585396 0.5905560051
9000246000.0 0.8091534931 0.5784353977
9050245700.0 0.8177382035 0.5661599617
9100245400.0 0.8263361811 0.5540281884
9150245100.0 0.8352734662 0.5410601233
9200244800.0 0.8443648785 0.5264650058
9250244500.0 0.8534325694 0.5119505989
9300244200.0 0.8612941943 0.4983927265
9350243900.0 0.8691139586 0.485094576
9400243600.0 0.8756266688 0.4732743479
9450243300.0 0.8813124044 0.4629196214
9500243000.0 0.8873678224 0.4514476719
9550242700.0 0.891382363 0.4439823274
9600242400.0 0.8957385191 0.4361707444
9650242100.0 0.8997945511 0.4293748272
9700241800.0 0.9050847851 0.420797265
9750241500.0 0.9090704534 0.413185644
9800241200.0 0.914050229 0.4036795746
9850240900.0 0.9199944033 0.3920094931
9900240600.0 0.9259303676 0.3800928871
9950240300.0 0.9329067288 0.3628303691
10000240000.0 0.9381072773 0.3508123634
10050239700.0 0.9438399431 0.3349406875
10100239400.0 0.9490038613 0.3188684091
10150239100.0 0.9541043332 0.3031864185
10200238800.0 0.9584354532 0.2874429819
10250238500.0 0.961740548 0.2742145811
10300238200.0 0.9648886661 0.2602807943
10350237900.0 0.9674667119 0.2468320164
10400237600.0 0.9700753579 0.23309327
10450237300.0 0.9728284352 0.2198308851
10500237000.0 0.9751084463 0.2071225999
10550236700.0 0.9775055855 0.1927986915
10600236400.0 0.9795801932 0.179001652
10650236100.0 0.9812447321 0.1648398704
10700235800.0 0.983814161 0.1519481169
10750235500.0 0.9855008214 0.1392872252
10800235200.0 0.9877764655 0.1241199693
10850234900.0 0.9899500763 0.1095512799
10900234600.0 0.9918937253 0.0948085364
10950234300.0 0.9937049372 0.0812032191
11000234000.0 0.9956297115 0.0655393561
11050233700.0 0.9974021086 0.0489243231
11100233400.0 0.9990200488 0.0309667076
11150233100.0 1.000070269 0.0141563733
11200232800.0 1.000970612 -0.0021947685
11250232500.0 1.001950052 -0.0197935383
11300232200.0 1.001395649 -0.0380587202
11350231900.0 1.001999799 -0.054335496
11400231600.0 1.001708053 -0.069804195
11450231300.0 1.001649357 -0.0850044606
11500231000.0 0.9994545279 -0.101693067
11550230700.0 0.9989101335 -0.1151511261
11600230400.0 0.9969060639 -0.1276498603
11650230100.0 0.9953790624 -0.1402036755
11700229800.0 0.9926034709 -0.1549597073
11750229500.0 0.990108765 -0.168467941
11800229200.0 0.9872801322 -0.1819729317
11850228900.0 0.9835183997 -0.1935682335
11900228600.0 0.9801500346 -0.2029270045
11950228300.0 0.9763853899 -0.2132003832
12000228000.0 0.9738727331 -0.221968795
12050227700.0 0.9699496493 -0.2349071658
12100227400.0 0.9672727367 -0.2455765972
12150227100.0 0.9613663248 -0.2628492725
12200226800.0 0.9586448566 -0.2728331036
12250226500.0 0.9536263714 -0.2868090059
12300226200.0 0.949464263 -0.2992416842
12350225900.0 0.9446549121 -0.3119675284
12400225600.0 0.9404325643 -0.3252878454
12450225300.0 0.9358105495 -0.3371599153
12500225000.0 0.9300305777 -0.3524591345
12550224700.0 0.9248402221 -0.3653834395
12600224400.0 0.9198644492 -0.3783814151
12650224100.0 0.914124408 -0.3926927975
12700223800.0 0.9087935533 -0.4054607998
12750223500.0 0.9033316169 -0.4184948786
12800223200.0 0.8980735573 -0.4311652283
12850222900.0 0.892767977 -0.4432669287
12900222600.0 0.887132096 -0.455077082
12950222300.0 0.8809345788 -0.4677862485
13000222000.0 0.8751617276 -0.4790281974
13050221700.0 0.8683714863 -0.4926813082
13100221400.0 0.8616335458 -0.5044779567
13150221100.0 0.8545274014 -0.5171018139
13200220800.0 0.8477111958 -0.528475137
13250220500.0 0.8403916445 -0.540471384
13300220200.0 0.8326783092 -0.5514279315
13350219900.0 0.8247143121 -0.5632852195
13400219600.0 0.8163125254 -0.5751909717
13450219300.0 0.8071719515 -0.5880080616
13500219000.0 0.7972974042 -0.6013076752
13550218700.0 0.7874543129 -0.6133452115
13600218400.0 0.7775677177 -0.6256822751
13650218100.0 0.7683197776 -0.6361042722
13700217800.0 0.7571495092 -0.6474783551
13750217500.0 0.7473554965 -0.6589177739
13800217200.0 0.7364919896 -0.6699370441
13850216900.0 0.725779183 -0.6813438487
13900216600.0 0.7161843296 -0.6904520421
13950216300.0 0.7053003598 -0.6997504588
14000216000.0 0.6948881332 -0.7094498566
14050215700.0 0.6859563238 -0.7177722924
14100215400.0 0.676635947 -0.7264583313
14150215100.0 0.6675354122 -0.7351497114
14200214800.0 0.6580480134 -0.7441480478
14250214500.0 0.6476377786 -0.7535791795
14300214200.0 0.6370238139 -0.7628992089
14350213900.0 0.6260239921 -0.7724006993
14400213600.0 0.6144466021 -0.7825344792
14450213300.0 0.6011255501 -0.7927891055
14500213000.0 0.5887725917 -0.8023576139
14550212700.0 0.5757377816 -0.811827221
14600212400.0 0.563356278 -0.8202473147
14650212100.0 0.5508628512 -0.8292853973
14700211800.0 0.5369180632 -0.838728989
14750211500.0 0.5247981368 -0.8473366697
14800211200.0 0.5124374957 -0.8555780294
14850210900.0 0.499643492 -0.8628263109
14900210600.0 0.4864918674 -0.8709023804
14950210300.0 0.473178249 -0.8785957453
15000210000.0 0.4605243709 -0.8852766246
15050209700.0 0.4482448773 -0.8917782096
15100209400.0 0.4354725042 -0.8974629655
15150209100.0 0.4235772976 -0.902907084
15200208800.0 0.4105487023 -0.9080332872
15250208500.0 0.4000971942 -0.9122255827
15300208200.0 0.3878150812 -0.9174234701
15350207900.0 0.3743193363 -0.9221355127
15400207600.0 0.3587691181 -0.9277351042
15450207300.0 0.3447431226 -0.9322976549
15500207000.0 0.3304594087 -0.9371935867
15550206700.0 0.3158133456 -0.941802699
15600206400.0 0.2996737601 -0.9460505347
15650206100.0 0.2836218611 -0.9509015654
15700205800.0 0.2699996069 -0.9544709653
15750205500.0 0.2563893738 -0.9575976863
15800205200.0 0.2422161575 -0.9612767425
15850204900.0 0.2282342858 -0.9646731997
15900204600.0 0.2129534449 -0.9682745537
15950204300.0 0.1986023606 -0.9713615104
16000204000.0 0.1843408555 -0.9744212366
16050203700.0 0.1693019066 -0.9773565058
16100203400.0 0.1541002619 -0.9796384824
16150203100.0 0.1393497596 -0.981893972
16200202800.0 0.1251388875 -0.9837701696
16250202500.0 0.1106614102 -0.9857167708
16300202200.0 0.094825597 -0.9878540581
16350201900.0 0.0800273203 -0.9887727465
16400201600.0 0.0653665495 -0.990137501
16450201300.0 0.0496305537 -0.9911175402
16500201000.0 0.0325655372 -0.991954205
16550200700.0 0.0163883787 -0.9926116177
16600200400.0 0.0006577437 -0.9925886306
16650200100.0 -0.0156886156 -0.9924110597
16700199800.0 -0.0319687774 -0.9920034502
16750199500.0 -0.0510519255 -0.9915148392
16800199200.0 -0.0670728104 -0.9905356137
16850198900.0 -0.0825887647 -0.9895639532
16900198600.0 -0.0964184826 -0.9889592027
16950198300.0 -0.1104851225 -0.9873520948
17000198000.0 -0.1234609707 -0.9862362751
17050197700.0 -0.1358409828 -0.9842018736
17100197400.0 -0.1493243308 -0.9822997803
17150197100.0 -0.161524956 -0.9800739487
17200196800.0 -0.174644594 -0.9779466666
17250196500.0 -0.1872299242 -0.9754136189
17300196200.0 -0.1994455222 -0.9731367124
17350195900.0 -0.2114064296 -0.9708347744
17400195600.0 -0.2232857395 -0.9681196712
17450195300.0 -0.2361702675 -0.9653505184
17500195000.0 -0.2493931467 -0.9620300065
17550194700.0 -0.2631357099 -0.9584825697
17600194400.0 -0.2769659966 -0.9544099446
17650194100.0 -0.2903842875 -0.9507421263
17700193800.0 -0.3032562818 -0.9466677989
17750193500.0 -0.3181847074 -0.9416994359
17800193200.0 -0.3323201013 -0.9364784163
17850192900.0 -0.3466213979 -0.9308861319
17900192600.0 -0.3622229455 -0.925255251
17950192300.0 -0.377621095 -0.9180295623
18000192000.0 -0.3921360744 -0.9106569248
18050191700.0 -0.4059541569 -0.9026057803
18100191400.0 -0.4201963525 -0.8949900297
18150191100.0 -0.4350874437 -0.8869518981
18200190800.0 -0.4519574502 -0.8779302513
18250190500.0 -0.4690662311 -0.8681056632
18300190200.0 -0.4842785716 -0.8597390839
18350189900.0 -0.4993203063 -0.8511373979
18400189600.0 -0.5138576609 -0.8426821295
18450189300.0 -0.5276380884 -0.8349866239
18500189000.0 -0.5409097958 -0.8263585786
18550188700.0 -0.5539718715 -0.8192314143
18600188400.0 -0.5659228111 -0.8118650144
18650188100.0 -0.5766945971 -0.8056532647
18700187800.0 -0.5876393991 -0.7989567375
18750187500.0 -0.5988886946 -0.7920382686
18800187200.0 -0.6095362218 -0.7852638811
18850186900.0 -0.6197962735 -0.7781655458
18900186600.0 -0.6301538047 -0.7708732045
18950186300.0 -0.6402278054 -0.7632110948
19000186000.0 -0.6476497677 -0.7566903067
19050185700.0 -0.6570048159 -0.749931131
19100185400.0 -0.6669373394 -0.7417047526
19150185100.0 -0.6774964713 -0.7334636799
19200184800.0 -0.6866166275 -0.7250429266
19250184500.0 -0.6969588776 -0.7157172685
19300184200.0 -0.7083544557 -0.7065537865
19350183900.0 -0.7191204222 -0.6961568973
19400183600.0 -0.7284489954 -0.6868740613
19450183300.0 -0.7377015796 -0.6766093161
19500183000.0 -0.7460252637 -0.6663566634
19550182700.0 -0.7556525585 -0.6556887886
19600182400.0 -0.765555799 -0.6440250267
19650182100.0 -0.7765065924 -0.6318636366
19700181800.0 -0.7865908856 -0.6183693574
19750181500.0 -0.7970821083 -0.6042609207
19800181200.0 -0.8072293221 -0.5892655172
19850180900.0 -0.8166481469 -0.5740554066
19900180600.0 -0.8243886868 -0.5598896088
19950180300.0 -0.8336618159 -0.5432150149
20000180000.0 -0.8234432647 -0.5473296747
20050179700.0 -0.83140678 -0.5343074377
20100179400.0 -0.8392990122 -0.5212643472
20150179100.0 -0.8477293143 -0.5096472394
20200178800.0 -0.8564237789 -0.4981135737
20250178500.0 -0.8653721441 -0.4853696126
20300178200.0 -0.8751280153 -0.471668018
20350177900.0 -0.8840657071 -0.4579669348
20400177600.0 -0.8934382789 -0.4436567024
20450177300.0 -0.9021237134 -0.4288231522
20500177000.0 -0.9100210129 -0.4152628654
20550176700.0 -0.9178291714 -0.4017138965
20600176400.0 -0.9247931892 -0.38883775
20650176100.0 -0.9317305384 -0.376952308
20700175800.0 -0.9379759954 -0.3645498874
20750175500.0 -0.9446545676 -0.3523303416
20800175200.0 -0.9488460765 -0.3419061891
20850174900.0 -0.9540824213 -0.3313892514
20900174600.0 -0.9578283769 -0.3202681887
20950174300.0 -0.9607116019 -0.3102507353
21000174000.0 -0.963700715 -0.2979202767
21050173700.0 -0.9650847324 -0.2892813838
21100173400.0 -0.968906641 -0.2784280934
21150173100.0 -0.9730840607 -0.265924631
21200172800.0 -0.9769183344 -0.25351949
21250172500.0 -0.9803656027 -0.2394427607
21300172200.0 -0.9841962984 -0.225602264
21350171900.0 -0.9860698438 -0.2109656621
21400171600.0 -0.988190455 -0.1972590294
21450171300.0 -0.9889414621 -0.1823885767
21500171000.0 -0.9892336217 -0.1675406822
21550170700.0 -0.9898632032 -0.1538578527
21600170400.0 -0.990792533 -0.1366819624
21650170100.0 -0.9908002978 -0.1219221965
21700169800.0 -0.9904650629 -0.1068708486
21750169500.0 -0.9903646963 -0.0889441691
21800169200.0 -0.9895716646 -0.07300113
21850168900.0 -0.9900202309 -0.0563621337
21900168600.0 -0.989249248 -0.0404178981
21950168300.0 -0.9890181838 -0.0246790728
22000168000.0 -0.9891848233 -0.0103961213
22050167700.0 -0.9895188459 0.0045199935
22100167400.0 -0.9900755485 0.0203042764
22150167100.0 -0.9912003634 0.0360351608
22200166800.0 -0.9916528617 0.0529718887
22250166500.0 -0.9913246714 0.0700021926
22300166200.0 -0.9906111865 0.0854536325
22350165900.0 -0.9893433941 0.1028755811
22400165600.0 -0.9878166782 0.1185734608
22450165300.0 -0.9863165068 0.1330418169
22500165000.0 -0.9837992969 0.1478896606
22550164700.0 -0.9832008595 0.1640745769
22600164400.0 -0.9812415186 0.1799976639
22650164100.0 -0.9775245227 0.1954778019
22700163800.0 -0.9751056467 0.2114746556
22750163500.0 -0.9718618319 0.2266311661
22800163200.0 -0.9688730093 0.2396210342
22850162900.0 -0.966515138 0.2531295836
22900162600.0 -0.9643038862 0.2667314151
22950162300.0 -0.9628836944 0.280881622
23000162000.0 -0.9612243284 0.2929784806
23050161700.0 -0.9582703487 0.3068688039
23100161400.0 -0.9555766784 0.3205745486
23150161100.0 -0.9523937469 0.3330862231
23200160800.0 -0.9503409762 0.3459511684
23250160500.0 -0.9464291353 0.3585687426
23300160200.0 -0.9448724489 0.3715748866
23350159900.0 -0.9397775905 0.3842914778
23400159600.0 -0.9353729508 0.3988230087
23450159300.0 -0.9301229741 0.4122222602
23500159000.0 -0.924880632 0.4257961704
23550158700.0 -0.9200835477 0.4399485586
23600158400.0 -0.9143587538 0.4539204045
23650158100.0 -0.9068767333 0.468643114
23700157800.0 -0.8984472257 0.482744109
23750157500.0 -0.8893128385 0.497073496
23800157200.0 -0.8794622535 0.5108525589
23850156900.0 -0.8699041156 0.5231860134
23900156600.0 -0.859658531 0.5360321726
23950156300.0 -0.8505564484 0.5485315664
24000156000.0 -0.8408270874 0.5604389425
24050155700.0 -0.8297552599 0.5731000719
24100155400.0 -0.8200433322 0.5855523832
24150155100.0 -0.8090462567 0.5978235848
24200154800.0 -0.7977265281 0.608976437
24250154500.0 -0.7865524661 0.6220879416
24300154200.0 -0.7751672327 0.633886482
24350153900.0 -0.7626642513 0.6449229101
24400153600.0 -0.7503423818 0.6554623823
24450153300.0 -0.7383681405 0.6657024626
24500153000.0 -0.7267442857 0.6759098052
24550152700.0 -0.7152739819 0.6856918272
24600152400.0 -0.7034510225 0.695216359
24650152100.0 -0.6908226589 0.7030947692
