!Created with skrf (http://scikit-rf.org).
# Hz S RI R 50.0 
!freq ReS11 ImS11
300000.0 -0.9747262668 -0.1200128747
50299700.0 -0.9999106487 0.0152280943
100299400.0 -0.9980318123 0.0280589281
150299100.0 -1.00260515 0.0450564518
200298800.0 -0.999628597 0.0583256777
250298500.0 -0.997468605 0.0717622917
300298200.0 -0.9858417739 0.0875345472
350297900.0 -0.9941179184 0.0984096854
400297600.0 -0.9932649852 0.1152171521
450297300.0 -0.9911084629 0.1289510827
500297000.0 -0.9894540259 0.1436495349
550296700.0 -0.9843052138 0.1559672777
600296400.0 -1.017437267 0.1894160741
650296100.0 -0.9820924579 0.1860572915
700295800.0 -0.9793801798 0.2001997635
750295500.0 -0.9763786776 0.214125731
800295200.0 -0.973083151 0.228304035
850294900.0 -0.9698394816 0.2420390603
900294600.0 -0.9660014625 0.2558248302
950294300.0 -0.9622404813 0.2698200809
1000294000.0 -0.9581979638 0.2835722748
1050293700.0 -0.9537409301 0.2974497218
1100293400.0 -0.9492423732 0.3116444161
1150293100.0 -0.9454531283 0.323595412
1200292800.0 -0.9401650857 0.3379590118
1250292500.0 -0.9347001809 0.3514393654
1300292200.0 -0.929135707 0.3645893557
1350291900.0 -0.9234110157 0.3784985896
1400291600.0 -0.9180029496 0.3917459764
1450291300.0 -0.9125877816 0.4042211121
1500291000.0 -0.906210061 0.4175952285
1550290700.0 -0.8997924043 0.4308511179
1600290400.0 -0.8935293351 0.4436898983
1650290100.0 -0.8866919312 0.4558146538
1700289800.0 -0.8798681806 0.469280543
1750289500.0 -0.8727645568 0.4819081793
1800289200.0 -0.8655459823 0.4946280307
1850288900.0 -0.8587448808 0.5059886321
1900288600.0 -0.8507378174 0.5189035813
1950288300.0 -0.8427875383 0.5315069395
2000288000.0 -0.8356067426 0.5430176032
2050287700.0 -0.8270971415 0.5552868359
2100287400.0 -0.8191810379 0.5668630757
2150287100.0 -0.810697325 0.5789160335
2200286800.0 -0.8031468492 0.5893691228
2250286500.0 -0.7941597074 0.6014562674
2300286200.0 -0.7850940719 0.6131231583
2350285900.0 -0.7768287617 0.6238573018
2400285600.0 -0.7677094188 0.6347753012
2450285300.0 -0.7590640822 0.6451438455
2500285000.0 -0.7492414545 0.6566499023
2550284700.0 -0.740342985 0.6670190453
2600284400.0 -0.7310755572 0.6768828348
2650284100.0 -0.7221889246 0.6875021895
2700283800.0 -0.7116941921 0.6977918736
2750283500.0 -0.7013103193 0.7082722755
2800283200.0 -0.6913959493 0.7185426161
2850282900.0 -0.6814567261 0.7284576816
2900282600.0 -0.6707894564 0.7377522112
2950282300.0 -0.6605144067 0.7470896188
3000282000.0 -0.6498375443 0.7566824682
3050281700.0 -0.6387292706 0.7659611288
3100281400.0 -0.6267934552 0.7752274665
3150281100.0 -0.6151383098 0.7844182121
3200280800.0 -0.6035735229 0.7929180044
3250280500.0 -0.5925871739 0.8006517811
3300280200.0 -0.5813180998 0.8086329139
3350279900.0 -0.5697483728 0.8162186519
3400279600.0 -0.5572187889 0.8243128237
3450279300.0 -0.5461588944 0.8310403706
3500279000.0 -0.534362494 0.8383485873
3550278700.0 -0.5219837456 0.8455535299
3600278400.0 -0.5098971647 0.8526625778
3650278100.0 -0.4966016576 0.8600937265
3700277800.0 -0.4846732676 0.8665765597
3750277500.0 -0.4723888938 0.8735105749
3800277200.0 -0.4598180949 0.8799262831
3850276900.0 -0.447693325 0.885523258
3900276600.0 -0.4369945061 0.891232714
3950276300.0 -0.4248405311 0.8973450035
4000276000.0 -0.4126348165 0.9032319024
4050275700.0 -0.3999418644 0.9094546847
4100275400.0 -0.3888097015 0.914701289
4150275100.0 -0.3761296595 0.9205393631
4200274800.0 -0.3627020678 0.9260810129
4250274500.0 -0.3504331373 0.9312576332
4300274200.0 -0.3374508488 0.9366998923
4350273900.0 -0.3235207809 0.9418883233
4400273600.0 -0.308528617 0.9471760076
4450273300.0 -0.2933025433 0.9522644734
4500273000.0 -0.2800899012 0.9564953652
4550272700.0 -0.2660710895 0.9607829615
4600272400.0 -0.2506843708 0.9649753989
4650272100.0 -0.2392069926 0.9681127906
4700271800.0 -0.2258311304 0.9714898202
4750271500.0 -0.2142181911 0.9743169675
4800271200.0 -0.2016879096 0.9770955355
4850270900.0 -0.1878367557 0.9798300739
4900270600.0 -0.1740206014 0.982314001
4950270300.0 -0.1597132606 0.9847561978
5000270000.0 -0.1453289769 0.9865452534
5050269700.0 -0.1318999028 0.9884296385
5100269400.0 -0.1179216758 0.9902621553
5150269100.0 -0.104637124 0.9918955463
5200268800.0 -0.090983201 0.9928137314
5250268500.0 -0.0781409721 0.9938147827
5300268200.0 -0.0647820849 0.9941265252
5350267900.0 -0.0523808924 0.9951918265
5400267600.0 -0.0361942281 0.9961591572
5450267300.0 -0.0229514769 0.9967947518
5500267000.0 -0.007777642 0.9970672267
5550266700.0 0.0069222546 0.99733074
5600266400.0 0.0226704987 0.9971656588
5650266100.0 0.0392257778 0.9969207495
5700265800.0 0.0537713307 0.9963656747
5750265500.0 0.068977881 0.9956296757
5800265200.0 0.0824862874 0.994071844
5850264900.0 0.0958179267 0.9931701213
5900264600.0 0.1125726387 0.9920392672
5950264300.0 0.1243935607 0.9899520468
6000264000.0 0.1380520669 0.9880047158
6050263700.0 0.1502753835 0.9866990345
6100263400.0 0.1627786187 0.9853654948
6150263100.0 0.1771898284 0.9827877062
6200262800.0 0.1874128534 0.9809975158
6250262500.0 0.1999797645 0.9786513315
6300262200.0 0.2127602378 0.9759498784
6350261900.0 0.2256878179 0.9732241378
6400261600.0 0.2395668309 0.9698303099
6450261300.0 0.2507086335 0.9670578553
6500261000.0 0.2639347442 0.963556441
6550260700.0 0.276784721 0.959716808
6600260400.0 0.2903083762 0.9554917269
6650260100.0 0.3043007639 0.9512062199
6700259800.0 0.3165446629 0.9470119171
6750259500.0 0.3298240666 0.9419862896
6800259200.0 0.3431152394 0.9367630078
6850258900.0 0.3552637947 0.9317569631
6900258600.0 0.3679472752 0.9266668267
6950258300.0 0.3802347431 0.9214509159
7000258000.0 0.3921405438 0.9160965041
7050257700.0 0.4042120472 0.909937328
7100257400.0 0.4173190124 0.9038932329
7150257100.0 0.4277691058 0.8985101031
7200256800.0 0.440609661 0.8920157198
7250256500.0 0.4525535696 0.8855368293
7300256200.0 0.465888865 0.8788662559
7350255900.0 0.478202635 0.8719770835
7400255600.0 0.4917085461 0.8646263652
7450255300.0 0.5072464068 0.8555587266
7500255000.0 0.5190631194 0.8482800497
7550254700.0 0.53304019 0.8394227674
7600254400.0 0.5457692184 0.8312749873
7650254100.0 0.5572081228 0.8235807826
7700253800.0 0.5691922705 0.8156108204
7750253500.0 0.5800395611 0.8077150159
7800253200.0 0.5909154003 0.8000926783
7850252900.0 0.6004116021 0.7930915206
7900252600.0 0.6120824112 0.7843654945
7950252300.0 0.6208045604 0.777757947
8000252000.0 0.6310913803 0.7701397529
8050251700.0 0.6414500404 0.761923265
8100251400.0 0.6514484845 0.7539647882
8150251100.0 0.6617450552 0.7454553653
8200250800.0 0.6712934967 0.7374766055
8250250500.0 0.6798789054 0.7292761575
8300250200.0 0.6893409098 0.7208134732
8350249900.0 0.69814483 0.7121405746
8400249600.0 0.7061842043 0.704173995
8450249300.0 0.715261128 0.6949813901
8500249000.0 0.7240258602 0.6861037974
8550248700.0 0.7324586674 0.6769799899
8600248400.0 0.7407545391 0.6676443656
8650248100.0 0.7484037469 0.658086346
8700247800.0 0.7578809085 0.6470789601
8750247500.0 0.7660713017 0.6368052166
8800247200.0 0.7742489745 0.6265897716
8850246900.0 0.7827998917 0.6150804989
8900246600.0 0.7914725275 0.6037759853
8950246300.0 0.8006872655 0.5911196147
9000246000.0 0.8102260206 0.5783698699
9050245700.0 0.8186718175 0.5656664521
9100245400.0 0.827471444 0.5533074864
9150245100.0 0.8367044763 0.5398889981
9200244800.0 0.8463414886 0.5249555692
9250244500.0 0.855288034 0.509751924
9300244200.0 0.8637475719 0.4957930903
9350243900.0 0.8716675139 0.4818829315
9400243600.0 0.8783121108 0.4698211702
9450243300.0 0.8841901398 0.4584025863
9500243000.0 0.890336533 0.4464977855
9550242700.0 0.8941099666 0.4389488349
9600242400.0 0.8981581085 0.4314791732
9650242100.0 0.9021492156 0.4247874502
9700241800.0 0.9068691447 0.4164407488
9750241500.0 0.9110553377 0.4087016756
9800241200.0 0.915568396 0.3994643297
9850240900.0 0.9215169773 0.3879338247
9900240600.0 0.9271899891 0.3763560629
9950240300.0 0.9338725995 0.3600234773
10000240000.0 0.9386789877 0.3486633225
10050239700.0 0.944612544 0.3326699527
10100239400.0 0.9499205105 0.31693136
10150239100.0 0.953734701 0.3021340053
10200238800.0 0.9580781328 0.2870066919
10250238500.0 0.961432835 0.2735532569
10300238200.0 0.9645410134 0.2594430522
10350237900.0 0.9672359663 0.2462246587
10400237600.0 0.9699114205 0.2327475345
10450237300.0 0.9725717976 0.2195028165
10500237000.0 0.9747744112 0.2071704075
10550236700.0 0.9767989993 0.1929075369
10600236400.0 0.9792588392 0.1792748323
10650236100.0 0.9814546153 0.1640111059
10700235800.0 0.9836174388 0.1518606236
10750235500.0 0.9856272768 0.1388678685
10800235200.0 0.9874505942 0.1247623522
10850234900.0 0.9898881991 0.1097964342
10900234600.0 0.992070898 0.0951912001
10950234300.0 0.9933648176 0.0817737619
11000234000.0 0.9954252716 0.0665300155
11050233700.0 0.9971111464 0.0502369554
11100233400.0 0.9984416197 0.03258565
11150233100.0 0.9994827389 0.0165165762
11200232800.0 1.00052783 0.000470438
11250232500.0 1.001605664 -0.0160354668
11300232200.0 1.002024672 -0.0338697621
11350231900.0 1.001445069 -0.0488541858
11400231600.0 1.001765134 -0.0655497377
11450231300.0 1.001414436 -0.0807006432
11500231000.0 0.9996984766 -0.0968864763
11550230700.0 0.9988875386 -0.1100230904
11600230400.0 0.997799268 -0.1232069094
11650230100.0 0.9948967096 -0.1353232861
11700229800.0 0.9929753838 -0.1497919248
11750229500.0 0.9905796485 -0.1633172358
11800229200.0 0.9880355625 -0.1772481089
11850228900.0 0.9844374412 -0.1893744353
11900228600.0 0.9810317526 -0.1992779825
11950228300.0 0.9776072478 -0.2099677203
12000228000.0 0.9750646574 -0.2183356596
12050227700.0 0.9711942989 -0.2314223329
12100227400.0 0.9676548428 -0.2426157537
12150227100.0 0.9622702963 -0.259891962
12200226800.0 0.9591402959 -0.2705384716
12250226500.0 0.9547785435 -0.2824734362
12300226200.0 0.9511999917 -0.2944580189
12350225900.0 0.9456007035 -0.3092477874
12400225600.0 0.9416407652 -0.3216114231
12450225300.0 0.9373299744 -0.3342221795
12500225000.0 0.9314710149 -0.3490799615
12550224700.0 0.9264524001 -0.362946437
12600224400.0 0.9215017887 -0.3758230724
12650224100.0 0.9157172373 -0.3902180975
12700223800.0 0.9103323666 -0.4030775131
12750223500.0 0.9048635345 -0.4162307814
12800223200.0 0.8998614576 -0.4284839333
12850222900.0 0.89439393 -0.4406906807
12900222600.0 0.8884362728 -0.452945205
12950222300.0 0.8822474463 -0.4658028568
13000222000.0 0.8766745607 -0.4773429395
13050221700.0 0.869955309 -0.4898033722
13100221400.0 0.8630758157 -0.5017272525
13150221100.0 0.8564506904 -0.5143283356
13200220800.0 0.8494133216 -0.5256876777
13250220500.0 0.8421445777 -0.5377969499
13300220200.0 0.8346720543 -0.5484957504
13350219900.0 0.8265070928 -0.5603669466
13400219600.0 0.8183195769 -0.5723179272
13450219300.0 0.8088385625 -0.5860778248
13500219000.0 0.7985538684 -0.5995016951
13550218700.0 0.7891534815 -0.6121122951
13600218400.0 0.7782939171 -0.6246044475
13650218100.0 0.7691195382 -0.6353387855
13700217800.0 0.7582510018 -0.6481041842
13750217500.0 0.7486452475 -0.6583429883
13800217200.0 0.7371257397 -0.6702918781
13850216900.0 0.725876115 -0.6813997059
13900216600.0 0.7164483283 -0.6905224202
13950216300.0 0.7055751567 -0.700663481
14000216000.0 0.696029257 -0.7102274572
14050215700.0 0.6859229799 -0.7181530153
14100215400.0 0.6764689953 -0.7273481499
14150215100.0 0.6673265235 -0.7357484103
14200214800.0 0.657818351 -0.7445709002
14250214500.0 0.6475264823 -0.7539621531
14300214200.0 0.6368934952 -0.7632582478
14350213900.0 0.6256118552 -0.7730257752
14400213600.0 0.6140253139 -0.782934747
14450213300.0 0.6009748241 -0.7929052927
14500213000.0 0.5880197605 -0.8028210624
14550212700.0 0.5754642666 -0.8125698451
14600212400.0 0.5635436397 -0.8211869649
14650212100.0 0.5503047245 -0.8294209705
14700211800.0 0.5363721137 -0.8395121182
14750211500.0 0.5242747863 -0.847719507
14800211200.0 0.511985915 -0.8554902258
14850210900.0 0.4997214654 -0.8633962006
14900210600.0 0.4864023037 -0.8710870978
14950210300.0 0.47302292 -0.8787676106
15000210000.0 0.460230871 -0.8853913482
15050209700.0 0.4480982682 -0.8914677511
15100209400.0 0.4355277335 -0.8978342058
15150209100.0 0.4229679728 -0.902732057
15200208800.0 0.4104580395 -0.9080848504
15250208500.0 0.3991719934 -0.912871339
15300208200.0 0.3868447901 -0.9169372003
15350207900.0 0.3738708884 -0.9227564097
15400207600.0 0.3594729642 -0.9278195872
15450207300.0 0.344776833 -0.9326470082
15500207000.0 0.3302521056 -0.9370360916
15550206700.0 0.3146315107 -0.941915081
15600206400.0 0.2996941139 -0.9469691878
15650206100.0 0.2833577602 -0.9510175805
15700205800.0 0.2697608781 -0.9549180542
15750205500.0 0.2552681949 -0.9583417206
15800205200.0 0.2411991313 -0.961692448
15850204900.0 0.226641776 -0.9651172268
15900204600.0 0.2114961487 -0.9688662103
15950204300.0 0.1975237326 -0.9717906951
16000204000.0 0.1828284346 -0.9751680942
16050203700.0 0.1681635722 -0.9777725656
16100203400.0 0.1534568591 -0.9800238319
16150203100.0 0.1391981529 -0.9822383561
16200202800.0 0.124658619 -0.9843052239
16250202500.0 0.1100445618 -0.9859271325
16300202200.0 0.094379028 -0.9877655807
16350201900.0 0.0797300408 -0.9891410046
16400201600.0 0.0648484783 -0.9901511557
16450201300.0 0.0495638531 -0.9912647842
16500201000.0 0.0327209053 -0.9921411755
16550200700.0 0.0169806011 -0.9926144046
16600200400.0 0.0012748231 -0.9928536305
16650200100.0 -0.0147991635 -0.9929982625
16700199800.0 -0.03143331 -0.9924880576
16750199500.0 -0.0500162693 -0.9918802849
16800199200.0 -0.0658268667 -0.9908062501
16850198900.0 -0.0813811439 -0.9897122408
16900198600.0 -0.0944515451 -0.9886769082
16950198300.0 -0.1082707226 -0.9878163132
17000198000.0 -0.1218110124 -0.9863262923
17050197700.0 -0.1339160967 -0.9843078584
17100197400.0 -0.1464742392 -0.9824154904
17150197100.0 -0.1595803918 -0.9803535038
17200196800.0 -0.1722426777 -0.9782581302
17250196500.0 -0.184896819 -0.9756764789
17300196200.0 -0.1974740344 -0.973669613
17350195900.0 -0.2093618362 -0.9711649724
17400195600.0 -0.2213770152 -0.968690493
17450195300.0 -0.2344656349 -0.9659091787
17500195000.0 -0.2479896441 -0.9624748168
17550194700.0 -0.2620337456 -0.9591340258
17600194400.0 -0.2756888163 -0.9551967529
17650194100.0 -0.2895110409 -0.951161429
17700193800.0 -0.3022940608 -0.946678761
17750193500.0 -0.3168970766 -0.9420097461
17800193200.0 -0.3312141373 -0.9370117942
17850192900.0 -0.3461746893 -0.9314986608
17900192600.0 -0.3610252363 -0.9254290035
17950192300.0 -0.3768715779 -0.9182547924
18000192000.0 -0.3916033935 -0.9110463846
18050191700.0 -0.4054306714 -0.9030923744
18100191400.0 -0.4196887739 -0.8955217886
18150191100.0 -0.4346070429 -0.8874720327
18200190800.0 -0.4514920885 -0.878357324
18250190500.0 -0.4684894578 -0.8689458011
18300190200.0 -0.4838060359 -0.8600810765
18350189900.0 -0.4989710416 -0.8522055725
18400189600.0 -0.5132265307 -0.8433869063
18450189300.0 -0.5267431753 -0.8356671303
18500189000.0 -0.5398982166 -0.8274545169
18550188700.0 -0.5527527836 -0.8199916531
18600188400.0 -0.5649872966 -0.8129235729
18650188100.0 -0.5759284934 -0.806741635
18700187800.0 -0.5865137706 -0.8003757948
18750187500.0 -0.597371092 -0.7936397461
18800187200.0 -0.6077366003 -0.7864702109
18850186900.0 -0.6180277633 -0.7795682311
18900186600.0 -0.6282071493 -0.7724713153
18950186300.0 -0.6383347475 -0.7647999306
19000186000.0 -0.6456649801 -0.7585429611
19050185700.0 -0.6552615602 -0.7513375067
19100185400.0 -0.6649804255 -0.7426558048
19150185100.0 -0.6746638121 -0.734423483
19200184800.0 -0.6843931139 -0.7266540998
19250184500.0 -0.6945527865 -0.7173917381
19300184200.0 -0.7060533405 -0.7073745144
19350183900.0 -0.7165136546 -0.6982568567
19400183600.0 -0.7263750053 -0.688273949
19450183300.0 -0.7345439969 -0.6779629986
19500183000.0 -0.7434482702 -0.6683504156
19550182700.0 -0.753115489 -0.6574327608
19600182400.0 -0.763650684 -0.6448994251
19650182100.0 -0.7744401859 -0.6331050767
19700181800.0 -0.7851253587 -0.6200835244
19750181500.0 -0.7957396052 -0.6057856116
19800181200.0 -0.8060104427 -0.590815053
19850180900.0 -0.8155486792 -0.575259499
19900180600.0 -0.8232263568 -0.5607699214
19950180300.0 -0.8326533458 -0.5444978054
20000180000.0 -0.8249958164 -0.5471959832
20050179700.0 -0.8332832286 -0.5341346991
20100179400.0 -0.8414502049 -0.5200725924
20150179100.0 -0.8490540356 -0.5082123177
20200178800.0 -0.8588328325 -0.4955270923
20250178500.0 -0.8680285886 -0.4826234533
20300178200.0 -0.8777840936 -0.4678310155
20350177900.0 -0.8864331446 -0.4541417112
20400177600.0 -0.895754463 -0.4396510159
20450177300.0 -0.9037539471 -0.425419584
20500177000.0 -0.9118337092 -0.4115219206
20550176700.0 -0.9199279747 -0.3978558586
20600176400.0 -0.9271496618 -0.3848655188
20650176100.0 -0.9334532307 -0.3728133728
20700175800.0 -0.9400402281 -0.3607056296
20750175500.0 -0.9473558785 -0.3492639269
20800175200.0 -0.9522737715 -0.3380037524
20850174900.0 -0.9560281761 -0.327312055
20900174600.0 -0.9600869545 -0.3165579293
20950174300.0 -0.9649275922 -0.3050359827
21000174000.0 -0.9672024845 -0.2935652781
21050173700.0 -0.9697892004 -0.2826113256
21100173400.0 -0.9741926559 -0.2718044537
21150173100.0 -0.9781904815 -0.2595764461
21200172800.0 -0.9816152021 -0.2459913305
21250172500.0 -0.9848763764 -0.2324315093
21300172200.0 -0.9876832816 -0.2177678991
21350171900.0 -0.9895648144 -0.2042011188
21400171600.0 -0.9902869995 -0.1898845114
21450171300.0 -0.9914628292 -0.1754541772
21500171000.0 -0.9904532306 -0.1599141349
21550170700.0 -0.9908858763 -0.1439423968
21600170400.0 -0.9923638145 -0.1287265482
21650170100.0 -0.9913236042 -0.1122503815
21700169800.0 -0.9898704585 -0.0980761095
21750169500.0 -0.989437889 -0.0816242928
21800169200.0 -0.9890712078 -0.0658068785
21850168900.0 -0.9878843213 -0.0488501337
21900168600.0 -0.9868380405 -0.0319931486
21950168300.0 -0.9864013464 -0.0168120096
22000168000.0 -0.9851669967 -0.0018332801
22050167700.0 -0.9854888464 0.0126688322
22100167400.0 -0.98566914 0.028071328
22150167100.0 -0.9864209523 0.0439616857
22200166800.0 -0.9868546843 0.0601666773
22250166500.0 -0.9864807971 0.0776945126
22300166200.0 -0.9855704019 0.093688622
22350165900.0 -0.9848080219 0.1101808996
22400165600.0 -0.9821086074 0.1264291038
22450165300.0 -0.9818910095 0.1415808218
22500165000.0 -0.9789195857 0.1549039952
22550164700.0 -0.9786092338 0.1704924049
22600164400.0 -0.9767655469 0.1859076695
22650164100.0 -0.9736317492 0.2016522481
22700163800.0 -0.971435785 0.2176058993
22750163500.0 -0.9680385366 0.232138816
22800163200.0 -0.965501968 0.2454928295
22850162900.0 -0.9629087749 0.2587506876
22900162600.0 -0.9613636213 0.2723367254
22950162300.0 -0.9602383184 0.2852882322
23000162000.0 -0.9587718615 0.2973062313
23050161700.0 -0.9562425509 0.3098953921
23100161400.0 -0.9539953303 0.3228823887
23150161100.0 -0.9506540735 0.3360177671
23200160800.0 -0.9480556049 0.3482751817
23250160500.0 -0.9460754871 0.3598915491
23300160200.0 -0.9430496247 0.3722893915
23350159900.0 -0.9391521658 0.3860340982
23400159600.0 -0.9347773511 0.3986871132
23450159300.0 -0.9290807093 0.4125179107
23500159000.0 -0.9247874959 0.4256126461
23550158700.0 -0.9203211918 0.4398214355
23600158400.0 -0.9145556559 0.4529032244
23650158100.0 -0.9080403393 0.4670896343
23700157800.0 -0.9001365452 0.4810504679
23750157500.0 -0.8914849409 0.4954362832
23800157200.0 -0.8820505217 0.5084857974
23850156900.0 -0.8734132639 0.5215973479
23900156600.0 -0.8640191729 0.5337786182
23950156300.0 -0.8541347647 0.5465134986
24000156000.0 -0.8458851447 0.5586370017
24050155700.0 -0.8353670461 0.5706421081
24100155400.0 -0.8250691698 0.5829719086
24150155100.0 -0.8143699139 0.5946895932
24200154800.0 -0.8029343557 0.6058621251
24250154500.0 -0.7924331649 0.6183917826
24300154200.0 -0.7810591153 0.6293852716
24350153900.0 -0.7688963783 0.6401922796
24400153600.0 -0.756970377 0.6504081907
24450153300.0 -0.7447554195 0.6605251143
24500153000.0 -0.7336138156 0.6702749591
24550152700.0 -0.721975193 0.6799808955
24600152400.0 -0.7104983889 0.6889311522
24650152100.0 -0.6990811594 0.6979812222
