!Created with skrf (http://scikit-rf.org).
# Hz S RI R 50.0 
!freq ReS11 ImS11
300000.0 -0.9780535342 -0.1084700177
50299700.0 -1.000064341 0.0159831944
100299400.0 -0.998081913 0.0289480633
150299100.0 -1.002884788 0.0454971119
200298800.0 -0.999565031 0.0589042934
250298500.0 -0.9972145666 0.0724439921
300298200.0 -0.9861603163 0.0883661504
350297900.0 -0.9941500508 0.0991211593
400297600.0 -0.9930392948 0.1157534963
450297300.0 -0.9910523484 0.1295962301
500297000.0 -0.989599348 0.1442961119
550296700.0 -0.9846118028 0.1569067517
600296400.0 -1.017338181 0.190217546
650296100.0 -0.9821766368 0.1867760987
700295800.0 -0.9793150162 0.201105598
750295500.0 -0.9764756513 0.2150258594
800295200.0 -0.9730405538 0.2292768931
850294900.0 -0.9695311438 0.2429690338
900294600.0 -0.9656378525 0.2568742341
950294300.0 -0.9618672875 0.2704698894
1000294000.0 -0.9580054762 0.2844509258
1050293700.0 -0.9534839259 0.2983116766
1100293400.0 -0.9492227863 0.3128153229
1150293100.0 -0.9452914647 0.3247446401
1200292800.0 -0.9400183035 0.3390406794
1250292500.0 -0.93453861 0.3523852147
1300292200.0 -0.9289103845 0.3656634345
1350291900.0 -0.9232768028 0.3795275214
1400291600.0 -0.9177146032 0.3927396441
1450291300.0 -0.9121578879 0.4051017136
1500291000.0 -0.9058881335 0.4184379484
1550290700.0 -0.8995573214 0.4317314942
1600290400.0 -0.8931702435 0.4447159782
1650290100.0 -0.8865369511 0.4567845474
1700289800.0 -0.8798458852 0.4702555077
1750289500.0 -0.8727074095 0.4825137199
1800289200.0 -0.8651565572 0.4954193379
1850288900.0 -0.8584658449 0.5068118321
1900288600.0 -0.8508817154 0.5197669819
1950288300.0 -0.8424507791 0.532260775
2000288000.0 -0.8349745934 0.5436484569
2050287700.0 -0.8269168266 0.5559137978
2100287400.0 -0.8189414579 0.5677703329
2150287100.0 -0.810173401 0.5799335138
2200286800.0 -0.8023275078 0.5902009648
2250286500.0 -0.7937776582 0.6022145202
2300286200.0 -0.7846427823 0.6138473778
2350285900.0 -0.7758572553 0.6246521638
2400285600.0 -0.7670343442 0.6356450451
2450285300.0 -0.7582858709 0.6461683566
2500285000.0 -0.7488080789 0.6575494883
2550284700.0 -0.7396500891 0.6676630783
2600284400.0 -0.7302702928 0.6779991671
2650284100.0 -0.7211883857 0.688563876
2700283800.0 -0.7106212616 0.6988972314
2750283500.0 -0.7004958424 0.7095788532
2800283200.0 -0.6905835441 0.7192362592
2850282900.0 -0.6803915326 0.729182158
2900282600.0 -0.6698885956 0.7387036635
2950282300.0 -0.65989558 0.7478815172
3000282000.0 -0.6491119124 0.7573462753
3050281700.0 -0.6380367669 0.766529179
3100281400.0 -0.6260524543 0.7760753921
3150281100.0 -0.6142772079 0.7854023464
3200280800.0 -0.6026476114 0.7938416086
3250280500.0 -0.5919224242 0.8015110209
3300280200.0 -0.5806450961 0.8093611466
3350279900.0 -0.5692505351 0.8169738526
3400279600.0 -0.5570911642 0.8245415564
3450279300.0 -0.5458727873 0.8316227414
3500279000.0 -0.5338219004 0.8386956414
3550278700.0 -0.5214220342 0.8460714459
3600278400.0 -0.5090569148 0.8533534875
3650278100.0 -0.4958241038 0.8609150596
3700277800.0 -0.4837326453 0.867257382
3750277500.0 -0.4714412477 0.8738393033
3800277200.0 -0.4590506162 0.8801819082
3850276900.0 -0.4471221545 0.8862326121
3900276600.0 -0.435926065 0.8917515037
3950276300.0 -0.4235108503 0.8981335197
4000276000.0 -0.4116644957 0.9038903052
4050275700.0 -0.3985861069 0.9101654589
4100275400.0 -0.3874160177 0.9153765039
4150275100.0 -0.3746318896 0.9209503886
4200274800.0 -0.3617153586 0.9265220033
4250274500.0 -0.3494733774 0.9318607333
4300274200.0 -0.3363833549 0.93687174
4350273900.0 -0.32257964 0.9424040496
4400273600.0 -0.3076945331 0.947324191
4450273300.0 -0.2922727461 0.9525809551
4500273000.0 -0.2787616051 0.956915392
4550272700.0 -0.2645312436 0.9611318761
4600272400.0 -0.2489570824 0.9654250852
4650272100.0 -0.2373384043 0.9685410367
4700271800.0 -0.224065316 0.9719757657
4750271500.0 -0.2123967554 0.9747498639
4800271200.0 -0.1999890585 0.9775530746
4850270900.0 -0.1860439497 0.9802592323
4900270600.0 -0.1721774438 0.9827621905
4950270300.0 -0.1578414055 0.9852364725
5000270000.0 -0.1435792723 0.9874068669
5050269700.0 -0.130281883 0.9889819706
5100269400.0 -0.1165802486 0.990327743
5150269100.0 -0.1032702534 0.9917048049
5200268800.0 -0.0900861728 0.9931760705
5250268500.0 -0.0768686758 0.9938767366
5300268200.0 -0.0640649141 0.9947889649
5350267900.0 -0.0515500805 0.9953805282
5400267600.0 -0.0355330183 0.9963467002
5450267300.0 -0.0224784607 0.9967147746
5500267000.0 -0.0072439831 0.996927112
5550266700.0 0.0077800636 0.99729914
5600266400.0 0.023255582 0.9973960226
5650266100.0 0.0401751813 0.9970844335
5700265800.0 0.0541986816 0.995976527
5750265500.0 0.0698103084 0.9952061119
5800265200.0 0.0835923699 0.9942830005
5850264900.0 0.0971278418 0.9932834686
5900264600.0 0.1134230955 0.9910592488
5950264300.0 0.1257422038 0.9899904684
6000264000.0 0.1394814671 0.9883174289
6050263700.0 0.1519997178 0.9867265063
6100263400.0 0.1644994951 0.9844302966
6150263100.0 0.1788921556 0.982135483
6200262800.0 0.1895738652 0.9805819546
6250262500.0 0.2021516274 0.977993508
6300262200.0 0.2150176469 0.9753233254
6350261900.0 0.2280878447 0.9724519439
6400261600.0 0.2418503139 0.9690250629
6450261300.0 0.253080063 0.9662776912
6500261000.0 0.2662712821 0.9631665847
6550260700.0 0.2789653063 0.9588702696
6600260400.0 0.2921600124 0.9547891521
6650260100.0 0.3062629299 0.950640856
6700259800.0 0.3181796463 0.9463139304
6750259500.0 0.3320684386 0.9411420015
6800259200.0 0.3449467499 0.9358794975
6850258900.0 0.3568415766 0.9311192418
6900258600.0 0.3690108165 0.9261677021
6950258300.0 0.3816824685 0.9207242278
7000258000.0 0.3935609537 0.9153719272
7050257700.0 0.4060365947 0.9093057511
7100257400.0 0.4187011172 0.9032473316
7150257100.0 0.4290958921 0.897952087
7200256800.0 0.4418723744 0.8915311298
7250256500.0 0.4537843257 0.8850853544
7300256200.0 0.4665529087 0.8781872636
7350255900.0 0.4789061641 0.8714454028
7400255600.0 0.4924982223 0.8644096202
7450255300.0 0.5076710481 0.8553607759
7500255000.0 0.5191841408 0.8481250526
7550254700.0 0.5328766932 0.8393619039
7600254400.0 0.5463991975 0.8312779947
7650254100.0 0.557123715 0.8232623748
7700253800.0 0.5693294515 0.8152902302
7750253500.0 0.5809050059 0.8075284588
7800253200.0 0.5911412123 0.799936828
7850252900.0 0.6009579764 0.792883357
7900252600.0 0.6126609169 0.7838444634
7950252300.0 0.62136491 0.7775828671
8000252000.0 0.631498549 0.7695655738
8050251700.0 0.641961851 0.7615163731
8100251400.0 0.6525316539 0.7530725871
8150251100.0 0.6622879025 0.7445346045
8200250800.0 0.6716391205 0.7364873853
8250250500.0 0.6805623175 0.7287158977
8300250200.0 0.6898499402 0.7200390399
8350249900.0 0.6989445795 0.7114068391
8400249600.0 0.7069894677 0.7034373428
8450249300.0 0.7164724955 0.694100843
8500249000.0 0.7249698443 0.6850734036
8550248700.0 0.7330440218 0.6761675562
8600248400.0 0.7416393144 0.6668471997
8650248100.0 0.7492849201 0.6572429565
8700247800.0 0.7589175686 0.6461161872
8750247500.0 0.7671976245 0.6360002121
8800247200.0 0.775483487 0.6257241958
8850246900.0 0.7840392241 0.6144634325
8900246600.0 0.792268469 0.603074207
8950246300.0 0.802392524 0.5898098436
9000246000.0 0.8113273628 0.5771263321
9050245700.0 0.8207611205 0.5640464791
9100245400.0 0.829093617 0.5517464654
9150245100.0 0.8383912949 0.5380255177
9200244800.0 0.8482671878 0.5227515968
9250244500.0 0.8577558233 0.5067171789
9300244200.0 0.8661990404 0.4922217682
9350243900.0 0.8739830954 0.478437392
9400243600.0 0.8804524225 0.4660763901
9450243300.0 0.8865856563 0.4544167125
9500243000.0 0.8925372736 0.4421499216
9550242700.0 0.8964971135 0.4344825459
9600242400.0 0.9001706442 0.4271112822
9650242100.0 0.9039398949 0.4205158258
9700241800.0 0.908544311 0.4121312224
9750241500.0 0.9123753069 0.4049252688
9800241200.0 0.9170138132 0.3954908819
9850240900.0 0.9224765253 0.3842317264
9900240600.0 0.9283678095 0.37247144
9950240300.0 0.9347984061 0.3561005175
10000240000.0 0.9390980146 0.3445713495
10050239700.0 0.945276577 0.3293691704
10100239400.0 0.95005038 0.3136452946
10150239100.0 0.9545640004 0.2991528989
10200238800.0 0.9585453585 0.2841937828
10250238500.0 0.9617348613 0.2707940881
10300238200.0 0.9649575046 0.256990162
10350237900.0 0.9675290423 0.2439038061
10400237600.0 0.9701788596 0.2307171542
10450237300.0 0.9729343738 0.2169726444
10500237000.0 0.9748342587 0.2051668552
10550236700.0 0.9770019861 0.1911282914
10600236400.0 0.9792267702 0.177721963
10650236100.0 0.9814160894 0.1628585526
10700235800.0 0.9836963564 0.1508513208
10750235500.0 0.9857323654 0.1379175371
10800235200.0 0.9878689627 0.1235317084
10850234900.0 0.9899598194 0.1087152945
10900234600.0 0.9920472486 0.09428967
10950234300.0 0.9934471872 0.0812750032
11000234000.0 0.9953631129 0.0659891356
11050233700.0 0.9971627169 0.0495332687
11100233400.0 0.9983696786 0.0319289463
11150233100.0 0.9996429534 0.0155548633
11200232800.0 0.9999583103 0.001097843
11250232500.0 1.001468225 -0.0160180776
11300232200.0 1.001769457 -0.0346355818
11350231900.0 1.000951696 -0.0497566921
11400231600.0 1.001525658 -0.0649159855
11450231300.0 1.000575623 -0.0806745496
11500231000.0 0.9996199586 -0.0978888362
11550230700.0 0.9981336625 -0.1105801478
11600230400.0 0.9970168183 -0.1239227614
11650230100.0 0.9945475496 -0.1346620619
11700229800.0 0.992962284 -0.1496309346
11750229500.0 0.9902443511 -0.1641587403
11800229200.0 0.9876428511 -0.1782383859
11850228900.0 0.9841312433 -0.1906566199
11900228600.0 0.9806607895 -0.2002157178
11950228300.0 0.977456411 -0.2104028005
12000228000.0 0.9746856049 -0.2199682676
12050227700.0 0.9707456078 -0.2325682078
12100227400.0 0.9681007402 -0.2432018861
12150227100.0 0.9622498604 -0.2603293896
12200226800.0 0.9586977281 -0.2702943697
12250226500.0 0.9547273177 -0.2837530181
12300226200.0 0.9510002049 -0.2953167632
12350225900.0 0.9460230067 -0.3099801501
12400225600.0 0.9419792219 -0.3221644455
12450225300.0 0.9373114179 -0.3350187883
12500225000.0 0.932000888 -0.3494667133
12550224700.0 0.9265912324 -0.3631490989
12600224400.0 0.9217484481 -0.3761229387
12650224100.0 0.9159046395 -0.3904101043
12700223800.0 0.9106299314 -0.402994089
12750223500.0 0.905161493 -0.4162000348
12800223200.0 0.8995628073 -0.4287052261
12850222900.0 0.8946835292 -0.4406504144
12900222600.0 0.8887979895 -0.4525511706
12950222300.0 0.8824033525 -0.4660827598
13000222000.0 0.8764177323 -0.4763929818
13050221700.0 0.8695034187 -0.4898711967
13100221400.0 0.8632387332 -0.5017261822
13150221100.0 0.8561428499 -0.5142318536
13200220800.0 0.848778452 -0.525707209
13250220500.0 0.8418002411 -0.5382233335
13300220200.0 0.8341949864 -0.5487410256
13350219900.0 0.8260327402 -0.5608075399
13400219600.0 0.8181170552 -0.5729808833
13450219300.0 0.8082740341 -0.5867031772
13500219000.0 0.7974551931 -0.6007677863
13550218700.0 0.7879879 -0.6133659232
13600218400.0 0.7772630176 -0.6256592876
13650218100.0 0.7684086484 -0.6362429332
13700217800.0 0.7565874818 -0.6496173848
13750217500.0 0.7468415525 -0.6608422401
13800217200.0 0.7357004162 -0.6724375963
13850216900.0 0.72418122 -0.6833873493
13900216600.0 0.7143476469 -0.6929996001
13950216300.0 0.7033060476 -0.7037032187
14000216000.0 0.6934861406 -0.7122659255
14050215700.0 0.6839770569 -0.7203087901
14100215400.0 0.67414665 -0.7294213589
14150215100.0 0.6651365897 -0.7376772768
14200214800.0 0.655734793 -0.7463017551
14250214500.0 0.6456620707 -0.7555694865
14300214200.0 0.635194852 -0.7648524921
14350213900.0 0.6239167509 -0.7744635244
14400213600.0 0.6124373387 -0.7840578645
14450213300.0 0.5992881943 -0.7944330131
14500213000.0 0.586552838 -0.8040649474
14550212700.0 0.5734024044 -0.8138146146
14600212400.0 0.5609493 -0.8220891123
14650212100.0 0.5482549616 -0.8309034578
14700211800.0 0.534538724 -0.8407146476
14750211500.0 0.5219836262 -0.8486002128
14800211200.0 0.5097008885 -0.8563883949
14850210900.0 0.497805083 -0.8640785165
14900210600.0 0.4843875475 -0.8720459362
14950210300.0 0.4709587532 -0.8796960734
15000210000.0 0.4582268772 -0.8866100936
15050209700.0 0.4454338928 -0.8928266415
15100209400.0 0.4328413447 -0.8983931328
15150209100.0 0.4209373525 -0.9034971733
15200208800.0 0.4073160652 -0.9093936539
15250208500.0 0.3965661009 -0.9142809109
15300208200.0 0.3839987999 -0.9186389867
15350207900.0 0.3705424271 -0.9233289512
15400207600.0 0.3565047831 -0.9290609219
15450207300.0 0.3416270084 -0.9342092459
15500207000.0 0.3268816729 -0.9389788325
15550206700.0 0.3118387484 -0.9434788411
15600206400.0 0.2960981715 -0.9474303158
15650206100.0 0.2803684287 -0.9522802268
15700205800.0 0.2663752953 -0.9556844007
15750205500.0 0.2516178477 -0.9593354561
15800205200.0 0.2372059336 -0.9627120631
15850204900.0 0.2228051548 -0.9661657985
15900204600.0 0.2077956466 -0.9695990993
15950204300.0 0.1939724268 -0.9726583578
16000204000.0 0.1793444664 -0.9755674305
16050203700.0 0.1651184821 -0.9783301322
16100203400.0 0.1499837991 -0.9802131297
16150203100.0 0.136277823 -0.9827966882
16200202800.0 0.1224311875 -0.9847630587
16250202500.0 0.1073226854 -0.986800252
16300202200.0 0.0923584316 -0.987840716
16350201900.0 0.0774459149 -0.9892335509
16400201600.0 0.0628134476 -0.9903979555
16450201300.0 0.0476582475 -0.9912202947
16500201000.0 0.0311248307 -0.9921287105
16550200700.0 0.0155038977 -0.9924950931
16600200400.0 -0.0004243584 -0.9925847581
16650200100.0 -0.0165276895 -0.9927565459
16700199800.0 -0.0332771251 -0.9921112612
16750199500.0 -0.0520825233 -0.9919056769
16800199200.0 -0.067187389 -0.9902257274
16850198900.0 -0.0826426413 -0.9892176465
16900198600.0 -0.0963481413 -0.9883719435
16950198300.0 -0.1105485153 -0.9872038313
17000198000.0 -0.1235177408 -0.9858639243
17050197700.0 -0.135698044 -0.9842187858
17100197400.0 -0.1484392848 -0.981971726
17150197100.0 -0.1609279484 -0.9795663776
17200196800.0 -0.1737095036 -0.9775864472
17250196500.0 -0.1869219616 -0.9754393535
17300196200.0 -0.1990813908 -0.9728225417
17350195900.0 -0.2109981607 -0.9706618586
17400195600.0 -0.2232009213 -0.9681895185
17450195300.0 -0.2362510736 -0.9653726014
17500195000.0 -0.2498122367 -0.9619212213
17550194700.0 -0.2637433763 -0.9582258703
17600194400.0 -0.2775502512 -0.9546717514
17650194100.0 -0.2911138456 -0.9501805717
17700193800.0 -0.3041426953 -0.9460312588
17750193500.0 -0.3186192769 -0.9411079372
17800193200.0 -0.3328668187 -0.9365187357
17850192900.0 -0.3479598738 -0.9308864294
17900192600.0 -0.3628009564 -0.9244601703
17950192300.0 -0.3785372034 -0.9177533778
18000192000.0 -0.3933270569 -0.9102743143
18050191700.0 -0.4071091104 -0.9024137109
18100191400.0 -0.4213285452 -0.8947579869
18150191100.0 -0.4363222033 -0.8866593903
18200190800.0 -0.4530355689 -0.8774745368
18250190500.0 -0.4702547988 -0.8680837769
18300190200.0 -0.4850452204 -0.8595521166
18350189900.0 -0.5003750706 -0.850888925
18400189600.0 -0.5149105808 -0.8425783104
18450189300.0 -0.5283335906 -0.8339955767
18500189000.0 -0.5419481448 -0.8265551861
18550188700.0 -0.5544255576 -0.8186455735
18600188400.0 -0.565747691 -0.8118386517
18650188100.0 -0.5770565764 -0.8057012986
18700187800.0 -0.5875208826 -0.7990179751
18750187500.0 -0.5984149123 -0.7922217144
18800187200.0 -0.6089899423 -0.7854019577
18850186900.0 -0.6191895356 -0.7783051546
18900186600.0 -0.6294300458 -0.7709176971
18950186300.0 -0.6395793268 -0.7632013672
19000186000.0 -0.6469639563 -0.7568281137
19050185700.0 -0.6564596733 -0.7497054879
19100185400.0 -0.6659745045 -0.7407343882
19150185100.0 -0.676491227 -0.7322608479
19200184800.0 -0.6855218423 -0.7244610076
19250184500.0 -0.6959587946 -0.7147864873
19300184200.0 -0.7084318062 -0.7051155732
19350183900.0 -0.7190080882 -0.6957355974
19400183600.0 -0.7286164888 -0.6856966336
19450183300.0 -0.7374753457 -0.6755788315
19500183000.0 -0.745810531 -0.6657798789
19550182700.0 -0.755002066 -0.6549499951
19600182400.0 -0.765239663 -0.6431242929
19650182100.0 -0.7759663045 -0.6309150595
19700181800.0 -0.7867176159 -0.6177237372
19750181500.0 -0.7974019486 -0.6035745919
19800181200.0 -0.8076078816 -0.5886010383
19850180900.0 -0.8171647621 -0.57324386
19900180600.0 -0.825046359 -0.5587627368
19950180300.0 -0.834110121 -0.5426509989
20000180000.0 -0.8273620244 -0.5452384263
20050179700.0 -0.8345822434 -0.53292032
20100179400.0 -0.8432105781 -0.5187270596
20150179100.0 -0.8522981942 -0.5057391304
20200178800.0 -0.859860861 -0.4935730998
20250178500.0 -0.8698459557 -0.4800868677
20300178200.0 -0.8796341772 -0.4647330754
20350177900.0 -0.8885837861 -0.4507905544
20400177600.0 -0.8968979924 -0.4362802683
20450177300.0 -0.9056231961 -0.4214970856
20500177000.0 -0.9134698761 -0.4075890724
20550176700.0 -0.921422251 -0.3940253335
20600176400.0 -0.9283759721 -0.380597405
20650176100.0 -0.9345359613 -0.3683396373
20700175800.0 -0.9420060349 -0.3563786782
20750175500.0 -0.9485027241 -0.3449087488
20800175200.0 -0.9533356083 -0.3337444306
20850174900.0 -0.9580188104 -0.322197085
20900174600.0 -0.9635509621 -0.3113044059
20950174300.0 -0.967088005 -0.2990457451
21000174000.0 -0.9700182867 -0.2878556473
21050173700.0 -0.973843632 -0.2761602422
21100173400.0 -0.97720249 -0.2642629323
21150173100.0 -0.9814864073 -0.2517074154
21200172800.0 -0.9850651895 -0.2379721012
21250172500.0 -0.988119981 -0.224762416
21300172200.0 -0.9912224935 -0.2104504307
21350171900.0 -0.9920452374 -0.195460605
21400171600.0 -0.9937471764 -0.1818690926
21450171300.0 -0.9939621428 -0.1677553264
21500171000.0 -0.9933843989 -0.1517307735
21550170700.0 -0.9929504598 -0.1373104045
21600170400.0 -0.9935464406 -0.1203151818
21650170100.0 -0.9930268098 -0.1061728778
21700169800.0 -0.9897931529 -0.0902936859
21750169500.0 -0.9895324083 -0.0743526998
21800169200.0 -0.9880023374 -0.0592394036
21850168900.0 -0.9874863287 -0.0417964505
21900168600.0 -0.9854413637 -0.0252282951
21950168300.0 -0.9842259742 -0.0093007537
22000168000.0 -0.9828119414 0.0054989245
22050167700.0 -0.9824080011 0.0195019328
22100167400.0 -0.9827843866 0.0348256236
22150167100.0 -0.9831806262 0.0498223046
22200166800.0 -0.9836803339 0.0663248752
22250166500.0 -0.9828022116 0.0832832039
22300166200.0 -0.9830365811 0.0998686075
22350165900.0 -0.9811060225 0.1168619902
22400165600.0 -0.9797624517 0.1326635852
22450165300.0 -0.9766974889 0.1480881289
22500165000.0 -0.9750643608 0.1613277998
22550164700.0 -0.9744292935 0.1765366715
22600164400.0 -0.9727717969 0.1916967017
22650164100.0 -0.9704242752 0.2060760947
22700163800.0 -0.9672445083 0.2227650142
22750163500.0 -0.9653133537 0.2384366838
22800163200.0 -0.9622188121 0.2515293021
22850162900.0 -0.960394149 0.2651519213
22900162600.0 -0.9586821668 0.2781738856
22950162300.0 -0.9572837625 0.2909896499
23000162000.0 -0.9564541455 0.3028894943
23050161700.0 -0.9544390884 0.3156067437
23100161400.0 -0.9520476818 0.3281004302
23150161100.0 -0.9502177344 0.3404845559
23200160800.0 -0.9466245216 0.352680383
23250160500.0 -0.9439032319 0.3648084383
23300160200.0 -0.9416037172 0.3766513163
23350159900.0 -0.9381025034 0.3894256913
23400159600.0 -0.9324653086 0.402102866
23450159300.0 -0.9280236821 0.4156532929
23500159000.0 -0.9239759481 0.4286447204
23550158700.0 -0.9191092521 0.4414811091
23600158400.0 -0.9137839567 0.4547103942
23650158100.0 -0.9073013947 0.4687003905
23700157800.0 -0.8998506732 0.4826030205
23750157500.0 -0.8914517448 0.4964460553
23800157200.0 -0.882314791 0.5098481497
23850156900.0 -0.8735657238 0.5222781076
23900156600.0 -0.8642388089 0.5345653044
23950156300.0 -0.8548157181 0.5474178714
24000156000.0 -0.8466431818 0.5596933701
24050155700.0 -0.8362391611 0.5701042485
24100155400.0 -0.825772605 0.5829313429
24150155100.0 -0.814805552 0.5952367278
24200154800.0 -0.803822424 0.6058258176
24250154500.0 -0.7926719912 0.6178751003
24300154200.0 -0.7814676845 0.6291260297
24350153900.0 -0.7691636486 0.6401057551
24400153600.0 -0.7573225862 0.6502022716
24450153300.0 -0.7455138052 0.6599999154
24500153000.0 -0.7342071447 0.6695857629
24550152700.0 -0.7228059846 0.6791833566
24600152400.0 -0.7108841413 0.6887657929
24650152100.0 -0.6997372549 0.6972279025
