!Created with skrf (http://scikit-rf.org).
# Hz S RI R 50.0 
!freq ReS11 ImS11
300000.0 -0.9760187969 -0.116755082
50299700.0 -0.9999477191 0.0155281145
100299400.0 -0.9980764784 0.028371888
150299100.0 -1.002733902 0.0454550055
200298800.0 -0.9995592984 0.058638677
250298500.0 -0.997508388 0.0722491678
300298200.0 -0.986033162 0.088121546
350297900.0 -0.9940394903 0.098761165
400297600.0 -0.9932726281 0.1153811672
450297300.0 -0.9911106404 0.1292577897
500297000.0 -0.9895693423 0.1440671677
550296700.0 -0.9845675588 0.1564441018
600296400.0 -1.017375043 0.1897496651
650296100.0 -0.9820644649 0.1866376829
700295800.0 -0.9790496336 0.2008520245
750295500.0 -0.9763573378 0.2147146979
800295200.0 -0.9731352149 0.2288249515
850294900.0 -0.9696328503 0.2425916166
900294600.0 -0.9657118255 0.2563660197
950294300.0 -0.9620751762 0.2699848383
1000294000.0 -0.9581955549 0.2841354389
1050293700.0 -0.9535846979 0.2978502097
1100293400.0 -0.9494210253 0.3121772738
1150293100.0 -0.9453543956 0.3240851025
1200292800.0 -0.9401682311 0.3385770725
1250292500.0 -0.9345895916 0.3515925674
1300292200.0 -0.9288307158 0.3650110524
1350291900.0 -0.923302147 0.3792395278
1400291600.0 -0.9179050327 0.3921518336
1450291300.0 -0.9123795445 0.4045742526
1500291000.0 -0.9060206977 0.4180735532
1550290700.0 -0.899610034 0.4312368344
1600290400.0 -0.8932613839 0.4442986787
1650290100.0 -0.8866326198 0.4564800559
1700289800.0 -0.8799021178 0.4698527433
1750289500.0 -0.8726542167 0.4822261887
1800289200.0 -0.8654082979 0.4950298025
1850288900.0 -0.8585184318 0.5062483926
1900288600.0 -0.8509572804 0.5194830913
1950288300.0 -0.8427378831 0.5319911747
2000288000.0 -0.8354699127 0.5434027968
2050287700.0 -0.8270575491 0.5556096395
2100287400.0 -0.8193023012 0.5673301885
2150287100.0 -0.8105168405 0.5790913711
2200286800.0 -0.8027201988 0.5898669438
2250286500.0 -0.7939766323 0.6016488185
2300286200.0 -0.7848765719 0.6133947883
2350285900.0 -0.7761903697 0.6243095569
2400285600.0 -0.7671370879 0.6352197262
2450285300.0 -0.7585845188 0.645780511
2500285000.0 -0.748977142 0.6571132803
2550284700.0 -0.7401657363 0.6673559538
2600284400.0 -0.7304196838 0.6774116453
2650284100.0 -0.7218578965 0.6879572107
2700283800.0 -0.7113329454 0.6984682887
2750283500.0 -0.7009731767 0.7091360748
2800283200.0 -0.6911014994 0.7186763862
2850282900.0 -0.6811253307 0.7287870349
2900282600.0 -0.6705014715 0.738220571
2950282300.0 -0.6601565012 0.747497288
3000282000.0 -0.6495371529 0.7570210428
3050281700.0 -0.6382928063 0.7664282726
3100281400.0 -0.6263192466 0.7756803621
3150281100.0 -0.6145685129 0.7849919041
3200280800.0 -0.6030439576 0.7935665268
3250280500.0 -0.5921648523 0.8011582348
3300280200.0 -0.5809061513 0.8090691335
3350279900.0 -0.5693915391 0.816545237
3400279600.0 -0.5572537358 0.8242023505
3450279300.0 -0.5463464856 0.8314934458
3500279000.0 -0.5342376973 0.8385723718
3550278700.0 -0.5217110588 0.8456918163
3600278400.0 -0.5093498705 0.852805494
3650278100.0 -0.496279984 0.8608448799
3700277800.0 -0.4840397278 0.8669891742
3750277500.0 -0.4719438413 0.8736667743
3800277200.0 -0.459387137 0.8799978816
3850276900.0 -0.4473134758 0.8860871603
3900276600.0 -0.4364224677 0.8915189044
3950276300.0 -0.4239128881 0.8975584372
4000276000.0 -0.4120197183 0.9037382441
4050275700.0 -0.3989516333 0.9096682925
4100275400.0 -0.3879472672 0.9151828865
4150275100.0 -0.3754318075 0.9207820655
4200274800.0 -0.3622192368 0.9262810771
4250274500.0 -0.3499674667 0.9313876307
4300274200.0 -0.3371264833 0.9367059439
4350273900.0 -0.3231535225 0.942128389
4400273600.0 -0.3084876273 0.9473880689
4450273300.0 -0.292951038 0.9525962234
4500273000.0 -0.2795117618 0.9567436523
4550272700.0 -0.2652163389 0.9610064867
4600272400.0 -0.2497535872 0.9651808984
4650272100.0 -0.238012058 0.9685394214
4700271800.0 -0.2247242241 0.9717731273
4750271500.0 -0.2131253829 0.9745733201
4800271200.0 -0.2006333304 0.9771518366
4850270900.0 -0.1867188776 0.9801048003
4900270600.0 -0.1729014215 0.982364425
4950270300.0 -0.1585335238 0.9851888753
5000270000.0 -0.1441330547 0.9872728739
5050269700.0 -0.1306913699 0.9886785791
5100269400.0 -0.1172669185 0.990320164
5150269100.0 -0.1038299339 0.9915876949
5200268800.0 -0.0906178087 0.9929286599
5250268500.0 -0.0776963628 0.9938837758
5300268200.0 -0.0642585085 0.9945544781
5350267900.0 -0.052236488 0.9952188084
5400267600.0 -0.0358384435 0.9964590134
5450267300.0 -0.0227776376 0.9965020298
5500267000.0 -0.0075747976 0.9971282671
5550266700.0 0.0073098457 0.997206276
5600266400.0 0.0231614542 0.997354047
5650266100.0 0.0393327503 0.9967157556
5700265800.0 0.0538187223 0.9960496727
5750265500.0 0.0690999029 0.9954544148
5800265200.0 0.08299376 0.9944920234
5850264900.0 0.0962578799 0.99331881
5900264600.0 0.1130979091 0.9916791178
5950264300.0 0.1251320791 0.9902370739
6000264000.0 0.1387663526 0.9877849602
6050263700.0 0.1512382059 0.9867985362
6100263400.0 0.1635992045 0.984982971
6150263100.0 0.1783252011 0.9823785054
6200262800.0 0.1886843202 0.9808882713
6250262500.0 0.2013130915 0.9784334511
6300262200.0 0.214266204 0.9757399076
6350261900.0 0.2273183844 0.9727718273
6400261600.0 0.2409763012 0.9692732976
6450261300.0 0.2527635637 0.9667351527
6500261000.0 0.2653573183 0.9632224401
6550260700.0 0.2783389563 0.9591959532
6600260400.0 0.2916357139 0.9551108764
6650260100.0 0.3055244384 0.9506412478
6700259800.0 0.3175768917 0.9463668144
6750259500.0 0.3315910311 0.9416340115
6800259200.0 0.3445965592 0.9365852905
6850258900.0 0.3564712973 0.931275427
6900258600.0 0.3688220205 0.9264400887
6950258300.0 0.3812132624 0.9210979665
7000258000.0 0.3930196691 0.9156438347
7050257700.0 0.4054064365 0.9094417595
7100257400.0 0.4179252028 0.9033991069
7150257100.0 0.4285973489 0.8980960295
7200256800.0 0.4411963709 0.8916953844
7250256500.0 0.4529089725 0.8854167156
7300256200.0 0.4662336495 0.8784998768
7350255900.0 0.4782183206 0.8715796599
7400255600.0 0.4917958058 0.8642720715
7450255300.0 0.507255118 0.8557273793
7500255000.0 0.5188894978 0.8482388552
7550254700.0 0.5325309644 0.8397219508
7600254400.0 0.5453738439 0.8315703718
7650254100.0 0.557044586 0.8239536899
7700253800.0 0.5689654692 0.815773109
7750253500.0 0.5799600071 0.8079184374
7800253200.0 0.5905885818 0.8002568091
7850252900.0 0.6003733633 0.793046978
7900252600.0 0.611987147 0.7844651571
7950252300.0 0.6209399588 0.7780224929
8000252000.0 0.6309524434 0.7702037888
8050251700.0 0.6415079696 0.7620820002
8100251400.0 0.6516160292 0.7538971471
8150251100.0 0.6615025351 0.7452109396
8200250800.0 0.6711767575 0.7373807086
8250250500.0 0.6799701473 0.7295797023
8300250200.0 0.6891212822 0.7206026899
8350249900.0 0.6984217311 0.7120966983
8400249600.0 0.7064654904 0.7039875852
8450249300.0 0.7157882269 0.6949163724
8500249000.0 0.724157148 0.6858386073
8550248700.0 0.7326025501 0.6767555974
8600248400.0 0.7410964601 0.6673328494
8650248100.0 0.7486512435 0.658182854
8700247800.0 0.7581818673 0.6467241775
8750247500.0 0.7666136825 0.6365756724
8800247200.0 0.774797781 0.6262424907
8850246900.0 0.7833348112 0.6149445199
8900246600.0 0.7920169881 0.6037495684
8950246300.0 0.8014867055 0.5902932611
9000246000.0 0.8108110974 0.5777722487
9050245700.0 0.8201883237 0.564662626
9100245400.0 0.8287372331 0.552086329
9150245100.0 0.8382476761 0.538380595
9200244800.0 0.8476961574 0.5232024249
9250244500.0 0.8572977722 0.5074603218
9300244200.0 0.8655409559 0.4929303065
9350243900.0 0.8735039511 0.4793423237
9400243600.0 0.8800698125 0.4668009052
9450243300.0 0.8859230211 0.455045868
9500243000.0 0.8921192822 0.4431044267
9550242700.0 0.8960415145 0.4352554517
9600242400.0 0.8997718513 0.4280181192
9650242100.0 0.9033783876 0.4217501352
9700241800.0 0.9080789443 0.4133449574
9750241500.0 0.9118441303 0.4060808927
9800241200.0 0.9167518084 0.3966412922
9850240900.0 0.9222500784 0.3850954312
9900240600.0 0.9280754894 0.3734489737
9950240300.0 0.9347075904 0.3573305495
10000240000.0 0.9389083601 0.3462292278
10050239700.0 0.9448619896 0.3305516466
10100239400.0 0.9500134097 0.3152598006
10150239100.0 0.9542860258 0.3004070863
10200238800.0 0.9583409331 0.285524303
10250238500.0 0.9615756765 0.2721214703
10300238200.0 0.964725965 0.2581383433
10350237900.0 0.9673811947 0.2450740505
10400237600.0 0.9699363599 0.2316951934
10450237300.0 0.9726566599 0.2181738826
10500237000.0 0.9745693273 0.2062046709
10550236700.0 0.9768970207 0.1918860073
10600236400.0 0.97949205 0.1775929918
10650236100.0 0.9813929163 0.163137994
10700235800.0 0.9834752598 0.1511932812
10750235500.0 0.9856256261 0.1384272909
10800235200.0 0.9876800568 0.1238438783
10850234900.0 0.9897197519 0.1093519058
10900234600.0 0.991812115 0.0948688683
10950234300.0 0.9934652567 0.0815675926
11000234000.0 0.9952756536 0.0664320717
11050233700.0 0.9970292742 0.0501431886
11100233400.0 0.9984564475 0.0329810658
11150233100.0 0.9995772264 0.0164147395
11200232800.0 1.000014548 0.001921078
11250232500.0 1.000794904 -0.0151947538
11300232200.0 1.001345387 -0.033121972
11350231900.0 1.001671371 -0.0483926369
11400231600.0 1.001758996 -0.0641284376
11450231300.0 1.000951666 -0.0798297376
11500231000.0 0.999898563 -0.0969328437
11550230700.0 0.998419753 -0.1088815224
11600230400.0 0.9968488387 -0.1217647416
11650230100.0 0.9950128213 -0.1331761739
11700229800.0 0.9930029934 -0.1478697236
11750229500.0 0.9906612216 -0.1622218593
11800229200.0 0.9881121694 -0.1764954837
11850228900.0 0.9844503862 -0.1888338024
11900228600.0 0.9808756684 -0.1984749512
11950228300.0 0.9776496124 -0.2092411137
12000228000.0 0.9753507494 -0.2177183966
12050227700.0 0.9711591443 -0.2310421784
12100227400.0 0.9680391152 -0.241708871
12150227100.0 0.9629691418 -0.2583937239
12200226800.0 0.9597741112 -0.2688469733
12250226500.0 0.9551560215 -0.2820595682
12300226200.0 0.9514419025 -0.2948010503
12350225900.0 0.947140716 -0.3080814622
12400225600.0 0.9418215968 -0.3216710498
12450225300.0 0.9380931599 -0.3342128812
12500225000.0 0.9324666779 -0.3486497245
12550224700.0 0.9270134721 -0.3626332328
12600224400.0 0.9220476403 -0.3751717841
12650224100.0 0.9162343281 -0.3897652739
12700223800.0 0.9108371957 -0.4025680606
12750223500.0 0.9054841344 -0.4154659425
12800223200.0 0.9002418223 -0.4279144983
12850222900.0 0.8948120114 -0.4398989043
12900222600.0 0.8889221498 -0.452152445
12950222300.0 0.8824999263 -0.4650796252
13000222000.0 0.876900263 -0.4766449905
13050221700.0 0.8700437453 -0.489388245
13100221400.0 0.8637541178 -0.500902997
13150221100.0 0.856607122 -0.5135896831
13200220800.0 0.8496714395 -0.5253756539
13250220500.0 0.842421973 -0.5373944714
13300220200.0 0.8350713536 -0.5480020002
13350219900.0 0.8268416269 -0.5597163825
13400219600.0 0.8186842852 -0.5719641986
13450219300.0 0.8089941868 -0.5857011392
13500219000.0 0.7983519058 -0.599736957
13550218700.0 0.7887257865 -0.6122504535
13600218400.0 0.7787054136 -0.6244042876
13650218100.0 0.7691735012 -0.6356016274
13700217800.0 0.7580384493 -0.6479844128
13750217500.0 0.7480183174 -0.6585798528
13800217200.0 0.7364997544 -0.6715124734
13850216900.0 0.7255061437 -0.6824352237
13900216600.0 0.7147926095 -0.6920437444
13950216300.0 0.7046296473 -0.7022624903
14000216000.0 0.694865215 -0.7116335492
14050215700.0 0.6856263745 -0.7193572144
14100215400.0 0.6751568705 -0.7284913761
14150215100.0 0.6661186255 -0.7368100681
14200214800.0 0.6567037732 -0.745638788
14250214500.0 0.6465226824 -0.7547981216
14300214200.0 0.636199804 -0.7641624202
14350213900.0 0.6249985473 -0.7735665642
14400213600.0 0.6130089655 -0.7835575915
14450213300.0 0.6002760274 -0.7939069025
14500213000.0 0.5869722948 -0.8034027618
14550212700.0 0.5750253272 -0.8125276601
14600212400.0 0.5623345139 -0.8219191058
14650212100.0 0.5488647389 -0.8307373487
14700211800.0 0.5347657237 -0.8401130616
14750211500.0 0.5228641703 -0.8480228067
14800211200.0 0.5106810116 -0.8562726714
14850210900.0 0.4986173474 -0.8640532922
14900210600.0 0.4853504767 -0.8716144687
14950210300.0 0.4718638264 -0.879444105
15000210000.0 0.4590240342 -0.886203065
15050209700.0 0.4466439255 -0.8923651805
15100209400.0 0.4339853352 -0.8983256135
15150209100.0 0.4213823319 -0.903255317
15200208800.0 0.4085374236 -0.9092298045
15250208500.0 0.3978130769 -0.9133005354
15300208200.0 0.3857868341 -0.917935077
15350207900.0 0.3725646764 -0.92236349
15400207600.0 0.3574056863 -0.9286378582
15450207300.0 0.3430862157 -0.9335731924
15500207000.0 0.3283206147 -0.9374961552
15550206700.0 0.3133211089 -0.9429069709
15600206400.0 0.297463144 -0.9474137965
15650206100.0 0.2812154249 -0.9517172529
15700205800.0 0.2676199295 -0.9552847615
15750205500.0 0.2530096675 -0.9589909331
15800205200.0 0.2387603931 -0.9622945918
15850204900.0 0.2244611987 -0.9656645871
15900204600.0 0.2093012056 -0.9694196869
15950204300.0 0.1955390587 -0.9723773137
16000204000.0 0.1810680619 -0.9750101397
16050203700.0 0.1662696681 -0.9782793149
16100203400.0 0.1516983157 -0.9800839681
16150203100.0 0.1375074851 -0.9824739981
16200202800.0 0.123358174 -0.9846635997
16250202500.0 0.1087658157 -0.9860055428
16300202200.0 0.0935189378 -0.9878931658
16350201900.0 0.0784143203 -0.9895863742
16400201600.0 0.0636761181 -0.989908956
16450201300.0 0.048540332 -0.991323844
16500201000.0 0.031829368 -0.9921205344
16550200700.0 0.0161722718 -0.9924720212
16600200400.0 0.0006270031 -0.992754718
16650200100.0 -0.0155651749 -0.992583324
16700199800.0 -0.0322644906 -0.9924842675
16750199500.0 -0.0503148484 -0.9916446508
16800199200.0 -0.0665489822 -0.9907576795
16850198900.0 -0.0816494663 -0.9892491266
16900198600.0 -0.0955897302 -0.988638156
16950198300.0 -0.1082808278 -0.9866209941
17000198000.0 -0.1213219662 -0.9858749611
17050197700.0 -0.134173508 -0.9844445997
17100197400.0 -0.1470917674 -0.9818388493
17150197100.0 -0.1597105973 -0.9798886637
17200196800.0 -0.1725211045 -0.9778815938
17250196500.0 -0.1857344737 -0.9754386538
17300196200.0 -0.1976684227 -0.973271408
17350195900.0 -0.2095150949 -0.9710101749
17400195600.0 -0.2217668189 -0.9685518438
17450195300.0 -0.2349860307 -0.9656861889
17500195000.0 -0.2484137645 -0.9623187015
17550194700.0 -0.2624890649 -0.9585183699
17600194400.0 -0.2763192522 -0.9552602044
17650194100.0 -0.2898660208 -0.9508399221
17700193800.0 -0.3029756455 -0.9466511616
17750193500.0 -0.3175836327 -0.9419018166
17800193200.0 -0.3320734817 -0.936550599
17850192900.0 -0.3468806047 -0.9312448529
17900192600.0 -0.3620750422 -0.9252312444
17950192300.0 -0.3777156948 -0.9178395211
18000192000.0 -0.3924038153 -0.9109187995
18050191700.0 -0.4062230545 -0.9029351614
18100191400.0 -0.4204658161 -0.8952143269
18150191100.0 -0.4354792314 -0.8871903814
18200190800.0 -0.4522507601 -0.8780155302
18250190500.0 -0.4696117442 -0.8684804315
18300190200.0 -0.4842294252 -0.8596201144
18350189900.0 -0.4997757369 -0.8512377541
18400189600.0 -0.5139819823 -0.8428764573
18450189300.0 -0.5271700493 -0.8352017826
18500189000.0 -0.5404406944 -0.8272725958
18550188700.0 -0.5533541817 -0.8196916806
18600188400.0 -0.5650161324 -0.8127691371
18650188100.0 -0.5759193719 -0.8065221074
18700187800.0 -0.5868174164 -0.7999122079
18750187500.0 -0.597339082 -0.7934637831
18800187200.0 -0.6080192916 -0.7862061134
18850186900.0 -0.6182231941 -0.7793296269
18900186600.0 -0.6284639951 -0.7721216707
18950186300.0 -0.6384317691 -0.7644007378
19000186000.0 -0.645471178 -0.7581122869
19050185700.0 -0.6549673502 -0.7510010171
19100185400.0 -0.6647142823 -0.7428270992
19150185100.0 -0.6752131635 -0.7345270887
19200184800.0 -0.6841237224 -0.7262161438
19250184500.0 -0.6946597579 -0.7167146787
19300184200.0 -0.7058847787 -0.7068309946
19350183900.0 -0.7167228831 -0.6975862102
19400183600.0 -0.7263554856 -0.6877707011
19450183300.0 -0.7351272258 -0.6773647209
19500183000.0 -0.7433463063 -0.6676068538
19550182700.0 -0.753843073 -0.6560513331
19600182400.0 -0.7638009372 -0.6448903666
19650182100.0 -0.7746212146 -0.6324376385
19700181800.0 -0.785347201 -0.6191457636
19750181500.0 -0.7959851922 -0.6048877015
19800181200.0 -0.806308173 -0.5899959314
19850180900.0 -0.81598652 -0.5746343935
19900180600.0 -0.8237468188 -0.5602246702
19950180300.0 -0.8331992098 -0.5437777943
20000180000.0 -0.826355052 -0.5462624693
20050179700.0 -0.834601533 -0.5329347172
20100179400.0 -0.8428099696 -0.5193326422
20150179100.0 -0.8507223375 -0.5063068734
20200178800.0 -0.8605836547 -0.4937298363
20250178500.0 -0.8698659836 -0.4798752306
20300178200.0 -0.8790154635 -0.4653135016
20350177900.0 -0.8883232574 -0.4513304923
20400177600.0 -0.8972484542 -0.4368309789
20450177300.0 -0.9054152675 -0.4223074753
20500177000.0 -0.9132514117 -0.4083908905
20550176700.0 -0.9214279617 -0.3948514141
20600176400.0 -0.9281999089 -0.3816861741
20650176100.0 -0.9349323859 -0.369479794
20700175800.0 -0.9418504136 -0.3575082259
20750175500.0 -0.9483542469 -0.3460430166
20800175200.0 -0.9527164431 -0.3343135545
20850174900.0 -0.9582405364 -0.3230350222
20900174600.0 -0.9628929132 -0.312626791
20950174300.0 -0.9665634708 -0.3008827997
21000174000.0 -0.9702442064 -0.2891338466
21050173700.0 -0.9721224164 -0.2786552403
21100173400.0 -0.9763790638 -0.2669988901
21150173100.0 -0.9806637822 -0.2543618335
21200172800.0 -0.9840366457 -0.2405223616
21250172500.0 -0.9872071254 -0.2270689422
21300172200.0 -0.9899097324 -0.2128528267
21350171900.0 -0.9918134857 -0.1987663836
21400171600.0 -0.9930989944 -0.1841035233
21450171300.0 -0.9931823257 -0.1695212148
21500171000.0 -0.9931969949 -0.1536427268
21550170700.0 -0.9922918184 -0.138446458
21600170400.0 -0.9918787298 -0.1232503416
21650170100.0 -0.9907751157 -0.1071778334
21700169800.0 -0.988139109 -0.0913383495
21750169500.0 -0.9890583364 -0.0768145119
21800169200.0 -0.9885431046 -0.0596660095
21850168900.0 -0.9860144638 -0.042772605
21900168600.0 -0.9853007549 -0.026329312
21950168300.0 -0.9846042264 -0.0106924702
22000168000.0 -0.9829378479 0.004148089
22050167700.0 -0.9829675298 0.0181725363
22100167400.0 -0.982818499 0.0337068603
22150167100.0 -0.9840397546 0.0490501581
22200166800.0 -0.9840610333 0.0654042166
22250166500.0 -0.983451856 0.0824999739
22300166200.0 -0.9823528793 0.0986001726
22350165900.0 -0.9819700008 0.1149367625
22400165600.0 -0.9797271733 0.131528208
22450165300.0 -0.9776459939 0.146860585
22500165000.0 -0.9762540531 0.1601712654
22550164700.0 -0.9750784259 0.1751338893
22600164400.0 -0.9738002067 0.1910453162
22650164100.0 -0.9709686913 0.2049195836
22700163800.0 -0.968316319 0.2213658593
22750163500.0 -0.9663251838 0.2366247731
22800163200.0 -0.9634279206 0.2497350439
22850162900.0 -0.9610239898 0.2632911202
22900162600.0 -0.9597511449 0.276716951
22950162300.0 -0.9581506033 0.2894518415
23000162000.0 -0.9576374286 0.3012926537
23050161700.0 -0.9547443048 0.3136246674
23100161400.0 -0.9528505923 0.3266858827
23150161100.0 -0.9502187097 0.3386259368
23200160800.0 -0.947599279 0.3510504442
23250160500.0 -0.945056894 0.3633113908
23300160200.0 -0.9420460379 0.3748926406
23350159900.0 -0.9380314359 0.387845163
23400159600.0 -0.9336925343 0.4012874427
23450159300.0 -0.9282478365 0.4144265206
23500159000.0 -0.9245354021 0.4274501322
23550158700.0 -0.9193306719 0.440849542
23600158400.0 -0.9142049734 0.453895484
23650158100.0 -0.9079864205 0.4681640423
23700157800.0 -0.9002209475 0.482068026
23750157500.0 -0.8916676492 0.4958013828
23800157200.0 -0.8830700575 0.5094588568
23850156900.0 -0.8742984646 0.5222983677
23900156600.0 -0.8647159211 0.5346185978
23950156300.0 -0.8560797966 0.5468381195
24000156000.0 -0.8467598702 0.5595417262
24050155700.0 -0.8363786549 0.5693739252
24100155400.0 -0.8269763544 0.5829337197
24150155100.0 -0.8159390972 0.5942847169
24200154800.0 -0.805331081 0.6058853762
24250154500.0 -0.793307314 0.6168049719
24300154200.0 -0.7818707867 0.6286333895
24350153900.0 -0.7702626201 0.6395124259
24400153600.0 -0.7584794865 0.6497613004
24450153300.0 -0.7463374295 0.6591474404
24500153000.0 -0.7349397024 0.6690015186
24550152700.0 -0.7230727117 0.6785293553
24600152400.0 -0.7114525552 0.6874434744
24650152100.0 -0.7007044725 0.6965066807
