!Created with skrf (http://scikit-rf.org).
# Hz S RI R 50.0 
!freq ReS11 ImS11
300000.0 -0.9882328474 -0.0749951788
50299700.0 -0.9998622986 0.0166255386
100299400.0 -0.997828679 0.0294395663
150299100.0 -1.002578738 0.0461666836
200298800.0 -0.9992940057 0.0595615906
250298500.0 -0.9971434278 0.0729477349
300298200.0 -0.9855364321 0.0887831782
350297900.0 -0.9936299923 0.0995577856
400297600.0 -0.9927016964 0.1162160619
450297300.0 -0.9906558487 0.1298843866
500297000.0 -0.9888546163 0.1445410298
550296700.0 -0.9836512925 0.1571889292
600296400.0 -1.016707287 0.1905227995
650296100.0 -0.9816504341 0.1871642995
700295800.0 -0.9785333925 0.2012934597
750295500.0 -0.9756555372 0.2155432873
800295200.0 -0.9723197319 0.2293708675
850294900.0 -0.9689215148 0.2433454618
900294600.0 -0.9650632456 0.2568386808
950294300.0 -0.9612974717 0.2707124046
1000294000.0 -0.9572354059 0.2847828728
1050293700.0 -0.9526558725 0.2983977849
1100293400.0 -0.9484887133 0.3128391094
1150293100.0 -0.9446398487 0.3247912682
1200292800.0 -0.9391780604 0.339063737
1250292500.0 -0.9338504588 0.3524149712
1300292200.0 -0.9281602236 0.3654726284
1350291900.0 -0.9227789803 0.3795557004
1400291600.0 -0.9173179765 0.3925160399
1450291300.0 -0.9116053038 0.404994182
1500291000.0 -0.9056292913 0.4183314223
1550290700.0 -0.8991669403 0.4314232127
1600290400.0 -0.8929917836 0.4443566241
1650290100.0 -0.886351116 0.4566087854
1700289800.0 -0.8795099756 0.4699171994
1750289500.0 -0.8725934896 0.4820980375
1800289200.0 -0.8651418961 0.4949847406
1850288900.0 -0.8585946239 0.5064479423
1900288600.0 -0.850465662 0.5194577388
1950288300.0 -0.8425782216 0.5319314321
2000288000.0 -0.8350801076 0.5436065553
2050287700.0 -0.8267351413 0.5557316319
2100287400.0 -0.8188376137 0.5672582637
2150287100.0 -0.8100754144 0.5793390109
2200286800.0 -0.802384242 0.5896773594
2250286500.0 -0.7936126227 0.6016775382
2300286200.0 -0.7845530994 0.6135869233
2350285900.0 -0.7756195437 0.6244992936
2400285600.0 -0.7666340336 0.6355699289
2450285300.0 -0.7578418481 0.646017107
2500285000.0 -0.7483556742 0.6573225759
2550284700.0 -0.7391075235 0.6674539568
2600284400.0 -0.7297790651 0.6778123526
2650284100.0 -0.7206567918 0.6879226756
2700283800.0 -0.710082101 0.6987932938
2750283500.0 -0.7001217615 0.7093598376
2800283200.0 -0.6899584321 0.7186482519
2850282900.0 -0.6797773984 0.7287233252
2900282600.0 -0.669728926 0.7383998326
2950282300.0 -0.6595441707 0.7476456805
3000282000.0 -0.6487313326 0.7568526269
3050281700.0 -0.6376822766 0.76599177
3100281400.0 -0.6260857873 0.7753565885
3150281100.0 -0.6145538855 0.7846922656
3200280800.0 -0.6027110455 0.7931727357
3250280500.0 -0.59222929 0.8010181885
3300280200.0 -0.5808465071 0.8087745915
3350279900.0 -0.5695531821 0.8164524997
3400279600.0 -0.5572280498 0.8242623875
3450279300.0 -0.5461849548 0.8314026966
3500279000.0 -0.5342932664 0.8384771564
3550278700.0 -0.5218602541 0.8457050277
3600278400.0 -0.5098263452 0.8530145414
3650278100.0 -0.4967462373 0.8606399831
3700277800.0 -0.4845813982 0.867193951
3750277500.0 -0.4723243176 0.8735343387
3800277200.0 -0.4597812984 0.8801057149
3850276900.0 -0.4472096536 0.8861019902
3900276600.0 -0.4364724695 0.8919110545
3950276300.0 -0.4236257117 0.8979470851
4000276000.0 -0.411567023 0.9039255892
4050275700.0 -0.3986701868 0.9100383917
4100275400.0 -0.3869678344 0.9155147402
4150275100.0 -0.3742429237 0.9212089241
4200274800.0 -0.3611486695 0.926475427
4250274500.0 -0.3489208727 0.931721078
4300274200.0 -0.3358415608 0.9368373993
4350273900.0 -0.3222530952 0.9419076571
4400273600.0 -0.3074463465 0.9470050241
4450273300.0 -0.2925275618 0.9519571295
4500273000.0 -0.2788109412 0.9563419492
4550272700.0 -0.2649768471 0.9605224536
4600272400.0 -0.2494220364 0.9646892444
4650272100.0 -0.2375436245 0.9679848007
4700271800.0 -0.2241746347 0.9712379734
4750271500.0 -0.2121615398 0.9742743059
4800271200.0 -0.1995322068 0.9770383815
4850270900.0 -0.1856775863 0.9796500071
4900270600.0 -0.1719003969 0.9821224157
4950270300.0 -0.1579467122 0.9846207936
5000270000.0 -0.1438991573 0.986969108
5050269700.0 -0.1303385313 0.9885875124
5100269400.0 -0.1167886688 0.9901977077
5150269100.0 -0.1035968711 0.9916215716
5200268800.0 -0.0900566591 0.9931094198
5250268500.0 -0.0770589865 0.9941983716
5300268200.0 -0.0638978169 0.9948911742
5350267900.0 -0.0518708677 0.9951694181
5400267600.0 -0.0357614163 0.9962291637
5450267300.0 -0.0229944785 0.9966722644
5500267000.0 -0.0079323851 0.9967245555
5550266700.0 0.006748217 0.9970891779
5600266400.0 0.0218791571 0.9969271507
5650266100.0 0.0381188801 0.996881053
5700265800.0 0.0525796839 0.9960544922
5750265500.0 0.0675011968 0.9947183885
5800265200.0 0.0816393237 0.9939913785
5850264900.0 0.0949358376 0.9928233589
5900264600.0 0.1111957226 0.9911496823
5950264300.0 0.1239925342 0.9898558449
6000264000.0 0.1378756183 0.9877325639
6050263700.0 0.1506139788 0.9860706575
6100263400.0 0.1632417935 0.9844704174
6150263100.0 0.1778877186 0.981549753
6200262800.0 0.1885847591 0.9800488974
6250262500.0 0.2015927552 0.9773783057
6300262200.0 0.2144301199 0.9745349242
6350261900.0 0.2274652667 0.971822931
6400261600.0 0.241461336 0.9683807505
6450261300.0 0.2529467601 0.9655304121
6500261000.0 0.2656224408 0.9619269951
6550260700.0 0.2786597966 0.9580887048
6600260400.0 0.2921624018 0.9541971466
6650260100.0 0.305717686 0.9499631483
6700259800.0 0.3177445725 0.94584753
6750259500.0 0.3315026011 0.9410721209
6800259200.0 0.3445597482 0.9360141552
6850258900.0 0.3563941654 0.9309402785
6900258600.0 0.3687245014 0.9259317187
6950258300.0 0.3814535248 0.9209594969
7000258000.0 0.3933017497 0.9156237589
7050257700.0 0.4055306865 0.9095366346
7100257400.0 0.4185314205 0.9034234496
7150257100.0 0.4287480496 0.8983381916
7200256800.0 0.4416497282 0.8918347291
7250256500.0 0.452952274 0.8855133224
7300256200.0 0.4661932104 0.8789509481
7350255900.0 0.4781627272 0.8722968365
7400255600.0 0.4907009064 0.8650603681
7450255300.0 0.5058466233 0.8564635123
7500255000.0 0.517402919 0.8496121245
7550254700.0 0.5307444717 0.8413495807
7600254400.0 0.5431888717 0.832797538
7650254100.0 0.5550634202 0.8250802528
7700253800.0 0.5669874364 0.8170753296
7750253500.0 0.5784307431 0.8090851783
7800253200.0 0.5891898945 0.8014012786
7850252900.0 0.5989828256 0.7940873802
7900252600.0 0.61079524 0.7851721688
7950252300.0 0.6199229696 0.7784493254
8000252000.0 0.6302204072 0.7704105126
8050251700.0 0.6407317585 0.7621521028
8100251400.0 0.6508869939 0.7538365515
8150251100.0 0.6608896594 0.7450035268
8200250800.0 0.6702678797 0.7368688113
8250250500.0 0.6798017488 0.7286443724
8300250200.0 0.6893383752 0.7198499164
8350249900.0 0.6983114375 0.7111300952
8400249600.0 0.7069759036 0.7029465006
8450249300.0 0.715929741 0.6935472598
8500249000.0 0.7246604952 0.6845331797
8550248700.0 0.7332726145 0.6755568186
8600248400.0 0.7417950022 0.665802402
8650248100.0 0.7495979195 0.656582548
8700247800.0 0.7591492193 0.6454776526
8750247500.0 0.7675065038 0.6354651144
8800247200.0 0.7752830517 0.6253565676
8850246900.0 0.7841006802 0.6140161906
8900246600.0 0.7923381472 0.603256761
8950246300.0 0.8017669333 0.5904892203
9000246000.0 0.8108965238 0.578260285
9050245700.0 0.8190650851 0.5660693754
9100245400.0 0.8275976065 0.55348658
9150245100.0 0.8369177164 0.5403825034
9200244800.0 0.845920189 0.5262243059
9250244500.0 0.8551080466 0.5114463206
9300244200.0 0.862923963 0.4974201801
9350243900.0 0.8708932209 0.4837073495
9400243600.0 0.8777561196 0.4708295458
9450243300.0 0.8838534976 0.4585658403
9500243000.0 0.8906209344 0.4457705358
9550242700.0 0.8949939135 0.4368423793
9600242400.0 0.8993136366 0.4282633063
9650242100.0 0.9030510527 0.4207650583
9700241800.0 0.9077543098 0.412136671
9750241500.0 0.9117294039 0.4037907028
9800241200.0 0.9166589481 0.3941719311
9850240900.0 0.922457249 0.3822355252
9900240600.0 0.9273179971 0.3712727568
9950240300.0 0.9336686444 0.3555601442
10000240000.0 0.9383194568 0.3434740843
10050239700.0 0.9440445947 0.3285149218
10100239400.0 0.9489683104 0.3136808801
10150239100.0 0.9532287294 0.2993806494
10200238800.0 0.9575027668 0.2843064163
10250238500.0 0.9610147725 0.2711145349
10300238200.0 0.9642000574 0.2570157426
10350237900.0 0.9670275665 0.2440872191
10400237600.0 0.9696742997 0.2308405679
10450237300.0 0.972695629 0.2173562895
10500237000.0 0.9747596705 0.2057511739
10550236700.0 0.9772801758 0.1912113971
10600236400.0 0.979520045 0.1782735911
10650236100.0 0.9812617818 0.1640707954
10700235800.0 0.9836034998 0.1519915809
10750235500.0 0.9857216584 0.1379930853
10800235200.0 0.9879305101 0.1243356426
10850234900.0 0.9894427154 0.1107483904
10900234600.0 0.9916062779 0.0955402033
10950234300.0 0.9931975652 0.0825639658
11000234000.0 0.9948708869 0.0679686047
11050233700.0 0.9963607704 0.0520340341
11100233400.0 0.9977918547 0.0351844681
11150233100.0 0.9990295529 0.018860421
11200232800.0 0.9993630735 0.0041644947
11250232500.0 1.000326759 -0.0113851501
11300232200.0 1.000343712 -0.0294298089
11350231900.0 1.000839933 -0.0443278262
11400231600.0 0.9999957417 -0.0611885344
11450231300.0 0.9993483601 -0.0760127831
11500231000.0 0.9984329756 -0.0927764377
11550230700.0 0.9964945038 -0.1059763817
11600230400.0 0.9955979301 -0.1196368359
11650230100.0 0.9934983088 -0.1313080013
11700229800.0 0.9917417065 -0.1459484556
11750229500.0 0.9891960795 -0.1606315745
11800229200.0 0.9867615195 -0.1746588014
11850228900.0 0.9831935668 -0.1873610419
11900228600.0 0.9796201115 -0.1980081493
11950228300.0 0.9767647522 -0.209165328
12000228000.0 0.9738507937 -0.2188590957
12050227700.0 0.9703168759 -0.2319800798
12100227400.0 0.96745852 -0.2422037683
12150227100.0 0.9629609278 -0.2592638044
12200226800.0 0.9587389428 -0.2709125822
12250226500.0 0.9547733581 -0.2835319889
12300226200.0 0.9512913771 -0.2950513404
12350225900.0 0.946065323 -0.3091291164
12400225600.0 0.9423009536 -0.3210337626
12450225300.0 0.9377768099 -0.333583852
12500225000.0 0.9325284696 -0.3481319998
12550224700.0 0.9273194291 -0.3620894674
12600224400.0 0.9225760233 -0.3743126008
12650224100.0 0.9168189303 -0.3885402735
12700223800.0 0.9116998208 -0.4009417712
12750223500.0 0.9062238655 -0.4136487266
12800223200.0 0.9007606632 -0.4262534623
12850222900.0 0.8952428301 -0.4385036088
12900222600.0 0.8894947815 -0.4508575658
12950222300.0 0.8833796683 -0.4636196804
13000222000.0 0.8771159999 -0.4747594216
13050221700.0 0.8703517106 -0.4877945316
13100221400.0 0.8636307988 -0.4999498064
13150221100.0 0.8563942917 -0.5121803304
13200220800.0 0.84895743 -0.5243458237
13250220500.0 0.8418981254 -0.5365375558
13300220200.0 0.8341734692 -0.5476353075
13350219900.0 0.8260313208 -0.5597972045
13400219600.0 0.8176074079 -0.5719957976
13450219300.0 0.80843174 -0.5850996583
13500219000.0 0.7982075504 -0.5989180644
13550218700.0 0.7884352541 -0.6113505752
13600218400.0 0.7777449158 -0.6238025226
13650218100.0 0.7694388764 -0.6345594985
13700217800.0 0.7577222905 -0.647112969
13750217500.0 0.7479352501 -0.6587061792
13800217200.0 0.7371915727 -0.6697429943
13850216900.0 0.7255362755 -0.6818539642
13900216600.0 0.7157808073 -0.690777906
13950216300.0 0.7046259197 -0.7017264031
14000216000.0 0.6959826112 -0.7105445337
14050215700.0 0.6861071134 -0.7185857365
14100215400.0 0.6759138761 -0.7281612783
14150215100.0 0.6668864067 -0.7368536637
14200214800.0 0.6577701613 -0.7453533098
14250214500.0 0.6475538657 -0.7545115811
14300214200.0 0.6371548233 -0.76360991
14350213900.0 0.6261913454 -0.7730920096
14400213600.0 0.6148987819 -0.7824602978
14450213300.0 0.602527468 -0.792105324
14500213000.0 0.589466439 -0.8022630466
14550212700.0 0.5769840997 -0.8111657311
14600212400.0 0.5647451051 -0.8198021191
14650212100.0 0.5519744329 -0.8283460725
14700211800.0 0.5383361986 -0.837988468
14750211500.0 0.5258140203 -0.8456826008
14800211200.0 0.5137020567 -0.8540497485
14850210900.0 0.5016726155 -0.8615374526
14900210600.0 0.4883160192 -0.8693025551
14950210300.0 0.4747133104 -0.8770601537
15000210000.0 0.4616760325 -0.883971084
15050209700.0 0.449156039 -0.8904295149
15100209400.0 0.4358298228 -0.896687223
15150209100.0 0.4234816254 -0.9026444866
15200208800.0 0.4101616339 -0.9079582159
15250208500.0 0.3982213027 -0.9123517178
15300208200.0 0.3859550818 -0.9173109464
15350207900.0 0.3716365166 -0.922366948
15400207600.0 0.3574073917 -0.9279267288
15450207300.0 0.3427068032 -0.9332251091
15500207000.0 0.3292302117 -0.9379244282
15550206700.0 0.3141880651 -0.9428813841
15600206400.0 0.2986074371 -0.9471978241
15650206100.0 0.2827670757 -0.9521711238
15700205800.0 0.2690420273 -0.9555711057
15750205500.0 0.2548205119 -0.9589495305
15800205200.0 0.2403853725 -0.9626602114
15850204900.0 0.2262846348 -0.9659381248
15900204600.0 0.21148491 -0.9693015523
15950204300.0 0.1972648126 -0.972383663
16000204000.0 0.1839353356 -0.9751963878
16050203700.0 0.1690201842 -0.9783887468
16100203400.0 0.1545279025 -0.9804021513
16150203100.0 0.1406679099 -0.9824057932
16200202800.0 0.1268461678 -0.984554115
16250202500.0 0.1127230492 -0.9863263018
16300202200.0 0.0973918011 -0.9875059192
16350201900.0 0.0824013837 -0.9892128332
16400201600.0 0.067884569 -0.9900895729
16450201300.0 0.0528060529 -0.9914211271
16500201000.0 0.0363080402 -0.9921498637
16550200700.0 0.02080937 -0.9926799209
16600200400.0 0.0050319613 -0.9929424516
16650200100.0 -0.0112990679 -0.9928273982
16700199800.0 -0.0274472324 -0.992450966
16750199500.0 -0.0458852548 -0.9919753095
16800199200.0 -0.0620990769 -0.9912352844
16850198900.0 -0.0775343236 -0.9901114988
16900198600.0 -0.0917800438 -0.988461951
16950198300.0 -0.106364894 -0.9875670491
17000198000.0 -0.1192289119 -0.9868338742
17050197700.0 -0.1321929806 -0.9847127252
17100197400.0 -0.1456245523 -0.9824387117
17150197100.0 -0.1585348325 -0.9801926361
17200196800.0 -0.1714452862 -0.9781169741
17250196500.0 -0.1849449968 -0.9752829409
17300196200.0 -0.1971762301 -0.9729778682
17350195900.0 -0.2096916293 -0.9706491903
17400195600.0 -0.2220589121 -0.9681405288
17450195300.0 -0.2352814077 -0.9652133574
17500195000.0 -0.248785547 -0.9619447343
17550194700.0 -0.2626988686 -0.9585053117
17600194400.0 -0.2767111847 -0.9543536291
17650194100.0 -0.2903154557 -0.9505032632
17700193800.0 -0.3028215681 -0.9465966486
17750193500.0 -0.3174402557 -0.941929508
17800193200.0 -0.331243594 -0.9368524038
17850192900.0 -0.3460000631 -0.9316172398
17900192600.0 -0.3606612279 -0.9253693465
17950192300.0 -0.3758386909 -0.918998757
18000192000.0 -0.3902865725 -0.9121729939
18050191700.0 -0.4042133297 -0.9044172408
18100191400.0 -0.4182788952 -0.8969617074
18150191100.0 -0.4328173859 -0.8891914044
18200190800.0 -0.4491458243 -0.8804252142
18250190500.0 -0.465731512 -0.8717687075
18300190200.0 -0.4809118019 -0.8627206068
18350189900.0 -0.495721278 -0.8547700037
18400189600.0 -0.5104809521 -0.8465736816
18450189300.0 -0.5238094392 -0.8384703373
18500189000.0 -0.5367575103 -0.8304643066
18550188700.0 -0.5501717459 -0.8222754006
18600188400.0 -0.5620161722 -0.8147338787
18650188100.0 -0.5736014778 -0.8082097355
18700187800.0 -0.5849535309 -0.8011114454
18750187500.0 -0.59582436 -0.7939906803
18800187200.0 -0.6067722393 -0.7865379483
18850186900.0 -0.6175060152 -0.7788735409
18900186600.0 -0.6280471599 -0.7711386238
18950186300.0 -0.6388483035 -0.7627241979
19000186000.0 -0.6467304865 -0.7558245808
19050185700.0 -0.6566437455 -0.7485382788
19100185400.0 -0.6661251725 -0.7394823907
19150185100.0 -0.6768581428 -0.7310539777
19200184800.0 -0.6864889734 -0.7223435246
19250184500.0 -0.6962009808 -0.7127151501
19300184200.0 -0.7073395613 -0.7025421493
19350183900.0 -0.7182925186 -0.6936804583
19400183600.0 -0.7284009025 -0.6836872745
19450183300.0 -0.7374432641 -0.6735942003
19500183000.0 -0.7450395094 -0.663590641
19550182700.0 -0.7544462167 -0.6530911351
19600182400.0 -0.7647712106 -0.6414360175
19650182100.0 -0.7746819369 -0.6296743984
19700181800.0 -0.7849086682 -0.6169130105
19750181500.0 -0.7948040362 -0.6036539404
19800181200.0 -0.8048446547 -0.5896073326
19850180900.0 -0.8142340941 -0.5748865888
19900180600.0 -0.8221604819 -0.561010921
19950180300.0 -0.8312593742 -0.5456177133
20000180000.0 -0.827315243 -0.5445784452
20050179700.0 -0.8353658088 -0.5322339234
20100179400.0 -0.8440577416 -0.5189737726
20150179100.0 -0.8512952927 -0.5068167022
20200178800.0 -0.8605547271 -0.4942459692
20250178500.0 -0.8691548258 -0.4802280019
20300178200.0 -0.8780233264 -0.4666752712
20350177900.0 -0.8868313745 -0.4524056755
20400177600.0 -0.894794293 -0.4378856132
20450177300.0 -0.9028829064 -0.423756629
20500177000.0 -0.9105217321 -0.410060423
20550176700.0 -0.9180975484 -0.3963249034
20600176400.0 -0.9252833005 -0.38326863
20650176100.0 -0.9312317733 -0.3701971877
20700175800.0 -0.9385124089 -0.3581043108
20750175500.0 -0.9441058413 -0.3459301239
20800175200.0 -0.9494100981 -0.3350111681
20850174900.0 -0.9541095006 -0.3225106928
20900174600.0 -0.9586701425 -0.3110003591
20950174300.0 -0.9626688339 -0.2984315218
21000174000.0 -0.9669724884 -0.28664324
21050173700.0 -0.9693177176 -0.2754671752
21100173400.0 -0.9734677923 -0.2633017297
21150173100.0 -0.9777472996 -0.2500346131
21200172800.0 -0.9811034061 -0.2363543815
21250172500.0 -0.9846254495 -0.2226637169
21300172200.0 -0.987434619 -0.2081958112
21350171900.0 -0.9894069978 -0.1946425287
21400171600.0 -0.991168747 -0.179863021
21450171300.0 -0.9918787176 -0.1652086137
21500171000.0 -0.9921100869 -0.1495708268
21550170700.0 -0.9920816879 -0.1352263189
21600170400.0 -0.9914905353 -0.1205807682
21650170100.0 -0.9929052225 -0.1046989683
21700169800.0 -0.9899598159 -0.0880774782
21750169500.0 -0.9892017944 -0.0744582187
21800169200.0 -0.988918041 -0.0591328711
21850168900.0 -0.989227354 -0.0418603916
21900168600.0 -0.9868415807 -0.0268244748
21950168300.0 -0.9855804975 -0.0108396648
22000168000.0 -0.9846066344 0.0036910978
22050167700.0 -0.984257147 0.0184713366
22100167400.0 -0.9838828604 0.0333641617
22150167100.0 -0.9841433194 0.0481338336
22200166800.0 -0.9842718656 0.0642241841
22250166500.0 -0.9826907246 0.0808373551
22300166200.0 -0.9826900282 0.0971112002
22350165900.0 -0.9810771277 0.1133642281
22400165600.0 -0.9799648078 0.1283391581
22450165300.0 -0.9774077827 0.1432713906
22500165000.0 -0.975397 0.1570482283
22550164700.0 -0.9747228046 0.1730455795
22600164400.0 -0.973071746 0.1878034473
22650164100.0 -0.9701629283 0.2021979675
22700163800.0 -0.9678708545 0.2178429711
22750163500.0 -0.9658028566 0.2326472129
22800163200.0 -0.9629635368 0.2464467826
22850162900.0 -0.9600541255 0.2593938664
22900162600.0 -0.9581863672 0.2731808376
22950162300.0 -0.9567962443 0.2859785891
23000162000.0 -0.9556109883 0.298054934
23050161700.0 -0.9529383615 0.3109581643
23100161400.0 -0.9504395639 0.3235876811
23150161100.0 -0.9481951428 0.3358224663
23200160800.0 -0.9446708928 0.3483692884
23250160500.0 -0.9424545615 0.3598184414
23300160200.0 -0.9390305813 0.372644771
23350159900.0 -0.9352252437 0.3855457187
23400159600.0 -0.9304988137 0.3980376027
23450159300.0 -0.9257949489 0.4106253134
23500159000.0 -0.9213795506 0.4234426182
23550158700.0 -0.9166857204 0.4367148498
23600158400.0 -0.9117056059 0.4493620155
23650158100.0 -0.9052214252 0.4630403158
23700157800.0 -0.8982991267 0.4764131158
23750157500.0 -0.8897037097 0.4904713898
23800157200.0 -0.8814123853 0.5029954205
23850156900.0 -0.8731153468 0.5153296937
23900156600.0 -0.8638873814 0.5277263635
23950156300.0 -0.8552535598 0.5403289946
24000156000.0 -0.8460045209 0.5519747173
24050155700.0 -0.8357178754 0.5645650056
24100155400.0 -0.8259917837 0.5769269323
24150155100.0 -0.8155670678 0.5884487464
24200154800.0 -0.8055596608 0.5991855795
24250154500.0 -0.7948167895 0.6113489185
24300154200.0 -0.783650093 0.6226970968
24350153900.0 -0.7722004717 0.6339791193
24400153600.0 -0.7601594373 0.644338385
24450153300.0 -0.7486644653 0.6548097521
24500153000.0 -0.737255584 0.6645880399
24550152700.0 -0.7266486377 0.6748878792
24600152400.0 -0.7152776999 0.6845439127
24650152100.0 -0.7042162125 0.6935133666
