!Created with skrf (http://scikit-rf.org).
# Hz S RI R 50.0 
!freq ReS11 ImS11
300000.0 -0.9723622456 -0.1218925179
50299700.0 -1.000066433 0.0150307483
100299400.0 -0.9978863968 0.0280431888
150299100.0 -1.002790445 0.0448267586
200298800.0 -0.999520536 0.0581597132
250298500.0 -0.9972630884 0.0716191273
300298200.0 -0.9858318216 0.087471307
350297900.0 -0.9939800371 0.0982633537
400297600.0 -0.9932111035 0.1149521486
450297300.0 -0.9909080264 0.1287004675
500297000.0 -0.9895838148 0.1435552392
550296700.0 -0.9842720639 0.1559925415
600296400.0 -1.017277953 0.1891923971
650296100.0 -0.9821026017 0.1857803741
700295800.0 -0.9794624926 0.1999527066
750295500.0 -0.9764795248 0.2140040774
800295200.0 -0.9730131934 0.22815864
850294900.0 -0.9696111949 0.2418993101
900294600.0 -0.9660108982 0.2556708806
950294300.0 -0.9623087195 0.2692974349
1000294000.0 -0.9582372548 0.2832172868
1050293700.0 -0.9535026722 0.2971125192
1100293400.0 -0.9493608778 0.3115558218
1150293100.0 -0.9453093446 0.3233946535
1200292800.0 -0.9402252507 0.3375733318
1250292500.0 -0.9347157031 0.3513235675
1300292200.0 -0.9291859629 0.3645324093
1350291900.0 -0.9235763047 0.3785375741
1400291600.0 -0.9179660608 0.3916929707
1450291300.0 -0.9124896551 0.4040836827
1500291000.0 -0.9061300146 0.4173587844
1550290700.0 -0.8997438189 0.4307834145
1600290400.0 -0.893456548 0.4437421767
1650290100.0 -0.8867715834 0.4557905797
1700289800.0 -0.8799522312 0.4691885294
1750289500.0 -0.8729485295 0.4815498277
1800289200.0 -0.8656274179 0.4944113428
1850288900.0 -0.8587818963 0.5060313808
1900288600.0 -0.8507995162 0.5187822979
1950288300.0 -0.8431826015 0.5314514474
2000288000.0 -0.835589567 0.5426961586
2050287700.0 -0.8270941774 0.5551315719
2100287400.0 -0.8192921552 0.5665447285
2150287100.0 -0.8108394889 0.5786327319
2200286800.0 -0.8030228523 0.5891771831
2250286500.0 -0.7940201172 0.6014634844
2300286200.0 -0.7851133667 0.6129104247
2350285900.0 -0.7768868709 0.6234491191
2400285600.0 -0.7681099652 0.6342688852
2450285300.0 -0.7590461628 0.6450994356
2500285000.0 -0.7491985742 0.6566501621
2550284700.0 -0.7403625748 0.667033453
2600284400.0 -0.7309692056 0.6770376216
2650284100.0 -0.7222523102 0.6870612952
2700283800.0 -0.7119288186 0.697682467
2750283500.0 -0.7014996095 0.7083337691
2800283200.0 -0.6915154134 0.7179365383
2850282900.0 -0.6812482245 0.728064514
2900282600.0 -0.6706072636 0.7378557028
2950282300.0 -0.6600120773 0.7473094433
3000282000.0 -0.649521384 0.7566373762
3050281700.0 -0.6383254911 0.7661616233
3100281400.0 -0.6267668467 0.7750788873
3150281100.0 -0.6154439745 0.784047977
3200280800.0 -0.6041310203 0.792425225
3250280500.0 -0.5931638851 0.8003447835
3300280200.0 -0.5813686688 0.808384676
3350279900.0 -0.5694051012 0.8165433741
3400279600.0 -0.556648684 0.8245039917
3450279300.0 -0.5455958882 0.8316021312
3500279000.0 -0.5340256986 0.8384938399
3550278700.0 -0.5217173002 0.8455940835
3600278400.0 -0.5100950101 0.8526447279
3650278100.0 -0.4967419431 0.8598896601
3700277800.0 -0.484903929 0.8664008156
3750277500.0 -0.4720740612 0.8734014566
3800277200.0 -0.4597028176 0.8798279289
3850276900.0 -0.4475780755 0.8854318493
3900276600.0 -0.4367530419 0.8912973863
3950276300.0 -0.4248277068 0.8970717831
4000276000.0 -0.4129634058 0.9031443066
4050275700.0 -0.4004747379 0.9091370783
4100275400.0 -0.3892309908 0.9144798446
4150275100.0 -0.3760296308 0.9205069557
4200274800.0 -0.3627893858 0.9260410551
4250274500.0 -0.3499290809 0.9314673825
4300274200.0 -0.3369537398 0.9369697976
4350273900.0 -0.3226720451 0.9421254211
4400273600.0 -0.3078997955 0.9474152953
4450273300.0 -0.2928431604 0.9521619972
4500273000.0 -0.2796668864 0.9564488484
4550272700.0 -0.2660935071 0.9607201601
4600272400.0 -0.2509165355 0.9647025882
4650272100.0 -0.2396799124 0.9678779675
4700271800.0 -0.2266448723 0.97130105
4750271500.0 -0.2149383772 0.9741511141
4800271200.0 -0.2029633711 0.9765806046
4850270900.0 -0.1888706538 0.9794721577
4900270600.0 -0.1752365183 0.9819029434
4950270300.0 -0.1606028721 0.9846215134
5000270000.0 -0.1461229352 0.9864799126
5050269700.0 -0.1325006572 0.9883551445
5100269400.0 -0.1188050454 0.9902659819
5150269100.0 -0.1046664133 0.9918143232
5200268800.0 -0.091251955 0.9930124492
5250268500.0 -0.0783877038 0.9935935023
5300268200.0 -0.0646774122 0.9947550381
5350267900.0 -0.0517326695 0.9951517634
5400267600.0 -0.0354736399 0.9963678541
5450267300.0 -0.0222188019 0.9968387885
5500267000.0 -0.0069106148 0.9970646259
5550266700.0 0.0079818413 0.9972509574
5600266400.0 0.0236762631 0.9971024469
5650266100.0 0.0405330981 0.9969786076
5700265800.0 0.0544396126 0.995863792
5750265500.0 0.069837546 0.9957085377
5800265200.0 0.0829748645 0.9937937843
5850264900.0 0.096009535 0.9925854525
5900264600.0 0.1128353884 0.9913549428
5950264300.0 0.1242524809 0.989779921
6000264000.0 0.1379948339 0.9879282791
6050263700.0 0.1498381053 0.9864227092
6100263400.0 0.1619368768 0.9849566946
6150263100.0 0.1767376855 0.9826739947
6200262800.0 0.1863818318 0.9811214183
6250262500.0 0.1986382098 0.9785693422
6300262200.0 0.2112472883 0.9762304807
6350261900.0 0.2241085279 0.9732740677
6400261600.0 0.2379213802 0.9701873409
6450261300.0 0.2487285105 0.9676602998
6500261000.0 0.2621813896 0.9640234497
6550260700.0 0.2753644367 0.9601520921
6600260400.0 0.2885984809 0.9560414848
6650260100.0 0.3029079827 0.9516247609
6700259800.0 0.3151158467 0.9473466965
6750259500.0 0.3288383 0.9423631319
6800259200.0 0.3423474127 0.9372709123
6850258900.0 0.3547458658 0.9321138265
6900258600.0 0.3674596815 0.9269073029
6950258300.0 0.3797095893 0.921618727
7000258000.0 0.3913173773 0.9161994044
7050257700.0 0.4031863551 0.9104514773
7100257400.0 0.4165789061 0.90413307
7150257100.0 0.4271854896 0.8987227819
7200256800.0 0.4404412631 0.8921890364
7250256500.0 0.4528865199 0.8854304428
7300256200.0 0.4659462768 0.878533833
7350255900.0 0.4791449786 0.8719386857
7400255600.0 0.4922119732 0.8640028735
7450255300.0 0.5086520145 0.8549688419
7500255000.0 0.5211622211 0.8473452809
7550254700.0 0.5349510422 0.8382126418
7600254400.0 0.5476035452 0.8301136996
7650254100.0 0.5595004138 0.8223395778
7700253800.0 0.5711114902 0.8139855728
7750253500.0 0.5816503343 0.8065792492
7800253200.0 0.5925885524 0.7985035057
7850252900.0 0.6021551708 0.7912647895
7900252600.0 0.6136379016 0.7825993867
7950252300.0 0.6222611073 0.7764608436
8000252000.0 0.6319569186 0.7686415386
8050251700.0 0.6424508067 0.7606593688
8100251400.0 0.6521164079 0.7527649305
8150251100.0 0.662477737 0.744014289
8200250800.0 0.6720070981 0.73599931
8250250500.0 0.6806757287 0.7283009397
8300250200.0 0.68989292 0.7199135922
8350249900.0 0.6988596047 0.7108881625
8400249600.0 0.707012703 0.7029797989
8450249300.0 0.7154604787 0.694309289
8500249000.0 0.7242278139 0.685306115
8550248700.0 0.7327445432 0.6762689892
8600248400.0 0.741108103 0.6667011245
8650248100.0 0.7487780735 0.6574336073
8700247800.0 0.7579820431 0.6465793282
8750247500.0 0.7661026058 0.6363783426
8800247200.0 0.7741059957 0.6260496141
8850246900.0 0.7830028806 0.6145205147
8900246600.0 0.7915559349 0.6031732222
8950246300.0 0.800773773 0.5904350383
9000246000.0 0.8091383495 0.5785726524
9050245700.0 0.8177222401 0.5661324772
9100245400.0 0.8262175157 0.5542178583
9150245100.0 0.8352876535 0.5411639574
9200244800.0 0.8445336203 0.5267930703
9250244500.0 0.8534127384 0.5118186042
9300244200.0 0.8616442048 0.4983264301
9350243900.0 0.869151456 0.4849289304
9400243600.0 0.8758494246 0.4733204021
9450243300.0 0.8813539965 0.4626925729
9500243000.0 0.8876119732 0.4510622374
9550242700.0 0.8915605074 0.4438211744
9600242400.0 0.8957611119 0.4360372568
9650242100.0 0.9000134014 0.4292871777
9700241800.0 0.9050157912 0.4203740914
9750241500.0 0.9090846339 0.4131534492
9800241200.0 0.9141990061 0.4035297003
9850240900.0 0.9199293128 0.3918389487
9900240600.0 0.9260245337 0.3799265033
9950240300.0 0.9331787299 0.3630622452
10000240000.0 0.938046069 0.3511792587
10050239700.0 0.9435478421 0.3351991846
10100239400.0 0.9496279532 0.318680744
10150239100.0 0.954226516 0.303233811
10200238800.0 0.9584073116 0.2876683337
10250238500.0 0.9617122888 0.2741978381
10300238200.0 0.9646689206 0.2602105769
10350237900.0 0.9676106843 0.2468405229
10400237600.0 0.9700783896 0.2330679367
10450237300.0 0.9729585417 0.2194413554
10500237000.0 0.9748176004 0.2075135925
10550236700.0 0.9772211516 0.1931558207
10600236400.0 0.9794498891 0.179000648
10650236100.0 0.9813466535 0.16487522
10700235800.0 0.9837746343 0.1522649319
10750235500.0 0.9862694618 0.1385636246
10800235200.0 0.9882219989 0.1241997314
10850234900.0 0.989956975 0.1096812186
10900234600.0 0.9919552167 0.0946542823
10950234300.0 0.9936915244 0.0812108812
11000234000.0 0.9955627754 0.0654982532
11050233700.0 0.9974702676 0.0487909466
11100233400.0 0.9990231363 0.0311201546
11150233100.0 1.000019029 0.014506198
11200232800.0 1.000947575 -0.0015942591
11250232500.0 1.001904786 -0.0196713137
11300232200.0 1.001710626 -0.0382790042
11350231900.0 1.002372416 -0.054347636
11400231600.0 1.002475265 -0.0700581791
11450231300.0 1.001488559 -0.0860119633
11500231000.0 0.9996286967 -0.101549723
11550230700.0 0.9984492295 -0.1152521168
11600230400.0 0.9971409683 -0.1275218125
11650230100.0 0.9947952318 -0.1386942064
11700229800.0 0.9927214858 -0.154465072
11750229500.0 0.9903373069 -0.1683956969
11800229200.0 0.9874858897 -0.1817726178
11850228900.0 0.9835436722 -0.1934028714
11900228600.0 0.9798835768 -0.2028619324
11950228300.0 0.9763593968 -0.2129014906
12000228000.0 0.9739380138 -0.2214595011
12050227700.0 0.9701791409 -0.2347271343
12100227400.0 0.9669371769 -0.2456275488
12150227100.0 0.9616409944 -0.2622256121
12200226800.0 0.9586555909 -0.2729561526
12250226500.0 0.9534427822 -0.2866331916
12300226200.0 0.9494425538 -0.2985913131
12350225900.0 0.9443845303 -0.3120850275
12400225600.0 0.9399734942 -0.3250282389
12450225300.0 0.9358614593 -0.3371485078
12500225000.0 0.9302858878 -0.3522102499
12550224700.0 0.9249637839 -0.3654679049
12600224400.0 0.9200860921 -0.3782625883
12650224100.0 0.9141236454 -0.3925305888
12700223800.0 0.9089695588 -0.4053427297
12750223500.0 0.9033313755 -0.4182672208
12800223200.0 0.8978167022 -0.430900194
12850222900.0 0.8928447948 -0.4431849756
12900222600.0 0.8871851965 -0.4549535033
12950222300.0 0.8806767533 -0.467982703
13000222000.0 0.8750615341 -0.4793320778
13050221700.0 0.8682795241 -0.4929080346
13100221400.0 0.861538366 -0.5044624408
13150221100.0 0.8546893187 -0.5164267406
13200220800.0 0.8479500098 -0.5280830812
13250220500.0 0.8404907445 -0.5403672811
13300220200.0 0.8328742923 -0.551052963
13350219900.0 0.824696335 -0.5631574404
13400219600.0 0.8164972523 -0.5749642856
13450219300.0 0.8071043797 -0.5879600889
13500219000.0 0.7970525214 -0.6011139262
13550218700.0 0.7876158519 -0.613387016
13600218400.0 0.7772726393 -0.6252018948
13650218100.0 0.7681638058 -0.6363442973
13700217800.0 0.7567402645 -0.64825658
13750217500.0 0.7476413256 -0.6590046896
13800217200.0 0.7358551333 -0.6706437366
13850216900.0 0.7251997963 -0.6816483661
13900216600.0 0.7157679386 -0.6908774304
13950216300.0 0.7054848277 -0.700127013
14000216000.0 0.6946818641 -0.7093634216
14050215700.0 0.6860744393 -0.717422114
14100215400.0 0.6765589427 -0.7264199318
14150215100.0 0.667359529 -0.7350405837
14200214800.0 0.6578047773 -0.7441179762
14250214500.0 0.6473719111 -0.7536368952
14300214200.0 0.6368614703 -0.7629591023
14350213900.0 0.6259060911 -0.7726287212
14400213600.0 0.6144410242 -0.7825425923
14450213300.0 0.6011007632 -0.7930685744
14500213000.0 0.5878466733 -0.802936404
14550212700.0 0.5756495744 -0.8122545395
14600212400.0 0.5638906217 -0.8208258359
14650212100.0 0.5508484051 -0.8293910911
14700211800.0 0.536716301 -0.8388793491
14750211500.0 0.5247120529 -0.8473931464
14800211200.0 0.5119537946 -0.8553572573
14850210900.0 0.4997586782 -0.8631516453
14900210600.0 0.4865023693 -0.8710618439
14950210300.0 0.473107982 -0.8787035106
15000210000.0 0.4605473595 -0.8854610824
15050209700.0 0.4481527672 -0.8912937886
15100209400.0 0.4359166003 -0.8976003446
15150209100.0 0.4232931257 -0.9026228102
15200208800.0 0.4112771348 -0.9076871035
15250208500.0 0.4001310576 -0.9122222265
15300208200.0 0.3878835488 -0.9172947422
15350207900.0 0.3738109987 -0.9218418583
15400207600.0 0.3596443634 -0.9275808059
15450207300.0 0.3458859957 -0.9326672661
15500207000.0 0.3305017647 -0.9371207322
15550206700.0 0.3158054773 -0.9421609922
15600206400.0 0.2996368696 -0.9466703544
15650206100.0 0.283337977 -0.9507464612
15700205800.0 0.2703378083 -0.9540529239
15750205500.0 0.2560396741 -0.9577061664
15800205200.0 0.2419345328 -0.9613033845
15850204900.0 0.2278963992 -0.964681949
15900204600.0 0.2127474984 -0.9684017308
15950204300.0 0.1986155749 -0.9712918919
16000204000.0 0.1843779744 -0.9743679631
16050203700.0 0.1689165837 -0.9774039537
16100203400.0 0.1541115009 -0.9795001721
16150203100.0 0.1392714142 -0.9819529389
16200202800.0 0.1249819197 -0.9841231042
16250202500.0 0.1102296785 -0.9860019983
16300202200.0 0.0950306607 -0.9874308839
16350201900.0 0.0799090803 -0.9887317973
16400201600.0 0.0651832845 -0.9901275643
16450201300.0 0.0496439228 -0.9910569614
16500201000.0 0.0324922104 -0.9920389688
16550200700.0 0.0166257542 -0.9926027638
16600200400.0 0.0007164085 -0.9927149302
16650200100.0 -0.0153458155 -0.9930173804
16700199800.0 -0.031840374 -0.9921945241
16750199500.0 -0.0514448896 -0.9913657871
16800199200.0 -0.0671143463 -0.9909045544
16850198900.0 -0.0825088958 -0.9897596745
16900198600.0 -0.0962441225 -0.9886720683
16950198300.0 -0.1112095117 -0.987197217
17000198000.0 -0.1226831411 -0.9857231122
17050197700.0 -0.1362256744 -0.984473323
17100197400.0 -0.1491689122 -0.981899993
17150197100.0 -0.1617602428 -0.9798696152
17200196800.0 -0.1742702078 -0.9775243346
17250196500.0 -0.1873016129 -0.975405138
17300196200.0 -0.1994564432 -0.9730059448
17350195900.0 -0.2111405844 -0.9706236855
17400195600.0 -0.2233939168 -0.9681205998
17450195300.0 -0.2359906058 -0.9653198613
17500195000.0 -0.2492291949 -0.9619169841
17550194700.0 -0.2630329198 -0.9584385099
17600194400.0 -0.2768042023 -0.9542283504
17650194100.0 -0.2906928304 -0.9504675385
17700193800.0 -0.3036411628 -0.9462573558
17750193500.0 -0.3175712121 -0.9417574306
17800193200.0 -0.3318639074 -0.9367276491
17850192900.0 -0.346921316 -0.9307778564
17900192600.0 -0.3617398448 -0.9247916987
17950192300.0 -0.3773682227 -0.9179573844
18000192000.0 -0.392233633 -0.9105447289
18050191700.0 -0.4060613777 -0.9027368671
18100191400.0 -0.4201779987 -0.8949498549
18150191100.0 -0.4350401703 -0.8868314309
18200190800.0 -0.4517154412 -0.8777102135
18250190500.0 -0.4688716601 -0.8679834391
18300190200.0 -0.4843718018 -0.8596339145
18350189900.0 -0.4994001136 -0.8508982435
18400189600.0 -0.5138597461 -0.842579849
18450189300.0 -0.5273891885 -0.8345354385
18500189000.0 -0.5409380194 -0.8266988751
18550188700.0 -0.55381721 -0.8191347457
18600188400.0 -0.5656555675 -0.8121812489
18650188100.0 -0.5767825585 -0.8053641964
18700187800.0 -0.5882046893 -0.7988648864
18750187500.0 -0.5987384322 -0.792019228
18800187200.0 -0.6093599994 -0.7852212499
18850186900.0 -0.6196670179 -0.7782305451
18900186600.0 -0.6298636223 -0.7709606365
18950186300.0 -0.6400646828 -0.76315637
19000186000.0 -0.6476312315 -0.7569180014
19050185700.0 -0.6568198453 -0.7497602464
19100185400.0 -0.6671377392 -0.7413874918
19150185100.0 -0.6768978349 -0.7331271988
19200184800.0 -0.6870972912 -0.7245028314
19250184500.0 -0.6970323674 -0.7158159814
19300184200.0 -0.7080231564 -0.7061054866
19350183900.0 -0.7183895967 -0.6964726222
19400183600.0 -0.728816882 -0.6869444883
19450183300.0 -0.7372306357 -0.6763958884
19500183000.0 -0.7457035881 -0.6664159686
19550182700.0 -0.7553611401 -0.6558538053
19600182400.0 -0.7658152344 -0.6439215492
19650182100.0 -0.776313506 -0.6314406371
19700181800.0 -0.7866520581 -0.6183959573
19750181500.0 -0.7971989656 -0.6044447506
19800181200.0 -0.8075060773 -0.5891690272
19850180900.0 -0.8169072906 -0.5741223988
19900180600.0 -0.8243440756 -0.5594918338
19950180300.0 -0.8336996693 -0.5433073673
20000180000.0 -0.8233288704 -0.5473464721
20050179700.0 -0.8323022183 -0.5345545679
20100179400.0 -0.8400646452 -0.5203260332
20150179100.0 -0.8473440783 -0.5092459507
20200178800.0 -0.8563204891 -0.4976483554
20250178500.0 -0.8663564206 -0.4845608904
20300178200.0 -0.8748934482 -0.4722894208
20350177900.0 -0.8848677598 -0.4573089777
20400177600.0 -0.8935629608 -0.4435712198
20450177300.0 -0.902420523 -0.4287321922
20500177000.0 -0.9103522192 -0.4147962141
20550176700.0 -0.918203318 -0.401414701
20600176400.0 -0.925158369 -0.3883182054
20650176100.0 -0.9317667214 -0.3763728017
20700175800.0 -0.9379330295 -0.3638096306
20750175500.0 -0.9451268107 -0.3523545545
20800175200.0 -0.9493446671 -0.3418986486
20850174900.0 -0.9540525474 -0.3308346424
20900174600.0 -0.9585884172 -0.3206740097
20950174300.0 -0.9618939643 -0.3086809788
21000174000.0 -0.9647897285 -0.2987185392
21050173700.0 -0.9660806337 -0.2885439108
21100173400.0 -0.9691744817 -0.2777351123
21150173100.0 -0.9733447816 -0.2663373637
21200172800.0 -0.9780044168 -0.2529891255
21250172500.0 -0.9813751364 -0.2393587217
21300172200.0 -0.9845856454 -0.2250895485
21350171900.0 -0.9865302546 -0.2108979727
21400171600.0 -0.9882219255 -0.1965697978
21450171300.0 -0.9888769914 -0.1834674628
21500171000.0 -0.9891669744 -0.1677806184
21550170700.0 -0.9890387697 -0.1524958544
21600170400.0 -0.9905207706 -0.1374011319
21650170100.0 -0.9908517812 -0.1207888448
21700169800.0 -0.9909670578 -0.1056798013
21750169500.0 -0.9894226197 -0.0892591673
21800169200.0 -0.9904256124 -0.0732617826
21850168900.0 -0.9894936957 -0.0562987384
21900168600.0 -0.9888295006 -0.0410797564
21950168300.0 -0.9882192699 -0.0248103297
22000168000.0 -0.9887173755 -0.0093942796
22050167700.0 -0.9891599543 0.0047637731
22100167400.0 -0.9897160405 0.0207578593
22150167100.0 -0.9907723391 0.0366869136
22200166800.0 -0.9911133217 0.0536565735
22250166500.0 -0.9907512381 0.0703446273
22300166200.0 -0.9905029426 0.0870302104
22350165900.0 -0.9887445092 0.1030216701
22400165600.0 -0.9873649287 0.1185560802
22450165300.0 -0.9850295912 0.1341092504
22500165000.0 -0.98368664 0.1487398179
22550164700.0 -0.9827876803 0.1646203225
22600164400.0 -0.9797523367 0.1808467051
22650164100.0 -0.9775701886 0.1964562683
22700163800.0 -0.9746042656 0.2122642166
22750163500.0 -0.9717226845 0.2264325657
22800163200.0 -0.9693996622 0.2399748824
22850162900.0 -0.9662391381 0.2534889199
22900162600.0 -0.9645492967 0.2674807709
22950162300.0 -0.9629901893 0.2810827868
23000162000.0 -0.960738256 0.2937817371
23050161700.0 -0.9582912468 0.3074218678
23100161400.0 -0.9556470041 0.320362391
23150161100.0 -0.9525740298 0.3335004926
23200160800.0 -0.9499412681 0.3464934205
23250160500.0 -0.9469903904 0.3588872386
23300160200.0 -0.943979531 0.3714885561
23350159900.0 -0.9396404017 0.3851411844
23400159600.0 -0.9344573507 0.3988130323
23450159300.0 -0.9300359153 0.4123409014
23500159000.0 -0.9247561215 0.4261958016
23550158700.0 -0.9200157892 0.4401945784
23600158400.0 -0.9137622805 0.4542370608
23650158100.0 -0.9069257048 0.4688611006
23700157800.0 -0.8983375892 0.4830249141
23750157500.0 -0.8887798746 0.4969975612
23800157200.0 -0.8795601062 0.511005377
23850156900.0 -0.8699249674 0.523468301
23900156600.0 -0.8597303496 0.5360863243
23950156300.0 -0.849856118 0.5481898928
24000156000.0 -0.8406467194 0.56066372
24050155700.0 -0.8301621092 0.572959558
24100155400.0 -0.8193747571 0.585994774
24150155100.0 -0.8085921332 0.5974884655
24200154800.0 -0.797593865 0.6092409038
24250154500.0 -0.7866821327 0.6221575235
24300154200.0 -0.7748954986 0.6342196355
24350153900.0 -0.7627255798 0.6449994975
24400153600.0 -0.7502228629 0.6555713761
24450153300.0 -0.7382287663 0.6659305745
24500153000.0 -0.7270752 0.6758052786
24550152700.0 -0.7151005617 0.6856506761
24600152400.0 -0.7033752285 0.6951787217
24650152100.0 -0.6912494771 0.7040372232
