!Created with skrf (http://scikit-rf.org).
# Hz S RI R 50.0 
!freq ReS11 ImS11
300000.0 -0.9747269245 -0.1195253978
50299700.0 -0.9998737291 0.0152136647
100299400.0 -0.9978796413 0.0280261353
150299100.0 -1.002654462 0.0449134356
200298800.0 -0.9996493698 0.0583816015
250298500.0 -0.9972406521 0.0716206912
300298200.0 -0.9858793585 0.0875696946
350297900.0 -0.9938893381 0.0984053136
400297600.0 -0.9931042759 0.1150777095
450297300.0 -0.9909368428 0.1286246128
500297000.0 -0.9893765821 0.1435543462
550296700.0 -0.984194412 0.1560045637
600296400.0 -1.017120055 0.1892814315
650296100.0 -0.9824710503 0.1859968991
700295800.0 -0.9793479945 0.200161415
750295500.0 -0.9762146532 0.2141603101
800295200.0 -0.9730632071 0.2282007011
850294900.0 -0.9697108294 0.2420848139
900294600.0 -0.9657154921 0.25587924
950294300.0 -0.9621845776 0.2695307391
1000294000.0 -0.9581911487 0.2833866088
1050293700.0 -0.9537260067 0.2971388137
1100293400.0 -0.9493142696 0.3115430416
1150293100.0 -0.9455218361 0.3235048496
1200292800.0 -0.9401280324 0.3378370404
1250292500.0 -0.9347770664 0.3511970354
1300292200.0 -0.9290738373 0.3645038957
1350291900.0 -0.9234669302 0.3786115756
1400291600.0 -0.917851526 0.3916302157
1450291300.0 -0.9125067714 0.4040722421
1500291000.0 -0.9062562694 0.4174904766
1550290700.0 -0.899627008 0.4307837866
1600290400.0 -0.8934123752 0.4438263461
1650290100.0 -0.8866985493 0.4557324254
1700289800.0 -0.8797687098 0.4692768653
1750289500.0 -0.8728611923 0.4815908211
1800289200.0 -0.8655655442 0.4945373507
1850288900.0 -0.8587498219 0.5058628302
1900288600.0 -0.8511298699 0.5187657606
1950288300.0 -0.8429147546 0.5313514462
2000288000.0 -0.8355383271 0.542862877
2050287700.0 -0.8271517535 0.5552365499
2100287400.0 -0.8192634741 0.5667194662
2150287100.0 -0.8107724555 0.5788016472
2200286800.0 -0.802906322 0.5891812361
2250286500.0 -0.7939921714 0.6015099764
2300286200.0 -0.7850026234 0.6130697346
2350285900.0 -0.7767593999 0.6237546011
2400285600.0 -0.7678438982 0.6344932939
2450285300.0 -0.7590768832 0.645170032
2500285000.0 -0.7490729012 0.6566960289
2550284700.0 -0.7403200965 0.667162256
2600284400.0 -0.7307964081 0.6770357272
2650284100.0 -0.722358827 0.6873233109
2700283800.0 -0.7118983302 0.6976742327
2750283500.0 -0.7016105545 0.7084356471
2800283200.0 -0.6915854418 0.7183106611
2850282900.0 -0.6810127648 0.7282053258
2900282600.0 -0.6708106054 0.7379098939
2950282300.0 -0.6601082469 0.7471979909
3000282000.0 -0.6494589841 0.756749065
3050281700.0 -0.6384416171 0.76616163
3100281400.0 -0.6266840914 0.7750772682
3150281100.0 -0.6153751382 0.7841911208
3200280800.0 -0.6039275897 0.7924399211
3250280500.0 -0.5928329786 0.8004819761
3300280200.0 -0.5814076605 0.8085910482
3350279900.0 -0.569283323 0.8164718959
3400279600.0 -0.5567718833 0.8241855485
3450279300.0 -0.5458952312 0.8315840771
3500279000.0 -0.5340421922 0.838403726
3550278700.0 -0.5217461977 0.8456126835
3600278400.0 -0.5097437808 0.8524205305
3650278100.0 -0.4967933784 0.8602490491
3700277800.0 -0.4846455198 0.866674264
3750277500.0 -0.4721761036 0.8732856982
3800277200.0 -0.4597014667 0.8798517365
3850276900.0 -0.4475620684 0.8856571641
3900276600.0 -0.4368212314 0.8912828297
3950276300.0 -0.4246805971 0.8972099632
4000276000.0 -0.412914167 0.9034240987
4050275700.0 -0.4001584145 0.90937352
4100275400.0 -0.3890593109 0.9147947599
4150275100.0 -0.3761656472 0.9204239204
4200274800.0 -0.3627707018 0.9262574909
4250274500.0 -0.3500876781 0.9314814715
4300274200.0 -0.3369125178 0.9367976553
4350273900.0 -0.3228580923 0.9422193026
4400273600.0 -0.3079013669 0.9472109652
4450273300.0 -0.2930093231 0.9522733789
4500273000.0 -0.279628618 0.9564625611
4550272700.0 -0.2658808646 0.960677555
4600272400.0 -0.2506997261 0.9646777445
4650272100.0 -0.2393621316 0.9679387001
4700271800.0 -0.2263676387 0.9712969605
4750271500.0 -0.2146891807 0.9739908071
4800271200.0 -0.2022660478 0.9769456518
4850270900.0 -0.1885653608 0.9797198294
4900270600.0 -0.1747669089 0.9822243523
4950270300.0 -0.1601460576 0.9847520338
5000270000.0 -0.1459383816 0.9869231917
5050269700.0 -0.1321838244 0.9885502305
5100269400.0 -0.1182977914 0.9903870099
5150269100.0 -0.1045350909 0.9917729253
5200268800.0 -0.0912142954 0.9926534003
5250268500.0 -0.0779765254 0.9941940952
5300268200.0 -0.0643802843 0.9943354234
5350267900.0 -0.0519540675 0.9949016695
5400267600.0 -0.0354931831 0.9962977018
5450267300.0 -0.0222929587 0.9965101013
5500267000.0 -0.0072218435 0.9970729869
5550266700.0 0.0077617393 0.99713914
5600266400.0 0.0233435034 0.9973428976
5650266100.0 0.0403030213 0.9970480364
5700265800.0 0.0544262584 0.9959905984
5750265500.0 0.0694010027 0.9951885063
5800265200.0 0.0831113314 0.9942446569
5850264900.0 0.0960199615 0.9931097799
5900264600.0 0.112987564 0.9912569843
5950264300.0 0.1244301347 0.9899683381
6000264000.0 0.1384411854 0.9884750049
6050263700.0 0.1500430232 0.9867687903
6100263400.0 0.1623238681 0.984851675
6150263100.0 0.177058688 0.9828822867
6200262800.0 0.1865644279 0.9809903757
6250262500.0 0.1994202197 0.9786528561
6300262200.0 0.2118065328 0.9761358193
6350261900.0 0.224541002 0.9731678736
6400261600.0 0.2384128856 0.9697916023
6450261300.0 0.2497177279 0.9673485598
6500261000.0 0.2627942244 0.9638859997
6550260700.0 0.275970175 0.9598524007
6600260400.0 0.2894949658 0.9558100275
6650260100.0 0.303063243 0.9511669203
6700259800.0 0.3155182658 0.9470587067
6750259500.0 0.3289087499 0.942001629
6800259200.0 0.3429470597 0.9371430258
6850258900.0 0.3550734648 0.9317320729
6900258600.0 0.3675170372 0.9267877586
6950258300.0 0.3799242309 0.9213640389
7000258000.0 0.3918589682 0.9159808655
7050257700.0 0.403666554 0.9102748179
7100257400.0 0.4169655797 0.9037733432
7150257100.0 0.4277553457 0.8984692119
7200256800.0 0.4407615541 0.8920522731
7250256500.0 0.4530698544 0.8854973402
7300256200.0 0.4660308803 0.8786862175
7350255900.0 0.4790889153 0.8718901875
7400255600.0 0.4928777453 0.8640414697
7450255300.0 0.5079579347 0.8550771603
7500255000.0 0.5203866963 0.8476323735
7550254700.0 0.5351786905 0.838778171
7600254400.0 0.5470823603 0.8305307153
7650254100.0 0.5585792254 0.8228879561
7700253800.0 0.5700792438 0.8145239629
7750253500.0 0.5812672168 0.8067903532
7800253200.0 0.5919722772 0.7990341878
7850252900.0 0.6018185107 0.7918280609
7900252600.0 0.6132570901 0.783201035
7950252300.0 0.6216688694 0.7768227268
8000252000.0 0.6317604344 0.7693127273
8050251700.0 0.6421241863 0.7610506966
8100251400.0 0.6524310959 0.7528932228
8150251100.0 0.6621785605 0.744477612
8200250800.0 0.6717569125 0.7363330016
8250250500.0 0.6804429341 0.7285289893
8300250200.0 0.6895793551 0.7199663728
8350249900.0 0.6987440217 0.711188418
8400249600.0 0.7067104385 0.7029782473
8450249300.0 0.7158127319 0.6941498232
8500249000.0 0.7243127778 0.6854043753
8550248700.0 0.7326102308 0.6763616269
8600248400.0 0.7410734879 0.6667809966
8650248100.0 0.7488822388 0.6574353664
8700247800.0 0.7580992531 0.6464632964
8750247500.0 0.7663723595 0.6362891395
8800247200.0 0.7743923573 0.6259992026
8850246900.0 0.783306029 0.6145531197
8900246600.0 0.7914924747 0.6033588579
8950246300.0 0.8011540925 0.5905109119
9000246000.0 0.809857865 0.5783595981
9050245700.0 0.8183604311 0.5658853984
9100245400.0 0.8266379532 0.5537714449
9150245100.0 0.835400609 0.5405923869
9200244800.0 0.8446453399 0.5259837822
9250244500.0 0.8544043695 0.5110044276
9300244200.0 0.8626095615 0.4972384202
9350243900.0 0.8701374534 0.4838226422
9400243600.0 0.8767421649 0.4720220549
9450243300.0 0.8822701292 0.4612319446
9500243000.0 0.8887404631 0.4494560155
9550242700.0 0.8925903763 0.4418832427
9600242400.0 0.8967927188 0.4344236772
9650242100.0 0.9005955607 0.4275473604
9700241800.0 0.9057061306 0.4190565312
9750241500.0 0.909673274 0.4114625356
9800241200.0 0.9148874089 0.4020113035
9850240900.0 0.9207230803 0.3902095162
9900240600.0 0.9259179993 0.3786779272
9950240300.0 0.9333941033 0.3618160873
10000240000.0 0.9378805239 0.3502739386
10050239700.0 0.9442659839 0.3337430747
10100239400.0 0.9495178971 0.317617675
10150239100.0 0.9539487452 0.3026435886
10200238800.0 0.9582698754 0.2871180344
10250238500.0 0.9614379854 0.2736453492
10300238200.0 0.9645151924 0.2598119157
10350237900.0 0.9675164133 0.2464047626
10400237600.0 0.969945846 0.2332925652
10450237300.0 0.9727258792 0.2194135884
10500237000.0 0.9746846863 0.207516317
10550236700.0 0.9772784396 0.1928929424
10600236400.0 0.9795381485 0.178857274
10650236100.0 0.9814216524 0.1643449969
10700235800.0 0.9833854417 0.1524964292
10750235500.0 0.985892114 0.1385247221
10800235200.0 0.9877939322 0.124523896
10850234900.0 0.9899637176 0.109525452
10900234600.0 0.9920022555 0.0947228114
10950234300.0 0.993789679 0.0811279488
11000234000.0 0.9955373493 0.0657252305
11050233700.0 0.9972585395 0.0490966914
11100233400.0 0.998714835 0.0315812775
11150233100.0 0.9998013055 0.0148950575
11200232800.0 1.000399426 -0.0009969414
11250232500.0 1.001651409 -0.0182031763
11300232200.0 1.002036531 -0.0369499354
11350231900.0 1.002536095 -0.0533740584
11400231600.0 1.001578444 -0.0691590609
11450231300.0 1.001051283 -0.084051518
11500231000.0 0.9993876918 -0.1002152418
11550230700.0 0.9981453237 -0.1135676813
11600230400.0 0.9974508176 -0.126251864
11650230100.0 0.9945686114 -0.1382227491
11700229800.0 0.9928731158 -0.1526188827
11750229500.0 0.9904381855 -0.1671270154
11800229200.0 0.9874281307 -0.1803093728
11850228900.0 0.9838934947 -0.1923190455
11900228600.0 0.9801211634 -0.2020072613
11950228300.0 0.9769808565 -0.2124929569
12000228000.0 0.9742060876 -0.2208109703
12050227700.0 0.9702836539 -0.2341267701
12100227400.0 0.9669718845 -0.2442737481
12150227100.0 0.9619910939 -0.2618155311
12200226800.0 0.9586884902 -0.2716422885
12250226500.0 0.954153036 -0.2846115757
12300226200.0 0.9505190391 -0.2974531448
12350225900.0 0.9453901185 -0.3114310814
12400225600.0 0.9407137586 -0.3234715671
12450225300.0 0.9359656884 -0.3366205668
12500225000.0 0.9308215336 -0.3512188452
12550224700.0 0.9251285517 -0.3647489266
12600224400.0 0.920460303 -0.3775195123
12650224100.0 0.9144928578 -0.3920489131
12700223800.0 0.9092297916 -0.4047620393
12750223500.0 0.9038248309 -0.4177640433
12800223200.0 0.8982850222 -0.430472433
12850222900.0 0.8932106273 -0.4424680893
12900222600.0 0.887618051 -0.4546320731
12950222300.0 0.8815260542 -0.4669816223
13000222000.0 0.8754318645 -0.4786749415
13050221700.0 0.8690797931 -0.4912131263
13100221400.0 0.8619157025 -0.5039181203
13150221100.0 0.8551160478 -0.5159331567
13200220800.0 0.8480746431 -0.5274562971
13250220500.0 0.84065649 -0.5396160176
13300220200.0 0.8334057514 -0.5506131551
13350219900.0 0.8252531196 -0.5623320638
13400219600.0 0.8167737627 -0.5742964653
13450219300.0 0.807541081 -0.5875100968
13500219000.0 0.797597128 -0.6007577813
13550218700.0 0.7876144595 -0.6135030225
13600218400.0 0.7778609708 -0.6258381294
13650218100.0 0.7684951749 -0.6360633779
13700217800.0 0.7575620304 -0.6479810522
13750217500.0 0.74749897 -0.6591271194
13800217200.0 0.736274005 -0.6705436052
13850216900.0 0.7254863499 -0.6817872352
13900216600.0 0.7156834165 -0.6907798914
13950216300.0 0.7046540894 -0.7012725629
14000216000.0 0.695327884 -0.7100689331
14050215700.0 0.6857446757 -0.7181116631
14100215400.0 0.676336419 -0.7271611191
14150215100.0 0.6670554862 -0.7355422145
14200214800.0 0.6577440716 -0.7443428771
14250214500.0 0.6474447807 -0.7538111933
14300214200.0 0.6370028832 -0.7632091771
14350213900.0 0.6257882404 -0.7727670548
14400213600.0 0.6137327004 -0.7826569516
14450213300.0 0.6012321674 -0.7926475925
14500213000.0 0.5879320131 -0.8025689747
14550212700.0 0.5759972578 -0.8120416004
14600212400.0 0.5633285919 -0.8207761478
14650212100.0 0.5503376907 -0.8293802288
14700211800.0 0.5368326024 -0.8393977126
14750211500.0 0.5242811812 -0.8470860651
14800211200.0 0.5119082023 -0.8554248678
14850210900.0 0.4997617532 -0.8631690225
14900210600.0 0.4862428698 -0.871189902
14950210300.0 0.47318426 -0.8787360951
15000210000.0 0.460424816 -0.8855227518
15050209700.0 0.4478572742 -0.8914808742
15100209400.0 0.4349924846 -0.8977107539
15150209100.0 0.4235554237 -0.9028001787
15200208800.0 0.4103703066 -0.9084834406
15250208500.0 0.3994619878 -0.9126389555
15300208200.0 0.3863883404 -0.9180025092
15350207900.0 0.3734515092 -0.9223168559
15400207600.0 0.3595721219 -0.9281147138
15450207300.0 0.3443250758 -0.9330560332
15500207000.0 0.3303020319 -0.9372724075
15550206700.0 0.3153118089 -0.9424059615
15600206400.0 0.2989860456 -0.9465153976
15650206100.0 0.2832281425 -0.9509450793
15700205800.0 0.2695583548 -0.9544710078
15750205500.0 0.2556734699 -0.957787173
15800205200.0 0.2416711427 -0.9613692952
15850204900.0 0.2272438927 -0.9649000755
15900204600.0 0.2121821218 -0.9688026829
15950204300.0 0.1979813279 -0.9716506989
16000204000.0 0.1836056428 -0.9746930153
16050203700.0 0.1681732433 -0.9776579349
16100203400.0 0.1540869695 -0.9794712585
16150203100.0 0.1393190253 -0.9820472668
16200202800.0 0.1249285154 -0.9843902079
16250202500.0 0.1101745941 -0.9859796622
16300202200.0 0.0945635742 -0.9874540715
16350201900.0 0.0795290618 -0.9891882561
16400201600.0 0.0650385784 -0.9902568262
16450201300.0 0.0495471165 -0.9912557903
16500201000.0 0.0325300674 -0.9920060299
16550200700.0 0.0165319557 -0.9923953409
16600200400.0 0.0004905613 -0.9926170841
16650200100.0 -0.0154571117 -0.9926388985
16700199800.0 -0.0316527386 -0.9926584047
16750199500.0 -0.0507073995 -0.990944022
16800199200.0 -0.0668555169 -0.9905906231
16850198900.0 -0.0819442344 -0.9894943674
16900198600.0 -0.0966199505 -0.9885995259
16950198300.0 -0.1099361956 -0.9872091435
17000198000.0 -0.1225814456 -0.9862887567
17050197700.0 -0.1353811217 -0.9837984498
17100197400.0 -0.1484710425 -0.9817186506
17150197100.0 -0.1609247457 -0.9800242353
17200196800.0 -0.174226244 -0.9780843107
17250196500.0 -0.1870125546 -0.9754689599
17300196200.0 -0.1988998002 -0.9732609283
17350195900.0 -0.2107196398 -0.9709667513
17400195600.0 -0.2227931036 -0.9683935039
17450195300.0 -0.2358021731 -0.9654998901
17500195000.0 -0.2490842847 -0.9620655064
17550194700.0 -0.2629450515 -0.9584560591
17600194400.0 -0.2767927522 -0.9548691989
17650194100.0 -0.2902998141 -0.9504940873
17700193800.0 -0.303175992 -0.9466509592
17750193500.0 -0.3173065492 -0.9417792443
17800193200.0 -0.3312015445 -0.9366630055
17850192900.0 -0.3465635124 -0.9309748954
17900192600.0 -0.3621267875 -0.9252843083
17950192300.0 -0.3773730181 -0.918083293
18000192000.0 -0.3921535523 -0.9103866646
18050191700.0 -0.4058155161 -0.9028074079
18100191400.0 -0.4200109935 -0.8951455135
18150191100.0 -0.434971373 -0.8871121358
18200190800.0 -0.4518230042 -0.8778265632
18250190500.0 -0.4686125895 -0.8685611107
18300190200.0 -0.4842043157 -0.8594541226
18350189900.0 -0.4994013533 -0.8514641511
18400189600.0 -0.5140994158 -0.8431972952
18450189300.0 -0.5272309929 -0.8348978232
18500189000.0 -0.5410431573 -0.8268178854
18550188700.0 -0.5536770283 -0.8190458819
18600188400.0 -0.56522835 -0.8124773545
18650188100.0 -0.5767237552 -0.805576253
18700187800.0 -0.5876525794 -0.7989284896
18750187500.0 -0.5984561578 -0.7926033742
18800187200.0 -0.6091827876 -0.7853795762
18850186900.0 -0.6192659407 -0.77864033
18900186600.0 -0.6295167038 -0.7713384116
18950186300.0 -0.6398827314 -0.7635668687
19000186000.0 -0.6473500394 -0.7571038761
19050185700.0 -0.6564455498 -0.7500683918
19100185400.0 -0.666711409 -0.7419991479
19150185100.0 -0.6768516788 -0.733877719
19200184800.0 -0.6860516082 -0.7254221239
19250184500.0 -0.6961034088 -0.716068533
19300184200.0 -0.7074819031 -0.7061885727
19350183900.0 -0.7185131424 -0.6965265782
19400183600.0 -0.7278614022 -0.6871150249
19450183300.0 -0.73794191 -0.6768573022
19500183000.0 -0.7454911229 -0.6663106294
19550182700.0 -0.7549756488 -0.6558213042
19600182400.0 -0.7654493441 -0.6439095797
19650182100.0 -0.7761274244 -0.6319175815
19700181800.0 -0.7866575824 -0.6186506385
19750181500.0 -0.7970671927 -0.6046800433
19800181200.0 -0.8070567802 -0.5896758454
19850180900.0 -0.8166375302 -0.5743725516
19900180600.0 -0.8242581934 -0.5598673433
19950180300.0 -0.8338367044 -0.5437649854
20000180000.0 -0.8241218767 -0.5472650639
20050179700.0 -0.8317087673 -0.5344826295
20100179400.0 -0.8405815539 -0.5209177576
20150179100.0 -0.8479046259 -0.5093570211
20200178800.0 -0.8569119526 -0.495927869
20250178500.0 -0.8661006676 -0.4840446884
20300178200.0 -0.8766407012 -0.4702818636
20350177900.0 -0.8852131454 -0.4560937657
20400177600.0 -0.894260747 -0.4417106132
20450177300.0 -0.902932473 -0.4277505373
20500177000.0 -0.9108382297 -0.4138509405
20550176700.0 -0.9188480864 -0.4001382769
20600176400.0 -0.9259140893 -0.3872683254
20650176100.0 -0.932240202 -0.3748798006
20700175800.0 -0.9389440365 -0.362912597
20750175500.0 -0.9454100248 -0.3526144222
20800175200.0 -0.9500167585 -0.3408252571
20850174900.0 -0.9543707117 -0.3299525176
20900174600.0 -0.9589892696 -0.3191136727
20950174300.0 -0.9633121859 -0.3080763192
21000174000.0 -0.9653741148 -0.2964655503
21050173700.0 -0.9674295157 -0.2867176115
21100173400.0 -0.9711710694 -0.2748981638
21150173100.0 -0.975053024 -0.2634677766
21200172800.0 -0.9787391841 -0.2507218235
21250172500.0 -0.9825235567 -0.2363894402
21300172200.0 -0.9855232831 -0.2226661464
21350171900.0 -0.9873087355 -0.2081726576
21400171600.0 -0.9893298962 -0.1938458308
21450171300.0 -0.9896640237 -0.1798625287
21500171000.0 -0.9903501637 -0.164984137
21550170700.0 -0.9907538954 -0.1491759514
21600170400.0 -0.991604138 -0.1343366133
21650170100.0 -0.9921290047 -0.1183273496
21700169800.0 -0.9904190731 -0.104145406
21750169500.0 -0.9897921882 -0.0867785764
21800169200.0 -0.9902594966 -0.0699538697
21850168900.0 -0.9897359949 -0.0536228715
21900168600.0 -0.988465434 -0.0373918422
21950168300.0 -0.9879418678 -0.0212820778
22000168000.0 -0.9874437056 -0.0067488234
22050167700.0 -0.9881106322 0.0080031295
22100167400.0 -0.9882347123 0.023380931
22150167100.0 -0.9896336817 0.0394977102
22200166800.0 -0.9901082605 0.055984725
22250166500.0 -0.9890667345 0.0729210881
22300166200.0 -0.9890440907 0.0903849394
22350165900.0 -0.9867772029 0.1058978191
22400165600.0 -0.9859149508 0.1209937348
22450165300.0 -0.9844485916 0.1366786958
22500165000.0 -0.9814169246 0.1507695285
22550164700.0 -0.9816474919 0.1666931096
22600164400.0 -0.9788829586 0.18163988
22650164100.0 -0.9760806403 0.1980976822
22700163800.0 -0.9735400839 0.2139457632
22750163500.0 -0.9702152637 0.2286702813
22800163200.0 -0.9674782184 0.2420848688
22850162900.0 -0.9647448494 0.2552496377
22900162600.0 -0.9632522905 0.2691433908
22950162300.0 -0.961685204 0.282369054
23000162000.0 -0.9602623341 0.2950579375
23050161700.0 -0.9577429561 0.3075307517
23100161400.0 -0.9547798917 0.3215241807
23150161100.0 -0.9520186446 0.33438441
23200160800.0 -0.9494419295 0.3472120287
23250160500.0 -0.9462051221 0.3587405761
23300160200.0 -0.9435377933 0.3714978301
23350159900.0 -0.9396724283 0.3852105886
23400159600.0 -0.9353447608 0.39906469
23450159300.0 -0.9293307072 0.4127637861
23500159000.0 -0.9248125858 0.426163956
23550158700.0 -0.9199553636 0.4398624337
23600158400.0 -0.9144369721 0.4537142219
23650158100.0 -0.9072751533 0.4681793962
23700157800.0 -0.8989702064 0.4823224878
23750157500.0 -0.8897086284 0.4966037604
23800157200.0 -0.8805293039 0.5102954441
23850156900.0 -0.8712255246 0.522421933
23900156600.0 -0.860905862 0.5353441832
23950156300.0 -0.8514805415 0.548241268
24000156000.0 -0.841808961 0.5603037706
24050155700.0 -0.8319566064 0.5721172955
24100155400.0 -0.8218898784 0.5850667363
24150155100.0 -0.8107893197 0.5968672049
24200154800.0 -0.7989322594 0.6085157182
24250154500.0 -0.7884232866 0.6206749132
24300154200.0 -0.7762965716 0.6321148679
24350153900.0 -0.7649668194 0.6435642825
24400153600.0 -0.7525311221 0.6539961314
24450153300.0 -0.7403130676 0.6639694684
24500153000.0 -0.7286453208 0.6738816145
24550152700.0 -0.7176723243 0.6835859819
24600152400.0 -0.7058040933 0.6931695423
24650152100.0 -0.6944456009 0.7013383746
