!Created with skrf (http://scikit-rf.org).
# Hz S RI R 50.0 
!freq ReS11 ImS11
300000.0 -0.9792477433 -0.1062092268
50299700.0 -0.9999780119 0.0161108151
100299400.0 -0.9979757432 0.0288223862
150299100.0 -1.002910207 0.045675328
200298800.0 -0.9997909635 0.0589702809
250298500.0 -0.9973298392 0.0726484505
300298200.0 -0.9860987693 0.088427127
350297900.0 -0.9940117295 0.0993483019
400297600.0 -0.9931685684 0.116010548
450297300.0 -0.9909167734 0.1296762093
500297000.0 -0.9895687745 0.1443948094
550296700.0 -0.9842363565 0.1570840123
600296400.0 -1.017515624 0.190347297
650296100.0 -0.9821260207 0.1868284668
700295800.0 -0.9790337022 0.2012150415
750295500.0 -0.9762988595 0.2152406096
800295200.0 -0.9728551599 0.2294584161
850294900.0 -0.969509416 0.2429950196
900294600.0 -0.9656576685 0.2569571727
950294300.0 -0.9617811563 0.2705240133
1000294000.0 -0.957993016 0.2844150516
1050293700.0 -0.9534392583 0.298204042
1100293400.0 -0.9489282618 0.3127172087
1150293100.0 -0.9452665234 0.3246891201
1200292800.0 -0.9398813312 0.3388378217
1250292500.0 -0.9343679829 0.3523970045
1300292200.0 -0.928610179 0.3655503783
1350291900.0 -0.9230963109 0.3796029243
1400291600.0 -0.9176659362 0.3926775204
1450291300.0 -0.9122225111 0.4052384821
1500291000.0 -0.9059396909 0.4183204326
1550290700.0 -0.8993493807 0.4317629256
1600290400.0 -0.8931882026 0.4446240716
1650290100.0 -0.8865263858 0.4570397371
1700289800.0 -0.8796945393 0.4701749879
1750289500.0 -0.8726118708 0.4826121022
1800289200.0 -0.8652543573 0.4954852725
1850288900.0 -0.8584397074 0.5065991091
1900288600.0 -0.8506372083 0.5198476434
1950288300.0 -0.8426030122 0.5322568606
2000288000.0 -0.8351428751 0.5436458914
2050287700.0 -0.8269596068 0.5561068235
2100287400.0 -0.8188419512 0.5676607091
2150287100.0 -0.8104321345 0.5798898543
2200286800.0 -0.8025937421 0.5900858956
2250286500.0 -0.7937623436 0.6021278042
2300286200.0 -0.7846226702 0.6139228991
2350285900.0 -0.7757417557 0.6248751207
2400285600.0 -0.7670656185 0.6358287152
2450285300.0 -0.7584433123 0.6463061738
2500285000.0 -0.7485695001 0.6575711202
2550284700.0 -0.7397160002 0.6678014643
2600284400.0 -0.7302199343 0.6779581174
2650284100.0 -0.7213413491 0.6884997387
2700283800.0 -0.7106054029 0.6990459982
2750283500.0 -0.7002699081 0.7095946621
2800283200.0 -0.6906941648 0.7190467103
2850282900.0 -0.6803245284 0.7288470815
2900282600.0 -0.6699647387 0.738448532
2950282300.0 -0.6598081188 0.7478692725
3000282000.0 -0.6491578025 0.7572873562
3050281700.0 -0.6378115287 0.7665331713
3100281400.0 -0.6260157145 0.7758768038
3150281100.0 -0.6143655101 0.7853020298
3200280800.0 -0.6026021187 0.7937626745
3250280500.0 -0.5918485451 0.8015126766
3300280200.0 -0.5806925313 0.8094688199
3350279900.0 -0.5691122158 0.8169006852
3400279600.0 -0.5569902317 0.8245930836
3450279300.0 -0.5458303218 0.8316844898
3500279000.0 -0.5339316937 0.8387644032
3550278700.0 -0.521581323 0.8461181434
3600278400.0 -0.5092923735 0.8532695497
3650278100.0 -0.495949689 0.8610633387
3700277800.0 -0.4839387823 0.8672279574
3750277500.0 -0.4714313669 0.87379589
3800277200.0 -0.459044628 0.8804053032
3850276900.0 -0.4467929687 0.8863177757
3900276600.0 -0.4363715586 0.8917405443
3950276300.0 -0.4234551466 0.8977184918
4000276000.0 -0.4115962045 0.9038248433
4050275700.0 -0.3985348961 0.9100043853
4100275400.0 -0.3873688495 0.9152759508
4150275100.0 -0.3746210484 0.9210061621
4200274800.0 -0.3617103673 0.9266177628
4250274500.0 -0.3494130609 0.9316611092
4300274200.0 -0.3363931752 0.9370712893
4350273900.0 -0.3224836011 0.9421576286
4400273600.0 -0.307729185 0.9475501945
4450273300.0 -0.2923605524 0.9525611546
4500273000.0 -0.2786029078 0.9569223388
4550272700.0 -0.2644864127 0.9611649461
4600272400.0 -0.2491665453 0.9653781096
4650272100.0 -0.2374235026 0.9685580181
4700271800.0 -0.2239656186 0.9719415057
4750271500.0 -0.2123036672 0.9747339849
4800271200.0 -0.1997333823 0.9774817337
4850270900.0 -0.1859658601 0.9802573474
4900270600.0 -0.1719423601 0.9826302028
4950270300.0 -0.1578475395 0.9852594649
5000270000.0 -0.1436622323 0.9873075598
5050269700.0 -0.1301276051 0.9886364304
5100269400.0 -0.1167099701 0.9904756883
5150269100.0 -0.1033778596 0.9920088464
5200268800.0 -0.0900151697 0.9934178301
5250268500.0 -0.0771025435 0.9940661204
5300268200.0 -0.0640613278 0.9947293338
5350267900.0 -0.0519201806 0.9953309305
5400267600.0 -0.0356864966 0.9963950614
5450267300.0 -0.0224813638 0.9966711919
5500267000.0 -0.0071710977 0.9970375472
5550266700.0 0.0075116938 0.997322817
5600266400.0 0.0230454896 0.9971284764
5650266100.0 0.0396925615 0.9969128619
5700265800.0 0.0543902244 0.9962764118
5750265500.0 0.0693977544 0.9953871411
5800265200.0 0.0833044207 0.9941909344
5850264900.0 0.096206709 0.9929850608
5900264600.0 0.1132506446 0.9917059026
5950264300.0 0.1255523943 0.9896189978
6000264000.0 0.1395471534 0.988016097
6050263700.0 0.1519577033 0.9864310869
6100263400.0 0.1644770732 0.9847035046
6150263100.0 0.1789576652 0.9822154516
6200262800.0 0.1895474702 0.9805214748
6250262500.0 0.2023644418 0.9779211405
6300262200.0 0.2152305374 0.9753528687
6350261900.0 0.228208124 0.972311148
6400261600.0 0.2420232663 0.9691277579
6450261300.0 0.2533396439 0.9662145379
6500261000.0 0.265824021 0.9625674303
6550260700.0 0.2792033872 0.9590127405
6600260400.0 0.2921668949 0.954565478
6650260100.0 0.3060370939 0.9502061189
6700259800.0 0.3181640645 0.9461344161
6750259500.0 0.3320098888 0.9412324875
6800259200.0 0.3453449756 0.9361513013
6850258900.0 0.357137092 0.9311302185
6900258600.0 0.3692576361 0.9260369158
6950258300.0 0.3816058452 0.9208570715
7000258000.0 0.3936652139 0.9155367636
7050257700.0 0.4060093766 0.909247093
7100257400.0 0.4185712267 0.9030342735
7150257100.0 0.4291576091 0.8978439115
7200256800.0 0.4417648463 0.8914539066
7250256500.0 0.453467878 0.8848686645
7300256200.0 0.466529528 0.8785522312
7350255900.0 0.4789668108 0.8714160643
7400255600.0 0.4924520797 0.8642483753
7450255300.0 0.5077559027 0.8552466882
7500255000.0 0.51936495 0.8485572448
7550254700.0 0.5329057643 0.8396323485
7600254400.0 0.5455044434 0.8312773343
7650254100.0 0.5571697161 0.8234943405
7700253800.0 0.5691354941 0.8153601542
7750253500.0 0.5806383532 0.8077058989
7800253200.0 0.5912199293 0.7999813596
7850252900.0 0.600859708 0.7927501317
7900252600.0 0.612578255 0.7840775531
7950252300.0 0.6213116672 0.7776073931
8000252000.0 0.631501958 0.7697050137
8050251700.0 0.6419269178 0.7615545765
8100251400.0 0.6520413923 0.7534010453
8150251100.0 0.6623642217 0.7445302333
8200250800.0 0.6717818269 0.7365639647
8250250500.0 0.6808792199 0.7284628698
8300250200.0 0.6899804143 0.7198284065
8350249900.0 0.6986659092 0.7115988065
8400249600.0 0.7071741249 0.7033447854
8450249300.0 0.7164059093 0.6940773987
8500249000.0 0.7249767379 0.6853338732
8550248700.0 0.7332882434 0.6763586588
8600248400.0 0.7413565125 0.6666873689
8650248100.0 0.7494394083 0.6572678274
8700247800.0 0.7588119981 0.6461803391
8750247500.0 0.7670959083 0.6360039482
8800247200.0 0.775087334 0.6256749985
8850246900.0 0.7840468852 0.6144410067
8900246600.0 0.7924022691 0.6030760165
8950246300.0 0.8020559472 0.5899986012
9000246000.0 0.811379907 0.5771239092
9050245700.0 0.8205792016 0.5643532082
9100245400.0 0.8289267227 0.5517565294
9150245100.0 0.8383891972 0.5380545276
9200244800.0 0.8481754227 0.5228696047
9250244500.0 0.857454562 0.5072250081
9300244200.0 0.8661642429 0.4925288157
9350243900.0 0.8738352471 0.4786855554
9400243600.0 0.8802848325 0.4662996975
9450243300.0 0.8863403493 0.454195284
9500243000.0 0.892606498 0.442067477
9550242700.0 0.8964189842 0.4344238229
9600242400.0 0.900284974 0.4269387784
9650242100.0 0.9040340223 0.4204979754
9700241800.0 0.9085359688 0.4121005537
9750241500.0 0.91253639 0.404603705
9800241200.0 0.9168958737 0.3957804488
9850240900.0 0.922711721 0.3837599251
9900240600.0 0.9283127583 0.3722162633
9950240300.0 0.9349372825 0.3558423963
10000240000.0 0.9390009952 0.3448020418
10050239700.0 0.944775821 0.3294570543
10100239400.0 0.9499062414 0.3140424083
10150239100.0 0.9543263938 0.299122168
10200238800.0 0.9584251206 0.2842412005
10250238500.0 0.9618785472 0.2709061394
10300238200.0 0.9649647537 0.2570847965
10350237900.0 0.9675481382 0.2440244687
10400237600.0 0.9700956591 0.2311062237
10450237300.0 0.9727510883 0.2169468953
10500237000.0 0.9748608059 0.204866021
10550236700.0 0.9769427032 0.1914343527
10600236400.0 0.9787445758 0.178280988
10650236100.0 0.9810334785 0.1634805038
10700235800.0 0.9835627245 0.150697511
10750235500.0 0.9855565853 0.1376009342
10800235200.0 0.9878508143 0.1235792493
10850234900.0 0.9895396566 0.1090463502
10900234600.0 0.9918606394 0.0941958227
10950234300.0 0.9935931444 0.0811292996
11000234000.0 0.9952809584 0.0660757027
11050233700.0 0.9969660375 0.0496874088
11100233400.0 0.9983219566 0.0322693896
11150233100.0 0.9993922307 0.0158513665
11200232800.0 0.9999284979 0.0008470878
11250232500.0 1.001272941 -0.0153074851
11300232200.0 1.00165417 -0.0332166217
11350231900.0 1.001587193 -0.0496957855
11400231600.0 1.001221909 -0.064944344
11450231300.0 1.000592559 -0.0805410209
11500231000.0 0.9996334294 -0.0968318038
11550230700.0 0.9981205582 -0.1103018614
11600230400.0 0.9965815499 -0.1232469775
11650230100.0 0.9947776426 -0.1347229988
11700229800.0 0.9926939176 -0.1492415698
11750229500.0 0.9901022258 -0.1640961914
11800229200.0 0.9875955992 -0.1775353797
11850228900.0 0.9841194644 -0.1903561535
11900228600.0 0.9805568686 -0.2000717431
11950228300.0 0.977511036 -0.2104748926
12000228000.0 0.9745982368 -0.2189252175
12050227700.0 0.9706401794 -0.2323850794
12100227400.0 0.9677421039 -0.2436247923
12150227100.0 0.962584619 -0.2602758791
12200226800.0 0.9592326924 -0.2703613333
12250226500.0 0.9550597495 -0.2834365625
12300226200.0 0.9504602124 -0.2959797582
12350225900.0 0.9457544377 -0.3103575511
12400225600.0 0.9416577217 -0.3219698826
12450225300.0 0.9373042558 -0.3353328713
12500225000.0 0.9317149479 -0.3498390807
12550224700.0 0.9266426219 -0.3634794183
12600224400.0 0.9216440579 -0.3759176433
12650224100.0 0.9159511593 -0.3902469468
12700223800.0 0.9106804497 -0.4030029142
12750223500.0 0.90511582 -0.4161106208
12800223200.0 0.8999503214 -0.4283396356
12850222900.0 0.8944858137 -0.4407908852
12900222600.0 0.8887750655 -0.4530309589
12950222300.0 0.8824646969 -0.4656930947
13000222000.0 0.8763106591 -0.4770471393
13050221700.0 0.8700213783 -0.4899876291
13100221400.0 0.8631708213 -0.501352269
13150221100.0 0.8560818306 -0.5144262812
13200220800.0 0.849122094 -0.5254639154
13250220500.0 0.84172319 -0.5381098621
13300220200.0 0.8342697876 -0.5488919531
13350219900.0 0.8261483078 -0.5605310349
13400219600.0 0.8178966728 -0.5728177719
13450219300.0 0.8081057307 -0.5865774566
13500219000.0 0.7979299655 -0.60082755
13550218700.0 0.7876683945 -0.6137320193
13600218400.0 0.7775798576 -0.6256652549
13650218100.0 0.7681903313 -0.6367363909
13700217800.0 0.7568040423 -0.6491304399
13750217500.0 0.7467753463 -0.6600307131
13800217200.0 0.7351228947 -0.6725455653
13850216900.0 0.7248141383 -0.6840015492
13900216600.0 0.7146383883 -0.6930551015
13950216300.0 0.7033577842 -0.7028453065
14000216000.0 0.6936966149 -0.7119676042
14050215700.0 0.6842110459 -0.7200773536
14100215400.0 0.6743009905 -0.7290779596
14150215100.0 0.6652173926 -0.7377504015
14200214800.0 0.655808839 -0.7463697345
14250214500.0 0.645645703 -0.7556349896
14300214200.0 0.6352322423 -0.7648835386
14350213900.0 0.6239631496 -0.7744479369
14400213600.0 0.6129151921 -0.7839711694
14450213300.0 0.5994568713 -0.7941934509
14500213000.0 0.5865768847 -0.8042314483
14550212700.0 0.5738179105 -0.8134798054
14600212400.0 0.561145595 -0.822766651
14650212100.0 0.5484051723 -0.8309510561
14700211800.0 0.5348545141 -0.8406712515
14750211500.0 0.5224004961 -0.848585854
14800211200.0 0.5103233293 -0.8565403703
14850210900.0 0.4980180045 -0.8642854204
14900210600.0 0.4848970791 -0.8718358955
14950210300.0 0.4712630553 -0.8795937163
15000210000.0 0.458512135 -0.8861782203
15050209700.0 0.4461783543 -0.8924233196
15100209400.0 0.4332018395 -0.8985087672
15150209100.0 0.4209559024 -0.9038674056
15200208800.0 0.4075933253 -0.9094788509
15250208500.0 0.3960707371 -0.9139178233
15300208200.0 0.3843826427 -0.9191223927
15350207900.0 0.3709675776 -0.923482502
15400207600.0 0.3563363035 -0.9286482053
15450207300.0 0.3420239028 -0.9335821822
15500207000.0 0.3272863696 -0.9383072162
15550206700.0 0.3116022488 -0.9436057127
15600206400.0 0.2960761486 -0.9479387329
15650206100.0 0.2804511461 -0.9515957337
15700205800.0 0.2659797265 -0.9558412941
15750205500.0 0.2518219847 -0.9593658949
15800205200.0 0.2372369119 -0.9628240912
15850204900.0 0.2227815016 -0.9661138758
15900204600.0 0.2078456856 -0.9696660844
15950204300.0 0.194020072 -0.9727907613
16000204000.0 0.1798358773 -0.9752245814
16050203700.0 0.1648108323 -0.9779816688
16100203400.0 0.1505042633 -0.980571075
16150203100.0 0.1368573469 -0.9825562282
16200202800.0 0.1221427681 -0.9848291787
16250202500.0 0.1074328355 -0.986724483
16300202200.0 0.0924183275 -0.9877218721
16350201900.0 0.0777903285 -0.9892713112
16400201600.0 0.0632176641 -0.9903358348
16450201300.0 0.0479047628 -0.9915590449
16500201000.0 0.0313478494 -0.99203458
16550200700.0 0.0157393344 -0.9925720724
16600200400.0 -1.9182e-06 -0.9927482867
16650200100.0 -0.0163754479 -0.992760735
16700199800.0 -0.0329024886 -0.9921479514
16750199500.0 -0.0516263814 -0.9912646092
16800199200.0 -0.0675810255 -0.9905416011
16850198900.0 -0.0830922393 -0.9888410929
16900198600.0 -0.0965552353 -0.9887819954
16950198300.0 -0.1108228511 -0.9877698626
17000198000.0 -0.122984126 -0.9852743147
17050197700.0 -0.1358332652 -0.9838787395
17100197400.0 -0.1484052988 -0.9812493316
17150197100.0 -0.1614412467 -0.9799093469
17200196800.0 -0.1741209331 -0.9775177895
17250196500.0 -0.1871118215 -0.9750267314
17300196200.0 -0.1992642948 -0.9727863551
17350195900.0 -0.2112006138 -0.9706111072
17400195600.0 -0.2235014251 -0.9680046422
17450195300.0 -0.2363644797 -0.9653500138
17500195000.0 -0.2498415586 -0.9619491885
17550194700.0 -0.2635016959 -0.9583523795
17600194400.0 -0.2775935218 -0.9544411359
17650194100.0 -0.2913421596 -0.9500010926
17700193800.0 -0.3044808879 -0.9462043856
17750193500.0 -0.3188131391 -0.9411392024
17800193200.0 -0.3331145668 -0.936407698
17850192900.0 -0.3481748934 -0.930629954
17900192600.0 -0.3630213837 -0.924757141
17950192300.0 -0.3784373359 -0.9177043188
18000192000.0 -0.3932359519 -0.9104566029
18050191700.0 -0.4069818871 -0.9025311143
18100191400.0 -0.421109582 -0.8948770331
18150191100.0 -0.4360173239 -0.8868246614
18200190800.0 -0.4529813685 -0.8777034599
18250190500.0 -0.4697356146 -0.8679886573
18300190200.0 -0.4851901204 -0.8592710111
18350189900.0 -0.5002660559 -0.8506969691
18400189600.0 -0.5147371598 -0.8421949943
18450189300.0 -0.5278081579 -0.8341925946
18500189000.0 -0.5412487298 -0.8264605938
18550188700.0 -0.5540549745 -0.8188234207
18600188400.0 -0.5656583984 -0.8117560668
18650188100.0 -0.5772358794 -0.8053615092
18700187800.0 -0.5881995215 -0.7987268645
18750187500.0 -0.5987148175 -0.792161958
18800187200.0 -0.6092498796 -0.7850740451
18850186900.0 -0.6196122684 -0.7778304751
18900186600.0 -0.630050042 -0.7703842359
18950186300.0 -0.6401055306 -0.7627511554
19000186000.0 -0.6472305809 -0.7565881018
19050185700.0 -0.6567723736 -0.7491595682
19100185400.0 -0.667065043 -0.7405333744
19150185100.0 -0.6769722089 -0.7320871777
19200184800.0 -0.6868683549 -0.7235164141
19250184500.0 -0.6962867036 -0.7144138991
19300184200.0 -0.7086008395 -0.7049096703
19350183900.0 -0.7191384267 -0.6947767392
19400183600.0 -0.7278465576 -0.6850562947
19450183300.0 -0.7374873542 -0.6751187761
19500183000.0 -0.7456670797 -0.665167239
19550182700.0 -0.7554193993 -0.6541899549
19600182400.0 -0.7657674921 -0.6426828239
19650182100.0 -0.7764176478 -0.6306206804
19700181800.0 -0.7870860376 -0.6174856877
19750181500.0 -0.797539674 -0.6033267698
19800181200.0 -0.8077350921 -0.5887070378
19850180900.0 -0.8174351379 -0.5733577085
19900180600.0 -0.8248931282 -0.5588264204
19950180300.0 -0.833900112 -0.5426778586
20000180000.0 -0.8274756305 -0.5449427975
20050179700.0 -0.8352315137 -0.5322473801
20100179400.0 -0.8433515438 -0.5174310398
20150179100.0 -0.850826851 -0.5062854654
20200178800.0 -0.8601274219 -0.4928598154
20250178500.0 -0.8700715684 -0.4794603414
20300178200.0 -0.8790586254 -0.4649646449
20350177900.0 -0.8882648981 -0.4506433602
20400177600.0 -0.8968681859 -0.4362638768
20450177300.0 -0.9054354793 -0.4213611295
20500177000.0 -0.9134057869 -0.4077234519
20550176700.0 -0.9212149353 -0.3939844017
20600176400.0 -0.9281264777 -0.3807247753
20650176100.0 -0.9347217503 -0.3681369309
20700175800.0 -0.9422951563 -0.3563997769
20750175500.0 -0.9484879754 -0.3443939758
20800175200.0 -0.9524632379 -0.333776998
20850174900.0 -0.9581417836 -0.3220547339
20900174600.0 -0.9628145784 -0.3117905062
20950174300.0 -0.9666162922 -0.2992406565
21000174000.0 -0.9699124192 -0.2879758857
21050173700.0 -0.9721953285 -0.276940899
21100173400.0 -0.9775170856 -0.2646979846
21150173100.0 -0.980954001 -0.2523532001
21200172800.0 -0.9841081792 -0.2386284847
21250172500.0 -0.9875685727 -0.2247886916
21300172200.0 -0.9905963878 -0.2106627499
21350171900.0 -0.9921076146 -0.1963104003
21400171600.0 -0.9929050115 -0.1814645572
21450171300.0 -0.9941318857 -0.1672481395
21500171000.0 -0.9932507681 -0.1520418085
21550170700.0 -0.9932822294 -0.1363235457
21600170400.0 -0.9921890658 -0.1210060746
21650170100.0 -0.992324801 -0.1056976418
21700169800.0 -0.9896951293 -0.0902883254
21750169500.0 -0.9888954436 -0.0748641464
21800169200.0 -0.9875409083 -0.0585165958
21850168900.0 -0.9861413509 -0.0410742535
21900168600.0 -0.9855390586 -0.0252854791
21950168300.0 -0.9841321339 -0.0094201596
22000168000.0 -0.9828946382 0.0054740233
22050167700.0 -0.9825552902 0.0197062683
22100167400.0 -0.9827789451 0.0347659779
22150167100.0 -0.9831607982 0.0498554186
22200166800.0 -0.9838754319 0.066100544
22250166500.0 -0.9829734375 0.0831058174
22300166200.0 -0.9820552962 0.1005392996
22350165900.0 -0.9806070601 0.1167714977
22400165600.0 -0.9795726323 0.1329023864
22450165300.0 -0.9771112134 0.1474986581
22500165000.0 -0.9749178674 0.1614785123
22550164700.0 -0.9742840802 0.176019391
22600164400.0 -0.9721493545 0.1911989236
22650164100.0 -0.9707026678 0.206267831
22700163800.0 -0.9676513655 0.2223844415
22750163500.0 -0.9646943965 0.2378034633
22800163200.0 -0.9622781262 0.25085605
22850162900.0 -0.9598901888 0.2646151914
22900162600.0 -0.9586144691 0.2782182953
22950162300.0 -0.9575991984 0.2906947378
23000162000.0 -0.9564004246 0.302649662
23050161700.0 -0.9544407172 0.3154225623
23100161400.0 -0.9518701665 0.327880591
23150161100.0 -0.9493131394 0.3406829029
23200160800.0 -0.9473437528 0.3521184655
23250160500.0 -0.9438735953 0.364081129
23300160200.0 -0.9409981246 0.3761964664
23350159900.0 -0.9371250777 0.3891563607
23400159600.0 -0.9327964468 0.4020142105
23450159300.0 -0.9278809129 0.4157052383
23500159000.0 -0.923537144 0.4285148832
23550158700.0 -0.9188434471 0.4419229545
23600158400.0 -0.9134978907 0.4546124141
23650158100.0 -0.906987671 0.468812776
23700157800.0 -0.8995322505 0.4827653066
23750157500.0 -0.8909929714 0.4963125959
23800157200.0 -0.8818835129 0.5094506798
23850156900.0 -0.8735534183 0.5220862915
23900156600.0 -0.8646613442 0.5348498871
23950156300.0 -0.8551315602 0.5471335202
24000156000.0 -0.8459212684 0.5596014362
24050155700.0 -0.8357592617 0.5709392941
24100155400.0 -0.8262406448 0.5834828498
24150155100.0 -0.8149011143 0.5948496233
24200154800.0 -0.8039083062 0.6056212471
24250154500.0 -0.7928214503 0.6182856651
24300154200.0 -0.7811192482 0.6293906861
24350153900.0 -0.7694957792 0.6398238759
24400153600.0 -0.7570629703 0.6499550499
24450153300.0 -0.7453926852 0.6601251601
24500153000.0 -0.7333728724 0.6701917369
24550152700.0 -0.7217919536 0.6796625048
24600152400.0 -0.7105520699 0.6882864661
24650152100.0 -0.6992499524 0.6972667985
