!Created with skrf (http://scikit-rf.org).
# Hz S RI R 50.0 
!freq ReS11 ImS11
300000.0 -0.9728178439 -0.1243449908
50299700.0 -0.9999520185 0.0149839673
100299400.0 -0.998020564 0.0279331684
150299100.0 -1.002854581 0.0447532985
200298800.0 -0.9994614129 0.0579358816
250298500.0 -0.9974972712 0.0715497798
300298200.0 -0.985882751 0.0873154146
350297900.0 -0.9938870296 0.0982624465
400297600.0 -0.9929576749 0.1146821062
450297300.0 -0.9910104442 0.1287102128
500297000.0 -0.9893523271 0.1434458838
550296700.0 -0.9843086154 0.1558034862
600296400.0 -1.017174468 0.1890100267
650296100.0 -0.9823152348 0.1856828424
700295800.0 -0.9794115114 0.1999756012
750295500.0 -0.976454872 0.2140665105
800295200.0 -0.9730373865 0.2281606613
850294900.0 -0.969528839 0.2418194942
900294600.0 -0.9660303062 0.2554580719
950294300.0 -0.9621128199 0.2691117606
1000294000.0 -0.9582099753 0.283223571
1050293700.0 -0.9537592502 0.2970190067
1100293400.0 -0.9492942733 0.3114126568
1150293100.0 -0.9455455896 0.3232950674
1200292800.0 -0.9402527286 0.3376809725
1250292500.0 -0.9345652398 0.3511725042
1300292200.0 -0.9290809695 0.3643910622
1350291900.0 -0.9233982006 0.3784249701
1400291600.0 -0.9180883646 0.3912767902
1450291300.0 -0.9123679733 0.4038652256
1500291000.0 -0.9062346961 0.4171548282
1550290700.0 -0.8998854785 0.4307175401
1600290400.0 -0.8935525466 0.4436863898
1650290100.0 -0.8869301221 0.4556716022
1700289800.0 -0.8798738126 0.4688634401
1750289500.0 -0.8730271957 0.4815589213
1800289200.0 -0.8655688342 0.4943605153
1850288900.0 -0.8586055505 0.5056550421
1900288600.0 -0.8511641567 0.5185072757
1950288300.0 -0.8429061112 0.5312223659
2000288000.0 -0.8355320057 0.54271342
2050287700.0 -0.827318829 0.5553056172
2100287400.0 -0.8195634151 0.5666665045
2150287100.0 -0.8110081917 0.5784356506
2200286800.0 -0.8032033825 0.5890467773
2250286500.0 -0.7941759343 0.6013119375
2300286200.0 -0.7853751054 0.61283958
2350285900.0 -0.7770845271 0.6233307916
2400285600.0 -0.7681296192 0.6342904474
2450285300.0 -0.759269958 0.6449646905
2500285000.0 -0.7492967533 0.6566648753
2550284700.0 -0.7404699055 0.6670531315
2600284400.0 -0.7312127163 0.6768504157
2650284100.0 -0.7225954764 0.687021402
2700283800.0 -0.7119093749 0.6974798164
2750283500.0 -0.7015429028 0.7081248376
2800283200.0 -0.691734429 0.7180665172
2850282900.0 -0.6813001832 0.7281064756
2900282600.0 -0.670707807 0.7382050065
2950282300.0 -0.6601486179 0.7471286145
3000282000.0 -0.6496527053 0.7566427416
3050281700.0 -0.6384481748 0.7659912097
3100281400.0 -0.6268117477 0.7749838557
3150281100.0 -0.6158096877 0.7838353001
3200280800.0 -0.6043243119 0.7922738612
3250280500.0 -0.5932032009 0.800239865
3300280200.0 -0.5817367533 0.8083852706
3350279900.0 -0.5692671255 0.8165351797
3400279600.0 -0.5568095965 0.8244608327
3450279300.0 -0.5456059825 0.8316180039
3500279000.0 -0.533633773 0.8384808654
3550278700.0 -0.5218200578 0.8457410441
3600278400.0 -0.5099591341 0.8523533925
3650278100.0 -0.4971092499 0.8598092404
3700277800.0 -0.4850100842 0.8664124583
3750277500.0 -0.4722839625 0.8731219179
3800277200.0 -0.4599719243 0.8794891066
3850276900.0 -0.4479238335 0.8854942588
3900276600.0 -0.4371233863 0.8914306839
3950276300.0 -0.425177675 0.8969618141
4000276000.0 -0.4133602783 0.902995186
4050275700.0 -0.4006766031 0.9091207153
4100275400.0 -0.3896713987 0.9145283633
4150275100.0 -0.3762614539 0.9204343424
4200274800.0 -0.3628264715 0.9261930471
4250274500.0 -0.3501575678 0.9312701469
4300274200.0 -0.3369643668 0.9365443798
4350273900.0 -0.3224242753 0.9419385381
4400273600.0 -0.3078402915 0.9474016306
4450273300.0 -0.2927303182 0.9522480617
4500273000.0 -0.2798691021 0.9563519469
4550272700.0 -0.2662950853 0.9604987227
4600272400.0 -0.2512058514 0.9644733884
4650272100.0 -0.2400295432 0.9677462791
4700271800.0 -0.2270174698 0.9712230818
4750271500.0 -0.215400958 0.9738719742
4800271200.0 -0.203078004 0.9765481976
4850270900.0 -0.1893837502 0.9794266192
4900270600.0 -0.1755093275 0.9818486069
4950270300.0 -0.1609346257 0.9845609889
5000270000.0 -0.1466186068 0.9864357259
5050269700.0 -0.1329813962 0.9880813176
5100269400.0 -0.1187514461 0.9898928088
5150269100.0 -0.1049437868 0.9919520307
5200268800.0 -0.0915636439 0.9927649638
5250268500.0 -0.0782057025 0.9936289301
5300268200.0 -0.0649334092 0.9943535087
5350267900.0 -0.0517782488 0.9951772476
5400267600.0 -0.0356568263 0.9962805431
5450267300.0 -0.0221482546 0.9967336482
5500267000.0 -0.006876833 0.9968411604
5550266700.0 0.0078544995 0.9974275861
5600266400.0 0.0239216586 0.9973026544
5650266100.0 0.0405239852 0.99665163
5700265800.0 0.054298164 0.9956838428
5750265500.0 0.0694895967 0.9954438935
5800265200.0 0.0830259521 0.9942909107
5850264900.0 0.0964934646 0.9931025343
5900264600.0 0.1129394642 0.9912561611
5950264300.0 0.1243756529 0.9898997683
6000264000.0 0.1380129177 0.9883911773
6050263700.0 0.1491976048 0.9864727835
6100263400.0 0.1615093102 0.9847340743
6150263100.0 0.1763267001 0.9828218497
6200262800.0 0.1856749538 0.98091662
6250262500.0 0.1983680449 0.978807885
6300262200.0 0.2105535923 0.9762460527
6350261900.0 0.2235092612 0.973608307
6400261600.0 0.2373815639 0.970397137
6450261300.0 0.2481645155 0.967722173
6500261000.0 0.2620417678 0.9643451458
6550260700.0 0.274752486 0.9603916723
6600260400.0 0.2883008143 0.9560842602
6650260100.0 0.302754099 0.9519433569
6700259800.0 0.3145097649 0.9479366743
6750259500.0 0.3284207352 0.9426817821
6800259200.0 0.3417685294 0.9372526292
6850258900.0 0.3542922109 0.9319144525
6900258600.0 0.3666401439 0.9268137548
6950258300.0 0.3794522098 0.9217549481
7000258000.0 0.3911855246 0.9164072867
7050257700.0 0.4028828414 0.9106020367
7100257400.0 0.4164866891 0.9042336619
7150257100.0 0.4270761648 0.8987000124
7200256800.0 0.440334768 0.8922561436
7250256500.0 0.452715333 0.8854891843
7300256200.0 0.4660484514 0.8788896063
7350255900.0 0.4786498952 0.8715475415
7400255600.0 0.4933987041 0.8643678606
7450255300.0 0.5085441216 0.8552953607
7500255000.0 0.5210441575 0.8474037904
7550254700.0 0.5350872142 0.8380753721
7600254400.0 0.547375146 0.8297982243
7650254100.0 0.5595816828 0.8222568411
7700253800.0 0.571274071 0.8139542659
7750253500.0 0.5819372013 0.8064240758
7800253200.0 0.5925152064 0.7983693817
7850252900.0 0.6023848833 0.7912427987
7900252600.0 0.6138904746 0.7825298031
7950252300.0 0.6223386033 0.7763185316
8000252000.0 0.6321992969 0.7686900808
8050251700.0 0.6425264509 0.7606419021
8100251400.0 0.6525510549 0.7526961062
8150251100.0 0.6618742998 0.744217379
8200250800.0 0.6719277237 0.7360128061
8250250500.0 0.680693648 0.7280852387
8300250200.0 0.6892633685 0.7198772182
8350249900.0 0.6991286278 0.7110114304
8400249600.0 0.7069564762 0.7029333473
8450249300.0 0.7158043201 0.6943099606
8500249000.0 0.7242046269 0.6853321963
8550248700.0 0.7325228036 0.6765169608
8600248400.0 0.7408174378 0.6670449371
8650248100.0 0.7484959495 0.6576655936
8700247800.0 0.7578632002 0.6465070821
8750247500.0 0.7661802764 0.6365253096
8800247200.0 0.77383072 0.626135785
8850246900.0 0.7827862175 0.6146021774
8900246600.0 0.7910547023 0.6033399479
8950246300.0 0.800444771 0.5906949555
9000246000.0 0.809379303 0.578609802
9050245700.0 0.8172561879 0.5662802338
9100245400.0 0.8257086778 0.5543869247
9150245100.0 0.8343252037 0.5416932543
9200244800.0 0.8438334762 0.5271797378
9250244500.0 0.8531149078 0.5123831354
9300244200.0 0.8611629302 0.4989330669
9350243900.0 0.8686594645 0.4858018542
9400243600.0 0.8751626617 0.4742521208
9450243300.0 0.8806361922 0.4639529822
9500243000.0 0.8870659241 0.4522170095
9550242700.0 0.8910542385 0.4448982747
9600242400.0 0.8952320869 0.4372118301
9650242100.0 0.8995511493 0.4303772844
9700241800.0 0.9045423976 0.4217374862
9750241500.0 0.9088374801 0.4140630649
9800241200.0 0.9138486196 0.4044162745
9850240900.0 0.9195880526 0.3927744085
9900240600.0 0.9257705881 0.3808671904
9950240300.0 0.9329187562 0.3638993804
10000240000.0 0.9378404014 0.3516451597
10050239700.0 0.9439818365 0.3357824375
10100239400.0 0.949164916 0.319052063
10150239100.0 0.9541324362 0.3035358017
10200238800.0 0.9583160988 0.2881453832
10250238500.0 0.9615380991 0.2746783549
10300238200.0 0.9645988653 0.2607683666
10350237900.0 0.9674114704 0.2472160989
10400237600.0 0.9699273807 0.2337657496
10450237300.0 0.9727148138 0.2204191427
10500237000.0 0.9750537496 0.2072205446
10550236700.0 0.977419869 0.1928927172
10600236400.0 0.9797387045 0.1792208583
10650236100.0 0.9817670184 0.1646846668
10700235800.0 0.9837345704 0.1523086692
10750235500.0 0.9860832547 0.1389643383
10800235200.0 0.9880902349 0.1247323108
10850234900.0 0.989929663 0.1096181425
10900234600.0 0.9920269389 0.094838503
10950234300.0 0.9936637522 0.0814206775
11000234000.0 0.9956552355 0.0657489603
11050233700.0 0.9974869767 0.0488554214
11100233400.0 0.998881434 0.031200184
11150233100.0 0.9999306673 0.0140893792
11200232800.0 1.001314872 -0.001612798
11250232500.0 1.001960429 -0.0200500919
11300232200.0 1.002373952 -0.0383331906
11350231900.0 1.002046797 -0.0545854614
11400231600.0 1.002060725 -0.0698669074
11450231300.0 1.000965148 -0.0854898762
11500231000.0 1.00018479 -0.1020064885
11550230700.0 0.9983376464 -0.1152885505
11600230400.0 0.9972278749 -0.1287250751
11650230100.0 0.9949265833 -0.1406127456
11700229800.0 0.9925569518 -0.1547487964
11750229500.0 0.9902807494 -0.1685804048
11800229200.0 0.9873218894 -0.1820537589
11850228900.0 0.9835541855 -0.1936025631
11900228600.0 0.9801492445 -0.2032781448
11950228300.0 0.9765979629 -0.2128026464
12000228000.0 0.9736803088 -0.221511505
12050227700.0 0.9699203818 -0.2345872397
12100227400.0 0.9662230042 -0.2457940196
12150227100.0 0.9615390211 -0.2626784308
12200226800.0 0.9575120155 -0.2734117565
12250226500.0 0.9535919538 -0.286218229
12300226200.0 0.9495309284 -0.2985137654
12350225900.0 0.9444668201 -0.3120752035
12400225600.0 0.9401349808 -0.3245971843
12450225300.0 0.9355222977 -0.3369889072
12500225000.0 0.9299898416 -0.352142813
12550224700.0 0.924893936 -0.3655805933
12600224400.0 0.9198740152 -0.3781520457
12650224100.0 0.9140632168 -0.3925022412
12700223800.0 0.9087801306 -0.405460991
12750223500.0 0.9032165944 -0.4187883826
12800223200.0 0.8977287867 -0.4313917654
12850222900.0 0.8930257034 -0.4428451515
12900222600.0 0.8870063623 -0.4549897945
12950222300.0 0.880932981 -0.4682645166
13000222000.0 0.8751550001 -0.4792925986
13050221700.0 0.8683703041 -0.4926806994
13100221400.0 0.8616771981 -0.5045750408
13150221100.0 0.8545493782 -0.5166946982
13200220800.0 0.8475926973 -0.5278405156
13250220500.0 0.8401921273 -0.5404538385
13300220200.0 0.8328624321 -0.5514381928
13350219900.0 0.8245382182 -0.5630356847
13400219600.0 0.816196094 -0.5750829719
13450219300.0 0.8070053325 -0.587934508
13500219000.0 0.7967764636 -0.6012868576
13550218700.0 0.786956429 -0.6136220947
13600218400.0 0.7778093394 -0.6250655563
13650218100.0 0.7687227717 -0.6356682208
13700217800.0 0.7578536769 -0.647581485
13750217500.0 0.74722485 -0.6584790331
13800217200.0 0.7367611418 -0.6693096152
13850216900.0 0.7256097036 -0.6809741199
13900216600.0 0.7156992144 -0.6906396327
13950216300.0 0.7051700773 -0.7001428509
14000216000.0 0.6954950293 -0.7092634942
14050215700.0 0.6864260608 -0.7170833016
14100215400.0 0.6766639895 -0.725990112
14150215100.0 0.6677100956 -0.7347025288
14200214800.0 0.6583894537 -0.7437119126
14250214500.0 0.6477913686 -0.7532991643
14300214200.0 0.6373672207 -0.7626894677
14350213900.0 0.6261110241 -0.7724690841
14400213600.0 0.6145619813 -0.7821481568
14450213300.0 0.6011544729 -0.7925628174
14500213000.0 0.5883468467 -0.8022516392
14550212700.0 0.576084107 -0.8113265807
14600212400.0 0.5640730976 -0.8205684399
14650212100.0 0.5510541048 -0.8291689403
14700211800.0 0.5372844898 -0.8385918546
14750211500.0 0.5250204945 -0.8470349642
14800211200.0 0.5127313924 -0.8555847407
14850210900.0 0.5002257078 -0.8629725251
14900210600.0 0.4870564215 -0.8707150491
14950210300.0 0.4735437234 -0.878502656
15000210000.0 0.4609359005 -0.8849600204
15050209700.0 0.448666892 -0.8911075094
15100209400.0 0.4357141817 -0.8973043728
15150209100.0 0.4236063675 -0.9031138856
15200208800.0 0.4115739223 -0.9076932884
15250208500.0 0.4001958762 -0.9124084847
15300208200.0 0.3876693158 -0.9171279579
15350207900.0 0.3743418529 -0.9223112164
15400207600.0 0.3601696147 -0.9274564002
15450207300.0 0.3455128391 -0.9325436104
15500207000.0 0.3304834763 -0.9364062971
15550206700.0 0.3157420774 -0.9421311268
15600206400.0 0.3001247849 -0.9460806408
15650206100.0 0.2844102493 -0.9502632104
15700205800.0 0.270749761 -0.9538905742
15750205500.0 0.2566042077 -0.957727934
15800205200.0 0.2425793378 -0.9612137212
15850204900.0 0.2286253099 -0.9646086732
15900204600.0 0.2136333775 -0.9682367376
15950204300.0 0.1991189444 -0.9715110846
16000204000.0 0.1846139558 -0.9743741852
16050203700.0 0.1694142428 -0.9773801857
16100203400.0 0.1547262492 -0.9792719964
16150203100.0 0.1398643534 -0.9822575982
16200202800.0 0.125356041 -0.9842055416
16250202500.0 0.1107681967 -0.9855941929
16300202200.0 0.0954296406 -0.9875817846
16350201900.0 0.0801353686 -0.9891390986
16400201600.0 0.0656599705 -0.9899480438
16450201300.0 0.0502098469 -0.9912886508
16500201000.0 0.0329798757 -0.9921175477
16550200700.0 0.0168718167 -0.9924809428
16600200400.0 0.0009350322 -0.9925805694
16650200100.0 -0.0152762566 -0.992530038
16700199800.0 -0.0318741739 -0.9924201436
16750199500.0 -0.0509570125 -0.991735655
16800199200.0 -0.0665902416 -0.9902973648
16850198900.0 -0.0825466579 -0.9897761158
16900198600.0 -0.0959985371 -0.9886907515
16950198300.0 -0.1099419656 -0.9876270997
17000198000.0 -0.1229481855 -0.9857307364
17050197700.0 -0.1352158186 -0.9840915576
17100197400.0 -0.1483077035 -0.9819391916
17150197100.0 -0.1610774775 -0.9798209064
17200196800.0 -0.1743871088 -0.9780075541
17250196500.0 -0.1871362243 -0.9753548807
17300196200.0 -0.1995177757 -0.9731042574
17350195900.0 -0.2110749268 -0.9706658945
17400195600.0 -0.2231229008 -0.968113822
17450195300.0 -0.2359113331 -0.9652805567
17500195000.0 -0.2493879851 -0.9619698062
17550194700.0 -0.2631716312 -0.9585013651
17600194400.0 -0.2769561959 -0.9547786119
17650194100.0 -0.2903523992 -0.9501962754
17700193800.0 -0.3031876975 -0.9461866523
17750193500.0 -0.3173484549 -0.9420437709
17800193200.0 -0.3315305454 -0.9361953557
17850192900.0 -0.3466931424 -0.9309507185
17900192600.0 -0.3616492725 -0.92498118
17950192300.0 -0.3771846897 -0.9177633363
18000192000.0 -0.3917175218 -0.9105318279
18050191700.0 -0.4057110689 -0.9027579575
18100191400.0 -0.4199691598 -0.8950664631
18150191100.0 -0.4348152785 -0.8869638809
18200190800.0 -0.4514504625 -0.87792528
18250190500.0 -0.4686690205 -0.8683775529
18300190200.0 -0.4841265778 -0.85966035
18350189900.0 -0.4992827421 -0.8512560904
18400189600.0 -0.5140031328 -0.8426117647
18450189300.0 -0.5275676169 -0.8347081356
18500189000.0 -0.540581759 -0.8267745914
18550188700.0 -0.5537298684 -0.8191420946
18600188400.0 -0.5653655422 -0.8121908587
18650188100.0 -0.5767585643 -0.8058858648
18700187800.0 -0.5878280224 -0.7988694162
18750187500.0 -0.5984050059 -0.7920469822
18800187200.0 -0.6090829992 -0.7852531352
18850186900.0 -0.619393888 -0.7783916912
18900186600.0 -0.6296796215 -0.7712774676
18950186300.0 -0.6396901709 -0.7636281823
19000186000.0 -0.6473525929 -0.7571625436
19050185700.0 -0.6565879191 -0.7502003708
19100185400.0 -0.6665622741 -0.7416710033
19150185100.0 -0.6769165977 -0.7332830357
19200184800.0 -0.6859204355 -0.7251755206
19250184500.0 -0.6958836165 -0.7164997227
19300184200.0 -0.7074586262 -0.7060875029
19350183900.0 -0.7182369366 -0.6969028521
19400183600.0 -0.7282153448 -0.6871543419
19450183300.0 -0.7375179593 -0.6762595582
19500183000.0 -0.7457853472 -0.6660404632
19550182700.0 -0.7553040996 -0.6557755779
19600182400.0 -0.7655064003 -0.644226726
19650182100.0 -0.7760022415 -0.6318105176
19700181800.0 -0.786833988 -0.6183146096
19750181500.0 -0.7969733202 -0.6046172289
19800181200.0 -0.8071251868 -0.5894282176
19850180900.0 -0.8167349779 -0.5739025018
19900180600.0 -0.8243482992 -0.5596987822
19950180300.0 -0.8335570815 -0.5431146333
20000180000.0 -0.823915575 -0.5465924945
20050179700.0 -0.8312516375 -0.5343837421
20100179400.0 -0.8392053955 -0.5211882868
20150179100.0 -0.846836773 -0.5102298531
20200178800.0 -0.8563341258 -0.4982075499
20250178500.0 -0.8645236603 -0.4852146586
20300178200.0 -0.8748562589 -0.471469
20350177900.0 -0.8840307778 -0.4578274104
20400177600.0 -0.8930574756 -0.443398376
20450177300.0 -0.9019013681 -0.429115972
20500177000.0 -0.9097950045 -0.4149962338
20550176700.0 -0.917958745 -0.4017699355
20600176400.0 -0.9249025329 -0.3890884326
20650176100.0 -0.9314968161 -0.3766260168
20700175800.0 -0.9384615823 -0.3642220324
20750175500.0 -0.9442532802 -0.3525923172
20800175200.0 -0.9490729297 -0.342587348
20850174900.0 -0.9536205294 -0.331528348
20900174600.0 -0.9581375696 -0.3214654996
20950174300.0 -0.9615788724 -0.310405879
21000174000.0 -0.9638883128 -0.2997057342
21050173700.0 -0.9661112573 -0.2892350956
21100173400.0 -0.9695756431 -0.2784308602
21150173100.0 -0.9730608716 -0.266981021
21200172800.0 -0.9764360944 -0.2539310291
21250172500.0 -0.9804991164 -0.239967794
21300172200.0 -0.9842160452 -0.2259798944
21350171900.0 -0.985917858 -0.2123747589
21400171600.0 -0.9881457647 -0.1974210279
21450171300.0 -0.9883885315 -0.183809142
21500171000.0 -0.9892228712 -0.1683824104
21550170700.0 -0.9887257107 -0.1531379715
21600170400.0 -0.9898219828 -0.1383974433
21650170100.0 -0.9903426414 -0.1217118564
21700169800.0 -0.9899323086 -0.1075795394
21750169500.0 -0.9903923845 -0.0905024302
21800169200.0 -0.9901179348 -0.0739131395
21850168900.0 -0.9896371972 -0.0576570064
21900168600.0 -0.9899775805 -0.0411614819
21950168300.0 -0.9893998858 -0.0255706213
22000168000.0 -0.9896179146 -0.0105277782
22050167700.0 -0.9901784935 0.0040790993
22100167400.0 -0.9905351624 0.0197691233
22150167100.0 -0.9917647942 0.0359181028
22200166800.0 -0.9925689647 0.0524677706
22250166500.0 -0.9909713038 0.0699038408
22300166200.0 -0.9910657998 0.0859347635
22350165900.0 -0.9889680497 0.1023028778
22400165600.0 -0.988151809 0.1171557186
22450165300.0 -0.9857110569 0.1327555374
22500165000.0 -0.9843413367 0.1473878787
22550164700.0 -0.9836609232 0.1634678501
22600164400.0 -0.9802513421 0.1800912536
22650164100.0 -0.9779594935 0.1951413961
22700163800.0 -0.9750016475 0.2111159998
22750163500.0 -0.9726319742 0.2268953276
22800163200.0 -0.969150609 0.2390375084
22850162900.0 -0.9662580857 0.2526982569
22900162600.0 -0.9647094101 0.2670423406
22950162300.0 -0.9630682174 0.2802572912
23000162000.0 -0.9612160762 0.2933705069
23050161700.0 -0.9583654462 0.3064513342
23100161400.0 -0.9557161431 0.3197687748
23150161100.0 -0.9525159977 0.3333039611
23200160800.0 -0.9493456464 0.3460226817
23250160500.0 -0.9473948606 0.3584232297
23300160200.0 -0.9442621798 0.3712148372
23350159900.0 -0.9394922277 0.3850163907
23400159600.0 -0.9345809914 0.3989656026
23450159300.0 -0.9297637057 0.4125294896
23500159000.0 -0.9251691401 0.4262723132
23550158700.0 -0.9202677209 0.4400852384
23600158400.0 -0.9142494107 0.4545903387
23650158100.0 -0.906660685 0.4691610839
23700157800.0 -0.898226774 0.4830643
23750157500.0 -0.8887294865 0.4976878458
23800157200.0 -0.8789459952 0.5109118077
23850156900.0 -0.8692063535 0.5235098531
23900156600.0 -0.8589733568 0.5367897114
23950156300.0 -0.8491400215 0.5496944482
24000156000.0 -0.8399449187 0.5612175068
24050155700.0 -0.8297254069 0.5733010812
24100155400.0 -0.8189268195 0.5867878742
24150155100.0 -0.8083033895 0.5984187659
24200154800.0 -0.7968626939 0.6103118467
24250154500.0 -0.7854750945 0.6223925297
24300154200.0 -0.7738885246 0.6347895081
24350153900.0 -0.7621330517 0.6461455914
24400153600.0 -0.7495483243 0.6563878669
24450153300.0 -0.7372637294 0.6665428426
24500153000.0 -0.7255782843 0.6765401656
24550152700.0 -0.7137482683 0.6870552882
24600152400.0 -0.7023897097 0.6961388921
24650152100.0 -0.6896610465 0.7045289888
