!Created with skrf (http://scikit-rf.org).
# Hz S RI R 50.0 
!freq ReS11 ImS11
300000.0 -1.004112369 0.0132021226
50299700.0 -0.9983813341 0.0155238558
100299400.0 -0.996146034 0.0280226096
150299100.0 -1.001189881 0.0447509516
200298800.0 -0.9977639662 0.0578983475
250298500.0 -0.9953868642 0.0712726684
300298200.0 -0.9838250727 0.0868363271
350297900.0 -0.9915566579 0.0974519578
400297600.0 -0.9906290568 0.1138510749
450297300.0 -0.9885380744 0.1272749814
500297000.0 -0.986544432 0.1418280808
550296700.0 -0.9815824372 0.1540108321
600296400.0 -1.01423874 0.1869296002
650296100.0 -0.9791380315 0.1832098943
700295800.0 -0.9762489382 0.1971597011
750295500.0 -0.9734805028 0.2112636755
800295200.0 -0.9700532174 0.2246222311
850294900.0 -0.9666764203 0.2383410874
900294600.0 -0.9630434617 0.2520781178
950294300.0 -0.9594190415 0.2655580914
1000294000.0 -0.9557241014 0.2795033611
1050293700.0 -0.9511675671 0.2931618232
1100293400.0 -0.9470640415 0.3075349642
1150293100.0 -0.9434390491 0.3192445394
1200292800.0 -0.9381164791 0.3333747574
1250292500.0 -0.9330685195 0.3469326125
1300292200.0 -0.9275569728 0.3600449511
1350291900.0 -0.9222229373 0.3740993022
1400291600.0 -0.9168997373 0.3868631887
1450291300.0 -0.9116422945 0.3993531552
1500291000.0 -0.9055998865 0.4127754495
1550290700.0 -0.8993042185 0.4257963164
1600290400.0 -0.8933939092 0.4388633529
1650290100.0 -0.8870647785 0.4507017021
1700289800.0 -0.8802349667 0.4642398313
1750289500.0 -0.8733766776 0.4765313674
1800289200.0 -0.8663248355 0.4892183782
1850288900.0 -0.8597576446 0.5002231848
1900288600.0 -0.8522890791 0.5133557794
1950288300.0 -0.8442635045 0.5256383538
2000288000.0 -0.8369196173 0.5373737213
2050287700.0 -0.8291230285 0.5497028157
2100287400.0 -0.8214757739 0.5607123194
2150287100.0 -0.8128844987 0.5731365671
2200286800.0 -0.8051624823 0.5838438197
2250286500.0 -0.7964947964 0.5955535913
2300286200.0 -0.788281364 0.6064564503
2350285900.0 -0.7796265239 0.6174107356
2400285600.0 -0.7705515891 0.628822084
2450285300.0 -0.7614236994 0.6394847364
2500285000.0 -0.7526275159 0.6501397371
2550284700.0 -0.7433017044 0.6607082395
2600284400.0 -0.7335494184 0.6710194258
2650284100.0 -0.7250253537 0.681080945
2700283800.0 -0.7147511628 0.6913085203
2750283500.0 -0.7049104889 0.7016559758
2800283200.0 -0.6947637979 0.7113919757
2850282900.0 -0.6843979857 0.7215065086
2900282600.0 -0.6738260267 0.7310271582
2950282300.0 -0.663823661 0.7401162793
3000282000.0 -0.6529233635 0.7498998531
3050281700.0 -0.6420256645 0.7590477249
3100281400.0 -0.6314042137 0.7678494911
3150281100.0 -0.6210542749 0.7765035404
3200280800.0 -0.6094694944 0.7855816177
3250280500.0 -0.5981900361 0.7939901077
3300280200.0 -0.5864470199 0.8029437251
3350279900.0 -0.5754401004 0.8107506913
3400279600.0 -0.5633544306 0.8191567506
3450279300.0 -0.5519174704 0.8270971374
3500279000.0 -0.5403928491 0.8347811119
3550278700.0 -0.5284175691 0.8424302258
3600278400.0 -0.5174741295 0.8491704394
3650278100.0 -0.5045129486 0.8571132969
3700277800.0 -0.492755049 0.8639376809
3750277500.0 -0.4807431581 0.8707759842
3800277200.0 -0.4681607071 0.8775300281
3850276900.0 -0.4557490668 0.8840546635
3900276600.0 -0.443925099 0.8900162702
3950276300.0 -0.4309810388 0.8964627457
4000276000.0 -0.4189936138 0.9024775939
4050275700.0 -0.4056830716 0.9084920272
4100275400.0 -0.3937448059 0.9139244554
4150275100.0 -0.3810849068 0.9194179212
4200274800.0 -0.366994985 0.925050618
4250274500.0 -0.3551992954 0.9295374636
4300274200.0 -0.3422460329 0.9345665421
4350273900.0 -0.3287804716 0.9390228077
4400273600.0 -0.315736028 0.9436381855
4450273300.0 -0.302324499 0.9483151028
4500273000.0 -0.2896666632 0.9520173489
4550272700.0 -0.2772138007 0.9559170197
4600272400.0 -0.2623134495 0.9599333634
4650272100.0 -0.249918771 0.9631773325
4700271800.0 -0.2365897018 0.966433927
4750271500.0 -0.2229983149 0.9696772091
4800271200.0 -0.2091015573 0.9728206812
4850270900.0 -0.1952365714 0.9756923397
4900270600.0 -0.1817022783 0.9779442128
4950270300.0 -0.16873363 0.9805359309
5000270000.0 -0.1548851189 0.9828247165
5050269700.0 -0.1412136979 0.984726038
5100269400.0 -0.1268085069 0.9863965518
5150269100.0 -0.1128445867 0.9885621175
5200268800.0 -0.0988690051 0.9899140401
5250268500.0 -0.0855836493 0.9911387819
5300268200.0 -0.0713455611 0.9925311505
5350267900.0 -0.0588227927 0.9931564099
5400267600.0 -0.0425996237 0.9943995798
5450267300.0 -0.0305500756 0.994594108
5500267000.0 -0.0163073664 0.9948995125
5550266700.0 -0.0041665107 0.9948832214
5600266400.0 0.0099906679 0.9949897408
5650266100.0 0.0248449441 0.994910942
5700265800.0 0.038339766 0.994514149
5750265500.0 0.0513967944 0.993899091
5800265200.0 0.0647707852 0.9932420183
5850264900.0 0.0778364027 0.9925719603
5900264600.0 0.0936157381 0.9913500241
5950264300.0 0.105184843 0.9897959957
6000264000.0 0.1188488694 0.9882057678
6050263700.0 0.131606771 0.9869185663
6100263400.0 0.1451640245 0.9849585696
6150263100.0 0.1609700726 0.9827095628
6200262800.0 0.171892575 0.9808570598
6250262500.0 0.1856693136 0.9781066602
6300262200.0 0.1983955012 0.9756413888
6350261900.0 0.211580939 0.9731358925
6400261600.0 0.226370323 0.969336191
6450261300.0 0.2385268895 0.966791066
6500261000.0 0.2518088274 0.963272353
6550260700.0 0.2648122367 0.9595759533
6600260400.0 0.2776058887 0.9557431931
6650260100.0 0.2913150462 0.9516508094
6700259800.0 0.303984339 0.9480210791
6750259500.0 0.3169656657 0.9437636595
6800259200.0 0.3302726308 0.9386697515
6850258900.0 0.342904832 0.9342821944
6900258600.0 0.3559510728 0.9295789787
6950258300.0 0.3691689009 0.9243625687
7000258000.0 0.3813737669 0.9195327278
7050257700.0 0.3926503818 0.9142928494
7100257400.0 0.4069432003 0.9084332831
7150257100.0 0.4181978996 0.9031968169
7200256800.0 0.4319228209 0.8971071531
7250256500.0 0.4435043917 0.8914303513
7300256200.0 0.4562560726 0.8848335237
7350255900.0 0.4680842322 0.8783362202
7400255600.0 0.4782550692 0.8731774311
7450255300.0 0.4918016589 0.8657896541
7500255000.0 0.5029182611 0.8593418748
7550254700.0 0.5141551119 0.8525094206
7600254400.0 0.5259530978 0.8457571464
7650254100.0 0.5366907614 0.8389776223
7700253800.0 0.5483921505 0.8314419566
7750253500.0 0.5595496953 0.8240303788
7800253200.0 0.5714848307 0.8159068571
7850252900.0 0.5807564318 0.8091851116
7900252600.0 0.592697785 0.8005098284
7950252300.0 0.6030513985 0.7929849367
8000252000.0 0.6139020989 0.7847390838
8050251700.0 0.6246568688 0.7762024103
8100251400.0 0.6344860879 0.7682647406
8150251100.0 0.6457181926 0.7587589095
8200250800.0 0.655097768 0.7506791221
8250250500.0 0.6653347788 0.741532063
8300250200.0 0.6752088048 0.7322081649
8350249900.0 0.6849551977 0.7231308963
8400249600.0 0.6943275748 0.7143238837
8450249300.0 0.7041661558 0.7041000171
8500249000.0 0.7143316577 0.6943699441
8550248700.0 0.7241880883 0.6837161377
8600248400.0 0.7337966313 0.6731794811
8650248100.0 0.7421411794 0.6639023056
8700247800.0 0.7514144127 0.6535772454
8750247500.0 0.7603722028 0.6431618289
8800247200.0 0.7691893102 0.6322819897
8850246900.0 0.7778453261 0.6216424854
8900246600.0 0.7863889157 0.6109234063
8950246300.0 0.7948741587 0.5995329706
9000246000.0 0.8020589826 0.5895886567
9050245700.0 0.8101285414 0.5789384748
9100245400.0 0.8178012587 0.5674841115
9150245100.0 0.8257463384 0.5563710638
9200244800.0 0.8322320292 0.5467274883
9250244500.0 0.8395960323 0.535203849
9300244200.0 0.8460571144 0.524859597
9350243900.0 0.8533724567 0.5130691495
9400243600.0 0.8604486968 0.5011792405
9450243300.0 0.866224292 0.4911429369
9500243000.0 0.8731705781 0.4793060851
9550242700.0 0.8799312157 0.4674648602
9600242400.0 0.8865406066 0.4548099119
9650242100.0 0.8924210199 0.4430539335
9700241800.0 0.8986084624 0.4308905558
9750241500.0 0.9052126787 0.4174481062
9800241200.0 0.9114813627 0.40289187
9850240900.0 0.917077021 0.3899019461
9900240600.0 0.9215634768 0.380175129
9950240300.0 0.9268732223 0.3666272011
10000240000.0 0.9319626398 0.3535138399
10050239700.0 0.9366303016 0.3407652278
10100239400.0 0.9412325689 0.3277942946
10150239100.0 0.9452647923 0.3149161825
10200238800.0 0.949977965 0.3008260034
10250238500.0 0.9538518175 0.287974239
10300238200.0 0.9578304601 0.2746898982
10350237900.0 0.9614768038 0.2617494844
10400237600.0 0.9649400667 0.2486296106
10450237300.0 0.9685423532 0.2343378272
10500237000.0 0.9718097538 0.2212357729
10550236700.0 0.9746070362 0.2076718853
10600236400.0 0.9775680526 0.193756208
10650236100.0 0.980064971 0.1780263605
10700235800.0 0.9826760753 0.1642244434
10750235500.0 0.9845905737 0.1521017224
10800235200.0 0.9870866907 0.138100009
10850234900.0 0.9887669696 0.1247665566
10900234600.0 0.9902535781 0.1107543264
10950234300.0 0.9918816444 0.0965799069
11000234000.0 0.9929746302 0.0830161282
11050233700.0 0.9938610681 0.0698591784
11100233400.0 0.9950026384 0.0558446601
11150233100.0 0.9959179338 0.041915492
11200232800.0 0.996097793 0.0287821789
11250232500.0 0.996714659 0.0152303864
11300232200.0 0.9970414797 0.001406845
11350231900.0 0.9963053899 -0.0129792591
11400231600.0 0.9967267639 -0.0267183353
11450231300.0 0.9953624671 -0.0380069293
11500231000.0 0.995411611 -0.0521319388
11550230700.0 0.9946772567 -0.065788775
11600230400.0 0.9938780452 -0.0801959401
11650230100.0 0.9925207407 -0.0913753275
11700229800.0 0.9913908926 -0.107030093
11750229500.0 0.9894232891 -0.120207812
11800229200.0 0.987569249 -0.1324728114
11850228900.0 0.9859188242 -0.1470238057
11900228600.0 0.9837382496 -0.1613871351
11950228300.0 0.9814340946 -0.1758735465
12000228000.0 0.9790953886 -0.1889609253
12050227700.0 0.9758228528 -0.2029241034
12100227400.0 0.9733061725 -0.2144880371
12150227100.0 0.9688623581 -0.2330690902
12200226800.0 0.9657310981 -0.2452876894
12250226500.0 0.9620174678 -0.2596882933
12300226200.0 0.9592339682 -0.2709980409
12350225900.0 0.9549106337 -0.2875224554
12400225600.0 0.9501611817 -0.3007734417
12450225300.0 0.946625892 -0.3131669482
12500225000.0 0.9412986506 -0.3275659491
12550224700.0 0.9362509313 -0.3418494698
12600224400.0 0.9320537601 -0.3533161076
12650224100.0 0.9261692197 -0.3678428394
12700223800.0 0.9209101753 -0.3809559617
12750223500.0 0.915232049 -0.3942288997
12800223200.0 0.9093154927 -0.4076735065
12850222900.0 0.9040819552 -0.4202556644
12900222600.0 0.8974426504 -0.4326548536
12950222300.0 0.8911496769 -0.4458697044
13000222000.0 0.8851407057 -0.4580081841
13050221700.0 0.8780381022 -0.4712789819
13100221400.0 0.8717816769 -0.4833122475
13150221100.0 0.8648213235 -0.4955224581
13200220800.0 0.8576452881 -0.5078747376
13250220500.0 0.8505883244 -0.5199950884
13300220200.0 0.8432794488 -0.5315179295
13350219900.0 0.8352654541 -0.5446251876
13400219600.0 0.8279345808 -0.5556418183
13450219300.0 0.8203979585 -0.5670570803
13500219000.0 0.812496801 -0.5780022554
13550218700.0 0.8039458907 -0.5893842069
13600218400.0 0.7959477037 -0.6000219042
13650218100.0 0.7888648574 -0.6100957389
13700217800.0 0.7796191853 -0.6216058028
13750217500.0 0.7704888441 -0.6332020614
13800217200.0 0.7609306713 -0.6443983837
13850216900.0 0.7513227438 -0.6560310878
13900216600.0 0.7423426425 -0.6649589551
13950216300.0 0.7319480248 -0.6763507102
14000216000.0 0.7231507316 -0.6864685134
14050215700.0 0.7134195603 -0.6959222791
14100215400.0 0.7019050631 -0.7075289573
14150215100.0 0.6911752764 -0.718472209
14200214800.0 0.6807314312 -0.7282852496
14250214500.0 0.6693519578 -0.7388154006
14300214200.0 0.6578156728 -0.7492073735
14350213900.0 0.646463465 -0.7590780073
14400213600.0 0.6360824712 -0.7677371415
14450213300.0 0.6250983476 -0.776718144
14500213000.0 0.613655009 -0.7852773043
14550212700.0 0.6025593908 -0.7945991689
14600212400.0 0.5908717977 -0.8029319953
14650212100.0 0.5796246071 -0.8107596098
14700211800.0 0.5675111808 -0.8189781282
14750211500.0 0.555107213 -0.8272452652
14800211200.0 0.5428699405 -0.8358445814
14850210900.0 0.5311854059 -0.8434573536
14900210600.0 0.5189870234 -0.8510673052
14950210300.0 0.5064656477 -0.8586449676
15000210000.0 0.4942862813 -0.8657204356
15050209700.0 0.4815381102 -0.8726822097
15100209400.0 0.4683756147 -0.8802635795
15150209100.0 0.4566504366 -0.8863763923
15200208800.0 0.4436026631 -0.8932713904
15250208500.0 0.4303949212 -0.8997039662
15300208200.0 0.4166115291 -0.9067975083
15350207900.0 0.4031872158 -0.9112591713
15400207600.0 0.3904071368 -0.9178631325
15450207300.0 0.3773310158 -0.9229566144
15500207000.0 0.3636460136 -0.9286857504
15550206700.0 0.3507183985 -0.9334092628
15600206400.0 0.336872349 -0.9386348254
15650206100.0 0.322476488 -0.9436662704
15700205800.0 0.3089973646 -0.9480521036
15750205500.0 0.2945904597 -0.9523900442
15800205200.0 0.2809519492 -0.9564337501
15850204900.0 0.2671217723 -0.9605415477
15900204600.0 0.2516917387 -0.9649160827
15950204300.0 0.237225964 -0.9684402028
16000204000.0 0.2228633336 -0.971889672
16050203700.0 0.2074504817 -0.975231041
16100203400.0 0.1936655412 -0.9778799195
16150203100.0 0.1784003461 -0.980720827
16200202800.0 0.1631778128 -0.9832358387
16250202500.0 0.1481879468 -0.9855764553
16300202200.0 0.1328995022 -0.9878346967
16350201900.0 0.1175157307 -0.9897406164
16400201600.0 0.1030623234 -0.9908600634
16450201300.0 0.0885701538 -0.9923113548
16500201000.0 0.073336515 -0.9937366812
16550200700.0 0.058576007 -0.9947754619
16600200400.0 0.0436954401 -0.9954731903
16650200100.0 0.0281329374 -0.9959978018
16700199800.0 0.0146218312 -0.9967522961
16750199500.0 0.0005997718 -0.9968720175
16800199200.0 -0.0134748456 -0.9966150259
16850198900.0 -0.0281980565 -0.9962670576
16900198600.0 -0.0422634439 -0.9962770878
16950198300.0 -0.0580584948 -0.9949686412
17000198000.0 -0.0724693358 -0.9945630461
17050197700.0 -0.0866737936 -0.9928338089
17100197400.0 -0.102548173 -0.9911937355
17150197100.0 -0.1178814212 -0.9898069314
17200196800.0 -0.1320856023 -0.9879293588
17250196500.0 -0.1465678388 -0.9852093289
17300196200.0 -0.1619546353 -0.9830312225
17350195900.0 -0.1770637141 -0.9802714083
17400195600.0 -0.1918202551 -0.9773172699
17450195300.0 -0.2061521128 -0.9742758665
17500195000.0 -0.220631801 -0.970957444
17550194700.0 -0.2351155297 -0.9680184748
17600194400.0 -0.2495807022 -0.9643638485
17650194100.0 -0.2642564114 -0.9600535916
17700193800.0 -0.277346852 -0.956357077
17750193500.0 -0.2922934523 -0.9523600085
17800193200.0 -0.305739707 -0.947753542
17850192900.0 -0.3200524716 -0.9428884425
17900192600.0 -0.3334831927 -0.9383748877
17950192300.0 -0.3480841921 -0.9325752826
18000192000.0 -0.362544653 -0.926946115
18050191700.0 -0.3766207424 -0.9209889285
18100191400.0 -0.3906901718 -0.9152147256
18150191100.0 -0.4040616158 -0.9093599338
18200190800.0 -0.4174038362 -0.903074167
18250190500.0 -0.4312954361 -0.8965711673
18300190200.0 -0.445184718 -0.8899985863
18350189900.0 -0.4586786734 -0.8835496628
18400189600.0 -0.4724207295 -0.8769408068
18450189300.0 -0.4851454607 -0.8702365641
18500189000.0 -0.4980152258 -0.8625492299
18550188700.0 -0.5105816508 -0.8555591969
18600188400.0 -0.5237167388 -0.8474857289
18650188100.0 -0.5360007249 -0.8400484503
18700187800.0 -0.5485051449 -0.8316293525
18750187500.0 -0.5603042054 -0.8236299422
18800187200.0 -0.5724576868 -0.8151179615
18850186900.0 -0.5842547771 -0.8064261393
18900186600.0 -0.5952229349 -0.7979397849
18950186300.0 -0.6073848042 -0.7883515748
19000186000.0 -0.6185323203 -0.7798520015
19050185700.0 -0.6309784149 -0.7705320713
19100185400.0 -0.6420131764 -0.7610445548
19150185100.0 -0.653403748 -0.7519932218
19200184800.0 -0.6638700084 -0.7423933668
19250184500.0 -0.6744049546 -0.7320698805
19300184200.0 -0.6853949877 -0.7224314363
19350183900.0 -0.6959134776 -0.7124888766
19400183600.0 -0.7068645485 -0.7020331141
19450183300.0 -0.7173772059 -0.6908984111
19500183000.0 -0.7276898363 -0.6796983034
19550182700.0 -0.7380580245 -0.6680006849
19600182400.0 -0.7474445056 -0.6565235346
19650182100.0 -0.7572343596 -0.6451776762
19700181800.0 -0.7663654884 -0.6336967748
19750181500.0 -0.775504819 -0.6216387791
19800181200.0 -0.7848887417 -0.6095220685
19850180900.0 -0.7939141441 -0.5972602512
19900180600.0 -0.8019387169 -0.5861546241
19950180300.0 -0.8117736217 -0.5733446762
20000180000.0 -0.8218922389 -0.5598076912
20050179700.0 -0.8302818882 -0.5486531078
20100179400.0 -0.8390815391 -0.5358079413
20150179100.0 -0.8467860806 -0.5229679244
20200178800.0 -0.8534501235 -0.5102624481
20250178500.0 -0.8614697767 -0.4987020035
20300178200.0 -0.86886305 -0.485574524
20350177900.0 -0.8755511197 -0.4733413696
20400177600.0 -0.8814759922 -0.4614836626
20450177300.0 -0.8877919726 -0.449177927
20500177000.0 -0.8937183191 -0.4365463397
20550176700.0 -0.8999545908 -0.4242149672
20600176400.0 -0.9053269235 -0.4111248728
20650176100.0 -0.9109918469 -0.3987719578
20700175800.0 -0.9170427661 -0.3848964143
20750175500.0 -0.92220472 -0.3727007544
20800175200.0 -0.9277248152 -0.359802475
20850174900.0 -0.9313103108 -0.347098729
20900174600.0 -0.9370232801 -0.3342979218
20950174300.0 -0.9411163497 -0.3206893556
21000174000.0 -0.9457751618 -0.3070155822
21050173700.0 -0.9479620595 -0.2942998998
21100173400.0 -0.9526830441 -0.2802546154
21150173100.0 -0.9552469858 -0.2666142845
21200172800.0 -0.9587277096 -0.2523183594
21250172500.0 -0.9622743187 -0.2385747934
21300172200.0 -0.9663949381 -0.2247275622
21350171900.0 -0.9690344437 -0.2106760239
21400171600.0 -0.9723309319 -0.1966630104
21450171300.0 -0.9752132083 -0.1821865291
21500171000.0 -0.9767685406 -0.166868038
21550170700.0 -0.980099389 -0.1524663653
21600170400.0 -0.9831032992 -0.1387890264
21650170100.0 -0.987121501 -0.1243724433
21700169800.0 -0.9882209919 -0.1094500042
21750169500.0 -0.9891478387 -0.0933622834
21800169200.0 -0.9920345162 -0.0791215242
21850168900.0 -0.9942709211 -0.0654285836
21900168600.0 -0.9950951248 -0.0500986177
21950168300.0 -0.9964945166 -0.0354938399
22000168000.0 -0.9975360326 -0.0207325311
22050167700.0 -0.9979586562 -0.0060499411
22100167400.0 -0.9981606297 0.0094315908
22150167100.0 -0.9981919337 0.0241172689
22200166800.0 -0.9975541144 0.0384630179
22250166500.0 -0.9962174172 0.052656647
22300166200.0 -0.9957755452 0.0667398986
22350165900.0 -0.9943256213 0.0807865183
22400165600.0 -0.993697782 0.0950046702
22450165300.0 -0.992230589 0.108193293
22500165000.0 -0.9912504536 0.1214261162
22550164700.0 -0.9886808324 0.136134283
22600164400.0 -0.9866462515 0.1493688436
22650164100.0 -0.9845035784 0.1614024462
22700163800.0 -0.9815393538 0.1741472756
22750163500.0 -0.979728228 0.1882885592
22800163200.0 -0.9759884224 0.2007240906
22850162900.0 -0.9726070096 0.2138250186
22900162600.0 -0.9695334461 0.2269472947
22950162300.0 -0.9659008062 0.2404969723
23000162000.0 -0.9619729148 0.2536498396
23050161700.0 -0.9573017682 0.2676538538
23100161400.0 -0.9533591652 0.2811157554
23150161100.0 -0.9490409266 0.2938448692
23200160800.0 -0.9448283732 0.308202123
23250160500.0 -0.9396742166 0.3216538826
23300160200.0 -0.9354506599 0.3350561858
23350159900.0 -0.9302958993 0.349393965
23400159600.0 -0.9251692157 0.361556353
23450159300.0 -0.920381137 0.3741616528
23500159000.0 -0.9154215937 0.3864481731
23550158700.0 -0.9098788168 0.4000059818
23600158400.0 -0.903688175 0.4123101702
23650158100.0 -0.8977907926 0.4245693019
23700157800.0 -0.8914962898 0.436731914
23750157500.0 -0.8853436858 0.4492731867
23800157200.0 -0.8789162551 0.4616722558
23850156900.0 -0.8730207106 0.4732423758
23900156600.0 -0.8665163134 0.4847386759
23950156300.0 -0.8592795173 0.4976083562
24000156000.0 -0.8533871254 0.5089032563
24050155700.0 -0.8461869891 0.5204463436
24100155400.0 -0.8397303699 0.5323551646
24150155100.0 -0.8320106356 0.5438598389
24200154800.0 -0.8247302389 0.5544411513
24250154500.0 -0.8174310968 0.5657218876
24300154200.0 -0.8099383768 0.5771795782
24350153900.0 -0.8029204157 0.5879225522
24400153600.0 -0.7945297059 0.5986107539
24450153300.0 -0.7858273921 0.6097566862
24500153000.0 -0.7781603764 0.6198784854
24550152700.0 -0.7695106019 0.6305020638
24600152400.0 -0.7610223953 0.6414460925
24650152100.0 -0.7512888159 0.6513121554
