!Created with skrf (http://scikit-rf.org).
# Hz S RI R 50.0 
!freq ReS11 ImS11
300000.0 -0.9722010107 -0.1224457152
50299700.0 -0.9999871782 0.0150862758
100299400.0 -0.9980270116 0.0278704936
150299100.0 -1.002722734 0.0448842262
200298800.0 -0.9997026432 0.0580112303
250298500.0 -0.9974330957 0.0717419746
300298200.0 -0.9859877179 0.0874823106
350297900.0 -0.993931187 0.0983128344
400297600.0 -0.993032206 0.1147469271
450297300.0 -0.9908822488 0.1285068893
500297000.0 -0.9893546764 0.1433496244
550296700.0 -0.9842934781 0.1557825962
600296400.0 -1.017291818 0.1891581064
650296100.0 -0.9820775597 0.1854984527
700295800.0 -0.9792138559 0.2001333392
750295500.0 -0.9763824562 0.2138226717
800295200.0 -0.9728947642 0.2280374325
850294900.0 -0.9696317296 0.2421443202
900294600.0 -0.9659245928 0.255625366
950294300.0 -0.9621215527 0.2693316745
1000294000.0 -0.9581768081 0.2832143317
1050293700.0 -0.9535919968 0.2971006895
1100293400.0 -0.9493721058 0.3116051614
1150293100.0 -0.9454572375 0.3234285205
1200292800.0 -0.9402110966 0.3376583502
1250292500.0 -0.9346849283 0.3512277353
1300292200.0 -0.9289261763 0.3644895206
1350291900.0 -0.9235859452 0.378345817
1400291600.0 -0.91786208 0.3915252276
1450291300.0 -0.9126143016 0.4038868933
1500291000.0 -0.9061585699 0.41740731
1550290700.0 -0.8999167986 0.4307579254
1600290400.0 -0.893496812 0.4436100406
1650290100.0 -0.8866817078 0.455802532
1700289800.0 -0.8798067904 0.4692773602
1750289500.0 -0.8727544322 0.4816467195
1800289200.0 -0.8654443709 0.4942166047
1850288900.0 -0.8586364655 0.5056394884
1900288600.0 -0.850915115 0.5188141278
1950288300.0 -0.8429654822 0.5312532128
2000288000.0 -0.8353396817 0.5429475291
2050287700.0 -0.8271248018 0.555144594
2100287400.0 -0.8192812536 0.5665197126
2150287100.0 -0.8108549672 0.5784727622
2200286800.0 -0.8029854481 0.5892787267
2250286500.0 -0.7939124481 0.6014227005
2300286200.0 -0.7852712825 0.6129005765
2350285900.0 -0.7768023816 0.6234488808
2400285600.0 -0.7679028186 0.6343599219
2450285300.0 -0.7592114058 0.6451045477
2500285000.0 -0.7490882153 0.6566327607
2550284700.0 -0.740184718 0.6669499921
2600284400.0 -0.7311494654 0.6769086731
2650284100.0 -0.7220945582 0.6871714005
2700283800.0 -0.7117589145 0.6974591732
2750283500.0 -0.701606535 0.7081654317
2800283200.0 -0.6915142064 0.7183017864
2850282900.0 -0.6809592655 0.7282672853
2900282600.0 -0.6708004306 0.737924469
2950282300.0 -0.6602827956 0.7473369317
3000282000.0 -0.649638618 0.7566780555
3050281700.0 -0.6382891643 0.7659421465
3100281400.0 -0.6268106392 0.7750258729
3150281100.0 -0.6154120973 0.7839292889
3200280800.0 -0.604073727 0.7923397412
3250280500.0 -0.5929983801 0.8001255557
3300280200.0 -0.5813710656 0.8084502023
3350279900.0 -0.5691916548 0.816456838
3400279600.0 -0.5566459507 0.8245112351
3450279300.0 -0.5456005218 0.8316869508
3500279000.0 -0.5338263446 0.8386060961
3550278700.0 -0.5215349467 0.8457317043
3600278400.0 -0.5097872036 0.8524656301
3650278100.0 -0.4969290871 0.8599756411
3700277800.0 -0.4847076442 0.8664969445
3750277500.0 -0.4721774868 0.8733848021
3800277200.0 -0.4596200393 0.8796420804
3850276900.0 -0.4477163147 0.8856878783
3900276600.0 -0.4369168727 0.8910950087
3950276300.0 -0.4246439085 0.8971063181
4000276000.0 -0.4130255348 0.9030038052
4050275700.0 -0.4004125794 0.9092740036
4100275400.0 -0.3892992918 0.914594116
4150275100.0 -0.3761639088 0.9205659106
4200274800.0 -0.3626747669 0.9260141347
4250274500.0 -0.3499226238 0.9313045956
4300274200.0 -0.3367474328 0.9367523847
4350273900.0 -0.3225666408 0.9420532814
4400273600.0 -0.307690925 0.9472203362
4450273300.0 -0.2927796323 0.9520912912
4500273000.0 -0.2795895239 0.9565401412
4550272700.0 -0.265950951 0.9604853689
4600272400.0 -0.250774166 0.9646357757
4650272100.0 -0.2395500361 0.9677664446
4700271800.0 -0.226668006 0.9710320133
4750271500.0 -0.2148980737 0.9740593491
4800271200.0 -0.202708082 0.976604584
4850270900.0 -0.18905118 0.9794607493
4900270600.0 -0.1752479153 0.9818347137
4950270300.0 -0.1606367536 0.9847404398
5000270000.0 -0.1460982833 0.9865657394
5050269700.0 -0.1326800866 0.9883632148
5100269400.0 -0.1187436173 0.9898043932
5150269100.0 -0.1044838776 0.9918416923
5200268800.0 -0.0911664136 0.9926779694
5250268500.0 -0.0781340937 0.9936134256
5300268200.0 -0.0646069936 0.9944010807
5350267900.0 -0.0517471024 0.9952535618
5400267600.0 -0.0354445832 0.9962256318
5450267300.0 -0.022191526 0.9964733834
5500267000.0 -0.0069693658 0.9970562629
5550266700.0 0.0080107301 0.9972484707
5600266400.0 0.0238328053 0.9971778162
5650266100.0 0.0406203235 0.9968771362
5700265800.0 0.054940123 0.9961219241
5750265500.0 0.0699641927 0.9953880299
5800265200.0 0.0833103799 0.9940883849
5850264900.0 0.0964721962 0.993066444
5900264600.0 0.1130690167 0.9914419485
5950264300.0 0.1243685163 0.9898409477
6000264000.0 0.1381204615 0.9877184263
6050263700.0 0.1499531924 0.9862313672
6100263400.0 0.1621957363 0.984983145
6150263100.0 0.1765003519 0.9824501793
6200262800.0 0.1863621393 0.9811075234
6250262500.0 0.1989661689 0.9786116807
6300262200.0 0.211354158 0.9759910383
6350261900.0 0.2238681413 0.9733064391
6400261600.0 0.2377549072 0.9700806092
6450261300.0 0.2489298007 0.9676873305
6500261000.0 0.2622973916 0.9638628305
6550260700.0 0.2754839343 0.9600207121
6600260400.0 0.2885568925 0.9560362194
6650260100.0 0.3030434132 0.9517146769
6700259800.0 0.3147565792 0.9470324102
6750259500.0 0.3286313171 0.9423141405
6800259200.0 0.3421567004 0.9372524815
6850258900.0 0.3547242389 0.9320697938
6900258600.0 0.3672997612 0.9269080882
6950258300.0 0.3797852944 0.9214648334
7000258000.0 0.3915409881 0.916507818
7050257700.0 0.4031702273 0.9103574168
7100257400.0 0.4168008428 0.9040047801
7150257100.0 0.4274214366 0.8983571615
7200256800.0 0.4404338165 0.8921743549
7250256500.0 0.4530342285 0.8856696092
7300256200.0 0.4658631873 0.8784670177
7350255900.0 0.478706112 0.871687681
7400255600.0 0.4934068263 0.8642772359
7450255300.0 0.5085496933 0.8550888775
7500255000.0 0.5214281573 0.8475228254
7550254700.0 0.5352276957 0.8382111608
7600254400.0 0.5479029203 0.8299723696
7650254100.0 0.559212043 0.8219444459
7700253800.0 0.5709282922 0.8140423614
7750253500.0 0.5817156342 0.8064462329
7800253200.0 0.5926713534 0.7984861783
7850252900.0 0.6023240399 0.7914657608
7900252600.0 0.6137363118 0.7825820014
7950252300.0 0.6222652703 0.7764205972
8000252000.0 0.6321987372 0.7686781332
8050251700.0 0.6426278446 0.7604285711
8100251400.0 0.6526357856 0.7526226793
8150251100.0 0.6625670187 0.7442401786
8200250800.0 0.6722243949 0.7357562972
8250250500.0 0.6807070972 0.7279694478
8300250200.0 0.6899349903 0.7197679529
8350249900.0 0.6991385111 0.7106841039
8400249600.0 0.7075189324 0.702802189
8450249300.0 0.7159871098 0.6941586186
8500249000.0 0.7246113751 0.6853502262
8550248700.0 0.7328089878 0.6762634239
8600248400.0 0.7411083746 0.6667113374
8650248100.0 0.7488270133 0.6574234821
8700247800.0 0.757988859 0.6463624194
8750247500.0 0.7663203908 0.6359800277
8800247200.0 0.774349895 0.625986665
8850246900.0 0.7832968772 0.6144348833
8900246600.0 0.7915825457 0.6031955169
8950246300.0 0.800531466 0.5903972627
9000246000.0 0.8093326114 0.5786556554
9050245700.0 0.8177603356 0.5662258641
9100245400.0 0.8258014856 0.553946626
9150245100.0 0.8347066535 0.541235543
9200244800.0 0.8444611866 0.5266125724
9250244500.0 0.8534362886 0.5120486186
9300244200.0 0.8613640596 0.4984125297
9350243900.0 0.8690970959 0.4850877479
9400243600.0 0.8757672186 0.4733968155
9450243300.0 0.8812435118 0.4627379801
9500243000.0 0.8875869528 0.4511700371
9550242700.0 0.8915825542 0.4437964158
9600242400.0 0.8958661243 0.4362384744
9650242100.0 0.9001032852 0.4291571078
9700241800.0 0.9047655778 0.4206315988
9750241500.0 0.9089530889 0.4129265122
9800241200.0 0.9142482522 0.4037520703
9850240900.0 0.91950387 0.3920132565
9900240600.0 0.9256756015 0.3804290548
9950240300.0 0.9329487615 0.3632934739
10000240000.0 0.9385467294 0.3506547135
10050239700.0 0.9440028651 0.3348982927
10100239400.0 0.9490428473 0.3188055913
10150239100.0 0.9540638197 0.3027602703
10200238800.0 0.9584948467 0.2875236486
10250238500.0 0.9615680105 0.2742248913
10300238200.0 0.9646998086 0.2602627479
10350237900.0 0.9674839649 0.246939551
10400237600.0 0.9702498936 0.2332040345
10450237300.0 0.9726766294 0.2198148733
10500237000.0 0.9749342498 0.2073875232
10550236700.0 0.9776401365 0.1928058124
10600236400.0 0.9795060464 0.1784475665
10650236100.0 0.9814549997 0.1643047219
10700235800.0 0.9840027475 0.1519608622
10750235500.0 0.9861227552 0.1385841664
10800235200.0 0.9877179858 0.124462084
10850234900.0 0.9900445524 0.1094043969
10900234600.0 0.9919915736 0.0946029276
10950234300.0 0.9936391521 0.0811742639
11000234000.0 0.99557541 0.0654137855
11050233700.0 0.9974113208 0.0488278958
11100233400.0 0.9988931992 0.0310877121
11150233100.0 0.9999419608 0.0140615907
11200232800.0 1.00059972 -0.0018085131
11250232500.0 1.001971744 -0.0197833613
11300232200.0 1.002043113 -0.0382079263
11350231900.0 1.002287848 -0.0537281664
11400231600.0 1.00199605 -0.0699915332
11450231300.0 1.001243397 -0.0856589665
11500231000.0 0.9999505551 -0.1017979998
11550230700.0 0.9982426555 -0.1150813277
11600230400.0 0.9971113729 -0.1281899162
11650230100.0 0.9948200334 -0.139994153
11700229800.0 0.9925406126 -0.154865176
11750229500.0 0.9902302422 -0.1688923953
11800229200.0 0.9873570411 -0.1820775977
11850228900.0 0.9834750577 -0.1937634012
11900228600.0 0.9798563438 -0.2034528044
11950228300.0 0.9764721665 -0.2133077728
12000228000.0 0.9735560338 -0.2218820167
12050227700.0 0.969475792 -0.2351323483
12100227400.0 0.9665969374 -0.2456554207
12150227100.0 0.9614624235 -0.2629322127
12200226800.0 0.9578557499 -0.2736001522
12250226500.0 0.9537504456 -0.2866117277
12300226200.0 0.9495894812 -0.2984428081
12350225900.0 0.9446744633 -0.3114324789
12400225600.0 0.9402968787 -0.3249300676
12450225300.0 0.9355343561 -0.3372631406
12500225000.0 0.9301157901 -0.3521096755
12550224700.0 0.9245732215 -0.365746834
12600224400.0 0.9199445607 -0.37832648
12650224100.0 0.9140599381 -0.3929320187
12700223800.0 0.908731298 -0.4055090513
12750223500.0 0.9033096054 -0.418530696
12800223200.0 0.8979673358 -0.4307584908
12850222900.0 0.8926614649 -0.4429928093
12900222600.0 0.8868815784 -0.4552078338
12950222300.0 0.8810087239 -0.4679388046
13000222000.0 0.8749174501 -0.4794203999
13050221700.0 0.8683150525 -0.4923452768
13100221400.0 0.8611608991 -0.5052231614
13150221100.0 0.8543509564 -0.5169074553
13200220800.0 0.8475484019 -0.5283101638
13250220500.0 0.8402660319 -0.54031486
13300220200.0 0.8327102536 -0.551563592
13350219900.0 0.8245465186 -0.5633860727
13400219600.0 0.816174145 -0.5751956266
13450219300.0 0.8068020007 -0.588167841
13500219000.0 0.7974717417 -0.6013934454
13550218700.0 0.7875555997 -0.6137349595
13600218400.0 0.7774071074 -0.6252595329
13650218100.0 0.7676017961 -0.6363119017
13700217800.0 0.7563775228 -0.6480708967
13750217500.0 0.7480253953 -0.6581442569
13800217200.0 0.7367495714 -0.6706960469
13850216900.0 0.7259487976 -0.6815236179
13900216600.0 0.7151955154 -0.6897872847
13950216300.0 0.7050198396 -0.7003082676
14000216000.0 0.695701254 -0.7095415244
14050215700.0 0.6858676021 -0.7174765192
14100215400.0 0.6769105097 -0.7264294529
14150215100.0 0.6670699929 -0.7354449702
14200214800.0 0.657837118 -0.7440059117
14250214500.0 0.647402598 -0.7536875965
14300214200.0 0.6369808988 -0.7629652134
14350213900.0 0.6258302069 -0.7726641294
14400213600.0 0.6136286215 -0.7826440764
14450213300.0 0.6010727465 -0.7929801861
14500213000.0 0.5883890494 -0.8022547966
14550212700.0 0.5750232354 -0.8120426749
14600212400.0 0.5631703202 -0.8203888377
14650212100.0 0.551093598 -0.8292757013
14700211800.0 0.5367931917 -0.8388880591
14750211500.0 0.524770243 -0.8475298942
14800211200.0 0.5120781594 -0.855432454
14850210900.0 0.4997912376 -0.8631461256
14900210600.0 0.4864996779 -0.8711803169
14950210300.0 0.4734963908 -0.8786391554
15000210000.0 0.4605147296 -0.8855046971
15050209700.0 0.448553173 -0.8914657385
15100209400.0 0.4352837898 -0.8975138849
15150209100.0 0.4233921988 -0.9025793999
15200208800.0 0.4104560663 -0.9083367358
15250208500.0 0.3996002157 -0.9127586372
15300208200.0 0.3877167856 -0.9173096292
15350207900.0 0.3743796972 -0.9225261331
15400207600.0 0.3593307971 -0.9280607879
15450207300.0 0.344560553 -0.9324137859
15500207000.0 0.3307950041 -0.9368112959
15550206700.0 0.3152487581 -0.94208884
15600206400.0 0.298909411 -0.9467370938
15650206100.0 0.2838623813 -0.9517785899
15700205800.0 0.2699408261 -0.9542643048
15750205500.0 0.2561058579 -0.9578555311
15800205200.0 0.242134315 -0.9611773869
15850204900.0 0.2278609858 -0.9646092417
15900204600.0 0.212690658 -0.9682965647
15950204300.0 0.1984379026 -0.9713360029
16000204000.0 0.184251328 -0.9743060257
16050203700.0 0.1692837413 -0.9772679593
16100203400.0 0.154300193 -0.9796928975
16150203100.0 0.1392567558 -0.9820131278
16200202800.0 0.1251658143 -0.9840170309
16250202500.0 0.1101389002 -0.9858433717
16300202200.0 0.094694767 -0.9874919042
16350201900.0 0.079604014 -0.989312351
16400201600.0 0.065249568 -0.9901306698
16450201300.0 0.0498210962 -0.9914965331
16500201000.0 0.0326344625 -0.9921375768
16550200700.0 0.0166307465 -0.9926571132
16600200400.0 0.0006611654 -0.9930376093
16650200100.0 -0.0155707449 -0.9926990869
16700199800.0 -0.0317100948 -0.9924598756
16750199500.0 -0.0509201391 -0.9914358725
16800199200.0 -0.0667633289 -0.9909141108
16850198900.0 -0.0828626943 -0.9892074923
16900198600.0 -0.0963392393 -0.9884740895
16950198300.0 -0.1103169809 -0.9873869173
17000198000.0 -0.1229896779 -0.9859743241
17050197700.0 -0.1357557823 -0.9839743804
17100197400.0 -0.1489632007 -0.9818075157
17150197100.0 -0.1613673335 -0.9800043865
17200196800.0 -0.1744587603 -0.9780127758
17250196500.0 -0.1875341149 -0.9751905954
17300196200.0 -0.1993139921 -0.9728735318
17350195900.0 -0.2113203088 -0.9706458615
17400195600.0 -0.2232522601 -0.9681942978
17450195300.0 -0.2361339034 -0.9652358136
17500195000.0 -0.249418092 -0.9620897439
17550194700.0 -0.2631446867 -0.9586021746
17600194400.0 -0.2769665629 -0.9543262517
17650194100.0 -0.2906042028 -0.9507418679
17700193800.0 -0.303395702 -0.9462219738
17750193500.0 -0.3178902941 -0.9417675521
17800193200.0 -0.3317785812 -0.9362266654
17850192900.0 -0.3469877302 -0.9310807083
17900192600.0 -0.3618070912 -0.925327469
17950192300.0 -0.3776779611 -0.9179430538
18000192000.0 -0.3919873146 -0.9107788025
18050191700.0 -0.406162018 -0.9026574487
18100191400.0 -0.4201146455 -0.8951188151
18150191100.0 -0.4350210389 -0.8870607343
18200190800.0 -0.4517893115 -0.8779092883
18250190500.0 -0.4686861387 -0.868510076
18300190200.0 -0.4842769683 -0.8600638879
18350189900.0 -0.499694969 -0.85106848
18400189600.0 -0.5141904533 -0.8428120763
18450189300.0 -0.5275298591 -0.8347388025
18500189000.0 -0.5410751971 -0.8269012649
18550188700.0 -0.5534995607 -0.8191344181
18600188400.0 -0.5656752125 -0.8121354423
18650188100.0 -0.5771681558 -0.8053339785
18700187800.0 -0.5880511503 -0.7987405675
18750187500.0 -0.5986597725 -0.7922164282
18800187200.0 -0.6094078761 -0.7851133149
18850186900.0 -0.619638813 -0.7782371735
18900186600.0 -0.6299159754 -0.7710373364
18950186300.0 -0.6403740214 -0.7631390576
19000186000.0 -0.6477039372 -0.7569894245
19050185700.0 -0.6570561119 -0.7494941924
19100185400.0 -0.6670181339 -0.7416939478
19150185100.0 -0.67728506 -0.7332636095
19200184800.0 -0.6864262409 -0.7254548547
19250184500.0 -0.6968565026 -0.7161731111
19300184200.0 -0.7086655565 -0.7063285981
19350183900.0 -0.7188897091 -0.6962583926
19400183600.0 -0.7289109146 -0.6867503555
19450183300.0 -0.7378039675 -0.6765970389
19500183000.0 -0.7456795894 -0.6666881273
19550182700.0 -0.7556413176 -0.6553711904
19600182400.0 -0.7658415544 -0.6437568782
19650182100.0 -0.7764279185 -0.6313931952
19700181800.0 -0.7868779176 -0.6184383187
19750181500.0 -0.7972300596 -0.6043744317
19800181200.0 -0.807238221 -0.5895100118
19850180900.0 -0.8168865402 -0.5740989577
19900180600.0 -0.8246103684 -0.559567499
19950180300.0 -0.8337601059 -0.5431914199
20000180000.0 -0.8232208275 -0.5469545862
20050179700.0 -0.8310568797 -0.5342178121
20100179400.0 -0.8399752639 -0.521457917
20150179100.0 -0.8474203483 -0.5098588001
20200178800.0 -0.8556926708 -0.4979408578
20250178500.0 -0.8653609802 -0.4859504771
20300178200.0 -0.8748004766 -0.4710574063
20350177900.0 -0.8843186465 -0.4574596954
20400177600.0 -0.8937325235 -0.4433612876
20450177300.0 -0.9021182179 -0.4290779646
20500177000.0 -0.9103160447 -0.415260737
20550176700.0 -0.9180891689 -0.401568138
20600176400.0 -0.9248820943 -0.3889907376
20650176100.0 -0.931555853 -0.3756825367
20700175800.0 -0.9386014886 -0.364846939
20750175500.0 -0.9445146075 -0.3528379825
20800175200.0 -0.9497774559 -0.3422948925
20850174900.0 -0.953716711 -0.3318617216
20900174600.0 -0.9573280854 -0.320513392
20950174300.0 -0.9607560864 -0.3093778726
21000174000.0 -0.9650047351 -0.2991311842
21050173700.0 -0.965754246 -0.289401955
21100173400.0 -0.9699973441 -0.2784562492
21150173100.0 -0.9733987954 -0.2661034039
21200172800.0 -0.9769828799 -0.2533596399
21250172500.0 -0.9807834355 -0.2394970624
21300172200.0 -0.9843008836 -0.225623516
21350171900.0 -0.9865004059 -0.2115009251
21400171600.0 -0.9879470445 -0.1968319974
21450171300.0 -0.9887043518 -0.182821188
21500171000.0 -0.9895981286 -0.1672973501
21550170700.0 -0.9906543273 -0.1529286055
21600170400.0 -0.9909079734 -0.1365562772
21650170100.0 -0.9910821735 -0.1224633111
21700169800.0 -0.9908483897 -0.1073292469
21750169500.0 -0.9898216137 -0.0903341464
21800169200.0 -0.9901774464 -0.0731683134
21850168900.0 -0.9899876163 -0.0571247695
21900168600.0 -0.9893501988 -0.0405577461
21950168300.0 -0.9891291849 -0.0245429252
22000168000.0 -0.9887605089 -0.0097505705
22050167700.0 -0.9895243688 0.0044991987
22100167400.0 -0.9899353972 0.0205482265
22150167100.0 -0.9909640947 0.0363852125
22200166800.0 -0.9910460203 0.0529996944
22250166500.0 -0.9910183568 0.0701299088
22300166200.0 -0.9902844844 0.0861919652
22350165900.0 -0.9891144128 0.1027579473
22400165600.0 -0.9877521791 0.1182597677
22450165300.0 -0.9857020743 0.1341714456
22500165000.0 -0.9847890398 0.1481385524
22550164700.0 -0.9831239542 0.1638873438
22600164400.0 -0.9803441355 0.1801833201
22650164100.0 -0.9773393312 0.1962122937
22700163800.0 -0.9744633527 0.2126318722
22750163500.0 -0.9718610355 0.2265470416
22800163200.0 -0.9688058189 0.2393475543
22850162900.0 -0.9664141587 0.2532257181
22900162600.0 -0.9643976424 0.2671640263
22950162300.0 -0.9629152168 0.2808231082
23000162000.0 -0.9607504915 0.2930158579
23050161700.0 -0.9583606842 0.306540407
23100161400.0 -0.955705758 0.3199703825
23150161100.0 -0.9523132305 0.3328566634
23200160800.0 -0.9498968825 0.3460568106
23250160500.0 -0.9469725484 0.358494705
23300160200.0 -0.9440686539 0.3708985459
23350159900.0 -0.939834574 0.3847485086
23400159600.0 -0.9348826862 0.3981226494
23450159300.0 -0.9300828751 0.4122834748
23500159000.0 -0.9250661202 0.4259991096
23550158700.0 -0.9199701287 0.4398958024
23600158400.0 -0.913868137 0.4538225515
23650158100.0 -0.9069406747 0.4683381967
23700157800.0 -0.8985198083 0.4825642197
23750157500.0 -0.8892159372 0.49692105
23800157200.0 -0.8795458559 0.5104049037
23850156900.0 -0.8696914218 0.5236881282
23900156600.0 -0.8594700083 0.5363886472
23950156300.0 -0.8496020231 0.5483453026
24000156000.0 -0.8404042309 0.5607639104
24050155700.0 -0.8302396329 0.5734965722
24100155400.0 -0.8198375353 0.5855666305
24150155100.0 -0.8089429372 0.5981601371
24200154800.0 -0.797784165 0.6096605433
24250154500.0 -0.7867731154 0.6218131078
24300154200.0 -0.7750354313 0.6339357837
24350153900.0 -0.7633269696 0.6449284775
24400153600.0 -0.7506892762 0.6555215261
24450153300.0 -0.7387566878 0.665737581
24500153000.0 -0.7274032408 0.6760380072
24550152700.0 -0.7159631091 0.6859845852
24600152400.0 -0.7035134677 0.6954878755
24650152100.0 -0.6918145275 0.7034160449
