!Created with skrf (http://scikit-rf.org).
# Hz S RI R 50.0 
!freq ReS11 ImS11
300000.0 -0.9746143666 -0.1203945952
50299700.0 -0.9998735318 0.0150493187
100299400.0 -0.9979157765 0.0279971639
150299100.0 -1.002756354 0.044990369
200298800.0 -0.9995772487 0.0582074736
250298500.0 -0.9973255938 0.0717365757
300298200.0 -0.9858787111 0.0874918077
350297900.0 -0.9940422193 0.0984156027
400297600.0 -0.9931176747 0.1151100686
450297300.0 -0.9909756709 0.1287304681
500297000.0 -0.9893462535 0.1436687847
550296700.0 -0.9843181702 0.1560455364
600296400.0 -1.017277834 0.1893009632
650296100.0 -0.9820794483 0.1860479417
700295800.0 -0.9791852096 0.2002960863
750295500.0 -0.9761089062 0.2141155624
800295200.0 -0.9728661806 0.2280509426
850294900.0 -0.9696866409 0.2421587788
900294600.0 -0.9659689898 0.2557498377
950294300.0 -0.9620650917 0.2693809853
1000294000.0 -0.9580389368 0.2834896403
1050293700.0 -0.9535562535 0.2973144378
1100293400.0 -0.9494166884 0.3116736455
1150293100.0 -0.9454115133 0.3235591457
1200292800.0 -0.9402233102 0.337910319
1250292500.0 -0.9346660236 0.351339326
1300292200.0 -0.9289413845 0.364726946
1350291900.0 -0.9235006681 0.3785497101
1400291600.0 -0.9179389791 0.3918433943
1450291300.0 -0.9125000904 0.404052683
1500291000.0 -0.9063774567 0.417392542
1550290700.0 -0.8995433019 0.430714561
1600290400.0 -0.8935082779 0.4436307643
1650290100.0 -0.8867616 0.4559417135
1700289800.0 -0.8799414138 0.4692881079
1750289500.0 -0.8728631144 0.4818516669
1800289200.0 -0.865591058 0.4945584063
1850288900.0 -0.8583983302 0.5056533857
1900288600.0 -0.8509832496 0.5188265855
1950288300.0 -0.8427714206 0.5314695968
2000288000.0 -0.8353992419 0.5430076987
2050287700.0 -0.8271188319 0.555393939
2100287400.0 -0.8192388345 0.5668007988
2150287100.0 -0.8107743424 0.5787003521
2200286800.0 -0.8029174295 0.589210259
2250286500.0 -0.7941078699 0.6015422319
2300286200.0 -0.7851578547 0.6130667954
2350285900.0 -0.7766216264 0.6236735878
2400285600.0 -0.7679507831 0.6346855945
2450285300.0 -0.7591847296 0.6451852862
2500285000.0 -0.7492091477 0.6568134751
2550284700.0 -0.7401074046 0.6670334889
2600284400.0 -0.7312091041 0.6768678775
2650284100.0 -0.7222539528 0.6874023154
2700283800.0 -0.7118089745 0.6978672227
2750283500.0 -0.7012590192 0.7085629592
2800283200.0 -0.6917181303 0.7182069015
2850282900.0 -0.6810268797 0.7285089316
2900282600.0 -0.6707966979 0.7378892701
2950282300.0 -0.6602341998 0.7471168135
3000282000.0 -0.649470615 0.7567448132
3050281700.0 -0.6383949586 0.7658578598
3100281400.0 -0.6268363962 0.7751438128
3150281100.0 -0.6154954001 0.7842550507
3200280800.0 -0.603710057 0.7926854558
3250280500.0 -0.592799451 0.8004041275
3300280200.0 -0.5813772641 0.8086491576
3350279900.0 -0.5692796103 0.8163283447
3400279600.0 -0.556983164 0.8244468334
3450279300.0 -0.5457503727 0.8314484492
3500279000.0 -0.5339865111 0.8384335609
3550278700.0 -0.5216642589 0.8455506795
3600278400.0 -0.5098930095 0.8524675429
3650278100.0 -0.496399666 0.8600297498
3700277800.0 -0.4845418685 0.8666557669
3750277500.0 -0.4721125572 0.8733008587
3800277200.0 -0.4597147594 0.8795479054
3850276900.0 -0.4478124826 0.885792308
3900276600.0 -0.4367475368 0.8915239006
3950276300.0 -0.4247440003 0.897225903
4000276000.0 -0.4127080054 0.9033382861
4050275700.0 -0.400072811 0.9094586569
4100275400.0 -0.3889149264 0.9146784333
4150275100.0 -0.3758609212 0.9206384257
4200274800.0 -0.3625429078 0.9260917646
4250274500.0 -0.3502150897 0.9313157168
4300274200.0 -0.3368306247 0.9366939837
4350273900.0 -0.3229751178 0.942251698
4400273600.0 -0.3079752961 0.9471676979
4450273300.0 -0.2930617849 0.9523518526
4500273000.0 -0.2798518756 0.9564362936
4550272700.0 -0.2659302239 0.9607157836
4600272400.0 -0.2508224065 0.9646850837
4650272100.0 -0.239317458 0.9680282043
4700271800.0 -0.226192034 0.9712849918
4750271500.0 -0.2145734373 0.9742404081
4800271200.0 -0.2022544718 0.9769463321
4850270900.0 -0.1885753247 0.9797098736
4900270600.0 -0.1745551597 0.982208149
4950270300.0 -0.1602081467 0.9847993717
5000270000.0 -0.1457342617 0.9869882292
5050269700.0 -0.1322777254 0.9884941586
5100269400.0 -0.1181719628 0.9900181749
5150269100.0 -0.1043079891 0.9917620003
5200268800.0 -0.0913108868 0.9930427754
5250268500.0 -0.0780128337 0.9937890381
5300268200.0 -0.0644584161 0.9946381405
5350267900.0 -0.051854038 0.9953976103
5400267600.0 -0.0357145847 0.9962203514
5450267300.0 -0.0223555546 0.9966433448
5500267000.0 -0.0072343805 0.9970266946
5550266700.0 0.0078011772 0.9972569283
5600266400.0 0.0235167095 0.9971524182
5650266100.0 0.0401881391 0.996945934
5700265800.0 0.0546135828 0.9959443014
5750265500.0 0.0694389368 0.9950666831
5800265200.0 0.0828685751 0.9938490314
5850264900.0 0.0964074803 0.9934372337
5900264600.0 0.1131709113 0.9916255139
5950264300.0 0.1244497935 0.9894895302
6000264000.0 0.137996414 0.9877967913
6050263700.0 0.1503004474 0.9867705342
6100263400.0 0.1624164252 0.9849631651
6150263100.0 0.1771085924 0.9827144519
6200262800.0 0.1869958292 0.9811573013
6250262500.0 0.1995182495 0.9786390447
6300262200.0 0.2117936744 0.9759901512
6350261900.0 0.2246231541 0.9730986909
6400261600.0 0.2388244094 0.9700693078
6450261300.0 0.2499294398 0.9676001887
6500261000.0 0.2629190828 0.9638968955
6550260700.0 0.2761460282 0.9600341442
6600260400.0 0.2893357357 0.9559975287
6650260100.0 0.3037214257 0.951605811
6700259800.0 0.3155400412 0.9471996375
6750259500.0 0.329648573 0.9423601055
6800259200.0 0.3429570052 0.9371432833
6850258900.0 0.3552077868 0.9317794944
6900258600.0 0.3672061314 0.9263649208
6950258300.0 0.3800635958 0.9215046955
7000258000.0 0.3915945567 0.9158548767
7050257700.0 0.4038585207 0.9101830465
7100257400.0 0.4169566433 0.9039438619
7150257100.0 0.4277849955 0.8985686617
7200256800.0 0.4406338377 0.8920183079
7250256500.0 0.4529432414 0.8853927104
7300256200.0 0.4658980409 0.8788957222
7350255900.0 0.4787987796 0.8716702346
7400255600.0 0.4921081453 0.8641949626
7450255300.0 0.5079639615 0.8551348882
7500255000.0 0.5198590041 0.8477206476
7550254700.0 0.5344722605 0.8388175911
7600254400.0 0.5468995189 0.830749692
7650254100.0 0.5581929566 0.8227255252
7700253800.0 0.5701401755 0.8148117835
7750253500.0 0.580951366 0.8070006201
7800253200.0 0.5920262421 0.7992509549
7850252900.0 0.6016295931 0.7922049163
7900252600.0 0.6130921855 0.7834150659
7950252300.0 0.621564715 0.7768706649
8000252000.0 0.6315241282 0.7693617323
8050251700.0 0.6420605596 0.7611271141
8100251400.0 0.651782085 0.7533268699
8150251100.0 0.6621363061 0.744462467
8200250800.0 0.671472168 0.7364057605
8250250500.0 0.6804563541 0.7287038897
8300250200.0 0.6896476463 0.7201986654
8350249900.0 0.6986002048 0.7112317324
8400249600.0 0.7069220613 0.7033092526
8450249300.0 0.7156598146 0.6943781685
8500249000.0 0.7243145351 0.6855833794
8550248700.0 0.732611788 0.6764100181
8600248400.0 0.740830779 0.6671111073
8650248100.0 0.7485852361 0.657617006
8700247800.0 0.7579297166 0.6464362185
8750247500.0 0.7661461924 0.6364200387
8800247200.0 0.7744613435 0.6261688835
8850246900.0 0.7830093301 0.6145714655
8900246600.0 0.7915936037 0.6032260699
8950246300.0 0.8011096904 0.590494772
9000246000.0 0.8097489325 0.5781980918
9050245700.0 0.818359657 0.5658805711
9100245400.0 0.8269399687 0.553560544
9150245100.0 0.8356961239 0.5406297224
9200244800.0 0.845308556 0.5258736086
9250244500.0 0.8544567578 0.5110047376
9300244200.0 0.8626888573 0.4971040928
9350243900.0 0.8704264432 0.483614272
9400243600.0 0.8768596636 0.4716034791
9450243300.0 0.8825684811 0.4607108948
9500243000.0 0.8889076483 0.4489693834
9550242700.0 0.892746143 0.4414547779
9600242400.0 0.8969433665 0.4337538737
9650242100.0 0.9008181208 0.4271467615
9700241800.0 0.9055615858 0.4188360479
9750241500.0 0.9096176799 0.4110310852
9800241200.0 0.9148021643 0.4017669952
9850240900.0 0.9206956959 0.3900883438
9900240600.0 0.9264256948 0.3783050852
9950240300.0 0.9335500479 0.3613678749
10000240000.0 0.9381386337 0.3496297923
10050239700.0 0.9439819906 0.3341623309
10100239400.0 0.9494076346 0.3176015428
10150239100.0 0.9540315296 0.3022994266
10200238800.0 0.9581209655 0.2872475721
10250238500.0 0.9615530199 0.2737532935
10300238200.0 0.9648483695 0.2598006082
10350237900.0 0.9675810565 0.2462656761
10400237600.0 0.9700179649 0.2332627939
10450237300.0 0.9726813023 0.219137845
10500237000.0 0.9749266041 0.2070448278
10550236700.0 0.9773657756 0.1928328874
10600236400.0 0.9794268718 0.1790186283
10650236100.0 0.9818589816 0.1638316468
10700235800.0 0.9837267163 0.1518584805
10750235500.0 0.9855738539 0.1388618618
10800235200.0 0.9878156498 0.1241657245
10850234900.0 0.9897397095 0.109649817
10900234600.0 0.9919232503 0.0948081505
10950234300.0 0.9937298016 0.0812925825
11000234000.0 0.9954771329 0.0660091621
11050233700.0 0.9971857026 0.0493302602
11100233400.0 0.9984543792 0.0317044965
11150233100.0 0.9997766072 0.0151514432
11200232800.0 1.000701221 -0.0008479769
11250232500.0 1.001322125 -0.0185319134
11300232200.0 1.002614216 -0.0367315667
11350231900.0 1.00155496 -0.0520782249
11400231600.0 1.001821434 -0.0674039046
11450231300.0 1.001263265 -0.0837820438
11500231000.0 0.9997908953 -0.0997846269
11550230700.0 0.9981994692 -0.1129652271
11600230400.0 0.9968320272 -0.1252310799
11650230100.0 0.9950319776 -0.1377577477
11700229800.0 0.9926980334 -0.1525494164
11750229500.0 0.9904543506 -0.1663395179
11800229200.0 0.9876394581 -0.1799886488
11850228900.0 0.9839038827 -0.1919710429
11900228600.0 0.9802485365 -0.2012801889
11950228300.0 0.9768140461 -0.2118001979
12000228000.0 0.974260118 -0.2205272297
12050227700.0 0.9704359765 -0.2333580487
12100227400.0 0.9672508553 -0.2440628189
12150227100.0 0.9624357317 -0.260740227
12200226800.0 0.9589359932 -0.2716872873
12250226500.0 0.9540737018 -0.2850398973
12300226200.0 0.9502953336 -0.2965654796
12350225900.0 0.9454733709 -0.3106770856
12400225600.0 0.9412333293 -0.3231924301
12450225300.0 0.9363727501 -0.3353335197
12500225000.0 0.9310774543 -0.3501426354
12550224700.0 0.92549686 -0.3645785347
12600224400.0 0.9207965389 -0.3771123672
12650224100.0 0.914838084 -0.391493746
12700223800.0 0.9096053716 -0.4043328893
12750223500.0 0.9040472215 -0.4176356187
12800223200.0 0.8988378571 -0.4299982679
12850222900.0 0.8935452384 -0.4419107722
12900222600.0 0.8876738436 -0.4546120925
12950222300.0 0.8814458875 -0.4666933888
13000222000.0 0.8757713577 -0.4783572745
13050221700.0 0.8689035143 -0.4916486921
13100221400.0 0.8621722568 -0.5039287479
13150221100.0 0.8553497951 -0.5158548065
13200220800.0 0.8482077119 -0.5268371561
13250220500.0 0.8409872193 -0.5391579548
13300220200.0 0.8336250812 -0.5501056729
13350219900.0 0.8256057074 -0.562057113
13400219600.0 0.8170556839 -0.5738580414
13450219300.0 0.8078354815 -0.5871998594
13500219000.0 0.7980976776 -0.6004227907
13550218700.0 0.787677718 -0.6132415692
13600218400.0 0.778343738 -0.6253949556
13650218100.0 0.7685613571 -0.6356960313
13700217800.0 0.7578436659 -0.6479026026
13750217500.0 0.748384717 -0.658732546
13800217200.0 0.7368770167 -0.669684983
13850216900.0 0.7255244526 -0.68161318
13900216600.0 0.7153118564 -0.6904361592
13950216300.0 0.7056144584 -0.7007348747
14000216000.0 0.6955395937 -0.7094377566
14050215700.0 0.6862076774 -0.7172766931
14100215400.0 0.6764076086 -0.7269675748
14150215100.0 0.6674764758 -0.7355068556
14200214800.0 0.6577795987 -0.7442789143
14250214500.0 0.6474687298 -0.7538398194
14300214200.0 0.636927089 -0.7632906851
14350213900.0 0.6258168126 -0.7726830401
14400213600.0 0.6139615481 -0.7824301041
14450213300.0 0.6008567095 -0.7925056792
14500213000.0 0.5879041347 -0.8026520541
14550212700.0 0.5757668777 -0.8120123344
14600212400.0 0.5632912172 -0.8208664728
14650212100.0 0.5508771478 -0.8296651477
14700211800.0 0.5369475676 -0.8391506301
14750211500.0 0.5244564519 -0.847773911
14800211200.0 0.5120082975 -0.8554416932
14850210900.0 0.4997801694 -0.8631700354
14900210600.0 0.4862459841 -0.8711985072
14950210300.0 0.473031257 -0.8787498276
15000210000.0 0.4602188522 -0.8853946571
15050209700.0 0.4478855793 -0.8916619788
15100209400.0 0.4354190046 -0.8978350184
15150209100.0 0.4234655691 -0.9027604602
15200208800.0 0.4102655223 -0.9083284393
15250208500.0 0.3987904133 -0.9130525259
15300208200.0 0.3864550547 -0.9180208447
15350207900.0 0.3735323916 -0.9228525894
15400207600.0 0.3583177315 -0.9274998558
15450207300.0 0.3446289038 -0.9325863064
15500207000.0 0.3302281313 -0.9374441084
15550206700.0 0.3150278524 -0.9421818085
15600206400.0 0.2986140879 -0.9470217451
15650206100.0 0.2834131556 -0.9510318139
15700205800.0 0.2697130311 -0.9546971984
15750205500.0 0.2558691044 -0.9579863121
15800205200.0 0.2416542655 -0.9614781965
15850204900.0 0.2273119259 -0.9649280469
15900204600.0 0.2121479647 -0.9687307154
15950204300.0 0.1978416404 -0.971536287
16000204000.0 0.1837091531 -0.9744448508
16050203700.0 0.1686858605 -0.9776744091
16100203400.0 0.1542436044 -0.9798551312
16150203100.0 0.1390349063 -0.9820284449
16200202800.0 0.12512009 -0.9842054066
16250202500.0 0.1103672814 -0.9858178002
16300202200.0 0.0946519189 -0.9874899207
16350201900.0 0.0798563215 -0.9892433353
16400201600.0 0.065020574 -0.9899817849
16450201300.0 0.0494301548 -0.9910962155
16500201000.0 0.0323575255 -0.99198342
16550200700.0 0.0166315319 -0.9923948368
16600200400.0 0.0008697997 -0.9927773959
16650200100.0 -0.0150719733 -0.9925784922
16700199800.0 -0.0315323212 -0.9922763878
16750199500.0 -0.0505826869 -0.9919664747
16800199200.0 -0.0662657045 -0.9905329988
16850198900.0 -0.081796282 -0.9897238859
16900198600.0 -0.0957406777 -0.9885293564
16950198300.0 -0.1093155025 -0.9874762014
17000198000.0 -0.122727399 -0.9858958514
17050197700.0 -0.1351456245 -0.9848348908
17100197400.0 -0.1478240332 -0.9822015548
17150197100.0 -0.1605532723 -0.9804956378
17200196800.0 -0.1734874114 -0.9779977342
17250196500.0 -0.1864609645 -0.9755753093
17300196200.0 -0.1987389675 -0.9733092769
17350195900.0 -0.2105022549 -0.9708528326
17400195600.0 -0.2224919852 -0.9684481205
17450195300.0 -0.2355032896 -0.965457052
17500195000.0 -0.2487106625 -0.9621949602
17550194700.0 -0.2626390264 -0.9587183051
17600194400.0 -0.2763437503 -0.9547116688
17650194100.0 -0.2897868359 -0.950731341
17700193800.0 -0.3029719346 -0.9463528787
17750193500.0 -0.3173697876 -0.9420848871
17800193200.0 -0.3314972646 -0.9366424543
17850192900.0 -0.3468384186 -0.9310379859
17900192600.0 -0.3615475346 -0.9252638198
17950192300.0 -0.3769617318 -0.9178437032
18000192000.0 -0.3918359586 -0.9108657401
18050191700.0 -0.4058875142 -0.9027766873
18100191400.0 -0.4199013896 -0.895220119
18150191100.0 -0.4349422036 -0.8872233011
18200190800.0 -0.4518564166 -0.8780056043
18250190500.0 -0.4686772469 -0.8686378582
18300190200.0 -0.4844366338 -0.8598569442
18350189900.0 -0.4992962159 -0.851551286
18400189600.0 -0.513767479 -0.8431602241
18450189300.0 -0.5268934696 -0.8349629361
18500189000.0 -0.5406642884 -0.8268615795
18550188700.0 -0.5532991388 -0.818990255
18600188400.0 -0.5653741206 -0.8126744666
18650188100.0 -0.5763929414 -0.8059076812
18700187800.0 -0.5872939867 -0.7993540105
18750187500.0 -0.597935605 -0.792725282
18800187200.0 -0.608780266 -0.7857107948
18850186900.0 -0.618978547 -0.778955088
18900186600.0 -0.6292654104 -0.7715969023
18950186300.0 -0.6392864226 -0.7639283112
19000186000.0 -0.6469474676 -0.7575464427
19050185700.0 -0.655978971 -0.7507766574
19100185400.0 -0.6658353837 -0.741910887
19150185100.0 -0.6765703735 -0.7332738383
19200184800.0 -0.6851911967 -0.725296474
19250184500.0 -0.6956859633 -0.7162061398
19300184200.0 -0.7071168668 -0.7071287032
19350183900.0 -0.7178099173 -0.6977731358
19400183600.0 -0.7277853692 -0.6868877553
19450183300.0 -0.7367758186 -0.6774139838
19500183000.0 -0.7446499975 -0.6671970512
19550182700.0 -0.7546070377 -0.655698043
19600182400.0 -0.7647054601 -0.6447913483
19650182100.0 -0.775738402 -0.6321939735
19700181800.0 -0.7861211306 -0.6186213118
19750181500.0 -0.7965757664 -0.6046702132
19800181200.0 -0.8067609744 -0.5898413678
19850180900.0 -0.816387779 -0.5745997609
19900180600.0 -0.8241681007 -0.5597397474
19950180300.0 -0.8334229465 -0.5436733925
20000180000.0 -0.8244064039 -0.5464509974
20050179700.0 -0.8326543699 -0.5345025056
20100179400.0 -0.8405586099 -0.5206719544
20150179100.0 -0.8492465608 -0.5087311004
20200178800.0 -0.8569124381 -0.496207138
20250178500.0 -0.8671460869 -0.4838411794
20300178200.0 -0.8763394685 -0.4699399883
20350177900.0 -0.8860126275 -0.4555420798
20400177600.0 -0.8946069674 -0.4416314109
20450177300.0 -0.903133212 -0.4272945619
20500177000.0 -0.910845942 -0.4132461497
20550176700.0 -0.9189921488 -0.3996847817
20600176400.0 -0.9257756249 -0.3869107148
20650176100.0 -0.9327131883 -0.3742966442
20700175800.0 -0.9392306828 -0.3624389977
20750175500.0 -0.9457991912 -0.3515477422
20800175200.0 -0.9500652203 -0.3410006133
20850174900.0 -0.954076256 -0.329533864
20900174600.0 -0.9587014712 -0.3180806318
20950174300.0 -0.9630682397 -0.3070972952
21000174000.0 -0.9664500488 -0.2957749352
21050173700.0 -0.9677579668 -0.2859680111
21100173400.0 -0.9719986476 -0.2748321304
21150173100.0 -0.9756020717 -0.2632684437
21200172800.0 -0.9792150161 -0.2492863724
21250172500.0 -0.9828491519 -0.2357436119
21300172200.0 -0.9861943649 -0.2217451817
21350171900.0 -0.9881430062 -0.2077669633
21400171600.0 -0.98940501 -0.1928733522
21450171300.0 -0.9905877574 -0.1785019614
21500171000.0 -0.9908609683 -0.1634866289
21550170700.0 -0.991077592 -0.1493032709
21600170400.0 -0.9905662328 -0.1329288493
21650170100.0 -0.9910606988 -0.1169223047
21700169800.0 -0.9907130737 -0.102094812
21750169500.0 -0.9904926128 -0.0855961974
21800169200.0 -0.9899758483 -0.0695390224
21850168900.0 -0.9895039322 -0.0531103249
21900168600.0 -0.987806357 -0.0366909785
21950168300.0 -0.9882777597 -0.0207563834
22000168000.0 -0.9867977858 -0.0058214645
22050167700.0 -0.9876241346 0.0084212619
22100167400.0 -0.9879716362 0.0240805146
22150167100.0 -0.9890538703 0.0399995713
22200166800.0 -0.9894534924 0.0566433569
22250166500.0 -0.9895964121 0.073743276
22300166200.0 -0.9875201069 0.0902116091
22350165900.0 -0.987076718 0.1058327405
22400165600.0 -0.9853682887 0.1225422583
22450165300.0 -0.983748044 0.1364898036
22500165000.0 -0.9820705627 0.1514409756
22550164700.0 -0.9809519497 0.1680816852
22600164400.0 -0.9783573504 0.1843842512
22650164100.0 -0.9757342488 0.1996032252
22700163800.0 -0.9735246819 0.214673476
22750163500.0 -0.9701689635 0.2291612926
22800163200.0 -0.9671721173 0.2421293392
22850162900.0 -0.964728351 0.2560050587
22900162600.0 -0.9629703151 0.2698844007
22950162300.0 -0.9615232852 0.2832126887
23000162000.0 -0.9595629313 0.2953764807
23050161700.0 -0.9574930911 0.3087534362
23100161400.0 -0.954640935 0.3218658879
23150161100.0 -0.9517181705 0.3342206899
23200160800.0 -0.9490623559 0.3476733789
23250160500.0 -0.9462939835 0.3592934422
23300160200.0 -0.9434461556 0.3720146315
23350159900.0 -0.9394646213 0.3852744957
23400159600.0 -0.934610423 0.3992615586
23450159300.0 -0.9293807061 0.4128177141
23500159000.0 -0.9251584687 0.4261886533
23550158700.0 -0.9200539251 0.4399202808
23600158400.0 -0.9140853623 0.4535316346
23650158100.0 -0.9074232901 0.4680928235
23700157800.0 -0.8993755348 0.4823464311
23750157500.0 -0.8898807391 0.4963250589
23800157200.0 -0.8802974044 0.5098292741
23850156900.0 -0.8712922904 0.5225547563
23900156600.0 -0.8617456091 0.5348300629
23950156300.0 -0.8518070216 0.5474086227
24000156000.0 -0.8430121988 0.5606121581
24050155700.0 -0.8323389349 0.5725137287
24100155400.0 -0.8216260139 0.5844671265
24150155100.0 -0.8106762597 0.5970728535
24200154800.0 -0.8001209319 0.6087032043
24250154500.0 -0.7888608897 0.6201295167
24300154200.0 -0.7770117751 0.6318796382
24350153900.0 -0.7652613931 0.6430737844
24400153600.0 -0.752839759 0.6533842487
24450153300.0 -0.7408231801 0.6636245886
24500153000.0 -0.7295076881 0.6738644781
24550152700.0 -0.7185739141 0.6836452628
24600152400.0 -0.7060099318 0.6927577636
24650152100.0 -0.6940835402 0.7009045629
