!Created with skrf (http://scikit-rf.org).
# Hz S RI R 50.0 
!freq ReS11 ImS11
300000.0 -0.9974308097 -0.0325542248
50299700.0 -0.9990039127 0.0161747469
100299400.0 -0.9970875807 0.0286783469
150299100.0 -1.001726784 0.0455674064
200298800.0 -0.9986595566 0.0587753747
250298500.0 -0.9963366831 0.0723306732
300298200.0 -0.9848216264 0.0877865942
350297900.0 -0.9927007507 0.0987217729
400297600.0 -0.9918416925 0.1151349529
450297300.0 -0.9895617651 0.1286559113
500297000.0 -0.9880521832 0.1434673262
550296700.0 -0.982679138 0.1557932646
600296400.0 -1.015487647 0.1889353498
650296100.0 -0.9805414622 0.1854300558
700295800.0 -0.977624404 0.1997809136
750295500.0 -0.9745543245 0.2133479715
800295200.0 -0.9713237052 0.2277334958
850294900.0 -0.9679476178 0.2411446978
900294600.0 -0.9642715725 0.2549694523
950294300.0 -0.9604742226 0.2685105781
1000294000.0 -0.9564511265 0.2824347056
1050293700.0 -0.9521466503 0.2961731495
1100293400.0 -0.9480533045 0.3104409444
1150293100.0 -0.9439442295 0.3223598492
1200292800.0 -0.9388213257 0.3367014333
1250292500.0 -0.9334497585 0.3499825849
1300292200.0 -0.9279869604 0.3632286924
1350291900.0 -0.9224550019 0.3773279184
1400291600.0 -0.9171413347 0.3904240132
1450291300.0 -0.9118394999 0.4023902731
1500291000.0 -0.9055117661 0.4160780685
1550290700.0 -0.8991892247 0.4291611927
1600290400.0 -0.8931447421 0.4419605556
1650290100.0 -0.8865441727 0.4542504087
1700289800.0 -0.8797731431 0.4673067391
1750289500.0 -0.8727191558 0.4797956954
1800289200.0 -0.8656097132 0.4927392861
1850288900.0 -0.8588349839 0.5039491114
1900288600.0 -0.8511931033 0.5169838727
1950288300.0 -0.8429528874 0.5295171191
2000288000.0 -0.8357173798 0.5407659084
2050287700.0 -0.8275895788 0.5530951492
2100287400.0 -0.8198502371 0.5645398816
2150287100.0 -0.8112058227 0.5768167963
2200286800.0 -0.8035471367 0.5871790997
2250286500.0 -0.794662785 0.5991724652
2300286200.0 -0.7860382158 0.6107130313
2350285900.0 -0.7774202993 0.6214254841
2400285600.0 -0.7679413271 0.6325031973
2450285300.0 -0.7594806487 0.6433886442
2500285000.0 -0.749828769 0.6542395522
2550284700.0 -0.7409083189 0.6646365011
2600284400.0 -0.7313369718 0.6748916799
2650284100.0 -0.7223069471 0.6854053784
2700283800.0 -0.7119387476 0.6955323888
2750283500.0 -0.7020305971 0.7060606769
2800283200.0 -0.6918957835 0.7156854047
2850282900.0 -0.6815628791 0.7257109119
2900282600.0 -0.6712037772 0.7352959772
2950282300.0 -0.6611709857 0.7443284308
3000282000.0 -0.6502293191 0.7540173919
3050281700.0 -0.6394911333 0.7631882017
3100281400.0 -0.6283287884 0.7720406362
3150281100.0 -0.6171853231 0.7812066481
3200280800.0 -0.6057395009 0.7900957947
3250280500.0 -0.5946007025 0.7980295666
3300280200.0 -0.5831658771 0.8063108736
3350279900.0 -0.5721399624 0.8138744872
3400279600.0 -0.5597003285 0.82194228
3450279300.0 -0.54859101 0.8295005985
3500279000.0 -0.5367250665 0.8368424941
3550278700.0 -0.524689949 0.8441763773
3600278400.0 -0.5132195971 0.8508601864
3650278100.0 -0.4998154966 0.8586858991
3700277800.0 -0.4881621912 0.8654537111
3750277500.0 -0.4761986957 0.8723183184
3800277200.0 -0.4634753151 0.8789468402
3850276900.0 -0.4512864729 0.8851069495
3900276600.0 -0.4399482557 0.8909833875
3950276300.0 -0.4268642841 0.8973641586
4000276000.0 -0.4147969395 0.9030486422
4050275700.0 -0.4016205492 0.9093545874
4100275400.0 -0.3901628572 0.9146359086
4150275100.0 -0.3773827485 0.9201237197
4200274800.0 -0.3636537998 0.9259161129
4250274500.0 -0.3513542979 0.9307000153
4300274200.0 -0.338574436 0.9357595187
4350273900.0 -0.3249484571 0.9408653365
4400273600.0 -0.3111038135 0.9455398996
4450273300.0 -0.2967543765 0.950543829
4500273000.0 -0.283579054 0.9542347689
4550272700.0 -0.2702704483 0.9584959553
4600272400.0 -0.2548689782 0.9627174005
4650272100.0 -0.2426009343 0.9657271734
4700271800.0 -0.2292393854 0.9692596746
4750271500.0 -0.2163636569 0.9722121767
4800271200.0 -0.2032744071 0.9752514407
4850270900.0 -0.18948433 0.9780940472
4900270600.0 -0.176181675 0.9804171162
4950270300.0 -0.1627106821 0.9828598093
5000270000.0 -0.148478386 0.9849553706
5050269700.0 -0.1348924126 0.9866821486
5100269400.0 -0.120912307 0.9884889286
5150269100.0 -0.1071281784 0.9906215321
5200268800.0 -0.0934999282 0.9915920636
5250268500.0 -0.0806241557 0.992476686
5300268200.0 -0.0669135076 0.993808717
5350267900.0 -0.0546913887 0.9941284392
5400267600.0 -0.0386450094 0.9957574964
5450267300.0 -0.0261846309 0.9959565196
5500267000.0 -0.0121169831 0.9964585193
5550266700.0 0.0016478156 0.9963103725
5600266400.0 0.016507267 0.9962489942
5650266100.0 0.0319383581 0.9961673812
5700265800.0 0.0458306757 0.9951617583
5750265500.0 0.06060795 0.9949729603
5800265200.0 0.0738682913 0.9936540004
5850264900.0 0.0874552746 0.99298246
5900264600.0 0.1035239195 0.9913656954
5950264300.0 0.1156877913 0.989728154
6000264000.0 0.129464378 0.9878766743
6050263700.0 0.1422518607 0.9866997645
6100263400.0 0.155609875 0.9845919439
6150263100.0 0.1710603786 0.9820440473
6200262800.0 0.1819791299 0.9802021814
6250262500.0 0.195057911 0.977695207
6300262200.0 0.2079226302 0.9748534798
6350261900.0 0.2208944589 0.9721575758
6400261600.0 0.2354179839 0.9688101804
6450261300.0 0.2469141011 0.9660645587
6500261000.0 0.2600060175 0.9622745637
6550260700.0 0.2727115243 0.9586411305
6600260400.0 0.2862353385 0.9549075172
6650260100.0 0.3000802832 0.9505697096
6700259800.0 0.3118079031 0.9466200601
6750259500.0 0.3254555594 0.9419914277
6800259200.0 0.3388627239 0.9374336701
6850258900.0 0.3510601918 0.9322583123
6900258600.0 0.3634117082 0.9273424596
6950258300.0 0.3763128441 0.9221731771
7000258000.0 0.3884792506 0.9169673467
7050257700.0 0.4002786824 0.9116318741
7100257400.0 0.4139698948 0.9053266669
7150257100.0 0.4245945439 0.9002262993
7200256800.0 0.4376531911 0.8940502799
7250256500.0 0.4489999004 0.8880354206
7300256200.0 0.4618446104 0.8815523176
7350255900.0 0.4738126159 0.8748660446
7400255600.0 0.4855349748 0.8690067888
7450255300.0 0.4999572997 0.860827348
7500255000.0 0.5111591686 0.8539175418
7550254700.0 0.5234594392 0.84637342
7600254400.0 0.535706446 0.8388189394
7650254100.0 0.5469608216 0.831080367
7700253800.0 0.5590161669 0.8234025867
7750253500.0 0.5703800908 0.8159232595
7800253200.0 0.5817500598 0.8075753293
7850252900.0 0.5912574622 0.8007612314
7900252600.0 0.6031154237 0.7916428521
7950252300.0 0.6127537243 0.7846302667
8000252000.0 0.6231674213 0.776503227
8050251700.0 0.6340052787 0.7678795673
8100251400.0 0.6441506388 0.7597061778
8150251100.0 0.6542592455 0.7508060975
8200250800.0 0.6642426406 0.7425558149
8250250500.0 0.67361888 0.7338949219
8300250200.0 0.6833431557 0.7249976642
8350249900.0 0.6930924374 0.7158989426
8400249600.0 0.7020647012 0.7073749719
8450249300.0 0.711444956 0.6977800811
8500249000.0 0.7206123719 0.6883687175
8550248700.0 0.7296431432 0.6785058503
8600248400.0 0.738848327 0.6684669389
8650248100.0 0.7466052905 0.6594408162
8700247800.0 0.7561067641 0.6486715998
8750247500.0 0.7647176321 0.6383011092
8800247200.0 0.772776236 0.6282823763
8850246900.0 0.7815051538 0.6172762133
8900246600.0 0.7899027203 0.6063769233
8950246300.0 0.7986305074 0.5946649002
9000246000.0 0.8069809174 0.5836783492
9050245700.0 0.8150594826 0.5716824486
9100245400.0 0.8231517534 0.5598140185
9150245100.0 0.8315935982 0.5479698038
9200244800.0 0.8395096707 0.5356438503
9250244500.0 0.8481771156 0.5221650828
9300244200.0 0.8556830227 0.5099067762
9350243900.0 0.8631015818 0.4970406088
9400243600.0 0.8702394692 0.4847367469
9450243300.0 0.8762833654 0.4731696893
9500243000.0 0.8833951467 0.4601794513
9550242700.0 0.8890153304 0.4492673634
9600242400.0 0.8944171882 0.4385802435
9650242100.0 0.8992499427 0.4289487338
9700241800.0 0.9046605022 0.4184301385
9750241500.0 0.9097462046 0.4079762386
9800241200.0 0.9147754326 0.3966592224
9850240900.0 0.9199960669 0.3846644346
9900240600.0 0.9247543673 0.3748561194
9950240300.0 0.9306920818 0.360050487
10000240000.0 0.9352103167 0.3480252155
10050239700.0 0.9409744525 0.333920337
10100239400.0 0.9456794353 0.3198637919
10150239100.0 0.9497627079 0.3059787826
10200238800.0 0.9544102509 0.2913947124
10250238500.0 0.9580785543 0.2781192104
10300238200.0 0.9617588146 0.2642541411
10350237900.0 0.9648163951 0.2513848588
10400237600.0 0.9678301431 0.2380525105
10450237300.0 0.971069373 0.2243253777
10500237000.0 0.9736493808 0.2114972311
10550236700.0 0.9763966255 0.1982137214
10600236400.0 0.9788076987 0.184527637
10650236100.0 0.9808757377 0.1694937961
10700235800.0 0.9832301284 0.1569044956
10750235500.0 0.9855464633 0.1441081848
10800235200.0 0.9876722831 0.1299210318
10850234900.0 0.989191636 0.1162237956
10900234600.0 0.9914650479 0.101779387
10950234300.0 0.9925406999 0.0885500438
11000234000.0 0.9939368124 0.0745755194
11050233700.0 0.99521936 0.0602658449
11100233400.0 0.9964517594 0.0445569579
11150233100.0 0.9973580552 0.0296726588
11200232800.0 0.9980209496 0.0155118492
11250232500.0 0.9986767489 0.0004010992
11300232200.0 0.9989311869 -0.0158188365
11350231900.0 0.9991676379 -0.0303804167
11400231600.0 0.9986131272 -0.045570469
11450231300.0 0.9979783407 -0.0592217424
11500231000.0 0.9972638665 -0.0748125284
11550230700.0 0.9959299508 -0.0880776798
11600230400.0 0.9948516477 -0.1021259893
11650230100.0 0.9934160851 -0.1139784487
11700229800.0 0.9915705634 -0.1288624192
11750229500.0 0.9891757768 -0.1431260785
11800229200.0 0.9874180724 -0.1570028632
11850228900.0 0.9844301662 -0.1711488925
11900228600.0 0.981550977 -0.1829529966
11950228300.0 0.9785794853 -0.196067248
12000228000.0 0.975975819 -0.2073570116
12050227700.0 0.9728692072 -0.2201478474
12100227400.0 0.9704370565 -0.2308635887
12150227100.0 0.9652600975 -0.2488951155
12200226800.0 0.9624911912 -0.2601642888
12250226500.0 0.9580113959 -0.2732874947
12300226200.0 0.9543925779 -0.2853974121
12350225900.0 0.9496461472 -0.3011738294
12400225600.0 0.9455390347 -0.3140232825
12450225300.0 0.9414535759 -0.3249888298
12500225000.0 0.936420095 -0.3401143764
12550224700.0 0.9310377988 -0.353504954
12600224400.0 0.9263928835 -0.3658532708
12650224100.0 0.9207297908 -0.3801552367
12700223800.0 0.9155031261 -0.3928124246
12750223500.0 0.9099479522 -0.4057959075
12800223200.0 0.9043031183 -0.4186531332
12850222900.0 0.8989070299 -0.4310415053
12900222600.0 0.8929522547 -0.4428583017
12950222300.0 0.886410969 -0.4562170258
13000222000.0 0.8805892746 -0.4681792682
13050221700.0 0.8734347459 -0.4809680286
13100221400.0 0.8667462009 -0.4929641705
13150221100.0 0.860133102 -0.505350742
13200220800.0 0.8529578704 -0.517484536
13250220500.0 0.8457868834 -0.5292267881
13300220200.0 0.8382029875 -0.5408814831
13350219900.0 0.8300306929 -0.5531591244
13400219600.0 0.8220789995 -0.5646733534
13450219300.0 0.8134213193 -0.5771221612
13500219000.0 0.8043248772 -0.5897349491
13550218700.0 0.7958252758 -0.6014645736
13600218400.0 0.785409699 -0.6135755601
13650218100.0 0.7776313627 -0.6245251626
13700217800.0 0.7665125338 -0.6365919031
13750217500.0 0.7579694908 -0.6474674375
13800217200.0 0.7467080694 -0.6590787655
13850216900.0 0.7363701044 -0.6713991947
13900216600.0 0.7272230199 -0.6808354678
13950216300.0 0.716561876 -0.6913780428
14000216000.0 0.7068881792 -0.7005007129
14050215700.0 0.6974696208 -0.7099762697
14100215400.0 0.6867319766 -0.7196069833
14150215100.0 0.6768671448 -0.7294932727
14200214800.0 0.6673673697 -0.7382188918
14250214500.0 0.6567932225 -0.7480450958
14300214200.0 0.6458735629 -0.757554295
14350213900.0 0.6347630819 -0.7671853941
14400213600.0 0.6240445203 -0.7762863816
14450213300.0 0.6120647316 -0.7857369798
14500213000.0 0.6001853854 -0.7948889008
14550212700.0 0.5886163965 -0.8038243591
14600212400.0 0.5759683249 -0.8123443751
14650212100.0 0.5643058374 -0.8204891004
14700211800.0 0.551145688 -0.8298649656
14750211500.0 0.5388493173 -0.8383944413
14800211200.0 0.5257664516 -0.8461630595
14850210900.0 0.5140240396 -0.8539420135
14900210600.0 0.5011774431 -0.8616591934
14950210300.0 0.4883080204 -0.8694526399
15000210000.0 0.4754270172 -0.8763460446
15050209700.0 0.4627756304 -0.8831415227
15100209400.0 0.4494154258 -0.8899767112
15150209100.0 0.4377537925 -0.8961460456
15200208800.0 0.423761748 -0.9017482235
15250208500.0 0.411508066 -0.9076761067
15300208200.0 0.398179124 -0.9126673203
15350207900.0 0.3855776548 -0.9182050188
15400207600.0 0.3710541365 -0.9240602726
15450207300.0 0.3572858737 -0.9293675225
15500207000.0 0.3430119348 -0.9337038861
15550206700.0 0.3302330553 -0.9389793717
15600206400.0 0.3145081065 -0.9436166465
15650206100.0 0.2995178252 -0.9483336901
15700205800.0 0.2856434821 -0.9524358602
15750205500.0 0.2717189709 -0.9560641668
15800205200.0 0.2575556084 -0.9600602713
15850204900.0 0.2436670343 -0.9635166017
15900204600.0 0.2286610905 -0.9675605492
15950204300.0 0.2146780493 -0.9705062146
16000204000.0 0.2004980101 -0.9737862598
16050203700.0 0.185855622 -0.9766418698
16100203400.0 0.1721931983 -0.9789775157
16150203100.0 0.1569219216 -0.9816041822
16200202800.0 0.1427921657 -0.9839093453
16250202500.0 0.1278886504 -0.9861662057
16300202200.0 0.1127531553 -0.9876113108
16350201900.0 0.0976928221 -0.9894299689
16400201600.0 0.0827378367 -0.9906816414
16450201300.0 0.0681820046 -0.991959765
16500201000.0 0.0520664746 -0.9930911424
16550200700.0 0.0369582379 -0.9937469866
16600200400.0 0.0218167637 -0.9942955947
16650200100.0 0.0059533543 -0.9941672376
16700199800.0 -0.0092845268 -0.9944492166
16750199500.0 -0.025838013 -0.9947575635
16800199200.0 -0.0414127008 -0.9941065081
16850198900.0 -0.0576174772 -0.993083955
16900198600.0 -0.0719561388 -0.9926614773
16950198300.0 -0.0865217348 -0.9909555341
17000198000.0 -0.1000120535 -0.9898539869
17050197700.0 -0.1140566992 -0.988014287
17100197400.0 -0.128503707 -0.9859558311
17150197100.0 -0.1424503095 -0.9837040732
17200196800.0 -0.1556879825 -0.9819596252
17250196500.0 -0.1698393847 -0.9795001082
17300196200.0 -0.1834846078 -0.9770185672
17350195900.0 -0.1964406126 -0.9745080426
17400195600.0 -0.2097207705 -0.9717129006
17450195300.0 -0.2232899525 -0.9688414467
17500195000.0 -0.2368923089 -0.9654511013
17550194700.0 -0.2508678029 -0.9623495701
17600194400.0 -0.2652634971 -0.9581263464
17650194100.0 -0.2792079679 -0.9540844114
17700193800.0 -0.2920752101 -0.9502372778
17750193500.0 -0.3060008965 -0.9463163461
17800193200.0 -0.3198862274 -0.9409268638
17850192900.0 -0.3345473007 -0.93671287
17900192600.0 -0.3485474178 -0.9311088577
17950192300.0 -0.3634788564 -0.9248181302
18000192000.0 -0.3782647373 -0.9184605562
18050191700.0 -0.3920286632 -0.9114507385
18100191400.0 -0.4062603817 -0.9047997013
18150191100.0 -0.4202636146 -0.8978517207
18200190800.0 -0.43564373 -0.8901523462
18250190500.0 -0.4509625247 -0.8824763276
18300190200.0 -0.4658980521 -0.8748876188
18350189900.0 -0.4803218424 -0.8676243494
18400189600.0 -0.4947467912 -0.8598910944
18450189300.0 -0.5080495576 -0.8524611407
18500189000.0 -0.521673967 -0.8437017012
18550188700.0 -0.5345506535 -0.8361433774
18600188400.0 -0.547000301 -0.8282116162
18650188100.0 -0.5595523006 -0.8206712895
18700187800.0 -0.5708871182 -0.8131456253
18750187500.0 -0.5826840642 -0.8055171558
18800187200.0 -0.5941840342 -0.7973751341
18850186900.0 -0.6050678217 -0.7894746086
18900186600.0 -0.6156504134 -0.7815106787
18950186300.0 -0.6269347128 -0.7726473118
19000186000.0 -0.6358743154 -0.765266671
19050185700.0 -0.6462513511 -0.7566836919
19100185400.0 -0.6561087349 -0.7480870602
19150185100.0 -0.6675034237 -0.7386397999
19200184800.0 -0.6763383353 -0.7303732018
19250184500.0 -0.6872842319 -0.7209728069
19300184200.0 -0.6978580057 -0.7106366778
19350183900.0 -0.7076717645 -0.7009224319
19400183600.0 -0.7182325117 -0.6907597163
19450183300.0 -0.7274843363 -0.6808599801
19500183000.0 -0.7360683786 -0.6703060914
19550182700.0 -0.7453041408 -0.6594428482
19600182400.0 -0.7551682755 -0.6482712078
19650182100.0 -0.7652289027 -0.6366125582
19700181800.0 -0.7746804157 -0.6249244782
19750181500.0 -0.7844314181 -0.6123227099
19800181200.0 -0.7940690046 -0.5991430121
19850180900.0 -0.8037257625 -0.5854988068
19900180600.0 -0.8118287318 -0.5730363567
19950180300.0 -0.8214009855 -0.5585868601
20000180000.0 -0.8233649728 -0.5514044373
20050179700.0 -0.8326392884 -0.5394960404
20100179400.0 -0.8407183368 -0.5258617344
20150179100.0 -0.8486563488 -0.5134308383
20200178800.0 -0.8564555658 -0.5014495959
20250178500.0 -0.8652509252 -0.4882994106
20300178200.0 -0.8735483811 -0.4756207217
20350177900.0 -0.880895531 -0.4618788239
20400177600.0 -0.8890191588 -0.4489679319
20450177300.0 -0.8959163553 -0.4349650666
20500177000.0 -0.9031603109 -0.4217103776
20550176700.0 -0.9102508514 -0.408654432
20600176400.0 -0.9165898578 -0.3950001829
20650176100.0 -0.9222398623 -0.3827607051
20700175800.0 -0.928630212 -0.3701364007
20750175500.0 -0.935193417 -0.3573460056
20800175200.0 -0.9400134133 -0.3447739048
20850174900.0 -0.9448244883 -0.3331007134
20900174600.0 -0.9483965673 -0.321055433
20950174300.0 -0.9532876892 -0.3083351943
21000174000.0 -0.9570303443 -0.2961740027
21050173700.0 -0.9598510848 -0.2843645969
21100173400.0 -0.9634747949 -0.2716560652
21150173100.0 -0.9676705879 -0.2580644825
21200172800.0 -0.9707482769 -0.2448169134
21250172500.0 -0.9746192407 -0.2315411309
21300172200.0 -0.9779890377 -0.21753121
21350171900.0 -0.9802724774 -0.2036583918
21400171600.0 -0.9826594722 -0.1894044262
21450171300.0 -0.9844818341 -0.1749223614
21500171000.0 -0.9852982921 -0.1591229124
21550170700.0 -0.9870494398 -0.1445195488
21600170400.0 -0.9892898217 -0.1298401713
21650170100.0 -0.9897445225 -0.1144931034
21700169800.0 -0.9899604355 -0.0997629145
21750169500.0 -0.9892787219 -0.0831068077
21800169200.0 -0.9905722474 -0.0693687056
21850168900.0 -0.9916856107 -0.0538560222
21900168600.0 -0.9914922359 -0.038129184
21950168300.0 -0.9902305541 -0.0223870756
22000168000.0 -0.9897550099 -0.0078758346
22050167700.0 -0.9901951192 0.0065218095
22100167400.0 -0.9896512087 0.0214496035
22150167100.0 -0.9902490959 0.0367357961
22200166800.0 -0.9896637418 0.0514630055
22250166500.0 -0.9888551847 0.0669747588
22300166200.0 -0.9881888396 0.0822283994
22350165900.0 -0.9872483838 0.0979991401
22400165600.0 -0.9848047454 0.1133603749
22450165300.0 -0.9846568534 0.1275605185
22500165000.0 -0.9816240592 0.1412166947
22550164700.0 -0.9805356772 0.156203441
22600164400.0 -0.9786042596 0.1702552231
22650164100.0 -0.9766510341 0.1840937475
22700163800.0 -0.9732399019 0.1987981393
22750163500.0 -0.9711515119 0.2127059288
22800163200.0 -0.9686731624 0.2267163284
22850162900.0 -0.9651269657 0.2395004995
22900162600.0 -0.9630244135 0.2528069009
22950162300.0 -0.960707603 0.2661007637
23000162000.0 -0.9580486165 0.2787900908
23050161700.0 -0.9546347247 0.2915660165
23100161400.0 -0.9515623255 0.3049529876
23150161100.0 -0.9487699316 0.3178920056
23200160800.0 -0.945167697 0.3305116642
23250160500.0 -0.9415335091 0.3429943707
23300160200.0 -0.9384898226 0.3547269016
23350159900.0 -0.9342586415 0.3685511801
23400159600.0 -0.9295463506 0.3803703371
23450159300.0 -0.9246598914 0.3934773153
23500159000.0 -0.9202694342 0.4063605138
23550158700.0 -0.9154572827 0.4188622205
23600158400.0 -0.9097840127 0.4315547483
23650158100.0 -0.9040645555 0.4447249031
23700157800.0 -0.8973559767 0.4577392226
23750157500.0 -0.8899674287 0.4712148334
23800157200.0 -0.8825814395 0.4840744455
23850156900.0 -0.8749779751 0.4963442432
23900156600.0 -0.8666688583 0.5082109109
23950156300.0 -0.8595034261 0.5208083451
24000156000.0 -0.8515487323 0.5325477921
24050155700.0 -0.8416234692 0.5448778827
24100155400.0 -0.8337096218 0.5565026017
24150155100.0 -0.8242578959 0.5685460007
24200154800.0 -0.814995309 0.5796408957
24250154500.0 -0.8061299832 0.5910807121
24300154200.0 -0.7965692696 0.6031543561
24350153900.0 -0.7860352411 0.6141401848
24400153600.0 -0.7756656382 0.6250336731
24450153300.0 -0.7658194085 0.6355883791
24500153000.0 -0.7557093233 0.646091692
24550152700.0 -0.7456852743 0.6561218846
24600152400.0 -0.735630151 0.6663439644
