!Created with skrf (http://scikit-rf.org).
# Hz S RI R 50.0 
!freq ReS11 ImS11
300000.0 -0.9802656508 -0.1060806785
50299700.0 -0.9999451245 0.0161873521
100299400.0 -0.9980015143 0.0291454636
150299100.0 -1.002914444 0.0460720014
200298800.0 -0.9997682866 0.059305176
250298500.0 -0.9973335184 0.0728186769
300298200.0 -0.9861715291 0.0885558482
350297900.0 -0.9941911021 0.0993996375
400297600.0 -0.9932248937 0.1160555987
450297300.0 -0.9911545477 0.1297275394
500297000.0 -0.9893722939 0.1443506148
550296700.0 -0.984354105 0.156839367
600296400.0 -1.01718534 0.190631734
650296100.0 -0.9820301476 0.1868336442
700295800.0 -0.9791695979 0.2012922965
750295500.0 -0.9761232537 0.2153898436
800295200.0 -0.972853331 0.2293564387
850294900.0 -0.9692416977 0.243319235
900294600.0 -0.965575897 0.2571053845
950294300.0 -0.9618691381 0.2709618777
1000294000.0 -0.9579377926 0.2847595794
1050293700.0 -0.953218399 0.2985521287
1100293400.0 -0.9490329466 0.3129844357
1150293100.0 -0.9452215429 0.3248084109
1200292800.0 -0.9399125654 0.3391099275
1250292500.0 -0.9342873331 0.3525309468
1300292200.0 -0.9288369565 0.3658578369
1350291900.0 -0.9230945032 0.3797981295
1400291600.0 -0.9176008691 0.3928946097
1450291300.0 -0.912031972 0.4053005841
1500291000.0 -0.9059928165 0.4186402388
1550290700.0 -0.8992940879 0.4318412453
1600290400.0 -0.8930831665 0.4447693976
1650290100.0 -0.8863335167 0.4569261842
1700289800.0 -0.8795275526 0.4704601252
1750289500.0 -0.8725150055 0.4827053149
1800289200.0 -0.8653649419 0.4954587932
1850288900.0 -0.8582466064 0.5068388645
1900288600.0 -0.8506176617 0.5199414895
1950288300.0 -0.8424483071 0.5324455436
2000288000.0 -0.8350313535 0.543951556
2050287700.0 -0.8265689538 0.5560090177
2100287400.0 -0.8186816937 0.567962571
2150287100.0 -0.8100032942 0.5799767524
2200286800.0 -0.802434277 0.5903779164
2250286500.0 -0.7934286394 0.6024137712
2300286200.0 -0.7845950884 0.6139702307
2350285900.0 -0.7757368086 0.6249731154
2400285600.0 -0.7668176381 0.6360830538
2450285300.0 -0.7580390353 0.646438023
2500285000.0 -0.7484745349 0.6577861169
2550284700.0 -0.7394698175 0.6679894018
2600284400.0 -0.7299208992 0.6779364699
2650284100.0 -0.7209996482 0.6885888767
2700283800.0 -0.7103916047 0.6993322704
2750283500.0 -0.7002452239 0.7096586097
2800283200.0 -0.6903683196 0.7194019356
2850282900.0 -0.6801830145 0.7291865483
2900282600.0 -0.6696482221 0.7386728788
2950282300.0 -0.6595273902 0.7479722807
3000282000.0 -0.6489021523 0.7575865773
3050281700.0 -0.637773576 0.7668876529
3100281400.0 -0.6257334421 0.7760900824
3150281100.0 -0.6140310521 0.7854958822
3200280800.0 -0.6023224827 0.7938960977
3250280500.0 -0.5916642005 0.8014375617
3300280200.0 -0.5804392365 0.8095341368
3350279900.0 -0.5688687817 0.8172434287
3400279600.0 -0.5569506856 0.8245620339
3450279300.0 -0.5458686214 0.831882998
3500279000.0 -0.5337874212 0.8388516815
3550278700.0 -0.5211085148 0.8461694019
3600278400.0 -0.5089049576 0.8532998701
3650278100.0 -0.4956131305 0.8609527917
3700277800.0 -0.4837532745 0.867470728
3750277500.0 -0.4714776192 0.8737998077
3800277200.0 -0.4588412027 0.8803315987
3850276900.0 -0.4467540973 0.8862585608
3900276600.0 -0.4358100555 0.8920242358
3950276300.0 -0.4232815923 0.8979087612
4000276000.0 -0.411295665 0.9042110017
4050275700.0 -0.3982141597 0.9101660887
4100275400.0 -0.3870665567 0.9153758386
4150275100.0 -0.3744183804 0.9211450035
4200274800.0 -0.3614449946 0.9267385821
4250274500.0 -0.3491842972 0.9318017149
4300274200.0 -0.3359101844 0.9372121419
4350273900.0 -0.3223451408 0.9420972355
4400273600.0 -0.307341999 0.9474950234
4450273300.0 -0.291905817 0.9526771259
4500273000.0 -0.2785257585 0.9572510003
4550272700.0 -0.2641332577 0.9613720322
4600272400.0 -0.2487229156 0.9656000036
4650272100.0 -0.2369303806 0.9685528186
4700271800.0 -0.223619997 0.9718426733
4750271500.0 -0.2119483193 0.9746859935
4800271200.0 -0.1994814982 0.9774975031
4850270900.0 -0.1856790503 0.9801876418
4900270600.0 -0.1717233923 0.9827809426
4950270300.0 -0.1575216272 0.9851504069
5000270000.0 -0.1432566037 0.9872352406
5050269700.0 -0.1297528714 0.9890316309
5100269400.0 -0.1162651032 0.9908893331
5150269100.0 -0.1030972244 0.9919349473
5200268800.0 -0.0896660087 0.9931923001
5250268500.0 -0.0767232534 0.9940161372
5300268200.0 -0.0634701689 0.9948829181
5350267900.0 -0.0516520976 0.9952311045
5400267600.0 -0.0353041887 0.9967496435
5450267300.0 -0.0222671244 0.9966939965
5500267000.0 -0.0070407092 0.9970361509
5550266700.0 0.0080575935 0.9971757549
5600266400.0 0.023400331 0.9971744723
5650266100.0 0.0400992145 0.9970373237
5700265800.0 0.0547239512 0.996366228
5750265500.0 0.0698053388 0.9950092681
5800265200.0 0.0836244514 0.994029207
5850264900.0 0.0970989977 0.9931169646
5900264600.0 0.1136430505 0.9914693389
5950264300.0 0.125766833 0.9898163774
6000264000.0 0.1395604456 0.9880760123
6050263700.0 0.1524856748 0.9866143222
6100263400.0 0.1648104012 0.9844896513
6150263100.0 0.1793458399 0.9823205463
6200262800.0 0.1898857041 0.9804406627
6250262500.0 0.2026397216 0.9780306625
6300262200.0 0.2154270436 0.9752266038
6350261900.0 0.2285488954 0.9722664912
6400261600.0 0.2423174681 0.9688251404
6450261300.0 0.2536423568 0.9661355234
6500261000.0 0.2665058062 0.9625694756
6550260700.0 0.2793509505 0.9586577009
6600260400.0 0.2929184502 0.9546664067
6650260100.0 0.3069749431 0.9505984952
6700259800.0 0.3184214255 0.9457147694
6750259500.0 0.3323722784 0.9408819806
6800259200.0 0.3453089718 0.9360313202
6850258900.0 0.3572628191 0.9309402915
6900258600.0 0.3698517561 0.9260602652
6950258300.0 0.3820519317 0.9207769887
7000258000.0 0.3940892025 0.9152546253
7050257700.0 0.4063538382 0.9093155315
7100257400.0 0.4190951918 0.9029534179
7150257100.0 0.4294304821 0.8977880957
7200256800.0 0.4419368593 0.8914585554
7250256500.0 0.4539766301 0.8851742611
7300256200.0 0.4671139504 0.8780415265
7350255900.0 0.479520762 0.8713838985
7400255600.0 0.492441227 0.8642317456
7450255300.0 0.5080573244 0.855118158
7500255000.0 0.5194297837 0.8479949946
7550254700.0 0.5330020521 0.8393738002
7600254400.0 0.5458137868 0.8312852468
7650254100.0 0.5576793473 0.8234559137
7700253800.0 0.5695179696 0.8153864929
7750253500.0 0.5804583899 0.8075696922
7800253200.0 0.5910793648 0.7996436224
7850252900.0 0.6009514053 0.7925482177
7900252600.0 0.6126279875 0.7838295065
7950252300.0 0.6215381755 0.7772159632
8000252000.0 0.6318825247 0.7694032338
8050251700.0 0.6423484847 0.7609228352
8100251400.0 0.6523833743 0.7529203469
8150251100.0 0.6625998239 0.744213825
8200250800.0 0.6719253525 0.7363907807
8250250500.0 0.6807564087 0.728358829
8300250200.0 0.6903435347 0.7198345485
8350249900.0 0.6993201415 0.7110935087
8400249600.0 0.7076178612 0.7028736755
8450249300.0 0.7167948538 0.693780737
8500249000.0 0.7251665922 0.6848759019
8550248700.0 0.7336053117 0.6757855533
8600248400.0 0.7418845223 0.6666630983
8650248100.0 0.749581284 0.6570029318
8700247800.0 0.7591280239 0.6458904308
8750247500.0 0.7673810631 0.6356935376
8800247200.0 0.7755220478 0.6254619174
8850246900.0 0.7841038045 0.614073328
8900246600.0 0.7927062278 0.6027131365
8950246300.0 0.8021335293 0.5896890604
9000246000.0 0.8115572398 0.5770957984
9050245700.0 0.820764509 0.5639212315
9100245400.0 0.8293710876 0.5514785428
9150245100.0 0.8389127531 0.5376465926
9200244800.0 0.8484694113 0.5225530476
9250244500.0 0.8577812639 0.506885126
9300244200.0 0.8662446899 0.492219217
9350243900.0 0.8740214491 0.4782942328
9400243600.0 0.8807879961 0.4657289096
9450243300.0 0.8865220287 0.4539035674
9500243000.0 0.8928833643 0.441719525
9550242700.0 0.8965490041 0.4339058506
9600242400.0 0.9004119461 0.4265107958
9650242100.0 0.90392688 0.4200641612
9700241800.0 0.9086744527 0.4115855009
9750241500.0 0.912757573 0.4037116245
9800241200.0 0.9170830069 0.3949365731
9850240900.0 0.9228236272 0.3832031025
9900240600.0 0.9286357961 0.3712452156
9950240300.0 0.9349938732 0.3554920957
10000240000.0 0.9396595814 0.3437001899
10050239700.0 0.9451828561 0.3287788559
10100239400.0 0.9501982508 0.3132377047
10150239100.0 0.9541476082 0.2985017649
10200238800.0 0.9586065545 0.2839118359
10250238500.0 0.9619133853 0.2704360253
10300238200.0 0.9649263099 0.2562985386
10350237900.0 0.9676644922 0.2434980348
10400237600.0 0.9700978368 0.230383802
10450237300.0 0.9728576919 0.2166871243
10500237000.0 0.9749160153 0.2048118451
10550236700.0 0.9771802578 0.1909411389
10600236400.0 0.9794500795 0.1768371171
10650236100.0 0.9815815374 0.162985352
10700235800.0 0.9837122339 0.1506955147
10750235500.0 0.9859329186 0.1377219117
10800235200.0 0.9879563536 0.1233921683
10850234900.0 0.9897317269 0.108749574
10900234600.0 0.9919639538 0.0942995729
10950234300.0 0.9934279645 0.0810649645
11000234000.0 0.9952198537 0.0658738389
11050233700.0 0.9968998937 0.0497585089
11100233400.0 0.9982707558 0.0323497798
11150233100.0 0.9992768216 0.0161693266
11200232800.0 0.9999395523 0.0009200658
11250232500.0 1.001112257 -0.0161798587
11300232200.0 1.001960314 -0.0338929309
11350231900.0 1.0012759 -0.0493948274
11400231600.0 1.001144087 -0.0648825152
11450231300.0 1.001083488 -0.080431384
11500231000.0 0.9998315593 -0.0970074415
11550230700.0 0.9977152103 -0.1103729751
11600230400.0 0.9963346662 -0.1223956333
11650230100.0 0.9944305893 -0.1344055348
11700229800.0 0.9920238185 -0.1496505862
11750229500.0 0.9903383624 -0.1640462923
11800229200.0 0.9873952549 -0.1778413828
11850228900.0 0.9839093611 -0.1905312693
11900228600.0 0.9806572987 -0.2001305571
11950228300.0 0.9772515104 -0.2108116139
12000228000.0 0.9742659108 -0.2202351006
12050227700.0 0.9709842478 -0.2320723894
12100227400.0 0.9678640855 -0.2436368987
12150227100.0 0.9626638724 -0.2597928721
12200226800.0 0.9589456173 -0.2716413132
12250226500.0 0.9550730212 -0.2835384158
12300226200.0 0.9514222889 -0.2947496513
12350225900.0 0.9459017314 -0.3101163384
12400225600.0 0.9421082205 -0.3221196106
12450225300.0 0.9373048878 -0.3350320345
12500225000.0 0.931988105 -0.3500418332
12550224700.0 0.9265057685 -0.3632053645
12600224400.0 0.9218347841 -0.3761051416
12650224100.0 0.9159141439 -0.3903630805
12700223800.0 0.9106477604 -0.4030635836
12750223500.0 0.9051245795 -0.4161754066
12800223200.0 0.9000342413 -0.4281550514
12850222900.0 0.8944154185 -0.4405704096
12900222600.0 0.8887904648 -0.4524649997
12950222300.0 0.8824308784 -0.4654678581
13000222000.0 0.8765608147 -0.4767866242
13050221700.0 0.8692741968 -0.4901000601
13100221400.0 0.8630907816 -0.5019080864
13150221100.0 0.85589146 -0.5141843502
13200220800.0 0.8488276699 -0.525885152
13250220500.0 0.8417593011 -0.5378565094
13300220200.0 0.8342454747 -0.5490192306
13350219900.0 0.8262344048 -0.5607327414
13400219600.0 0.8177365184 -0.573059103
13450219300.0 0.8082467102 -0.5866393094
13500219000.0 0.7978651818 -0.6006814474
13550218700.0 0.7871947914 -0.6135572514
13600218400.0 0.7765112868 -0.6262476796
13650218100.0 0.7675511135 -0.6375461884
13700217800.0 0.7563208896 -0.649401497
13750217500.0 0.7464886229 -0.6605796394
13800217200.0 0.7352062247 -0.6717779867
13850216900.0 0.7236840817 -0.6841763607
13900216600.0 0.7139219887 -0.6931122582
13950216300.0 0.7032806839 -0.7033881396
14000216000.0 0.6932344193 -0.7121880499
14050215700.0 0.683368941 -0.7205273466
14100215400.0 0.6739307117 -0.7293922372
14150215100.0 0.6648536957 -0.7381021496
14200214800.0 0.6555944957 -0.7465325531
14250214500.0 0.645429731 -0.7557591026
14300214200.0 0.6351691818 -0.765029399
14350213900.0 0.6239164472 -0.7745429531
14400213600.0 0.6123672667 -0.784132628
14450213300.0 0.5995793143 -0.7944679674
14500213000.0 0.5858117355 -0.8038754782
14550212700.0 0.5734682699 -0.8135332904
14600212400.0 0.5614328472 -0.8221647716
14650212100.0 0.5481637981 -0.8308848398
14700211800.0 0.5341354705 -0.8407105589
14750211500.0 0.5224664578 -0.8486055253
14800211200.0 0.510215704 -0.856579815
14850210900.0 0.4978312404 -0.8642105655
14900210600.0 0.484461367 -0.8720202839
14950210300.0 0.4708198404 -0.8796642365
15000210000.0 0.4580381021 -0.8865763109
15050209700.0 0.4454986551 -0.8926685482
15100209400.0 0.4331966911 -0.8985613186
15150209100.0 0.4201040319 -0.9039083811
15200208800.0 0.4068138131 -0.9096251915
15250208500.0 0.3958374709 -0.9144082248
15300208200.0 0.3835274735 -0.9193696284
15350207900.0 0.3703487691 -0.9232301703
15400207600.0 0.3549392578 -0.9286369473
15450207300.0 0.3411347286 -0.9346877669
15500207000.0 0.32661963 -0.938941121
15550206700.0 0.3112969912 -0.9437833315
15600206400.0 0.2953254029 -0.9479797663
15650206100.0 0.2797237997 -0.9522143899
15700205800.0 0.2653625616 -0.9559402094
15750205500.0 0.2509130543 -0.9595755729
15800205200.0 0.2364967507 -0.962885469
15850204900.0 0.2222126181 -0.9663832193
15900204600.0 0.2071855998 -0.9697904287
15950204300.0 0.1931566344 -0.9728077129
16000204000.0 0.1793659992 -0.9756473329
16050203700.0 0.1648168125 -0.9786614685
16100203400.0 0.1501011802 -0.9803818125
16150203100.0 0.1360358284 -0.9826377014
16200202800.0 0.1221435434 -0.9848169517
16250202500.0 0.1076681161 -0.9861194518
16300202200.0 0.0921827893 -0.987674108
16350201900.0 0.0773619385 -0.9891821884
16400201600.0 0.0628516196 -0.9902050492
16450201300.0 0.0476541313 -0.9911851154
16500201000.0 0.0311414855 -0.9920242796
16550200700.0 0.0153899159 -0.9925010011
16600200400.0 -0.000357452 -0.9926233975
16650200100.0 -0.0165871235 -0.9926108908
16700199800.0 -0.0331272667 -0.9925174893
16750199500.0 -0.0516583256 -0.9914702793
16800199200.0 -0.0682363776 -0.9903813008
16850198900.0 -0.082551374 -0.9893108906
16900198600.0 -0.0971087694 -0.9883943929
16950198300.0 -0.1100940806 -0.987528544
17000198000.0 -0.1231924168 -0.985724253
17050197700.0 -0.1357844496 -0.9840938817
17100197400.0 -0.1490569768 -0.9821063096
17150197100.0 -0.1616192896 -0.9798340782
17200196800.0 -0.17451774 -0.9776672709
17250196500.0 -0.1876974986 -0.9752258903
17300196200.0 -0.1997067757 -0.9726685427
17350195900.0 -0.2114624119 -0.9705227994
17400195600.0 -0.2237835749 -0.9680622437
17450195300.0 -0.2367852367 -0.9652753692
17500195000.0 -0.2499938297 -0.9619697214
17550194700.0 -0.2641703917 -0.9580104706
17600194400.0 -0.2783165746 -0.9539486388
17650194100.0 -0.2918100986 -0.9503312969
17700193800.0 -0.3044827379 -0.9458779341
17750193500.0 -0.319106766 -0.9411778297
17800193200.0 -0.3335223988 -0.9361140437
17850192900.0 -0.3480202542 -0.9310549669
17900192600.0 -0.3633551728 -0.9245499824
17950192300.0 -0.3787623028 -0.9175776069
18000192000.0 -0.3936259743 -0.9104421147
18050191700.0 -0.4073661758 -0.9024429924
18100191400.0 -0.4215444224 -0.8947054583
18150191100.0 -0.4363977782 -0.8866368209
18200190800.0 -0.4534163495 -0.8776334963
18250190500.0 -0.4701818053 -0.8680192819
18300190200.0 -0.4857593282 -0.8591569081
18350189900.0 -0.5004308435 -0.8506154369
18400189600.0 -0.5146173358 -0.8425912042
18450189300.0 -0.5283478553 -0.8348217705
18500189000.0 -0.5416518544 -0.826464388
18550188700.0 -0.5541439726 -0.8187834844
18600188400.0 -0.5656312591 -0.8117319809
18650188100.0 -0.5770036499 -0.8053620089
18700187800.0 -0.5878735956 -0.7987153514
18750187500.0 -0.5986578538 -0.7920924122
18800187200.0 -0.6093126062 -0.7846981096
18850186900.0 -0.6197064865 -0.7776885658
18900186600.0 -0.6302717094 -0.7701853637
18950186300.0 -0.640573781 -0.7625043782
19000186000.0 -0.647796094 -0.755801678
19050185700.0 -0.6573859447 -0.7484666901
19100185400.0 -0.6668595907 -0.7402281815
19150185100.0 -0.677395025 -0.7320160801
19200184800.0 -0.6869546175 -0.7232039853
19250184500.0 -0.6974647782 -0.7141626327
19300184200.0 -0.7088501845 -0.705106538
19350183900.0 -0.7196147614 -0.6946814753
19400183600.0 -0.7291495531 -0.68476208
19450183300.0 -0.7381723726 -0.6748870835
19500183000.0 -0.7461775729 -0.6648005094
19550182700.0 -0.7556754227 -0.6538363625
19600182400.0 -0.7657899134 -0.6423036269
19650182100.0 -0.7767339222 -0.6302289127
19700181800.0 -0.7872776855 -0.617488288
19750181500.0 -0.7976811149 -0.6030353764
19800181200.0 -0.8079354523 -0.5883464922
19850180900.0 -0.8177225762 -0.5729785694
19900180600.0 -0.8250534234 -0.558593806
19950180300.0 -0.8342675272 -0.5422793807
20000180000.0 -0.8269694679 -0.5436049027
20050179700.0 -0.8355804506 -0.531480302
20100179400.0 -0.843459121 -0.5178104029
20150179100.0 -0.8522564339 -0.5054958256
20200178800.0 -0.8600783405 -0.4934793877
20250178500.0 -0.8698212455 -0.479204105
20300178200.0 -0.8795894596 -0.4648766256
20350177900.0 -0.8885870534 -0.450011134
20400177600.0 -0.8974491711 -0.4353084253
20450177300.0 -0.9054784027 -0.4209848309
20500177000.0 -0.9133238292 -0.4067718312
20550176700.0 -0.9214863116 -0.3933434855
20600176400.0 -0.9283792093 -0.3799013144
20650176100.0 -0.9350395937 -0.3677100621
20700175800.0 -0.9417017406 -0.3554793415
20750175500.0 -0.9488746428 -0.3444519167
20800175200.0 -0.954054836 -0.3329776138
20850174900.0 -0.9581888985 -0.3206468054
20900174600.0 -0.9627762078 -0.310444053
20950174300.0 -0.9670346818 -0.2984885714
21000174000.0 -0.9709704487 -0.2869618467
21050173700.0 -0.9734865126 -0.2752087889
21100173400.0 -0.9775284933 -0.2625906803
21150173100.0 -0.9818806967 -0.2500643605
21200172800.0 -0.9854215783 -0.2369368829
21250172500.0 -0.9879091836 -0.2231816201
21300172200.0 -0.991214298 -0.2091508909
21350171900.0 -0.9920634656 -0.1941674869
21400171600.0 -0.994221249 -0.1804184496
21450171300.0 -0.9939908853 -0.165464976
21500171000.0 -0.992755747 -0.1507009871
21550170700.0 -0.9927598845 -0.1348165217
21600170400.0 -0.9934998677 -0.1192937023
21650170100.0 -0.9916570194 -0.1051656984
21700169800.0 -0.9895348982 -0.0883735724
21750169500.0 -0.9883685468 -0.0732198848
21800169200.0 -0.9887101395 -0.0562414671
21850168900.0 -0.9873678044 -0.0402702679
21900168600.0 -0.985634718 -0.0239791035
21950168300.0 -0.9837712433 -0.0080434181
22000168000.0 -0.9830835279 0.0062885847
22050167700.0 -0.9826402307 0.0207566058
22100167400.0 -0.982303991 0.0356069579
22150167100.0 -0.982988082 0.0511098873
22200166800.0 -0.9828509541 0.0674205397
22250166500.0 -0.9827238001 0.0843334456
22300166200.0 -0.9818887508 0.1015310204
22350165900.0 -0.9799020741 0.1176373076
22400165600.0 -0.9784113652 0.133332708
22450165300.0 -0.9758034543 0.1482339057
22500165000.0 -0.9748610793 0.1615853978
22550164700.0 -0.9736237667 0.1777079265
22600164400.0 -0.9721333556 0.1924958664
22650164100.0 -0.9690644899 0.2073034257
22700163800.0 -0.9669864683 0.2238752191
22750163500.0 -0.9649067356 0.2380826435
22800163200.0 -0.9620486043 0.2527157623
22850162900.0 -0.9591925434 0.2653990967
22900162600.0 -0.9583675287 0.2789888103
22950162300.0 -0.9568921794 0.291841259
23000162000.0 -0.955772795 0.3036749863
23050161700.0 -0.9538974315 0.316520636
23100161400.0 -0.9518214892 0.3285866481
23150161100.0 -0.9493168748 0.3406605432
23200160800.0 -0.9461970237 0.3535240702
23250160500.0 -0.9439671536 0.36495386
23300160200.0 -0.9411333213 0.3769021874
23350159900.0 -0.9368113965 0.3901686395
23400159600.0 -0.9328345665 0.403285578
23450159300.0 -0.9278823114 0.4155105969
23500159000.0 -0.923521301 0.4289749701
23550158700.0 -0.9185466175 0.4419524731
23600158400.0 -0.9134733603 0.4548795006
23650158100.0 -0.9070560776 0.4688463874
23700157800.0 -0.8993820009 0.4829509527
23750157500.0 -0.8909314593 0.4969204936
23800157200.0 -0.8820931677 0.5097141681
23850156900.0 -0.8730881528 0.5226900147
23900156600.0 -0.8642165379 0.534891458
23950156300.0 -0.854376268 0.5474636272
24000156000.0 -0.8457778701 0.5593983199
24050155700.0 -0.8354088113 0.5709205688
24100155400.0 -0.825253603 0.5828260771
24150155100.0 -0.8145202376 0.5941516455
24200154800.0 -0.8038389072 0.6063888639
24250154500.0 -0.7926302708 0.6179004536
24300154200.0 -0.7803264697 0.6297555716
24350153900.0 -0.7696042456 0.6399442247
24400153600.0 -0.7567115032 0.650437418
24450153300.0 -0.7450312134 0.6601230704
24500153000.0 -0.7338313807 0.6692215851
24550152700.0 -0.7225963622 0.6800267217
24600152400.0 -0.7112863323 0.6893625943
24650152100.0 -0.6985418438 0.6979885545
