!Created with skrf (http://scikit-rf.org).
# Hz S RI R 50.0 
!freq ReS11 ImS11
300000.0 -0.9742617999 -0.1195672469
50299700.0 -0.9998683547 0.0151896702
100299400.0 -0.9981740571 0.0280928684
150299100.0 -1.002775504 0.0449152196
200298800.0 -0.9996527366 0.0582126496
250298500.0 -0.9974209411 0.0718683046
300298200.0 -0.9859725558 0.0875345513
350297900.0 -0.9940617829 0.0985818986
400297600.0 -0.9932009784 0.1151175829
450297300.0 -0.9911801542 0.1287730606
500297000.0 -0.9892983879 0.1434885815
550296700.0 -0.9843110072 0.1561503779
600296400.0 -1.017042531 0.1894136059
650296100.0 -0.9822064052 0.186021229
700295800.0 -0.9791997088 0.2002917531
750295500.0 -0.9765339549 0.214267376
800295200.0 -0.972996088 0.2283571516
850294900.0 -0.969684806 0.2420036303
900294600.0 -0.9656729045 0.2558223665
950294300.0 -0.9621216953 0.2695479162
1000294000.0 -0.9581042519 0.2835945176
1050293700.0 -0.9537278274 0.2973383887
1100293400.0 -0.9493058573 0.3117955048
1150293100.0 -0.9455486427 0.3236835896
1200292800.0 -0.9401888718 0.3380098667
1250292500.0 -0.9349199178 0.3515308278
1300292200.0 -0.9287480865 0.3647265426
1350291900.0 -0.9236171786 0.3788413068
1400291600.0 -0.9178284712 0.3919404471
1450291300.0 -0.9125887448 0.4043086828
1500291000.0 -0.9063920421 0.4177087527
1550290700.0 -0.8997178726 0.4309073799
1600290400.0 -0.893256742 0.4439093988
1650290100.0 -0.8868864187 0.4560856192
1700289800.0 -0.8799297044 0.4694685675
1750289500.0 -0.8727938704 0.4818083558
1800289200.0 -0.8655853174 0.4947282034
1850288900.0 -0.8587482859 0.5059449885
1900288600.0 -0.8509160312 0.5189314293
1950288300.0 -0.8429604593 0.5315448582
2000288000.0 -0.8354366548 0.5428356671
2050287700.0 -0.8273835599 0.5553177569
2100287400.0 -0.819464493 0.5670603411
2150287100.0 -0.8107416615 0.579023271
2200286800.0 -0.8029237433 0.5893187779
2250286500.0 -0.7941376436 0.6012713766
2300286200.0 -0.7852647413 0.6129103694
2350285900.0 -0.7767325343 0.6239847694
2400285600.0 -0.7676432823 0.6350043735
2450285300.0 -0.7592005177 0.645471851
2500285000.0 -0.7493597264 0.6567592557
2550284700.0 -0.7402716841 0.6668956721
2600284400.0 -0.7308774029 0.6769509923
2650284100.0 -0.7221707143 0.6874847521
2700283800.0 -0.7115292263 0.698091054
2750283500.0 -0.7011797311 0.7085466668
2800283200.0 -0.6915185656 0.7185696908
2850282900.0 -0.6812477815 0.7282677992
2900282600.0 -0.670847211 0.7378861733
2950282300.0 -0.6606013602 0.7473124375
3000282000.0 -0.6497129846 0.7567577123
3050281700.0 -0.6386429655 0.7659057047
3100281400.0 -0.626746987 0.7753870517
3150281100.0 -0.6150923895 0.7844583241
3200280800.0 -0.6034562111 0.7930017197
3250280500.0 -0.5926784155 0.8007931381
3300280200.0 -0.5810659703 0.8085340469
3350279900.0 -0.5694580652 0.8163020312
3400279600.0 -0.5575707241 0.8241860272
3450279300.0 -0.5460644675 0.8312969708
3500279000.0 -0.5341637892 0.838209825
3550278700.0 -0.5218690908 0.8455690932
3600278400.0 -0.5097995351 0.8527973552
3650278100.0 -0.4967402238 0.8602893228
3700277800.0 -0.4843902658 0.8666950168
3750277500.0 -0.4722638395 0.8732830893
3800277200.0 -0.4597386133 0.8798110582
3850276900.0 -0.4478429689 0.8857314416
3900276600.0 -0.4369811788 0.8913440346
3950276300.0 -0.4244935648 0.8973800484
4000276000.0 -0.4125102829 0.9035801364
4050275700.0 -0.3997378641 0.9093716929
4100275400.0 -0.38868 0.9147919538
4150275100.0 -0.375677133 0.920783531
4200274800.0 -0.3630668038 0.9262389751
4250274500.0 -0.3505244635 0.9311591916
4300274200.0 -0.3374791937 0.9366688034
4350273900.0 -0.3236497216 0.9420108178
4400273600.0 -0.3087409718 0.9472132045
4450273300.0 -0.2936836734 0.9521460563
4500273000.0 -0.279978141 0.9563243549
4550272700.0 -0.2659482456 0.9609345618
4600272400.0 -0.2504765586 0.9649774803
4650272100.0 -0.2389654782 0.9681821236
4700271800.0 -0.2256170086 0.971423183
4750271500.0 -0.2139007255 0.9743566914
4800271200.0 -0.2013921305 0.9770674258
4850270900.0 -0.1876484002 0.9799182424
4900270600.0 -0.1736184986 0.9823124032
4950270300.0 -0.1593379281 0.9850115749
5000270000.0 -0.1452053795 0.9870919441
5050269700.0 -0.1314232072 0.9885706214
5100269400.0 -0.1177296078 0.9906609295
5150269100.0 -0.1043128794 0.9919983559
5200268800.0 -0.091044639 0.9931957743
5250268500.0 -0.0778541219 0.9939977982
5300268200.0 -0.0645985391 0.9948285807
5350267900.0 -0.0524139519 0.9952782951
5400267600.0 -0.0362000571 0.9962917463
5450267300.0 -0.0229032975 0.9966865171
5500267000.0 -0.0077973549 0.9969729103
5550266700.0 0.0069650287 0.9972535237
5600266400.0 0.0225912775 0.997466416
5650266100.0 0.039350454 0.9971697114
5700265800.0 0.053568225 0.9963241384
5750265500.0 0.0686715351 0.9953472649
5800265200.0 0.0826180328 0.9941787659
5850264900.0 0.0959412822 0.9936484242
5900264600.0 0.1123080763 0.9912930453
5950264300.0 0.1243933205 0.9903284463
6000264000.0 0.1381534324 0.9881178811
6050263700.0 0.1504687834 0.9867110323
6100263400.0 0.1627488867 0.9849453623
6150263100.0 0.1774329688 0.9828279637
6200262800.0 0.1877430655 0.9810159941
6250262500.0 0.2004121531 0.9784093147
6300262200.0 0.2131319094 0.9758784827
6350261900.0 0.2261154088 0.9729141693
6400261600.0 0.239920465 0.9695666403
6450261300.0 0.2511520569 0.9671071889
6500261000.0 0.2641720154 0.9632161312
6550260700.0 0.2772605278 0.9595685632
6600260400.0 0.2905446105 0.9552722765
6650260100.0 0.3044548076 0.9513416509
6700259800.0 0.3168154495 0.9468696845
6750259500.0 0.3305147594 0.9418876582
6800259200.0 0.3433185479 0.9366743582
6850258900.0 0.3557473239 0.931661421
6900258600.0 0.3678847521 0.9268308233
6950258300.0 0.38055586 0.9212347088
7000258000.0 0.3922462138 0.9157479039
7050257700.0 0.4045558138 0.91009118
7100257400.0 0.4174697382 0.9036357494
7150257100.0 0.4278758969 0.8981786033
7200256800.0 0.4408265981 0.8919129186
7250256500.0 0.452698991 0.8855315914
7300256200.0 0.4659964424 0.87865774
7350255900.0 0.4784841284 0.8718892872
7400255600.0 0.4920631345 0.8647481026
7450255300.0 0.5074342349 0.8557538364
7500255000.0 0.518787976 0.8482991308
7550254700.0 0.5327040882 0.8397255707
7600254400.0 0.5454480625 0.8315395744
7650254100.0 0.5571427664 0.8239639101
7700253800.0 0.5687245276 0.815791311
7750253500.0 0.5797718768 0.8079220134
7800253200.0 0.5906471182 0.8003002737
7850252900.0 0.6004713306 0.7932146192
7900252600.0 0.6120498611 0.7844707473
7950252300.0 0.6206364834 0.7779801714
8000252000.0 0.6307544873 0.7703657411
8050251700.0 0.6412556441 0.7621593644
8100251400.0 0.6511645899 0.7540492865
8150251100.0 0.6613326808 0.7452466677
8200250800.0 0.6707617119 0.7373645448
8250250500.0 0.679839437 0.7294758578
8300250200.0 0.6891458051 0.7209960368
8350249900.0 0.6978960027 0.7121364989
8400249600.0 0.7064383649 0.7041306523
8450249300.0 0.7153561041 0.6949794428
8500249000.0 0.7238153675 0.6861797271
8550248700.0 0.7322872027 0.6772409279
8600248400.0 0.7408326486 0.6675573798
8650248100.0 0.7484209493 0.65827327
8700247800.0 0.7579931035 0.6470180189
8750247500.0 0.7662293021 0.6370529356
8800247200.0 0.7741743846 0.6265659462
8850246900.0 0.7831120522 0.6151214617
8900246600.0 0.7917516832 0.6035635872
8950246300.0 0.8013672936 0.5908583465
9000246000.0 0.8103668144 0.5780953153
9050245700.0 0.8194175436 0.5651808184
9100245400.0 0.8278457484 0.5530274738
9150245100.0 0.8371587524 0.5395059962
9200244800.0 0.8467651116 0.5243089859
9250244500.0 0.856083528 0.5090855605
9300244200.0 0.8644451228 0.4949584663
9350243900.0 0.8721363029 0.4811023031
9400243600.0 0.8789804047 0.4688302634
9450243300.0 0.8848278016 0.4574496425
9500243000.0 0.8909152744 0.4453290675
9550242700.0 0.8948226762 0.4377010067
9600242400.0 0.8987223798 0.4303947434
9650242100.0 0.9025332518 0.4237477018
9700241800.0 0.9072908881 0.4153382061
9750241500.0 0.9110224392 0.4078424043
9800241200.0 0.9158517074 0.398773096
9850240900.0 0.9218031583 0.3869124987
9900240600.0 0.9271110484 0.375513237
9950240300.0 0.9341148174 0.3592787354
10000240000.0 0.9389047928 0.3473017174
10050239700.0 0.9445093719 0.3320288856
10100239400.0 0.9497487129 0.3164466696
10150239100.0 0.9539282202 0.3016738922
10200238800.0 0.9581783068 0.2864896476
10250238500.0 0.961485011 0.2731849144
10300238200.0 0.9646378688 0.2591127167
10350237900.0 0.967371732 0.2460085586
10400237600.0 0.9699176931 0.2326253851
10450237300.0 0.9726273696 0.2188366726
10500237000.0 0.9745637952 0.2068207703
10550236700.0 0.9773035671 0.192555748
10600236400.0 0.978888027 0.1791524926
10650236100.0 0.9809552083 0.164375541
10700235800.0 0.9832711389 0.1522969338
10750235500.0 0.9857706469 0.138779515
10800235200.0 0.9877040838 0.1241566085
10850234900.0 0.9896906059 0.1096171959
10900234600.0 0.9916640651 0.0951588789
10950234300.0 0.993650551 0.0817214379
11000234000.0 0.9953904492 0.0666126807
11050233700.0 0.9969671926 0.0503478914
11100233400.0 0.9986463427 0.0328241958
11150233100.0 0.999648249 0.0166114588
11200232800.0 1.000673375 0.000611853
11250232500.0 1.001509242 -0.0152965406
11300232200.0 1.00173088 -0.0327864329
11350231900.0 1.00177224 -0.0490341219
11400231600.0 1.00189963 -0.0654566916
11450231300.0 1.000920344 -0.0791560089
11500231000.0 0.9998975454 -0.0969197463
11550230700.0 0.9989321664 -0.1093025484
11600230400.0 0.9973764458 -0.1225253381
11650230100.0 0.9952388843 -0.1337402209
11700229800.0 0.9933320102 -0.1484641744
11750229500.0 0.9906774352 -0.1626683814
11800229200.0 0.9882089949 -0.1766433868
11850228900.0 0.9844550792 -0.1890437385
11900228600.0 0.9808609861 -0.1983896338
11950228300.0 0.977588304 -0.2091694099
12000228000.0 0.9750850303 -0.2176539476
12050227700.0 0.9710820034 -0.2313480841
12100227400.0 0.967886389 -0.2421341969
12150227100.0 0.9630368563 -0.2588891491
12200226800.0 0.9592156792 -0.2700743792
12250226500.0 0.9550732554 -0.282284274
12300226200.0 0.9512154017 -0.2944598425
12350225900.0 0.9464398644 -0.3082243386
12400225600.0 0.9418730325 -0.3211584974
12450225300.0 0.9375604156 -0.3341459565
12500225000.0 0.9319970193 -0.3492016993
12550224700.0 0.9264640299 -0.3626850563
12600224400.0 0.9216514592 -0.3754599308
12650224100.0 0.91594145 -0.3899438558
12700223800.0 0.9106395282 -0.4026613026
12750223500.0 0.9052256566 -0.4158223426
12800223200.0 0.8998360975 -0.4284147562
12850222900.0 0.8943599133 -0.4407032452
12900222600.0 0.8886346385 -0.4528136111
12950222300.0 0.8824948443 -0.4658862788
13000222000.0 0.8767141515 -0.4770805191
13050221700.0 0.8696153421 -0.4891673199
13100221400.0 0.8631706024 -0.5019617604
13150221100.0 0.8559387215 -0.5141626983
13200220800.0 0.8494877008 -0.5250924355
13250220500.0 0.8422159427 -0.5373637348
13300220200.0 0.8345794197 -0.5480349195
13350219900.0 0.8266339962 -0.5601291184
13400219600.0 0.8184431762 -0.5720577174
13450219300.0 0.8088593131 -0.5856179912
13500219000.0 0.7990875626 -0.5991990962
13550218700.0 0.7885668476 -0.6121903896
13600218400.0 0.77916689 -0.6242508778
13650218100.0 0.769886953 -0.6348752313
13700217800.0 0.7583497845 -0.647602565
13750217500.0 0.7477897945 -0.658529349
13800217200.0 0.7373734441 -0.6709734464
13850216900.0 0.7267080365 -0.6812894132
13900216600.0 0.7161227252 -0.6906726754
13950216300.0 0.7061086785 -0.7007559846
14000216000.0 0.6956651977 -0.7097798306
14050215700.0 0.6859788211 -0.7182935885
14100215400.0 0.6764482314 -0.7274878783
14150215100.0 0.6669922843 -0.7361428696
14200214800.0 0.6577588191 -0.7445811148
14250214500.0 0.6473413217 -0.7540390428
14300214200.0 0.6369427178 -0.763398782
14350213900.0 0.6256921862 -0.7730039024
14400213600.0 0.6142451506 -0.7828396606
14450213300.0 0.6007838705 -0.7934159382
14500213000.0 0.5875608196 -0.8029018041
14550212700.0 0.5755779894 -0.8123929908
14600212400.0 0.5628558085 -0.8213311357
14650212100.0 0.5499995264 -0.8302066852
14700211800.0 0.5358308999 -0.8394290431
14750211500.0 0.5241163153 -0.8475265
14800211200.0 0.5115774715 -0.8557465662
14850210900.0 0.4995062185 -0.8632889841
14900210600.0 0.4862719745 -0.871171936
14950210300.0 0.4726548085 -0.8789177548
15000210000.0 0.4601044211 -0.885620981
15050209700.0 0.4479041104 -0.8915886564
15100209400.0 0.4352032098 -0.8975384899
15150209100.0 0.4229633327 -0.9033076186
15200208800.0 0.4103958667 -0.9079736363
15250208500.0 0.3987646275 -0.9124445143
15300208200.0 0.3859585685 -0.9176769919
15350207900.0 0.3734516729 -0.9219838359
15400207600.0 0.3589998299 -0.9272576722
15450207300.0 0.3446361889 -0.9328240646
15500207000.0 0.3303061589 -0.9369419445
15550206700.0 0.3156138474 -0.942336053
15600206400.0 0.2988895353 -0.9469524658
15650206100.0 0.2837633996 -0.9513471467
15700205800.0 0.2695109295 -0.955097726
15750205500.0 0.255292959 -0.9584834533
15800205200.0 0.2407442856 -0.9617769412
15850204900.0 0.2263150352 -0.9654320671
15900204600.0 0.2112383027 -0.968892583
15950204300.0 0.1971875531 -0.9718873208
16000204000.0 0.1826719994 -0.9749769754
16050203700.0 0.1675832764 -0.9774942443
16100203400.0 0.153754379 -0.9798873347
16150203100.0 0.1391388921 -0.9821174704
16200202800.0 0.1247745865 -0.9842793379
16250202500.0 0.1102134509 -0.9858218256
16300202200.0 0.0943644002 -0.9875540218
16350201900.0 0.0792917118 -0.9892400376
16400201600.0 0.0645786785 -0.9901127318
16450201300.0 0.0493495407 -0.9912020434
16500201000.0 0.0327403135 -0.9921022695
16550200700.0 0.0170172436 -0.9925887129
16600200400.0 0.0011398643 -0.9925071253
16650200100.0 -0.0149963305 -0.9927130597
16700199800.0 -0.0312301149 -0.9922861602
16750199500.0 -0.0499508015 -0.9916097915
16800199200.0 -0.0655918737 -0.990558429
16850198900.0 -0.0808833825 -0.9897023339
16900198600.0 -0.0949044564 -0.9885806809
16950198300.0 -0.1080917381 -0.9872713626
17000198000.0 -0.121165463 -0.9860872634
17050197700.0 -0.1336758403 -0.9842878414
17100197400.0 -0.1464762799 -0.9818978832
17150197100.0 -0.1595110534 -0.9801024471
17200196800.0 -0.1722061318 -0.9780394204
17250196500.0 -0.1851347055 -0.9756605221
17300196200.0 -0.1971845181 -0.9736403178
17350195900.0 -0.2090769508 -0.971269311
17400195600.0 -0.2212338691 -0.968776845
17450195300.0 -0.2343527078 -0.966092842
17500195000.0 -0.2475655232 -0.9625181656
17550194700.0 -0.2614926313 -0.9591218653
17600194400.0 -0.2751839419 -0.9551301064
17650194100.0 -0.2890537026 -0.9509595976
17700193800.0 -0.3019688732 -0.9470879773
17750193500.0 -0.3168930076 -0.9420728284
17800193200.0 -0.3313282221 -0.9368439125
17850192900.0 -0.345920428 -0.9315211544
17900192600.0 -0.3611354734 -0.9255181138
17950192300.0 -0.3769733993 -0.9187296758
18000192000.0 -0.3915815193 -0.9111932463
18050191700.0 -0.4053931343 -0.9031875282
18100191400.0 -0.4196104746 -0.8956326249
18150191100.0 -0.4345761896 -0.8876301712
18200190800.0 -0.4513678149 -0.878560295
18250190500.0 -0.46820602 -0.869048366
18300190200.0 -0.4837713474 -0.8601197883
18350189900.0 -0.4985365959 -0.8517892994
18400189600.0 -0.513494706 -0.8436394016
18450189300.0 -0.526658788 -0.8356161975
18500189000.0 -0.5397307649 -0.8277359479
18550188700.0 -0.5533606893 -0.8194626396
18600188400.0 -0.5646577647 -0.8132342271
18650188100.0 -0.5758115655 -0.8068925156
18700187800.0 -0.5861789565 -0.800203599
18750187500.0 -0.5967800297 -0.7939150568
18800187200.0 -0.6076661845 -0.7868213853
18850186900.0 -0.6177319869 -0.7798807592
18900186600.0 -0.6280764139 -0.7726476207
18950186300.0 -0.6379770573 -0.7652037359
19000186000.0 -0.6453849886 -0.7583751088
19050185700.0 -0.6545673855 -0.7516810214
19100185400.0 -0.6641354954 -0.7433978335
19150185100.0 -0.6742079561 -0.7347791467
19200184800.0 -0.6839174787 -0.7266230669
19250184500.0 -0.6945224971 -0.7174249667
19300184200.0 -0.705280326 -0.7067196127
19350183900.0 -0.7159884246 -0.6978658088
19400183600.0 -0.7255593191 -0.6885427229
19450183300.0 -0.7350454549 -0.6781069701
19500183000.0 -0.7434374133 -0.6679331058
19550182700.0 -0.7531144963 -0.6572211424
19600182400.0 -0.76366082 -0.6452336349
19650182100.0 -0.7742233866 -0.632862666
19700181800.0 -0.7848062078 -0.6199790703
19750181500.0 -0.795531216 -0.6059444312
19800181200.0 -0.8058519865 -0.5909330218
19850180900.0 -0.8156592366 -0.5753666366
19900180600.0 -0.8233569008 -0.5609270502
19950180300.0 -0.8326926714 -0.5446124977
20000180000.0 -0.8248504904 -0.5470439046
20050179700.0 -0.8333147599 -0.5344769518
20100179400.0 -0.8421120378 -0.5201954252
20150179100.0 -0.8499376593 -0.5083268419
20200178800.0 -0.8583634951 -0.4954171369
20250178500.0 -0.8677867146 -0.4821185046
20300178200.0 -0.8777452612 -0.4682148502
20350177900.0 -0.8867480462 -0.4538582973
20400177600.0 -0.8960093762 -0.4392007689
20450177300.0 -0.904122879 -0.4249629379
20500177000.0 -0.9123973229 -0.4109325298
20550176700.0 -0.9202342314 -0.3973988424
20600176400.0 -0.9270891855 -0.3843851333
20650176100.0 -0.9333264053 -0.3720274634
20700175800.0 -0.940124081 -0.3603162949
20750175500.0 -0.9468120772 -0.348677554
20800175200.0 -0.9512007983 -0.3371210113
20850174900.0 -0.9558076647 -0.3269447481
20900174600.0 -0.9615368871 -0.3156895154
20950174300.0 -0.9646593986 -0.3040611235
21000174000.0 -0.968532438 -0.2922378109
21050173700.0 -0.9697971816 -0.2817525937
21100173400.0 -0.9749936914 -0.2703811596
21150173100.0 -0.9781997768 -0.2583244934
21200172800.0 -0.9824980142 -0.2442553737
21250172500.0 -0.9854673299 -0.2309239306
21300172200.0 -0.9883119255 -0.2167374282
21350171900.0 -0.9899612294 -0.2027837134
21400171600.0 -0.9912068823 -0.188277873
21450171300.0 -0.991829221 -0.1739898858
21500171000.0 -0.9923395729 -0.1587637476
21550170700.0 -0.9919384736 -0.1435717861
21600170400.0 -0.9926278645 -0.1282657538
21650170100.0 -0.9911588794 -0.1122063134
21700169800.0 -0.9897823847 -0.0964469687
21750169500.0 -0.9890695786 -0.0808885434
21800169200.0 -0.9890582029 -0.0646133278
21850168900.0 -0.9878653999 -0.0474610507
21900168600.0 -0.986431107 -0.0303190284
21950168300.0 -0.9858008031 -0.0155513611
22000168000.0 -0.9843560036 -8.217e-06
22050167700.0 -0.9846630237 0.0143833817
22100167400.0 -0.9848754236 0.0294213363
22150167100.0 -0.9857136395 0.0450006208
22200166800.0 -0.9862290838 0.0611159291
22250166500.0 -0.985724879 0.0787657226
22300166200.0 -0.9845007876 0.0952426088
22350165900.0 -0.9831433902 0.1114828297
22400165600.0 -0.9820751796 0.1275576056
22450165300.0 -0.980437002 0.1422739925
22500165000.0 -0.9781147618 0.155331279
22550164700.0 -0.9769510769 0.1709704386
22600164400.0 -0.9755497175 0.187231111
22650164100.0 -0.9726012222 0.2015305695
22700163800.0 -0.969972738 0.21835349
22750163500.0 -0.9673886372 0.2329407349
22800163200.0 -0.9650085046 0.2464503253
22850162900.0 -0.9626041364 0.2594005497
22900162600.0 -0.9607100187 0.2731294845
22950162300.0 -0.9595698792 0.286015027
23000162000.0 -0.9583019611 0.2978275554
23050161700.0 -0.9560699896 0.3109147183
23100161400.0 -0.953580495 0.3238909962
23150161100.0 -0.9505293261 0.3359313471
23200160800.0 -0.9471189477 0.347907347
23250160500.0 -0.9455080604 0.3601134147
23300160200.0 -0.942121156 0.3726674574
23350159900.0 -0.9387021542 0.3864614858
23400159600.0 -0.9346912186 0.398819856
23450159300.0 -0.9296044181 0.4127414948
23500159000.0 -0.9247184281 0.4255418022
23550158700.0 -0.9202407509 0.4393089669
23600158400.0 -0.9149659793 0.4525528724
23650158100.0 -0.9082292327 0.4666805448
23700157800.0 -0.9007218515 0.4808277392
23750157500.0 -0.8922422662 0.4947651989
23800157200.0 -0.8827777295 0.5079982269
23850156900.0 -0.8741155356 0.5210281513
23900156600.0 -0.8649327175 0.5334998996
23950156300.0 -0.8547893262 0.5453464427
24000156000.0 -0.8465568437 0.5572194667
24050155700.0 -0.8359260481 0.5695694452
24100155400.0 -0.8264722807 0.5823285655
24150155100.0 -0.8161448776 0.5936894276
24200154800.0 -0.8047867321 0.6049699587
24250154500.0 -0.7935314096 0.6170801021
24300154200.0 -0.7820338102 0.6283659924
24350153900.0 -0.7702797386 0.6389058413
24400153600.0 -0.7581215835 0.6497122875
24450153300.0 -0.745915537 0.6595328941
24500153000.0 -0.734422367 0.6693099338
24550152700.0 -0.7232199371 0.6788235009
24600152400.0 -0.711553081 0.6878678875
24650152100.0 -0.6993575373 0.6961817946
