!Created with skrf (http://scikit-rf.org).
# Hz S RI R 50.0 
!freq ReS11 ImS11
300000.0 -0.978659031 -0.1062215369
50299700.0 -1.000112783 0.0160261164
100299400.0 -0.9980702937 0.0289256827
150299100.0 -1.00288038 0.0457200025
200298800.0 -0.9996819138 0.0590366952
250298500.0 -0.99753428 0.0725253432
300298200.0 -0.9860937995 0.0885585918
350297900.0 -0.9940276405 0.099326943
400297600.0 -0.9931904253 0.1158394884
450297300.0 -0.9911264106 0.1297608006
500297000.0 -0.9894063711 0.144546714
550296700.0 -0.9844039206 0.1570825443
600296400.0 -1.017151243 0.190370724
650296100.0 -0.9821871794 0.1868534
700295800.0 -0.9793553602 0.201096729
750295500.0 -0.9761250291 0.2150379952
800295200.0 -0.9726899864 0.2294305748
850294900.0 -0.9695831664 0.2432006006
900294600.0 -0.96574169 0.2569156283
950294300.0 -0.9618128963 0.2707667912
1000294000.0 -0.957971815 0.2846026211
1050293700.0 -0.9532406917 0.2984873625
1100293400.0 -0.9490359468 0.3126545038
1150293100.0 -0.945240622 0.3246031078
1200292800.0 -0.939833706 0.3390050459
1250292500.0 -0.9344697069 0.3524448176
1300292200.0 -0.9286708925 0.3656167368
1350291900.0 -0.9232737138 0.3797430269
1400291600.0 -0.9176179325 0.3927966685
1450291300.0 -0.9123124361 0.4052569108
1500291000.0 -0.9058813879 0.4184963405
1550290700.0 -0.8994179945 0.431775364
1600290400.0 -0.8932360963 0.444768228
1650290100.0 -0.886458306 0.4568984983
1700289800.0 -0.8796056234 0.4703236811
1750289500.0 -0.8727013548 0.4825916102
1800289200.0 -0.8651349396 0.4953284361
1850288900.0 -0.8583739755 0.5067208562
1900288600.0 -0.8505358716 0.5199400947
1950288300.0 -0.8426141781 0.5324529788
2000288000.0 -0.8350935941 0.5437709972
2050287700.0 -0.8267101574 0.5561156415
2100287400.0 -0.818905271 0.5676587313
2150287100.0 -0.8101920196 0.5799169172
2200286800.0 -0.8025081427 0.5902484564
2250286500.0 -0.7936932002 0.6021889561
2300286200.0 -0.7846980951 0.6138306152
2350285900.0 -0.775917779 0.6249522625
2400285600.0 -0.7670428875 0.6358476764
2450285300.0 -0.7585769591 0.646207377
2500285000.0 -0.7483867305 0.6575096551
2550284700.0 -0.7398089535 0.6676853386
2600284400.0 -0.7300791878 0.6778728975
2650284100.0 -0.7211607721 0.6886312707
2700283800.0 -0.7103878374 0.6988848901
2750283500.0 -0.7002632754 0.7095336305
2800283200.0 -0.6904457222 0.7192743701
2850282900.0 -0.6804032598 0.7290276074
2900282600.0 -0.6701046879 0.7385339216
2950282300.0 -0.6597128275 0.7477650772
3000282000.0 -0.649054702 0.7574323522
3050281700.0 -0.6378563108 0.7666088308
3100281400.0 -0.6260484632 0.7760397977
3150281100.0 -0.6142056788 0.7854050897
3200280800.0 -0.6025409991 0.7938488941
3250280500.0 -0.5917090731 0.8014928503
3300280200.0 -0.5806382117 0.8095191016
3350279900.0 -0.5691256357 0.8168947302
3400279600.0 -0.5569613443 0.8243807045
3450279300.0 -0.5459027553 0.8316044895
3500279000.0 -0.5339037772 0.8387743444
3550278700.0 -0.5214382182 0.8460600001
3600278400.0 -0.5090765191 0.8532113417
3650278100.0 -0.4960198391 0.8610882461
3700277800.0 -0.4838263433 0.8673073603
3750277500.0 -0.4716117173 0.8738805861
3800277200.0 -0.4589915552 0.8802603046
3850276900.0 -0.4467664711 0.8862328363
3900276600.0 -0.4360629569 0.8920780064
3950276300.0 -0.423443603 0.8979235367
4000276000.0 -0.411314084 0.9036767995
4050275700.0 -0.3982501578 0.9101749934
4100275400.0 -0.387374178 0.9155258661
4150275100.0 -0.3745723723 0.921038879
4200274800.0 -0.3616092023 0.9264657737
4250274500.0 -0.3493722975 0.9315842025
4300274200.0 -0.3363382248 0.9371556052
4350273900.0 -0.3227060527 0.9418452668
4400273600.0 -0.3077076896 0.9473289498
4450273300.0 -0.2923100659 0.9526297257
4500273000.0 -0.2786881061 0.9568607941
4550272700.0 -0.2643436999 0.9611909974
4600272400.0 -0.2489854796 0.9653479889
4650272100.0 -0.2372508509 0.9685290648
4700271800.0 -0.2238297272 0.9718234875
4750271500.0 -0.2120827082 0.9748337301
4800271200.0 -0.1996669465 0.9774173175
4850270900.0 -0.1857089476 0.9802518563
4900270600.0 -0.1719653269 0.9825704379
4950270300.0 -0.1576809997 0.9853028438
5000270000.0 -0.1434096877 0.9873066964
5050269700.0 -0.1301555082 0.9891699992
5100269400.0 -0.1165691304 0.9906527251
5150269100.0 -0.103319986 0.9920807982
5200268800.0 -0.0901631851 0.9931341543
5250268500.0 -0.0769963507 0.9940495184
5300268200.0 -0.0639622745 0.9948529437
5350267900.0 -0.0519157159 0.9956566551
5400267600.0 -0.0355472545 0.9964429677
5450267300.0 -0.0223677129 0.9969119958
5500267000.0 -0.0072978526 0.9971570298
5550266700.0 0.007472679 0.9974133893
5600266400.0 0.023287528 0.997259728
5650266100.0 0.0399919479 0.9971025481
5700265800.0 0.0543356926 0.9960012565
5750265500.0 0.069552239 0.9952279233
5800265200.0 0.083504498 0.9939138738
5850264900.0 0.0966438626 0.9929369299
5900264600.0 0.1132996343 0.9912950176
5950264300.0 0.1257546053 0.9898110987
6000264000.0 0.1396923977 0.9879063361
6050263700.0 0.1522839285 0.9864658532
6100263400.0 0.1643500639 0.9847773301
6150263100.0 0.1792426618 0.9822576087
6200262800.0 0.1896026515 0.9806536341
6250262500.0 0.2022959153 0.9779629373
6300262200.0 0.2152283064 0.9753342888
6350261900.0 0.2282280382 0.9722278606
6400261600.0 0.2422449814 0.9689807937
6450261300.0 0.2533201958 0.966082303
6500261000.0 0.2665370806 0.9628018396
6550260700.0 0.2792544145 0.9585975593
6600260400.0 0.2925055983 0.9543776073
6650260100.0 0.3063829389 0.9502240187
6700259800.0 0.3186526414 0.9460998972
6750259500.0 0.3323686574 0.9410911533
6800259200.0 0.3452845785 0.9363510484
6850258900.0 0.3573954105 0.9310604846
6900258600.0 0.369475569 0.9261785572
6950258300.0 0.3820629444 0.9207329035
7000258000.0 0.3940793527 0.9155037291
7050257700.0 0.4062723663 0.9092043678
7100257400.0 0.4190509955 0.9029087951
7150257100.0 0.4292285334 0.8977266204
7200256800.0 0.4420190778 0.8915648594
7250256500.0 0.4538492813 0.8850533247
7300256200.0 0.466644233 0.8782840008
7350255900.0 0.4794844585 0.8716521652
7400255600.0 0.4923364202 0.8641969483
7450255300.0 0.5081287411 0.855242116
7500255000.0 0.5193239586 0.8482898801
7550254700.0 0.5331368242 0.8397495723
7600254400.0 0.5459314329 0.8312107344
7650254100.0 0.5573756459 0.8233642083
7700253800.0 0.5692752482 0.8156433748
7750253500.0 0.5802918407 0.8078327981
7800253200.0 0.5909837054 0.8000217489
7850252900.0 0.600874444 0.7926752684
7900252600.0 0.6125769267 0.7840358553
7950252300.0 0.6214308864 0.7773012317
8000252000.0 0.6316165934 0.7694760604
8050251700.0 0.6423189051 0.7614733319
8100251400.0 0.6522183907 0.753260695
8150251100.0 0.6619514434 0.7445019479
8200250800.0 0.6717518013 0.7365609992
8250250500.0 0.6804347121 0.7286140707
8300250200.0 0.689599208 0.7197239507
8350249900.0 0.6989163939 0.7111029337
8400249600.0 0.7072471107 0.703113667
8450249300.0 0.7163669877 0.6937798319
8500249000.0 0.7250644939 0.6847879674
8550248700.0 0.7333019297 0.6759965843
8600248400.0 0.7417357641 0.6666192371
8650248100.0 0.7495479263 0.657111088
8700247800.0 0.7590121439 0.6459897277
8750247500.0 0.7671034932 0.6358572533
8800247200.0 0.7753674749 0.6256171123
8850246900.0 0.7841063753 0.6142170739
8900246600.0 0.7925601186 0.6028421678
8950246300.0 0.8019624368 0.5900220393
9000246000.0 0.8113615955 0.5770913239
9050245700.0 0.8204198284 0.5644797269
9100245400.0 0.8290355229 0.5518446289
9150245100.0 0.8382357172 0.5380834397
9200244800.0 0.8481939567 0.5226984373
9250244500.0 0.8577334647 0.5071871538
9300244200.0 0.8661078938 0.4924740962
9350243900.0 0.8737893609 0.4786167759
9400243600.0 0.8804862546 0.4660708154
9450243300.0 0.886430016 0.4542940497
9500243000.0 0.8927998099 0.4419936184
9550242700.0 0.8963998694 0.4342764371
9600242400.0 0.9003656625 0.426900446
9650242100.0 0.9037729168 0.4203137559
9700241800.0 0.9084979129 0.4121045194
9750241500.0 0.9123356944 0.4042761828
9800241200.0 0.9170067796 0.3953676395
9850240900.0 0.9225794443 0.3837153331
9900240600.0 0.928132782 0.3719332004
9950240300.0 0.9348430812 0.3559036733
10000240000.0 0.9395555501 0.3442662964
10050239700.0 0.9451913003 0.3287981088
10100239400.0 0.9494796528 0.3137420579
10150239100.0 0.9544441011 0.298703104
10200238800.0 0.9585527477 0.2840419072
10250238500.0 0.9619059894 0.2706544454
10300238200.0 0.9648968835 0.2567551227
10350237900.0 0.9676883628 0.2436825447
10400237600.0 0.9699030729 0.2309411728
10450237300.0 0.9727568188 0.2173671134
10500237000.0 0.9752196516 0.2046151837
10550236700.0 0.9775587516 0.1912433316
10600236400.0 0.9793872965 0.1772178932
10650236100.0 0.9813793691 0.1627285067
10700235800.0 0.9836680192 0.151023806
10750235500.0 0.9855362655 0.1379154844
10800235200.0 0.9879749237 0.1234479103
10850234900.0 0.9895541181 0.1091188812
10900234600.0 0.9916623249 0.0943465917
10950234300.0 0.9936200695 0.0809912412
11000234000.0 0.9952011342 0.0660095751
11050233700.0 0.9970007099 0.0495525488
11100233400.0 0.99846308 0.0322913726
11150233100.0 0.9994384565 0.016107713
11200232800.0 0.9998549892 0.0009698224
11250232500.0 1.000835502 -0.0156756846
11300232200.0 1.000981696 -0.0328907215
11350231900.0 1.001075024 -0.0488822656
11400231600.0 1.001185366 -0.0656822251
11450231300.0 1.000392552 -0.0805053134
11500231000.0 0.9991563218 -0.0968462753
11550230700.0 0.9975456824 -0.1109896753
11600230400.0 0.9969580088 -0.1233798558
11650230100.0 0.9946679943 -0.1345316127
11700229800.0 0.9924773096 -0.1493956094
11750229500.0 0.9904503315 -0.1645236554
11800229200.0 0.9877103098 -0.1778458604
11850228900.0 0.9839254695 -0.1904994719
11900228600.0 0.980418726 -0.2003328349
11950228300.0 0.9772537159 -0.2106251998
12000228000.0 0.9743191842 -0.2198804111
12050227700.0 0.9708305624 -0.2324051589
12100227400.0 0.9671187452 -0.2441856933
12150227100.0 0.9624670024 -0.2600365827
12200226800.0 0.9588338324 -0.2710720045
12250226500.0 0.9549667367 -0.2839575187
12300226200.0 0.951162434 -0.2955963399
12350225900.0 0.9460168958 -0.3096972345
12400225600.0 0.9418863442 -0.3223549272
12450225300.0 0.9377149031 -0.3353044128
12500225000.0 0.9319343539 -0.3497179944
12550224700.0 0.9266036556 -0.3632511525
12600224400.0 0.9218242785 -0.3760390748
12650224100.0 0.9158849533 -0.3902809848
12700223800.0 0.9107497375 -0.4030514023
12750223500.0 0.9051340735 -0.4159836745
12800223200.0 0.9002335578 -0.4281149629
12850222900.0 0.8945033705 -0.4408986806
12900222600.0 0.8887702158 -0.4528403922
12950222300.0 0.8822805093 -0.4655031562
13000222000.0 0.8762284425 -0.4770772125
13050221700.0 0.8697309585 -0.4898560295
13100221400.0 0.8625408256 -0.5020175089
13150221100.0 0.8559757997 -0.5144164034
13200220800.0 0.8490177692 -0.5258783086
13250220500.0 0.8414013553 -0.5383198218
13300220200.0 0.8340610723 -0.5490454004
13350219900.0 0.8260203046 -0.5610227241
13400219600.0 0.817648393 -0.5732321602
13450219300.0 0.8079888235 -0.5868927612
13500219000.0 0.7977934885 -0.6010962087
13550218700.0 0.787722239 -0.6139870827
13600218400.0 0.7774800082 -0.6260663725
13650218100.0 0.7677020578 -0.6369268841
13700217800.0 0.7561133144 -0.6496074194
13750217500.0 0.7467861575 -0.6610634533
13800217200.0 0.7351528245 -0.6729207311
13850216900.0 0.723760117 -0.6839601842
13900216600.0 0.7145645441 -0.6931689453
13950216300.0 0.703001874 -0.703544272
14000216000.0 0.6935159661 -0.7121527926
14050215700.0 0.6841097901 -0.7203571535
14100215400.0 0.6738891928 -0.7295547981
14150215100.0 0.6652732361 -0.737961657
14200214800.0 0.6557437747 -0.746522764
14250214500.0 0.6456074422 -0.7557527297
14300214200.0 0.6353320508 -0.7649685767
14350213900.0 0.6243476354 -0.7744624476
14400213600.0 0.6125277961 -0.7839963208
14450213300.0 0.5990203787 -0.7939362532
14500213000.0 0.5864003855 -0.8035039777
14550212700.0 0.5739823158 -0.8134963051
14600212400.0 0.5615886036 -0.8225011483
14650212100.0 0.5481373387 -0.8308452391
14700211800.0 0.5341845178 -0.8400578926
14750211500.0 0.5225742292 -0.8486054744
14800211200.0 0.5099437854 -0.8564337355
14850210900.0 0.4977103639 -0.8638760573
14900210600.0 0.4843041997 -0.872017625
14950210300.0 0.4709106423 -0.8796325354
15000210000.0 0.4581141683 -0.88637177
15050209700.0 0.4457661446 -0.8927527145
15100209400.0 0.4325574182 -0.8986262243
15150209100.0 0.4205243798 -0.9040237232
15200208800.0 0.4070517018 -0.9096199117
15250208500.0 0.3960736017 -0.9138385481
15300208200.0 0.3836214775 -0.9188708476
15350207900.0 0.3703747324 -0.9236250328
15400207600.0 0.3561126668 -0.9296755617
15450207300.0 0.3408249819 -0.9340958422
15500207000.0 0.3263773554 -0.9388797961
15550206700.0 0.3114423815 -0.9436956772
15600206400.0 0.2958764821 -0.9479850301
15650206100.0 0.2799214588 -0.9524401461
15700205800.0 0.2657225099 -0.956029546
15750205500.0 0.2513977844 -0.9593999034
15800205200.0 0.2368877191 -0.9630575917
15850204900.0 0.2226738415 -0.9662939666
15900204600.0 0.2076486512 -0.9696460448
15950204300.0 0.1938603163 -0.972597668
16000204000.0 0.1799104272 -0.9754311361
16050203700.0 0.1649914367 -0.9782138313
16100203400.0 0.1507012591 -0.9803259407
16150203100.0 0.1366830245 -0.9825837501
16200202800.0 0.1221664286 -0.9849692201
16250202500.0 0.1080061679 -0.9859961216
16300202200.0 0.0923927174 -0.987546373
16350201900.0 0.0776586639 -0.9892279016
16400201600.0 0.0629836774 -0.9902679508
16450201300.0 0.0476352657 -0.9910723411
16500201000.0 0.0312194824 -0.9919604862
16550200700.0 0.0154681209 -0.9923351107
16600200400.0 -0.0001999227 -0.9927035765
16650200100.0 -0.0165599775 -0.9925908481
16700199800.0 -0.0330219951 -0.9920166283
16750199500.0 -0.0521100701 -0.9911704099
16800199200.0 -0.0674945131 -0.9906780688
16850198900.0 -0.0825045817 -0.9890219537
16900198600.0 -0.096706334 -0.9890307063
16950198300.0 -0.1103441694 -0.9872286869
17000198000.0 -0.1232559926 -0.985301811
17050197700.0 -0.1364188836 -0.9837844031
17100197400.0 -0.1487503899 -0.9818533046
17150197100.0 -0.1609953258 -0.9796294579
17200196800.0 -0.1743265714 -0.9776264506
17250196500.0 -0.187335146 -0.9750557743
17300196200.0 -0.1994657271 -0.9727833012
17350195900.0 -0.2113507987 -0.970613421
17400195600.0 -0.2235335266 -0.9680142713
17450195300.0 -0.2367576929 -0.9651597454
17500195000.0 -0.2499784562 -0.9617057511
17550194700.0 -0.2639508349 -0.9583842775
17600194400.0 -0.2779637559 -0.954409418
17650194100.0 -0.2915350266 -0.9501826529
17700193800.0 -0.3044712597 -0.9456920646
17750193500.0 -0.3189077125 -0.9414019671
17800193200.0 -0.3330561591 -0.9362993947
17850192900.0 -0.3477589144 -0.9304024123
17900192600.0 -0.3628775484 -0.9245134026
17950192300.0 -0.3787231101 -0.9173747836
18000192000.0 -0.3932799834 -0.9102281248
18050191700.0 -0.4071924096 -0.9025252248
18100191400.0 -0.4214454758 -0.8948046544
18150191100.0 -0.436259011 -0.8867781255
18200190800.0 -0.453163936 -0.8776010136
18250190500.0 -0.4699809928 -0.8683328461
18300190200.0 -0.4855008654 -0.8594054963
18350189900.0 -0.5006258053 -0.851040508
18400189600.0 -0.5146985782 -0.8428018274
18450189300.0 -0.5282591356 -0.834576395
18500189000.0 -0.5413415599 -0.8266885473
18550188700.0 -0.5540646562 -0.8188417476
18600188400.0 -0.5657566082 -0.812071093
18650188100.0 -0.5768914972 -0.8057855737
18700187800.0 -0.5875695656 -0.7991201964
18750187500.0 -0.5985489015 -0.7923172313
18800187200.0 -0.6091234691 -0.7852135032
18850186900.0 -0.6195664744 -0.777917987
18900186600.0 -0.6298044076 -0.7703968648
18950186300.0 -0.6400942787 -0.7626607703
19000186000.0 -0.6474296049 -0.7561334436
19050185700.0 -0.656862118 -0.7491485309
19100185400.0 -0.6665984768 -0.7405294682
19150185100.0 -0.6771846675 -0.7317798699
19200184800.0 -0.6861059293 -0.7236927213
19250184500.0 -0.6969383075 -0.7136944354
19300184200.0 -0.7082581355 -0.7046201958
19350183900.0 -0.7185487468 -0.6954887754
19400183600.0 -0.7289952277 -0.6852293115
19450183300.0 -0.7378532186 -0.6748118311
19500183000.0 -0.7461948311 -0.6652555951
19550182700.0 -0.7557274479 -0.6540804257
19600182400.0 -0.7658384805 -0.6426174376
19650182100.0 -0.7765484646 -0.6302401791
19700181800.0 -0.7871840847 -0.6169314829
19750181500.0 -0.7975715256 -0.6032147463
19800181200.0 -0.8076157247 -0.5882803553
19850180900.0 -0.8171319343 -0.5728780544
19900180600.0 -0.8249826903 -0.5587882526
19950180300.0 -0.8337976965 -0.5422997741
20000180000.0 -0.8265322585 -0.5443834798
20050179700.0 -0.835641215 -0.5318799391
20100179400.0 -0.8436325217 -0.5183978674
20150179100.0 -0.8523935226 -0.5053162884
20200178800.0 -0.8607142309 -0.4926873551
20250178500.0 -0.8694449292 -0.4795488455
20300178200.0 -0.8792275688 -0.46420942
20350177900.0 -0.8886204782 -0.4502373691
20400177600.0 -0.897354724 -0.4354850715
20450177300.0 -0.905225204 -0.4213178095
20500177000.0 -0.9132609208 -0.4071479697
20550176700.0 -0.9212944203 -0.3937226093
20600176400.0 -0.9282222168 -0.3804552989
20650176100.0 -0.9352097497 -0.3678362723
20700175800.0 -0.9413752793 -0.3559650755
20750175500.0 -0.948545478 -0.3438110812
20800175200.0 -0.9525124715 -0.3333046392
20850174900.0 -0.9580728723 -0.3216954036
20900174600.0 -0.9622283709 -0.3107819295
20950174300.0 -0.9657829851 -0.2988751385
21000174000.0 -0.9701678856 -0.2864561883
21050173700.0 -0.9725475334 -0.2759864057
21100173400.0 -0.9771534148 -0.263875207
21150173100.0 -0.9804030009 -0.2512195625
21200172800.0 -0.9847103299 -0.2377675379
21250172500.0 -0.9884778477 -0.2240596777
21300172200.0 -0.9904317752 -0.2097179601
21350171900.0 -0.9926285081 -0.1953320155
21400171600.0 -0.9937611296 -0.1803797831
21450171300.0 -0.9936915049 -0.166547128
21500171000.0 -0.9944693796 -0.1509877745
21550170700.0 -0.9930120876 -0.1363381126
21600170400.0 -0.992631621 -0.1204347248
21650170100.0 -0.9917021085 -0.1047563723
21700169800.0 -0.9906724123 -0.0892919024
21750169500.0 -0.9892777862 -0.0725744552
21800169200.0 -0.9880311049 -0.0573622826
21850168900.0 -0.9873393341 -0.0404684879
21900168600.0 -0.9852608798 -0.0246664844
21950168300.0 -0.9844975884 -0.0087865968
22000168000.0 -0.9828837906 0.0062238881
22050167700.0 -0.9827420195 0.0194266241
22100167400.0 -0.9825531747 0.0351578449
22150167100.0 -0.9831702676 0.0505191319
22200166800.0 -0.9835353241 0.0667221558
22250166500.0 -0.9833693058 0.0839911053
22300166200.0 -0.9825451464 0.1010787468
22350165900.0 -0.98038716 0.1172656182
22400165600.0 -0.9790179472 0.1329497137
22450165300.0 -0.9769910758 0.1473380713
22500165000.0 -0.974494305 0.1608261136
22550164700.0 -0.9735561354 0.1769968198
22600164400.0 -0.9725806069 0.1921589042
22650164100.0 -0.9701294746 0.2074191704
22700163800.0 -0.9674266092 0.2232877895
22750163500.0 -0.9649661609 0.2386284104
22800163200.0 -0.9622766685 0.251973531
22850162900.0 -0.959863141 0.2654199489
22900162600.0 -0.958244435 0.2787645848
22950162300.0 -0.9571429168 0.291362295
23000162000.0 -0.9563912599 0.3031838272
23050161700.0 -0.9543004982 0.3154755228
23100161400.0 -0.9524212929 0.3282330728
23150161100.0 -0.9490387296 0.3410897446
23200160800.0 -0.9465086193 0.353180872
23250160500.0 -0.9445014171 0.3648956967
23300160200.0 -0.9412394401 0.3763014303
23350159900.0 -0.9376424938 0.3886459368
23400159600.0 -0.9328724591 0.4026292875
23450159300.0 -0.9280830304 0.415432859
23500159000.0 -0.9231647559 0.4286149562
23550158700.0 -0.9185500944 0.4416119443
23600158400.0 -0.9132125283 0.4546339962
23650158100.0 -0.906937301 0.4686833232
23700157800.0 -0.8993935225 0.4824793221
23750157500.0 -0.8909543591 0.4964269156
23800157200.0 -0.8822381573 0.5094743096
23850156900.0 -0.8733453686 0.5223652978
23900156600.0 -0.8637096429 0.5346301963
23950156300.0 -0.8549748786 0.5472430632
24000156000.0 -0.8455120215 0.5592223497
24050155700.0 -0.8351953414 0.5704282168
24100155400.0 -0.8256305892 0.5828599814
24150155100.0 -0.8147784859 0.594778317
24200154800.0 -0.8041843185 0.6057016441
24250154500.0 -0.7925513144 0.6176851601
24300154200.0 -0.7808320982 0.6290505141
24350153900.0 -0.769602428 0.6397971834
24400153600.0 -0.7569416561 0.6500569055
24450153300.0 -0.7452474246 0.6601569333
24500153000.0 -0.733741166 0.66972862
24550152700.0 -0.7224212978 0.6796793074
24600152400.0 -0.7110990662 0.6890016226
24650152100.0 -0.6994157437 0.6976005103
