!Created with skrf (http://scikit-rf.org).
# Hz S RI R 50.0 
!freq ReS11 ImS11
300000.0 -0.9741293661 -0.1196895291
50299700.0 -1.000087513 0.0151781114
100299400.0 -0.9979603893 0.0281739209
150299100.0 -1.002829612 0.0451501253
200298800.0 -0.9996168276 0.0582141063
250298500.0 -0.9974032946 0.0718197785
300298200.0 -0.9860347102 0.0876441503
350297900.0 -0.9940555949 0.0983970278
400297600.0 -0.9931707598 0.1152226353
450297300.0 -0.9911322347 0.1289375322
500297000.0 -0.9895225326 0.1436741368
550296700.0 -0.9844168884 0.1560085915
600296400.0 -1.017337973 0.1893358004
650296100.0 -0.9824791424 0.1861146829
700295800.0 -0.9793652997 0.2004640674
750295500.0 -0.9764768814 0.2142981263
800295200.0 -0.972980987 0.2283813639
850294900.0 -0.9694619165 0.242216953
900294600.0 -0.9659097341 0.2558822225
950294300.0 -0.9619987469 0.2694689543
1000294000.0 -0.9581305709 0.2835369183
1050293700.0 -0.9537094727 0.2975064034
1100293400.0 -0.9493919872 0.3115139522
1150293100.0 -0.945675775 0.3235822518
1200292800.0 -0.9401781338 0.3379937435
1250292500.0 -0.9346663655 0.3514726848
1300292200.0 -0.9290579662 0.3647726773
1350291900.0 -0.9234904217 0.3788396434
1400291600.0 -0.9181524164 0.3919141449
1450291300.0 -0.912552607 0.4043113983
1500291000.0 -0.9063490002 0.4175479791
1550290700.0 -0.8998396653 0.4308651186
1600290400.0 -0.8933979589 0.4440585777
1650290100.0 -0.886785391 0.4559504512
1700289800.0 -0.8798417662 0.4694399087
1750289500.0 -0.8728767807 0.4818572594
1800289200.0 -0.8654108645 0.4944185049
1850288900.0 -0.8585608992 0.5059259334
1900288600.0 -0.850871265 0.5189899725
1950288300.0 -0.8428986794 0.5315504179
2000288000.0 -0.8356133475 0.5429897206
2050287700.0 -0.8270457032 0.5552199846
2100287400.0 -0.8192446158 0.5668670027
2150287100.0 -0.8106545866 0.5789898817
2200286800.0 -0.8028967143 0.589271135
2250286500.0 -0.7941381863 0.60139179
2300286200.0 -0.7851772731 0.6129345619
2350285900.0 -0.7766737021 0.6239811246
2400285600.0 -0.7674901768 0.6349227868
2450285300.0 -0.7589710398 0.6454787522
2500285000.0 -0.7492060829 0.6567480857
2550284700.0 -0.7404316857 0.6670657489
2600284400.0 -0.7309396103 0.6770271758
2650284100.0 -0.7221591945 0.6875430515
2700283800.0 -0.711390245 0.6979812955
2750283500.0 -0.70124913 0.7086201192
2800283200.0 -0.6914309778 0.7187646316
2850282900.0 -0.6811986277 0.728308746
2900282600.0 -0.6706457488 0.7380685324
2950282300.0 -0.6605339077 0.7472172409
3000282000.0 -0.6497773326 0.7566753896
3050281700.0 -0.6384594825 0.7660011161
3100281400.0 -0.6266304465 0.7752622662
3150281100.0 -0.6149948955 0.7844917617
3200280800.0 -0.6033333754 0.7930112023
3250280500.0 -0.5925557699 0.8008602034
3300280200.0 -0.5811922767 0.8086359734
3350279900.0 -0.5697545515 0.8162709939
3400279600.0 -0.5574405715 0.8240974561
3450279300.0 -0.546342054 0.8311958037
3500279000.0 -0.5341813206 0.8383117035
3550278700.0 -0.5217412815 0.8455743309
3600278400.0 -0.5096073661 0.8525093055
3650278100.0 -0.4965623739 0.8604045869
3700277800.0 -0.4845595866 0.8668031328
3750277500.0 -0.4722042836 0.873237686
3800277200.0 -0.4597913829 0.8799426167
3850276900.0 -0.4476918746 0.8856571492
3900276600.0 -0.4368752392 0.8913910195
3950276300.0 -0.4247147534 0.897445478
4000276000.0 -0.4127147378 0.903304062
4050275700.0 -0.3997877723 0.90948566
4100275400.0 -0.3887252775 0.9148924455
4150275100.0 -0.3758208808 0.9205366179
4200274800.0 -0.3625212834 0.9262642376
4250274500.0 -0.3506389284 0.9312914092
4300274200.0 -0.3375355366 0.9368424516
4350273900.0 -0.3236360795 0.9420823649
4400273600.0 -0.3087075721 0.9472387612
4450273300.0 -0.2936355461 0.9521954639
4500273000.0 -0.2799528448 0.9566201107
4550272700.0 -0.2658965838 0.9609443172
4600272400.0 -0.2504922387 0.9651275379
4650272100.0 -0.2388443109 0.9681929599
4700271800.0 -0.2255501539 0.9715989563
4750271500.0 -0.2139636631 0.9744154739
4800271200.0 -0.2013369298 0.9771794482
4850270900.0 -0.18747556 0.9797902032
4900270600.0 -0.1736050769 0.9821796119
4950270300.0 -0.1594051738 0.9849589457
5000270000.0 -0.144992389 0.9868659907
5050269700.0 -0.1315754772 0.9887872571
5100269400.0 -0.1178003435 0.9900998534
5150269100.0 -0.1042802641 0.9914163169
5200268800.0 -0.0912666649 0.9931606755
5250268500.0 -0.0779177587 0.9938489644
5300268200.0 -0.0647613032 0.9946825721
5350267900.0 -0.0524638566 0.9953302881
5400267600.0 -0.036204748 0.9963697084
5450267300.0 -0.0232096139 0.9967040763
5500267000.0 -0.0079514468 0.9972241034
5550266700.0 0.0069765401 0.9973692247
5600266400.0 0.0226180289 0.9970911689
5650266100.0 0.038994356 0.9967148912
5700265800.0 0.0536535944 0.9963586659
5750265500.0 0.0683822454 0.9951847352
5800265200.0 0.0825920971 0.9946227872
5850264900.0 0.0958759334 0.9931762334
5900264600.0 0.1125106413 0.9917888265
5950264300.0 0.1243455794 0.9899476573
6000264000.0 0.1381985502 0.9886228514
6050263700.0 0.150669145 0.9867682884
6100263400.0 0.1626204334 0.9850204762
6150263100.0 0.177681949 0.9830321403
6200262800.0 0.1876194192 0.9808733828
6250262500.0 0.2001914968 0.9786315476
6300262200.0 0.2132013063 0.9758217581
6350261900.0 0.2260951765 0.9730614908
6400261600.0 0.2399622153 0.9696493054
6450261300.0 0.2514446744 0.9671182066
6500261000.0 0.2641186428 0.9633017632
6550260700.0 0.2775216216 0.9595603594
6600260400.0 0.2907356956 0.955452011
6650260100.0 0.3046496839 0.9509266588
6700259800.0 0.3167247922 0.9469073051
6750259500.0 0.3303635954 0.9418468448
6800259200.0 0.3434046663 0.9366184197
6850258900.0 0.3556362645 0.9315205546
6900258600.0 0.3681346414 0.9266912367
6950258300.0 0.380461896 0.9212824286
7000258000.0 0.3925203026 0.91587674
7050257700.0 0.4047066131 0.9098998571
7100257400.0 0.4173540777 0.9036219739
7150257100.0 0.4278576253 0.8983325345
7200256800.0 0.4406157101 0.892019968
7250256500.0 0.4525113588 0.8854816724
7300256200.0 0.4659338625 0.8787843974
7350255900.0 0.4777205421 0.8715911344
7400255600.0 0.4914750556 0.8644609692
7450255300.0 0.5066249023 0.8556311245
7500255000.0 0.5193294568 0.848549068
7550254700.0 0.5325851624 0.8398217579
7600254400.0 0.5452393777 0.8314187819
7650254100.0 0.5566895522 0.8237161665
7700253800.0 0.5686018962 0.8158888385
7750253500.0 0.579921643 0.8080486074
7800253200.0 0.590426924 0.8003264598
7850252900.0 0.600145901 0.7933349953
7900252600.0 0.611909197 0.7845273711
7950252300.0 0.620539323 0.7781190265
8000252000.0 0.6307150234 0.7704758639
8050251700.0 0.6413561357 0.7621842261
8100251400.0 0.6512556885 0.7542427257
8150251100.0 0.6611508596 0.7456074271
8200250800.0 0.6709488807 0.7373336996
8250250500.0 0.6799106228 0.7295874048
8300250200.0 0.6893303202 0.7210499833
8350249900.0 0.6980368752 0.712227392
8400249600.0 0.7062004551 0.7041729026
8450249300.0 0.7153109952 0.6951327809
8500249000.0 0.7237291759 0.6861514974
8550248700.0 0.7321856319 0.6772424587
8600248400.0 0.7406755002 0.6675566281
8650248100.0 0.7485101626 0.6582556793
8700247800.0 0.7579677552 0.6469883801
8750247500.0 0.7661695882 0.6370041762
8800247200.0 0.7745212472 0.626414567
8850246900.0 0.7830459281 0.615041432
8900246600.0 0.791547106 0.6037725441
8950246300.0 0.8011371181 0.5908179227
9000246000.0 0.8105748447 0.5782687828
9050245700.0 0.8194506635 0.5652337498
9100245400.0 0.8278956152 0.5529793905
9150245100.0 0.8376829601 0.5394522591
9200244800.0 0.8469283069 0.5245017691
9250244500.0 0.856227551 0.5089213159
9300244200.0 0.8644570745 0.4945341169
9350243900.0 0.8722363653 0.4808481814
9400243600.0 0.8789884597 0.4686098636
9450243300.0 0.8850060501 0.4569115394
9500243000.0 0.8911708033 0.4451132836
9550242700.0 0.8951048538 0.4374378195
9600242400.0 0.8989455281 0.4299050811
9650242100.0 0.9025384075 0.4236281987
9700241800.0 0.9071490846 0.4151773707
9750241500.0 0.9112593067 0.407812766
9800241200.0 0.9161362712 0.3982040076
9850240900.0 0.9218103905 0.3867153093
9900240600.0 0.9274194011 0.3751709964
9950240300.0 0.9340410077 0.3590303344
10000240000.0 0.9388594656 0.3471010508
10050239700.0 0.9445032864 0.3320750264
10100239400.0 0.9495605339 0.3164156717
10150239100.0 0.9540155348 0.301450985
10200238800.0 0.9581852682 0.2864767007
10250238500.0 0.961381717 0.2730217828
10300238200.0 0.9645760831 0.2591330529
10350237900.0 0.9672915555 0.2457371396
10400237600.0 0.969797822 0.2330779209
10450237300.0 0.9725129952 0.2191137902
10500237000.0 0.9747912617 0.2067490677
10550236700.0 0.9771276193 0.1924842614
10600236400.0 0.9789658806 0.1790921124
10650236100.0 0.9810932704 0.164659209
10700235800.0 0.983258216 0.1523557723
10750235500.0 0.9856685589 0.138615294
10800235200.0 0.9875445583 0.124471714
10850234900.0 0.9895977715 0.1096926201
10900234600.0 0.9918290811 0.0953313343
10950234300.0 0.9934010459 0.0820218034
11000234000.0 0.9952036354 0.0667753115
11050233700.0 0.9970020818 0.0502901752
11100233400.0 0.9983981825 0.0327027599
11150233100.0 0.9995905393 0.0166672724
11200232800.0 1.000302252 0.001224787
11250232500.0 1.001122044 -0.0149237886
11300232200.0 1.001873808 -0.0331357865
11350231900.0 1.001853032 -0.0485546876
11400231600.0 1.001518016 -0.0646866202
11450231300.0 1.001528393 -0.0800528634
11500231000.0 0.9997662595 -0.0961825584
11550230700.0 0.9981153865 -0.1093884197
11600230400.0 0.9975731984 -0.1219355937
11650230100.0 0.9949745127 -0.133305559
11700229800.0 0.993282815 -0.1481283524
11750229500.0 0.9908098478 -0.1625675086
11800229200.0 0.988424803 -0.1760460142
11850228900.0 0.9844649355 -0.1884781138
11900228600.0 0.9812089996 -0.1979356319
11950228300.0 0.9780829602 -0.2080652133
12000228000.0 0.9753944986 -0.21739475
12050227700.0 0.9710470029 -0.2306625684
12100227400.0 0.9677286857 -0.2420284356
12150227100.0 0.9631036793 -0.2582149432
12200226800.0 0.9595193573 -0.2697173291
12250226500.0 0.9556130151 -0.2820600545
12300226200.0 0.9517776108 -0.2944619739
12350225900.0 0.9460944853 -0.3076242348
12400225600.0 0.9424195502 -0.3210195746
12450225300.0 0.9378594878 -0.3335628974
12500225000.0 0.932290176 -0.348751643
12550224700.0 0.9267646145 -0.3625057484
12600224400.0 0.9218520636 -0.3751848864
12650224100.0 0.9161497966 -0.3897358899
12700223800.0 0.9108660541 -0.4024020935
12750223500.0 0.9052975612 -0.4154261925
12800223200.0 0.8999212435 -0.4280934178
12850222900.0 0.8949338781 -0.4401358088
12900222600.0 0.8887900077 -0.4524316204
12950222300.0 0.8828393398 -0.4656255933
13000222000.0 0.8770511733 -0.4767565058
13050221700.0 0.8704914375 -0.4890775364
13100221400.0 0.8634074496 -0.5015269834
13150221100.0 0.8565911838 -0.5134322543
13200220800.0 0.8494688513 -0.5247791659
13250220500.0 0.8424921319 -0.5371615948
13300220200.0 0.8350416253 -0.5479813878
13350219900.0 0.8270656631 -0.5598333864
13400219600.0 0.8187340619 -0.5718583693
13450219300.0 0.8092876883 -0.5851495472
13500219000.0 0.7988435089 -0.5995875382
13550218700.0 0.7889121393 -0.6123190716
13600218400.0 0.7790906901 -0.6241290804
13650218100.0 0.7693114461 -0.6348365745
13700217800.0 0.7586424745 -0.6472253105
13750217500.0 0.748866678 -0.658069264
13800217200.0 0.7364849521 -0.6700661938
13850216900.0 0.7270219961 -0.681090189
13900216600.0 0.71623163 -0.6905976941
13950216300.0 0.7053014709 -0.7013933703
14000216000.0 0.6961645476 -0.7099491689
14050215700.0 0.6862457246 -0.7184694188
14100215400.0 0.6760460547 -0.7277489778
14150215100.0 0.6672730644 -0.7362620576
14200214800.0 0.6578334139 -0.7447748994
14250214500.0 0.6475071025 -0.7540511799
14300214200.0 0.6370130459 -0.7634222762
14350213900.0 0.6258567252 -0.7730616329
14400213600.0 0.6138307032 -0.7828247675
14450213300.0 0.600784128 -0.7928538009
14500213000.0 0.5880773799 -0.8027832962
14550212700.0 0.5751639587 -0.8124673741
14600212400.0 0.5625146779 -0.8212985102
14650212100.0 0.5499761883 -0.8296976897
14700211800.0 0.5364610659 -0.8394322766
14750211500.0 0.52364506 -0.8476084106
14800211200.0 0.5115140113 -0.8559307821
14850210900.0 0.4997160258 -0.8634115187
14900210600.0 0.4863821828 -0.8712278419
14950210300.0 0.4729609874 -0.8786636925
15000210000.0 0.4602988308 -0.8855382536
15050209700.0 0.4479575221 -0.8917013722
15100209400.0 0.4356035543 -0.8980492051
15150209100.0 0.4230049661 -0.9028556612
15200208800.0 0.4103983214 -0.9084600698
15250208500.0 0.3992026647 -0.9130551343
15300208200.0 0.3857898059 -0.9188727799
15350207900.0 0.3732425358 -0.922263734
15400207600.0 0.3590624051 -0.927628996
15450207300.0 0.345214716 -0.9329799392
15500207000.0 0.3305677243 -0.9373024585
15550206700.0 0.3153477627 -0.94278298
15600206400.0 0.2998760593 -0.9468882337
15650206100.0 0.2835082898 -0.9510096789
15700205800.0 0.2696195905 -0.9548893246
15750205500.0 0.2550290648 -0.9586952856
15800205200.0 0.240689882 -0.9619376349
15850204900.0 0.2261456918 -0.9654177049
15900204600.0 0.2113244316 -0.9691107067
15950204300.0 0.1971459938 -0.9720901462
16000204000.0 0.1828659693 -0.9750387899
16050203700.0 0.1679255548 -0.9776211148
16100203400.0 0.1538210693 -0.9800244047
16150203100.0 0.1391501147 -0.9821314165
16200202800.0 0.1247993524 -0.9846282082
16250202500.0 0.1098039645 -0.9862283324
16300202200.0 0.0944673924 -0.987534671
16350201900.0 0.0793289235 -0.9893786305
16400201600.0 0.0646243964 -0.9903793562
16450201300.0 0.0495776682 -0.9913256723
16500201000.0 0.0326181507 -0.9921364994
16550200700.0 0.0170194986 -0.9925251081
16600200400.0 0.001265339 -0.9928401338
16650200100.0 -0.0148242756 -0.992924614
16700199800.0 -0.0308743726 -0.9925318884
16750199500.0 -0.0494580313 -0.9916761656
16800199200.0 -0.0651351186 -0.9909408851
16850198900.0 -0.0809688678 -0.9895387561
16900198600.0 -0.0941505985 -0.9890558831
16950198300.0 -0.1078011946 -0.9872195718
17000198000.0 -0.1210296621 -0.9865336265
17050197700.0 -0.1334718333 -0.9842951089
17100197400.0 -0.1458221671 -0.9824267308
17150197100.0 -0.1585925831 -0.9803098077
17200196800.0 -0.1719935058 -0.9781576531
17250196500.0 -0.1847422311 -0.9760741172
17300196200.0 -0.1965616506 -0.9737487434
17350195900.0 -0.2086246894 -0.9712496026
17400195600.0 -0.2208964409 -0.96871407
17450195300.0 -0.2339362255 -0.9660466642
17500195000.0 -0.2476320253 -0.9626874033
17550194700.0 -0.2614254141 -0.9590516113
17600194400.0 -0.2752939747 -0.9551440155
17650194100.0 -0.2887773398 -0.9508955533
17700193800.0 -0.30200809 -0.9467950644
17750193500.0 -0.3168927766 -0.9418523837
17800193200.0 -0.3306334298 -0.9366238998
17850192900.0 -0.345621916 -0.9314415119
17900192600.0 -0.3610067912 -0.9256151757
17950192300.0 -0.3766492192 -0.9186715595
18000192000.0 -0.3915202054 -0.9110830162
18050191700.0 -0.4052683888 -0.903247795
18100191400.0 -0.4195485229 -0.8955236369
18150191100.0 -0.4345196473 -0.8877034084
18200190800.0 -0.4514912295 -0.878743571
18250190500.0 -0.4682550416 -0.8692335119
18300190200.0 -0.4839362946 -0.8603844017
18350189900.0 -0.4989141853 -0.8520654673
18400189600.0 -0.5132840468 -0.8439734532
18450189300.0 -0.526890921 -0.8357146953
18500189000.0 -0.5398087211 -0.8278621368
18550188700.0 -0.5522618602 -0.8202048425
18600188400.0 -0.5645411298 -0.8131960092
18650188100.0 -0.5755632964 -0.8068899157
18700187800.0 -0.5861185186 -0.8006899292
18750187500.0 -0.5967167792 -0.7937148336
18800187200.0 -0.6075058342 -0.7870784143
18850186900.0 -0.6175946841 -0.7801577692
18900186600.0 -0.6277961158 -0.7728369363
18950186300.0 -0.6378874636 -0.764994261
19000186000.0 -0.644978466 -0.7585789228
19050185700.0 -0.6542531654 -0.7517638932
19100185400.0 -0.6641402582 -0.7437821108
19150185100.0 -0.6743894218 -0.7348975524
19200184800.0 -0.6834334973 -0.7270231593
19250184500.0 -0.6939764289 -0.7179721762
19300184200.0 -0.7049633736 -0.7080377331
19350183900.0 -0.716170244 -0.6984878761
19400183600.0 -0.7259217633 -0.6885927556
19450183300.0 -0.734637619 -0.6783154509
19500183000.0 -0.7432148666 -0.6682455368
19550182700.0 -0.7524027256 -0.657200587
19600182400.0 -0.7628828924 -0.6458018764
19650182100.0 -0.7738736544 -0.6334665101
19700181800.0 -0.7847398844 -0.6201626297
19750181500.0 -0.7953167813 -0.6057960202
19800181200.0 -0.8056932826 -0.5909405695
19850180900.0 -0.8153868211 -0.5754728267
19900180600.0 -0.8233783262 -0.560994419
19950180300.0 -0.832599095 -0.5449621942
20000180000.0 -0.8251871408 -0.5469818429
20050179700.0 -0.8333703557 -0.5338706026
20100179400.0 -0.8415201963 -0.5202499428
20150179100.0 -0.8498893833 -0.5080363848
20200178800.0 -0.8593073145 -0.4957080763
20250178500.0 -0.8683335952 -0.4824183747
20300178200.0 -0.8777237934 -0.4671705747
20350177900.0 -0.8869775417 -0.4529306044
20400177600.0 -0.895904176 -0.4389800481
20450177300.0 -0.9043787466 -0.4245998181
20500177000.0 -0.9124693835 -0.410702491
20550176700.0 -0.9202255931 -0.3968203288
20600176400.0 -0.9272185597 -0.3840574818
20650176100.0 -0.9337217736 -0.3712942627
20700175800.0 -0.9403142511 -0.3598256856
20750175500.0 -0.9471343154 -0.3481732183
20800175200.0 -0.9525558467 -0.3378379068
20850174900.0 -0.9568372761 -0.3258090188
20900174600.0 -0.9609607801 -0.3153006196
20950174300.0 -0.9650394494 -0.30349855
21000174000.0 -0.9679635448 -0.2918593302
21050173700.0 -0.9709989908 -0.2823177301
21100173400.0 -0.9746921878 -0.2697718632
21150173100.0 -0.9789401422 -0.2576557918
21200172800.0 -0.9819220666 -0.2437732109
21250172500.0 -0.985527727 -0.2302482681
21300172200.0 -0.9883020015 -0.2163440889
21350171900.0 -0.9900498993 -0.2022586956
21400171600.0 -0.9919280396 -0.1877097046
21450171300.0 -0.9920566314 -0.1730916516
21500171000.0 -0.9916121726 -0.1578943896
21550170700.0 -0.9914353167 -0.1427803201
21600170400.0 -0.9915615768 -0.1280712664
21650170100.0 -0.9922697453 -0.1112715922
21700169800.0 -0.9898835533 -0.0960909054
21750169500.0 -0.9898797021 -0.0799719091
21800169200.0 -0.9884112788 -0.063576422
21850168900.0 -0.9869053275 -0.0464071158
21900168600.0 -0.9863558147 -0.0307513397
21950168300.0 -0.985242879 -0.0140831323
22000168000.0 -0.9844146696 0.0004137807
22050167700.0 -0.9842981965 0.0146676927
22100167400.0 -0.9844460868 0.0301653547
22150167100.0 -0.9853620036 0.0454806718
22200166800.0 -0.9853599174 0.0619895687
22250166500.0 -0.9853781237 0.0791349916
22300166200.0 -0.9843159744 0.0964362558
22350165900.0 -0.9835623778 0.1127752931
22400165600.0 -0.9815736261 0.1273914092
22450165300.0 -0.978800924 0.1431733981
22500165000.0 -0.9784981428 0.1565337785
22550164700.0 -0.976331973 0.1727319828
22600164400.0 -0.9736726555 0.1877706029
22650164100.0 -0.9728390106 0.2028927452
22700163800.0 -0.970623548 0.2187379224
22750163500.0 -0.9675054595 0.2337996875
22800163200.0 -0.9642577138 0.247302618
22850162900.0 -0.9622163856 0.2605265231
22900162600.0 -0.9603634574 0.2737839059
22950162300.0 -0.9593884962 0.2869085146
23000162000.0 -0.9580458655 0.2986553824
23050161700.0 -0.956089494 0.3110588353
23100161400.0 -0.9537353657 0.3241167808
23150161100.0 -0.9506711728 0.3366919362
23200160800.0 -0.9482542733 0.3491245568
23250160500.0 -0.9453419442 0.3601006925
23300160200.0 -0.9429365994 0.3732755285
23350159900.0 -0.9385058122 0.3858735825
23400159600.0 -0.934174641 0.3989856447
23450159300.0 -0.9294606502 0.4129283604
23500159000.0 -0.9244689235 0.4255410269
23550158700.0 -0.9202642823 0.438813733
23600158400.0 -0.9146718379 0.4525087251
23650158100.0 -0.9083451169 0.4669128999
23700157800.0 -0.9004917071 0.4807041711
23750157500.0 -0.8918201557 0.4948375784
23800157200.0 -0.8827400464 0.5080021966
23850156900.0 -0.8742980814 0.5211935602
23900156600.0 -0.8645460391 0.5332040285
23950156300.0 -0.8563117713 0.5456787733
24000156000.0 -0.8462847507 0.5578436623
24050155700.0 -0.8352216466 0.570152229
24100155400.0 -0.8270316281 0.5820697724
24150155100.0 -0.8158501342 0.5932603159
24200154800.0 -0.8054081935 0.604982254
24250154500.0 -0.7937272451 0.6171220262
24300154200.0 -0.7820757532 0.6287011232
24350153900.0 -0.7700356308 0.6392579232
24400153600.0 -0.7579280665 0.6493808636
24450153300.0 -0.7463698298 0.6596075966
24500153000.0 -0.7348986836 0.6690984094
24550152700.0 -0.7236001783 0.679117508
24600152400.0 -0.7119319696 0.6881083776
24650152100.0 -0.7002472048 0.6960237326
