!Created with skrf (http://scikit-rf.org).
# Hz S RI R 50.0 
!freq ReS11 ImS11
300000.0 -0.9725041612 -0.1234946046
50299700.0 -0.9999876564 0.0151132041
100299400.0 -0.9979470868 0.0278300737
150299100.0 -1.002684372 0.0447453979
200298800.0 -0.9995265981 0.0581289571
250298500.0 -0.9973078876 0.0715391244
300298200.0 -0.9858071001 0.0874031344
350297900.0 -0.9939732359 0.0983555979
400297600.0 -0.9931777926 0.1148975685
450297300.0 -0.9907761531 0.1287435408
500297000.0 -0.9893610837 0.1432677367
550296700.0 -0.9842209553 0.15576592
600296400.0 -1.017245049 0.189043095
650296100.0 -0.98210013 0.1856170722
700295800.0 -0.9793462187 0.1998559742
750295500.0 -0.9762008054 0.2139865731
800295200.0 -0.9728717379 0.2280886846
850294900.0 -0.9694890904 0.2417816137
900294600.0 -0.9656792392 0.2556416914
950294300.0 -0.9622016039 0.2692571347
1000294000.0 -0.9581588161 0.2832787046
1050293700.0 -0.9534232408 0.297045294
1100293400.0 -0.9494126047 0.3115099352
1150293100.0 -0.9454848668 0.3233346083
1200292800.0 -0.9403539478 0.3375901311
1250292500.0 -0.934738832 0.351235736
1300292200.0 -0.9289192153 0.3644530168
1350291900.0 -0.9235247305 0.3783785903
1400291600.0 -0.9178037087 0.3913830231
1450291300.0 -0.912563061 0.4039421738
1500291000.0 -0.9062542668 0.417198176
1550290700.0 -0.8996981963 0.4305721159
1600290400.0 -0.8933138484 0.4435431944
1650290100.0 -0.8867514881 0.4556747868
1700289800.0 -0.8799012193 0.4692110019
1750289500.0 -0.8729238232 0.481459604
1800289200.0 -0.8655339526 0.4944625209
1850288900.0 -0.858760242 0.5057314368
1900288600.0 -0.8508763808 0.5187975894
1950288300.0 -0.8428768815 0.5313615815
2000288000.0 -0.835397012 0.5426759782
2050287700.0 -0.8272286839 0.5553406971
2100287400.0 -0.8193505627 0.5664922835
2150287100.0 -0.8106901617 0.5784116057
2200286800.0 -0.803111069 0.5891943223
2250286500.0 -0.7940029059 0.6014914839
2300286200.0 -0.7852021871 0.612892494
2350285900.0 -0.7767069646 0.6234797225
2400285600.0 -0.767804813 0.6345096648
2450285300.0 -0.7591520344 0.6451354619
2500285000.0 -0.7490460166 0.6566855057
2550284700.0 -0.7399226145 0.6671447645
2600284400.0 -0.7308070501 0.6766496518
2650284100.0 -0.7223106037 0.687039529
2700283800.0 -0.712038043 0.6974274859
2750283500.0 -0.7014500904 0.7080092371
2800283200.0 -0.691528572 0.7178638012
2850282900.0 -0.6811746414 0.7284250455
2900282600.0 -0.6706977145 0.7377933591
2950282300.0 -0.6602753558 0.7472692241
3000282000.0 -0.6494869929 0.7565580558
3050281700.0 -0.6383721714 0.7659084727
3100281400.0 -0.6268664477 0.774935235
3150281100.0 -0.6157358116 0.7838062846
3200280800.0 -0.604123832 0.7923537384
3250280500.0 -0.5930071837 0.8003700818
3300280200.0 -0.5814416555 0.808451259
3350279900.0 -0.5690982524 0.8163216544
3400279600.0 -0.5565857611 0.8244527459
3450279300.0 -0.5456811746 0.8317617106
3500279000.0 -0.5337454952 0.8385629692
3550278700.0 -0.521617051 0.8455687636
3600278400.0 -0.5098141203 0.8523740048
3650278100.0 -0.4967322914 0.8600081853
3700277800.0 -0.4846142317 0.8665658504
3750277500.0 -0.4719098527 0.8731978378
3800277200.0 -0.4595711291 0.8796527107
3850276900.0 -0.4474421723 0.8856902981
3900276600.0 -0.4369364689 0.8911402569
3950276300.0 -0.4246504473 0.8970384344
4000276000.0 -0.413217296 0.9031872303
4050275700.0 -0.4004693726 0.9090824299
4100275400.0 -0.3892248694 0.9146454879
4150275100.0 -0.3759422942 0.9205833628
4200274800.0 -0.362603855 0.9261757884
4250274500.0 -0.3499003709 0.9312785764
4300274200.0 -0.3367499656 0.9366548708
4350273900.0 -0.3226392033 0.9419497328
4400273600.0 -0.3078415808 0.9473884355
4450273300.0 -0.2928237802 0.9519455248
4500273000.0 -0.2798063079 0.9563930822
4550272700.0 -0.2660151282 0.9605947044
4600272400.0 -0.2509540239 0.9646999572
4650272100.0 -0.2396031894 0.9677205914
4700271800.0 -0.2268052107 0.9710595833
4750271500.0 -0.2150853601 0.9739831816
4800271200.0 -0.2029193546 0.9765876334
4850270900.0 -0.1890720493 0.979514537
4900270600.0 -0.1753440808 0.9820042859
4950270300.0 -0.1607093443 0.9845552959
5000270000.0 -0.1462992098 0.9867180301
5050269700.0 -0.1329054376 0.9882955117
5100269400.0 -0.118721304 0.9898834178
5150269100.0 -0.1048168442 0.9918414099
5200268800.0 -0.0913450171 0.9930242971
5250268500.0 -0.078363807 0.9934252313
5300268200.0 -0.0645936688 0.9947042194
5350267900.0 -0.0516573184 0.9952595596
5400267600.0 -0.0356925269 0.9966075217
5450267300.0 -0.0220949716 0.9967195304
5500267000.0 -0.0065747895 0.9970755947
5550266700.0 0.008171092 0.9973853077
5600266400.0 0.0239060259 0.9970268112
5650266100.0 0.0408129433 0.9968372125
5700265800.0 0.0550763254 0.9959882668
5750265500.0 0.0695901713 0.9948720496
5800265200.0 0.0833110048 0.9942062505
5850264900.0 0.0967538898 0.993011757
5900264600.0 0.1133060493 0.9909054834
5950264300.0 0.1245887142 0.9899678624
6000264000.0 0.1380104638 0.9879081573
6050263700.0 0.1494991451 0.9865162124
6100263400.0 0.1617893625 0.9848936998
6150263100.0 0.1765734687 0.9825220735
6200262800.0 0.1860556368 0.9810209432
6250262500.0 0.1985815088 0.9786363483
6300262200.0 0.210878184 0.976136286
6350261900.0 0.2238441723 0.9734296941
6400261600.0 0.2376613034 0.9701823501
6450261300.0 0.2487084968 0.9676477162
6500261000.0 0.2622784307 0.9640072267
6550260700.0 0.2750543497 0.9600736466
6600260400.0 0.2886101325 0.9560638127
6650260100.0 0.3029927349 0.9518485009
6700259800.0 0.3148370563 0.9473228474
6750259500.0 0.3283378876 0.9423062428
6800259200.0 0.3419279348 0.9371501931
6850258900.0 0.3547526206 0.9318996698
6900258600.0 0.3671644354 0.9270178782
6950258300.0 0.3796414272 0.9214701859
7000258000.0 0.3913441994 0.9164019328
7050257700.0 0.4031650164 0.9103215022
7100257400.0 0.4166693666 0.9039198227
7150257100.0 0.4273389336 0.8985116609
7200256800.0 0.4406103838 0.8922145386
7250256500.0 0.4530189025 0.885219108
7300256200.0 0.4660554511 0.8786584075
7350255900.0 0.4785364744 0.8714914125
7400255600.0 0.4933508691 0.86397174
7450255300.0 0.508640491 0.8550524812
7500255000.0 0.5211077331 0.847217246
7550254700.0 0.5355763237 0.8382505828
7600254400.0 0.5474711563 0.8296512045
7650254100.0 0.5593740621 0.8220036409
7700253800.0 0.5709328563 0.8140088128
7750253500.0 0.5821339733 0.8062840356
7800253200.0 0.5926838002 0.7983172097
7850252900.0 0.6025734281 0.7911634244
7900252600.0 0.6139669676 0.7824241718
7950252300.0 0.6223057968 0.7761047057
8000252000.0 0.6322396281 0.7685762796
8050251700.0 0.6426667334 0.7603252449
8100251400.0 0.6524473998 0.7522880467
8150251100.0 0.6624179574 0.7440677863
8200250800.0 0.6722100448 0.7358135088
8250250500.0 0.680896946 0.7279108427
8300250200.0 0.6901440545 0.719457166
8350249900.0 0.6992569459 0.7106155258
8400249600.0 0.7071572999 0.7026572606
8450249300.0 0.7158154822 0.6941733593
8500249000.0 0.7244685381 0.6853237799
8550248700.0 0.7326273974 0.6761827146
8600248400.0 0.7411022174 0.6665674438
8650248100.0 0.7485768441 0.6572371951
8700247800.0 0.7579108729 0.6462236714
8750247500.0 0.7662026814 0.636255748
8800247200.0 0.7740126705 0.6261980162
8850246900.0 0.7828713938 0.6146181158
8900246600.0 0.7913765563 0.6031412487
8950246300.0 0.8007304199 0.5902007192
9000246000.0 0.8090527959 0.5784504457
9050245700.0 0.8179568859 0.566032654
9100245400.0 0.8260337772 0.5540526976
9150245100.0 0.8347317854 0.5412479759
9200244800.0 0.8443058819 0.5269097552
9250244500.0 0.8535919362 0.5119585976
9300244200.0 0.8614785367 0.4984477376
9350243900.0 0.8688732061 0.4854017036
9400243600.0 0.8755098638 0.4736406434
9450243300.0 0.8811187796 0.4631695906
9500243000.0 0.8873710537 0.4515198862
9550242700.0 0.8913434137 0.4440393244
9600242400.0 0.8956303453 0.4365149282
9650242100.0 0.8998429611 0.4296281402
9700241800.0 0.9048076642 0.420957076
9750241500.0 0.9088929029 0.4134148522
9800241200.0 0.9141776755 0.4037471798
9850240900.0 0.9199964583 0.3920428027
9900240600.0 0.925912108 0.3799763092
9950240300.0 0.9331417068 0.363373275
10000240000.0 0.9380931035 0.3512327579
10050239700.0 0.9438501816 0.3351005904
10100239400.0 0.9495717992 0.3187889942
10150239100.0 0.9542664466 0.3031210531
10200238800.0 0.9584552995 0.28763788
10250238500.0 0.9616154224 0.2742159647
10300238200.0 0.9646604868 0.260278697
10350237900.0 0.9674881566 0.2467675239
10400237600.0 0.9699931112 0.2335240316
10450237300.0 0.9726520614 0.2200217091
10500237000.0 0.9748068275 0.2073406369
10550236700.0 0.9771081722 0.1932675086
10600236400.0 0.9793685288 0.1789866475
10650236100.0 0.9812944451 0.1649687963
10700235800.0 0.9840451106 0.1522853912
10750235500.0 0.9857841014 0.1387154819
10800235200.0 0.9882455252 0.124142547
10850234900.0 0.9896844963 0.1097148584
10900234600.0 0.9919127722 0.0948782724
10950234300.0 0.9938769593 0.0811379237
11000234000.0 0.9956077681 0.0653691241
11050233700.0 0.9974581442 0.048840821
11100233400.0 0.9990211473 0.030839999
11150233100.0 1.000310026 0.0140211688
11200232800.0 1.000826282 -0.0016968784
11250232500.0 1.001859922 -0.0195269426
11300232200.0 1.002102123 -0.0381825684
11350231900.0 1.002276771 -0.0543471523
11400231600.0 1.001613404 -0.07071107
11450231300.0 1.000969777 -0.0859372046
11500231000.0 0.9997267852 -0.102253693
11550230700.0 0.9978864299 -0.1155388401
11600230400.0 0.996756404 -0.1277989837
11650230100.0 0.9949672613 -0.1396118952
11700229800.0 0.9922867726 -0.1551935855
11750229500.0 0.9897786832 -0.1685179883
11800229200.0 0.9874538995 -0.182192783
11850228900.0 0.9834828115 -0.1940646079
11900228600.0 0.9797192331 -0.203613845
11950228300.0 0.9761043924 -0.2134690688
12000228000.0 0.9736468052 -0.2221017703
12050227700.0 0.9698342771 -0.2350314438
12100227400.0 0.9671208954 -0.2459765322
12150227100.0 0.9618708819 -0.262497275
12200226800.0 0.9587473773 -0.2734804258
12250226500.0 0.9535817217 -0.286307165
12300226200.0 0.9496157102 -0.2981815952
12350225900.0 0.944156214 -0.3123262434
12400225600.0 0.9403361139 -0.3251345929
12450225300.0 0.9359610735 -0.3375806697
12500225000.0 0.9301272323 -0.3522105331
12550224700.0 0.9245793221 -0.365829107
12600224400.0 0.9197684957 -0.3785253415
12650224100.0 0.9139511913 -0.3928099557
12700223800.0 0.9085926001 -0.4057096509
12750223500.0 0.9033034851 -0.4185980149
12800223200.0 0.8978576933 -0.4313613649
12850222900.0 0.8925295722 -0.44347123
12900222600.0 0.8870348183 -0.4556384217
12950222300.0 0.881196421 -0.4684063335
13000222000.0 0.8748924978 -0.4798511116
13050221700.0 0.868186338 -0.4928905256
13100221400.0 0.8613386554 -0.5043830143
13150221100.0 0.854549148 -0.5171073996
13200220800.0 0.847423272 -0.5280492178
13250220500.0 0.8401758772 -0.5405663454
13300220200.0 0.8327656536 -0.5513487608
13350219900.0 0.8245210146 -0.5633104454
13400219600.0 0.815976253 -0.575144054
13450219300.0 0.8066984065 -0.588101152
13500219000.0 0.7972141136 -0.6013845661
13550218700.0 0.7872300323 -0.6136805129
13600218400.0 0.7774764539 -0.6256549666
13650218100.0 0.7683368309 -0.6360195475
13700217800.0 0.7570730274 -0.6487605141
13750217500.0 0.7472743807 -0.6587578444
13800217200.0 0.7365066657 -0.6700823705
13850216900.0 0.7262138846 -0.6811458922
13900216600.0 0.716185333 -0.6899057242
13950216300.0 0.7053831231 -0.7004348739
14000216000.0 0.6954714566 -0.7100270281
14050215700.0 0.6862053754 -0.7170841706
14100215400.0 0.6767130875 -0.7263231551
14150215100.0 0.6673019656 -0.7349592979
14200214800.0 0.6578518958 -0.7439300832
14250214500.0 0.6474575508 -0.7535969128
14300214200.0 0.6370083206 -0.7630070502
14350213900.0 0.6261743296 -0.772512679
14400213600.0 0.6139392276 -0.7824744177
14450213300.0 0.6010261165 -0.7929667594
14500213000.0 0.5880490746 -0.8022326867
14550212700.0 0.5757652865 -0.811807465
14600212400.0 0.5633339165 -0.820413459
14650212100.0 0.5505932184 -0.8296298153
14700211800.0 0.5367006129 -0.8388444549
14750211500.0 0.5246174256 -0.8473723455
14800211200.0 0.5124672013 -0.8554461335
14850210900.0 0.4998634069 -0.8631569992
14900210600.0 0.486659468 -0.8711208494
14950210300.0 0.4733931455 -0.8787507059
15000210000.0 0.4606579542 -0.8853970354
15050209700.0 0.4488207049 -0.8914875018
15100209400.0 0.4356209451 -0.8974016572
15150209100.0 0.4229894458 -0.9028490269
15200208800.0 0.4104379411 -0.9081783116
15250208500.0 0.4002700578 -0.9128086281
15300208200.0 0.3873360778 -0.9173318892
15350207900.0 0.3746834019 -0.9218283906
15400207600.0 0.359159808 -0.9280718837
15450207300.0 0.3446949396 -0.9327804474
15500207000.0 0.3306437204 -0.9373149547
15550206700.0 0.3156753334 -0.9425543908
15600206400.0 0.2997349678 -0.9468059908
15650206100.0 0.2841997225 -0.950767032
15700205800.0 0.270153845 -0.9543001423
15750205500.0 0.2564121488 -0.9577456641
15800205200.0 0.2421678415 -0.9612891939
15850204900.0 0.227908168 -0.9646920016
15900204600.0 0.2130028271 -0.9683273616
15950204300.0 0.1988127094 -0.9715269108
16000204000.0 0.184256544 -0.9745564214
16050203700.0 0.1689267257 -0.9777148327
16100203400.0 0.1543875396 -0.9795708553
16150203100.0 0.1392106306 -0.9817258037
16200202800.0 0.1250659327 -0.9841467983
16250202500.0 0.1105680209 -0.9857311099
16300202200.0 0.0950261941 -0.9877014798
16350201900.0 0.0793543808 -0.9892002018
16400201600.0 0.0651910703 -0.9901681877
16450201300.0 0.0494817563 -0.991335126
16500201000.0 0.0323638377 -0.992099926
16550200700.0 0.0164360248 -0.9924649861
16600200400.0 0.0005208205 -0.9927162743
16650200100.0 -0.0156503032 -0.9926128031
16700199800.0 -0.032063424 -0.9921934942
16750199500.0 -0.0512877182 -0.9915437275
16800199200.0 -0.0669921558 -0.9906530541
16850198900.0 -0.0819616608 -0.9893519642
16900198600.0 -0.0967105719 -0.9886082514
16950198300.0 -0.110551562 -0.9873959016
17000198000.0 -0.1231844568 -0.9858409152
17050197700.0 -0.1361066182 -0.984526786
17100197400.0 -0.1491828436 -0.9821396153
17150197100.0 -0.161519561 -0.9794576363
17200196800.0 -0.1744627964 -0.9780635755
17250196500.0 -0.1876971234 -0.9753034098
17300196200.0 -0.1996928353 -0.9729464335
17350195900.0 -0.2116123203 -0.9704600636
17400195600.0 -0.2234295083 -0.9680254527
17450195300.0 -0.2363464321 -0.9651697538
17500195000.0 -0.2496078138 -0.9618754986
17550194700.0 -0.263352259 -0.9585118868
17600194400.0 -0.2771882239 -0.9545637011
17650194100.0 -0.2910603435 -0.9502849788
17700193800.0 -0.3034638365 -0.9462235537
17750193500.0 -0.3176058241 -0.9420557301
17800193200.0 -0.3320828429 -0.9365030273
17850192900.0 -0.3470969749 -0.9310146795
17900192600.0 -0.3619241824 -0.9249663344
17950192300.0 -0.3776344852 -0.9174746328
18000192000.0 -0.3920900295 -0.9105393535
18050191700.0 -0.4060614846 -0.9024458081
18100191400.0 -0.4201842438 -0.8949143568
18150191100.0 -0.4350526789 -0.8868772766
18200190800.0 -0.4521199923 -0.87779737
18250190500.0 -0.4689141513 -0.8682645825
18300190200.0 -0.4847462785 -0.8594418878
18350189900.0 -0.4996756073 -0.8509213819
18400189600.0 -0.5136903207 -0.8422330264
18450189300.0 -0.5273661055 -0.8345667155
18500189000.0 -0.541321891 -0.8261612661
18550188700.0 -0.5537326348 -0.8189786118
18600188400.0 -0.5654132581 -0.8118752921
18650188100.0 -0.5769198837 -0.8051988803
18700187800.0 -0.5881098668 -0.7987024491
18750187500.0 -0.5988189973 -0.7921334314
18800187200.0 -0.6095148294 -0.7850887369
18850186900.0 -0.6198264848 -0.7782765996
18900186600.0 -0.6299120419 -0.7708828349
18950186300.0 -0.6401166664 -0.7631952816
19000186000.0 -0.6477741048 -0.7569547115
19050185700.0 -0.6573273823 -0.749780076
19100185400.0 -0.6672854688 -0.741134352
19150185100.0 -0.6772899184 -0.7333872941
19200184800.0 -0.6864581202 -0.7245403118
19250184500.0 -0.6966815726 -0.7158292085
19300184200.0 -0.7085196141 -0.7060394385
19350183900.0 -0.719291204 -0.6961773054
19400183600.0 -0.7291152175 -0.6865316133
19450183300.0 -0.7378415704 -0.6762547099
19500183000.0 -0.7458472237 -0.6657766536
19550182700.0 -0.7558162278 -0.6551513905
19600182400.0 -0.7655360285 -0.6440237108
19650182100.0 -0.7765257531 -0.6313529116
19700181800.0 -0.7871907678 -0.6180004084
19750181500.0 -0.7971450096 -0.6040091376
19800181200.0 -0.8075637099 -0.5893703056
19850180900.0 -0.8170396178 -0.5738122035
19900180600.0 -0.824663843 -0.5595030544
19950180300.0 -0.8337664252 -0.5430296127
20000180000.0 -0.8234737512 -0.546952135
20050179700.0 -0.8319719652 -0.5336746125
20100179400.0 -0.8397249675 -0.521238441
20150179100.0 -0.8474993864 -0.509403317
20200178800.0 -0.8565523946 -0.4975079899
20250178500.0 -0.8651588067 -0.4855250516
20300178200.0 -0.8750181753 -0.471707637
20350177900.0 -0.8845713533 -0.4575438632
20400177600.0 -0.8935532454 -0.4439208938
20450177300.0 -0.9021379357 -0.4292299358
20500177000.0 -0.910246251 -0.4152213439
20550176700.0 -0.918038484 -0.401976848
20600176400.0 -0.9248223552 -0.3887721896
20650176100.0 -0.9313361489 -0.3767836075
20700175800.0 -0.9381330192 -0.3647716281
20750175500.0 -0.9439445079 -0.3531342385
20800175200.0 -0.9497949777 -0.3419059173
20850174900.0 -0.9535741336 -0.3314300703
20900174600.0 -0.9586074041 -0.320115721
20950174300.0 -0.9619164291 -0.309494439
21000174000.0 -0.963314678 -0.2992583039
21050173700.0 -0.9652952417 -0.2887181644
21100173400.0 -0.9691557335 -0.2787266162
21150173100.0 -0.9728814265 -0.2663398661
21200172800.0 -0.9769989635 -0.2536363346
21250172500.0 -0.9806253573 -0.2396493877
21300172200.0 -0.984357496 -0.2258559643
21350171900.0 -0.9864342184 -0.2116287102
21400171600.0 -0.9879979598 -0.197380033
21450171300.0 -0.9891862584 -0.1830391762
21500171000.0 -0.9894756712 -0.1674755637
21550170700.0 -0.9906011269 -0.1530077381
21600170400.0 -0.9905722364 -0.1379265654
21650170100.0 -0.990084116 -0.1217445602
21700169800.0 -0.9899328551 -0.1064457518
21750169500.0 -0.9896788993 -0.090482062
21800169200.0 -0.9900673079 -0.0744135715
21850168900.0 -0.9899796902 -0.0571029812
21900168600.0 -0.9892767544 -0.0402921441
21950168300.0 -0.9895359446 -0.0258037613
22000168000.0 -0.9896630445 -0.0102058438
22050167700.0 -0.9892341909 0.0044563086
22100167400.0 -0.990529049 0.0200446023
22150167100.0 -0.9910143145 0.0361951301
22200166800.0 -0.9916538064 0.0527220489
22250166500.0 -0.9909827165 0.0694516117
22300166200.0 -0.9905562541 0.0860635742
22350165900.0 -0.9896754218 0.1025753326
22400165600.0 -0.987994613 0.1190882411
22450165300.0 -0.9860243168 0.1322756914
22500165000.0 -0.9849010639 0.1476293944
22550164700.0 -0.9833549899 0.1637102895
22600164400.0 -0.9808847902 0.1798950723
22650164100.0 -0.9781248449 0.1957389915
22700163800.0 -0.9756288486 0.2123079298
22750163500.0 -0.971712328 0.2264651328
22800163200.0 -0.9693246064 0.2394579752
22850162900.0 -0.9666025527 0.2532738804
22900162600.0 -0.9647231683 0.2670388414
22950162300.0 -0.9629086029 0.2807819129
23000162000.0 -0.9609854469 0.2934578599
23050161700.0 -0.9584495404 0.3069195683
23100161400.0 -0.9550234932 0.3203395471
23150161100.0 -0.9525571876 0.3331071407
23200160800.0 -0.9497088668 0.3465310354
23250160500.0 -0.9468431839 0.3585374359
23300160200.0 -0.944256198 0.3714360065
23350159900.0 -0.940318008 0.3853035683
23400159600.0 -0.9353520759 0.3989442487
23450159300.0 -0.9297098412 0.4126609078
23500159000.0 -0.9249732251 0.4257099257
23550158700.0 -0.920313382 0.440154072
23600158400.0 -0.9140714382 0.4541915522
23650158100.0 -0.9067407744 0.4687733669
23700157800.0 -0.8983800575 0.4831576307
23750157500.0 -0.8888807388 0.4974588157
23800157200.0 -0.8789873558 0.5109589554
23850156900.0 -0.8693258928 0.5234749413
23900156600.0 -0.8592494704 0.5361388743
23950156300.0 -0.850053996 0.5487007531
24000156000.0 -0.8403219722 0.5605042398
24050155700.0 -0.8288988719 0.5735297096
24100155400.0 -0.819029594 0.5861208081
24150155100.0 -0.8080396113 0.5987216648
24200154800.0 -0.7972172043 0.6100126625
24250154500.0 -0.7856829369 0.6224050971
24300154200.0 -0.7740782242 0.6343769935
24350153900.0 -0.7622651872 0.6452790837
24400153600.0 -0.7496806669 0.6562625078
24450153300.0 -0.7375928682 0.6666238537
24500153000.0 -0.7261753636 0.6765848799
24550152700.0 -0.7147270523 0.6866313687
24600152400.0 -0.7031170947 0.6957564268
24650152100.0 -0.6899000054 0.7048502395
