!Created with skrf (http://scikit-rf.org).
# Hz S RI R 50.0 
!freq ReS11 ImS11
300000.0 -0.9810551753 -0.1020943447
50299700.0 -1.000125288 0.0163599928
100299400.0 -0.9980461247 0.0292660741
150299100.0 -1.002809975 0.045933742
200298800.0 -0.9996223646 0.0592434805
250298500.0 -0.9974497784 0.0728448481
300298200.0 -0.9861217456 0.0886511988
350297900.0 -0.9940130116 0.099402045
400297600.0 -0.9931181302 0.1161988043
450297300.0 -0.9910015712 0.1300583533
500297000.0 -0.9893183616 0.1447001809
550296700.0 -0.9843577011 0.1570180338
600296400.0 -1.017227701 0.1905630876
650296100.0 -0.9822373123 0.1870106356
700295800.0 -0.9792081522 0.2016532668
750295500.0 -0.9758832728 0.2153817288
800295200.0 -0.9727479404 0.2296405805
850294900.0 -0.9696054593 0.243255297
900294600.0 -0.9655183857 0.2570849253
950294300.0 -0.9617882396 0.2708770984
1000294000.0 -0.9578007016 0.2848460913
1050293700.0 -0.9533689081 0.2985866566
1100293400.0 -0.9488920247 0.3129185418
1150293100.0 -0.9450419202 0.324945683
1200292800.0 -0.940009311 0.3392783005
1250292500.0 -0.9341626013 0.3526730278
1300292200.0 -0.928698803 0.3658586488
1350291900.0 -0.9231233216 0.3798782033
1400291600.0 -0.9174266682 0.3929286978
1450291300.0 -0.9121606235 0.4053803305
1500291000.0 -0.905771291 0.4185746273
1550290700.0 -0.8993440131 0.4319537866
1600290400.0 -0.8930708851 0.4450231523
1650290100.0 -0.8866670554 0.4569125519
1700289800.0 -0.8794309944 0.4703518502
1750289500.0 -0.8725308791 0.4826348618
1800289200.0 -0.8652009415 0.4957191532
1850288900.0 -0.8585025685 0.5069125689
1900288600.0 -0.8504806879 0.5197512121
1950288300.0 -0.842440503 0.532480137
2000288000.0 -0.8348508904 0.5438286442
2050287700.0 -0.8266787103 0.5563139614
2100287400.0 -0.8188318931 0.5678480925
2150287100.0 -0.8102052188 0.579939272
2200286800.0 -0.8023797761 0.5903132206
2250286500.0 -0.7935644954 0.602345711
2300286200.0 -0.7845460527 0.6139741635
2350285900.0 -0.7758989643 0.6249605332
2400285600.0 -0.7666304766 0.6360720362
2450285300.0 -0.7580702754 0.6464099648
2500285000.0 -0.7482987012 0.657689192
2550284700.0 -0.7394173473 0.6681831313
2600284400.0 -0.7298780688 0.6781667258
2650284100.0 -0.7208410584 0.6884197665
2700283800.0 -0.7103078135 0.6993794578
2750283500.0 -0.7000263841 0.7098214661
2800283200.0 -0.6902198698 0.7193978595
2850282900.0 -0.6801343689 0.7292737614
2900282600.0 -0.669700641 0.7387557224
2950282300.0 -0.6595527508 0.7479362358
3000282000.0 -0.648928626 0.7576277986
3050281700.0 -0.6377994562 0.766623502
3100281400.0 -0.6257551262 0.7759615772
3150281100.0 -0.6140175588 0.7853332
3200280800.0 -0.6024542899 0.7939264882
3250280500.0 -0.5918189438 0.8015386163
3300280200.0 -0.5805851453 0.8095880672
3350279900.0 -0.5691540523 0.8169832975
3400279600.0 -0.5569768186 0.8247196042
3450279300.0 -0.5459927492 0.831727474
3500279000.0 -0.5337993382 0.8387206453
3550278700.0 -0.521259214 0.8462207688
3600278400.0 -0.508948502 0.8532199272
3650278100.0 -0.4957356582 0.8609738327
3700277800.0 -0.4837674586 0.8673934335
3750277500.0 -0.4716295319 0.873901702
3800277200.0 -0.4590668091 0.8804924482
3850276900.0 -0.4468360174 0.8864670842
3900276600.0 -0.4360156241 0.8919556966
3950276300.0 -0.4233277107 0.8981177483
4000276000.0 -0.4110679132 0.9042357244
4050275700.0 -0.3982628842 0.9101149454
4100275400.0 -0.3869705515 0.9153566773
4150275100.0 -0.3740483694 0.9212686682
4200274800.0 -0.3612109248 0.9263806983
4250274500.0 -0.3490078619 0.9318257088
4300274200.0 -0.3359466009 0.9370006171
4350273900.0 -0.3221722477 0.9423311694
4400273600.0 -0.3073550249 0.947509137
4450273300.0 -0.2919925769 0.9527727908
4500273000.0 -0.2782493743 0.9570203793
4550272700.0 -0.2641731998 0.9610975576
4600272400.0 -0.2487393943 0.9653001581
4650272100.0 -0.2368416925 0.9686029345
4700271800.0 -0.2236602705 0.9717492767
4750271500.0 -0.2120715141 0.9746692238
4800271200.0 -0.1994160326 0.9773756586
4850270900.0 -0.1855433043 0.9803624083
4900270600.0 -0.1718939725 0.9825968849
4950270300.0 -0.1574708496 0.9851064774
5000270000.0 -0.1431812077 0.9873295141
5050269700.0 -0.1297598605 0.9889940373
5100269400.0 -0.1162587239 0.9906050274
5150269100.0 -0.1032020054 0.9923434185
5200268800.0 -0.0898352158 0.9933435523
5250268500.0 -0.0769066496 0.9940900814
5300268200.0 -0.0633907364 0.9950668978
5350267900.0 -0.0513444385 0.9954829928
5400267600.0 -0.0352225092 0.9964934061
5450267300.0 -0.0222579634 0.9966147208
5500267000.0 -0.0071572589 0.9971761347
5550266700.0 0.007733304 0.9972241435
5600266400.0 0.0234632165 0.9974684041
5650266100.0 0.0399255334 0.9969623909
5700265800.0 0.0542719655 0.9960416663
5750265500.0 0.0697347076 0.995485367
5800265200.0 0.0834993561 0.9941762311
5850264900.0 0.0967303405 0.9932836549
5900264600.0 0.113234296 0.9912042518
5950264300.0 0.1257812085 0.989962609
6000264000.0 0.1398478931 0.9876544022
6050263700.0 0.152128462 0.9860689884
6100263400.0 0.1647104135 0.9846139457
6150263100.0 0.1793530911 0.9818368641
6200262800.0 0.1898641155 0.9804971601
6250262500.0 0.2025143894 0.9779083541
6300262200.0 0.2154681558 0.9750360689
6350261900.0 0.2284759781 0.9721446515
6400261600.0 0.2424702257 0.9688295848
6450261300.0 0.2539052825 0.9662673695
6500261000.0 0.2664268074 0.9624825075
6550260700.0 0.2795634073 0.9586613095
6600260400.0 0.292691418 0.9545033423
6650260100.0 0.3068386171 0.950228093
6700259800.0 0.3188583868 0.9459214909
6750259500.0 0.3324384037 0.9409160979
6800259200.0 0.3456269374 0.936210138
6850258900.0 0.35763021 0.9312019684
6900258600.0 0.3695570082 0.9261656354
6950258300.0 0.3819911474 0.9207318721
7000258000.0 0.3941184799 0.9153919165
7050257700.0 0.4064780808 0.909352036
7100257400.0 0.4189556403 0.9032607853
7150257100.0 0.4294155392 0.8978516047
7200256800.0 0.4420726513 0.8913533217
7250256500.0 0.4536151624 0.8849905888
7300256200.0 0.4671375386 0.8781452533
7350255900.0 0.4792390547 0.8716219626
7400255600.0 0.4922935713 0.8642778462
7450255300.0 0.507373279 0.855227735
7500255000.0 0.5194821379 0.848065881
7550254700.0 0.5331926776 0.8400737911
7600254400.0 0.5458032908 0.8313454299
7650254100.0 0.5575876291 0.8235496101
7700253800.0 0.5694356179 0.8156074004
7750253500.0 0.5803652367 0.8077185538
7800253200.0 0.5910976752 0.7997577527
7850252900.0 0.6010290405 0.7926315314
7900252600.0 0.6126481537 0.783950827
7950252300.0 0.6214302139 0.7774027511
8000252000.0 0.6316820941 0.7694346465
8050251700.0 0.6422722819 0.7611720989
8100251400.0 0.6522547648 0.7529813652
8150251100.0 0.6624768103 0.744407177
8200250800.0 0.6720065085 0.7363382708
8250250500.0 0.681014977 0.7284335896
8300250200.0 0.6906510463 0.7196493894
8350249900.0 0.6994023194 0.7109194794
8400249600.0 0.707347967 0.7028712452
8450249300.0 0.7165561348 0.6935950764
8500249000.0 0.7253732336 0.6848589588
8550248700.0 0.7336166627 0.6759191811
8600248400.0 0.7418770015 0.6662305377
8650248100.0 0.7497396105 0.6567524788
8700247800.0 0.7591041569 0.6457348603
8750247500.0 0.7673828433 0.6357946597
8800247200.0 0.7755401212 0.6255334749
8850246900.0 0.784275126 0.6141257511
8900246600.0 0.7925422449 0.6029138424
8950246300.0 0.8022766007 0.5899812525
9000246000.0 0.8116004655 0.5775190048
9050245700.0 0.8205653698 0.5642989675
9100245400.0 0.8291011289 0.551848435
9150245100.0 0.8382236043 0.5382295172
9200244800.0 0.8481244244 0.5230005431
9250244500.0 0.8573066019 0.507530353
9300244200.0 0.8658877255 0.4929523771
9350243900.0 0.8736047849 0.4788766636
9400243600.0 0.8803660446 0.4664185775
9450243300.0 0.8861668379 0.454609731
9500243000.0 0.8925530881 0.4421785826
9550242700.0 0.896204589 0.4343423512
9600242400.0 0.9003184858 0.4266825099
9650242100.0 0.9039285443 0.4199963721
9700241800.0 0.90869837 0.4117138691
9750241500.0 0.912403035 0.4039941555
9800241200.0 0.9170029566 0.3951535425
9850240900.0 0.9227518186 0.3831928286
9900240600.0 0.9283399497 0.3717796326
9950240300.0 0.9347402763 0.3557215223
10000240000.0 0.9396960705 0.3437941849
10050239700.0 0.9455700937 0.3286449527
10100239400.0 0.950111186 0.3128063126
10150239100.0 0.9543464993 0.2987468989
10200238800.0 0.9584628451 0.2837373472
10250238500.0 0.9618295262 0.270483385
10300238200.0 0.9650550007 0.2564642028
10350237900.0 0.9677907467 0.2435070289
10400237600.0 0.9701822709 0.2302571005
10450237300.0 0.9727114046 0.2169533814
10500237000.0 0.9750279652 0.2046356088
10550236700.0 0.9772039218 0.1905337289
10600236400.0 0.9797484817 0.1769036075
10650236100.0 0.9818026098 0.1624415846
10700235800.0 0.9835147544 0.1505694289
10750235500.0 0.9855963457 0.1378665653
10800235200.0 0.9879062935 0.1235693384
10850234900.0 0.9898218944 0.1087517571
10900234600.0 0.991826281 0.094205458
10950234300.0 0.9933589123 0.0811052043
11000234000.0 0.9951911077 0.0660441902
11050233700.0 0.9968857284 0.0498075193
11100233400.0 0.9983523384 0.0322928446
11150233100.0 0.9995116046 0.0156806935
11200232800.0 1.000171965 0.0014353668
11250232500.0 1.001583635 -0.0157081026
11300232200.0 1.000948528 -0.0330296716
11350231900.0 1.001329558 -0.049642549
11400231600.0 1.000662713 -0.0646791563
11450231300.0 1.000250517 -0.0804377354
11500231000.0 0.9993414356 -0.098021324
11550230700.0 0.9978321294 -0.1103941725
11600230400.0 0.9963715509 -0.1229463923
11650230100.0 0.9943105519 -0.1348681387
11700229800.0 0.9924334963 -0.1492836911
11750229500.0 0.9898505595 -0.1639153875
11800229200.0 0.9872500623 -0.1781916718
11850228900.0 0.9839519654 -0.190583171
11900228600.0 0.9802631664 -0.2005106879
11950228300.0 0.9768879383 -0.2110267543
12000228000.0 0.9741940169 -0.2197096625
12050227700.0 0.9702827048 -0.2327855335
12100227400.0 0.9672061129 -0.2438730017
12150227100.0 0.9619794195 -0.2604566598
12200226800.0 0.9591241727 -0.27100756
12250226500.0 0.9550215741 -0.2835755989
12300226200.0 0.9504343895 -0.296152646
12350225900.0 0.9459030412 -0.309783525
12400225600.0 0.9420173228 -0.3232741649
12450225300.0 0.9373461208 -0.3352595549
12500225000.0 0.9319425139 -0.3498171244
12550224700.0 0.9264272658 -0.363440878
12600224400.0 0.9219335671 -0.3760454413
12650224100.0 0.915974547 -0.3901684204
12700223800.0 0.9108686936 -0.4028693131
12750223500.0 0.9054438861 -0.4157672903
12800223200.0 0.8999319239 -0.4283754546
12850222900.0 0.8945575811 -0.4403979585
12900222600.0 0.8886194818 -0.452552237
12950222300.0 0.882168345 -0.4657604923
13000222000.0 0.8765535121 -0.4771902693
13050221700.0 0.869546428 -0.4899944132
13100221400.0 0.8630651462 -0.5016986097
13150221100.0 0.8561527764 -0.5135219436
13200220800.0 0.8488581667 -0.5260348477
13250220500.0 0.8416335466 -0.5381033937
13300220200.0 0.8342089555 -0.5489643896
13350219900.0 0.826026533 -0.5610189376
13400219600.0 0.8175552668 -0.5731910359
13450219300.0 0.8080780179 -0.5868153024
13500219000.0 0.7978200281 -0.600724925
13550218700.0 0.7879837856 -0.6136075057
13600218400.0 0.7768149715 -0.6257517199
13650218100.0 0.7681883452 -0.636921952
13700217800.0 0.756372005 -0.6491559693
13750217500.0 0.7462988074 -0.6612241046
13800217200.0 0.7353291257 -0.6725814978
13850216900.0 0.72404007 -0.6841014789
13900216600.0 0.7146775434 -0.6928163195
13950216300.0 0.7037552092 -0.7031064651
14000216000.0 0.693561056 -0.7122764494
14050215700.0 0.6839073943 -0.7204650158
14100215400.0 0.6739783513 -0.729586614
14150215100.0 0.6650088624 -0.7378456376
14200214800.0 0.6558590029 -0.7463934088
14250214500.0 0.645612039 -0.7557720967
14300214200.0 0.6352223538 -0.7648871299
14350213900.0 0.6242570271 -0.7743927326
14400213600.0 0.6126747049 -0.7841967169
14450213300.0 0.599809712 -0.7938841253
14500213000.0 0.5870052268 -0.8037530017
14550212700.0 0.573704088 -0.8135019197
14600212400.0 0.561861255 -0.8220508733
14650212100.0 0.548348709 -0.830594075
14700211800.0 0.5351296448 -0.8401943809
14750211500.0 0.5224351902 -0.8487893487
14800211200.0 0.5106973533 -0.8564986739
14850210900.0 0.4982506109 -0.8639327248
14900210600.0 0.4849239701 -0.8718117666
14950210300.0 0.4712547024 -0.8794274479
15000210000.0 0.4582623956 -0.8861593147
15050209700.0 0.4463345093 -0.8924709609
15100209400.0 0.4329802319 -0.8984511751
15150209100.0 0.4211158103 -0.9041064159
15200208800.0 0.4078448484 -0.9096160662
15250208500.0 0.3958250175 -0.9144123745
15300208200.0 0.3834861832 -0.9188926038
15350207900.0 0.3698978471 -0.9231817422
15400207600.0 0.3561207152 -0.929340053
15450207300.0 0.3409104994 -0.9339909894
15500207000.0 0.3259033165 -0.9378866141
15550206700.0 0.3114751014 -0.9440620308
15600206400.0 0.2954697353 -0.9479482775
15650206100.0 0.2800286829 -0.9524147152
15700205800.0 0.2656085462 -0.9559960977
15750205500.0 0.251218445 -0.9593240558
15800205200.0 0.2369651176 -0.9630418431
15850204900.0 0.2226270744 -0.9662642376
15900204600.0 0.2078215142 -0.9696842024
15950204300.0 0.1939274218 -0.9728993285
16000204000.0 0.1797271505 -0.9754770598
16050203700.0 0.1650688237 -0.9782844602
16100203400.0 0.1506438629 -0.9802540034
16150203100.0 0.1361770048 -0.9824762804
16200202800.0 0.122596124 -0.9847693459
16250202500.0 0.1079248899 -0.9862804573
16300202200.0 0.0925812254 -0.9881647448
16350201900.0 0.0779583118 -0.9892399939
16400201600.0 0.0633507848 -0.9903810433
16450201300.0 0.0483595712 -0.9912997517
16500201000.0 0.0318586861 -0.9921008191
16550200700.0 0.0161451654 -0.9926807865
16600200400.0 0.0002368428 -0.9925526732
16650200100.0 -0.016285732 -0.9925757891
16700199800.0 -0.0325947787 -0.992413289
16750199500.0 -0.0514545211 -0.9919117087
16800199200.0 -0.0673072346 -0.9908699063
16850198900.0 -0.0825323149 -0.9892443447
16900198600.0 -0.0966445216 -0.9885599143
16950198300.0 -0.1093491856 -0.9872742093
17000198000.0 -0.1229461537 -0.9859589748
17050197700.0 -0.1352063685 -0.9839141081
17100197400.0 -0.1491434852 -0.9818133161
17150197100.0 -0.1614222235 -0.9801373211
17200196800.0 -0.1744134354 -0.9773676357
17250196500.0 -0.1873184499 -0.9750309694
17300196200.0 -0.1995547685 -0.9727983538
17350195900.0 -0.2115015862 -0.9706174188
17400195600.0 -0.2237971182 -0.9679742822
17450195300.0 -0.2370620798 -0.9651469836
17500195000.0 -0.2504035929 -0.9617966019
17550194700.0 -0.2643770574 -0.9583416467
17600194400.0 -0.2783652854 -0.9542589414
17650194100.0 -0.2917729737 -0.9499812098
17700193800.0 -0.30468384 -0.9460347157
17750193500.0 -0.318811645 -0.9412509567
17800193200.0 -0.333775901 -0.9361724963
17850192900.0 -0.3484120752 -0.9308045064
17900192600.0 -0.3631546675 -0.924896374
17950192300.0 -0.3783836149 -0.9175694865
18000192000.0 -0.3933850252 -0.9105746012
18050191700.0 -0.4068746494 -0.902703261
18100191400.0 -0.4212559807 -0.8950419519
18150191100.0 -0.4361412301 -0.8870734902
18200190800.0 -0.4529231525 -0.8779327517
18250190500.0 -0.469885653 -0.8682935047
18300190200.0 -0.4852481169 -0.8597041687
18350189900.0 -0.5001257099 -0.8510932856
18400189600.0 -0.5144414396 -0.842889093
18450189300.0 -0.5277527769 -0.8349429869
18500189000.0 -0.5409521326 -0.8267500468
18550188700.0 -0.5535991024 -0.8189992567
18600188400.0 -0.5657585326 -0.8124099463
18650188100.0 -0.5768712576 -0.8057680022
18700187800.0 -0.5878166009 -0.7986191544
18750187500.0 -0.5984430609 -0.7920153851
18800187200.0 -0.6092198999 -0.7849294255
18850186900.0 -0.6195885205 -0.7777146737
18900186600.0 -0.6301645162 -0.7702496823
18950186300.0 -0.6404280574 -0.7620768474
19000186000.0 -0.6476455244 -0.755547319
19050185700.0 -0.6571959039 -0.7486231141
19100185400.0 -0.6673152036 -0.7398558031
19150185100.0 -0.6775482929 -0.731527611
19200184800.0 -0.6865642937 -0.7234946297
19250184500.0 -0.696798088 -0.7139885266
19300184200.0 -0.7090223186 -0.7038070379
19350183900.0 -0.7198173478 -0.694501253
19400183600.0 -0.7289588377 -0.6839754495
19450183300.0 -0.7380381037 -0.6740650059
19500183000.0 -0.7466410768 -0.6652325675
19550182700.0 -0.7560025993 -0.653907472
19600182400.0 -0.7661366972 -0.6420398025
19650182100.0 -0.7769872984 -0.6299475333
19700181800.0 -0.7871349974 -0.6170581447
19750181500.0 -0.7977067276 -0.6029245213
19800181200.0 -0.8078464432 -0.5881971214
19850180900.0 -0.8172202331 -0.5730565272
19900180600.0 -0.825134229 -0.5587281157
19950180300.0 -0.8340421333 -0.542765292
20000180000.0 -0.8271458445 -0.5440057899
20050179700.0 -0.8358171621 -0.5318095491
20100179400.0 -0.8443662228 -0.5178438221
20150179100.0 -0.8522758989 -0.5056560283
20200178800.0 -0.8600219294 -0.4927484174
20250178500.0 -0.8700605599 -0.4791104437
20300178200.0 -0.8792581214 -0.4641660972
20350177900.0 -0.8884136758 -0.4499904657
20400177600.0 -0.8966660676 -0.4362288864
20450177300.0 -0.9051607946 -0.4213672657
20500177000.0 -0.9131287182 -0.4072758156
20550176700.0 -0.9208415039 -0.3939275146
20600176400.0 -0.9276185789 -0.3802452856
20650176100.0 -0.934607852 -0.3681008237
20700175800.0 -0.9409841961 -0.3552194088
20750175500.0 -0.9481522886 -0.3442712078
20800175200.0 -0.9529207133 -0.3332697706
20850174900.0 -0.9578451046 -0.3214807381
20900174600.0 -0.9620923769 -0.3105098395
20950174300.0 -0.9660307135 -0.2979561598
21000174000.0 -0.9700926299 -0.2866717208
21050173700.0 -0.9724541885 -0.2752791433
21100173400.0 -0.9770973559 -0.263187539
21150173100.0 -0.9812406611 -0.2504332345
21200172800.0 -0.9848244137 -0.2367219302
21250172500.0 -0.9880307321 -0.2230116295
21300172200.0 -0.9906968109 -0.208770471
21350171900.0 -0.992039384 -0.1948102542
21400171600.0 -0.9937083503 -0.1797487121
21450171300.0 -0.9938949062 -0.1657352801
21500171000.0 -0.9939637492 -0.1498669162
21550170700.0 -0.9937351059 -0.1345567985
21600170400.0 -0.9931373932 -0.1194966252
21650170100.0 -0.9932068913 -0.1033109684
21700169800.0 -0.9911793523 -0.0886756405
21750169500.0 -0.9891382235 -0.0729667308
21800169200.0 -0.98883504 -0.0569706642
21850168900.0 -0.9883971588 -0.0401963786
21900168600.0 -0.9851661419 -0.0250858343
21950168300.0 -0.9842401058 -0.0085913374
22000168000.0 -0.9830579778 0.0060351733
22050167700.0 -0.9825323068 0.0203706254
22100167400.0 -0.9824835588 0.0353776206
22150167100.0 -0.982847088 0.0505776329
22200166800.0 -0.9832702401 0.0667073467
22250166500.0 -0.9830672846 0.0842035499
22300166200.0 -0.9827260131 0.1010023018
22350165900.0 -0.9812416928 0.1166537487
22400165600.0 -0.9789248828 0.1325751422
22450165300.0 -0.9769538999 0.1476969846
22500165000.0 -0.9744917455 0.1617028128
22550164700.0 -0.9733900649 0.1767809297
22600164400.0 -0.9719069734 0.1916708644
22650164100.0 -0.9700863871 0.2062658221
22700163800.0 -0.9675856774 0.2231125626
22750163500.0 -0.9644383837 0.2381752733
22800163200.0 -0.9621834075 0.2513351419
22850162900.0 -0.959586856 0.2649507336
22900162600.0 -0.958165024 0.2782914767
22950162300.0 -0.957146816 0.2909919841
23000162000.0 -0.9559452884 0.3029725468
23050161700.0 -0.9543043823 0.3153668413
23100161400.0 -0.9519426312 0.3280181465
23150161100.0 -0.948973929 0.340548943
23200160800.0 -0.9458442426 0.3525805572
23250160500.0 -0.9430530755 0.3648314279
23300160200.0 -0.9406077255 0.3769183292
23350159900.0 -0.9365453132 0.3891983029
23400159600.0 -0.9327315741 0.4025276518
23450159300.0 -0.9273710848 0.415385082
23500159000.0 -0.9228148817 0.4276498111
23550158700.0 -0.9183648551 0.4413332355
23600158400.0 -0.9131161786 0.4544494629
23650158100.0 -0.9066959436 0.4684096403
23700157800.0 -0.8991313401 0.4821122079
23750157500.0 -0.8906687331 0.4956921811
23800157200.0 -0.8817338306 0.5088718434
23850156900.0 -0.8730669161 0.5215634864
23900156600.0 -0.8641101171 0.5335194141
23950156300.0 -0.8541542825 0.546829968
24000156000.0 -0.8455506387 0.5578651833
24050155700.0 -0.836081645 0.5697136409
24100155400.0 -0.8256683446 0.5817934655
24150155100.0 -0.8148513868 0.593415841
24200154800.0 -0.8040539723 0.6053023394
24250154500.0 -0.7921729696 0.6168192289
24300154200.0 -0.7811926975 0.6288931841
24350153900.0 -0.769034737 0.6393258978
24400153600.0 -0.7570211635 0.6496441207
24450153300.0 -0.7453519682 0.6596077108
24500153000.0 -0.7335609433 0.6696384289
24550152700.0 -0.7229699326 0.6789030341
24600152400.0 -0.7108665275 0.6876019553
24650152100.0 -0.699287926 0.6973475628
