!Created with skrf (http://scikit-rf.org).
# Hz S RI R 50.0 
!freq ReS11 ImS11
300000.0 -0.9752673765 -0.1217383152
50299700.0 -0.9998319125 0.0150901646
100299400.0 -0.9979709171 0.0279194971
150299100.0 -1.002696108 0.0450680495
200298800.0 -0.9995772604 0.0580652077
250298500.0 -0.9973242453 0.0716917538
300298200.0 -0.9859241143 0.0873413305
350297900.0 -0.9939348077 0.0983192752
400297600.0 -0.9929892153 0.1149767826
450297300.0 -0.9908946658 0.1285515125
500297000.0 -0.9892402182 0.1434865146
550296700.0 -0.9842916758 0.1560219978
600296400.0 -1.01728501 0.1891640036
650296100.0 -0.9822126436 0.1858756785
700295800.0 -0.9795223785 0.2000751933
750295500.0 -0.9763259925 0.2140459893
800295200.0 -0.9729440406 0.2283431662
850294900.0 -0.969551994 0.2417448144
900294600.0 -0.9658450672 0.2557002817
950294300.0 -0.9621556079 0.2693868904
1000294000.0 -0.9580411886 0.2833230905
1050293700.0 -0.9537010787 0.2970849265
1100293400.0 -0.949249707 0.3117576968
1150293100.0 -0.9455248321 0.3235841362
1200292800.0 -0.940256368 0.3377733121
1250292500.0 -0.9346600355 0.3513687968
1300292200.0 -0.928924154 0.3644872104
1350291900.0 -0.9237179245 0.3784814561
1400291600.0 -0.9179514732 0.3915687361
1450291300.0 -0.9126088102 0.4040418594
1500291000.0 -0.9061701641 0.4173859648
1550290700.0 -0.8996079838 0.4307403904
1600290400.0 -0.8934808425 0.4435232582
1650290100.0 -0.8867889253 0.4556941363
1700289800.0 -0.8798610162 0.4691526023
1750289500.0 -0.8729129605 0.4814704668
1800289200.0 -0.8652067215 0.4945061649
1850288900.0 -0.858688896 0.5058254097
1900288600.0 -0.8509302779 0.5187433611
1950288300.0 -0.842846984 0.5313049425
2000288000.0 -0.8353233921 0.5428200356
2050287700.0 -0.8270293979 0.5554420948
2100287400.0 -0.8192041907 0.566676049
2150287100.0 -0.810925751 0.5787054942
2200286800.0 -0.8028873064 0.589219799
2250286500.0 -0.7940636922 0.6016055866
2300286200.0 -0.7853211056 0.6127371579
2350285900.0 -0.776987349 0.6235579625
2400285600.0 -0.7678309415 0.6343281391
2450285300.0 -0.7590876408 0.6449932306
2500285000.0 -0.74908253 0.6569142153
2550284700.0 -0.740143868 0.6672180008
2600284400.0 -0.7310522894 0.6770586481
2650284100.0 -0.7223128139 0.6871807137
2700283800.0 -0.71195612 0.6977246833
2750283500.0 -0.7015672145 0.7084593191
2800283200.0 -0.6916602336 0.7179127424
2850282900.0 -0.6811409849 0.7283882955
2900282600.0 -0.6706861712 0.7379543196
2950282300.0 -0.6602827501 0.7473110458
3000282000.0 -0.6495549121 0.7566441023
3050281700.0 -0.6383030181 0.7660190773
3100281400.0 -0.6268004236 0.7749800894
3150281100.0 -0.6154661115 0.78396512
3200280800.0 -0.6041309185 0.7923420171
3250280500.0 -0.5929445495 0.8002840073
3300280200.0 -0.5815472608 0.8085083524
3350279900.0 -0.5692788501 0.816455015
3400279600.0 -0.5567612126 0.8246054958
3450279300.0 -0.5455180355 0.8315664743
3500279000.0 -0.5337757617 0.8384069022
3550278700.0 -0.5216249049 0.8456478103
3600278400.0 -0.5099404797 0.8525398191
3650278100.0 -0.4965909846 0.8598125011
3700277800.0 -0.4844755231 0.8664297299
3750277500.0 -0.4721711927 0.8733424447
3800277200.0 -0.4599365186 0.8797219552
3850276900.0 -0.4479816733 0.885575657
3900276600.0 -0.4368379196 0.8912317951
3950276300.0 -0.4249274217 0.8972139087
4000276000.0 -0.4128866877 0.902856067
4050275700.0 -0.4004180979 0.9090222187
4100275400.0 -0.3892378009 0.9145054837
4150275100.0 -0.3761607859 0.9206231112
4200274800.0 -0.3624964984 0.9260952862
4250274500.0 -0.3499933652 0.9312250389
4300274200.0 -0.3367686707 0.9368168541
4350273900.0 -0.3225231349 0.9421887784
4400273600.0 -0.307961382 0.9471497899
4450273300.0 -0.2928755057 0.9522890446
4500273000.0 -0.2796531782 0.9564535868
4550272700.0 -0.2660157058 0.9605815547
4600272400.0 -0.2509073951 0.9648314949
4650272100.0 -0.2395313683 0.9680740554
4700271800.0 -0.2266854076 0.9713344059
4750271500.0 -0.2149632617 0.9740659736
4800271200.0 -0.2027397741 0.9767806387
4850270900.0 -0.1890205465 0.9795828072
4900270600.0 -0.1751100285 0.9818509256
4950270300.0 -0.160543495 0.9845507491
5000270000.0 -0.1461699313 0.9866601172
5050269700.0 -0.1326446091 0.9884452144
5100269400.0 -0.1183860322 0.9903140376
5150269100.0 -0.1045867762 0.9916175733
5200268800.0 -0.0910415754 0.9927987013
5250268500.0 -0.0781788233 0.9937184487
5300268200.0 -0.0646287316 0.9946367558
5350267900.0 -0.0517900827 0.9952512022
5400267600.0 -0.0356689279 0.9961094023
5450267300.0 -0.0223661608 0.9966057146
5500267000.0 -0.0069724717 0.9969820196
5550266700.0 0.0079268499 0.9970507724
5600266400.0 0.0238707985 0.99733098
5650266100.0 0.0406072376 0.9967190845
5700265800.0 0.0547447506 0.9961879523
5750265500.0 0.0697736474 0.9952478489
5800265200.0 0.0830085694 0.9939633777
5850264900.0 0.0966949107 0.9932162179
5900264600.0 0.1128906106 0.9912503325
5950264300.0 0.124550218 0.9897495424
6000264000.0 0.138118804 0.9879878083
6050263700.0 0.1498678028 0.9864120099
6100263400.0 0.1618307776 0.9848782819
6150263100.0 0.1766083304 0.9825037476
6200262800.0 0.1863794233 0.9809601298
6250262500.0 0.1988867969 0.9786349081
6300262200.0 0.2112819437 0.9762135541
6350261900.0 0.2241298531 0.9733706012
6400261600.0 0.2378226583 0.9701199423
6450261300.0 0.2492319752 0.9676352836
6500261000.0 0.2623349053 0.9636907026
6550260700.0 0.275548846 0.9599799345
6600260400.0 0.2891214271 0.9563963441
6650260100.0 0.3027907323 0.9515349841
6700259800.0 0.3151592763 0.9475361228
6750259500.0 0.328740698 0.9423940672
6800259200.0 0.3422788126 0.9372108731
6850258900.0 0.3545868164 0.9318847702
6900258600.0 0.3673453129 0.9267518943
6950258300.0 0.3798844762 0.9214404955
7000258000.0 0.3913372199 0.9162309904
7050257700.0 0.4033341641 0.9103653442
7100257400.0 0.416832798 0.9040520576
7150257100.0 0.4276636106 0.8985215287
7200256800.0 0.4405644232 0.8922882364
7250256500.0 0.4532022455 0.8856136616
7300256200.0 0.4660917354 0.8787548987
7350255900.0 0.4788792166 0.8715902745
7400255600.0 0.4927713685 0.8640404169
7450255300.0 0.5082320587 0.8549446062
7500255000.0 0.5205376632 0.8470451315
7550254700.0 0.5347381002 0.8380688656
7600254400.0 0.5474156953 0.8301874707
7650254100.0 0.559258889 0.8220235723
7700253800.0 0.5707374195 0.8141391342
7750253500.0 0.5816891777 0.8065515966
7800253200.0 0.5923043447 0.7987719883
7850252900.0 0.6019998206 0.7913968746
7900252600.0 0.6136081234 0.7826649581
7950252300.0 0.6220111818 0.7764364794
8000252000.0 0.6318587812 0.7688489207
8050251700.0 0.6425121087 0.7607094455
8100251400.0 0.6523624983 0.752631408
8150251100.0 0.6624158926 0.744267495
8200250800.0 0.6716607906 0.736025712
8250250500.0 0.6805133105 0.728122366
8300250200.0 0.6901214251 0.719939571
8350249900.0 0.6990357431 0.7108718134
8400249600.0 0.7067670324 0.7031483528
8450249300.0 0.7158733545 0.6941609299
8500249000.0 0.7246388624 0.6854662492
8550248700.0 0.7327747821 0.6762665644
8600248400.0 0.7410379756 0.6667957512
8650248100.0 0.7486888068 0.6573726189
8700247800.0 0.7581177524 0.6461567733
8750247500.0 0.7665005005 0.6361245377
8800247200.0 0.774435269 0.6258338287
8850246900.0 0.7829996754 0.6144922238
8900246600.0 0.7916580201 0.6031388949
8950246300.0 0.8007635246 0.5904099785
9000246000.0 0.8095450571 0.5784642833
9050245700.0 0.8179230289 0.5660348679
9100245400.0 0.8261702868 0.5537830443
9150245100.0 0.8351711978 0.5408190197
9200244800.0 0.8449677351 0.526313445
9250244500.0 0.8538983519 0.5115459206
9300244200.0 0.8618932232 0.4979934835
9350243900.0 0.8694463802 0.4847628043
9400243600.0 0.8760105218 0.4729835741
9450243300.0 0.8817062149 0.4623997323
9500243000.0 0.8877951233 0.4506894472
9550242700.0 0.8918118896 0.4432228736
9600242400.0 0.8960477905 0.4355112538
9650242100.0 0.9003553203 0.4284545395
9700241800.0 0.9049907256 0.4202560878
9750241500.0 0.9090609741 0.4126314232
9800241200.0 0.9145301612 0.4029994091
9850240900.0 0.9203390689 0.3911594655
9900240600.0 0.9260530991 0.3795087588
9950240300.0 0.9330744346 0.3628982698
10000240000.0 0.9381994364 0.3503455616
10050239700.0 0.9441609811 0.3347607718
10100239400.0 0.9493569756 0.31862568
10150239100.0 0.9538407124 0.3032197751
10200238800.0 0.958250857 0.2875992458
10250238500.0 0.9615501274 0.2739771301
10300238200.0 0.9645739644 0.2601540762
10350237900.0 0.967446562 0.2468184891
10400237600.0 0.9700940253 0.2333573153
10450237300.0 0.9727930636 0.219632976
10500237000.0 0.9750126125 0.2071245418
10550236700.0 0.9775365661 0.1926140243
10600236400.0 0.979639213 0.1789694291
10650236100.0 0.9814978124 0.1642409424
10700235800.0 0.9835532428 0.152281877
10750235500.0 0.9857752117 0.1388892754
10800235200.0 0.9878728833 0.1242079788
10850234900.0 0.9899227262 0.1094659659
10900234600.0 0.9920111419 0.0946478268
10950234300.0 0.993533324 0.0813371236
11000234000.0 0.9955470443 0.065631968
11050233700.0 0.9974980707 0.0488893824
11100233400.0 0.9987188233 0.0313751487
11150233100.0 0.999728994 0.0143042724
11200232800.0 1.001098298 -0.0020143591
11250232500.0 1.001650177 -0.0192465904
11300232200.0 1.002065625 -0.0371594085
11350231900.0 1.00171379 -0.0537429008
11400231600.0 1.001674638 -0.0695672004
11450231300.0 1.000984076 -0.085273091
11500231000.0 0.9993768839 -0.1006887787
11550230700.0 0.9983412748 -0.115034982
11600230400.0 0.9972546169 -0.1277457681
11650230100.0 0.9950703712 -0.1386184627
11700229800.0 0.9926127995 -0.1542380645
11750229500.0 0.9901734758 -0.1677917534
11800229200.0 0.9872124962 -0.1811874546
11850228900.0 0.983749788 -0.19300513
11900228600.0 0.9801442243 -0.2025392098
11950228300.0 0.976595913 -0.2123569311
12000228000.0 0.974133393 -0.2211868316
12050227700.0 0.9703380814 -0.2339883293
12100227400.0 0.9670486768 -0.2456959228
12150227100.0 0.9620567629 -0.2619489454
12200226800.0 0.9586052568 -0.2726129105
12250226500.0 0.9543266211 -0.285463073
12300226200.0 0.9498905968 -0.2974920551
12350225900.0 0.9450214392 -0.3113352863
12400225600.0 0.9406482778 -0.3243501847
12450225300.0 0.9358873933 -0.3369023041
12500225000.0 0.9303030105 -0.3514745166
12550224700.0 0.9249644984 -0.3651864013
12600224400.0 0.9201904686 -0.378118197
12650224100.0 0.9142781394 -0.3923533962
12700223800.0 0.9089724719 -0.405266744
12750223500.0 0.9033631898 -0.4184363966
12800223200.0 0.8982854983 -0.4305795456
12850222900.0 0.8930981875 -0.4430274973
12900222600.0 0.8869386707 -0.4548429273
12950222300.0 0.8809167147 -0.4679452711
13000222000.0 0.8755180159 -0.4784221775
13050221700.0 0.8684966427 -0.4924292957
13100221400.0 0.8614534599 -0.5042383142
13150221100.0 0.8545852771 -0.5166147523
13200220800.0 0.8479157704 -0.5278422788
13250220500.0 0.8403592034 -0.5400623183
13300220200.0 0.8329730997 -0.5512383639
13350219900.0 0.8250156775 -0.562926125
13400219600.0 0.8167068454 -0.5748092146
13450219300.0 0.8073007201 -0.5878226023
13500219000.0 0.7976415367 -0.6008656676
13550218700.0 0.7872166234 -0.613687581
13600218400.0 0.7781240739 -0.6250064351
13650218100.0 0.7681568062 -0.6357115749
13700217800.0 0.7573797289 -0.6482678569
13750217500.0 0.7478682138 -0.6587264629
13800217200.0 0.7361567179 -0.6705117012
13850216900.0 0.7252180776 -0.6814835142
13900216600.0 0.7159283838 -0.6911881102
13950216300.0 0.7052660447 -0.7001140742
14000216000.0 0.6958162392 -0.7096557161
14050215700.0 0.686102338 -0.7178215215
14100215400.0 0.6764805513 -0.7263903297
14150215100.0 0.6672622044 -0.7352962922
14200214800.0 0.657844726 -0.7441531989
14250214500.0 0.6475641436 -0.7535463577
14300214200.0 0.6370443197 -0.7628297567
14350213900.0 0.6260915535 -0.7726585905
14400213600.0 0.6137985914 -0.7823927805
14450213300.0 0.6013936273 -0.7926603236
14500213000.0 0.5883191743 -0.8024806347
14550212700.0 0.5763031904 -0.8115225876
14600212400.0 0.5637999536 -0.8209676768
14650212100.0 0.5506898301 -0.8294404655
14700211800.0 0.5369887713 -0.8390043704
14750211500.0 0.5247468325 -0.8475167807
14800211200.0 0.5123240563 -0.8553639987
14850210900.0 0.4999506783 -0.8629780648
14900210600.0 0.4868763804 -0.8709845009
14950210300.0 0.4733472506 -0.8786655626
15000210000.0 0.4604866061 -0.8853016085
15050209700.0 0.4482904773 -0.8916308864
15100209400.0 0.4352693124 -0.8975831873
15150209100.0 0.4235976788 -0.9028886637
15200208800.0 0.4106198543 -0.9089955784
15250208500.0 0.4000521412 -0.9125030324
15300208200.0 0.3871056609 -0.9178942999
15350207900.0 0.3744315345 -0.922571026
15400207600.0 0.3597316329 -0.9274637616
15450207300.0 0.3451642141 -0.9329560302
15500207000.0 0.3303587922 -0.9366179738
15550206700.0 0.3157922058 -0.9420978592
15600206400.0 0.2997566268 -0.9463674201
15650206100.0 0.2838588926 -0.9508180715
15700205800.0 0.2704333749 -0.9545001367
15750205500.0 0.2561648475 -0.9578904323
15800205200.0 0.2420286995 -0.9614134727
15850204900.0 0.2281193552 -0.9647826153
15900204600.0 0.2128758734 -0.9685171299
15950204300.0 0.1985937565 -0.9715164494
16000204000.0 0.1845484955 -0.9746272906
16050203700.0 0.1693396729 -0.9773092309
16100203400.0 0.154076903 -0.9793216341
16150203100.0 0.1392574022 -0.981964852
16200202800.0 0.1252272586 -0.9841827591
16250202500.0 0.1102231335 -0.9859248031
16300202200.0 0.0946260928 -0.987397453
16350201900.0 0.0798079323 -0.9890803745
16400201600.0 0.065013456 -0.9903015138
16450201300.0 0.0498316332 -0.9912325431
16500201000.0 0.0326130666 -0.9920415221
16550200700.0 0.0165762368 -0.9924581343
16600200400.0 0.0006635473 -0.9926607935
16650200100.0 -0.0156279483 -0.9925551635
16700199800.0 -0.0314920173 -0.9925489223
16750199500.0 -0.0507405402 -0.9917815496
16800199200.0 -0.0665845734 -0.9909300674
16850198900.0 -0.0817670081 -0.9896369572
16900198600.0 -0.0963132501 -0.9884785449
16950198300.0 -0.1102536298 -0.9875722771
17000198000.0 -0.1225003394 -0.9858898758
17050197700.0 -0.1354195425 -0.9849338823
17100197400.0 -0.1489232919 -0.9817248292
17150197100.0 -0.1615233162 -0.9796986079
17200196800.0 -0.1741595488 -0.9777239579
17250196500.0 -0.1871838006 -0.9756143581
17300196200.0 -0.1993195057 -0.9734456605
17350195900.0 -0.2110216468 -0.9708734232
17400195600.0 -0.2229851096 -0.9683031839
17450195300.0 -0.2359162159 -0.9653757384
17500195000.0 -0.2491035421 -0.9621446063
17550194700.0 -0.2627466168 -0.9584203261
17600194400.0 -0.2768985494 -0.9546500532
17650194100.0 -0.2899975448 -0.950410482
17700193800.0 -0.3031085346 -0.9461420333
17750193500.0 -0.3173102739 -0.941647857
17800193200.0 -0.3319068198 -0.9363711065
17850192900.0 -0.3465685645 -0.9313877521
17900192600.0 -0.3614714889 -0.9253871635
17950192300.0 -0.3772474894 -0.9178811435
18000192000.0 -0.3917722186 -0.9105955224
18050191700.0 -0.4058420506 -0.9028967566
18100191400.0 -0.4199305769 -0.8952239928
18150191100.0 -0.4346963016 -0.8871775832
18200190800.0 -0.4516420488 -0.8780667868
18250190500.0 -0.468322425 -0.8685987131
18300190200.0 -0.4843199847 -0.8596763112
18350189900.0 -0.4990770508 -0.8510209137
18400189600.0 -0.51370135 -0.8429516669
18450189300.0 -0.5269408679 -0.8351363183
18500189000.0 -0.540246921 -0.8272294115
18550188700.0 -0.5531539831 -0.8192529384
18600188400.0 -0.5648960778 -0.8121514579
18650188100.0 -0.5764505517 -0.8057521783
18700187800.0 -0.5875547032 -0.7990732632
18750187500.0 -0.598589181 -0.79242027
18800187200.0 -0.609166048 -0.7854426514
18850186900.0 -0.6194002691 -0.7786821079
18900186600.0 -0.6295738189 -0.7711466744
18950186300.0 -0.6399532869 -0.7636251361
19000186000.0 -0.6472641115 -0.7572444412
19050185700.0 -0.6566878436 -0.750047427
19100185400.0 -0.6666413066 -0.7418942682
19150185100.0 -0.6770573298 -0.7337102614
19200184800.0 -0.6860639318 -0.7254571461
19250184500.0 -0.6969235069 -0.7156899754
19300184200.0 -0.7078624129 -0.7063198329
19350183900.0 -0.7184239817 -0.6968830863
19400183600.0 -0.7280828405 -0.6868110785
19450183300.0 -0.7373214811 -0.6769787207
19500183000.0 -0.745661132 -0.6668698905
19550182700.0 -0.7556462924 -0.6556430633
19600182400.0 -0.7655657148 -0.6441629267
19650182100.0 -0.7758452152 -0.6317277284
19700181800.0 -0.7867717579 -0.6186236953
19750181500.0 -0.7970695587 -0.6044409094
19800181200.0 -0.807166441 -0.589510068
19850180900.0 -0.8167086555 -0.574314891
19900180600.0 -0.8243789108 -0.5596995274
19950180300.0 -0.8333317492 -0.5433852466
20000180000.0 -0.8233960793 -0.5473750444
20050179700.0 -0.8312822556 -0.5343325894
20100179400.0 -0.8398287382 -0.5215654841
20150179100.0 -0.8484552304 -0.5087894459
20200178800.0 -0.856261223 -0.497507612
20250178500.0 -0.8658672523 -0.4847911774
20300178200.0 -0.8753083188 -0.4714002938
20350177900.0 -0.8849983408 -0.4570958369
20400177600.0 -0.8938072516 -0.4432288936
20450177300.0 -0.9020071593 -0.4285120026
20500177000.0 -0.9102771725 -0.414973353
20550176700.0 -0.9182658172 -0.4012111268
20600176400.0 -0.9250275246 -0.3882799262
20650176100.0 -0.9317453984 -0.3759751773
20700175800.0 -0.938276269 -0.3643170263
20750175500.0 -0.944343962 -0.352460941
20800175200.0 -0.949345717 -0.3421417059
20850174900.0 -0.9538944344 -0.3314861088
20900174600.0 -0.9578198016 -0.3200509079
20950174300.0 -0.9612247223 -0.3089572175
21000174000.0 -0.9646203565 -0.2976083571
21050173700.0 -0.9660940272 -0.2884140068
21100173400.0 -0.9697071183 -0.2771511889
21150173100.0 -0.9732167774 -0.2655875348
21200172800.0 -0.9779752914 -0.2519317578
21250172500.0 -0.9808837173 -0.2384566524
21300172200.0 -0.9845098417 -0.2243374408
21350171900.0 -0.9864090956 -0.2104593096
21400171600.0 -0.9891887391 -0.1962341336
21450171300.0 -0.9894994744 -0.1816516513
21500171000.0 -0.9891685004 -0.1665629382
21550170700.0 -0.9900100981 -0.1521800036
21600170400.0 -0.9915035899 -0.1368628835
21650170100.0 -0.9911337749 -0.120914299
21700169800.0 -0.990728882 -0.1051939205
21750169500.0 -0.9901807853 -0.0888572508
21800169200.0 -0.989519337 -0.0726836455
21850168900.0 -0.990142583 -0.0561392987
21900168600.0 -0.9893860359 -0.0399694265
21950168300.0 -0.988796308 -0.0236406602
22000168000.0 -0.9889058966 -0.0088799841
22050167700.0 -0.9892038321 0.0058367994
22100167400.0 -0.9895372859 0.0211759528
22150167100.0 -0.9906410992 0.0372410104
22200166800.0 -0.990995063 0.0534279329
22250166500.0 -0.9900555683 0.0710779775
22300166200.0 -0.9896911483 0.0870192707
22350165900.0 -0.989279741 0.1035218105
22400165600.0 -0.9870265167 0.1195930632
22450165300.0 -0.9850822129 0.1335527542
22500165000.0 -0.9838268312 0.1487715387
22550164700.0 -0.9827035168 0.1645989884
22600164400.0 -0.9807378874 0.1801680258
22650164100.0 -0.9778991695 0.1965277634
22700163800.0 -0.9745771374 0.2119742869
22750163500.0 -0.9715696965 0.2266600079
22800163200.0 -0.9688038439 0.2404671648
22850162900.0 -0.96586821 0.2535653131
22900162600.0 -0.9640148663 0.2677442327
22950162300.0 -0.9624196699 0.2815361568
23000162000.0 -0.960753578 0.2936799615
23050161700.0 -0.9585114209 0.3071215723
23100161400.0 -0.9555311356 0.3209339339
23150161100.0 -0.9527233459 0.333834455
23200160800.0 -0.9498607773 0.3462994089
23250160500.0 -0.9462932742 0.3586857854
23300160200.0 -0.9440019937 0.3717057012
23350159900.0 -0.9406408872 0.3854207921
23400159600.0 -0.9352350406 0.3980874348
23450159300.0 -0.9295743802 0.4125135809
23500159000.0 -0.924807176 0.4256552347
23550158700.0 -0.9199291473 0.4400559501
23600158400.0 -0.9141710659 0.4537247336
23650158100.0 -0.9071934851 0.4683786487
23700157800.0 -0.8988428196 0.4825332481
23750157500.0 -0.8893243803 0.4968452702
23800157200.0 -0.8800681392 0.5099635655
23850156900.0 -0.8699118625 0.5231174197
23900156600.0 -0.8604327706 0.5351564999
23950156300.0 -0.8502674714 0.5483678426
24000156000.0 -0.8407215735 0.561240957
24050155700.0 -0.831387925 0.5729812589
24100155400.0 -0.8201245912 0.5855050115
24150155100.0 -0.8088584641 0.5970972224
24200154800.0 -0.7982329737 0.609403989
24250154500.0 -0.7869520981 0.6211104171
24300154200.0 -0.775626834 0.6331587257
24350153900.0 -0.7634579737 0.6444559133
24400153600.0 -0.7512120706 0.6547101195
24450153300.0 -0.7393879787 0.6651365081
24500153000.0 -0.7275250214 0.6752944138
24550152700.0 -0.7161104525 0.6854605847
24600152400.0 -0.7037528662 0.6944997356
24650152100.0 -0.6923676648 0.7029326049
