!Created with skrf (http://scikit-rf.org).
# Hz S RI R 50.0 
!freq ReS11 ImS11
300000.0 -0.9781744418 -0.1093341122
50299700.0 -1.000106788 0.0160494487
100299400.0 -0.9981502172 0.0285811449
150299100.0 -1.002804433 0.0456470538
200298800.0 -0.9995893893 0.0590133159
250298500.0 -0.9974280626 0.0724010454
300298200.0 -0.98588416 0.0881997699
350297900.0 -0.9939829292 0.099243477
400297600.0 -0.9932057737 0.1156921405
450297300.0 -0.9910740081 0.1296344744
500297000.0 -0.989483535 0.1444036734
550296700.0 -0.9843361088 0.1568556228
600296400.0 -1.017411879 0.1903461547
650296100.0 -0.982142174 0.1867366392
700295800.0 -0.9792095444 0.2010191518
750295500.0 -0.976329717 0.2151838815
800295200.0 -0.9730186559 0.2291647253
850294900.0 -0.9695940394 0.2429836426
900294600.0 -0.9659322653 0.2569957853
950294300.0 -0.9621039856 0.2704620516
1000294000.0 -0.9580211884 0.2844360125
1050293700.0 -0.9534637985 0.2983097126
1100293400.0 -0.9492534546 0.3126302929
1150293100.0 -0.9454434652 0.3244501331
1200292800.0 -0.9400933053 0.3387556354
1250292500.0 -0.9344188828 0.35235326
1300292200.0 -0.9288314463 0.3655459338
1350291900.0 -0.9232051193 0.3794631881
1400291600.0 -0.917731108 0.3925242987
1450291300.0 -0.9123113774 0.4051010292
1500291000.0 -0.9061261955 0.4183093028
1550290700.0 -0.8994291658 0.4316310386
1600290400.0 -0.893217409 0.4447752302
1650290100.0 -0.8866697939 0.4566932985
1700289800.0 -0.8795058789 0.4702509527
1750289500.0 -0.8726595102 0.4825639625
1800289200.0 -0.8653289964 0.4953299285
1850288900.0 -0.8583904643 0.5066094246
1900288600.0 -0.8507944211 0.5197025187
1950288300.0 -0.8426061767 0.5323951395
2000288000.0 -0.8352544954 0.5435217636
2050287700.0 -0.8268511003 0.5557463406
2100287400.0 -0.8188091586 0.5677467075
2150287100.0 -0.8101076114 0.5796887626
2200286800.0 -0.8027358142 0.5902340775
2250286500.0 -0.7936963613 0.6021298363
2300286200.0 -0.784560324 0.6138581711
2350285900.0 -0.7761832445 0.6247520073
2400285600.0 -0.7669286914 0.6358480911
2450285300.0 -0.7585463381 0.6459129247
2500285000.0 -0.7485483412 0.6574580689
2550284700.0 -0.7397439842 0.6678811436
2600284400.0 -0.7302646951 0.6777885503
2650284100.0 -0.7211837544 0.6882781848
2700283800.0 -0.7106479388 0.6992458758
2750283500.0 -0.7002101736 0.7094196049
2800283200.0 -0.6903717691 0.7191204264
2850282900.0 -0.6802243618 0.7291383895
2900282600.0 -0.6698306458 0.7385102796
2950282300.0 -0.6598390274 0.7478209987
3000282000.0 -0.6492415314 0.7573772735
3050281700.0 -0.6379174527 0.7668162822
3100281400.0 -0.6260984622 0.7759324677
3150281100.0 -0.6142376204 0.7853101997
3200280800.0 -0.6026381098 0.7938494055
3250280500.0 -0.5919153953 0.8014436752
3300280200.0 -0.5805779258 0.8094936511
3350279900.0 -0.5691858908 0.8167490546
3400279600.0 -0.5569252915 0.8245747894
3450279300.0 -0.5460594316 0.8316463509
3500279000.0 -0.5339513856 0.8388115532
3550278700.0 -0.5213825704 0.8461128204
3600278400.0 -0.5091876419 0.8531555331
3650278100.0 -0.4959963287 0.8608446709
3700277800.0 -0.4839389819 0.8672640296
3750277500.0 -0.4713971429 0.8738364335
3800277200.0 -0.4590391884 0.8803043056
3850276900.0 -0.4468732258 0.886198926
3900276600.0 -0.4359463854 0.891848631
3950276300.0 -0.4236757359 0.8980869819
4000276000.0 -0.4116929833 0.9039326083
4050275700.0 -0.3984844556 0.910160825
4100275400.0 -0.387429373 0.9154657599
4150275100.0 -0.3746757354 0.9211060313
4200274800.0 -0.3617060956 0.9267256782
4250274500.0 -0.3493426672 0.9317013471
4300274200.0 -0.3364289156 0.936863285
4350273900.0 -0.3227328293 0.9423576978
4400273600.0 -0.3076329399 0.9476733964
4450273300.0 -0.2922740233 0.9528169731
4500273000.0 -0.2788707183 0.9571103982
4550272700.0 -0.2644550352 0.9612338359
4600272400.0 -0.2491089552 0.9652629467
4650272100.0 -0.2372367822 0.9684581571
4700271800.0 -0.2239962738 0.9719326571
4750271500.0 -0.2124011192 0.9747416513
4800271200.0 -0.2000009329 0.9774108047
4850270900.0 -0.1860493113 0.9802093182
4900270600.0 -0.1721551527 0.9827086354
4950270300.0 -0.1578953257 0.985070528
5000270000.0 -0.1436660495 0.9871858599
5050269700.0 -0.1302291805 0.989035971
5100269400.0 -0.1164530916 0.9904908039
5150269100.0 -0.1034232154 0.9923195081
5200268800.0 -0.0899579399 0.9931634311
5250268500.0 -0.0768462256 0.994103187
5300268200.0 -0.0638668906 0.99466746
5350267900.0 -0.0515237775 0.9953263143
5400267600.0 -0.0354565815 0.9962961601
5450267300.0 -0.0224680179 0.9966491522
5500267000.0 -0.007186732 0.9972650635
5550266700.0 0.0076932422 0.9975609148
5600266400.0 0.0233296254 0.9974175892
5650266100.0 0.0401678345 0.9970741828
5700265800.0 0.054370031 0.9957905351
5750265500.0 0.0698539045 0.9953099329
5800265200.0 0.0832934408 0.993893409
5850264900.0 0.097186028 0.9934638712
5900264600.0 0.113526648 0.9913329715
5950264300.0 0.1256193401 0.9898061278
6000264000.0 0.1393921196 0.9880267934
6050263700.0 0.1520368426 0.9868463461
6100263400.0 0.1645626639 0.9847312889
6150263100.0 0.1790454332 0.9825606992
6200262800.0 0.1894369899 0.9805325861
6250262500.0 0.2022148906 0.978170838
6300262200.0 0.2150501962 0.9753703542
6350261900.0 0.2281306915 0.9722315359
6400261600.0 0.2417911045 0.9690050332
6450261300.0 0.2532667168 0.966364875
6500261000.0 0.2662919348 0.9629726549
6550260700.0 0.2790789231 0.958890948
6600260400.0 0.2923456479 0.954797521
6650260100.0 0.306339213 0.9504355758
6700259800.0 0.3183062812 0.9462495978
6750259500.0 0.3321878249 0.9412644093
6800259200.0 0.3452663446 0.9363018351
6850258900.0 0.3571721037 0.9312578834
6900258600.0 0.3694909841 0.9262271712
6950258300.0 0.3820236348 0.9209238408
7000258000.0 0.3939611527 0.9152793278
7050257700.0 0.4061318035 0.909295373
7100257400.0 0.4187550389 0.9030696855
7150257100.0 0.4293312214 0.8978740574
7200256800.0 0.4420356284 0.8915820218
7250256500.0 0.4538903527 0.8850963201
7300256200.0 0.4668388152 0.8783216867
7350255900.0 0.4792051893 0.8714106193
7400255600.0 0.4923501924 0.8641400463
7450255300.0 0.507727872 0.8552162469
7500255000.0 0.5196631349 0.8480968214
7550254700.0 0.5332128745 0.8397259179
7600254400.0 0.5457671082 0.8312042044
7650254100.0 0.5574225315 0.8233824623
7700253800.0 0.5693533047 0.8152421335
7750253500.0 0.5805877953 0.8076578027
7800253200.0 0.5911890397 0.8000106754
7850252900.0 0.6008091535 0.7927230192
7900252600.0 0.6127205292 0.7840452199
7950252300.0 0.62138734 0.7773224282
8000252000.0 0.6317152055 0.7695732879
8050251700.0 0.6421891076 0.7614436395
8100251400.0 0.6522242323 0.7532039175
8150251100.0 0.6619508563 0.7446619191
8200250800.0 0.6717049403 0.7366076919
8250250500.0 0.6805808518 0.7286579171
8300250200.0 0.689825408 0.7199338241
8350249900.0 0.6985487295 0.7112354273
8400249600.0 0.707106713 0.7030589624
8450249300.0 0.7164189194 0.694067212
8500249000.0 0.7246068887 0.6851906582
8550248700.0 0.7333370358 0.6761843509
8600248400.0 0.7417351995 0.666506309
8650248100.0 0.7495467394 0.6573413195
8700247800.0 0.7589705579 0.6462178395
8750247500.0 0.7671882434 0.6359114482
8800247200.0 0.7751518049 0.6257001885
8850246900.0 0.7838327533 0.6143188648
8900246600.0 0.7925522044 0.6029770147
8950246300.0 0.8019791158 0.5899951314
9000246000.0 0.8114881378 0.5770658239
9050245700.0 0.8201872078 0.5643338544
9100245400.0 0.8291013413 0.5516986119
9150245100.0 0.8385642594 0.5380235953
9200244800.0 0.8482806726 0.5226709431
9250244500.0 0.8576246543 0.5069783882
9300244200.0 0.8662120038 0.4922721074
9350243900.0 0.8738473369 0.4783976551
9400243600.0 0.8804888919 0.4658479901
9450243300.0 0.8864536832 0.4543911114
9500243000.0 0.8925508148 0.4420929017
9550242700.0 0.8964859284 0.4343389663
9600242400.0 0.9002956663 0.4270148342
9650242100.0 0.9038504568 0.4203613091
9700241800.0 0.9083565949 0.4122273568
9750241500.0 0.9123007762 0.404863506
9800241200.0 0.9172834384 0.3955614674
9850240900.0 0.9227896592 0.3837668909
9900240600.0 0.9283682573 0.3724698869
9950240300.0 0.9345305069 0.3563173424
10000240000.0 0.9393965517 0.3445286833
10050239700.0 0.9451669757 0.3295357019
10100239400.0 0.9500326511 0.3139345872
10150239100.0 0.9541442223 0.2993517047
10200238800.0 0.9587447672 0.2842913232
10250238500.0 0.9620016663 0.2709437667
10300238200.0 0.9648965721 0.2569252625
10350237900.0 0.9674724222 0.24414248
10400237600.0 0.9702382644 0.2303777199
10450237300.0 0.9726391381 0.2169507695
10500237000.0 0.9750205216 0.2049955063
10550236700.0 0.9774030934 0.1909791997
10600236400.0 0.9797069819 0.1773437427
10650236100.0 0.9814599401 0.162693455
10700235800.0 0.9838313427 0.150615414
10750235500.0 0.9857896217 0.1369220563
10800235200.0 0.9877742878 0.1236794601
10850234900.0 0.9894864563 0.109158684
10900234600.0 0.9917766266 0.0942013062
10950234300.0 0.9934826822 0.0810020233
11000234000.0 0.995157051 0.0657927032
11050233700.0 0.9970041249 0.0494068321
11100233400.0 0.9984918123 0.0320472757
11150233100.0 0.9996862944 0.0156493199
11200232800.0 1.000281965 0.0001242329
11250232500.0 1.001409083 -0.0163927019
11300232200.0 1.001454705 -0.0337168343
11350231900.0 1.00178592 -0.0495726972
11400231600.0 1.00188774 -0.0656207112
11450231300.0 1.000922196 -0.0811318765
11500231000.0 0.9996240497 -0.0977275991
11550230700.0 0.9980697278 -0.1104255918
11600230400.0 0.9970201705 -0.1239763158
11650230100.0 0.9949931766 -0.1354987209
11700229800.0 0.99270936 -0.1499763322
11750229500.0 0.9902034623 -0.1643728006
11800229200.0 0.9877123091 -0.1782303217
11850228900.0 0.9839423088 -0.1906046984
11900228600.0 0.9803437066 -0.2003754395
11950228300.0 0.9771273097 -0.2108381716
12000228000.0 0.9746134821 -0.2199287403
12050227700.0 0.9711330927 -0.2324377711
12100227400.0 0.9675733754 -0.2436275652
12150227100.0 0.9630367422 -0.2599634157
12200226800.0 0.9595284357 -0.2706710649
12250226500.0 0.9551815337 -0.2828755156
12300226200.0 0.9511578411 -0.2957079494
12350225900.0 0.9464117925 -0.3103373432
12400225600.0 0.9412502288 -0.3222872201
12450225300.0 0.9372620458 -0.334903665
12500225000.0 0.9313784622 -0.3500731564
12550224700.0 0.9263620259 -0.3637353634
12600224400.0 0.9217127293 -0.3761250675
12650224100.0 0.9158631328 -0.3905009881
12700223800.0 0.9105603404 -0.4033039062
12750223500.0 0.904963446 -0.4162038515
12800223200.0 0.8998786797 -0.4287257451
12850222900.0 0.8946967107 -0.4408375208
12900222600.0 0.888472969 -0.4527208033
12950222300.0 0.8820920679 -0.4658321528
13000222000.0 0.8766086213 -0.4772311817
13050221700.0 0.869755514 -0.4898878251
13100221400.0 0.8628103332 -0.5020394541
13150221100.0 0.8562360128 -0.5143678446
13200220800.0 0.8489415553 -0.5260706672
13250220500.0 0.8413836808 -0.5382629097
13300220200.0 0.83410384 -0.5491019455
13350219900.0 0.826054514 -0.5610993048
13400219600.0 0.8175397228 -0.5732672586
13450219300.0 0.8080115622 -0.5871742154
13500219000.0 0.7977389219 -0.6005886894
13550218700.0 0.7875940359 -0.6134469044
13600218400.0 0.7776854199 -0.6257562217
13650218100.0 0.7675252493 -0.6380110913
13700217800.0 0.7564237398 -0.6495430389
13750217500.0 0.7462402558 -0.6610919367
13800217200.0 0.7350399555 -0.6723929426
13850216900.0 0.7244230114 -0.6841797589
13900216600.0 0.7143739283 -0.6926551303
13950216300.0 0.7039376083 -0.7032025457
14000216000.0 0.6933128174 -0.7120028728
14050215700.0 0.6843559296 -0.7202394447
14100215400.0 0.6741298132 -0.7295655089
14150215100.0 0.665056095 -0.7380184381
14200214800.0 0.6558201455 -0.7463652495
14250214500.0 0.6454603639 -0.7555811155
14300214200.0 0.6351819484 -0.7648546619
14350213900.0 0.6240354093 -0.7742367568
14400213600.0 0.6125243612 -0.7842968174
14450213300.0 0.5994941363 -0.7943471444
14500213000.0 0.5862887715 -0.8040794267
14550212700.0 0.5739821681 -0.8132416634
14600212400.0 0.5610583601 -0.8221977739
14650212100.0 0.548229138 -0.8311990887
14700211800.0 0.5343780019 -0.8406823242
14750211500.0 0.521934385 -0.8485497323
14800211200.0 0.5101028696 -0.8568060041
14850210900.0 0.4978300648 -0.8642700855
14900210600.0 0.4843281194 -0.8720382176
14950210300.0 0.4708939163 -0.879863274
15000210000.0 0.458211107 -0.8868054085
15050209700.0 0.4458959311 -0.8928921239
15100209400.0 0.4333929769 -0.8987804884
15150209100.0 0.4202008001 -0.9041276124
15200208800.0 0.4080164515 -0.9094655525
15250208500.0 0.3959301011 -0.9140580499
15300208200.0 0.3834486204 -0.9191412579
15350207900.0 0.3706144273 -0.9234989752
15400207600.0 0.3566408291 -0.9293241801
15450207300.0 0.3413860584 -0.9343745614
15500207000.0 0.3260667425 -0.9384318724
15550206700.0 0.3122392772 -0.9433592239
15600206400.0 0.2960114555 -0.9478458597
15650206100.0 0.2800558876 -0.9526704128
15700205800.0 0.2663231249 -0.9558210834
15750205500.0 0.2519312875 -0.9592170856
15800205200.0 0.2371147316 -0.9625507208
15850204900.0 0.2226750825 -0.9660212064
15900204600.0 0.2077271801 -0.9694941334
15950204300.0 0.1937723738 -0.9726637205
16000204000.0 0.1793510971 -0.9751670103
16050203700.0 0.1647055041 -0.9783193248
16100203400.0 0.150381787 -0.9802303078
16150203100.0 0.1360661347 -0.9824201006
16200202800.0 0.1223763358 -0.9849692559
16250202500.0 0.1079460755 -0.9859033773
16300202200.0 0.0920124057 -0.9879401477
16350201900.0 0.0772682598 -0.9891327133
16400201600.0 0.0626494756 -0.9901085592
16450201300.0 0.0473596093 -0.9911630517
16500201000.0 0.0307963326 -0.9919221822
16550200700.0 0.0151595079 -0.9925135765
16600200400.0 -0.0007384476 -0.9927622672
16650200100.0 -0.0168815409 -0.9923567298
16700199800.0 -0.0337451545 -0.9921494762
16750199500.0 -0.0520932183 -0.9916156375
16800199200.0 -0.0678400825 -0.9906491123
16850198900.0 -0.0834397323 -0.9895150329
16900198600.0 -0.097156532 -0.9884422311
16950198300.0 -0.1104053041 -0.9873243894
17000198000.0 -0.1234789215 -0.9864206439
17050197700.0 -0.1363291687 -0.9836858109
17100197400.0 -0.149011234 -0.9821799591
17150197100.0 -0.162039924 -0.9798876308
17200196800.0 -0.1746525624 -0.9778389385
17250196500.0 -0.1874048526 -0.9751136533
17300196200.0 -0.1994660842 -0.9730192153
17350195900.0 -0.2112650225 -0.9707173073
17400195600.0 -0.2234176885 -0.9681434711
17450195300.0 -0.2365846718 -0.9653381484
17500195000.0 -0.2502696762 -0.9619870775
17550194700.0 -0.2638350678 -0.9584791837
17600194400.0 -0.277884363 -0.9542989617
17650194100.0 -0.2913743426 -0.9499921094
17700193800.0 -0.3044883797 -0.9456487815
17750193500.0 -0.3188206308 -0.9417483811
17800193200.0 -0.333307267 -0.9363679462
17850192900.0 -0.3481046362 -0.9304267281
17900192600.0 -0.3633993268 -0.9250341454
17950192300.0 -0.3790313714 -0.9176032256
18000192000.0 -0.3937228913 -0.9102152461
18050191700.0 -0.4074219639 -0.9023597784
18100191400.0 -0.4215342341 -0.8946889285
18150191100.0 -0.4364801948 -0.8864507251
18200190800.0 -0.4534337259 -0.8772344561
18250190500.0 -0.4705322935 -0.867971171
18300190200.0 -0.4853633575 -0.8590546859
18350189900.0 -0.5009701466 -0.8509319207
18400189600.0 -0.5153251561 -0.8421646869
18450189300.0 -0.5283676984 -0.8339432984
18500189000.0 -0.5416799098 -0.8257216957
18550188700.0 -0.5547912334 -0.8187676875
18600188400.0 -0.5664418703 -0.8114840028
18650188100.0 -0.5770955211 -0.8057204591
18700187800.0 -0.5877782456 -0.7987456009
18750187500.0 -0.5987198145 -0.792364532
18800187200.0 -0.6093571067 -0.7850219088
18850186900.0 -0.6196439766 -0.7779984058
18900186600.0 -0.6299358644 -0.7705815885
18950186300.0 -0.6398234583 -0.7628241409
19000186000.0 -0.6475597449 -0.7564917046
19050185700.0 -0.6568586276 -0.7492140461
19100185400.0 -0.6663587117 -0.7409094956
19150185100.0 -0.6773494476 -0.7326905925
19200184800.0 -0.686166892 -0.724126757
19250184500.0 -0.6967231454 -0.7142790604
19300184200.0 -0.707808601 -0.7045923312
19350183900.0 -0.7193011889 -0.695721761
19400183600.0 -0.7294138419 -0.6850709117
19450183300.0 -0.7374698228 -0.6753505137
19500183000.0 -0.7456537922 -0.6654444819
19550182700.0 -0.7556280099 -0.6549028911
19600182400.0 -0.7657373574 -0.6431565856
19650182100.0 -0.7767068544 -0.6309722305
19700181800.0 -0.787182253 -0.6174700246
19750181500.0 -0.797668033 -0.6034757795
19800181200.0 -0.8078476408 -0.5884534359
19850180900.0 -0.8173746059 -0.57312918
19900180600.0 -0.8250083939 -0.5585831973
19950180300.0 -0.8344431464 -0.5423274276
20000180000.0 -0.8273204611 -0.5449550047
20050179700.0 -0.83502165 -0.5320224148
20100179400.0 -0.8429010797 -0.5178736027
20150179100.0 -0.8518104593 -0.5056019979
20200178800.0 -0.8602698775 -0.4929063692
20250178500.0 -0.8705004905 -0.4792554859
20300178200.0 -0.8797730042 -0.4643935809
20350177900.0 -0.8885685782 -0.4508947049
20400177600.0 -0.8974267127 -0.4360512661
20450177300.0 -0.905755373 -0.4214084947
20500177000.0 -0.9135529059 -0.4074089763
20550176700.0 -0.9213900263 -0.3940285675
20600176400.0 -0.9284277529 -0.3807924136
20650176100.0 -0.9350159356 -0.3679709454
20700175800.0 -0.9422188049 -0.3562525611
20750175500.0 -0.9479908798 -0.3449520319
20800175200.0 -0.9532914777 -0.3342325577
20850174900.0 -0.9575963449 -0.3218833339
20900174600.0 -0.9624608758 -0.3117434462
20950174300.0 -0.9656918431 -0.298839919
21000174000.0 -0.9699991096 -0.2878752011
21050173700.0 -0.972646317 -0.2774595838
21100173400.0 -0.976887739 -0.2647206382
21150173100.0 -0.9812584496 -0.2530662593
21200172800.0 -0.9848965449 -0.2385389271
21250172500.0 -0.9883539852 -0.2245051294
21300172200.0 -0.9906886891 -0.2107136238
21350171900.0 -0.9921609939 -0.1961674124
21400171600.0 -0.9934079932 -0.1819254804
21450171300.0 -0.9939211136 -0.1675675655
21500171000.0 -0.9939921018 -0.1513164099
21550170700.0 -0.9936200896 -0.1366322275
21600170400.0 -0.9930372123 -0.1221993533
21650170100.0 -0.9925560527 -0.1049320042
21700169800.0 -0.9904559714 -0.0900042306
21750169500.0 -0.9887477672 -0.0732663656
21800169200.0 -0.9884447986 -0.0589269771
21850168900.0 -0.9870397054 -0.0418231638
21900168600.0 -0.9854212182 -0.0255524483
21950168300.0 -0.984351465 -0.009861895
22000168000.0 -0.982950873 0.005492313
22050167700.0 -0.9824304328 0.0193988143
22100167400.0 -0.9824713318 0.034174776
22150167100.0 -0.9836835661 0.049967288
22200166800.0 -0.9833457175 0.0664847952
22250166500.0 -0.9830378398 0.0835634685
22300166200.0 -0.9829669048 0.0997992497
22350165900.0 -0.9808225876 0.1158807378
22400165600.0 -0.9789581744 0.1322127424
22450165300.0 -0.9780614609 0.1477121309
22500165000.0 -0.9755843935 0.1616067054
22550164700.0 -0.9740621383 0.176995446
22600164400.0 -0.9735378714 0.1920952987
22650164100.0 -0.9700496253 0.2066940582
22700163800.0 -0.9682547392 0.2229294792
22750163500.0 -0.9647275432 0.2374719389
22800163200.0 -0.9620262583 0.2512645897
22850162900.0 -0.9599513056 0.2645928819
22900162600.0 -0.958754076 0.2783245327
22950162300.0 -0.9577025163 0.2908405209
23000162000.0 -0.9567436676 0.3027763377
23050161700.0 -0.9546336449 0.3153824055
23100161400.0 -0.9521312822 0.3277729879
23150161100.0 -0.9498972277 0.3401419315
23200160800.0 -0.9470210653 0.3524871939
23250160500.0 -0.9447761386 0.3643447198
23300160200.0 -0.9419350568 0.3759217788
23350159900.0 -0.9382001304 0.3894765299
23400159600.0 -0.9331296551 0.4023342933
23450159300.0 -0.9283486559 0.4153239915
23500159000.0 -0.9238493148 0.4287981286
23550158700.0 -0.9189537604 0.4418093828
23600158400.0 -0.9138932969 0.4550174175
23650158100.0 -0.9074939814 0.4689349675
23700157800.0 -0.9000311156 0.4825996467
23750157500.0 -0.8912760579 0.4964655082
23800157200.0 -0.8825273362 0.5098536679
23850156900.0 -0.8731404915 0.5225000559
23900156600.0 -0.8642248525 0.5350310142
23950156300.0 -0.8543388085 0.5473259417
24000156000.0 -0.8456071586 0.5592336144
24050155700.0 -0.8354027549 0.5712747858
24100155400.0 -0.8254905186 0.5832461216
24150155100.0 -0.8151353543 0.5948624527
24200154800.0 -0.8033079301 0.606038781
24250154500.0 -0.7925524352 0.618281458
24300154200.0 -0.7806505684 0.6299093174
24350153900.0 -0.7692236193 0.6403925029
24400153600.0 -0.7569013596 0.6504698228
24450153300.0 -0.7449679606 0.660560627
24500153000.0 -0.7330487286 0.6699498959
24550152700.0 -0.7217179853 0.6799118492
24600152400.0 -0.7101294338 0.6891325517
24650152100.0 -0.6988127242 0.6974902524
