!Created with skrf (http://scikit-rf.org).
# Hz S RI R 50.0 
!freq ReS11 ImS11
300000.0 -0.9747281385 -0.1192866753
50299700.0 -0.9999115064 0.0149854815
100299400.0 -0.9978912092 0.0278986128
150299100.0 -1.002615296 0.0449955413
200298800.0 -0.9995198664 0.0582414206
250298500.0 -0.997324075 0.0717804999
300298200.0 -0.9857757371 0.087635788
350297900.0 -0.9939546658 0.0983978595
400297600.0 -0.9930900332 0.1149941395
450297300.0 -0.991094396 0.1287959353
500297000.0 -0.9892628604 0.1433349948
550296700.0 -0.9843227184 0.1557723149
600296400.0 -1.017299189 0.1890829797
650296100.0 -0.9822817294 0.185867548
700295800.0 -0.9791948312 0.1999473532
750295500.0 -0.9762943303 0.2140791897
800295200.0 -0.9727929997 0.2281461186
850294900.0 -0.9696720035 0.2419973576
900294600.0 -0.9658375282 0.2557165911
950294300.0 -0.9621413798 0.2695569683
1000294000.0 -0.9582186171 0.2832196187
1050293700.0 -0.953591046 0.2970675737
1100293400.0 -0.9495533608 0.3115650509
1150293100.0 -0.9455157804 0.3234089958
1200292800.0 -0.9402547591 0.3378039441
1250292500.0 -0.9344841375 0.3512713814
1300292200.0 -0.9290144257 0.3645057424
1350291900.0 -0.9235432577 0.3784503773
1400291600.0 -0.9179055192 0.3915434791
1450291300.0 -0.9124388347 0.4040221267
1500291000.0 -0.9060294246 0.4173000316
1550290700.0 -0.8996151195 0.4305317556
1600290400.0 -0.8933432872 0.4437034886
1650290100.0 -0.8867029212 0.4557585515
1700289800.0 -0.8797754287 0.4694454395
1750289500.0 -0.8728215959 0.481559758
1800289200.0 -0.8656783613 0.4943965104
1850288900.0 -0.8587639187 0.505851503
1900288600.0 -0.8510696382 0.5187918444
1950288300.0 -0.8430074569 0.5313433284
2000288000.0 -0.8353633328 0.5427389794
2050287700.0 -0.827298874 0.5552528271
2100287400.0 -0.8193816354 0.5667954456
2150287100.0 -0.8109263713 0.5786770526
2200286800.0 -0.8030559535 0.5891912183
2250286500.0 -0.7940130595 0.6013454624
2300286200.0 -0.7853557167 0.6130110592
2350285900.0 -0.7768111327 0.6234816688
2400285600.0 -0.7679100327 0.6344802967
2450285300.0 -0.7591643073 0.6451144611
2500285000.0 -0.7491879944 0.6567063341
2550284700.0 -0.7401484054 0.6670080731
2600284400.0 -0.7311298825 0.6768342357
2650284100.0 -0.7223679375 0.687165878
2700283800.0 -0.7117989675 0.6977533234
2750283500.0 -0.7013512178 0.7084284503
2800283200.0 -0.6916103453 0.7181774186
2850282900.0 -0.6811660569 0.728265533
2900282600.0 -0.6708534608 0.7375994611
2950282300.0 -0.6604494101 0.7470456718
3000282000.0 -0.6494751969 0.7565467461
3050281700.0 -0.6384487308 0.7659097657
3100281400.0 -0.6267688839 0.7748045606
3150281100.0 -0.6157283056 0.7841394209
3200280800.0 -0.6038910132 0.7924094456
3250280500.0 -0.5929410422 0.8002523086
3300280200.0 -0.5813150859 0.8083870008
3350279900.0 -0.5694377603 0.8164676961
3400279600.0 -0.5568675776 0.824299761
3450279300.0 -0.5458408951 0.831432972
3500279000.0 -0.5340037292 0.8383590728
3550278700.0 -0.5218559821 0.845676686
3600278400.0 -0.5099641465 0.852383204
3650278100.0 -0.4969744156 0.8601567241
3700277800.0 -0.4846617283 0.8663972952
3750277500.0 -0.4720594346 0.8730975049
3800277200.0 -0.4599289769 0.8795711303
3850276900.0 -0.4478103923 0.8856805781
3900276600.0 -0.4370442054 0.8912764425
3950276300.0 -0.4247961314 0.8971194953
4000276000.0 -0.4131738394 0.9031017148
4050275700.0 -0.4001491659 0.9092005215
4100275400.0 -0.3893113143 0.9147626736
4150275100.0 -0.3764660176 0.9204172235
4200274800.0 -0.3626500325 0.9260656254
4250274500.0 -0.3505251364 0.9315651504
4300274200.0 -0.3370677311 0.9365627146
4350273900.0 -0.3231712665 0.942083168
4400273600.0 -0.308413318 0.9469888753
4450273300.0 -0.293091701 0.952107795
4500273000.0 -0.27993758 0.9565629625
4550272700.0 -0.2661166363 0.9604635605
4600272400.0 -0.2509578572 0.9646699667
4650272100.0 -0.239376294 0.9678966179
4700271800.0 -0.2263318879 0.9712446278
4750271500.0 -0.2148241834 0.9741694044
4800271200.0 -0.2026802519 0.9767995621
4850270900.0 -0.1887889756 0.9796680443
4900270600.0 -0.1750164757 0.9819904381
4950270300.0 -0.1603779234 0.9846673432
5000270000.0 -0.1458729082 0.9863685832
5050269700.0 -0.1324035854 0.9886069772
5100269400.0 -0.1186382216 0.9899964283
5150269100.0 -0.1046535459 0.9921266658
5200268800.0 -0.0913448356 0.9925076674
5250268500.0 -0.0780683925 0.9937050814
5300268200.0 -0.0647098734 0.994380919
5350267900.0 -0.0520095581 0.9951684696
5400267600.0 -0.0358443288 0.996160115
5450267300.0 -0.0224655987 0.9966488417
5500267000.0 -0.0072644752 0.9971532208
5550266700.0 0.0076675458 0.9971962667
5600266400.0 0.0232480389 0.9969155702
5650266100.0 0.0398873109 0.9968772519
5700265800.0 0.0540574736 0.9961159859
5750265500.0 0.069009394 0.9950564191
5800265200.0 0.0827542922 0.9941613385
5850264900.0 0.0961239404 0.993177338
5900264600.0 0.1125377983 0.991209894
5950264300.0 0.1239543305 0.9893857776
6000264000.0 0.1379543048 0.9879646522
6050263700.0 0.1497710833 0.9868173715
6100263400.0 0.1622577925 0.9849517502
6150263100.0 0.176578285 0.9828906619
6200262800.0 0.1864790328 0.9809873108
6250262500.0 0.1990800771 0.978570342
6300262200.0 0.2114537405 0.9762030825
6350261900.0 0.2244554667 0.973455555
6400261600.0 0.2383774442 0.9699994946
6450261300.0 0.2493628278 0.9675294228
6500261000.0 0.2624042799 0.9638056391
6550260700.0 0.2754890364 0.9598354456
6600260400.0 0.2893248923 0.95601813
6650260100.0 0.3033348129 0.9514634628
6700259800.0 0.3152193735 0.9468455774
6750259500.0 0.328847178 0.9421107205
6800259200.0 0.3425929155 0.9372380356
6850258900.0 0.3548776667 0.9320760823
6900258600.0 0.3672792599 0.9267560729
6950258300.0 0.379830782 0.9215346612
7000258000.0 0.3916161424 0.916148472
7050257700.0 0.4035211856 0.910317147
7100257400.0 0.4169219257 0.903956607
7150257100.0 0.4273101032 0.8987843715
7200256800.0 0.4404088368 0.8921733184
7250256500.0 0.4523827325 0.8856135274
7300256200.0 0.465717834 0.8788125648
7350255900.0 0.4785837718 0.8718631474
7400255600.0 0.4923868858 0.8644314892
7450255300.0 0.5078050643 0.8554605855
7500255000.0 0.5200250092 0.8478392322
7550254700.0 0.5342950791 0.8390796099
7600254400.0 0.5467528262 0.8305073936
7650254100.0 0.5582041538 0.8227699681
7700253800.0 0.5702792745 0.8148582429
7750253500.0 0.5811187491 0.8072648554
7800253200.0 0.5915139402 0.799292885
7850252900.0 0.601443839 0.7922198896
7900252600.0 0.6129497687 0.7833080452
7950252300.0 0.621619199 0.7768963524
8000252000.0 0.6314520421 0.7693786315
8050251700.0 0.6417116498 0.7611651058
8100251400.0 0.6520107437 0.7532797205
8150251100.0 0.6622002335 0.7446876898
8200250800.0 0.6713170777 0.7367434467
8250250500.0 0.6803296133 0.7287582447
8300250200.0 0.6892720243 0.7200882787
8350249900.0 0.6986608991 0.7114427817
8400249600.0 0.7068589976 0.7033072889
8450249300.0 0.7154496156 0.6945921428
8500249000.0 0.7241449653 0.6858966858
8550248700.0 0.732455795 0.6765351589
8600248400.0 0.7408844215 0.6671248631
8650248100.0 0.7485910497 0.6577887184
8700247800.0 0.7579621703 0.6466059793
8750247500.0 0.7660361771 0.6364938285
8800247200.0 0.7740529566 0.6262280086
8850246900.0 0.7829685287 0.6146333764
8900246600.0 0.7912763506 0.6034959846
8950246300.0 0.800777871 0.5906378109
9000246000.0 0.809516136 0.5787510178
9050245700.0 0.8179822024 0.5661207122
9100245400.0 0.8266169854 0.553789277
9150245100.0 0.8353374495 0.5408578002
9200244800.0 0.8448571207 0.5264015052
9250244500.0 0.854048589 0.5114803657
9300244200.0 0.8621700754 0.4976720918
9350243900.0 0.8698501808 0.4843430826
9400243600.0 0.8764623619 0.4724818839
9450243300.0 0.8820916895 0.4617169398
9500243000.0 0.8884984447 0.4499238462
9550242700.0 0.892393394 0.4422856572
9600242400.0 0.8965225219 0.4346420785
9650242100.0 0.9004447295 0.4279860281
9700241800.0 0.9056271745 0.4193745631
9750241500.0 0.9095993913 0.4117878294
9800241200.0 0.9147799288 0.4019996475
9850240900.0 0.9203598388 0.3904777278
9900240600.0 0.9261877921 0.3786817918
9950240300.0 0.9332093461 0.3622239691
10000240000.0 0.9382300216 0.350126838
10050239700.0 0.9439650359 0.3342573997
10100239400.0 0.9492522217 0.3183606483
10150239100.0 0.9539468143 0.3030138696
10200238800.0 0.9582493442 0.2875408013
10250238500.0 0.9614749707 0.2740462011
10300238200.0 0.9645071827 0.2601500952
10350237900.0 0.9673102541 0.2467842809
10400237600.0 0.96991129 0.2335701485
10450237300.0 0.9726415573 0.2200279666
10500237000.0 0.9749394795 0.2075397166
10550236700.0 0.9772875743 0.1927148095
10600236400.0 0.9794776102 0.1796235093
10650236100.0 0.9816271463 0.1646228546
10700235800.0 0.9838452214 0.1521283915
10750235500.0 0.9860611748 0.1389164249
10800235200.0 0.9878918822 0.1244357755
10850234900.0 0.9900465676 0.1098240543
10900234600.0 0.9916362306 0.0949629647
10950234300.0 0.9935604938 0.081536539
11000234000.0 0.9955062968 0.0660399724
11050233700.0 0.9973838718 0.0495273466
11100233400.0 0.9985384413 0.032034628
11150233100.0 0.9998735611 0.0153989381
11200232800.0 1.000683555 5.62897e-05
11250232500.0 1.001988221 -0.0182238691
11300232200.0 1.001895493 -0.0362416979
11350231900.0 1.002246369 -0.0519095519
11400231600.0 1.001906829 -0.0680807243
11450231300.0 1.001405185 -0.0835345038
11500231000.0 0.9997864569 -0.0994510048
11550230700.0 0.998651511 -0.1129972977
11600230400.0 0.9965984906 -0.1255792369
11650230100.0 0.9949276371 -0.1373756722
11700229800.0 0.992643341 -0.1522197001
11750229500.0 0.9905531329 -0.1662946178
11800229200.0 0.9877409469 -0.1798220353
11850228900.0 0.984115079 -0.1919617791
11900228600.0 0.9803149981 -0.201376417
11950228300.0 0.9767932089 -0.2114627311
12000228000.0 0.9744628674 -0.220326048
12050227700.0 0.9701199025 -0.2333025898
12100227400.0 0.9674155649 -0.2440182693
12150227100.0 0.9616132415 -0.2606407018
12200226800.0 0.9587573609 -0.2715838887
12250226500.0 0.9544890912 -0.2846751437
12300226200.0 0.9504843979 -0.2969648127
12350225900.0 0.9452766384 -0.3106544116
12400225600.0 0.9408165973 -0.3231731868
12450225300.0 0.9364086721 -0.3363691196
12500225000.0 0.9308159903 -0.3508051086
12550224700.0 0.9253760746 -0.3647764068
12600224400.0 0.9206501141 -0.3771900105
12650224100.0 0.9147138521 -0.3915264956
12700223800.0 0.9095365409 -0.4043054519
12750223500.0 0.903989281 -0.4175776343
12800223200.0 0.8986280941 -0.4301195274
12850222900.0 0.8932974531 -0.4421235474
12900222600.0 0.8877947535 -0.4542119144
12950222300.0 0.8813561072 -0.4671401263
13000222000.0 0.8756165259 -0.4785823479
13050221700.0 0.8685103677 -0.4915889858
13100221400.0 0.8619271139 -0.5037523646
13150221100.0 0.8549311752 -0.5158507397
13200220800.0 0.8484883378 -0.5273107528
13250220500.0 0.8406962368 -0.5395577959
13300220200.0 0.8332475716 -0.5504065838
13350219900.0 0.8254450782 -0.5622181075
13400219600.0 0.8172269415 -0.5740809911
13450219300.0 0.8077505258 -0.5872290892
13500219000.0 0.7975751879 -0.6008599838
13550218700.0 0.7878304474 -0.6128352494
13600218400.0 0.7780667926 -0.6245977445
13650218100.0 0.7681994316 -0.6358284445
13700217800.0 0.7576110429 -0.6477895189
13750217500.0 0.7481481021 -0.6594160915
13800217200.0 0.7363062519 -0.6695359861
13850216900.0 0.7262640466 -0.6807544115
13900216600.0 0.7169331128 -0.6899540382
13950216300.0 0.7059260073 -0.6997027981
14000216000.0 0.6956178458 -0.7096989337
14050215700.0 0.6862407236 -0.7170825957
14100215400.0 0.6768876153 -0.7267052361
14150215100.0 0.6675784088 -0.7353594209
14200214800.0 0.6581328226 -0.7440968522
14250214500.0 0.647757864 -0.7535173127
14300214200.0 0.6372355114 -0.7629128323
14350213900.0 0.6263466345 -0.7725333954
14400213600.0 0.6142848998 -0.7823160456
14450213300.0 0.6016852698 -0.7926762745
14500213000.0 0.5885541458 -0.8025760888
14550212700.0 0.5760846665 -0.811986742
14600212400.0 0.5637425075 -0.8211508571
14650212100.0 0.5508173468 -0.829299591
14700211800.0 0.5370268502 -0.8386848685
14750211500.0 0.5250643706 -0.8473730211
14800211200.0 0.5124553044 -0.8556310614
14850210900.0 0.500101795 -0.8629187267
14900210600.0 0.4869524913 -0.8708335273
14950210300.0 0.4736494867 -0.8785003177
15000210000.0 0.4608908686 -0.885270508
15050209700.0 0.4487226266 -0.8914071333
15100209400.0 0.4358690832 -0.8977747291
15150209100.0 0.4234931031 -0.9028919678
15200208800.0 0.4110841796 -0.9082116916
15250208500.0 0.399683403 -0.9124461886
15300208200.0 0.3873344534 -0.9177773037
15350207900.0 0.3737015011 -0.9216636444
15400207600.0 0.3603292798 -0.9277127854
15450207300.0 0.3451277772 -0.932572083
15500207000.0 0.3309374435 -0.9368487189
15550206700.0 0.3161288721 -0.9413385844
15600206400.0 0.2999432753 -0.9465390341
15650206100.0 0.2841079746 -0.95091625
15700205800.0 0.2708878323 -0.9539995472
15750205500.0 0.2564667049 -0.9577282379
15800205200.0 0.2423089881 -0.9613892226
15850204900.0 0.2281079092 -0.9648252887
15900204600.0 0.2129952279 -0.9685954019
15950204300.0 0.1985167775 -0.9715166771
16000204000.0 0.1843686591 -0.9743992519
16050203700.0 0.1690131444 -0.9777394808
16100203400.0 0.1544318287 -0.9801401738
16150203100.0 0.1396454807 -0.9821523995
16200202800.0 0.1254532907 -0.9843490108
16250202500.0 0.1109053377 -0.9859631673
16300202200.0 0.0952702544 -0.9878213196
16350201900.0 0.0800409609 -0.9891820764
16400201600.0 0.0654182567 -0.9903064955
16450201300.0 0.050162935 -0.9913118773
16500201000.0 0.0330645545 -0.9920922392
16550200700.0 0.0172088908 -0.9926379901
16600200400.0 0.0013114005 -0.9928505926
16650200100.0 -0.0145697635 -0.9926014857
16700199800.0 -0.0313531568 -0.9924399881
16750199500.0 -0.0499643525 -0.9918346298
16800199200.0 -0.0656690918 -0.9909451336
16850198900.0 -0.081051845 -0.9899774768
16900198600.0 -0.0956036155 -0.9885751674
16950198300.0 -0.1088771079 -0.9879182802
17000198000.0 -0.1217886751 -0.9860816447
17050197700.0 -0.1349615937 -0.9841615505
17100197400.0 -0.1480950284 -0.9820015776
17150197100.0 -0.1605964666 -0.9801025671
17200196800.0 -0.1738278057 -0.9778694543
17250196500.0 -0.1861117121 -0.975439937
17300196200.0 -0.198257595 -0.973395407
17350195900.0 -0.2101891525 -0.9709098778
17400195600.0 -0.2222678184 -0.968429938
17450195300.0 -0.2350044168 -0.9655451792
17500195000.0 -0.248262743 -0.9622623923
17550194700.0 -0.262193584 -0.9587977135
17600194400.0 -0.2761131854 -0.9548686502
17650194100.0 -0.2897688501 -0.9504180789
17700193800.0 -0.3028309639 -0.946401105
17750193500.0 -0.3170156352 -0.9420160343
17800193200.0 -0.331124586 -0.9367444783
17850192900.0 -0.3462766605 -0.9314561212
17900192600.0 -0.3612618724 -0.9251935166
17950192300.0 -0.3767617812 -0.9181010964
18000192000.0 -0.3916609664 -0.9110632562
18050191700.0 -0.4053467667 -0.9030912942
18100191400.0 -0.4194583196 -0.8954279247
18150191100.0 -0.4343403342 -0.8874529525
18200190800.0 -0.4513800296 -0.8782604563
18250190500.0 -0.4683097265 -0.868871902
18300190200.0 -0.4837659903 -0.8601438002
18350189900.0 -0.4988696683 -0.8518298304
18400189600.0 -0.5132511446 -0.843139222
18450189300.0 -0.5267717591 -0.8352379145
18500189000.0 -0.5402675311 -0.8268513106
18550188700.0 -0.5528439058 -0.8197147068
18600188400.0 -0.5644209132 -0.8129380249
18650188100.0 -0.5759120571 -0.8062869036
18700187800.0 -0.5870989685 -0.7998027358
18750187500.0 -0.5980039163 -0.79286157
18800187200.0 -0.608299111 -0.7860521493
18850186900.0 -0.6187171723 -0.7790743027
18900186600.0 -0.6290482753 -0.7717558847
18950186300.0 -0.6391051023 -0.7640150819
19000186000.0 -0.6461746683 -0.758125386
19050185700.0 -0.6558503499 -0.750489655
19100185400.0 -0.6661845883 -0.7420306713
19150185100.0 -0.6761012905 -0.7339468424
19200184800.0 -0.6849445756 -0.7256523105
19250184500.0 -0.6954180935 -0.7161072032
19300184200.0 -0.7073921949 -0.7072244254
19350183900.0 -0.7177790738 -0.6971930098
19400183600.0 -0.7278923316 -0.687083815
19450183300.0 -0.7364891629 -0.6772055344
19500183000.0 -0.744891587 -0.6672840027
19550182700.0 -0.7543346844 -0.6561580732
19600182400.0 -0.764819035 -0.6445174114
19650182100.0 -0.7754188327 -0.632659016
19700181800.0 -0.7858872507 -0.6190879449
19750181500.0 -0.7963535831 -0.6049455607
19800181200.0 -0.8064044787 -0.5899698515
19850180900.0 -0.8161172482 -0.574814661
19900180600.0 -0.8239107177 -0.5602903791
19950180300.0 -0.8331823533 -0.5438645354
20000180000.0 -0.8233941897 -0.5471024242
20050179700.0 -0.8325447971 -0.5342529835
20100179400.0 -0.8407435071 -0.5209160573
20150179100.0 -0.8478172544 -0.5085250338
20200178800.0 -0.8568543139 -0.4976026911
20250178500.0 -0.8661266734 -0.4850135628
20300178200.0 -0.8761612831 -0.4702751697
20350177900.0 -0.8856118574 -0.4562956386
20400177600.0 -0.8941731737 -0.4422222757
20450177300.0 -0.9024641084 -0.4279897777
20500177000.0 -0.9106040844 -0.4141146766
20550176700.0 -0.918602037 -0.4004839422
20600176400.0 -0.9255471865 -0.3878603325
20650176100.0 -0.9320851954 -0.3754743121
20700175800.0 -0.9386928029 -0.3630533182
20750175500.0 -0.9454789769 -0.3514426979
20800175200.0 -0.9501849786 -0.3410561261
20850174900.0 -0.9543830823 -0.3300883126
20900174600.0 -0.9584032074 -0.319110794
20950174300.0 -0.9619792754 -0.3078500983
21000174000.0 -0.9646662365 -0.2967231095
21050173700.0 -0.9666221716 -0.2873524596
21100173400.0 -0.9703808908 -0.2757717856
21150173100.0 -0.9740102792 -0.2639476406
21200172800.0 -0.978277608 -0.2508337216
21250172500.0 -0.9818148744 -0.2370308376
21300172200.0 -0.9853367293 -0.2228532741
21350171900.0 -0.9871207674 -0.2086093059
21400171600.0 -0.9889853763 -0.1943863374
21450171300.0 -0.9896514112 -0.1804228033
21500171000.0 -0.9894855918 -0.1649062764
21550170700.0 -0.9909497039 -0.1506253616
21600170400.0 -0.9907726338 -0.1344683284
21650170100.0 -0.9901869735 -0.1181434798
21700169800.0 -0.9905564606 -0.1036175159
21750169500.0 -0.9899531261 -0.0869379919
21800169200.0 -0.9889214891 -0.070633997
21850168900.0 -0.9896539667 -0.0544089263
21900168600.0 -0.9884666642 -0.0378769348
21950168300.0 -0.9875888543 -0.0222633732
22000168000.0 -0.9874463941 -0.0071256458
22050167700.0 -0.9885728804 0.0071061438
22100167400.0 -0.9886309747 0.0229898816
22150167100.0 -0.9895361032 0.0386690957
22200166800.0 -0.9901262466 0.0549495367
22250166500.0 -0.9894682057 0.0724019515
22300166200.0 -0.9884664645 0.0887292882
22350165900.0 -0.9876743157 0.1050243607
22400165600.0 -0.9861128631 0.1203917882
22450165300.0 -0.9850276168 0.1369745208
22500165000.0 -0.9824064772 0.1497088675
22550164700.0 -0.9816125806 0.1674595768
22600164400.0 -0.9791187588 0.181902117
22650164100.0 -0.9761537806 0.1974143721
22700163800.0 -0.9737233476 0.2128584107
22750163500.0 -0.9704785827 0.2278708891
22800163200.0 -0.9679439543 0.2412109749
22850162900.0 -0.9653360266 0.2548718524
22900162600.0 -0.9636393363 0.2685561336
22950162300.0 -0.9619767957 0.281629961
23000162000.0 -0.9604008349 0.2943711259
23050161700.0 -0.9579432271 0.3073971282
23100161400.0 -0.9554098887 0.3204918746
23150161100.0 -0.9523890395 0.3332706655
23200160800.0 -0.9488127841 0.3462132547
23250160500.0 -0.9464588865 0.3587370461
23300160200.0 -0.9442939435 0.3708144258
23350159900.0 -0.9400183748 0.3846829664
23400159600.0 -0.9351962663 0.3978789436
23450159300.0 -0.9295342568 0.4120198489
23500159000.0 -0.9251399519 0.4252574961
23550158700.0 -0.9206330971 0.4395549462
23600158400.0 -0.9145751494 0.452940769
23650158100.0 -0.907596133 0.4673386645
23700157800.0 -0.8990697756 0.4818322064
23750157500.0 -0.8900259221 0.496001432
23800157200.0 -0.8805037519 0.5094041538
23850156900.0 -0.8714242504 0.5223879648
23900156600.0 -0.861129726 0.5350059761
23950156300.0 -0.851889488 0.5468160379
24000156000.0 -0.8416239158 0.5595885375
24050155700.0 -0.832091466 0.5712618473
24100155400.0 -0.8227414978 0.5845166568
24150155100.0 -0.8112884678 0.5963306025
24200154800.0 -0.7997477031 0.6080285932
24250154500.0 -0.7883083396 0.6198804187
24300154200.0 -0.7769338111 0.632066665
24350153900.0 -0.7655346241 0.6430016969
24400153600.0 -0.7529322768 0.6537191984
24450153300.0 -0.7410990904 0.6636546975
24500153000.0 -0.7290921228 0.6737580563
24550152700.0 -0.7178883214 0.6839496739
24600152400.0 -0.7062754756 0.6922538949
24650152100.0 -0.6941086946 0.7015544374
