!Created with skrf (http://scikit-rf.org).
# Hz S RI R 50.0 
!freq ReS11 ImS11
300000.0 -0.9735951448 -0.1241343688
50299700.0 -0.9998837015 0.014824315
100299400.0 -0.9979756427 0.0278814303
150299100.0 -1.002574101 0.0447256859
200298800.0 -0.999503415 0.0580300128
250298500.0 -0.9974018369 0.0716310149
300298200.0 -0.986065621 0.0875078621
350297900.0 -0.9938358018 0.0982591814
400297600.0 -0.9929917083 0.1148149745
450297300.0 -0.9910388376 0.1286461444
500297000.0 -0.9893885756 0.143265521
550296700.0 -0.9842721462 0.1558557391
600296400.0 -1.017359904 0.1889527468
650296100.0 -0.9821884209 0.1856824043
700295800.0 -0.9793219515 0.1998623831
750295500.0 -0.9762183222 0.2137270515
800295200.0 -0.9730781535 0.227989918
850294900.0 -0.9695841502 0.2418620346
900294600.0 -0.9656234565 0.2554721744
950294300.0 -0.9621262 0.2691011589
1000294000.0 -0.9580833002 0.2832005874
1050293700.0 -0.9538009419 0.2968886167
1100293400.0 -0.9491531952 0.3113206961
1150293100.0 -0.9455284725 0.3233386785
1200292800.0 -0.9402246623 0.3376215855
1250292500.0 -0.9345507365 0.3512694491
1300292200.0 -0.9289331896 0.3644501306
1350291900.0 -0.9235217901 0.37825686
1400291600.0 -0.9179279819 0.3915471548
1450291300.0 -0.9126286175 0.4037163241
1500291000.0 -0.9061885836 0.4172295646
1550290700.0 -0.8999868711 0.4307017364
1600290400.0 -0.8935691115 0.443575475
1650290100.0 -0.8868874423 0.4556990044
1700289800.0 -0.8801071058 0.4691628869
1750289500.0 -0.8730403243 0.4814922839
1800289200.0 -0.8656988322 0.4944628652
1850288900.0 -0.8587109461 0.5057462265
1900288600.0 -0.8509732391 0.5186918251
1950288300.0 -0.842904559 0.5311259525
2000288000.0 -0.8355602513 0.5427806609
2050287700.0 -0.8272914136 0.5550443573
2100287400.0 -0.8194952035 0.5664188421
2150287100.0 -0.8109704484 0.5782583921
2200286800.0 -0.8030658847 0.5890489179
2250286500.0 -0.794015443 0.6011296286
2300286200.0 -0.7852797726 0.6126605829
2350285900.0 -0.7767805988 0.6233598988
2400285600.0 -0.7679750905 0.6340694174
2450285300.0 -0.7595051794 0.6449714106
2500285000.0 -0.7491968768 0.6566437583
2550284700.0 -0.7402548544 0.6668655931
2600284400.0 -0.7310340396 0.6767382766
2650284100.0 -0.7225893314 0.6871007466
2700283800.0 -0.7118499128 0.6974017155
2750283500.0 -0.701620179 0.7082354136
2800283200.0 -0.6917787608 0.7183634102
2850282900.0 -0.6811415445 0.7281164255
2900282600.0 -0.6709679117 0.7376056339
2950282300.0 -0.6603046828 0.7472524358
3000282000.0 -0.6497161751 0.7566286875
3050281700.0 -0.6383457647 0.7660394913
3100281400.0 -0.6268883784 0.7748208246
3150281100.0 -0.615606256 0.7839116043
3200280800.0 -0.6043596651 0.7923358842
3250280500.0 -0.5933084884 0.8002542594
3300280200.0 -0.5814349418 0.8082557042
3350279900.0 -0.5693842651 0.8164835825
3400279600.0 -0.5565964517 0.8244605455
3450279300.0 -0.5456673011 0.8316881893
3500279000.0 -0.5338466484 0.8384799443
3550278700.0 -0.5218829731 0.8458743079
3600278400.0 -0.5099761496 0.8522811489
3650278100.0 -0.4968469584 0.8598956317
3700277800.0 -0.484774057 0.8664651153
3750277500.0 -0.4723011284 0.8730289744
3800277200.0 -0.4599991715 0.8795809122
3850276900.0 -0.4477293866 0.8856564042
3900276600.0 -0.437055462 0.8910132418
3950276300.0 -0.4250181824 0.8973490418
4000276000.0 -0.4133989164 0.9029836961
4050275700.0 -0.4008071863 0.9090747635
4100275400.0 -0.389525917 0.9143112328
4150275100.0 -0.3760290732 0.920332199
4200274800.0 -0.3628322628 0.9261400409
4250274500.0 -0.3502445256 0.931742544
4300274200.0 -0.3367611267 0.9368110491
4350273900.0 -0.3225715584 0.9419671114
4400273600.0 -0.3077754307 0.947000329
4450273300.0 -0.2928834413 0.9521587406
4500273000.0 -0.2797880206 0.9563655213
4550272700.0 -0.2662282356 0.9603506767
4600272400.0 -0.2510734767 0.9646817505
4650272100.0 -0.2398690272 0.9677086586
4700271800.0 -0.22710883 0.97100975
4750271500.0 -0.2153292503 0.9739714349
4800271200.0 -0.2031225423 0.9766039442
4850270900.0 -0.1893759866 0.9794119622
4900270600.0 -0.1755290644 0.9819083029
4950270300.0 -0.1611308114 0.984461943
5000270000.0 -0.1464881081 0.9868505584
5050269700.0 -0.1330416126 0.9882333332
5100269400.0 -0.1188892671 0.9901016099
5150269100.0 -0.1046874762 0.9916247751
5200268800.0 -0.0912705581 0.9925948008
5250268500.0 -0.0782441332 0.9936461619
5300268200.0 -0.0649719615 0.9942510281
5350267900.0 -0.0517673316 0.9952720084
5400267600.0 -0.0356616712 0.9962903988
5450267300.0 -0.0222108992 0.9967814285
5500267000.0 -0.0068538315 0.9969896709
5550266700.0 0.0079837999 0.9973356203
5600266400.0 0.0238388147 0.9970853045
5650266100.0 0.0405728915 0.9967952969
5700265800.0 0.0546525937 0.9955867387
5750265500.0 0.0694799457 0.9950222655
5800265200.0 0.0829408447 0.994302889
5850264900.0 0.0961038541 0.993137824
5900264600.0 0.1127177018 0.9912533486
5950264300.0 0.1242503103 0.9895732597
6000264000.0 0.1378332842 0.9880665486
6050263700.0 0.1493530085 0.986696208
6100263400.0 0.1616266087 0.9851382871
6150263100.0 0.1762088234 0.9827645911
6200262800.0 0.1856305146 0.9810196512
6250262500.0 0.1985044037 0.9786717418
6300262200.0 0.2105787848 0.976270675
6350261900.0 0.2235259195 0.973600867
6400261600.0 0.2373229903 0.9703045821
6450261300.0 0.2484400701 0.9678271118
6500261000.0 0.2619365297 0.964194443
6550260700.0 0.2749939867 0.9602929259
6600260400.0 0.2881272566 0.9559631247
6650260100.0 0.3024844858 0.9517968923
6700259800.0 0.3145867762 0.9476284021
6750259500.0 0.3283588356 0.9426317612
6800259200.0 0.341715561 0.9374363794
6850258900.0 0.3545695148 0.9322986675
6900258600.0 0.3669847663 0.9270668339
6950258300.0 0.3794157971 0.9216533992
7000258000.0 0.3910321509 0.9163284842
7050257700.0 0.4027377346 0.9106508962
7100257400.0 0.416339989 0.9041340051
7150257100.0 0.4270320113 0.8986653781
7200256800.0 0.44030978 0.8922773357
7250256500.0 0.4527990768 0.8856518023
7300256200.0 0.4655006201 0.8786067934
7350255900.0 0.4786346786 0.8717419298
7400255600.0 0.492565529 0.8641434659
7450255300.0 0.5086493405 0.8551456113
7500255000.0 0.5213302972 0.8474766292
7550254700.0 0.5354204621 0.8384035655
7600254400.0 0.5474347331 0.8300782731
7650254100.0 0.5589041747 0.821974307
7700253800.0 0.5711229396 0.8140070762
7750253500.0 0.5815331176 0.8063612536
7800253200.0 0.5926197224 0.798492874
7850252900.0 0.6023562161 0.791233267
7900252600.0 0.6138182329 0.7825428869
7950252300.0 0.6221594705 0.7761923377
8000252000.0 0.6320812634 0.7688702726
8050251700.0 0.6423162665 0.7606199087
8100251400.0 0.652529424 0.7527784868
8150251100.0 0.6624329095 0.744128224
8200250800.0 0.67202078 0.7359307785
8250250500.0 0.6805961687 0.7279657845
8300250200.0 0.690037425 0.7198121964
8350249900.0 0.6990740439 0.7108773359
8400249600.0 0.7071006908 0.7030380888
8450249300.0 0.715612152 0.6943959168
8500249000.0 0.7245476277 0.6855109222
8550248700.0 0.7325726182 0.6764215172
8600248400.0 0.740963749 0.6669152997
8650248100.0 0.7485844586 0.6573746929
8700247800.0 0.7578213146 0.6463273781
8750247500.0 0.7660305794 0.6364673321
8800247200.0 0.7739706763 0.6259757475
8850246900.0 0.7827563417 0.6146994159
8900246600.0 0.7909869819 0.6031863863
8950246300.0 0.80024329 0.5907855179
9000246000.0 0.8090587299 0.5786608341
9050245700.0 0.8173109401 0.5664774769
9100245400.0 0.8257134555 0.5545562913
9150245100.0 0.8343362413 0.541505171
9200244800.0 0.8441230118 0.526964634
9250244500.0 0.8531763303 0.5123129449
9300244200.0 0.8609844093 0.4989027892
9350243900.0 0.8687781735 0.4858096315
9400243600.0 0.875303256 0.4742496101
9450243300.0 0.8806668209 0.4638319852
9500243000.0 0.887057655 0.4521107479
9550242700.0 0.8910623389 0.444770513
9600242400.0 0.8952466283 0.4371636627
9650242100.0 0.8996149101 0.4300028656
9700241800.0 0.9046162902 0.4212985475
9750241500.0 0.9088354815 0.4138501739
9800241200.0 0.9138548083 0.4040916972
9850240900.0 0.9194840166 0.3927680321
9900240600.0 0.925892216 0.3808561708
9950240300.0 0.9330514579 0.3640139737
10000240000.0 0.9377446169 0.3519330561
10050239700.0 0.9441166823 0.335310132
10100239400.0 0.9493987961 0.3192131781
10150239100.0 0.9543257101 0.3034106987
10200238800.0 0.9582569713 0.2878812197
10250238500.0 0.9614684415 0.2745583308
10300238200.0 0.9646723419 0.2607481803
10350237900.0 0.9674690187 0.2472343069
10400237600.0 0.9700097407 0.2338086179
10450237300.0 0.9726301386 0.2202359354
10500237000.0 0.974809927 0.207915593
10550236700.0 0.9774862629 0.1930233091
10600236400.0 0.9794277274 0.1797260708
10650236100.0 0.9815339066 0.1651157688
10700235800.0 0.9837255487 0.1524998971
10750235500.0 0.9859556556 0.1391940592
10800235200.0 0.987966617 0.1244873324
10850234900.0 0.9899709647 0.1097909919
10900234600.0 0.992131815 0.0947164847
10950234300.0 0.9937957189 0.0812382605
11000234000.0 0.9955584762 0.065554841
11050233700.0 0.9973331712 0.0487709824
11100233400.0 0.9988352292 0.0309433919
11150233100.0 1.000458107 0.0139286536
11200232800.0 1.000671263 -0.0021318962
11250232500.0 1.002008734 -0.0196251557
11300232200.0 1.002238645 -0.0380348936
11350231900.0 1.002028059 -0.0537843984
11400231600.0 1.001247374 -0.0694832574
11450231300.0 1.001158903 -0.0852440425
11500231000.0 0.9995364454 -0.1021727921
11550230700.0 0.9983819546 -0.1152311435
11600230400.0 0.9964028338 -0.1279412866
11650230100.0 0.9947129395 -0.1395772346
11700229800.0 0.9924396672 -0.1549753711
11750229500.0 0.9901912062 -0.1686377252
11800229200.0 0.9871538788 -0.1819491159
11850228900.0 0.9835621118 -0.1937861693
11900228600.0 0.9799969846 -0.2032375026
11950228300.0 0.9763439631 -0.2134681855
12000228000.0 0.9734880253 -0.2224007421
12050227700.0 0.9701338283 -0.2343324385
12100227400.0 0.9667726857 -0.2456490057
12150227100.0 0.9617062146 -0.2626499152
12200226800.0 0.9581747757 -0.2730762467
12250226500.0 0.9540955258 -0.2861272887
12300226200.0 0.9495996754 -0.2980998039
12350225900.0 0.9440924813 -0.3123684734
12400225600.0 0.9396992891 -0.3245484123
12450225300.0 0.9358583982 -0.3370119884
12500225000.0 0.9300936257 -0.3518210419
12550224700.0 0.9246178727 -0.3658584047
12600224400.0 0.9199480386 -0.3785304038
12650224100.0 0.9140436487 -0.3926280055
12700223800.0 0.9088493083 -0.405513644
12750223500.0 0.9032199983 -0.4187151992
12800223200.0 0.8979117756 -0.4312455446
12850222900.0 0.8926914895 -0.4433468122
12900222600.0 0.8872590256 -0.4558166402
12950222300.0 0.8809933976 -0.4677245745
13000222000.0 0.8753755877 -0.4795535107
13050221700.0 0.8684766419 -0.4922060193
13100221400.0 0.8615491417 -0.5048347797
13150221100.0 0.8546584876 -0.5166728687
13200220800.0 0.8477882459 -0.5280865746
13250220500.0 0.840332304 -0.5403727178
13300220200.0 0.8328277998 -0.5515970414
13350219900.0 0.8246611502 -0.5633361657
13400219600.0 0.8160925771 -0.5751034802
13450219300.0 0.8069974403 -0.5879514547
13500219000.0 0.7972122592 -0.6011166178
13550218700.0 0.7874443108 -0.613386245
13600218400.0 0.7772520376 -0.6257563049
13650218100.0 0.7683276759 -0.6359460559
13700217800.0 0.7564811315 -0.6480259608
13750217500.0 0.7470326099 -0.6586437191
13800217200.0 0.736925794 -0.6705081647
13850216900.0 0.7258517124 -0.6809398128
13900216600.0 0.716591298 -0.6896348217
13950216300.0 0.7053767424 -0.7000699586
14000216000.0 0.6953925708 -0.7091729437
14050215700.0 0.6864725319 -0.7171547107
14100215400.0 0.676716706 -0.7260785616
14150215100.0 0.6678927013 -0.7349012835
14200214800.0 0.6583105537 -0.7435917019
14250214500.0 0.6478426608 -0.753301566
14300214200.0 0.6373790712 -0.7627623743
14350213900.0 0.6261486525 -0.7724058942
14400213600.0 0.6141917506 -0.782155929
14450213300.0 0.6016332774 -0.7927223635
14500213000.0 0.5887231243 -0.8023187936
14550212700.0 0.5759465328 -0.8116506683
14600212400.0 0.5633527176 -0.8206694143
14650212100.0 0.5511079742 -0.8291262943
14700211800.0 0.5374026258 -0.8386644711
14750211500.0 0.5247096525 -0.8471075906
14800211200.0 0.5125193069 -0.8552177941
14850210900.0 0.5001020396 -0.8629024289
14900210600.0 0.4869541395 -0.8708796098
14950210300.0 0.4735587478 -0.8784205791
15000210000.0 0.4611365223 -0.8851568889
15050209700.0 0.448804401 -0.891378614
15100209400.0 0.4357346465 -0.8971193784
15150209100.0 0.4235447685 -0.9026700563
15200208800.0 0.4112189835 -0.9072968042
15250208500.0 0.4003215057 -0.9119554592
15300208200.0 0.38855702 -0.9168333588
15350207900.0 0.3745356994 -0.9220578841
15400207600.0 0.3601468338 -0.9270306644
15450207300.0 0.3451796103 -0.9327132048
15500207000.0 0.3310867835 -0.9371688721
15550206700.0 0.3160092749 -0.9416396077
15600206400.0 0.2996961056 -0.9465156112
15650206100.0 0.2841639249 -0.9506061462
15700205800.0 0.2707310212 -0.9544956539
15750205500.0 0.2566024553 -0.9575817852
15800205200.0 0.2428127756 -0.9609559645
15850204900.0 0.228666029 -0.9645029426
15900204600.0 0.2137733146 -0.9682766767
15950204300.0 0.199458018 -0.9712669255
16000204000.0 0.1846114186 -0.9741272742
16050203700.0 0.1694972537 -0.9773615356
16100203400.0 0.1548065009 -0.9799198005
16150203100.0 0.1399727103 -0.9820689014
16200202800.0 0.1256449241 -0.9844189777
16250202500.0 0.1105125902 -0.9856855733
16300202200.0 0.0951690575 -0.9873832379
16350201900.0 0.0804049355 -0.9890314733
16400201600.0 0.0654452945 -0.9902485884
16450201300.0 0.0502961726 -0.9913330195
16500201000.0 0.0328357684 -0.9921480726
16550200700.0 0.016795436 -0.9926376765
16600200400.0 0.0010820581 -0.9928318747
16650200100.0 -0.0152864902 -0.9927407496
16700199800.0 -0.0315330487 -0.9926546441
16750199500.0 -0.050624615 -0.9916993491
16800199200.0 -0.0665414401 -0.990688957
16850198900.0 -0.0822466265 -0.9895626998
16900198600.0 -0.0959728927 -0.9883677304
16950198300.0 -0.1098503185 -0.9873237373
17000198000.0 -0.1228698867 -0.9857167746
17050197700.0 -0.1361268481 -0.9844246001
17100197400.0 -0.1487574512 -0.9817361916
17150197100.0 -0.1611806793 -0.979986387
17200196800.0 -0.1740358846 -0.9777500632
17250196500.0 -0.186873531 -0.9752807757
17300196200.0 -0.1993495057 -0.9729649779
17350195900.0 -0.2112489374 -0.9705275271
17400195600.0 -0.2230377802 -0.9681265259
17450195300.0 -0.2359850722 -0.9653905639
17500195000.0 -0.2488896671 -0.9619617016
17550194700.0 -0.26333373 -0.958536898
17600194400.0 -0.2771153003 -0.9544329159
17650194100.0 -0.2903946422 -0.9507477676
17700193800.0 -0.3034568815 -0.9464549297
17750193500.0 -0.317944249 -0.9416185031
17800193200.0 -0.3319204868 -0.9365760059
17850192900.0 -0.346905366 -0.931069449
17900192600.0 -0.3620587354 -0.9249046275
17950192300.0 -0.377242741 -0.9179948256
18000192000.0 -0.3919129169 -0.9104132033
18050191700.0 -0.4059859077 -0.9025625308
18100191400.0 -0.4198911794 -0.895032901
18150191100.0 -0.4348334598 -0.8871924474
18200190800.0 -0.4517874839 -0.8778943013
18250190500.0 -0.468527051 -0.8687265792
18300190200.0 -0.4839459375 -0.8596314117
18350189900.0 -0.499155383 -0.8513575007
18400189600.0 -0.5139910076 -0.8425528474
18450189300.0 -0.5272694305 -0.8348640162
18500189000.0 -0.5402879273 -0.8269405956
18550188700.0 -0.5529911043 -0.8193211407
18600188400.0 -0.5648603341 -0.812359146
18650188100.0 -0.5760149219 -0.8059500423
18700187800.0 -0.587391366 -0.799267596
18750187500.0 -0.5985067058 -0.7925602208
18800187200.0 -0.6088648833 -0.7855390908
18850186900.0 -0.6191473051 -0.7785195353
18900186600.0 -0.6296129126 -0.7711446942
18950186300.0 -0.6396711142 -0.763446859
19000186000.0 -0.6472515812 -0.7571589232
19050185700.0 -0.6566340603 -0.7499626944
19100185400.0 -0.6661907444 -0.7417758556
19150185100.0 -0.6771658548 -0.7332019509
19200184800.0 -0.6862550641 -0.7253909506
19250184500.0 -0.6959864915 -0.7161538037
19300184200.0 -0.7079398978 -0.7069879892
19350183900.0 -0.7188398988 -0.6967153506
19400183600.0 -0.7284962507 -0.6861592633
19450183300.0 -0.7370088575 -0.6766012764
19500183000.0 -0.7458982421 -0.6668780625
19550182700.0 -0.7552548632 -0.6554637747
19600182400.0 -0.7655637478 -0.6443828904
19650182100.0 -0.7762571997 -0.6316523817
19700181800.0 -0.7869278095 -0.6186018114
19750181500.0 -0.7971080194 -0.6043697442
19800181200.0 -0.8072272401 -0.5894271554
19850180900.0 -0.8167572645 -0.5740568034
19900180600.0 -0.8244762815 -0.5594954727
19950180300.0 -0.8336760564 -0.5431268105
20000180000.0 -0.8239610791 -0.5464680718
20050179700.0 -0.8315471018 -0.5340996296
20100179400.0 -0.8394260654 -0.5212849785
20150179100.0 -0.8481168414 -0.5097085251
20200178800.0 -0.8556471703 -0.4980620432
20250178500.0 -0.865997495 -0.4858845111
20300178200.0 -0.8745903198 -0.4713886268
20350177900.0 -0.8843257228 -0.457829619
20400177600.0 -0.8930402983 -0.4437558046
20450177300.0 -0.9016009352 -0.4294576078
20500177000.0 -0.9098403365 -0.415402166
20550176700.0 -0.9176194653 -0.4019682434
20600176400.0 -0.9246338251 -0.3890987614
20650176100.0 -0.9314777442 -0.3765154423
20700175800.0 -0.9380407484 -0.3653899192
20750175500.0 -0.9446937163 -0.3538206544
20800175200.0 -0.9486704018 -0.3425893835
20850174900.0 -0.9531218068 -0.3317926869
20900174600.0 -0.957370598 -0.3212559826
20950174300.0 -0.9606947725 -0.3101372086
21000174000.0 -0.9634670484 -0.2997502653
21050173700.0 -0.9654177821 -0.289594183
21100173400.0 -0.9689603806 -0.2789011255
21150173100.0 -0.9726808648 -0.2674285455
21200172800.0 -0.9769792303 -0.2538262673
21250172500.0 -0.9804867134 -0.2399116697
21300172200.0 -0.9841488431 -0.2258131447
21350171900.0 -0.985764507 -0.2120504662
21400171600.0 -0.9880100563 -0.1980376124
21450171300.0 -0.9889827282 -0.1827292831
21500171000.0 -0.9889551831 -0.1692583274
21550170700.0 -0.9896562447 -0.1531540505
21600170400.0 -0.9892354643 -0.1386860363
21650170100.0 -0.9903464089 -0.1223561604
21700169800.0 -0.9904927479 -0.1076632413
21750169500.0 -0.9909181274 -0.0904038286
21800169200.0 -0.990091454 -0.0747237689
21850168900.0 -0.9902599721 -0.057536173
21900168600.0 -0.9887713861 -0.0413322903
21950168300.0 -0.9892718142 -0.0261807758
22000168000.0 -0.9894929906 -0.0109292919
22050167700.0 -0.9902089174 0.0038220352
22100167400.0 -0.9907937041 0.0193643394
22150167100.0 -0.9917232395 0.0356401081
22200166800.0 -0.9923117995 0.052129133
22250166500.0 -0.9912359992 0.0695841333
22300166200.0 -0.99122692 0.0857082227
22350165900.0 -0.9896824071 0.1028405503
22400165600.0 -0.9887777409 0.1174443385
22450165300.0 -0.986616449 0.1326955388
22500165000.0 -0.985132989 0.1463261448
22550164700.0 -0.9837638371 0.1631737121
22600164400.0 -0.9814922364 0.1798429322
22650164100.0 -0.9781749153 0.1954879756
22700163800.0 -0.9748987012 0.2110886337
22750163500.0 -0.9720939818 0.2263876432
22800163200.0 -0.9693848465 0.23918867
22850162900.0 -0.9665523947 0.2524114567
22900162600.0 -0.9648115967 0.2666442493
22950162300.0 -0.9634751812 0.2802304673
23000162000.0 -0.9611561917 0.2929875694
23050161700.0 -0.9583861989 0.3069269258
23100161400.0 -0.9563165993 0.3201653779
23150161100.0 -0.9533070243 0.3328627167
23200160800.0 -0.9503614824 0.3456912607
23250160500.0 -0.9474826442 0.3585884631
23300160200.0 -0.9445580596 0.3713882426
23350159900.0 -0.9401900094 0.3849774086
23400159600.0 -0.9351813211 0.3985724205
23450159300.0 -0.9296490245 0.4118105972
23500159000.0 -0.9251982116 0.4260300296
23550158700.0 -0.9201412942 0.4401252037
23600158400.0 -0.9140548791 0.4538821842
23650158100.0 -0.9067560656 0.4688466817
23700157800.0 -0.8982107669 0.4831578614
23750157500.0 -0.8887215938 0.4975966425
23800157200.0 -0.8785138093 0.5111319769
23850156900.0 -0.869073421 0.5240732067
23900156600.0 -0.8591398328 0.5364017269
23950156300.0 -0.8495219902 0.5492484302
24000156000.0 -0.840069264 0.5610259775
24050155700.0 -0.8295511537 0.5736138778
24100155400.0 -0.8195218485 0.5859702047
24150155100.0 -0.8076815781 0.5982664366
24200154800.0 -0.7967255778 0.6099400277
24250154500.0 -0.7857080222 0.6221048815
24300154200.0 -0.7738944584 0.6347437249
24350153900.0 -0.7621007978 0.6456899154
24400153600.0 -0.7493600883 0.6565873543
24450153300.0 -0.7372497809 0.6665934878
24500153000.0 -0.725358434 0.6766857038
24550152700.0 -0.714006572 0.6867723691
24600152400.0 -0.7019557366 0.6963091432
24650152100.0 -0.6898460798 0.7043715777
