!Created with skrf (http://scikit-rf.org).
# Hz S RI R 50.0 
!freq ReS11 ImS11
300000.0 -1.00522637 0.0325282221
50299700.0 -0.9977429968 0.0152240482
100299400.0 -0.9957038517 0.0274700545
150299100.0 -1.000292495 0.0441682262
200298800.0 -0.9970895466 0.0572233129
250298500.0 -0.9948942224 0.0704668721
300298200.0 -0.9831028692 0.0859748333
350297900.0 -0.9909452348 0.0965989456
400297600.0 -0.9898738136 0.1128711144
450297300.0 -0.9876290516 0.1262250354
500297000.0 -0.98566974 0.1406623284
550296700.0 -0.9806514083 0.1526285084
600296400.0 -1.013202767 0.1854402951
650296100.0 -0.9782028424 0.1821454717
700295800.0 -0.9754135773 0.1957795116
750295500.0 -0.9724428136 0.2096267842
800295200.0 -0.9691229073 0.2232981198
850294900.0 -0.9661046282 0.2366101468
900294600.0 -0.9623963666 0.2503232714
950294300.0 -0.9587271909 0.2634642999
1000294000.0 -0.9549794991 0.2773232829
1050293700.0 -0.9505466356 0.2910578297
1100293400.0 -0.9465118275 0.3054414936
1150293100.0 -0.9430364651 0.316991332
1200292800.0 -0.9379479315 0.3312196687
1250292500.0 -0.932467151 0.3447166628
1300292200.0 -0.927156338 0.3579428462
1350291900.0 -0.921708721 0.3719950882
1400291600.0 -0.916621474 0.3848204814
1450291300.0 -0.9116833525 0.3971077985
1500291000.0 -0.9055163125 0.4104980852
1550290700.0 -0.8992146924 0.4237134153
1600290400.0 -0.893367066 0.4367410038
1650290100.0 -0.8872267349 0.4485193538
1700289800.0 -0.8804180493 0.4620193854
1750289500.0 -0.873755546 0.4742090426
1800289200.0 -0.8669829955 0.486839093
1850288900.0 -0.8603321896 0.4981027349
1900288600.0 -0.8531164874 0.5110470032
1950288300.0 -0.8453091005 0.5234316565
2000288000.0 -0.838032283 0.5350778037
2050287700.0 -0.8301738181 0.5472297122
2100287400.0 -0.8224731785 0.5582977157
2150287100.0 -0.8143105269 0.5706176638
2200286800.0 -0.8064989414 0.5812374043
2250286500.0 -0.798163986 0.5929793535
2300286200.0 -0.7898747538 0.603732414
2350285900.0 -0.7813623754 0.6145841242
2400285600.0 -0.7722673805 0.6260253067
2450285300.0 -0.7632418525 0.6370232519
2500285000.0 -0.7543861337 0.6475835468
2550284700.0 -0.745156304 0.6580752004
2600284400.0 -0.7349350304 0.6688308455
2650284100.0 -0.7270281662 0.6784385714
2700283800.0 -0.7165721058 0.6882863335
2750283500.0 -0.7067201667 0.6984816799
2800283200.0 -0.6966001484 0.7084034249
2850282900.0 -0.6860235293 0.7183443812
2900282600.0 -0.6755282059 0.7281247478
2950282300.0 -0.6655722139 0.737521306
3000282000.0 -0.6547535596 0.7471469852
3050281700.0 -0.6437886889 0.7564487223
3100281400.0 -0.6332281897 0.7650253712
3150281100.0 -0.6234676852 0.7733597534
3200280800.0 -0.6120224293 0.7825052776
3250280500.0 -0.600714313 0.7914101028
3300280200.0 -0.5886645013 0.8009476366
3350279900.0 -0.5777074587 0.8086727551
3400279600.0 -0.5656560486 0.8175052415
3450279300.0 -0.5538590268 0.8258861903
3500279000.0 -0.5421388085 0.8337046646
3550278700.0 -0.530561572 0.8415931578
3600278400.0 -0.52003932 0.8481883561
3650278100.0 -0.506920024 0.8564529732
3700277800.0 -0.494982892 0.8632689651
3750277500.0 -0.4830642134 0.8703089674
3800277200.0 -0.4705971743 0.8772283475
3850276900.0 -0.4581070164 0.8839198663
3900276600.0 -0.4462861383 0.8899309991
3950276300.0 -0.4329409516 0.8965565216
4000276000.0 -0.4208070728 0.9023593352
4050275700.0 -0.4075289957 0.9081938654
4100275400.0 -0.3962185726 0.9135872813
4150275100.0 -0.3828050185 0.91891826
4200274800.0 -0.3687018915 0.9244022581
4250274500.0 -0.3570098524 0.9289724348
4300274200.0 -0.3441589716 0.9337564405
4350273900.0 -0.3305610308 0.9382900909
4400273600.0 -0.3181783215 0.9424052012
4450273300.0 -0.3055588168 0.9464684381
4500273000.0 -0.2933622577 0.9503084712
4550272700.0 -0.2814925222 0.9539416206
4600272400.0 -0.2669619659 0.9580216537
4650272100.0 -0.2547664856 0.961223882
4700271800.0 -0.241470355 0.9645080563
4750271500.0 -0.2274999865 0.9677797698
4800271200.0 -0.2129393127 0.9711337531
4850270900.0 -0.1988682004 0.973971369
4900270600.0 -0.1856871402 0.9764250834
4950270300.0 -0.1730367855 0.9788345102
5000270000.0 -0.1594621221 0.9811150275
5050269700.0 -0.145596825 0.9830015631
5100269400.0 -0.1308471916 0.9850387755
5150269100.0 -0.116448327 0.9876449231
5200268800.0 -0.1024738686 0.9885673982
5250268500.0 -0.0894749977 0.9902511048
5300268200.0 -0.074667619 0.9909467272
5350267900.0 -0.0613736645 0.9918425406
5400267600.0 -0.0452087893 0.9932051481
5450267300.0 -0.0327252158 0.9934284097
5500267000.0 -0.0189247003 0.9937882457
5550266700.0 -0.0074753934 0.9937380418
5600266400.0 0.0063777444 0.9940666641
5650266100.0 0.0204418023 0.9936215065
5700265800.0 0.0331129949 0.992991344
5750265500.0 0.045958921 0.9929149856
5800265200.0 0.0590975686 0.9926644835
5850264900.0 0.0721336346 0.9917195689
5900264600.0 0.0870572028 0.9904092849
5950264300.0 0.0981862038 0.9891568543
6000264000.0 0.1111675319 0.9879259202
6050263700.0 0.123954472 0.9867389435
6100263400.0 0.1378438479 0.9846299396
6150263100.0 0.1538355086 0.9824421113
6200262800.0 0.1651471685 0.9807411895
6250262500.0 0.1790700752 0.9780718717
6300262200.0 0.1920216424 0.975891741
6350261900.0 0.2050866843 0.9731358625
6400261600.0 0.220303169 0.9699028999
6450261300.0 0.2325115528 0.9671271456
6500261000.0 0.2460583264 0.9637967654
6550260700.0 0.2591523876 0.9598770402
6600260400.0 0.2720170703 0.9563049346
6650260100.0 0.2858711413 0.9525270023
6700259800.0 0.2983620826 0.9489235603
6750259500.0 0.3107875188 0.9446441264
6800259200.0 0.3245892101 0.9401729748
6850258900.0 0.3371798037 0.9355487341
6900258600.0 0.3506174573 0.9310850396
6950258300.0 0.3639482977 0.925879118
7000258000.0 0.3763272246 0.9209257539
7050257700.0 0.3873881471 0.9161038334
7100257400.0 0.4019745785 0.9101810085
7150257100.0 0.4136924732 0.9051450009
7200256800.0 0.4276531978 0.8991189658
7250256500.0 0.4395313431 0.8932692031
7300256200.0 0.4525304643 0.8868761936
7350255900.0 0.4646390053 0.8809847653
7400255600.0 0.4741194167 0.8758277151
7450255300.0 0.486869155 0.8690335909
7500255000.0 0.4980670318 0.8624886822
7550254700.0 0.5088765536 0.8567692889
7600254400.0 0.5199155673 0.8502013372
7650254100.0 0.530005137 0.8434800535
7700253800.0 0.5416448424 0.8363882883
7750253500.0 0.5525875162 0.829392646
7800253200.0 0.5648901759 0.8211338631
7850252900.0 0.5737578551 0.8147239428
7900252600.0 0.5855694645 0.8063328082
7950252300.0 0.5960549728 0.7987278951
8000252000.0 0.6072882989 0.7901908324
8050251700.0 0.6182806533 0.7815337534
8100251400.0 0.6277082672 0.7736986654
8150251100.0 0.6389637421 0.7643518398
8200250800.0 0.6490250744 0.7560504841
8250250500.0 0.659063266 0.7464935653
8300250200.0 0.6696689304 0.7371785746
8350249900.0 0.6795016333 0.7281688432
8400249600.0 0.6889179751 0.7187428456
8450249300.0 0.6996071871 0.7083423072
8500249000.0 0.7095988561 0.6983996084
8550248700.0 0.7205640497 0.6872300916
8600248400.0 0.7306295392 0.6764696991
8650248100.0 0.7387699863 0.6670753032
8700247800.0 0.7481472007 0.6567906582
8750247500.0 0.7573945881 0.6463227906
8800247200.0 0.7665546759 0.6352661798
8850246900.0 0.7753932525 0.6243016552
8900246600.0 0.7842520776 0.6133107489
8950246300.0 0.7924539274 0.6023392055
9000246000.0 0.7993771531 0.5930933403
9050245700.0 0.8064117989 0.5836503693
9100245400.0 0.8148517468 0.5719555548
9150245100.0 0.8225539437 0.5611071453
9200244800.0 0.8275675858 0.5532000332
9250244500.0 0.8342402487 0.5429496595
9300244200.0 0.840035309 0.534107069
9350243900.0 0.8466141532 0.5234943902
9400243600.0 0.8536408693 0.5120769139
9450243300.0 0.8588633821 0.5033151911
9500243000.0 0.8653399124 0.4925398006
9550242700.0 0.8729905569 0.4798879526
9600242400.0 0.8805016167 0.4664775663
9650242100.0 0.8875278956 0.4527475265
9700241800.0 0.8945168754 0.4394057613
9750241500.0 0.9018319239 0.4245257812
9800241200.0 0.9095204502 0.4069627046
9850240900.0 0.9148106915 0.393336559
9900240600.0 0.9191173786 0.3831573567
9950240300.0 0.9244055283 0.3702438847
10000240000.0 0.9299573231 0.3565104781
10050239700.0 0.9343193652 0.3443714847
10100239400.0 0.9382941247 0.3325629398
10150239100.0 0.9424997545 0.3203581684
10200238800.0 0.9467467469 0.3069369729
10250238500.0 0.9511597384 0.2940882612
10300238200.0 0.9551950289 0.2809283876
10350237900.0 0.9587710428 0.2684696106
10400237600.0 0.9626928717 0.2552723704
10450237300.0 0.9667377029 0.2411239619
10500237000.0 0.9703182656 0.2274346354
10550236700.0 0.9734361772 0.2137285312
10600236400.0 0.9767397967 0.2006291596
10650236100.0 0.9797003455 0.1845675754
10700235800.0 0.9823122826 0.1696085648
10750235500.0 0.9845419998 0.1565959394
10800235200.0 0.9864395871 0.1432699828
10850234900.0 0.9881418701 0.1305608269
10900234600.0 0.9900141104 0.1165194135
10950234300.0 0.9913113446 0.1022803077
11000234000.0 0.9923441533 0.0886282906
11050233700.0 0.9930790013 0.0761170509
11100233400.0 0.99390055 0.0626776417
11150233100.0 0.9948575486 0.0494517623
11200232800.0 0.9946445102 0.0376504585
11250232500.0 0.9949943854 0.0244427946
11300232200.0 0.994981053 0.0121110285
11350231900.0 0.9945491149 -2.22887e-05
11400231600.0 0.9946233647 -0.0132738227
11450231300.0 0.9939394067 -0.0256776967
11500231000.0 0.9931496042 -0.0371774156
11550230700.0 0.9926415116 -0.0497828209
11600230400.0 0.9922306561 -0.0651219054
11650230100.0 0.9910507802 -0.0769248577
11700229800.0 0.9903819728 -0.0923133971
11750229500.0 0.9887448352 -0.1043654249
11800229200.0 0.9874470592 -0.1160265856
11850228900.0 0.9860106093 -0.1305893285
11900228600.0 0.9845329798 -0.1458253235
11950228300.0 0.9824191025 -0.1617969371
12000228000.0 0.9804343309 -0.1763428454
12050227700.0 0.9778479667 -0.1910368358
12100227400.0 0.9757571969 -0.2022605601
12150227100.0 0.9718320349 -0.2211052055
12200226800.0 0.9687733182 -0.2342496699
12250226500.0 0.9657837172 -0.2475885278
12300226200.0 0.9626633798 -0.2607273994
12350225900.0 0.9576988244 -0.2770235929
12400225600.0 0.9531907052 -0.2924553318
12450225300.0 0.9496436029 -0.3047011105
12500225000.0 0.9445982503 -0.3192117933
12550224700.0 0.9393205239 -0.3338105366
12600224400.0 0.9355342666 -0.3450782518
12650224100.0 0.9301351815 -0.3589623351
12700223800.0 0.9249482313 -0.372013889
12750223500.0 0.9193519796 -0.3852117503
12800223200.0 0.913458413 -0.3992599517
12850222900.0 0.907415337 -0.4122027866
12900222600.0 0.9011955079 -0.4248770385
12950222300.0 0.8945869035 -0.4388910848
13000222000.0 0.8879634159 -0.4517169883
13050221700.0 0.8810554552 -0.4647941165
13100221400.0 0.8748473494 -0.4763517271
13150221100.0 0.8680971888 -0.4891673275
13200220800.0 0.8608374355 -0.5017320135
13250220500.0 0.8540857267 -0.5137380327
13300220200.0 0.8466556786 -0.5256995659
13350219900.0 0.8384256801 -0.5393871158
13400219600.0 0.8312688043 -0.550433068
13450219300.0 0.8242873144 -0.5608697208
13500219000.0 0.8171827578 -0.5709173832
13550218700.0 0.8098497766 -0.5816114057
13600218400.0 0.8019677528 -0.5925089691
13650218100.0 0.7955701854 -0.6010591442
13700217800.0 0.7865504936 -0.6127556498
13750217500.0 0.7785830048 -0.6236556029
13800217200.0 0.7704409569 -0.6341294333
13850216900.0 0.7608641736 -0.6456730366
13900216600.0 0.7533773665 -0.6547828021
13950216300.0 0.7428934019 -0.6659709258
14000216000.0 0.7334366919 -0.6765064961
14050215700.0 0.7241568531 -0.6858862711
14100215400.0 0.7122663586 -0.6987420732
14150215100.0 0.7006270392 -0.710898633
14200214800.0 0.6898507973 -0.7215306801
14250214500.0 0.6776738679 -0.7324226492
14300214200.0 0.6655346833 -0.7437209457
14350213900.0 0.6540169608 -0.7534780003
14400213600.0 0.6433457206 -0.7625087428
14450213300.0 0.6330837981 -0.7706209196
14500213000.0 0.6233088557 -0.7791721427
14550212700.0 0.6121240214 -0.788119401
14600212400.0 0.6002043783 -0.7968735918
14650212100.0 0.5899811657 -0.8035436705
14700211800.0 0.5787749352 -0.8118757442
14750211500.0 0.567010811 -0.8199272424
14800211200.0 0.5543289738 -0.8283373156
14850210900.0 0.5429665805 -0.8356858475
14900210600.0 0.5311618494 -0.8434884404
14950210300.0 0.5192861616 -0.8508907869
15000210000.0 0.5075466096 -0.8577265581
15050209700.0 0.4947676179 -0.8652628287
15100209400.0 0.4816726498 -0.873220521
15150209100.0 0.4702246534 -0.8798032813
15200208800.0 0.4572716491 -0.8864304145
15250208500.0 0.4434012127 -0.893872385
15300208200.0 0.4288849487 -0.9017854691
15350207900.0 0.4157950575 -0.9073320051
15400207600.0 0.4025521245 -0.9129134069
15450207300.0 0.390476768 -0.9193803271
15500207000.0 0.3776626138 -0.9237684679
15550206700.0 0.3650727175 -0.9296578865
15600206400.0 0.3522086705 -0.9345587459
15650206100.0 0.3386847129 -0.9400538463
15700205800.0 0.3250372204 -0.9448644299
15750205500.0 0.3104017001 -0.9498230539
15800205200.0 0.2966941575 -0.9540427909
15850204900.0 0.2828299143 -0.9582529474
15900204600.0 0.2668351615 -0.9634441678
15950204300.0 0.2521986705 -0.967115585
16000204000.0 0.236956261 -0.9708486211
16050203700.0 0.2221397985 -0.9745610656
16100203400.0 0.2082264606 -0.977245091
16150203100.0 0.1923499107 -0.9806463793
16200202800.0 0.1768732336 -0.9828413172
16250202500.0 0.1618065064 -0.9856021013
16300202200.0 0.1465885252 -0.9872304055
16350201900.0 0.1315828026 -0.9891422584
16400201600.0 0.1162176078 -0.990874949
16450201300.0 0.1024075327 -0.9924375468
16500201000.0 0.0876885289 -0.9938653653
16550200700.0 0.0737414015 -0.9952410972
16600200400.0 0.0591941796 -0.9963791241
16650200100.0 0.0437495215 -0.9971230058
16700199800.0 0.031078296 -0.9977656092
16750199500.0 0.0181360954 -0.9981350759
16800199200.0 0.0061455 -0.9987201753
16850198900.0 -0.0077342644 -0.9978588141
16900198600.0 -0.0215995328 -0.9980560148
16950198300.0 -0.0363355127 -0.9979554589
17000198000.0 -0.0516465051 -0.9967663438
17050197700.0 -0.0657847104 -0.9958497911
17100197400.0 -0.0829792873 -0.9945776816
17150197100.0 -0.0995235948 -0.9933629795
17200196800.0 -0.114461098 -0.9916493498
17250196500.0 -0.1296349303 -0.9897666261
17300196200.0 -0.1464404721 -0.98737355
17350195900.0 -0.1630741767 -0.9845252859
17400195600.0 -0.1791942867 -0.9816932999
17450195300.0 -0.1944868822 -0.9786261998
17500195000.0 -0.2099154757 -0.9753176794
17550194700.0 -0.2251798851 -0.9722036436
17600194400.0 -0.2397385918 -0.9686630219
17650194100.0 -0.2548874851 -0.9648754504
17700193800.0 -0.2690369167 -0.9610807562
17750193500.0 -0.2836623294 -0.9569896917
17800193200.0 -0.2971209866 -0.9521000645
17850192900.0 -0.3114350658 -0.9484681324
17900192600.0 -0.3250028177 -0.9434977267
17950192300.0 -0.3387563737 -0.9383352434
18000192000.0 -0.352941792 -0.9330742893
18050191700.0 -0.3669176286 -0.9276391262
18100191400.0 -0.3807875258 -0.9222600579
18150191100.0 -0.393703475 -0.9169258338
18200190800.0 -0.4058120165 -0.9114724672
18250190500.0 -0.4186393497 -0.906066176
18300190200.0 -0.4308895077 -0.9005615833
18350189900.0 -0.4433602617 -0.8950603177
18400189600.0 -0.4559122303 -0.8888123596
18450189300.0 -0.4679894395 -0.8830003542
18500189000.0 -0.4799483903 -0.8767759312
18550188700.0 -0.4917566619 -0.8697576204
18600188400.0 -0.5043956703 -0.8618138277
18650188100.0 -0.517212142 -0.8539148417
18700187800.0 -0.5299403346 -0.8460119731
18750187500.0 -0.5419226153 -0.8375596777
18800187200.0 -0.5547423878 -0.8284106347
18850186900.0 -0.567171288 -0.819344112
18900186600.0 -0.5785145448 -0.8106091525
18950186300.0 -0.5915079358 -0.8009103054
19000186000.0 -0.6043248524 -0.7911271595
19050185700.0 -0.6182363924 -0.7815714121
19100185400.0 -0.6305397459 -0.7719395089
19150185100.0 -0.6429473423 -0.7615535912
19200184800.0 -0.6549808327 -0.7512847093
19250184500.0 -0.6666911805 -0.7405843745
19300184200.0 -0.6778587396 -0.7299104601
19350183900.0 -0.6895164965 -0.7191332895
19400183600.0 -0.7008358932 -0.7087143461
19450183300.0 -0.713034306 -0.6968371631
19500183000.0 -0.7236950049 -0.6851453714
19550182700.0 -0.7353911121 -0.6735014025
19600182400.0 -0.7453045122 -0.6613379793
19650182100.0 -0.755115174 -0.6501143686
19700181800.0 -0.7646595755 -0.6381391957
19750181500.0 -0.7738869533 -0.6264938026
19800181200.0 -0.7825398718 -0.614774341
19850180900.0 -0.7912643588 -0.6032954948
19900180600.0 -0.7987158094 -0.5928462618
19950180300.0 -0.808434299 -0.5811384214
20000180000.0 -0.8212832614 -0.56541497
20050179700.0 -0.8300226715 -0.5537634964
20100179400.0 -0.8389592366 -0.541116869
20150179100.0 -0.8463349131 -0.529207912
20200178800.0 -0.8537118628 -0.5165588621
20250178500.0 -0.8600923011 -0.5048496217
20300178200.0 -0.8665284965 -0.4925878509
20350177900.0 -0.8721678779 -0.481213569
20400177600.0 -0.8770758913 -0.4693763417
20450177300.0 -0.8823324738 -0.4583552935
20500177000.0 -0.8875950932 -0.4461789116
20550176700.0 -0.8933400967 -0.4339307568
20600176400.0 -0.8975708272 -0.4218187347
20650176100.0 -0.9028664727 -0.4087090296
20700175800.0 -0.9086511655 -0.3956904983
20750175500.0 -0.9135284965 -0.3824142737
20800175200.0 -0.91804911 -0.3690443931
20850174900.0 -0.9227670642 -0.354935417
20900174600.0 -0.9267840604 -0.3408443923
20950174300.0 -0.9326507521 -0.3272891454
21000174000.0 -0.9361402773 -0.3125971174
21050173700.0 -0.9399978602 -0.2985677992
21100173400.0 -0.9448750131 -0.2833372754
21150173100.0 -0.9484769153 -0.2678825858
21200172800.0 -0.9514858044 -0.253185289
21250172500.0 -0.9553346072 -0.2388663588
21300172200.0 -0.9592341974 -0.2248913884
21350171900.0 -0.9623335596 -0.2098142519
21400171600.0 -0.9661520333 -0.1950813343
21450171300.0 -0.9690933288 -0.1806797114
21500171000.0 -0.9719674077 -0.1659521051
21550170700.0 -0.9758503174 -0.1528266067
21600170400.0 -0.9802424793 -0.1381656259
21650170100.0 -0.9832227002 -0.1247538641
21700169800.0 -0.986320288 -0.1113626857
21750169500.0 -0.9887143496 -0.0951688231
21800169200.0 -0.9933998134 -0.0810398794
21850168900.0 -0.9947248513 -0.0673453383
21900168600.0 -0.9983865587 -0.0547005935
21950168300.0 -1.000002615 -0.0409363283
22000168000.0 -1.002166302 -0.0265045217
22050167700.0 -1.003390049 -0.0118498677
22100167400.0 -1.004160318 0.003893886
22150167100.0 -1.003619266 0.0184906223
22200166800.0 -1.002918228 0.0321150173
22250166500.0 -1.002180354 0.0453087271
22300166200.0 -1.001399801 0.0587172467
22350165900.0 -1.001311774 0.0705640646
22400165600.0 -0.9995745081 0.0837287649
22450165300.0 -0.9981552375 0.0962209115
22500165000.0 -0.9979888382 0.1085402746
22550164700.0 -0.9954770184 0.1235932216
22600164400.0 -0.9933008658 0.1363330731
22650164100.0 -0.9908236311 0.1471772918
22700163800.0 -0.9879556881 0.1582988507
22750163500.0 -0.9853946596 0.1714137225
22800163200.0 -0.9821883772 0.1838902883
22850162900.0 -0.9788854751 0.1962773301
22900162600.0 -0.9750573434 0.2095985775
22950162300.0 -0.9703511398 0.223653494
23000162000.0 -0.9648027399 0.2374301034
23050161700.0 -0.9589307006 0.2518824092
23100161400.0 -0.9540931693 0.2661317054
23150161100.0 -0.9493301813 0.2795157471
23200160800.0 -0.943069704 0.294246151
23250160500.0 -0.9378797548 0.3090412169
23300160200.0 -0.9313175638 0.3231959092
23350159900.0 -0.9257071714 0.3383005537
23400159600.0 -0.9199738182 0.3507992368
23450159300.0 -0.9147061036 0.3637035955
23500159000.0 -0.9089512817 0.3764888652
23550158700.0 -0.9023086209 0.3900784033
23600158400.0 -0.895988081 0.4021940956
23650158100.0 -0.889732073 0.414522926
23700157800.0 -0.8834659486 0.4262524828
23750157500.0 -0.8771712695 0.4380544523
23800157200.0 -0.8717150418 0.449363141
23850156900.0 -0.8672506753 0.4602333727
23900156600.0 -0.8618057537 0.4721558051
23950156300.0 -0.8552846542 0.483701603
24000156000.0 -0.8504279658 0.4949041334
24050155700.0 -0.8441095582 0.5061644236
24100155400.0 -0.8396171449 0.5162234051
24150155100.0 -0.8339135711 0.5279259317
24200154800.0 -0.8279896053 0.5379045371
24250154500.0 -0.8222631781 0.5489231862
24300154200.0 -0.8172205924 0.559299238
24350153900.0 -0.8113770593 0.5700767783
24400153600.0 -0.8046246128 0.5808935681
24450153300.0 -0.7980490056 0.591355711
24500153000.0 -0.7915471313 0.6014391043
24550152700.0 -0.7849100619 0.6117586666
24600152400.0 -0.777198993 0.6220289017
24650152100.0 -0.7692413064 0.6338794469
