!Created with skrf (http://scikit-rf.org).
# Hz S RI R 50.0 
!freq ReS11 ImS11
300000.0 -0.9745769582 -0.1199439264
50299700.0 -1.000084545 0.0151962664
100299400.0 -0.998078769 0.028153466
150299100.0 -1.002628027 0.0451655453
200298800.0 -0.9995783645 0.0582708828
250298500.0 -0.997350358 0.0718042511
300298200.0 -0.9860097207 0.0876007284
350297900.0 -0.9938119729 0.0984514302
400297600.0 -0.9930992641 0.1151210938
450297300.0 -0.9910735936 0.1289294397
500297000.0 -0.989527156 0.1436047467
550296700.0 -0.9841673158 0.1560875926
600296400.0 -1.017353544 0.189301191
650296100.0 -0.9822881414 0.18599247
700295800.0 -0.9793650451 0.2002657261
750295500.0 -0.9762399903 0.2141740912
800295200.0 -0.9729455454 0.2282578625
850294900.0 -0.9694842299 0.2421714105
900294600.0 -0.9657367314 0.2560134088
950294300.0 -0.9620245763 0.2696022141
1000294000.0 -0.9582427962 0.2837111516
1050293700.0 -0.9536904377 0.2975066979
1100293400.0 -0.9492682986 0.3118596522
1150293100.0 -0.9455535921 0.3235731283
1200292800.0 -0.9402837053 0.3380660054
1250292500.0 -0.9347015697 0.3514696867
1300292200.0 -0.9291821486 0.364799451
1350291900.0 -0.9233738048 0.37871669
1400291600.0 -0.9180130858 0.3918390657
1450291300.0 -0.9125664758 0.4042784591
1500291000.0 -0.9062058219 0.4176567311
1550290700.0 -0.8996246896 0.4309829689
1600290400.0 -0.8936349824 0.4440060425
1650290100.0 -0.8868463692 0.4559710788
1700289800.0 -0.8798426425 0.4697148824
1750289500.0 -0.8728384422 0.4818099193
1800289200.0 -0.8655465357 0.4945716439
1850288900.0 -0.8586818392 0.5060212557
1900288600.0 -0.8510556427 0.5190973217
1950288300.0 -0.84302535 0.5316212175
2000288000.0 -0.8352333098 0.5430577389
2050287700.0 -0.8271187041 0.5554341199
2100287400.0 -0.8192824075 0.5668798232
2150287100.0 -0.8107490155 0.5790307547
2200286800.0 -0.8028321071 0.5894955931
2250286500.0 -0.7941014908 0.6012747289
2300286200.0 -0.7850405605 0.6131575338
2350285900.0 -0.7766661848 0.6239902065
2400285600.0 -0.7675532839 0.6350632504
2450285300.0 -0.7590262974 0.6452642832
2500285000.0 -0.7492427779 0.656730192
2550284700.0 -0.7404183824 0.666895187
2600284400.0 -0.7310018678 0.6769327725
2650284100.0 -0.7221002373 0.6878215076
2700283800.0 -0.7113074668 0.6979426389
2750283500.0 -0.7011848669 0.7086150335
2800283200.0 -0.6914569227 0.7183173961
2850282900.0 -0.6811246647 0.7285282675
2900282600.0 -0.6708369891 0.7380193289
2950282300.0 -0.6605892506 0.7471498605
3000282000.0 -0.6500375788 0.7566223262
3050281700.0 -0.6386095935 0.7657877098
3100281400.0 -0.6268119658 0.7752130899
3150281100.0 -0.6150476437 0.7844249152
3200280800.0 -0.6034709669 0.7930083947
3250280500.0 -0.5925029854 0.8007757145
3300280200.0 -0.5813231671 0.8086517761
3350279900.0 -0.5694950056 0.816142868
3400279600.0 -0.5575471434 0.8241546599
3450279300.0 -0.5462853102 0.8311677592
3500279000.0 -0.5342935703 0.838075554
3550278700.0 -0.5219315254 0.8453580011
3600278400.0 -0.509636476 0.8525657431
3650278100.0 -0.49644679 0.8601784472
3700277800.0 -0.484510978 0.8667246993
3750277500.0 -0.4724624163 0.8732509349
3800277200.0 -0.4598624193 0.8798178051
3850276900.0 -0.4477108998 0.8856435051
3900276600.0 -0.4369340917 0.8913764481
3950276300.0 -0.4247499478 0.8974634066
4000276000.0 -0.4127219392 0.9034610165
4050275700.0 -0.3996556793 0.9093187523
4100275400.0 -0.388439052 0.9150091397
4150275100.0 -0.3758871418 0.9206561968
4200274800.0 -0.36292535 0.9261773406
4250274500.0 -0.350660324 0.9313117033
4300274200.0 -0.3374580264 0.9365434029
4350273900.0 -0.3235315071 0.9418482994
4400273600.0 -0.3088639152 0.9471574185
4450273300.0 -0.293639454 0.9521528002
4500273000.0 -0.2800922207 0.9565376843
4550272700.0 -0.2660213244 0.9606516018
4600272400.0 -0.2504993119 0.9651042883
4650272100.0 -0.238858633 0.9681665682
4700271800.0 -0.2256645661 0.9715599833
4750271500.0 -0.2137822571 0.9743580029
4800271200.0 -0.2014648588 0.9770594407
4850270900.0 -0.187553755 0.979762614
4900270600.0 -0.1736270937 0.98230357
4950270300.0 -0.1591965373 0.9849059838
5000270000.0 -0.1450907985 0.9870424568
5050269700.0 -0.1314240359 0.9885734426
5100269400.0 -0.1178187808 0.9901117651
5150269100.0 -0.1045410541 0.9920636118
5200268800.0 -0.0910392916 0.9927441756
5250268500.0 -0.0779555438 0.9942253611
5300268200.0 -0.0649405694 0.9945191185
5350267900.0 -0.0523480778 0.9952251035
5400267600.0 -0.0364704773 0.996302339
5450267300.0 -0.0233185662 0.99667736
5500267000.0 -0.0081118487 0.99704089
5550266700.0 0.006899147 0.9972207164
5600266400.0 0.0222968205 0.9971974881
5650266100.0 0.0386835704 0.9968806275
5700265800.0 0.0533556753 0.9958049053
5750265500.0 0.0686464218 0.9956528631
5800265200.0 0.0822119031 0.9942623673
5850264900.0 0.095792496 0.9937037439
5900264600.0 0.1121091025 0.9918078781
5950264300.0 0.1243745525 0.9900611399
6000264000.0 0.1382356231 0.9882795162
6050263700.0 0.1503837496 0.9869416949
6100263400.0 0.1627961677 0.9852222592
6150263100.0 0.1772514997 0.9827324951
6200262800.0 0.1877945794 0.9808279662
6250262500.0 0.2004579951 0.9784460914
6300262200.0 0.2132479001 0.9759512651
6350261900.0 0.2261894019 0.9728603677
6400261600.0 0.2401601851 0.9696758375
6450261300.0 0.2512774354 0.9669715857
6500261000.0 0.2641225683 0.9633650236
6550260700.0 0.2773002594 0.9593534309
6600260400.0 0.2907441235 0.9552296158
6650260100.0 0.3045912918 0.951041046
6700259800.0 0.3167875488 0.9468330916
6750259500.0 0.3302892869 0.9417196043
6800259200.0 0.3436427585 0.936744539
6850258900.0 0.3556026996 0.9314965825
6900258600.0 0.3678689755 0.9266019316
6950258300.0 0.3804038109 0.9212771774
7000258000.0 0.3924153108 0.9160689441
7050257700.0 0.404564587 0.9097702561
7100257400.0 0.4174167215 0.9035981404
7150257100.0 0.4279531844 0.8982916704
7200256800.0 0.4406872429 0.8919517835
7250256500.0 0.4526835375 0.8855322408
7300256200.0 0.4657133381 0.8788547032
7350255900.0 0.4782480628 0.8718539052
7400255600.0 0.4913285977 0.864433019
7450255300.0 0.5072453347 0.8557425179
7500255000.0 0.5182403884 0.848512164
7550254700.0 0.5328365134 0.8398785795
7600254400.0 0.5454894217 0.831626225
7650254100.0 0.5568716063 0.8239160315
7700253800.0 0.5685094022 0.8160357752
7750253500.0 0.5797322251 0.8080530638
7800253200.0 0.5904127883 0.8005024906
7850252900.0 0.5999765821 0.7934103818
7900252600.0 0.6116858969 0.784803473
7950252300.0 0.6204410957 0.778302451
8000252000.0 0.6307431562 0.7706101545
8050251700.0 0.6411082338 0.7621936356
8100251400.0 0.6510434889 0.7542154754
8150251100.0 0.6611910247 0.7455310886
8200250800.0 0.6703224777 0.7376407376
8250250500.0 0.6795029252 0.7297285128
8300250200.0 0.6890288928 0.7210780026
8350249900.0 0.698209681 0.7123222786
8400249600.0 0.7063810053 0.7042451743
8450249300.0 0.7153171807 0.6950553529
8500249000.0 0.7238204151 0.6863088635
8550248700.0 0.7322611669 0.6770950925
8600248400.0 0.7406905571 0.6678266244
8650248100.0 0.7482546824 0.6583590425
8700247800.0 0.7579007173 0.6472804228
8750247500.0 0.7662115381 0.6370168764
8800247200.0 0.7742798197 0.6266834307
8850246900.0 0.7831212788 0.6153678604
8900246600.0 0.7915012968 0.603939705
8950246300.0 0.8013375761 0.5909111562
9000246000.0 0.8100524977 0.5783206621
9050245700.0 0.8192856489 0.5653249645
9100245400.0 0.8278141003 0.5530819866
9150245100.0 0.837263887 0.5394190354
9200244800.0 0.8468646824 0.5243472704
9250244500.0 0.856345308 0.50901654
9300244200.0 0.8647020192 0.4944497044
9350243900.0 0.8722209159 0.4806907164
9400243600.0 0.879162476 0.4685751425
9450243300.0 0.884927018 0.457114761
9500243000.0 0.8913035416 0.4448539323
9550242700.0 0.8950650464 0.4371970595
9600242400.0 0.898695881 0.4301443791
9650242100.0 0.9026490629 0.4233049521
9700241800.0 0.9073429058 0.4152022803
9750241500.0 0.9113863433 0.4074391329
9800241200.0 0.9160482587 0.3980871384
9850240900.0 0.9216054866 0.3868927872
9900240600.0 0.9275756771 0.3750346755
9950240300.0 0.9340106851 0.3589336718
10000240000.0 0.938938793 0.346949696
10050239700.0 0.9442698891 0.3318503541
10100239400.0 0.9496711434 0.3166829092
10150239100.0 0.954001048 0.3014452711
10200238800.0 0.9579453486 0.2864848563
10250238500.0 0.9614011385 0.2731974279
10300238200.0 0.9646018553 0.2591102189
10350237900.0 0.9672415581 0.246000715
10400237600.0 0.9696642562 0.2326560413
10450237300.0 0.9726647636 0.2186844498
10500237000.0 0.9747304021 0.2069017072
10550236700.0 0.9768659812 0.1930202901
10600236400.0 0.9790764541 0.1788573685
10650236100.0 0.9813473387 0.1642770633
10700235800.0 0.9832407327 0.152106151
10750235500.0 0.9857281422 0.1390349928
10800235200.0 0.9877821484 0.1245916695
10850234900.0 0.9894377651 0.1100892801
10900234600.0 0.9918159242 0.095499785
10950234300.0 0.9932487598 0.0822083982
11000234000.0 0.9952350402 0.0669315736
11050233700.0 0.9969958741 0.0504990632
11100233400.0 0.9985971219 0.0329482974
11150233100.0 0.9994390919 0.016789845
11200232800.0 1.000471132 0.0019708774
11250232500.0 1.00109665 -0.0148776011
11300232200.0 1.001796442 -0.0325961733
11350231900.0 1.001769587 -0.0490821385
11400231600.0 1.001806932 -0.0633024688
11450231300.0 1.001111451 -0.0791716366
11500231000.0 0.9998719816 -0.0962059018
11550230700.0 0.9985413105 -0.1092515328
11600230400.0 0.9970380971 -0.1211683772
11650230100.0 0.9949562775 -0.1329897256
11700229800.0 0.9931410008 -0.1475627938
11750229500.0 0.9907230703 -0.1618844711
11800229200.0 0.988346935 -0.1759138703
11850228900.0 0.9844877657 -0.188027814
11900228600.0 0.9808688689 -0.1978432852
11950228300.0 0.9777204019 -0.2082400042
12000228000.0 0.9756540174 -0.2170969241
12050227700.0 0.9714890075 -0.2302896461
12100227400.0 0.9683265327 -0.24124118
12150227100.0 0.9636774365 -0.2572272068
12200226800.0 0.9600098569 -0.2686698771
12250226500.0 0.9555072275 -0.2815573227
12300226200.0 0.9510788319 -0.2941572851
12350225900.0 0.9461669937 -0.3077754989
12400225600.0 0.9428703007 -0.3208320352
12450225300.0 0.9378730603 -0.3338366286
12500225000.0 0.9324107855 -0.3484012676
12550224700.0 0.9270971043 -0.3621775803
12600224400.0 0.922205395 -0.3750918393
12650224100.0 0.9162554749 -0.3892950032
12700223800.0 0.9108878504 -0.402119575
12750223500.0 0.9054155126 -0.4149296707
12800223200.0 0.9001479022 -0.4277178227
12850222900.0 0.8946455835 -0.440197679
12900222600.0 0.8890372363 -0.4524825037
12950222300.0 0.8830980858 -0.4649263068
13000222000.0 0.8764437223 -0.4768118809
13050221700.0 0.8704590981 -0.4886651147
13100221400.0 0.8635955428 -0.5006794512
13150221100.0 0.8567810709 -0.5133531516
13200220800.0 0.8494924314 -0.5247299597
13250220500.0 0.8424449427 -0.5365872179
13300220200.0 0.835214623 -0.5477028327
13350219900.0 0.8270656567 -0.5595349852
13400219600.0 0.8185618103 -0.5718128359
13450219300.0 0.8093935313 -0.5850065966
13500219000.0 0.7994818053 -0.5990538866
13550218700.0 0.7891907968 -0.6113354133
13600218400.0 0.7789390617 -0.623998309
13650218100.0 0.7699074516 -0.6346799814
13700217800.0 0.7587636494 -0.6468643382
13750217500.0 0.7480916351 -0.658777743
13800217200.0 0.7376003596 -0.6689475683
13850216900.0 0.7262407009 -0.6818504513
13900216600.0 0.7173075078 -0.6905862712
13950216300.0 0.7062085752 -0.7006610655
14000216000.0 0.6960634309 -0.7096457424
14050215700.0 0.6861198296 -0.7183110088
14100215400.0 0.6765893841 -0.7277331702
14150215100.0 0.6672913253 -0.735766973
14200214800.0 0.6577043248 -0.7446344694
14250214500.0 0.6476317603 -0.7540756792
14300214200.0 0.6370745796 -0.7633346427
14350213900.0 0.625999282 -0.7730869919
14400213600.0 0.6142051771 -0.7827616846
14450213300.0 0.6011141538 -0.7923789838
14500213000.0 0.5878360229 -0.8029123135
14550212700.0 0.5752913279 -0.8122044782
14600212400.0 0.5629651121 -0.8211216328
14650212100.0 0.550022321 -0.8298245249
14700211800.0 0.5362598414 -0.8393230951
14750211500.0 0.5241886815 -0.8478081647
14800211200.0 0.5119941268 -0.8557505246
14850210900.0 0.4994993069 -0.863282498
14900210600.0 0.4863174923 -0.8710059122
14950210300.0 0.472987229 -0.8787577041
15000210000.0 0.4602858498 -0.8854115356
15050209700.0 0.4483736916 -0.8917363814
15100209400.0 0.4345353847 -0.8979427257
15150209100.0 0.4230919961 -0.9033433997
15200208800.0 0.4102837684 -0.9084101782
15250208500.0 0.3987016045 -0.9130462518
15300208200.0 0.3871774675 -0.9175095708
15350207900.0 0.3734412759 -0.922010867
15400207600.0 0.3593684219 -0.9275506646
15450207300.0 0.3447168656 -0.9329770371
15500207000.0 0.3301312453 -0.9374232691
15550206700.0 0.3151980406 -0.9419659035
15600206400.0 0.2993238215 -0.9472437704
15650206100.0 0.283515098 -0.9515074301
15700205800.0 0.2697119301 -0.9548797315
15750205500.0 0.2551891391 -0.9584376604
15800205200.0 0.2409760792 -0.9618919521
15850204900.0 0.2264370154 -0.9654992802
15900204600.0 0.2113281334 -0.9690263334
15950204300.0 0.1973167225 -0.9720235597
16000204000.0 0.1827218214 -0.9747926952
16050203700.0 0.1682181643 -0.977763699
16100203400.0 0.1536192453 -0.9803250582
16150203100.0 0.1389559101 -0.9824633731
16200202800.0 0.1249814281 -0.9844781849
16250202500.0 0.1100804768 -0.9858652888
16300202200.0 0.0947228025 -0.9879906784
16350201900.0 0.0794622595 -0.9890852874
16400201600.0 0.0648393085 -0.9901566056
16450201300.0 0.0496424216 -0.9911867456
16500201000.0 0.0329598531 -0.9919822276
16550200700.0 0.017391184 -0.9925530506
16600200400.0 0.0014961735 -0.9927834131
16650200100.0 -0.0146815854 -0.9929415067
16700199800.0 -0.0308594378 -0.9921777369
16750199500.0 -0.0494254644 -0.9920853806
16800199200.0 -0.0649819183 -0.9908806062
16850198900.0 -0.0806126499 -0.9899616733
16900198600.0 -0.0942864807 -0.9890095347
16950198300.0 -0.1075883245 -0.9875650082
17000198000.0 -0.1205454926 -0.9861756397
17050197700.0 -0.1333410821 -0.9845541676
17100197400.0 -0.1466112645 -0.9821703567
17150197100.0 -0.1588970161 -0.9805234365
17200196800.0 -0.1717393829 -0.9787055004
17250196500.0 -0.1844470934 -0.975654744
17300196200.0 -0.1967476648 -0.9735450987
17350195900.0 -0.2084579836 -0.9713517998
17400195600.0 -0.2206474888 -0.968857804
17450195300.0 -0.2338112925 -0.9661812207
17500195000.0 -0.2473000107 -0.9628422451
17550194700.0 -0.2611144734 -0.9593679746
17600194400.0 -0.2748226011 -0.9548727654
17650194100.0 -0.2888181887 -0.9509988735
17700193800.0 -0.3015901854 -0.9470157333
17750193500.0 -0.3163203715 -0.9420646448
17800193200.0 -0.3309243299 -0.9371511112
17850192900.0 -0.3458287503 -0.9315386864
17900192600.0 -0.3609880714 -0.925090885
17950192300.0 -0.3767004886 -0.9185273707
18000192000.0 -0.3912692534 -0.9111796246
18050191700.0 -0.4052957506 -0.9034850751
18100191400.0 -0.4194150823 -0.8958034541
18150191100.0 -0.4344475217 -0.8877079252
18200190800.0 -0.451342467 -0.878498105
18250190500.0 -0.468381437 -0.8691148819
18300190200.0 -0.4836040321 -0.8603092158
18350189900.0 -0.4991258747 -0.8523895785
18400189600.0 -0.5129770661 -0.8437568573
18450189300.0 -0.5264237208 -0.8358915855
18500189000.0 -0.5396775656 -0.8278961128
18550188700.0 -0.5522802342 -0.8204439216
18600188400.0 -0.5642620765 -0.8137604682
18650188100.0 -0.5758046347 -0.8070183007
18700187800.0 -0.5860618519 -0.8006229877
18750187500.0 -0.5968732197 -0.7941607255
18800187200.0 -0.6071303863 -0.7872453656
18850186900.0 -0.6173881204 -0.7802764525
18900186600.0 -0.6274309771 -0.7728759341
18950186300.0 -0.6375165212 -0.7655160294
19000186000.0 -0.644794899 -0.7590965438
19050185700.0 -0.6538742384 -0.7523226352
19100185400.0 -0.6636575459 -0.7436353164
19150185100.0 -0.6739622298 -0.7351056582
19200184800.0 -0.6828068284 -0.7270110292
19250184500.0 -0.6930343373 -0.7175914534
19300184200.0 -0.7047258075 -0.7077411412
19350183900.0 -0.7158008678 -0.6987233696
19400183600.0 -0.7256236327 -0.6886038378
19450183300.0 -0.7339347174 -0.6786491372
19500183000.0 -0.7429098959 -0.6677728577
19550182700.0 -0.7521615038 -0.6575435344
19600182400.0 -0.7624873539 -0.6459019755
19650182100.0 -0.7738748579 -0.6338572509
19700181800.0 -0.7843792938 -0.6202339696
19750181500.0 -0.7949302575 -0.6061317868
19800181200.0 -0.8054070217 -0.5910508288
19850180900.0 -0.8151607341 -0.5755645312
19900180600.0 -0.8231327935 -0.5613840025
19950180300.0 -0.83221283 -0.544727872
20000180000.0 -0.8258924883 -0.5469392459
20050179700.0 -0.8329938071 -0.5337584652
20100179400.0 -0.8420620181 -0.5206830537
20150179100.0 -0.849971749 -0.5078022955
20200178800.0 -0.8587693612 -0.4958683683
20250178500.0 -0.8684677752 -0.4826303816
20300178200.0 -0.8778510548 -0.4671226107
20350177900.0 -0.8873188054 -0.4533258806
20400177600.0 -0.8960364364 -0.4390038957
20450177300.0 -0.9044984594 -0.4243164206
20500177000.0 -0.9124999482 -0.4108881466
20550176700.0 -0.9206125715 -0.3973087919
20600176400.0 -0.9274536744 -0.3842412442
20650176100.0 -0.933465813 -0.3720775098
20700175800.0 -0.9411946773 -0.3599120277
20750175500.0 -0.9470910065 -0.3476155311
20800175200.0 -0.9515477391 -0.3373505729
20850174900.0 -0.9563581541 -0.326089158
20900174600.0 -0.9612428664 -0.3160441942
20950174300.0 -0.9644191522 -0.3037340677
21000174000.0 -0.9688033015 -0.292116195
21050173700.0 -0.9706237809 -0.2818895547
21100173400.0 -0.9745101398 -0.2699646918
21150173100.0 -0.9791374872 -0.2572870307
21200172800.0 -0.9823888761 -0.2434899216
21250172500.0 -0.9854669831 -0.2299181759
21300172200.0 -0.9885632938 -0.2165712266
21350171900.0 -0.9899930508 -0.2014400731
21400171600.0 -0.9917360586 -0.1871605221
21450171300.0 -0.9924778295 -0.1727068261
21500171000.0 -0.992184206 -0.157125293
21550170700.0 -0.9922201051 -0.1433143425
21600170400.0 -0.9931110026 -0.1267940555
21650170100.0 -0.992807586 -0.1108852457
21700169800.0 -0.9897037384 -0.0956566175
21750169500.0 -0.9887473693 -0.080567623
21800169200.0 -0.9884880166 -0.0637566732
21850168900.0 -0.9873087958 -0.0464241011
21900168600.0 -0.9868502685 -0.0302165664
21950168300.0 -0.9854780075 -0.0148044765
22000168000.0 -0.984213615 0.0002540896
22050167700.0 -0.9840804669 0.0146572009
22100167400.0 -0.9845045826 0.0301737731
22150167100.0 -0.9850179183 0.0461024249
22200166800.0 -0.9855802021 0.0621469105
22250166500.0 -0.9844801734 0.0789120363
22300166200.0 -0.9844306751 0.0956832215
22350165900.0 -0.9818811942 0.112103145
22400165600.0 -0.9805580334 0.1287505666
22450165300.0 -0.9793362384 0.1430712662
22500165000.0 -0.977573376 0.1564239971
22550164700.0 -0.9766391845 0.1724216766
22600164400.0 -0.9742820092 0.1882782757
22650164100.0 -0.9726264894 0.2023093476
22700163800.0 -0.9690299562 0.21843418
22750163500.0 -0.9672468363 0.2337391187
22800163200.0 -0.9651689971 0.2467179065
22850162900.0 -0.9618399607 0.2603289277
22900162600.0 -0.9602418225 0.2736826526
22950162300.0 -0.9592034893 0.2867259357
23000162000.0 -0.9580978522 0.2984110275
23050161700.0 -0.9560112942 0.3111351838
23100161400.0 -0.9535214084 0.3242074802
23150161100.0 -0.9504663188 0.3366253839
23200160800.0 -0.9480796568 0.3490832488
23250160500.0 -0.9454105682 0.3601643481
23300160200.0 -0.9424046222 0.3726482898
23350159900.0 -0.9397313119 0.3859309492
23400159600.0 -0.9342334596 0.3987471911
23450159300.0 -0.9290783473 0.4127217178
23500159000.0 -0.9250975323 0.4254130727
23550158700.0 -0.9205159995 0.43890202
23600158400.0 -0.9148748275 0.4522841422
23650158100.0 -0.9084713214 0.4665996453
23700157800.0 -0.9008554502 0.4803351019
23750157500.0 -0.8923226664 0.4946469585
23800157200.0 -0.8832389713 0.5079415646
23850156900.0 -0.8746463625 0.5205464697
23900156600.0 -0.8651267267 0.532986874
23950156300.0 -0.8560860568 0.5453116296
24000156000.0 -0.8468474447 0.5578039453
24050155700.0 -0.8367740866 0.5687760006
24100155400.0 -0.8268922729 0.5812111405
24150155100.0 -0.8167596157 0.5928069681
24200154800.0 -0.8057667949 0.6051755435
24250154500.0 -0.7940510582 0.6160574157
24300154200.0 -0.7829687358 0.628039328
24350153900.0 -0.77102039 0.6388044871
24400153600.0 -0.7585492066 0.6491333067
24450153300.0 -0.7465054496 0.6590319923
24500153000.0 -0.735326487 0.6682732349
24550152700.0 -0.7240183885 0.6780869001
24600152400.0 -0.7127516236 0.6876114764
24650152100.0 -0.7008133414 0.6959000334
