!Created with skrf (http://scikit-rf.org).
# Hz S RI R 50.0 
!freq ReS11 ImS11
300000.0 -0.9796138055 -0.1075605995
50299700.0 -1.000139408 0.0160462745
100299400.0 -0.9980416686 0.0288457151
150299100.0 -1.002838292 0.0457677079
200298800.0 -0.999734343 0.0589759106
250298500.0 -0.9975530736 0.0726502769
300298200.0 -0.9859589561 0.0883065008
350297900.0 -0.9940045626 0.0993795493
400297600.0 -0.9931830433 0.1160003676
450297300.0 -0.9911740311 0.1297409182
500297000.0 -0.9895764824 0.144318716
550296700.0 -0.984398066 0.1569209988
600296400.0 -1.01731054 0.1902851047
650296100.0 -0.982169956 0.1869428837
700295800.0 -0.9792094716 0.2011366296
750295500.0 -0.9761545305 0.2151996047
800295200.0 -0.9726743305 0.2292853395
850294900.0 -0.969385972 0.2431621433
900294600.0 -0.9656143694 0.2568405593
950294300.0 -0.9618009357 0.2704481056
1000294000.0 -0.9580553656 0.2844967243
1050293700.0 -0.95349394 0.2982311241
1100293400.0 -0.9491411717 0.3128444383
1150293100.0 -0.9454023119 0.3246072141
1200292800.0 -0.9399018752 0.3388882126
1250292500.0 -0.9345176895 0.3524104493
1300292200.0 -0.9287628184 0.3654703255
1350291900.0 -0.9230861846 0.3797763791
1400291600.0 -0.9177824117 0.3926691083
1450291300.0 -0.9122143666 0.4050026248
1500291000.0 -0.905958845 0.41855588
1550290700.0 -0.8994388061 0.4317622778
1600290400.0 -0.8934118592 0.4446454569
1650290100.0 -0.8863942562 0.4567109227
1700289800.0 -0.8796302662 0.4701589742
1750289500.0 -0.8725701196 0.4826347038
1800289200.0 -0.8654384628 0.4954695811
1850288900.0 -0.8582697104 0.5066539
1900288600.0 -0.8506801867 0.5198094564
1950288300.0 -0.842451875 0.5323507329
2000288000.0 -0.83514309 0.543741153
2050287700.0 -0.8269210849 0.5561672692
2100287400.0 -0.818808977 0.5678448321
2150287100.0 -0.8104031752 0.5798155498
2200286800.0 -0.8025322375 0.5902258385
2250286500.0 -0.7937144103 0.6022573023
2300286200.0 -0.7846259265 0.6138231838
2350285900.0 -0.7760538162 0.6249008398
2400285600.0 -0.7669099764 0.6357373263
2450285300.0 -0.7583151049 0.6461935247
2500285000.0 -0.7484650853 0.6576428666
2550284700.0 -0.7397500056 0.6676632672
2600284400.0 -0.7302351482 0.6778267778
2650284100.0 -0.7211453488 0.6884148133
2700283800.0 -0.7104838744 0.6989683511
2750283500.0 -0.7001655111 0.7093467786
2800283200.0 -0.6906102813 0.7191150386
2850282900.0 -0.6803341094 0.7290124526
2900282600.0 -0.66988024 0.7386934091
2950282300.0 -0.6598804334 0.7476338424
3000282000.0 -0.649211072 0.7575163087
3050281700.0 -0.6378296982 0.7665699297
3100281400.0 -0.6260236059 0.7760592308
3150281100.0 -0.6141736215 0.785459495
3200280800.0 -0.6025022437 0.7938100694
3250280500.0 -0.5917161065 0.8015545839
3300280200.0 -0.5806728921 0.8093331884
3350279900.0 -0.5691664904 0.8168563264
3400279600.0 -0.5568914451 0.8244118225
3450279300.0 -0.546051723 0.8317755968
3500279000.0 -0.5337187376 0.8387895229
3550278700.0 -0.5213552914 0.846127912
3600278400.0 -0.50904153 0.8531066312
3650278100.0 -0.4958996433 0.8610709479
3700277800.0 -0.4837954466 0.8670594832
3750277500.0 -0.4717005459 0.8738170852
3800277200.0 -0.4591950573 0.8803789767
3850276900.0 -0.4469635369 0.886185828
3900276600.0 -0.4360382003 0.8917902576
3950276300.0 -0.4234310626 0.8979084533
4000276000.0 -0.411647726 0.9038955823
4050275700.0 -0.3987593376 0.9099250903
4100275400.0 -0.3875933561 0.9152682666
4150275100.0 -0.3746312642 0.9209999125
4200274800.0 -0.3617373732 0.9266485017
4250274500.0 -0.3493551085 0.9314443304
4300274200.0 -0.3363777408 0.9368590728
4350273900.0 -0.3225427284 0.9423550317
4400273600.0 -0.3075039045 0.9475483259
4450273300.0 -0.2922342122 0.9526978872
4500273000.0 -0.2786867711 0.9569209435
4550272700.0 -0.2645908864 0.9611296593
4600272400.0 -0.249160106 0.9653944654
4650272100.0 -0.237272765 0.9684728429
4700271800.0 -0.2239683975 0.9718670548
4750271500.0 -0.2121760583 0.9746815017
4800271200.0 -0.1997629223 0.9774893908
4850270900.0 -0.1858743262 0.9801473748
4900270600.0 -0.1720510835 0.9826469099
4950270300.0 -0.1577621915 0.985276084
5000270000.0 -0.1435982042 0.9872538804
5050269700.0 -0.1301767812 0.9888075751
5100269400.0 -0.1166550522 0.990641852
5150269100.0 -0.1033111352 0.9921306483
5200268800.0 -0.09011253 0.9932148196
5250268500.0 -0.0770859562 0.9938538451
5300268200.0 -0.0641812321 0.9948763016
5350267900.0 -0.0518410898 0.9952112452
5400267600.0 -0.0354798612 0.9963315359
5450267300.0 -0.0225016687 0.9966889589
5500267000.0 -0.0072260571 0.9970849382
5550266700.0 0.0077406124 0.9973340966
5600266400.0 0.0230842654 0.9974216597
5650266100.0 0.0397127968 0.9968941392
5700265800.0 0.0540033921 0.9959738439
5750265500.0 0.0696165816 0.9953495413
5800265200.0 0.08372258 0.9946724556
5850264900.0 0.0964325822 0.9933652415
5900264600.0 0.1133163599 0.9915705979
5950264300.0 0.1255993668 0.9899291197
6000264000.0 0.139578881 0.9881841734
6050263700.0 0.1520636401 0.9865634503
6100263400.0 0.1646862502 0.984583874
6150263100.0 0.1789917921 0.9823371603
6200262800.0 0.1897507728 0.9803771176
6250262500.0 0.2023628159 0.9781105166
6300262200.0 0.21513533 0.9749825346
6350261900.0 0.2281634318 0.9723597299
6400261600.0 0.2422264962 0.9689510932
6450261300.0 0.2534138628 0.9663665481
6500261000.0 0.2663261588 0.9628862709
6550260700.0 0.2790286604 0.9585423943
6600260400.0 0.292813965 0.9548445681
6650260100.0 0.3059977777 0.9500487794
6700259800.0 0.3184761102 0.946479667
6750259500.0 0.3318269751 0.9409844393
6800259200.0 0.3454990005 0.9363358918
6850258900.0 0.3569281242 0.9311575138
6900258600.0 0.3694365972 0.9263565111
6950258300.0 0.3817406223 0.9208196745
7000258000.0 0.3938495564 0.9154896017
7050257700.0 0.4060652525 0.9094408985
7100257400.0 0.4186703325 0.9032433685
7150257100.0 0.4289737207 0.8978191965
7200256800.0 0.4419421563 0.891584798
7250256500.0 0.4532644807 0.8852154968
7300256200.0 0.466780135 0.8785095123
7350255900.0 0.4793085741 0.8715308728
7400255600.0 0.49220755 0.8643965905
7450255300.0 0.5078827664 0.8554563969
7500255000.0 0.5193751201 0.8481642632
7550254700.0 0.5329463281 0.840043556
7600254400.0 0.5455846981 0.8313439343
7650254100.0 0.5571403534 0.8233600941
7700253800.0 0.5693323941 0.8154304992
7750253500.0 0.5803232921 0.8076087587
7800253200.0 0.5909262452 0.7999515735
7850252900.0 0.600801241 0.7928013903
7900252600.0 0.6125779668 0.7840156631
7950252300.0 0.6214363219 0.7773932152
8000252000.0 0.631716146 0.7695736514
8050251700.0 0.6421021788 0.7613485044
8100251400.0 0.6522093811 0.7532794209
8150251100.0 0.6624060263 0.7445026996
8200250800.0 0.6715979436 0.7366776693
8250250500.0 0.6805425358 0.7287813083
8300250200.0 0.6898576742 0.7197202414
8350249900.0 0.6990845198 0.7111953555
8400249600.0 0.7073726671 0.7034967994
8450249300.0 0.7164418894 0.6939282344
8500249000.0 0.7249081768 0.6851591954
8550248700.0 0.7332731223 0.6762223769
8600248400.0 0.7415419033 0.6665506474
8650248100.0 0.7493317559 0.6573993848
8700247800.0 0.7588701237 0.6462316094
8750247500.0 0.7669878227 0.6358215653
8800247200.0 0.775282091 0.6256490397
8850246900.0 0.784162822 0.6142266142
8900246600.0 0.792597697 0.603063444
8950246300.0 0.8019901379 0.5899947314
9000246000.0 0.8111577809 0.5773386497
9050245700.0 0.8201493135 0.5642771916
9100245400.0 0.8293039339 0.5518450469
9150245100.0 0.8381491915 0.5380926006
9200244800.0 0.8480317776 0.5228119941
9250244500.0 0.8575982354 0.5070765726
9300244200.0 0.8659921616 0.4926025768
9350243900.0 0.873583647 0.4787485725
9400243600.0 0.8804814367 0.4661230429
9450243300.0 0.8863023269 0.4544176113
9500243000.0 0.8926218433 0.4420864565
9550242700.0 0.8963271947 0.4345021987
9600242400.0 0.9003660938 0.4269562486
9650242100.0 0.9038932166 0.4205329562
9700241800.0 0.908506753 0.4122488356
9750241500.0 0.9122942354 0.4049316624
9800241200.0 0.9170299313 0.3955557652
9850240900.0 0.9227871768 0.383668358
9900240600.0 0.9283142471 0.3721904144
9950240300.0 0.9349901966 0.3558073084
10000240000.0 0.9395197525 0.3442995342
10050239700.0 0.944950186 0.3293716105
10100239400.0 0.9498068721 0.3139707057
10150239100.0 0.9543711194 0.2992234156
10200238800.0 0.9585294139 0.2840094886
10250238500.0 0.9616973029 0.271050344
10300238200.0 0.9649384334 0.257010564
10350237900.0 0.9675268611 0.244012266
10400237600.0 0.9699411986 0.2308303119
10450237300.0 0.9725883652 0.2171690551
10500237000.0 0.9747994565 0.2050060171
10550236700.0 0.9772981885 0.1907485354
10600236400.0 0.9793777894 0.1776661557
10650236100.0 0.9813505948 0.1633350051
10700235800.0 0.9839436567 0.150477548
10750235500.0 0.9856731987 0.137948673
10800235200.0 0.9879375688 0.1231999107
10850234900.0 0.9896859956 0.108830002
10900234600.0 0.9919135307 0.0943326121
10950234300.0 0.9933627541 0.0811488
11000234000.0 0.9952439675 0.0661446331
11050233700.0 0.9970409824 0.049714491
11100233400.0 0.9983818423 0.0323794449
11150233100.0 0.9994592135 0.0160896726
11200232800.0 1.000635374 0.0005265698
11250232500.0 1.000939223 -0.0154588724
11300232200.0 1.002029546 -0.033166315
11350231900.0 1.001709534 -0.0492950283
11400231600.0 1.001259566 -0.0644011632
11450231300.0 1.000703784 -0.0808419866
11500231000.0 0.9995208947 -0.0969889853
11550230700.0 0.9980269588 -0.1103608002
11600230400.0 0.9968879001 -0.1229932251
11650230100.0 0.9946641694 -0.1345287572
11700229800.0 0.9926360551 -0.1495092501
11750229500.0 0.990469305 -0.1638932999
11800229200.0 0.9876754355 -0.1777542293
11850228900.0 0.9838894436 -0.1899791683
11900228600.0 0.9804249244 -0.2000313719
11950228300.0 0.9772117888 -0.2097901116
12000228000.0 0.9744514213 -0.219558428
12050227700.0 0.9706130292 -0.2327619695
12100227400.0 0.9678884218 -0.2432727253
12150227100.0 0.9632015606 -0.2591701684
12200226800.0 0.9590912689 -0.2707632002
12250226500.0 0.9552096676 -0.2831496908
12300226200.0 0.9510218163 -0.2953562049
12350225900.0 0.9462574072 -0.3097687355
12400225600.0 0.9416759071 -0.3219229745
12450225300.0 0.9374515688 -0.3349665447
12500225000.0 0.932048074 -0.3493325202
12550224700.0 0.9267167046 -0.3633611554
12600224400.0 0.9218216853 -0.3760318177
12650224100.0 0.9159554226 -0.3903282524
12700223800.0 0.9106186032 -0.4030917443
12750223500.0 0.9053274944 -0.4159090632
12800223200.0 0.8999025832 -0.4286072308
12850222900.0 0.8945497047 -0.4409212738
12900222600.0 0.8886656184 -0.4530593317
12950222300.0 0.8823968607 -0.4655989447
13000222000.0 0.8767384122 -0.4770849944
13050221700.0 0.8696345749 -0.4901490975
13100221400.0 0.8633893705 -0.5017529299
13150221100.0 0.8560143784 -0.5139832004
13200220800.0 0.8489379276 -0.5256356159
13250220500.0 0.841716652 -0.5379122229
13300220200.0 0.8342378021 -0.5488528112
13350219900.0 0.8262370249 -0.5609764962
13400219600.0 0.8176837211 -0.5731599057
13450219300.0 0.8083269115 -0.5868506984
13500219000.0 0.7978232701 -0.6008175189
13550218700.0 0.787536112 -0.6136348519
13600218400.0 0.7773304783 -0.6256838525
13650218100.0 0.7670717429 -0.6374854853
13700217800.0 0.7570312572 -0.6487491195
13750217500.0 0.7461136185 -0.6610150555
13800217200.0 0.7357694271 -0.6722991649
13850216900.0 0.724830879 -0.6837853375
13900216600.0 0.7143731273 -0.6929667171
13950216300.0 0.7032277555 -0.7026986655
14000216000.0 0.6935241691 -0.7123785069
14050215700.0 0.6842214733 -0.7207170979
14100215400.0 0.6739351633 -0.7292016019
14150215100.0 0.6649236251 -0.7379638935
14200214800.0 0.6557628634 -0.7465064078
14250214500.0 0.6456404764 -0.7554800897
14300214200.0 0.6352346362 -0.764813707
14350213900.0 0.6242311126 -0.7743263678
14400213600.0 0.6126057371 -0.7841021678
14450213300.0 0.5993833452 -0.7939367485
14500213000.0 0.5867687465 -0.8041898384
14550212700.0 0.5742376884 -0.8136047548
14600212400.0 0.5614050043 -0.8221272891
14650212100.0 0.5482512176 -0.8309862694
14700211800.0 0.5350313963 -0.8402491947
14750211500.0 0.5221872744 -0.8487864805
14800211200.0 0.5104300872 -0.8564085783
14850210900.0 0.4981131531 -0.8642205509
14900210600.0 0.4847393829 -0.872035518
14950210300.0 0.471079112 -0.8795662575
15000210000.0 0.4582828006 -0.886387764
15050209700.0 0.4461492016 -0.8924171363
15100209400.0 0.4330290415 -0.898650251
15150209100.0 0.4204953306 -0.904051132
15200208800.0 0.4080875066 -0.9094257034
15250208500.0 0.396044413 -0.9136590157
15300208200.0 0.3841133574 -0.9181175964
15350207900.0 0.3706673566 -0.9234365674
15400207600.0 0.3559665515 -0.9286328438
15450207300.0 0.3413935115 -0.934275903
15500207000.0 0.3275248221 -0.9385870301
15550206700.0 0.3117473722 -0.9437559699
15600206400.0 0.2962274643 -0.9476942257
15650206100.0 0.2803390855 -0.9521969687
15700205800.0 0.2661164162 -0.9556530782
15750205500.0 0.2517078485 -0.9593640451
15800205200.0 0.2371994169 -0.9627032395
15850204900.0 0.2228180279 -0.9660718553
15900204600.0 0.2079154739 -0.9696480764
15950204300.0 0.1940948964 -0.9728199623
16000204000.0 0.1799962135 -0.9750342076
16050203700.0 0.1652132775 -0.9781886209
16100203400.0 0.1508286746 -0.9805370094
16150203100.0 0.1365782687 -0.9828466292
16200202800.0 0.1225965418 -0.9849864043
16250202500.0 0.108095637 -0.986580582
16300202200.0 0.0928340189 -0.9879710598
16350201900.0 0.0775385158 -0.9892810736
16400201600.0 0.0633202714 -0.990206168
16450201300.0 0.0481243016 -0.9913350222
16500201000.0 0.0313057428 -0.9919549438
16550200700.0 0.0156542597 -0.9925941962
16600200400.0 -0.0002028466 -0.9925648429
16650200100.0 -0.0162412937 -0.9926639337
16700199800.0 -0.0327194042 -0.9919395285
16750199500.0 -0.0517935356 -0.991380909
16800199200.0 -0.0668189836 -0.9906454582
16850198900.0 -0.0820927171 -0.9897590595
16900198600.0 -0.0970331001 -0.9884596791
16950198300.0 -0.1104285138 -0.9873404454
17000198000.0 -0.1226891261 -0.9859774402
17050197700.0 -0.1355977518 -0.9834806117
17100197400.0 -0.1486627057 -0.9813618338
17150197100.0 -0.1613508027 -0.9796210396
17200196800.0 -0.1741146097 -0.977817613
17250196500.0 -0.1870201815 -0.9750169159
17300196200.0 -0.1992379198 -0.9729517965
17350195900.0 -0.2109445212 -0.9706807976
17400195600.0 -0.2232630129 -0.9680902336
17450195300.0 -0.2362071594 -0.9653163987
17500195000.0 -0.2498463604 -0.9620815633
17550194700.0 -0.2633663246 -0.9584215085
17600194400.0 -0.2777047308 -0.9543408111
17650194100.0 -0.2912833025 -0.9502552387
17700193800.0 -0.3043077902 -0.9463926145
17750193500.0 -0.3182671363 -0.9413798845
17800193200.0 -0.3330321101 -0.9358471573
17850192900.0 -0.3477237121 -0.9309945253
17900192600.0 -0.3631796065 -0.9247864805
17950192300.0 -0.3784073177 -0.917639875
18000192000.0 -0.3932160416 -0.9104668471
18050191700.0 -0.4068973916 -0.9025896303
18100191400.0 -0.4211096208 -0.894987373
18150191100.0 -0.4360057972 -0.8869272588
18200190800.0 -0.452717283 -0.8778057196
18250190500.0 -0.4698070457 -0.8681052306
18300190200.0 -0.4852273916 -0.8591965013
18350189900.0 -0.5004401239 -0.8509714998
18400189600.0 -0.5147333224 -0.8428181309
18450189300.0 -0.5276983025 -0.8346064769
18500189000.0 -0.5410623473 -0.8267801885
18550188700.0 -0.5540680113 -0.8187204255
18600188400.0 -0.565525998 -0.812250617
18650188100.0 -0.5768333589 -0.8054841498
18700187800.0 -0.5878743267 -0.798943637
18750187500.0 -0.5985539897 -0.7922757031
18800187200.0 -0.6091342581 -0.7850301379
18850186900.0 -0.619449789 -0.7781469289
18900186600.0 -0.6297166156 -0.7706209959
18950186300.0 -0.6397959015 -0.7627908046
19000186000.0 -0.6476726095 -0.7563798419
19050185700.0 -0.6567393404 -0.7494108413
19100185400.0 -0.66644566 -0.7404410167
19150185100.0 -0.6766966986 -0.7322050983
19200184800.0 -0.6865768717 -0.7238904204
19250184500.0 -0.6968114225 -0.7144839145
19300184200.0 -0.7087424699 -0.7047612098
19350183900.0 -0.7188816475 -0.6950869057
19400183600.0 -0.7288459663 -0.6854005015
19450183300.0 -0.7370206498 -0.6754914447
19500183000.0 -0.7456374939 -0.6658665225
19550182700.0 -0.7556003442 -0.6545945072
19600182400.0 -0.7657631907 -0.6434099126
19650182100.0 -0.7768263961 -0.6308495658
19700181800.0 -0.7872247602 -0.6175958799
19750181500.0 -0.7974412137 -0.6035299769
19800181200.0 -0.8077856275 -0.5886071982
19850180900.0 -0.8173900185 -0.5733913231
19900180600.0 -0.8251707678 -0.5585919499
19950180300.0 -0.8340985625 -0.5425824216
20000180000.0 -0.8278424736 -0.5452301949
20050179700.0 -0.8358212621 -0.5322436086
20100179400.0 -0.8434701335 -0.5180042575
20150179100.0 -0.8514956779 -0.5054970023
20200178800.0 -0.8601704532 -0.4935751198
20250178500.0 -0.8698148514 -0.4792245889
20300178200.0 -0.880184582 -0.4650515565
20350177900.0 -0.8880608136 -0.450376019
20400177600.0 -0.8973288969 -0.4358632921
20450177300.0 -0.9054161726 -0.4216373983
20500177000.0 -0.9132867344 -0.4076433097
20550176700.0 -0.9212574241 -0.3939531933
20600176400.0 -0.9284909841 -0.3803177731
20650176100.0 -0.9350474257 -0.3681433575
20700175800.0 -0.9414416068 -0.3565712349
20750175500.0 -0.9483524429 -0.3442005958
20800175200.0 -0.9537492076 -0.3342710277
20850174900.0 -0.9571674562 -0.3222692457
20900174600.0 -0.9630298092 -0.3110953508
20950174300.0 -0.9663919276 -0.2992889913
21000174000.0 -0.9700962196 -0.2879133494
21050173700.0 -0.9732417166 -0.276613703
21100173400.0 -0.9771207888 -0.2640944381
21150173100.0 -0.9816601229 -0.2518146794
21200172800.0 -0.9845568309 -0.2387755438
21250172500.0 -0.9878738795 -0.2247620351
21300172200.0 -0.9911523427 -0.210516264
21350171900.0 -0.9918609613 -0.1966896501
21400171600.0 -0.9932186955 -0.1812746576
21450171300.0 -0.9939966667 -0.1675600932
21500171000.0 -0.9935238728 -0.1515994932
21550170700.0 -0.9937181738 -0.1366478259
21600170400.0 -0.9929376663 -0.1208609652
21650170100.0 -0.9915269963 -0.1049618602
21700169800.0 -0.9902076395 -0.0896333219
21750169500.0 -0.9891844557 -0.0738442936
21800169200.0 -0.9881934709 -0.0581711593
21850168900.0 -0.9870412562 -0.040694002
21900168600.0 -0.984829371 -0.0250393022
21950168300.0 -0.9839084147 -0.008769578
22000168000.0 -0.9826157869 0.0054563916
22050167700.0 -0.9826010053 0.0199320406
22100167400.0 -0.9823621166 0.0354580252
22150167100.0 -0.9834596885 0.0507809688
22200166800.0 -0.9837422109 0.0664922123
22250166500.0 -0.9823172176 0.0835544656
22300166200.0 -0.981520394 0.1004104811
22350165900.0 -0.9812278109 0.1175223702
22400165600.0 -0.9786907681 0.1324356022
22450165300.0 -0.977013797 0.1473831321
22500165000.0 -0.974517457 0.1611828994
22550164700.0 -0.9747637726 0.1776125629
22600164400.0 -0.973226639 0.1913015051
22650164100.0 -0.9707256268 0.2067884697
22700163800.0 -0.9676807515 0.2228968392
22750163500.0 -0.965669371 0.2379584244
22800163200.0 -0.962324816 0.2511416938
22850162900.0 -0.9600419608 0.2645058551
22900162600.0 -0.9586819378 0.2782109019
22950162300.0 -0.9573650095 0.2910293971
23000162000.0 -0.9564278257 0.3026567398
23050161700.0 -0.9547572408 0.3151042362
23100161400.0 -0.9527078122 0.3276975584
23150161100.0 -0.9489580147 0.3397480071
23200160800.0 -0.9468944889 0.3527109815
23250160500.0 -0.9437512653 0.3645164476
23300160200.0 -0.9414027796 0.3756427222
23350159900.0 -0.936968784 0.3883344373
23400159600.0 -0.932749969 0.4019822068
23450159300.0 -0.9280100396 0.4151266706
23500159000.0 -0.9232057428 0.4278269797
23550158700.0 -0.9189250632 0.4417114455
23600158400.0 -0.9136544488 0.4547572087
23650158100.0 -0.9071018576 0.4687104331
23700157800.0 -0.899497391 0.48227099
23750157500.0 -0.8911060457 0.4963371857
23800157200.0 -0.882118067 0.5095061179
23850156900.0 -0.8736373727 0.5221096612
23900156600.0 -0.8644150851 0.534377995
23950156300.0 -0.8552369019 0.546809681
24000156000.0 -0.8460883808 0.5588743243
24050155700.0 -0.8364221668 0.5707332309
24100155400.0 -0.8258554751 0.5827230432
24150155100.0 -0.8152166379 0.5942285154
24200154800.0 -0.8047566213 0.6054371704
24250154500.0 -0.7927370136 0.6168628868
24300154200.0 -0.7814437768 0.6292682965
24350153900.0 -0.7696696165 0.639833898
24400153600.0 -0.7575096297 0.6496581856
24450153300.0 -0.7456028144 0.6599084967
24500153000.0 -0.7342858956 0.6688503215
24550152700.0 -0.7227571038 0.678771202
24600152400.0 -0.711539544 0.6875742806
24650152100.0 -0.6994742056 0.6964775863
