!Created with skrf (http://scikit-rf.org).
# Hz S RI R 50.0 
!freq ReS11 ImS11
300000.0 -0.9737890561 -0.1208207066
50299700.0 -1.000049677 0.0152405812
100299400.0 -0.997896045 0.0281566734
150299100.0 -1.002776735 0.0450340394
200298800.0 -0.9996213049 0.0584932781
250298500.0 -0.9973747541 0.0718529409
300298200.0 -0.9860372828 0.0875383253
350297900.0 -0.9940871724 0.0986327772
400297600.0 -0.9930763583 0.1151640192
450297300.0 -0.9910834411 0.1291023733
500297000.0 -0.9894479055 0.1435996093
550296700.0 -0.9842494313 0.1562362538
600296400.0 -1.017427272 0.1894059198
650296100.0 -0.9822397481 0.1862792577
700295800.0 -0.9792976583 0.2004112635
750295500.0 -0.9763870817 0.2142673411
800295200.0 -0.9729450319 0.2285140492
850294900.0 -0.9697667493 0.242250848
900294600.0 -0.9657331742 0.2559781675
950294300.0 -0.9619849442 0.2696672045
1000294000.0 -0.9580739009 0.2836081761
1050293700.0 -0.9536971092 0.2972890309
1100293400.0 -0.9493716272 0.3118648172
1150293100.0 -0.9456152983 0.3236734109
1200292800.0 -0.9401473614 0.3381200007
1250292500.0 -0.9348418361 0.3515048261
1300292200.0 -0.9290094762 0.3647986911
1350291900.0 -0.9233563261 0.3788517081
1400291600.0 -0.9180004894 0.3918959296
1450291300.0 -0.9124019126 0.4041122291
1500291000.0 -0.9062354522 0.4176850593
1550290700.0 -0.8997210869 0.4310593295
1600290400.0 -0.8935067016 0.4439275949
1650290100.0 -0.8869285473 0.4560523778
1700289800.0 -0.8799209969 0.4693446798
1750289500.0 -0.8728725198 0.4816930694
1800289200.0 -0.8655655305 0.4946739478
1850288900.0 -0.8587818355 0.5060113349
1900288600.0 -0.8510929007 0.5191008058
1950288300.0 -0.8428552719 0.5317502312
2000288000.0 -0.8354704088 0.5429630737
2050287700.0 -0.8271805771 0.5552642679
2100287400.0 -0.8193748514 0.5669348314
2150287100.0 -0.8108212334 0.578964749
2200286800.0 -0.8031447475 0.5894395982
2250286500.0 -0.7942308913 0.6013876926
2300286200.0 -0.785166828 0.613057053
2350285900.0 -0.7766195008 0.6239089909
2400285600.0 -0.7677212343 0.634996187
2450285300.0 -0.7591435231 0.6454577358
2500285000.0 -0.7493029371 0.6565868013
2550284700.0 -0.7403710878 0.6670590104
2600284400.0 -0.7312249946 0.6772059324
2650284100.0 -0.7221925703 0.6877456938
2700283800.0 -0.7114526713 0.6979568378
2750283500.0 -0.7014270418 0.7086439267
2800283200.0 -0.6915523202 0.7186109994
2850282900.0 -0.6813528923 0.7282506905
2900282600.0 -0.6708476721 0.738032318
2950282300.0 -0.6606072509 0.7472195822
3000282000.0 -0.6499596449 0.7566974413
3050281700.0 -0.6384675505 0.7657930364
3100281400.0 -0.6270180566 0.7753008325
3150281100.0 -0.6149785257 0.7846136667
3200280800.0 -0.6033617653 0.7930730125
3250280500.0 -0.5924481783 0.8007328667
3300280200.0 -0.5814175467 0.8087604973
3350279900.0 -0.5695857301 0.8163194493
3400279600.0 -0.5574807329 0.8241289889
3450279300.0 -0.5463362041 0.8311058292
3500279000.0 -0.5346283518 0.8382099606
3550278700.0 -0.5217773075 0.8454836564
3600278400.0 -0.5097448995 0.8526830427
3650278100.0 -0.4964191575 0.8600505277
3700277800.0 -0.4845215809 0.8665226416
3750277500.0 -0.472408779 0.8734172195
3800277200.0 -0.459764134 0.8796777157
3850276900.0 -0.4476856465 0.8858239431
3900276600.0 -0.436866555 0.8914958845
3950276300.0 -0.4243118698 0.8975952887
4000276000.0 -0.4125050775 0.9034745587
4050275700.0 -0.3996495661 0.9096232205
4100275400.0 -0.3883207484 0.9148542454
4150275100.0 -0.3759120677 0.9207026289
4200274800.0 -0.3628416722 0.9263110529
4250274500.0 -0.3506341172 0.9312443827
4300274200.0 -0.3374418656 0.9368158876
4350273900.0 -0.3236640018 0.942033202
4400273600.0 -0.3089292964 0.9473117241
4450273300.0 -0.2936557869 0.9522514164
4500273000.0 -0.2801493712 0.9566492473
4550272700.0 -0.2659072641 0.9608950191
4600272400.0 -0.2505547632 0.9650273616
4650272100.0 -0.2387427514 0.9681991887
4700271800.0 -0.2256028391 0.9715843628
4750271500.0 -0.2137714232 0.9744107226
4800271200.0 -0.2013117401 0.9772001137
4850270900.0 -0.1874604205 0.9799891603
4900270600.0 -0.1735601718 0.9821544825
4950270300.0 -0.1592929942 0.9849150138
5000270000.0 -0.1449648831 0.9871937594
5050269700.0 -0.1314188243 0.988520626
5100269400.0 -0.117674223 0.9903609726
5150269100.0 -0.1043562234 0.9920028127
5200268800.0 -0.090899933 0.9928899614
5250268500.0 -0.0780794009 0.9937950558
5300268200.0 -0.0648607559 0.9951202542
5350267900.0 -0.0525215775 0.9950923758
5400267600.0 -0.0363105515 0.9963410003
5450267300.0 -0.0231236067 0.9967569335
5500267000.0 -0.0082063315 0.9971375845
5550266700.0 0.0067411971 0.9971394716
5600266400.0 0.0224639015 0.9975479537
5650266100.0 0.0388563326 0.9967606343
5700265800.0 0.0534088016 0.9963871413
5750265500.0 0.0687138185 0.9956470002
5800265200.0 0.0824926402 0.9944111387
5850264900.0 0.0959429359 0.9938773285
5900264600.0 0.1123247058 0.9914287889
5950264300.0 0.1243530388 0.9899096617
6000264000.0 0.1380825598 0.9884984707
6050263700.0 0.1505471377 0.9866456779
6100263400.0 0.1627725116 0.9847421717
6150263100.0 0.1774606814 0.9827374211
6200262800.0 0.1879131849 0.9811176849
6250262500.0 0.200733142 0.9787188684
6300262200.0 0.2132618216 0.9758028794
6350261900.0 0.2263367312 0.9729729434
6400261600.0 0.2403312584 0.9697077065
6450261300.0 0.2514729572 0.9669504286
6500261000.0 0.2643316589 0.9633911679
6550260700.0 0.2770599906 0.9596497602
6600260400.0 0.29077776 0.9552672183
6650260100.0 0.3050711309 0.9512001095
6700259800.0 0.3170293976 0.9469901473
6750259500.0 0.3304098915 0.94175753
6800259200.0 0.3433931944 0.9367331437
6850258900.0 0.3557960432 0.9319371015
6900258600.0 0.3680830816 0.9265713563
6950258300.0 0.3805791437 0.9214058539
7000258000.0 0.3925712353 0.915900028
7050257700.0 0.4045691653 0.9097596469
7100257400.0 0.4173334572 0.9036922938
7150257100.0 0.4279889511 0.898230856
7200256800.0 0.4406908928 0.8918798315
7250256500.0 0.4527256437 0.8856050101
7300256200.0 0.4657148366 0.8787847689
7350255900.0 0.4778698927 0.8716901901
7400255600.0 0.4914043675 0.8647449789
7450255300.0 0.5067704938 0.855779638
7500255000.0 0.5185501533 0.8485026261
7550254700.0 0.5323988105 0.8400074224
7600254400.0 0.5453908852 0.8317364076
7650254100.0 0.5567555951 0.8240033721
7700253800.0 0.5682597939 0.8160357886
7750253500.0 0.5796694674 0.8083195703
7800253200.0 0.5903632546 0.8005859007
7850252900.0 0.6000049184 0.7936977573
7900252600.0 0.6118139337 0.7847469555
7950252300.0 0.6205594284 0.7781038956
8000252000.0 0.6306813346 0.770493173
8050251700.0 0.6412245671 0.7624505377
8100251400.0 0.6513103552 0.7543228796
8150251100.0 0.6612446397 0.7456449746
8200250800.0 0.6705815557 0.7376792834
8250250500.0 0.6790475785 0.7296784445
8300250200.0 0.689027038 0.72123413
8350249900.0 0.6981151142 0.7123615427
8400249600.0 0.7061478508 0.7043038109
8450249300.0 0.7152376999 0.6952666527
8500249000.0 0.7239121738 0.6863728565
8550248700.0 0.7321301199 0.6773779119
8600248400.0 0.7406888807 0.6676551916
8650248100.0 0.7484387205 0.6584281901
8700247800.0 0.7580710888 0.6471060595
8750247500.0 0.7662902899 0.6370733446
8800247200.0 0.7744375418 0.6264865695
8850246900.0 0.7832002659 0.6152566662
8900246600.0 0.791894187 0.6036609628
8950246300.0 0.8012221845 0.5909704824
9000246000.0 0.8104887297 0.5781270063
9050245700.0 0.8196045043 0.5652686318
9100245400.0 0.8280040275 0.5529071353
9150245100.0 0.8371477582 0.5393806433
9200244800.0 0.8471018018 0.5241961003
9250244500.0 0.8566232605 0.5088972053
9300244200.0 0.8646683071 0.4945714364
9350243900.0 0.8725163026 0.4807339997
9400243600.0 0.8792234839 0.4684129622
9450243300.0 0.8850136001 0.4566777039
9500243000.0 0.8913138039 0.4448240098
9550242700.0 0.8950540744 0.4370754871
9600242400.0 0.8990203108 0.4296486867
9650242100.0 0.9026133397 0.4231658012
9700241800.0 0.9074392042 0.414887769
9750241500.0 0.9113237813 0.4073189697
9800241200.0 0.91630782 0.3980433779
9850240900.0 0.9219193833 0.38630977
9900240600.0 0.9276512418 0.3749925159
9950240300.0 0.9341391282 0.3589062965
10000240000.0 0.9389951545 0.3471556838
10050239700.0 0.9446489797 0.3316457246
10100239400.0 0.9494511446 0.3163078113
10150239100.0 0.9541723612 0.3014688992
10200238800.0 0.9581016544 0.2863594498
10250238500.0 0.9616293876 0.2730645437
10300238200.0 0.9646608113 0.2592095639
10350237900.0 0.9672893912 0.2460436878
10400237600.0 0.9698176379 0.232733475
10450237300.0 0.972550079 0.2189901076
10500237000.0 0.9746498516 0.2069167461
10550236700.0 0.9772938728 0.1927109812
10600236400.0 0.97936294 0.1789489137
10650236100.0 0.9814682657 0.163928503
10700235800.0 0.9834185803 0.1518256831
10750235500.0 0.9857418073 0.1388124578
10800235200.0 0.9875519443 0.1247982946
10850234900.0 0.9895477937 0.1101733024
10900234600.0 0.9914577095 0.0954109714
10950234300.0 0.993399849 0.0821312364
11000234000.0 0.9952032274 0.0669821649
11050233700.0 0.9969542338 0.0504244849
11100233400.0 0.9986386896 0.0329987288
11150233100.0 0.9996502174 0.0171422183
11200232800.0 1.000418033 0.0016287726
11250232500.0 1.001101072 -0.0147626862
11300232200.0 1.00202439 -0.0327073527
11350231900.0 1.001708995 -0.0481221658
11400231600.0 1.001513097 -0.0647843529
11450231300.0 1.000735704 -0.0788277139
11500231000.0 0.999925484 -0.0962279108
11550230700.0 0.9988382666 -0.1081960475
11600230400.0 0.9974805031 -0.1221868927
11650230100.0 0.9955647218 -0.1326922123
11700229800.0 0.9932233387 -0.1471958351
11750229500.0 0.9908700941 -0.1617615846
11800229200.0 0.9882541662 -0.1758421869
11850228900.0 0.9846184191 -0.188172205
11900228600.0 0.981210607 -0.1977537576
11950228300.0 0.9779312895 -0.2083362359
12000228000.0 0.9749318717 -0.2179572317
12050227700.0 0.9713803099 -0.2306910043
12100227400.0 0.9680890284 -0.2416296934
12150227100.0 0.9630948224 -0.2586259298
12200226800.0 0.959455067 -0.2691881818
12250226500.0 0.9552309702 -0.2822403407
12300226200.0 0.9510405138 -0.2941208028
12350225900.0 0.9466658748 -0.308254912
12400225600.0 0.9423215822 -0.3207266876
12450225300.0 0.9374599363 -0.333980387
12500225000.0 0.9323613587 -0.3484093818
12550224700.0 0.926797174 -0.3621027964
12600224400.0 0.9219445962 -0.375025088
12650224100.0 0.9161319032 -0.3895380759
12700223800.0 0.9109950721 -0.4023527358
12750223500.0 0.9053409004 -0.4155007501
12800223200.0 0.8999159349 -0.4281982493
12850222900.0 0.894614635 -0.4404203984
12900222600.0 0.8888579541 -0.4526612816
12950222300.0 0.8829276053 -0.4647033905
13000222000.0 0.8765685429 -0.47684965
13050221700.0 0.8702965239 -0.4889792953
13100221400.0 0.8634058336 -0.5012575642
13150221100.0 0.8565151439 -0.5138499379
13200220800.0 0.8493802607 -0.5250344941
13250220500.0 0.8423099944 -0.5371114133
13300220200.0 0.8351496442 -0.547840981
13350219900.0 0.8269232909 -0.5599210614
13400219600.0 0.8186630013 -0.5719225789
13450219300.0 0.8094934902 -0.585068213
13500219000.0 0.7992405093 -0.5992753992
13550218700.0 0.789230075 -0.6118044073
13600218400.0 0.7788129798 -0.6244589128
13650218100.0 0.7696227744 -0.6348581836
13700217800.0 0.7592817767 -0.6465652063
13750217500.0 0.7475892287 -0.6587514482
13800217200.0 0.7371062283 -0.6705436171
13850216900.0 0.7265418787 -0.6815159561
13900216600.0 0.7164636591 -0.6906743698
13950216300.0 0.7056861606 -0.7002092746
14000216000.0 0.6958262349 -0.7102090149
14050215700.0 0.6861698667 -0.7180683139
14100215400.0 0.6761770593 -0.7276499369
14150215100.0 0.667133629 -0.7358501989
14200214800.0 0.6576142738 -0.7448571426
14250214500.0 0.6472349578 -0.75399261
14300214200.0 0.6367930848 -0.763507512
14350213900.0 0.6258609608 -0.7731289478
14400213600.0 0.613569767 -0.7828825233
14450213300.0 0.6008865131 -0.7934135055
14500213000.0 0.5878939523 -0.8027415977
14550212700.0 0.5757550645 -0.8123549769
14600212400.0 0.5631119484 -0.8216608847
14650212100.0 0.5503082684 -0.8299300074
14700211800.0 0.5359764434 -0.8398270284
14750211500.0 0.5239034435 -0.847677777
14800211200.0 0.5116571602 -0.8555810925
14850210900.0 0.4997634546 -0.8632240682
14900210600.0 0.4862872196 -0.8712131388
14950210300.0 0.4728834054 -0.8788592071
15000210000.0 0.460382855 -0.8857429713
15050209700.0 0.4475962197 -0.891487516
15100209400.0 0.4351272997 -0.8978807626
15150209100.0 0.4229020906 -0.9031856362
15200208800.0 0.4101546425 -0.9087533888
15250208500.0 0.3992262918 -0.913047782
15300208200.0 0.3862802361 -0.9174687937
15350207900.0 0.3733013167 -0.9223406332
15400207600.0 0.3586532996 -0.9273855932
15450207300.0 0.3442513559 -0.9328223691
15500207000.0 0.3300988159 -0.9370273474
15550206700.0 0.3150874212 -0.9425265841
15600206400.0 0.2992189166 -0.9470844591
15650206100.0 0.2834579634 -0.9511328873
15700205800.0 0.2691730171 -0.9549243031
15750205500.0 0.2551179361 -0.9583859548
15800205200.0 0.2407254142 -0.9618680017
15850204900.0 0.2262917324 -0.9652998505
15900204600.0 0.2111496049 -0.9688534545
15950204300.0 0.1971135441 -0.9721298019
16000204000.0 0.1830407163 -0.9750362133
16050203700.0 0.1676157579 -0.9777835854
16100203400.0 0.1527926766 -0.9796032234
16150203100.0 0.1385947426 -0.9827811847
16200202800.0 0.1244403271 -0.9846822117
16250202500.0 0.1104255587 -0.9858666187
16300202200.0 0.0940548215 -0.9874407255
16350201900.0 0.0795798723 -0.9893092413
16400201600.0 0.0648560498 -0.9904609311
16450201300.0 0.0494693017 -0.9911710658
16500201000.0 0.0328056718 -0.9921937076
16550200700.0 0.0171441523 -0.9927046973
16600200400.0 0.0014289917 -0.9930378623
16650200100.0 -0.0148686411 -0.9926770948
16700199800.0 -0.0308077632 -0.9925240986
16750199500.0 -0.0496735714 -0.9918900222
16800199200.0 -0.0654815002 -0.9911088502
16850198900.0 -0.0802285641 -0.9894850778
16900198600.0 -0.0943792677 -0.9887393505
16950198300.0 -0.1075965642 -0.9879116792
17000198000.0 -0.1203174513 -0.9862868071
17050197700.0 -0.133386249 -0.9846170301
17100197400.0 -0.1466053883 -0.9821584177
17150197100.0 -0.1585075923 -0.9801567491
17200196800.0 -0.1713796592 -0.9782493875
17250196500.0 -0.1843318355 -0.9758755455
17300196200.0 -0.1965616363 -0.973381066
17350195900.0 -0.2085969985 -0.9713845089
17400195600.0 -0.2208583865 -0.9688404271
17450195300.0 -0.2338360446 -0.9661119633
17500195000.0 -0.247353187 -0.9625727828
17550194700.0 -0.2612042945 -0.9591328678
17600194400.0 -0.2754957309 -0.955273009
17650194100.0 -0.2890695042 -0.9506662262
17700193800.0 -0.3022899026 -0.94707563
17750193500.0 -0.3160979543 -0.9423215348
17800193200.0 -0.3307842224 -0.9372646817
17850192900.0 -0.3457924895 -0.9319303773
17900192600.0 -0.3607451439 -0.9254966972
17950192300.0 -0.3764911235 -0.9185296764
18000192000.0 -0.3913901258 -0.9114267775
18050191700.0 -0.4052553346 -0.9032915309
18100191400.0 -0.4194572866 -0.8956275929
18150191100.0 -0.4344525153 -0.8876778736
18200190800.0 -0.4511992684 -0.8785421481
18250190500.0 -0.4684571894 -0.8692722268
18300190200.0 -0.4836120887 -0.8603181616
18350189900.0 -0.4988747627 -0.8523088442
18400189600.0 -0.5134760103 -0.8436616626
18450189300.0 -0.5267300557 -0.8359608536
18500189000.0 -0.5399116681 -0.8281601222
18550188700.0 -0.5523564868 -0.8200564389
18600188400.0 -0.5643510104 -0.8134542956
18650188100.0 -0.5750488484 -0.8070294369
18700187800.0 -0.5860796086 -0.8006758635
18750187500.0 -0.5966823712 -0.7942002289
18800187200.0 -0.6071001856 -0.7870701935
18850186900.0 -0.6174448569 -0.7801981311
18900186600.0 -0.6277617126 -0.7728006639
18950186300.0 -0.6376633721 -0.7653471631
19000186000.0 -0.644803209 -0.7591779516
19050185700.0 -0.6540472463 -0.7519559198
19100185400.0 -0.6639682435 -0.7436354986
19150185100.0 -0.6736196675 -0.7352453978
19200184800.0 -0.6834268054 -0.7268904835
19250184500.0 -0.6938722272 -0.7176927366
19300184200.0 -0.7053095889 -0.7080775701
19350183900.0 -0.7157625794 -0.6988699426
19400183600.0 -0.7255164788 -0.6888724818
19450183300.0 -0.7343929128 -0.6781695409
19500183000.0 -0.7429596986 -0.668416613
19550182700.0 -0.7532030769 -0.6573461314
19600182400.0 -0.7635782074 -0.6454639104
19650182100.0 -0.7740261375 -0.6329248503
19700181800.0 -0.784692613 -0.6202839968
19750181500.0 -0.795320881 -0.6059421688
19800181200.0 -0.8057059124 -0.5909241626
19850180900.0 -0.8155493196 -0.5756409528
19900180600.0 -0.8234869791 -0.5609212936
19950180300.0 -0.8327992952 -0.5445453274
20000180000.0 -0.8248806975 -0.5474453673
20050179700.0 -0.8342024465 -0.5339108485
20100179400.0 -0.8426569592 -0.520412588
20150179100.0 -0.850371558 -0.5084124173
20200178800.0 -0.8590901466 -0.4951761002
20250178500.0 -0.868973657 -0.4821335345
20300178200.0 -0.8781566934 -0.4674028755
20350177900.0 -0.8874556558 -0.4528615824
20400177600.0 -0.896250358 -0.4385312299
20450177300.0 -0.9042917849 -0.4244141386
20500177000.0 -0.9123550595 -0.4105261823
20550176700.0 -0.9204346714 -0.3969202813
20600176400.0 -0.9273638159 -0.3840325478
20650176100.0 -0.9342401534 -0.3713761358
20700175800.0 -0.9408045028 -0.3597161091
20750175500.0 -0.9469896632 -0.3485187476
20800175200.0 -0.9514857509 -0.3372053617
20850174900.0 -0.9573235677 -0.326072984
20900174600.0 -0.960900708 -0.3154512348
20950174300.0 -0.9654253185 -0.3028205085
21000174000.0 -0.9690336936 -0.2926927591
21050173700.0 -0.9709142754 -0.2816793975
21100173400.0 -0.9748706935 -0.2696835213
21150173100.0 -0.97922529 -0.2570635975
21200172800.0 -0.9823154322 -0.2436988466
21250172500.0 -0.9859574484 -0.2303891361
21300172200.0 -0.9889041818 -0.2165577701
21350171900.0 -0.9902369943 -0.2019826424
21400171600.0 -0.9922330327 -0.1876701366
21450171300.0 -0.9920206053 -0.1730265139
21500171000.0 -0.9924178736 -0.15715085
21550170700.0 -0.9922640238 -0.1415938321
21600170400.0 -0.9928217983 -0.1265604496
21650170100.0 -0.9906215353 -0.1118154631
21700169800.0 -0.9901466363 -0.0962941093
21750169500.0 -0.989075479 -0.0796646955
21800169200.0 -0.9889741619 -0.063596933
21850168900.0 -0.9874760601 -0.0467411994
21900168600.0 -0.9862534975 -0.0302207114
21950168300.0 -0.9850152856 -0.0142576279
22000168000.0 -0.9843933614 0.0008256645
22050167700.0 -0.9838504785 0.0152533471
22100167400.0 -0.9842252504 0.030183777
22150167100.0 -0.984938295 0.0457392749
22200166800.0 -0.9851449412 0.062137717
22250166500.0 -0.9851864355 0.0800535483
22300166200.0 -0.9840100335 0.0960277908
22350165900.0 -0.9824280914 0.1131923194
22400165600.0 -0.9813590643 0.1287857084
22450165300.0 -0.9790979735 0.1433286456
22500165000.0 -0.9763233972 0.1572567091
22550164700.0 -0.9757415425 0.1726336701
22600164400.0 -0.9748746577 0.1883261389
22650164100.0 -0.9721289571 0.2021066448
22700163800.0 -0.9706190715 0.2191068052
22750163500.0 -0.9677534442 0.2336675717
22800163200.0 -0.9644631861 0.2467885079
22850162900.0 -0.9619711194 0.2603673575
22900162600.0 -0.9604627239 0.2739512268
22950162300.0 -0.9594309767 0.2865580411
23000162000.0 -0.9580250541 0.2984070538
23050161700.0 -0.9558658722 0.3114267257
23100161400.0 -0.9540084173 0.3236679429
23150161100.0 -0.950667217 0.3359541265
23200160800.0 -0.9476056072 0.349026378
23250160500.0 -0.9453600671 0.3604289822
23300160200.0 -0.9426097639 0.3730378306
23350159900.0 -0.9389323462 0.3859027284
23400159600.0 -0.9340599815 0.3987156681
23450159300.0 -0.928993771 0.4123630711
23500159000.0 -0.924446816 0.425269519
23550158700.0 -0.9204676365 0.439161727
23600158400.0 -0.9148083405 0.452502078
23650158100.0 -0.90847645 0.4662089211
23700157800.0 -0.900949267 0.4804370468
23750157500.0 -0.8921272306 0.4945925531
23800157200.0 -0.8827931193 0.5080362705
23850156900.0 -0.8745111852 0.5209645339
23900156600.0 -0.8645864378 0.5333900832
23950156300.0 -0.8560136841 0.5459536497
24000156000.0 -0.8472248391 0.5581269575
24050155700.0 -0.8370372621 0.5689342942
24100155400.0 -0.8275472873 0.5813922259
24150155100.0 -0.816925489 0.5930782958
24200154800.0 -0.8054254694 0.6047881322
24250154500.0 -0.7939550836 0.6167893198
24300154200.0 -0.7828218163 0.6283927912
24350153900.0 -0.7707991218 0.6387162569
24400153600.0 -0.7588147539 0.6489969794
24450153300.0 -0.7468825449 0.6591115032
24500153000.0 -0.7353549208 0.6685064085
24550152700.0 -0.7245735214 0.6781759345
24600152400.0 -0.712025692 0.6878521454
24650152100.0 -0.7006288249 0.6959861557
