!Created with skrf (http://scikit-rf.org).
# Hz S RI R 50.0 
!freq ReS11 ImS11
300000.0 -0.9727174366 -0.1205414443
50299700.0 -0.9998892718 0.0151338016
100299400.0 -0.9979523944 0.0279732347
150299100.0 -1.002698732 0.0448363837
200298800.0 -0.999280283 0.0581366301
250298500.0 -0.9972960947 0.0715259213
300298200.0 -0.9857970661 0.0873540323
350297900.0 -0.9939752592 0.0982990555
400297600.0 -0.993176075 0.1147533084
450297300.0 -0.9910656069 0.1288786924
500297000.0 -0.9894077151 0.1434869172
550296700.0 -0.9842666724 0.1559432052
600296400.0 -1.017188491 0.1891450516
650296100.0 -0.9821469311 0.1857451709
700295800.0 -0.9793337899 0.2000252226
750295500.0 -0.9763920879 0.2139208955
800295200.0 -0.9728856862 0.2281591812
850294900.0 -0.969729007 0.2420882134
900294600.0 -0.9656350174 0.2557329672
950294300.0 -0.9619019049 0.2693477664
1000294000.0 -0.9582651265 0.283128319
1050293700.0 -0.953536725 0.2970699499
1100293400.0 -0.9492578801 0.3117195193
1150293100.0 -0.9456132681 0.3233826266
1200292800.0 -0.9402849331 0.3378792729
1250292500.0 -0.934809961 0.3513467527
1300292200.0 -0.9288901856 0.3644695524
1350291900.0 -0.9234214026 0.3785795615
1400291600.0 -0.9178986673 0.3917002551
1450291300.0 -0.9125957552 0.4040146113
1500291000.0 -0.9062629671 0.4173064383
1550290700.0 -0.8996579611 0.4306613391
1600290400.0 -0.8933393389 0.4436467782
1650290100.0 -0.8868182381 0.4557431665
1700289800.0 -0.879862593 0.4692632198
1750289500.0 -0.8727756852 0.481636533
1800289200.0 -0.8654654534 0.4944726765
1850288900.0 -0.8586783316 0.505591094
1900288600.0 -0.8510687812 0.5189237677
1950288300.0 -0.8428564338 0.5311877705
2000288000.0 -0.8353934217 0.5426552751
2050287700.0 -0.8271356627 0.5551222458
2100287400.0 -0.8194338948 0.566541719
2150287100.0 -0.8110784774 0.5787220265
2200286800.0 -0.80307704 0.5891942364
2250286500.0 -0.7940461066 0.601439947
2300286200.0 -0.785231464 0.6129825662
2350285900.0 -0.7768149363 0.6235779309
2400285600.0 -0.7679068722 0.6343715287
2450285300.0 -0.7589818464 0.6453035367
2500285000.0 -0.7490854634 0.6567107656
2550284700.0 -0.740290402 0.6670998098
2600284400.0 -0.7310966304 0.676850071
2650284100.0 -0.7226082305 0.6872887434
2700283800.0 -0.7116621343 0.6974529428
2750283500.0 -0.7016127865 0.7083304322
2800283200.0 -0.6916486818 0.718278814
2850282900.0 -0.6810281677 0.7279903502
2900282600.0 -0.6707041841 0.7378227225
2950282300.0 -0.6602622356 0.7470920714
3000282000.0 -0.649531979 0.7567217778
3050281700.0 -0.6382908992 0.7658966749
3100281400.0 -0.6268583643 0.7750143092
3150281100.0 -0.6155929748 0.7838887544
3200280800.0 -0.6041649853 0.792247366
3250280500.0 -0.592928534 0.8002324111
3300280200.0 -0.5815524563 0.8084987352
3350279900.0 -0.5692542005 0.8164969578
3400279600.0 -0.5566147971 0.8244399412
3450279300.0 -0.5454741475 0.8314992937
3500279000.0 -0.5339108607 0.8385743118
3550278700.0 -0.5216181731 0.8453492721
3600278400.0 -0.5099801368 0.8524257463
3650278100.0 -0.4968271158 0.8599846595
3700277800.0 -0.4847825907 0.8664705746
3750277500.0 -0.4721635762 0.8732502887
3800277200.0 -0.4598514061 0.8798660044
3850276900.0 -0.4476703503 0.8854709313
3900276600.0 -0.4366347457 0.8913036335
3950276300.0 -0.42489907 0.8972389623
4000276000.0 -0.4131197477 0.9030134364
4050275700.0 -0.4004704716 0.9092535685
4100275400.0 -0.3891720202 0.914407919
4150275100.0 -0.376221478 0.920504256
4200274800.0 -0.3626133282 0.9261736676
4250274500.0 -0.3498843999 0.9313940873
4300274200.0 -0.336648849 0.9367208394
4350273900.0 -0.3226271879 0.942095371
4400273600.0 -0.3077726613 0.9472962592
4450273300.0 -0.292778611 0.9520638862
4500273000.0 -0.2798231664 0.9564575721
4550272700.0 -0.2659975369 0.9606228413
4600272400.0 -0.2511024512 0.9647447602
4650272100.0 -0.2396066934 0.9679278528
4700271800.0 -0.2266073862 0.9711744455
4750271500.0 -0.2148927937 0.9742233323
4800271200.0 -0.2027781788 0.9766464049
4850270900.0 -0.1890290304 0.9795301066
4900270600.0 -0.1751109469 0.9819624269
4950270300.0 -0.1606202682 0.9846299262
5000270000.0 -0.1461882573 0.9870117916
5050269700.0 -0.1326076485 0.9881520948
5100269400.0 -0.1186293695 0.9899846077
5150269100.0 -0.1046521112 0.9918283125
5200268800.0 -0.0912251799 0.9923770533
5250268500.0 -0.0782974205 0.9936436042
5300268200.0 -0.0644630534 0.9947249962
5350267900.0 -0.0517269233 0.9953250996
5400267600.0 -0.0354253274 0.996345295
5450267300.0 -0.0222481216 0.9966995702
5500267000.0 -0.0069591701 0.9968290718
5550266700.0 0.0079915702 0.9972430679
5600266400.0 0.023750265 0.9971737874
5650266100.0 0.0404786159 0.9969910628
5700265800.0 0.0546752458 0.9957789716
5750265500.0 0.0697712606 0.9951572961
5800265200.0 0.0831117303 0.9940393951
5850264900.0 0.0965869469 0.9930828889
5900264600.0 0.1127494465 0.9912329433
5950264300.0 0.1247163087 0.9899963878
6000264000.0 0.1381574154 0.988367012
6050263700.0 0.1499865769 0.9867224038
6100263400.0 0.161774388 0.9848543424
6150263100.0 0.1768554906 0.982869233
6200262800.0 0.1862840168 0.9810183808
6250262500.0 0.1988401944 0.9788035219
6300262200.0 0.2111777252 0.9760561259
6350261900.0 0.2239735706 0.9734244691
6400261600.0 0.2377674161 0.9699889065
6450261300.0 0.2488915898 0.9674641746
6500261000.0 0.2626524319 0.9641923264
6550260700.0 0.2755109138 0.9601726147
6600260400.0 0.2887557614 0.9559858057
6650260100.0 0.303180636 0.951553895
6700259800.0 0.3146208732 0.9471511948
6750259500.0 0.328680411 0.9421997561
6800259200.0 0.3422102072 0.9371896469
6850258900.0 0.3541772225 0.9318580751
6900258600.0 0.3671950749 0.9270512946
6950258300.0 0.3797816973 0.9216239617
7000258000.0 0.3914507158 0.9162376111
7050257700.0 0.4032188861 0.9104093851
7100257400.0 0.4167118033 0.9039985545
7150257100.0 0.4273049586 0.8985707717
7200256800.0 0.440553483 0.8920763605
7250256500.0 0.4528691411 0.8856291956
7300256200.0 0.4660694252 0.878717805
7350255900.0 0.4786787303 0.8716570707
7400255600.0 0.4928900174 0.8642117812
7450255300.0 0.5085093775 0.8551759243
7500255000.0 0.5205839761 0.8476355265
7550254700.0 0.5350601616 0.8384278945
7600254400.0 0.5472648938 0.8301094217
7650254100.0 0.5589254803 0.8222485719
7700253800.0 0.5703237533 0.814329506
7750253500.0 0.5816357031 0.8065691872
7800253200.0 0.5921406676 0.7987935979
7850252900.0 0.6020668381 0.7915267046
7900252600.0 0.6135230715 0.7829063065
7950252300.0 0.6218657241 0.7765506835
8000252000.0 0.6318620622 0.7689736092
8050251700.0 0.6423108592 0.7607717445
8100251400.0 0.6521494331 0.7528222817
8150251100.0 0.6623466078 0.7442910243
8200250800.0 0.6720377604 0.7362107526
8250250500.0 0.6808369087 0.7282421294
8300250200.0 0.6897575575 0.7196661625
8350249900.0 0.699026329 0.7111049355
8400249600.0 0.7069295463 0.7030584279
8450249300.0 0.7157441185 0.694243544
8500249000.0 0.7241253091 0.6852364894
8550248700.0 0.7325839633 0.6762776219
8600248400.0 0.7409629922 0.6667964025
8650248100.0 0.7486444346 0.6575041957
8700247800.0 0.7579006584 0.646234673
8750247500.0 0.7661776015 0.6361954769
8800247200.0 0.7742536325 0.6260331213
8850246900.0 0.7826838657 0.6147401789
8900246600.0 0.7913659162 0.6031589133
8950246300.0 0.8005315599 0.590671617
9000246000.0 0.8093990816 0.5783462741
9050245700.0 0.8179641831 0.5659383934
9100245400.0 0.8262067936 0.5540713881
9150245100.0 0.8351327564 0.5410714855
9200244800.0 0.8444554711 0.526531589
9250244500.0 0.8533533683 0.5118379824
9300244200.0 0.8615645119 0.498309785
9350243900.0 0.8691112594 0.484996894
9400243600.0 0.8759421727 0.4733379906
9450243300.0 0.8814295783 0.4627204459
9500243000.0 0.8877663601 0.450977198
9550242700.0 0.891615699 0.4434346445
9600242400.0 0.8960371173 0.4358599497
9650242100.0 0.9002160016 0.4287966636
9700241800.0 0.9049599762 0.420357183
9750241500.0 0.9091275807 0.4128024253
9800241200.0 0.9142893947 0.4029108332
9850240900.0 0.9198752225 0.3916934585
9900240600.0 0.9257374436 0.3796684964
9950240300.0 0.9327807184 0.3628702075
10000240000.0 0.9379470101 0.3510034368
10050239700.0 0.9441458148 0.3345028986
10100239400.0 0.9493751593 0.318536297
10150239100.0 0.9538188442 0.3030981557
10200238800.0 0.9581314442 0.2876243954
10250238500.0 0.9615022234 0.2741735746
10300238200.0 0.9646067481 0.2603812844
10350237900.0 0.9675045637 0.2468015239
10400237600.0 0.9700583588 0.2335759002
10450237300.0 0.9724378461 0.219987276
10500237000.0 0.9749944245 0.2072440485
10550236700.0 0.9770196391 0.1933168011
10600236400.0 0.9796255047 0.1789361258
10650236100.0 0.98114798 0.1646611568
10700235800.0 0.9833384415 0.1522543647
10750235500.0 0.9860848638 0.1387882561
10800235200.0 0.9881931787 0.1245327573
10850234900.0 0.9901617621 0.1093592115
10900234600.0 0.9919302858 0.0949097269
10950234300.0 0.9937554632 0.0812655839
11000234000.0 0.9955976275 0.0656042123
11050233700.0 0.9973505825 0.0488413973
11100233400.0 0.9989530946 0.0314736996
11150233100.0 1.000236896 0.0144693743
11200232800.0 1.001252654 -0.00169987
11250232500.0 1.001869158 -0.0186642826
11300232200.0 1.002162718 -0.0374090927
11350231900.0 1.002335786 -0.0538773112
11400231600.0 1.001709374 -0.0696273005
11450231300.0 1.001035701 -0.0848021299
11500231000.0 0.999761204 -0.1007772431
11550230700.0 0.9986233691 -0.1150233651
11600230400.0 0.9968822428 -0.1276148113
11650230100.0 0.9946962501 -0.1387031003
11700229800.0 0.9927217227 -0.1539741975
11750229500.0 0.9902064827 -0.1680210802
11800229200.0 0.9873298349 -0.1815441557
11850228900.0 0.9837784457 -0.1931709329
11900228600.0 0.9799831559 -0.2024970231
11950228300.0 0.9764927436 -0.2126942182
12000228000.0 0.9736497656 -0.2218243174
12050227700.0 0.9695059623 -0.2344903458
12100227400.0 0.9665544986 -0.24565722
12150227100.0 0.9617891371 -0.2625043776
12200226800.0 0.9583549685 -0.2723442766
12250226500.0 0.9538799638 -0.2866202644
12300226200.0 0.9496162996 -0.2981598052
12350225900.0 0.9447586243 -0.3125403209
12400225600.0 0.9402054255 -0.3238894993
12450225300.0 0.9356070285 -0.3370280532
12500225000.0 0.9303561432 -0.3516255966
12550224700.0 0.9250320178 -0.3654705003
12600224400.0 0.9202923577 -0.3781887383
12650224100.0 0.9142637692 -0.3923772225
12700223800.0 0.9089980056 -0.4051415904
12750223500.0 0.9034569444 -0.4181510043
12800223200.0 0.8982242185 -0.4310809391
12850222900.0 0.8926564342 -0.4430132959
12900222600.0 0.8874037184 -0.4549653318
12950222300.0 0.880737547 -0.4677011828
13000222000.0 0.8754685333 -0.4793261558
13050221700.0 0.8684325575 -0.4920236877
13100221400.0 0.8614888849 -0.5040410962
13150221100.0 0.8549257939 -0.5168608039
13200220800.0 0.8480043372 -0.5275564018
13250220500.0 0.8407570562 -0.5397191731
13300220200.0 0.8328678501 -0.5510075163
13350219900.0 0.8246375314 -0.563038332
13400219600.0 0.8162579097 -0.5748318806
13450219300.0 0.8070081559 -0.5879500612
13500219000.0 0.79750403 -0.6013197568
13550218700.0 0.7876628989 -0.6134034134
13600218400.0 0.7772894955 -0.6257119858
13650218100.0 0.7679629841 -0.6356408452
13700217800.0 0.7571845937 -0.648235238
13750217500.0 0.7470383024 -0.6593356752
13800217200.0 0.7367039372 -0.6703324629
13850216900.0 0.7258899625 -0.6809538379
13900216600.0 0.7152667043 -0.6905617528
13950216300.0 0.7053429302 -0.7005676367
14000216000.0 0.6950936846 -0.7094765872
14050215700.0 0.6861179657 -0.7174459857
14100215400.0 0.6766144435 -0.7267138634
14150215100.0 0.6674869237 -0.735306703
14200214800.0 0.6580799899 -0.744093491
14250214500.0 0.6476573156 -0.7536113336
14300214200.0 0.6370567143 -0.7630746986
14350213900.0 0.6260608021 -0.7726317833
14400213600.0 0.6138942049 -0.7824233152
14450213300.0 0.6011807207 -0.7924669669
14500213000.0 0.5879219228 -0.8029697935
14550212700.0 0.5759658792 -0.8115344314
14600212400.0 0.56375222 -0.8203978249
14650212100.0 0.5507909601 -0.8288205921
14700211800.0 0.5371908448 -0.8384987622
14750211500.0 0.525241608 -0.8472027767
14800211200.0 0.5125055206 -0.8555832877
14850210900.0 0.5001597418 -0.8628958439
14900210600.0 0.4866711021 -0.8709452584
14950210300.0 0.4732684715 -0.8786512893
15000210000.0 0.4603834561 -0.8852693253
15050209700.0 0.4483842444 -0.8915771709
15100209400.0 0.4355841804 -0.8973945264
15150209100.0 0.4235505935 -0.9025948106
15200208800.0 0.4104700094 -0.9081701812
15250208500.0 0.4001604624 -0.9127347976
15300208200.0 0.3868248728 -0.9171478463
15350207900.0 0.3743604573 -0.9217666042
15400207600.0 0.3590104644 -0.928092567
15450207300.0 0.3453532099 -0.9321465655
15500207000.0 0.3302120706 -0.9376037421
15550206700.0 0.3156752066 -0.9421271312
15600206400.0 0.2990747837 -0.947004989
15650206100.0 0.2841410009 -0.9509988039
15700205800.0 0.270128294 -0.9543807416
15750205500.0 0.2563106472 -0.9579501586
15800205200.0 0.2423568088 -0.9611689752
15850204900.0 0.228037653 -0.9647570059
15900204600.0 0.2131490986 -0.9684841932
15950204300.0 0.1986423947 -0.9716991536
16000204000.0 0.1845145675 -0.9744885396
16050203700.0 0.1691043315 -0.9774501969
16100203400.0 0.1544082223 -0.9794119132
16150203100.0 0.1393895624 -0.9819432468
16200202800.0 0.1255206283 -0.9844984734
16250202500.0 0.110518133 -0.9858715352
16300202200.0 0.0949270669 -0.987811299
16350201900.0 0.0800030647 -0.988919111
16400201600.0 0.0655468897 -0.9901377593
16450201300.0 0.0498395944 -0.991048256
16500201000.0 0.0328724659 -0.9919886007
16550200700.0 0.0165572764 -0.9923747204
16600200400.0 0.0007916831 -0.9927359804
16650200100.0 -0.0152017455 -0.9926449532
16700199800.0 -0.0315738436 -0.9920715991
16750199500.0 -0.0508322233 -0.9913562171
16800199200.0 -0.0666342055 -0.9905421621
16850198900.0 -0.0815106901 -0.9894986106
16900198600.0 -0.0961323724 -0.988639303
16950198300.0 -0.1100618876 -0.987130622
17000198000.0 -0.1225995813 -0.9859919936
17050197700.0 -0.1357410923 -0.9841957895
17100197400.0 -0.1481996254 -0.9821050868
17150197100.0 -0.160907015 -0.9801427191
17200196800.0 -0.1734276918 -0.9776258535
17250196500.0 -0.1870795521 -0.9757505372
17300196200.0 -0.1989672703 -0.9733294832
17350195900.0 -0.2108559347 -0.9707899124
17400195600.0 -0.2228474641 -0.9681923702
17450195300.0 -0.235765997 -0.9655232153
17500195000.0 -0.2487263037 -0.9623526259
17550194700.0 -0.2627035396 -0.9586593379
17600194400.0 -0.2766164311 -0.954778835
17650194100.0 -0.290280024 -0.9508566337
17700193800.0 -0.3031464637 -0.9462878091
17750193500.0 -0.3174407993 -0.9419556077
17800193200.0 -0.3317469734 -0.9363469929
17850192900.0 -0.3462224384 -0.9308896834
17900192600.0 -0.3617626393 -0.9249034481
17950192300.0 -0.3771668702 -0.9179285675
18000192000.0 -0.391869806 -0.9105502663
18050191700.0 -0.4056237269 -0.9027571502
18100191400.0 -0.4198038069 -0.8950212416
18150191100.0 -0.434709579 -0.8870729431
18200190800.0 -0.4516102909 -0.8780404598
18250190500.0 -0.4686366539 -0.8686825146
18300190200.0 -0.4840584619 -0.8597618988
18350189900.0 -0.4993983563 -0.8517057623
18400189600.0 -0.5136497311 -0.8427809028
18450189300.0 -0.5271123212 -0.8349456447
18500189000.0 -0.5401945476 -0.8269683608
18550188700.0 -0.5533996271 -0.8201089896
18600188400.0 -0.5655592358 -0.8125714966
18650188100.0 -0.5766961877 -0.8057992179
18700187800.0 -0.5873666232 -0.7991743023
18750187500.0 -0.5983849873 -0.7926941881
18800187200.0 -0.6089649099 -0.7855266498
18850186900.0 -0.6190753487 -0.7786772894
18900186600.0 -0.6294386536 -0.7715049067
18950186300.0 -0.6395216776 -0.7636181343
19000186000.0 -0.6472542288 -0.7573053189
19050185700.0 -0.6567209925 -0.7500775113
19100185400.0 -0.6662398029 -0.7418369092
19150185100.0 -0.676164375 -0.7338829841
19200184800.0 -0.6860333164 -0.7253410899
19250184500.0 -0.6960095179 -0.7163549417
19300184200.0 -0.7083458268 -0.7064235588
19350183900.0 -0.7178540939 -0.6969753967
19400183600.0 -0.7276672867 -0.6871095293
19450183300.0 -0.7369167324 -0.6762909863
19500183000.0 -0.7455093038 -0.6671192473
19550182700.0 -0.7551029316 -0.6559729212
19600182400.0 -0.765140359 -0.6440585434
19650182100.0 -0.776003594 -0.6318791047
19700181800.0 -0.7862569377 -0.6186986562
19750181500.0 -0.7966011449 -0.6044777522
19800181200.0 -0.8069206689 -0.5895501574
19850180900.0 -0.8163189037 -0.5743235302
19900180600.0 -0.8242645939 -0.5599113623
19950180300.0 -0.8333546379 -0.5436008004
20000180000.0 -0.8238106181 -0.5469946883
20050179700.0 -0.8315088157 -0.5338394052
20100179400.0 -0.8401590251 -0.5211539856
20150179100.0 -0.8478420029 -0.5094979312
20200178800.0 -0.856743221 -0.497786342
20250178500.0 -0.8651112361 -0.4851084842
20300178200.0 -0.8750855545 -0.4715829749
20350177900.0 -0.88468523 -0.4576267357
20400177600.0 -0.8939603197 -0.4430320962
20450177300.0 -0.9022592518 -0.4288223141
20500177000.0 -0.9103351488 -0.4150454268
20550176700.0 -0.9183532524 -0.4014840094
20600176400.0 -0.9251473205 -0.3883601874
20650176100.0 -0.9321782077 -0.3760062862
20700175800.0 -0.938126108 -0.364361981
20750175500.0 -0.9443652413 -0.3523146042
20800175200.0 -0.9494882207 -0.3413927962
20850174900.0 -0.9538421507 -0.3313488238
20900174600.0 -0.9582338044 -0.3200251689
20950174300.0 -0.9613615188 -0.3090972803
21000174000.0 -0.9641247793 -0.2981873214
21050173700.0 -0.9664096533 -0.2877935666
21100173400.0 -0.9695962259 -0.2773490513
21150173100.0 -0.9740924483 -0.2656859632
21200172800.0 -0.9775796696 -0.2517875103
21250172500.0 -0.9811579351 -0.2384281099
21300172200.0 -0.9845536364 -0.2245860308
21350171900.0 -0.9861825147 -0.2102900488
21400171600.0 -0.988231428 -0.196116918
21450171300.0 -0.9889969777 -0.1818049209
21500171000.0 -0.9891628566 -0.1661635366
21550170700.0 -0.9898689525 -0.1522625511
21600170400.0 -0.9909559646 -0.1367180589
21650170100.0 -0.9908970353 -0.1216299824
21700169800.0 -0.9901461591 -0.1058619434
21750169500.0 -0.9900079771 -0.089032162
21800169200.0 -0.9906471928 -0.0731577942
21850168900.0 -0.9902719002 -0.0569449352
21900168600.0 -0.9889524942 -0.0399215654
21950168300.0 -0.9892243511 -0.0239402751
22000168000.0 -0.9888418742 -0.0090461479
22050167700.0 -0.9893702159 0.005621043
22100167400.0 -0.9897211895 0.0209566546
22150167100.0 -0.9905201045 0.0374771876
22200166800.0 -0.9911938665 0.0534244351
22250166500.0 -0.9906649386 0.070956094
22300166200.0 -0.9899869632 0.0872243841
22350165900.0 -0.9886833277 0.1036988458
22400165600.0 -0.988076947 0.1188947826
22450165300.0 -0.9858655024 0.1341456283
22500165000.0 -0.9830124145 0.1468967906
22550164700.0 -0.9821601508 0.1647146351
22600164400.0 -0.9810235204 0.1806054166
22650164100.0 -0.9772569757 0.1957334606
22700163800.0 -0.9743722495 0.212298155
22750163500.0 -0.971668326 0.2277451255
22800163200.0 -0.9682064749 0.2402000311
22850162900.0 -0.965869802 0.2538034353
22900162600.0 -0.96420898 0.2673102523
22950162300.0 -0.9625647454 0.2811276034
23000162000.0 -0.960807142 0.2940565946
23050161700.0 -0.9582476223 0.3067161241
23100161400.0 -0.95554641 0.3204011125
23150161100.0 -0.9524159436 0.3335620158
23200160800.0 -0.949220205 0.3463795256
23250160500.0 -0.9468224486 0.3583848416
23300160200.0 -0.9436453676 0.3712804595
23350159900.0 -0.9398277645 0.3852941384
23400159600.0 -0.9350224476 0.3984586829
23450159300.0 -0.9298496243 0.4124784693
23500159000.0 -0.9254055383 0.425523826
23550158700.0 -0.9201194267 0.4399227353
23600158400.0 -0.914249606 0.4535904118
23650158100.0 -0.9071255743 0.4684509887
23700157800.0 -0.898920241 0.4823994788
23750157500.0 -0.8893068778 0.4969247942
23800157200.0 -0.879409549 0.5104587173
23850156900.0 -0.8706012787 0.5232116059
23900156600.0 -0.8601922243 0.53601315
23950156300.0 -0.8511744518 0.5477844407
24000156000.0 -0.8412506686 0.5604026755
24050155700.0 -0.8305445331 0.5721513809
24100155400.0 -0.8200988096 0.5853470841
24150155100.0 -0.8090251063 0.597966835
24200154800.0 -0.7977683724 0.6088910197
24250154500.0 -0.7865690748 0.621197065
24300154200.0 -0.7756303058 0.6327915373
24350153900.0 -0.7634322636 0.6441291654
24400153600.0 -0.751085468 0.6550109763
24450153300.0 -0.7389226973 0.6654616643
24500153000.0 -0.7273601825 0.6751276131
24550152700.0 -0.7155487158 0.6856294528
24600152400.0 -0.7035294567 0.6950871077
24650152100.0 -0.6925226331 0.7029456187
