!Created with skrf (http://scikit-rf.org).
# Hz S RI R 50.0 
!freq ReS11 ImS11
300000.0 -0.980536347 -0.1032208965
50299700.0 -0.9999056682 0.0161981174
100299400.0 -0.9980336183 0.0292034245
150299100.0 -1.002770902 0.0459786175
200298800.0 -0.9996643459 0.0592039159
250298500.0 -0.997486175 0.072801502
300298200.0 -0.9859792672 0.0885650322
350297900.0 -0.9940782065 0.0994565042
400297600.0 -0.9931843815 0.1158864516
450297300.0 -0.9909970188 0.1299402598
500297000.0 -0.9893784834 0.1447113216
550296700.0 -0.9843022519 0.1570640069
600296400.0 -1.017302828 0.1905527496
650296100.0 -0.9820800404 0.1872627376
700295800.0 -0.9790842942 0.201337102
750295500.0 -0.9762049846 0.2154135078
800295200.0 -0.9728438532 0.229454964
850294900.0 -0.969408873 0.2432752267
900294600.0 -0.9656999011 0.2570623616
950294300.0 -0.9616409315 0.270962035
1000294000.0 -0.9578898661 0.2845852717
1050293700.0 -0.9534175329 0.2985025673
1100293400.0 -0.9490063892 0.3128806675
1150293100.0 -0.9449443487 0.3248612824
1200292800.0 -0.9396709201 0.3390903107
1250292500.0 -0.9343584281 0.3526092723
1300292200.0 -0.9286044297 0.3657540043
1350291900.0 -0.9230324016 0.3797648531
1400291600.0 -0.917509371 0.3928519452
1450291300.0 -0.9121244087 0.4052222745
1500291000.0 -0.9058079318 0.4183926376
1550290700.0 -0.8993058582 0.431830801
1600290400.0 -0.8930368636 0.4448098768
1650290100.0 -0.8863769156 0.4570076272
1700289800.0 -0.8796440544 0.4704048996
1750289500.0 -0.8724331176 0.482667214
1800289200.0 -0.8652180403 0.4954278419
1850288900.0 -0.8584091717 0.5066320919
1900288600.0 -0.8505236525 0.519744123
1950288300.0 -0.8427291954 0.5323654601
2000288000.0 -0.8351685099 0.5437325101
2050287700.0 -0.8267903905 0.5560526668
2100287400.0 -0.818703981 0.5678070387
2150287100.0 -0.8102328312 0.5798718171
2200286800.0 -0.8024144423 0.5902260138
2250286500.0 -0.7934330741 0.6023215445
2300286200.0 -0.7845384605 0.6140186773
2350285900.0 -0.7755715389 0.6248859906
2400285600.0 -0.7666791225 0.6358874805
2450285300.0 -0.758136057 0.6462838109
2500285000.0 -0.7482773724 0.6577237556
2550284700.0 -0.7393437251 0.6678259617
2600284400.0 -0.7300421689 0.6779225734
2650284100.0 -0.7207570951 0.6886549531
2700283800.0 -0.7101795991 0.6991687813
2750283500.0 -0.7001064355 0.709764732
2800283200.0 -0.6902435475 0.7193097192
2850282900.0 -0.6800283706 0.7293949122
2900282600.0 -0.6697278717 0.7388366567
2950282300.0 -0.6597839832 0.7481795993
3000282000.0 -0.6487644715 0.7573237714
3050281700.0 -0.6377139066 0.7666202167
3100281400.0 -0.625768939 0.7760067392
3150281100.0 -0.613890312 0.7855243478
3200280800.0 -0.6023886006 0.7938776082
3250280500.0 -0.5917251265 0.8015957473
3300280200.0 -0.5803202569 0.8094768616
3350279900.0 -0.5689749168 0.8168288478
3400279600.0 -0.5570189916 0.8246330651
3450279300.0 -0.5459393293 0.8316851877
3500279000.0 -0.5338295579 0.8388425367
3550278700.0 -0.5214403017 0.8463190717
3600278400.0 -0.5089829659 0.8533328078
3650278100.0 -0.495829871 0.8611305366
3700277800.0 -0.483667672 0.8671862154
3750277500.0 -0.4716326357 0.8738043091
3800277200.0 -0.4590550033 0.880325988
3850276900.0 -0.4467347879 0.8862830791
3900276600.0 -0.4359295734 0.8916850546
3950276300.0 -0.4233184592 0.8981695004
4000276000.0 -0.4110448005 0.9041224749
4050275700.0 -0.398297723 0.9100291899
4100275400.0 -0.3868541062 0.9156077189
4150275100.0 -0.374305258 0.9211625687
4200274800.0 -0.3614499349 0.9265899801
4250274500.0 -0.349005065 0.9316048293
4300274200.0 -0.3360277694 0.9371488593
4350273900.0 -0.322299004 0.9423618017
4400273600.0 -0.307511836 0.9475628601
4450273300.0 -0.2920888578 0.9525578407
4500273000.0 -0.2784344273 0.9570474678
4550272700.0 -0.2641696784 0.9611008266
4600272400.0 -0.248671748 0.9653354311
4650272100.0 -0.2369811716 0.9685330928
4700271800.0 -0.2236071485 0.9719188924
4750271500.0 -0.2119302673 0.9747538617
4800271200.0 -0.1994869149 0.9773553187
4850270900.0 -0.1856062888 0.9803134674
4900270600.0 -0.1717201956 0.982753857
4950270300.0 -0.1575410268 0.9852019184
5000270000.0 -0.143341037 0.9872667263
5050269700.0 -0.1295695999 0.9888081539
5100269400.0 -0.1162863611 0.9905493836
5150269100.0 -0.1030714464 0.9920462393
5200268800.0 -0.0898886282 0.9931103953
5250268500.0 -0.0767566165 0.9940446844
5300268200.0 -0.0637797625 0.9948065716
5350267900.0 -0.0516591891 0.9955766685
5400267600.0 -0.0354015051 0.9966740941
5450267300.0 -0.0224346634 0.9968200886
5500267000.0 -0.0072469621 0.9971212291
5550266700.0 0.0076710561 0.9973425353
5600266400.0 0.0232027598 0.9972433608
5650266100.0 0.0395839412 0.9969646143
5700265800.0 0.0541256202 0.9960861369
5750265500.0 0.0695099033 0.9958016344
5800265200.0 0.0835184276 0.9941081217
5850264900.0 0.0968752496 0.9931911525
5900264600.0 0.1133248755 0.9916635454
5950264300.0 0.1252944959 0.9899838607
6000264000.0 0.1398235169 0.9882169791
6050263700.0 0.1524037124 0.986714296
6100263400.0 0.1647204908 0.984599687
6150263100.0 0.1794009659 0.9823141513
6200262800.0 0.1897837133 0.9802801666
6250262500.0 0.2024852508 0.9777604055
6300262200.0 0.2155147257 0.975114738
6350261900.0 0.2286574499 0.9721524026
6400261600.0 0.2424141198 0.9688152117
6450261300.0 0.2537353051 0.9661651486
6500261000.0 0.266583284 0.9624813294
6550260700.0 0.2794203909 0.9585815496
6600260400.0 0.293190583 0.9546292257
6650260100.0 0.3066752427 0.9501430489
6700259800.0 0.3189416054 0.9461423847
6750259500.0 0.332423467 0.9411472309
6800259200.0 0.3451668082 0.9360597683
6850258900.0 0.3573967509 0.9309337846
6900258600.0 0.3695158572 0.9261386726
6950258300.0 0.3819981058 0.9209008479
7000258000.0 0.3940520181 0.9153916661
7050257700.0 0.4063937585 0.9093577044
7100257400.0 0.4190650712 0.9032363983
7150257100.0 0.4292456006 0.8978878405
7200256800.0 0.4419247297 0.8915404657
7250256500.0 0.4535815825 0.8851326019
7300256200.0 0.4667708289 0.8784748524
7350255900.0 0.4789691688 0.8715115886
7400255600.0 0.4922304046 0.8642893734
7450255300.0 0.5074656593 0.8554322459
7500255000.0 0.5189162284 0.8484084922
7550254700.0 0.533136773 0.840016556
7600254400.0 0.5454870267 0.8315102345
7650254100.0 0.5571282319 0.8236287
7700253800.0 0.5686825537 0.8156126919
7750253500.0 0.5802705951 0.8077799885
7800253200.0 0.591089598 0.8000345293
7850252900.0 0.6006471545 0.7928759072
7900252600.0 0.6124485846 0.7841004687
7950252300.0 0.6213992973 0.7773950508
8000252000.0 0.6313608061 0.76965568
8050251700.0 0.6420938912 0.7614378313
8100251400.0 0.6522526023 0.7532115425
8150251100.0 0.6624419153 0.7445016657
8200250800.0 0.6715744855 0.7365620544
8250250500.0 0.6808159964 0.7285206585
8300250200.0 0.6899059992 0.7197892687
8350249900.0 0.6992269602 0.7111898192
8400249600.0 0.7073496452 0.7030766759
8450249300.0 0.7165870787 0.693884196
8500249000.0 0.725233436 0.6850391856
8550248700.0 0.7333692531 0.6760947
8600248400.0 0.7417815761 0.666706967
8650248100.0 0.7494227003 0.6573483175
8700247800.0 0.7590214969 0.6461054162
8750247500.0 0.767218205 0.6359320234
8800247200.0 0.7753216514 0.625455463
8850246900.0 0.7839740331 0.614316256
8900246600.0 0.792501247 0.6032199694
8950246300.0 0.8023554117 0.5899862272
9000246000.0 0.8118221427 0.5771512553
9050245700.0 0.8206107048 0.5642700199
9100245400.0 0.8289720206 0.5515441925
9150245100.0 0.838379599 0.5378012495
9200244800.0 0.8485381661 0.5226690692
9250244500.0 0.8576812113 0.5069777848
9300244200.0 0.8661998108 0.4922492923
9350243900.0 0.87383158 0.4784792056
9400243600.0 0.8805071637 0.4659027199
9450243300.0 0.8865893008 0.4538985865
9500243000.0 0.8927357604 0.4416908248
9550242700.0 0.8966727734 0.4338184151
9600242400.0 0.9004968893 0.4260874825
9650242100.0 0.9041733195 0.4196433703
9700241800.0 0.9087575488 0.4112887272
9750241500.0 0.912743171 0.4035651878
9800241200.0 0.9172808429 0.394461979
9850240900.0 0.9228770007 0.3830659991
9900240600.0 0.9283502979 0.3713382251
9950240300.0 0.9350208128 0.3550701609
10000240000.0 0.9389968086 0.3438506295
10050239700.0 0.9450727789 0.3285486127
10100239400.0 0.9496826969 0.3134496139
10150239100.0 0.9541879664 0.2988002685
10200238800.0 0.9587425982 0.2838918501
10250238500.0 0.9619372637 0.270401243
10300238200.0 0.964939431 0.2565638444
10350237900.0 0.9675861285 0.243789645
10400237600.0 0.9700237542 0.2304855107
10450237300.0 0.972993215 0.2166948356
10500237000.0 0.9751673438 0.2046115628
10550236700.0 0.9772664219 0.1905499524
10600236400.0 0.9792502546 0.1771345894
10650236100.0 0.9813297764 0.1629763252
10700235800.0 0.9835380356 0.1507039661
10750235500.0 0.9862238355 0.1370647393
10800235200.0 0.9875936934 0.1236888574
10850234900.0 0.9897973218 0.1089183829
10900234600.0 0.9917082884 0.0944411575
10950234300.0 0.9933871852 0.0811313806
11000234000.0 0.9951605064 0.0661429448
11050233700.0 0.9968655662 0.0498010021
11100233400.0 0.9982624287 0.0326246871
11150233100.0 0.9994435608 0.0163500393
11200232800.0 1.000150177 0.001651134
11250232500.0 1.000492869 -0.0153886313
11300232200.0 1.001342311 -0.0327981302
11350231900.0 1.001614838 -0.0488376503
11400231600.0 1.001109765 -0.0640423444
11450231300.0 1.000215836 -0.0793006018
11500231000.0 0.9997148725 -0.0961255093
11550230700.0 0.9980339239 -0.1101864008
11600230400.0 0.9965875813 -0.1231026655
11650230100.0 0.9947078549 -0.1342800099
11700229800.0 0.9925958289 -0.14927764
11750229500.0 0.9900420087 -0.1633148948
11800229200.0 0.9875107571 -0.1775547442
11850228900.0 0.9839732718 -0.1901273479
11900228600.0 0.9805074433 -0.199802626
11950228300.0 0.9774129043 -0.2099257063
12000228000.0 0.9742927445 -0.2196631914
12050227700.0 0.9708046933 -0.2319779365
12100227400.0 0.9671455447 -0.2442226713
12150227100.0 0.9627941698 -0.2596084255
12200226800.0 0.9595105246 -0.2702215497
12250226500.0 0.9553384144 -0.2832820033
12300226200.0 0.9513682045 -0.2951734616
12350225900.0 0.9457409535 -0.3086631807
12400225600.0 0.9421953376 -0.3213594262
12450225300.0 0.9374372487 -0.3349443561
12500225000.0 0.9319322687 -0.3492408287
12550224700.0 0.9266558256 -0.3627325258
12600224400.0 0.9220377553 -0.3757634019
12650224100.0 0.9160727412 -0.3899083926
12700223800.0 0.9108448823 -0.4026993765
12750223500.0 0.9055772113 -0.4156717546
12800223200.0 0.9001504903 -0.4283030346
12850222900.0 0.8946193489 -0.4400406357
12900222600.0 0.8890376242 -0.4525119478
12950222300.0 0.8826597734 -0.4652828469
13000222000.0 0.8764396777 -0.4768213669
13050221700.0 0.8701848836 -0.4894318659
13100221400.0 0.8631891105 -0.5011428973
13150221100.0 0.8560845816 -0.5134964286
13200220800.0 0.849327371 -0.5250558816
13250220500.0 0.8418705229 -0.5375133332
13300220200.0 0.8345085951 -0.5485533124
13350219900.0 0.8262537549 -0.5605178371
13400219600.0 0.8180169594 -0.5727678302
13450219300.0 0.8080562044 -0.5863804352
13500219000.0 0.7979190397 -0.6005502567
13550218700.0 0.787603752 -0.6134026184
13600218400.0 0.7768772409 -0.6255588677
13650218100.0 0.7677688361 -0.6363102674
13700217800.0 0.7568934817 -0.6490482387
13750217500.0 0.7463762032 -0.6604336972
13800217200.0 0.7351962544 -0.6728189855
13850216900.0 0.7237477372 -0.6840716867
13900216600.0 0.7144980092 -0.6925322682
13950216300.0 0.703169413 -0.7034419354
14000216000.0 0.6939329903 -0.7121840249
14050215700.0 0.6842388585 -0.7207528987
14100215400.0 0.674014467 -0.7294048799
14150215100.0 0.665020476 -0.737866592
14200214800.0 0.6558948537 -0.7463383328
14250214500.0 0.6456344812 -0.7557369
14300214200.0 0.635329023 -0.7648326113
14350213900.0 0.6243264043 -0.7744647407
14400213600.0 0.6127443472 -0.7841648791
14450213300.0 0.5999288141 -0.7944409359
14500213000.0 0.5865813874 -0.8041888364
14550212700.0 0.5743134509 -0.8131329968
14600212400.0 0.5617222239 -0.8217053199
14650212100.0 0.5482752755 -0.8307884049
14700211800.0 0.534574902 -0.8403655014
14750211500.0 0.5224120856 -0.8484261109
14800211200.0 0.5101079398 -0.8563486732
14850210900.0 0.4981207232 -0.8639409677
14900210600.0 0.4847436531 -0.871931382
14950210300.0 0.4712227008 -0.8794330095
15000210000.0 0.4584765628 -0.8863982208
15050209700.0 0.4459963368 -0.8923392341
15100209400.0 0.4332211817 -0.8983437696
15150209100.0 0.4207271152 -0.9040299067
15200208800.0 0.4078870447 -0.909088837
15250208500.0 0.3966323417 -0.9143128865
15300208200.0 0.3840550307 -0.9187451689
15350207900.0 0.370513736 -0.9231125732
15400207600.0 0.3559289161 -0.9295400909
15450207300.0 0.3411432057 -0.9342361345
15500207000.0 0.3267723948 -0.938072715
15550206700.0 0.3113391068 -0.9435239208
15600206400.0 0.2955083509 -0.9474608943
15650206100.0 0.2796502748 -0.9520736497
15700205800.0 0.2658245254 -0.9561476959
15750205500.0 0.2513905799 -0.9594729196
15800205200.0 0.2368653624 -0.9629380485
15850204900.0 0.2226262332 -0.9662681513
15900204600.0 0.207474655 -0.9698372789
15950204300.0 0.1937492351 -0.9726371853
16000204000.0 0.1795614453 -0.9754572705
16050203700.0 0.1653131334 -0.9782181025
16100203400.0 0.1507126053 -0.9802275134
16150203100.0 0.1364404975 -0.9825766147
16200202800.0 0.1224631961 -0.9844586537
16250202500.0 0.1076553973 -0.9864426411
16300202200.0 0.0928648814 -0.9879015345
16350201900.0 0.0777784131 -0.9892746948
16400201600.0 0.0633702233 -0.9899756936
16450201300.0 0.0481038968 -0.9912999216
16500201000.0 0.0318196374 -0.9920073972
16550200700.0 0.0161276714 -0.9925157097
16600200400.0 0.0003188961 -0.9925878857
16650200100.0 -0.01608594 -0.9929065475
16700199800.0 -0.0325728049 -0.9924515115
16750199500.0 -0.0517444357 -0.9912028836
16800199200.0 -0.0668699712 -0.9905289385
16850198900.0 -0.0826153133 -0.9890700915
16900198600.0 -0.0960800001 -0.9883431807
16950198300.0 -0.1097046724 -0.9870297941
17000198000.0 -0.1225024864 -0.9859516303
17050197700.0 -0.1353078174 -0.9834567189
17100197400.0 -0.148788158 -0.9818212447
17150197100.0 -0.1615078836 -0.9793801826
17200196800.0 -0.1739647903 -0.9775636784
17250196500.0 -0.1872440969 -0.9749102511
17300196200.0 -0.1994234018 -0.972778895
17350195900.0 -0.2112140889 -0.9705351752
17400195600.0 -0.2235047457 -0.968002388
17450195300.0 -0.2365537282 -0.9651675084
17500195000.0 -0.2501951006 -0.9618369036
17550194700.0 -0.2640765425 -0.9582810803
17600194400.0 -0.278140555 -0.9542201121
17650194100.0 -0.2917164314 -0.9503594154
17700193800.0 -0.304804942 -0.9458538357
17750193500.0 -0.3189336906 -0.941059416
17800193200.0 -0.333377526 -0.935989661
17850192900.0 -0.3481140329 -0.9309173312
17900192600.0 -0.3631201397 -0.9246614298
17950192300.0 -0.378784663 -0.9173902855
18000192000.0 -0.3933297275 -0.9107627981
18050191700.0 -0.4071398036 -0.9026554575
18100191400.0 -0.4211775238 -0.8949205836
18150191100.0 -0.4359847788 -0.8869889108
18200190800.0 -0.4527267444 -0.8778135961
18250190500.0 -0.4698675973 -0.8681988848
18300190200.0 -0.4853632996 -0.8597689864
18350189900.0 -0.5001179276 -0.8510180758
18400189600.0 -0.514389201 -0.8429241396
18450189300.0 -0.5274405258 -0.83516456
18500189000.0 -0.5408506447 -0.8265019127
18550188700.0 -0.5539057237 -0.8195679662
18600188400.0 -0.5656009166 -0.8119549921
18650188100.0 -0.5766780035 -0.8056162059
18700187800.0 -0.5874770499 -0.7989292107
18750187500.0 -0.5983368491 -0.7917431963
18800187200.0 -0.6090001053 -0.7849368296
18850186900.0 -0.6194195313 -0.7777483486
18900186600.0 -0.6296449619 -0.7703357613
18950186300.0 -0.6399062952 -0.7625270424
19000186000.0 -0.647577004 -0.7561368579
19050185700.0 -0.6565289933 -0.7484252503
19100185400.0 -0.6662941922 -0.7404176713
19150185100.0 -0.6771986467 -0.7315099127
19200184800.0 -0.6861906505 -0.7228847921
19250184500.0 -0.696866508 -0.7137188768
19300184200.0 -0.7084385006 -0.7044743561
19350183900.0 -0.7187118188 -0.6942403239
19400183600.0 -0.7283038557 -0.6851019871
19450183300.0 -0.7375607596 -0.674593906
19500183000.0 -0.7459926261 -0.6651024286
19550182700.0 -0.7559463354 -0.6539574626
19600182400.0 -0.7656373032 -0.6425723932
19650182100.0 -0.7763749202 -0.6302986971
19700181800.0 -0.7868788179 -0.6172228679
19750181500.0 -0.7972935458 -0.6030523742
19800181200.0 -0.807514505 -0.5882840346
19850180900.0 -0.817013266 -0.5733556827
19900180600.0 -0.8247007681 -0.5589526663
19950180300.0 -0.8335762385 -0.5424750628
20000180000.0 -0.8270995262 -0.5443135138
20050179700.0 -0.8356588262 -0.5314811603
20100179400.0 -0.8444588723 -0.5181834637
20150179100.0 -0.8523460372 -0.5047930303
20200178800.0 -0.8602412019 -0.4919170858
20250178500.0 -0.8698097228 -0.4787007512
20300178200.0 -0.8791839999 -0.464699347
20350177900.0 -0.8885404341 -0.4498934857
20400177600.0 -0.8971286393 -0.4354211372
20450177300.0 -0.9056227354 -0.4208301733
20500177000.0 -0.91324672 -0.406869024
20550176700.0 -0.9209749879 -0.3933407945
20600176400.0 -0.9284747185 -0.3797016522
20650176100.0 -0.9349079369 -0.367531227
20700175800.0 -0.9418998534 -0.3541947306
20750175500.0 -0.9483553873 -0.3439436941
20800175200.0 -0.9532992765 -0.3331061938
20850174900.0 -0.9579470469 -0.3215044999
20900174600.0 -0.9633225415 -0.310587793
20950174300.0 -0.9665377914 -0.2978647439
21000174000.0 -0.971729811 -0.2860471057
21050173700.0 -0.9731779883 -0.2751123071
21100173400.0 -0.9779984346 -0.262456252
21150173100.0 -0.9817820144 -0.2500957315
21200172800.0 -0.9852595788 -0.2363233326
21250172500.0 -0.9881238213 -0.2224091792
21300172200.0 -0.9907009334 -0.2086194007
21350171900.0 -0.9925537994 -0.1939668451
21400171600.0 -0.9938318952 -0.1795824326
21450171300.0 -0.9938280887 -0.1648736491
21500171000.0 -0.9940218458 -0.1500386016
21550170700.0 -0.9928579726 -0.1346035151
21600170400.0 -0.9922771875 -0.1187626617
21650170100.0 -0.9925393287 -0.1038541878
21700169800.0 -0.9904264192 -0.0883130611
21750169500.0 -0.9894963908 -0.0722790833
21800169200.0 -0.988505547 -0.0562587714
21850168900.0 -0.9877707465 -0.0399607172
21900168600.0 -0.9855487499 -0.0239765125
21950168300.0 -0.9841200588 -0.0077041996
22000168000.0 -0.9824478636 0.0067619322
22050167700.0 -0.9822118874 0.0213212372
22100167400.0 -0.9822399994 0.0362847084
22150167100.0 -0.9827393969 0.0517866986
22200166800.0 -0.9831048078 0.0676256952
22250166500.0 -0.9825186196 0.084415995
22300166200.0 -0.9812962969 0.1017864243
22350165900.0 -0.9803240271 0.1183172781
22400165600.0 -0.9780808676 0.1338212164
22450165300.0 -0.9770369267 0.1479676279
22500165000.0 -0.9747586849 0.1622328613
22550164700.0 -0.9740176684 0.1769648243
22600164400.0 -0.9718155016 0.1927754077
22650164100.0 -0.9701230422 0.2070959668
22700163800.0 -0.9664568581 0.2234891924
22750163500.0 -0.9647280686 0.2385823757
22800163200.0 -0.9621082302 0.2518207002
22850162900.0 -0.9595777469 0.2656513289
22900162600.0 -0.9580873481 0.2785370952
22950162300.0 -0.95716648 0.2913265908
23000162000.0 -0.9559068015 0.3037187331
23050161700.0 -0.9535119234 0.3159469184
23100161400.0 -0.951788624 0.3280476884
23150161100.0 -0.9488159757 0.3412263159
23200160800.0 -0.9468267949 0.352469399
23250160500.0 -0.9437044524 0.3647890976
23300160200.0 -0.9409006338 0.3768145406
23350159900.0 -0.936469595 0.3898472481
23400159600.0 -0.9324574868 0.4022631922
23450159300.0 -0.9272708407 0.4157887728
23500159000.0 -0.9229604215 0.4283886284
23550158700.0 -0.9185658065 0.4418262922
23600158400.0 -0.9130304679 0.4549437481
23650158100.0 -0.9068848445 0.4685538164
23700157800.0 -0.8993129501 0.4823221042
23750157500.0 -0.8909783805 0.4955999555
23800157200.0 -0.8821325346 0.5093562261
23850156900.0 -0.8734285686 0.5215408143
23900156600.0 -0.8638802326 0.5342310171
23950156300.0 -0.8547616492 0.5462763276
24000156000.0 -0.8456370685 0.5586220871
24050155700.0 -0.8356176343 0.5705593201
24100155400.0 -0.8258890227 0.5820167985
24150155100.0 -0.8148817486 0.5936146568
24200154800.0 -0.804291249 0.6049324116
24250154500.0 -0.7930298656 0.6170496176
24300154200.0 -0.7816007062 0.6286952627
24350153900.0 -0.7698928215 0.639221018
24400153600.0 -0.7574746408 0.6492255474
24450153300.0 -0.7457449632 0.6595652759
24500153000.0 -0.7340628067 0.6690453086
24550152700.0 -0.7228249443 0.6790252791
24600152400.0 -0.7117058026 0.687731664
24650152100.0 -0.699776476 0.6961739397
