!Created with skrf (http://scikit-rf.org).
# Hz S RI R 50.0 
!freq ReS11 ImS11
300000.0 -0.9720997566 -0.1233002187
50299700.0 -0.9998199871 0.0150372581
100299400.0 -0.9980247886 0.0278791222
150299100.0 -1.002615303 0.0448608566
200298800.0 -0.9995642379 0.058122615
250298500.0 -0.9972893039 0.0716653714
300298200.0 -0.9858298871 0.0875170708
350297900.0 -0.993970121 0.0983339355
400297600.0 -0.9931302917 0.1148199058
450297300.0 -0.9909881921 0.1287406602
500297000.0 -0.9894058375 0.143424093
550296700.0 -0.9842816882 0.1556716438
600296400.0 -1.017169043 0.1891686145
650296100.0 -0.9820721928 0.1857519489
700295800.0 -0.9790662318 0.2001540925
750295500.0 -0.9762083916 0.2137826185
800295200.0 -0.9728941769 0.2279168703
850294900.0 -0.9695383524 0.2417874581
900294600.0 -0.9657611429 0.2555981605
950294300.0 -0.9620534311 0.2693128896
1000294000.0 -0.9581384283 0.2832941348
1050293700.0 -0.9536118891 0.2972034262
1100293400.0 -0.949356565 0.3115197748
1150293100.0 -0.9455626008 0.3232650641
1200292800.0 -0.9402873717 0.3378483037
1250292500.0 -0.9347411166 0.351271534
1300292200.0 -0.9290802481 0.3643042992
1350291900.0 -0.9235169253 0.3785296544
1400291600.0 -0.9179446167 0.3914859306
1450291300.0 -0.9123979007 0.4040040995
1500291000.0 -0.9061884872 0.4172253581
1550290700.0 -0.8995654108 0.4306552981
1600290400.0 -0.8934413513 0.4436272462
1650290100.0 -0.8866025937 0.4557389962
1700289800.0 -0.8799058188 0.4691314125
1750289500.0 -0.8728686843 0.481465014
1800289200.0 -0.8658003327 0.4944211688
1850288900.0 -0.8585857109 0.5057819162
1900288600.0 -0.8509803679 0.5186552379
1950288300.0 -0.8429758391 0.5314844506
2000288000.0 -0.8354127427 0.5427204392
2050287700.0 -0.8270773492 0.5549650249
2100287400.0 -0.8194009848 0.566492908
2150287100.0 -0.8109258738 0.5785510768
2200286800.0 -0.802973015 0.5889939675
2250286500.0 -0.7939565302 0.6012550205
2300286200.0 -0.7852795452 0.6127707215
2350285900.0 -0.7769421876 0.623366769
2400285600.0 -0.7681940102 0.6341483797
2450285300.0 -0.7590634229 0.6450676094
2500285000.0 -0.749294983 0.6566302072
2550284700.0 -0.7401406235 0.6669874968
2600284400.0 -0.7309034007 0.6766298068
2650284100.0 -0.722364829 0.6871833423
2700283800.0 -0.7120203253 0.6974323144
2750283500.0 -0.7017513552 0.7082278659
2800283200.0 -0.6916380922 0.7181363217
2850282900.0 -0.6812322841 0.7281757255
2900282600.0 -0.6706452631 0.7377419185
2950282300.0 -0.6601029587 0.747258669
3000282000.0 -0.6495899299 0.7565841919
3050281700.0 -0.6383871463 0.7658605787
3100281400.0 -0.6269030761 0.7748659512
3150281100.0 -0.6157061439 0.7840012831
3200280800.0 -0.6040902254 0.7922798726
3250280500.0 -0.5931083047 0.8002803323
3300280200.0 -0.5814219564 0.8083807693
3350279900.0 -0.5693429487 0.8164799785
3400279600.0 -0.5566213722 0.8245402652
3450279300.0 -0.5455886632 0.8317500763
3500279000.0 -0.5338481931 0.8383911225
3550278700.0 -0.5217593888 0.8456685081
3600278400.0 -0.5100450045 0.8524539904
3650278100.0 -0.4969307554 0.8600993593
3700277800.0 -0.4847132288 0.8663106663
3750277500.0 -0.4722212327 0.8731541886
3800277200.0 -0.4597331686 0.8795614125
3850276900.0 -0.4477513808 0.8853455967
3900276600.0 -0.4369276869 0.8913375895
3950276300.0 -0.4249983029 0.8969714306
4000276000.0 -0.4131745473 0.9031735475
4050275700.0 -0.4005374405 0.9090017244
4100275400.0 -0.3894041193 0.9143454132
4150275100.0 -0.3762121922 0.9205031465
4200274800.0 -0.3626540284 0.9263186463
4250274500.0 -0.3498588752 0.931361969
4300274200.0 -0.3368284984 0.9366320759
4350273900.0 -0.3226096423 0.9421464601
4400273600.0 -0.3078321294 0.9471737624
4450273300.0 -0.292829574 0.9523210855
4500273000.0 -0.2799158167 0.956437013
4550272700.0 -0.2660408442 0.9606550711
4600272400.0 -0.2511221097 0.9646383374
4650272100.0 -0.2397918142 0.9678625307
4700271800.0 -0.2268999657 0.9709826883
4750271500.0 -0.215211287 0.973977416
4800271200.0 -0.2030646213 0.9766006129
4850270900.0 -0.1890948941 0.9793986286
4900270600.0 -0.1754859856 0.9817924249
4950270300.0 -0.1607838346 0.9845049791
5000270000.0 -0.1464393601 0.9868278678
5050269700.0 -0.1329904415 0.988345635
5100269400.0 -0.1186344915 0.9901277461
5150269100.0 -0.104812085 0.991533385
5200268800.0 -0.0913081615 0.9928578524
5250268500.0 -0.0783284113 0.9934940133
5300268200.0 -0.0646349398 0.9945735818
5350267900.0 -0.0519281147 0.9950148168
5400267600.0 -0.0356638417 0.9961469729
5450267300.0 -0.0222946958 0.9966432741
5500267000.0 -0.006933233 0.997086567
5550266700.0 0.0080276727 0.9970382598
5600266400.0 0.0237505757 0.9972511474
5650266100.0 0.0405932516 0.9967972342
5700265800.0 0.0546865063 0.9959172234
5750265500.0 0.0694934043 0.9948704717
5800265200.0 0.0829658186 0.9941541976
5850264900.0 0.0962319599 0.9931032879
5900264600.0 0.1124651421 0.9908887079
5950264300.0 0.1244664036 0.9900410469
6000264000.0 0.1377763883 0.9881724157
6050263700.0 0.1497655313 0.9868815227
6100263400.0 0.1617182648 0.9850185918
6150263100.0 0.1762378704 0.9825243215
6200262800.0 0.1858897762 0.9810830572
6250262500.0 0.1985338256 0.9786473434
6300262200.0 0.2108834182 0.9763771498
6350261900.0 0.2237819298 0.9734879836
6400261600.0 0.2376080263 0.9703061403
6450261300.0 0.248742244 0.9678231397
6500261000.0 0.2620372188 0.9639514466
6550260700.0 0.2749551905 0.960289948
6600260400.0 0.2884337479 0.9561183179
6650260100.0 0.3026396397 0.9516760845
6700259800.0 0.3150828314 0.947398489
6750259500.0 0.328714498 0.9425681592
6800259200.0 0.342011025 0.9375228004
6850258900.0 0.3544592503 0.9319721284
6900258600.0 0.3670727263 0.9266907028
6950258300.0 0.3796639951 0.9215112749
7000258000.0 0.3911703386 0.9162690398
7050257700.0 0.4031570029 0.9103484265
7100257400.0 0.4165753347 0.9039034924
7150257100.0 0.4272090711 0.8985265475
7200256800.0 0.4403692262 0.8920673254
7250256500.0 0.4529577123 0.8855919014
7300256200.0 0.4662556933 0.8789261659
7350255900.0 0.4789557176 0.8719551945
7400255600.0 0.4926793764 0.8638248341
7450255300.0 0.5083776728 0.854924991
7500255000.0 0.5207666858 0.8471327945
7550254700.0 0.5350997231 0.8382569776
7600254400.0 0.5478471523 0.8300424237
7650254100.0 0.5589875719 0.8219920683
7700253800.0 0.5708482211 0.8139382283
7750253500.0 0.5820795912 0.8063577127
7800253200.0 0.5924336701 0.7986203722
7850252900.0 0.6023223207 0.7914022282
7900252600.0 0.6138950293 0.782590247
7950252300.0 0.6221472127 0.776229911
8000252000.0 0.6319417046 0.7686415087
8050251700.0 0.6424838695 0.7607202011
8100251400.0 0.6526303618 0.752567603
8150251100.0 0.6626156532 0.7442525075
8200250800.0 0.6721498731 0.7358427611
8250250500.0 0.6805861438 0.7280284009
8300250200.0 0.6895917133 0.7196256564
8350249900.0 0.6989889752 0.7110260426
8400249600.0 0.7070190007 0.7030142721
8450249300.0 0.7159124353 0.694212339
8500249000.0 0.7243889615 0.6853918547
8550248700.0 0.732525151 0.6762801808
8600248400.0 0.7410364875 0.6668032062
8650248100.0 0.7485564365 0.6573780613
8700247800.0 0.7578710801 0.6464795501
8750247500.0 0.7661852975 0.6363021617
8800247200.0 0.7742670732 0.6260835049
8850246900.0 0.7829500422 0.6145083512
8900246600.0 0.7912242865 0.6032314791
8950246300.0 0.8003401885 0.5905424338
9000246000.0 0.8093677816 0.5784910511
9050245700.0 0.817500662 0.5663577925
9100245400.0 0.8258917882 0.5542529029
9150245100.0 0.8350023812 0.5411717464
9200244800.0 0.8442248697 0.5268253735
9250244500.0 0.8534155926 0.5121613294
9300244200.0 0.8612516436 0.4988081005
9350243900.0 0.8689057972 0.4855421654
9400243600.0 0.875442684 0.4738658227
9450243300.0 0.8809898035 0.4633554761
9500243000.0 0.8872260319 0.451730213
9550242700.0 0.8911905181 0.4441434082
9600242400.0 0.8955141552 0.4367013758
9650242100.0 0.8995342651 0.4299321562
9700241800.0 0.9045568166 0.4211110356
9750241500.0 0.9085749093 0.4136847518
9800241200.0 0.9139957698 0.403845959
9850240900.0 0.9196956292 0.3923350658
9900240600.0 0.9259148869 0.3802502175
9950240300.0 0.9329245939 0.3636679247
10000240000.0 0.9379795181 0.3512972343
10050239700.0 0.9440102118 0.3356162318
10100239400.0 0.9490309269 0.3189516434
10150239100.0 0.9542004622 0.3031757593
10200238800.0 0.9582032234 0.2878621192
10250238500.0 0.9615121265 0.2743677569
10300238200.0 0.9648375633 0.26036282
10350237900.0 0.9674670824 0.2469751776
10400237600.0 0.9699493544 0.2334172902
10450237300.0 0.9725410403 0.2200706808
10500237000.0 0.9749081245 0.2076088499
10550236700.0 0.9775717826 0.1931259797
10600236400.0 0.9792179233 0.1794235058
10650236100.0 0.9815727617 0.1649659968
10700235800.0 0.9835707924 0.1526374528
10750235500.0 0.9859086614 0.1387874818
10800235200.0 0.9881175843 0.1241684972
10850234900.0 0.9898757682 0.1095331304
10900234600.0 0.9918751712 0.0946892729
10950234300.0 0.993815125 0.0811357305
11000234000.0 0.9954461493 0.0656725131
11050233700.0 0.9974609515 0.0489332242
11100233400.0 0.9990154492 0.0310633736
11150233100.0 0.9999815743 0.0140534006
11200232800.0 1.000702023 -0.0012714429
11250232500.0 1.002019888 -0.0195839958
11300232200.0 1.00181584 -0.0374392723
11350231900.0 1.001866838 -0.0535921082
11400231600.0 1.001641068 -0.0694766117
11450231300.0 1.00113664 -0.0852361026
11500231000.0 0.9998933416 -0.1021677657
11550230700.0 0.9981028364 -0.1147761168
11600230400.0 0.9970538114 -0.1278017036
11650230100.0 0.9947658514 -0.1396273889
11700229800.0 0.9926077088 -0.1543527564
11750229500.0 0.9901035485 -0.1689102469
11800229200.0 0.9872439071 -0.1817032883
11850228900.0 0.9833773872 -0.1934718592
11900228600.0 0.9799234116 -0.2028709845
11950228300.0 0.9764161809 -0.2127461834
12000228000.0 0.9740187351 -0.2212074849
12050227700.0 0.9696413008 -0.2350016708
12100227400.0 0.9662899106 -0.2456787122
12150227100.0 0.961400423 -0.2623208248
12200226800.0 0.9577835755 -0.273597699
12250226500.0 0.9536613121 -0.2869094135
12300226200.0 0.949701824 -0.2984358658
12350225900.0 0.9442943081 -0.312593864
12400225600.0 0.9405144329 -0.3240393711
12450225300.0 0.9360094707 -0.3367738062
12500225000.0 0.9302758478 -0.3519880748
12550224700.0 0.9246312101 -0.3655747902
12600224400.0 0.9200167471 -0.3783100377
12650224100.0 0.9140260259 -0.3926747483
12700223800.0 0.908824198 -0.4054747626
12750223500.0 0.903275705 -0.4185852014
12800223200.0 0.8980341285 -0.431351817
12850222900.0 0.8928088593 -0.4433213542
12900222600.0 0.8866587328 -0.4553984011
12950222300.0 0.8814292117 -0.4672911991
13000222000.0 0.8749404611 -0.479260805
13050221700.0 0.8680927568 -0.4925779307
13100221400.0 0.8614429433 -0.5044484075
13150221100.0 0.8545557255 -0.5168727478
13200220800.0 0.8473792401 -0.5279913836
13250220500.0 0.8404351264 -0.5402787493
13300220200.0 0.8326511007 -0.5513984354
13350219900.0 0.8245779561 -0.5632838367
13400219600.0 0.8163494097 -0.5750022695
13450219300.0 0.8069001475 -0.5881067726
13500219000.0 0.7972585979 -0.6015798339
13550218700.0 0.7873043909 -0.6134980876
13600218400.0 0.7775242597 -0.6257241223
13650218100.0 0.7679581138 -0.6364818024
13700217800.0 0.7567880091 -0.6487669349
13750217500.0 0.7473349975 -0.6590051119
13800217200.0 0.7360682021 -0.670286083
13850216900.0 0.7258375579 -0.6812519044
13900216600.0 0.7162633512 -0.6901397634
13950216300.0 0.705705744 -0.700293207
14000216000.0 0.6954511783 -0.7094095429
14050215700.0 0.6860581982 -0.7175972133
14100215400.0 0.6769683215 -0.7261322097
14150215100.0 0.6676807297 -0.7347377606
14200214800.0 0.6580829903 -0.7438898908
14250214500.0 0.6477162227 -0.7534298251
14300214200.0 0.6375096759 -0.7627970312
14350213900.0 0.6262204116 -0.7725100591
14400213600.0 0.6142680161 -0.7821295849
14450213300.0 0.6012613999 -0.7927069729
14500213000.0 0.5883971965 -0.8023554928
14550212700.0 0.5757625776 -0.8120721705
14600212400.0 0.5637309642 -0.8206729008
14650212100.0 0.5510099141 -0.8293827266
14700211800.0 0.5373062055 -0.8387123892
14750211500.0 0.5247548107 -0.8470945933
14800211200.0 0.5121851136 -0.8553151166
14850210900.0 0.4997795894 -0.8630148552
14900210600.0 0.4866264786 -0.8710545184
14950210300.0 0.4734200649 -0.8785994947
15000210000.0 0.4606587021 -0.8852893862
15050209700.0 0.4483962115 -0.8915639169
15100209400.0 0.4357841313 -0.8974552324
15150209100.0 0.423765571 -0.9020994834
15200208800.0 0.4103712688 -0.9080602189
15250208500.0 0.3997877111 -0.9126782875
15300208200.0 0.3881470242 -0.9173187681
15350207900.0 0.3740625571 -0.9215022189
15400207600.0 0.3595479277 -0.9272163057
15450207300.0 0.3446181208 -0.9319443727
15500207000.0 0.3304173001 -0.937079389
15550206700.0 0.3154575819 -0.9419533257
15600206400.0 0.2994858801 -0.9461287537
15650206100.0 0.2838186981 -0.9510985116
15700205800.0 0.2702964175 -0.9544782277
15750205500.0 0.2564235888 -0.957638911
15800205200.0 0.2423788712 -0.9612346871
15850204900.0 0.2281826496 -0.9644624698
15900204600.0 0.2133735849 -0.9682224743
15950204300.0 0.198871857 -0.971481143
16000204000.0 0.1844343063 -0.9744690995
16050203700.0 0.1693352745 -0.9773172802
16100203400.0 0.1542363862 -0.979247968
16150203100.0 0.1391476975 -0.9817951745
16200202800.0 0.1250245356 -0.984025919
16250202500.0 0.1107454244 -0.9852611459
16300202200.0 0.0950489745 -0.9875582108
16350201900.0 0.0798323903 -0.988993353
16400201600.0 0.0651837182 -0.9901506012
16450201300.0 0.0497539598 -0.9910138565
16500201000.0 0.0327002535 -0.9920645534
16550200700.0 0.0166609874 -0.9924800295
16600200400.0 0.0007901337 -0.9929488142
16650200100.0 -0.0154496742 -0.9931149892
16700199800.0 -0.0319248485 -0.9925541416
16750199500.0 -0.0507045093 -0.9913936776
16800199200.0 -0.0662960117 -0.9908179406
16850198900.0 -0.0821673856 -0.9893794652
16900198600.0 -0.0963535977 -0.9881327244
16950198300.0 -0.1096932259 -0.987122019
17000198000.0 -0.1229133462 -0.9853595566
17050197700.0 -0.1354157601 -0.9843471345
17100197400.0 -0.1487962389 -0.9824789478
17150197100.0 -0.1616719673 -0.9804877736
17200196800.0 -0.1742865912 -0.9778549865
17250196500.0 -0.1874402918 -0.9753616351
17300196200.0 -0.1992791539 -0.9729498854
17350195900.0 -0.2114184909 -0.9707905015
17400195600.0 -0.2231661399 -0.9681046136
17450195300.0 -0.2361634757 -0.9653469107
17500195000.0 -0.2491990051 -0.9619346105
17550194700.0 -0.2632179408 -0.9584197785
17600194400.0 -0.2770293966 -0.9547464435
17650194100.0 -0.290598901 -0.9507649248
17700193800.0 -0.303295164 -0.9462148864
17750193500.0 -0.3177922294 -0.9419597413
17800193200.0 -0.3320924964 -0.9365316529
17850192900.0 -0.3469709992 -0.9311634986
17900192600.0 -0.3617051559 -0.9249345986
17950192300.0 -0.377356291 -0.9177224727
18000192000.0 -0.3921932969 -0.9105440601
18050191700.0 -0.4058698399 -0.9025680083
18100191400.0 -0.420048779 -0.8949742769
18150191100.0 -0.4348545237 -0.8870812366
18200190800.0 -0.4515955984 -0.877840661
18250190500.0 -0.4685888677 -0.8685805419
18300190200.0 -0.484063278 -0.8595866301
18350189900.0 -0.499053688 -0.8512286359
18400189600.0 -0.5137511128 -0.8429585046
18450189300.0 -0.5270891386 -0.8348848542
18500189000.0 -0.5408584043 -0.8266193821
18550188700.0 -0.5539007763 -0.8189185651
18600188400.0 -0.5653069598 -0.8126205669
18650188100.0 -0.5769715452 -0.8060571283
18700187800.0 -0.5875281369 -0.7989201186
18750187500.0 -0.5986906186 -0.7924055058
18800187200.0 -0.6093144129 -0.7850981739
18850186900.0 -0.6194553198 -0.7783279778
18900186600.0 -0.6297372933 -0.7711406678
18950186300.0 -0.6400075129 -0.7632942328
19000186000.0 -0.6477005595 -0.7568773762
19050185700.0 -0.6565011536 -0.7500149022
19100185400.0 -0.6666432747 -0.7417144927
19150185100.0 -0.6770593111 -0.7331114768
19200184800.0 -0.6870530595 -0.72533066
19250184500.0 -0.695832678 -0.7159113852
19300184200.0 -0.7075407784 -0.7059105345
19350183900.0 -0.7181926594 -0.6963710894
19400183600.0 -0.728566644 -0.6868689
19450183300.0 -0.7373601769 -0.6767913648
19500183000.0 -0.7463161396 -0.6663857177
19550182700.0 -0.7554228432 -0.6558177984
19600182400.0 -0.7653915849 -0.6444024321
19650182100.0 -0.7760502082 -0.6318177983
19700181800.0 -0.7867785356 -0.6185438997
19750181500.0 -0.7968502535 -0.6040589339
19800181200.0 -0.8072531889 -0.589294536
19850180900.0 -0.8167292064 -0.5740421483
19900180600.0 -0.824560139 -0.5597966888
19950180300.0 -0.8334927539 -0.543048392
20000180000.0 -0.8237463717 -0.5472428803
20050179700.0 -0.8307816428 -0.5346009239
20100179400.0 -0.8397197018 -0.5210236517
20150179100.0 -0.8478101547 -0.5087109764
20200178800.0 -0.856001185 -0.4981430859
20250178500.0 -0.8656216972 -0.4854221057
20300178200.0 -0.8751059242 -0.4715623035
20350177900.0 -0.8841452932 -0.4577321885
20400177600.0 -0.8937112882 -0.4435920847
20450177300.0 -0.9017693479 -0.4291535096
20500177000.0 -0.9103485736 -0.4154215645
20550176700.0 -0.9178183363 -0.4015389812
20600176400.0 -0.9249622653 -0.3888229383
20650176100.0 -0.9310718245 -0.3763151169
20700175800.0 -0.937714474 -0.3643136885
20750175500.0 -0.9445514397 -0.3532806647
20800175200.0 -0.9489396421 -0.3421251507
20850174900.0 -0.9532196423 -0.3312490555
20900174600.0 -0.9580484872 -0.3211284551
20950174300.0 -0.9615007881 -0.3097188553
21000174000.0 -0.9640429438 -0.299134975
21050173700.0 -0.9656071645 -0.2890213803
21100173400.0 -0.9688681609 -0.2787163793
21150173100.0 -0.9730414829 -0.2662110504
21200172800.0 -0.9770433303 -0.2538287318
21250172500.0 -0.9806861234 -0.2398648026
21300172200.0 -0.9842205966 -0.2257199219
21350171900.0 -0.9860415694 -0.211031547
21400171600.0 -0.988146593 -0.1974889126
21450171300.0 -0.9885843123 -0.1834698507
21500171000.0 -0.9885962817 -0.1683417619
21550170700.0 -0.9899075619 -0.153885046
21600170400.0 -0.9911350961 -0.1376585871
21650170100.0 -0.9908969618 -0.1211762364
21700169800.0 -0.9903119396 -0.1067943848
21750169500.0 -0.9897605234 -0.0913658813
21800169200.0 -0.9900200138 -0.073537872
21850168900.0 -0.9900353258 -0.0579848439
21900168600.0 -0.989560774 -0.0411942632
21950168300.0 -0.9891370809 -0.0250510281
22000168000.0 -0.9888601134 -0.0103687818
22050167700.0 -0.9897554641 0.0042085384
22100167400.0 -0.9905135745 0.0196479845
22150167100.0 -0.991539364 0.0362540724
22200166800.0 -0.9919536701 0.0520781493
22250166500.0 -0.9914468218 0.0697445958
22300166200.0 -0.9902485148 0.086420302
22350165900.0 -0.9890624105 0.1022417738
22400165600.0 -0.9889476678 0.1183843692
22450165300.0 -0.9866024327 0.1330802382
22500165000.0 -0.9841127499 0.1478000203
22550164700.0 -0.9835419595 0.163693542
22600164400.0 -0.9809588512 0.180804348
22650164100.0 -0.9785894743 0.1960096839
22700163800.0 -0.9749551621 0.2121223582
22750163500.0 -0.972164679 0.2265039039
22800163200.0 -0.9691035844 0.2394666446
22850162900.0 -0.9663389645 0.2531895321
22900162600.0 -0.9646944195 0.2671293734
22950162300.0 -0.9629351086 0.280580899
23000162000.0 -0.9612740115 0.2929732519
23050161700.0 -0.958625323 0.3067150055
23100161400.0 -0.9558896938 0.3201300986
23150161100.0 -0.9526665505 0.3335301665
23200160800.0 -0.9490834284 0.3455317629
23250160500.0 -0.9468655768 0.3583793541
23300160200.0 -0.9440051841 0.3709201391
23350159900.0 -0.9398699199 0.3853081218
23400159600.0 -0.9347974397 0.3984722413
23450159300.0 -0.9299524569 0.4125571149
23500159000.0 -0.925389062 0.4258088434
23550158700.0 -0.9203312364 0.4401037714
23600158400.0 -0.9141658031 0.454041994
23650158100.0 -0.9067067579 0.4686854577
23700157800.0 -0.8981826082 0.4828315497
23750157500.0 -0.8890374031 0.4969786811
23800157200.0 -0.8792444522 0.5105205
23850156900.0 -0.8694485259 0.5232169241
23900156600.0 -0.8595596567 0.5364420215
23950156300.0 -0.8492735854 0.5490827882
24000156000.0 -0.8401369627 0.5603840813
24050155700.0 -0.8299214303 0.5734456814
24100155400.0 -0.8194520487 0.5862004894
24150155100.0 -0.8076963694 0.5976545331
24200154800.0 -0.7974663568 0.6096509615
24250154500.0 -0.7859886469 0.6221745511
24300154200.0 -0.774811421 0.6342542107
24350153900.0 -0.7627441177 0.6451781371
24400153600.0 -0.7496459262 0.6559153734
24450153300.0 -0.7380479544 0.6660851436
24500153000.0 -0.7263665477 0.6761644467
24550152700.0 -0.7147051972 0.6863859714
24600152400.0 -0.7030940846 0.6960392793
24650152100.0 -0.6904901276 0.7044031442
