!Created with skrf (http://scikit-rf.org).
# Hz S RI R 50.0 
!freq ReS11 ImS11
300000.0 -0.9730179782 -0.1239562438
50299700.0 -1.000019633 0.0149210681
100299400.0 -0.9978182197 0.0279184507
150299100.0 -1.002645218 0.0448593383
200298800.0 -0.9995071829 0.0580649836
250298500.0 -0.9973108242 0.071428415
300298200.0 -0.9858918079 0.0875171112
350297900.0 -0.9939111496 0.0982777459
400297600.0 -0.9929990493 0.1148908496
450297300.0 -0.9910523929 0.1285882258
500297000.0 -0.9894177739 0.1432257055
550296700.0 -0.9843789193 0.1556549371
600296400.0 -1.01728156 0.1889878533
650296100.0 -0.9821826016 0.1856265828
700295800.0 -0.9793776336 0.199817119
750295500.0 -0.9764546225 0.2138969191
800295200.0 -0.9729612442 0.2279355799
850294900.0 -0.9697408012 0.241919253
900294600.0 -0.9659143639 0.2554725295
950294300.0 -0.9620364366 0.2691987217
1000294000.0 -0.9580936613 0.2832321885
1050293700.0 -0.9535386089 0.2970617298
1100293400.0 -0.9494944652 0.311400363
1150293100.0 -0.9454579796 0.3234305995
1200292800.0 -0.9400207625 0.3378127184
1250292500.0 -0.9348578647 0.3512104532
1300292200.0 -0.9291683931 0.3643308668
1350291900.0 -0.9234984556 0.3783293095
1400291600.0 -0.9179342911 0.3915630694
1450291300.0 -0.9125258743 0.4037752089
1500291000.0 -0.9062143712 0.4173594612
1550290700.0 -0.899681047 0.430518918
1600290400.0 -0.8934889337 0.4435676463
1650290100.0 -0.8868978409 0.4555799225
1700289800.0 -0.8799710964 0.4691597646
1750289500.0 -0.8727916741 0.4815268082
1800289200.0 -0.865510726 0.4944815795
1850288900.0 -0.8587758779 0.5056102194
1900288600.0 -0.8511461492 0.5186623034
1950288300.0 -0.8429058148 0.5312988115
2000288000.0 -0.8354703238 0.5428112898
2050287700.0 -0.8270250279 0.5551511387
2100287400.0 -0.8194093214 0.5665403049
2150287100.0 -0.8107947659 0.5784101549
2200286800.0 -0.803054011 0.5890402372
2250286500.0 -0.7941559008 0.6015522741
2300286200.0 -0.7852412298 0.6127012578
2350285900.0 -0.7769164161 0.6233836099
2400285600.0 -0.7680891932 0.6343877045
2450285300.0 -0.7591531479 0.6450374039
2500285000.0 -0.7491476057 0.6565426167
2550284700.0 -0.740187421 0.666940102
2600284400.0 -0.7309429623 0.6769713895
2650284100.0 -0.7223245698 0.6871545495
2700283800.0 -0.7120149308 0.6973239939
2750283500.0 -0.7018456081 0.7079940266
2800283200.0 -0.6917590133 0.7180615988
2850282900.0 -0.6812605996 0.7280608364
2900282600.0 -0.6705842394 0.7379216111
2950282300.0 -0.6602547292 0.7474556752
3000282000.0 -0.6495012761 0.7567311991
3050281700.0 -0.638393224 0.7658294451
3100281400.0 -0.6269060825 0.7750369895
3150281100.0 -0.6156810897 0.7838826119
3200280800.0 -0.6042590366 0.7922254303
3250280500.0 -0.5931753191 0.8001758422
3300280200.0 -0.5814591043 0.8083288893
3350279900.0 -0.5693073573 0.8163989553
3400279600.0 -0.5566887057 0.8245093675
3450279300.0 -0.5454774986 0.8315685374
3500279000.0 -0.5337541807 0.838363571
3550278700.0 -0.5216561678 0.8455597838
3600278400.0 -0.5099379494 0.8524519591
3650278100.0 -0.4968841363 0.8598406062
3700277800.0 -0.484993476 0.8664145653
3750277500.0 -0.4721959078 0.873226621
3800277200.0 -0.459739243 0.8794417824
3850276900.0 -0.4477250753 0.8855666715
3900276600.0 -0.4368199023 0.8914741999
3950276300.0 -0.4249372504 0.8970285452
4000276000.0 -0.4135662814 0.9028941928
4050275700.0 -0.4003379441 0.9090016776
4100275400.0 -0.3894396449 0.9145940257
4150275100.0 -0.3760360483 0.9204288749
4200274800.0 -0.3628872815 0.9262588393
4250274500.0 -0.3503243278 0.9312324045
4300274200.0 -0.3367515656 0.936810867
4350273900.0 -0.3224821403 0.9420511332
4400273600.0 -0.3078408132 0.9471562153
4450273300.0 -0.2927056862 0.9524121986
4500273000.0 -0.2797837453 0.9564859235
4550272700.0 -0.2661665932 0.9604584711
4600272400.0 -0.2510361354 0.9646934863
4650272100.0 -0.2396909103 0.9677514791
4700271800.0 -0.2268182126 0.9712246739
4750271500.0 -0.2152981856 0.973999598
4800271200.0 -0.2030377856 0.9765273688
4850270900.0 -0.1893485497 0.979563327
4900270600.0 -0.1755107116 0.9818883461
4950270300.0 -0.1609240092 0.9844568939
5000270000.0 -0.146416648 0.9865472806
5050269700.0 -0.1330245757 0.9883780762
5100269400.0 -0.1185253998 0.9899772061
5150269100.0 -0.1047136517 0.9915582467
5200268800.0 -0.0912410401 0.9926094018
5250268500.0 -0.0783407725 0.9935878581
5300268200.0 -0.0648083216 0.994321588
5350267900.0 -0.0518477684 0.9950896178
5400267600.0 -0.0356008506 0.9961007866
5450267300.0 -0.0220162525 0.9967927429
5500267000.0 -0.0067499951 0.9969553157
5550266700.0 0.008180992 0.9970003628
5600266400.0 0.024018262 0.99719776
5650266100.0 0.0405580352 0.9967543669
5700265800.0 0.0547449781 0.9955114238
5750265500.0 0.0697205938 0.9952442164
5800265200.0 0.0832190764 0.9941126089
5850264900.0 0.0965525566 0.9931534457
5900264600.0 0.1129905526 0.9914029035
5950264300.0 0.124348196 0.9895369345
6000264000.0 0.1375948349 0.9878679265
6050263700.0 0.1493645624 0.9866597986
6100263400.0 0.1619676932 0.9849660153
6150263100.0 0.1762329526 0.9827415455
6200262800.0 0.1860311906 0.9809491012
6250262500.0 0.1985715054 0.9787083623
6300262200.0 0.2107217631 0.9762118597
6350261900.0 0.2236834428 0.973495213
6400261600.0 0.2375243011 0.9703227119
6450261300.0 0.2485038223 0.967907635
6500261000.0 0.2618370319 0.9643902012
6550260700.0 0.2750453449 0.9603793414
6600260400.0 0.2882479388 0.9558761225
6650260100.0 0.3025524477 0.951776783
6700259800.0 0.3146131606 0.9473417243
6750259500.0 0.3285037658 0.9426393066
6800259200.0 0.3418389181 0.9373949619
6850258900.0 0.3547185536 0.9323011141
6900258600.0 0.3674363044 0.9270020683
6950258300.0 0.3795365145 0.9214033554
7000258000.0 0.3910852121 0.9163056445
7050257700.0 0.4029895018 0.9107920249
7100257400.0 0.4167276185 0.9040126826
7150257100.0 0.4271543632 0.8986068949
7200256800.0 0.4405096795 0.8921806641
7250256500.0 0.452846565 0.8856996546
7300256200.0 0.466011528 0.8786754941
7350255900.0 0.4788122138 0.8718870435
7400255600.0 0.4925129419 0.8639253315
7450255300.0 0.5083315404 0.8549408049
7500255000.0 0.5211243614 0.8473486914
7550254700.0 0.5356673969 0.8382993055
7600254400.0 0.5473924524 0.8297651566
7650254100.0 0.559395427 0.8219015786
7700253800.0 0.5709078262 0.8141551185
7750253500.0 0.5818359879 0.8062725159
7800253200.0 0.5926240178 0.7983065357
7850252900.0 0.6024224024 0.7911537389
7900252600.0 0.6138017445 0.7825874476
7950252300.0 0.6221539138 0.7761262969
8000252000.0 0.6319815829 0.7686251365
8050251700.0 0.6424842538 0.7605675838
8100251400.0 0.6521916054 0.7527032511
8150251100.0 0.6623177851 0.7440782273
8200250800.0 0.672012437 0.7360267188
8250250500.0 0.6807867333 0.7281516397
8300250200.0 0.6898850077 0.7198209777
8350249900.0 0.6992454892 0.7107621784
8400249600.0 0.7071552564 0.7029360575
8450249300.0 0.7158507156 0.6941932059
8500249000.0 0.724259863 0.6854158914
8550248700.0 0.7326157176 0.6763200806
8600248400.0 0.741000659 0.6668003694
8650248100.0 0.7486137018 0.6573174796
8700247800.0 0.7579607139 0.6464512503
8750247500.0 0.766139549 0.6362831455
8800247200.0 0.7742666709 0.6259461796
8850246900.0 0.7828778014 0.6145987379
8900246600.0 0.7910465358 0.6032523976
8950246300.0 0.8005039463 0.5905595513
9000246000.0 0.8090636937 0.5784963228
9050245700.0 0.8178191263 0.5662699974
9100245400.0 0.8259119532 0.5541403039
9150245100.0 0.8345898921 0.5412584364
9200244800.0 0.8442020797 0.5270178348
9250244500.0 0.8531951583 0.5121399269
9300244200.0 0.8611821561 0.4989819962
9350243900.0 0.8687170002 0.4857723979
9400243600.0 0.8752221964 0.4740681864
9450243300.0 0.8808640774 0.4637355479
9500243000.0 0.8870840845 0.4522508661
9550242700.0 0.8912572765 0.4444937923
9600242400.0 0.89541665 0.4370173788
9650242100.0 0.8993359635 0.429823434
9700241800.0 0.9044775355 0.4214540114
9750241500.0 0.9084723957 0.4139669247
9800241200.0 0.9139392334 0.4042581695
9850240900.0 0.9197281638 0.3925872025
9900240600.0 0.9257862666 0.380647469
9950240300.0 0.9328193467 0.3638506146
10000240000.0 0.9375067423 0.351884158
10050239700.0 0.9441144248 0.3354155264
10100239400.0 0.949331484 0.319129359
10150239100.0 0.9541480745 0.3036507072
10200238800.0 0.9581336371 0.2882057138
10250238500.0 0.9616471117 0.2744687463
10300238200.0 0.9647026645 0.2605457082
10350237900.0 0.967581281 0.2472766164
10400237600.0 0.9700978228 0.2335116347
10450237300.0 0.9728419423 0.2202436355
10500237000.0 0.9750263231 0.2076386513
10550236700.0 0.9774149005 0.1932733277
10600236400.0 0.9799313798 0.1793017099
10650236100.0 0.9812954087 0.1644745816
10700235800.0 0.983449214 0.1523383267
10750235500.0 0.9860858798 0.1384903866
10800235200.0 0.9878663038 0.1247353268
10850234900.0 0.990077938 0.1095925672
10900234600.0 0.9918688596 0.0948102878
10950234300.0 0.9937847906 0.0811064017
11000234000.0 0.9956409327 0.0655902553
11050233700.0 0.9973077456 0.0488351286
11100233400.0 0.9989876695 0.0305900395
11150233100.0 1.000001922 0.0143584095
11200232800.0 1.001029662 -0.0023408959
11250232500.0 1.001960277 -0.0199132592
11300232200.0 1.002252545 -0.0385372922
11350231900.0 1.001940096 -0.0552324584
11400231600.0 1.001526335 -0.0700267707
11450231300.0 1.001160512 -0.0868223793
11500231000.0 0.9997375801 -0.1018809763
11550230700.0 0.9985283289 -0.115105226
11600230400.0 0.9970583497 -0.1278288929
11650230100.0 0.9948734079 -0.1401021312
11700229800.0 0.992728846 -0.154630639
11750229500.0 0.9904851631 -0.1690212512
11800229200.0 0.987329618 -0.1821474456
11850228900.0 0.9834939499 -0.1937291466
11900228600.0 0.9800504466 -0.2032208543
11950228300.0 0.9766875774 -0.2130228448
12000228000.0 0.9735494775 -0.222128353
12050227700.0 0.9701054539 -0.2347825589
12100227400.0 0.9661323781 -0.2453325756
12150227100.0 0.9618029095 -0.2627004811
12200226800.0 0.958488181 -0.2731174697
12250226500.0 0.9535368345 -0.2861123014
12300226200.0 0.949955411 -0.2982524114
12350225900.0 0.94457309 -0.3125421024
12400225600.0 0.9403683877 -0.3249625186
12450225300.0 0.9354765375 -0.3371778226
12500225000.0 0.930375474 -0.3517212639
12550224700.0 0.9247420244 -0.3657765152
12600224400.0 0.9199670395 -0.3784841364
12650224100.0 0.9140618225 -0.3927814957
12700223800.0 0.9087027851 -0.4056161591
12750223500.0 0.9030498897 -0.4187777062
12800223200.0 0.8979655779 -0.4312842782
12850222900.0 0.8925174712 -0.4436330967
12900222600.0 0.8873195296 -0.4553443302
12950222300.0 0.881110533 -0.4681071712
13000222000.0 0.8751604584 -0.4796715531
13050221700.0 0.8684127381 -0.4921116392
13100221400.0 0.8615047346 -0.50441664
13150221100.0 0.8543541253 -0.5168666991
13200220800.0 0.8473812329 -0.5287514668
13250220500.0 0.8404342111 -0.5405645657
13300220200.0 0.8327744211 -0.5516562015
13350219900.0 0.8246410026 -0.5633722251
13400219600.0 0.8162347156 -0.5752997696
13450219300.0 0.8068670787 -0.5885029804
13500219000.0 0.7970215333 -0.6012512822
13550218700.0 0.7875894837 -0.6133718633
13600218400.0 0.7769972622 -0.6254283119
13650218100.0 0.7681035591 -0.636516846
13700217800.0 0.7571410318 -0.6482700249
13750217500.0 0.747434605 -0.6587551291
13800217200.0 0.7363607805 -0.6697084862
13850216900.0 0.7264936251 -0.6813697819
13900216600.0 0.7158063038 -0.6900124866
13950216300.0 0.7052295667 -0.7000595909
14000216000.0 0.6952814424 -0.7088228963
14050215700.0 0.6858605826 -0.7167229087
14100215400.0 0.6767204518 -0.7263541002
14150215100.0 0.6678353147 -0.7350483481
14200214800.0 0.6580360568 -0.7438894339
14250214500.0 0.6476481742 -0.7534632544
14300214200.0 0.6372977451 -0.7628299814
14350213900.0 0.6260122066 -0.7723738655
14400213600.0 0.6144944528 -0.7823746762
14450213300.0 0.6013990215 -0.7925369603
14500213000.0 0.5884932834 -0.8023213565
14550212700.0 0.5763419144 -0.8118611385
14600212400.0 0.5634908769 -0.8207332885
14650212100.0 0.5509693776 -0.828472776
14700211800.0 0.5370634076 -0.8386259531
14750211500.0 0.5250215944 -0.8471891263
14800211200.0 0.5122533108 -0.8553218092
14850210900.0 0.4999655444 -0.8629339357
14900210600.0 0.4866856364 -0.8710801445
14950210300.0 0.473492145 -0.8785717784
15000210000.0 0.4609747995 -0.8853289832
15050209700.0 0.4484822041 -0.8912347843
15100209400.0 0.4353112391 -0.8973647305
15150209100.0 0.4231329009 -0.9029893545
15200208800.0 0.4104011723 -0.9076389464
15250208500.0 0.3995049309 -0.91252542
15300208200.0 0.3881693054 -0.9173202251
15350207900.0 0.3740795324 -0.9219264704
15400207600.0 0.3596693215 -0.9279537709
15450207300.0 0.3455406169 -0.9318872643
15500207000.0 0.3304153596 -0.9372819707
15550206700.0 0.3157910324 -0.9423567042
15600206400.0 0.2995465064 -0.9464784976
15650206100.0 0.2838871904 -0.9506584704
15700205800.0 0.2703961437 -0.9542750136
15750205500.0 0.2564351591 -0.9573613816
15800205200.0 0.2425643021 -0.9611004624
15850204900.0 0.2284026355 -0.9644436895
15900204600.0 0.2133573998 -0.9682259981
15950204300.0 0.1990861756 -0.9714327313
16000204000.0 0.1846094633 -0.9741444464
16050203700.0 0.1691437066 -0.9773787267
16100203400.0 0.1545809246 -0.9797806416
16150203100.0 0.1395581318 -0.9818101661
16200202800.0 0.1251152242 -0.9843512942
16250202500.0 0.1103952232 -0.9856912875
16300202200.0 0.0952996653 -0.9875931184
16350201900.0 0.0802572321 -0.9892940739
16400201600.0 0.0657021046 -0.990358959
16450201300.0 0.0498077907 -0.9913339824
16500201000.0 0.0327393865 -0.9919831006
16550200700.0 0.0166545286 -0.9925097953
16600200400.0 0.0009001017 -0.9927643317
16650200100.0 -0.0153232587 -0.9926955859
16700199800.0 -0.0319559338 -0.9921061435
16750199500.0 -0.0504974089 -0.9917323838
16800199200.0 -0.0664891128 -0.9906600765
16850198900.0 -0.0817394569 -0.9897443322
16900198600.0 -0.0971293779 -0.9889785061
16950198300.0 -0.1107451028 -0.9880339333
17000198000.0 -0.123609751 -0.9859863833
17050197700.0 -0.1357373028 -0.9836288898
17100197400.0 -0.1492664621 -0.9823028038
17150197100.0 -0.1616727182 -0.9801499479
17200196800.0 -0.174321148 -0.9778876015
17250196500.0 -0.1875577641 -0.9755010525
17300196200.0 -0.1995395834 -0.972971981
17350195900.0 -0.211281475 -0.9706047997
17400195600.0 -0.2233084362 -0.9681560527
17450195300.0 -0.2362726219 -0.9651434548
17500195000.0 -0.2495644555 -0.9620208882
17550194700.0 -0.2632531843 -0.9582414971
17600194400.0 -0.2768764165 -0.9540928602
17650194100.0 -0.2904742224 -0.9505253944
17700193800.0 -0.3034449988 -0.9462130763
17750193500.0 -0.3178512255 -0.9415289465
17800193200.0 -0.3321020247 -0.9367482996
17850192900.0 -0.3470161908 -0.9312573622
17900192600.0 -0.362060964 -0.9249719078
17950192300.0 -0.377397514 -0.9175898641
18000192000.0 -0.392420166 -0.9105809026
18050191700.0 -0.4059613245 -0.9025798401
18100191400.0 -0.4200718979 -0.8950029132
18150191100.0 -0.4349979651 -0.8870559127
18200190800.0 -0.4520296616 -0.8778114892
18250190500.0 -0.4685555311 -0.8681879855
18300190200.0 -0.4842265026 -0.8595178985
18350189900.0 -0.4995690992 -0.8513064467
18400189600.0 -0.5138146861 -0.8429608755
18450189300.0 -0.5272186843 -0.8349513998
18500189000.0 -0.5410355446 -0.8266442303
18550188700.0 -0.5535436781 -0.8191036757
18600188400.0 -0.5657443793 -0.8117030736
18650188100.0 -0.5767674959 -0.8054094347
18700187800.0 -0.5877910904 -0.7987854424
18750187500.0 -0.5987484685 -0.792299377
18800187200.0 -0.6092714411 -0.7853121188
18850186900.0 -0.6195470581 -0.7782658575
18900186600.0 -0.6298530767 -0.7709808663
18950186300.0 -0.639999491 -0.7632113897
19000186000.0 -0.6475921825 -0.756706411
19050185700.0 -0.6568618993 -0.7498376509
19100185400.0 -0.6666874966 -0.7415700927
19150185100.0 -0.6771817267 -0.7328710583
19200184800.0 -0.6864370719 -0.7249590538
19250184500.0 -0.6961577857 -0.7157239224
19300184200.0 -0.7084046568 -0.7063355023
19350183900.0 -0.7183568897 -0.6964373687
19400183600.0 -0.7281294497 -0.686105494
19450183300.0 -0.7376949256 -0.6766594466
19500183000.0 -0.7453821931 -0.66643645
19550182700.0 -0.7554854089 -0.655158699
19600182400.0 -0.7655752245 -0.6438471491
19650182100.0 -0.7760209377 -0.6318420102
19700181800.0 -0.7866961976 -0.6183114558
19750181500.0 -0.7972179519 -0.6041251441
19800181200.0 -0.8074313277 -0.5892134862
19850180900.0 -0.8169850109 -0.5738906442
19900180600.0 -0.8245922335 -0.5593806123
19950180300.0 -0.8336357098 -0.5430499982
20000180000.0 -0.8234621048 -0.5467258989
20050179700.0 -0.8319621943 -0.5346165853
20100179400.0 -0.8396388155 -0.5214260932
20150179100.0 -0.8477830265 -0.5092790293
20200178800.0 -0.8559375039 -0.4981727501
20250178500.0 -0.8653739447 -0.4852900262
20300178200.0 -0.8750328093 -0.4719943212
20350177900.0 -0.8842777777 -0.4579771858
20400177600.0 -0.8932335101 -0.4442054937
20450177300.0 -0.9017340645 -0.4295880334
20500177000.0 -0.9100135733 -0.4152433455
20550176700.0 -0.9177831101 -0.4019093451
20600176400.0 -0.9249052422 -0.3888477265
20650176100.0 -0.93119367 -0.3768903286
20700175800.0 -0.9376125972 -0.3643651341
20750175500.0 -0.9443605131 -0.3536164629
20800175200.0 -0.9485967076 -0.3428047725
20850174900.0 -0.9532031269 -0.3313299187
20900174600.0 -0.9577672055 -0.3209112893
20950174300.0 -0.9612216703 -0.3098675382
21000174000.0 -0.9632342062 -0.2990225089
21050173700.0 -0.9658367046 -0.2888036615
21100173400.0 -0.9688301783 -0.27882127
21150173100.0 -0.972984215 -0.2669990119
21200172800.0 -0.976786053 -0.253919158
21250172500.0 -0.9803683418 -0.240024538
21300172200.0 -0.9839925585 -0.2260031878
21350171900.0 -0.9860497181 -0.2116707023
21400171600.0 -0.9876648315 -0.1974678374
21450171300.0 -0.9893668003 -0.1839815819
21500171000.0 -0.9887607581 -0.1686497092
21550170700.0 -0.9899163843 -0.1531246805
21600170400.0 -0.9903528758 -0.1386056746
21650170100.0 -0.9909219302 -0.1218063827
21700169800.0 -0.990702604 -0.1073862637
21750169500.0 -0.9905050221 -0.0903852316
21800169200.0 -0.9896349251 -0.0754347948
21850168900.0 -0.9904351879 -0.0580035228
21900168600.0 -0.9902906078 -0.0417603415
21950168300.0 -0.9890827566 -0.02590483
22000168000.0 -0.9897214853 -0.0110351591
22050167700.0 -0.9902529246 0.003617976
22100167400.0 -0.9907947646 0.019501176
22150167100.0 -0.9918708016 0.0359513231
22200166800.0 -0.9919602498 0.0521924802
22250166500.0 -0.9917648249 0.0694692867
22300166200.0 -0.99070353 0.0855031942
22350165900.0 -0.9897029675 0.1024863868
22400165600.0 -0.9884170001 0.1178967482
22450165300.0 -0.9856774661 0.1336100505
22500165000.0 -0.9853359892 0.1467678302
22550164700.0 -0.983972282 0.1624323429
22600164400.0 -0.9815330842 0.1797717099
22650164100.0 -0.9789422802 0.195689465
22700163800.0 -0.9754408501 0.2116354336
22750163500.0 -0.9726329326 0.2261326369
22800163200.0 -0.9691041451 0.2392752206
22850162900.0 -0.9668347584 0.2528337949
22900162600.0 -0.9650539319 0.2665489055
22950162300.0 -0.9628213105 0.2803609381
23000162000.0 -0.9615505905 0.2930829136
23050161700.0 -0.9587820454 0.3064422468
23100161400.0 -0.9559361837 0.3205452537
23150161100.0 -0.9527430922 0.3332764309
23200160800.0 -0.9506313691 0.3454722326
23250160500.0 -0.9468424156 0.3580016247
23300160200.0 -0.9439013521 0.3714361725
23350159900.0 -0.9405219761 0.3850249004
23400159600.0 -0.9351575641 0.3985695085
23450159300.0 -0.9303926272 0.4123137657
23500159000.0 -0.9250749891 0.425879241
23550158700.0 -0.9198527766 0.4401587573
23600158400.0 -0.9141313388 0.4541796195
23650158100.0 -0.9067895488 0.468787911
23700157800.0 -0.8979611668 0.482966403
23750157500.0 -0.8883661478 0.4976001903
23800157200.0 -0.87894483 0.5110556331
23850156900.0 -0.8690654897 0.5243333551
23900156600.0 -0.8587749895 0.5363604408
23950156300.0 -0.8498830975 0.5489728885
24000156000.0 -0.839927219 0.5606752759
24050155700.0 -0.8293848948 0.5734486383
24100155400.0 -0.8187716696 0.5857512287
24150155100.0 -0.8083273619 0.5981829203
24200154800.0 -0.7969308167 0.6103413112
24250154500.0 -0.7858737698 0.6217723556
24300154200.0 -0.7739369818 0.6345019843
24350153900.0 -0.7621191484 0.6455991869
24400153600.0 -0.7495723085 0.6562786767
24450153300.0 -0.7375524263 0.6667232676
24500153000.0 -0.7255831322 0.6764288899
24550152700.0 -0.7142134474 0.6866847991
24600152400.0 -0.7021081626 0.6964260197
24650152100.0 -0.6906090109 0.7044868737
