!Created with skrf (http://scikit-rf.org).
# Hz S RI R 50.0 
!freq ReS11 ImS11
300000.0 -1.000693253 -0.0113174816
50299700.0 -0.9987172149 0.0161307226
100299400.0 -0.9968808481 0.0285126298
150299100.0 -1.001710528 0.0449981636
200298800.0 -0.9984176698 0.0583181445
250298500.0 -0.9959214468 0.0716723895
300298200.0 -0.984430941 0.0874894815
350297900.0 -0.9922985598 0.0980255854
400297600.0 -0.99154781 0.1145496403
450297300.0 -0.9891364978 0.1280244899
500297000.0 -0.9873658621 0.1426684488
550296700.0 -0.982420942 0.1548597355
600296400.0 -1.01497958 0.1880798605
650296100.0 -0.9800412967 0.1845187739
700295800.0 -0.9770983178 0.1985781471
750295500.0 -0.9739386112 0.2126231019
800295200.0 -0.9708819401 0.2265346788
850294900.0 -0.9674954121 0.2399855808
900294600.0 -0.9636446366 0.2537281637
950294300.0 -0.9600774706 0.2673137511
1000294000.0 -0.9562979321 0.2812140859
1050293700.0 -0.9519234292 0.2948211486
1100293400.0 -0.9476498569 0.3092583816
1150293100.0 -0.9436960472 0.3208920627
1200292800.0 -0.9386225983 0.3352557233
1250292500.0 -0.9330977823 0.3487778293
1300292200.0 -0.9276713415 0.3619136965
1350291900.0 -0.9224570442 0.3758846545
1400291600.0 -0.9169385838 0.3889568372
1450291300.0 -0.9116725297 0.401258162
1500291000.0 -0.9056658418 0.4146691755
1550290700.0 -0.8992791278 0.427826976
1600290400.0 -0.8931300934 0.4406660204
1650290100.0 -0.8867021023 0.4526039457
1700289800.0 -0.879915332 0.4662320729
1750289500.0 -0.8729810638 0.4784832963
1800289200.0 -0.865990323 0.4913465254
1850288900.0 -0.8591953949 0.5024493202
1900288600.0 -0.8515640483 0.5154196337
1950288300.0 -0.8436396669 0.5278566337
2000288000.0 -0.8362059323 0.5395458226
2050287700.0 -0.8281536602 0.5516211181
2100287400.0 -0.8204045227 0.5628833229
2150287100.0 -0.8118328407 0.5752255864
2200286800.0 -0.8042592384 0.5857866392
2250286500.0 -0.7956431181 0.5974478335
2300286200.0 -0.7868980254 0.6088346472
2350285900.0 -0.7782553709 0.6198498623
2400285600.0 -0.7690591711 0.6310906987
2450285300.0 -0.7603762832 0.6417492118
2500285000.0 -0.7511646446 0.6525045978
2550284700.0 -0.7417788267 0.6629634263
2600284400.0 -0.7321390253 0.6734177872
2650284100.0 -0.7235950348 0.6833674218
2700283800.0 -0.7134826995 0.6939599828
2750283500.0 -0.7031589962 0.704118735
2800283200.0 -0.6933251419 0.7137802613
2850282900.0 -0.6827482528 0.7241127859
2900282600.0 -0.6723031214 0.7334707099
2950282300.0 -0.6622342761 0.7426378888
3000282000.0 -0.6515649002 0.7522513209
3050281700.0 -0.6407158871 0.7614174507
3100281400.0 -0.6297916285 0.7702434209
3150281100.0 -0.6187833534 0.7791809783
3200280800.0 -0.607247609 0.7880128898
3250280500.0 -0.5961149962 0.7963875382
3300280200.0 -0.5845471421 0.8050764614
3350279900.0 -0.5733964431 0.8125258778
3400279600.0 -0.5613119574 0.820756737
3450279300.0 -0.5499325021 0.8283857484
3500279000.0 -0.5383351233 0.8358150145
3550278700.0 -0.5262150617 0.8431779517
3600278400.0 -0.5151592009 0.8500944145
3650278100.0 -0.5020164722 0.8580685959
3700277800.0 -0.490327489 0.8648443209
3750277500.0 -0.4781296582 0.871470329
3800277200.0 -0.4655143197 0.8780470761
3850276900.0 -0.453211985 0.884373907
3900276600.0 -0.4418114497 0.8905326474
3950276300.0 -0.4287751939 0.8967668682
4000276000.0 -0.4169258 0.9029010927
4050275700.0 -0.4033770453 0.9087165853
4100275400.0 -0.3918271098 0.9143185326
4150275100.0 -0.3788251593 0.9196550847
4200274800.0 -0.3651004041 0.9254621281
4250274500.0 -0.3530737666 0.9301594112
4300274200.0 -0.3399975209 0.9352659139
4350273900.0 -0.3264502083 0.9403878707
4400273600.0 -0.3132824841 0.9448413416
4450273300.0 -0.29902602 0.9494161284
4500273000.0 -0.2862424029 0.9534055017
4550272700.0 -0.2732477827 0.957364287
4600272400.0 -0.2580256086 0.9614968186
4650272100.0 -0.2457002949 0.9648517508
4700271800.0 -0.2324229399 0.9681056496
4750271500.0 -0.2190915134 0.9713525785
4800271200.0 -0.2056345749 0.9740137572
4850270900.0 -0.1918005837 0.9771409147
4900270600.0 -0.1784750159 0.9794330846
4950270300.0 -0.1652197704 0.9820464901
5000270000.0 -0.1510979722 0.9841551761
5050269700.0 -0.1375982596 0.9858531932
5100269400.0 -0.1231256067 0.9878110786
5150269100.0 -0.1095499241 0.9896129485
5200268800.0 -0.0958005068 0.9906715382
5250268500.0 -0.0827973411 0.9924395743
5300268200.0 -0.0688868305 0.9930562742
5350267900.0 -0.0562744247 0.9938976503
5400267600.0 -0.0404933327 0.9951411788
5450267300.0 -0.0282900824 0.9951173162
5500267000.0 -0.0140705329 0.9956251749
5550266700.0 -0.0009382777 0.9959056166
5600266400.0 0.0137118681 0.9959107326
5650266100.0 0.0290052702 0.9957200616
5700265800.0 0.0425525118 0.9950314703
5750265500.0 0.0564465871 0.9943930697
5800265200.0 0.0700337869 0.9933714224
5850264900.0 0.0832974405 0.9926273359
5900264600.0 0.0992134843 0.9913933947
5950264300.0 0.1113390112 0.9897716606
6000264000.0 0.1251317724 0.9881876432
6050263700.0 0.1377177749 0.9866022737
6100263400.0 0.1511637427 0.9848061214
6150263100.0 0.1667652224 0.9822221584
6200262800.0 0.1779896421 0.9804547016
6250262500.0 0.1911712873 0.978022208
6300262200.0 0.2039888924 0.9753057405
6350261900.0 0.2170991437 0.9724934123
6400261600.0 0.2317373828 0.9691225197
6450261300.0 0.2433537964 0.9661796777
6500261000.0 0.2567005644 0.9627359775
6550260700.0 0.2697230205 0.9588393621
6600260400.0 0.2827936243 0.9555103221
6650260100.0 0.2962781381 0.9512062594
6700259800.0 0.309024218 0.9472551487
6750259500.0 0.3218932779 0.9426765155
6800259200.0 0.3352447399 0.937999633
6850258900.0 0.347449002 0.9329206307
6900258600.0 0.3604422178 0.9283751451
6950258300.0 0.3734002995 0.9231750459
7000258000.0 0.3854658177 0.9181187278
7050257700.0 0.3971725099 0.9127986602
7100257400.0 0.4111521031 0.9065434748
7150257100.0 0.4220040769 0.9015630501
7200256800.0 0.4352805006 0.8955696543
7250256500.0 0.4466819239 0.8894440813
7300256200.0 0.4598066094 0.8830242359
7350255900.0 0.4713815666 0.8765901559
7400255600.0 0.4823390915 0.8708828654
7450255300.0 0.4962960184 0.8629787062
7500255000.0 0.5073062517 0.8559327825
7550254700.0 0.5193383907 0.8490335539
7600254400.0 0.5313626206 0.8418442851
7650254100.0 0.5429290015 0.8348508353
7700253800.0 0.5543023722 0.8271867324
7750253500.0 0.5657500614 0.8193110207
7800253200.0 0.5774108068 0.8110834092
7850252900.0 0.5868471862 0.8042411906
7900252600.0 0.5987165954 0.7954248197
7950252300.0 0.6086685162 0.7882457468
8000252000.0 0.6193633532 0.7798387068
8050251700.0 0.629796018 0.7716281595
8100251400.0 0.6397707952 0.7634227261
8150251100.0 0.650445432 0.7543136809
8200250800.0 0.6602426765 0.7461213799
8250250500.0 0.6702009005 0.7370150343
8300250200.0 0.6799206411 0.728034948
8350249900.0 0.68932356 0.7191118725
8400249600.0 0.6984328539 0.7105333945
8450249300.0 0.7085255141 0.7005395214
8500249000.0 0.7178626825 0.691115682
8550248700.0 0.7273140674 0.6810059914
8600248400.0 0.7366994754 0.6706638961
8650248100.0 0.7445605613 0.6612757532
8700247800.0 0.7541844215 0.6508361568
8750247500.0 0.762558834 0.6405668477
8800247200.0 0.7712337499 0.630250819
8850246900.0 0.7797348098 0.619183709
8900246600.0 0.7878867761 0.6084996734
8950246300.0 0.7968219351 0.5966898783
9000246000.0 0.8049425494 0.5860618694
9050245700.0 0.8125959102 0.5748214113
9100245400.0 0.8209815253 0.5630338851
9150245100.0 0.8288138908 0.5516839459
9200244800.0 0.836194366 0.5404162949
9250244500.0 0.8444270964 0.527798404
9300244200.0 0.8517028958 0.5162546126
9350243900.0 0.8592819272 0.5038406367
9400243600.0 0.8662704783 0.4916161532
9450243300.0 0.8722333864 0.4807058953
9500243000.0 0.8790584931 0.4683596424
9550242700.0 0.8853669772 0.4567867564
9600242400.0 0.8912158471 0.4451830731
9650242100.0 0.8966495393 0.4346531525
9700241800.0 0.9024062868 0.4233092263
9750241500.0 0.907966068 0.4112148384
9800241200.0 0.9135081839 0.3989391836
9850240900.0 0.9185642857 0.3867459446
9900240600.0 0.9231250292 0.3773247521
9950240300.0 0.9290747533 0.3631120782
10000240000.0 0.9341119956 0.3501223572
10050239700.0 0.9389474471 0.3368357301
10100239400.0 0.9438379754 0.3230725986
10150239100.0 0.9478101019 0.309877817
10200238800.0 0.9525031329 0.295608999
10250238500.0 0.9563020092 0.2824484624
10300238200.0 0.9600073544 0.2687844738
10350237900.0 0.9633540896 0.2557500002
10400237600.0 0.9667090166 0.24234783
10450237300.0 0.9702249012 0.228475928
10500237000.0 0.9728084664 0.2153523784
10550236700.0 0.9754873985 0.2018615103
10600236400.0 0.9781854016 0.1885159149
10650236100.0 0.9806456587 0.1732756485
10700235800.0 0.9826627156 0.1603869589
10750235500.0 0.9848379805 0.1476632312
10800235200.0 0.9874160447 0.1336120156
10850234900.0 0.9889598701 0.1197359334
10900234600.0 0.9908306462 0.1055601685
10950234300.0 0.992461402 0.0918777602
11000234000.0 0.9935131834 0.0780949882
11050233700.0 0.9947701052 0.0645264057
11100233400.0 0.9957318032 0.049475158
11150233100.0 0.9965750547 0.0350178808
11200232800.0 0.9977511029 0.021577074
11250232500.0 0.9979361945 0.0068892859
11300232200.0 0.9979285181 -0.008413923
11350231900.0 0.998262865 -0.0224341024
11400231600.0 0.99776546 -0.0371353832
11450231300.0 0.9969905942 -0.0505566234
11500231000.0 0.9966559957 -0.0652999255
11550230700.0 0.9954237283 -0.078471535
11600230400.0 0.9941279528 -0.0927015157
11650230100.0 0.9930012173 -0.1048789609
11700229800.0 0.9916003038 -0.1190311603
11750229500.0 0.9893511896 -0.1332401085
11800229200.0 0.9876709413 -0.1467048627
11850228900.0 0.9852131405 -0.1609710337
11900228600.0 0.9824593521 -0.1741042974
11950228300.0 0.9798078056 -0.1876108176
12000228000.0 0.9772906002 -0.1996911385
12050227700.0 0.9741538067 -0.2128756599
12100227400.0 0.9716145717 -0.2237352279
12150227100.0 0.9670037028 -0.2420422949
12200226800.0 0.9638774309 -0.254166925
12250226500.0 0.9599319516 -0.2670333685
12300226200.0 0.956515175 -0.2791831383
12350225900.0 0.9512709638 -0.2949429025
12400225600.0 0.9474427013 -0.3083349914
12450225300.0 0.9435744572 -0.3196337045
12500225000.0 0.9385184771 -0.3346865894
12550224700.0 0.9331967681 -0.348603714
12600224400.0 0.9289057453 -0.3605945688
12650224100.0 0.9230691209 -0.3749757795
12700223800.0 0.9177755477 -0.3877851442
12750223500.0 0.9121773053 -0.4010141336
12800223200.0 0.9066943325 -0.4138362008
12850222900.0 0.9008389767 -0.4267744609
12900222600.0 0.8950098897 -0.4382583198
12950222300.0 0.8886576652 -0.4525324057
13000222000.0 0.8825162663 -0.4641371394
13050221700.0 0.8756821949 -0.4765084466
13100221400.0 0.8690701562 -0.4881566761
13150221100.0 0.8620836704 -0.5011765969
13200220800.0 0.8550591404 -0.5132758272
13250220500.0 0.8480199107 -0.5253581691
13300220200.0 0.840405857 -0.5366726741
13350219900.0 0.8324285595 -0.5492015054
13400219600.0 0.8247396739 -0.5605575698
13450219300.0 0.8167777523 -0.5723638175
13500219000.0 0.8085356951 -0.5839549283
13550218700.0 0.7987012291 -0.5965166997
13600218400.0 0.7904133468 -0.6072387112
13650218100.0 0.7821272378 -0.6182508079
13700217800.0 0.772374222 -0.6299842341
13750217500.0 0.7627271471 -0.6412790593
13800217200.0 0.7538422327 -0.6524148086
13850216900.0 0.7431399757 -0.6646214507
13900216600.0 0.7334910389 -0.6736415949
13950216300.0 0.7234388173 -0.6845300868
14000216000.0 0.713587827 -0.6949796738
14050215700.0 0.7041574544 -0.7038504043
14100215400.0 0.6934328489 -0.7146711481
14150215100.0 0.6832704896 -0.7245132823
14200214800.0 0.6730371997 -0.7338253481
14250214500.0 0.6620988332 -0.7440287114
14300214200.0 0.6510529173 -0.7539856718
14350213900.0 0.6402055492 -0.7634837298
14400213600.0 0.6292987984 -0.7723594446
14450213300.0 0.6181520575 -0.7817927178
14500213000.0 0.6059617049 -0.7905559957
14550212700.0 0.5942334367 -0.7996376286
14600212400.0 0.5824789405 -0.8081059787
14650212100.0 0.5713317723 -0.8162039809
14700211800.0 0.5582742256 -0.82533342
14750211500.0 0.5458628676 -0.8339301233
14800211200.0 0.5334024219 -0.841722683
14850210900.0 0.5214530428 -0.8494467147
14900210600.0 0.5088563033 -0.8571810518
14950210300.0 0.4961329059 -0.8647606835
15000210000.0 0.483692493 -0.8718504735
15050209700.0 0.4707928106 -0.8788728389
15100209400.0 0.4580679015 -0.8857078372
15150209100.0 0.4459214932 -0.8916577876
15200208800.0 0.4320925714 -0.8977448701
15250208500.0 0.4198012265 -0.904378578
15300208200.0 0.4063137387 -0.9105531364
15350207900.0 0.3932094652 -0.9152666211
15400207600.0 0.3789891074 -0.9212329492
15450207300.0 0.3657685684 -0.9264457969
15500207000.0 0.3519941053 -0.9314533395
15550206700.0 0.3382010089 -0.9368800088
15600206400.0 0.3242586183 -0.9411072886
15650206100.0 0.3092470642 -0.9463177174
15700205800.0 0.2956369818 -0.9507912847
15750205500.0 0.2813440321 -0.9547892945
15800205200.0 0.2676284809 -0.9585965565
15850204900.0 0.2537447474 -0.9620848956
15900204600.0 0.2383172926 -0.9662288665
15950204300.0 0.2246825513 -0.9696313746
16000204000.0 0.2097239381 -0.9727266787
16050203700.0 0.1948650292 -0.9759264073
16100203400.0 0.1810703705 -0.9786424542
16150203100.0 0.1665009391 -0.9813856031
16200202800.0 0.1513214692 -0.9838611712
16250202500.0 0.136973794 -0.98526265
16300202200.0 0.121613307 -0.9879567458
16350201900.0 0.1064640689 -0.9893726713
16400201600.0 0.0916294983 -0.9909503717
16450201300.0 0.0769337988 -0.9920611096
16500201000.0 0.0614225859 -0.9932699391
16550200700.0 0.0463507001 -0.9942722587
16600200400.0 0.0312136703 -0.9949942552
16650200100.0 0.0157831405 -0.9952472534
16700199800.0 0.0016288852 -0.9954642532
16750199500.0 -0.0147401423 -0.9958218441
16800199200.0 -0.0290127258 -0.9955348695
16850198900.0 -0.0449664569 -0.9944134152
16900198600.0 -0.0597853328 -0.9936951498
16950198300.0 -0.0737153728 -0.9931715195
17000198000.0 -0.0882102567 -0.9912834214
17050197700.0 -0.102436684 -0.9902185872
17100197400.0 -0.1178606187 -0.9879582359
17150197100.0 -0.1320363704 -0.9864981465
17200196800.0 -0.1454365023 -0.984622711
17250196500.0 -0.1599435352 -0.9818485944
17300196200.0 -0.1739510414 -0.9795227363
17350195900.0 -0.1882035778 -0.9766362777
17400195600.0 -0.201893239 -0.9739867747
17450195300.0 -0.2156335308 -0.9709846696
17500195000.0 -0.2298147813 -0.9679313617
17550194700.0 -0.2438441201 -0.9643849326
17600194400.0 -0.2582780251 -0.9608638717
17650194100.0 -0.2724740185 -0.9566388832
17700193800.0 -0.2855625016 -0.9526063398
17750193500.0 -0.2997615536 -0.948545451
17800193200.0 -0.3135311802 -0.9441704768
17850192900.0 -0.3273208943 -0.9391276093
17900192600.0 -0.341574018 -0.9342645644
17950192300.0 -0.3562922966 -0.9279260201
18000192000.0 -0.3708302182 -0.9221529201
18050191700.0 -0.3852182334 -0.9154416762
18100191400.0 -0.3993589977 -0.9093085868
18150191100.0 -0.4131410509 -0.9025881711
18200190800.0 -0.4274070306 -0.895643503
18250190500.0 -0.4425752147 -0.8880041402
18300190200.0 -0.4568564615 -0.8813681368
18350189900.0 -0.471035763 -0.8744633651
18400189600.0 -0.4851510938 -0.8664930775
18450189300.0 -0.4987504373 -0.8594421412
18500189000.0 -0.5113594961 -0.8521982838
18550188700.0 -0.5248798271 -0.8442369655
18600188400.0 -0.537298482 -0.8363771161
18650188100.0 -0.5501299468 -0.8286034369
18700187800.0 -0.5618510651 -0.8208207418
18750187500.0 -0.5735277681 -0.8131499688
18800187200.0 -0.5850953521 -0.8048681104
18850186900.0 -0.5963113652 -0.7964998779
18900186600.0 -0.6070004204 -0.7882298542
18950186300.0 -0.618579768 -0.7794324141
19000186000.0 -0.628695954 -0.7712670461
19050185700.0 -0.6393905542 -0.7628820499
19100185400.0 -0.649806771 -0.7540494313
19150185100.0 -0.6607546137 -0.7442624396
19200184800.0 -0.6710633094 -0.7352762323
19250184500.0 -0.6806489839 -0.7252887412
19300184200.0 -0.6912022213 -0.7161719705
19350183900.0 -0.7023297501 -0.7064484549
19400183600.0 -0.712365622 -0.6956305468
19450183300.0 -0.7220108655 -0.684891949
19500183000.0 -0.731277115 -0.6740940289
19550182700.0 -0.7409795961 -0.6637711492
19600182400.0 -0.7501994171 -0.6523832309
19650182100.0 -0.7602711375 -0.6408088661
19700181800.0 -0.7698580323 -0.6290161342
19750181500.0 -0.7793894304 -0.6169427085
19800181200.0 -0.7889346644 -0.6042291145
19850180900.0 -0.7985239406 -0.5913500396
19900180600.0 -0.8063852028 -0.5794740126
19950180300.0 -0.8163986568 -0.5656650426
20000180000.0 -0.8225982788 -0.5559748578
20050179700.0 -0.8316337185 -0.5435500501
20100179400.0 -0.8398702806 -0.5300246503
20150179100.0 -0.8477056994 -0.5177440069
20200178800.0 -0.8552401469 -0.5053793447
20250178500.0 -0.8630456011 -0.4934164767
20300178200.0 -0.871259075 -0.480142127
20350177900.0 -0.8781006796 -0.4667841737
20400177600.0 -0.88617907 -0.453877866
20450177300.0 -0.8925256897 -0.4412228515
20500177000.0 -0.8994315731 -0.4279774832
20550176700.0 -0.9059070297 -0.4149771225
20600176400.0 -0.9120347805 -0.4020997499
20650176100.0 -0.9179694477 -0.3889941774
20700175800.0 -0.9243783799 -0.3762806552
20750175500.0 -0.9299122155 -0.3638424747
20800175200.0 -0.9346011663 -0.3521427794
20850174900.0 -0.9399017457 -0.3395044112
20900174600.0 -0.9436433268 -0.3258483631
20950174300.0 -0.948245702 -0.3138172199
21000174000.0 -0.9519387289 -0.3008818398
21050173700.0 -0.9544709782 -0.2886044317
21100173400.0 -0.9585128697 -0.2755559618
21150173100.0 -0.9625666818 -0.2620607875
21200172800.0 -0.9658242055 -0.2483933242
21250172500.0 -0.969406247 -0.235058581
21300172200.0 -0.9726898398 -0.2209497071
21350171900.0 -0.9752819632 -0.2073106293
21400171600.0 -0.9783827726 -0.1928606133
21450171300.0 -0.9803836517 -0.1787261239
21500171000.0 -0.982174889 -0.1635035661
21550170700.0 -0.984156888 -0.1487379231
21600170400.0 -0.9874298319 -0.1335981735
21650170100.0 -0.9888953242 -0.1197924632
21700169800.0 -0.9902193747 -0.1040056705
21750169500.0 -0.9894069168 -0.0882117301
21800169200.0 -0.9916447656 -0.0743625613
21850168900.0 -0.9933743327 -0.0587918706
21900168600.0 -0.9932572771 -0.0438827175
21950168300.0 -0.9928224952 -0.0285067406
22000168000.0 -0.9931586384 -0.0134591501
22050167700.0 -0.9932913511 0.0010803102
22100167400.0 -0.9931882172 0.0165746976
22150167100.0 -0.9931661912 0.0311781648
22200166800.0 -0.992900451 0.0457918204
22250166500.0 -0.9916435321 0.061056909
22300166200.0 -0.9908780318 0.0761040946
22350165900.0 -0.9907362411 0.0902973295
22400165600.0 -0.98865769 0.1054392461
22450165300.0 -0.9874364388 0.119123766
22500165000.0 -0.9854432808 0.1326772359
22550164700.0 -0.9832529716 0.147574138
22600164400.0 -0.9821682189 0.1627445136
22650164100.0 -0.9790576519 0.1746283511
22700163800.0 -0.9766681974 0.18834629
22750163500.0 -0.9742925943 0.2029635252
22800163200.0 -0.9713559131 0.215272377
22850162900.0 -0.9680866313 0.2285047377
22900162600.0 -0.9656227006 0.2418441401
22950162300.0 -0.96248263 0.2548873878
23000162000.0 -0.9594674827 0.267642821
23050161700.0 -0.9555106119 0.2812255467
23100161400.0 -0.9525381082 0.2950329616
23150161100.0 -0.9487894086 0.3070484519
23200160800.0 -0.9451584143 0.3201845462
23250160500.0 -0.9415175816 0.3323807053
23300160200.0 -0.9376164696 0.3464360348
23350159900.0 -0.9322986785 0.3601748862
23400159600.0 -0.9279825568 0.3719782999
23450159300.0 -0.923350297 0.3845795854
23500159000.0 -0.9186474619 0.3980848595
23550158700.0 -0.9136752283 0.4108508396
23600158400.0 -0.9081082319 0.4229667723
23650158100.0 -0.9022225833 0.4356347391
23700157800.0 -0.8956905716 0.4482088446
23750157500.0 -0.8887119375 0.461532896
23800157200.0 -0.8820650426 0.4737353941
23850156900.0 -0.8753949531 0.4857955473
23900156600.0 -0.8680109567 0.4979577226
23950156300.0 -0.8603447058 0.510289004
24000156000.0 -0.8529255777 0.5226485081
24050155700.0 -0.8442630419 0.5340545998
24100155400.0 -0.8371286848 0.5461329621
24150155100.0 -0.8290423062 0.5579357087
24200154800.0 -0.820400506 0.5689898724
24250154500.0 -0.8109922731 0.580658692
24300154200.0 -0.803151134 0.5918416182
24350153900.0 -0.7942744713 0.6029112428
24400153600.0 -0.7842620666 0.6138092537
24450153300.0 -0.774573671 0.6248524203
24500153000.0 -0.7655171147 0.6352923933
24550152700.0 -0.7557409634 0.6457920571
24600152400.0 -0.7458852861 0.656304734
24650152100.0 -0.7357307092 0.666409639
