!Created with skrf (http://scikit-rf.org).
# Hz S RI R 50.0 
!freq ReS11 ImS11
300000.0 -0.9758115474 -0.1164884577
50299700.0 -0.9999495591 0.0157207254
100299400.0 -0.9981174376 0.0284545092
150299100.0 -1.002889757 0.0452732882
200298800.0 -0.9995578646 0.0587089543
250298500.0 -0.9974019409 0.0721912215
300298200.0 -0.9860500867 0.0880861892
350297900.0 -0.9942076899 0.0988704007
400297600.0 -0.9932542589 0.1154882515
450297300.0 -0.9909672679 0.1293174827
500297000.0 -0.9893762163 0.1440190234
550296700.0 -0.9844173966 0.1565352168
600296400.0 -1.017327879 0.1896952763
650296100.0 -0.9823179129 0.1864878352
700295800.0 -0.9794184428 0.2009376716
750295500.0 -0.9763056816 0.2145191731
800295200.0 -0.973101022 0.2289977995
850294900.0 -0.969748203 0.242574349
900294600.0 -0.965741757 0.2562801429
950294300.0 -0.962133672 0.2700766008
1000294000.0 -0.9582225667 0.2839077917
1050293700.0 -0.9535350585 0.2978506
1100293400.0 -0.9493701845 0.3123405174
1150293100.0 -0.9453876802 0.3243490994
1200292800.0 -0.9401226997 0.3384746868
1250292500.0 -0.9346491082 0.351984528
1300292200.0 -0.9289970524 0.3652167477
1350291900.0 -0.9233664918 0.379162871
1400291600.0 -0.9177868979 0.3923157935
1450291300.0 -0.9124597903 0.4046045776
1500291000.0 -0.9062295647 0.4181785214
1550290700.0 -0.8995362114 0.4313774037
1600290400.0 -0.89352729 0.4441287932
1650290100.0 -0.8865881834 0.4565587868
1700289800.0 -0.8797348207 0.4699011095
1750289500.0 -0.872661575 0.4822734336
1800289200.0 -0.8654619177 0.4950776036
1850288900.0 -0.8585713848 0.5062136947
1900288600.0 -0.8510649805 0.5194401204
1950288300.0 -0.8426800161 0.5320861278
2000288000.0 -0.8353331467 0.5435172922
2050287700.0 -0.8271279165 0.5558243096
2100287400.0 -0.8190407781 0.5675309994
2150287100.0 -0.8104769784 0.5793662185
2200286800.0 -0.8027576689 0.5898723198
2250286500.0 -0.7940150162 0.6018732504
2300286200.0 -0.785163071 0.6135849378
2350285900.0 -0.7762130911 0.6246263103
2400285600.0 -0.7673492083 0.635446999
2450285300.0 -0.7585827234 0.6458473662
2500285000.0 -0.7490138617 0.657193043
2550284700.0 -0.7400401022 0.6674006808
2600284400.0 -0.730757411 0.6774150615
2650284100.0 -0.7215342585 0.6882057105
2700283800.0 -0.7110936248 0.6986878105
2750283500.0 -0.7007830123 0.7090669328
2800283200.0 -0.6909387367 0.7190778032
2850282900.0 -0.6806394432 0.7288762677
2900282600.0 -0.6704273497 0.7381871062
2950282300.0 -0.6600972675 0.7474743563
3000282000.0 -0.6494646441 0.7571485515
3050281700.0 -0.6381675899 0.7662265849
3100281400.0 -0.6263505761 0.77577884
3150281100.0 -0.6145022615 0.7850534268
3200280800.0 -0.6029149402 0.7934663947
3250280500.0 -0.5921159373 0.801471081
3300280200.0 -0.5809153393 0.8092252658
3350279900.0 -0.56929495 0.8167419904
3400279600.0 -0.5572186376 0.8243647512
3450279300.0 -0.5461037575 0.8312105053
3500279000.0 -0.534186334 0.8383621746
3550278700.0 -0.5216569916 0.8458190116
3600278400.0 -0.5093858344 0.8530300549
3650278100.0 -0.4961920029 0.8605408902
3700277800.0 -0.4839085081 0.8669625402
3750277500.0 -0.4718069647 0.8736976546
3800277200.0 -0.4594776271 0.8799419505
3850276900.0 -0.44730942 0.8863587501
3900276600.0 -0.4365369514 0.8916644943
3950276300.0 -0.4238827205 0.8974945803
4000276000.0 -0.4120476247 0.9038132008
4050275700.0 -0.3988542013 0.9099436756
4100275400.0 -0.3879667483 0.9152637508
4150275100.0 -0.3753252854 0.9207284344
4200274800.0 -0.3622944779 0.926369694
4250274500.0 -0.350039242 0.931445466
4300274200.0 -0.3369510087 0.9367439753
4350273900.0 -0.3233151757 0.9420227051
4400273600.0 -0.3083147114 0.9472653343
4450273300.0 -0.2928834482 0.9524898383
4500273000.0 -0.2794747001 0.9567658257
4550272700.0 -0.2652826367 0.9611367262
4600272400.0 -0.2497050321 0.9651498945
4650272100.0 -0.238035376 0.9683953602
4700271800.0 -0.2246900651 0.9717769285
4750271500.0 -0.2130365498 0.9746583307
4800271200.0 -0.2006190456 0.9772237369
4850270900.0 -0.1865412537 0.9801199464
4900270600.0 -0.1726684767 0.9824036348
4950270300.0 -0.1584159791 0.9849962605
5000270000.0 -0.1441218385 0.987054335
5050269700.0 -0.1307458119 0.9888847056
5100269400.0 -0.1172689056 0.9899968263
5150269100.0 -0.1038840446 0.9918378737
5200268800.0 -0.0905212628 0.9931015867
5250268500.0 -0.0774254235 0.9942943831
5300268200.0 -0.0644541426 0.9948594348
5350267900.0 -0.0522112966 0.9957675108
5400267600.0 -0.0361583847 0.9963088759
5450267300.0 -0.0228401485 0.9970285929
5500267000.0 -0.0075908066 0.9970790694
5550266700.0 0.0070933553 0.9973018296
5600266400.0 0.0226726209 0.9972921197
5650266100.0 0.039449815 0.99696916
5700265800.0 0.0537920876 0.9959448827
5750265500.0 0.0689818246 0.9954822235
5800265200.0 0.0830241741 0.9943010431
5850264900.0 0.096158194 0.9930145204
5900264600.0 0.1127872483 0.9919705397
5950264300.0 0.1250757085 0.9902164206
6000264000.0 0.1390036833 0.9882683719
6050263700.0 0.1517753041 0.987059476
6100263400.0 0.1637549194 0.9850221277
6150263100.0 0.1784277668 0.9824720893
6200262800.0 0.188745832 0.9808465926
6250262500.0 0.2014390591 0.9784416416
6300262200.0 0.2144348082 0.9754359301
6350261900.0 0.2273654135 0.972678977
6400261600.0 0.2413572265 0.9694410982
6450261300.0 0.2523959597 0.9665502219
6500261000.0 0.2654685973 0.9631414182
6550260700.0 0.2786323017 0.9594419336
6600260400.0 0.2917523858 0.9551245643
6650260100.0 0.3056708186 0.9507562841
6700259800.0 0.3176800802 0.9464486864
6750259500.0 0.3311850643 0.9413562335
6800259200.0 0.3445459682 0.9365968123
6850258900.0 0.3566264739 0.9314966886
6900258600.0 0.3686543798 0.9262574024
6950258300.0 0.3812724775 0.921138265
7000258000.0 0.3931805615 0.9153931001
7050257700.0 0.405382061 0.9096618794
7100257400.0 0.4180537877 0.9031929599
7150257100.0 0.4286247764 0.8979243337
7200256800.0 0.4413349957 0.8916202798
7250256500.0 0.4531469781 0.8852107206
7300256200.0 0.4661383532 0.8785209906
7350255900.0 0.4785920706 0.8717638811
7400255600.0 0.4920761326 0.8641894124
7450255300.0 0.5076013952 0.8553623452
7500255000.0 0.5188941519 0.8481589799
7550254700.0 0.5324937863 0.839729075
7600254400.0 0.5455867252 0.8314174344
7650254100.0 0.5567474431 0.8236620472
7700253800.0 0.5686747273 0.81547381
7750253500.0 0.5800135659 0.8078293582
7800253200.0 0.5907588141 0.800158698
7850252900.0 0.6004070947 0.7932169661
7900252600.0 0.6121588288 0.7843876004
7950252300.0 0.6208150493 0.7779785725
8000252000.0 0.6312798206 0.7702066682
8050251700.0 0.6413386818 0.7620321106
8100251400.0 0.6518721563 0.7538297441
8150251100.0 0.6614390879 0.745153411
8200250800.0 0.6712117089 0.7372498407
8250250500.0 0.6799221693 0.7293342858
8300250200.0 0.6891425827 0.7205894474
8350249900.0 0.6983375263 0.7120108833
8400249600.0 0.7064870246 0.703865124
8450249300.0 0.7157484549 0.6949247667
8500249000.0 0.7243467013 0.6857642068
8550248700.0 0.7325284168 0.6767777191
8600248400.0 0.7410567882 0.6674460183
8650248100.0 0.7487190215 0.6580220269
8700247800.0 0.7583363361 0.6467125239
8750247500.0 0.766525671 0.6366006735
8800247200.0 0.7748159925 0.6262527101
8850246900.0 0.783543162 0.6147996123
8900246600.0 0.7918788913 0.6034161178
8950246300.0 0.8015348975 0.5903340503
9000246000.0 0.8111913214 0.5776457104
9050245700.0 0.8199406179 0.5647279137
9100245400.0 0.8288042713 0.5519830961
9150245100.0 0.8381016039 0.5384711702
9200244800.0 0.8478173478 0.5230842369
9250244500.0 0.8573979368 0.5076119719
9300244200.0 0.8658814901 0.4929152285
9350243900.0 0.8733685485 0.4790543883
9400243600.0 0.8801496933 0.4667223544
9450243300.0 0.8861656472 0.4551127952
9500243000.0 0.8922628429 0.442874145
9550242700.0 0.8960396425 0.4354793715
9600242400.0 0.8996698615 0.4282455282
9650242100.0 0.9036497692 0.4215180671
9700241800.0 0.9082074115 0.4132280219
9750241500.0 0.9122232833 0.4059385599
9800241200.0 0.9168069168 0.3968041613
9850240900.0 0.9220409567 0.3852529155
9900240600.0 0.9282121016 0.3733890182
9950240300.0 0.9348991134 0.3570575322
10000240000.0 0.9392352582 0.3457437868
10050239700.0 0.9450425748 0.3302332691
10100239400.0 0.9496055347 0.3152772793
10150239100.0 0.9542374354 0.3003131886
10200238800.0 0.9583303208 0.2852272906
10250238500.0 0.9615589925 0.2719534935
10300238200.0 0.9647922177 0.2580560448
10350237900.0 0.9673594757 0.2449826185
10400237600.0 0.9700691919 0.2314602428
10450237300.0 0.9725958321 0.2183434615
10500237000.0 0.9747999704 0.2058430393
10550236700.0 0.9773104928 0.1915691352
10600236400.0 0.9791079639 0.1783867039
10650236100.0 0.9812673716 0.1637871974
10700235800.0 0.9834252703 0.151867182
10750235500.0 0.985847338 0.1383303034
10800235200.0 0.9877777478 0.1239909099
10850234900.0 0.9893439813 0.1093030666
10900234600.0 0.9918104581 0.0947586334
10950234300.0 0.9934975339 0.0813408925
11000234000.0 0.9952396787 0.0663460268
11050233700.0 0.9969764119 0.0499514841
11100233400.0 0.9984300142 0.0326630434
11150233100.0 0.9994180745 0.0161566061
11200232800.0 1.000351595 0.0013530017
11250232500.0 1.001430094 -0.0155106156
11300232200.0 1.001836967 -0.0336291887
11350231900.0 1.002129088 -0.0488305004
11400231600.0 1.001756188 -0.0641777068
11450231300.0 1.000805287 -0.0798788457
11500231000.0 0.9993474273 -0.0965963889
11550230700.0 0.9984973682 -0.1096504979
11600230400.0 0.9968097012 -0.1225926283
11650230100.0 0.9950681101 -0.1332922504
11700229800.0 0.9929660245 -0.1480186799
11750229500.0 0.9905207171 -0.162716623
11800229200.0 0.9879410035 -0.1769534484
11850228900.0 0.9843603263 -0.1890830267
11900228600.0 0.980802241 -0.19884579
11950228300.0 0.9776216207 -0.2087855758
12000228000.0 0.9749828201 -0.2182004779
12050227700.0 0.9715011082 -0.230481551
12100227400.0 0.9679042056 -0.2419534577
12150227100.0 0.962987828 -0.2582266138
12200226800.0 0.9596525953 -0.2689069794
12250226500.0 0.9556699608 -0.2823253009
12300226200.0 0.9512843721 -0.2945877358
12350225900.0 0.9466812169 -0.3074880757
12400225600.0 0.9424744674 -0.3205736465
12450225300.0 0.9377105358 -0.3335815054
12500225000.0 0.9319974013 -0.3489191863
12550224700.0 0.9268349886 -0.3625248103
12600224400.0 0.9217872163 -0.3754580188
12650224100.0 0.9163001511 -0.3897756843
12700223800.0 0.910867176 -0.4026995791
12750223500.0 0.9053225377 -0.4155834598
12800223200.0 0.900102463 -0.4281223923
12850222900.0 0.8945416122 -0.4402353152
12900222600.0 0.8888269438 -0.4522331053
12950222300.0 0.882566345 -0.4647272514
13000222000.0 0.8770501912 -0.4764384999
13050221700.0 0.8702940641 -0.4889037046
13100221400.0 0.8636206881 -0.5013774087
13150221100.0 0.8562653645 -0.5137858841
13200220800.0 0.8496362058 -0.5250476898
13250220500.0 0.8422044208 -0.5372661525
13300220200.0 0.8348075658 -0.5478403413
13350219900.0 0.8269060297 -0.5599379804
13400219600.0 0.818423675 -0.5720973888
13450219300.0 0.8088878951 -0.5856324177
13500219000.0 0.7989526396 -0.5996711028
13550218700.0 0.7887075081 -0.6124409726
13600218400.0 0.7781942678 -0.6252414503
13650218100.0 0.7688740869 -0.6358963208
13700217800.0 0.7577839065 -0.6481627494
13750217500.0 0.7468563454 -0.660316557
13800217200.0 0.7357676314 -0.6715479676
13850216900.0 0.7249883336 -0.6825166028
13900216600.0 0.7155607833 -0.6910595085
13950216300.0 0.7048153851 -0.7014636782
14000216000.0 0.6948644458 -0.7114043585
14050215700.0 0.6846432783 -0.7194537125
14100215400.0 0.6754948528 -0.7285994155
14150215100.0 0.6659823258 -0.7369644988
14200214800.0 0.6565842023 -0.7456299934
14250214500.0 0.6463878018 -0.7549856538
14300214200.0 0.6360928307 -0.7642613694
14350213900.0 0.6250462022 -0.7737155414
14400213600.0 0.613277487 -0.7838078969
14450213300.0 0.5999985783 -0.7940814847
14500213000.0 0.5868221709 -0.8034786896
14550212700.0 0.574354037 -0.8136069064
14600212400.0 0.5619939995 -0.8220377451
14650212100.0 0.5491184584 -0.8304170329
14700211800.0 0.5345893222 -0.8399113849
14750211500.0 0.5230028646 -0.8483398716
14800211200.0 0.5107252687 -0.8563058856
14850210900.0 0.4986446382 -0.8638770291
14900210600.0 0.4853202332 -0.871649134
14950210300.0 0.4718704337 -0.8794338511
15000210000.0 0.459056496 -0.8862048687
15050209700.0 0.4466347553 -0.8920095112
15100209400.0 0.434462284 -0.8983607394
15150209100.0 0.4217357761 -0.9038782607
15200208800.0 0.4084941165 -0.9088568508
15250208500.0 0.39791431 -0.9137163219
15300208200.0 0.3852898746 -0.9185927454
15350207900.0 0.3718461117 -0.9229971437
15400207600.0 0.3571242507 -0.9288690999
15450207300.0 0.3435035114 -0.9328560456
15500207000.0 0.3285932657 -0.9376584747
15550206700.0 0.3139964566 -0.9425336346
15600206400.0 0.2977467873 -0.9475891282
15650206100.0 0.281471874 -0.9518248869
15700205800.0 0.2674528116 -0.9553209241
15750205500.0 0.2529693538 -0.9590808181
15800205200.0 0.2386041177 -0.9621957044
15850204900.0 0.2241296363 -0.9657444705
15900204600.0 0.2092197579 -0.9693601395
15950204300.0 0.194953249 -0.9723162146
16000204000.0 0.1809667706 -0.9753685337
16050203700.0 0.1662704927 -0.9784903904
16100203400.0 0.1517861847 -0.9800898788
16150203100.0 0.137190053 -0.9825686462
16200202800.0 0.1229550807 -0.9846403717
16250202500.0 0.1083091822 -0.9861445048
16300202200.0 0.0932076867 -0.9875868866
16350201900.0 0.0780512127 -0.989196813
16400201600.0 0.0636772253 -0.9904375872
16450201300.0 0.0482748901 -0.991363774
16500201000.0 0.0318510996 -0.9920306954
16550200700.0 0.0161382853 -0.9926224973
16600200400.0 0.0004052707 -0.9926631552
16650200100.0 -0.0157388196 -0.9924789077
16700199800.0 -0.0321648124 -0.9919444197
16750199500.0 -0.0504317643 -0.9912793181
16800199200.0 -0.0663449792 -0.9908233146
16850198900.0 -0.0817929354 -0.989361103
16900198600.0 -0.0955285532 -0.988280963
16950198300.0 -0.1092797627 -0.9876196752
17000198000.0 -0.121698802 -0.9858103901
17050197700.0 -0.134940548 -0.9841360143
17100197400.0 -0.1472749883 -0.9816720828
17150197100.0 -0.16031043 -0.9805225302
17200196800.0 -0.1728856094 -0.978129098
17250196500.0 -0.1858622011 -0.9758026669
17300196200.0 -0.1978122982 -0.9734235823
17350195900.0 -0.2098658776 -0.971058509
17400195600.0 -0.2219915933 -0.968561531
17450195300.0 -0.2353149025 -0.9657402397
17500195000.0 -0.2486934479 -0.9622430989
17550194700.0 -0.2624610846 -0.9588436111
17600194400.0 -0.2763220176 -0.9547743307
17650194100.0 -0.2899109389 -0.9506655282
17700193800.0 -0.3029937837 -0.9466410416
17750193500.0 -0.317718147 -0.9419197992
17800193200.0 -0.3320026976 -0.9364363557
17850192900.0 -0.3476068019 -0.9311761016
17900192600.0 -0.3624555244 -0.9252408167
17950192300.0 -0.3777435275 -0.9179654692
18000192000.0 -0.3923239948 -0.9108971068
18050191700.0 -0.4064233082 -0.9028750906
18100191400.0 -0.4205439611 -0.8951846068
18150191100.0 -0.4355939837 -0.8870380407
18200190800.0 -0.4525875336 -0.8779494152
18250190500.0 -0.4694294308 -0.8682157777
18300190200.0 -0.4849493652 -0.8596278944
18350189900.0 -0.4999783974 -0.8512451885
18400189600.0 -0.5147898151 -0.8430651984
18450189300.0 -0.52729118 -0.8348122539
18500189000.0 -0.540810958 -0.8270083549
18550188700.0 -0.5532768961 -0.8193589407
18600188400.0 -0.5653446979 -0.8127048968
18650188100.0 -0.5763564996 -0.8063323537
18700187800.0 -0.5871848176 -0.7998162147
18750187500.0 -0.5974989644 -0.7931084793
18800187200.0 -0.6082301494 -0.7860368164
18850186900.0 -0.6183137006 -0.7792342646
18900186600.0 -0.6285905883 -0.7718895164
18950186300.0 -0.6387708904 -0.7643150753
19000186000.0 -0.6460016953 -0.7576969341
19050185700.0 -0.655332772 -0.7509428286
19100185400.0 -0.6650085385 -0.7425621958
19150185100.0 -0.6752522886 -0.734166405
19200184800.0 -0.6842930276 -0.7257255394
19250184500.0 -0.6954133321 -0.716036953
19300184200.0 -0.7065941081 -0.7064675913
19350183900.0 -0.7174214933 -0.6969206471
19400183600.0 -0.7270974041 -0.6871768961
19450183300.0 -0.736111171 -0.6776933423
19500183000.0 -0.7444106677 -0.6673520965
19550182700.0 -0.7538123618 -0.6564612505
19600182400.0 -0.764357433 -0.6446094844
19650182100.0 -0.7750752053 -0.632165071
19700181800.0 -0.7856628591 -0.618914433
19750181500.0 -0.7964276186 -0.6049612327
19800181200.0 -0.8065779187 -0.5899560992
19850180900.0 -0.8163788944 -0.5745830421
19900180600.0 -0.8242733234 -0.559869322
19950180300.0 -0.8334599323 -0.5433893476
20000180000.0 -0.8268698695 -0.5463803246
20050179700.0 -0.8350184994 -0.5324369392
20100179400.0 -0.842869569 -0.5192555244
20150179100.0 -0.8511133435 -0.506272292
20200178800.0 -0.8603251516 -0.4937443048
20250178500.0 -0.8699438255 -0.4802037839
20300178200.0 -0.87908569 -0.4655328627
20350177900.0 -0.8879477545 -0.4508471168
20400177600.0 -0.8967559521 -0.4364360303
20450177300.0 -0.9053274803 -0.4222261885
20500177000.0 -0.913236787 -0.408327697
20550176700.0 -0.9213404559 -0.3944205508
20600176400.0 -0.9285006079 -0.3816942841
20650176100.0 -0.9354262671 -0.3688985138
20700175800.0 -0.9422430211 -0.3577125544
20750175500.0 -0.947661217 -0.3454273207
20800175200.0 -0.9538568788 -0.3354400078
20850174900.0 -0.9571439129 -0.3237381544
20900174600.0 -0.9628165991 -0.3122800826
20950174300.0 -0.9662418503 -0.3007431808
21000174000.0 -0.9697617575 -0.2902837583
21050173700.0 -0.9733520477 -0.2790221338
21100173400.0 -0.9774018648 -0.2669599561
21150173100.0 -0.9804688482 -0.2536768096
21200172800.0 -0.9842451835 -0.2403478494
21250172500.0 -0.9874590897 -0.2266530019
21300172200.0 -0.9901861464 -0.2122371267
21350171900.0 -0.9917556395 -0.1979719443
21400171600.0 -0.9927877905 -0.1843921987
21450171300.0 -0.9934085729 -0.1688375436
21500171000.0 -0.9932004823 -0.1534068366
21550170700.0 -0.9930239041 -0.1391484813
21600170400.0 -0.9933890862 -0.1238143119
21650170100.0 -0.9920538233 -0.1068942486
21700169800.0 -0.9902421189 -0.0908904768
21750169500.0 -0.9894103991 -0.0758932433
21800169200.0 -0.98788956 -0.0595313642
21850168900.0 -0.9872105443 -0.0434973304
21900168600.0 -0.9854316529 -0.0257455424
21950168300.0 -0.9847317955 -0.0105939635
22000168000.0 -0.9829833445 0.0046909569
22050167700.0 -0.9829588061 0.018403096
22100167400.0 -0.9827958632 0.0340047214
22150167100.0 -0.983420769 0.0494353522
22200166800.0 -0.9838608064 0.0658964716
22250166500.0 -0.9836278467 0.0828571212
22300166200.0 -0.9832272552 0.0993655764
22350165900.0 -0.9818633229 0.1159671869
22400165600.0 -0.9798751358 0.1327343903
22450165300.0 -0.9779778239 0.1465983466
22500165000.0 -0.9759632543 0.1597256175
22550164700.0 -0.9745928284 0.1753595445
22600164400.0 -0.9728092177 0.1911398368
22650164100.0 -0.9712834883 0.2058514351
22700163800.0 -0.9684646461 0.2218984201
22750163500.0 -0.9660441807 0.2367074862
22800163200.0 -0.9627952157 0.250280868
22850162900.0 -0.9609109558 0.2638846303
22900162600.0 -0.9593625029 0.2772518411
22950162300.0 -0.9582441267 0.2894393949
23000162000.0 -0.9570704661 0.3014447936
23050161700.0 -0.9553386725 0.3137730483
23100161400.0 -0.9529912163 0.3272421746
23150161100.0 -0.9501714954 0.338991092
23200160800.0 -0.9476151458 0.3513357584
23250160500.0 -0.9446516322 0.3627476864
23300160200.0 -0.9421186715 0.3751128614
23350159900.0 -0.9381240313 0.3880160134
23400159600.0 -0.9327269768 0.4017364735
23450159300.0 -0.9291424581 0.4149682899
23500159000.0 -0.9240127596 0.4278843568
23550158700.0 -0.9194050641 0.4407794979
23600158400.0 -0.9142434805 0.4539645637
23650158100.0 -0.90796327 0.468375106
23700157800.0 -0.9004491173 0.4818962065
23750157500.0 -0.891726033 0.4963800053
23800157200.0 -0.8829100748 0.509636984
23850156900.0 -0.8742251384 0.5224058544
23900156600.0 -0.8645749048 0.5341853221
23950156300.0 -0.8560586917 0.5470556807
24000156000.0 -0.8468242034 0.5586658921
24050155700.0 -0.8368443881 0.5710036437
24100155400.0 -0.8265499443 0.5825891928
24150155100.0 -0.81587305 0.5939034887
24200154800.0 -0.8053238652 0.6052524459
24250154500.0 -0.7929772277 0.6178650484
24300154200.0 -0.7819430617 0.6286225165
24350153900.0 -0.7701283937 0.6393659133
24400153600.0 -0.7580806622 0.6493629736
24450153300.0 -0.745937693 0.659612154
24500153000.0 -0.7345059154 0.669175232
24550152700.0 -0.723108987 0.6786805413
24600152400.0 -0.7117744726 0.68775865
24650152100.0 -0.7004818927 0.6960370759
