!Created with skrf (http://scikit-rf.org).
# Hz S RI R 50.0 
!freq ReS11 ImS11
300000.0 -0.9805582129 -0.1037630259
50299700.0 -1.000181226 0.0163656337
100299400.0 -0.9980364906 0.0291226585
150299100.0 -1.002817895 0.0461473834
200298800.0 -0.9995717849 0.0593896442
250298500.0 -0.9974351311 0.0726090059
300298200.0 -0.9860224348 0.0886845539
350297900.0 -0.9940447646 0.0995691908
400297600.0 -0.9932238343 0.1161833024
450297300.0 -0.9909514416 0.1299790457
500297000.0 -0.989479012 0.1446970614
550296700.0 -0.984428172 0.1572160997
600296400.0 -1.017243566 0.1904552159
650296100.0 -0.9821091072 0.1870984243
700295800.0 -0.9790978924 0.2012641614
750295500.0 -0.9761711005 0.2153764008
800295200.0 -0.9726582232 0.2294336082
850294900.0 -0.96926523 0.2432275962
900294600.0 -0.9654144369 0.2572131738
950294300.0 -0.9619808721 0.2705424355
1000294000.0 -0.9578125496 0.2848051132
1050293700.0 -0.9531650448 0.2987943806
1100293400.0 -0.9490336654 0.3128479871
1150293100.0 -0.9450139285 0.3248404629
1200292800.0 -0.9398064609 0.3392176399
1250292500.0 -0.9345088229 0.3525402842
1300292200.0 -0.928579985 0.3658335901
1350291900.0 -0.9229978667 0.3799950319
1400291600.0 -0.9173227962 0.392969182
1450291300.0 -0.9121459715 0.4053551809
1500291000.0 -0.9059605876 0.4185340659
1550290700.0 -0.8991949301 0.4319094044
1600290400.0 -0.8930072832 0.4446867507
1650290100.0 -0.8863063594 0.4568438353
1700289800.0 -0.8795622891 0.4706909187
1750289500.0 -0.8725079818 0.4827444447
1800289200.0 -0.8649863292 0.4955489283
1850288900.0 -0.8584262095 0.5068087662
1900288600.0 -0.8506702064 0.520061866
1950288300.0 -0.8424768404 0.5324939102
2000288000.0 -0.834907444 0.5438348279
2050287700.0 -0.8265690664 0.5561911857
2100287400.0 -0.8186524674 0.5677989931
2150287100.0 -0.8100543719 0.5801076175
2200286800.0 -0.8023872025 0.5902830022
2250286500.0 -0.7933644291 0.6023166768
2300286200.0 -0.7844235287 0.6139438367
2350285900.0 -0.7758514053 0.6250354725
2400285600.0 -0.7666543845 0.6361156257
2450285300.0 -0.75806622 0.6463906659
2500285000.0 -0.7482633797 0.6575393965
2550284700.0 -0.7394241962 0.6679636558
2600284400.0 -0.7300356331 0.6780790638
2650284100.0 -0.7209508566 0.6885455401
2700283800.0 -0.7104070718 0.6992671526
2750283500.0 -0.6998752244 0.7098347531
2800283200.0 -0.6901240952 0.7194078487
2850282900.0 -0.6800338829 0.7293872159
2900282600.0 -0.6696933042 0.7388292401
2950282300.0 -0.659575089 0.7479096057
3000282000.0 -0.6488456227 0.7574477014
3050281700.0 -0.637794064 0.7666954953
3100281400.0 -0.6258095088 0.7760792641
3150281100.0 -0.6139168233 0.7854063367
3200280800.0 -0.6023975642 0.7939231713
3250280500.0 -0.5916542661 0.801577706
3300280200.0 -0.580445075 0.8094741353
3350279900.0 -0.5688259526 0.8168484875
3400279600.0 -0.5567719726 0.8247424621
3450279300.0 -0.5455862295 0.8315604307
3500279000.0 -0.5336175281 0.8389854836
3550278700.0 -0.5212772433 0.8463062005
3600278400.0 -0.5090576797 0.8534082902
3650278100.0 -0.4955952791 0.8609263447
3700277800.0 -0.4836227163 0.8672917412
3750277500.0 -0.4715668987 0.8738518474
3800277200.0 -0.4589771559 0.8803103968
3850276900.0 -0.4467543238 0.8864983301
3900276600.0 -0.4358398609 0.8921008988
3950276300.0 -0.4233595183 0.8981321578
4000276000.0 -0.4112845952 0.9040192032
4050275700.0 -0.3980329336 0.9102521092
4100275400.0 -0.3870104729 0.915384892
4150275100.0 -0.3741858419 0.9211709723
4200274800.0 -0.3614045212 0.9266223814
4250274500.0 -0.348979785 0.9316310247
4300274200.0 -0.3359984314 0.937257851
4350273900.0 -0.3222540027 0.9422894796
4400273600.0 -0.3074109813 0.9475060488
4450273300.0 -0.2920869379 0.9526230314
4500273000.0 -0.278290293 0.956972895
4550272700.0 -0.264202683 0.9613275065
4600272400.0 -0.2488153114 0.9652841126
4650272100.0 -0.2368791009 0.9686279821
4700271800.0 -0.2235268311 0.9719072796
4750271500.0 -0.2119279144 0.9748032717
4800271200.0 -0.1993550255 0.9775137977
4850270900.0 -0.1856181176 0.9803350003
4900270600.0 -0.1716824556 0.9826524033
4950270300.0 -0.1575508959 0.9853237096
5000270000.0 -0.1432255011 0.9872831069
5050269700.0 -0.1297978543 0.9884725937
5100269400.0 -0.1162381007 0.990719522
5150269100.0 -0.1031612495 0.9921059212
5200268800.0 -0.0896440257 0.992976681
5250268500.0 -0.0763911596 0.9942419547
5300268200.0 -0.0635756387 0.9946788531
5350267900.0 -0.0514079895 0.995453281
5400267600.0 -0.0351302872 0.99650128
5450267300.0 -0.0222276002 0.9967283732
5500267000.0 -0.007198508 0.9969910079
5550266700.0 0.0079841268 0.9973193877
5600266400.0 0.0234914462 0.9973393618
5650266100.0 0.0399655449 0.9968840437
5700265800.0 0.0543939438 0.995792912
5750265500.0 0.0695896418 0.9956049142
5800265200.0 0.0836879403 0.9943995795
5850264900.0 0.0969435314 0.9934624459
5900264600.0 0.1135707974 0.9914387971
5950264300.0 0.1259694485 0.9899135869
6000264000.0 0.1394107897 0.9880621638
6050263700.0 0.1522880589 0.9861948043
6100263400.0 0.1646759058 0.9848216109
6150263100.0 0.1794864803 0.982269486
6200262800.0 0.1897703369 0.980523347
6250262500.0 0.2025298496 0.9778144528
6300262200.0 0.2154937554 0.9751587955
6350261900.0 0.2285348489 0.9722324847
6400261600.0 0.2422894612 0.9689167608
6450261300.0 0.2538502787 0.966207368
6500261000.0 0.2666350184 0.9625829394
6550260700.0 0.2794531619 0.9586864902
6600260400.0 0.2928401308 0.9545246306
6650260100.0 0.306770118 0.9501179113
6700259800.0 0.318851007 0.9460952055
6750259500.0 0.3325389185 0.9410020231
6800259200.0 0.3452759007 0.9358992418
6850258900.0 0.3575128112 0.9307974248
6900258600.0 0.3696822005 0.9259678992
6950258300.0 0.3822021888 0.9208683056
7000258000.0 0.394240811 0.9154168183
7050257700.0 0.4065469158 0.9093220058
7100257400.0 0.4191563549 0.9029560806
7150257100.0 0.4293164822 0.897638754
7200256800.0 0.442416035 0.8914483455
7250256500.0 0.4541287293 0.8849791633
7300256200.0 0.4669014143 0.8781329711
7350255900.0 0.4793903864 0.8713632192
7400255600.0 0.4922927727 0.8640924899
7450255300.0 0.5077069731 0.855071179
7500255000.0 0.5192107374 0.8482703732
7550254700.0 0.5334008044 0.8395974874
7600254400.0 0.545850288 0.8311976176
7650254100.0 0.557321645 0.8234929412
7700253800.0 0.5691614218 0.8153921029
7750253500.0 0.5805282434 0.8074597328
7800253200.0 0.5911592978 0.7997969372
7850252900.0 0.6009344467 0.7927009635
7900252600.0 0.6126789369 0.7838729933
7950252300.0 0.6214813535 0.7772827277
8000252000.0 0.631641938 0.7696311621
8050251700.0 0.6420429237 0.7612683165
8100251400.0 0.6522292583 0.7528852872
8150251100.0 0.6626154742 0.7442978749
8200250800.0 0.6719242342 0.7363748577
8250250500.0 0.6808119408 0.7280571683
8300250200.0 0.6898991469 0.7196741292
8350249900.0 0.6993188912 0.7107577579
8400249600.0 0.7077800406 0.7028125301
8450249300.0 0.7167611917 0.693524556
8500249000.0 0.7255119822 0.6849894383
8550248700.0 0.7334239421 0.675635871
8600248400.0 0.741898245 0.6662075998
8650248100.0 0.7497236978 0.6568269641
8700247800.0 0.7591326958 0.6458770591
8750247500.0 0.7674361433 0.6355321857
8800247200.0 0.7756866888 0.6255454769
8850246900.0 0.7841857507 0.6141024931
8900246600.0 0.7926773853 0.6026968706
8950246300.0 0.8023547948 0.5897989159
9000246000.0 0.8119559758 0.576917065
9050245700.0 0.8202368049 0.564134954
9100245400.0 0.8287532463 0.5515553046
9150245100.0 0.8385448621 0.5379171461
9200244800.0 0.8482702546 0.5226980675
9250244500.0 0.8578600902 0.5068668834
9300244200.0 0.8662345743 0.4925470095
9350243900.0 0.8739639832 0.4784027859
9400243600.0 0.8806287139 0.4658109792
9450243300.0 0.8865260389 0.4540426985
9500243000.0 0.8928229448 0.4416669885
9550242700.0 0.8965432712 0.4338468049
9600242400.0 0.9006197932 0.4262960139
9650242100.0 0.9040628453 0.4197561771
9700241800.0 0.9085958538 0.4114149282
9750241500.0 0.9126118315 0.403750313
9800241200.0 0.9173204547 0.3947358563
9850240900.0 0.9229197832 0.3831508918
9900240600.0 0.9283216216 0.3713731479
9950240300.0 0.9348413675 0.3553458166
10000240000.0 0.9391131443 0.3436538155
10050239700.0 0.9447218314 0.3288522647
10100239400.0 0.9500494355 0.3130795158
10150239100.0 0.9541941583 0.2985200709
10200238800.0 0.9584729506 0.283568586
10250238500.0 0.9618630716 0.270104021
10300238200.0 0.9650330543 0.2563034677
10350237900.0 0.967619313 0.2431187711
10400237600.0 0.9702136315 0.2299988146
10450237300.0 0.9726709033 0.216795043
10500237000.0 0.9749440177 0.2047143083
10550236700.0 0.977055644 0.1910299325
10600236400.0 0.9794601155 0.1771260575
10650236100.0 0.9815463828 0.1627297711
10700235800.0 0.9839044728 0.1502245952
10750235500.0 0.9860905277 0.1372085506
10800235200.0 0.9877370849 0.1231989293
10850234900.0 0.989665195 0.1086507189
10900234600.0 0.9918350069 0.0941193796
10950234300.0 0.993470694 0.0810320184
11000234000.0 0.9951907741 0.0659978049
11050233700.0 0.9969586951 0.0495273609
11100233400.0 0.9983369584 0.0324843442
11150233100.0 0.9991882387 0.0162864704
11200232800.0 0.9999711835 0.0008985596
11250232500.0 1.000686102 -0.0159372854
11300232200.0 1.00158637 -0.0336246673
11350231900.0 1.001477624 -0.0488278407
11400231600.0 1.001793344 -0.0645711676
11450231300.0 1.000736305 -0.0792402185
11500231000.0 0.9990854974 -0.0972127483
11550230700.0 0.998042502 -0.1114668825
11600230400.0 0.9967419339 -0.1240784845
11650230100.0 0.9944906569 -0.1351129473
11700229800.0 0.992311521 -0.1491733038
11750229500.0 0.9900692062 -0.1646556711
11800229200.0 0.9872390171 -0.1783982687
11850228900.0 0.9836943034 -0.1906612158
11900228600.0 0.9802919408 -0.2007383223
11950228300.0 0.9771110942 -0.2111265651
12000228000.0 0.9739871955 -0.220915811
12050227700.0 0.9706431977 -0.2330565603
12100227400.0 0.9676720649 -0.2442144743
12150227100.0 0.96226814 -0.260307318
12200226800.0 0.9592704004 -0.2712460773
12250226500.0 0.9549624579 -0.2837035097
12300226200.0 0.9504451783 -0.2965609171
12350225900.0 0.9456975508 -0.3099573858
12400225600.0 0.9415398817 -0.322996109
12450225300.0 0.937408418 -0.3352706917
12500225000.0 0.9315512906 -0.3493824048
12550224700.0 0.9262133926 -0.3634323816
12600224400.0 0.9217823816 -0.3761637962
12650224100.0 0.9158656328 -0.3904012345
12700223800.0 0.9106146962 -0.403119827
12750223500.0 0.9051133481 -0.4159988311
12800223200.0 0.8995348097 -0.4288159463
12850222900.0 0.894603033 -0.4403414812
12900222600.0 0.8887097487 -0.452786258
12950222300.0 0.8822565131 -0.4659918238
13000222000.0 0.8760428961 -0.4774050732
13050221700.0 0.8693089349 -0.4903659282
13100221400.0 0.862935804 -0.501925856
13150221100.0 0.8560685061 -0.5144927661
13200220800.0 0.8488658293 -0.525991895
13250220500.0 0.8412226466 -0.5385347471
13300220200.0 0.8338261331 -0.5491826063
13350219900.0 0.8257863033 -0.5612902123
13400219600.0 0.8172899805 -0.5734794214
13450219300.0 0.8076370539 -0.587113639
13500219000.0 0.7977889849 -0.6009761669
13550218700.0 0.7872594378 -0.6141695174
13600218400.0 0.7769965619 -0.6260671848
13650218100.0 0.767689231 -0.6374063004
13700217800.0 0.7561879136 -0.6503165031
13750217500.0 0.746167096 -0.6616783285
13800217200.0 0.734188737 -0.6733019615
13850216900.0 0.7234919557 -0.685302565
13900216600.0 0.7136347907 -0.693357911
13950216300.0 0.7021856933 -0.7031336436
14000216000.0 0.69302602 -0.7124473578
14050215700.0 0.6832146917 -0.7210539853
14100215400.0 0.6738297346 -0.7299416418
14150215100.0 0.6645806237 -0.7381919169
14200214800.0 0.655486639 -0.7467816515
14250214500.0 0.6453272278 -0.7559245051
14300214200.0 0.6349065793 -0.7652189874
14350213900.0 0.623828304 -0.7747436004
14400213600.0 0.6119461252 -0.784368637
14450213300.0 0.5991438945 -0.7941666811
14500213000.0 0.5858535343 -0.8042680084
14550212700.0 0.5732705423 -0.8137904259
14600212400.0 0.5610630071 -0.822045489
14650212100.0 0.5486592946 -0.8310690296
14700211800.0 0.5342459296 -0.840362469
14750211500.0 0.5220064371 -0.8484873342
14800211200.0 0.5096651305 -0.8566177451
14850210900.0 0.4976844652 -0.8642308147
14900210600.0 0.4842667308 -0.8720119436
14950210300.0 0.4706687396 -0.8796609995
15000210000.0 0.4577830894 -0.8865109567
15050209700.0 0.4456175157 -0.8925988185
15100209400.0 0.4327117507 -0.8987596354
15150209100.0 0.420249268 -0.9040777458
15200208800.0 0.4066488838 -0.9095694491
15250208500.0 0.3958335815 -0.9145983953
15300208200.0 0.3828532571 -0.918990742
15350207900.0 0.3701668298 -0.9240488624
15400207600.0 0.355371216 -0.9289361971
15450207300.0 0.3403481784 -0.9345626679
15500207000.0 0.3256757185 -0.9391003952
15550206700.0 0.3113883394 -0.9434536446
15600206400.0 0.2945260835 -0.9484220121
15650206100.0 0.2794009199 -0.9527925026
15700205800.0 0.2651383115 -0.956190802
15750205500.0 0.2508561343 -0.9594711178
15800205200.0 0.2365177698 -0.9629609699
15850204900.0 0.2222291267 -0.9663605602
15900204600.0 0.207267576 -0.9700042219
15950204300.0 0.193310979 -0.9728839626
16000204000.0 0.1790981059 -0.9753526739
16050203700.0 0.1646716847 -0.9780806731
16100203400.0 0.1508225795 -0.9807910686
16150203100.0 0.1360650528 -0.9828186619
16200202800.0 0.1220305529 -0.9849895244
16250202500.0 0.1077602802 -0.9863901284
16300202200.0 0.0923549089 -0.987682677
16350201900.0 0.0771993745 -0.9889373563
16400201600.0 0.0629763287 -0.9902151792
16450201300.0 0.0475646501 -0.9911362037
16500201000.0 0.0311673418 -0.9919887861
16550200700.0 0.0153069543 -0.9925407819
16600200400.0 -0.0002980607 -0.9925733551
16650200100.0 -0.0169925054 -0.9925238602
16700199800.0 -0.033251943 -0.9924307641
16750199500.0 -0.0521384903 -0.9916377771
16800199200.0 -0.0682261741 -0.9901904493
16850198900.0 -0.0836746406 -0.9891063037
16900198600.0 -0.0969653696 -0.988716808
16950198300.0 -0.1107834436 -0.9870456069
17000198000.0 -0.1238334692 -0.9856295624
17050197700.0 -0.1362465047 -0.983442665
17100197400.0 -0.1491649469 -0.981635035
17150197100.0 -0.1623074521 -0.9792355442
17200196800.0 -0.1746846409 -0.9771673686
17250196500.0 -0.1876423024 -0.9748698178
17300196200.0 -0.1996522229 -0.9727788141
17350195900.0 -0.2117414791 -0.970427897
17400195600.0 -0.2239230618 -0.9680457681
17450195300.0 -0.2370582253 -0.9652649002
17500195000.0 -0.2507200436 -0.9618101201
17550194700.0 -0.2647023518 -0.9581051512
17600194400.0 -0.2785464214 -0.9542430886
17650194100.0 -0.291768377 -0.9498124761
17700193800.0 -0.3049351478 -0.9458910619
17750193500.0 -0.3193188404 -0.9415616903
17800193200.0 -0.3335640984 -0.9358095299
17850192900.0 -0.3482857646 -0.9305290295
17900192600.0 -0.3636103282 -0.9244537532
17950192300.0 -0.3791431793 -0.9175395759
18000192000.0 -0.393649858 -0.9102604905
18050191700.0 -0.4074292691 -0.9024122046
18100191400.0 -0.4215910688 -0.8946878973
18150191100.0 -0.4364019022 -0.8866685182
18200190800.0 -0.4533902798 -0.8775368335
18250190500.0 -0.470220404 -0.8678814204
18300190200.0 -0.4853544633 -0.8590663124
18350189900.0 -0.5004690529 -0.8507070304
18400189600.0 -0.5150789125 -0.8425276996
18450189300.0 -0.5283778597 -0.8347045718
18500189000.0 -0.5415350538 -0.8264585718
18550188700.0 -0.5543749573 -0.8188502439
18600188400.0 -0.5655523132 -0.8116129944
18650188100.0 -0.5772611665 -0.8052304664
18700187800.0 -0.5878955184 -0.7989591127
18750187500.0 -0.598967062 -0.7919730852
18800187200.0 -0.6095156678 -0.7848735245
18850186900.0 -0.6200415964 -0.7775825521
18900186600.0 -0.6303242457 -0.7701200689
18950186300.0 -0.6405290806 -0.7623659452
19000186000.0 -0.6480900289 -0.7560705657
19050185700.0 -0.6572456182 -0.7487160365
19100185400.0 -0.6676395779 -0.7398280669
19150185100.0 -0.6775297716 -0.7311482237
19200184800.0 -0.6869030216 -0.7231760626
19250184500.0 -0.6976437769 -0.7140198287
19300184200.0 -0.709135285 -0.7042576205
19350183900.0 -0.7195321336 -0.694603246
19400183600.0 -0.7292315395 -0.6848528261
19450183300.0 -0.738134265 -0.6748623129
19500183000.0 -0.7456974202 -0.6646981795
19550182700.0 -0.7557762134 -0.6538951309
19600182400.0 -0.7660932437 -0.6425669883
19650182100.0 -0.7771420364 -0.6299660873
19700181800.0 -0.7872987403 -0.6168650706
19750181500.0 -0.7977980027 -0.6026886905
19800181200.0 -0.8078700134 -0.5879713498
19850180900.0 -0.8175219956 -0.5726718254
19900180600.0 -0.8251189669 -0.558382906
19950180300.0 -0.833898298 -0.5421559288
20000180000.0 -0.8273105082 -0.5442165784
20050179700.0 -0.8356460796 -0.5312199406
20100179400.0 -0.8439991753 -0.5176431449
20150179100.0 -0.851893552 -0.5045520591
20200178800.0 -0.8615436026 -0.4916268266
20250178500.0 -0.8706148174 -0.4790820198
20300178200.0 -0.8789678988 -0.4642637759
20350177900.0 -0.8884699667 -0.4495949412
20400177600.0 -0.8972059869 -0.4351807568
20450177300.0 -0.9056566778 -0.4209323178
20500177000.0 -0.9131278689 -0.4067309139
20550176700.0 -0.9212202723 -0.3929955337
20600176400.0 -0.9284730625 -0.380003532
20650176100.0 -0.9347660087 -0.3676441709
20700175800.0 -0.9417293253 -0.3553334883
20750175500.0 -0.9482621507 -0.3434395096
20800175200.0 -0.9536871361 -0.3326552784
20850174900.0 -0.9582140062 -0.3212210497
20900174600.0 -0.9619451019 -0.3097709723
20950174300.0 -0.9666079058 -0.2974414949
21000174000.0 -0.9705127384 -0.2860356078
21050173700.0 -0.9725022112 -0.274685347
21100173400.0 -0.977600809 -0.2625106336
21150173100.0 -0.9815990339 -0.2500527819
21200172800.0 -0.985162589 -0.235946159
21250172500.0 -0.9884480295 -0.2227066034
21300172200.0 -0.9910402655 -0.2084959845
21350171900.0 -0.9925974912 -0.1942430019
21400171600.0 -0.9938839423 -0.1795863888
21450171300.0 -0.9932518278 -0.165295366
21500171000.0 -0.9939515253 -0.1495455989
21550170700.0 -0.9938111909 -0.1351212668
21600170400.0 -0.9937822271 -0.1186570076
21650170100.0 -0.9923719491 -0.1036533671
21700169800.0 -0.990607728 -0.0874911078
21750169500.0 -0.9898539821 -0.0726258094
21800169200.0 -0.9887382404 -0.0562247074
21850168900.0 -0.9869046921 -0.0407646217
21900168600.0 -0.9857048374 -0.0236880219
21950168300.0 -0.9839507773 -0.0080026006
22000168000.0 -0.9824364077 0.0071953125
22050167700.0 -0.9820965038 0.0211188999
22100167400.0 -0.982113247 0.0360972647
22150167100.0 -0.9828625196 0.0514284628
22200166800.0 -0.983166907 0.0676125099
22250166500.0 -0.9818938653 0.0848285016
22300166200.0 -0.9819134715 0.1010344175
22350165900.0 -0.9793589039 0.1181487868
22400165600.0 -0.9782708664 0.1333439416
22450165300.0 -0.9773730243 0.1492632483
22500165000.0 -0.9747881054 0.1623773374
22550164700.0 -0.9741334136 0.1777311236
22600164400.0 -0.9717278046 0.1923873927
22650164100.0 -0.9708357534 0.2076925084
22700163800.0 -0.9669824569 0.2238826382
22750163500.0 -0.9642580266 0.239446589
22800163200.0 -0.9622393134 0.252330051
22850162900.0 -0.9593812139 0.2656833822
22900162600.0 -0.9580391749 0.2792186
22950162300.0 -0.9569312832 0.2921797253
23000162000.0 -0.9558903463 0.3037278334
23050161700.0 -0.9538919978 0.3162035396
23100161400.0 -0.9516348032 0.3289955995
23150161100.0 -0.9490243472 0.3411687778
23200160800.0 -0.9463295184 0.3529488604
23250160500.0 -0.9430881298 0.3653160998
23300160200.0 -0.9407595364 0.376479616
23350159900.0 -0.9369019669 0.3895812909
23400159600.0 -0.9324485693 0.4031944674
23450159300.0 -0.9275641643 0.4161061461
23500159000.0 -0.9230541161 0.4290700401
23550158700.0 -0.918640364 0.4421775926
23600158400.0 -0.9127916152 0.4549418472
23650158100.0 -0.9067515331 0.4688934607
23700157800.0 -0.8991703993 0.4827502394
23750157500.0 -0.8906699864 0.4966343157
23800157200.0 -0.8818086108 0.5092164846
23850156900.0 -0.873287125 0.5219380539
23900156600.0 -0.864237707 0.5348351075
23950156300.0 -0.8545957916 0.5468333043
24000156000.0 -0.8446005858 0.5586654446
24050155700.0 -0.8352906393 0.5715759146
24100155400.0 -0.8249204641 0.582473811
24150155100.0 -0.8153163938 0.5951944131
24200154800.0 -0.8034998999 0.6059964626
24250154500.0 -0.79267443 0.6175415085
24300154200.0 -0.7806421741 0.6293091068
24350153900.0 -0.7694382653 0.639507856
24400153600.0 -0.7568682345 0.6498058898
24450153300.0 -0.7452604323 0.6600710452
24500153000.0 -0.7337697337 0.669568794
24550152700.0 -0.7220162376 0.6790359033
24600152400.0 -0.710797028 0.6882437905
24650152100.0 -0.6986675395 0.6970457481
