!Created with skrf (http://scikit-rf.org).
# Hz S RI R 50.0 
!freq ReS11 ImS11
300000.0 -0.9724638144 -0.1233185595
50299700.0 -0.9999751402 0.014882608
100299400.0 -0.9979764132 0.0279261038
150299100.0 -1.002772799 0.0448352925
200298800.0 -0.9995262059 0.0578949947
250298500.0 -0.9971988078 0.0714946741
300298200.0 -0.9856512517 0.0875567855
350297900.0 -0.9939641482 0.0982146569
400297600.0 -0.9930943133 0.1149660576
450297300.0 -0.9910378586 0.1287372275
500297000.0 -0.9893767742 0.1433484423
550296700.0 -0.9840590123 0.1557924693
600296400.0 -1.017208506 0.1891556601
650296100.0 -0.9822643082 0.1857213197
700295800.0 -0.9791654201 0.1999810362
750295500.0 -0.9762181932 0.2139972746
800295200.0 -0.9729977017 0.2278158751
850294900.0 -0.9697061866 0.2417699718
900294600.0 -0.9658755124 0.2555860623
950294300.0 -0.9622747874 0.269309159
1000294000.0 -0.9581739243 0.2833210335
1050293700.0 -0.9536258745 0.2970139934
1100293400.0 -0.9493093224 0.3114438458
1150293100.0 -0.9454812849 0.3234140909
1200292800.0 -0.9401554613 0.3376564996
1250292500.0 -0.9347561066 0.3512876734
1300292200.0 -0.9289664471 0.3643549488
1350291900.0 -0.9235583172 0.3784833069
1400291600.0 -0.9179912857 0.3914509654
1450291300.0 -0.9125628189 0.4038978072
1500291000.0 -0.9061982303 0.4171017601
1550290700.0 -0.8997258436 0.4306472643
1600290400.0 -0.8935007513 0.4435104691
1650290100.0 -0.8868203369 0.4556747601
1700289800.0 -0.8799538059 0.4691627979
1750289500.0 -0.8729406496 0.4817126839
1800289200.0 -0.865609419 0.4943636093
1850288900.0 -0.8586630879 0.5055263707
1900288600.0 -0.8511093593 0.5185649937
1950288300.0 -0.8429639108 0.5312828817
2000288000.0 -0.835233514 0.5428540065
2050287700.0 -0.8271399863 0.5551990618
2100287400.0 -0.8195442069 0.5667241969
2150287100.0 -0.8108539451 0.5785809882
2200286800.0 -0.8028801231 0.5891934894
2250286500.0 -0.7939792197 0.6014592929
2300286200.0 -0.7853360723 0.6127920704
2350285900.0 -0.7768919416 0.6232679448
2400285600.0 -0.7681899327 0.6343146345
2450285300.0 -0.7591158269 0.6451657839
2500285000.0 -0.7490590427 0.6566473407
2550284700.0 -0.7400645413 0.6669330568
2600284400.0 -0.7310857235 0.6769755985
2650284100.0 -0.7222563058 0.6870761741
2700283800.0 -0.7120845827 0.6975402499
2750283500.0 -0.7015347554 0.7081901425
2800283200.0 -0.6917640712 0.7181557801
2850282900.0 -0.681323753 0.7280850346
2900282600.0 -0.670649828 0.7379688524
2950282300.0 -0.6601134618 0.7470570083
3000282000.0 -0.6493259006 0.7563397288
3050281700.0 -0.6384654355 0.7659068905
3100281400.0 -0.626832564 0.7749180596
3150281100.0 -0.6156513748 0.783952898
3200280800.0 -0.6042600582 0.7924817768
3250280500.0 -0.5930984986 0.8002017776
3300280200.0 -0.5813376323 0.8083478901
3350279900.0 -0.5692811474 0.8165965629
3400279600.0 -0.5565757903 0.8245407686
3450279300.0 -0.5453315971 0.8315360926
3500279000.0 -0.5336358514 0.8384287328
3550278700.0 -0.5216947671 0.8456836467
3600278400.0 -0.5100036342 0.8521136592
3650278100.0 -0.4969874979 0.8597447105
3700277800.0 -0.484663205 0.8664973109
3750277500.0 -0.47208378 0.8732026302
3800277200.0 -0.4597193891 0.8796305359
3850276900.0 -0.4477492827 0.8856227152
3900276600.0 -0.4367593325 0.891317808
3950276300.0 -0.4250766968 0.8972559734
4000276000.0 -0.4133749773 0.9030746231
4050275700.0 -0.4004871403 0.9090313568
4100275400.0 -0.3893633275 0.9147796933
4150275100.0 -0.3761806429 0.9204526371
4200274800.0 -0.3629090974 0.9262227682
4250274500.0 -0.3502278903 0.9312198329
4300274200.0 -0.3369334887 0.9366909137
4350273900.0 -0.3225649919 0.9420796402
4400273600.0 -0.3078937604 0.9471668727
4450273300.0 -0.2928613508 0.9521553005
4500273000.0 -0.2797573096 0.9563220917
4550272700.0 -0.2661182296 0.9604184799
4600272400.0 -0.2510827377 0.9644742113
4650272100.0 -0.2396826469 0.9677258057
4700271800.0 -0.2269608992 0.9711277215
4750271500.0 -0.2150908018 0.9740923807
4800271200.0 -0.2030321478 0.9767030222
4850270900.0 -0.1892636297 0.9794833937
4900270600.0 -0.1755146388 0.981962516
4950270300.0 -0.1608423751 0.9845542413
5000270000.0 -0.1463281216 0.9867606051
5050269700.0 -0.1327104252 0.9882288639
5100269400.0 -0.1188304273 0.9900001714
5150269100.0 -0.1046167462 0.9919682141
5200268800.0 -0.0913746662 0.9925679299
5250268500.0 -0.0782715939 0.9936427474
5300268200.0 -0.0645929724 0.9945014941
5350267900.0 -0.0519152991 0.9948701477
5400267600.0 -0.0356702973 0.9961241272
5450267300.0 -0.0221132915 0.9966994755
5500267000.0 -0.0068033659 0.9970629831
5550266700.0 0.0079874037 0.9971917721
5600266400.0 0.0238609217 0.9972726113
5650266100.0 0.040531294 0.9968074949
5700265800.0 0.0545243135 0.9957279435
5750265500.0 0.0696190926 0.9950795961
5800265200.0 0.0831776732 0.9940844181
5850264900.0 0.0962800657 0.9931619892
5900264600.0 0.1129866858 0.991320657
5950264300.0 0.1245244122 0.9897087275
6000264000.0 0.1377589912 0.9876472266
6050263700.0 0.1496434452 0.9868126251
6100263400.0 0.1617805883 0.9849135594
6150263100.0 0.1762255285 0.9826452964
6200262800.0 0.1859209848 0.9811423553
6250262500.0 0.1984939504 0.9787304947
6300262200.0 0.210700386 0.9761144977
6350261900.0 0.2237840635 0.9736330952
6400261600.0 0.2374307415 0.9702043427
6450261300.0 0.2486862974 0.9678665906
6500261000.0 0.2621633436 0.9642136349
6550260700.0 0.275009419 0.960204908
6600260400.0 0.2887227229 0.9562213147
6650260100.0 0.3026133119 0.9515523793
6700259800.0 0.3148566827 0.947519401
6750259500.0 0.3285208671 0.9423875538
6800259200.0 0.3419911937 0.9374744757
6850258900.0 0.3544901355 0.931827002
6900258600.0 0.3669915909 0.926795218
6950258300.0 0.3795133912 0.9215436447
7000258000.0 0.3911713734 0.9161896496
7050257700.0 0.4030408923 0.9104284292
7100257400.0 0.4165041259 0.9040211945
7150257100.0 0.427188787 0.898499959
7200256800.0 0.4403092548 0.8919986135
7250256500.0 0.4530108758 0.8854780857
7300256200.0 0.4658248688 0.8787346851
7350255900.0 0.4784604609 0.8717297419
7400255600.0 0.4927432538 0.86393796
7450255300.0 0.5083573962 0.8547990722
7500255000.0 0.5206830883 0.8473440157
7550254700.0 0.5350475614 0.8382499474
7600254400.0 0.5474838451 0.8298879913
7650254100.0 0.559230739 0.8220243061
7700253800.0 0.5709936296 0.8139685675
7750253500.0 0.5820478954 0.8062771594
7800253200.0 0.5926334479 0.7985699964
7850252900.0 0.6025238625 0.7912245132
7900252600.0 0.6138461056 0.7825218584
7950252300.0 0.6221023993 0.7760223194
8000252000.0 0.6320610127 0.7685203954
8050251700.0 0.6426584948 0.7603585436
8100251400.0 0.6526306106 0.7525352665
8150251100.0 0.6622094673 0.7442081097
8200250800.0 0.6717994098 0.7358578379
8250250500.0 0.681145246 0.7280249489
8300250200.0 0.6896186633 0.7197355835
8350249900.0 0.6991786141 0.7110107696
8400249600.0 0.7069702688 0.7028924008
8450249300.0 0.7157648856 0.6941822563
8500249000.0 0.7243332099 0.6852468193
8550248700.0 0.7326797638 0.6762033187
8600248400.0 0.7408523295 0.6669645696
8650248100.0 0.7484887331 0.6575310398
8700247800.0 0.7578987424 0.6463757365
8750247500.0 0.7662603692 0.6362565986
8800247200.0 0.774060756 0.6260021292
8850246900.0 0.7827426423 0.61447545
8900246600.0 0.791194827 0.603135831
8950246300.0 0.8003531629 0.5907067561
9000246000.0 0.8088551979 0.5787356939
9050245700.0 0.8173609952 0.5664089246
9100245400.0 0.8258431965 0.5541270031
9150245100.0 0.8344141071 0.5411461697
9200244800.0 0.84401892 0.5267542231
9250244500.0 0.8530147809 0.5122399818
9300244200.0 0.8609432478 0.4987502808
9350243900.0 0.8688176567 0.485541621
9400243600.0 0.8754002864 0.4738668773
9450243300.0 0.8810576485 0.4635232447
9500243000.0 0.8870466827 0.4518977962
9550242700.0 0.8910024951 0.4445270305
9600242400.0 0.8956603899 0.4368857605
9650242100.0 0.8994698772 0.4300040269
9700241800.0 0.9047874261 0.4211214844
9750241500.0 0.9086530055 0.4139176282
9800241200.0 0.9139179877 0.4040771694
9850240900.0 0.9196952876 0.3924485207
9900240600.0 0.9258766932 0.3803295692
9950240300.0 0.932712925 0.3638124106
10000240000.0 0.9380474461 0.3514559942
10050239700.0 0.9441553721 0.3353772954
10100239400.0 0.9494893653 0.3186887069
10150239100.0 0.954028088 0.30342724
10200238800.0 0.9580840144 0.2878995037
10250238500.0 0.9614865043 0.2743926434
10300238200.0 0.9646746423 0.2603992767
10350237900.0 0.9674829899 0.247049992
10400237600.0 0.96987146 0.2335061924
10450237300.0 0.9727241807 0.219791817
10500237000.0 0.9748900636 0.2075938232
10550236700.0 0.9774046124 0.1934999227
10600236400.0 0.9795328274 0.1792911705
10650236100.0 0.9815978233 0.1644593228
10700235800.0 0.9835582869 0.152311849
10750235500.0 0.9858771005 0.1383179008
10800235200.0 0.9878631349 0.1245328302
10850234900.0 0.9898261106 0.1094108531
10900234600.0 0.9919809405 0.0947903199
10950234300.0 0.9938272156 0.0811046658
11000234000.0 0.9955072574 0.0655506735
11050233700.0 0.997389831 0.0488055696
11100233400.0 0.9989297041 0.0313063073
11150233100.0 1.000091864 0.0143004837
11200232800.0 1.000817391 -0.0017439022
11250232500.0 1.00217242 -0.0199104214
11300232200.0 1.002526439 -0.0390941085
11350231900.0 1.002251891 -0.0543432849
11400231600.0 1.001530966 -0.0700808162
11450231300.0 1.000857528 -0.0853109411
11500231000.0 0.999322081 -0.1020478379
11550230700.0 0.9981927381 -0.1146645241
11600230400.0 0.9975706673 -0.127846702
11650230100.0 0.9944937836 -0.1393513461
11700229800.0 0.9925183354 -0.1547177011
11750229500.0 0.9899236891 -0.1685959039
11800229200.0 0.987229891 -0.181745685
11850228900.0 0.9835568989 -0.1937666363
11900228600.0 0.9797073352 -0.2035267397
11950228300.0 0.9764706821 -0.2130725103
12000228000.0 0.9735603505 -0.2222733337
12050227700.0 0.9694600839 -0.2346570118
12100227400.0 0.9663621182 -0.2456602689
12150227100.0 0.9618227868 -0.2628728036
12200226800.0 0.9581761835 -0.2731360999
12250226500.0 0.95370978 -0.2863469013
12300226200.0 0.9498270054 -0.2984336921
12350225900.0 0.9447010685 -0.31272876
12400225600.0 0.9399888335 -0.3243781896
12450225300.0 0.9357344887 -0.3364857554
12500225000.0 0.9298709905 -0.3516864037
12550224700.0 0.9247116964 -0.3656932613
12600224400.0 0.9197912532 -0.3784338417
12650224100.0 0.9140039024 -0.3927502865
12700223800.0 0.9087979962 -0.4054700185
12750223500.0 0.9030582735 -0.4186255737
12800223200.0 0.8978845869 -0.4314658815
12850222900.0 0.8927450327 -0.4432719861
12900222600.0 0.8872105247 -0.455689206
12950222300.0 0.8806777843 -0.4677283944
13000222000.0 0.8753991569 -0.4789843172
13050221700.0 0.8679668662 -0.4924933673
13100221400.0 0.8614940077 -0.504327579
13150221100.0 0.8546181719 -0.5165945368
13200220800.0 0.8471266849 -0.5282789813
13250220500.0 0.8402176907 -0.5404067206
13300220200.0 0.8326217814 -0.5511801274
13350219900.0 0.8242179824 -0.5632801422
13400219600.0 0.816195048 -0.5751528191
13450219300.0 0.8068119473 -0.5881733516
13500219000.0 0.7969586156 -0.6015011478
13550218700.0 0.7876012041 -0.613772263
13600218400.0 0.7774287528 -0.6254565885
13650218100.0 0.7683898469 -0.6360822925
13700217800.0 0.757427505 -0.6479030953
13750217500.0 0.7478488949 -0.6589918943
13800217200.0 0.7362393135 -0.6699178135
13850216900.0 0.7249805134 -0.6809570214
13900216600.0 0.7166826033 -0.689679239
13950216300.0 0.7051837226 -0.7003356726
14000216000.0 0.6952546105 -0.7089418864
14050215700.0 0.6864808085 -0.7169632631
14100215400.0 0.6764990766 -0.7260711286
14150215100.0 0.6675986528 -0.7350711347
14200214800.0 0.6579986049 -0.7438736819
14250214500.0 0.6476817294 -0.7532872904
14300214200.0 0.6371713325 -0.7627585382
14350213900.0 0.626270021 -0.7726374918
14400213600.0 0.614018939 -0.7825020098
14450213300.0 0.6012398423 -0.7925628668
14500213000.0 0.588592504 -0.8023313832
14550212700.0 0.5760679273 -0.8115696618
14600212400.0 0.5636318324 -0.8205929603
14650212100.0 0.5510736744 -0.8294036504
14700211800.0 0.5366731527 -0.8392921353
14750211500.0 0.5247699765 -0.8470543938
14800211200.0 0.5124966415 -0.8554136195
14850210900.0 0.5003042526 -0.8627991063
14900210600.0 0.4869489024 -0.8709139069
14950210300.0 0.4734440536 -0.8786035
15000210000.0 0.4608930863 -0.8852345057
15050209700.0 0.4484776615 -0.8916607268
15100209400.0 0.4355080844 -0.8972389683
15150209100.0 0.4235256014 -0.9029747704
15200208800.0 0.4111042265 -0.908019624
15250208500.0 0.4008343971 -0.9128889969
15300208200.0 0.3871723217 -0.9171577431
15350207900.0 0.3742198978 -0.9216252821
15400207600.0 0.3599161196 -0.9270763684
15450207300.0 0.3449637868 -0.9325591894
15500207000.0 0.3314191552 -0.9367154893
15550206700.0 0.3160120558 -0.942149219
15600206400.0 0.3000826846 -0.9466898918
15650206100.0 0.2836956755 -0.9508370049
15700205800.0 0.2705216329 -0.9544261394
15750205500.0 0.2564760332 -0.9576454965
15800205200.0 0.2425610527 -0.9611790776
15850204900.0 0.2282134963 -0.9645581471
15900204600.0 0.2132740623 -0.9683392051
15950204300.0 0.1989634348 -0.9713203038
16000204000.0 0.1847293637 -0.9743646226
16050203700.0 0.1693284781 -0.9773768793
16100203400.0 0.1541459947 -0.9793396436
16150203100.0 0.1400634581 -0.9820206678
16200202800.0 0.1252326111 -0.9843741752
16250202500.0 0.110823474 -0.985685279
16300202200.0 0.0951438796 -0.9877851247
16350201900.0 0.0800957673 -0.9892791576
16400201600.0 0.0653784956 -0.9899367733
16450201300.0 0.0501390214 -0.9912621841
16500201000.0 0.0326751164 -0.9920299535
16550200700.0 0.0167029085 -0.9924970029
16600200400.0 0.0007959422 -0.9928825012
16650200100.0 -0.0152364101 -0.9925862949
16700199800.0 -0.0320471001 -0.9922839365
16750199500.0 -0.0510657238 -0.9913315636
16800199200.0 -0.0665688379 -0.9902456616
16850198900.0 -0.0822296918 -0.9898936382
16900198600.0 -0.0967521191 -0.9883316595
16950198300.0 -0.1105174786 -0.9870461874
17000198000.0 -0.1233009947 -0.9862662846
17050197700.0 -0.1358612347 -0.9842555176
17100197400.0 -0.1484394638 -0.9821194424
17150197100.0 -0.1612412747 -0.9798860016
17200196800.0 -0.1743274184 -0.9778925947
17250196500.0 -0.1873283585 -0.9752282935
17300196200.0 -0.1994312805 -0.9730873673
17350195900.0 -0.211222933 -0.9705539178
17400195600.0 -0.2231251877 -0.9681219245
17450195300.0 -0.2362226683 -0.9652345294
17500195000.0 -0.2492226756 -0.9621714872
17550194700.0 -0.2629891808 -0.9586130477
17600194400.0 -0.2768294198 -0.9543984298
17650194100.0 -0.2907925334 -0.9506252074
17700193800.0 -0.3033884847 -0.94616385
17750193500.0 -0.3177765726 -0.9413670323
17800193200.0 -0.3320151184 -0.9361518464
17850192900.0 -0.3468020382 -0.9312703773
17900192600.0 -0.3616026968 -0.9247341987
17950192300.0 -0.3774326222 -0.9178754494
18000192000.0 -0.3920284972 -0.9106573077
18050191700.0 -0.4058869523 -0.9025563262
18100191400.0 -0.4200810149 -0.8949903501
18150191100.0 -0.4350276803 -0.8869506037
18200190800.0 -0.4517875308 -0.8778387118
18250190500.0 -0.4687738908 -0.8683823592
18300190200.0 -0.4842157237 -0.859474515
18350189900.0 -0.4993100861 -0.8508052048
18400189600.0 -0.5138853002 -0.8429941819
18450189300.0 -0.527134719 -0.8350110732
18500189000.0 -0.5406256987 -0.8267844618
18550188700.0 -0.5536289353 -0.8190532619
18600188400.0 -0.5652658927 -0.8120967037
18650188100.0 -0.5768417348 -0.8056053705
18700187800.0 -0.5876522829 -0.7988283426
18750187500.0 -0.5985408933 -0.7923025525
18800187200.0 -0.6093730633 -0.7853406522
18850186900.0 -0.6194594436 -0.7783653697
18900186600.0 -0.629908475 -0.7709593918
18950186300.0 -0.64001287 -0.7630967283
19000186000.0 -0.6475842287 -0.7571892954
19050185700.0 -0.6568803404 -0.7499249465
19100185400.0 -0.666663044 -0.7419060428
19150185100.0 -0.6770860878 -0.7329517642
19200184800.0 -0.686834083 -0.724469988
19250184500.0 -0.6961126274 -0.7159729725
19300184200.0 -0.7078892823 -0.7059181036
19350183900.0 -0.7186335579 -0.696908471
19400183600.0 -0.7286336009 -0.6866086222
19450183300.0 -0.7377127756 -0.6762101146
19500183000.0 -0.7458615872 -0.6664195285
19550182700.0 -0.7551903737 -0.6557347772
19600182400.0 -0.7656827155 -0.6438585301
19650182100.0 -0.7768288217 -0.631738724
19700181800.0 -0.786960231 -0.6181472397
19750181500.0 -0.7972628052 -0.6041946874
19800181200.0 -0.8074211322 -0.5892940096
19850180900.0 -0.8168825441 -0.5739847271
19900180600.0 -0.8244884761 -0.5593673716
19950180300.0 -0.8334876721 -0.5434030628
20000180000.0 -0.8234362491 -0.5463191108
20050179700.0 -0.8310640786 -0.5343330711
20100179400.0 -0.8396508576 -0.521045807
20150179100.0 -0.8475795669 -0.5095151851
20200178800.0 -0.8550502385 -0.4970920689
20250178500.0 -0.8650496094 -0.4857398209
20300178200.0 -0.8753923444 -0.4718439949
20350177900.0 -0.884557293 -0.457865039
20400177600.0 -0.8934090114 -0.4436701086
20450177300.0 -0.9020725168 -0.429096461
20500177000.0 -0.9100547044 -0.4152073695
20550176700.0 -0.9178771902 -0.4018446574
20600176400.0 -0.9250991951 -0.389197781
20650176100.0 -0.9311605412 -0.3765156414
20700175800.0 -0.9380778096 -0.3643659537
20750175500.0 -0.9450216136 -0.3538965494
20800175200.0 -0.9495269386 -0.342627066
20850174900.0 -0.9539993272 -0.3312598463
20900174600.0 -0.9580764875 -0.3207000813
20950174300.0 -0.9601739914 -0.3103158276
21000174000.0 -0.9643533314 -0.2995995203
21050173700.0 -0.9651639257 -0.2894234283
21100173400.0 -0.9692893254 -0.2789165863
21150173100.0 -0.9728662672 -0.266607442
21200172800.0 -0.9767543063 -0.253676326
21250172500.0 -0.9808548022 -0.2396477111
21300172200.0 -0.9842582104 -0.2260573646
21350171900.0 -0.9860117441 -0.2115719637
21400171600.0 -0.9882393782 -0.1974870674
21450171300.0 -0.9894520286 -0.1838255355
21500171000.0 -0.9893912443 -0.1680528801
21550170700.0 -0.990195545 -0.1534235908
21600170400.0 -0.9912259342 -0.1374011114
21650170100.0 -0.9910026029 -0.1221006025
21700169800.0 -0.990196024 -0.1079299609
21750169500.0 -0.9895159911 -0.0910121584
21800169200.0 -0.9902183803 -0.0748954315
21850168900.0 -0.9896730845 -0.0573449848
21900168600.0 -0.9891998193 -0.0412773301
21950168300.0 -0.9892152689 -0.0256275012
22000168000.0 -0.9890056302 -0.0104592404
22050167700.0 -0.9897686131 0.0041238404
22100167400.0 -0.9901060169 0.0197878276
22150167100.0 -0.9913953031 0.036060225
22200166800.0 -0.9918529988 0.052815381
22250166500.0 -0.9914357487 0.0700007883
22300166200.0 -0.9906973005 0.0855505671
22350165900.0 -0.9895392451 0.1023471221
22400165600.0 -0.988575189 0.1178944702
22450165300.0 -0.9861810127 0.1335477281
22500165000.0 -0.9842381827 0.1477228311
22550164700.0 -0.9837646468 0.1646479924
22600164400.0 -0.9813425304 0.1795166585
22650164100.0 -0.9784162931 0.1961995647
22700163800.0 -0.9747625979 0.2122405289
22750163500.0 -0.9723209266 0.2267447391
22800163200.0 -0.96929672 0.2400231717
22850162900.0 -0.9663489929 0.2533297643
22900162600.0 -0.9645368206 0.2669798889
22950162300.0 -0.9630058178 0.2807859327
23000162000.0 -0.9611008262 0.2936598134
23050161700.0 -0.9588363362 0.3067173372
23100161400.0 -0.9558672862 0.3203282935
23150161100.0 -0.9528047891 0.3340547145
23200160800.0 -0.9498103546 0.3460216947
23250160500.0 -0.9470061681 0.3588636326
23300160200.0 -0.9450108171 0.3711189866
23350159900.0 -0.9403292924 0.3852017103
23400159600.0 -0.9347925165 0.398856868
23450159300.0 -0.9301620359 0.4125978056
23500159000.0 -0.9252575273 0.4265554089
23550158700.0 -0.9199481667 0.4401341895
23600158400.0 -0.9140500715 0.4543096384
23650158100.0 -0.9068460696 0.4688916349
23700157800.0 -0.8981906505 0.4831227718
23750157500.0 -0.8888305193 0.4974805452
23800157200.0 -0.8789895155 0.5109198684
23850156900.0 -0.8691604793 0.5238708425
23900156600.0 -0.8594980802 0.5365574299
23950156300.0 -0.8494633854 0.5492431992
24000156000.0 -0.84041635 0.5617872441
24050155700.0 -0.8293263475 0.5732432473
24100155400.0 -0.8186411272 0.5867300626
24150155100.0 -0.8081175847 0.5989110262
24200154800.0 -0.7971324085 0.6105306306
24250154500.0 -0.7859399397 0.6222503162
24300154200.0 -0.774114526 0.6347882636
24350153900.0 -0.7619574055 0.6457348852
24400153600.0 -0.7494503652 0.656648431
24450153300.0 -0.7374095899 0.6667523238
24500153000.0 -0.7260101242 0.6766508025
24550152700.0 -0.7141282302 0.687044487
24600152400.0 -0.7018173024 0.6960197628
24650152100.0 -0.6903559802 0.7048651114
