!Created with skrf (http://scikit-rf.org).
# Hz S RI R 50.0 
!freq ReS11 ImS11
300000.0 -0.9787248152 -0.1092222707
50299700.0 -1.000160517 0.0159426962
100299400.0 -0.9979204916 0.0289426905
150299100.0 -1.002822091 0.0459418825
200298800.0 -0.9997013597 0.0591225915
250298500.0 -0.9976036506 0.0724690072
300298200.0 -0.9860459172 0.0884317815
350297900.0 -0.9940315829 0.0992689971
400297600.0 -0.993398101 0.1158101862
450297300.0 -0.9910227852 0.1297901476
500297000.0 -0.9895270496 0.144433233
550296700.0 -0.984267551 0.1569101164
600296400.0 -1.017495639 0.1903853414
650296100.0 -0.9820290584 0.1867777036
700295800.0 -0.9792589185 0.2011876118
750295500.0 -0.9763636775 0.2152333965
800295200.0 -0.9729119925 0.2292960782
850294900.0 -0.9696041069 0.2432844918
900294600.0 -0.9656145047 0.2568624007
950294300.0 -0.9619593874 0.2707385069
1000294000.0 -0.9580406066 0.2844772439
1050293700.0 -0.9534297133 0.2984089921
1100293400.0 -0.9489617733 0.3127986378
1150293100.0 -0.9451813266 0.3246445547
1200292800.0 -0.9397795413 0.3388429933
1250292500.0 -0.9342872026 0.352270409
1300292200.0 -0.9288087196 0.3655070822
1350291900.0 -0.9233298738 0.379542458
1400291600.0 -0.9177220643 0.3926455857
1450291300.0 -0.912249479 0.4051132015
1500291000.0 -0.9059385644 0.4183975185
1550290700.0 -0.8994684535 0.4316804585
1600290400.0 -0.8930213132 0.4445706085
1650290100.0 -0.8865536869 0.4567034418
1700289800.0 -0.8796010671 0.4703310899
1750289500.0 -0.8726679384 0.4824723059
1800289200.0 -0.8652741999 0.4953774019
1850288900.0 -0.8584883811 0.5068368856
1900288600.0 -0.8508558511 0.519715508
1950288300.0 -0.8426554845 0.53243921
2000288000.0 -0.835079155 0.5436918741
2050287700.0 -0.8269966052 0.5560855127
2100287400.0 -0.8187450131 0.567612026
2150287100.0 -0.8103744917 0.5797088691
2200286800.0 -0.8025698197 0.5900131066
2250286500.0 -0.7936368799 0.6021174725
2300286200.0 -0.7848036098 0.6137225234
2350285900.0 -0.7760820049 0.6248251279
2400285600.0 -0.7669201462 0.635693274
2450285300.0 -0.7583716474 0.6460813523
2500285000.0 -0.7485919488 0.6572714332
2550284700.0 -0.7397522202 0.6675777988
2600284400.0 -0.7302630335 0.6779318382
2650284100.0 -0.721175465 0.6885521299
2700283800.0 -0.7105712436 0.6987634343
2750283500.0 -0.7003876747 0.7095440039
2800283200.0 -0.6906966751 0.7193201227
2850282900.0 -0.680420424 0.7291899162
2900282600.0 -0.669940175 0.7385723281
2950282300.0 -0.6597912846 0.7478686425
3000282000.0 -0.6492932287 0.7573442292
3050281700.0 -0.6379810943 0.7666009619
3100281400.0 -0.6260805371 0.7758702586
3150281100.0 -0.6142660964 0.7853157194
3200280800.0 -0.6024404009 0.7938982563
3250280500.0 -0.5917376641 0.8015128937
3300280200.0 -0.5807410426 0.8093953196
3350279900.0 -0.56915145 0.8167266098
3400279600.0 -0.557081895 0.8244789974
3450279300.0 -0.5458943289 0.8315590166
3500279000.0 -0.5338987626 0.8386998661
3550278700.0 -0.5214715994 0.8460074118
3600278400.0 -0.5091860008 0.8532902654
3650278100.0 -0.4958933776 0.8610262555
3700277800.0 -0.4838101431 0.8674376452
3750277500.0 -0.4718217851 0.8735823595
3800277200.0 -0.4590657886 0.8804012623
3850276900.0 -0.4469922409 0.8862177989
3900276600.0 -0.4362095077 0.8919549129
3950276300.0 -0.4237802163 0.8979232112
4000276000.0 -0.4115523969 0.9039976321
4050275700.0 -0.3984977495 0.9099651741
4100275400.0 -0.3873290584 0.9154488341
4150275100.0 -0.3748168488 0.9210385803
4200274800.0 -0.3616030548 0.9266971792
4250274500.0 -0.3495032881 0.9317497129
4300274200.0 -0.3363579658 0.9368791378
4350273900.0 -0.3225667462 0.9421821408
4400273600.0 -0.307914938 0.9473087913
4450273300.0 -0.2925646591 0.9523725669
4500273000.0 -0.2785774549 0.9569335701
4550272700.0 -0.2644609995 0.9610869048
4600272400.0 -0.2489824539 0.9652422536
4650272100.0 -0.2371657403 0.9685929169
4700271800.0 -0.224017439 0.9718739465
4750271500.0 -0.2123620661 0.9746166707
4800271200.0 -0.1996350045 0.9773330117
4850270900.0 -0.1856666269 0.9804074903
4900270600.0 -0.1720070902 0.9826311457
4950270300.0 -0.157806574 0.985342207
5000270000.0 -0.143482919 0.9873423858
5050269700.0 -0.1300249317 0.988853438
5100269400.0 -0.1167059206 0.990515153
5150269100.0 -0.1034079828 0.991982652
5200268800.0 -0.0902313642 0.9930885013
5250268500.0 -0.077018935 0.9940693687
5300268200.0 -0.0638838067 0.9947280484
5350267900.0 -0.0518682007 0.9952714894
5400267600.0 -0.0354857708 0.9967233467
5450267300.0 -0.0223013692 0.9968013559
5500267000.0 -0.007262021 0.997119274
5550266700.0 0.0077569628 0.9973235408
5600266400.0 0.0231954851 0.9973535002
5650266100.0 0.0396511708 0.9968632672
5700265800.0 0.0542289757 0.9960385802
5750265500.0 0.0692883367 0.9954625796
5800265200.0 0.0832504637 0.9941465073
5850264900.0 0.0968170541 0.993444732
5900264600.0 0.1132538949 0.9914142489
5950264300.0 0.1255433681 0.9898706466
6000264000.0 0.1395893415 0.9881558189
6050263700.0 0.1522051884 0.9866208442
6100263400.0 0.1645424887 0.9847857484
6150263100.0 0.1790008965 0.9823642247
6200262800.0 0.1895255365 0.9802675321
6250262500.0 0.2022458441 0.9780924822
6300262200.0 0.2151576744 0.9752498772
6350261900.0 0.2281480066 0.9723180338
6400261600.0 0.2421044576 0.9689945536
6450261300.0 0.2535655307 0.9664057124
6500261000.0 0.2664356371 0.9626791314
6550260700.0 0.2792516913 0.9589617395
6600260400.0 0.292852594 0.954853952
6650260100.0 0.3063630525 0.9503423806
6700259800.0 0.3182204037 0.9461537462
6750259500.0 0.3324075484 0.9415120003
6800259200.0 0.3452005716 0.9362752549
6850258900.0 0.3570481524 0.9313061621
6900258600.0 0.3693995991 0.9261961702
6950258300.0 0.3818824972 0.9209590737
7000258000.0 0.3936211194 0.9153443843
7050257700.0 0.4061184835 0.9094444235
7100257400.0 0.4186438042 0.9029950279
7150257100.0 0.4292175002 0.897674118
7200256800.0 0.4416581755 0.8914739974
7250256500.0 0.4536961389 0.8852720552
7300256200.0 0.4669159542 0.878484499
7350255900.0 0.4792293558 0.8713499202
7400255600.0 0.4923648059 0.8643601996
7450255300.0 0.5076595055 0.8554899899
7500255000.0 0.5191749161 0.8480857519
7550254700.0 0.53305197 0.8397704656
7600254400.0 0.5457144069 0.8310831675
7650254100.0 0.5573723728 0.8233731827
7700253800.0 0.5692883049 0.8153475261
7750253500.0 0.580091259 0.8075630149
7800253200.0 0.5908291525 0.7998414204
7850252900.0 0.6009032918 0.7926968816
7900252600.0 0.6124456725 0.7839604923
7950252300.0 0.6214342958 0.7774468487
8000252000.0 0.6315064657 0.7696312756
8050251700.0 0.6420244642 0.7614515711
8100251400.0 0.6522237794 0.7533075975
8150251100.0 0.6621032174 0.7446507076
8200250800.0 0.6718525323 0.7366910214
8250250500.0 0.6801113354 0.7286947817
8300250200.0 0.6897951544 0.7201503542
8350249900.0 0.6990271104 0.7113916602
8400249600.0 0.7070577187 0.7033831687
8450249300.0 0.7161975152 0.6940451484
8500249000.0 0.7250423299 0.6854567739
8550248700.0 0.7330409051 0.6762076902
8600248400.0 0.7414651085 0.6667696364
8650248100.0 0.7493906069 0.6573485414
8700247800.0 0.7588801836 0.6462206965
8750247500.0 0.7672848124 0.6362099664
8800247200.0 0.7751389882 0.6256857957
8850246900.0 0.7839119717 0.6143250268
8900246600.0 0.7922038622 0.6028880969
8950246300.0 0.8022970057 0.589923891
9000246000.0 0.811428414 0.5772152965
9050245700.0 0.820129172 0.5644285768
9100245400.0 0.829383578 0.5518831818
9150245100.0 0.8383569394 0.5380662128
9200244800.0 0.8483388249 0.5227857069
9250244500.0 0.8578283955 0.5070774308
9300244200.0 0.8663455087 0.4923527163
9350243900.0 0.8739281302 0.4784520975
9400243600.0 0.8806614613 0.4659864642
9450243300.0 0.8865603323 0.4543897715
9500243000.0 0.8925108934 0.4420584001
9550242700.0 0.8963620375 0.434273215
9600242400.0 0.9003193638 0.4269390501
9650242100.0 0.9040115005 0.4204338745
9700241800.0 0.9085227837 0.4120471634
9750241500.0 0.9124023563 0.4046123067
9800241200.0 0.9171622455 0.3955017966
9850240900.0 0.9228036756 0.3836228585
9900240600.0 0.9282811148 0.3721545493
9950240300.0 0.9348377812 0.3558939704
10000240000.0 0.9388885938 0.3445670226
10050239700.0 0.9450143261 0.3294658872
10100239400.0 0.9501904726 0.3139183498
10150239100.0 0.9544276848 0.2992401571
10200238800.0 0.9585561574 0.2842314976
10250238500.0 0.9618975488 0.2710350261
10300238200.0 0.9649687668 0.2571024818
10350237900.0 0.9676842576 0.2439067809
10400237600.0 0.9700565125 0.230608075
10450237300.0 0.9727387027 0.2170783002
10500237000.0 0.9748730324 0.2055315507
10550236700.0 0.9767963099 0.1913253893
10600236400.0 0.9792347093 0.1775898762
10650236100.0 0.9810161284 0.1626151071
10700235800.0 0.9830915935 0.1514196052
10750235500.0 0.985764512 0.1376273866
10800235200.0 0.9881264119 0.1231132439
10850234900.0 0.9896105214 0.1088398057
10900234600.0 0.9915500465 0.0945877624
10950234300.0 0.993388896 0.0811407989
11000234000.0 0.9951580082 0.0661259655
11050233700.0 0.9970386581 0.0495851314
11100233400.0 0.9984651713 0.0323598636
11150233100.0 0.9995289492 0.0157552438
11200232800.0 1.000219249 0.0011967833
11250232500.0 1.001159233 -0.0157131449
11300232200.0 1.001632121 -0.0342662905
11350231900.0 1.001503597 -0.0494223089
11400231600.0 1.001095543 -0.064393475
11450231300.0 1.000979086 -0.0810397331
11500231000.0 0.9995010869 -0.0975162896
11550230700.0 0.9978566634 -0.1110022488
11600230400.0 0.9964998303 -0.1237169735
11650230100.0 0.9946038492 -0.1344845168
11700229800.0 0.9928896773 -0.1489530493
11750229500.0 0.9901412638 -0.1638666274
11800229200.0 0.9878258818 -0.177553722
11850228900.0 0.9839564986 -0.1901258683
11900228600.0 0.9806790414 -0.1997499713
11950228300.0 0.9773852083 -0.2103102864
12000228000.0 0.9745996436 -0.2191377152
12050227700.0 0.9710442821 -0.2316050923
12100227400.0 0.9676728782 -0.2432258087
12150227100.0 0.9629620868 -0.259649467
12200226800.0 0.9592031616 -0.2704068463
12250226500.0 0.9547686612 -0.2835216325
12300226200.0 0.951444842 -0.2949973739
12350225900.0 0.9459213566 -0.3092920214
12400225600.0 0.9418309179 -0.3223879404
12450225300.0 0.937059874 -0.3349068436
12500225000.0 0.9317661156 -0.3492464655
12550224700.0 0.9266084405 -0.3629414466
12600224400.0 0.9218312492 -0.3759314165
12650224100.0 0.9159267378 -0.3902245564
12700223800.0 0.9107150084 -0.4029589197
12750223500.0 0.9053794057 -0.41576183
12800223200.0 0.8999316488 -0.4284204887
12850222900.0 0.894707432 -0.4407579671
12900222600.0 0.8886253244 -0.45307187
12950222300.0 0.8823923932 -0.4656589414
13000222000.0 0.8764579312 -0.4771163097
13050221700.0 0.8697564314 -0.4899366123
13100221400.0 0.8631326582 -0.5018246482
13150221100.0 0.8562709098 -0.5139243559
13200220800.0 0.8489340179 -0.5255549163
13250220500.0 0.8417833476 -0.5376202025
13300220200.0 0.834324828 -0.5487880279
13350219900.0 0.8263608905 -0.5606371426
13400219600.0 0.8178211043 -0.5729770982
13450219300.0 0.8080197538 -0.5866851743
13500219000.0 0.7981502321 -0.6003035382
13550218700.0 0.7879495736 -0.613301218
13600218400.0 0.7770956674 -0.6257278663
13650218100.0 0.7681855931 -0.6362185376
13700217800.0 0.7568145453 -0.6492557027
13750217500.0 0.7469621539 -0.6601860739
13800217200.0 0.7349691086 -0.6717991608
13850216900.0 0.7235706563 -0.6835718417
13900216600.0 0.7148677282 -0.6925628244
13950216300.0 0.703999363 -0.7025162735
14000216000.0 0.6936741833 -0.7117447148
14050215700.0 0.6839077683 -0.7198259524
14100215400.0 0.6741739957 -0.7295638659
14150215100.0 0.6649572635 -0.7378918226
14200214800.0 0.6557803233 -0.7464271775
14250214500.0 0.6456321499 -0.755478307
14300214200.0 0.6354000644 -0.7647676048
14350213900.0 0.6243235654 -0.7743841184
14400213600.0 0.6125556267 -0.7840640744
14450213300.0 0.5992633243 -0.7942583333
14500213000.0 0.5863671124 -0.8040122132
14550212700.0 0.5736084017 -0.8138546874
14600212400.0 0.5611492931 -0.8219880827
14650212100.0 0.5483025338 -0.8313890738
14700211800.0 0.5344604921 -0.8403053612
14750211500.0 0.5225261387 -0.848387659
14800211200.0 0.5102319165 -0.8564939667
14850210900.0 0.4978784522 -0.8641703282
14900210600.0 0.4847558542 -0.8719771609
14950210300.0 0.4712104802 -0.879509622
15000210000.0 0.4585225842 -0.8864137827
15050209700.0 0.4460278244 -0.8926523402
15100209400.0 0.4328032515 -0.8986222376
15150209100.0 0.4211390476 -0.9040374235
15200208800.0 0.407564399 -0.9089970121
15250208500.0 0.3960708105 -0.9137256107
15300208200.0 0.3840579265 -0.9188174944
15350207900.0 0.3711848422 -0.9228856276
15400207600.0 0.3566460328 -0.9289985211
15450207300.0 0.3412161174 -0.9330397578
15500207000.0 0.327106782 -0.9382253002
15550206700.0 0.3115845206 -0.9430360773
15600206400.0 0.2962401059 -0.948018757
15650206100.0 0.2805982689 -0.9519844804
15700205800.0 0.2659826928 -0.9557569038
15750205500.0 0.2515139646 -0.959275781
15800205200.0 0.2373186263 -0.9626480408
15850204900.0 0.2229380031 -0.9660832104
15900204600.0 0.2079699288 -0.9696021175
15950204300.0 0.1938810466 -0.9724642849
16000204000.0 0.179965286 -0.9755228734
16050203700.0 0.16545753 -0.9781630136
16100203400.0 0.1505271396 -0.9803063909
16150203100.0 0.1360226049 -0.9822899542
16200202800.0 0.1223491302 -0.9846844752
16250202500.0 0.1077608307 -0.9863386656
16300202200.0 0.0923871063 -0.9880606835
16350201900.0 0.0776343387 -0.9892203669
16400201600.0 0.0631859815 -0.9904217434
16450201300.0 0.0479654457 -0.9912102807
16500201000.0 0.0314203628 -0.9920512323
16550200700.0 0.0156239541 -0.9925282679
16600200400.0 2.628e-05 -0.9929216307
16650200100.0 -0.0162433057 -0.9923261618
16700199800.0 -0.0326856519 -0.9919861716
16750199500.0 -0.0512863746 -0.9917654136
16800199200.0 -0.0673407738 -0.990794436
16850198900.0 -0.0830841251 -0.9890818429
16900198600.0 -0.0963557729 -0.9889950293
16950198300.0 -0.1105102762 -0.9871598073
17000198000.0 -0.1229865774 -0.9850498671
17050197700.0 -0.1355929001 -0.9840499489
17100197400.0 -0.1487720011 -0.9810296396
17150197100.0 -0.1612960652 -0.9798001978
17200196800.0 -0.1740961053 -0.9775867419
17250196500.0 -0.1869097586 -0.9748802986
17300196200.0 -0.199107485 -0.9731116783
17350195900.0 -0.2111236558 -0.9706754353
17400195600.0 -0.223187811 -0.9680072149
17450195300.0 -0.2364114038 -0.9655180595
17500195000.0 -0.2498608214 -0.9619164723
17550194700.0 -0.2638895901 -0.958385693
17600194400.0 -0.2774927634 -0.954576303
17650194100.0 -0.2912340178 -0.9503916412
17700193800.0 -0.3043600753 -0.9460307412
17750193500.0 -0.3187464708 -0.9414059509
17800193200.0 -0.3330285337 -0.9359862933
17850192900.0 -0.3480701198 -0.9308988523
17900192600.0 -0.3632343588 -0.9246723087
17950192300.0 -0.3786235198 -0.9176699029
18000192000.0 -0.3932620338 -0.9104688623
18050191700.0 -0.4069353339 -0.9025684063
18100191400.0 -0.4211549996 -0.894927734
18150191100.0 -0.4362648519 -0.8867705702
18200190800.0 -0.4529827382 -0.8776511637
18250190500.0 -0.4700457955 -0.8679884474
18300190200.0 -0.4854369692 -0.8593629425
18350189900.0 -0.5000437578 -0.8509849657
18400189600.0 -0.5147362286 -0.8422833547
18450189300.0 -0.5281902467 -0.8344580909
18500189000.0 -0.5416811711 -0.8264826186
18550188700.0 -0.5541925417 -0.8183741577
18600188400.0 -0.5659050674 -0.8118987662
18650188100.0 -0.5770903937 -0.8054322859
18700187800.0 -0.5877314091 -0.7989192369
18750187500.0 -0.5983112248 -0.7922778683
18800187200.0 -0.6090501918 -0.7850787291
18850186900.0 -0.6193726033 -0.7780126282
18900186600.0 -0.630007529 -0.7705232057
18950186300.0 -0.6399808585 -0.762701039
19000186000.0 -0.6475206324 -0.7566387876
19050185700.0 -0.6566858787 -0.749494406
19100185400.0 -0.6667405192 -0.7410647945
19150185100.0 -0.6771932106 -0.7329745358
19200184800.0 -0.6864612622 -0.7243776617
19250184500.0 -0.6959956153 -0.7147303799
19300184200.0 -0.7087092065 -0.7054906356
19350183900.0 -0.7195639209 -0.6950750077
19400183600.0 -0.7286323255 -0.6854293772
19450183300.0 -0.737361824 -0.67601708
19500183000.0 -0.7454866548 -0.6653570306
19550182700.0 -0.7555647552 -0.6549005808
19600182400.0 -0.765743354 -0.6428961615
19650182100.0 -0.7764848485 -0.6308938632
19700181800.0 -0.7870663068 -0.617621272
19750181500.0 -0.7976096573 -0.6035963151
19800181200.0 -0.8076972178 -0.588845956
19850180900.0 -0.8171184644 -0.5731965429
19900180600.0 -0.8250495036 -0.5588609093
19950180300.0 -0.8340066794 -0.5425791192
20000180000.0 -0.8274919817 -0.5446219921
20050179700.0 -0.8348309689 -0.5322137709
20100179400.0 -0.8434485319 -0.5186591526
20150179100.0 -0.8519667551 -0.5059672347
20200178800.0 -0.859983968 -0.4933455435
20250178500.0 -0.8696370727 -0.4803467794
20300178200.0 -0.8796629973 -0.4649035919
20350177900.0 -0.8885234655 -0.4505413778
20400177600.0 -0.8972382921 -0.4357498616
20450177300.0 -0.9054244867 -0.4210914876
20500177000.0 -0.9134502092 -0.407021997
20550176700.0 -0.9213056274 -0.3934295468
20600176400.0 -0.9282380368 -0.380191497
20650176100.0 -0.9348715393 -0.3677277168
20700175800.0 -0.9420456982 -0.3564639587
20750175500.0 -0.9483512554 -0.3444694164
20800175200.0 -0.9537507002 -0.3343678482
20850174900.0 -0.9579211472 -0.3214720791
20900174600.0 -0.9627236872 -0.311160057
20950174300.0 -0.9665051992 -0.2988850975
21000174000.0 -0.9707057818 -0.2877042038
21050173700.0 -0.9733052386 -0.2768721935
21100173400.0 -0.9779976541 -0.2636129374
21150173100.0 -0.9817356473 -0.2517179781
21200172800.0 -0.9852789006 -0.2375376105
21250172500.0 -0.9880426061 -0.224559635
21300172200.0 -0.9911737709 -0.2100606495
21350171900.0 -0.9928000248 -0.1952564367
21400171600.0 -0.9941703633 -0.1810922637
21450171300.0 -0.9933238867 -0.1666876673
21500171000.0 -0.9935233128 -0.1510138484
21550170700.0 -0.9926841998 -0.1361226347
21600170400.0 -0.9938728442 -0.1201979738
21650170100.0 -0.9913121672 -0.1043406246
21700169800.0 -0.9901165057 -0.0892660727
21750169500.0 -0.9886886316 -0.0732619343
21800169200.0 -0.9880531218 -0.0574732555
21850168900.0 -0.9870045946 -0.0408297104
21900168600.0 -0.985223475 -0.0246369991
21950168300.0 -0.9841933185 -0.0086068516
22000168000.0 -0.9827794786 0.005980152
22050167700.0 -0.9827346663 0.0199486461
22100167400.0 -0.9823339546 0.0355701214
22150167100.0 -0.9827953916 0.0509505884
22200166800.0 -0.9832315482 0.0672354234
22250166500.0 -0.9826433398 0.0848336005
22300166200.0 -0.981576674 0.1007261211
22350165900.0 -0.9809578394 0.1186453397
22400165600.0 -0.9794334551 0.1331523754
22450165300.0 -0.9765463747 0.148622154
22500165000.0 -0.9753857106 0.1614681629
22550164700.0 -0.9735943413 0.1764083011
22600164400.0 -0.9727858861 0.1927245013
22650164100.0 -0.9694650045 0.2072053514
22700163800.0 -0.9679052453 0.2232206104
22750163500.0 -0.9646855724 0.2387849317
22800163200.0 -0.9622623536 0.2514681004
22850162900.0 -0.9600947502 0.2654447033
22900162600.0 -0.9585321328 0.2785754743
22950162300.0 -0.9574696594 0.2913437853
23000162000.0 -0.9565969948 0.3031964597
23050161700.0 -0.954572231 0.3153006481
23100161400.0 -0.9519354639 0.3281263029
23150161100.0 -0.9492641175 0.3407388858
23200160800.0 -0.9464564955 0.3525680326
23250160500.0 -0.9434754585 0.3645506043
23300160200.0 -0.9412055156 0.3764788846
23350159900.0 -0.937387923 0.3901105161
23400159600.0 -0.9335305345 0.4029098587
23450159300.0 -0.9276928389 0.4151972477
23500159000.0 -0.923507184 0.4285626388
23550158700.0 -0.9190904935 0.441712891
23600158400.0 -0.9136993285 0.455159883
23650158100.0 -0.9072956683 0.4687548147
23700157800.0 -0.8995427315 0.4823754435
23750157500.0 -0.8912607759 0.4965781909
23800157200.0 -0.8822654497 0.5097916636
23850156900.0 -0.873908566 0.5222697303
23900156600.0 -0.8648509089 0.5348373793
23950156300.0 -0.8549086187 0.5471921128
24000156000.0 -0.8463281002 0.5593395363
24050155700.0 -0.836546679 0.5707642032
24100155400.0 -0.826074386 0.583069573
24150155100.0 -0.8155378795 0.5947196808
24200154800.0 -0.804529057 0.6061588042
24250154500.0 -0.7922999778 0.617445651
24300154200.0 -0.7816141242 0.6295796798
24350153900.0 -0.7694604867 0.6399709333
24400153600.0 -0.7574221502 0.649934677
24450153300.0 -0.7455749567 0.65990357
24500153000.0 -0.7342129412 0.669872493
24550152700.0 -0.722699801 0.6792957154
24600152400.0 -0.7110533533 0.6882025708
24650152100.0 -0.699500714 0.696622345
