!Created with skrf (http://scikit-rf.org).
# Hz S RI R 50.0 
!freq ReS11 ImS11
300000.0 -0.9795502241 -0.1020118324
50299700.0 -1.000113403 0.0162348753
100299400.0 -0.9979420614 0.029105278
150299100.0 -1.002783293 0.045932854
200298800.0 -0.999778719 0.0592766478
250298500.0 -0.9972843704 0.0727832295
300298200.0 -0.9859649024 0.0885743894
350297900.0 -0.9940320693 0.0995307974
400297600.0 -0.9931781503 0.116090846
450297300.0 -0.9910094749 0.1298510785
500297000.0 -0.9894066836 0.1446641008
550296700.0 -0.9843113805 0.1569702031
600296400.0 -1.01710114 0.1904715354
650296100.0 -0.9819893533 0.1870653117
700295800.0 -0.9792309452 0.2013653544
750295500.0 -0.9760255285 0.2155178927
800295200.0 -0.972740285 0.2296241812
850294900.0 -0.9694395348 0.2434234356
900294600.0 -0.9656158209 0.2570824428
950294300.0 -0.9618137999 0.2706596531
1000294000.0 -0.9577818368 0.2848826741
1050293700.0 -0.953370522 0.2985890233
1100293400.0 -0.948864814 0.3128435227
1150293100.0 -0.9452599411 0.3248231115
1200292800.0 -0.9397533696 0.3391087273
1250292500.0 -0.9342461699 0.3525960568
1300292200.0 -0.928584874 0.3660172283
1350291900.0 -0.9230677988 0.3797518995
1400291600.0 -0.9176154398 0.3929320345
1450291300.0 -0.9120277552 0.4053425707
1500291000.0 -0.9058045371 0.4184724398
1550290700.0 -0.8993999797 0.4319799374
1600290400.0 -0.8931133011 0.4448255367
1650290100.0 -0.8863925889 0.4570072219
1700289800.0 -0.8795807896 0.4702793292
1750289500.0 -0.8724740074 0.482691484
1800289200.0 -0.8650153786 0.4955633926
1850288900.0 -0.8582952134 0.5067923045
1900288600.0 -0.8506167181 0.5200296637
1950288300.0 -0.8423519262 0.532550644
2000288000.0 -0.8348173002 0.5440369003
2050287700.0 -0.8266508931 0.5560073683
2100287400.0 -0.8188449515 0.5678896135
2150287100.0 -0.8099683245 0.5802178521
2200286800.0 -0.8023729061 0.5902500919
2250286500.0 -0.7934339832 0.6024226067
2300286200.0 -0.7846006567 0.6140507782
2350285900.0 -0.7757788417 0.6250019663
2400285600.0 -0.7666475242 0.6360851848
2450285300.0 -0.7579469844 0.6465052613
2500285000.0 -0.7484927079 0.6574360196
2550284700.0 -0.7390605193 0.6680881913
2600284400.0 -0.7299767185 0.6781063159
2650284100.0 -0.7207501703 0.6885155259
2700283800.0 -0.7101525242 0.6990574936
2750283500.0 -0.700125749 0.7099346983
2800283200.0 -0.6904189329 0.7193735706
2850282900.0 -0.6799828532 0.7291193455
2900282600.0 -0.6696653916 0.7389291177
2950282300.0 -0.6594202435 0.7481020092
3000282000.0 -0.6488283062 0.7575229267
3050281700.0 -0.6377497547 0.7667014598
3100281400.0 -0.625776409 0.7762521704
3150281100.0 -0.613981255 0.7854686275
3200280800.0 -0.6024653977 0.7939757788
3250280500.0 -0.5915971516 0.8015354574
3300280200.0 -0.5803657679 0.8093906466
3350279900.0 -0.568939188 0.8170278284
3400279600.0 -0.5568279834 0.8246856051
3450279300.0 -0.5456934397 0.831741678
3500279000.0 -0.5337820768 0.8389578213
3550278700.0 -0.5210966167 0.8461951095
3600278400.0 -0.5087266811 0.8531968042
3650278100.0 -0.4957464066 0.8611591457
3700277800.0 -0.4835832189 0.867317724
3750277500.0 -0.4714919601 0.8740697496
3800277200.0 -0.458908101 0.8805516238
3850276900.0 -0.4466868211 0.8865674683
3900276600.0 -0.4356946838 0.8920899831
3950276300.0 -0.4230668742 0.8981941225
4000276000.0 -0.4111912655 0.9040152535
4050275700.0 -0.3980727004 0.9102757822
4100275400.0 -0.3870328502 0.915626576
4150275100.0 -0.3741055527 0.9213418311
4200274800.0 -0.3611959358 0.9269326181
4250274500.0 -0.3489350622 0.9317160665
4300274200.0 -0.3358806345 0.937239391
4350273900.0 -0.3222028344 0.942256281
4400273600.0 -0.3073881593 0.9477001497
4450273300.0 -0.2919009176 0.9526513193
4500273000.0 -0.2782955243 0.9569448884
4550272700.0 -0.2640279004 0.9611153868
4600272400.0 -0.2485399514 0.9652901237
4650272100.0 -0.2368998209 0.9686002933
4700271800.0 -0.223520399 0.9719175979
4750271500.0 -0.2119639332 0.9746551623
4800271200.0 -0.1993520425 0.9775303598
4850270900.0 -0.1853910729 0.9802522249
4900270600.0 -0.1715472159 0.9825793154
4950270300.0 -0.1574328519 0.9850944387
5000270000.0 -0.1431857316 0.9870406511
5050269700.0 -0.1298581618 0.9888692231
5100269400.0 -0.1162727042 0.9907603299
5150269100.0 -0.1029231851 0.9919929845
5200268800.0 -0.0897568009 0.9932936855
5250268500.0 -0.0768092413 0.9942280851
5300268200.0 -0.0636225875 0.994786768
5350267900.0 -0.0513867739 0.9956090562
5400267600.0 -0.0352048395 0.996457525
5450267300.0 -0.022187461 0.996867887
5500267000.0 -0.0068895434 0.9972512797
5550266700.0 0.0077830859 0.9972574229
5600266400.0 0.0236863169 0.9974731058
5650266100.0 0.0399037262 0.9968462471
5700265800.0 0.0545654575 0.996427258
5750265500.0 0.0694771711 0.9953765264
5800265200.0 0.083833355 0.9943147558
5850264900.0 0.097087889 0.9933690954
5900264600.0 0.1136202288 0.9916092476
5950264300.0 0.1257789346 0.9898219514
6000264000.0 0.1397633284 0.9878967466
6050263700.0 0.1523312072 0.9862669481
6100263400.0 0.1646097554 0.9842177004
6150263100.0 0.1791606515 0.9820591174
6200262800.0 0.1900169674 0.9803635375
6250262500.0 0.2027219495 0.9777574139
6300262200.0 0.2155673142 0.9749387618
6350261900.0 0.2285225278 0.9721206586
6400261600.0 0.2424297114 0.9687893762
6450261300.0 0.2537174239 0.9660079203
6500261000.0 0.2664499085 0.9624978911
6550260700.0 0.2793782828 0.9584667466
6600260400.0 0.2926252301 0.9547120808
6650260100.0 0.3066215837 0.9501860438
6700259800.0 0.3186854278 0.9460115194
6750259500.0 0.3326696453 0.9409849285
6800259200.0 0.3455051542 0.9361213393
6850258900.0 0.357287498 0.9309727127
6900258600.0 0.3695478695 0.9260362768
6950258300.0 0.3820874889 0.9205821305
7000258000.0 0.3941082707 0.9152505751
7050257700.0 0.4065858302 0.9093037807
7100257400.0 0.41928985 0.9029720403
7150257100.0 0.4293435666 0.8977628574
7200256800.0 0.4420172972 0.8914625909
7250256500.0 0.4538997704 0.8852026441
7300256200.0 0.4671589171 0.8784469536
7350255900.0 0.4795260173 0.8713056065
7400255600.0 0.4928529728 0.86455591
7450255300.0 0.5078985601 0.8553028896
7500255000.0 0.5199496094 0.8481634674
7550254700.0 0.5329812106 0.8394667479
7600254400.0 0.545961786 0.8311514011
7650254100.0 0.557578496 0.8233591644
7700253800.0 0.5693346448 0.8153810259
7750253500.0 0.5807490799 0.8074521406
7800253200.0 0.5911719741 0.7996823175
7850252900.0 0.6010807021 0.7926719321
7900252600.0 0.6126140623 0.7837760931
7950252300.0 0.6215513109 0.7772469128
8000252000.0 0.6317316405 0.7693819507
8050251700.0 0.6423474572 0.7610818234
8100251400.0 0.6523694649 0.7529930341
8150251100.0 0.6627055974 0.7440507994
8200250800.0 0.671821308 0.7362208496
8250250500.0 0.680994195 0.7281847271
8300250200.0 0.6903338282 0.7195363809
8350249900.0 0.6993575305 0.7109863454
8400249600.0 0.7078010635 0.702906092
8450249300.0 0.7169804348 0.6936013127
8500249000.0 0.725222406 0.684787169
8550248700.0 0.7335486469 0.6759017488
8600248400.0 0.7419950412 0.6663608781
8650248100.0 0.7496358178 0.6569425588
8700247800.0 0.7592726646 0.6456948768
8750247500.0 0.7674498929 0.6357565171
8800247200.0 0.7756078331 0.6253463976
8850246900.0 0.7844584307 0.613933174
8900246600.0 0.7923822917 0.6026652293
8950246300.0 0.8021304461 0.5896359441
9000246000.0 0.8114598655 0.5768410439
9050245700.0 0.8204260048 0.5640718331
9100245400.0 0.8290042046 0.5513868336
9150245100.0 0.8387467352 0.5377623348
9200244800.0 0.8483330559 0.5227189061
9250244500.0 0.8577314658 0.5070753402
9300244200.0 0.8661968613 0.4925738839
9350243900.0 0.8738749388 0.4783700232
9400243600.0 0.8805972348 0.4657907906
9450243300.0 0.8865096476 0.453960698
9500243000.0 0.8928141672 0.4415875684
9550242700.0 0.8966834766 0.433801582
9600242400.0 0.9005590365 0.4264237418
9650242100.0 0.904049894 0.4198838836
9700241800.0 0.908574062 0.4113952469
9750241500.0 0.9127073847 0.4037304893
9800241200.0 0.9171927138 0.3946176177
9850240900.0 0.9226874999 0.3829318881
9900240600.0 0.9284497736 0.3712690017
9950240300.0 0.9350404337 0.3549265241
10000240000.0 0.9395685953 0.3435890712
10050239700.0 0.9451141783 0.3282934452
10100239400.0 0.9501209492 0.3132475201
10150239100.0 0.9546215677 0.2984260019
10200238800.0 0.9586908063 0.2835722866
10250238500.0 0.9620104485 0.270185162
10300238200.0 0.9650070425 0.2562384201
10350237900.0 0.967709539 0.2432508479
10400237600.0 0.9702855978 0.2301117029
10450237300.0 0.9727659823 0.2166909766
10500237000.0 0.9753704607 0.2040428563
10550236700.0 0.9774373359 0.1904526357
10600236400.0 0.9793368641 0.176905228
10650236100.0 0.981235242 0.1624470293
10700235800.0 0.9839503422 0.1502504585
10750235500.0 0.9860754589 0.1373533709
10800235200.0 0.9877645848 0.1234734298
10850234900.0 0.9897022992 0.1085945279
10900234600.0 0.9919029865 0.0940803622
10950234300.0 0.9934244659 0.0809061575
11000234000.0 0.9951639038 0.0660110085
11050233700.0 0.9970551163 0.0496607662
11100233400.0 0.9984204938 0.0322171712
11150233100.0 0.9993255729 0.0160632264
11200232800.0 1.000261215 0.0010190803
11250232500.0 1.00066066 -0.0158343735
11300232200.0 1.00086404 -0.0331055276
11350231900.0 1.001474948 -0.0488121967
11400231600.0 1.001221327 -0.065208304
11450231300.0 1.000339541 -0.0799067562
11500231000.0 0.9997428602 -0.0959970857
11550230700.0 0.9979065791 -0.1106393069
11600230400.0 0.9962511861 -0.1230254281
11650230100.0 0.994511179 -0.1347884502
11700229800.0 0.9921709275 -0.149575519
11750229500.0 0.9897750014 -0.1642411444
11800229200.0 0.9871075557 -0.1783639309
11850228900.0 0.983688423 -0.190773354
11900228600.0 0.9801340003 -0.2007096559
11950228300.0 0.9767961339 -0.2113697818
12000228000.0 0.9744072248 -0.2197453831
12050227700.0 0.9704348426 -0.2337209209
12100227400.0 0.9674259355 -0.2437613001
12150227100.0 0.9622116301 -0.2605983746
12200226800.0 0.9590836768 -0.2711887275
12250226500.0 0.9548375739 -0.284159289
12300226200.0 0.9502529229 -0.2962946806
12350225900.0 0.9457605409 -0.310118107
12400225600.0 0.9412622967 -0.3226834427
12450225300.0 0.9373555712 -0.3356889134
12500225000.0 0.9315808464 -0.3494080623
12550224700.0 0.9264069827 -0.3635468064
12600224400.0 0.9216405704 -0.3762675174
12650224100.0 0.9159017092 -0.3902425554
12700223800.0 0.910747121 -0.403106302
12750223500.0 0.9051493159 -0.4160879723
12800223200.0 0.8999327838 -0.4285485471
12850222900.0 0.8945087162 -0.440605366
12900222600.0 0.8886747341 -0.4524083286
12950222300.0 0.8824034687 -0.4653387079
13000222000.0 0.8766649027 -0.4776526283
13050221700.0 0.8693030888 -0.4900928429
13100221400.0 0.8627374536 -0.5021533109
13150221100.0 0.855487773 -0.5144429885
13200220800.0 0.8487350876 -0.5259062798
13250220500.0 0.8415863751 -0.5382577833
13300220200.0 0.8340876311 -0.5490889286
13350219900.0 0.825857393 -0.5610255942
13400219600.0 0.8175711083 -0.5734855607
13450219300.0 0.8076628711 -0.5869497079
13500219000.0 0.7973983549 -0.6009903123
13550218700.0 0.787127371 -0.6140016401
13600218400.0 0.7768828763 -0.6262555338
13650218100.0 0.7676561503 -0.6372328851
13700217800.0 0.7565949832 -0.6493434735
13750217500.0 0.7460885222 -0.6612751356
13800217200.0 0.7350279111 -0.6727769034
13850216900.0 0.7238949419 -0.6836951849
13900216600.0 0.7139879146 -0.6931750392
13950216300.0 0.7030962208 -0.7025136718
14000216000.0 0.6931001428 -0.7121294449
14050215700.0 0.6835925147 -0.7208199711
14100215400.0 0.6733431785 -0.7298748308
14150215100.0 0.6645913825 -0.7384469563
14200214800.0 0.6554313844 -0.7465762468
14250214500.0 0.6452952072 -0.7559241641
14300214200.0 0.6349681453 -0.7650890821
14350213900.0 0.6239881502 -0.7745419212
14400213600.0 0.612095396 -0.7841335235
14450213300.0 0.5994078236 -0.7942798558
14500213000.0 0.5861644306 -0.8045672981
14550212700.0 0.5739775254 -0.8131218244
14600212400.0 0.5613378683 -0.8219797214
14650212100.0 0.5483294754 -0.8305637927
14700211800.0 0.5343338616 -0.8404608945
14750211500.0 0.5224792444 -0.8485075632
14800211200.0 0.5104627542 -0.8564067893
14850210900.0 0.4979823805 -0.8641493545
14900210600.0 0.4844942602 -0.8720625383
14950210300.0 0.4708113048 -0.8798126107
15000210000.0 0.4580236659 -0.8864893855
15050209700.0 0.4455534099 -0.8925020292
15100209400.0 0.4329294197 -0.8982846258
15150209100.0 0.4208254419 -0.9042332019
15200208800.0 0.4069905594 -0.9093157558
15250208500.0 0.3958816777 -0.9133659256
15300208200.0 0.3831433148 -0.9186678247
15350207900.0 0.3696083249 -0.9240654931
15400207600.0 0.3544966762 -0.9287960461
15450207300.0 0.3405080809 -0.9340205941
15500207000.0 0.3256559437 -0.9388641522
15550206700.0 0.3110939694 -0.9433956393
15600206400.0 0.2949971946 -0.9481198488
15650206100.0 0.279791941 -0.9518661487
15700205800.0 0.2656312511 -0.9562755413
15750205500.0 0.2508931758 -0.9595171009
15800205200.0 0.2365985034 -0.9629556953
15850204900.0 0.2221519402 -0.9663144147
15900204600.0 0.2074404298 -0.969790314
15950204300.0 0.1935790809 -0.9727450761
16000204000.0 0.1792136612 -0.9756478502
16050203700.0 0.1648443878 -0.978190999
16100203400.0 0.1504745493 -0.9803635183
16150203100.0 0.1363654408 -0.9830867979
16200202800.0 0.1223397076 -0.9850255081
16250202500.0 0.1073113692 -0.9865777441
16300202200.0 0.0921296198 -0.9881364569
16350201900.0 0.077447166 -0.9892963933
16400201600.0 0.0627984489 -0.9901875387
16450201300.0 0.0480642786 -0.9913839833
16500201000.0 0.0313761859 -0.9920692785
16550200700.0 0.0156281631 -0.9926616985
16600200400.0 -0.0002467144 -0.9924526774
16650200100.0 -0.0166610294 -0.9922222226
16700199800.0 -0.03279526 -0.9922999673
16750199500.0 -0.0518239034 -0.9913388553
16800199200.0 -0.067609075 -0.9906144129
16850198900.0 -0.0832600552 -0.9891865295
16900198600.0 -0.0964787451 -0.9874739687
16950198300.0 -0.1104893127 -0.9869717612
17000198000.0 -0.1234081175 -0.9859024387
17050197700.0 -0.1358595853 -0.9834362701
17100197400.0 -0.1494721802 -0.9819046756
17150197100.0 -0.1615638794 -0.9799113162
17200196800.0 -0.1746476102 -0.9774736666
17250196500.0 -0.1877387942 -0.975036524
17300196200.0 -0.1996661707 -0.9726984906
17350195900.0 -0.2116289317 -0.9704473935
17400195600.0 -0.223804425 -0.9679286707
17450195300.0 -0.2370937962 -0.9652858424
17500195000.0 -0.2505056132 -0.9617318137
17550194700.0 -0.2642318914 -0.9581770177
17600194400.0 -0.2782960842 -0.9541310538
17650194100.0 -0.2920114314 -0.9501391855
17700193800.0 -0.3045737043 -0.9459936809
17750193500.0 -0.3190713944 -0.9412549062
17800193200.0 -0.3338936201 -0.9362965903
17850192900.0 -0.3483357943 -0.9303102266
17900192600.0 -0.3637742645 -0.9245966819
17950192300.0 -0.3786742014 -0.9175747394
18000192000.0 -0.3933575599 -0.9105003855
18050191700.0 -0.4074633315 -0.9026003016
18100191400.0 -0.4213835271 -0.894921562
18150191100.0 -0.4362211882 -0.8868319348
18200190800.0 -0.4528816021 -0.8778539903
18250190500.0 -0.4697452937 -0.8682494786
18300190200.0 -0.4852247636 -0.8593499165
18350189900.0 -0.5003520454 -0.8515340769
18400189600.0 -0.5148176523 -0.8422775393
18450189300.0 -0.5282502709 -0.8347477885
18500189000.0 -0.541434098 -0.8260463759
18550188700.0 -0.5542009725 -0.8187855601
18600188400.0 -0.5654951896 -0.8118637641
18650188100.0 -0.5771282663 -0.8052579548
18700187800.0 -0.5879937275 -0.7984654609
18750187500.0 -0.5989859915 -0.791811175
18800187200.0 -0.6095737345 -0.7846600551
18850186900.0 -0.6199537177 -0.7775244738
18900186600.0 -0.6301904815 -0.7699323634
18950186300.0 -0.6404058258 -0.7620074327
19000186000.0 -0.6480890385 -0.7559293421
19050185700.0 -0.6576191916 -0.7483056884
19100185400.0 -0.6677975295 -0.7400774635
19150185100.0 -0.6776892734 -0.7314193076
19200184800.0 -0.6868748853 -0.7228333974
19250184500.0 -0.6979405312 -0.7144677953
19300184200.0 -0.7089636637 -0.7045663333
19350183900.0 -0.7200255948 -0.6943127561
19400183600.0 -0.7291131156 -0.6843917914
19450183300.0 -0.738260498 -0.6747039022
19500183000.0 -0.7463396674 -0.6646223961
19550182700.0 -0.7561194618 -0.6534946203
19600182400.0 -0.7663288544 -0.64245716
19650182100.0 -0.7767489843 -0.6301240941
19700181800.0 -0.7875765013 -0.6166971031
19750181500.0 -0.7978295599 -0.6031813693
19800181200.0 -0.8080031511 -0.5884060387
19850180900.0 -0.8175975631 -0.5730891892
19900180600.0 -0.8250776741 -0.558686333
19950180300.0 -0.8340505004 -0.5424708665
20000180000.0 -0.8277593642 -0.5446616854
20050179700.0 -0.8357287664 -0.5316305306
20100179400.0 -0.843741529 -0.5180344957
20150179100.0 -0.8522167814 -0.5053953936
20200178800.0 -0.8611744321 -0.4929101594
20250178500.0 -0.8704422325 -0.4779674155
20300178200.0 -0.8793591628 -0.4642731215
20350177900.0 -0.8887406946 -0.4496616222
20400177600.0 -0.8971239016 -0.4354448051
20450177300.0 -0.9053771168 -0.4206968514
20500177000.0 -0.9134648867 -0.4067216357
20550176700.0 -0.9209920785 -0.3931164738
20600176400.0 -0.9282822228 -0.38014638
20650176100.0 -0.9350797369 -0.3675075534
20700175800.0 -0.9418857485 -0.3552411942
20750175500.0 -0.9481442267 -0.3435900709
20800175200.0 -0.9530509351 -0.332473293
20850174900.0 -0.9576567022 -0.3213658753
20900174600.0 -0.962748205 -0.3096152113
20950174300.0 -0.9673404488 -0.2979546803
21000174000.0 -0.9708581467 -0.2867798741
21050173700.0 -0.9735193808 -0.2748580075
21100173400.0 -0.9776890696 -0.2627751786
21150173100.0 -0.9818652092 -0.2502477364
21200172800.0 -0.9854748346 -0.2365469249
21250172500.0 -0.9883427014 -0.2226128997
21300172200.0 -0.991035209 -0.2088953504
21350171900.0 -0.9925012348 -0.1941720925
21400171600.0 -0.9932041373 -0.180140867
21450171300.0 -0.9937305888 -0.1656772391
21500171000.0 -0.9939411393 -0.1497419494
21550170700.0 -0.9935024733 -0.1356424429
21600170400.0 -0.9938271015 -0.119579915
21650170100.0 -0.9924144035 -0.1035353758
21700169800.0 -0.9914686319 -0.0883543059
21750169500.0 -0.9887198141 -0.0732102976
21800169200.0 -0.9883037268 -0.0571347268
21850168900.0 -0.98713557 -0.0406154023
21900168600.0 -0.9849507813 -0.0242041003
21950168300.0 -0.9840971687 -0.0082720061
22000168000.0 -0.9825924505 0.0066604216
22050167700.0 -0.9824017008 0.0204536614
22100167400.0 -0.9821611691 0.0360722676
22150167100.0 -0.9823865687 0.0513365598
22200166800.0 -0.9825885521 0.0671232995
22250166500.0 -0.9823345923 0.0841526981
22300166200.0 -0.9819340998 0.1011462507
22350165900.0 -0.980500667 0.1171006016
22400165600.0 -0.9783449374 0.1331066987
22450165300.0 -0.9768349023 0.1482903714
22500165000.0 -0.9743847375 0.1620909051
22550164700.0 -0.9731933455 0.1774139587
22600164400.0 -0.9720128743 0.1919453191
22650164100.0 -0.9701622166 0.2075286764
22700163800.0 -0.9673525575 0.2233940298
22750163500.0 -0.9644703332 0.2386465076
22800163200.0 -0.9618193013 0.2517753317
22850162900.0 -0.9595275907 0.2654727679
22900162600.0 -0.9580295611 0.2788272515
22950162300.0 -0.9568375052 0.2918470362
23000162000.0 -0.9561345884 0.3034137606
23050161700.0 -0.9538886461 0.315913876
23100161400.0 -0.9515483164 0.3285485804
23150161100.0 -0.9491022589 0.3405805887
23200160800.0 -0.9462118217 0.3528563868
23250160500.0 -0.9436460874 0.3651562604
23300160200.0 -0.9410633075 0.3766190477
23350159900.0 -0.9372226816 0.3899517677
23400159600.0 -0.932218522 0.4030275417
23450159300.0 -0.9273954967 0.4158018199
23500159000.0 -0.9226703584 0.428507949
23550158700.0 -0.9183405582 0.4417250618
23600158400.0 -0.9130192771 0.4548623994
23650158100.0 -0.9070433447 0.4685753908
23700157800.0 -0.8992922097 0.482165878
23750157500.0 -0.890881678 0.4962711596
23800157200.0 -0.881866623 0.5093319346
23850156900.0 -0.8728224636 0.5223160749
23900156600.0 -0.8641475836 0.5343138004
23950156300.0 -0.8542155862 0.5470779247
24000156000.0 -0.8454073505 0.5590145307
24050155700.0 -0.8357869975 0.5699117001
24100155400.0 -0.8255466236 0.5824014136
24150155100.0 -0.8147746246 0.5942483612
24200154800.0 -0.8035877081 0.6057981225
24250154500.0 -0.7924490108 0.6172409355
24300154200.0 -0.7812031433 0.6289236804
24350153900.0 -0.769423927 0.6394721397
24400153600.0 -0.756976641 0.6498534739
24450153300.0 -0.7454190114 0.6598441572
24500153000.0 -0.7338154435 0.6692371098
24550152700.0 -0.7224817563 0.679037742
24600152400.0 -0.7110526824 0.6890653063
24650152100.0 -0.6999241485 0.6971097183
