!Created with skrf (http://scikit-rf.org).
# Hz S RI R 50.0 
!freq ReS11 ImS11
300000.0 -0.9754735051 -0.1189213337
50299700.0 -1.000042894 0.0151293976
100299400.0 -0.9979764856 0.0281983335
150299100.0 -1.002922705 0.0450169377
200298800.0 -0.9996898597 0.0583478907
250298500.0 -0.9976060913 0.0718492517
300298200.0 -0.9860094637 0.0876805903
350297900.0 -0.9941263972 0.098686008
400297600.0 -0.9932605445 0.115152617
450297300.0 -0.991032586 0.1288973087
500297000.0 -0.989344222 0.143667233
550296700.0 -0.9844621943 0.1561898615
600296400.0 -1.017322563 0.1895456255
650296100.0 -0.9822705766 0.1859761692
700295800.0 -0.9793357698 0.2001655948
750295500.0 -0.976341128 0.2143917961
800295200.0 -0.9730325649 0.2285311626
850294900.0 -0.9696446243 0.242073514
900294600.0 -0.9657241967 0.2560805409
950294300.0 -0.9621513541 0.2696332342
1000294000.0 -0.9581746897 0.2836060584
1050293700.0 -0.9534442013 0.2974545836
1100293400.0 -0.9491663328 0.3118924516
1150293100.0 -0.9456941404 0.3238715965
1200292800.0 -0.940105698 0.3381586111
1250292500.0 -0.9345324217 0.3514887589
1300292200.0 -0.9290246769 0.3647123587
1350291900.0 -0.9234391116 0.3788802711
1400291600.0 -0.9181711829 0.3918907381
1450291300.0 -0.9125155973 0.4043245989
1500291000.0 -0.9062859024 0.4176511411
1550290700.0 -0.8997594758 0.430928364
1600290400.0 -0.8934015522 0.4439491359
1650290100.0 -0.8868498324 0.456125131
1700289800.0 -0.8798720533 0.4696322909
1750289500.0 -0.8728869931 0.4817454035
1800289200.0 -0.8654000195 0.4947239535
1850288900.0 -0.8588125179 0.5060242901
1900288600.0 -0.8509945785 0.5192355366
1950288300.0 -0.8428906036 0.5316713548
2000288000.0 -0.8353872179 0.543160432
2050287700.0 -0.8272756982 0.555119384
2100287400.0 -0.8192902938 0.5669207214
2150287100.0 -0.8108630628 0.5790701216
2200286800.0 -0.8031857261 0.5892833312
2250286500.0 -0.7941631783 0.6015096449
2300286200.0 -0.7852366623 0.6130353871
2350285900.0 -0.7765989506 0.6239761843
2400285600.0 -0.7674927595 0.6350885025
2450285300.0 -0.7591567659 0.6454815297
2500285000.0 -0.7493289484 0.6567616918
2550284700.0 -0.7407385761 0.6670038774
2600284400.0 -0.7310758872 0.6773060155
2650284100.0 -0.7220826826 0.687516715
2700283800.0 -0.7114172916 0.698152205
2750283500.0 -0.7012360753 0.7088898069
2800283200.0 -0.6914280541 0.7185400578
2850282900.0 -0.681129855 0.7282929964
2900282600.0 -0.670796225 0.7379353704
2950282300.0 -0.6604762659 0.7473950895
3000282000.0 -0.6499660952 0.7567421651
3050281700.0 -0.6387833757 0.7661696123
3100281400.0 -0.6268491652 0.7753456985
3150281100.0 -0.6149964306 0.7847601193
3200280800.0 -0.6033579949 0.7932252071
3250280500.0 -0.5925555677 0.8009147875
3300280200.0 -0.5813888169 0.8087696348
3350279900.0 -0.5697329614 0.8164275535
3400279600.0 -0.5576120826 0.8240382388
3450279300.0 -0.5465166473 0.8313012271
3500279000.0 -0.5345875806 0.8385678601
3550278700.0 -0.5219469129 0.8454010508
3600278400.0 -0.5098223634 0.8526095722
3650278100.0 -0.496526559 0.8602684188
3700277800.0 -0.4844896009 0.8668798091
3750277500.0 -0.4724791118 0.8732367603
3800277200.0 -0.4598643875 0.8797630983
3850276900.0 -0.4478533576 0.8856186872
3900276600.0 -0.4370654868 0.8917618123
3950276300.0 -0.4245684687 0.8975357026
4000276000.0 -0.4126207479 0.903418164
4050275700.0 -0.3997524531 0.9096088896
4100275400.0 -0.3887509315 0.9150083309
4150275100.0 -0.3756766265 0.9208300628
4200274800.0 -0.3629640236 0.9261264793
4250274500.0 -0.3508691141 0.9312360274
4300274200.0 -0.3377824704 0.9367106994
4350273900.0 -0.323717664 0.9417391192
4400273600.0 -0.3090775498 0.9471165398
4450273300.0 -0.293706888 0.9523334422
4500273000.0 -0.2800960515 0.9567110826
4550272700.0 -0.2658800144 0.9609801884
4600272400.0 -0.2504400704 0.9650912543
4650272100.0 -0.238812534 0.9683100178
4700271800.0 -0.2254699581 0.9715791982
4750271500.0 -0.2138593556 0.9744929438
4800271200.0 -0.2013351587 0.9771374093
4850270900.0 -0.1872752585 0.9799145747
4900270600.0 -0.1734660038 0.9824363798
4950270300.0 -0.1591427902 0.9848168333
5000270000.0 -0.1447160697 0.9869826455
5050269700.0 -0.1314041432 0.9888277374
5100269400.0 -0.1176906924 0.9905901206
5150269100.0 -0.1044056145 0.9918422759
5200268800.0 -0.0910053503 0.9929930893
5250268500.0 -0.0779419317 0.9940301447
5300268200.0 -0.0649269007 0.9945941567
5350267900.0 -0.0527497656 0.9950176584
5400267600.0 -0.0365363631 0.9962418636
5450267300.0 -0.0233542052 0.9966608093
5500267000.0 -0.0084542749 0.9971049326
5550266700.0 0.0065823765 0.9973856871
5600266400.0 0.0222216453 0.9973392316
5650266100.0 0.0389816175 0.9972598994
5700265800.0 0.0532520583 0.9962212006
5750265500.0 0.0683211656 0.995443847
5800265200.0 0.0820399118 0.9942281732
5850264900.0 0.0955067093 0.9934870708
5900264600.0 0.1118656438 0.991479836
5950264300.0 0.124264754 0.9901437337
6000264000.0 0.1381117618 0.9881539732
6050263700.0 0.1505209581 0.9866912794
6100263400.0 0.1629090039 0.9853526857
6150263100.0 0.1775729158 0.9828196707
6200262800.0 0.1880168307 0.9809716905
6250262500.0 0.2004262352 0.978449338
6300262200.0 0.2133905778 0.9757676583
6350261900.0 0.2263664011 0.9729141281
6400261600.0 0.2402869888 0.9696290129
6450261300.0 0.2517999125 0.9670972009
6500261000.0 0.2646022988 0.9633641702
6550260700.0 0.2773944822 0.9594350378
6600260400.0 0.2905166561 0.9552295788
6650260100.0 0.3049835649 0.9513879794
6700259800.0 0.316523844 0.9466393325
6750259500.0 0.3302392488 0.9417542633
6800259200.0 0.343816326 0.9368751821
6850258900.0 0.3557915435 0.9317086961
6900258600.0 0.3677079895 0.9265544583
6950258300.0 0.3806800585 0.9213801109
7000258000.0 0.392375901 0.9159874607
7050257700.0 0.4046396087 0.9100282027
7100257400.0 0.4174173903 0.9036250379
7150257100.0 0.4278617796 0.8983241334
7200256800.0 0.4406346965 0.8920937925
7250256500.0 0.4526642077 0.885788555
7300256200.0 0.4654228177 0.8788217513
7350255900.0 0.4779337508 0.8718653722
7400255600.0 0.4917617869 0.8648875957
7450255300.0 0.5070969227 0.8559765599
7500255000.0 0.5183877216 0.8486920787
7550254700.0 0.5322478024 0.8401914563
7600254400.0 0.54502377 0.8318812439
7650254100.0 0.5561114004 0.823967787
7700253800.0 0.5681318088 0.8162728871
7750253500.0 0.5792835553 0.8084218139
7800253200.0 0.5901924254 0.8008732947
7850252900.0 0.5997659799 0.7935952065
7900252600.0 0.6115263206 0.7850037615
7950252300.0 0.6202698394 0.7784680642
8000252000.0 0.6304807609 0.7707136166
8050251700.0 0.6410725774 0.7626576203
8100251400.0 0.6511121671 0.7545638887
8150251100.0 0.6609717424 0.7459037065
8200250800.0 0.6705337949 0.7379492552
8250250500.0 0.6789988006 0.7300073309
8300250200.0 0.6889164766 0.7214054436
8350249900.0 0.6980130126 0.7127223266
8400249600.0 0.7060261519 0.704459597
8450249300.0 0.7156390837 0.6955494626
8500249000.0 0.7236510632 0.686599343
8550248700.0 0.732294903 0.6773420534
8600248400.0 0.740522577 0.6678882962
8650248100.0 0.7482118037 0.6584484051
8700247800.0 0.7577883039 0.6473544036
8750247500.0 0.7660743544 0.6371069275
8800247200.0 0.7741669157 0.626716726
8850246900.0 0.7832432278 0.6154307702
8900246600.0 0.791624469 0.6038669303
8950246300.0 0.8009277422 0.5911524818
9000246000.0 0.8107112042 0.5782399246
9050245700.0 0.8193796066 0.5654154626
9100245400.0 0.8279947332 0.5529162069
9150245100.0 0.8375201195 0.5393560064
9200244800.0 0.8469976096 0.5242767239
9250244500.0 0.856555793 0.5089645484
9300244200.0 0.8649673301 0.4945351423
9350243900.0 0.87231301 0.480422651
9400243600.0 0.8793131936 0.4681787233
9450243300.0 0.8851290159 0.4567685524
9500243000.0 0.8914725378 0.4445699339
9550242700.0 0.8953823782 0.4367950577
9600242400.0 0.8992508144 0.4293456724
9650242100.0 0.9031093596 0.4227251242
9700241800.0 0.9073831757 0.4147133536
9750241500.0 0.9115598671 0.4072364635
9800241200.0 0.9164621449 0.397673135
9850240900.0 0.9220833205 0.3862095338
9900240600.0 0.9270916145 0.3751367614
9950240300.0 0.9340861722 0.3586703531
10000240000.0 0.9394141681 0.3470057223
10050239700.0 0.9447852363 0.3316961999
10100239400.0 0.9496138874 0.3158868579
10150239100.0 0.9540613904 0.3014061737
10200238800.0 0.9581257963 0.2866846202
10250238500.0 0.9616269951 0.273285596
10300238200.0 0.9646040655 0.2593041788
10350237900.0 0.9673540015 0.2460608053
10400237600.0 0.9697402672 0.2328661132
10450237300.0 0.9722244254 0.2193021358
10500237000.0 0.9744192597 0.2068614609
10550236700.0 0.9770418944 0.1925836621
10600236400.0 0.9790829412 0.1791235283
10650236100.0 0.9808477175 0.1642929368
10700235800.0 0.9835397897 0.1524800501
10750235500.0 0.9855830087 0.1388709464
10800235200.0 0.9875703322 0.1246988445
10850234900.0 0.989487076 0.1103253681
10900234600.0 0.991701866 0.0954448463
10950234300.0 0.9935014358 0.0822713472
11000234000.0 0.9951477347 0.0670245119
11050233700.0 0.9971129368 0.0509086037
11100233400.0 0.9985267907 0.033534107
11150233100.0 0.9994310738 0.0172691672
11200232800.0 1.000714752 0.0021250874
11250232500.0 1.001088062 -0.0145257761
11300232200.0 1.002291606 -0.0327916826
11350231900.0 1.002219173 -0.0486854959
11400231600.0 1.001684189 -0.0633120679
11450231300.0 1.001401119 -0.0779595172
11500231000.0 0.9998336384 -0.0954046631
11550230700.0 0.9984377843 -0.1077923748
11600230400.0 0.9967149704 -0.1202726352
11650230100.0 0.995145513 -0.1326449428
11700229800.0 0.9935872858 -0.1469899536
11750229500.0 0.9910542712 -0.1613093289
11800229200.0 0.9881947887 -0.1749260231
11850228900.0 0.984940718 -0.1873992205
11900228600.0 0.9815179949 -0.1972224939
11950228300.0 0.9779796763 -0.207691919
12000228000.0 0.9752428982 -0.2169679261
12050227700.0 0.9716949513 -0.2293924982
12100227400.0 0.9685940951 -0.2405075983
12150227100.0 0.9627134017 -0.2575638823
12200226800.0 0.9597338205 -0.2684469746
12250226500.0 0.9556113823 -0.2819823204
12300226200.0 0.952071595 -0.2942298457
12350225900.0 0.9473392741 -0.307496942
12400225600.0 0.9423727525 -0.3202758143
12450225300.0 0.9380099574 -0.3328916793
12500225000.0 0.9325655406 -0.3478785891
12550224700.0 0.9268675308 -0.3616386165
12600224400.0 0.9221747088 -0.3746656292
12650224100.0 0.9165002498 -0.3890654982
12700223800.0 0.9111823761 -0.4019078855
12750223500.0 0.9055857511 -0.4150453809
12800223200.0 0.9002682406 -0.4274291294
12850222900.0 0.8949547028 -0.4398081909
12900222600.0 0.889064457 -0.4523072321
12950222300.0 0.883037856 -0.4644576029
13000222000.0 0.8771472383 -0.4761297731
13050221700.0 0.8700786167 -0.48922079
13100221400.0 0.8636950259 -0.5009923686
13150221100.0 0.8567967272 -0.513169066
13200220800.0 0.850204994 -0.5243241474
13250220500.0 0.8428953731 -0.5365263123
13300220200.0 0.8355813897 -0.5473850853
13350219900.0 0.827464451 -0.5589785212
13400219600.0 0.8192934968 -0.5711662604
13450219300.0 0.8096098067 -0.5847871434
13500219000.0 0.7992401914 -0.5985433686
13550218700.0 0.7898541987 -0.6110202348
13600218400.0 0.7795209171 -0.6236005608
13650218100.0 0.7694770392 -0.6342934129
13700217800.0 0.7588015502 -0.646874966
13750217500.0 0.748380845 -0.6576870398
13800217200.0 0.7377821361 -0.6691899921
13850216900.0 0.7271103809 -0.6812908485
13900216600.0 0.7164531762 -0.6902828345
13950216300.0 0.7057635915 -0.7010960848
14000216000.0 0.6954227197 -0.7102776499
14050215700.0 0.6867323721 -0.718115619
14100215400.0 0.6763682867 -0.7272228088
14150215100.0 0.6671803305 -0.7357984466
14200214800.0 0.6577471352 -0.7447301959
14250214500.0 0.6474769642 -0.7541108257
14300214200.0 0.6371403625 -0.7634790818
14350213900.0 0.6260133494 -0.7729135564
14400213600.0 0.6140233854 -0.7826694655
14450213300.0 0.6012170613 -0.7932450408
14500213000.0 0.5878921242 -0.8029551139
14550212700.0 0.5761299701 -0.8119477658
14600212400.0 0.5633336183 -0.8213793282
14650212100.0 0.5503901625 -0.8297170035
14700211800.0 0.5362917895 -0.8396111052
14750211500.0 0.5248223515 -0.8478397391
14800211200.0 0.5117707428 -0.8556906114
14850210900.0 0.5000356354 -0.8633177058
14900210600.0 0.4866823528 -0.871017361
14950210300.0 0.4733397795 -0.8785930835
15000210000.0 0.460419313 -0.8855284379
15050209700.0 0.4483848118 -0.8916666982
15100209400.0 0.4359579499 -0.8975615585
15150209100.0 0.4233822038 -0.902930332
15200208800.0 0.4102202272 -0.9081602851
15250208500.0 0.3989960104 -0.9127653782
15300208200.0 0.386553478 -0.917714616
15350207900.0 0.3738900671 -0.9226518821
15400207600.0 0.3602172228 -0.9274819799
15450207300.0 0.3443386915 -0.9326373984
15500207000.0 0.3299349525 -0.9375868581
15550206700.0 0.3156583562 -0.9425673713
15600206400.0 0.2991757951 -0.9471201574
15650206100.0 0.2835196547 -0.9512943806
15700205800.0 0.2696853504 -0.9549582125
15750205500.0 0.2552921815 -0.9583068515
15800205200.0 0.2406701431 -0.9619981704
15850204900.0 0.2263468496 -0.9654327159
15900204600.0 0.2111288556 -0.969073324
15950204300.0 0.1971413059 -0.9723083483
16000204000.0 0.1829962517 -0.975010721
16050203700.0 0.1677486569 -0.9779599762
16100203400.0 0.1534169945 -0.9803133251
16150203100.0 0.1391118285 -0.9829367828
16200202800.0 0.1245651441 -0.9844284427
16250202500.0 0.1101290987 -0.986417911
16300202200.0 0.0945369965 -0.9874485735
16350201900.0 0.0798942414 -0.9890935212
16400201600.0 0.0651413491 -0.9903306693
16450201300.0 0.049750057 -0.9912975578
16500201000.0 0.0331585732 -0.9921543106
16550200700.0 0.0176356667 -0.992696528
16600200400.0 0.001795221 -0.9927648548
16650200100.0 -0.0140070466 -0.9927144227
16700199800.0 -0.0304797577 -0.9925789478
16750199500.0 -0.0487325158 -0.9916130269
16800199200.0 -0.0644887736 -0.990480649
16850198900.0 -0.0799725987 -0.9894720087
16900198600.0 -0.0938779884 -0.9887536166
16950198300.0 -0.1072521712 -0.9877906329
17000198000.0 -0.120674349 -0.9860042008
17050197700.0 -0.1327044525 -0.9841575923
17100197400.0 -0.1457442828 -0.9823602266
17150197100.0 -0.1583745611 -0.9801225884
17200196800.0 -0.1710124117 -0.9782303734
17250196500.0 -0.1845177684 -0.9758378164
17300196200.0 -0.1965885452 -0.9733967723
17350195900.0 -0.2084816958 -0.9714744946
17400195600.0 -0.2206017089 -0.9689025574
17450195300.0 -0.2336964289 -0.9660431035
17500195000.0 -0.2471758938 -0.9629779475
17550194700.0 -0.2610928417 -0.9591474187
17600194400.0 -0.2750219907 -0.9552278535
17650194100.0 -0.2887133686 -0.9512480752
17700193800.0 -0.301577465 -0.9468909485
17750193500.0 -0.3162407778 -0.9422909051
17800193200.0 -0.3304268799 -0.937084087
17850192900.0 -0.3450759936 -0.9320130479
17900192600.0 -0.3608307037 -0.9258557045
17950192300.0 -0.3761443081 -0.9189312736
18000192000.0 -0.3910401525 -0.9117739721
18050191700.0 -0.4047914514 -0.9036427567
18100191400.0 -0.4191088512 -0.8960306187
18150191100.0 -0.434119511 -0.8880825757
18200190800.0 -0.4510747932 -0.8787898768
18250190500.0 -0.4680552551 -0.8694091444
18300190200.0 -0.4833003967 -0.8607272669
18350189900.0 -0.4983876827 -0.8523118375
18400189600.0 -0.51276221 -0.8442094647
18450189300.0 -0.5260135829 -0.8361029146
18500189000.0 -0.5393653843 -0.8279091953
18550188700.0 -0.5522882355 -0.8205259008
18600188400.0 -0.5636515794 -0.813636588
18650188100.0 -0.5746514245 -0.8073033317
18700187800.0 -0.5858630092 -0.8008500936
18750187500.0 -0.5966481012 -0.7942459818
18800187200.0 -0.606958709 -0.7872258453
18850186900.0 -0.6170881032 -0.7803366381
18900186600.0 -0.627536479 -0.7729311372
18950186300.0 -0.6375841231 -0.7655750112
19000186000.0 -0.6449004511 -0.7591839198
19050185700.0 -0.6535356222 -0.7523297207
19100185400.0 -0.6639160848 -0.7438047848
19150185100.0 -0.6738207453 -0.7355469682
19200184800.0 -0.6835718236 -0.7272766575
19250184500.0 -0.6931557372 -0.7182387441
19300184200.0 -0.7042397465 -0.707935965
19350183900.0 -0.7160017808 -0.698681883
19400183600.0 -0.7249324864 -0.6883132859
19450183300.0 -0.7344322143 -0.6784854251
19500183000.0 -0.742562189 -0.6685858363
19550182700.0 -0.7521406217 -0.6580670045
19600182400.0 -0.7628918705 -0.6466141135
19650182100.0 -0.7738071589 -0.6336528785
19700181800.0 -0.7845294678 -0.6203507377
19750181500.0 -0.7948271163 -0.6065371217
19800181200.0 -0.8053613129 -0.5914635461
19850180900.0 -0.8150304989 -0.5759793748
19900180600.0 -0.8228140608 -0.5616483836
19950180300.0 -0.8321582408 -0.5454471439
20000180000.0 -0.8255901426 -0.5474408626
20050179700.0 -0.8335123048 -0.5340535876
20100179400.0 -0.8416343214 -0.5204179041
20150179100.0 -0.8498580702 -0.5081274422
20200178800.0 -0.8592855473 -0.4951000218
20250178500.0 -0.8692956442 -0.4819907689
20300178200.0 -0.8784916096 -0.467692093
20350177900.0 -0.8873998837 -0.4534864522
20400177600.0 -0.8962344096 -0.4386691874
20450177300.0 -0.9045081742 -0.424235977
20500177000.0 -0.9124686954 -0.4103518486
20550176700.0 -0.9202509093 -0.396944431
20600176400.0 -0.9271991368 -0.3838777014
20650176100.0 -0.9340450438 -0.371294934
20700175800.0 -0.9406170495 -0.3591888054
20750175500.0 -0.9470749539 -0.3478777319
20800175200.0 -0.9506068599 -0.3374660614
20850174900.0 -0.9568926601 -0.3257471195
20900174600.0 -0.960977313 -0.3146977001
20950174300.0 -0.9645647053 -0.3024038318
21000174000.0 -0.9685836407 -0.2912880347
21050173700.0 -0.9710357728 -0.2816146141
21100173400.0 -0.9758226123 -0.2694051046
21150173100.0 -0.9791834977 -0.2568126131
21200172800.0 -0.9829984305 -0.2436621142
21250172500.0 -0.9860298668 -0.229859104
21300172200.0 -0.9887935816 -0.215997031
21350171900.0 -0.9898253044 -0.2015381041
21400171600.0 -0.9915252126 -0.1869121204
21450171300.0 -0.99208349 -0.1731113886
21500171000.0 -0.9920880387 -0.1579148066
21550170700.0 -0.9918081492 -0.1425477829
21600170400.0 -0.9924389937 -0.1268535546
21650170100.0 -0.9914183138 -0.110718731
21700169800.0 -0.9891822392 -0.0957252027
21750169500.0 -0.9893718809 -0.0788224149
21800169200.0 -0.9881412983 -0.0633476493
21850168900.0 -0.9875384898 -0.0459258636
21900168600.0 -0.9864833363 -0.0297099841
21950168300.0 -0.9846943519 -0.0134175616
22000168000.0 -0.9840522865 0.0015078298
22050167700.0 -0.9839941419 0.0159463196
22100167400.0 -0.9841189796 0.0308995634
22150167100.0 -0.984724577 0.046138581
22200166800.0 -0.9850899481 0.0626275353
22250166500.0 -0.9844988873 0.0795735642
22300166200.0 -0.9838408649 0.0960861523
22350165900.0 -0.982196247 0.1131260403
22400165600.0 -0.9806976857 0.1287501742
22450165300.0 -0.9790783452 0.1425558716
22500165000.0 -0.9783490657 0.1572609591
22550164700.0 -0.9761737595 0.1723321924
22600164400.0 -0.97470766 0.1876767464
22650164100.0 -0.9726645611 0.2026198057
22700163800.0 -0.9693735982 0.2186568991
22750163500.0 -0.9667641336 0.2345557212
22800163200.0 -0.9640762632 0.2472349326
22850162900.0 -0.9618115098 0.2604139183
22900162600.0 -0.9604486425 0.2738524439
22950162300.0 -0.9591240297 0.2863225309
23000162000.0 -0.9581454328 0.2984291054
23050161700.0 -0.9560857098 0.3111398122
23100161400.0 -0.9531513755 0.3240405629
23150161100.0 -0.9508316852 0.3359443987
23200160800.0 -0.9480813056 0.3484361608
23250160500.0 -0.9451008351 0.3602583743
23300160200.0 -0.9424481598 0.3730039017
23350159900.0 -0.939083177 0.3857426856
23400159600.0 -0.9337699665 0.398825447
23450159300.0 -0.9293311548 0.4124259109
23500159000.0 -0.9252458235 0.4253264253
23550158700.0 -0.9204869011 0.4392591054
23600158400.0 -0.9149826124 0.452129933
23650158100.0 -0.9085433229 0.4661445794
23700157800.0 -0.9007723465 0.4804608509
23750157500.0 -0.8924537776 0.4943761366
23800157200.0 -0.8833659785 0.5080329793
23850156900.0 -0.8750633125 0.5202863506
23900156600.0 -0.8653627329 0.5326491745
23950156300.0 -0.8565953907 0.545105666
24000156000.0 -0.8474720777 0.5573964888
24050155700.0 -0.8374448042 0.5698237547
24100155400.0 -0.8274700578 0.5809516616
24150155100.0 -0.8173930641 0.5931871317
24200154800.0 -0.8060739618 0.6043387253
24250154500.0 -0.7949475946 0.6159753175
24300154200.0 -0.7837670348 0.627012018
24350153900.0 -0.7719078903 0.6377723082
24400153600.0 -0.759905525 0.6480155044
24450153300.0 -0.7475936257 0.6581638005
24500153000.0 -0.7362381362 0.667841677
24550152700.0 -0.7255955943 0.6776139834
24600152400.0 -0.7137411634 0.6859399964
24650152100.0 -0.7018076207 0.6950806643
