!Created with skrf (http://scikit-rf.org).
# Hz S RI R 50.0 
!freq ReS11 ImS11
300000.0 -0.9793773826 -0.1055754094
50299700.0 -1.000222373 0.016065365
100299400.0 -0.9980418369 0.0290789413
150299100.0 -1.002872899 0.045922228
200298800.0 -0.9996411585 0.0592655873
250298500.0 -0.9974282028 0.0727748862
300298200.0 -0.985897075 0.0884635748
350297900.0 -0.9940199077 0.0992743664
400297600.0 -0.9931744525 0.1158991333
450297300.0 -0.9910690801 0.129831648
500297000.0 -0.9895801989 0.1445642061
550296700.0 -0.9843780323 0.1570485426
600296400.0 -1.01733401 0.1904210351
650296100.0 -0.9821667542 0.1871627857
700295800.0 -0.9792318926 0.2013367421
750295500.0 -0.9760898986 0.2154778592
800295200.0 -0.9728753372 0.2296797623
850294900.0 -0.9694359487 0.2432279121
900294600.0 -0.9653824989 0.2570626785
950294300.0 -0.9617755331 0.2707595095
1000294000.0 -0.9579101867 0.2848129534
1050293700.0 -0.9533061106 0.2985902507
1100293400.0 -0.9490158031 0.3128795753
1150293100.0 -0.9450786301 0.3248503209
1200292800.0 -0.9398880146 0.339060662
1250292500.0 -0.9341640732 0.3525544281
1300292200.0 -0.9285862134 0.3656906074
1350291900.0 -0.9230486748 0.3797714608
1400291600.0 -0.9175520451 0.3928245162
1450291300.0 -0.9120963188 0.4053633782
1500291000.0 -0.9059491928 0.4186938371
1550290700.0 -0.8994217853 0.4318002475
1600290400.0 -0.8932003971 0.4446951827
1650290100.0 -0.8864775609 0.4569484005
1700289800.0 -0.8794830253 0.4703666972
1750289500.0 -0.8723957613 0.4826518611
1800289200.0 -0.8650986905 0.4954623354
1850288900.0 -0.8584084115 0.5070250405
1900288600.0 -0.8504683599 0.5198416014
1950288300.0 -0.8424791525 0.5322799219
2000288000.0 -0.8348977714 0.5439124441
2050287700.0 -0.826865258 0.5560632067
2100287400.0 -0.8188925213 0.5680044827
2150287100.0 -0.8101800961 0.5800823033
2200286800.0 -0.8023573403 0.5900694347
2250286500.0 -0.7937083404 0.6022615477
2300286200.0 -0.7846113318 0.6141563598
2350285900.0 -0.7758610041 0.6249295282
2400285600.0 -0.7669119005 0.6361205877
2450285300.0 -0.7581052024 0.6463588388
2500285000.0 -0.7485370875 0.657537067
2550284700.0 -0.7396502112 0.667956244
2600284400.0 -0.7300404871 0.678052347
2650284100.0 -0.7211152867 0.6886081279
2700283800.0 -0.7102921752 0.6991418468
2750283500.0 -0.700025859 0.7097767386
2800283200.0 -0.6902940065 0.7192393307
2850282900.0 -0.6802465803 0.7292119103
2900282600.0 -0.6697003802 0.7387889405
2950282300.0 -0.6595849126 0.7480957054
3000282000.0 -0.6490297895 0.7574205065
3050281700.0 -0.6376952771 0.7665727234
3100281400.0 -0.6259393983 0.776106839
3150281100.0 -0.614049218 0.7855648562
3200280800.0 -0.6023532229 0.7938926164
3250280500.0 -0.5916475988 0.8015825355
3300280200.0 -0.5804898883 0.8096047145
3350279900.0 -0.5689991518 0.817134438
3400279600.0 -0.5570517675 0.8247443003
3450279300.0 -0.545776761 0.8318791491
3500279000.0 -0.5336756005 0.8388512784
3550278700.0 -0.5212321519 0.8462421955
3600278400.0 -0.50903706 0.8534127185
3650278100.0 -0.4955687173 0.8609503617
3700277800.0 -0.483709913 0.8676375453
3750277500.0 -0.4714138167 0.8738561262
3800277200.0 -0.4590625564 0.8803511611
3850276900.0 -0.4466414116 0.8862723053
3900276600.0 -0.4358146866 0.8920063653
3950276300.0 -0.4234850749 0.8980519864
4000276000.0 -0.4111146269 0.9039540811
4050275700.0 -0.3984014033 0.9098064498
4100275400.0 -0.387051169 0.9155682324
4150275100.0 -0.3743289344 0.9211958389
4200274800.0 -0.3613531151 0.9267186654
4250274500.0 -0.3490439003 0.9316434643
4300274200.0 -0.336000106 0.9372228836
4350273900.0 -0.3223921959 0.9421237958
4400273600.0 -0.3074292944 0.9473986192
4450273300.0 -0.2918370197 0.9527005239
4500273000.0 -0.2782519812 0.957095547
4550272700.0 -0.264169216 0.9611301837
4600272400.0 -0.2486785632 0.9652998702
4650272100.0 -0.2370847025 0.9685892957
4700271800.0 -0.2235780328 0.9718795752
4750271500.0 -0.2120122292 0.9748932532
4800271200.0 -0.1994477428 0.9774360667
4850270900.0 -0.1855102128 0.980185099
4900270600.0 -0.1718123474 0.9826546945
4950270300.0 -0.1573199342 0.9851655974
5000270000.0 -0.1432136692 0.9873455535
5050269700.0 -0.1298816583 0.9890814013
5100269400.0 -0.1163994312 0.9906726075
5150269100.0 -0.1030419496 0.9922184396
5200268800.0 -0.0896464107 0.9932499063
5250268500.0 -0.0767222144 0.9942501897
5300268200.0 -0.0638167235 0.9945845798
5350267900.0 -0.0515127785 0.9951767432
5400267600.0 -0.0352582856 0.9964734114
5450267300.0 -0.0222300617 0.9966865607
5500267000.0 -0.0069114379 0.9970280556
5550266700.0 0.0079269195 0.9970640224
5600266400.0 0.0235954368 0.997424932
5650266100.0 0.039991358 0.9969405715
5700265800.0 0.0547880702 0.9962360527
5750265500.0 0.0695799878 0.9953782641
5800265200.0 0.0836505981 0.9943858372
5850264900.0 0.0970434052 0.9933622409
5900264600.0 0.1134228665 0.9913903625
5950264300.0 0.1256708953 0.9897362485
6000264000.0 0.1397593649 0.9880289753
6050263700.0 0.1526305779 0.9865465323
6100263400.0 0.1648085885 0.9846507719
6150263100.0 0.1789987129 0.9820066273
6200262800.0 0.1899071238 0.9803559024
6250262500.0 0.2026488933 0.9779848083
6300262200.0 0.2152955956 0.9751811066
6350261900.0 0.2285852315 0.9721074227
6400261600.0 0.2424103937 0.9689815767
6450261300.0 0.2536725651 0.9661862517
6500261000.0 0.2664791157 0.9624924397
6550260700.0 0.2794475541 0.9586595215
6600260400.0 0.2931828642 0.954783583
6650260100.0 0.3068102281 0.9502645094
6700259800.0 0.3185288947 0.9458854195
6750259500.0 0.3324942986 0.9408562197
6800259200.0 0.3456104226 0.9360875901
6850258900.0 0.3573152249 0.9308105399
6900258600.0 0.3697250934 0.9260996624
6950258300.0 0.3819754157 0.9206151543
7000258000.0 0.394038977 0.9152819959
7050257700.0 0.4064198159 0.9092293713
7100257400.0 0.4190573509 0.9031043767
7150257100.0 0.4295228994 0.8977809493
7200256800.0 0.44205168 0.8914708323
7250256500.0 0.4538623509 0.8850083275
7300256200.0 0.4670136613 0.8782194907
7350255900.0 0.4792284724 0.8713899293
7400255600.0 0.4927734612 0.8641107121
7450255300.0 0.5078737856 0.8552581172
7500255000.0 0.519701847 0.8481187419
7550254700.0 0.5333942441 0.8397537387
7600254400.0 0.5457249645 0.8312379442
7650254100.0 0.5573920891 0.8234068454
7700253800.0 0.5693930042 0.815231317
7750253500.0 0.5807310352 0.8075741109
7800253200.0 0.5913027904 0.7997093052
7850252900.0 0.6009778467 0.7926988401
7900252600.0 0.6127800524 0.7839098458
7950252300.0 0.6216283669 0.7772007381
8000252000.0 0.6317818763 0.769366931
8050251700.0 0.6423220786 0.7611907187
8100251400.0 0.6527043194 0.7529720372
8150251100.0 0.6626702722 0.7443632738
8200250800.0 0.6718811052 0.7362256424
8250250500.0 0.680745684 0.7283941922
8300250200.0 0.6902049328 0.7196393592
8350249900.0 0.6992609119 0.7109251878
8400249600.0 0.7072860941 0.7031166979
8450249300.0 0.7167770842 0.6936428884
8500249000.0 0.7251874071 0.6848854024
8550248700.0 0.733613366 0.6758844792
8600248400.0 0.7418027003 0.6664211895
8650248100.0 0.7497248686 0.6570964887
8700247800.0 0.759015891 0.6459314037
8750247500.0 0.7672227266 0.6357663824
8800247200.0 0.775534456 0.6253893606
8850246900.0 0.784161414 0.6140224644
8900246600.0 0.7925327096 0.602843954
8950246300.0 0.8021894428 0.589792652
9000246000.0 0.8112396083 0.5772252851
9050245700.0 0.82048929 0.5641994184
9100245400.0 0.8286896652 0.5515589222
9150245100.0 0.8389317377 0.5378139757
9200244800.0 0.848407714 0.5225735332
9250244500.0 0.8578579067 0.5066682363
9300244200.0 0.8662276693 0.4922227736
9350243900.0 0.8740557789 0.4781522787
9400243600.0 0.8807775438 0.4657207989
9450243300.0 0.8865348185 0.4539074651
9500243000.0 0.8928531135 0.4418404544
9550242700.0 0.8966483233 0.4340032609
9600242400.0 0.9005702883 0.426173435
9650242100.0 0.903936982 0.4199479494
9700241800.0 0.908655194 0.4114874741
9750241500.0 0.912618219 0.4039059332
9800241200.0 0.9172965028 0.3946011409
9850240900.0 0.923080743 0.3830833255
9900240600.0 0.9284190051 0.3714260314
9950240300.0 0.9346481578 0.3555315488
10000240000.0 0.9393609364 0.3436769461
10050239700.0 0.9454460319 0.3286932967
10100239400.0 0.9502911205 0.3133117596
10150239100.0 0.9544162029 0.298698447
10200238800.0 0.9586334519 0.2837870214
10250238500.0 0.9618393791 0.2704368348
10300238200.0 0.9651728535 0.2565975214
10350237900.0 0.9676464551 0.2433230165
10400237600.0 0.9702170703 0.2300541351
10450237300.0 0.9726350604 0.2168275655
10500237000.0 0.9749566658 0.2044777623
10550236700.0 0.9770735374 0.1912468991
10600236400.0 0.9794777569 0.1772983938
10650236100.0 0.9813664223 0.1632422103
10700235800.0 0.983498984 0.1505835215
10750235500.0 0.9859544354 0.1371308703
10800235200.0 0.9879746345 0.1230453601
10850234900.0 0.9896727406 0.1090059461
10900234600.0 0.9918601157 0.094123602
10950234300.0 0.993496882 0.0808960122
11000234000.0 0.9950961713 0.0658808879
11050233700.0 0.9969803899 0.0496438389
11100233400.0 0.9983301984 0.0318937332
11150233100.0 0.9996385456 0.0155274316
11200232800.0 1.000171444 0.0012574325
11250232500.0 1.001007314 -0.015915581
11300232200.0 1.001381976 -0.0335434577
11350231900.0 1.001271961 -0.0497691877
11400231600.0 1.000810301 -0.0642693171
11450231300.0 1.000757097 -0.0810821366
11500231000.0 0.9995733811 -0.0974919872
11550230700.0 0.9975466752 -0.1107572665
11600230400.0 0.9971774648 -0.1232973493
11650230100.0 0.9944461754 -0.1344145449
11700229800.0 0.9923373935 -0.149880397
11750229500.0 0.9902331809 -0.1647224207
11800229200.0 0.9875314046 -0.1783335625
11850228900.0 0.9839791782 -0.1909312241
11900228600.0 0.980607762 -0.2004679577
11950228300.0 0.9770889167 -0.2113228414
12000228000.0 0.9744698514 -0.2194174139
12050227700.0 0.9703670805 -0.2328784693
12100227400.0 0.9674670022 -0.2440764807
12150227100.0 0.9621179169 -0.2606260151
12200226800.0 0.9587248466 -0.2715159291
12250226500.0 0.9547375196 -0.2833662014
12300226200.0 0.9505681067 -0.2961790375
12350225900.0 0.9464288707 -0.3097684739
12400225600.0 0.9414437443 -0.3226245783
12450225300.0 0.9374592562 -0.3349139393
12500225000.0 0.9318316305 -0.3496141435
12550224700.0 0.9264924597 -0.3634391045
12600224400.0 0.9218017862 -0.3764215088
12650224100.0 0.915938068 -0.3904964419
12700223800.0 0.9105998944 -0.4031654571
12750223500.0 0.9052157108 -0.415903773
12800223200.0 0.8998184862 -0.4287441173
12850222900.0 0.8941004416 -0.4408927979
12900222600.0 0.8888772781 -0.4526679005
12950222300.0 0.8823713684 -0.4651801298
13000222000.0 0.8763002496 -0.4775036971
13050221700.0 0.8697014453 -0.4898187629
13100221400.0 0.8627546065 -0.5020008929
13150221100.0 0.8560160967 -0.5140261889
13200220800.0 0.8488445138 -0.5259232841
13250220500.0 0.8414417717 -0.5380179038
13300220200.0 0.8339404357 -0.5488572645
13350219900.0 0.8258214131 -0.5610759814
13400219600.0 0.8175492396 -0.5732208079
13450219300.0 0.8081626467 -0.5869444523
13500219000.0 0.7977191663 -0.6011137388
13550218700.0 0.7876587715 -0.6138530293
13600218400.0 0.7774352833 -0.6259274278
13650218100.0 0.7670508492 -0.6371388947
13700217800.0 0.7555696788 -0.6504356244
13750217500.0 0.7466419105 -0.6605296948
13800217200.0 0.7347018874 -0.6725035113
13850216900.0 0.7240904854 -0.6839448364
13900216600.0 0.71414764 -0.6931879952
13950216300.0 0.7029120691 -0.7035579877
14000216000.0 0.6930320995 -0.7123613253
14050215700.0 0.6832160053 -0.7210800016
14100215400.0 0.6734065254 -0.7299440156
14150215100.0 0.6648158467 -0.7379186532
14200214800.0 0.6555026658 -0.7465722495
14250214500.0 0.6451683295 -0.7558299761
14300214200.0 0.6350055166 -0.7652034937
14350213900.0 0.6242507118 -0.7745625305
14400213600.0 0.6120432941 -0.7841329035
14450213300.0 0.5991824983 -0.794330309
14500213000.0 0.5858414499 -0.8043455456
14550212700.0 0.573708987 -0.8133808346
14600212400.0 0.5610521713 -0.8227970388
14650212100.0 0.5482202803 -0.8309587045
14700211800.0 0.5338407474 -0.8405653414
14750211500.0 0.5221910368 -0.8487781626
14800211200.0 0.5098814687 -0.8566587183
14850210900.0 0.4976341306 -0.8639553807
14900210600.0 0.4843004967 -0.8720824247
14950210300.0 0.4708063569 -0.8796333272
15000210000.0 0.4581488137 -0.8864636929
15050209700.0 0.4454662932 -0.8925185179
15100209400.0 0.4326232352 -0.8987329726
15150209100.0 0.4202121654 -0.9043954359
15200208800.0 0.4070609565 -0.9095033784
15250208500.0 0.3957109476 -0.9139104409
15300208200.0 0.3837782907 -0.9192978051
15350207900.0 0.3704258825 -0.9232620586
15400207600.0 0.3557984308 -0.928494144
15450207300.0 0.3410713048 -0.9335337373
15500207000.0 0.3262192532 -0.9386371953
15550206700.0 0.3113765506 -0.9437811975
15600206400.0 0.2954058035 -0.9479996626
15650206100.0 0.2794972836 -0.9526128825
15700205800.0 0.2653976652 -0.9560620238
15750205500.0 0.2509716209 -0.9593431192
15800205200.0 0.2366003899 -0.9628713079
15850204900.0 0.2222076429 -0.9663557957
15900204600.0 0.207225517 -0.9697604104
15950204300.0 0.1932478995 -0.9725596026
16000204000.0 0.1794017729 -0.9754138888
16050203700.0 0.1641697935 -0.9781334708
16100203400.0 0.1506825396 -0.9805705816
16150203100.0 0.1358481818 -0.9825608064
16200202800.0 0.1218467736 -0.9844801061
16250202500.0 0.1073410058 -0.9861167049
16300202200.0 0.0921320783 -0.9878803766
16350201900.0 0.0774075839 -0.9893867727
16400201600.0 0.0626274902 -0.9903838856
16450201300.0 0.0475852827 -0.9912115698
16500201000.0 0.0311092418 -0.9919407586
16550200700.0 0.0154421904 -0.9924519601
16600200400.0 -0.0004601619 -0.992640582
16650200100.0 -0.0169358197 -0.9923586497
16700199800.0 -0.0332586204 -0.9918503468
16750199500.0 -0.0521674329 -0.9914157246
16800199200.0 -0.0679430289 -0.99051089
16850198900.0 -0.0829227752 -0.9890327871
16900198600.0 -0.0972252322 -0.9880518429
16950198300.0 -0.1105893143 -0.9870331832
17000198000.0 -0.1228156222 -0.9850154474
17050197700.0 -0.1359941698 -0.9841680351
17100197400.0 -0.149237891 -0.981776601
17150197100.0 -0.1615797737 -0.9796250438
17200196800.0 -0.174526785 -0.9775452236
17250196500.0 -0.1874384911 -0.9751270508
17300196200.0 -0.1995935813 -0.972718825
17350195900.0 -0.211738505 -0.9704518627
17400195600.0 -0.2236672144 -0.9679249715
17450195300.0 -0.2369959733 -0.9652315395
17500195000.0 -0.2504001413 -0.9618679315
17550194700.0 -0.2640223986 -0.9582619926
17600194400.0 -0.278086634 -0.9540242787
17650194100.0 -0.2920714428 -0.9500213968
17700193800.0 -0.3048806804 -0.9457120755
17750193500.0 -0.319012069 -0.9412807921
17800193200.0 -0.3335758743 -0.9360237948
17850192900.0 -0.3483139064 -0.9308264671
17900192600.0 -0.3633297326 -0.9246539687
17950192300.0 -0.3787834627 -0.9174251414
18000192000.0 -0.3936827423 -0.9104231264
18050191700.0 -0.407396922 -0.9023917775
18100191400.0 -0.4215057504 -0.8947183445
18150191100.0 -0.4364717931 -0.8865836786
18200190800.0 -0.4532537941 -0.877372005
18250190500.0 -0.4701527078 -0.8681122112
18300190200.0 -0.4851986129 -0.8593501054
18350189900.0 -0.5003507909 -0.8508909148
18400189600.0 -0.514639523 -0.8421861385
18450189300.0 -0.5279247534 -0.8346226893
18500189000.0 -0.5416373414 -0.8259760741
18550188700.0 -0.5541211189 -0.8181879562
18600188400.0 -0.5660767233 -0.8116799277
18650188100.0 -0.5772976686 -0.8052767331
18700187800.0 -0.5879744641 -0.7987593634
18750187500.0 -0.5989651112 -0.7920036848
18800187200.0 -0.6096028697 -0.7846161032
18850186900.0 -0.6198522279 -0.7777823275
18900186600.0 -0.6301299781 -0.7701577041
18950186300.0 -0.6404411478 -0.7624814376
19000186000.0 -0.6479035647 -0.7557056143
19050185700.0 -0.6570422533 -0.7488770945
19100185400.0 -0.6674088827 -0.7401696553
19150185100.0 -0.6776318086 -0.7316696942
19200184800.0 -0.6866179099 -0.7233122844
19250184500.0 -0.6973810617 -0.713862156
19300184200.0 -0.7086522733 -0.7041907115
19350183900.0 -0.7195135978 -0.6943981452
19400183600.0 -0.7293167171 -0.6848547137
19450183300.0 -0.7384144789 -0.6744058153
19500183000.0 -0.7460794332 -0.6647849645
19550182700.0 -0.7560896949 -0.6539099274
19600182400.0 -0.7661800916 -0.6426118037
19650182100.0 -0.7770583019 -0.6301124662
19700181800.0 -0.7875108295 -0.6170122819
19750181500.0 -0.7978693862 -0.6031310926
19800181200.0 -0.8079478493 -0.5880995893
19850180900.0 -0.8176356088 -0.5730016033
19900180600.0 -0.8252708756 -0.558475559
19950180300.0 -0.8343584436 -0.5422782714
20000180000.0 -0.8276662166 -0.5450488805
20050179700.0 -0.8352666081 -0.5318418462
20100179400.0 -0.8438211457 -0.5178138953
20150179100.0 -0.8523929718 -0.5059533231
20200178800.0 -0.8608849349 -0.4924382248
20250178500.0 -0.8702789576 -0.4788674276
20300178200.0 -0.879171128 -0.4643900236
20350177900.0 -0.8885055794 -0.4501559782
20400177600.0 -0.8974470409 -0.435367091
20450177300.0 -0.9056168578 -0.4208951335
20500177000.0 -0.9134676201 -0.4068622688
20550176700.0 -0.9213507786 -0.3935322893
20600176400.0 -0.928352573 -0.3801040492
20650176100.0 -0.9348403256 -0.3674876164
20700175800.0 -0.9415397265 -0.3551565215
20750175500.0 -0.9492300355 -0.3435927899
20800175200.0 -0.9531255456 -0.3328729331
20850174900.0 -0.9591786941 -0.3221237643
20900174600.0 -0.9635466459 -0.3090962046
20950174300.0 -0.9669806025 -0.2980136767
21000174000.0 -0.9695237924 -0.2866038212
21050173700.0 -0.9732687433 -0.2759900921
21100173400.0 -0.9772811861 -0.2632655432
21150173100.0 -0.9815185051 -0.2505999655
21200172800.0 -0.9850483537 -0.2370373016
21250172500.0 -0.9880720903 -0.2235321844
21300172200.0 -0.9911654713 -0.2090913298
21350171900.0 -0.9923730956 -0.1947038249
21400171600.0 -0.9938341408 -0.1806012879
21450171300.0 -0.9935283923 -0.1663920857
21500171000.0 -0.9935367429 -0.1509128214
21550170700.0 -0.9939073955 -0.1362810125
21600170400.0 -0.9933173601 -0.1192535484
21650170100.0 -0.9931035302 -0.1043198475
21700169800.0 -0.9912843034 -0.0897845511
21750169500.0 -0.9892536521 -0.0732757465
21800169200.0 -0.9875779395 -0.0573994551
21850168900.0 -0.9872050192 -0.0407297413
21900168600.0 -0.9852880149 -0.0243989739
21950168300.0 -0.9841408934 -0.0084866206
22000168000.0 -0.9825720943 0.0063281748
22050167700.0 -0.9826637542 0.0202895309
22100167400.0 -0.9824246978 0.0353893171
22150167100.0 -0.9829701213 0.0509226585
22200166800.0 -0.9830089285 0.0671705796
22250166500.0 -0.9823677937 0.0846319551
22300166200.0 -0.9815874788 0.100826379
22350165900.0 -0.9799974104 0.1181273319
22400165600.0 -0.9788459589 0.1328347208
22450165300.0 -0.9762705831 0.1474595592
22500165000.0 -0.9748248633 0.1622948252
22550164700.0 -0.9736415467 0.1765202386
22600164400.0 -0.9723082518 0.1930055382
22650164100.0 -0.9693938675 0.2071523568
22700163800.0 -0.9672579486 0.2232403594
22750163500.0 -0.9648463196 0.2382364334
22800163200.0 -0.9619079908 0.252379295
22850162900.0 -0.9598290318 0.2654873657
22900162600.0 -0.9581367333 0.2785173073
22950162300.0 -0.9574326964 0.2916338694
23000162000.0 -0.9559547746 0.3035075855
23050161700.0 -0.9538993985 0.3160355845
23100161400.0 -0.9518461459 0.3286726303
23150161100.0 -0.9500402636 0.3403100621
23200160800.0 -0.9463365445 0.3529248001
23250160500.0 -0.9440432671 0.3642524341
23300160200.0 -0.9412476891 0.3771182565
23350159900.0 -0.9374798665 0.3893579049
23400159600.0 -0.9320050741 0.402654343
23450159300.0 -0.9279587752 0.4158073704
23500159000.0 -0.922927526 0.4292729463
23550158700.0 -0.918645767 0.4417349206
23600158400.0 -0.9133328124 0.4549280137
23650158100.0 -0.9071009141 0.4688395676
23700157800.0 -0.8993746545 0.4825989991
23750157500.0 -0.8910746068 0.4962000969
23800157200.0 -0.882455034 0.5093919076
23850156900.0 -0.8735471178 0.5223373217
23900156600.0 -0.8637057487 0.5346141654
23950156300.0 -0.8545805312 0.5475786645
24000156000.0 -0.8450013101 0.5593062451
24050155700.0 -0.83537736 0.5708126297
24100155400.0 -0.8260314219 0.5820538636
24150155100.0 -0.8143124104 0.5945963034
24200154800.0 -0.8040589003 0.606093217
24250154500.0 -0.792035058 0.6180965407
24300154200.0 -0.7810281612 0.6290866415
24350153900.0 -0.7692361225 0.6398730122
24400153600.0 -0.7570181275 0.6506504185
24450153300.0 -0.7450873974 0.6603140657
24500153000.0 -0.7338854093 0.6695976195
24550152700.0 -0.7221965027 0.6792508674
24600152400.0 -0.7117630648 0.688532157
