!Created with skrf (http://scikit-rf.org).
# Hz S RI R 50.0 
!freq ReS11 ImS11
300000.0 -0.9755127548 -0.1178062835
50299700.0 -0.9999594676 0.0152669137
100299400.0 -0.9980819945 0.0282717062
150299100.0 -1.002701564 0.0451387314
200298800.0 -0.9994205793 0.0586392648
250298500.0 -0.9973083895 0.0720383379
300298200.0 -0.986138554 0.087766247
350297900.0 -0.9941398414 0.0988092333
400297600.0 -0.9931899792 0.115345028
450297300.0 -0.9909924995 0.1291870786
500297000.0 -0.9896025004 0.1437508158
550296700.0 -0.9844706381 0.1562433715
600296400.0 -1.017407994 0.1897327641
650296100.0 -0.9822838516 0.1861900828
700295800.0 -0.9793087033 0.2005318076
750295500.0 -0.9762517294 0.2145334055
800295200.0 -0.9731204587 0.2285519328
850294900.0 -0.9696884371 0.2425904813
900294600.0 -0.9660095189 0.2561058031
950294300.0 -0.9620095326 0.2697968396
1000294000.0 -0.9582169134 0.283784699
1050293700.0 -0.9535809283 0.2977809151
1100293400.0 -0.9492720322 0.311911248
1150293100.0 -0.9454490358 0.3239835548
1200292800.0 -0.9402657138 0.3382083903
1250292500.0 -0.9345147273 0.3515785915
1300292200.0 -0.9289987749 0.364928107
1350291900.0 -0.9235507881 0.379060683
1400291600.0 -0.9178776562 0.3918697424
1450291300.0 -0.9124703483 0.4044980967
1500291000.0 -0.9061218698 0.4177382027
1550290700.0 -0.8997232437 0.4310107269
1600290400.0 -0.8934445761 0.4441087213
1650290100.0 -0.8869078073 0.4561324245
1700289800.0 -0.8796945045 0.4696994923
1750289500.0 -0.8727486908 0.4822373871
1800289200.0 -0.8653068615 0.4947060403
1850288900.0 -0.85866203 0.5061707045
1900288600.0 -0.850933668 0.5190982102
1950288300.0 -0.8429445832 0.5316442714
2000288000.0 -0.8354482103 0.5430732003
2050287700.0 -0.8271246182 0.5554124791
2100287400.0 -0.8192672965 0.56716167
2150287100.0 -0.8107687168 0.5792108344
2200286800.0 -0.8028649169 0.5894707532
2250286500.0 -0.7940010736 0.6016453672
2300286200.0 -0.784883542 0.6130127577
2350285900.0 -0.7764826841 0.6242104204
2400285600.0 -0.767394435 0.6351055957
2450285300.0 -0.7589123153 0.645442332
2500285000.0 -0.7493872365 0.6569714189
2550284700.0 -0.7403936648 0.6672282284
2600284400.0 -0.730886935 0.6772846543
2650284100.0 -0.7219924312 0.6877954937
2700283800.0 -0.711352694 0.6984599354
2750283500.0 -0.7009504383 0.7088056156
2800283200.0 -0.69118415 0.7185024062
2850282900.0 -0.6808040115 0.7284389212
2900282600.0 -0.670603256 0.7382272733
2950282300.0 -0.6602972169 0.7473199169
3000282000.0 -0.6496247428 0.7567471475
3050281700.0 -0.638476026 0.7660576689
3100281400.0 -0.6266344986 0.7754064785
3150281100.0 -0.6148763255 0.784800253
3200280800.0 -0.6031239696 0.7931857031
3250280500.0 -0.5923995622 0.8007814894
3300280200.0 -0.5812709238 0.8088334031
3350279900.0 -0.569438434 0.8164708606
3400279600.0 -0.5574672456 0.824115736
3450279300.0 -0.5462739373 0.8311024306
3500279000.0 -0.5342946167 0.8385221955
3550278700.0 -0.5219367726 0.8457622721
3600278400.0 -0.5096952005 0.8525773362
3650278100.0 -0.4964792168 0.8603965598
3700277800.0 -0.48450696 0.8668354008
3750277500.0 -0.47208578 0.8733353421
3800277200.0 -0.4596729745 0.8798518099
3850276900.0 -0.4477618419 0.8857300377
3900276600.0 -0.4369119091 0.8915899897
3950276300.0 -0.4244113112 0.8975314613
4000276000.0 -0.4122752368 0.9035544391
4050275700.0 -0.3995887366 0.9095374324
4100275400.0 -0.3884191775 0.9150050206
4150275100.0 -0.3755763566 0.9206937036
4200274800.0 -0.3624571903 0.9263516096
4250274500.0 -0.3503120522 0.9318169343
4300274200.0 -0.3374781165 0.9366429575
4350273900.0 -0.3232879018 0.9422357036
4400273600.0 -0.3085886242 0.9471722018
4450273300.0 -0.2934780468 0.9522451448
4500273000.0 -0.2798800989 0.9566136688
4550272700.0 -0.2657356527 0.9611376596
4600272400.0 -0.2503284989 0.9650213936
4650272100.0 -0.2385884638 0.968371719
4700271800.0 -0.2252718527 0.971663252
4750271500.0 -0.2135518394 0.9744722417
4800271200.0 -0.2010217709 0.9773015359
4850270900.0 -0.1870955975 0.9801667375
4900270600.0 -0.1731936466 0.9824391124
4950270300.0 -0.1588802281 0.9849832106
5000270000.0 -0.1446872914 0.9868103345
5050269700.0 -0.1312791387 0.9887071987
5100269400.0 -0.1174366635 0.9904908817
5150269100.0 -0.1039873325 0.991994798
5200268800.0 -0.0909592485 0.9931497594
5250268500.0 -0.0776880755 0.9940320063
5300268200.0 -0.0646279076 0.9946107355
5350267900.0 -0.0522012581 0.9953510542
5400267600.0 -0.0360525124 0.9964959325
5450267300.0 -0.0231956601 0.9966797541
5500267000.0 -0.0076973744 0.9970122427
5550266700.0 0.0069717222 0.9974056175
5600266400.0 0.0226500827 0.9971904156
5650266100.0 0.0391372938 0.9971422714
5700265800.0 0.053584448 0.9962987752
5750265500.0 0.068769426 0.9956203061
5800265200.0 0.0826890556 0.9943416919
5850264900.0 0.0959871322 0.9933626963
5900264600.0 0.1126428222 0.9916786539
5950264300.0 0.1245037371 0.9901996834
6000264000.0 0.1388036294 0.9883121411
6050263700.0 0.1508217156 0.9870892425
6100263400.0 0.1633397532 0.9853379246
6150263100.0 0.1778895204 0.9827407739
6200262800.0 0.1880868657 0.9808664443
6250262500.0 0.2008027177 0.9786267654
6300262200.0 0.213728103 0.9757038392
6350261900.0 0.2268329204 0.9728861169
6400261600.0 0.2404945711 0.9696912608
6450261300.0 0.2517893099 0.9666931612
6500261000.0 0.264649287 0.9632634548
6550260700.0 0.2777306649 0.9592053854
6600260400.0 0.2911551846 0.9555075555
6650260100.0 0.3049148711 0.950933524
6700259800.0 0.3172142163 0.9466506773
6750259500.0 0.3307218456 0.9416296422
6800259200.0 0.3439264747 0.9365413861
6850258900.0 0.355864862 0.9313504734
6900258600.0 0.3682856868 0.9265529969
6950258300.0 0.3807387838 0.9211380601
7000258000.0 0.3927646202 0.9157004014
7050257700.0 0.4051341822 0.9099236356
7100257400.0 0.4177139896 0.9035946678
7150257100.0 0.4279729826 0.8982545143
7200256800.0 0.4409363876 0.8918299144
7250256500.0 0.4528254411 0.8855539068
7300256200.0 0.4661112173 0.8786221819
7350255900.0 0.4783162756 0.8721169928
7400255600.0 0.4916949962 0.8647182914
7450255300.0 0.5067337562 0.855327571
7500255000.0 0.5187842734 0.8484337016
7550254700.0 0.5326115836 0.8399953595
7600254400.0 0.5457846474 0.8316895792
7650254100.0 0.5567047117 0.8241301533
7700253800.0 0.5688886696 0.8158622188
7750253500.0 0.5798494221 0.8083099164
7800253200.0 0.5902828492 0.8005944145
7850252900.0 0.6001448643 0.7935076585
7900252600.0 0.6118439335 0.7847041836
7950252300.0 0.6206049396 0.7782822985
8000252000.0 0.6308208299 0.7704589083
8050251700.0 0.6410604283 0.7624934893
8100251400.0 0.6510480835 0.7542464321
8150251100.0 0.6613555257 0.7455680488
8200250800.0 0.6706700862 0.7377205871
8250250500.0 0.6795716659 0.729657981
8300250200.0 0.6890356169 0.7211296324
8350249900.0 0.6980736052 0.7125828532
8400249600.0 0.7062099253 0.7042746749
8450249300.0 0.7152983543 0.6952193757
8500249000.0 0.7240535761 0.6863885116
8550248700.0 0.7323696767 0.6772523407
8600248400.0 0.7408069117 0.6676461992
8650248100.0 0.7485334818 0.6582876955
8700247800.0 0.7580415981 0.6470720007
8750247500.0 0.7663123955 0.6369166577
8800247200.0 0.7744853959 0.6265579335
8850246900.0 0.7833967531 0.6151080152
8900246600.0 0.7920640405 0.6038494074
8950246300.0 0.8013818553 0.5906756128
9000246000.0 0.8102984342 0.5781976262
9050245700.0 0.8196652373 0.5652024414
9100245400.0 0.8285144756 0.5526035159
9150245100.0 0.8373298953 0.5390811303
9200244800.0 0.8473573858 0.5241343311
9250244500.0 0.8567099143 0.5085637575
9300244200.0 0.8651840221 0.4938463185
9350243900.0 0.872740366 0.4801744937
9400243600.0 0.8796444361 0.467815531
9450243300.0 0.8854044982 0.4560710566
9500243000.0 0.8915726033 0.4442591068
9550242700.0 0.8953634969 0.4363567761
9600242400.0 0.8994285446 0.4290587372
9650242100.0 0.9028439571 0.4227730919
9700241800.0 0.9077820832 0.4144231774
9750241500.0 0.9116363621 0.4064865223
9800241200.0 0.9162105585 0.3978234763
9850240900.0 0.9219412681 0.3860577628
9900240600.0 0.9274542003 0.3745565591
9950240300.0 0.934469159 0.3581592635
10000240000.0 0.9392129555 0.3465280836
10050239700.0 0.9445446599 0.3312506099
10100239400.0 0.9497046501 0.3157758933
10150239100.0 0.9538043355 0.3012035409
10200238800.0 0.9579665345 0.2859013208
10250238500.0 0.9613317645 0.2725529765
10300238200.0 0.9645434502 0.2586206755
10350237900.0 0.9671321191 0.2456858751
10400237600.0 0.9697592333 0.2321699844
10450237300.0 0.9723472091 0.2188772893
10500237000.0 0.9746008219 0.2060354962
10550236700.0 0.9770989252 0.1923762529
10600236400.0 0.9790036352 0.1793704255
10650236100.0 0.9811854926 0.164734499
10700235800.0 0.9836752276 0.151938669
10750235500.0 0.9856473249 0.1389754805
10800235200.0 0.9881725804 0.1244836151
10850234900.0 0.989539718 0.1101590248
10900234600.0 0.9917204511 0.095247493
10950234300.0 0.9935336582 0.0820506685
11000234000.0 0.9952259053 0.066862458
11050233700.0 0.9970259033 0.0505154533
11100233400.0 0.9983680744 0.0330774536
11150233100.0 0.9996421223 0.0167463985
11200232800.0 1.000604714 0.0018964984
11250232500.0 1.000993056 -0.0144742586
11300232200.0 1.001965848 -0.0330134131
11350231900.0 1.001815262 -0.0485123461
11400231600.0 1.001632867 -0.0641097127
11450231300.0 1.001085939 -0.0790271775
11500231000.0 0.999944912 -0.0943136667
11550230700.0 0.9984626983 -0.1089827336
11600230400.0 0.9974443681 -0.1219398198
11650230100.0 0.9948617837 -0.1332299972
11700229800.0 0.9930098886 -0.1473491736
11750229500.0 0.9906615082 -0.161919758
11800229200.0 0.988094877 -0.1756347837
11850228900.0 0.9845538698 -0.1880896629
11900228600.0 0.9811883389 -0.197768017
11950228300.0 0.9777928731 -0.2085172977
12000228000.0 0.9751135541 -0.2172964051
12050227700.0 0.971719672 -0.2303597557
12100227400.0 0.9685916607 -0.2414599011
12150227100.0 0.9634493624 -0.2573267753
12200226800.0 0.9604076942 -0.2684945082
12250226500.0 0.9558097156 -0.2816178886
12300226200.0 0.9512572793 -0.2943485813
12350225900.0 0.9465701484 -0.3078767325
12400225600.0 0.9423126732 -0.3206027577
12450225300.0 0.9379680345 -0.3329846922
12500225000.0 0.9327865101 -0.348274156
12550224700.0 0.9269751551 -0.3620029568
12600224400.0 0.9221364028 -0.3749712926
12650224100.0 0.91625551 -0.3891840562
12700223800.0 0.9109621894 -0.4022275577
12750223500.0 0.9056669893 -0.4153564972
12800223200.0 0.9003518857 -0.427486917
12850222900.0 0.8947270655 -0.4400430261
12900222600.0 0.8891184747 -0.4517695829
12950222300.0 0.8825286889 -0.4650741097
13000222000.0 0.8770123413 -0.4759052378
13050221700.0 0.87001964 -0.488659011
13100221400.0 0.86347338 -0.5006800771
13150221100.0 0.856917835 -0.5132988461
13200220800.0 0.8498950813 -0.5245075969
13250220500.0 0.84249056 -0.5371673366
13300220200.0 0.8350586456 -0.5475829444
13350219900.0 0.8272406781 -0.5596575384
13400219600.0 0.8187496209 -0.5716063237
13450219300.0 0.8094608654 -0.585272634
13500219000.0 0.7989080072 -0.5992953756
13550218700.0 0.7887333719 -0.6119682168
13600218400.0 0.7786605543 -0.6236159961
13650218100.0 0.7693183203 -0.6352639662
13700217800.0 0.7577169629 -0.6478382858
13750217500.0 0.7489777417 -0.6587825578
13800217200.0 0.7367996805 -0.6705221094
13850216900.0 0.7263296399 -0.6809694431
13900216600.0 0.7165795606 -0.6910104647
13950216300.0 0.7052786758 -0.7011283841
14000216000.0 0.6958975734 -0.7103762347
14050215700.0 0.6863469679 -0.7187633329
14100215400.0 0.6761783068 -0.7275559876
14150215100.0 0.6669382755 -0.7360611793
14200214800.0 0.6575223886 -0.7448261464
14250214500.0 0.6472107909 -0.7542668446
14300214200.0 0.6366944838 -0.7636473955
14350213900.0 0.6258451702 -0.7733340628
14400213600.0 0.6138680716 -0.7828871633
14450213300.0 0.600738533 -0.793503849
14500213000.0 0.5876842278 -0.8030744439
14550212700.0 0.5755954824 -0.812647599
14600212400.0 0.5629758067 -0.8212606793
14650212100.0 0.5498733339 -0.8297954561
14700211800.0 0.5361178685 -0.839932253
14750211500.0 0.523956339 -0.8478418973
14800211200.0 0.5116163033 -0.8560117032
14850210900.0 0.499500732 -0.8632652283
14900210600.0 0.4861203049 -0.8712297765
14950210300.0 0.4727804347 -0.8790152651
15000210000.0 0.4599394524 -0.8857073083
15050209700.0 0.4475799617 -0.8918815521
15100209400.0 0.4351073695 -0.8978536593
15150209100.0 0.422821685 -0.9027681867
15200208800.0 0.4097988166 -0.9090202866
15250208500.0 0.3986073325 -0.913593734
15300208200.0 0.3870231711 -0.9176540335
15350207900.0 0.3734730248 -0.9220002616
15400207600.0 0.3591840862 -0.9278917492
15450207300.0 0.3454363561 -0.9327789616
15500207000.0 0.3300892897 -0.9375436895
15550206700.0 0.3151613859 -0.9426539126
15600206400.0 0.2984946753 -0.9469486775
15650206100.0 0.2832199535 -0.9513124997
15700205800.0 0.2689721081 -0.9552790094
15750205500.0 0.2546528201 -0.9587260868
15800205200.0 0.2400172118 -0.9621707819
15850204900.0 0.2257641645 -0.9655610671
15900204600.0 0.2109132992 -0.9690979428
15950204300.0 0.1966163335 -0.9722553984
16000204000.0 0.1825839693 -0.9748680991
16050203700.0 0.1673877452 -0.9778471456
16100203400.0 0.1530041825 -0.9802641828
16150203100.0 0.1382719097 -0.9826405831
16200202800.0 0.1242156719 -0.9847069373
16250202500.0 0.1096607037 -0.9859078676
16300202200.0 0.0938098826 -0.9878610043
16350201900.0 0.0792126948 -0.9891689973
16400201600.0 0.0647843385 -0.9902397297
16450201300.0 0.0493483672 -0.9911940892
16500201000.0 0.0327601116 -0.9920889326
16550200700.0 0.0170390261 -0.9925991925
16600200400.0 0.0014773699 -0.9927665944
16650200100.0 -0.014628505 -0.9926093594
16700199800.0 -0.0312426925 -0.9918901372
16750199500.0 -0.0497309509 -0.9919157847
16800199200.0 -0.0657271382 -0.9912640592
16850198900.0 -0.0809638652 -0.9898001748
16900198600.0 -0.0945699488 -0.9883789597
16950198300.0 -0.1083960972 -0.9873383655
17000198000.0 -0.1215833394 -0.9859436575
17050197700.0 -0.1335445117 -0.9843062936
17100197400.0 -0.1461843401 -0.9820143135
17150197100.0 -0.1591876765 -0.9803039301
17200196800.0 -0.1718681305 -0.9784266058
17250196500.0 -0.184806048 -0.9760421738
17300196200.0 -0.1969713611 -0.9737571173
17350195900.0 -0.2088355752 -0.9713404327
17400195600.0 -0.2208891539 -0.9688123416
17450195300.0 -0.2340752073 -0.9660617991
17500195000.0 -0.2476564488 -0.9624826035
17550194700.0 -0.2615462436 -0.958843402
17600194400.0 -0.2751079255 -0.9548004165
17650194100.0 -0.2892074546 -0.9510906863
17700193800.0 -0.3021348585 -0.9467916653
17750193500.0 -0.3165906003 -0.9422357517
17800193200.0 -0.3310357492 -0.9371907921
17850192900.0 -0.3459492276 -0.9317176805
17900192600.0 -0.3609923474 -0.9254480119
17950192300.0 -0.3764786277 -0.918460992
18000192000.0 -0.3914860481 -0.9110960424
18050191700.0 -0.4054718922 -0.9033319494
18100191400.0 -0.4196802385 -0.8956091509
18150191100.0 -0.4346308896 -0.8876579089
18200190800.0 -0.4515530378 -0.878482649
18250190500.0 -0.4686795775 -0.8686985865
18300190200.0 -0.4836404688 -0.8606710635
18350189900.0 -0.4988231602 -0.8519539841
18400189600.0 -0.513744238 -0.8433636097
18450189300.0 -0.5267644663 -0.8359229157
18500189000.0 -0.5401566586 -0.828000927
18550188700.0 -0.5527467583 -0.8199233903
18600188400.0 -0.5643977944 -0.8133308513
18650188100.0 -0.5752071129 -0.8069297904
18700187800.0 -0.586182814 -0.8003133448
18750187500.0 -0.5966723753 -0.7938786851
18800187200.0 -0.6073538762 -0.7867701256
18850186900.0 -0.6174693562 -0.7800838963
18900186600.0 -0.6277298715 -0.7726055568
18950186300.0 -0.6376833773 -0.7651003686
19000186000.0 -0.6449127194 -0.7588325856
19050185700.0 -0.6541067334 -0.7514526792
19100185400.0 -0.6644009657 -0.7433854694
19150185100.0 -0.6741861489 -0.735322568
19200184800.0 -0.6840141438 -0.7268962934
19250184500.0 -0.6935843609 -0.7179158073
19300184200.0 -0.7051695335 -0.7079590791
19350183900.0 -0.7151341442 -0.6982783966
19400183600.0 -0.7255280447 -0.6882705585
19450183300.0 -0.7341126716 -0.6780046181
19500183000.0 -0.7427224049 -0.6680661098
19550182700.0 -0.7526199804 -0.6571937086
19600182400.0 -0.7634437046 -0.6455548826
19650182100.0 -0.7743580278 -0.6332028982
19700181800.0 -0.7846791053 -0.6197975911
19750181500.0 -0.7953222875 -0.6058680021
19800181200.0 -0.8058899012 -0.5907735635
19850180900.0 -0.8155755025 -0.5755334165
19900180600.0 -0.8232563068 -0.5609386849
19950180300.0 -0.8326152124 -0.5447370485
20000180000.0 -0.8260911899 -0.5468062568
20050179700.0 -0.8334948623 -0.5339674991
20100179400.0 -0.843041977 -0.5193978343
20150179100.0 -0.8505366368 -0.5079705949
20200178800.0 -0.8600609817 -0.4945508941
20250178500.0 -0.8686142182 -0.4809332763
20300178200.0 -0.8787186309 -0.466628879
20350177900.0 -0.8877510909 -0.4524444388
20400177600.0 -0.8967730027 -0.4380435516
20450177300.0 -0.9049813456 -0.4235252264
20500177000.0 -0.9127047326 -0.4095450461
20550176700.0 -0.9209392312 -0.3961363319
20600176400.0 -0.9279998841 -0.3827325606
20650176100.0 -0.9339485239 -0.3704079566
20700175800.0 -0.9412349469 -0.3590154221
20750175500.0 -0.9475773531 -0.3473626516
20800175200.0 -0.9520445691 -0.335395841
20850174900.0 -0.956862313 -0.3246504485
20900174600.0 -0.9622186308 -0.3136661848
20950174300.0 -0.9660064191 -0.3014013132
21000174000.0 -0.9688524985 -0.2901057762
21050173700.0 -0.9721804129 -0.2796612232
21100173400.0 -0.9761503263 -0.2686621247
21150173100.0 -0.9802799432 -0.2558366967
21200172800.0 -0.9832710184 -0.2421422086
21250172500.0 -0.9861234733 -0.2285934375
21300172200.0 -0.9896666886 -0.2142906511
21350171900.0 -0.9906179509 -0.2000246321
21400171600.0 -0.9923473394 -0.1852273081
21450171300.0 -0.9923735475 -0.171276497
21500171000.0 -0.9929727212 -0.1561064682
21550170700.0 -0.9923416915 -0.1402417126
21600170400.0 -0.9914546128 -0.1244030579
21650170100.0 -0.9929507096 -0.1090009085
21700169800.0 -0.9900753766 -0.0941215865
21750169500.0 -0.9891840724 -0.0770300364
21800169200.0 -0.9891872402 -0.0621891108
21850168900.0 -0.9875404999 -0.044855739
21900168600.0 -0.9857231521 -0.0283841849
21950168300.0 -0.9840840823 -0.0125758782
22000168000.0 -0.9836070388 0.002367654
22050167700.0 -0.9835671627 0.0170108688
22100167400.0 -0.9836574538 0.0324093811
22150167100.0 -0.9846280172 0.0474441121
22200166800.0 -0.9845782974 0.0636389667
22250166500.0 -0.9842190584 0.0809659494
22300166200.0 -0.983731073 0.0977344638
22350165900.0 -0.9825355515 0.1140703375
22400165600.0 -0.9796440405 0.1297956152
22450165300.0 -0.9780943976 0.1445658964
22500165000.0 -0.9760334784 0.158678532
22550164700.0 -0.9750952477 0.1733672683
22600164400.0 -0.9745681963 0.1887221629
22650164100.0 -0.9719293667 0.2044356788
22700163800.0 -0.9697258737 0.2205685721
22750163500.0 -0.9664042255 0.2352924561
22800163200.0 -0.9641021272 0.2484022679
22850162900.0 -0.9613943122 0.2618526024
22900162600.0 -0.9599872406 0.2748012531
22950162300.0 -0.958853004 0.2879162284
23000162000.0 -0.9577378921 0.2996275264
23050161700.0 -0.9554266674 0.3124973275
23100161400.0 -0.9529137036 0.3245564262
23150161100.0 -0.9507680655 0.3374093438
23200160800.0 -0.9474086698 0.3502394486
23250160500.0 -0.944925906 0.3608819255
23300160200.0 -0.941948183 0.3736777655
23350159900.0 -0.9385466887 0.3867539409
23400159600.0 -0.9340892077 0.4000402266
23450159300.0 -0.9290156245 0.4132380993
23500159000.0 -0.924752953 0.4267561533
23550158700.0 -0.9202132468 0.4400068335
23600158400.0 -0.9145975661 0.4530118913
23650158100.0 -0.9081920431 0.4669273234
23700157800.0 -0.9005226934 0.4810415214
23750157500.0 -0.8920045111 0.4950450163
23800157200.0 -0.8831905532 0.508006927
23850156900.0 -0.8740861788 0.5210488601
23900156600.0 -0.8650166483 0.5333188009
23950156300.0 -0.8560786208 0.5458197354
24000156000.0 -0.8467169835 0.5583193954
24050155700.0 -0.8365602544 0.5699353916
24100155400.0 -0.8267844807 0.5818246199
24150155100.0 -0.8160960775 0.5937390221
24200154800.0 -0.8047915103 0.6046562362
24250154500.0 -0.7942361949 0.6167323718
24300154200.0 -0.783120155 0.6285327558
24350153900.0 -0.770940011 0.638532645
24400153600.0 -0.7586829689 0.6488933735
24450153300.0 -0.7466127847 0.6588507829
24500153000.0 -0.7353725444 0.6687589585
24550152700.0 -0.7238263071 0.6789333592
24600152400.0 -0.7119864336 0.6878276633
24650152100.0 -0.7004350779 0.6954718799
