!Created with skrf (http://scikit-rf.org).
# Hz S RI R 50.0 
!freq ReS11 ImS11
300000.0 -0.9736593608 -0.12274887
50299700.0 -0.9999202905 0.0149048975
100299400.0 -0.997823076 0.0277887366
150299100.0 -1.002662263 0.0447525627
200298800.0 -0.9994513594 0.0580078404
250298500.0 -0.9973816656 0.0716382767
300298200.0 -0.9860837328 0.087461115
350297900.0 -0.9939424907 0.0982628961
400297600.0 -0.9930650294 0.1149894363
450297300.0 -0.9909893132 0.1287083243
500297000.0 -0.9890771765 0.143424103
550296700.0 -0.9842729074 0.1557375004
600296400.0 -1.017214202 0.1891288228
650296100.0 -0.9820773121 0.1857938605
700295800.0 -0.9794083902 0.1998987058
750295500.0 -0.9761262988 0.2141131865
800295200.0 -0.9728909119 0.2280302071
850294900.0 -0.9695682484 0.2418969478
900294600.0 -0.9656844653 0.2556532937
950294300.0 -0.9621344568 0.269395046
1000294000.0 -0.958142019 0.2833768965
1050293700.0 -0.9535897464 0.2968821877
1100293400.0 -0.9492347172 0.3113292903
1150293100.0 -0.9455235688 0.3232694185
1200292800.0 -0.9401853012 0.3376933706
1250292500.0 -0.9345912103 0.3510079765
1300292200.0 -0.9289243733 0.3645162372
1350291900.0 -0.9234385921 0.3784155175
1400291600.0 -0.9179737841 0.3915742779
1450291300.0 -0.9124725843 0.4038075089
1500291000.0 -0.9061231703 0.4172720878
1550290700.0 -0.8997483933 0.4305503311
1600290400.0 -0.893573819 0.4434879983
1650290100.0 -0.886828698 0.4557530999
1700289800.0 -0.8799950428 0.4690870953
1750289500.0 -0.872788001 0.4815310672
1800289200.0 -0.8654725706 0.494369554
1850288900.0 -0.8586729119 0.5055747474
1900288600.0 -0.8513171217 0.5186069264
1950288300.0 -0.8430260715 0.53114962
2000288000.0 -0.8354912491 0.5427782697
2050287700.0 -0.8271782583 0.5550839829
2100287400.0 -0.8194419982 0.5662743292
2150287100.0 -0.8109539888 0.578285185
2200286800.0 -0.8032215419 0.5891077589
2250286500.0 -0.7941036992 0.6013765386
2300286200.0 -0.7852849427 0.6127469027
2350285900.0 -0.7770230964 0.6234698503
2400285600.0 -0.7679811652 0.6340303082
2450285300.0 -0.7591808959 0.6449328259
2500285000.0 -0.7492157905 0.6565091261
2550284700.0 -0.7402851905 0.6667950237
2600284400.0 -0.7311175832 0.6768268346
2650284100.0 -0.7224851248 0.686998303
2700283800.0 -0.7119632659 0.6976444261
2750283500.0 -0.7016803537 0.7082823966
2800283200.0 -0.6915981164 0.7179995872
2850282900.0 -0.6811518788 0.7281955881
2900282600.0 -0.6708828068 0.737743785
2950282300.0 -0.6603278444 0.7473604089
3000282000.0 -0.6497977348 0.7567341785
3050281700.0 -0.6385468686 0.7659224289
3100281400.0 -0.6269650216 0.7748847873
3150281100.0 -0.6157479427 0.7837368136
3200280800.0 -0.6041287872 0.7920801358
3250280500.0 -0.5931483132 0.8001395219
3300280200.0 -0.5813931013 0.8083218552
3350279900.0 -0.5693624118 0.8164916
3400279600.0 -0.5567081179 0.824510055
3450279300.0 -0.5456545936 0.8315441421
3500279000.0 -0.5340907403 0.8384420801
3550278700.0 -0.5218559084 0.8456139384
3600278400.0 -0.5100808664 0.8523275693
3650278100.0 -0.4969755584 0.8599596073
3700277800.0 -0.4848716688 0.8663412547
3750277500.0 -0.4725103889 0.8732104272
3800277200.0 -0.4599393915 0.8793295716
3850276900.0 -0.4478800564 0.8855721298
3900276600.0 -0.4370139092 0.8912580424
3950276300.0 -0.4250641632 0.8970974039
4000276000.0 -0.4132028793 0.9029074714
4050275700.0 -0.4006004991 0.9090877072
4100275400.0 -0.3894710253 0.9143032057
4150275100.0 -0.3761709018 0.9203659205
4200274800.0 -0.3627945484 0.9259908652
4250274500.0 -0.3501097719 0.9313490032
4300274200.0 -0.3368650416 0.9363875257
4350273900.0 -0.3226535547 0.9418057243
4400273600.0 -0.3076716329 0.9469593844
4450273300.0 -0.2929348478 0.9519968124
4500273000.0 -0.2797597337 0.9561760155
4550272700.0 -0.2661887089 0.9604552801
4600272400.0 -0.2511025419 0.9646144379
4650272100.0 -0.2398382411 0.9676964404
4700271800.0 -0.2268721289 0.9710922973
4750271500.0 -0.2152013304 0.974004388
4800271200.0 -0.2031499304 0.9766757427
4850270900.0 -0.1894058621 0.9794687227
4900270600.0 -0.1753140199 0.9820037862
4950270300.0 -0.1608680979 0.9845480562
5000270000.0 -0.1463284993 0.9865284263
5050269700.0 -0.1327941456 0.9882423392
5100269400.0 -0.1188187658 0.9900405991
5150269100.0 -0.1046416081 0.9918351795
5200268800.0 -0.0915397067 0.992722321
5250268500.0 -0.0784330719 0.9936631559
5300268200.0 -0.0647713075 0.9942213369
5350267900.0 -0.0518633226 0.9952489044
5400267600.0 -0.0355912489 0.9963814685
5450267300.0 -0.0221781398 0.9965786055
5500267000.0 -0.0071273877 0.9969977673
5550266700.0 0.0081030636 0.9970271303
5600266400.0 0.0237001456 0.9972506183
5650266100.0 0.0403967411 0.9967749123
5700265800.0 0.0547208248 0.995863961
5750265500.0 0.0696478337 0.9949485942
5800265200.0 0.0826593616 0.9939869447
5850264900.0 0.0960285154 0.9929359619
5900264600.0 0.1125591173 0.9910898523
5950264300.0 0.1240693657 0.98947669
6000264000.0 0.1378643842 0.9881229316
6050263700.0 0.1494148404 0.9865637331
6100263400.0 0.1617110049 0.9849258403
6150263100.0 0.1764333172 0.9829115966
6200262800.0 0.1859659772 0.981128272
6250262500.0 0.1986156024 0.9785909711
6300262200.0 0.2107681928 0.9760988858
6350261900.0 0.223760793 0.973549161
6400261600.0 0.2375008568 0.9703085138
6450261300.0 0.2485239515 0.9676569236
6500261000.0 0.2618102286 0.9639917133
6550260700.0 0.2750126394 0.9601938113
6600260400.0 0.2883467115 0.9561686609
6650260100.0 0.3024854181 0.9514776757
6700259800.0 0.3146498073 0.9475875065
6750259500.0 0.3283129793 0.9422678226
6800259200.0 0.3419694912 0.9375253311
6850258900.0 0.35426779 0.9320412199
6900258600.0 0.3667073258 0.9268114725
6950258300.0 0.3796313211 0.9215106107
7000258000.0 0.3910676391 0.9163119978
7050257700.0 0.4029766691 0.9107225638
7100257400.0 0.4163171179 0.9040649344
7150257100.0 0.4270497454 0.8986734277
7200256800.0 0.4401976795 0.8922779556
7250256500.0 0.4527235311 0.8858247181
7300256200.0 0.465877971 0.8787059676
7350255900.0 0.4784984039 0.8719551868
7400255600.0 0.4930672151 0.8639231981
7450255300.0 0.5083487114 0.8547602067
7500255000.0 0.52057051 0.8472703773
7550254700.0 0.5350623179 0.8383160815
7600254400.0 0.5475779822 0.8301823057
7650254100.0 0.5588908377 0.8220870477
7700253800.0 0.5707128611 0.8140266955
7750253500.0 0.5818190248 0.8065094709
7800253200.0 0.5923769549 0.7985995375
7850252900.0 0.6021828814 0.7913952573
7900252600.0 0.6134540738 0.7826712841
7950252300.0 0.6221127543 0.7762917152
8000252000.0 0.6319710168 0.7688192905
8050251700.0 0.6423655276 0.7608276452
8100251400.0 0.652208106 0.7527402713
8150251100.0 0.6620567185 0.7442705837
8200250800.0 0.671915651 0.7360146558
8250250500.0 0.6805742241 0.7281595996
8300250200.0 0.6895622243 0.7198431484
8350249900.0 0.6990762566 0.710978691
8400249600.0 0.7070414621 0.7029123532
8450249300.0 0.715688231 0.6941119467
8500249000.0 0.7242564236 0.6854072502
8550248700.0 0.7323974393 0.676392171
8600248400.0 0.7408949434 0.6669995429
8650248100.0 0.7484541022 0.6575271584
8700247800.0 0.7577757309 0.6464355253
8750247500.0 0.7661011652 0.6363930745
8800247200.0 0.77399631 0.6262762147
8850246900.0 0.782926508 0.6147414998
8900246600.0 0.7910474346 0.6032540969
8950246300.0 0.8002771386 0.5906073599
9000246000.0 0.8090041094 0.578654583
9050245700.0 0.8175816344 0.5662903174
9100245400.0 0.825734123 0.5543525504
9150245100.0 0.8345897046 0.5413301203
9200244800.0 0.8440688511 0.5267424737
9250244500.0 0.8533197076 0.5121871247
9300244200.0 0.8611065027 0.4987655015
9350243900.0 0.8689559668 0.4855378062
9400243600.0 0.875440908 0.4739300353
9450243300.0 0.8809607734 0.4634499592
9500243000.0 0.8872649432 0.4516817434
9550242700.0 0.891206093 0.4442538724
9600242400.0 0.8954611819 0.436690586
9650242100.0 0.8996333215 0.4297755607
9700241800.0 0.9048281438 0.4209504633
9750241500.0 0.9088411629 0.4134856491
9800241200.0 0.9139959362 0.4040895485
9850240900.0 0.9198468025 0.3924699906
9900240600.0 0.9256979743 0.3803809168
9950240300.0 0.9326246442 0.3637937458
10000240000.0 0.9377572672 0.3515846739
10050239700.0 0.9436507105 0.335509593
10100239400.0 0.9493509654 0.3191064372
10150239100.0 0.9538798117 0.3037638241
10200238800.0 0.9580519201 0.2879536279
10250238500.0 0.961408843 0.2746035224
10300238200.0 0.964751851 0.260611966
10350237900.0 0.9674741803 0.2472659044
10400237600.0 0.9700153066 0.2336846522
10450237300.0 0.9726559374 0.2200385841
10500237000.0 0.9748402817 0.2082411317
10550236700.0 0.9772040677 0.1934920747
10600236400.0 0.9795036718 0.1789443496
10650236100.0 0.9815477665 0.1644909073
10700235800.0 0.983386445 0.1522432894
10750235500.0 0.9855725882 0.1392520829
10800235200.0 0.9875560037 0.1247563666
10850234900.0 0.9898140959 0.1098025437
10900234600.0 0.9920968182 0.0948123391
10950234300.0 0.9937624391 0.0813516954
11000234000.0 0.9955737967 0.0658252322
11050233700.0 0.9973542768 0.049088822
11100233400.0 0.9985482098 0.0315716373
11150233100.0 0.9999901184 0.0148641993
11200232800.0 1.00084082 -0.0012977084
11250232500.0 1.00194005 -0.0188216807
11300232200.0 1.002212442 -0.0377441956
11350231900.0 1.002558113 -0.0542907467
11400231600.0 1.00163571 -0.0691457832
11450231300.0 1.000488891 -0.0844743116
11500231000.0 0.9999896426 -0.1011903266
11550230700.0 0.9985391717 -0.1139875597
11600230400.0 0.9971456838 -0.1266798346
11650230100.0 0.9947533122 -0.1388074815
11700229800.0 0.9927104756 -0.1533616297
11750229500.0 0.9903550825 -0.1679304438
11800229200.0 0.9873718711 -0.1811259088
11850228900.0 0.9835145169 -0.1930913207
11900228600.0 0.9799474026 -0.2023832856
11950228300.0 0.9766824019 -0.2127528972
12000228000.0 0.9739199203 -0.2214781889
12050227700.0 0.9702540421 -0.234486378
12100227400.0 0.9670171318 -0.245084361
12150227100.0 0.9620257986 -0.2620633312
12200226800.0 0.9580828738 -0.2727802545
12250226500.0 0.9538326312 -0.2856320071
12300226200.0 0.9498808993 -0.2975587388
12350225900.0 0.9443457863 -0.3121538502
12400225600.0 0.9400340663 -0.3244943079
12450225300.0 0.9354404272 -0.3366788123
12500225000.0 0.9303752462 -0.3517704291
12550224700.0 0.9246078685 -0.3652018709
12600224400.0 0.9199234785 -0.3780325353
12650224100.0 0.9141830845 -0.3923556795
12700223800.0 0.9087799436 -0.4053245132
12750223500.0 0.9035209169 -0.4184622225
12800223200.0 0.8982190594 -0.4308329716
12850222900.0 0.8926698174 -0.4430393869
12900222600.0 0.8873364601 -0.454678605
12950222300.0 0.8807287631 -0.4679046798
13000222000.0 0.8753315222 -0.4788844819
13050221700.0 0.8682391948 -0.4920994538
13100221400.0 0.8614220888 -0.5039878296
13150221100.0 0.8545641316 -0.5164933928
13200220800.0 0.8477698171 -0.5280395126
13250220500.0 0.8404554279 -0.5400181336
13300220200.0 0.8329546217 -0.5509915952
13350219900.0 0.82489753 -0.5628567492
13400219600.0 0.8163140597 -0.5746454937
13450219300.0 0.807084946 -0.5874722509
13500219000.0 0.797245723 -0.6008467316
13550218700.0 0.7875235839 -0.6132827554
13600218400.0 0.7781341868 -0.6249316132
13650218100.0 0.7687438633 -0.6355474997
13700217800.0 0.7570279495 -0.6475361479
13750217500.0 0.7475035347 -0.6587928777
13800217200.0 0.7364834708 -0.6702295268
13850216900.0 0.7257082553 -0.6810605627
13900216600.0 0.7166291652 -0.6900514428
13950216300.0 0.705021957 -0.7003159417
14000216000.0 0.6953434784 -0.709300619
14050215700.0 0.6863061306 -0.7167380184
14100215400.0 0.6767867361 -0.7262691888
14150215100.0 0.6678590413 -0.7350686159
14200214800.0 0.6582237116 -0.7436580144
14250214500.0 0.6477529286 -0.7532755543
14300214200.0 0.6374081221 -0.762609186
14350213900.0 0.6261814178 -0.7723894237
14400213600.0 0.6143860589 -0.7819338838
14450213300.0 0.6013999388 -0.7922818358
14500213000.0 0.5884017607 -0.8028180951
14550212700.0 0.5767864021 -0.8114754469
14600212400.0 0.5639434738 -0.8205832605
14650212100.0 0.5512564762 -0.8289052666
14700211800.0 0.5372288957 -0.8383816634
14750211500.0 0.5253916651 -0.8470214226
14800211200.0 0.5126133961 -0.8552807911
14850210900.0 0.5003790709 -0.8628480961
14900210600.0 0.4870831638 -0.8706516042
14950210300.0 0.4736979105 -0.8782679342
15000210000.0 0.4611808584 -0.8848883925
15050209700.0 0.4488690127 -0.8909836604
15100209400.0 0.436200168 -0.8972111982
15150209100.0 0.4241870833 -0.9023084302
15200208800.0 0.4115555444 -0.9074925301
15250208500.0 0.4001805769 -0.9122768225
15300208200.0 0.3882501186 -0.916940154
15350207900.0 0.3745976926 -0.9215406091
15400207600.0 0.3601324321 -0.9274545777
15450207300.0 0.3454669726 -0.9324336191
15500207000.0 0.33078523 -0.9368306827
15550206700.0 0.3161095747 -0.9418348651
15600206400.0 0.2998866258 -0.9464237321
15650206100.0 0.2847511904 -0.9506776754
15700205800.0 0.2703986534 -0.9544127024
15750205500.0 0.2565289753 -0.9575973207
15800205200.0 0.2426033101 -0.9610208515
15850204900.0 0.2286200626 -0.9646227912
15900204600.0 0.2135225744 -0.9682576339
15950204300.0 0.199268723 -0.9711572509
16000204000.0 0.1849343015 -0.9745416246
16050203700.0 0.1696631335 -0.9775577923
16100203400.0 0.1546560026 -0.9795404359
16150203100.0 0.1396568769 -0.9823742448
16200202800.0 0.1257280892 -0.9841180572
16250202500.0 0.1116712733 -0.9860196898
16300202200.0 0.0959454826 -0.9872507523
16350201900.0 0.080333094 -0.9889645807
16400201600.0 0.0656644673 -0.99039119
16450201300.0 0.0503848535 -0.9911639982
16500201000.0 0.0333075397 -0.9921433914
16550200700.0 0.0172080852 -0.9924725249
16600200400.0 0.0016272051 -0.9926636753
16650200100.0 -0.0148622647 -0.9925438155
16700199800.0 -0.0309568614 -0.9921425544
16750199500.0 -0.0503703285 -0.991831689
16800199200.0 -0.066272245 -0.9908387261
16850198900.0 -0.0813974573 -0.9896322653
16900198600.0 -0.0957831441 -0.9888502918
16950198300.0 -0.109891631 -0.9875889102
17000198000.0 -0.1231522195 -0.9860819677
17050197700.0 -0.1348988928 -0.9835713228
17100197400.0 -0.1484814176 -0.98163932
17150197100.0 -0.1611247647 -0.9799839144
17200196800.0 -0.1735721549 -0.9779437549
17250196500.0 -0.1867168713 -0.9752632305
17300196200.0 -0.1989096297 -0.9731076961
17350195900.0 -0.2107896243 -0.9705678663
17400195600.0 -0.2228107505 -0.9681649671
17450195300.0 -0.2357484774 -0.9653250017
17500195000.0 -0.249018686 -0.962052383
17550194700.0 -0.2628330471 -0.958778064
17600194400.0 -0.2767095935 -0.9546897167
17650194100.0 -0.2901567742 -0.9502814417
17700193800.0 -0.3029773763 -0.946484879
17750193500.0 -0.3173656606 -0.9418570982
17800193200.0 -0.3314946877 -0.9367405342
17850192900.0 -0.3460845426 -0.9312770194
17900192600.0 -0.3613670132 -0.9254051802
17950192300.0 -0.3770548302 -0.9180460612
18000192000.0 -0.3916251364 -0.9109274204
18050191700.0 -0.4056586298 -0.9029918233
18100191400.0 -0.4196235961 -0.8950747593
18150191100.0 -0.434443855 -0.8871743562
18200190800.0 -0.4513640208 -0.8781283743
18250190500.0 -0.4681195525 -0.868437105
18300190200.0 -0.4836094323 -0.85955969
18350189900.0 -0.4990215708 -0.8512712919
18400189600.0 -0.5131795667 -0.8429165663
18450189300.0 -0.5271869992 -0.8351671487
18500189000.0 -0.5405972937 -0.8264103668
18550188700.0 -0.5535782813 -0.8192730019
18600188400.0 -0.5649946689 -0.8122069305
18650188100.0 -0.5767459792 -0.8056314511
18700187800.0 -0.5875833129 -0.798802772
18750187500.0 -0.5983813494 -0.7925353588
18800187200.0 -0.6093810388 -0.7851885175
18850186900.0 -0.6193602069 -0.778490422
18900186600.0 -0.6296650404 -0.7712693165
18950186300.0 -0.6399448038 -0.7633973585
19000186000.0 -0.6474218638 -0.7572866128
19050185700.0 -0.6569859675 -0.7498437381
19100185400.0 -0.6667432224 -0.7418193446
19150185100.0 -0.6767388469 -0.7336793215
19200184800.0 -0.6863575245 -0.7252881746
19250184500.0 -0.696582988 -0.7155187505
19300184200.0 -0.7080592397 -0.7060578594
19350183900.0 -0.718726348 -0.6968893796
19400183600.0 -0.7288110829 -0.6864989753
19450183300.0 -0.7376654075 -0.6766920453
19500183000.0 -0.7461654853 -0.6667343259
19550182700.0 -0.7556579778 -0.6553818566
19600182400.0 -0.7654247519 -0.6441079238
19650182100.0 -0.776178675 -0.6317165987
19700181800.0 -0.7866708215 -0.618826488
19750181500.0 -0.7968834171 -0.6048448228
19800181200.0 -0.8069611142 -0.5896568533
19850180900.0 -0.8163931583 -0.574407941
19900180600.0 -0.824003907 -0.5599929354
19950180300.0 -0.8329839586 -0.5438191571
20000180000.0 -0.8227612413 -0.5474643152
20050179700.0 -0.8312258846 -0.5353239076
20100179400.0 -0.8395035631 -0.5219098146
20150179100.0 -0.846335845 -0.5097572464
20200178800.0 -0.8559494407 -0.4976521025
20250178500.0 -0.8653377319 -0.485349646
20300178200.0 -0.8755167656 -0.4719530711
20350177900.0 -0.8841257869 -0.457901929
20400177600.0 -0.8934387557 -0.4433385328
20450177300.0 -0.9016973413 -0.4293299805
20500177000.0 -0.9099420746 -0.4153395529
20550176700.0 -0.9181223051 -0.4018476653
20600176400.0 -0.9251417322 -0.3888158489
20650176100.0 -0.932105691 -0.3773442416
20700175800.0 -0.9373363513 -0.3649379018
20750175500.0 -0.9453224751 -0.3534145281
20800175200.0 -0.9488019278 -0.3426667261
20850174900.0 -0.9541540439 -0.3323797541
20900174600.0 -0.9581916556 -0.321618647
20950174300.0 -0.9603613074 -0.3100685025
21000174000.0 -0.9645698734 -0.2992105768
21050173700.0 -0.9662348922 -0.2897629099
21100173400.0 -0.9689812488 -0.2794389176
21150173100.0 -0.973008611 -0.2670696238
21200172800.0 -0.9767874169 -0.2537761843
21250172500.0 -0.9806151953 -0.2399452111
21300172200.0 -0.9840784747 -0.2259827373
21350171900.0 -0.9860070309 -0.2114542531
21400171600.0 -0.9880751157 -0.1974708063
21450171300.0 -0.9885215064 -0.1833597814
21500171000.0 -0.9881868854 -0.1681744965
21550170700.0 -0.9902921536 -0.1524008474
21600170400.0 -0.9909599383 -0.1382015154
21650170100.0 -0.9902198036 -0.1219266787
21700169800.0 -0.9898246691 -0.1066695955
21750169500.0 -0.9898943487 -0.0909191384
21800169200.0 -0.9899848407 -0.07407179
21850168900.0 -0.990497737 -0.0570341293
21900168600.0 -0.9896168513 -0.0414422454
21950168300.0 -0.9891386476 -0.0254773147
22000168000.0 -0.9890257563 -0.0107201358
22050167700.0 -0.9896906528 0.0043759301
22100167400.0 -0.9902120928 0.0199258914
22150167100.0 -0.9914186953 0.0361412582
22200166800.0 -0.992212214 0.0532210819
22250166500.0 -0.9909024498 0.0696796772
22300166200.0 -0.9908771295 0.0865772173
22350165900.0 -0.9901430132 0.1016686944
22400165600.0 -0.9880990982 0.1189444162
22450165300.0 -0.9870298693 0.1337124636
22500165000.0 -0.9850268527 0.1474973294
22550164700.0 -0.9833272914 0.1640345835
22600164400.0 -0.9817298761 0.1797098949
22650164100.0 -0.9783219179 0.1945731939
22700163800.0 -0.9757544902 0.2108978577
22750163500.0 -0.9721351593 0.2262935924
22800163200.0 -0.9688886317 0.2391862393
22850162900.0 -0.9664821242 0.2521240618
22900162600.0 -0.964664084 0.2664077769
22950162300.0 -0.962691219 0.2799815371
23000162000.0 -0.961236554 0.2930217867
23050161700.0 -0.9585430242 0.3060391762
23100161400.0 -0.9557651658 0.3201085308
23150161100.0 -0.9525837225 0.3325027684
23200160800.0 -0.9491344795 0.3452798573
23250160500.0 -0.9465465495 0.357480955
23300160200.0 -0.9438608652 0.3709849582
23350159900.0 -0.9402134246 0.3842715685
23400159600.0 -0.9349565945 0.3983794116
23450159300.0 -0.9297978131 0.4124069634
23500159000.0 -0.9252372958 0.4257674355
23550158700.0 -0.9200901496 0.4396899024
23600158400.0 -0.9139799211 0.4537359206
23650158100.0 -0.9068539183 0.4683414569
23700157800.0 -0.8984605369 0.4828415704
23750157500.0 -0.8891321856 0.4973002501
23800157200.0 -0.8791921394 0.5100141627
23850156900.0 -0.8692285853 0.5229720625
23900156600.0 -0.8597667106 0.5362942304
23950156300.0 -0.850302757 0.5487498949
24000156000.0 -0.8419929122 0.5609389433
24050155700.0 -0.830653806 0.5732518576
24100155400.0 -0.8195598773 0.5853393342
24150155100.0 -0.8084124173 0.5971556548
24200154800.0 -0.7978372645 0.6096935076
24250154500.0 -0.7867011806 0.6217128517
24300154200.0 -0.7753824494 0.6337299032
24350153900.0 -0.763192904 0.6446928662
24400153600.0 -0.7505616204 0.6554601335
24450153300.0 -0.7383766985 0.6657123448
24500153000.0 -0.7266366029 0.6753267326
24550152700.0 -0.7156181043 0.685524134
24600152400.0 -0.7031335244 0.6950998864
24650152100.0 -0.6913217352 0.7034983187
