!Created with skrf (http://scikit-rf.org).
# Hz S RI R 50.0 
!freq ReS11 ImS11
300000.0 -0.9740842877 -0.1200250002
50299700.0 -0.9999126329 0.0150499173
100299400.0 -0.9979951455 0.0280462793
150299100.0 -1.002769041 0.0448630752
200298800.0 -0.9995535649 0.0580779285
250298500.0 -0.9972920409 0.0717240025
300298200.0 -0.9857600458 0.0873615653
350297900.0 -0.9940004358 0.0984312251
400297600.0 -0.993228667 0.1148571914
450297300.0 -0.9908458088 0.128755955
500297000.0 -0.9893037827 0.1434224663
550296700.0 -0.9844313794 0.1558772246
600296400.0 -1.017460413 0.1892990109
650296100.0 -0.9821507259 0.1856909619
700295800.0 -0.9792819927 0.1999011503
750295500.0 -0.97618539 0.2139645575
800295200.0 -0.9728237338 0.2279532366
850294900.0 -0.9695462161 0.2418219594
900294600.0 -0.9660088974 0.2555152147
950294300.0 -0.9620797998 0.2691760801
1000294000.0 -0.9582634202 0.283220215
1050293700.0 -0.9536257832 0.2971188182
1100293400.0 -0.9493709225 0.3114530449
1150293100.0 -0.9455235551 0.3235173363
1200292800.0 -0.9401226983 0.3375137422
1250292500.0 -0.9346695426 0.3512105704
1300292200.0 -0.9289504022 0.3643711668
1350291900.0 -0.9235881277 0.3784314291
1400291600.0 -0.9180348345 0.3915726587
1450291300.0 -0.9125213567 0.4040876118
1500291000.0 -0.906161989 0.4173162267
1550290700.0 -0.8997955781 0.4307585924
1600290400.0 -0.8934246761 0.4437488063
1650290100.0 -0.8870069081 0.4556465104
1700289800.0 -0.8801197728 0.4693048568
1750289500.0 -0.8729045417 0.4815009189
1800289200.0 -0.8655655509 0.494538045
1850288900.0 -0.8586572199 0.5057691884
1900288600.0 -0.8508582777 0.5186734061
1950288300.0 -0.8430578131 0.5313175988
2000288000.0 -0.8353282382 0.5427890462
2050287700.0 -0.8270735718 0.555090383
2100287400.0 -0.8194214473 0.5666190843
2150287100.0 -0.8108362981 0.5784631981
2200286800.0 -0.8029447085 0.5889530284
2250286500.0 -0.794053469 0.6013490607
2300286200.0 -0.7851258459 0.6126909705
2350285900.0 -0.7768276925 0.623407965
2400285600.0 -0.767951803 0.6343474725
2450285300.0 -0.7591254798 0.6450729659
2500285000.0 -0.7491769453 0.6565379183
2550284700.0 -0.7402369958 0.6668742427
2600284400.0 -0.7313164922 0.6768974398
2650284100.0 -0.7226898384 0.6871061739
2700283800.0 -0.7120008699 0.6976751388
2750283500.0 -0.7014364865 0.7081831743
2800283200.0 -0.6916733966 0.7181873751
2850282900.0 -0.6810404549 0.7281370452
2900282600.0 -0.6707872555 0.7378627815
2950282300.0 -0.660239176 0.7472104014
3000282000.0 -0.6495213745 0.7565779124
3050281700.0 -0.638343297 0.7659349539
3100281400.0 -0.6268544457 0.7748987663
3150281100.0 -0.6155459468 0.7839706666
3200280800.0 -0.6042044389 0.7924069891
3250280500.0 -0.5930575544 0.8001421172
3300280200.0 -0.5813489194 0.8082473587
3350279900.0 -0.5692349611 0.8164034611
3400279600.0 -0.5568294496 0.8246870202
3450279300.0 -0.5457932451 0.8316111194
3500279000.0 -0.5339951367 0.8384206105
3550278700.0 -0.5217583864 0.8455400727
3600278400.0 -0.5098548253 0.8523065369
3650278100.0 -0.4969180828 0.8599219201
3700277800.0 -0.4847442093 0.8662925491
3750277500.0 -0.4724669237 0.8732661141
3800277200.0 -0.4598682879 0.8794666967
3850276900.0 -0.4480313866 0.8856953226
3900276600.0 -0.4370095841 0.8912013814
3950276300.0 -0.4249598514 0.8972244043
4000276000.0 -0.4129344344 0.9030483789
4050275700.0 -0.4003931213 0.9091593419
4100275400.0 -0.3893013932 0.9145254097
4150275100.0 -0.3761664769 0.9205638854
4200274800.0 -0.3627052989 0.925876993
4250274500.0 -0.3501167688 0.9313142308
4300274200.0 -0.3369753602 0.9368436556
4350273900.0 -0.3227235539 0.9419803148
4400273600.0 -0.3078943665 0.9472282093
4450273300.0 -0.2930046698 0.9522564624
4500273000.0 -0.2797102416 0.9564704457
4550272700.0 -0.2661885646 0.9604782198
4600272400.0 -0.2510766733 0.9647843502
4650272100.0 -0.2397104182 0.9678579719
4700271800.0 -0.2267086405 0.9710761332
4750271500.0 -0.2150628287 0.9740180467
4800271200.0 -0.2027294036 0.9767229113
4850270900.0 -0.1890283039 0.9793976836
4900270600.0 -0.175253733 0.9819055397
4950270300.0 -0.160623042 0.9843753452
5000270000.0 -0.1462156117 0.9865332727
5050269700.0 -0.1328177448 0.9885623724
5100269400.0 -0.1185555638 0.9902064359
5150269100.0 -0.1046240056 0.9914914216
5200268800.0 -0.0911165457 0.9929722631
5250268500.0 -0.077978408 0.9935689422
5300268200.0 -0.0645630287 0.994652868
5350267900.0 -0.0518712842 0.9951426501
5400267600.0 -0.0357117986 0.9963006021
5450267300.0 -0.02247642 0.9967165893
5500267000.0 -0.0069934203 0.9969755037
5550266700.0 0.0078144475 0.9972488479
5600266400.0 0.0235909264 0.9970827192
5650266100.0 0.0403513036 0.9970019483
5700265800.0 0.0545301045 0.9959801843
5750265500.0 0.0692979149 0.9952550333
5800265200.0 0.0828592566 0.9940543966
5850264900.0 0.0963141839 0.9932870179
5900264600.0 0.1128279873 0.9912556706
5950264300.0 0.1244963322 0.9898584274
6000264000.0 0.1379450411 0.9878782619
6050263700.0 0.1496054807 0.9865631218
6100263400.0 0.162009835 0.9850536718
6150263100.0 0.1765244864 0.9825960729
6200262800.0 0.1861738029 0.9810156785
6250262500.0 0.1986654474 0.9788234148
6300262200.0 0.2110770995 0.976044381
6350261900.0 0.2238652883 0.9734031633
6400261600.0 0.2377183672 0.9701211655
6450261300.0 0.2488312563 0.967646043
6500261000.0 0.2621049475 0.9640407643
6550260700.0 0.2750582652 0.9598102834
6600260400.0 0.2888168111 0.9560721979
6650260100.0 0.3028561639 0.9518449122
6700259800.0 0.3153395928 0.9473412547
6750259500.0 0.328591853 0.9423280523
6800259200.0 0.3421954771 0.9373630633
6850258900.0 0.3548114571 0.9319882874
6900258600.0 0.3671294835 0.9269478514
6950258300.0 0.3795798624 0.9214642835
7000258000.0 0.3914862187 0.9162309359
7050257700.0 0.4031947683 0.9103608696
7100257400.0 0.4167217385 0.9039518503
7150257100.0 0.4273209073 0.898554755
7200256800.0 0.4403109862 0.8921512689
7250256500.0 0.4527612107 0.8855776061
7300256200.0 0.4656627356 0.8785066393
7350255900.0 0.4784249871 0.8716607742
7400255600.0 0.4923393583 0.8642200775
7450255300.0 0.5081679905 0.8552288801
7500255000.0 0.5203044736 0.8476089726
7550254700.0 0.5347068441 0.8385515978
7600254400.0 0.5473860614 0.8301867987
7650254100.0 0.5587201638 0.8222805985
7700253800.0 0.5706203693 0.8143603266
7750253500.0 0.5815110262 0.806682296
7800253200.0 0.5919761886 0.7987706134
7850252900.0 0.6020341337 0.7916564561
7900252600.0 0.6134516869 0.782914311
7950252300.0 0.6218974692 0.7765228965
8000252000.0 0.6317555751 0.7688665164
8050251700.0 0.642235854 0.7607579262
8100251400.0 0.6523403328 0.7528728922
8150251100.0 0.6622949963 0.7443407787
8200250800.0 0.6715588991 0.7362545086
8250250500.0 0.6804197086 0.7282861347
8300250200.0 0.6896160019 0.7198965497
8350249900.0 0.6989259335 0.711007846
8400249600.0 0.7067333097 0.7030999683
8450249300.0 0.7156393278 0.6942607179
8500249000.0 0.7243810363 0.6852809056
8550248700.0 0.7325785337 0.6764732247
8600248400.0 0.740995832 0.6670101912
8650248100.0 0.7487040134 0.6575982328
8700247800.0 0.7578910018 0.6465037454
8750247500.0 0.7661223306 0.6364825866
8800247200.0 0.7742504274 0.6259674014
8850246900.0 0.7830981789 0.6145981661
8900246600.0 0.7913416224 0.6030209668
8950246300.0 0.8004983066 0.5905648038
9000246000.0 0.8093813921 0.5783871528
9050245700.0 0.8178700609 0.5660849413
9100245400.0 0.8259995698 0.5540773586
9150245100.0 0.8351336164 0.5411634624
9200244800.0 0.8442600123 0.5266733917
9250244500.0 0.8536273171 0.5121169071
9300244200.0 0.8615399432 0.498361532
9350243900.0 0.8690722286 0.48516265
9400243600.0 0.8756373123 0.4732411791
9450243300.0 0.8813655906 0.4628812698
9500243000.0 0.8877402042 0.4510713696
9550242700.0 0.891699964 0.4434745829
9600242400.0 0.8958106801 0.4360958612
9650242100.0 0.9002644443 0.4288173093
9700241800.0 0.9049998871 0.4202727007
9750241500.0 0.9091866477 0.4129093607
9800241200.0 0.9141250797 0.4033533653
9850240900.0 0.9200334573 0.3918827846
9900240600.0 0.9259181654 0.3798476631
9950240300.0 0.9330337641 0.3632767552
10000240000.0 0.9377747468 0.3509731578
10050239700.0 0.9436874397 0.3350378763
10100239400.0 0.949109104 0.3188401968
10150239100.0 0.953826394 0.303259043
10200238800.0 0.9581006843 0.2876889704
10250238500.0 0.9614430533 0.2742350963
10300238200.0 0.9647019954 0.2603461691
10350237900.0 0.9674327809 0.2468938385
10400237600.0 0.9699388025 0.2332858562
10450237300.0 0.9728457284 0.2196778709
10500237000.0 0.9748490524 0.2077291807
10550236700.0 0.9773976829 0.193209728
10600236400.0 0.9796520087 0.1788351226
10650236100.0 0.9814403768 0.1648770731
10700235800.0 0.9836380752 0.1520491311
10750235500.0 0.9864015419 0.1389715754
10800235200.0 0.9878783223 0.1240192872
10850234900.0 0.9898495212 0.1095835526
10900234600.0 0.991863452 0.0946404079
10950234300.0 0.9937412029 0.0812927944
11000234000.0 0.9954327882 0.0657579584
11050233700.0 0.9973894928 0.0489422408
11100233400.0 0.9988621275 0.0317030134
11150233100.0 1.000180816 0.0146461739
11200232800.0 1.000360529 -0.0011064461
11250232500.0 1.001354789 -0.0185256698
11300232200.0 1.00192481 -0.0365325271
11350231900.0 1.0021489 -0.0537231964
11400231600.0 1.001857057 -0.0695921794
11450231300.0 1.001129111 -0.0848964732
11500231000.0 0.9996916446 -0.1008150692
11550230700.0 0.9982760104 -0.113941327
11600230400.0 0.9969170406 -0.1270567418
11650230100.0 0.9946724283 -0.1387662675
11700229800.0 0.9925190279 -0.1536767677
11750229500.0 0.9902189573 -0.1681141054
11800229200.0 0.987243787 -0.1810320916
11850228900.0 0.983669445 -0.1929091613
11900228600.0 0.9800237192 -0.2024773353
11950228300.0 0.9764708469 -0.2127819574
12000228000.0 0.9740448639 -0.2209161195
12050227700.0 0.9701010962 -0.2338432036
12100227400.0 0.9670639082 -0.2449500003
12150227100.0 0.9615657945 -0.2624149152
12200226800.0 0.9584761884 -0.2730564659
12250226500.0 0.9540585476 -0.2861091683
12300226200.0 0.9494497798 -0.298311936
12350225900.0 0.9446401437 -0.3119622367
12400225600.0 0.9401503714 -0.3237653409
12450225300.0 0.9360863298 -0.3363081492
12500225000.0 0.9304682859 -0.3513708082
12550224700.0 0.9249013809 -0.3650818316
12600224400.0 0.920147553 -0.3778212181
12650224100.0 0.9142929893 -0.3922851989
12700223800.0 0.9090620873 -0.4049330156
12750223500.0 0.9035079544 -0.4181739013
12800223200.0 0.8980899809 -0.4308652237
12850222900.0 0.8930833986 -0.4430567514
12900222600.0 0.8873551822 -0.4548323458
12950222300.0 0.881136936 -0.4678067684
13000222000.0 0.8752479442 -0.478263235
13050221700.0 0.8685569232 -0.4920581109
13100221400.0 0.8617193913 -0.5045034904
13150221100.0 0.8547422899 -0.5162379764
13200220800.0 0.8479173864 -0.5275451345
13250220500.0 0.8407574432 -0.5399049166
13300220200.0 0.8331060434 -0.5509362007
13350219900.0 0.8248593323 -0.5629830179
13400219600.0 0.816400469 -0.5748563796
13450219300.0 0.8073710981 -0.5877015537
13500219000.0 0.7977006067 -0.6011356191
13550218700.0 0.7872239041 -0.613371648
13600218400.0 0.7777119087 -0.6246766275
13650218100.0 0.7680752365 -0.6357005405
13700217800.0 0.7571047087 -0.6480259121
13750217500.0 0.7471340767 -0.6589388952
13800217200.0 0.7365920438 -0.6706473368
13850216900.0 0.7260666673 -0.6810526728
13900216600.0 0.7166602515 -0.6903566767
13950216300.0 0.7054350641 -0.7003576623
14000216000.0 0.6954169904 -0.7095975403
14050215700.0 0.6863544694 -0.7171601285
14100215400.0 0.6764145564 -0.7266001968
14150215100.0 0.6677129421 -0.7350548303
14200214800.0 0.6582257309 -0.7439584882
14250214500.0 0.647682248 -0.7534442137
14300214200.0 0.6369965299 -0.7629866196
14350213900.0 0.6261423243 -0.7724550979
14400213600.0 0.6144765216 -0.7822172756
14450213300.0 0.6012765272 -0.7923533595
14500213000.0 0.5883998315 -0.8026940992
14550212700.0 0.5756036323 -0.8116448226
14600212400.0 0.5640149231 -0.8208258506
14650212100.0 0.5509419473 -0.8289136062
14700211800.0 0.5373972174 -0.8387999201
14750211500.0 0.5248500456 -0.8472856316
14800211200.0 0.5123213111 -0.854951179
14850210900.0 0.4999619901 -0.862865929
14900210600.0 0.4867058397 -0.8707778521
14950210300.0 0.4734140099 -0.8784727565
15000210000.0 0.4608888604 -0.8851765299
15050209700.0 0.4483854377 -0.8914293008
15100209400.0 0.4356672807 -0.8975229131
15150209100.0 0.4237345559 -0.9029819409
15200208800.0 0.4109422293 -0.9081414101
15250208500.0 0.4000005742 -0.9127983103
15300208200.0 0.3866777556 -0.9176697429
15350207900.0 0.3735669298 -0.9214346629
15400207600.0 0.3595349099 -0.9276109562
15450207300.0 0.3450731581 -0.9324652459
15500207000.0 0.3304238172 -0.9372440647
15550206700.0 0.3160449247 -0.9418963924
15600206400.0 0.2997475226 -0.9462012692
15650206100.0 0.284004017 -0.95085649
15700205800.0 0.2706714084 -0.9540693412
15750205500.0 0.2565072149 -0.9577802721
15800205200.0 0.2425838012 -0.9612352667
15850204900.0 0.2283241928 -0.9645870962
15900204600.0 0.2133527019 -0.9684047295
15950204300.0 0.1988626245 -0.9715981313
16000204000.0 0.1843181873 -0.9744852836
16050203700.0 0.1693656319 -0.9776072407
16100203400.0 0.1547275241 -0.979665139
16150203100.0 0.1402667219 -0.9819372232
16200202800.0 0.1253612599 -0.9839244461
16250202500.0 0.1105121171 -0.9858160456
16300202200.0 0.0955069419 -0.9872156137
16350201900.0 0.0802762242 -0.9886079906
16400201600.0 0.0655063107 -0.9903468186
16450201300.0 0.049905944 -0.9911703646
16500201000.0 0.0330015172 -0.9919127434
16550200700.0 0.0167977867 -0.9923578447
16600200400.0 0.001030279 -0.9925455212
16650200100.0 -0.0148667097 -0.9928331785
16700199800.0 -0.0314050411 -0.9922231023
16750199500.0 -0.050444884 -0.9918168383
16800199200.0 -0.0664011986 -0.991241815
16850198900.0 -0.0813962578 -0.9895694559
16900198600.0 -0.095927904 -0.9886931597
16950198300.0 -0.1096797104 -0.9872929379
17000198000.0 -0.1229793593 -0.9861794408
17050197700.0 -0.1354925296 -0.9842377269
17100197400.0 -0.1478477557 -0.9818058648
17150197100.0 -0.1612006558 -0.9801786151
17200196800.0 -0.1736232176 -0.978242924
17250196500.0 -0.1864609192 -0.9753251992
17300196200.0 -0.1989293679 -0.973054268
17350195900.0 -0.2107344331 -0.970757397
17400195600.0 -0.2227063528 -0.9682440582
17450195300.0 -0.2354624842 -0.9654714794
17500195000.0 -0.2490388837 -0.9622142201
17550194700.0 -0.2626334644 -0.9584387382
17600194400.0 -0.2764531519 -0.9545367266
17650194100.0 -0.2902206355 -0.9507249191
17700193800.0 -0.3030080316 -0.9463238386
17750193500.0 -0.3171686519 -0.9416765286
17800193200.0 -0.3315280792 -0.9363584137
17850192900.0 -0.3462296944 -0.9313425259
17900192600.0 -0.3616053307 -0.9250823888
17950192300.0 -0.3769833978 -0.9179430207
18000192000.0 -0.3917383427 -0.910779687
18050191700.0 -0.4056605226 -0.9028085547
18100191400.0 -0.419734937 -0.8951392226
18150191100.0 -0.434576959 -0.8872209757
18200190800.0 -0.4514350176 -0.8779937081
18250190500.0 -0.4682740715 -0.8686419455
18300190200.0 -0.4838746803 -0.8597876329
18350189900.0 -0.4990010768 -0.851502234
18400189600.0 -0.5136980703 -0.8431444457
18450189300.0 -0.5272815417 -0.8349852523
18500189000.0 -0.5402550221 -0.8271007574
18550188700.0 -0.5535481976 -0.818989351
18600188400.0 -0.5649883821 -0.8125137646
18650188100.0 -0.5768220125 -0.8060285038
18700187800.0 -0.587273509 -0.7992261496
18750187500.0 -0.5981981402 -0.792445051
18800187200.0 -0.6089979372 -0.7857037885
18850186900.0 -0.6189982661 -0.7785207474
18900186600.0 -0.6293419826 -0.7712624367
18950186300.0 -0.6396019851 -0.7636873662
19000186000.0 -0.6471847255 -0.7572316217
19050185700.0 -0.6567926781 -0.7502269351
19100185400.0 -0.666001055 -0.7419900046
19150185100.0 -0.6763326762 -0.7332205596
19200184800.0 -0.6856532809 -0.7258484249
19250184500.0 -0.695721218 -0.7163502968
19300184200.0 -0.7075013737 -0.7066963969
19350183900.0 -0.7185396124 -0.6971573936
19400183600.0 -0.7281282186 -0.6869986169
19450183300.0 -0.7369651064 -0.6767316287
19500183000.0 -0.7452750382 -0.6671738456
19550182700.0 -0.7550526382 -0.6554851836
19600182400.0 -0.7652564881 -0.6443079658
19650182100.0 -0.7757174816 -0.6315583462
19700181800.0 -0.7861490382 -0.6186366843
19750181500.0 -0.7968495343 -0.60440563
19800181200.0 -0.8069942119 -0.5897078375
19850180900.0 -0.8164653101 -0.5742831978
19900180600.0 -0.8242356433 -0.5597234685
19950180300.0 -0.833177179 -0.5435523855
20000180000.0 -0.8244128807 -0.54748399
20050179700.0 -0.8312066483 -0.5349820401
20100179400.0 -0.8394731391 -0.5209551418
20150179100.0 -0.8483561826 -0.5101865847
20200178800.0 -0.8565691419 -0.4983084288
20250178500.0 -0.8660659858 -0.4852839201
20300178200.0 -0.8745976471 -0.4715473976
20350177900.0 -0.8848287025 -0.4575589446
20400177600.0 -0.8941179306 -0.4429260668
20450177300.0 -0.9021779568 -0.4288647023
20500177000.0 -0.9103830995 -0.4149574864
20550176700.0 -0.9178783515 -0.4013001403
20600176400.0 -0.9249530387 -0.3887931187
20650176100.0 -0.9312513862 -0.3768716726
20700175800.0 -0.937738792 -0.3644156277
20750175500.0 -0.9445646466 -0.352811953
20800175200.0 -0.9481619637 -0.3428640783
20850174900.0 -0.9534220333 -0.3310498358
20900174600.0 -0.957768293 -0.3203471116
20950174300.0 -0.9614574897 -0.3097593342
21000174000.0 -0.9636903191 -0.2981049652
21050173700.0 -0.9655299206 -0.2884043586
21100173400.0 -0.9693998228 -0.2777829323
21150173100.0 -0.9733813479 -0.2659049794
21200172800.0 -0.9771840316 -0.2527658653
21250172500.0 -0.9813415163 -0.2390558441
21300172200.0 -0.9845284669 -0.2247788875
21350171900.0 -0.9861984835 -0.2104433164
21400171600.0 -0.9880967708 -0.1968660393
21450171300.0 -0.9893476765 -0.1824275881
21500171000.0 -0.9889461648 -0.1666267801
21550170700.0 -0.9906577818 -0.152720635
21600170400.0 -0.9908530103 -0.1365359414
21650170100.0 -0.9909865997 -0.1203467722
21700169800.0 -0.9908233973 -0.1054678544
21750169500.0 -0.9904347815 -0.0903424964
21800169200.0 -0.9911334317 -0.0737044496
21850168900.0 -0.9903533695 -0.0564886815
21900168600.0 -0.9892210379 -0.039835147
21950168300.0 -0.9891356585 -0.02442726
22000168000.0 -0.9892023382 -0.0094951135
22050167700.0 -0.9891444754 0.0050257427
22100167400.0 -0.9899573155 0.0209966838
22150167100.0 -0.990735757 0.0372167371
22200166800.0 -0.9911323283 0.0533942931
22250166500.0 -0.9905669054 0.0706178058
22300166200.0 -0.9896664175 0.0866321634
22350165900.0 -0.9891352109 0.1028231169
22400165600.0 -0.9866466966 0.1191440045
22450165300.0 -0.9852656347 0.1337116136
22500165000.0 -0.9839882752 0.1485191808
22550164700.0 -0.9821525701 0.1640501843
22600164400.0 -0.9800695971 0.1804826933
22650164100.0 -0.9779104782 0.1960129801
22700163800.0 -0.9749288447 0.2121814147
22750163500.0 -0.9722199383 0.227106836
22800163200.0 -0.9687965861 0.2395479468
22850162900.0 -0.9660451128 0.2532512368
22900162600.0 -0.964408073 0.2672765486
22950162300.0 -0.9627906998 0.2806832109
23000162000.0 -0.9613167349 0.293573755
23050161700.0 -0.9583055836 0.3064570311
23100161400.0 -0.9556600822 0.3205914065
23150161100.0 -0.952209069 0.333916691
23200160800.0 -0.9493484759 0.3459051289
23250160500.0 -0.9464627436 0.3577094757
23300160200.0 -0.9440149292 0.3710959458
23350159900.0 -0.9404781257 0.3846808032
23400159600.0 -0.9351421212 0.3981225505
23450159300.0 -0.930038782 0.4122463573
23500159000.0 -0.9252217139 0.4255585361
23550158700.0 -0.919931654 0.4395144744
23600158400.0 -0.9142024451 0.4536668694
23650158100.0 -0.9070026354 0.4682180905
23700157800.0 -0.8986156904 0.4821678059
23750157500.0 -0.8894437819 0.4962776776
23800157200.0 -0.8798524097 0.5097426686
23850156900.0 -0.8701077935 0.5228082421
23900156600.0 -0.8603851537 0.5354509494
23950156300.0 -0.8505725428 0.5483233116
24000156000.0 -0.8406821068 0.5604491842
24050155700.0 -0.8310910145 0.5725987844
24100155400.0 -0.8196819881 0.5845939394
24150155100.0 -0.8095799676 0.5968578902
24200154800.0 -0.7989175198 0.6086168125
24250154500.0 -0.7869677325 0.6215295428
24300154200.0 -0.7756089812 0.633268739
24350153900.0 -0.7638765564 0.6439955004
24400153600.0 -0.7511331308 0.654980633
24450153300.0 -0.7393147816 0.6646810564
24500153000.0 -0.7273375105 0.6750461344
24550152700.0 -0.7164273846 0.6851582333
24600152400.0 -0.7040718509 0.6944838969
24650152100.0 -0.6919661897 0.7028028286
