!Created with skrf (http://scikit-rf.org).
# Hz S RI R 50.0 
!freq ReS11 ImS11
300000.0 -0.9769285019 -0.1170399879
50299700.0 -0.9999079241 0.0155068665
100299400.0 -0.9980021488 0.028338767
150299100.0 -1.002829228 0.0452332503
200298800.0 -0.9996741736 0.0585084298
250298500.0 -0.997439255 0.0719696845
300298200.0 -0.9859771853 0.0880146582
350297900.0 -0.9939926842 0.0987224977
400297600.0 -0.9932375151 0.1154480407
450297300.0 -0.9910560981 0.1290253189
500297000.0 -0.9895352945 0.1438200681
550296700.0 -0.9843011564 0.156199565
600296400.0 -1.017352387 0.1896389684
650296100.0 -0.982165451 0.1864688525
700295800.0 -0.9792112233 0.2006082297
750295500.0 -0.9763029997 0.2143785871
800295200.0 -0.9727591809 0.2285415662
850294900.0 -0.9696495616 0.2425859168
900294600.0 -0.9658089493 0.2560602599
950294300.0 -0.9622161491 0.269829525
1000294000.0 -0.9583111033 0.2837635428
1050293700.0 -0.9536879107 0.2975753297
1100293400.0 -0.9492363011 0.3122614557
1150293100.0 -0.9455613967 0.3238852489
1200292800.0 -0.940094119 0.338326975
1250292500.0 -0.9347102544 0.3518067747
1300292200.0 -0.9290367214 0.3649279641
1350291900.0 -0.9233509245 0.3790682465
1400291600.0 -0.9179738129 0.3920910519
1450291300.0 -0.9124713286 0.4044923063
1500291000.0 -0.9061598136 0.4178379309
1550290700.0 -0.8997885831 0.431293985
1600290400.0 -0.893286238 0.4442333766
1650290100.0 -0.8867211243 0.4563138295
1700289800.0 -0.8799640972 0.4697874774
1750289500.0 -0.8728868506 0.4820041187
1800289200.0 -0.8654246579 0.4949816309
1850288900.0 -0.8585184205 0.5062067785
1900288600.0 -0.8509253824 0.5193426478
1950288300.0 -0.8427127794 0.5317159506
2000288000.0 -0.8354284217 0.5430545545
2050287700.0 -0.8272416824 0.5556190148
2100287400.0 -0.8191589126 0.5671268734
2150287100.0 -0.8106598538 0.5791806921
2200286800.0 -0.8028663745 0.5896049183
2250286500.0 -0.7941459914 0.6014764878
2300286200.0 -0.785151608 0.6132062121
2350285900.0 -0.7761949684 0.6241775359
2400285600.0 -0.7674484965 0.6352300504
2450285300.0 -0.7589241405 0.6455845019
2500285000.0 -0.749086992 0.6568986638
2550284700.0 -0.7403125263 0.6669551275
2600284400.0 -0.7306671108 0.6772867223
2650284100.0 -0.7218877299 0.6879475646
2700283800.0 -0.7109583335 0.6982712176
2750283500.0 -0.7009866112 0.7088844082
2800283200.0 -0.6911981591 0.7186744354
2850282900.0 -0.680786938 0.7283210007
2900282600.0 -0.6706945377 0.738003825
2950282300.0 -0.6603502813 0.7475232319
3000282000.0 -0.6497232868 0.7567832358
3050281700.0 -0.6385629025 0.7662035284
3100281400.0 -0.6265178702 0.7754883937
3150281100.0 -0.6147291005 0.7847502965
3200280800.0 -0.6031334197 0.7934722258
3250280500.0 -0.5924834065 0.800904498
3300280200.0 -0.5811510562 0.8088479641
3350279900.0 -0.5696201527 0.8165634396
3400279600.0 -0.5572039838 0.8241987106
3450279300.0 -0.5461738181 0.8313568112
3500279000.0 -0.5343515435 0.8383591622
3550278700.0 -0.5218816529 0.8458214843
3600278400.0 -0.5096612263 0.8528930241
3650278100.0 -0.4961850399 0.8603769718
3700277800.0 -0.4842785259 0.8669495073
3750277500.0 -0.4719702385 0.8734231678
3800277200.0 -0.4595348917 0.8800908973
3850276900.0 -0.4476951283 0.8858603805
3900276600.0 -0.4366171107 0.8914954536
3950276300.0 -0.4241951575 0.8975493514
4000276000.0 -0.4123910973 0.9034522997
4050275700.0 -0.3993582181 0.9096683782
4100275400.0 -0.3884178033 0.9151429229
4150275100.0 -0.3755199806 0.9207412327
4200274800.0 -0.3625888344 0.9262584132
4250274500.0 -0.3504263035 0.9313539142
4300274200.0 -0.3373482185 0.936502254
4350273900.0 -0.3232944377 0.9420863495
4400273600.0 -0.3087851891 0.9474286211
4450273300.0 -0.2932686697 0.9523193408
4500273000.0 -0.2796338241 0.9566915124
4550272700.0 -0.2655278304 0.9610259903
4600272400.0 -0.2501861644 0.9650824888
4650272100.0 -0.23847058 0.9681590944
4700271800.0 -0.2252006136 0.9716402341
4750271500.0 -0.2134138727 0.974557118
4800271200.0 -0.2010166214 0.9772857054
4850270900.0 -0.1869871929 0.9800455867
4900270600.0 -0.1730312411 0.9824145955
4950270300.0 -0.1589006869 0.9847953974
5000270000.0 -0.1446046468 0.9874273802
5050269700.0 -0.1308615646 0.9886632242
5100269400.0 -0.1175572116 0.9901123058
5150269100.0 -0.104220006 0.9920484335
5200268800.0 -0.090717185 0.9931340456
5250268500.0 -0.0775698109 0.9939314867
5300268200.0 -0.0647454585 0.9947715216
5350267900.0 -0.0523495087 0.9951294657
5400267600.0 -0.0361630735 0.9962606944
5450267300.0 -0.0229912271 0.9965480923
5500267000.0 -0.0077384295 0.9971172241
5550266700.0 0.0071127968 0.9973957106
5600266400.0 0.0225550517 0.9974907214
5650266100.0 0.039290203 0.9971643346
5700265800.0 0.0537976784 0.9962814005
5750265500.0 0.0686383528 0.995304901
5800265200.0 0.0826781553 0.9944875378
5850264900.0 0.0959495289 0.9933452466
5900264600.0 0.1125934417 0.9914024151
5950264300.0 0.1242686997 0.9897652264
6000264000.0 0.1387237517 0.9884462796
6050263700.0 0.151193615 0.9868688948
6100263400.0 0.1634517019 0.9851446216
6150263100.0 0.1777847199 0.9825257559
6200262800.0 0.1884029603 0.9809382508
6250262500.0 0.2010812096 0.978608323
6300262200.0 0.2138057306 0.9755924809
6350261900.0 0.2269811587 0.9727297792
6400261600.0 0.2404372285 0.9692704806
6450261300.0 0.2521177202 0.9668829725
6500261000.0 0.2646372932 0.9632442823
6550260700.0 0.2779354361 0.9595128107
6600260400.0 0.2913466343 0.9553333933
6650260100.0 0.3051676565 0.9506946351
6700259800.0 0.3170869286 0.9464524779
6750259500.0 0.330866317 0.941542636
6800259200.0 0.3441536951 0.9366298767
6850258900.0 0.3560275448 0.9313247374
6900258600.0 0.3686034349 0.9266454567
6950258300.0 0.3807517948 0.9213779302
7000258000.0 0.3928814094 0.9158013452
7050257700.0 0.4050574254 0.9097693595
7100257400.0 0.4178048868 0.9033861372
7150257100.0 0.428365117 0.8981908964
7200256800.0 0.4409739786 0.8919059074
7250256500.0 0.4530019126 0.8855853831
7300256200.0 0.4659821863 0.8787323229
7350255900.0 0.4786096697 0.8718762025
7400255600.0 0.4918921666 0.8645944402
7450255300.0 0.5070582419 0.8556833658
7500255000.0 0.5189400846 0.848557679
7550254700.0 0.5325751991 0.8396915983
7600254400.0 0.545532856 0.8317116923
7650254100.0 0.556476568 0.8237277224
7700253800.0 0.5686828519 0.8159814384
7750253500.0 0.5798758672 0.8080503285
7800253200.0 0.5906017395 0.8003362887
7850252900.0 0.6001841143 0.7932454205
7900252600.0 0.6118514459 0.7846573596
7950252300.0 0.6205763345 0.7779994651
8000252000.0 0.6309260079 0.7703158185
8050251700.0 0.6413627346 0.7619943911
8100251400.0 0.6512792004 0.7540256731
8150251100.0 0.6614931297 0.7453980387
8200250800.0 0.6707694139 0.7375824399
8250250500.0 0.6799903212 0.7295226937
8300250200.0 0.6893088666 0.7208744825
8350249900.0 0.6981539447 0.7122644658
8400249600.0 0.7064896004 0.704169963
8450249300.0 0.7151562071 0.6951080527
8500249000.0 0.724196834 0.6860969019
8550248700.0 0.7322937404 0.6772282593
8600248400.0 0.7407696922 0.6675086588
8650248100.0 0.7487377803 0.6582213681
8700247800.0 0.758261887 0.6468665789
8750247500.0 0.7662502091 0.6369027176
8800247200.0 0.7747483785 0.6263002629
8850246900.0 0.783368647 0.6150239473
8900246600.0 0.7917818097 0.6035685593
8950246300.0 0.8011943991 0.5904222086
9000246000.0 0.8106123728 0.5779662905
9050245700.0 0.8196753595 0.5649926978
9100245400.0 0.8282026554 0.552683878
9150245100.0 0.8373884356 0.5390765461
9200244800.0 0.8475501474 0.5235959909
9250244500.0 0.856772194 0.5082975659
9300244200.0 0.8651780238 0.4937322236
9350243900.0 0.8729291277 0.4798334516
9400243600.0 0.8796755144 0.4676995225
9450243300.0 0.8854786949 0.4560460839
9500243000.0 0.8916588973 0.4439776758
9550242700.0 0.8956487319 0.4362040298
9600242400.0 0.8995395639 0.4288143282
9650242100.0 0.9030688945 0.4223479248
9700241800.0 0.9078783227 0.413996342
9750241500.0 0.9117256013 0.4067307824
9800241200.0 0.9164658818 0.3972118238
9850240900.0 0.9219563028 0.385852563
9900240600.0 0.9273755949 0.3744991435
9950240300.0 0.9342141054 0.3582605579
10000240000.0 0.9392885314 0.346627175
10050239700.0 0.9445674238 0.3311385353
10100239400.0 0.9495125838 0.3159225809
10150239100.0 0.9539238824 0.3008005116
10200238800.0 0.9580948507 0.28601521
10250238500.0 0.9615491381 0.2724236036
10300238200.0 0.9646983403 0.258370565
10350237900.0 0.9672969219 0.2455836776
10400237600.0 0.9698680643 0.2321608294
10450237300.0 0.9723043712 0.2186540549
10500237000.0 0.9748833699 0.2063518978
10550236700.0 0.9773159394 0.1918740273
10600236400.0 0.9797599339 0.1781900534
10650236100.0 0.9809456794 0.1641733302
10700235800.0 0.983744784 0.1517454233
10750235500.0 0.9857534448 0.1387042014
10800235200.0 0.9879544986 0.124455362
10850234900.0 0.9896251718 0.1095657712
10900234600.0 0.9916622155 0.0949015632
10950234300.0 0.9934204667 0.0816456643
11000234000.0 0.9951611773 0.0667496961
11050233700.0 0.9970801097 0.0503371332
11100233400.0 0.9986041833 0.0328517404
11150233100.0 0.9992496502 0.0166271146
11200232800.0 1.000024479 0.0012154485
11250232500.0 1.001452223 -0.0153487775
11300232200.0 1.001963176 -0.0331917143
11350231900.0 1.002196247 -0.0492619847
11400231600.0 1.001881907 -0.0647180539
11450231300.0 1.001585945 -0.0806298474
11500231000.0 1.000291322 -0.0958785914
11550230700.0 0.9985143751 -0.1092911094
11600230400.0 0.9975278446 -0.1218276401
11650230100.0 0.9951666997 -0.1334379569
11700229800.0 0.992885399 -0.1480377717
11750229500.0 0.9906621264 -0.1625091002
11800229200.0 0.9879128146 -0.1762556833
11850228900.0 0.9844914009 -0.1887238844
11900228600.0 0.9809975948 -0.19853644
11950228300.0 0.977907486 -0.2085094812
12000228000.0 0.9752387548 -0.2179156711
12050227700.0 0.9717958233 -0.229924581
12100227400.0 0.9682461284 -0.24183468
12150227100.0 0.9633109818 -0.2580975781
12200226800.0 0.9592776114 -0.2693551335
12250226500.0 0.9559684001 -0.2819358275
12300226200.0 0.9513878349 -0.2936178951
12350225900.0 0.9467525473 -0.3080948091
12400225600.0 0.9425180582 -0.3209025528
12450225300.0 0.9379714173 -0.3339341524
12500225000.0 0.9317082814 -0.3486112076
12550224700.0 0.9268762306 -0.3623540494
12600224400.0 0.9218680591 -0.3750857252
12650224100.0 0.9160782806 -0.3897397327
12700223800.0 0.9108396872 -0.4025092206
12750223500.0 0.905299795 -0.4152358803
12800223200.0 0.9000663935 -0.4282723242
12850222900.0 0.8945092998 -0.4402808045
12900222600.0 0.8887818916 -0.4524330911
12950222300.0 0.8822607959 -0.4651546233
13000222000.0 0.8768890647 -0.4769025759
13050221700.0 0.8697812409 -0.4901446091
13100221400.0 0.8631769667 -0.5013187901
13150221100.0 0.8568500509 -0.5131857789
13200220800.0 0.8494803854 -0.5251733913
13250220500.0 0.8422505109 -0.5371073834
13300220200.0 0.8347478484 -0.5478270675
13350219900.0 0.8268741005 -0.5597182945
13400219600.0 0.8186071266 -0.5717863638
13450219300.0 0.8093209132 -0.5854690093
13500219000.0 0.7987135939 -0.5992984237
13550218700.0 0.7888628225 -0.6121480455
13600218400.0 0.7786154242 -0.6243679359
13650218100.0 0.769745965 -0.6355036893
13700217800.0 0.7585067284 -0.6475664595
13750217500.0 0.7474731973 -0.6590596672
13800217200.0 0.736438094 -0.6706762535
13850216900.0 0.7256159715 -0.6820950991
13900216600.0 0.7160745792 -0.6916570401
13950216300.0 0.7049737972 -0.7015421222
14000216000.0 0.6949226587 -0.7107061565
14050215700.0 0.6856006385 -0.7190682704
14100215400.0 0.6758423345 -0.7283421821
14150215100.0 0.6665381056 -0.7366976406
14200214800.0 0.6572151092 -0.7450562333
14250214500.0 0.64685507 -0.7546008782
14300214200.0 0.6364999022 -0.7639293396
14350213900.0 0.6255557407 -0.7732723163
14400213600.0 0.6138675564 -0.7833910348
14450213300.0 0.6003698456 -0.7934230266
14500213000.0 0.5879085362 -0.8037127864
14550212700.0 0.5745631865 -0.8128277918
14600212400.0 0.5621919625 -0.8212389223
14650212100.0 0.5496787656 -0.8303443974
14700211800.0 0.535229558 -0.8399272341
14750211500.0 0.5234635199 -0.8478656204
14800211200.0 0.5109041748 -0.8557811193
14850210900.0 0.4989077295 -0.8635025434
14900210600.0 0.4858275092 -0.8714082512
14950210300.0 0.47240293 -0.8791150209
15000210000.0 0.4596260739 -0.8859734606
15050209700.0 0.4472317173 -0.891886627
15100209400.0 0.4348661365 -0.8973570967
15150209100.0 0.422798037 -0.9033917059
15200208800.0 0.4092202368 -0.9083328258
15250208500.0 0.3981691023 -0.9132504284
15300208200.0 0.3862394102 -0.9174569193
15350207900.0 0.3734044878 -0.9218211762
15400207600.0 0.3582644999 -0.9280489878
15450207300.0 0.3436214532 -0.9330050068
15500207000.0 0.3294324342 -0.9378182282
15550206700.0 0.3142637356 -0.9424676693
15600206400.0 0.2986788331 -0.9469903539
15650206100.0 0.2822369751 -0.9514116296
15700205800.0 0.2683747756 -0.9548773544
15750205500.0 0.2541199637 -0.9585749603
15800205200.0 0.2396696213 -0.9622457786
15850204900.0 0.2254475489 -0.9655867106
15900204600.0 0.2100925212 -0.9693326182
15950204300.0 0.1959703884 -0.9723063915
16000204000.0 0.1818802571 -0.9750501889
16050203700.0 0.1668624929 -0.9778502805
16100203400.0 0.1527110129 -0.9802297316
16150203100.0 0.1383571496 -0.9822109972
16200202800.0 0.1237664819 -0.9844044014
16250202500.0 0.1093055393 -0.9862102923
16300202200.0 0.0940704893 -0.9878666311
16350201900.0 0.0790208724 -0.9890894608
16400201600.0 0.0642370398 -0.9903614217
16450201300.0 0.0487986458 -0.9912764517
16500201000.0 0.032413542 -0.9920433088
16550200700.0 0.0167439748 -0.9926406613
16600200400.0 0.0011173808 -0.9927825842
16650200100.0 -0.0152784813 -0.9925192867
16700199800.0 -0.031699342 -0.9922521585
16750199500.0 -0.0501215247 -0.9919908761
16800199200.0 -0.0657827449 -0.9911813301
16850198900.0 -0.0811321337 -0.9895379833
16900198600.0 -0.0947156209 -0.9891704529
16950198300.0 -0.1085873706 -0.9875350952
17000198000.0 -0.1213337659 -0.9863867631
17050197700.0 -0.1347117185 -0.9839882932
17100197400.0 -0.1471845214 -0.9821180615
17150197100.0 -0.159644012 -0.9800444796
17200196800.0 -0.1722146417 -0.9778621927
17250196500.0 -0.1853710447 -0.9758678704
17300196200.0 -0.197452729 -0.973359479
17350195900.0 -0.2093799923 -0.9711492007
17400195600.0 -0.2216420792 -0.9685619208
17450195300.0 -0.2347772945 -0.9658401952
17500195000.0 -0.2480644297 -0.9623447813
17550194700.0 -0.2619917817 -0.9588267262
17600194400.0 -0.2759059469 -0.9548925782
17650194100.0 -0.289799173 -0.9514692928
17700193800.0 -0.3024260118 -0.9467656431
17750193500.0 -0.3171152824 -0.9417769196
17800193200.0 -0.3315727865 -0.9364227795
17850192900.0 -0.3461765032 -0.9312342597
17900192600.0 -0.3619768559 -0.9250602199
17950192300.0 -0.3770287156 -0.9182878597
18000192000.0 -0.3919622305 -0.9111822797
18050191700.0 -0.4059406196 -0.9029003982
18100191400.0 -0.4200654401 -0.8954045157
18150191100.0 -0.4349062498 -0.8874215535
18200190800.0 -0.4519859074 -0.8782454562
18250190500.0 -0.4688973163 -0.8689557397
18300190200.0 -0.484198564 -0.8600614451
18350189900.0 -0.4991088643 -0.851649438
18400189600.0 -0.5139897701 -0.8431973367
18450189300.0 -0.5271169107 -0.8352468243
18500189000.0 -0.5399905655 -0.8270190207
18550188700.0 -0.5529095082 -0.8200145614
18600188400.0 -0.5644142166 -0.8127560634
18650188100.0 -0.5760045658 -0.8064024154
18700187800.0 -0.5865395134 -0.8001698172
18750187500.0 -0.5973388366 -0.7935064934
18800187200.0 -0.6077244262 -0.7866723891
18850186900.0 -0.617956217 -0.7795663559
18900186600.0 -0.6284719499 -0.7721921478
18950186300.0 -0.6381098225 -0.7646200037
19000186000.0 -0.645163243 -0.7584975209
19050185700.0 -0.6547659493 -0.7510552995
19100185400.0 -0.6646172662 -0.743046919
19150185100.0 -0.67479475 -0.7338025107
19200184800.0 -0.6839880181 -0.7259011828
19250184500.0 -0.6947843126 -0.7168234375
19300184200.0 -0.705951991 -0.7076439454
19350183900.0 -0.7169460787 -0.6979711633
19400183600.0 -0.7266084397 -0.6881085952
19450183300.0 -0.7354710721 -0.6779490146
19500183000.0 -0.7436746193 -0.6677149825
19550182700.0 -0.7532793395 -0.6564613559
19600182400.0 -0.7636641906 -0.6449939008
19650182100.0 -0.7748266634 -0.6326777734
19700181800.0 -0.7853072655 -0.6195747353
19750181500.0 -0.7959261962 -0.6052571455
19800181200.0 -0.8062829836 -0.5904255991
19850180900.0 -0.8158881438 -0.5750109457
19900180600.0 -0.8236068916 -0.5602034062
19950180300.0 -0.8330956162 -0.5442360824
20000180000.0 -0.8255372023 -0.5460771816
20050179700.0 -0.8346997426 -0.5331000535
20100179400.0 -0.8426929231 -0.5191015812
20150179100.0 -0.8500810954 -0.5082449724
20200178800.0 -0.859826946 -0.494498857
20250178500.0 -0.8698753884 -0.4807056453
20300178200.0 -0.8785020948 -0.4665551705
20350177900.0 -0.8874809761 -0.4520186412
20400177600.0 -0.8965833679 -0.4373564244
20450177300.0 -0.9048404686 -0.4232716626
20500177000.0 -0.9127394699 -0.409284739
20550176700.0 -0.9206291004 -0.395659407
20600176400.0 -0.9279167437 -0.3825634981
20650176100.0 -0.9342778855 -0.3703698718
20700175800.0 -0.9413322389 -0.3582488978
20750175500.0 -0.9477541867 -0.3464851693
20800175200.0 -0.9526422811 -0.3356623552
20850174900.0 -0.956993759 -0.3250276467
20900174600.0 -0.9625809481 -0.3127834471
20950174300.0 -0.9659091742 -0.302092549
21000174000.0 -0.9689669407 -0.2904089875
21050173700.0 -0.9719651859 -0.2793458692
21100173400.0 -0.975843078 -0.2678152523
21150173100.0 -0.9797474655 -0.2552795531
21200172800.0 -0.9834284531 -0.2420357063
21250172500.0 -0.986600785 -0.2284534497
21300172200.0 -0.9895480628 -0.2140820766
21350171900.0 -0.9909781586 -0.1995935397
21400171600.0 -0.9924866786 -0.1860345273
21450171300.0 -0.9921720532 -0.171210696
21500171000.0 -0.9926672192 -0.1550503375
21550170700.0 -0.99223396 -0.1404854065
21600170400.0 -0.9915476359 -0.1247023375
21650170100.0 -0.9910358286 -0.109052289
21700169800.0 -0.9903668431 -0.0935513172
21750169500.0 -0.9880736594 -0.0781199158
21800169200.0 -0.9883973716 -0.0612213483
21850168900.0 -0.9875314658 -0.044446052
21900168600.0 -0.9859197257 -0.0282338501
21950168300.0 -0.9848059412 -0.0124811819
22000168000.0 -0.9832858984 0.0021688234
22050167700.0 -0.9834191722 0.0169602529
22100167400.0 -0.9837334005 0.0321893377
22150167100.0 -0.9842261098 0.0476355918
22200166800.0 -0.9852031883 0.0644769686
22250166500.0 -0.9843085548 0.0809047329
22300166200.0 -0.9843028996 0.0982453308
22350165900.0 -0.9826333402 0.1143166862
22400165600.0 -0.980249551 0.1297431581
22450165300.0 -0.9795220804 0.1443020247
22500165000.0 -0.9763594996 0.1584931445
22550164700.0 -0.9755775814 0.1746724448
22600164400.0 -0.9735525108 0.1890940194
22650164100.0 -0.9710669614 0.2048220491
22700163800.0 -0.9689979111 0.2208051283
22750163500.0 -0.9669501682 0.2354017941
22800163200.0 -0.9640554817 0.2485297551
22850162900.0 -0.9615995844 0.2617454871
22900162600.0 -0.9598916497 0.2753180938
22950162300.0 -0.9585903822 0.2883645686
23000162000.0 -0.9574475997 0.300104552
23050161700.0 -0.9555759978 0.3124534866
23100161400.0 -0.9532532862 0.3251070048
23150161100.0 -0.9504561015 0.3385360808
23200160800.0 -0.9478244708 0.3500472884
23250160500.0 -0.9447314408 0.362142802
23300160200.0 -0.9425563028 0.3743370398
23350159900.0 -0.938602316 0.3875117775
23400159600.0 -0.9345167674 0.4006943203
23450159300.0 -0.9287659129 0.4137129522
23500159000.0 -0.9243544049 0.4267843428
23550158700.0 -0.9195543646 0.4400860283
23600158400.0 -0.9142808932 0.4536767331
23650158100.0 -0.9084122616 0.4674554715
23700157800.0 -0.900509329 0.4813630742
23750157500.0 -0.8919832599 0.495591036
23800157200.0 -0.8834384923 0.5085619234
23850156900.0 -0.8745421983 0.5214312794
23900156600.0 -0.8648549274 0.5339310118
23950156300.0 -0.8555857664 0.5464798646
24000156000.0 -0.8465015296 0.5578995797
24050155700.0 -0.8366926771 0.5701609405
24100155400.0 -0.8270516988 0.5820426681
24150155100.0 -0.8161729681 0.594821559
24200154800.0 -0.8049736618 0.6053459232
24250154500.0 -0.7937744208 0.6173665262
24300154200.0 -0.7818497681 0.6286153335
24350153900.0 -0.7704046182 0.6390082658
24400153600.0 -0.7580400491 0.6495904888
24450153300.0 -0.7464141203 0.6594220056
24500153000.0 -0.7349956088 0.6690180245
24550152700.0 -0.7232348424 0.6791664788
24600152400.0 -0.7119492596 0.6871348567
24650152100.0 -0.7005019305 0.6953724332
