!Created with skrf (http://scikit-rf.org).
# Hz S RI R 50.0 
!freq ReS11 ImS11
300000.0 -0.973788203 -0.1222310379
50299700.0 -0.9998390268 0.0151037085
100299400.0 -0.9978154149 0.027928028
150299100.0 -1.002699779 0.0446869148
200298800.0 -0.9995994727 0.0580424127
250298500.0 -0.9974186012 0.0715114218
300298200.0 -0.9859256679 0.0874643993
350297900.0 -0.9939915687 0.0982395289
400297600.0 -0.9931634299 0.1149329052
450297300.0 -0.9908417279 0.1285364334
500297000.0 -0.9894795841 0.1433848366
550296700.0 -0.9844143084 0.1556760725
600296400.0 -1.017360141 0.1889439841
650296100.0 -0.9821479177 0.1857619173
700295800.0 -0.9792696887 0.1997154742
750295500.0 -0.9763081269 0.2137663674
800295200.0 -0.9730485893 0.2280947714
850294900.0 -0.9695683141 0.242050432
900294600.0 -0.9659232019 0.2553626945
950294300.0 -0.9622623338 0.2692059353
1000294000.0 -0.9583561572 0.2833527595
1050293700.0 -0.9537370524 0.2970609434
1100293400.0 -0.9493737088 0.3114430703
1150293100.0 -0.9456529188 0.3234539599
1200292800.0 -0.9401961721 0.3378491691
1250292500.0 -0.9348077321 0.351274651
1300292200.0 -0.9290275305 0.3643826372
1350291900.0 -0.9233310317 0.3785652022
1400291600.0 -0.9179347496 0.3914934464
1450291300.0 -0.9124639517 0.4039359229
1500291000.0 -0.9062601948 0.4172514121
1550290700.0 -0.8997538895 0.4306702054
1600290400.0 -0.8932754957 0.4435201552
1650290100.0 -0.8868515624 0.4556705777
1700289800.0 -0.8798288957 0.4692936426
1750289500.0 -0.872815538 0.4814038855
1800289200.0 -0.8654907025 0.4942081432
1850288900.0 -0.8589893236 0.5055798437
1900288600.0 -0.8511356119 0.5187596566
1950288300.0 -0.8428544407 0.5311267763
2000288000.0 -0.8355200592 0.5427581125
2050287700.0 -0.8271974792 0.5552380974
2100287400.0 -0.8195871006 0.5665266994
2150287100.0 -0.8109395744 0.5786271416
2200286800.0 -0.8029159215 0.5890699651
2250286500.0 -0.7942346896 0.6012433646
2300286200.0 -0.7851884754 0.6126410526
2350285900.0 -0.776984754 0.6232747985
2400285600.0 -0.7678787646 0.6343489494
2450285300.0 -0.7592199814 0.6450156236
2500285000.0 -0.7491815802 0.6564813315
2550284700.0 -0.7400920358 0.6666391653
2600284400.0 -0.7311152369 0.6770083713
2650284100.0 -0.7225864416 0.6871095066
2700283800.0 -0.7120338492 0.6975609583
2750283500.0 -0.7015882802 0.708248323
2800283200.0 -0.6915943779 0.7181044106
2850282900.0 -0.6811289014 0.7280777151
2900282600.0 -0.670753699 0.737824807
2950282300.0 -0.6603154828 0.7472153132
3000282000.0 -0.6497802738 0.7566572444
3050281700.0 -0.6381800752 0.7657710841
3100281400.0 -0.6269218561 0.775006051
3150281100.0 -0.6155789417 0.7838698839
3200280800.0 -0.6042173847 0.7922892024
3250280500.0 -0.5932023192 0.8003995794
3300280200.0 -0.5814484948 0.8083269158
3350279900.0 -0.5692069876 0.8163164794
3400279600.0 -0.556573215 0.8243959104
3450279300.0 -0.5456062204 0.8315883831
3500279000.0 -0.5338212278 0.8385728974
3550278700.0 -0.5216556338 0.8455284601
3600278400.0 -0.5097845177 0.8522123442
3650278100.0 -0.4969610094 0.8599561397
3700277800.0 -0.484742477 0.8664993764
3750277500.0 -0.472432833 0.8731267967
3800277200.0 -0.4600222212 0.8797153002
3850276900.0 -0.448096095 0.8856155682
3900276600.0 -0.4370178267 0.8914539729
3950276300.0 -0.4252008696 0.896889258
4000276000.0 -0.4129365954 0.9032688786
4050275700.0 -0.400423392 0.9090673193
4100275400.0 -0.3894379536 0.9146023636
4150275100.0 -0.3761154295 0.9203687831
4200274800.0 -0.3626708016 0.9262073386
4250274500.0 -0.3500306772 0.9313246266
4300274200.0 -0.3369772777 0.9365833931
4350273900.0 -0.3226246215 0.9421525911
4400273600.0 -0.307792425 0.9470959649
4450273300.0 -0.2928839753 0.9520680277
4500273000.0 -0.2798278291 0.9563326239
4550272700.0 -0.2661332001 0.9604467046
4600272400.0 -0.2511483429 0.9645011081
4650272100.0 -0.2397809953 0.9677776202
4700271800.0 -0.2268722081 0.9710406516
4750271500.0 -0.2151232479 0.9738687442
4800271200.0 -0.2029735293 0.9766732755
4850270900.0 -0.1892145813 0.9795645491
4900270600.0 -0.1753606441 0.9818415508
4950270300.0 -0.1607742658 0.9848325677
5000270000.0 -0.1462611764 0.9866562296
5050269700.0 -0.1328655236 0.9884022488
5100269400.0 -0.1185172545 0.9895225803
5150269100.0 -0.1047790084 0.9918673741
5200268800.0 -0.0914227286 0.9922885862
5250268500.0 -0.0783850226 0.9938182943
5300268200.0 -0.064449465 0.9949074085
5350267900.0 -0.0516917252 0.9950456575
5400267600.0 -0.035673241 0.9962270617
5450267300.0 -0.0224741723 0.9965057214
5500267000.0 -0.006824162 0.9969545281
5550266700.0 0.0080817195 0.9972119787
5600266400.0 0.0237868941 0.9970245235
5650266100.0 0.040650982 0.9968657674
5700265800.0 0.0547278509 0.9959758448
5750265500.0 0.0696303513 0.9954421799
5800265200.0 0.083188743 0.9944481615
5850264900.0 0.0961760586 0.9928930486
5900264600.0 0.1129453862 0.9911272622
5950264300.0 0.1241730536 0.9895092137
6000264000.0 0.1376651748 0.9877365729
6050263700.0 0.149523966 0.9866972617
6100263400.0 0.1618568797 0.9850577056
6150263100.0 0.1763663537 0.9823324085
6200262800.0 0.1861021828 0.9811800974
6250262500.0 0.1985444206 0.978756815
6300262200.0 0.2108574265 0.9762702515
6350261900.0 0.223712249 0.9734477892
6400261600.0 0.2377650115 0.9703080994
6450261300.0 0.2485635678 0.9676314766
6500261000.0 0.2619474527 0.9640477172
6550260700.0 0.2748769229 0.9601691186
6600260400.0 0.2886455363 0.9561631955
6650260100.0 0.3026650764 0.9516967659
6700259800.0 0.3148188621 0.9473112693
6750259500.0 0.3286745338 0.9426673405
6800259200.0 0.3424226074 0.9375704997
6850258900.0 0.3547641258 0.9322049021
6900258600.0 0.3671495291 0.9269180423
6950258300.0 0.3795452555 0.9216133734
7000258000.0 0.3912332716 0.9163825454
7050257700.0 0.4031149262 0.910561259
7100257400.0 0.4164511021 0.9040620945
7150257100.0 0.4273378388 0.8988011102
7200256800.0 0.4404470477 0.8920074191
7250256500.0 0.4530381647 0.8854388355
7300256200.0 0.465610051 0.8785283478
7350255900.0 0.4788334204 0.8718627803
7400255600.0 0.4927793173 0.8639769206
7450255300.0 0.5082132679 0.8548837415
7500255000.0 0.5209762085 0.8475300169
7550254700.0 0.53497812 0.8380867375
7600254400.0 0.5477481032 0.8300345895
7650254100.0 0.5592618077 0.822179633
7700253800.0 0.5711566168 0.8140528196
7750253500.0 0.5817753704 0.8065398284
7800253200.0 0.5924250758 0.7986307162
7850252900.0 0.6023112978 0.7913160244
7900252600.0 0.6136803855 0.7826314067
7950252300.0 0.6220462205 0.7761927289
8000252000.0 0.6318658603 0.768827407
8050251700.0 0.6425973486 0.7606223445
8100251400.0 0.6524919313 0.7528188555
8150251100.0 0.6619302187 0.7442356441
8200250800.0 0.6716273282 0.7360328362
8250250500.0 0.6804253863 0.7279555343
8300250200.0 0.6896291458 0.7199863068
8350249900.0 0.6990566164 0.7108421383
8400249600.0 0.7073114177 0.7030715615
8450249300.0 0.7159518943 0.6943489133
8500249000.0 0.7244520968 0.6854569881
8550248700.0 0.7326265313 0.676412458
8600248400.0 0.7410401571 0.6667324863
8650248100.0 0.7485999513 0.6574819713
8700247800.0 0.7577631693 0.6464948429
8750247500.0 0.7661009983 0.6363833745
8800247200.0 0.7739260461 0.6260825169
8850246900.0 0.7829114681 0.6147017118
8900246600.0 0.7911731755 0.6033111651
8950246300.0 0.8002488626 0.5906196642
9000246000.0 0.8090421339 0.5785188187
9050245700.0 0.8174543394 0.5665852785
9100245400.0 0.8258078254 0.5542136727
9150245100.0 0.8346223634 0.5413097996
9200244800.0 0.8440139223 0.5270844109
9250244500.0 0.8530995824 0.512211578
9300244200.0 0.861241802 0.4987890298
9350243900.0 0.8688509575 0.4855168648
9400243600.0 0.8755589695 0.4738323517
9450243300.0 0.8810700049 0.4633717111
9500243000.0 0.887359877 0.4516871931
9550242700.0 0.8911991499 0.4443665266
9600242400.0 0.8955558248 0.4367135566
9650242100.0 0.8997590989 0.4296687053
9700241800.0 0.9047501206 0.4209386463
9750241500.0 0.9088508993 0.4135029103
9800241200.0 0.9137987751 0.4038013106
9850240900.0 0.9198024522 0.3921935468
9900240600.0 0.9257506435 0.3803567401
9950240300.0 0.9329353614 0.3635888252
10000240000.0 0.9376342478 0.3516554697
10050239700.0 0.9437183708 0.3354559879
10100239400.0 0.949161712 0.3191478593
10150239100.0 0.9541476216 0.3034535457
10200238800.0 0.9580864268 0.2878029189
10250238500.0 0.9614795775 0.2743560978
10300238200.0 0.9645581162 0.2603452921
10350237900.0 0.9674909236 0.2472248471
10400237600.0 0.9702276817 0.2334160948
10450237300.0 0.9727434715 0.2198932253
10500237000.0 0.9748944084 0.2075486242
10550236700.0 0.9772337111 0.1935358675
10600236400.0 0.9796795623 0.1789732606
10650236100.0 0.9813809218 0.1647189466
10700235800.0 0.9838576912 0.1526566955
10750235500.0 0.9865095985 0.1381787682
10800235200.0 0.9882248359 0.1245595025
10850234900.0 0.9896680031 0.1097256202
10900234600.0 0.9921777277 0.0945410766
10950234300.0 0.9937632085 0.0811233375
11000234000.0 0.9956150673 0.0656464238
11050233700.0 0.9974752842 0.0492204946
11100233400.0 0.9989398745 0.0314748237
11150233100.0 0.9998862346 0.0143909625
11200232800.0 1.000847527 -0.0013238561
11250232500.0 1.001762333 -0.019667996
11300232200.0 1.002926601 -0.0381719518
11350231900.0 1.00207819 -0.0534291398
11400231600.0 1.001589851 -0.0699426519
11450231300.0 1.000975524 -0.0857851463
11500231000.0 0.9996289748 -0.1016937697
11550230700.0 0.9983157509 -0.1145377972
11600230400.0 0.9966528713 -0.1274050711
11650230100.0 0.9945187682 -0.1390650339
11700229800.0 0.9926060812 -0.1536004904
11750229500.0 0.9902935676 -0.168058907
11800229200.0 0.9873366087 -0.1815735959
11850228900.0 0.9837081169 -0.1932361397
11900228600.0 0.9798640327 -0.2028361028
11950228300.0 0.9763857399 -0.2129525229
12000228000.0 0.9740829062 -0.2215491741
12050227700.0 0.9699908123 -0.2336841173
12100227400.0 0.966618833 -0.2460517965
12150227100.0 0.9613904359 -0.2624539109
12200226800.0 0.9579599632 -0.2732819272
12250226500.0 0.9531514604 -0.287214728
12300226200.0 0.9498970024 -0.2982230755
12350225900.0 0.9444743074 -0.3125595475
12400225600.0 0.9403465986 -0.3242521116
12450225300.0 0.9357693368 -0.3365894377
12500225000.0 0.9304521569 -0.3520223225
12550224700.0 0.9249077107 -0.3656155282
12600224400.0 0.9200387302 -0.3783972276
12650224100.0 0.9141394347 -0.3924760034
12700223800.0 0.9088856648 -0.4052813987
12750223500.0 0.9031751604 -0.4185387333
12800223200.0 0.8983036495 -0.4310174269
12850222900.0 0.8930136601 -0.4431644754
12900222600.0 0.8870539295 -0.4551364004
12950222300.0 0.8807451383 -0.4682191276
13000222000.0 0.8748955061 -0.4794459122
13050221700.0 0.8683303167 -0.4919869182
13100221400.0 0.8617452892 -0.5045435552
13150221100.0 0.8543948129 -0.5167661873
13200220800.0 0.8477796695 -0.527918964
13250220500.0 0.8405369478 -0.5399930537
13300220200.0 0.8326856173 -0.5514024847
13350219900.0 0.8247023467 -0.5630835398
13400219600.0 0.8160599624 -0.5751104211
13450219300.0 0.8065816778 -0.5880837441
13500219000.0 0.7968045995 -0.6012729272
13550218700.0 0.787659142 -0.6132342743
13600218400.0 0.7772966706 -0.6255731523
13650218100.0 0.7682599546 -0.6363486282
13700217800.0 0.7579000188 -0.6476814055
13750217500.0 0.7471028269 -0.6594126065
13800217200.0 0.7372690356 -0.6694013347
13850216900.0 0.7262191068 -0.6812639316
13900216600.0 0.715506841 -0.6903190682
13950216300.0 0.7049945058 -0.6996261622
14000216000.0 0.6954068958 -0.7090229137
14050215700.0 0.6861089724 -0.7172500392
14100215400.0 0.6766994656 -0.7263128015
14150215100.0 0.667771322 -0.7350146899
14200214800.0 0.6581488613 -0.7437265112
14250214500.0 0.647698699 -0.753290276
14300214200.0 0.6373150298 -0.7627211899
14350213900.0 0.6263405221 -0.7725518082
14400213600.0 0.614401115 -0.7822761505
14450213300.0 0.6011641663 -0.7925593695
14500213000.0 0.5882670323 -0.8021381687
14550212700.0 0.5762952903 -0.8119545232
14600212400.0 0.5635926015 -0.8206642906
14650212100.0 0.5513365977 -0.8291163804
14700211800.0 0.5376048778 -0.8383488565
14750211500.0 0.5250653558 -0.8470223143
14800211200.0 0.5125950599 -0.8554314308
14850210900.0 0.4999066868 -0.8630556751
14900210600.0 0.4868685065 -0.8707536969
14950210300.0 0.4734278591 -0.8784432572
15000210000.0 0.4608887085 -0.8850877299
15050209700.0 0.4490922605 -0.8911424171
15100209400.0 0.4360099405 -0.8971696044
15150209100.0 0.4239876454 -0.9024102197
15200208800.0 0.4109606432 -0.9080490626
15250208500.0 0.4002239735 -0.9124962406
15300208200.0 0.3881031406 -0.9171206103
15350207900.0 0.3746273845 -0.9223934857
15400207600.0 0.3590139027 -0.9276386139
15450207300.0 0.3451356879 -0.9325717614
15500207000.0 0.3306994585 -0.9365198214
15550206700.0 0.3157488041 -0.9417931279
15600206400.0 0.3003716116 -0.9463039666
15650206100.0 0.2843420011 -0.9507260459
15700205800.0 0.2704978093 -0.9543504947
15750205500.0 0.2564568008 -0.9576794793
15800205200.0 0.2423886289 -0.9612231959
15850204900.0 0.2283162306 -0.964504958
15900204600.0 0.2132281701 -0.9683117996
15950204300.0 0.1991688801 -0.9714352227
16000204000.0 0.184581284 -0.9744501742
16050203700.0 0.1696321448 -0.977743431
16100203400.0 0.1547677942 -0.9794569751
16150203100.0 0.1396673218 -0.9819508973
16200202800.0 0.125353274 -0.9837768131
16250202500.0 0.1101748009 -0.9860432137
16300202200.0 0.0952065972 -0.9871083909
16350201900.0 0.0803687872 -0.9890136023
16400201600.0 0.0649632191 -0.9899498079
16450201300.0 0.0499021266 -0.9912625991
16500201000.0 0.0328914869 -0.9921435721
16550200700.0 0.0168437766 -0.9926178429
16600200400.0 0.0009181153 -0.99285786
16650200100.0 -0.0152132529 -0.9928896447
16700199800.0 -0.0315991058 -0.9920088582
16750199500.0 -0.0506065754 -0.9917434789
16800199200.0 -0.0669296686 -0.9900326501
16850198900.0 -0.0822427184 -0.9892615893
16900198600.0 -0.0963165542 -0.9884067986
16950198300.0 -0.1103596779 -0.9875310426
17000198000.0 -0.1224652515 -0.9856373108
17050197700.0 -0.1357318742 -0.984167056
17100197400.0 -0.1485365428 -0.981618865
17150197100.0 -0.1610261071 -0.9801304744
17200196800.0 -0.1741654346 -0.9775766361
17250196500.0 -0.1873414139 -0.9753680355
17300196200.0 -0.1993248953 -0.9729762011
17350195900.0 -0.2111321171 -0.9706854288
17400195600.0 -0.2230544966 -0.9680909675
17450195300.0 -0.2359018165 -0.9654810681
17500195000.0 -0.2491035692 -0.9621206101
17550194700.0 -0.2627479377 -0.9585462778
17600194400.0 -0.2768490851 -0.9550233148
17650194100.0 -0.2902731589 -0.9505815397
17700193800.0 -0.3031892105 -0.9464623649
17750193500.0 -0.3176658177 -0.9418175307
17800193200.0 -0.3319017037 -0.9365610486
17850192900.0 -0.3461298024 -0.931302197
17900192600.0 -0.3617778238 -0.9249063595
17950192300.0 -0.3770053154 -0.9180429217
18000192000.0 -0.3920047817 -0.9107428596
18050191700.0 -0.4057028569 -0.9027704327
18100191400.0 -0.4198899924 -0.8950881312
18150191100.0 -0.4346447966 -0.8870582511
18200190800.0 -0.4515652052 -0.8780646474
18250190500.0 -0.4684409394 -0.868447994
18300190200.0 -0.4840015834 -0.8599919383
18350189900.0 -0.499148417 -0.8513229217
18400189600.0 -0.513764256 -0.8427865362
18450189300.0 -0.5268844358 -0.8352026159
18500189000.0 -0.5407614422 -0.8268631504
18550188700.0 -0.5531736953 -0.8188382641
18600188400.0 -0.5650586385 -0.8122725469
18650188100.0 -0.5766789048 -0.8058218047
18700187800.0 -0.5877442964 -0.7989964401
18750187500.0 -0.5984937786 -0.7923804517
18800187200.0 -0.6092237074 -0.7855846197
18850186900.0 -0.6194531261 -0.778375677
18900186600.0 -0.6297366846 -0.7710861826
18950186300.0 -0.6400681998 -0.7633311589
19000186000.0 -0.6474950076 -0.7568971458
19050185700.0 -0.6567638605 -0.7496852101
19100185400.0 -0.666535153 -0.7417393867
19150185100.0 -0.6769745257 -0.732953643
19200184800.0 -0.6862374142 -0.7249233714
19250184500.0 -0.6966106423 -0.7157110791
19300184200.0 -0.7085744453 -0.7060333464
19350183900.0 -0.7189821476 -0.6967049755
19400183600.0 -0.728513713 -0.6868079831
19450183300.0 -0.7373036166 -0.6769316587
19500183000.0 -0.7457816897 -0.6668575219
19550182700.0 -0.7559041068 -0.6559151872
19600182400.0 -0.7651694483 -0.6439930424
19650182100.0 -0.7760085748 -0.6320551201
19700181800.0 -0.7866703029 -0.6184907279
19750181500.0 -0.7968974713 -0.6045724694
19800181200.0 -0.8070266462 -0.5893565709
19850180900.0 -0.8165551529 -0.5740788215
19900180600.0 -0.8241781401 -0.559548782
19950180300.0 -0.8334733407 -0.543274856
20000180000.0 -0.8237013064 -0.5463551949
20050179700.0 -0.8311336379 -0.5346314596
20100179400.0 -0.840164248 -0.5203660871
20150179100.0 -0.8475215247 -0.5101226503
20200178800.0 -0.8559523152 -0.4979526686
20250178500.0 -0.865042448 -0.4852642859
20300178200.0 -0.8755567968 -0.4718571482
20350177900.0 -0.8841178846 -0.4575047859
20400177600.0 -0.8935116281 -0.4434574325
20450177300.0 -0.9020852582 -0.4292747531
20500177000.0 -0.9100265521 -0.4152850669
20550176700.0 -0.917798163 -0.4015044793
20600176400.0 -0.9249423496 -0.3892502233
20650176100.0 -0.9312696509 -0.377147725
20700175800.0 -0.9382741315 -0.3650720293
20750175500.0 -0.9450909919 -0.3532913416
20800175200.0 -0.9487729451 -0.3427069012
20850174900.0 -0.953301975 -0.332138306
20900174600.0 -0.9573030373 -0.3204915529
20950174300.0 -0.9617163701 -0.3094957892
21000174000.0 -0.9638044184 -0.2987006669
21050173700.0 -0.9659663062 -0.2894128976
21100173400.0 -0.9689539043 -0.2783531471
21150173100.0 -0.9730745733 -0.2668264581
21200172800.0 -0.9768282291 -0.2533866169
21250172500.0 -0.9803384813 -0.239842636
21300172200.0 -0.9838798461 -0.2255938013
21350171900.0 -0.9856372998 -0.2121247933
21400171600.0 -0.9875890553 -0.1973731581
21450171300.0 -0.988804811 -0.1837706043
21500171000.0 -0.9890319622 -0.1684102239
21550170700.0 -0.9900454243 -0.1532253975
21600170400.0 -0.9907981163 -0.1370796937
21650170100.0 -0.9899477091 -0.1232529883
21700169800.0 -0.98951993 -0.1074074585
21750169500.0 -0.9893507981 -0.0908196276
21800169200.0 -0.9899803321 -0.0743007487
21850168900.0 -0.9900031203 -0.0574908439
21900168600.0 -0.9896063503 -0.0410040176
21950168300.0 -0.9888565273 -0.0253975483
22000168000.0 -0.9890196733 -0.0102835803
22050167700.0 -0.989740574 0.0043241102
22100167400.0 -0.9902633258 0.0201149037
22150167100.0 -0.9913756068 0.0358907857
22200166800.0 -0.9917297472 0.0528639955
22250166500.0 -0.9912987057 0.0696498374
22300166200.0 -0.9906683211 0.0868914083
22350165900.0 -0.989518151 0.1026326027
22400165600.0 -0.9884623116 0.118264083
22450165300.0 -0.9866177043 0.1336191209
22500165000.0 -0.9846783688 0.1474349232
22550164700.0 -0.9835130661 0.1633111773
22600164400.0 -0.9805342048 0.1796405451
22650164100.0 -0.9773750302 0.1953329106
22700163800.0 -0.9746190163 0.2110637433
22750163500.0 -0.9718220748 0.2261348503
22800163200.0 -0.9689030644 0.2391017671
22850162900.0 -0.9668313995 0.252765796
22900162600.0 -0.9647310728 0.2663786872
22950162300.0 -0.963174929 0.2804769903
23000162000.0 -0.9607811393 0.2932567169
23050161700.0 -0.9585887828 0.3069510266
23100161400.0 -0.9554123298 0.3199159793
23150161100.0 -0.9528557546 0.3327742323
23200160800.0 -0.9495077644 0.3459098681
23250160500.0 -0.9468346167 0.3581564468
23300160200.0 -0.9444937103 0.3705845809
23350159900.0 -0.9403618876 0.3842517619
23400159600.0 -0.9350261503 0.3978944721
23450159300.0 -0.9300322593 0.412296278
23500159000.0 -0.9250931062 0.4255198429
23550158700.0 -0.9201082384 0.4397795318
23600158400.0 -0.9143423452 0.4538229217
23650158100.0 -0.9068669847 0.4685534173
23700157800.0 -0.8984457242 0.4827287754
23750157500.0 -0.8886986484 0.4972346469
23800157200.0 -0.8791751517 0.5104976962
23850156900.0 -0.8695799721 0.523114887
23900156600.0 -0.859463885 0.5358816611
23950156300.0 -0.8493929718 0.5486594143
24000156000.0 -0.8406292293 0.5613966569
24050155700.0 -0.8302593887 0.5740912506
24100155400.0 -0.819558741 0.5860703235
24150155100.0 -0.8088296596 0.5977606301
24200154800.0 -0.797884478 0.6088287422
24250154500.0 -0.7862024437 0.6221018867
24300154200.0 -0.7750987239 0.6336908271
24350153900.0 -0.7630453246 0.6451652214
24400153600.0 -0.7504977385 0.655622939
24450153300.0 -0.7383594631 0.665927902
24500153000.0 -0.7268784373 0.6758723863
24550152700.0 -0.7151271527 0.6861437628
24600152400.0 -0.7028536773 0.6956118063
