!Created with skrf (http://scikit-rf.org).
# Hz S RI R 50.0 
!freq ReS11 ImS11
300000.0 -0.9814652444 -0.101517236
50299700.0 -1.000022005 0.0163343108
100299400.0 -0.9980060114 0.0291705571
150299100.0 -1.002893891 0.0459841989
200298800.0 -0.9997767123 0.0593350694
250298500.0 -0.9974900018 0.072811843
300298200.0 -0.9860563175 0.0886418861
350297900.0 -0.9940219516 0.0994981394
400297600.0 -0.9931657853 0.1161361476
450297300.0 -0.9911175526 0.1300115886
500297000.0 -0.9894286659 0.1447460353
550296700.0 -0.9842879838 0.1572044694
600296400.0 -1.017211208 0.1903577371
650296100.0 -0.9819125701 0.187182561
700295800.0 -0.9793695071 0.2014677992
750295500.0 -0.9761657763 0.2153953166
800295200.0 -0.972694164 0.2295993532
850294900.0 -0.9693815695 0.2433502121
900294600.0 -0.9655756756 0.2571342973
950294300.0 -0.9617111214 0.270767058
1000294000.0 -0.9577977006 0.2847798634
1050293700.0 -0.9532125254 0.2987627596
1100293400.0 -0.9490986059 0.3128850173
1150293100.0 -0.9449635128 0.3248621681
1200292800.0 -0.9398290291 0.3392226022
1250292500.0 -0.9343880565 0.3525849466
1300292200.0 -0.9286328141 0.3657034506
1350291900.0 -0.9230711266 0.3797920631
1400291600.0 -0.9176308244 0.3927415457
1450291300.0 -0.9120321129 0.4053672424
1500291000.0 -0.9058446823 0.4187490783
1550290700.0 -0.8994095915 0.4319450673
1600290400.0 -0.893120123 0.444996541
1650290100.0 -0.8864201004 0.4570569639
1700289800.0 -0.8795484819 0.470285193
1750289500.0 -0.872496152 0.4826506363
1800289200.0 -0.865191757 0.4954044027
1850288900.0 -0.858349926 0.5068975503
1900288600.0 -0.8506292074 0.5199173707
1950288300.0 -0.8422706019 0.5325674795
2000288000.0 -0.8351598204 0.5438997792
2050287700.0 -0.8269443624 0.5561893301
2100287400.0 -0.8187430109 0.5678735073
2150287100.0 -0.8101531453 0.5798457992
2200286800.0 -0.8023945813 0.5902550848
2250286500.0 -0.7934829581 0.6024222756
2300286200.0 -0.7845322804 0.6140144946
2350285900.0 -0.7757045705 0.6248971585
2400285600.0 -0.7667802873 0.6361658477
2450285300.0 -0.7581543727 0.6462677157
2500285000.0 -0.7483922325 0.6576341307
2550284700.0 -0.7393533613 0.6680849544
2600284400.0 -0.7298222189 0.6782619917
2650284100.0 -0.7208525283 0.6885771646
2700283800.0 -0.7102849938 0.6991608316
2750283500.0 -0.6998895106 0.7096986522
2800283200.0 -0.6902235655 0.7195630719
2850282900.0 -0.680332117 0.7293835195
2900282600.0 -0.6696403393 0.738915648
2950282300.0 -0.6595869927 0.7482799993
3000282000.0 -0.6488198335 0.7576737431
3050281700.0 -0.6377908295 0.7667760521
3100281400.0 -0.6258971802 0.7761612133
3150281100.0 -0.6139958877 0.785502928
3200280800.0 -0.6023959749 0.7938957041
3250280500.0 -0.5916243289 0.8016551678
3300280200.0 -0.5805161487 0.809525646
3350279900.0 -0.56908087 0.8171431397
3400279600.0 -0.5568899099 0.8247906762
3450279300.0 -0.5455795897 0.8317936181
3500279000.0 -0.533664652 0.8389032106
3550278700.0 -0.5211983677 0.8462182129
3600278400.0 -0.5089509658 0.8533585128
3650278100.0 -0.495858977 0.8610909331
3700277800.0 -0.4836861381 0.8675250152
3750277500.0 -0.4716182308 0.8740590711
3800277200.0 -0.4591034429 0.8803968398
3850276900.0 -0.4469009623 0.8864608665
3900276600.0 -0.4358783432 0.8922854796
3950276300.0 -0.4230719407 0.8980455769
4000276000.0 -0.4112375621 0.9041157445
4050275700.0 -0.3983909437 0.9103540305
4100275400.0 -0.3870407524 0.9155529784
4150275100.0 -0.3743799999 0.9211487695
4200274800.0 -0.3613658638 0.926687897
4250274500.0 -0.3488723093 0.9316965813
4300274200.0 -0.3360642547 0.9369733569
4350273900.0 -0.3220190739 0.9423293273
4400273600.0 -0.3072690588 0.9474702243
4450273300.0 -0.2918669073 0.9526288224
4500273000.0 -0.2782855955 0.9568725814
4550272700.0 -0.2641235356 0.961129603
4600272400.0 -0.2486200215 0.9652197504
4650272100.0 -0.2368876018 0.9686187572
4700271800.0 -0.223581676 0.971838541
4750271500.0 -0.2118003912 0.9747355432
4800271200.0 -0.1994490004 0.977471185
4850270900.0 -0.18542183 0.9802376131
4900270600.0 -0.1715271594 0.9825977249
4950270300.0 -0.1573948228 0.9852974709
5000270000.0 -0.1432967098 0.9872825247
5050269700.0 -0.1298552286 0.9889634811
5100269400.0 -0.1163167495 0.9906901769
5150269100.0 -0.1030985625 0.9922297608
5200268800.0 -0.0897970864 0.993391209
5250268500.0 -0.0768444044 0.9941749831
5300268200.0 -0.0634312197 0.9946440164
5350267900.0 -0.0516805672 0.9954229335
5400267600.0 -0.0352965843 0.9966357496
5450267300.0 -0.0222738848 0.9969593131
5500267000.0 -0.0072760005 0.9972468926
5550266700.0 0.007757392 0.9974070202
5600266400.0 0.0232380904 0.9972924257
5650266100.0 0.0396262328 0.996519398
5700265800.0 0.054001875 0.99575031
5750265500.0 0.0695419819 0.9953141485
5800265200.0 0.083614764 0.9944625835
5850264900.0 0.0967099919 0.9928554389
5900264600.0 0.1133328218 0.991436026
5950264300.0 0.1257889742 0.9900816773
6000264000.0 0.1395549334 0.9878099126
6050263700.0 0.1525964268 0.9866483886
6100263400.0 0.1648769436 0.9844866839
6150263100.0 0.1793137601 0.9821462476
6200262800.0 0.1899210541 0.980438577
6250262500.0 0.2026482896 0.9777956428
6300262200.0 0.2154873996 0.9750778106
6350261900.0 0.2285827809 0.9721030481
6400261600.0 0.2422403498 0.9686537109
6450261300.0 0.2536841218 0.9659706481
6500261000.0 0.2666315478 0.9626603115
6550260700.0 0.2799412273 0.9588411106
6600260400.0 0.2929667046 0.9545033593
6650260100.0 0.3064205848 0.9500273214
6700259800.0 0.318772829 0.9460626548
6750259500.0 0.3324561818 0.9411078179
6800259200.0 0.3455504992 0.9361601981
6850258900.0 0.3575529497 0.9312539499
6900258600.0 0.3693849639 0.9260538065
6950258300.0 0.3821214185 0.9207841514
7000258000.0 0.3939137372 0.9154575151
7050257700.0 0.406474633 0.9093598666
7100257400.0 0.4191378561 0.9031306598
7150257100.0 0.429351115 0.8979061406
7200256800.0 0.4420714578 0.8913407677
7250256500.0 0.4539372297 0.885202229
7300256200.0 0.4666206433 0.8781405842
7350255900.0 0.4792790332 0.8716359554
7400255600.0 0.4926473155 0.8642909249
7450255300.0 0.5075365965 0.8551675511
7500255000.0 0.5192641661 0.8482757175
7550254700.0 0.5330246286 0.8397712536
7600254400.0 0.5461893484 0.8315702505
7650254100.0 0.5569816971 0.8234436246
7700253800.0 0.5692410155 0.8154959822
7750253500.0 0.5804903165 0.8076799228
7800253200.0 0.5913071599 0.7998903194
7850252900.0 0.6009580397 0.792667823
7900252600.0 0.6126636783 0.7838392016
7950252300.0 0.6215413471 0.7773291019
8000252000.0 0.6317069158 0.7695171066
8050251700.0 0.6423722996 0.7610832147
8100251400.0 0.6524425695 0.7528683028
8150251100.0 0.6624846663 0.7442675847
8200250800.0 0.6717990071 0.736247544
8250250500.0 0.6806786245 0.7283031014
8300250200.0 0.6903478205 0.7196226483
8350249900.0 0.6993318782 0.7108090714
8400249600.0 0.70745506 0.7028528313
8450249300.0 0.7166776931 0.6936095893
8500249000.0 0.7253585823 0.684850756
8550248700.0 0.7334495717 0.6758197484
8600248400.0 0.7418556018 0.666419744
8650248100.0 0.7498411291 0.6570428841
8700247800.0 0.7590902036 0.6458570816
8750247500.0 0.7676540441 0.635741449
8800247200.0 0.775632426 0.6254540796
8850246900.0 0.7843225675 0.6140399166
8900246600.0 0.7927425915 0.6027455009
8950246300.0 0.8025002397 0.5896357888
9000246000.0 0.8113393125 0.5772687614
9050245700.0 0.8203538287 0.5644106615
9100245400.0 0.8290886624 0.5517827064
9150245100.0 0.8384245126 0.5383798136
9200244800.0 0.848131313 0.5229674961
9250244500.0 0.8574406704 0.5074932465
9300244200.0 0.8661361298 0.4928152823
9350243900.0 0.8735052839 0.4788598452
9400243600.0 0.8804304996 0.466373416
9450243300.0 0.8864606927 0.4544015779
9500243000.0 0.8925747614 0.4421578866
9550242700.0 0.8965309844 0.434029702
9600242400.0 0.9004139423 0.4266449861
9650242100.0 0.9039787547 0.4199795499
9700241800.0 0.9087460204 0.4116373958
9750241500.0 0.9125294233 0.4041658658
9800241200.0 0.9172043743 0.3947293365
9850240900.0 0.9229444481 0.3833749632
9900240600.0 0.9282412481 0.3717704467
9950240300.0 0.935110785 0.3554442878
10000240000.0 0.9396053508 0.3440517597
10050239700.0 0.9451457857 0.328713321
10100239400.0 0.950262296 0.3134171568
10150239100.0 0.9543091125 0.2989810775
10200238800.0 0.9586925705 0.2839614512
10250238500.0 0.9619125247 0.2704856411
10300238200.0 0.9650352216 0.2563830586
10350237900.0 0.9676993521 0.2433710638
10400237600.0 0.970225171 0.2304274644
10450237300.0 0.9728596882 0.2167699682
10500237000.0 0.9752948445 0.2045256598
10550236700.0 0.9776073655 0.1908464526
10600236400.0 0.9794253228 0.1771131478
10650236100.0 0.9813707791 0.162574112
10700235800.0 0.9836904668 0.1504187941
10750235500.0 0.986197444 0.137393701
10800235200.0 0.9877691483 0.1235816334
10850234900.0 0.9899241746 0.108915395
10900234600.0 0.9916853403 0.0942287915
10950234300.0 0.9933953722 0.0811055864
11000234000.0 0.9952522405 0.0659741255
11050233700.0 0.9970337884 0.0497883363
11100233400.0 0.9984457291 0.0326488839
11150233100.0 0.9990398936 0.0159611035
11200232800.0 1.000027017 0.0008466236
11250232500.0 1.001285791 -0.0158183165
11300232200.0 1.001666927 -0.0342559941
11350231900.0 1.001601024 -0.0490775882
11400231600.0 1.001446844 -0.0649593077
11450231300.0 1.00069109 -0.080189428
11500231000.0 0.9993223651 -0.0971078655
11550230700.0 0.9975623729 -0.110269915
11600230400.0 0.9970627932 -0.1230959944
11650230100.0 0.994738339 -0.1350943896
11700229800.0 0.9924059826 -0.1498028338
11750229500.0 0.9902830247 -0.1642807734
11800229200.0 0.987530185 -0.1779226169
11850228900.0 0.9839052926 -0.1903221175
11900228600.0 0.9803071754 -0.2003971405
11950228300.0 0.9769663159 -0.2109968944
12000228000.0 0.974435343 -0.2197880425
12050227700.0 0.9711498679 -0.2327557432
12100227400.0 0.9670913972 -0.2437811286
12150227100.0 0.9627338588 -0.2597791474
12200226800.0 0.9590631041 -0.2716101778
12250226500.0 0.9552284019 -0.2840430644
12300226200.0 0.950677433 -0.2966722473
12350225900.0 0.9455539794 -0.3094244111
12400225600.0 0.9415709551 -0.322375886
12450225300.0 0.9370822556 -0.3354282361
12500225000.0 0.9315278058 -0.3502347734
12550224700.0 0.926387065 -0.3632754854
12600224400.0 0.9218045566 -0.3759708662
12650224100.0 0.9159054644 -0.3903479655
12700223800.0 0.9108177856 -0.4029337954
12750223500.0 0.9053736935 -0.415947336
12800223200.0 0.899791925 -0.4287034907
12850222900.0 0.894459148 -0.4406678025
12900222600.0 0.8884057805 -0.4528090195
12950222300.0 0.8827276256 -0.466027019
13000222000.0 0.8764959832 -0.4771908912
13050221700.0 0.8696798699 -0.4899719096
13100221400.0 0.8633302561 -0.5019921357
13150221100.0 0.8557827 -0.5143602057
13200220800.0 0.8491462424 -0.5257467918
13250220500.0 0.8414235019 -0.5380997349
13300220200.0 0.8340677533 -0.5490321287
13350219900.0 0.8260167562 -0.5610312202
13400219600.0 0.8173004937 -0.5733084224
13450219300.0 0.8081353103 -0.5868073824
13500219000.0 0.7978265393 -0.6009936459
13550218700.0 0.7873146731 -0.6141929151
13600218400.0 0.7772980989 -0.6261034698
13650218100.0 0.7668334064 -0.6375314177
13700217800.0 0.7568197752 -0.6491660587
13750217500.0 0.746566234 -0.6610481929
13800217200.0 0.7355122135 -0.6721649482
13850216900.0 0.7237196959 -0.6840514701
13900216600.0 0.7145574228 -0.6922443968
13950216300.0 0.7031074944 -0.7032224507
14000216000.0 0.6934196167 -0.7128123169
14050215700.0 0.6839882068 -0.7205872419
14100215400.0 0.6734249025 -0.7297021179
14150215100.0 0.6648827828 -0.7380289299
14200214800.0 0.6554491481 -0.7466577789
14250214500.0 0.6455085242 -0.7558039789
14300214200.0 0.6350550371 -0.7650706492
14350213900.0 0.6241196725 -0.7746430716
14400213600.0 0.6125714751 -0.7842255588
14450213300.0 0.5995713012 -0.7940849237
14500213000.0 0.5865083993 -0.8040551012
14550212700.0 0.5737267429 -0.8135755368
14600212400.0 0.5618600552 -0.8220615472
14650212100.0 0.5486634486 -0.8311923592
14700211800.0 0.5339072409 -0.8409553361
14750211500.0 0.5228546454 -0.848706127
14800211200.0 0.5103275395 -0.8566534044
14850210900.0 0.4981311664 -0.8639569959
14900210600.0 0.4848981073 -0.8719099195
14950210300.0 0.4714511979 -0.8795637625
15000210000.0 0.4585253786 -0.8863466694
15050209700.0 0.4461343109 -0.8924564762
15100209400.0 0.4328011713 -0.8986822266
15150209100.0 0.4207716389 -0.9042374875
15200208800.0 0.4069690053 -0.9098954683
15250208500.0 0.3958601325 -0.913732218
15300208200.0 0.3829662412 -0.9188938856
15350207900.0 0.3701429496 -0.9230995238
15400207600.0 0.355672032 -0.9295896982
15450207300.0 0.3413786655 -0.9344722733
15500207000.0 0.3269213564 -0.9385997068
15550206700.0 0.3120528354 -0.9433621142
15600206400.0 0.2954565766 -0.948136941
15650206100.0 0.2798378437 -0.9520596913
15700205800.0 0.2660901559 -0.9557708166
15750205500.0 0.2513427592 -0.9594432941
15800205200.0 0.236898309 -0.9627649642
15850204900.0 0.2225904828 -0.9663367234
15900204600.0 0.2075546105 -0.9696844228
15950204300.0 0.1936083519 -0.9726790528
16000204000.0 0.1795575316 -0.9752594645
16050203700.0 0.1651477892 -0.9784927897
16100203400.0 0.1508253844 -0.9806591846
16150203100.0 0.1365780503 -0.9827051407
16200202800.0 0.1222348256 -0.9850028539
16250202500.0 0.1074576004 -0.9866400103
16300202200.0 0.0924790223 -0.9880471193
16350201900.0 0.0776476831 -0.9893286516
16400201600.0 0.0632880713 -0.9904823353
16450201300.0 0.0482004035 -0.9916324935
16500201000.0 0.031586376 -0.9921028462
16550200700.0 0.0158679206 -0.9926454244
16600200400.0 1.16351e-05 -0.9929975275
16650200100.0 -0.0164439253 -0.9924670972
16700199800.0 -0.0325087494 -0.9921200649
16750199500.0 -0.0511606348 -0.9920496838
16800199200.0 -0.0679461354 -0.99093301
16850198900.0 -0.082768806 -0.9891581058
16900198600.0 -0.0970070749 -0.9885650193
16950198300.0 -0.1103594248 -0.9871728116
17000198000.0 -0.1229041704 -0.985208668
17050197700.0 -0.1361670079 -0.9832949706
17100197400.0 -0.1486172608 -0.9817449045
17150197100.0 -0.1614655908 -0.9794430646
17200196800.0 -0.1747477341 -0.9773958819
17250196500.0 -0.1875311696 -0.9749754602
17300196200.0 -0.1998163885 -0.972674825
17350195900.0 -0.2117137184 -0.9704784285
17400195600.0 -0.2238533051 -0.9679487311
17450195300.0 -0.2368293704 -0.9650998649
17500195000.0 -0.250542942 -0.9618315205
17550194700.0 -0.2644091089 -0.9581964145
17600194400.0 -0.2782276572 -0.9539310084
17650194100.0 -0.2920678243 -0.9499107258
17700193800.0 -0.3047224531 -0.9456584129
17750193500.0 -0.3189120496 -0.9412350846
17800193200.0 -0.3330170649 -0.9359662017
17850192900.0 -0.3483753467 -0.9308891429
17900192600.0 -0.3629847704 -0.9247472896
17950192300.0 -0.3788498461 -0.9174420025
18000192000.0 -0.3933621817 -0.9105674958
18050191700.0 -0.4069980032 -0.9026556653
18100191400.0 -0.4212996289 -0.8950959992
18150191100.0 -0.4361530038 -0.8869944963
18200190800.0 -0.4529294609 -0.8779424813
18250190500.0 -0.4698716359 -0.8682399893
18300190200.0 -0.4851020057 -0.8593038346
18350189900.0 -0.5002075842 -0.8513124296
18400189600.0 -0.5145789901 -0.8428063394
18450189300.0 -0.5277806292 -0.8349579238
18500189000.0 -0.5411739391 -0.82656686
18550188700.0 -0.5537915169 -0.8193740273
18600188400.0 -0.5654132491 -0.8120508366
18650188100.0 -0.5770798794 -0.8056661961
18700187800.0 -0.5878296991 -0.7989812114
18750187500.0 -0.5985661997 -0.7919821292
18800187200.0 -0.609390301 -0.784810367
18850186900.0 -0.6195759661 -0.7776690448
18900186600.0 -0.6301844756 -0.7701370824
18950186300.0 -0.6403164121 -0.7623846478
19000186000.0 -0.6478451397 -0.755882786
19050185700.0 -0.6572118378 -0.7480793898
19100185400.0 -0.6671842334 -0.7398336134
19150185100.0 -0.6782143373 -0.7313558487
19200184800.0 -0.6869992395 -0.7229781669
19250184500.0 -0.6970951576 -0.7139241541
19300184200.0 -0.7092864319 -0.7038145451
19350183900.0 -0.7195858554 -0.6941936967
19400183600.0 -0.7295943875 -0.6846206437
19450183300.0 -0.738509752 -0.6743743939
19500183000.0 -0.746753918 -0.6645389413
19550182700.0 -0.755870676 -0.6534146611
19600182400.0 -0.7660664499 -0.642494367
19650182100.0 -0.7765808453 -0.6299893818
19700181800.0 -0.7872456689 -0.6169477253
19750181500.0 -0.7977488702 -0.6028643128
19800181200.0 -0.8079119529 -0.5881837147
19850180900.0 -0.8174556189 -0.5730868769
19900180600.0 -0.8251268131 -0.5587647306
19950180300.0 -0.8341048963 -0.5425650365
20000180000.0 -0.8275781192 -0.5451332816
20050179700.0 -0.8356471895 -0.5311281652
20100179400.0 -0.8440490196 -0.517534324
20150179100.0 -0.8524174868 -0.5057507681
20200178800.0 -0.8605676978 -0.4925033634
20250178500.0 -0.8699474856 -0.4792072167
20300178200.0 -0.879396186 -0.4645062093
20350177900.0 -0.8877796614 -0.4501582926
20400177600.0 -0.897370237 -0.4355481726
20450177300.0 -0.9053871409 -0.4213951983
20500177000.0 -0.9128778383 -0.4072035051
20550176700.0 -0.9208623465 -0.3935293329
20600176400.0 -0.9281585522 -0.3798892357
20650176100.0 -0.9345445122 -0.3676138605
20700175800.0 -0.9416824067 -0.3555802147
20750175500.0 -0.9477130008 -0.3430783065
20800175200.0 -0.9530065756 -0.3332528039
20850174900.0 -0.9578294387 -0.3218175452
20900174600.0 -0.9631382789 -0.3094602999
20950174300.0 -0.9666219941 -0.2974503582
21000174000.0 -0.9708987093 -0.2863601811
21050173700.0 -0.9734731886 -0.2756857075
21100173400.0 -0.9774765772 -0.2636924906
21150173100.0 -0.9810311118 -0.2503642877
21200172800.0 -0.9846711719 -0.2368914993
21250172500.0 -0.9875899664 -0.2231669714
21300172200.0 -0.9909814239 -0.2091954983
21350171900.0 -0.9923525005 -0.1943412328
21400171600.0 -0.9935219656 -0.1804524722
21450171300.0 -0.9932423372 -0.1660145301
21500171000.0 -0.9943996185 -0.150185558
21550170700.0 -0.9935585847 -0.1346337526
21600170400.0 -0.9929845065 -0.1190482621
21650170100.0 -0.9923219877 -0.104712588
21700169800.0 -0.9910060001 -0.0892449291
21750169500.0 -0.9890682886 -0.0730673811
21800169200.0 -0.9876667153 -0.0568818539
21850168900.0 -0.9868769236 -0.0400493468
21900168600.0 -0.9849313219 -0.0236321223
21950168300.0 -0.9837504302 -0.0085303012
22000168000.0 -0.9830869226 0.0064978914
22050167700.0 -0.9824631779 0.0204673477
22100167400.0 -0.9824301039 0.0356773384
22150167100.0 -0.982765623 0.051259246
22200166800.0 -0.9830353944 0.0673128271
22250166500.0 -0.982597142 0.0843587091
22300166200.0 -0.9821659166 0.100519321
22350165900.0 -0.9805932837 0.1176583796
22400165600.0 -0.9784110524 0.1326662571
22450165300.0 -0.9761824896 0.1488887302
22500165000.0 -0.9741338687 0.1618676314
22550164700.0 -0.9735557164 0.1772950016
22600164400.0 -0.9722600458 0.1923735379
22650164100.0 -0.9703335653 0.2069615939
22700163800.0 -0.967219637 0.222973097
22750163500.0 -0.9651565511 0.2389592777
22800163200.0 -0.9619754347 0.251805366
22850162900.0 -0.9597550119 0.265298737
22900162600.0 -0.9585792824 0.278375719
22950162300.0 -0.9572489198 0.29101037
23000162000.0 -0.9561549903 0.3029366751
23050161700.0 -0.9543741186 0.3154235707
23100161400.0 -0.9519760587 0.3289737991
23150161100.0 -0.9488381804 0.3408504616
23200160800.0 -0.9457222841 0.3526225353
23250160500.0 -0.9433869341 0.3648159759
23300160200.0 -0.941730799 0.3764041796
23350159900.0 -0.936924921 0.3897503652
23400159600.0 -0.9320097012 0.4024418974
23450159300.0 -0.9277988211 0.4155244046
23500159000.0 -0.9230254229 0.4282936695
23550158700.0 -0.918484361 0.4417767272
23600158400.0 -0.913124107 0.454419876
23650158100.0 -0.9067282707 0.4684637351
23700157800.0 -0.8989997909 0.4824230219
23750157500.0 -0.8904888355 0.4961847891
23800157200.0 -0.881966629 0.5100791034
23850156900.0 -0.8729974029 0.5215260494
23900156600.0 -0.8636911281 0.5338967212
23950156300.0 -0.8547299584 0.5475281524
24000156000.0 -0.8460408199 0.5587627645
24050155700.0 -0.8354903592 0.5711369706
24100155400.0 -0.8256075923 0.5827586388
24150155100.0 -0.8144747947 0.5940079448
24200154800.0 -0.8040883674 0.605958253
24250154500.0 -0.7927468705 0.6176922963
24300154200.0 -0.7811800358 0.6287775763
24350153900.0 -0.7695250749 0.6393770591
24400153600.0 -0.7574820168 0.6498281502
24450153300.0 -0.7450987911 0.6600681555
24500153000.0 -0.7341967112 0.6697098214
24550152700.0 -0.7228845625 0.6793535188
24600152400.0 -0.7114607397 0.6893785966
24650152100.0 -0.7000326899 0.6965914553
