!Created with skrf (http://scikit-rf.org).
# Hz S RI R 50.0 
!freq ReS11 ImS11
300000.0 -0.9776491145 -0.1117107256
50299700.0 -1.000138405 0.0157490295
100299400.0 -0.9980116578 0.0286661837
150299100.0 -1.002849114 0.0456712855
200298800.0 -0.9996294071 0.0589093026
250298500.0 -0.997339299 0.0726041355
300298200.0 -0.9860456599 0.0881210692
350297900.0 -0.9941948688 0.0991364129
400297600.0 -0.9932761238 0.1157045041
450297300.0 -0.9912188627 0.129757003
500297000.0 -0.9895654607 0.1441955818
550296700.0 -0.9843895051 0.1566999943
600296400.0 -1.017168444 0.1902646779
650296100.0 -0.9823836639 0.1867116823
700295800.0 -0.979203029 0.201059612
750295500.0 -0.976253163 0.2150453817
800295200.0 -0.9728464249 0.2291309501
850294900.0 -0.9695172513 0.2428350706
900294600.0 -0.9656151335 0.2567873988
950294300.0 -0.9619211088 0.2704479711
1000294000.0 -0.958100679 0.284555311
1050293700.0 -0.9536186135 0.2983144896
1100293400.0 -0.9491591981 0.3129112007
1150293100.0 -0.9455519795 0.3244784391
1200292800.0 -0.939967865 0.3388487165
1250292500.0 -0.9345878064 0.3523116364
1300292200.0 -0.929041343 0.3656409964
1350291900.0 -0.9231779783 0.3794601528
1400291600.0 -0.9178175146 0.3925386465
1450291300.0 -0.9122453063 0.4049078624
1500291000.0 -0.9060270132 0.4184338836
1550290700.0 -0.8994349504 0.4316697942
1600290400.0 -0.8932969856 0.4446967521
1650290100.0 -0.8865720116 0.4567604408
1700289800.0 -0.8797589715 0.4699662568
1750289500.0 -0.8726178325 0.4824794386
1800289200.0 -0.8652950096 0.4955677038
1850288900.0 -0.8585182961 0.5065226092
1900288600.0 -0.8507614583 0.5197157623
1950288300.0 -0.8425184956 0.5323310019
2000288000.0 -0.8351103842 0.5436943925
2050287700.0 -0.8267667627 0.5560765632
2100287400.0 -0.8190346136 0.5676331308
2150287100.0 -0.8101736327 0.5798281928
2200286800.0 -0.8026287034 0.5901282317
2250286500.0 -0.7936964536 0.6019662902
2300286200.0 -0.7847936319 0.6137376417
2350285900.0 -0.7759216468 0.6246662321
2400285600.0 -0.7669608219 0.6358464901
2450285300.0 -0.7583989858 0.6461503094
2500285000.0 -0.7487300577 0.6573297092
2550284700.0 -0.7396379932 0.6678765631
2600284400.0 -0.7303593085 0.6779229455
2650284100.0 -0.7213582523 0.6885476697
2700283800.0 -0.7107051391 0.6989478997
2750283500.0 -0.700335118 0.7094638077
2800283200.0 -0.6906620415 0.718970784
2850282900.0 -0.6804773362 0.7291232551
2900282600.0 -0.6699939651 0.7385201054
2950282300.0 -0.6601332178 0.7479465224
3000282000.0 -0.6492615409 0.7573040499
3050281700.0 -0.6379970148 0.766422817
3100281400.0 -0.6260086516 0.7759948123
3150281100.0 -0.6143065139 0.7852750034
3200280800.0 -0.6024938807 0.7938540727
3250280500.0 -0.5918673655 0.8015447957
3300280200.0 -0.5806374864 0.8094046106
3350279900.0 -0.5690373035 0.8167753375
3400279600.0 -0.5571059294 0.8244738729
3450279300.0 -0.5457847676 0.8317043841
3500279000.0 -0.5337258672 0.8387133892
3550278700.0 -0.5215382895 0.8460755644
3600278400.0 -0.5089750445 0.8531779723
3650278100.0 -0.495920218 0.8608610032
3700277800.0 -0.4838008845 0.8671639209
3750277500.0 -0.4716883735 0.8737240465
3800277200.0 -0.4591716308 0.8802466667
3850276900.0 -0.4468408999 0.8862677251
3900276600.0 -0.4361397646 0.8917703859
3950276300.0 -0.4234981645 0.8980796746
4000276000.0 -0.4116140778 0.9038413867
4050275700.0 -0.3985067018 0.9100068178
4100275400.0 -0.3873783488 0.9152814459
4150275100.0 -0.3746716627 0.9208579934
4200274800.0 -0.3619424827 0.926541011
4250274500.0 -0.3496267342 0.931544543
4300274200.0 -0.3366743481 0.937058383
4350273900.0 -0.3229044598 0.9422939992
4400273600.0 -0.3078055368 0.9474231953
4450273300.0 -0.2925257114 0.9526596778
4500273000.0 -0.2788829637 0.9568555838
4550272700.0 -0.2645672437 0.9610400762
4600272400.0 -0.2491717507 0.9652515833
4650272100.0 -0.2374391216 0.9686348042
4700271800.0 -0.2240741644 0.9719128887
4750271500.0 -0.2124879585 0.9746994198
4800271200.0 -0.1999701458 0.9775364671
4850270900.0 -0.1860786624 0.9802682645
4900270600.0 -0.1720677449 0.9825556864
4950270300.0 -0.157887215 0.9852839629
5000270000.0 -0.1437897937 0.9871765999
5050269700.0 -0.1302402672 0.9888703782
5100269400.0 -0.116665371 0.9903720198
5150269100.0 -0.1033388688 0.9919744008
5200268800.0 -0.0900371433 0.9930604973
5250268500.0 -0.0770972833 0.9942281731
5300268200.0 -0.0637787733 0.9947773246
5350267900.0 -0.0515122306 0.9953220328
5400267600.0 -0.0355388705 0.9963773817
5450267300.0 -0.0224018351 0.9967556285
5500267000.0 -0.0073374419 0.9972063057
5550266700.0 0.0077074282 0.9972715143
5600266400.0 0.0230777159 0.9972631979
5650266100.0 0.0399349001 0.9970733175
5700265800.0 0.0543927411 0.9961851463
5750265500.0 0.0694047288 0.9952862047
5800265200.0 0.0832783069 0.9944981473
5850264900.0 0.0966754168 0.9934757791
5900264600.0 0.1132974731 0.9915706883
5950264300.0 0.1257050128 0.990073096
6000264000.0 0.1396393366 0.9881045083
6050263700.0 0.1519650164 0.9865837545
6100263400.0 0.1643374652 0.9848201225
6150263100.0 0.1789761075 0.9825285792
6200262800.0 0.1895965692 0.9806243666
6250262500.0 0.2021964118 0.9781689352
6300262200.0 0.2151057185 0.9755563076
6350261900.0 0.2281640249 0.9724425047
6400261600.0 0.2419868533 0.9691522114
6450261300.0 0.253142059 0.9664201035
6500261000.0 0.2662154925 0.9628875782
6550260700.0 0.2792007981 0.9589451437
6600260400.0 0.2922502911 0.9550047973
6650260100.0 0.3062569844 0.950626301
6700259800.0 0.3183880007 0.9462773524
6750259500.0 0.3318572328 0.9410492851
6800259200.0 0.3451824841 0.9363239359
6850258900.0 0.3569886087 0.9309218407
6900258600.0 0.3694369892 0.9262976968
6950258300.0 0.3817193846 0.9208760405
7000258000.0 0.3938975047 0.9154145948
7050257700.0 0.4060547464 0.9093256855
7100257400.0 0.4187844958 0.9032868841
7150257100.0 0.4289974018 0.8977809962
7200256800.0 0.4417128943 0.8913464698
7250256500.0 0.4536651192 0.8851257406
7300256200.0 0.4663099594 0.8783445046
7350255900.0 0.4789066233 0.8714530652
7400255600.0 0.4922467725 0.864025353
7450255300.0 0.5078450087 0.8551224069
7500255000.0 0.5194186325 0.8479568903
7550254700.0 0.533170411 0.8394309821
7600254400.0 0.5459427494 0.8313467263
7650254100.0 0.557560242 0.8234613618
7700253800.0 0.5695331127 0.8154315142
7750253500.0 0.5804946524 0.8076743145
7800253200.0 0.5913804976 0.7999696391
7850252900.0 0.6009745472 0.7929453069
7900252600.0 0.612639475 0.7839566665
7950252300.0 0.6213891973 0.7775990358
8000252000.0 0.6315417361 0.7697388129
8050251700.0 0.6419830797 0.761550243
8100251400.0 0.6521522919 0.7535330801
8150251100.0 0.6621692005 0.7447546322
8200250800.0 0.6712063129 0.7367864992
8250250500.0 0.6801012111 0.7289214025
8300250200.0 0.6901783554 0.7201109929
8350249900.0 0.6990180532 0.711649667
8400249600.0 0.707248827 0.7036452684
8450249300.0 0.716466298 0.694096096
8500249000.0 0.7246777262 0.6853655074
8550248700.0 0.733209156 0.67631212
8600248400.0 0.7414493571 0.6668034464
8650248100.0 0.7491338806 0.6573927347
8700247800.0 0.7587533823 0.6462053979
8750247500.0 0.7669025231 0.6362059645
8800247200.0 0.7750945196 0.6257684724
8850246900.0 0.7839926705 0.6145792746
8900246600.0 0.7929539013 0.6029311013
8950246300.0 0.8019377827 0.5899179484
9000246000.0 0.8114237487 0.5771480193
9050245700.0 0.8204912221 0.5640786794
9100245400.0 0.8294070379 0.5515298154
9150245100.0 0.8387012053 0.5379824562
9200244800.0 0.8484521846 0.5225402672
9250244500.0 0.8578440618 0.5068561306
9300244200.0 0.866111672 0.492111755
9350243900.0 0.8740537729 0.4782382598
9400243600.0 0.8805724601 0.4658695948
9450243300.0 0.8865480085 0.45404067
9500243000.0 0.8928457378 0.4418743068
9550242700.0 0.8964274617 0.4341814112
9600242400.0 0.9001065513 0.4271515455
9650242100.0 0.9041808529 0.4205197325
9700241800.0 0.9085723509 0.4123918081
9750241500.0 0.9120628155 0.4051105156
9800241200.0 0.9170295881 0.3959782163
9850240900.0 0.9226314539 0.3840834828
9900240600.0 0.9280896516 0.3725605055
9950240300.0 0.9348634513 0.3562774402
10000240000.0 0.939081255 0.3448171732
10050239700.0 0.9450872882 0.3294448542
10100239400.0 0.9501952115 0.3143146095
10150239100.0 0.954108904 0.2994128901
10200238800.0 0.958488387 0.2843851126
10250238500.0 0.9617182885 0.2710890701
10300238200.0 0.9649702773 0.2569484338
10350237900.0 0.9675723393 0.2442111191
10400237600.0 0.9700334169 0.2310977396
10450237300.0 0.9728574869 0.2170736968
10500237000.0 0.9746536124 0.2052973646
10550236700.0 0.9769837735 0.1911597765
10600236400.0 0.9794410235 0.1770869975
10650236100.0 0.9811291337 0.1627936402
10700235800.0 0.9841243611 0.1503365286
10750235500.0 0.9855487153 0.1378351881
10800235200.0 0.9875110103 0.1235908069
10850234900.0 0.9899333137 0.1088027063
10900234600.0 0.9918198858 0.0944796643
10950234300.0 0.9935066699 0.0811797197
11000234000.0 0.9951886402 0.0660034927
11050233700.0 0.9970540911 0.0497753514
11100233400.0 0.9983784186 0.0321146489
11150233100.0 0.9996255153 0.015854286
11200232800.0 1.000276336 0.0009945428
11250232500.0 1.00151863 -0.0162722407
11300232200.0 1.001992623 -0.0339682539
11350231900.0 1.001801679 -0.0497966844
11400231600.0 1.001133068 -0.064681971
11450231300.0 1.000857056 -0.0808970991
11500231000.0 0.9995589402 -0.0964123713
11550230700.0 0.9980887471 -0.110452888
11600230400.0 0.996595723 -0.1229740852
11650230100.0 0.9947955335 -0.1344601685
11700229800.0 0.992631232 -0.1492958233
11750229500.0 0.9904138791 -0.1640879153
11800229200.0 0.9876437418 -0.1776167459
11850228900.0 0.9840887842 -0.1901134224
11900228600.0 0.9806274414 -0.1995489534
11950228300.0 0.9775239386 -0.2098147152
12000228000.0 0.9749070993 -0.2188043835
12050227700.0 0.9710003283 -0.231831593
12100227400.0 0.9676892348 -0.2429529822
12150227100.0 0.9624266332 -0.2600748953
12200226800.0 0.9591651899 -0.2707893186
12250226500.0 0.9553462529 -0.2836225938
12300226200.0 0.9503831918 -0.2948605268
12350225900.0 0.9466646982 -0.3093755434
12400225600.0 0.9420992306 -0.3219085494
12450225300.0 0.9372231674 -0.3345754955
12500225000.0 0.9316607324 -0.3497777516
12550224700.0 0.9266044585 -0.3631671688
12600224400.0 0.921614919 -0.3758918197
12650224100.0 0.915994711 -0.3903235076
12700223800.0 0.9107674357 -0.4031140182
12750223500.0 0.9051190504 -0.4160344305
12800223200.0 0.8999160798 -0.4283427999
12850222900.0 0.8946127603 -0.4403759871
12900222600.0 0.8892282329 -0.4527548139
12950222300.0 0.8826285872 -0.4658114423
13000222000.0 0.8764103025 -0.4769990319
13050221700.0 0.8695710828 -0.4899947307
13100221400.0 0.8632836713 -0.5018557765
13150221100.0 0.8564453646 -0.5138587447
13200220800.0 0.8490990183 -0.5254488153
13250220500.0 0.8417869481 -0.5377846816
13300220200.0 0.8342548588 -0.5486978651
13350219900.0 0.8262840532 -0.5606779978
13400219600.0 0.8177103679 -0.5730192126
13450219300.0 0.8081997526 -0.586456143
13500219000.0 0.798025291 -0.6003665674
13550218700.0 0.787863861 -0.613396133
13600218400.0 0.7776034318 -0.6249427124
13650218100.0 0.7678305006 -0.6367059625
13700217800.0 0.7568893429 -0.6487094361
13750217500.0 0.747168415 -0.660237643
13800217200.0 0.7352112436 -0.6717520808
13850216900.0 0.7244324635 -0.6836457669
13900216600.0 0.7145269988 -0.6925858027
13950216300.0 0.7042133689 -0.7027139047
14000216000.0 0.693822734 -0.7114943036
14050215700.0 0.6846325569 -0.7197560292
14100215400.0 0.6743454274 -0.7294196857
14150215100.0 0.6653602836 -0.7380423684
14200214800.0 0.6559546801 -0.7461940419
14250214500.0 0.6457215586 -0.7554691984
14300214200.0 0.6355068071 -0.7646977199
14350213900.0 0.6241997073 -0.7743970615
14400213600.0 0.6123821244 -0.7842639029
14450213300.0 0.5993619104 -0.7944332047
14500213000.0 0.5864773402 -0.8043883638
14550212700.0 0.5738664988 -0.8135255342
14600212400.0 0.5611754544 -0.8223117879
14650212100.0 0.5487019411 -0.8312444128
14700211800.0 0.5350492051 -0.8405306572
14750211500.0 0.522521185 -0.8485299353
14800211200.0 0.5099893421 -0.8565020156
14850210900.0 0.497892749 -0.8640882255
14900210600.0 0.484737895 -0.8720944193
14950210300.0 0.4713267244 -0.8796369917
15000210000.0 0.4580776647 -0.8863552715
15050209700.0 0.4457616022 -0.8927219316
15100209400.0 0.4332428065 -0.8986169546
15150209100.0 0.4207068124 -0.9040226152
15200208800.0 0.4079862757 -0.9094602778
15250208500.0 0.3971416623 -0.9140728527
15300208200.0 0.384140721 -0.9188288173
15350207900.0 0.3707022971 -0.924252053
15400207600.0 0.3563683458 -0.9289467033
15450207300.0 0.3420642067 -0.9336225809
15500207000.0 0.3268449554 -0.9379355502
15550206700.0 0.3127786822 -0.9430418735
15600206400.0 0.2965196593 -0.9475827216
15650206100.0 0.2803702098 -0.9521868805
15700205800.0 0.2665767097 -0.9557191565
15750205500.0 0.2517514496 -0.95913013
15800205200.0 0.2376786829 -0.9625499785
15850204900.0 0.2231083034 -0.9661369882
15900204600.0 0.2081925006 -0.9696454912
15950204300.0 0.1940176522 -0.9725489866
16000204000.0 0.179926698 -0.9753472348
16050203700.0 0.1650787564 -0.9779940774
16100203400.0 0.1509842151 -0.9803829293
16150203100.0 0.1366935843 -0.9826018981
16200202800.0 0.1227580442 -0.9847488169
16250202500.0 0.1076939464 -0.9859652795
16300202200.0 0.0920039891 -0.9877749943
16350201900.0 0.0780003955 -0.9893901897
16400201600.0 0.0630071687 -0.9902468374
16450201300.0 0.047992513 -0.991103053
16500201000.0 0.0312005171 -0.9920524594
16550200700.0 0.0154693454 -0.9925004411
16600200400.0 -0.0001618756 -0.9924831089
16650200100.0 -0.0163391592 -0.9926407907
16700199800.0 -0.032896929 -0.9921299604
16750199500.0 -0.0517876833 -0.9912147384
16800199200.0 -0.0670971141 -0.9900197021
16850198900.0 -0.0828727272 -0.9893277509
16900198600.0 -0.096967671 -0.988708542
16950198300.0 -0.10972641 -0.987596564
17000198000.0 -0.1228098415 -0.9861031373
17050197700.0 -0.1357831215 -0.9843121517
17100197400.0 -0.147736975 -0.9819779496
17150197100.0 -0.1611883638 -0.9793361816
17200196800.0 -0.17384951 -0.977861888
17250196500.0 -0.1867699825 -0.9754415508
17300196200.0 -0.1989817497 -0.9731836563
17350195900.0 -0.2106484131 -0.9708308073
17400195600.0 -0.2227739118 -0.968403313
17450195300.0 -0.2360709533 -0.9656141538
17500195000.0 -0.2494399735 -0.9623126079
17550194700.0 -0.2631320424 -0.9585124796
17600194400.0 -0.2772146582 -0.9544359797
17650194100.0 -0.2906467332 -0.9503886201
17700193800.0 -0.3038320709 -0.9462188443
17750193500.0 -0.3182731706 -0.941715038
17800193200.0 -0.3328983179 -0.9364725652
17850192900.0 -0.3478843573 -0.9308479977
17900192600.0 -0.3626107343 -0.924843695
17950192300.0 -0.3783606072 -0.9176261108
18000192000.0 -0.393268507 -0.9106349698
18050191700.0 -0.4069526889 -0.902537763
18100191400.0 -0.4210942571 -0.8947866264
18150191100.0 -0.4362709493 -0.8867464923
18200190800.0 -0.4530047172 -0.8775187138
18250190500.0 -0.4698234179 -0.8677812057
18300190200.0 -0.485434937 -0.8592887924
18350189900.0 -0.5003909563 -0.8507131791
18400189600.0 -0.5146947956 -0.8421491053
18450189300.0 -0.5277879569 -0.8343875976
18500189000.0 -0.5415325279 -0.8268982916
18550188700.0 -0.5539309161 -0.8188794896
18600188400.0 -0.5660467853 -0.8122472177
18650188100.0 -0.5770919543 -0.8056202975
18700187800.0 -0.5876566655 -0.7989736889
18750187500.0 -0.5982431968 -0.7927130093
18800187200.0 -0.6090440751 -0.7854368562
18850186900.0 -0.6191778405 -0.7784892712
18900186600.0 -0.6295905841 -0.7712019673
18950186300.0 -0.6395148474 -0.7633587214
19000186000.0 -0.6469467012 -0.7571311819
19050185700.0 -0.6565275477 -0.7496854896
19100185400.0 -0.6659315406 -0.7418354193
19150185100.0 -0.6763828275 -0.7333419813
19200184800.0 -0.6858413009 -0.7242240865
19250184500.0 -0.696136197 -0.7152835431
19300184200.0 -0.7072968304 -0.7058864616
19350183900.0 -0.7181149688 -0.6963901985
19400183600.0 -0.7277886934 -0.6859214157
19450183300.0 -0.7364400924 -0.6756839204
19500183000.0 -0.7452034213 -0.6663699395
19550182700.0 -0.7544471204 -0.6555673405
19600182400.0 -0.7652072703 -0.6433979998
19650182100.0 -0.7757707757 -0.6310011926
19700181800.0 -0.7864091273 -0.6179674368
19750181500.0 -0.7970661831 -0.6037003038
19800181200.0 -0.8072142827 -0.5890700715
19850180900.0 -0.8169466752 -0.5737550432
19900180600.0 -0.8247158038 -0.5589110739
19950180300.0 -0.8337294481 -0.5427269816
20000180000.0 -0.8276363769 -0.5455835605
20050179700.0 -0.8345067901 -0.532244521
20100179400.0 -0.8440010567 -0.5187983962
20150179100.0 -0.8513215709 -0.5065857099
20200178800.0 -0.8603612913 -0.4932804384
20250178500.0 -0.8697230492 -0.4797762742
20300178200.0 -0.8791527889 -0.465067217
20350177900.0 -0.8881084724 -0.4504133783
20400177600.0 -0.8972495072 -0.4363996952
20450177300.0 -0.9055658956 -0.4215976407
20500177000.0 -0.9134913584 -0.4075852784
20550176700.0 -0.9214357893 -0.3941536091
20600176400.0 -0.9285338592 -0.3813011455
20650176100.0 -0.9353202641 -0.3689319805
20700175800.0 -0.9416265685 -0.3566828581
20750175500.0 -0.9488169736 -0.3454402096
20800175200.0 -0.9526696571 -0.3334115982
20850174900.0 -0.9583101698 -0.3233294629
20900174600.0 -0.9623026216 -0.3116953594
20950174300.0 -0.9672207533 -0.2997853709
21000174000.0 -0.9695428789 -0.2879197591
21050173700.0 -0.9734633134 -0.2771624744
21100173400.0 -0.9769310915 -0.2654021789
21150173100.0 -0.9811073921 -0.2523993329
21200172800.0 -0.9841568465 -0.2393752512
21250172500.0 -0.9881878811 -0.2255366855
21300172200.0 -0.9901415771 -0.2113422985
21350171900.0 -0.9921158282 -0.1968226738
21400171600.0 -0.9929884501 -0.1822415704
21450171300.0 -0.9945296951 -0.1687101923
21500171000.0 -0.9931860688 -0.1525070453
21550170700.0 -0.992456626 -0.1374358843
21600170400.0 -0.9925621778 -0.1217672541
21650170100.0 -0.9908967034 -0.1066436495
21700169800.0 -0.9902276391 -0.0908236598
21750169500.0 -0.9894695143 -0.0744882097
21800169200.0 -0.9876754554 -0.0587073143
21850168900.0 -0.9862555069 -0.04213653
21900168600.0 -0.9853845784 -0.0255287282
21950168300.0 -0.983683547 -0.0090718101
22000168000.0 -0.9827194312 0.0051506181
22050167700.0 -0.9827567093 0.0193606607
22100167400.0 -0.9824144025 0.0348933318
22150167100.0 -0.9832261116 0.0496781712
22200166800.0 -0.9834996555 0.0663902863
22250166500.0 -0.9824772727 0.0831184022
22300166200.0 -0.9822972129 0.1002405839
22350165900.0 -0.9807797992 0.1164868039
22400165600.0 -0.9788762228 0.1327507882
22450165300.0 -0.9774952392 0.1476115194
22500165000.0 -0.9752530754 0.1619841156
22550164700.0 -0.9738393993 0.1766425938
22600164400.0 -0.9724414151 0.1923036188
22650164100.0 -0.9704716403 0.2068189358
22700163800.0 -0.9681753779 0.2230521488
22750163500.0 -0.9651110666 0.2380765695
22800163200.0 -0.9628310264 0.2510546235
22850162900.0 -0.9601721202 0.264551345
22900162600.0 -0.958789527 0.2781260017
22950162300.0 -0.9575741912 0.2907090267
23000162000.0 -0.9567719384 0.3024035101
23050161700.0 -0.9544655655 0.3152326275
23100161400.0 -0.9527506868 0.3276731866
23150161100.0 -0.9494494121 0.3395030635
23200160800.0 -0.9464985491 0.3517420236
23250160500.0 -0.9443674232 0.3639922142
23300160200.0 -0.9416927028 0.3764915229
23350159900.0 -0.9374442982 0.3897014619
23400159600.0 -0.9329698981 0.4021341023
23450159300.0 -0.9281878899 0.4151406752
23500159000.0 -0.9237071448 0.4281712215
23550158700.0 -0.9193920855 0.4416454229
23600158400.0 -0.9141596184 0.4547126989
23650158100.0 -0.9077341046 0.4685388006
23700157800.0 -0.9000354824 0.4825207451
23750157500.0 -0.8918102653 0.4962456313
23800157200.0 -0.88230965 0.509943944
23850156900.0 -0.8737066804 0.5226857984
23900156600.0 -0.8643938723 0.5340994846
23950156300.0 -0.8558192331 0.5469474324
24000156000.0 -0.8462280709 0.5599531562
24050155700.0 -0.836544006 0.5710621393
24100155400.0 -0.8262709985 0.5828330996
24150155100.0 -0.8163015187 0.5946541926
24200154800.0 -0.804341998 0.6053298879
24250154500.0 -0.7936126771 0.6176994582
24300154200.0 -0.7818994269 0.6290836553
24350153900.0 -0.769678388 0.6395227905
24400153600.0 -0.7575816564 0.6496283595
24450153300.0 -0.7457133084 0.6593498581
24500153000.0 -0.7343049119 0.6692403871
24550152700.0 -0.7232869473 0.6785021021
24600152400.0 -0.7108569959 0.6876911171
24650152100.0 -0.7000185433 0.6970826482
