!Created with skrf (http://scikit-rf.org).
# Hz S RI R 50.0 
!freq ReS11 ImS11
300000.0 -0.9811718524 -0.1005591014
50299700.0 -1.000106933 0.0161950196
100299400.0 -0.9981709026 0.029099586
150299100.0 -1.002837567 0.0459069851
200298800.0 -0.9995471123 0.0592349951
250298500.0 -0.9974034042 0.0727914001
300298200.0 -0.9858346251 0.088654981
350297900.0 -0.9941773332 0.0995324923
400297600.0 -0.9931971938 0.1161160153
450297300.0 -0.9909488757 0.1301127
500297000.0 -0.9894423778 0.1446632048
550296700.0 -0.984327882 0.1571768125
600296400.0 -1.017119455 0.190433833
650296100.0 -0.9820016407 0.1870757618
700295800.0 -0.9791841338 0.2015606985
750295500.0 -0.9761137387 0.2152917303
800295200.0 -0.9727296333 0.2293757183
850294900.0 -0.9694566155 0.2432965646
900294600.0 -0.9655615029 0.2570839561
950294300.0 -0.9617926672 0.2706576778
1000294000.0 -0.9579455887 0.284801571
1050293700.0 -0.9534537234 0.2986156176
1100293400.0 -0.9489862506 0.3130273564
1150293100.0 -0.9450717747 0.3248233122
1200292800.0 -0.9397965832 0.3392333109
1250292500.0 -0.9343150158 0.352779673
1300292200.0 -0.9286329562 0.3656629426
1350291900.0 -0.9230547731 0.3797858643
1400291600.0 -0.9176533205 0.3927946603
1450291300.0 -0.9121635294 0.405313595
1500291000.0 -0.9057614751 0.418507524
1550290700.0 -0.899253368 0.4318629873
1600290400.0 -0.8931223381 0.4447294602
1650290100.0 -0.886453126 0.4568239636
1700289800.0 -0.8794700124 0.4704109669
1750289500.0 -0.8725309935 0.4826417671
1800289200.0 -0.8650760087 0.4957491697
1850288900.0 -0.8584454561 0.507013297
1900288600.0 -0.85055082 0.5197152847
1950288300.0 -0.842462446 0.5324828637
2000288000.0 -0.8351568068 0.5439066816
2050287700.0 -0.8266882719 0.5559742281
2100287400.0 -0.818785907 0.5678678265
2150287100.0 -0.8099815875 0.5799598897
2200286800.0 -0.8023897835 0.5901943324
2250286500.0 -0.793455997 0.602503041
2300286200.0 -0.7845069344 0.6140172239
2350285900.0 -0.7758435805 0.6249243299
2400285600.0 -0.7667247068 0.635946043
2450285300.0 -0.7580083161 0.6463003583
2500285000.0 -0.7484833568 0.6576726049
2550284700.0 -0.7394419849 0.667852128
2600284400.0 -0.7300118314 0.6780550475
2650284100.0 -0.7208681075 0.6883719964
2700283800.0 -0.7103193072 0.6993556997
2750283500.0 -0.6999169937 0.7098405895
2800283200.0 -0.6903527456 0.71930754
2850282900.0 -0.6798858651 0.7290613317
2900282600.0 -0.6697512624 0.7390570772
2950282300.0 -0.6594243832 0.7477734061
3000282000.0 -0.6488573974 0.7575982561
3050281700.0 -0.6378134789 0.7665925525
3100281400.0 -0.6257527733 0.7761161571
3150281100.0 -0.6140910382 0.7853216
3200280800.0 -0.6023703633 0.7938783826
3250280500.0 -0.5916726995 0.801581258
3300280200.0 -0.5805596854 0.8094999372
3350279900.0 -0.568925624 0.8170817795
3400279600.0 -0.5567853647 0.8246188144
3450279300.0 -0.5457564957 0.8316227013
3500279000.0 -0.5336829343 0.8387773522
3550278700.0 -0.521353734 0.846479704
3600278400.0 -0.5089631133 0.8532942934
3650278100.0 -0.496055371 0.8611811129
3700277800.0 -0.4838140241 0.8673535807
3750277500.0 -0.4714985322 0.8740271834
3800277200.0 -0.4590887243 0.880417763
3850276900.0 -0.4468241654 0.8864803382
3900276600.0 -0.435888606 0.8921364238
3950276300.0 -0.4233638032 0.8980908159
4000276000.0 -0.4112795844 0.90419188
4050275700.0 -0.3983793962 0.9102576841
4100275400.0 -0.3870777545 0.9154371122
4150275100.0 -0.3742386629 0.9211961872
4200274800.0 -0.3613775896 0.9266039583
4250274500.0 -0.3491791556 0.9315354733
4300274200.0 -0.3359566831 0.9367969811
4350273900.0 -0.3221952929 0.9423291905
4400273600.0 -0.3072843134 0.9474297299
4450273300.0 -0.2918794925 0.952682932
4500273000.0 -0.2783091525 0.956952187
4550272700.0 -0.2641635679 0.9611450157
4600272400.0 -0.2486343782 0.965248621
4650272100.0 -0.2369441444 0.9685039343
4700271800.0 -0.2236574368 0.9718925397
4750271500.0 -0.2119030311 0.9747644896
4800271200.0 -0.1995386318 0.977466665
4850270900.0 -0.1855531231 0.9802645915
4900270600.0 -0.1717627987 0.9827288392
4950270300.0 -0.1576352611 0.9852497257
5000270000.0 -0.1433116899 0.9874593971
5050269700.0 -0.1298645589 0.9888754161
5100269400.0 -0.1161619195 0.9904771454
5150269100.0 -0.1029442939 0.9923612125
5200268800.0 -0.0897600488 0.9930768002
5250268500.0 -0.0767029432 0.9942188734
5300268200.0 -0.0638180684 0.994458711
5350267900.0 -0.0514309717 0.9951729337
5400267600.0 -0.0351929824 0.9965239556
5450267300.0 -0.0224262507 0.9969218695
5500267000.0 -0.0072505407 0.9971010368
5550266700.0 0.0077447891 0.9972210109
5600266400.0 0.0234499216 0.9970248684
5650266100.0 0.0397209196 0.9971268756
5700265800.0 0.054379855 0.9962257161
5750265500.0 0.0692600236 0.9950723225
5800265200.0 0.0836481947 0.9941386068
5850264900.0 0.0966307615 0.9931262894
5900264600.0 0.1132423122 0.9914021097
5950264300.0 0.1256427042 0.9898349229
6000264000.0 0.1397425272 0.987935126
6050263700.0 0.1522034852 0.9864758613
6100263400.0 0.1645734869 0.9842531889
6150263100.0 0.1792796281 0.9819600721
6200262800.0 0.1898431003 0.9803680322
6250262500.0 0.2024196351 0.9779378086
6300262200.0 0.2154112043 0.9750616969
6350261900.0 0.2285367233 0.9721530266
6400261600.0 0.2421721383 0.9688485065
6450261300.0 0.2536787328 0.9659962401
6500261000.0 0.2663604128 0.9626727377
6550260700.0 0.2796219154 0.9587352969
6600260400.0 0.2927308217 0.9549002679
6650260100.0 0.3064604514 0.9502129881
6700259800.0 0.3185586471 0.9459063574
6750259500.0 0.3319192148 0.9409661671
6800259200.0 0.3455727307 0.936405385
6850258900.0 0.3575130613 0.9311653362
6900258600.0 0.3695071195 0.9260031993
6950258300.0 0.3819302286 0.9207153221
7000258000.0 0.3940570254 0.9153364926
7050257700.0 0.4062145034 0.90954858
7100257400.0 0.4190462308 0.9031090259
7150257100.0 0.4293104092 0.8977377854
7200256800.0 0.4421654451 0.8912604985
7250256500.0 0.4538662166 0.8850382131
7300256200.0 0.467110528 0.8785676275
7350255900.0 0.4791591046 0.8714329079
7400255600.0 0.4924379085 0.8643392518
7450255300.0 0.5078118815 0.8553235589
7500255000.0 0.519082407 0.8483295865
7550254700.0 0.5331309319 0.8396754736
7600254400.0 0.5459327524 0.8312772402
7650254100.0 0.55746354 0.8233011921
7700253800.0 0.5692431599 0.815400011
7750253500.0 0.5803885121 0.8076497678
7800253200.0 0.591134074 0.7996800122
7850252900.0 0.6007132311 0.7927239448
7900252600.0 0.6125799828 0.7838514922
7950252300.0 0.6214333949 0.77734286
8000252000.0 0.6317392023 0.7693214546
8050251700.0 0.6422649491 0.7611889488
8100251400.0 0.6522621349 0.7528952949
8150251100.0 0.6627718705 0.7441724751
8200250800.0 0.6717354424 0.7363079347
8250250500.0 0.6808627908 0.7281216665
8300250200.0 0.6896207437 0.7195215825
8350249900.0 0.6993220675 0.7110652656
8400249600.0 0.7074799928 0.7027933858
8450249300.0 0.7166226899 0.6936338937
8500249000.0 0.7252295019 0.6847127472
8550248700.0 0.7337062742 0.6757948755
8600248400.0 0.7419150374 0.6663889759
8650248100.0 0.7497373179 0.6570077623
8700247800.0 0.7590987544 0.6459141368
8750247500.0 0.7673853501 0.6356790618
8800247200.0 0.7754635907 0.6255317725
8850246900.0 0.7842152482 0.6140593221
8900246600.0 0.792650447 0.6028387757
8950246300.0 0.8022234834 0.590011233
9000246000.0 0.8115922675 0.5771977902
9050245700.0 0.8203221991 0.564324984
9100245400.0 0.8288875069 0.5518918699
9150245100.0 0.838248625 0.5383477917
9200244800.0 0.8480655347 0.5230353099
9250244500.0 0.8574413411 0.5074887227
9300244200.0 0.8658549679 0.4929208142
9350243900.0 0.8735695082 0.4789667981
9400243600.0 0.8803219286 0.4663862826
9450243300.0 0.8861425174 0.4547296224
9500243000.0 0.8925164537 0.4421207542
9550242700.0 0.8962688845 0.4343737357
9600242400.0 0.9001986361 0.4267782454
9650242100.0 0.9036769843 0.4204554326
9700241800.0 0.9085635242 0.4118430708
9750241500.0 0.9122133189 0.4042093266
9800241200.0 0.916921743 0.3950925136
9850240900.0 0.9230121929 0.3830441626
9900240600.0 0.9282294312 0.3715507235
9950240300.0 0.9348920832 0.3553085668
10000240000.0 0.9396097205 0.3441217866
10050239700.0 0.9452449801 0.3288660798
10100239400.0 0.950096383 0.3132585655
10150239100.0 0.9543352557 0.2986010474
10200238800.0 0.9588796649 0.283675011
10250238500.0 0.961791685 0.2704376028
10300238200.0 0.9649920859 0.2564343174
10350237900.0 0.9676977295 0.2436000145
10400237600.0 0.970107123 0.2305717067
10450237300.0 0.9729194015 0.2164054514
10500237000.0 0.9751541016 0.2040712744
10550236700.0 0.9770841403 0.1907915198
10600236400.0 0.9793057144 0.1771398143
10650236100.0 0.9813285446 0.1627609398
10700235800.0 0.9837083956 0.1506373288
10750235500.0 0.9860243059 0.1370285282
10800235200.0 0.9875212263 0.1234651681
10850234900.0 0.9896175574 0.1089390951
10900234600.0 0.991604278 0.0943417822
10950234300.0 0.993450991 0.0808607989
11000234000.0 0.9952478181 0.0659321368
11050233700.0 0.9969765858 0.0497372245
11100233400.0 0.9983420901 0.0321678797
11150233100.0 0.9991073569 0.0165628564
11200232800.0 1.000075865 0.0006147468
11250232500.0 1.001133658 -0.0156235394
11300232200.0 1.00110767 -0.0329440642
11350231900.0 1.001283117 -0.0487443524
11400231600.0 1.000883441 -0.0646292033
11450231300.0 1.000325313 -0.0804996375
11500231000.0 0.9991476472 -0.0971516201
11550230700.0 0.9981310626 -0.1100408469
11600230400.0 0.9964145877 -0.123116475
11650230100.0 0.9941682074 -0.1353309709
11700229800.0 0.992053196 -0.1497368515
11750229500.0 0.989876874 -0.1645551954
11800229200.0 0.9872319788 -0.1784531783
11850228900.0 0.9836115671 -0.1907848326
11900228600.0 0.980371512 -0.2004517379
11950228300.0 0.9768747642 -0.2114808635
12000228000.0 0.9739602234 -0.220619339
12050227700.0 0.9706367732 -0.2326390637
12100227400.0 0.9672003031 -0.2438219847
12150227100.0 0.9618752843 -0.2610463936
12200226800.0 0.9588812806 -0.2710479803
12250226500.0 0.9548583343 -0.28364658
12300226200.0 0.950497754 -0.2970794642
12350225900.0 0.9459037243 -0.3103723105
12400225600.0 0.9415241415 -0.3223389003
12450225300.0 0.9371665822 -0.3350903885
12500225000.0 0.9313873667 -0.3499055649
12550224700.0 0.9264163034 -0.3635156724
12600224400.0 0.9216522544 -0.3763480578
12650224100.0 0.9158475222 -0.3903178318
12700223800.0 0.9106638225 -0.4030618218
12750223500.0 0.9052344156 -0.4159533415
12800223200.0 0.8998031564 -0.4286249717
12850222900.0 0.8945559649 -0.4406769129
12900222600.0 0.8885312524 -0.4527327068
12950222300.0 0.8822980351 -0.4658003741
13000222000.0 0.8767290113 -0.4764831088
13050221700.0 0.8697151948 -0.4898233726
13100221400.0 0.8627408774 -0.5023066918
13150221100.0 0.8558836365 -0.5136346063
13200220800.0 0.8489149576 -0.5255969329
13250220500.0 0.841494047 -0.5382202797
13300220200.0 0.8342017502 -0.5489061266
13350219900.0 0.8259075661 -0.5609821695
13400219600.0 0.8174009406 -0.5733290107
13450219300.0 0.8078302547 -0.586963707
13500219000.0 0.7974929332 -0.6006021788
13550218700.0 0.7871976647 -0.6137045857
13600218400.0 0.7772186586 -0.6260015355
13650218100.0 0.7676581685 -0.6366313227
13700217800.0 0.7562543648 -0.6493197142
13750217500.0 0.7458242921 -0.6606488898
13800217200.0 0.7353708265 -0.6720430703
13850216900.0 0.7240054749 -0.6843074423
13900216600.0 0.7140453958 -0.692922394
13950216300.0 0.7030025486 -0.7036184691
14000216000.0 0.6928720442 -0.712533139
14050215700.0 0.6838263578 -0.7204555639
14100215400.0 0.6737474749 -0.7296477988
14150215100.0 0.6649446278 -0.7379954881
14200214800.0 0.6556582605 -0.7464142106
14250214500.0 0.6453916088 -0.7557215901
14300214200.0 0.6351130496 -0.7648984669
14350213900.0 0.6243006201 -0.7741875934
14400213600.0 0.6125128942 -0.783952506
14450213300.0 0.5994507326 -0.7938270852
14500213000.0 0.5865662784 -0.8041857037
14550212700.0 0.5740201439 -0.8134905866
14600212400.0 0.5614519272 -0.8221998038
14650212100.0 0.5484825347 -0.8308142858
14700211800.0 0.5347063528 -0.8405748861
14750211500.0 0.5224770014 -0.8485266417
14800211200.0 0.5102406274 -0.8565967009
14850210900.0 0.4979357906 -0.8640117395
14900210600.0 0.4845820489 -0.8718879178
14950210300.0 0.471134593 -0.8794415014
15000210000.0 0.4583937991 -0.8863353891
15050209700.0 0.4458512254 -0.892808299
15100209400.0 0.4327613537 -0.8985594001
15150209100.0 0.4202321671 -0.9040097762
15200208800.0 0.4073636143 -0.9094430755
15250208500.0 0.3963132333 -0.9136345076
15300208200.0 0.3836650104 -0.9183540733
15350207900.0 0.370392752 -0.9242843487
15400207600.0 0.3555456063 -0.9285915838
15450207300.0 0.3412032115 -0.9335727284
15500207000.0 0.3265693962 -0.9384047589
15550206700.0 0.3108869141 -0.9435984654
15600206400.0 0.2952807327 -0.9481403782
15650206100.0 0.2799228586 -0.9528314265
15700205800.0 0.2657894361 -0.9556092176
15750205500.0 0.2515948272 -0.9593347744
15800205200.0 0.2369990652 -0.9628552515
15850204900.0 0.2224893779 -0.9662371389
15900204600.0 0.2076074331 -0.9697468741
15950204300.0 0.1939130101 -0.9729798588
16000204000.0 0.1796586096 -0.9754708289
16050203700.0 0.1646638592 -0.9780301979
16100203400.0 0.1508482028 -0.98033231
16150203100.0 0.1361515689 -0.9825463735
16200202800.0 0.1220473353 -0.9843376397
16250202500.0 0.1080807697 -0.9863541353
16300202200.0 0.0925422289 -0.9880035864
16350201900.0 0.0781157837 -0.9893555259
16400201600.0 0.0632828202 -0.9902949314
16450201300.0 0.0482172812 -0.9913248718
16500201000.0 0.0316275924 -0.9920912127
16550200700.0 0.0159309662 -0.9926049514
16600200400.0 2.4797e-05 -0.9928034737
16650200100.0 -0.0160890041 -0.9924852091
16700199800.0 -0.0326143978 -0.9923355085
16750199500.0 -0.0515155278 -0.9913967714
16800199200.0 -0.0677709231 -0.9904631576
16850198900.0 -0.082833403 -0.9891377619
16900198600.0 -0.0965004418 -0.9888321383
16950198300.0 -0.1100638751 -0.987122625
17000198000.0 -0.1232255166 -0.9859451454
17050197700.0 -0.1361209845 -0.9836027864
17100197400.0 -0.1493054253 -0.9818437579
17150197100.0 -0.1611739118 -0.9795379886
17200196800.0 -0.174979227 -0.9775118052
17250196500.0 -0.18759337 -0.9751282021
17300196200.0 -0.199611017 -0.972643687
17350195900.0 -0.2117061766 -0.9704175164
17400195600.0 -0.2239020755 -0.9678079513
17450195300.0 -0.2369687834 -0.9650546003
17500195000.0 -0.2504702574 -0.9616663427
17550194700.0 -0.2644770507 -0.9583018261
17600194400.0 -0.2782681724 -0.9541803887
17650194100.0 -0.291626677 -0.9499964738
17700193800.0 -0.3046813311 -0.9458389998
17750193500.0 -0.3191568372 -0.9411453963
17800193200.0 -0.3336488047 -0.9361126775
17850192900.0 -0.3481899667 -0.9308879566
17900192600.0 -0.3637817927 -0.9249991922
17950192300.0 -0.3789975836 -0.9177851044
18000192000.0 -0.393704155 -0.9106389606
18050191700.0 -0.4069810859 -0.902586252
18100191400.0 -0.4213087598 -0.8948379596
18150191100.0 -0.436133452 -0.8868905521
18200190800.0 -0.452994188 -0.8779146039
18250190500.0 -0.4698699522 -0.8683643872
18300190200.0 -0.4851762829 -0.8596772562
18350189900.0 -0.5000959855 -0.8511099548
18400189600.0 -0.5147476735 -0.8425894945
18450189300.0 -0.5274316397 -0.8349833417
18500189000.0 -0.5407996736 -0.8265652889
18550188700.0 -0.5539859829 -0.8187558666
18600188400.0 -0.5655798268 -0.8123711238
18650188100.0 -0.576939341 -0.8053876094
18700187800.0 -0.5879599809 -0.7985764711
18750187500.0 -0.598402701 -0.7919186425
18800187200.0 -0.6093425504 -0.7845861564
18850186900.0 -0.6196412102 -0.7777011243
18900186600.0 -0.6300572545 -0.7700456381
18950186300.0 -0.6403461998 -0.7622636993
19000186000.0 -0.6477928073 -0.7560462749
19050185700.0 -0.6571604987 -0.7481139694
19100185400.0 -0.6671509574 -0.7400326442
19150185100.0 -0.6773855857 -0.7314057088
19200184800.0 -0.6875477419 -0.7230880977
19250184500.0 -0.6975053642 -0.7137432149
19300184200.0 -0.7092479177 -0.704630631
19350183900.0 -0.7199594005 -0.6948410025
19400183600.0 -0.7297243452 -0.6840941011
19450183300.0 -0.7383606999 -0.6741483874
19500183000.0 -0.7464492579 -0.6644996168
19550182700.0 -0.7561643355 -0.6541185011
19600182400.0 -0.7662171433 -0.6421060294
19650182100.0 -0.7767066052 -0.6299663148
19700181800.0 -0.7872343502 -0.6168955667
19750181500.0 -0.7977265636 -0.6029152213
19800181200.0 -0.8079395091 -0.5880546862
19850180900.0 -0.8175474988 -0.5731156225
19900180600.0 -0.8250979496 -0.558580457
19950180300.0 -0.8341784866 -0.5425534517
20000180000.0 -0.8276639111 -0.5445756534
20050179700.0 -0.8356935885 -0.5314676272
20100179400.0 -0.8437777251 -0.5181127131
20150179100.0 -0.851400198 -0.5055250661
20200178800.0 -0.8609455391 -0.4923347187
20250178500.0 -0.8698284332 -0.4786469182
20300178200.0 -0.8798009236 -0.4643732143
20350177900.0 -0.8883667321 -0.4504756436
20400177600.0 -0.8968819409 -0.4358528164
20450177300.0 -0.9050100911 -0.4212817118
20500177000.0 -0.9129615543 -0.4071214626
20550176700.0 -0.9209040756 -0.3936384857
20600176400.0 -0.9277209209 -0.3806000933
20650176100.0 -0.934419392 -0.3678808752
20700175800.0 -0.9421556535 -0.354996673
20750175500.0 -0.9484488441 -0.343976301
20800175200.0 -0.9522986694 -0.332807803
20850174900.0 -0.9587925798 -0.3218703705
20900174600.0 -0.9620615173 -0.3098264332
20950174300.0 -0.9664388174 -0.298657977
21000174000.0 -0.9703212984 -0.286211464
21050173700.0 -0.9729092313 -0.275286785
21100173400.0 -0.977407033 -0.263779443
21150173100.0 -0.9811415858 -0.2506718066
21200172800.0 -0.9851516368 -0.2369182527
21250172500.0 -0.9882518107 -0.2232198034
21300172200.0 -0.9905269115 -0.2092688609
21350171900.0 -0.9922013543 -0.1947512974
21400171600.0 -0.9934586224 -0.1805561399
21450171300.0 -0.993953059 -0.1660978927
21500171000.0 -0.9934076071 -0.1510126
21550170700.0 -0.9934315335 -0.1359519408
21600170400.0 -0.9940706506 -0.1203151239
21650170100.0 -0.9921970438 -0.1030968053
21700169800.0 -0.9907700352 -0.0887272361
21750169500.0 -0.9894341144 -0.0726288155
21800169200.0 -0.9888555766 -0.0570208513
21850168900.0 -0.9869408585 -0.0409371572
21900168600.0 -0.9854921323 -0.0243167423
21950168300.0 -0.9843332002 -0.0080003058
22000168000.0 -0.9827490755 0.0061355582
22050167700.0 -0.9829755538 0.0203255318
22100167400.0 -0.9825150824 0.0357877978
22150167100.0 -0.9831557241 0.0510221503
22200166800.0 -0.9832167391 0.0669198102
22250166500.0 -0.9831515013 0.0842153301
22300166200.0 -0.9817926602 0.1005192663
22350165900.0 -0.9804763995 0.1174860706
22400165600.0 -0.9797275723 0.132858379
22450165300.0 -0.9771453818 0.1477245683
22500165000.0 -0.9755237005 0.1609957435
22550164700.0 -0.9729865677 0.1770300118
22600164400.0 -0.9718601718 0.1920328642
22650164100.0 -0.9697623531 0.2068072624
22700163800.0 -0.9683400224 0.2232361392
22750163500.0 -0.9653530007 0.2386657459
22800163200.0 -0.9627085186 0.2517276426
22850162900.0 -0.9597532196 0.2650039228
22900162600.0 -0.958535206 0.2785629306
22950162300.0 -0.9572689942 0.2912709903
23000162000.0 -0.9561755339 0.3029827876
23050161700.0 -0.953890577 0.3158757769
23100161400.0 -0.9519742728 0.3280886193
23150161100.0 -0.9489875918 0.3402589154
23200160800.0 -0.9459817365 0.3531358148
23250160500.0 -0.9431265322 0.3643772148
23300160200.0 -0.940941232 0.3770162486
23350159900.0 -0.937486914 0.3893307157
23400159600.0 -0.9327344341 0.4026048621
23450159300.0 -0.9274650975 0.4156639725
23500159000.0 -0.9231322649 0.4284046394
23550158700.0 -0.9185669077 0.4418993062
23600158400.0 -0.9131751613 0.4547055911
23650158100.0 -0.9066220443 0.4687100424
23700157800.0 -0.8992512613 0.4824016684
23750157500.0 -0.8909139323 0.4961939949
23800157200.0 -0.8817774078 0.5094066394
23850156900.0 -0.872646095 0.5219631084
23900156600.0 -0.8634790588 0.5342523619
23950156300.0 -0.8545317116 0.5473690641
24000156000.0 -0.8453216889 0.559686369
24050155700.0 -0.8352456241 0.5709654813
24100155400.0 -0.8250872321 0.583473936
24150155100.0 -0.8145109533 0.594352621
24200154800.0 -0.8029538487 0.6058304113
24250154500.0 -0.7918218412 0.6175014582
24300154200.0 -0.7808844479 0.6290492031
24350153900.0 -0.7688674813 0.6396404202
24400153600.0 -0.756814415 0.6500069209
24450153300.0 -0.7450886556 0.6600725531
24500153000.0 -0.7332382138 0.6698306625
24550152700.0 -0.7219231606 0.6795934376
24600152400.0 -0.7109145164 0.6887593704
24650152100.0 -0.6992307319 0.6977184953
