!Created with skrf (http://scikit-rf.org).
# Hz S RI R 50.0 
!freq ReS11 ImS11
300000.0 -0.9728866512 -0.1212146685
50299700.0 -0.999959258 0.0151018763
100299400.0 -0.9981245785 0.0278968028
150299100.0 -1.002891694 0.044728458
200298800.0 -0.9996330525 0.0581788055
250298500.0 -0.9973773319 0.0716900367
300298200.0 -0.9858308703 0.0876107607
350297900.0 -0.9940451673 0.098482429
400297600.0 -0.9931550028 0.1149732642
450297300.0 -0.9908297038 0.1287547061
500297000.0 -0.9894012524 0.1434861515
550296700.0 -0.9843124046 0.1559396073
600296400.0 -1.017160875 0.1890083294
650296100.0 -0.9822123752 0.1858141716
700295800.0 -0.979400196 0.2001570183
750295500.0 -0.9760542713 0.2138750576
800295200.0 -0.972844125 0.2280172162
850294900.0 -0.9695354427 0.2418455413
900294600.0 -0.9658359193 0.2556726117
950294300.0 -0.9619737442 0.2691981073
1000294000.0 -0.9581959718 0.2834132947
1050293700.0 -0.9535230062 0.2971453796
1100293400.0 -0.9495441304 0.3115440386
1150293100.0 -0.9455605377 0.3233210779
1200292800.0 -0.9401111833 0.3378672266
1250292500.0 -0.934491357 0.3511655732
1300292200.0 -0.9290698149 0.3644208905
1350291900.0 -0.9234326044 0.3783455769
1400291600.0 -0.9178778381 0.3914867119
1450291300.0 -0.9126102155 0.4041213269
1500291000.0 -0.9063742976 0.4174174081
1550290700.0 -0.8997085124 0.4306560981
1600290400.0 -0.8935400205 0.4434242765
1650290100.0 -0.8869448549 0.4558168153
1700289800.0 -0.8799109439 0.4692492949
1750289500.0 -0.8728727005 0.4815144629
1800289200.0 -0.8655862925 0.4944224312
1850288900.0 -0.8585318553 0.5057254661
1900288600.0 -0.8508834906 0.5187802076
1950288300.0 -0.8428134048 0.5314147856
2000288000.0 -0.835437717 0.5427927988
2050287700.0 -0.8272847523 0.5551532055
2100287400.0 -0.8193615266 0.5665932661
2150287100.0 -0.8109239252 0.5785957455
2200286800.0 -0.803005274 0.5890608807
2250286500.0 -0.7941083589 0.6012421757
2300286200.0 -0.7853719739 0.6129325081
2350285900.0 -0.7769918137 0.6235425682
2400285600.0 -0.7679119377 0.6345458478
2450285300.0 -0.7590703558 0.6450219318
2500285000.0 -0.7492264775 0.6566727612
2550284700.0 -0.7401223222 0.6669483022
2600284400.0 -0.7309014846 0.6767337331
2650284100.0 -0.7225778112 0.6872928986
2700283800.0 -0.7118390033 0.697437652
2750283500.0 -0.701445302 0.708293735
2800283200.0 -0.6913899151 0.7180279084
2850282900.0 -0.6811871316 0.7280662941
2900282600.0 -0.6707728517 0.7377833223
2950282300.0 -0.6603137034 0.7472364204
3000282000.0 -0.649761875 0.7566250599
3050281700.0 -0.63828091 0.7661321307
3100281400.0 -0.6268466894 0.7749088911
3150281100.0 -0.6153931888 0.7841395303
3200280800.0 -0.6039767771 0.7923123612
3250280500.0 -0.5929415711 0.8004182137
3300280200.0 -0.5814294346 0.8084891767
3350279900.0 -0.5693805371 0.8164618745
3400279600.0 -0.5567346207 0.8246021313
3450279300.0 -0.545764776 0.8316601758
3500279000.0 -0.5339759332 0.8384839864
3550278700.0 -0.5215975981 0.8455464766
3600278400.0 -0.5098608076 0.8523955851
3650278100.0 -0.4970278541 0.860062758
3700277800.0 -0.484593407 0.8665343711
3750277500.0 -0.4723474658 0.8733608074
3800277200.0 -0.4599824816 0.8797790601
3850276900.0 -0.4478296629 0.885605555
3900276600.0 -0.4368448861 0.8911843341
3950276300.0 -0.4248350187 0.8972320333
4000276000.0 -0.4129415826 0.9033203272
4050275700.0 -0.4003413547 0.9089111289
4100275400.0 -0.3892083999 0.9146034786
4150275100.0 -0.3761892184 0.9205394694
4200274800.0 -0.3626728751 0.9261139412
4250274500.0 -0.3501088232 0.9314987575
4300274200.0 -0.3370179732 0.9364359581
4350273900.0 -0.3226210614 0.9419500213
4400273600.0 -0.3078212422 0.9470986101
4450273300.0 -0.2929287984 0.9521196107
4500273000.0 -0.279954154 0.9563469148
4550272700.0 -0.2660991681 0.9606435273
4600272400.0 -0.2509109264 0.9645849385
4650272100.0 -0.2396618236 0.9678269862
4700271800.0 -0.2266615662 0.9711890713
4750271500.0 -0.2149864505 0.9739541899
4800271200.0 -0.2027183065 0.9768386864
4850270900.0 -0.1889942779 0.9795752772
4900270600.0 -0.175137538 0.9818572745
4950270300.0 -0.1605867277 0.9847461281
5000270000.0 -0.146289354 0.986713433
5050269700.0 -0.1326670888 0.9883345317
5100269400.0 -0.1185869606 0.9901971563
5150269100.0 -0.1046215612 0.991887786
5200268800.0 -0.0913821045 0.9929280116
5250268500.0 -0.0781677693 0.9940129129
5300268200.0 -0.0647063129 0.9947447096
5350267900.0 -0.0516941531 0.9951290646
5400267600.0 -0.0356978032 0.9963484041
5450267300.0 -0.0221869986 0.9966038103
5500267000.0 -0.0070727939 0.9969373933
5550266700.0 0.0079410497 0.9972551793
5600266400.0 0.0236526725 0.9970593989
5650266100.0 0.0404053727 0.9969183453
5700265800.0 0.0545196369 0.995870417
5750265500.0 0.0696591468 0.995306873
5800265200.0 0.0831908944 0.9941115656
5850264900.0 0.0965828471 0.9932841278
5900264600.0 0.1127890964 0.9912688158
5950264300.0 0.1243311898 0.9898140642
6000264000.0 0.1378827837 0.9875528378
6050263700.0 0.1499641412 0.9867138485
6100263400.0 0.1620263228 0.9848093156
6150263100.0 0.1767695469 0.9825074688
6200262800.0 0.1864985218 0.9808441718
6250262500.0 0.1991564407 0.9786186367
6300262200.0 0.2112592122 0.9760919843
6350261900.0 0.2241729257 0.9731737063
6400261600.0 0.2379659087 0.9700475951
6450261300.0 0.2490532439 0.9676952991
6500261000.0 0.262251115 0.9640354416
6550260700.0 0.2753858678 0.9600751201
6600260400.0 0.2887397566 0.9557871634
6650260100.0 0.3032997358 0.9516832309
6700259800.0 0.3149950265 0.9471638892
6750259500.0 0.3285427716 0.9421008834
6800259200.0 0.3420906524 0.9372351866
6850258900.0 0.3547523309 0.9318948733
6900258600.0 0.3670890499 0.9268331553
6950258300.0 0.3795732341 0.9214876094
7000258000.0 0.3914111213 0.9161020088
7050257700.0 0.4032511421 0.9103575253
7100257400.0 0.4167477012 0.9040581734
7150257100.0 0.4273567632 0.8984636486
7200256800.0 0.4405103601 0.8919988415
7250256500.0 0.4527809245 0.8855400032
7300256200.0 0.4661858834 0.8785555592
7350255900.0 0.4788114915 0.8719003719
7400255600.0 0.4929982076 0.8642107301
7450255300.0 0.5086985196 0.8552772787
7500255000.0 0.5209577024 0.8471986311
7550254700.0 0.5349403101 0.8384970965
7600254400.0 0.547557644 0.8300550214
7650254100.0 0.5593180862 0.8222499588
7700253800.0 0.5709340942 0.8142927863
7750253500.0 0.5815594331 0.8066352167
7800253200.0 0.5921821246 0.7987224384
7850252900.0 0.6018560793 0.7916827086
7900252600.0 0.6134540029 0.7828686552
7950252300.0 0.6220437265 0.7765389473
8000252000.0 0.631917396 0.7689287189
8050251700.0 0.642102937 0.7608585112
8100251400.0 0.6522416354 0.7527903632
8150251100.0 0.662313971 0.7443112753
8200250800.0 0.6715619919 0.7360329396
8250250500.0 0.6806451138 0.7282022086
8300250200.0 0.6894281393 0.7198431733
8350249900.0 0.6985368162 0.7110404757
8400249600.0 0.7068366582 0.7031110176
8450249300.0 0.7155665068 0.6942182849
8500249000.0 0.7243369303 0.6853985099
8550248700.0 0.7325820273 0.6762355451
8600248400.0 0.7410971161 0.6669295579
8650248100.0 0.7486905753 0.6576263274
8700247800.0 0.7581262054 0.6462929676
8750247500.0 0.7660021254 0.6364299322
8800247200.0 0.7739913094 0.6262349894
8850246900.0 0.7829605985 0.6145413096
8900246600.0 0.7910955746 0.6033471436
8950246300.0 0.8006147147 0.5904371951
9000246000.0 0.8090419778 0.5784568274
9050245700.0 0.8178144764 0.5660765039
9100245400.0 0.8263110982 0.5541724912
9150245100.0 0.8351508718 0.5409200275
9200244800.0 0.8443244791 0.5265913923
9250244500.0 0.8537539742 0.5117388879
9300244200.0 0.86191308 0.498401657
9350243900.0 0.869459644 0.4847631156
9400243600.0 0.8758615296 0.4732944711
9450243300.0 0.8814574135 0.4626796739
9500243000.0 0.8878947246 0.4508157214
9550242700.0 0.8919992463 0.4433175787
9600242400.0 0.8961376262 0.4357482099
9650242100.0 0.9002131362 0.4286818522
9700241800.0 0.9049864225 0.4203509172
9750241500.0 0.909096609 0.412677019
9800241200.0 0.91435997 0.4030972223
9850240900.0 0.920045519 0.3913959931
9900240600.0 0.9257904304 0.37944564
9950240300.0 0.9330644176 0.3630084704
10000240000.0 0.9380179084 0.3510215795
10050239700.0 0.9440367225 0.3348330335
10100239400.0 0.949348859 0.3185096397
10150239100.0 0.9538727061 0.3029977826
10200238800.0 0.958234966 0.2876967662
10250238500.0 0.9614469085 0.274114218
10300238200.0 0.9646338257 0.2602339131
10350237900.0 0.9674249908 0.2468078432
10400237600.0 0.9700117842 0.233115207
10450237300.0 0.9727878817 0.2196351779
10500237000.0 0.974816092 0.2074614657
10550236700.0 0.977242354 0.1930336405
10600236400.0 0.9794022016 0.1795010977
10650236100.0 0.9810781082 0.1646546911
10700235800.0 0.9838269339 0.1523402804
10750235500.0 0.9857926064 0.1390367642
10800235200.0 0.9882296951 0.1240160498
10850234900.0 0.9899667312 0.1095692349
10900234600.0 0.991930602 0.0945493413
10950234300.0 0.9936930546 0.0811282504
11000234000.0 0.9955118066 0.065682408
11050233700.0 0.9973450343 0.0489927968
11100233400.0 0.9989004345 0.0312327401
11150233100.0 0.9999552111 0.0144696344
11200232800.0 1.000748522 -0.0011984409
11250232500.0 1.001664711 -0.0190060392
11300232200.0 1.002318994 -0.0372098633
11350231900.0 1.001957217 -0.0534404784
11400231600.0 1.001381176 -0.0694590705
11450231300.0 1.000886002 -0.0840649479
11500231000.0 0.9996225586 -0.1011894653
11550230700.0 0.9982631197 -0.1146619102
11600230400.0 0.9971077687 -0.1275464303
11650230100.0 0.994433105 -0.1386561586
11700229800.0 0.9924957813 -0.1539226009
11750229500.0 0.9903309362 -0.1681672049
11800229200.0 0.9873250182 -0.1812377322
11850228900.0 0.983728018 -0.1930284495
11900228600.0 0.9802653986 -0.2025800067
11950228300.0 0.9766060662 -0.2129168123
12000228000.0 0.9736928458 -0.2218191376
12050227700.0 0.9702499393 -0.2341554894
12100227400.0 0.9665694727 -0.2454777513
12150227100.0 0.9622708999 -0.2616898385
12200226800.0 0.9587831944 -0.2722794984
12250226500.0 0.9542996209 -0.2859549801
12300226200.0 0.9491973488 -0.2981660013
12350225900.0 0.9445193737 -0.3116648245
12400225600.0 0.9400851749 -0.324414911
12450225300.0 0.9356210243 -0.3367334256
12500225000.0 0.9305817678 -0.3514623623
12550224700.0 0.9249574177 -0.3657028064
12600224400.0 0.9200937073 -0.3778713076
12650224100.0 0.9143693734 -0.392338842
12700223800.0 0.9090158392 -0.405105607
12750223500.0 0.903522385 -0.4183217599
12800223200.0 0.8984635822 -0.4307921389
12850222900.0 0.8932015605 -0.4428490161
12900222600.0 0.8872381762 -0.4547591738
12950222300.0 0.8810125086 -0.4675539267
13000222000.0 0.8754459001 -0.478731135
13050221700.0 0.8681945793 -0.4922592337
13100221400.0 0.8616856546 -0.5042432765
13150221100.0 0.8548461519 -0.5162646577
13200220800.0 0.8478312658 -0.5278510431
13250220500.0 0.8405700665 -0.5399950419
13300220200.0 0.8329860434 -0.5509030013
13350219900.0 0.8249564534 -0.5628698496
13400219600.0 0.8164249823 -0.5747260879
13450219300.0 0.8073278212 -0.5876901311
13500219000.0 0.797319935 -0.6008445978
13550218700.0 0.7876411314 -0.6137373778
13600218400.0 0.7768455425 -0.625236671
13650218100.0 0.7680755328 -0.6362340602
13700217800.0 0.7573632049 -0.6481696754
13750217500.0 0.7470560738 -0.6594578204
13800217200.0 0.7367650333 -0.6704273501
13850216900.0 0.7258787175 -0.6811281506
13900216600.0 0.7163581699 -0.6903709859
13950216300.0 0.7047063793 -0.7007094257
14000216000.0 0.6951156901 -0.709326303
14050215700.0 0.6863552748 -0.7174569447
14100215400.0 0.6766841444 -0.7260898114
14150215100.0 0.6675330628 -0.7351745931
14200214800.0 0.6580705908 -0.7441806795
14250214500.0 0.647683583 -0.753528139
14300214200.0 0.6371322528 -0.7629612655
14350213900.0 0.625894263 -0.7724721728
14400213600.0 0.6141919958 -0.7822483364
14450213300.0 0.6012707745 -0.7925030086
14500213000.0 0.5879236418 -0.8027652364
14550212700.0 0.5758474009 -0.8116919298
14600212400.0 0.5633830268 -0.8204531351
14650212100.0 0.551402042 -0.8291241546
14700211800.0 0.536888677 -0.8388449598
14750211500.0 0.5249344746 -0.8470797784
14800211200.0 0.5123680157 -0.8556246513
14850210900.0 0.5001821424 -0.8631526799
14900210600.0 0.4868029951 -0.8710877612
14950210300.0 0.4735513261 -0.8785658592
15000210000.0 0.4610973292 -0.8854585965
15050209700.0 0.4483744256 -0.8913222921
15100209400.0 0.4358257271 -0.8975569009
15150209100.0 0.4239275693 -0.9028882381
15200208800.0 0.4107251095 -0.9080217333
15250208500.0 0.3995383948 -0.9126050004
15300208200.0 0.3875809725 -0.9173287782
15350207900.0 0.3739032659 -0.9218187369
15400207600.0 0.3595864957 -0.9275754397
15450207300.0 0.3448161493 -0.9326000483
15500207000.0 0.3303407522 -0.9373156033
15550206700.0 0.3154589434 -0.9424677474
15600206400.0 0.2995200789 -0.9469158251
15650206100.0 0.284094517 -0.9510866598
15700205800.0 0.270473777 -0.9542300632
15750205500.0 0.2562673795 -0.957907626
15800205200.0 0.2420548791 -0.961246979
15850204900.0 0.2280495998 -0.9647299979
15900204600.0 0.2131614705 -0.9683464061
15950204300.0 0.1988985413 -0.9716368964
16000204000.0 0.1841765585 -0.9742280612
16050203700.0 0.1691773767 -0.9771654816
16100203400.0 0.1540812573 -0.9798764842
16150203100.0 0.1395903927 -0.9821346846
16200202800.0 0.1254617527 -0.9841989296
16250202500.0 0.1106197161 -0.9858828354
16300202200.0 0.0949322739 -0.9873198966
16350201900.0 0.0800222654 -0.9890643825
16400201600.0 0.0654551308 -0.9900789603
16450201300.0 0.0498149611 -0.9913064168
16500201000.0 0.0328148238 -0.9919972879
16550200700.0 0.016853536 -0.9925782192
16600200400.0 0.0008831887 -0.9928486185
16650200100.0 -0.0152688002 -0.9926398719
16700199800.0 -0.0318140196 -0.9919788368
16750199500.0 -0.050562992 -0.9913162
16800199200.0 -0.0666022299 -0.9905680039
16850198900.0 -0.082166403 -0.9894893762
16900198600.0 -0.0966256629 -0.9886228927
16950198300.0 -0.1097231003 -0.9871252665
17000198000.0 -0.1228154837 -0.9858785974
17050197700.0 -0.1354613578 -0.9833324376
17100197400.0 -0.1483756965 -0.9822602999
17150197100.0 -0.1617951285 -0.9800049719
17200196800.0 -0.1741660017 -0.9777180259
17250196500.0 -0.1869409181 -0.975433777
17300196200.0 -0.1994351058 -0.9730487613
17350195900.0 -0.2111750967 -0.9707405858
17400195600.0 -0.2230944139 -0.968162222
17450195300.0 -0.2359019033 -0.9654844872
17500195000.0 -0.2493166959 -0.962289874
17550194700.0 -0.2627708823 -0.9585619748
17600194400.0 -0.2768594414 -0.9550686119
17650194100.0 -0.2902980185 -0.9502180301
17700193800.0 -0.30302367 -0.9460133434
17750193500.0 -0.3175792848 -0.9417845834
17800193200.0 -0.332023359 -0.9366809069
17850192900.0 -0.3467438772 -0.9311960204
17900192600.0 -0.3615829699 -0.9250146314
17950192300.0 -0.377029261 -0.9175904099
18000192000.0 -0.3919052743 -0.9107987657
18050191700.0 -0.4058238969 -0.9028678085
18100191400.0 -0.4199849684 -0.8950855251
18150191100.0 -0.4348675492 -0.8871584435
18200190800.0 -0.4516234499 -0.8780624543
18250190500.0 -0.4686442053 -0.8686436463
18300190200.0 -0.4841018776 -0.8599172501
18350189900.0 -0.4992925333 -0.8514564531
18400189600.0 -0.5136306854 -0.8428638081
18450189300.0 -0.5274338697 -0.8347626604
18500189000.0 -0.5407452093 -0.8270167157
18550188700.0 -0.5537574182 -0.818918899
18600188400.0 -0.5655731359 -0.8123078009
18650188100.0 -0.576749759 -0.8058294745
18700187800.0 -0.5878343646 -0.7989380156
18750187500.0 -0.5982621825 -0.7924596065
18800187200.0 -0.6092324014 -0.7854520766
18850186900.0 -0.6193835051 -0.7784551358
18900186600.0 -0.6297636752 -0.7711698241
18950186300.0 -0.6398225967 -0.7635879479
19000186000.0 -0.6472648486 -0.7573954752
19050185700.0 -0.6565923386 -0.7498778958
19100185400.0 -0.6662619684 -0.7414766186
19150185100.0 -0.6764266972 -0.7335693006
19200184800.0 -0.6859628526 -0.7251614325
19250184500.0 -0.696537993 -0.7165750979
19300184200.0 -0.7079469655 -0.7064440904
19350183900.0 -0.7189797907 -0.6964201657
19400183600.0 -0.7281215967 -0.6865404784
19450183300.0 -0.7370488194 -0.676744841
19500183000.0 -0.7458013067 -0.6672958777
19550182700.0 -0.755429672 -0.6559690989
19600182400.0 -0.7652455404 -0.6440093637
19650182100.0 -0.7761384558 -0.631846335
19700181800.0 -0.7865568446 -0.6185602688
19750181500.0 -0.7971071268 -0.6045896835
19800181200.0 -0.8071273994 -0.589677136
19850180900.0 -0.8166417024 -0.5743524563
19900180600.0 -0.8243211236 -0.5598597994
19950180300.0 -0.8334803759 -0.5434372446
20000180000.0 -0.8230664574 -0.5466061365
20050179700.0 -0.8308038086 -0.5345806549
20100179400.0 -0.8401906336 -0.5219768556
20150179100.0 -0.8480357265 -0.5088837518
20200178800.0 -0.8565936998 -0.4979765866
20250178500.0 -0.865730653 -0.4847902465
20300178200.0 -0.87593481 -0.4711379415
20350177900.0 -0.8846875355 -0.4572385089
20400177600.0 -0.8939725616 -0.4431514077
20450177300.0 -0.9024647637 -0.4288486182
20500177000.0 -0.910238078 -0.414743868
20550176700.0 -0.918111908 -0.4012908791
20600176400.0 -0.9254879207 -0.3881484925
20650176100.0 -0.9316600445 -0.3760870662
20700175800.0 -0.9393895708 -0.3641803664
20750175500.0 -0.9448431926 -0.3525038252
20800175200.0 -0.9498666437 -0.3419815798
20850174900.0 -0.9540278514 -0.3311456575
20900174600.0 -0.9579300013 -0.3194306656
20950174300.0 -0.9620460148 -0.3091728174
21000174000.0 -0.9643156551 -0.2986340622
21050173700.0 -0.9669527726 -0.2887418442
21100173400.0 -0.9698146436 -0.2783159169
21150173100.0 -0.9735166028 -0.2658234125
21200172800.0 -0.9778115515 -0.2523668216
21250172500.0 -0.9812091995 -0.2390401911
21300172200.0 -0.9847303461 -0.2252126315
21350171900.0 -0.9860905574 -0.2101482035
21400171600.0 -0.9889125956 -0.1969958128
21450171300.0 -0.9892466015 -0.1813306789
21500171000.0 -0.9896247627 -0.1668928804
21550170700.0 -0.989646958 -0.1518628327
21600170400.0 -0.990747693 -0.136136444
21650170100.0 -0.9910656703 -0.1211808199
21700169800.0 -0.9905684878 -0.1061860313
21750169500.0 -0.9901627879 -0.0893624589
21800169200.0 -0.9895439983 -0.0728840535
21850168900.0 -0.9898520656 -0.0563845835
21900168600.0 -0.9893811236 -0.0390004311
21950168300.0 -0.988479583 -0.0239081231
22000168000.0 -0.9881954361 -0.0095802748
22050167700.0 -0.9892115709 0.0054150881
22100167400.0 -0.9895623266 0.0210685916
22150167100.0 -0.9902226965 0.0371844437
22200166800.0 -0.9912179441 0.0535969746
22250166500.0 -0.9907401004 0.0712359588
22300166200.0 -0.9899093366 0.0871114213
22350165900.0 -0.9895882718 0.1028748831
22400165600.0 -0.987024311 0.1187624026
22450165300.0 -0.9855846415 0.1339349133
22500165000.0 -0.9837548648 0.1491755718
22550164700.0 -0.9834978945 0.1652464213
22600164400.0 -0.9814780748 0.1805508372
22650164100.0 -0.9779051814 0.1964654531
22700163800.0 -0.9746091473 0.2124082628
22750163500.0 -0.9717215435 0.2272833165
22800163200.0 -0.9688686714 0.239758529
22850162900.0 -0.9663261285 0.2538187519
22900162600.0 -0.9645132751 0.2674716895
22950162300.0 -0.9626451795 0.2808793053
23000162000.0 -0.9607979719 0.2934839738
23050161700.0 -0.9584250975 0.3069881045
23100161400.0 -0.9552924835 0.3207989624
23150161100.0 -0.9522760159 0.333645383
23200160800.0 -0.9498315546 0.3462537688
23250160500.0 -0.9467687766 0.3583333075
23300160200.0 -0.944514466 0.370844344
23350159900.0 -0.9406182182 0.3843957072
23400159600.0 -0.935333697 0.3988016824
23450159300.0 -0.9299779523 0.4122087355
23500159000.0 -0.9250511995 0.4256983758
23550158700.0 -0.9199922326 0.4396893875
23600158400.0 -0.914100878 0.453801345
23650158100.0 -0.9071398361 0.4682563816
23700157800.0 -0.8987154664 0.4825538353
23750157500.0 -0.8893566411 0.4967275334
23800157200.0 -0.8800456 0.5105959916
23850156900.0 -0.8701032758 0.5236215831
23900156600.0 -0.860446626 0.5357442407
23950156300.0 -0.8499747503 0.5486613935
24000156000.0 -0.8412267513 0.56113523
24050155700.0 -0.8307436892 0.5728364733
24100155400.0 -0.8203838479 0.5852343577
24150155100.0 -0.8100251746 0.5975746511
24200154800.0 -0.79869079 0.6091087145
24250154500.0 -0.7868107319 0.6215672424
24300154200.0 -0.7752734726 0.6333656321
24350153900.0 -0.7638015048 0.6442880817
24400153600.0 -0.7515253435 0.6549491581
24450153300.0 -0.7393982572 0.6651713833
24500153000.0 -0.7275143654 0.675206349
24550152700.0 -0.7168972998 0.6850224464
24600152400.0 -0.7038483638 0.6944561746
24650152100.0 -0.6924136614 0.7034582873
