!Created with skrf (http://scikit-rf.org).
# Hz S RI R 50.0 
!freq ReS11 ImS11
300000.0 -0.9759344585 -0.118629696
50299700.0 -1.000079741 0.0153618814
100299400.0 -0.998055096 0.0282772463
150299100.0 -1.002682924 0.0451024923
200298800.0 -0.9996132819 0.0584535734
250298500.0 -0.9973797098 0.0720528569
300298200.0 -0.9860774236 0.0880191488
350297900.0 -0.9938404449 0.0985384843
400297600.0 -0.9930968544 0.1151641139
450297300.0 -0.9908983873 0.1290131622
500297000.0 -0.9896060833 0.1435149238
550296700.0 -0.9844836976 0.1560864833
600296400.0 -1.017180967 0.1897006149
650296100.0 -0.9821836018 0.1861871887
700295800.0 -0.9792473393 0.2004208434
750295500.0 -0.976280076 0.2143734899
800295200.0 -0.9730457092 0.2283205816
850294900.0 -0.9697636738 0.2422308361
900294600.0 -0.9659039336 0.2559405328
950294300.0 -0.9621980496 0.2698505177
1000294000.0 -0.95812961 0.2839365415
1050293700.0 -0.9536773598 0.2977096951
1100293400.0 -0.9492645561 0.3120103608
1150293100.0 -0.9455067528 0.323704126
1200292800.0 -0.9401251112 0.3381957734
1250292500.0 -0.9348115974 0.3515730499
1300292200.0 -0.9291524347 0.3648009905
1350291900.0 -0.9235711875 0.3788688554
1400291600.0 -0.9180551619 0.3919837444
1450291300.0 -0.9124731521 0.404367423
1500291000.0 -0.9062374256 0.4176034328
1550290700.0 -0.8995580713 0.4308819505
1600290400.0 -0.8933781768 0.4439400526
1650290100.0 -0.8866436023 0.4560894465
1700289800.0 -0.8797440523 0.4695832864
1750289500.0 -0.8727880714 0.4819308531
1800289200.0 -0.8652914695 0.494790019
1850288900.0 -0.8586785971 0.5061774808
1900288600.0 -0.850996993 0.5191944382
1950288300.0 -0.842783884 0.5316482382
2000288000.0 -0.8353531231 0.5430159957
2050287700.0 -0.827104374 0.5554489107
2100287400.0 -0.8191706909 0.5669442501
2150287100.0 -0.8106585039 0.5790645306
2200286800.0 -0.8029643913 0.5894610653
2250286500.0 -0.7940345463 0.6012766533
2300286200.0 -0.7852517438 0.6131814087
2350285900.0 -0.7764558921 0.6240744375
2400285600.0 -0.7674385972 0.6348619984
2450285300.0 -0.758840625 0.6452811568
2500285000.0 -0.7492492269 0.6566429176
2550284700.0 -0.7403097183 0.6670428618
2600284400.0 -0.730856412 0.6771982998
2650284100.0 -0.722040857 0.6875416601
2700283800.0 -0.7113736539 0.6978962892
2750283500.0 -0.7011034152 0.7084799516
2800283200.0 -0.6914216992 0.7185257154
2850282900.0 -0.6810951869 0.7281648547
2900282600.0 -0.6707026319 0.7380051392
2950282300.0 -0.6604555587 0.7472023957
3000282000.0 -0.6497394892 0.7567467592
3050281700.0 -0.6382174155 0.7658247821
3100281400.0 -0.6267575135 0.7753350986
3150281100.0 -0.6149663723 0.7846191469
3200280800.0 -0.6034416419 0.792996985
3250280500.0 -0.5924816882 0.8008772153
3300280200.0 -0.5812439188 0.8087118771
3350279900.0 -0.5697410833 0.8164529257
3400279600.0 -0.5573936318 0.8241708438
3450279300.0 -0.546438143 0.8312477401
3500279000.0 -0.534324183 0.8383760157
3550278700.0 -0.5221755947 0.8458868989
3600278400.0 -0.5098627864 0.8527150537
3650278100.0 -0.4963695244 0.8602612002
3700277800.0 -0.4843773528 0.8666624083
3750277500.0 -0.4723385848 0.8732597703
3800277200.0 -0.4597739653 0.879893077
3850276900.0 -0.4478102305 0.8857909054
3900276600.0 -0.436880342 0.8914665483
3950276300.0 -0.4242130101 0.8975468616
4000276000.0 -0.4127354161 0.9034390983
4050275700.0 -0.3995784676 0.9095525073
4100275400.0 -0.3882412687 0.9150363056
4150275100.0 -0.3757773365 0.9206005282
4200274800.0 -0.3628019487 0.9261214167
4250274500.0 -0.3506664781 0.9312420716
4300274200.0 -0.3375365677 0.9367452245
4350273900.0 -0.3236948559 0.9419286666
4400273600.0 -0.3089586949 0.947284348
4450273300.0 -0.2935536684 0.9523420628
4500273000.0 -0.2799042947 0.9566740692
4550272700.0 -0.2658516269 0.9609006247
4600272400.0 -0.2504486684 0.9651378741
4650272100.0 -0.2385748793 0.968180572
4700271800.0 -0.2253201558 0.9715670137
4750271500.0 -0.2137299077 0.974451009
4800271200.0 -0.2012217011 0.9772275746
4850270900.0 -0.1873759024 0.9799079262
4900270600.0 -0.1734009553 0.9823556109
4950270300.0 -0.1589010284 0.9849567099
5000270000.0 -0.1448986419 0.9872498866
5050269700.0 -0.131224049 0.9884309387
5100269400.0 -0.1177566376 0.990212443
5150269100.0 -0.1044657001 0.9920509915
5200268800.0 -0.0910371763 0.9928200501
5250268500.0 -0.0780315018 0.9938325033
5300268200.0 -0.0646550838 0.9948233698
5350267900.0 -0.0524445603 0.9954684558
5400267600.0 -0.0363089462 0.9963214696
5450267300.0 -0.0230341143 0.9968277447
5500267000.0 -0.0080112782 0.9971016847
5550266700.0 0.0070075456 0.9971857998
5600266400.0 0.0221950479 0.9973557439
5650266100.0 0.0389515118 0.9969452735
5700265800.0 0.0535694723 0.9962716085
5750265500.0 0.0686913169 0.995508823
5800265200.0 0.0824458136 0.9944040584
5850264900.0 0.0954494178 0.9929980977
5900264600.0 0.1124460197 0.9917930201
5950264300.0 0.1243648715 0.9906331661
6000264000.0 0.1382041446 0.988353255
6050263700.0 0.1505749485 0.9868099821
6100263400.0 0.1627757782 0.9849033662
6150263100.0 0.1776927011 0.9827697191
6200262800.0 0.1877753469 0.9810635889
6250262500.0 0.2005336682 0.9786634281
6300262200.0 0.2134064787 0.9757621558
6350261900.0 0.226393884 0.9728699021
6400261600.0 0.2403065155 0.9695507932
6450261300.0 0.251753883 0.9668662423
6500261000.0 0.26450761 0.9634228354
6550260700.0 0.2773518561 0.9594488643
6600260400.0 0.2906654725 0.9552267779
6650260100.0 0.3046405614 0.9507098232
6700259800.0 0.3167639968 0.9466234371
6750259500.0 0.3305586338 0.9418084941
6800259200.0 0.3435673735 0.9367709356
6850258900.0 0.3556815228 0.9315086898
6900258600.0 0.3680480512 0.9268614338
6950258300.0 0.3807832203 0.9212013576
7000258000.0 0.3924044084 0.916050148
7050257700.0 0.4048412228 0.909807698
7100257400.0 0.4174903434 0.9038108436
7150257100.0 0.4278932073 0.8982342752
7200256800.0 0.4406985648 0.8918829683
7250256500.0 0.4526648307 0.8856222579
7300256200.0 0.4657190473 0.8787411305
7350255900.0 0.4780179138 0.871921752
7400255600.0 0.4919269026 0.8648480491
7450255300.0 0.5069986502 0.8557236222
7500255000.0 0.5186727927 0.8488569353
7550254700.0 0.5326418047 0.8400618029
7600254400.0 0.5450562937 0.8319329073
7650254100.0 0.556679607 0.8241146076
7700253800.0 0.5685236035 0.8160299881
7750253500.0 0.5795754981 0.8083776709
7800253200.0 0.5902346721 0.8006975803
7850252900.0 0.6000710149 0.7935672883
7900252600.0 0.6115764325 0.7848445295
7950252300.0 0.6204248264 0.7782938567
8000252000.0 0.6306374466 0.7704149354
8050251700.0 0.641060757 0.7622951127
8100251400.0 0.6512329617 0.754244482
8150251100.0 0.661279103 0.745673669
8200250800.0 0.6707902432 0.7375379872
8250250500.0 0.6795674372 0.7298191853
8300250200.0 0.6889907893 0.7211830609
8350249900.0 0.6982305911 0.7122795537
8400249600.0 0.7061239425 0.7043721774
8450249300.0 0.7151748575 0.6950772101
8500249000.0 0.7241240216 0.6863035942
8550248700.0 0.7322827371 0.6771332792
8600248400.0 0.740669392 0.6676715907
8650248100.0 0.7483775483 0.6583152979
8700247800.0 0.7579582973 0.6469229701
8750247500.0 0.7664020786 0.6367940707
8800247200.0 0.7743736816 0.6264849518
8850246900.0 0.7833259754 0.6151826718
8900246600.0 0.7917003148 0.603834867
8950246300.0 0.8014264328 0.5906208681
9000246000.0 0.8106280918 0.5781193094
9050245700.0 0.8195554474 0.5653068126
9100245400.0 0.8283423001 0.5526818063
9150245100.0 0.8370341813 0.5392228909
9200244800.0 0.8470592787 0.5241540531
9250244500.0 0.8564725785 0.5088463329
9300244200.0 0.8649438282 0.4945682028
9350243900.0 0.872658087 0.4805309912
9400243600.0 0.8794029749 0.4682436308
9450243300.0 0.8851162151 0.4567333517
9500243000.0 0.891543904 0.4444738652
9550242700.0 0.8953278996 0.4369711762
9600242400.0 0.8992354467 0.4295212179
9650242100.0 0.9026496628 0.4230904246
9700241800.0 0.9075025397 0.4146866986
9750241500.0 0.9116691936 0.4071143869
9800241200.0 0.9161962124 0.3977017543
9850240900.0 0.9219013211 0.3861087888
9900240600.0 0.9275076227 0.3745269105
9950240300.0 0.9339818545 0.3585018
10000240000.0 0.9383052581 0.3473278711
10050239700.0 0.9441708645 0.3318456092
10100239400.0 0.9494623605 0.3161438669
10150239100.0 0.9538692928 0.3012275704
10200238800.0 0.9581279883 0.2863275926
10250238500.0 0.9615192819 0.2731039112
10300238200.0 0.9645619338 0.2589111337
10350237900.0 0.9671940998 0.2457693478
10400237600.0 0.9698633747 0.2327990446
10450237300.0 0.9725930119 0.2188949134
10500237000.0 0.9747630532 0.206331001
10550236700.0 0.9770569836 0.1926084705
10600236400.0 0.9792496824 0.1791675165
10650236100.0 0.9812171951 0.1645974816
10700235800.0 0.9833346647 0.1521177662
10750235500.0 0.98562472 0.1386329921
10800235200.0 0.987780747 0.1247489123
10850234900.0 0.9896662976 0.1098451224
10900234600.0 0.9916210048 0.0952596763
10950234300.0 0.9934807833 0.0821077911
11000234000.0 0.995207469 0.0669087592
11050233700.0 0.9969924379 0.0504838409
11100233400.0 0.9983673914 0.0332823045
11150233100.0 0.9994784784 0.0166831883
11200232800.0 0.9999872998 0.0019309289
11250232500.0 1.001346493 -0.0150337984
11300232200.0 1.00211386 -0.0332819895
11350231900.0 1.002034183 -0.048730238
11400231600.0 1.001675179 -0.0644102031
11450231300.0 1.000628993 -0.0792778963
11500231000.0 0.9999729769 -0.095403301
11550230700.0 0.9984769023 -0.1089674175
11600230400.0 0.9971741901 -0.1221749117
11650230100.0 0.9953455781 -0.1332858502
11700229800.0 0.993331174 -0.1476964102
11750229500.0 0.9911079201 -0.1622604325
11800229200.0 0.9883054924 -0.1759529003
11850228900.0 0.9847717564 -0.1881338154
11900228600.0 0.9811590991 -0.1979318328
11950228300.0 0.9781830725 -0.2083567096
12000228000.0 0.9751688357 -0.2173518319
12050227700.0 0.9712759615 -0.2306693644
12100227400.0 0.9684925539 -0.2412018436
12150227100.0 0.9630684644 -0.2578809461
12200226800.0 0.9597450383 -0.268313103
12250226500.0 0.9558122819 -0.2820495412
12300226200.0 0.9518318048 -0.2937112188
12350225900.0 0.9462293819 -0.3086704703
12400225600.0 0.9421072813 -0.321044872
12450225300.0 0.9374184372 -0.3337895216
12500225000.0 0.9323671434 -0.3484113942
12550224700.0 0.9269065835 -0.3621720731
12600224400.0 0.921976732 -0.3750160445
12650224100.0 0.9162265647 -0.3895131507
12700223800.0 0.9108335153 -0.4023274075
12750223500.0 0.9054061493 -0.415315843
12800223200.0 0.9002664424 -0.4279877139
12850222900.0 0.894643133 -0.4403000792
12900222600.0 0.8890415245 -0.4521524233
12950222300.0 0.8825540456 -0.4651042155
13000222000.0 0.8768068433 -0.476911876
13050221700.0 0.8702500532 -0.4893559966
13100221400.0 0.863128151 -0.5010606795
13150221100.0 0.856871186 -0.5130922399
13200220800.0 0.8495020377 -0.5250520952
13250220500.0 0.8425902706 -0.5370443396
13300220200.0 0.8350625023 -0.5477679993
13350219900.0 0.826970021 -0.559720332
13400219600.0 0.8186814078 -0.571785488
13450219300.0 0.809475523 -0.5853099501
13500219000.0 0.7995484769 -0.5988950784
13550218700.0 0.788954268 -0.6120884627
13600218400.0 0.7790371619 -0.623877054
13650218100.0 0.7694304235 -0.6348219206
13700217800.0 0.7586725033 -0.6476563427
13750217500.0 0.7488741407 -0.6584534362
13800217200.0 0.7377383345 -0.6703068128
13850216900.0 0.7269427567 -0.6812440178
13900216600.0 0.7163772237 -0.690548592
13950216300.0 0.7056677299 -0.7008025704
14000216000.0 0.6959049802 -0.7104631905
14050215700.0 0.6856483203 -0.7183868821
14100215400.0 0.676267743 -0.7276740264
14150215100.0 0.6669632847 -0.7359998209
14200214800.0 0.6576932059 -0.7448484729
14250214500.0 0.6474187851 -0.7542024057
14300214200.0 0.6368236686 -0.7635075303
14350213900.0 0.6257145649 -0.7729642963
14400213600.0 0.6139333035 -0.7828686991
14450213300.0 0.601023533 -0.7930323938
14500213000.0 0.5878675593 -0.8029096725
14550212700.0 0.5757059538 -0.8126789113
14600212400.0 0.5628609112 -0.8210179432
14650212100.0 0.5498478181 -0.8302296403
14700211800.0 0.5361925935 -0.8396445289
14750211500.0 0.5240346916 -0.8477178636
14800211200.0 0.5115914101 -0.8559328563
14850210900.0 0.4996970222 -0.8632945535
14900210600.0 0.486398485 -0.8712180331
14950210300.0 0.4728737669 -0.8787454282
15000210000.0 0.4602484323 -0.8856695604
15050209700.0 0.4478703999 -0.8917066599
15100209400.0 0.4347381947 -0.897962504
15150209100.0 0.422879461 -0.9030689228
15200208800.0 0.4098830034 -0.908556293
15250208500.0 0.3982094659 -0.9133310847
15300208200.0 0.3865174145 -0.9179250834
15350207900.0 0.373051739 -0.9226157609
15400207600.0 0.359305071 -0.9278156346
15450207300.0 0.3441647916 -0.9333268297
15500207000.0 0.3300349459 -0.9378652064
15550206700.0 0.3155469281 -0.9424091111
15600206400.0 0.2990250153 -0.9468080671
15650206100.0 0.2828941946 -0.9514833777
15700205800.0 0.2690971543 -0.9551741022
15750205500.0 0.2548710481 -0.9585296248
15800205200.0 0.2407310391 -0.9618493731
15850204900.0 0.226183407 -0.965613389
15900204600.0 0.2112048546 -0.9690626273
15950204300.0 0.1971082238 -0.9720973483
16000204000.0 0.1828578573 -0.9747186929
16050203700.0 0.1676392556 -0.9779317949
16100203400.0 0.1531337702 -0.9796120342
16150203100.0 0.1384889206 -0.9822979883
16200202800.0 0.1246822451 -0.9841623315
16250202500.0 0.1094917034 -0.9860289422
16300202200.0 0.0944356149 -0.9877581728
16350201900.0 0.0793689444 -0.9892493332
16400201600.0 0.0648169628 -0.9901301763
16450201300.0 0.0495568371 -0.9914082321
16500201000.0 0.0327748185 -0.9922532288
16550200700.0 0.017277966 -0.9927045959
16600200400.0 0.0015785449 -0.9929238821
16650200100.0 -0.0144580838 -0.9927803366
16700199800.0 -0.0310783998 -0.9925844936
16750199500.0 -0.049681341 -0.9920409251
16800199200.0 -0.0651953663 -0.9905180484
16850198900.0 -0.0807483276 -0.9899345818
16900198600.0 -0.0950808999 -0.9886446649
16950198300.0 -0.1082005465 -0.9873534206
17000198000.0 -0.1206770336 -0.985962346
17050197700.0 -0.13306786 -0.9842034268
17100197400.0 -0.1463906269 -0.9823003786
17150197100.0 -0.1586474484 -0.9806084573
17200196800.0 -0.1714894214 -0.9781050002
17250196500.0 -0.1844646792 -0.9758936819
17300196200.0 -0.196675477 -0.97364048
17350195900.0 -0.2086736808 -0.9711554958
17400195600.0 -0.2208540877 -0.9686568012
17450195300.0 -0.2339451951 -0.9659263088
17500195000.0 -0.2472696897 -0.9625733875
17550194700.0 -0.2614511584 -0.9587768712
17600194400.0 -0.2750016263 -0.9550565452
17650194100.0 -0.2888641739 -0.950670336
17700193800.0 -0.302357813 -0.9467594168
17750193500.0 -0.3161589927 -0.9422131768
17800193200.0 -0.3308018889 -0.9373775314
17850192900.0 -0.3460254636 -0.9316490093
17900192600.0 -0.3612684151 -0.9256802026
17950192300.0 -0.3765630348 -0.9186731368
18000192000.0 -0.391283269 -0.911363454
18050191700.0 -0.4052242925 -0.9034252914
18100191400.0 -0.4195658188 -0.895868123
18150191100.0 -0.4343935766 -0.8878652358
18200190800.0 -0.4514505309 -0.878647511
18250190500.0 -0.4682854308 -0.8690768524
18300190200.0 -0.4838980561 -0.860204683
18350189900.0 -0.4986267131 -0.8519783466
18400189600.0 -0.51327848 -0.8434740614
18450189300.0 -0.526352154 -0.8359326151
18500189000.0 -0.5398848783 -0.8276961807
18550188700.0 -0.5525887698 -0.8202810226
18600188400.0 -0.5643788515 -0.8136733399
18650188100.0 -0.5755676134 -0.8072050571
18700187800.0 -0.5861102127 -0.8008001932
18750187500.0 -0.5967907209 -0.7941191904
18800187200.0 -0.6073119746 -0.7869674877
18850186900.0 -0.6174989135 -0.7800826448
18900186600.0 -0.6277612473 -0.7727779739
18950186300.0 -0.6374679194 -0.7652428297
19000186000.0 -0.644728051 -0.7589125337
19050185700.0 -0.654133308 -0.7517869815
19100185400.0 -0.6638223497 -0.7438909169
19150185100.0 -0.6743514171 -0.7344461917
19200184800.0 -0.6836876084 -0.7264745452
19250184500.0 -0.6938336314 -0.717075701
19300184200.0 -0.7052136833 -0.7076619179
19350183900.0 -0.716120106 -0.6980472529
19400183600.0 -0.725809144 -0.6881205034
19450183300.0 -0.7349629473 -0.6783547518
19500183000.0 -0.7425290763 -0.6682755488
19550182700.0 -0.752693981 -0.6576863379
19600182400.0 -0.763392961 -0.6458362849
19650182100.0 -0.7741316092 -0.6329947064
19700181800.0 -0.7845248129 -0.6202210862
19750181500.0 -0.7953328585 -0.6059225609
19800181200.0 -0.8056678735 -0.5910285885
19850180900.0 -0.8155507508 -0.5757753378
19900180600.0 -0.8231955565 -0.5612969852
19950180300.0 -0.8327338345 -0.544791919
20000180000.0 -0.8259366675 -0.5470681565
20050179700.0 -0.8342449935 -0.5341201348
20100179400.0 -0.8412634307 -0.5206407239
20150179100.0 -0.8500824673 -0.5081927388
20200178800.0 -0.8593320838 -0.4950086544
20250178500.0 -0.8682280575 -0.4818864864
20300178200.0 -0.8784215623 -0.4672312503
20350177900.0 -0.8880164803 -0.4529537136
20400177600.0 -0.8961436539 -0.4388352265
20450177300.0 -0.9044966078 -0.4238912487
20500177000.0 -0.912512473 -0.4099123632
20550176700.0 -0.9203409926 -0.3968032923
20600176400.0 -0.9272467206 -0.3833989943
20650176100.0 -0.9342675 -0.3719525397
20700175800.0 -0.9408408373 -0.3593055757
20750175500.0 -0.9473840137 -0.3479482619
20800175200.0 -0.9516801032 -0.3370209367
20850174900.0 -0.9572111805 -0.3260329294
20900174600.0 -0.9617033498 -0.3144765469
20950174300.0 -0.9653930298 -0.3027966361
21000174000.0 -0.9687214269 -0.2916826395
21050173700.0 -0.9714855145 -0.2807936196
21100173400.0 -0.9751544259 -0.2692934451
21150173100.0 -0.9793801201 -0.2570534206
21200172800.0 -0.9831330214 -0.2433716013
21250172500.0 -0.9859486415 -0.2298895773
21300172200.0 -0.9888934587 -0.2154812862
21350171900.0 -0.9903822126 -0.2016679884
21400171600.0 -0.9923836365 -0.1875401526
21450171300.0 -0.9921206776 -0.1717262423
21500171000.0 -0.9926654988 -0.1579570633
21550170700.0 -0.9930837639 -0.14219913
21600170400.0 -0.9926469167 -0.1267808422
21650170100.0 -0.9922602688 -0.1107228715
21700169800.0 -0.9891364623 -0.0948912491
21750169500.0 -0.9893837414 -0.0789908418
21800169200.0 -0.9881475352 -0.0625246557
21850168900.0 -0.9874935714 -0.0460871775
21900168600.0 -0.9855974825 -0.0290397661
21950168300.0 -0.9850148286 -0.01437425
22000168000.0 -0.9839692958 0.0012832188
22050167700.0 -0.9839655847 0.0153887491
22100167400.0 -0.9839313438 0.0309024425
22150167100.0 -0.9848516077 0.0464720374
22200166800.0 -0.9856417894 0.0621940495
22250166500.0 -0.9851027573 0.0795894935
22300166200.0 -0.9841203672 0.0964746807
22350165900.0 -0.982312608 0.1123058049
22400165600.0 -0.9803206119 0.1280938895
22450165300.0 -0.9783458504 0.1434770236
22500165000.0 -0.9773858374 0.1577718658
22550164700.0 -0.9773183715 0.1727231743
22600164400.0 -0.9735654937 0.1878029048
22650164100.0 -0.9723064464 0.2030024139
22700163800.0 -0.9695874803 0.2188946216
22750163500.0 -0.9669603085 0.2345165828
22800163200.0 -0.9640677299 0.2475929364
22850162900.0 -0.9618218928 0.2609046097
22900162600.0 -0.9603515282 0.2736986243
22950162300.0 -0.9589652266 0.2870417339
23000162000.0 -0.9578151896 0.2983502545
23050161700.0 -0.9556499249 0.31111937
23100161400.0 -0.9532859642 0.3236604215
23150161100.0 -0.9504195359 0.3367014366
23200160800.0 -0.9478956871 0.3490560331
23250160500.0 -0.9452315394 0.3612751675
23300160200.0 -0.9421597242 0.3726842608
23350159900.0 -0.9383480859 0.3866607366
23400159600.0 -0.9334619766 0.3993252847
23450159300.0 -0.9294529981 0.4130091384
23500159000.0 -0.9245416544 0.4257100395
23550158700.0 -0.9201085924 0.4391402956
23600158400.0 -0.914952757 0.4524489373
23650158100.0 -0.908506892 0.4663247796
23700157800.0 -0.9004922577 0.4802678194
23750157500.0 -0.8922123453 0.4943623386
23800157200.0 -0.8831910711 0.5078654082
23850156900.0 -0.8748358591 0.5209612255
23900156600.0 -0.8647668636 0.5328338345
23950156300.0 -0.8557245228 0.5456765629
24000156000.0 -0.8470104297 0.5574407953
24050155700.0 -0.8367981514 0.5691986823
24100155400.0 -0.8263425906 0.5814616421
24150155100.0 -0.8165210286 0.5931844387
24200154800.0 -0.8052410081 0.60440132
24250154500.0 -0.7942395495 0.6160447781
24300154200.0 -0.7830341385 0.6278397314
24350153900.0 -0.7712380235 0.6382721391
24400153600.0 -0.7587275166 0.6486033801
24450153300.0 -0.7473961172 0.6586439381
24500153000.0 -0.735897515 0.6678920984
24550152700.0 -0.7242501239 0.6777147496
24600152400.0 -0.7127731828 0.6870492716
24650152100.0 -0.7019679037 0.6958703401
