!Created with skrf (http://scikit-rf.org).
# Hz S RI R 50.0 
!freq ReS11 ImS11
300000.0 -0.9742701579 -0.1237469919
50299700.0 -1.000014148 0.0149526376
100299400.0 -0.9978656565 0.0279880582
150299100.0 -1.002761046 0.044715394
200298800.0 -0.9995527956 0.0580969472
250298500.0 -0.9975130688 0.0716331551
300298200.0 -0.9857495874 0.0874987946
350297900.0 -0.9939933471 0.0982023055
400297600.0 -0.9931422727 0.1147241996
450297300.0 -0.9909257524 0.1285888965
500297000.0 -0.9896082301 0.1435282491
550296700.0 -0.9842729971 0.1559220095
600296400.0 -1.017312404 0.1891344801
650296100.0 -0.9821540645 0.1859614364
700295800.0 -0.9793573327 0.2000317376
750295500.0 -0.9763439662 0.2141230832
800295200.0 -0.9730772595 0.2282021127
850294900.0 -0.9698027973 0.2419127284
900294600.0 -0.9657218398 0.2557477898
950294300.0 -0.962005951 0.2692714945
1000294000.0 -0.9582663397 0.2833067602
1050293700.0 -0.9537098134 0.2970151272
1100293400.0 -0.9494561443 0.3116028383
1150293100.0 -0.9455237646 0.3234468879
1200292800.0 -0.9400579037 0.3377891773
1250292500.0 -0.9347150023 0.3513815483
1300292200.0 -0.9289362866 0.3644919639
1350291900.0 -0.9234882731 0.3786006386
1400291600.0 -0.9178735654 0.3916376527
1450291300.0 -0.9125029102 0.4041209851
1500291000.0 -0.9060776265 0.417407749
1550290700.0 -0.8997086697 0.4308284267
1600290400.0 -0.8933695651 0.4437072898
1650290100.0 -0.8868320727 0.4557740927
1700289800.0 -0.8801696161 0.4691886812
1750289500.0 -0.8730912325 0.4816481368
1800289200.0 -0.8655752177 0.4945371269
1850288900.0 -0.8586611202 0.5056353252
1900288600.0 -0.8510650254 0.5188224097
1950288300.0 -0.8428620923 0.5314202901
2000288000.0 -0.8354257796 0.5427930128
2050287700.0 -0.8272674849 0.5551494599
2100287400.0 -0.8192746923 0.5666162583
2150287100.0 -0.8111097137 0.5784164289
2200286800.0 -0.8031175888 0.5892044713
2250286500.0 -0.794154332 0.6014779004
2300286200.0 -0.7853709833 0.6129053599
2350285900.0 -0.7768464939 0.6234652199
2400285600.0 -0.767916083 0.6345050698
2450285300.0 -0.7590922946 0.6450582322
2500285000.0 -0.7490621281 0.6567780534
2550284700.0 -0.7401849809 0.6670409122
2600284400.0 -0.7309479168 0.6768775135
2650284100.0 -0.7221955599 0.6871698559
2700283800.0 -0.7118059101 0.6974395026
2750283500.0 -0.7016074298 0.7083196225
2800283200.0 -0.6917779339 0.7181595656
2850282900.0 -0.6811999822 0.7279205115
2900282600.0 -0.670603333 0.7380447831
2950282300.0 -0.6600168065 0.7472909419
3000282000.0 -0.6495872865 0.7567591575
3050281700.0 -0.6382860126 0.7659349992
3100281400.0 -0.6269734872 0.7750061895
3150281100.0 -0.6154670348 0.7840247963
3200280800.0 -0.6040984064 0.7924050644
3250280500.0 -0.5929692759 0.8003254636
3300280200.0 -0.5812519135 0.8085929266
3350279900.0 -0.5693105949 0.8165380737
3400279600.0 -0.5566310692 0.8245119274
3450279300.0 -0.5455099927 0.8315952144
3500279000.0 -0.5338592971 0.838479655
3550278700.0 -0.5218346141 0.8456605576
3600278400.0 -0.5098635563 0.8523076244
3650278100.0 -0.4966545039 0.8599193334
3700277800.0 -0.4846224832 0.866404765
3750277500.0 -0.472039677 0.8731348714
3800277200.0 -0.4599392257 0.879703132
3850276900.0 -0.4476898028 0.8856847648
3900276600.0 -0.4365384117 0.8913715462
3950276300.0 -0.424952111 0.8974065056
4000276000.0 -0.4129952169 0.9032550649
4050275700.0 -0.4001714755 0.9090911304
4100275400.0 -0.3893869508 0.914386066
4150275100.0 -0.3760691423 0.9205105546
4200274800.0 -0.3626979918 0.926064215
4250274500.0 -0.3501433492 0.9315982115
4300274200.0 -0.3367802308 0.9366615591
4350273900.0 -0.3224351454 0.9420319448
4400273600.0 -0.3077950115 0.9471738193
4450273300.0 -0.292694987 0.9520881914
4500273000.0 -0.2797484879 0.9563637398
4550272700.0 -0.2658781999 0.9606110421
4600272400.0 -0.2509824541 0.9646045349
4650272100.0 -0.2396517318 0.9678632295
4700271800.0 -0.2265345796 0.9711514449
4750271500.0 -0.2149903838 0.9740584526
4800271200.0 -0.202719333 0.976736792
4850270900.0 -0.1889064097 0.9796715612
4900270600.0 -0.1750517867 0.9818984886
4950270300.0 -0.1605609102 0.9846427263
5000270000.0 -0.1460918139 0.9866872925
5050269700.0 -0.1325888261 0.9881796904
5100269400.0 -0.1184867696 0.9900072646
5150269100.0 -0.1046106698 0.9916708979
5200268800.0 -0.0911673603 0.9927938576
5250268500.0 -0.0782709897 0.9938942908
5300268200.0 -0.064429781 0.9945838215
5350267900.0 -0.0514790825 0.995453842
5400267600.0 -0.0355634676 0.996532537
5450267300.0 -0.0222093854 0.9966050108
5500267000.0 -0.00688462 0.9970333517
5550266700.0 0.0079796341 0.9972928023
5600266400.0 0.0239198716 0.9971473895
5650266100.0 0.0405272108 0.9970007846
5700265800.0 0.055000189 0.9961368161
5750265500.0 0.0694938825 0.9949460172
5800265200.0 0.083446385 0.9940411142
5850264900.0 0.0962304288 0.9929683653
5900264600.0 0.11286021 0.9910384707
5950264300.0 0.1244438781 0.9895036382
6000264000.0 0.1376813157 0.987508269
6050263700.0 0.149945616 0.9868273772
6100263400.0 0.161937957 0.9850082546
6150263100.0 0.176839417 0.982597253
6200262800.0 0.1864258632 0.9811401233
6250262500.0 0.1987700456 0.9786148546
6300262200.0 0.2111284565 0.9762258792
6350261900.0 0.2239806209 0.9734148924
6400261600.0 0.2377554937 0.970211117
6450261300.0 0.2488319479 0.9676809306
6500261000.0 0.2621179261 0.9639584208
6550260700.0 0.2750570898 0.9600220022
6600260400.0 0.2888562006 0.9558561655
6650260100.0 0.3028972236 0.9515409124
6700259800.0 0.3148472381 0.9472180386
6750259500.0 0.3287093891 0.9421471031
6800259200.0 0.3422926 0.9372335338
6850258900.0 0.3544803931 0.932063463
6900258600.0 0.367293261 0.9269085984
6950258300.0 0.3798145473 0.921622649
7000258000.0 0.3914436137 0.9162267882
7050257700.0 0.4032492203 0.9104649871
7100257400.0 0.41667502 0.9041367351
7150257100.0 0.4271913396 0.8986952728
7200256800.0 0.4404118599 0.8920666482
7250256500.0 0.4528485434 0.8852690119
7300256200.0 0.4661194781 0.8788936876
7350255900.0 0.4788170586 0.8716228512
7400255600.0 0.4930101016 0.8641741117
7450255300.0 0.5082568016 0.854873019
7500255000.0 0.5209388935 0.8472868166
7550254700.0 0.5353086379 0.8381045348
7600254400.0 0.5475259767 0.8299463303
7650254100.0 0.5593418058 0.8219695204
7700253800.0 0.5707096856 0.8139368935
7750253500.0 0.5816294808 0.8066249379
7800253200.0 0.5925064639 0.7985647322
7850252900.0 0.6022112179 0.7913350703
7900252600.0 0.6138050031 0.782639736
7950252300.0 0.6222632989 0.7762871667
8000252000.0 0.632141891 0.7687045048
8050251700.0 0.6425366531 0.7605027732
8100251400.0 0.6526583417 0.752480686
8150251100.0 0.6621925856 0.7439785381
8200250800.0 0.6720579524 0.7359577866
8250250500.0 0.6808309992 0.7280773203
8300250200.0 0.6899452917 0.7197387082
8350249900.0 0.6991870099 0.7108136052
8400249600.0 0.7073161787 0.702852514
8450249300.0 0.7158037677 0.6942464906
8500249000.0 0.7243335472 0.6852651913
8550248700.0 0.7325081708 0.6762133525
8600248400.0 0.7411356877 0.6668888144
8650248100.0 0.748711175 0.6574364352
8700247800.0 0.7581662128 0.6462769712
8750247500.0 0.7662782231 0.6362324977
8800247200.0 0.7740048634 0.6261137872
8850246900.0 0.7829142732 0.6145720864
8900246600.0 0.791226272 0.603114969
8950246300.0 0.8004423762 0.5905920449
9000246000.0 0.809051011 0.5783805188
9050245700.0 0.81750215 0.566189147
9100245400.0 0.8261384054 0.5540094123
9150245100.0 0.8351779365 0.5410351477
9200244800.0 0.8442799324 0.5267580361
9250244500.0 0.8536377357 0.5117819673
9300244200.0 0.8614300578 0.4982384282
9350243900.0 0.8691719925 0.4848167642
9400243600.0 0.8757087596 0.4732547428
9450243300.0 0.8813435863 0.4628176073
9500243000.0 0.8876497954 0.4509791984
9550242700.0 0.8916722642 0.4436125631
9600242400.0 0.8957957598 0.4361159921
9650242100.0 0.9001111497 0.4290574569
9700241800.0 0.9048217204 0.4206643964
9750241500.0 0.9091591123 0.4127190988
9800241200.0 0.913959447 0.4035321229
9850240900.0 0.9198783536 0.3916451101
9900240600.0 0.9259257088 0.3796866008
9950240300.0 0.9328722039 0.3630609987
10000240000.0 0.9383087936 0.3512076943
10050239700.0 0.9438395877 0.3347925533
10100239400.0 0.9494144437 0.3185778654
10150239100.0 0.9541416969 0.3028001199
10200238800.0 0.9583517293 0.287752109
10250238500.0 0.961642575 0.2742774006
10300238200.0 0.9647153204 0.2603071478
10350237900.0 0.967495007 0.2468378745
10400237600.0 0.9701381411 0.2332623886
10450237300.0 0.9728443805 0.2194659328
10500237000.0 0.9747722843 0.2071806804
10550236700.0 0.9772951336 0.1931448677
10600236400.0 0.9793860341 0.1794306359
10650236100.0 0.9813346634 0.1645615047
10700235800.0 0.983825583 0.1517184971
10750235500.0 0.9858351139 0.1389893056
10800235200.0 0.9883002725 0.1241405661
10850234900.0 0.9899303326 0.1093740301
10900234600.0 0.9922252139 0.0943884992
10950234300.0 0.9936521078 0.081065837
11000234000.0 0.9956600906 0.0654375936
11050233700.0 0.9975076935 0.0485904097
11100233400.0 0.9987540727 0.0310447125
11150233100.0 0.9998150356 0.0145091255
11200232800.0 1.000832896 -0.0018962966
11250232500.0 1.001941583 -0.0190938865
11300232200.0 1.002248258 -0.0378707788
11350231900.0 1.002439843 -0.0535800716
11400231600.0 1.001863209 -0.0700262798
11450231300.0 1.000910409 -0.0854795126
11500231000.0 0.9996883083 -0.101078308
11550230700.0 0.9980085381 -0.1145413824
11600230400.0 0.9968333858 -0.1276446859
11650230100.0 0.9944686137 -0.1402273442
11700229800.0 0.9925543426 -0.1545790746
11750229500.0 0.9900355904 -0.1686125795
11800229200.0 0.9872642836 -0.1817354913
11850228900.0 0.9837321077 -0.1937634622
11900228600.0 0.9798851252 -0.203362502
11950228300.0 0.9765082015 -0.2129541929
12000228000.0 0.9734954244 -0.2223881139
12050227700.0 0.9701181954 -0.234782354
12100227400.0 0.966787595 -0.2456221626
12150227100.0 0.9612691109 -0.2631361862
12200226800.0 0.9576654741 -0.2733919552
12250226500.0 0.9538467075 -0.2857481485
12300226200.0 0.9497914061 -0.2984362641
12350225900.0 0.9442725968 -0.3122586255
12400225600.0 0.9402933844 -0.3244421638
12450225300.0 0.9356817393 -0.3365847455
12500225000.0 0.9299382526 -0.3519538761
12550224700.0 0.924694504 -0.3657413598
12600224400.0 0.9200310893 -0.3785273078
12650224100.0 0.9142512055 -0.3926914277
12700223800.0 0.908750308 -0.4054228706
12750223500.0 0.9033476717 -0.4185979962
12800223200.0 0.897925027 -0.4310689168
12850222900.0 0.8926374027 -0.4432654978
12900222600.0 0.8875023982 -0.4550582012
12950222300.0 0.8809658135 -0.4681631031
13000222000.0 0.8753215568 -0.4788234728
13050221700.0 0.8685865134 -0.4919883277
13100221400.0 0.8614687133 -0.5042731513
13150221100.0 0.8542818855 -0.517049557
13200220800.0 0.8475447258 -0.5282278797
13250220500.0 0.8403337818 -0.5404488757
13300220200.0 0.8327328236 -0.5511727411
13350219900.0 0.8245610936 -0.5632484368
13400219600.0 0.8162377568 -0.5752322041
13450219300.0 0.8069039812 -0.5880306632
13500219000.0 0.7971922602 -0.6016792926
13550218700.0 0.7869686681 -0.6134050794
13600218400.0 0.777712551 -0.6250059566
13650218100.0 0.7678445096 -0.6365844311
13700217800.0 0.7565235146 -0.6484435079
13750217500.0 0.7473151797 -0.6592917858
13800217200.0 0.7359388763 -0.6704865544
13850216900.0 0.7250190481 -0.6819584651
13900216600.0 0.7155661087 -0.6906773585
13950216300.0 0.7051135479 -0.7004316417
14000216000.0 0.6950325341 -0.7096534678
14050215700.0 0.6859728766 -0.7175059631
14100215400.0 0.6766482698 -0.7263147903
14150215100.0 0.6672633112 -0.7353132344
14200214800.0 0.6577303894 -0.7441343902
14250214500.0 0.6475017437 -0.7536213203
14300214200.0 0.6370351184 -0.7630449392
14350213900.0 0.6259118495 -0.7728128543
14400213600.0 0.6140135806 -0.7824847955
14450213300.0 0.6010157322 -0.7924213945
14500213000.0 0.5879977728 -0.8026248336
14550212700.0 0.5755988593 -0.8121551674
14600212400.0 0.5632793745 -0.8208520924
14650212100.0 0.5506732256 -0.8294046976
14700211800.0 0.5371391665 -0.8386400342
14750211500.0 0.5247219054 -0.8469389745
14800211200.0 0.5120264892 -0.8556895458
14850210900.0 0.4997882723 -0.8631737968
14900210600.0 0.4863974961 -0.8711020432
14950210300.0 0.4731486201 -0.8786503236
15000210000.0 0.4605022333 -0.8855071529
15050209700.0 0.4483960231 -0.8915773315
15100209400.0 0.4352604748 -0.8972616895
15150209100.0 0.4228224858 -0.9029685118
15200208800.0 0.4106362529 -0.9084431987
15250208500.0 0.3992472397 -0.9128594902
15300208200.0 0.3873765216 -0.9172889884
15350207900.0 0.3739373854 -0.9220450691
15400207600.0 0.3584245452 -0.9273016466
15450207300.0 0.3445280578 -0.9324399018
15500207000.0 0.3305778802 -0.9372976434
15550206700.0 0.3154508158 -0.9418423637
15600206400.0 0.299309275 -0.9465911605
15650206100.0 0.2835279078 -0.950833744
15700205800.0 0.2700998772 -0.9542584419
15750205500.0 0.2558456217 -0.9576838057
15800205200.0 0.2420366893 -0.961189424
15850204900.0 0.2276945117 -0.9646897367
15900204600.0 0.2128056604 -0.9683991714
15950204300.0 0.1984741545 -0.9715494729
16000204000.0 0.1839068585 -0.9743955727
16050203700.0 0.1692641625 -0.9776594946
16100203400.0 0.15413611 -0.979780648
16150203100.0 0.1397118216 -0.9818832845
16200202800.0 0.1251795966 -0.9837030098
16250202500.0 0.1100288966 -0.9858580901
16300202200.0 0.0951379579 -0.9872740497
16350201900.0 0.079721269 -0.9891428604
16400201600.0 0.0652311776 -0.990237128
16450201300.0 0.0497068435 -0.9911306162
16500201000.0 0.0326232213 -0.9919615922
16550200700.0 0.0165727098 -0.9925955205
16600200400.0 0.0006590197 -0.9925018922
16650200100.0 -0.0154452906 -0.9924914388
16700199800.0 -0.0319511804 -0.9922670361
16750199500.0 -0.0508984747 -0.9917540794
16800199200.0 -0.0668031322 -0.9907582159
16850198900.0 -0.0829698757 -0.9894529597
16900198600.0 -0.0967735637 -0.9883659078
16950198300.0 -0.1106013572 -0.9870117945
17000198000.0 -0.1235635664 -0.9858486287
17050197700.0 -0.1357073804 -0.9841679418
17100197400.0 -0.1486517156 -0.9819717147
17150197100.0 -0.1613272119 -0.9796391357
17200196800.0 -0.174518637 -0.9777213588
17250196500.0 -0.1874127425 -0.9753950574
17300196200.0 -0.1992924913 -0.9729201685
17350195900.0 -0.2112336541 -0.9707014438
17400195600.0 -0.2234756377 -0.9682890629
17450195300.0 -0.2363270707 -0.9653549347
17500195000.0 -0.2494153281 -0.9621574202
17550194700.0 -0.2633641415 -0.9585794566
17600194400.0 -0.2773091205 -0.9547593675
17650194100.0 -0.2905870257 -0.9506656776
17700193800.0 -0.3037228921 -0.9466596081
17750193500.0 -0.3176072854 -0.9414761751
17800193200.0 -0.3318558491 -0.936545607
17850192900.0 -0.347119073 -0.9309004546
17900192600.0 -0.3620417958 -0.9249604824
17950192300.0 -0.3772625303 -0.9178765613
18000192000.0 -0.3920599764 -0.9106656883
18050191700.0 -0.4059857857 -0.9026623524
18100191400.0 -0.4200362656 -0.8948939631
18150191100.0 -0.4348795486 -0.8868601191
18200190800.0 -0.451840698 -0.8777728226
18250190500.0 -0.4689697145 -0.8682802373
18300190200.0 -0.4843653867 -0.8592594118
18350189900.0 -0.4992556583 -0.8508119095
18400189600.0 -0.5139746073 -0.8425167157
18450189300.0 -0.5275589006 -0.834527561
18500189000.0 -0.5408164669 -0.8265302802
18550188700.0 -0.5542373835 -0.8186513846
18600188400.0 -0.5655924363 -0.8117849665
18650188100.0 -0.5768259372 -0.8057602476
18700187800.0 -0.5878433724 -0.7992518397
18750187500.0 -0.5987932798 -0.7920272582
18800187200.0 -0.6093990634 -0.7851433306
18850186900.0 -0.6197894461 -0.778270003
18900186600.0 -0.6299789469 -0.7708481187
18950186300.0 -0.6401558342 -0.763222678
19000186000.0 -0.6475172624 -0.7570475086
19050185700.0 -0.6569705083 -0.7495557817
19100185400.0 -0.6670094255 -0.7414348467
19150185100.0 -0.6770648922 -0.73295431
19200184800.0 -0.6868425544 -0.7250277379
19250184500.0 -0.6960337014 -0.7160148446
19300184200.0 -0.7075864118 -0.7064392624
19350183900.0 -0.7183979461 -0.6964817835
19400183600.0 -0.7288888891 -0.6869505027
19450183300.0 -0.7373632926 -0.6767074559
19500183000.0 -0.7457700698 -0.6671974064
19550182700.0 -0.7555065502 -0.6560308932
19600182400.0 -0.7651102367 -0.6445103271
19650182100.0 -0.776071167 -0.6317611691
19700181800.0 -0.7865150115 -0.6187212179
19750181500.0 -0.7968292133 -0.604429436
19800181200.0 -0.8071115915 -0.5895892772
19850180900.0 -0.8166623124 -0.5743041489
19900180600.0 -0.8244119376 -0.5597351867
19950180300.0 -0.8333863961 -0.5432429006
20000180000.0 -0.8229557427 -0.5476239879
20050179700.0 -0.8317873232 -0.5345595846
20100179400.0 -0.8399920468 -0.5207802445
20150179100.0 -0.8471725049 -0.5097574738
20200178800.0 -0.85646581 -0.4979243717
20250178500.0 -0.8654899787 -0.4851963339
20300178200.0 -0.8749381663 -0.4715336352
20350177900.0 -0.8845580356 -0.4573530955
20400177600.0 -0.8937260111 -0.4430783929
20450177300.0 -0.9021694481 -0.4289150703
20500177000.0 -0.910054493 -0.4151047821
20550176700.0 -0.9181663545 -0.4016597176
20600176400.0 -0.9254185857 -0.3888683461
20650176100.0 -0.9318629809 -0.3764755506
20700175800.0 -0.9380699226 -0.3645258438
20750175500.0 -0.9444505622 -0.3533475235
20800175200.0 -0.9489644248 -0.3419180863
20850174900.0 -0.9530225534 -0.3298780724
20900174600.0 -0.9582255488 -0.3209624296
20950174300.0 -0.9615269518 -0.3098912021
21000174000.0 -0.9631820143 -0.2989625876
21050173700.0 -0.9657972373 -0.2895754456
21100173400.0 -0.9694789724 -0.2778948988
21150173100.0 -0.9734343399 -0.2665256024
21200172800.0 -0.9767984849 -0.2531094945
21250172500.0 -0.9808111485 -0.2393293087
21300172200.0 -0.9842203871 -0.2256628474
21350171900.0 -0.9866836371 -0.2116039398
21400171600.0 -0.9877024356 -0.1971022932
21450171300.0 -0.9884738687 -0.1828414264
21500171000.0 -0.9893431251 -0.1682839287
21550170700.0 -0.9904275225 -0.1527830044
21600170400.0 -0.990524702 -0.1380684714
21650170100.0 -0.9900112544 -0.1209069915
21700169800.0 -0.9902666688 -0.106653431
21750169500.0 -0.9899022554 -0.0893171703
21800169200.0 -0.9902233244 -0.0737833419
21850168900.0 -0.9900824227 -0.0561478913
21900168600.0 -0.9893927578 -0.0411289405
21950168300.0 -0.9883355495 -0.0249123218
22000168000.0 -0.9883105233 -0.0097706455
22050167700.0 -0.9893235558 0.0051791573
22100167400.0 -0.9896987773 0.0202529448
22150167100.0 -0.990797927 0.0367712023
22200166800.0 -0.9915897825 0.0531428252
22250166500.0 -0.9912437764 0.0705617787
22300166200.0 -0.9901054564 0.0857735068
22350165900.0 -0.9889532192 0.1037188133
22400165600.0 -0.9883042553 0.1183702661
22450165300.0 -0.9854762827 0.1343959022
22500165000.0 -0.9841675196 0.1479302403
22550164700.0 -0.983186491 0.1647331888
22600164400.0 -0.9808006995 0.1797249411
22650164100.0 -0.9782545115 0.1956135912
22700163800.0 -0.9745102291 0.2120076759
22750163500.0 -0.9716822609 0.2268973213
22800163200.0 -0.9690882378 0.239815067
22850162900.0 -0.9662191624 0.253267783
22900162600.0 -0.9643930861 0.2670535111
22950162300.0 -0.9629192746 0.2810655021
23000162000.0 -0.9607331663 0.2935807059
23050161700.0 -0.958201829 0.3068051783
23100161400.0 -0.9554897784 0.3202519155
23150161100.0 -0.952509247 0.3333863276
23200160800.0 -0.9494398861 0.3460396074
23250160500.0 -0.9465132711 0.3585171387
23300160200.0 -0.9435178326 0.3711431666
23350159900.0 -0.9408734405 0.3848831234
23400159600.0 -0.9351618815 0.3985988317
23450159300.0 -0.9297704521 0.4124151978
23500159000.0 -0.9249815786 0.4256787595
23550158700.0 -0.9201252459 0.440175947
23600158400.0 -0.9141001763 0.4537866287
23650158100.0 -0.9069981001 0.4686294394
23700157800.0 -0.898525549 0.4829932781
23750157500.0 -0.8894558106 0.4970979123
23800157200.0 -0.8797118553 0.5109498432
23850156900.0 -0.8697239746 0.5231357764
23900156600.0 -0.8600121478 0.5364683867
23950156300.0 -0.8503165286 0.5490306087
24000156000.0 -0.8409499625 0.5619191036
24050155700.0 -0.8298500769 0.5729816614
24100155400.0 -0.8196095498 0.5853333467
24150155100.0 -0.8097886999 0.5974375927
24200154800.0 -0.7984387705 0.6094544326
24250154500.0 -0.7864839462 0.6215993362
24300154200.0 -0.7752603858 0.6337074067
24350153900.0 -0.7632061087 0.6448276034
24400153600.0 -0.7507750792 0.6549785866
24450153300.0 -0.738405435 0.6654981318
24500153000.0 -0.7269048519 0.6755055509
24550152700.0 -0.7152039758 0.6856537337
24600152400.0 -0.7031496819 0.6946525546
24650152100.0 -0.6911209473 0.7037159493
