!Created with skrf (http://scikit-rf.org).
# Hz S RI R 50.0 
!freq ReS11 ImS11
300000.0 -0.9715091118 -0.1240714817
50299700.0 -0.9997598878 0.0149478912
100299400.0 -0.9979646728 0.0279091179
150299100.0 -1.002814767 0.0448246322
200298800.0 -0.9995574405 0.0581545495
250298500.0 -0.9973180171 0.0715037195
300298200.0 -0.9861048103 0.0873159783
350297900.0 -0.9939444974 0.0983153973
400297600.0 -0.9930725248 0.1147367939
450297300.0 -0.9910044 0.1287026411
500297000.0 -0.989625535 0.1433906846
550296700.0 -0.9844366545 0.1556715893
600296400.0 -1.017251484 0.18908889
650296100.0 -0.9820765218 0.1856229406
700295800.0 -0.9792806824 0.1999818014
750295500.0 -0.9762208123 0.2139840316
800295200.0 -0.9730519974 0.2279968697
850294900.0 -0.9697189687 0.2419349125
900294600.0 -0.9659791879 0.2555486172
950294300.0 -0.962216664 0.2692460221
1000294000.0 -0.9582103263 0.2830560061
1050293700.0 -0.9536507826 0.2971615572
1100293400.0 -0.9493437749 0.3115298726
1150293100.0 -0.9456020757 0.323395717
1200292800.0 -0.9400616762 0.3376826653
1250292500.0 -0.9346836118 0.3511894367
1300292200.0 -0.9289580945 0.3645446231
1350291900.0 -0.9234254902 0.378503106
1400291600.0 -0.9180154414 0.3916098998
1450291300.0 -0.9123332054 0.4041220046
1500291000.0 -0.9062382024 0.4172587143
1550290700.0 -0.8997177719 0.4306505149
1600290400.0 -0.8934809043 0.4435404813
1650290100.0 -0.8869036317 0.4557675788
1700289800.0 -0.8799254196 0.4692794199
1750289500.0 -0.8730536834 0.4813472652
1800289200.0 -0.8654446179 0.4944123775
1850288900.0 -0.858680408 0.5057562287
1900288600.0 -0.851133079 0.5185838059
1950288300.0 -0.8429289048 0.5312622531
2000288000.0 -0.8354326321 0.5427250836
2050287700.0 -0.8272550435 0.5551300556
2100287400.0 -0.8194947156 0.5665619817
2150287100.0 -0.810944343 0.5784932816
2200286800.0 -0.8031576833 0.5890768881
2250286500.0 -0.79398903 0.6012710973
2300286200.0 -0.785261561 0.6128074535
2350285900.0 -0.7766884518 0.6235001787
2400285600.0 -0.7682284205 0.6342491314
2450285300.0 -0.7590231874 0.6449681062
2500285000.0 -0.7492455358 0.6563933183
2550284700.0 -0.7399943694 0.6670847567
2600284400.0 -0.7311732877 0.6769757389
2650284100.0 -0.722261719 0.6870224355
2700283800.0 -0.7119201993 0.6975357634
2750283500.0 -0.7015373831 0.7081723848
2800283200.0 -0.6916070661 0.718101026
2850282900.0 -0.6813130039 0.7284891665
2900282600.0 -0.6707308277 0.737677448
2950282300.0 -0.6601418099 0.7472596783
3000282000.0 -0.649460576 0.756717944
3050281700.0 -0.6383319669 0.7658650486
3100281400.0 -0.6269293052 0.7751313371
3150281100.0 -0.6155568358 0.7839424345
3200280800.0 -0.604117242 0.7922870455
3250280500.0 -0.5930715089 0.8002086724
3300280200.0 -0.5815049907 0.8083260592
3350279900.0 -0.5691720139 0.8164042505
3400279600.0 -0.5568296561 0.8245227011
3450279300.0 -0.54567401 0.8316396847
3500279000.0 -0.5338540447 0.8385122821
3550278700.0 -0.5214504768 0.8455131993
3600278400.0 -0.5098450932 0.8523416172
3650278100.0 -0.4969878265 0.8597564264
3700277800.0 -0.4845677545 0.8662717883
3750277500.0 -0.4721494751 0.8730925116
3800277200.0 -0.4599093285 0.8796364321
3850276900.0 -0.4477418643 0.8854798984
3900276600.0 -0.436808382 0.8913578531
3950276300.0 -0.4248411025 0.8970523706
4000276000.0 -0.4131653038 0.9032021023
4050275700.0 -0.4006122162 0.9091648987
4100275400.0 -0.3892784473 0.9142171876
4150275100.0 -0.3761597892 0.9203641388
4200274800.0 -0.3630007109 0.92594387
4250274500.0 -0.3499836354 0.9313432274
4300274200.0 -0.3368517758 0.9366503818
4350273900.0 -0.3224810567 0.9419854525
4400273600.0 -0.3077688521 0.947191689
4450273300.0 -0.2928083012 0.9521086224
4500273000.0 -0.2796739729 0.9565883346
4550272700.0 -0.2660132728 0.9605710302
4600272400.0 -0.2510699967 0.9646215866
4650272100.0 -0.2395209232 0.967767133
4700271800.0 -0.2268889906 0.9711538
4750271500.0 -0.2152448936 0.9739783972
4800271200.0 -0.2030986175 0.976577604
4850270900.0 -0.189180204 0.9795143929
4900270600.0 -0.1753827965 0.9820014312
4950270300.0 -0.1608947628 0.9844821007
5000270000.0 -0.1463484337 0.9864218916
5050269700.0 -0.1330392305 0.9883198469
5100269400.0 -0.1187620403 0.9903082321
5150269100.0 -0.1047015472 0.9915464962
5200268800.0 -0.0915664247 0.992704902
5250268500.0 -0.0782768517 0.9936865873
5300268200.0 -0.0647136201 0.9944624162
5350267900.0 -0.0518610033 0.9950867868
5400267600.0 -0.0354742091 0.9966046736
5450267300.0 -0.0222990748 0.9965852558
5500267000.0 -0.0068888264 0.9969016937
5550266700.0 0.008030878 0.9971803696
5600266400.0 0.0238264557 0.9970996783
5650266100.0 0.0404519023 0.9968350566
5700265800.0 0.0545531968 0.9960811144
5750265500.0 0.0698281579 0.9952331029
5800265200.0 0.0832952149 0.9941919464
5850264900.0 0.0965726482 0.9933360695
5900264600.0 0.1129307541 0.9909577646
5950264300.0 0.124276129 0.9896609361
6000264000.0 0.1380916668 0.9876942419
6050263700.0 0.1494528635 0.9866574563
6100263400.0 0.1617447366 0.9849455716
6150263100.0 0.1764469097 0.9828866875
6200262800.0 0.1859279545 0.9810198138
6250262500.0 0.1984982837 0.9787400413
6300262200.0 0.210688255 0.9762147276
6350261900.0 0.2237817186 0.9734981633
6400261600.0 0.2375229375 0.9702710004
6450261300.0 0.2484602535 0.9676012279
6500261000.0 0.2620119027 0.9643217305
6550260700.0 0.275126476 0.9602662372
6600260400.0 0.2882326341 0.9560215443
6650260100.0 0.3026500724 0.9516585911
6700259800.0 0.3148832168 0.9472009946
6750259500.0 0.3281997864 0.9424250201
6800259200.0 0.3420872558 0.9370951287
6850258900.0 0.3543829992 0.9320045441
6900258600.0 0.3669877419 0.9268746773
6950258300.0 0.3797893635 0.9214960686
7000258000.0 0.3911049369 0.9163023708
7050257700.0 0.4029442723 0.9104904915
7100257400.0 0.4164647409 0.9039038129
7150257100.0 0.4271170515 0.8986854234
7200256800.0 0.4403347783 0.8921213265
7250256500.0 0.4529396852 0.8854503436
7300256200.0 0.4662905999 0.8787929939
7350255900.0 0.4787550765 0.8717014144
7400255600.0 0.4933852705 0.8642810884
7450255300.0 0.5087691885 0.8550303832
7500255000.0 0.5212532128 0.8473670095
7550254700.0 0.5352300731 0.8381299604
7600254400.0 0.547997635 0.8297746287
7650254100.0 0.5594468415 0.8218798162
7700253800.0 0.5711935867 0.8140272874
7750253500.0 0.5820544177 0.8062642377
7800253200.0 0.5926859301 0.798423243
7850252900.0 0.6024793785 0.7913061579
7900252600.0 0.6137546053 0.7825257283
7950252300.0 0.6222693487 0.7763256568
8000252000.0 0.6322069013 0.7684955983
8050251700.0 0.6425865598 0.7603631948
8100251400.0 0.6523685238 0.7526946318
8150251100.0 0.6624008252 0.7442497593
8200250800.0 0.6720641622 0.735923971
8250250500.0 0.680992381 0.7279781316
8300250200.0 0.6896571422 0.7197202584
8350249900.0 0.6991716703 0.7109203578
8400249600.0 0.7068518023 0.7029232816
8450249300.0 0.7158644318 0.6942453344
8500249000.0 0.7241728916 0.6854326423
8550248700.0 0.7328576874 0.6764272932
8600248400.0 0.7409363527 0.6668592499
8650248100.0 0.7485295216 0.6575028404
8700247800.0 0.7578337096 0.646363092
8750247500.0 0.7660806655 0.6363363576
8800247200.0 0.7741742654 0.626044678
8850246900.0 0.7829917179 0.6145427737
8900246600.0 0.7911907776 0.603149391
8950246300.0 0.8002394562 0.590607618
9000246000.0 0.8090293686 0.5786859426
9050245700.0 0.817500999 0.5663140947
9100245400.0 0.8259350459 0.5540143528
9150245100.0 0.8344317898 0.5411991603
9200244800.0 0.8442889409 0.5269863763
9250244500.0 0.8531872737 0.5121741871
9300244200.0 0.8612354926 0.4986021556
9350243900.0 0.8690101337 0.4854391195
9400243600.0 0.8755050019 0.4738115707
9450243300.0 0.88097252 0.4634076191
9500243000.0 0.8872396895 0.4517944549
9550242700.0 0.8912798304 0.4441755764
9600242400.0 0.8956643884 0.4365403132
9650242100.0 0.8996929116 0.4296772066
9700241800.0 0.904554022 0.4214180786
9750241500.0 0.9089100374 0.4134718049
9800241200.0 0.9136704639 0.4044196111
9850240900.0 0.919917611 0.392392289
9900240600.0 0.9260703527 0.3803578477
9950240300.0 0.9328558375 0.3637674221
10000240000.0 0.9377638974 0.351764068
10050239700.0 0.9438641216 0.3352977866
10100239400.0 0.9491772382 0.3190491125
10150239100.0 0.95409914 0.3033835022
10200238800.0 0.9582686105 0.288002673
10250238500.0 0.9614781897 0.2744994906
10300238200.0 0.9645807193 0.2603847993
10350237900.0 0.9673637041 0.2471674695
10400237600.0 0.9700020232 0.2333933578
10450237300.0 0.9727200855 0.2198625381
10500237000.0 0.9747624469 0.2080076456
10550236700.0 0.9775301418 0.1930850601
10600236400.0 0.9793923946 0.1791014536
10650236100.0 0.9815693534 0.164362071
10700235800.0 0.9838597364 0.1521992418
10750235500.0 0.9858156561 0.1389828991
10800235200.0 0.9879597331 0.1242509714
10850234900.0 0.9903937725 0.1092034536
10900234600.0 0.9919026823 0.0949174813
10950234300.0 0.9937849719 0.0812143634
11000234000.0 0.9957019632 0.065488587
11050233700.0 0.9974596679 0.0489089232
11100233400.0 0.998944339 0.0311260789
11150233100.0 0.9998922951 0.0140133477
11200232800.0 1.000425793 -0.0014968105
11250232500.0 1.001731954 -0.0195556022
11300232200.0 1.001577819 -0.0378093059
11350231900.0 1.002207856 -0.0538886602
11400231600.0 1.001807452 -0.0704883686
11450231300.0 1.000686156 -0.0859258651
11500231000.0 1.000006873 -0.102324665
11550230700.0 0.9978135029 -0.1148081936
11600230400.0 0.9964354988 -0.1274114686
11650230100.0 0.995087906 -0.1404640112
11700229800.0 0.9929099519 -0.1553490837
11750229500.0 0.9902879036 -0.1691293567
11800229200.0 0.9872129985 -0.1819350475
11850228900.0 0.9832051287 -0.1937023266
11900228600.0 0.9795498124 -0.2033032219
11950228300.0 0.9762881805 -0.2136726427
12000228000.0 0.9739665314 -0.2215336697
12050227700.0 0.9697345393 -0.2344203897
12100227400.0 0.9666263221 -0.2459065712
12150227100.0 0.9615259119 -0.262945839
12200226800.0 0.9576719359 -0.2727367283
12250226500.0 0.9540704503 -0.2859772199
12300226200.0 0.9497463795 -0.2984387397
12350225900.0 0.9449987927 -0.3118263793
12400225600.0 0.9397774338 -0.3248750219
12450225300.0 0.9356582106 -0.3375960644
12500225000.0 0.930138801 -0.3521804506
12550224700.0 0.9248195029 -0.365869302
12600224400.0 0.9197649039 -0.3782694426
12650224100.0 0.913958338 -0.3927830602
12700223800.0 0.9087623554 -0.405516403
12750223500.0 0.9031915658 -0.4186054885
12800223200.0 0.8978336819 -0.4315265758
12850222900.0 0.8927639981 -0.4430029964
12900222600.0 0.88708578 -0.4552410649
12950222300.0 0.8809129097 -0.4678688748
13000222000.0 0.8753442156 -0.4795844148
13050221700.0 0.8681451755 -0.4922811417
13100221400.0 0.8610166674 -0.5045691726
13150221100.0 0.8546596016 -0.5167697752
13200220800.0 0.8474650469 -0.5283599117
13250220500.0 0.8402611818 -0.5403601361
13300220200.0 0.8327701308 -0.5514548261
13350219900.0 0.8246344416 -0.5633039641
13400219600.0 0.816206146 -0.5752752483
13450219300.0 0.8067677969 -0.5879725824
13500219000.0 0.7966604371 -0.6012304547
13550218700.0 0.787175109 -0.6135866607
13600218400.0 0.7774932831 -0.6256206088
13650218100.0 0.7679591561 -0.6362214285
13700217800.0 0.7568503626 -0.6485847769
13750217500.0 0.7480002143 -0.6586543131
13800217200.0 0.7362592438 -0.6710656019
13850216900.0 0.7255597516 -0.6814668092
13900216600.0 0.7160427295 -0.6899778804
13950216300.0 0.7056920011 -0.7004210051
14000216000.0 0.695389607 -0.7094640948
14050215700.0 0.6863915699 -0.7172732956
14100215400.0 0.6768082551 -0.7264360145
14150215100.0 0.6675747057 -0.7348684576
14200214800.0 0.6580801326 -0.7439497124
14250214500.0 0.6477078108 -0.7534663742
14300214200.0 0.6372563191 -0.7628023239
14350213900.0 0.6260552172 -0.7724471295
14400213600.0 0.6143038165 -0.7824763695
14450213300.0 0.6012642263 -0.7921170255
14500213000.0 0.5884044754 -0.8024152954
14550212700.0 0.5760045894 -0.8118534054
14600212400.0 0.564006275 -0.820255191
14650212100.0 0.5507494642 -0.8293735523
14700211800.0 0.5373723497 -0.8382041198
14750211500.0 0.5249157027 -0.8470234191
14800211200.0 0.5125220924 -0.8555405379
14850210900.0 0.5001857539 -0.862876194
14900210600.0 0.4868386984 -0.8709359252
14950210300.0 0.473532645 -0.8784857546
15000210000.0 0.4608187833 -0.8850589893
15050209700.0 0.4486374897 -0.8910833924
15100209400.0 0.4360257767 -0.8973105667
15150209100.0 0.4234821793 -0.902372517
15200208800.0 0.4107895059 -0.9079227519
15250208500.0 0.3998933841 -0.9125361028
15300208200.0 0.3870455691 -0.9165896789
15350207900.0 0.3743655924 -0.9223061574
15400207600.0 0.3599109953 -0.9272205958
15450207300.0 0.3452013484 -0.9321025137
15500207000.0 0.3304873362 -0.9365808039
15550206700.0 0.3156164089 -0.9419519521
15600206400.0 0.2998770963 -0.9462340887
15650206100.0 0.2837095694 -0.9510998675
15700205800.0 0.2702617295 -0.9542472085
15750205500.0 0.2564084269 -0.9575620016
15800205200.0 0.2424236762 -0.961074373
15850204900.0 0.228247172 -0.9646491263
15900204600.0 0.2132708032 -0.968220504
15950204300.0 0.1986152677 -0.9712863177
16000204000.0 0.1845026397 -0.9745618453
16050203700.0 0.1695008455 -0.9773463828
16100203400.0 0.1544024203 -0.9797824985
16150203100.0 0.1396691957 -0.9821586093
16200202800.0 0.1255235845 -0.9840880188
16250202500.0 0.1105232413 -0.9857857129
16300202200.0 0.0951889398 -0.9873739484
16350201900.0 0.0801039623 -0.9888874067
16400201600.0 0.0657708435 -0.9900134798
16450201300.0 0.0499851487 -0.991205766
16500201000.0 0.0329187449 -0.9920198141
16550200700.0 0.0168004573 -0.9925612731
16600200400.0 0.0009682558 -0.9927244743
16650200100.0 -0.0149538718 -0.9927219775
16700199800.0 -0.0315846302 -0.9919074636
16750199500.0 -0.0509724865 -0.9916417183
16800199200.0 -0.0667562196 -0.9906251025
16850198900.0 -0.0818627116 -0.9900791311
16900198600.0 -0.0960163086 -0.9889590164
16950198300.0 -0.1102535161 -0.9876064482
17000198000.0 -0.1234645335 -0.985213433
17050197700.0 -0.1362027604 -0.9834156779
17100197400.0 -0.1492465333 -0.9825115263
17150197100.0 -0.1617662234 -0.9800043729
17200196800.0 -0.1746671103 -0.9781516868
17250196500.0 -0.1872651503 -0.9754227259
17300196200.0 -0.199308347 -0.9731196201
17350195900.0 -0.2113631525 -0.9707158149
17400195600.0 -0.223114971 -0.9681172577
17450195300.0 -0.2359399481 -0.9654293509
17500195000.0 -0.2491035112 -0.9620288306
17550194700.0 -0.2629960093 -0.9585900411
17600194400.0 -0.2769173744 -0.9545924504
17650194100.0 -0.2904747747 -0.9503895911
17700193800.0 -0.3031972894 -0.946104408
17750193500.0 -0.3175957974 -0.9420918251
17800193200.0 -0.332081427 -0.9362588808
17850192900.0 -0.34646918 -0.931118569
17900192600.0 -0.361688547 -0.9249692303
17950192300.0 -0.3769988275 -0.9179308044
18000192000.0 -0.3919204775 -0.9105858968
18050191700.0 -0.4058161489 -0.9026662163
18100191400.0 -0.4199976451 -0.8950483019
18150191100.0 -0.4348078826 -0.8869485981
18200190800.0 -0.4517082269 -0.8777601251
18250190500.0 -0.4685922542 -0.8683955625
18300190200.0 -0.4840668865 -0.8595267584
18350189900.0 -0.499122589 -0.8513825089
18400189600.0 -0.5139275312 -0.8428610598
18450189300.0 -0.5273720538 -0.8347535702
18500189000.0 -0.5409420837 -0.827047196
18550188700.0 -0.5536398571 -0.81879668
18600188400.0 -0.5654552436 -0.8120945936
18650188100.0 -0.5767621115 -0.8052816532
18700187800.0 -0.5875760817 -0.7990163599
18750187500.0 -0.5985902133 -0.7921465334
18800187200.0 -0.609524904 -0.7853361678
18850186900.0 -0.6197346177 -0.7784800014
18900186600.0 -0.6298309398 -0.7710760677
18950186300.0 -0.6399311628 -0.7635415133
19000186000.0 -0.647466827 -0.7572499992
19050185700.0 -0.6563623494 -0.7496143537
19100185400.0 -0.6667295036 -0.7416867871
19150185100.0 -0.6769018775 -0.7331168439
19200184800.0 -0.6861074668 -0.7248948751
19250184500.0 -0.6967318828 -0.7161679168
19300184200.0 -0.7077965492 -0.7058341448
19350183900.0 -0.7192561518 -0.6969629599
19400183600.0 -0.7284666694 -0.6866631173
19450183300.0 -0.7372911497 -0.6766876402
19500183000.0 -0.745624029 -0.6669279618
19550182700.0 -0.7553037744 -0.6554130106
19600182400.0 -0.7651634262 -0.6437914757
19650182100.0 -0.7762089079 -0.6315179044
19700181800.0 -0.7867663882 -0.6184826579
19750181500.0 -0.7970412514 -0.6044662905
19800181200.0 -0.8072881001 -0.5894448796
19850180900.0 -0.8168910039 -0.5740985742
19900180600.0 -0.8245104037 -0.5595295005
19950180300.0 -0.8337840149 -0.5430184029
20000180000.0 -0.8237966279 -0.5466856587
20050179700.0 -0.8309391896 -0.5341319264
20100179400.0 -0.8397258072 -0.5209514355
20150179100.0 -0.8469684426 -0.5094886755
20200178800.0 -0.8559056827 -0.4976134674
20250178500.0 -0.865427032 -0.484839521
20300178200.0 -0.8746325958 -0.471666566
20350177900.0 -0.8848240507 -0.4578783779
20400177600.0 -0.8934646074 -0.4433396072
20450177300.0 -0.9020897658 -0.4293173923
20500177000.0 -0.9099275814 -0.4151813419
20550176700.0 -0.9180872219 -0.4016417485
20600176400.0 -0.9251614985 -0.388886975
20650176100.0 -0.9313880703 -0.3765038287
20700175800.0 -0.9384754163 -0.3646369206
20750175500.0 -0.944741397 -0.3531859511
20800175200.0 -0.9492526777 -0.3419458479
20850174900.0 -0.9541837496 -0.3316565865
20900174600.0 -0.9574279547 -0.320389356
20950174300.0 -0.9613661268 -0.3095089253
21000174000.0 -0.9642224344 -0.299198414
21050173700.0 -0.966404486 -0.289845833
21100173400.0 -0.9689899761 -0.2784680057
21150173100.0 -0.973087968 -0.2667575223
21200172800.0 -0.9770131733 -0.2536617554
21250172500.0 -0.9809436158 -0.2403389088
21300172200.0 -0.9841035065 -0.226080016
21350171900.0 -0.9860606264 -0.2119274638
21400171600.0 -0.9880107359 -0.1967892539
21450171300.0 -0.9885584455 -0.1835501277
21500171000.0 -0.9890933495 -0.1682991648
21550170700.0 -0.9889458792 -0.1524028319
21600170400.0 -0.9897101563 -0.1370418784
21650170100.0 -0.99044563 -0.1219656718
21700169800.0 -0.9904075182 -0.1061040626
21750169500.0 -0.9909181687 -0.0903166084
21800169200.0 -0.9898568581 -0.074435574
21850168900.0 -0.9900055058 -0.0569389046
21900168600.0 -0.9891950675 -0.0411534027
21950168300.0 -0.9892147906 -0.0248927035
22000168000.0 -0.9888354594 -0.0102352696
22050167700.0 -0.9899568492 0.004452924
22100167400.0 -0.9904412713 0.020035265
22150167100.0 -0.99138569 0.0359825518
22200166800.0 -0.9921155387 0.0529351988
22250166500.0 -0.9918579745 0.0693495291
22300166200.0 -0.9904002911 0.0863267516
22350165900.0 -0.9892607921 0.1026309343
22400165600.0 -0.9890946481 0.1178636056
22450165300.0 -0.9863785778 0.1334272452
22500165000.0 -0.9845761143 0.1473528365
22550164700.0 -0.9835734968 0.1645426023
22600164400.0 -0.9812344532 0.1794114285
22650164100.0 -0.9793760965 0.1959894046
22700163800.0 -0.9748176987 0.2115334624
22750163500.0 -0.9722735445 0.2263568935
22800163200.0 -0.9691689235 0.2390850298
22850162900.0 -0.9666711283 0.2529921673
22900162600.0 -0.9646485482 0.2672272079
22950162300.0 -0.9628286363 0.2804843996
23000162000.0 -0.9612737148 0.2934288594
23050161700.0 -0.9582125987 0.306899143
23100161400.0 -0.9555788836 0.3205025053
23150161100.0 -0.9527814948 0.3332973424
23200160800.0 -0.9493202191 0.3460332475
23250160500.0 -0.9473906508 0.3590799338
23300160200.0 -0.9439092239 0.3708800806
23350159900.0 -0.9403713049 0.384950972
23400159600.0 -0.9353395874 0.3985764677
23450159300.0 -0.9298297001 0.4127287239
23500159000.0 -0.9254174187 0.4258346896
23550158700.0 -0.9203930314 0.4401191745
23600158400.0 -0.9137997805 0.4543306577
23650158100.0 -0.9066904753 0.4687936807
23700157800.0 -0.8982701688 0.4833926003
23750157500.0 -0.8888004506 0.4976900389
23800157200.0 -0.878713711 0.5110985011
23850156900.0 -0.869387628 0.5242392787
23900156600.0 -0.8596009358 0.5375762193
23950156300.0 -0.8500416405 0.549471193
24000156000.0 -0.8396654226 0.561560253
24050155700.0 -0.8293187428 0.5742738401
24100155400.0 -0.8189989187 0.585829204
24150155100.0 -0.808526132 0.5983407508
24200154800.0 -0.7970221615 0.6104782068
24250154500.0 -0.785818033 0.6223574498
24300154200.0 -0.7737234192 0.6345499255
24350153900.0 -0.7617910756 0.6454676384
24400153600.0 -0.7492802149 0.6562472142
24450153300.0 -0.7375124902 0.6665404936
24500153000.0 -0.7257079928 0.676275526
24550152700.0 -0.7144373748 0.6866757969
24600152400.0 -0.7022378075 0.6958795128
24650152100.0 -0.6900515484 0.7050324348
