!Created with skrf (http://scikit-rf.org).
# Hz S RI R 50.0 
!freq ReS11 ImS11
300000.0 -0.9834559344 -0.0973481276
50299700.0 -1.000028726 0.0163825858
100299400.0 -0.997986364 0.0291312431
150299100.0 -1.002842849 0.0460864214
200298800.0 -0.9996702489 0.0595008313
250298500.0 -0.9974411417 0.0729501222
300298200.0 -0.9860170563 0.0886650547
350297900.0 -0.9939788243 0.0995811126
400297600.0 -0.9931526788 0.1162309514
450297300.0 -0.991250879 0.1300501872
500297000.0 -0.9892552574 0.144939993
550296700.0 -0.9842728562 0.1573845918
600296400.0 -1.017092848 0.1906371264
650296100.0 -0.9821247087 0.1873048259
700295800.0 -0.9792730514 0.2015035753
750295500.0 -0.9757117548 0.2153788959
800295200.0 -0.9726964302 0.229554246
850294900.0 -0.9691178209 0.2435547726
900294600.0 -0.9654085607 0.2574258169
950294300.0 -0.9617549591 0.2709773234
1000294000.0 -0.9576885889 0.2849668793
1050293700.0 -0.9530430568 0.2987711104
1100293400.0 -0.9487640738 0.3130618472
1150293100.0 -0.9448855105 0.3251001785
1200292800.0 -0.9398432086 0.3392570945
1250292500.0 -0.9342049363 0.3526555336
1300292200.0 -0.9285020678 0.3660097691
1350291900.0 -0.9229218586 0.3801135536
1400291600.0 -0.9174079885 0.3929892457
1450291300.0 -0.912000904 0.4053640961
1500291000.0 -0.9059133359 0.4185142076
1550290700.0 -0.8992244284 0.4319920211
1600290400.0 -0.8930055372 0.4447552102
1650290100.0 -0.8863097906 0.4570966365
1700289800.0 -0.8793857221 0.4704048015
1750289500.0 -0.8725987287 0.4826796558
1800289200.0 -0.8651733272 0.4955963504
1850288900.0 -0.8582511242 0.5069052199
1900288600.0 -0.8507080609 0.5198922387
1950288300.0 -0.842477982 0.5327221054
2000288000.0 -0.8349311432 0.5439759573
2050287700.0 -0.8266868537 0.5561438267
2100287400.0 -0.8187133332 0.567908152
2150287100.0 -0.8100666678 0.5799633542
2200286800.0 -0.8022735151 0.5905211893
2250286500.0 -0.7936206402 0.6024080464
2300286200.0 -0.7844614129 0.6138501305
2350285900.0 -0.7754780627 0.625056222
2400285600.0 -0.7666603368 0.6361346569
2450285300.0 -0.7579462965 0.6466213336
2500285000.0 -0.7483513299 0.6576325481
2550284700.0 -0.739159032 0.6681708083
2600284400.0 -0.7297677423 0.6781736223
2650284100.0 -0.7207064104 0.6887660282
2700283800.0 -0.7099442468 0.6993627295
2750283500.0 -0.6997687527 0.7098375857
2800283200.0 -0.6901942882 0.7195908741
2850282900.0 -0.6797977575 0.7293463521
2900282600.0 -0.6694396444 0.7388962568
2950282300.0 -0.6592538526 0.7480014763
3000282000.0 -0.6485942204 0.7576514693
3050281700.0 -0.6376048189 0.7668959739
3100281400.0 -0.6256359541 0.7759899892
3150281100.0 -0.6140312704 0.7853500987
3200280800.0 -0.6023546956 0.7939954624
3250280500.0 -0.5916326812 0.8016222396
3300280200.0 -0.5804264775 0.8094136253
3350279900.0 -0.5691599788 0.8169347738
3400279600.0 -0.5568857458 0.824831868
3450279300.0 -0.5455942691 0.8317187879
3500279000.0 -0.5337211437 0.8390253406
3550278700.0 -0.5212881482 0.8462601874
3600278400.0 -0.5090142706 0.8534108205
3650278100.0 -0.4958499381 0.8612711992
3700277800.0 -0.4835028772 0.8675239611
3750277500.0 -0.4716674996 0.874219975
3800277200.0 -0.4590608375 0.8804386087
3850276900.0 -0.446736291 0.8864942566
3900276600.0 -0.4357979675 0.8922702148
3950276300.0 -0.4229848319 0.8983103998
4000276000.0 -0.4110373637 0.9042132424
4050275700.0 -0.3982183705 0.9102232657
4100275400.0 -0.386912318 0.9155576523
4150275100.0 -0.3738461141 0.9212796141
4200274800.0 -0.3609987663 0.9266816874
4250274500.0 -0.3485668848 0.9317828795
4300274200.0 -0.3357742251 0.9372966598
4350273900.0 -0.3216815325 0.9426351115
4400273600.0 -0.3070704045 0.9476758987
4450273300.0 -0.2914619466 0.9526027135
4500273000.0 -0.278172573 0.957044233
4550272700.0 -0.2639025659 0.9611905443
4600272400.0 -0.2484560642 0.9651513001
4650272100.0 -0.2367815429 0.9685239086
4700271800.0 -0.2233869281 0.9719566489
4750271500.0 -0.2115842779 0.9746786245
4800271200.0 -0.1990540019 0.9774284751
4850270900.0 -0.1852261576 0.9802665981
4900270600.0 -0.1714362767 0.9826465612
4950270300.0 -0.1571874308 0.9851846739
5000270000.0 -0.1428995917 0.9872212515
5050269700.0 -0.1298925388 0.9892198727
5100269400.0 -0.1162351526 0.9909609551
5150269100.0 -0.1029041276 0.9923511581
5200268800.0 -0.0896129447 0.9931180221
5250268500.0 -0.076529892 0.9939743719
5300268200.0 -0.0635831057 0.9946080603
5350267900.0 -0.051342434 0.9954161962
5400267600.0 -0.0351159417 0.9963095456
5450267300.0 -0.0220980694 0.9968227884
5500267000.0 -0.0069869142 0.9972288156
5550266700.0 0.0078221349 0.9973429487
5600266400.0 0.0233139434 0.9974528955
5650266100.0 0.0399106973 0.996674773
5700265800.0 0.0544761948 0.9961675118
5750265500.0 0.0695792764 0.9954191926
5800265200.0 0.0834760857 0.9938907952
5850264900.0 0.096860063 0.9934478673
5900264600.0 0.1133358448 0.991631135
5950264300.0 0.1258793775 0.9897863821
6000264000.0 0.139701834 0.9875054804
6050263700.0 0.1523972942 0.9864749068
6100263400.0 0.1646895567 0.9842393359
6150263100.0 0.1794859765 0.982097995
6200262800.0 0.1898850523 0.9800829512
6250262500.0 0.2028215198 0.97758976
6300262200.0 0.215673386 0.9748917904
6350261900.0 0.2287057684 0.9719789205
6400261600.0 0.2425902124 0.968307174
6450261300.0 0.2540499502 0.9658311754
6500261000.0 0.2667424052 0.9622830903
6550260700.0 0.2800210333 0.9586837963
6600260400.0 0.2931776496 0.9542946484
6650260100.0 0.3068219628 0.949831779
6700259800.0 0.3190466113 0.9459281313
6750259500.0 0.3325765219 0.9408916653
6800259200.0 0.3459833249 0.9363171156
6850258900.0 0.3578609325 0.9308725154
6900258600.0 0.3697899933 0.925967407
6950258300.0 0.3823379532 0.9206572246
7000258000.0 0.3942367744 0.9153027431
7050257700.0 0.4065751019 0.9091965193
7100257400.0 0.419426786 0.9029645478
7150257100.0 0.4295982977 0.8977074728
7200256800.0 0.4424678618 0.8914712445
7250256500.0 0.4538611681 0.8849603801
7300256200.0 0.4670903881 0.8785633963
7350255900.0 0.4793968617 0.8712694578
7400255600.0 0.4924178987 0.8640182519
7450255300.0 0.5079535226 0.8553490665
7500255000.0 0.5196379351 0.8482453104
7550254700.0 0.533105406 0.8397453695
7600254400.0 0.5456756415 0.8313275936
7650254100.0 0.5577473697 0.8235911156
7700253800.0 0.5691261359 0.8154928065
7750253500.0 0.5805674993 0.8075628732
7800253200.0 0.5912450877 0.7997718828
7850252900.0 0.6008807677 0.7927524575
7900252600.0 0.6125668087 0.7838561747
7950252300.0 0.6216685519 0.7771313419
8000252000.0 0.6319745066 0.7693426869
8050251700.0 0.6421858386 0.7609168857
8100251400.0 0.6525589501 0.7526587894
8150251100.0 0.6625441931 0.7439660587
8200250800.0 0.6722302917 0.7362146012
8250250500.0 0.6812385996 0.7278597804
8300250200.0 0.6905619734 0.7189728015
8350249900.0 0.6991871633 0.7104115609
8400249600.0 0.7079125209 0.7024068437
8450249300.0 0.7167964651 0.6931921674
8500249000.0 0.7255703396 0.6843802012
8550248700.0 0.7338535875 0.6752511872
8600248400.0 0.7423193827 0.665887169
8650248100.0 0.7500091053 0.656359305
8700247800.0 0.7596412338 0.6452829955
8750247500.0 0.7676971604 0.6353516846
8800247200.0 0.7757927728 0.6250501674
8850246900.0 0.7845974771 0.6137119227
8900246600.0 0.7928222174 0.6028125822
8950246300.0 0.8023706549 0.5895278923
9000246000.0 0.811857581 0.5772151144
9050245700.0 0.8203713604 0.5643127792
9100245400.0 0.8291745939 0.5519382302
9150245100.0 0.8384765945 0.5380495965
9200244800.0 0.8481339286 0.5232277846
9250244500.0 0.8572332391 0.5078301317
9300244200.0 0.8659245686 0.4932939248
9350243900.0 0.8735355907 0.4793087272
9400243600.0 0.8801736519 0.466641281
9450243300.0 0.8862808907 0.4545638716
9500243000.0 0.8926754876 0.4422904868
9550242700.0 0.8964528338 0.4341337469
9600242400.0 0.9003277472 0.4263711913
9650242100.0 0.9040518705 0.41962336
9700241800.0 0.9087016482 0.4111855328
9750241500.0 0.9126903816 0.4036670012
9800241200.0 0.9169179163 0.3944715736
9850240900.0 0.9227590082 0.3825703063
9900240600.0 0.9286092773 0.3710120361
9950240300.0 0.934947013 0.3551257484
10000240000.0 0.939653212 0.3431228461
10050239700.0 0.9450951183 0.328260854
10100239400.0 0.9500483875 0.3129473443
10150239100.0 0.9545885627 0.2980008028
10200238800.0 0.958701348 0.2834319541
10250238500.0 0.9618307362 0.2699763866
10300238200.0 0.965084633 0.2559628893
10350237900.0 0.9677741238 0.2428550583
10400237600.0 0.9703305423 0.2297283604
10450237300.0 0.972644461 0.2164194205
10500237000.0 0.9751754647 0.2040847834
10550236700.0 0.9770946192 0.1906467373
10600236400.0 0.9795418957 0.1771397306
10650236100.0 0.9814993618 0.1623432167
10700235800.0 0.9837853527 0.150518993
10750235500.0 0.9862825369 0.1370647713
10800235200.0 0.9881452413 0.1231739567
10850234900.0 0.9898427172 0.1086291281
10900234600.0 0.9917760179 0.0941355013
10950234300.0 0.9936007848 0.0809516571
11000234000.0 0.9952183542 0.0660214061
11050233700.0 0.9969655952 0.0497509412
11100233400.0 0.9981614108 0.0326779677
11150233100.0 0.9992124857 0.0158830593
11200232800.0 0.9999956139 0.0009094207
11250232500.0 1.000829824 -0.0153014795
11300232200.0 1.001810475 -0.0335687166
11350231900.0 1.001209901 -0.049735225
11400231600.0 1.000515663 -0.0647862425
11450231300.0 0.9997366389 -0.0800251874
11500231000.0 0.9997053254 -0.096496642
11550230700.0 0.9976562025 -0.109800856
11600230400.0 0.9960681492 -0.1236292766
11650230100.0 0.9940684739 -0.1352818148
11700229800.0 0.9923463824 -0.1498834873
11750229500.0 0.9899030119 -0.1649179231
11800229200.0 0.9870626566 -0.1786335752
11850228900.0 0.9834941124 -0.191116344
11900228600.0 0.9801444797 -0.2011781129
11950228300.0 0.976696235 -0.2121432161
12000228000.0 0.9736714683 -0.2206752871
12050227700.0 0.9703121724 -0.2336296229
12100227400.0 0.9676327725 -0.2445453956
12150227100.0 0.9624248951 -0.2616047535
12200226800.0 0.9584623321 -0.272011263
12250226500.0 0.954988917 -0.2843610599
12300226200.0 0.9505970783 -0.2961274996
12350225900.0 0.9460553053 -0.31025005
12400225600.0 0.9415882657 -0.3223766769
12450225300.0 0.9369728943 -0.3349976495
12500225000.0 0.931554207 -0.3503088566
12550224700.0 0.9264267987 -0.3635817332
12600224400.0 0.9216940962 -0.3763173906
12650224100.0 0.9158749311 -0.3904225347
12700223800.0 0.9105939345 -0.4030722488
12750223500.0 0.9051729694 -0.4160733856
12800223200.0 0.8999610845 -0.4286412588
12850222900.0 0.8944168555 -0.4409278736
12900222600.0 0.8887537262 -0.4528158427
12950222300.0 0.8824090102 -0.4652254741
13000222000.0 0.8766948683 -0.47687889
13050221700.0 0.8697716748 -0.4897889424
13100221400.0 0.8627377247 -0.5021986024
13150221100.0 0.8558764339 -0.5141889508
13200220800.0 0.8485750307 -0.5258360902
13250220500.0 0.84124729 -0.5381708588
13300220200.0 0.8337689339 -0.5494136234
13350219900.0 0.8254024425 -0.5613887736
13400219600.0 0.8170866681 -0.5737374372
13450219300.0 0.8074633953 -0.5874186462
13500219000.0 0.7972908108 -0.6011918994
13550218700.0 0.7866156593 -0.6145082432
13600218400.0 0.7761098352 -0.6267926461
13650218100.0 0.7666509725 -0.6378309248
13700217800.0 0.7558663741 -0.6498922021
13750217500.0 0.7455176351 -0.6614652155
13800217200.0 0.7340920671 -0.6731504714
13850216900.0 0.723188006 -0.6843653031
13900216600.0 0.7136924988 -0.6925714964
13950216300.0 0.7030379654 -0.7033886341
14000216000.0 0.692748558 -0.712722128
14050215700.0 0.6835939419 -0.7212119604
14100215400.0 0.673946444 -0.730259184
14150215100.0 0.6647507067 -0.7385383466
14200214800.0 0.6555127248 -0.7468282656
14250214500.0 0.6453278832 -0.756047536
14300214200.0 0.6349633892 -0.7652443448
14350213900.0 0.624075791 -0.7744797656
14400213600.0 0.6118927756 -0.7838625196
14450213300.0 0.5994166768 -0.7944499158
14500213000.0 0.5862059155 -0.8039174044
14550212700.0 0.5739472758 -0.8134570458
14600212400.0 0.5619392383 -0.8221213854
14650212100.0 0.5487645722 -0.8303363746
14700211800.0 0.5348287648 -0.84072374
14750211500.0 0.5224309205 -0.8480502363
14800211200.0 0.5099048692 -0.8560557156
14850210900.0 0.4980916332 -0.8637925611
14900210600.0 0.4848531088 -0.8717099479
14950210300.0 0.4711932634 -0.8793918317
15000210000.0 0.4581983741 -0.8862381592
15050209700.0 0.4459025383 -0.8924259011
15100209400.0 0.432838057 -0.8986204031
15150209100.0 0.4199840619 -0.9043319237
15200208800.0 0.407158619 -0.9097296426
15250208500.0 0.3955818387 -0.9145281355
15300208200.0 0.3831153432 -0.919614715
15350207900.0 0.3693915202 -0.9236972821
15400207600.0 0.3546579945 -0.9289931915
15450207300.0 0.34085561 -0.9340649625
15500207000.0 0.3259300589 -0.9389216218
15550206700.0 0.3102828341 -0.9438754587
15600206400.0 0.2950880879 -0.948389724
15650206100.0 0.2792046633 -0.9525602354
15700205800.0 0.2652019046 -0.9562323092
15750205500.0 0.2510227716 -0.9596868159
15800205200.0 0.2366821831 -0.9630962719
15850204900.0 0.2222791378 -0.9664693851
15900204600.0 0.2074233457 -0.9699291139
15950204300.0 0.1935900287 -0.9728720872
16000204000.0 0.1793160495 -0.9754725923
16050203700.0 0.1648492234 -0.9785817095
16100203400.0 0.1506633889 -0.9805210379
16150203100.0 0.1362840701 -0.9828885587
16200202800.0 0.1225002725 -0.9842150016
16250202500.0 0.1082147107 -0.9863887299
16300202200.0 0.0927753881 -0.9876650821
16350201900.0 0.0780853595 -0.9889810194
16400201600.0 0.0635540033 -0.9904838526
16450201300.0 0.0480425814 -0.9913217664
16500201000.0 0.0317181789 -0.9920150539
16550200700.0 0.0159934426 -0.9925129965
16600200400.0 0.0001727169 -0.9928106311
16650200100.0 -0.016127424 -0.9926157367
16700199800.0 -0.0327803149 -0.9920978277
16750199500.0 -0.0520906624 -0.9913800584
16800199200.0 -0.067569981 -0.9900365099
16850198900.0 -0.0835399379 -0.9893818461
16900198600.0 -0.0972343078 -0.9883192707
16950198300.0 -0.1104946365 -0.9873822911
17000198000.0 -0.123333743 -0.9855260648
17050197700.0 -0.1360591895 -0.9844488293
17100197400.0 -0.149456132 -0.9821928447
17150197100.0 -0.1619529651 -0.979910612
17200196800.0 -0.1746828403 -0.9779357126
17250196500.0 -0.1878556917 -0.9751114809
17300196200.0 -0.2003699233 -0.9726139947
17350195900.0 -0.2120966414 -0.9704412217
17400195600.0 -0.2243729094 -0.9679348396
17450195300.0 -0.2375378547 -0.9650792336
17500195000.0 -0.2507817369 -0.9615369863
17550194700.0 -0.2650556515 -0.9581567763
17600194400.0 -0.2786585614 -0.9541346279
17650194100.0 -0.2923660405 -0.9498919347
17700193800.0 -0.3053005761 -0.945683753
17750193500.0 -0.3198301812 -0.9412510802
17800193200.0 -0.3335989433 -0.936196811
17850192900.0 -0.3487193397 -0.9309625242
17900192600.0 -0.3635829157 -0.9244142752
17950192300.0 -0.3787052037 -0.9178106019
18000192000.0 -0.3935141453 -0.9102584842
18050191700.0 -0.4073567252 -0.9026039418
18100191400.0 -0.4213453317 -0.8949738848
18150191100.0 -0.4361133762 -0.8870800842
18200190800.0 -0.4529769011 -0.8779330545
18250190500.0 -0.4698592804 -0.8687096336
18300190200.0 -0.4849722057 -0.8596979399
18350189900.0 -0.5000015869 -0.8517182848
18400189600.0 -0.5143148386 -0.8431661891
18450189300.0 -0.5278930262 -0.8351513087
18500189000.0 -0.5408429071 -0.8267299339
18550188700.0 -0.5538427433 -0.8188563838
18600188400.0 -0.5658324562 -0.8120909249
18650188100.0 -0.5774208826 -0.8054997667
18700187800.0 -0.5881354952 -0.7986341157
18750187500.0 -0.5989151269 -0.7918512883
18800187200.0 -0.6099130715 -0.7843414958
18850186900.0 -0.6203035201 -0.777164699
18900186600.0 -0.6307301296 -0.7696735115
18950186300.0 -0.6409907405 -0.7613958508
19000186000.0 -0.6485477307 -0.7550146721
19050185700.0 -0.6580606873 -0.7477876967
19100185400.0 -0.6682517528 -0.7389933966
19150185100.0 -0.6783818909 -0.7306151299
19200184800.0 -0.6880164641 -0.7222337904
19250184500.0 -0.6990994077 -0.7126291648
19300184200.0 -0.7092375692 -0.7027863223
19350183900.0 -0.7206335954 -0.6937789546
19400183600.0 -0.7299508479 -0.6831303959
19450183300.0 -0.7384064015 -0.673762451
19500183000.0 -0.7469180368 -0.6633947905
19550182700.0 -0.7569464429 -0.6526402079
19600182400.0 -0.766588618 -0.6412369761
19650182100.0 -0.7773904008 -0.6294826502
19700181800.0 -0.7876575331 -0.616173781
19750181500.0 -0.7979642167 -0.6023771201
19800181200.0 -0.8079233386 -0.5876163617
19850180900.0 -0.817493679 -0.5726787807
19900180600.0 -0.8248319553 -0.5584054795
19950180300.0 -0.8340558638 -0.5424416178
20000180000.0 -0.8284288062 -0.5443169338
20050179700.0 -0.8358247253 -0.531643412
20100179400.0 -0.8438269063 -0.5175508771
20150179100.0 -0.8517906444 -0.5052045395
20200178800.0 -0.8608481926 -0.4925074537
20250178500.0 -0.8698861575 -0.479045575
20300178200.0 -0.8794360056 -0.4643644892
20350177900.0 -0.8876571395 -0.4496576722
20400177600.0 -0.8968304692 -0.4357129187
20450177300.0 -0.9049918076 -0.4212888384
20500177000.0 -0.9128295275 -0.4073572149
20550176700.0 -0.9206991765 -0.3935752017
20600176400.0 -0.9276358493 -0.3805643385
20650176100.0 -0.9341854073 -0.367607968
20700175800.0 -0.9408014232 -0.3553355643
20750175500.0 -0.9476605144 -0.3434378136
20800175200.0 -0.9526920358 -0.3329499487
20850174900.0 -0.9577025027 -0.3215022289
20900174600.0 -0.9619800283 -0.3099112861
20950174300.0 -0.9655248152 -0.2974396453
21000174000.0 -0.9700356614 -0.2858244096
21050173700.0 -0.9731472205 -0.2747852402
21100173400.0 -0.9770202562 -0.2631569399
21150173100.0 -0.9810347143 -0.2493747957
21200172800.0 -0.984438018 -0.2360406065
21250172500.0 -0.98773193 -0.2222782349
21300172200.0 -0.9904063917 -0.2083088053
21350171900.0 -0.9922873881 -0.1935419307
21400171600.0 -0.9936412748 -0.1790053297
21450171300.0 -0.9944277183 -0.1650748417
21500171000.0 -0.9943945465 -0.1490009521
21550170700.0 -0.9934678938 -0.1343916859
21600170400.0 -0.9940618412 -0.1196212804
21650170100.0 -0.9917628438 -0.1027878993
21700169800.0 -0.9899640639 -0.0879741386
21750169500.0 -0.9892540719 -0.0724841174
21800169200.0 -0.9886376497 -0.0566282296
21850168900.0 -0.9879839339 -0.0395823352
21900168600.0 -0.9854807526 -0.0240923879
21950168300.0 -0.9843589722 -0.0088188802
22000168000.0 -0.9832886149 0.0066936553
22050167700.0 -0.9828190427 0.0209942744
22100167400.0 -0.9824717981 0.0358637888
22150167100.0 -0.9826865671 0.0509028364
22200166800.0 -0.9831573111 0.0674408401
22250166500.0 -0.9829179245 0.0841573481
22300166200.0 -0.9817251839 0.1009939038
22350165900.0 -0.9799229473 0.116979009
22400165600.0 -0.9785854203 0.1329938371
22450165300.0 -0.9769209476 0.1476880352
22500165000.0 -0.975557109 0.1619518711
22550164700.0 -0.9731111215 0.176455838
22600164400.0 -0.9718146798 0.1921630763
22650164100.0 -0.9704434805 0.206465093
22700163800.0 -0.9672244126 0.2223968436
22750163500.0 -0.9652965759 0.237907666
22800163200.0 -0.9623109892 0.2512296981
22850162900.0 -0.9597273522 0.2648637965
22900162600.0 -0.9582937197 0.2783375494
22950162300.0 -0.9571294834 0.2910740677
23000162000.0 -0.9558759314 0.3030642698
23050161700.0 -0.9537697389 0.3154703789
23100161400.0 -0.9516817152 0.3280537432
23150161100.0 -0.949069661 0.3405925833
23200160800.0 -0.9455526796 0.3524541662
23250160500.0 -0.9429014638 0.3646414668
23300160200.0 -0.9402504909 0.3765622538
23350159900.0 -0.9363943781 0.3892585901
23400159600.0 -0.9324705716 0.4019071591
23450159300.0 -0.9272510385 0.4159167489
23500159000.0 -0.9222279091 0.4282405477
23550158700.0 -0.9184280371 0.4411837085
23600158400.0 -0.9124416903 0.4543415122
23650158100.0 -0.9063175465 0.4681557494
23700157800.0 -0.8987241545 0.4817038751
23750157500.0 -0.8898550575 0.495396723
23800157200.0 -0.8812245574 0.5087019937
23850156900.0 -0.8731770615 0.5211700811
23900156600.0 -0.8637283049 0.5337210532
23950156300.0 -0.8539490804 0.5457405999
24000156000.0 -0.8451889472 0.5585831652
24050155700.0 -0.8349538886 0.5698936737
24100155400.0 -0.8247989542 0.5817919121
24150155100.0 -0.8140129869 0.5936570272
24200154800.0 -0.8035868381 0.604814807
24250154500.0 -0.7920702693 0.616571247
24300154200.0 -0.7807837878 0.6278703728
24350153900.0 -0.7690152032 0.6389286375
24400153600.0 -0.7567609736 0.649469017
24450153300.0 -0.7447909331 0.659605443
24500153000.0 -0.7335639933 0.6695292512
24550152700.0 -0.7223982267 0.6790112818
24600152400.0 -0.7109584541 0.6886164472
24650152100.0 -0.6988066418 0.697294075
