!Created with skrf (http://scikit-rf.org).
# Hz S RI R 50.0 
!freq ReS11 ImS11
300000.0 -0.9771877934 -0.115873904
50299700.0 -1.000042125 0.0155526339
100299400.0 -0.9980095642 0.0284194584
150299100.0 -1.002782981 0.0453730792
200298800.0 -0.9997286259 0.0587748115
250298500.0 -0.9975441238 0.072203167
300298200.0 -0.9860215002 0.0881643592
350297900.0 -0.9941043739 0.0988903619
400297600.0 -0.9931932267 0.1156778101
450297300.0 -0.991064807 0.1295261524
500297000.0 -0.9894426179 0.144075805
550296700.0 -0.9844127433 0.1566479855
600296400.0 -1.017458486 0.1900082763
650296100.0 -0.9822437415 0.1864405483
700295800.0 -0.9793089225 0.2009481469
750295500.0 -0.9764667233 0.2148571703
800295200.0 -0.9730540298 0.2290118812
850294900.0 -0.9696669159 0.2428480573
900294600.0 -0.9659605506 0.256413512
950294300.0 -0.9620775131 0.2702745072
1000294000.0 -0.9581403987 0.2840485017
1050293700.0 -0.9533685511 0.2979201192
1100293400.0 -0.949216421 0.3124275832
1150293100.0 -0.9454573757 0.3242235928
1200292800.0 -0.9401902769 0.338565188
1250292500.0 -0.9344711442 0.3520455281
1300292200.0 -0.929046539 0.3652211704
1350291900.0 -0.9232557676 0.3794813439
1400291600.0 -0.9177570239 0.3924412681
1450291300.0 -0.9121979035 0.4047372735
1500291000.0 -0.9062456183 0.4182788999
1550290700.0 -0.8996303636 0.4313291805
1600290400.0 -0.8931677817 0.4446032559
1650290100.0 -0.8867320752 0.4565489609
1700289800.0 -0.8797362433 0.4698956778
1750289500.0 -0.8725933295 0.4821901958
1800289200.0 -0.8653116922 0.4952516726
1850288900.0 -0.8584884892 0.5065467992
1900288600.0 -0.8508558884 0.5193233783
1950288300.0 -0.8426688734 0.5319745153
2000288000.0 -0.83522751 0.5434570134
2050287700.0 -0.8269195389 0.5558935842
2100287400.0 -0.8190500234 0.5674641842
2150287100.0 -0.8105321651 0.5795877987
2200286800.0 -0.8027490902 0.5898596812
2250286500.0 -0.7938642277 0.6018188748
2300286200.0 -0.7850488088 0.613504763
2350285900.0 -0.7760717099 0.6245293956
2400285600.0 -0.7672524344 0.6355938272
2450285300.0 -0.7586093419 0.6459640871
2500285000.0 -0.7487275296 0.6570728854
2550284700.0 -0.7399782384 0.6674875987
2600284400.0 -0.7307243622 0.6776048239
2650284100.0 -0.7215812752 0.6881429463
2700283800.0 -0.7108957559 0.6985315994
2750283500.0 -0.700670666 0.709298461
2800283200.0 -0.6908557338 0.7190075617
2850282900.0 -0.6804434792 0.7288048197
2900282600.0 -0.6701720308 0.7382598745
2950282300.0 -0.6601218517 0.7476451693
3000282000.0 -0.6494585978 0.757131894
3050281700.0 -0.6381073724 0.7664923545
3100281400.0 -0.6264086348 0.775783728
3150281100.0 -0.61466561 0.785228204
3200280800.0 -0.6027404741 0.7936934489
3250280500.0 -0.5919679869 0.8013983159
3300280200.0 -0.5808911898 0.809128406
3350279900.0 -0.5691881468 0.8165587409
3400279600.0 -0.5570913948 0.8246086936
3450279300.0 -0.5459496346 0.8312927508
3500279000.0 -0.5336863423 0.8385012493
3550278700.0 -0.5216252507 0.8458518031
3600278400.0 -0.5091886007 0.8531482904
3650278100.0 -0.49604432 0.8607385038
3700277800.0 -0.4838481852 0.8670548842
3750277500.0 -0.471715048 0.8737006979
3800277200.0 -0.459277023 0.8797810243
3850276900.0 -0.4473605282 0.8860211083
3900276600.0 -0.4363624103 0.8916229679
3950276300.0 -0.4235953486 0.897941459
4000276000.0 -0.4119206008 0.9039824227
4050275700.0 -0.398648549 0.9097063945
4100275400.0 -0.387549172 0.915245992
4150275100.0 -0.3750171497 0.9208282417
4200274800.0 -0.3621487616 0.9263289984
4250274500.0 -0.3498335352 0.9312854872
4300274200.0 -0.3369006908 0.9366574609
4350273900.0 -0.32312519 0.9423752831
4400273600.0 -0.3082059804 0.9474417153
4450273300.0 -0.2927459087 0.952599919
4500273000.0 -0.2790810242 0.9568798404
4550272700.0 -0.2649357313 0.9611598804
4600272400.0 -0.2493973595 0.9653456733
4650272100.0 -0.2379327682 0.9684402145
4700271800.0 -0.2243209037 0.9719635626
4750271500.0 -0.2128749066 0.9746646881
4800271200.0 -0.2003348612 0.9774053805
4850270900.0 -0.1863354243 0.9801316869
4900270600.0 -0.1723822312 0.9825128464
4950270300.0 -0.1581822609 0.9850732737
5000270000.0 -0.1441387444 0.9872790906
5050269700.0 -0.1306320831 0.9889654846
5100269400.0 -0.116828654 0.9902353933
5150269100.0 -0.1036770921 0.9921307807
5200268800.0 -0.0902874542 0.9934927541
5250268500.0 -0.0773679756 0.993497239
5300268200.0 -0.0642011102 0.9948624151
5350267900.0 -0.0518232162 0.9951143296
5400267600.0 -0.0357941293 0.9961730769
5450267300.0 -0.0224017858 0.9967137993
5500267000.0 -0.0072725747 0.9971815517
5550266700.0 0.007707042 0.9971560374
5600266400.0 0.0234339564 0.9972671387
5650266100.0 0.0396194789 0.9969071611
5700265800.0 0.0541781099 0.9962288183
5750265500.0 0.0692927144 0.9954389113
5800265200.0 0.0833729624 0.9943301261
5850264900.0 0.0966201719 0.993618492
5900264600.0 0.1132645712 0.9917356091
5950264300.0 0.1252885687 0.9897987883
6000264000.0 0.1393584271 0.9882992264
6050263700.0 0.1518203847 0.9866660951
6100263400.0 0.1641466641 0.9846440879
6150263100.0 0.178876592 0.9824265453
6200262800.0 0.1889744125 0.9807816286
6250262500.0 0.2017764608 0.9780880941
6300262200.0 0.214388435 0.9754702156
6350261900.0 0.2277484001 0.9725226938
6400261600.0 0.2414118124 0.9693232113
6450261300.0 0.2529816046 0.9665340573
6500261000.0 0.2657270498 0.9632017317
6550260700.0 0.2788374048 0.959226886
6600260400.0 0.2919524411 0.9550902349
6650260100.0 0.3062849778 0.9508593667
6700259800.0 0.3176024644 0.9463726557
6750259500.0 0.3316474152 0.9412405245
6800259200.0 0.3449952355 0.9364396749
6850258900.0 0.3568470351 0.9312720036
6900258600.0 0.3688916215 0.9261612361
6950258300.0 0.3815884679 0.9209344391
7000258000.0 0.3933035653 0.9154880123
7050257700.0 0.4059719539 0.9094396198
7100257400.0 0.4185389833 0.9032182422
7150257100.0 0.4288668844 0.8977683107
7200256800.0 0.4415977223 0.8912877388
7250256500.0 0.4534481438 0.8849893109
7300256200.0 0.4664928438 0.8782809376
7350255900.0 0.4787467446 0.8715248559
7400255600.0 0.492509913 0.864181139
7450255300.0 0.5072706368 0.8550337818
7500255000.0 0.5194797588 0.8481148625
7550254700.0 0.5328224356 0.8395124168
7600254400.0 0.5459220621 0.8313441051
7650254100.0 0.5576456591 0.8236359871
7700253800.0 0.5692081099 0.8156643718
7750253500.0 0.5801774697 0.8077842019
7800253200.0 0.5910272007 0.7999749394
7850252900.0 0.6006815815 0.792885339
7900252600.0 0.6123884825 0.784346754
7950252300.0 0.6211797912 0.7777181883
8000252000.0 0.6313419304 0.7699074709
8050251700.0 0.64176439 0.7616662442
8100251400.0 0.6519481223 0.7534697579
8150251100.0 0.6619384582 0.7449640507
8200250800.0 0.6713184173 0.7369948654
8250250500.0 0.6800443478 0.7290254551
8300250200.0 0.6894995017 0.7203595115
8350249900.0 0.6987951096 0.7118209124
8400249600.0 0.7067040805 0.7037602571
8450249300.0 0.7160568428 0.6944130296
8500249000.0 0.7244984573 0.6856219723
8550248700.0 0.7328753498 0.676693014
8600248400.0 0.7411793787 0.667088711
8650248100.0 0.749040985 0.6576533937
8700247800.0 0.7585320285 0.6463344006
8750247500.0 0.7668664554 0.636469808
8800247200.0 0.7749735948 0.6259538318
8850246900.0 0.7838122728 0.6145484833
8900246600.0 0.7922145417 0.6031773316
8950246300.0 0.8017975455 0.5901251838
9000246000.0 0.8109983184 0.577322734
9050245700.0 0.8202778494 0.5644475875
9100245400.0 0.828815039 0.5517036171
9150245100.0 0.8383019143 0.5380081282
9200244800.0 0.8481593586 0.5228094568
9250244500.0 0.8575248435 0.5072325229
9300244200.0 0.8661304413 0.4924129827
9350243900.0 0.8738567584 0.4786641658
9400243600.0 0.8803237689 0.4663536479
9450243300.0 0.8862480421 0.4544475345
9500243000.0 0.892572147 0.4424287683
9550242700.0 0.8962786027 0.4347032996
9600242400.0 0.9000543134 0.4274050882
9650242100.0 0.9035182462 0.4213511435
9700241800.0 0.9080833788 0.4130080679
9750241500.0 0.9119451105 0.4056116371
9800241200.0 0.9170120301 0.3963632326
9850240900.0 0.9224057442 0.3847703978
9900240600.0 0.9280206083 0.3730781015
9950240300.0 0.9345490943 0.3570580826
10000240000.0 0.9394539599 0.3454515713
10050239700.0 0.9449799243 0.3299211462
10100239400.0 0.9497663192 0.3146943925
10150239100.0 0.954286541 0.2999635659
10200238800.0 0.9584506255 0.2849381809
10250238500.0 0.9615248249 0.2716384665
10300238200.0 0.9648344549 0.2576350257
10350237900.0 0.9674598541 0.2445055918
10400237600.0 0.9699699435 0.231393257
10450237300.0 0.9729222511 0.2169892152
10500237000.0 0.9746951977 0.20560735
10550236700.0 0.9773778293 0.1913783129
10600236400.0 0.9797092712 0.1776395394
10650236100.0 0.981344925 0.1631852601
10700235800.0 0.9833559183 0.1510938461
10750235500.0 0.9859794637 0.1374616937
10800235200.0 0.9879424428 0.1234134981
10850234900.0 0.989729694 0.1089204998
10900234600.0 0.9916720569 0.0944772935
10950234300.0 0.9935510375 0.0811373411
11000234000.0 0.995256699 0.0660498622
11050233700.0 0.9969660073 0.0496413989
11100233400.0 0.9987501425 0.0323874786
11150233100.0 0.9997127972 0.0159088144
11200232800.0 1.000266754 0.0006193592
11250232500.0 1.001489788 -0.0161831267
11300232200.0 1.002032939 -0.0334500353
11350231900.0 1.0024058 -0.0499714786
11400231600.0 1.001915038 -0.0660602452
11450231300.0 1.000877263 -0.0805208373
11500231000.0 0.9997642783 -0.0971109517
11550230700.0 0.9984952901 -0.1096572743
11600230400.0 0.9971108304 -0.123256298
11650230100.0 0.9944480706 -0.1343737874
11700229800.0 0.9926965309 -0.1491914666
11750229500.0 0.9904548809 -0.1633592492
11800229200.0 0.9878545732 -0.1775923452
11850228900.0 0.9841638721 -0.1899013506
11900228600.0 0.9807442516 -0.1994065704
11950228300.0 0.9773506551 -0.2100662118
12000228000.0 0.9748446656 -0.2186403356
12050227700.0 0.9711865327 -0.2320441264
12100227400.0 0.9679072568 -0.2433399931
12150227100.0 0.962761364 -0.2589313517
12200226800.0 0.9585297646 -0.2709593767
12250226500.0 0.9550378931 -0.2833118235
12300226200.0 0.9512194151 -0.2944754103
12350225900.0 0.9459482316 -0.3091314464
12400225600.0 0.9415094749 -0.3217233923
12450225300.0 0.9372668491 -0.3348882651
12500225000.0 0.9315106579 -0.3492158664
12550224700.0 0.9267084365 -0.3631731807
12600224400.0 0.9218852422 -0.3758876343
12650224100.0 0.9159361238 -0.3902018577
12700223800.0 0.910715704 -0.4029296232
12750223500.0 0.9051928811 -0.4155911452
12800223200.0 0.9000762608 -0.4283970342
12850222900.0 0.8950562508 -0.4404121432
12900222600.0 0.8888598129 -0.4525847866
12950222300.0 0.882588612 -0.4652305353
13000222000.0 0.8767194983 -0.4774511551
13050221700.0 0.8698615763 -0.4900032739
13100221400.0 0.8633018142 -0.5017254416
13150221100.0 0.8560550499 -0.5140478697
13200220800.0 0.8493939321 -0.5255249831
13250220500.0 0.8417602229 -0.5376490475
13300220200.0 0.8343463543 -0.5487328315
13350219900.0 0.8263905925 -0.5604740637
13400219600.0 0.8181017691 -0.5726935772
13450219300.0 0.8085308996 -0.5862929545
13500219000.0 0.7984926573 -0.600247287
13550218700.0 0.7880083801 -0.613529675
13600218400.0 0.7775242151 -0.6252741527
13650218100.0 0.7683475286 -0.6361703261
13700217800.0 0.7576833273 -0.6487311427
13750217500.0 0.747640304 -0.6598428149
13800217200.0 0.7360844913 -0.6711466912
13850216900.0 0.7246567015 -0.6833614413
13900216600.0 0.7149514758 -0.6922067982
13950216300.0 0.703788578 -0.7024896747
14000216000.0 0.6939782983 -0.7116348053
14050215700.0 0.6846259801 -0.7198459924
14100215400.0 0.6747848437 -0.7288374255
14150215100.0 0.6655927203 -0.737190257
14200214800.0 0.6562465045 -0.7458117961
14250214500.0 0.6459187219 -0.755301093
14300214200.0 0.6357570307 -0.7644029429
14350213900.0 0.6246803136 -0.7740293362
14400213600.0 0.6129942214 -0.7839611586
14450213300.0 0.599945854 -0.7938655865
14500213000.0 0.5865752952 -0.8038988308
14550212700.0 0.5739564173 -0.8136626212
14600212400.0 0.5617557852 -0.8222255899
14650212100.0 0.5486090887 -0.8310426008
14700211800.0 0.5349690595 -0.8404735764
14750211500.0 0.5226419774 -0.8484064143
14800211200.0 0.5102667206 -0.8565795984
14850210900.0 0.4982660615 -0.8641795237
14900210600.0 0.4848212572 -0.8719544122
14950210300.0 0.4714149008 -0.8795541784
15000210000.0 0.458609684 -0.8863382903
15050209700.0 0.446213604 -0.8926537305
15100209400.0 0.4330936858 -0.8981680201
15150209100.0 0.4211990997 -0.9043703123
15200208800.0 0.407433655 -0.9093067575
15250208500.0 0.3968498829 -0.913804707
15300208200.0 0.3845488562 -0.9183888515
15350207900.0 0.371949059 -0.9237089211
15400207600.0 0.3569165523 -0.9284726967
15450207300.0 0.342525444 -0.9337261899
15500207000.0 0.3276789983 -0.9380393113
15550206700.0 0.3121586803 -0.9426462484
15600206400.0 0.2970573222 -0.9472590572
15650206100.0 0.2811584421 -0.9518426139
15700205800.0 0.267340519 -0.9555943542
15750205500.0 0.2522688058 -0.9592308252
15800205200.0 0.2380428662 -0.9626902424
15850204900.0 0.22371233 -0.9659888755
15900204600.0 0.2088004917 -0.9695424289
15950204300.0 0.1945971329 -0.9723949856
16000204000.0 0.1806744592 -0.9753659233
16050203700.0 0.1654531253 -0.9781459684
16100203400.0 0.1515901319 -0.980309108
16150203100.0 0.137065053 -0.9822180372
16200202800.0 0.1223852376 -0.9843595026
16250202500.0 0.1080130682 -0.9860137148
16300202200.0 0.0928903574 -0.9879101041
16350201900.0 0.0779322245 -0.9892937364
16400201600.0 0.063104644 -0.990336999
16450201300.0 0.0477287004 -0.9913839516
16500201000.0 0.0312673999 -0.9921238413
16550200700.0 0.0155529276 -0.9924929255
16600200400.0 -0.0003319513 -0.9926603738
16650200100.0 -0.0163477487 -0.9922960488
16700199800.0 -0.0331961506 -0.9920250352
16750199500.0 -0.0515821937 -0.9912270717
16800199200.0 -0.0673467536 -0.9908234774
16850198900.0 -0.0826399563 -0.9896053645
16900198600.0 -0.0963095792 -0.9889096242
16950198300.0 -0.1101370737 -0.9871167267
17000198000.0 -0.1230994139 -0.9858793575
17050197700.0 -0.1348693032 -0.9837276029
17100197400.0 -0.1480123578 -0.9818194893
17150197100.0 -0.1610606339 -0.9800762065
17200196800.0 -0.1736393749 -0.977950582
17250196500.0 -0.1866350513 -0.9754604788
17300196200.0 -0.1987946832 -0.9732756142
17350195900.0 -0.2105610324 -0.9710945857
17400195600.0 -0.2226310793 -0.9684915192
17450195300.0 -0.2356552866 -0.9657664634
17500195000.0 -0.2492865613 -0.9623738688
17550194700.0 -0.2627782074 -0.958843994
17600194400.0 -0.2771832052 -0.9546413647
17650194100.0 -0.2905849786 -0.9501461642
17700193800.0 -0.3039496076 -0.9463154911
17750193500.0 -0.31814831 -0.9414738708
17800193200.0 -0.3324662446 -0.9364420581
17850192900.0 -0.3470552428 -0.931082643
17900192600.0 -0.3628452395 -0.9251943915
17950192300.0 -0.3780159847 -0.9176597648
18000192000.0 -0.3929937771 -0.9105798597
18050191700.0 -0.4066058489 -0.9025251181
18100191400.0 -0.4211306486 -0.8948713089
18150191100.0 -0.4359954602 -0.8869217517
18200190800.0 -0.4528458124 -0.8777156222
18250190500.0 -0.470154802 -0.8683535669
18300190200.0 -0.4853495034 -0.8594127342
18350189900.0 -0.5006162632 -0.8508335377
18400189600.0 -0.5149102652 -0.8422299394
18450189300.0 -0.5279396205 -0.834657011
18500189000.0 -0.5414509723 -0.8267537376
18550188700.0 -0.5541568127 -0.8189573881
18600188400.0 -0.5658327603 -0.8120291787
18650188100.0 -0.5770059881 -0.805478483
18700187800.0 -0.5880729017 -0.799208501
18750187500.0 -0.5982175639 -0.7926715902
18800187200.0 -0.6089734029 -0.7857397046
18850186900.0 -0.6192486519 -0.7787593842
18900186600.0 -0.6295721378 -0.7712983326
18950186300.0 -0.6395158296 -0.763654227
19000186000.0 -0.6466964512 -0.7574537649
19050185700.0 -0.655948391 -0.7502989467
19100185400.0 -0.6658508672 -0.7421693827
19150185100.0 -0.6754439236 -0.7340331812
19200184800.0 -0.6851078439 -0.7252074782
19250184500.0 -0.6961656228 -0.7157836021
19300184200.0 -0.7067123181 -0.7066551131
19350183900.0 -0.7179364554 -0.6970630669
19400183600.0 -0.7271161974 -0.6867124302
19450183300.0 -0.7360158815 -0.6772262281
19500183000.0 -0.7444703972 -0.6666579077
19550182700.0 -0.7540215775 -0.6560999598
19600182400.0 -0.7646255467 -0.6443528199
19650182100.0 -0.775614799 -0.6317281674
19700181800.0 -0.7862740527 -0.61865742
19750181500.0 -0.7965531978 -0.6045432798
19800181200.0 -0.8069009932 -0.5895315146
19850180900.0 -0.8167168176 -0.5741055468
19900180600.0 -0.8243746869 -0.5596038442
19950180300.0 -0.8336360297 -0.543317484
20000180000.0 -0.8266434679 -0.5456203003
20050179700.0 -0.8342322876 -0.5322997274
20100179400.0 -0.8426916632 -0.5190240296
20150179100.0 -0.8521181242 -0.5064002156
20200178800.0 -0.8601631335 -0.4929690449
20250178500.0 -0.8690931264 -0.4797634874
20300178200.0 -0.878789779 -0.465248966
20350177900.0 -0.8884612244 -0.451215373
20400177600.0 -0.8974212541 -0.4366714742
20450177300.0 -0.9054161276 -0.4218710806
20500177000.0 -0.9134940561 -0.408299217
20550176700.0 -0.9212623278 -0.3947311725
20600176400.0 -0.9284237491 -0.3815352438
20650176100.0 -0.9348283545 -0.3691934176
20700175800.0 -0.941194243 -0.3569641117
20750175500.0 -0.9478179374 -0.346039918
20800175200.0 -0.9531585697 -0.334887815
20850174900.0 -0.9575346068 -0.3236746408
20900174600.0 -0.9627490848 -0.3125824223
20950174300.0 -0.9663948624 -0.3007678205
21000174000.0 -0.970461624 -0.2886103548
21050173700.0 -0.972074161 -0.2779047866
21100173400.0 -0.9762875025 -0.2659660946
21150173100.0 -0.9811368155 -0.2534795494
21200172800.0 -0.9839674135 -0.2397326334
21250172500.0 -0.9876115798 -0.2263276668
21300172200.0 -0.9905171063 -0.211914126
21350171900.0 -0.9914622226 -0.1974249273
21400171600.0 -0.9931972103 -0.1841182538
21450171300.0 -0.99316934 -0.1692965906
21500171000.0 -0.9930050301 -0.1535094245
21550170700.0 -0.9928846492 -0.1380971463
21600170400.0 -0.992471301 -0.1226047428
21650170100.0 -0.9922516264 -0.1061873322
21700169800.0 -0.9904064128 -0.0909768715
21750169500.0 -0.9890464555 -0.0755185512
21800169200.0 -0.9888444868 -0.059593274
21850168900.0 -0.9872381087 -0.0424576955
21900168600.0 -0.9854672713 -0.0261697274
21950168300.0 -0.984355755 -0.0105546372
22000168000.0 -0.9832825614 0.0040552718
22050167700.0 -0.9826527285 0.0187809554
22100167400.0 -0.9832504923 0.0337274752
22150167100.0 -0.9836388668 0.0493928603
22200166800.0 -0.9838234296 0.0658450654
22250166500.0 -0.98347815 0.0825176322
22300166200.0 -0.9832465312 0.0987865643
22350165900.0 -0.9808344179 0.1160339982
22400165600.0 -0.97897447 0.1323237316
22450165300.0 -0.9769951234 0.1461495508
22500165000.0 -0.9759199848 0.1611606647
22550164700.0 -0.9753775918 0.175360792
22600164400.0 -0.9736345782 0.190529912
22650164100.0 -0.9708328005 0.2060011151
22700163800.0 -0.9684372749 0.2218410525
22750163500.0 -0.9655898747 0.2375796014
22800163200.0 -0.9625394507 0.2502775651
22850162900.0 -0.9608770258 0.2640960219
22900162600.0 -0.9589324907 0.2772311342
22950162300.0 -0.9580258696 0.2900333854
23000162000.0 -0.9571044831 0.3017723015
23050161700.0 -0.9551097939 0.3142827719
23100161400.0 -0.9522152 0.3270675352
23150161100.0 -0.9497604946 0.3389833108
23200160800.0 -0.9467563286 0.3517036237
23250160500.0 -0.9442398186 0.3629902781
23300160200.0 -0.9427021582 0.3754399129
23350159900.0 -0.9384822635 0.3882879547
23400159600.0 -0.9335345075 0.4018442724
23450159300.0 -0.9290604381 0.4151531987
23500159000.0 -0.9243190371 0.4275394516
23550158700.0 -0.9196381632 0.4411165626
23600158400.0 -0.9141586036 0.4544550953
23650158100.0 -0.90809927 0.4684932263
23700157800.0 -0.9003579493 0.4821912761
23750157500.0 -0.8916933524 0.496263512
23800157200.0 -0.8829296071 0.5092796127
23850156900.0 -0.8740542558 0.5223309206
23900156600.0 -0.8655942373 0.5343016288
23950156300.0 -0.8560591331 0.5475034956
24000156000.0 -0.8467115067 0.5592709029
24050155700.0 -0.8372128568 0.5701589889
24100155400.0 -0.826081036 0.5821694761
24150155100.0 -0.8152023781 0.5943422933
24200154800.0 -0.8052816295 0.6049838196
24250154500.0 -0.7933807904 0.6175171694
24300154200.0 -0.7821614436 0.6287358739
24350153900.0 -0.7699795503 0.6393745156
24400153600.0 -0.7577692929 0.6498169173
24450153300.0 -0.7457844186 0.6592625894
24500153000.0 -0.7345660808 0.6689492488
24550152700.0 -0.7235471514 0.6786188142
24600152400.0 -0.7117677187 0.6877630362
24650152100.0 -0.6992848028 0.6965903903
