!Created with skrf (http://scikit-rf.org).
# Hz S RI R 50.0 
!freq ReS11 ImS11
300000.0 -0.975650762 -0.1169288425
50299700.0 -1.000057259 0.0157923587
100299400.0 -0.9980136135 0.0284683951
150299100.0 -1.002876634 0.0453550502
200298800.0 -0.999753364 0.0586108112
250298500.0 -0.9974212364 0.0721892843
300298200.0 -0.9860883374 0.087872375
350297900.0 -0.9938871087 0.0989387419
400297600.0 -0.9930792236 0.1154783219
450297300.0 -0.9910419647 0.1294008901
500297000.0 -0.9896266478 0.1439443418
550296700.0 -0.9842925652 0.1563953829
600296400.0 -1.017584812 0.1897649391
650296100.0 -0.9821453448 0.1866169374
700295800.0 -0.9792821333 0.2007588895
750295500.0 -0.9762503603 0.2146623109
800295200.0 -0.9729116491 0.228985537
850294900.0 -0.9696281573 0.2425947675
900294600.0 -0.9659700855 0.2564432429
950294300.0 -0.9620731908 0.2699641094
1000294000.0 -0.9580933323 0.2840910907
1050293700.0 -0.9534890468 0.2979105463
1100293400.0 -0.9493535674 0.3124433768
1150293100.0 -0.9454172268 0.324217814
1200292800.0 -0.9401644798 0.3384738404
1250292500.0 -0.9344349288 0.3519440097
1300292200.0 -0.9289871466 0.3651960271
1350291900.0 -0.9234152329 0.3792520939
1400291600.0 -0.9178152902 0.3922608172
1450291300.0 -0.9124067129 0.4048071616
1500291000.0 -0.9060530139 0.4181928285
1550290700.0 -0.8996786879 0.4314188695
1600290400.0 -0.8934084721 0.4444578274
1650290100.0 -0.886651181 0.4565229888
1700289800.0 -0.8797878867 0.4698954278
1750289500.0 -0.8726344263 0.4823223432
1800289200.0 -0.8653662878 0.495104583
1850288900.0 -0.8583747181 0.5065242013
1900288600.0 -0.8508229337 0.5195699167
1950288300.0 -0.8427156339 0.5320235618
2000288000.0 -0.8351816158 0.5434194904
2050287700.0 -0.8268650393 0.5557466863
2100287400.0 -0.8189160846 0.5675517036
2150287100.0 -0.8105254821 0.5794416009
2200286800.0 -0.8028324026 0.5898207506
2250286500.0 -0.7938303648 0.6018354375
2300286200.0 -0.7849130545 0.6134621948
2350285900.0 -0.7762860732 0.6246013969
2400285600.0 -0.7671574083 0.6355119498
2450285300.0 -0.7587210772 0.6458529084
2500285000.0 -0.7488469368 0.6572083966
2550284700.0 -0.7401523403 0.6677273366
2600284400.0 -0.7307716236 0.6774808888
2650284100.0 -0.7215457143 0.6879875877
2700283800.0 -0.7110071521 0.6986611445
2750283500.0 -0.7006349913 0.7093934994
2800283200.0 -0.6909532119 0.7190132634
2850282900.0 -0.6805590374 0.7286996777
2900282600.0 -0.6704585845 0.7382559255
2950282300.0 -0.6601307848 0.7477602754
3000282000.0 -0.649393557 0.7570151207
3050281700.0 -0.6383206154 0.7663777335
3100281400.0 -0.6263160685 0.7756519208
3150281100.0 -0.6145822004 0.785165022
3200280800.0 -0.6028621082 0.7935985762
3250280500.0 -0.5920425516 0.801254993
3300280200.0 -0.5808182877 0.8090503326
3350279900.0 -0.5690786947 0.816655076
3400279600.0 -0.5571266407 0.8243647604
3450279300.0 -0.5461306284 0.8314390673
3500279000.0 -0.5341142595 0.8386654882
3550278700.0 -0.5216446191 0.8457249356
3600278400.0 -0.5094245458 0.8531983182
3650278100.0 -0.4959242063 0.8604556016
3700277800.0 -0.4840038783 0.8671673307
3750277500.0 -0.4719098513 0.8735657285
3800277200.0 -0.4593723687 0.8800964269
3850276900.0 -0.4472772156 0.8858020181
3900276600.0 -0.4362680917 0.8917757562
3950276300.0 -0.4239663872 0.8977354332
4000276000.0 -0.4120286896 0.9039575943
4050275700.0 -0.3988617109 0.9097515772
4100275400.0 -0.387488186 0.9151258403
4150275100.0 -0.3751891097 0.9210364242
4200274800.0 -0.3622993657 0.926374282
4250274500.0 -0.3498197479 0.9313562092
4300274200.0 -0.3371816945 0.9367277755
4350273900.0 -0.3231338016 0.9419898794
4400273600.0 -0.3082542146 0.9474878602
4450273300.0 -0.2928813724 0.952405574
4500273000.0 -0.2792866109 0.9568934554
4550272700.0 -0.265100158 0.9611793396
4600272400.0 -0.2495291731 0.9652844322
4650272100.0 -0.2379463887 0.9684513981
4700271800.0 -0.2245954153 0.971786778
4750271500.0 -0.2129481832 0.9746227709
4800271200.0 -0.200344931 0.9772882529
4850270900.0 -0.1863652835 0.9800506298
4900270600.0 -0.1726347579 0.9825975057
4950270300.0 -0.1581912038 0.9850786166
5000270000.0 -0.1441854275 0.9873032289
5050269700.0 -0.1305698926 0.9888597913
5100269400.0 -0.1170673048 0.9905143285
5150269100.0 -0.104009135 0.9921209702
5200268800.0 -0.0903573555 0.9934651842
5250268500.0 -0.07731814 0.9940752107
5300268200.0 -0.0641245017 0.9946940031
5350267900.0 -0.0519681984 0.9952912906
5400267600.0 -0.0359006732 0.9965199577
5450267300.0 -0.0226427414 0.9967377632
5500267000.0 -0.0074310457 0.9972162579
5550266700.0 0.0074551753 0.9974348657
5600266400.0 0.0228581884 0.9974364773
5650266100.0 0.0396481446 0.9969530605
5700265800.0 0.0538171277 0.996023555
5750265500.0 0.0692368743 0.99545765
5800265200.0 0.0834673486 0.9944055168
5850264900.0 0.0970048259 0.993651177
5900264600.0 0.1132116972 0.9916179131
5950264300.0 0.1253710854 0.9902767035
6000264000.0 0.1393448865 0.9882101055
6050263700.0 0.1515567103 0.9867154314
6100263400.0 0.1639696377 0.9849362604
6150263100.0 0.178699109 0.9826303224
6200262800.0 0.1890074215 0.9808412598
6250262500.0 0.2016250065 0.9782837705
6300262200.0 0.214465771 0.9756732698
6350261900.0 0.2278060828 0.972621958
6400261600.0 0.2411060919 0.9690807601
6450261300.0 0.2528647933 0.9666308481
6500261000.0 0.2655510554 0.9631149474
6550260700.0 0.2787074924 0.959235927
6600260400.0 0.2921705578 0.9552409411
6650260100.0 0.3058284697 0.9504868567
6700259800.0 0.3178159964 0.9462613107
6750259500.0 0.3314831236 0.941180585
6800259200.0 0.3444063306 0.9363424866
6850258900.0 0.3566443199 0.9313898845
6900258600.0 0.3688997095 0.926546879
6950258300.0 0.3811216855 0.9209752672
7000258000.0 0.3933495158 0.9156758453
7050257700.0 0.4055884426 0.9095335224
7100257400.0 0.4182449794 0.9033169891
7150257100.0 0.4286294617 0.8980426226
7200256800.0 0.4415563634 0.8916206465
7250256500.0 0.4532713995 0.8852500213
7300256200.0 0.4664671301 0.8786041459
7350255900.0 0.4790229358 0.8718894893
7400255600.0 0.4918681587 0.8640753118
7450255300.0 0.5070682815 0.8551635985
7500255000.0 0.5194667811 0.8484247759
7550254700.0 0.5331652559 0.839666323
7600254400.0 0.545258322 0.8314341348
7650254100.0 0.5572250687 0.8236064308
7700253800.0 0.5689201211 0.8154197659
7750253500.0 0.5803318811 0.8077930846
7800253200.0 0.5908874765 0.8001413122
7850252900.0 0.6006380399 0.7929995554
7900252600.0 0.6121589932 0.7841477111
7950252300.0 0.6210099409 0.777717267
8000252000.0 0.6312812718 0.7700710463
8050251700.0 0.6417687629 0.7618643672
8100251400.0 0.6516434668 0.7536377082
8150251100.0 0.661962706 0.745056307
8200250800.0 0.6714465846 0.7370701274
8250250500.0 0.679996972 0.7290888722
8300250200.0 0.6895503554 0.7205068307
8350249900.0 0.6984421771 0.7118278154
8400249600.0 0.7067174883 0.7038218362
8450249300.0 0.7160478121 0.6945120197
8500249000.0 0.7242506343 0.6857595574
8550248700.0 0.7326896317 0.6768746589
8600248400.0 0.7412327052 0.6672898836
8650248100.0 0.7488703379 0.657906114
8700247800.0 0.7582850217 0.6466534769
8750247500.0 0.7667200684 0.6365288525
8800247200.0 0.7751488459 0.6258557145
8850246900.0 0.7837363516 0.6145804207
8900246600.0 0.7924480185 0.603301716
8950246300.0 0.8019525714 0.5902647988
9000246000.0 0.8112421393 0.5774838014
9050245700.0 0.8202652136 0.5646377037
9100245400.0 0.8287786586 0.5519931448
9150245100.0 0.8381926203 0.5381537264
9200244800.0 0.8478083497 0.5229819334
9250244500.0 0.8575804412 0.5074803205
9300244200.0 0.8660479345 0.4928050309
9350243900.0 0.8736029268 0.4787354197
9400243600.0 0.8801341465 0.4664672246
9450243300.0 0.8861183269 0.4550013169
9500243000.0 0.8923328015 0.442785932
9550242700.0 0.8962994072 0.4351565683
9600242400.0 0.900134593 0.4277696975
9650242100.0 0.9036395985 0.4213776588
9700241800.0 0.9079899174 0.4132144256
9750241500.0 0.9121110581 0.4055101451
9800241200.0 0.9168322388 0.3964148482
9850240900.0 0.9224776097 0.3849817751
9900240600.0 0.9280766556 0.3732138513
9950240300.0 0.9346822003 0.3570778242
10000240000.0 0.9389348432 0.3456209617
10050239700.0 0.9449894392 0.3299894712
10100239400.0 0.9498874876 0.3149173383
10150239100.0 0.9542593846 0.299922231
10200238800.0 0.9583204677 0.2850056789
10250238500.0 0.9617598536 0.2716326843
10300238200.0 0.9649048471 0.2577604361
10350237900.0 0.9675375971 0.2445976943
10400237600.0 0.9699133038 0.2318093938
10450237300.0 0.9727350079 0.2177012466
10500237000.0 0.9746890662 0.2060382665
10550236700.0 0.9769601605 0.1915979326
10600236400.0 0.9790258569 0.1782689312
10650236100.0 0.9813329674 0.1634249808
10700235800.0 0.9837422434 0.1508378794
10750235500.0 0.9859112109 0.1378275923
10800235200.0 0.9878763254 0.1239703062
10850234900.0 0.9897181653 0.1089232461
10900234600.0 0.9918522159 0.0946496076
10950234300.0 0.9935519919 0.0813475219
11000234000.0 0.9953190076 0.0661380809
11050233700.0 0.9970497156 0.049867855
11100233400.0 0.9984403961 0.0322151759
11150233100.0 0.9994346176 0.0160581823
11200232800.0 1.000201572 0.0009182205
11250232500.0 1.001060657 -0.0156597108
11300232200.0 1.001929495 -0.0337087512
11350231900.0 1.001891435 -0.0486925243
11400231600.0 1.001314135 -0.0644111877
11450231300.0 1.001064827 -0.0798042791
11500231000.0 0.999923563 -0.0970864119
11550230700.0 0.9983553697 -0.1100940774
11600230400.0 0.9973826486 -0.122447093
11650230100.0 0.9951868906 -0.133777816
11700229800.0 0.9931610715 -0.1487440374
11750229500.0 0.990781114 -0.1631011655
11800229200.0 0.9881573271 -0.1769564969
11850228900.0 0.9844046313 -0.1893996561
11900228600.0 0.9807419771 -0.1989261248
11950228300.0 0.9778372897 -0.2093317716
12000228000.0 0.9745891292 -0.2187258803
12050227700.0 0.9713392877 -0.2314292246
12100227400.0 0.9684652943 -0.2423876486
12150227100.0 0.9627131897 -0.2591064627
12200226800.0 0.9602024229 -0.2697105561
12250226500.0 0.9562190355 -0.2821502035
12300226200.0 0.9507231324 -0.2954275482
12350225900.0 0.9463098612 -0.308758426
12400225600.0 0.9421537824 -0.3217313571
12450225300.0 0.937920551 -0.3340841475
12500225000.0 0.9321657863 -0.3487808039
12550224700.0 0.9269451971 -0.3629214501
12600224400.0 0.9216948403 -0.3756656459
12650224100.0 0.916070712 -0.3901339836
12700223800.0 0.9107658275 -0.4027034597
12750223500.0 0.9052801132 -0.4157148009
12800223200.0 0.899911204 -0.4284852867
12850222900.0 0.8945526403 -0.4404629298
12900222600.0 0.8888043473 -0.4530647462
12950222300.0 0.8828071741 -0.4649521963
13000222000.0 0.8767678736 -0.4769089264
13050221700.0 0.8701387469 -0.4894098952
13100221400.0 0.863126425 -0.5009153217
13150221100.0 0.8567411181 -0.5140109134
13200220800.0 0.8495430151 -0.5249587761
13250220500.0 0.8418551889 -0.5374882218
13300220200.0 0.8348456107 -0.5480298856
13350219900.0 0.8266775135 -0.56019368
13400219600.0 0.8182426936 -0.572480089
13450219300.0 0.8087391452 -0.5862086391
13500219000.0 0.7986895247 -0.6000323501
13550218700.0 0.7883721978 -0.6128610598
13600218400.0 0.7784067749 -0.6249867574
13650218100.0 0.7687880736 -0.6359371464
13700217800.0 0.7580031355 -0.6483205545
13750217500.0 0.7474223413 -0.6602835863
13800217200.0 0.7367275367 -0.6711154487
13850216900.0 0.7247419188 -0.6828525582
13900216600.0 0.7146653592 -0.6916701867
13950216300.0 0.7038474418 -0.7020515028
14000216000.0 0.6947721438 -0.7116184154
14050215700.0 0.6848256545 -0.7198893116
14100215400.0 0.6748731079 -0.7288784993
14150215100.0 0.6658128666 -0.7370570487
14200214800.0 0.6563621609 -0.7457902147
14250214500.0 0.6461882409 -0.7550935042
14300214200.0 0.6358312787 -0.7643074936
14350213900.0 0.6245916363 -0.7738749162
14400213600.0 0.612796698 -0.7834926231
14450213300.0 0.5996068517 -0.793886698
14500213000.0 0.5869669744 -0.8040291855
14550212700.0 0.5742863913 -0.8129122634
14600212400.0 0.5621156584 -0.8220253923
14650212100.0 0.5488065067 -0.8310051341
14700211800.0 0.5346039863 -0.8404313231
14750211500.0 0.5225621621 -0.8486608022
14800211200.0 0.5105604008 -0.8565249821
14850210900.0 0.4980800547 -0.8641745868
14900210600.0 0.4848655091 -0.8719059201
14950210300.0 0.471474593 -0.8795207321
15000210000.0 0.4588224491 -0.8864496663
15050209700.0 0.4465956301 -0.8926998412
15100209400.0 0.4335382722 -0.8987267523
15150209100.0 0.4209390051 -0.904112443
15200208800.0 0.408362543 -0.9097317997
15250208500.0 0.3972757135 -0.9139745928
15300208200.0 0.3853351486 -0.9184730328
15350207900.0 0.3720309673 -0.9229963203
15400207600.0 0.3571326072 -0.9289396101
15450207300.0 0.3421068805 -0.9333418697
15500207000.0 0.328254425 -0.9377933624
15550206700.0 0.313006568 -0.9435637359
15600206400.0 0.2969353595 -0.9477128027
15650206100.0 0.2811221491 -0.9521195312
15700205800.0 0.2670561453 -0.9555310717
15750205500.0 0.2526347581 -0.9592605755
15800205200.0 0.2383663052 -0.9625302169
15850204900.0 0.223921337 -0.965966319
15900204600.0 0.208855465 -0.9694994691
15950204300.0 0.1947969486 -0.9725803498
16000204000.0 0.180473919 -0.9752263461
16050203700.0 0.1657594047 -0.9780178449
16100203400.0 0.1512234312 -0.9801928426
16150203100.0 0.1369048704 -0.982720241
16200202800.0 0.1228127278 -0.9850036441
16250202500.0 0.1080963935 -0.98632971
16300202200.0 0.0930292247 -0.987809523
16350201900.0 0.0779902178 -0.989121101
16400201600.0 0.0632349116 -0.9904592335
16450201300.0 0.0478446092 -0.9913792016
16500201000.0 0.031515878 -0.9921362094
16550200700.0 0.0157808173 -0.9926209742
16600200400.0 0.0001718052 -0.9926741953
16650200100.0 -0.0160439234 -0.9926076992
16700199800.0 -0.0328656721 -0.9922367571
16750199500.0 -0.0514443431 -0.9914800797
16800199200.0 -0.0671301185 -0.9908881185
16850198900.0 -0.0825954481 -0.9894672898
16900198600.0 -0.0968455704 -0.9886608519
16950198300.0 -0.1097829647 -0.9875037666
17000198000.0 -0.1225980948 -0.9856218626
17050197700.0 -0.1349941681 -0.983753614
17100197400.0 -0.1485489411 -0.9820608404
17150197100.0 -0.1607058471 -0.9804022959
17200196800.0 -0.1733726574 -0.9777707362
17250196500.0 -0.1862443962 -0.9750938838
17300196200.0 -0.1982070456 -0.9733388985
17350195900.0 -0.2101651092 -0.9710034112
17400195600.0 -0.2223201327 -0.9684895004
17450195300.0 -0.2355011404 -0.9658446763
17500195000.0 -0.2490141131 -0.9623429759
17550194700.0 -0.2626744379 -0.9588619999
17600194400.0 -0.2766160415 -0.9545685479
17650194100.0 -0.2903048423 -0.9505032438
17700193800.0 -0.3040761446 -0.9460120088
17750193500.0 -0.3177419512 -0.9417553714
17800193200.0 -0.3321718934 -0.9364258499
17850192900.0 -0.3469415995 -0.9309884012
17900192600.0 -0.3621793161 -0.9251037764
17950192300.0 -0.3781541435 -0.9177945858
18000192000.0 -0.3925674912 -0.9104177046
18050191700.0 -0.4066442624 -0.902696655
18100191400.0 -0.4207553491 -0.8950510244
18150191100.0 -0.435833714 -0.8869427191
18200190800.0 -0.4528165457 -0.877640303
18250190500.0 -0.4698341189 -0.8683827973
18300190200.0 -0.4852849125 -0.8595535998
18350189900.0 -0.5000945361 -0.8512062476
18400189600.0 -0.5147516105 -0.8426304635
18450189300.0 -0.5278148024 -0.8343251321
18500189000.0 -0.5411917013 -0.8267634713
18550188700.0 -0.5536415775 -0.8193992567
18600188400.0 -0.5655597037 -0.8124282044
18650188100.0 -0.5765130346 -0.8064476459
18700187800.0 -0.5872461763 -0.7994095626
18750187500.0 -0.5981153708 -0.7928980318
18800187200.0 -0.6087317315 -0.7859217582
18850186900.0 -0.618843738 -0.7789229675
18900186600.0 -0.6289801876 -0.771732539
18950186300.0 -0.6389272695 -0.7641995255
19000186000.0 -0.6461975899 -0.7577608023
19050185700.0 -0.6552424978 -0.7506987226
19100185400.0 -0.6653693065 -0.7425183705
19150185100.0 -0.6752533311 -0.7340151139
19200184800.0 -0.6849086209 -0.7257268024
19250184500.0 -0.6951600103 -0.7162551616
19300184200.0 -0.706171443 -0.7067609969
19350183900.0 -0.7177810281 -0.6970240233
19400183600.0 -0.7262818693 -0.6874508412
19450183300.0 -0.735784891 -0.6773165312
19500183000.0 -0.7441425888 -0.6674126893
19550182700.0 -0.7537595545 -0.656215314
19600182400.0 -0.7642367701 -0.6445834722
19650182100.0 -0.7748390475 -0.632409905
19700181800.0 -0.78562263 -0.6188078224
19750181500.0 -0.7963367778 -0.6046197414
19800181200.0 -0.8067497409 -0.5895739114
19850180900.0 -0.8164162661 -0.5742703426
19900180600.0 -0.8240982586 -0.5599717206
19950180300.0 -0.8334742168 -0.5433614525
20000180000.0 -0.8262451931 -0.5457780377
20050179700.0 -0.8348404127 -0.5331218604
20100179400.0 -0.8427780604 -0.5195778951
20150179100.0 -0.8513831972 -0.5068483574
20200178800.0 -0.8604015636 -0.494077584
20250178500.0 -0.8698926319 -0.479685457
20300178200.0 -0.8794073948 -0.4661113166
20350177900.0 -0.8884196016 -0.4513864421
20400177600.0 -0.8978312052 -0.4365972042
20450177300.0 -0.9058674989 -0.422074191
20500177000.0 -0.9135228994 -0.4083251256
20550176700.0 -0.9212508105 -0.3946375054
20600176400.0 -0.9283200892 -0.3814024052
20650176100.0 -0.9350890077 -0.3690494356
20700175800.0 -0.941756994 -0.3576446574
20750175500.0 -0.9478059002 -0.3450507776
20800175200.0 -0.9530788083 -0.3344873291
20850174900.0 -0.9572146745 -0.3234348471
20900174600.0 -0.9626630279 -0.3122994504
20950174300.0 -0.9668280057 -0.3010846837
21000174000.0 -0.9700450277 -0.2891639647
21050173700.0 -0.9730739058 -0.278157699
21100173400.0 -0.9768308753 -0.2664214572
21150173100.0 -0.9809601327 -0.2537387551
21200172800.0 -0.9846297792 -0.2399618282
21250172500.0 -0.9876122925 -0.2266510376
21300172200.0 -0.9901141938 -0.2128114989
21350171900.0 -0.9915947565 -0.1981726128
21400171600.0 -0.992840994 -0.1842512209
21450171300.0 -0.9930498687 -0.168518003
21500171000.0 -0.9928662632 -0.1531332709
21550170700.0 -0.993001532 -0.1383777582
21600170400.0 -0.9919149173 -0.1223654939
21650170100.0 -0.9907425949 -0.1068669558
21700169800.0 -0.9898085172 -0.0928191274
21750169500.0 -0.9883544567 -0.076610347
21800169200.0 -0.9881721181 -0.0594195858
21850168900.0 -0.9859185748 -0.0422060573
21900168600.0 -0.9861354033 -0.0268919663
21950168300.0 -0.9846092085 -0.0106084166
22000168000.0 -0.9831868791 0.0043915596
22050167700.0 -0.9826489944 0.0182811965
22100167400.0 -0.982854953 0.0338944954
22150167100.0 -0.9836246562 0.0492577143
22200166800.0 -0.9842046151 0.0650577883
22250166500.0 -0.9834145445 0.082324524
22300166200.0 -0.9831687033 0.0988099207
22350165900.0 -0.9818655779 0.1160162237
22400165600.0 -0.9791032515 0.1318017655
22450165300.0 -0.9778823812 0.1456991582
22500165000.0 -0.9761785645 0.1601323058
22550164700.0 -0.9745219467 0.1750400381
22600164400.0 -0.9730282792 0.19077271
22650164100.0 -0.9714430763 0.2056073952
22700163800.0 -0.96851434 0.2220383189
22750163500.0 -0.9655379329 0.2371765947
22800163200.0 -0.9628788503 0.2502777733
22850162900.0 -0.9605726232 0.2638115283
22900162600.0 -0.9589663857 0.2769980434
22950162300.0 -0.9583467184 0.2895290444
23000162000.0 -0.9572068523 0.3012229694
23050161700.0 -0.9549405149 0.3140058746
23100161400.0 -0.9530416675 0.3265210859
23150161100.0 -0.9504394269 0.3385869794
23200160800.0 -0.9475758147 0.3516066135
23250160500.0 -0.944566934 0.3633545992
23300160200.0 -0.9418001473 0.3747572652
23350159900.0 -0.9383863134 0.3882053665
23400159600.0 -0.933494482 0.401456629
23450159300.0 -0.9283670567 0.4149736243
23500159000.0 -0.9238781304 0.4276256296
23550158700.0 -0.9195878443 0.4409145575
23600158400.0 -0.9143532305 0.4542549738
23650158100.0 -0.9078593806 0.4681356817
23700157800.0 -0.9003517394 0.4820064381
23750157500.0 -0.8916846473 0.4959717235
23800157200.0 -0.883116175 0.5092908467
23850156900.0 -0.8740422007 0.522093428
23900156600.0 -0.865062415 0.5345489796
23950156300.0 -0.8561199314 0.546713288
24000156000.0 -0.8470326729 0.5588803617
24050155700.0 -0.8364141063 0.5705723825
24100155400.0 -0.8262980992 0.5827379557
24150155100.0 -0.8160648598 0.5945144047
24200154800.0 -0.8049404859 0.6051961268
24250154500.0 -0.7941613074 0.6174346246
24300154200.0 -0.7823231438 0.6289533934
24350153900.0 -0.770045629 0.6395797874
24400153600.0 -0.7583574231 0.649591608
24450153300.0 -0.7465561763 0.6594432738
24500153000.0 -0.7350995722 0.6692787614
24550152700.0 -0.7231763053 0.6787080847
24600152400.0 -0.7118554965 0.6880161705
24650152100.0 -0.700133463 0.6963514771
