!Created with skrf (http://scikit-rf.org).
# Hz S RI R 50.0 
!freq ReS11 ImS11
300000.0 -0.973165754 -0.1207516846
50299700.0 -0.9999486459 0.0150806514
100299400.0 -0.9979109476 0.0280325619
150299100.0 -1.002759135 0.0449938797
200298800.0 -0.9994896162 0.0579841811
250298500.0 -0.9973714588 0.0717039699
300298200.0 -0.9855746781 0.0875840997
350297900.0 -0.993903093 0.0983828306
400297600.0 -0.9931685808 0.1149355546
450297300.0 -0.9909847067 0.1286383511
500297000.0 -0.9892656948 0.1434257855
550296700.0 -0.9843746274 0.1558514455
600296400.0 -1.017101449 0.1890599476
650296100.0 -0.9820753021 0.1858553172
700295800.0 -0.9791145101 0.2001834079
750295500.0 -0.9761625888 0.213940326
800295200.0 -0.9729852522 0.2281975131
850294900.0 -0.9695955985 0.2420121921
900294600.0 -0.9659064226 0.2555055934
950294300.0 -0.9618979849 0.2692061674
1000294000.0 -0.9580666896 0.2832519346
1050293700.0 -0.9536604677 0.2971005976
1100293400.0 -0.9494516207 0.3115065198
1150293100.0 -0.945452526 0.3232869937
1200292800.0 -0.9400843093 0.3378385506
1250292500.0 -0.9345810279 0.3512009404
1300292200.0 -0.9289242885 0.3643699925
1350291900.0 -0.9234047963 0.378652604
1400291600.0 -0.9179704245 0.3915866141
1450291300.0 -0.9123602578 0.4039187906
1500291000.0 -0.9061244352 0.4173019742
1550290700.0 -0.8997637533 0.4306364768
1600290400.0 -0.8934883878 0.4434492039
1650290100.0 -0.8868816596 0.4557742195
1700289800.0 -0.8801059989 0.4692658912
1750289500.0 -0.8729218337 0.4814916176
1800289200.0 -0.8656819057 0.4944188719
1850288900.0 -0.8590095853 0.5057612729
1900288600.0 -0.8511712824 0.5186454376
1950288300.0 -0.842773605 0.5315140081
2000288000.0 -0.8354521817 0.5428418445
2050287700.0 -0.827128194 0.5552983396
2100287400.0 -0.8196502585 0.5666550806
2150287100.0 -0.8107953327 0.5784106708
2200286800.0 -0.8032316743 0.5892147783
2250286500.0 -0.7939720999 0.6012827871
2300286200.0 -0.7852503484 0.6127131547
2350285900.0 -0.7769358686 0.6234212663
2400285600.0 -0.7680493639 0.6343460101
2450285300.0 -0.7591673655 0.6450274103
2500285000.0 -0.7492086323 0.6566778698
2550284700.0 -0.7400573644 0.6670088158
2600284400.0 -0.7310954402 0.676835143
2650284100.0 -0.722368914 0.6870090631
2700283800.0 -0.7120093378 0.6976443038
2750283500.0 -0.7015619042 0.7083902484
2800283200.0 -0.6917009763 0.7182949723
2850282900.0 -0.6811656747 0.7283498616
2900282600.0 -0.6706855286 0.7376644549
2950282300.0 -0.6603262541 0.7473863802
3000282000.0 -0.6496548555 0.7567240477
3050281700.0 -0.6383727098 0.765872961
3100281400.0 -0.626838991 0.7750097692
3150281100.0 -0.6154332416 0.7840274488
3200280800.0 -0.604210705 0.7922973802
3250280500.0 -0.5930574633 0.800306582
3300280200.0 -0.5814784769 0.8085415467
3350279900.0 -0.5693024946 0.816574348
3400279600.0 -0.5566009438 0.8244996281
3450279300.0 -0.5454220011 0.8315461133
3500279000.0 -0.5339260545 0.8384946653
3550278700.0 -0.521624042 0.8456928359
3600278400.0 -0.5098762233 0.8524591611
3650278100.0 -0.4966778057 0.859962076
3700277800.0 -0.4849064371 0.8665419071
3750277500.0 -0.4722327569 0.8732684113
3800277200.0 -0.4597257065 0.879593582
3850276900.0 -0.4477548647 0.8856522585
3900276600.0 -0.4369065324 0.8912201872
3950276300.0 -0.4248090941 0.8970843128
4000276000.0 -0.4133521655 0.9029615453
4050275700.0 -0.4005372434 0.9091218393
4100275400.0 -0.389286723 0.9146393656
4150275100.0 -0.3761530802 0.9204980137
4200274800.0 -0.3626682952 0.9259620633
4250274500.0 -0.3500971464 0.9315260035
4300274200.0 -0.336699889 0.9365160167
4350273900.0 -0.3224500021 0.9420936954
4400273600.0 -0.3078676919 0.947258214
4450273300.0 -0.2927607794 0.9522322596
4500273000.0 -0.2797498396 0.9563964597
4550272700.0 -0.2660500707 0.9605307419
4600272400.0 -0.2511206844 0.9645921468
4650272100.0 -0.2395935512 0.9677044882
4700271800.0 -0.2266201779 0.9712138415
4750271500.0 -0.2150656222 0.9740905487
4800271200.0 -0.2028904811 0.976743037
4850270900.0 -0.1890419732 0.9795882174
4900270600.0 -0.1751388252 0.981999243
4950270300.0 -0.1605691741 0.9846248857
5000270000.0 -0.1463136398 0.9866973339
5050269700.0 -0.1326989414 0.9882084406
5100269400.0 -0.1187995678 0.989942411
5150269100.0 -0.1046602557 0.9916474231
5200268800.0 -0.0913482121 0.9927671816
5250268500.0 -0.0783802879 0.9939253102
5300268200.0 -0.0645837568 0.9945643506
5350267900.0 -0.0519203605 0.9952820446
5400267600.0 -0.0355725906 0.9962543956
5450267300.0 -0.022283406 0.9964699862
5500267000.0 -0.0069443775 0.9969817443
5550266700.0 0.0080042823 0.9971680883
5600266400.0 0.0239520325 0.9972585167
5650266100.0 0.0404182773 0.9970228071
5700265800.0 0.0546387814 0.9962138354
5750265500.0 0.0698944035 0.9952043448
5800265200.0 0.0831258084 0.9941739056
5850264900.0 0.0963093231 0.9933726975
5900264600.0 0.1127773305 0.9913320069
5950264300.0 0.1243673154 0.9896134276
6000264000.0 0.1376860439 0.9876265722
6050263700.0 0.1496915313 0.9864994553
6100263400.0 0.1618398633 0.9848787443
6150263100.0 0.176737671 0.9826863207
6200262800.0 0.1860831717 0.9811134474
6250262500.0 0.1987638289 0.9787692814
6300262200.0 0.2111152308 0.9760904389
6350261900.0 0.2239873257 0.9734771907
6400261600.0 0.2379071032 0.9701248237
6450261300.0 0.2489360101 0.9675210009
6500261000.0 0.2618445063 0.963995824
6550260700.0 0.2755425191 0.9601699486
6600260400.0 0.2887348937 0.9560435369
6650260100.0 0.3028398126 0.9514695857
6700259800.0 0.3149363111 0.9474044183
6750259500.0 0.3287147826 0.9424789075
6800259200.0 0.3422197043 0.9371271006
6850258900.0 0.3544614232 0.9319922623
6900258600.0 0.3671738302 0.926746552
6950258300.0 0.3795872358 0.9215100128
7000258000.0 0.3913593162 0.9160539941
7050257700.0 0.4032213221 0.9104648823
7100257400.0 0.4167534698 0.9040866244
7150257100.0 0.4271777489 0.8986153549
7200256800.0 0.4403725042 0.8920864927
7250256500.0 0.4529846775 0.8855441098
7300256200.0 0.4659874673 0.8789679612
7350255900.0 0.4790553179 0.8718561256
7400255600.0 0.4927179093 0.8640726798
7450255300.0 0.5087054688 0.855198507
7500255000.0 0.5206853795 0.8473462923
7550254700.0 0.5353117969 0.8383828282
7600254400.0 0.5475750553 0.8304786227
7650254100.0 0.5588198795 0.8222510619
7700253800.0 0.5709887906 0.814231816
7750253500.0 0.5816577136 0.8064940295
7800253200.0 0.5922986959 0.7985897829
7850252900.0 0.6020962938 0.791441673
7900252600.0 0.6136052829 0.7827685692
7950252300.0 0.6220840551 0.7763654934
8000252000.0 0.6320787377 0.7688660548
8050251700.0 0.6424028911 0.7605320627
8100251400.0 0.6524137421 0.7526594683
8150251100.0 0.6626224833 0.744152891
8200250800.0 0.6719424699 0.7361169451
8250250500.0 0.6807729474 0.728162257
8300250200.0 0.689812294 0.7198670048
8350249900.0 0.6991433917 0.7109855315
8400249600.0 0.7069929533 0.7030839906
8450249300.0 0.7156326047 0.6942524184
8500249000.0 0.7243654407 0.6854208274
8550248700.0 0.7323807176 0.6764189536
8600248400.0 0.7409629349 0.6667515615
8650248100.0 0.7485504872 0.6574430093
8700247800.0 0.7579722642 0.6462429353
8750247500.0 0.7663592637 0.6364386965
8800247200.0 0.7741819506 0.6260639608
8850246900.0 0.7829819698 0.6147169426
8900246600.0 0.7912441246 0.603385213
8950246300.0 0.8007617566 0.5905074405
9000246000.0 0.8094386722 0.578640883
9050245700.0 0.8176310179 0.5662275378
9100245400.0 0.8259714326 0.5539940508
9150245100.0 0.8352345592 0.5409562554
9200244800.0 0.8443988182 0.5266629108
9250244500.0 0.8533379908 0.5117922684
9300244200.0 0.8616208812 0.4981638229
9350243900.0 0.8692451197 0.4849955963
9400243600.0 0.8756303025 0.473363163
9450243300.0 0.8812483773 0.4626767067
9500243000.0 0.8874429091 0.4511716603
9550242700.0 0.8916270374 0.4436467997
9600242400.0 0.8957935652 0.4359062997
9650242100.0 0.9001451403 0.4291464517
9700241800.0 0.904844723 0.4206962678
9750241500.0 0.9091858724 0.412980434
9800241200.0 0.9142301785 0.4035508608
9850240900.0 0.9202059516 0.3915762399
9900240600.0 0.9259231158 0.3796854205
9950240300.0 0.9330002682 0.3632363561
10000240000.0 0.9378259751 0.3510904534
10050239700.0 0.9442176221 0.334986645
10100239400.0 0.9491573177 0.3186010486
10150239100.0 0.9539385058 0.3033585888
10200238800.0 0.9583340076 0.287699203
10250238500.0 0.9614676448 0.2743344538
10300238200.0 0.9646876194 0.260364608
10350237900.0 0.9674053747 0.247050706
10400237600.0 0.9700468799 0.23339595
10450237300.0 0.9726170741 0.2198479747
10500237000.0 0.9748170982 0.2075869541
10550236700.0 0.977351508 0.1932960561
10600236400.0 0.9797137292 0.178596837
10650236100.0 0.9812215842 0.1648964455
10700235800.0 0.9840477696 0.1525795496
10750235500.0 0.9858734377 0.1385373171
10800235200.0 0.9881516106 0.1246071314
10850234900.0 0.9897940368 0.1097998635
10900234600.0 0.992157811 0.0949065319
10950234300.0 0.9937458555 0.0812108654
11000234000.0 0.9955740018 0.0657095927
11050233700.0 0.9972574735 0.0489897973
11100233400.0 0.9989258844 0.0313051488
11150233100.0 0.9996136414 0.0145893362
11200232800.0 1.00055173 -0.0014552662
11250232500.0 1.001310406 -0.0198953331
11300232200.0 1.002137869 -0.038200617
11350231900.0 1.002011862 -0.0538126926
11400231600.0 1.002143693 -0.0696184791
11450231300.0 1.001061732 -0.0846413066
11500231000.0 0.9998902496 -0.1008283974
11550230700.0 0.9984107553 -0.1150265198
11600230400.0 0.9966993566 -0.1278070126
11650230100.0 0.9948618487 -0.1397273906
11700229800.0 0.9924045405 -0.1542616062
11750229500.0 0.9901593747 -0.1679662842
11800229200.0 0.9873931594 -0.1814269256
11850228900.0 0.9835788394 -0.1933042041
11900228600.0 0.9799828558 -0.202707785
11950228300.0 0.9764469411 -0.2130684951
12000228000.0 0.9736278677 -0.2212256936
12050227700.0 0.9703090545 -0.2344924053
12100227400.0 0.9662619357 -0.2459297754
12150227100.0 0.9615113235 -0.262050783
12200226800.0 0.9580879168 -0.273329546
12250226500.0 0.9543032455 -0.2855052948
12300226200.0 0.9495637634 -0.298089599
12350225900.0 0.9444277488 -0.312430117
12400225600.0 0.9402875399 -0.3245689067
12450225300.0 0.9360690646 -0.3368785906
12500225000.0 0.9301142135 -0.351730315
12550224700.0 0.9251528031 -0.3653998233
12600224400.0 0.9198918563 -0.3779197186
12650224100.0 0.9143208575 -0.3922926944
12700223800.0 0.9089996004 -0.4051593938
12750223500.0 0.9033959425 -0.4183099996
12800223200.0 0.8978879492 -0.4307979514
12850222900.0 0.8927873838 -0.4429476559
12900222600.0 0.8874147693 -0.4545942584
12950222300.0 0.8812462481 -0.4674759393
13000222000.0 0.8752610521 -0.4790084101
13050221700.0 0.8681524218 -0.4921113904
13100221400.0 0.8613590373 -0.5045629914
13150221100.0 0.8547284351 -0.51599216
13200220800.0 0.8477478641 -0.5284112096
13250220500.0 0.8404795807 -0.5401163386
13300220200.0 0.8327978094 -0.5513802986
13350219900.0 0.8246706344 -0.5630716474
13400219600.0 0.8163019591 -0.5750846243
13450219300.0 0.8072618219 -0.5879397686
13500219000.0 0.7970096771 -0.6012984274
13550218700.0 0.7872828549 -0.613425157
13600218400.0 0.7777559684 -0.6255303514
13650218100.0 0.7680106809 -0.6359435405
13700217800.0 0.7571444665 -0.6477635239
13750217500.0 0.7473850627 -0.6591747767
13800217200.0 0.7368937273 -0.6696385989
13850216900.0 0.7259506183 -0.6809937126
13900216600.0 0.715567291 -0.6906887915
13950216300.0 0.7055763402 -0.7003220174
14000216000.0 0.695335001 -0.7096755882
14050215700.0 0.6859828302 -0.7170281856
14100215400.0 0.676435023 -0.7261862479
14150215100.0 0.6675956977 -0.7355667617
14200214800.0 0.6578705033 -0.744038938
14250214500.0 0.6475967929 -0.7535792097
14300214200.0 0.6369653445 -0.7630715098
14350213900.0 0.6259822897 -0.7724008267
14400213600.0 0.6141345667 -0.7822254547
14450213300.0 0.6014823276 -0.7925694355
14500213000.0 0.588626931 -0.8025478894
14550212700.0 0.576008784 -0.8121579115
14600212400.0 0.5633358495 -0.8206392545
14650212100.0 0.5510528515 -0.8291778067
14700211800.0 0.5371421712 -0.8388484523
14750211500.0 0.5249279786 -0.8472144459
14800211200.0 0.5123323686 -0.8555008252
14850210900.0 0.4999125495 -0.8630062653
14900210600.0 0.4865454835 -0.8709985209
14950210300.0 0.4735732958 -0.8786538848
15000210000.0 0.4610228656 -0.885407769
15050209700.0 0.4483891559 -0.8915694012
15100209400.0 0.4357649711 -0.8972062246
15150209100.0 0.4234594824 -0.9027792638
15200208800.0 0.4105035868 -0.907670038
15250208500.0 0.3994928893 -0.9124203825
15300208200.0 0.3874503301 -0.9176021594
15350207900.0 0.3746279349 -0.9224657487
15400207600.0 0.3591545568 -0.9271550667
15450207300.0 0.3450468301 -0.9327667923
15500207000.0 0.3302028212 -0.9375602793
15550206700.0 0.3154904287 -0.9424386415
15600206400.0 0.2998235283 -0.9465408547
15650206100.0 0.2836091627 -0.9511233262
15700205800.0 0.2699860296 -0.9543148029
15750205500.0 0.2561330087 -0.9577827697
15800205200.0 0.2423291308 -0.9612012209
15850204900.0 0.2280004778 -0.9648029614
15900204600.0 0.2130549365 -0.968432301
15950204300.0 0.198716472 -0.9712719798
16000204000.0 0.1842357566 -0.9746208164
16050203700.0 0.16905762 -0.9774171138
16100203400.0 0.1540383701 -0.9795430224
16150203100.0 0.1397570208 -0.9820256543
16200202800.0 0.1252055721 -0.9846205232
16250202500.0 0.1101700435 -0.9855215699
16300202200.0 0.0946673908 -0.9876034267
16350201900.0 0.0799532743 -0.9891807415
16400201600.0 0.0653351818 -0.9903327477
16450201300.0 0.0498497749 -0.9913631055
16500201000.0 0.0327294047 -0.9921343806
16550200700.0 0.016718695 -0.9927062382
16600200400.0 0.0009012694 -0.9925892933
16650200100.0 -0.0151464836 -0.9925596965
16700199800.0 -0.0319488874 -0.9920236043
16750199500.0 -0.0511281203 -0.9915833908
16800199200.0 -0.0664343068 -0.9904092888
16850198900.0 -0.0820409021 -0.9892608859
16900198600.0 -0.0961240955 -0.9880820522
16950198300.0 -0.1106638426 -0.9876703148
17000198000.0 -0.1223993672 -0.9859731044
17050197700.0 -0.1356296723 -0.9839784526
17100197400.0 -0.1486532989 -0.981793617
17150197100.0 -0.1612905441 -0.9793010731
17200196800.0 -0.1741402156 -0.9780719308
17250196500.0 -0.1870419138 -0.9751860328
17300196200.0 -0.1993328539 -0.9728787727
17350195900.0 -0.2111332378 -0.9706447591
17400195600.0 -0.2231607726 -0.9680153837
17450195300.0 -0.2358494391 -0.965309959
17500195000.0 -0.2491735482 -0.9621879105
17550194700.0 -0.2630136075 -0.9585500502
17600194400.0 -0.277199204 -0.9547699378
17650194100.0 -0.2905817714 -0.9508182083
17700193800.0 -0.3032370711 -0.9466131953
17750193500.0 -0.3172455765 -0.941953237
17800193200.0 -0.3318430883 -0.9363188432
17850192900.0 -0.3472714642 -0.9308245361
17900192600.0 -0.3620752255 -0.9250204963
17950192300.0 -0.3773695681 -0.917703626
18000192000.0 -0.3921961325 -0.9107150488
18050191700.0 -0.405815042 -0.9026578847
18100191400.0 -0.4199717889 -0.8949560421
18150191100.0 -0.4348846629 -0.8871408854
18200190800.0 -0.451760008 -0.8778310314
18250190500.0 -0.4686498592 -0.8683096289
18300190200.0 -0.484262985 -0.8596016283
18350189900.0 -0.4991977954 -0.8513690954
18400189600.0 -0.5139821871 -0.8432496904
18450189300.0 -0.5275383334 -0.8345662762
18500189000.0 -0.5404412249 -0.8263583964
18550188700.0 -0.5536733194 -0.8189408165
18600188400.0 -0.5654182148 -0.8122324402
18650188100.0 -0.576745106 -0.8055666938
18700187800.0 -0.5876388827 -0.798953627
18750187500.0 -0.5987057157 -0.7923199215
18800187200.0 -0.6091914371 -0.7852807233
18850186900.0 -0.6192406894 -0.7784962968
18900186600.0 -0.6295630106 -0.7711454736
18950186300.0 -0.6398905659 -0.7633444341
19000186000.0 -0.6472410686 -0.7571099085
19050185700.0 -0.6562052084 -0.7499247029
19100185400.0 -0.6664327242 -0.7415971526
19150185100.0 -0.6768107612 -0.7332729948
19200184800.0 -0.6859297874 -0.7256090067
19250184500.0 -0.6965374035 -0.7165261143
19300184200.0 -0.7081765471 -0.7069623837
19350183900.0 -0.71814633 -0.6961204295
19400183600.0 -0.7280812121 -0.6868058367
19450183300.0 -0.737361322 -0.6770371104
19500183000.0 -0.7453239875 -0.66649479
19550182700.0 -0.7546527795 -0.6555211886
19600182400.0 -0.7654232635 -0.6442316057
19650182100.0 -0.7755842918 -0.6319516354
19700181800.0 -0.7863443756 -0.6186395533
19750181500.0 -0.796674608 -0.6046644961
19800181200.0 -0.8069141698 -0.5896749116
19850180900.0 -0.8165115254 -0.574538972
19900180600.0 -0.8241884524 -0.5598819321
19950180300.0 -0.8333566111 -0.5437594174
20000180000.0 -0.8232776904 -0.5475855119
20050179700.0 -0.8308828037 -0.5342310007
20100179400.0 -0.8402757174 -0.5207258582
20150179100.0 -0.8482846478 -0.5097214423
20200178800.0 -0.8567570022 -0.4977106605
20250178500.0 -0.8652667725 -0.4853854916
20300178200.0 -0.875621984 -0.4716155509
20350177900.0 -0.8844733401 -0.4572907855
20400177600.0 -0.8935009593 -0.4431853705
20450177300.0 -0.9022348129 -0.4291957067
20500177000.0 -0.9101171534 -0.4148186204
20550176700.0 -0.9180285888 -0.4016451171
20600176400.0 -0.9249477813 -0.3886503515
20650176100.0 -0.9321750978 -0.3765187496
20700175800.0 -0.9378431046 -0.3645808375
20750175500.0 -0.9445949614 -0.3525200291
20800175200.0 -0.9491536517 -0.3418253136
20850174900.0 -0.9534533372 -0.3319149568
20900174600.0 -0.9587801756 -0.3206213218
20950174300.0 -0.9605541096 -0.309144948
21000174000.0 -0.9636959564 -0.299043574
21050173700.0 -0.9659674873 -0.2890295539
21100173400.0 -0.9692898638 -0.2780490216
21150173100.0 -0.973163711 -0.2664645777
21200172800.0 -0.9770738398 -0.2530605871
21250172500.0 -0.9811106122 -0.2397063894
21300172200.0 -0.9844270453 -0.2254588854
21350171900.0 -0.9867604995 -0.2108011551
21400171600.0 -0.9882481098 -0.1968490956
21450171300.0 -0.9891325577 -0.1827651674
21500171000.0 -0.9891357756 -0.1683270095
21550170700.0 -0.9900013875 -0.1529255588
21600170400.0 -0.9903839811 -0.1368210996
21650170100.0 -0.9912615839 -0.1210789413
21700169800.0 -0.9899802438 -0.1057362284
21750169500.0 -0.9902817633 -0.0893790634
21800169200.0 -0.989720408 -0.0737142234
21850168900.0 -0.9891459632 -0.0569053533
21900168600.0 -0.9897766576 -0.04072443
21950168300.0 -0.9889723483 -0.0243570908
22000168000.0 -0.9889131797 -0.0097775609
22050167700.0 -0.9897156611 0.0048365753
22100167400.0 -0.98988119 0.0207098773
22150167100.0 -0.9909212359 0.0366479441
22200166800.0 -0.9911901333 0.0531146507
22250166500.0 -0.9908679214 0.0709498431
22300166200.0 -0.9903783342 0.0870705367
22350165900.0 -0.9892656839 0.1026573048
22400165600.0 -0.9878276049 0.1172114786
22450165300.0 -0.9865001513 0.1337056278
22500165000.0 -0.9843382029 0.1475395502
22550164700.0 -0.9827600587 0.1644942301
22600164400.0 -0.9801644886 0.1808892466
22650164100.0 -0.9782222935 0.1965908102
22700163800.0 -0.9743412151 0.2121126902
22750163500.0 -0.9719405423 0.2266355329
22800163200.0 -0.9688667456 0.239693489
22850162900.0 -0.9662721834 0.2530720709
22900162600.0 -0.9643522237 0.2673275285
22950162300.0 -0.9626597817 0.2808729309
23000162000.0 -0.9610455826 0.2935947129
23050161700.0 -0.9581305529 0.3067008937
23100161400.0 -0.9559715619 0.3202935991
23150161100.0 -0.9520002745 0.3331751446
23200160800.0 -0.9500896588 0.346189014
23250160500.0 -0.9463358167 0.3590238894
23300160200.0 -0.9437568632 0.3716953535
23350159900.0 -0.9395071916 0.3856332886
23400159600.0 -0.9348484711 0.3986292848
23450159300.0 -0.9298123018 0.4123916387
23500159000.0 -0.925251214 0.4256774466
23550158700.0 -0.9203021121 0.4399906114
23600158400.0 -0.9140061449 0.4540176389
23650158100.0 -0.9069288194 0.4687374259
23700157800.0 -0.8983684724 0.4828612259
23750157500.0 -0.8891284536 0.4969841599
23800157200.0 -0.8794969989 0.5105998742
23850156900.0 -0.870194621 0.5241848889
23900156600.0 -0.8602280306 0.5361176641
23950156300.0 -0.8507329294 0.5495018038
24000156000.0 -0.8405806901 0.5615831728
24050155700.0 -0.8303935035 0.573791308
24100155400.0 -0.8205681187 0.5850134959
24150155100.0 -0.8091028839 0.5979921919
24200154800.0 -0.797532484 0.6090834319
24250154500.0 -0.7867416719 0.621448616
24300154200.0 -0.7749486941 0.6335777836
24350153900.0 -0.7632608123 0.6449697392
24400153600.0 -0.7505953749 0.6553962772
24450153300.0 -0.7389102215 0.6655316221
24500153000.0 -0.7272250235 0.675736038
24550152700.0 -0.7157645282 0.685851355
24600152400.0 -0.7034693435 0.69545353
24650152100.0 -0.6915476753 0.7040601598
