!Created with skrf (http://scikit-rf.org).
# Hz S RI R 50.0 
!freq ReS11 ImS11
300000.0 -0.9749707723 -0.118391826
50299700.0 -1.000013147 0.015438013
100299400.0 -0.998015594 0.0283180509
150299100.0 -1.002797437 0.0452222874
200298800.0 -0.9996954866 0.0584105779
250298500.0 -0.9975104584 0.0720044011
300298200.0 -0.9860064714 0.0877131376
350297900.0 -0.9941909663 0.0987436095
400297600.0 -0.9930961156 0.1154085071
450297300.0 -0.9909061466 0.1291494522
500297000.0 -0.9895399952 0.1440389945
550296700.0 -0.9843366289 0.1562441703
600296400.0 -1.017228971 0.1896707854
650296100.0 -0.9822891379 0.1862669283
700295800.0 -0.9792616597 0.2005458865
750295500.0 -0.9760431463 0.2145828957
800295200.0 -0.9731134116 0.2288754626
850294900.0 -0.969498657 0.2425530414
900294600.0 -0.9658353959 0.2562021388
950294300.0 -0.9622422616 0.2698438582
1000294000.0 -0.9581113387 0.2838628127
1050293700.0 -0.953545796 0.2975788827
1100293400.0 -0.9493153458 0.3120103657
1150293100.0 -0.945329516 0.3238901898
1200292800.0 -0.9402474212 0.3384118976
1250292500.0 -0.9346651166 0.3517846968
1300292200.0 -0.9289673808 0.3648241266
1350291900.0 -0.9233015773 0.3789860451
1400291600.0 -0.9178103429 0.3921557088
1450291300.0 -0.9124812509 0.404374998
1500291000.0 -0.9060997148 0.4179670249
1550290700.0 -0.8997317435 0.4311592826
1600290400.0 -0.8933015616 0.4441836405
1650290100.0 -0.8867258312 0.4561416472
1700289800.0 -0.879775822 0.469698856
1750289500.0 -0.8727696389 0.4819907052
1800289200.0 -0.8655957759 0.4949871424
1850288900.0 -0.858560897 0.5061655856
1900288600.0 -0.8507442546 0.5191974692
1950288300.0 -0.8427495296 0.5319354384
2000288000.0 -0.8354379332 0.5431220377
2050287700.0 -0.8271221202 0.5554391591
2100287400.0 -0.8191321946 0.5671381197
2150287100.0 -0.8107727132 0.5791166099
2200286800.0 -0.8029939519 0.5895504278
2250286500.0 -0.794044649 0.6017693782
2300286200.0 -0.7850435014 0.6132052205
2350285900.0 -0.7765386873 0.6241238464
2400285600.0 -0.7675102286 0.635057219
2450285300.0 -0.7589944064 0.6455445836
2500285000.0 -0.7492655626 0.6570134044
2550284700.0 -0.7404248243 0.6671157109
2600284400.0 -0.7309022504 0.6773389877
2650284100.0 -0.7220444627 0.6877758798
2700283800.0 -0.7112127192 0.6983513702
2750283500.0 -0.7010292524 0.7090339309
2800283200.0 -0.6912656688 0.7186026526
2850282900.0 -0.680880664 0.7284677996
2900282600.0 -0.6706720772 0.7383567422
2950282300.0 -0.6605357151 0.7473366755
3000282000.0 -0.6496912359 0.7568568125
3050281700.0 -0.6382998143 0.7660486414
3100281400.0 -0.6267015232 0.7754640169
3150281100.0 -0.614890545 0.7846475052
3200280800.0 -0.6032292329 0.7931769065
3250280500.0 -0.5923262511 0.8010113755
3300280200.0 -0.5810697183 0.8088657399
3350279900.0 -0.5693351735 0.8162571699
3400279600.0 -0.5574901685 0.8243123057
3450279300.0 -0.5461940234 0.8311213425
3500279000.0 -0.5340389012 0.838412887
3550278700.0 -0.5218852447 0.8455573804
3600278400.0 -0.5096857281 0.852774295
3650278100.0 -0.4963556293 0.8605079636
3700277800.0 -0.4842079833 0.8668671199
3750277500.0 -0.472098073 0.873206695
3800277200.0 -0.4597014604 0.8798695291
3850276900.0 -0.4475400452 0.8859594239
3900276600.0 -0.4367060426 0.8913163471
3950276300.0 -0.4242586585 0.8975690351
4000276000.0 -0.4121035695 0.9036230131
4050275700.0 -0.399276113 0.9094811461
4100275400.0 -0.3881698695 0.9150486145
4150275100.0 -0.3753918376 0.9206371264
4200274800.0 -0.3627204475 0.9262684845
4250274500.0 -0.3504241026 0.9314241036
4300274200.0 -0.3373534588 0.9366179396
4350273900.0 -0.3235778768 0.9420439293
4400273600.0 -0.3085790333 0.9471309014
4450273300.0 -0.2934505147 0.9522302672
4500273000.0 -0.2798646711 0.9566126487
4550272700.0 -0.2655531524 0.9608591521
4600272400.0 -0.2501915607 0.964957555
4650272100.0 -0.2385758848 0.9681709525
4700271800.0 -0.225239841 0.9716572085
4750271500.0 -0.2134180986 0.9745644958
4800271200.0 -0.2009292688 0.9770182747
4850270900.0 -0.1871129104 0.980018181
4900270600.0 -0.1732174168 0.9823967992
4950270300.0 -0.1588832802 0.9850280476
5000270000.0 -0.1444920026 0.9871050004
5050269700.0 -0.1311653018 0.9885735897
5100269400.0 -0.1176402055 0.9904021098
5150269100.0 -0.1041171522 0.9916444106
5200268800.0 -0.0908534024 0.9929555879
5250268500.0 -0.0776928987 0.9939223972
5300268200.0 -0.0645482507 0.9945678853
5350267900.0 -0.0524676284 0.9951608038
5400267600.0 -0.0360608584 0.9961561115
5450267300.0 -0.023050829 0.996526451
5500267000.0 -0.0079197233 0.9970751444
5550266700.0 0.0069017198 0.9971793854
5600266400.0 0.0224126445 0.9971058378
5650266100.0 0.0389748239 0.9967829368
5700265800.0 0.0534421543 0.9962398408
5750265500.0 0.0687496165 0.9953000551
5800265200.0 0.0827063323 0.9945733887
5850264900.0 0.0959513441 0.9935379692
5900264600.0 0.1126022175 0.99175783
5950264300.0 0.1248451334 0.9903734966
6000264000.0 0.1387528552 0.9883311532
6050263700.0 0.1508138677 0.9868929937
6100263400.0 0.163553599 0.9850730695
6150263100.0 0.1780642622 0.9826816519
6200262800.0 0.1881340974 0.9806969724
6250262500.0 0.2008161312 0.9783781576
6300262200.0 0.2136452195 0.9756938611
6350261900.0 0.2267234511 0.9727011339
6400261600.0 0.2404059777 0.9694210483
6450261300.0 0.2520409762 0.9669398098
6500261000.0 0.2648846775 0.9634112837
6550260700.0 0.2778365838 0.9593985135
6600260400.0 0.2910063661 0.9551113448
6650260100.0 0.3050576653 0.9508034076
6700259800.0 0.3172948215 0.9468588234
6750259500.0 0.3308464041 0.9415324958
6800259200.0 0.3439767715 0.9367320493
6850258900.0 0.3562673836 0.9317076263
6900258600.0 0.3685336521 0.9264587678
6950258300.0 0.3809635735 0.9212508015
7000258000.0 0.3927428224 0.9157066437
7050257700.0 0.4049218491 0.909787979
7100257400.0 0.4177850715 0.9034755884
7150257100.0 0.4281115991 0.8982317772
7200256800.0 0.4412975368 0.892064939
7250256500.0 0.4527624179 0.8853963432
7300256200.0 0.4658649013 0.8785585551
7350255900.0 0.4784233105 0.87187275
7400255600.0 0.4913755359 0.8643844341
7450255300.0 0.5069262635 0.8556436406
7500255000.0 0.5189371943 0.8485849014
7550254700.0 0.532905902 0.8399512837
7600254400.0 0.5456480065 0.8317883648
7650254100.0 0.5566129605 0.8238477614
7700253800.0 0.5688939214 0.8159613864
7750253500.0 0.5800097401 0.8080279445
7800253200.0 0.5905880901 0.8004312452
7850252900.0 0.6001197288 0.793426724
7900252600.0 0.6116540848 0.7847999179
7950252300.0 0.6207425002 0.7781497117
8000252000.0 0.6307600599 0.7704286251
8050251700.0 0.6412965374 0.7624044053
8100251400.0 0.6511501606 0.7541082217
8150251100.0 0.6611838108 0.745634292
8200250800.0 0.670818557 0.7374871045
8250250500.0 0.6798114905 0.7297600374
8300250200.0 0.6889830866 0.7210977968
8350249900.0 0.6979054384 0.7122902455
8400249600.0 0.7063448725 0.7044369322
8450249300.0 0.7156682446 0.6949715488
8500249000.0 0.7240073971 0.6861387014
8550248700.0 0.7324650961 0.6770773164
8600248400.0 0.7408773666 0.6676463591
8650248100.0 0.7485879903 0.6581288217
8700247800.0 0.758073378 0.647047017
8750247500.0 0.7663094273 0.6368786192
8800247200.0 0.7745990079 0.6265521009
8850246900.0 0.7832626445 0.614865292
8900246600.0 0.791875929 0.6036704761
8950246300.0 0.8014102626 0.5905175104
9000246000.0 0.8104075595 0.5780605835
9050245700.0 0.8198670899 0.5648753839
9100245400.0 0.8279339801 0.5527837902
9150245100.0 0.8375030437 0.5389147834
9200244800.0 0.8472701034 0.5238683395
9250244500.0 0.8568312101 0.5085194357
9300244200.0 0.865173364 0.4939145792
9350243900.0 0.8729543818 0.4801141145
9400243600.0 0.8795623608 0.4679141762
9450243300.0 0.8855145185 0.4562816292
9500243000.0 0.8915531185 0.4441413796
9550242700.0 0.8956250166 0.4363642873
9600242400.0 0.8991414564 0.4290925643
9650242100.0 0.9031316343 0.4225709055
9700241800.0 0.9080757696 0.4141559651
9750241500.0 0.9113458093 0.4068575372
9800241200.0 0.9162223536 0.3977475832
9850240900.0 0.9218749562 0.3857975915
9900240600.0 0.9273476813 0.3743714547
9950240300.0 0.9342606331 0.3581555112
10000240000.0 0.9391728863 0.3463387487
10050239700.0 0.944265517 0.3314902767
10100239400.0 0.9496062484 0.3158100638
10150239100.0 0.9540558715 0.3009949941
10200238800.0 0.958265587 0.2860074826
10250238500.0 0.961613936 0.2725783428
10300238200.0 0.9646936344 0.25877633
10350237900.0 0.9672078327 0.2457690372
10400237600.0 0.9697562722 0.2323172002
10450237300.0 0.9724668722 0.2187350761
10500237000.0 0.974447057 0.2066157824
10550236700.0 0.9770893084 0.1923661671
10600236400.0 0.9790372263 0.1785147352
10650236100.0 0.981330605 0.1636358572
10700235800.0 0.9833655668 0.1520765468
10750235500.0 0.9858258383 0.1384174948
10800235200.0 0.9873576854 0.1247716782
10850234900.0 0.9895509998 0.1097315556
10900234600.0 0.9916864993 0.0952151013
10950234300.0 0.9934828795 0.0818809533
11000234000.0 0.9952115705 0.066728086
11050233700.0 0.997018154 0.0502327937
11100233400.0 0.9987332491 0.0332802396
11150233100.0 0.9995839255 0.0168480128
11200232800.0 1.000015309 0.0016648983
11250232500.0 1.001358393 -0.0148693497
11300232200.0 1.001777525 -0.0325855535
11350231900.0 1.002156242 -0.0485763761
11400231600.0 1.001678374 -0.064270958
11450231300.0 1.001520478 -0.0785711905
11500231000.0 0.9996445553 -0.0956888609
11550230700.0 0.9985360143 -0.1092901307
11600230400.0 0.9969146378 -0.1223589729
11650230100.0 0.9951862304 -0.1329685691
11700229800.0 0.9930690409 -0.1477542661
11750229500.0 0.990717453 -0.1621003052
11800229200.0 0.9878515008 -0.1762880666
11850228900.0 0.9845515345 -0.1884476755
11900228600.0 0.9809602224 -0.1982742015
11950228300.0 0.9778121726 -0.2088249017
12000228000.0 0.9750271223 -0.2178573381
12050227700.0 0.9716060581 -0.230225289
12100227400.0 0.9684239571 -0.2411937421
12150227100.0 0.9635024916 -0.2581860104
12200226800.0 0.9599360737 -0.2688011058
12250226500.0 0.9556557335 -0.2819426111
12300226200.0 0.9516261876 -0.2946130276
12350225900.0 0.9466188026 -0.3079844242
12400225600.0 0.9418910503 -0.3207832374
12450225300.0 0.9380989352 -0.3337547752
12500225000.0 0.9322723331 -0.348564658
12550224700.0 0.9270469522 -0.3623447169
12600224400.0 0.921993595 -0.3751783436
12650224100.0 0.9162085547 -0.3895124119
12700223800.0 0.9109176391 -0.4022501279
12750223500.0 0.9054727855 -0.4152714213
12800223200.0 0.9000812654 -0.4279648502
12850222900.0 0.894603746 -0.4401488484
12900222600.0 0.8889123511 -0.4520835351
12950222300.0 0.8826381093 -0.465078878
13000222000.0 0.87698713 -0.4767016099
13050221700.0 0.8699207039 -0.4891716945
13100221400.0 0.8630313142 -0.5010784592
13150221100.0 0.8566177126 -0.5136500743
13200220800.0 0.8498799784 -0.5248411529
13250220500.0 0.8423401585 -0.5373525049
13300220200.0 0.8349410146 -0.5478289254
13350219900.0 0.8269783943 -0.5595728783
13400219600.0 0.8183288576 -0.5718997384
13450219300.0 0.8092651457 -0.5851965501
13500219000.0 0.7991303763 -0.5992066176
13550218700.0 0.7893668479 -0.6116945708
13600218400.0 0.7791044125 -0.6244330658
13650218100.0 0.7688274311 -0.6354705839
13700217800.0 0.757957702 -0.6475448994
13750217500.0 0.7487817492 -0.6586929693
13800217200.0 0.7366480204 -0.6703020692
13850216900.0 0.726205441 -0.6816045249
13900216600.0 0.7162683642 -0.6911124433
13950216300.0 0.7053282673 -0.7009238948
14000216000.0 0.6953454693 -0.7108033645
14050215700.0 0.6859335843 -0.7186110336
14100215400.0 0.6759342484 -0.7279376877
14150215100.0 0.6667994706 -0.7365129
14200214800.0 0.6572246797 -0.7450128791
14250214500.0 0.6470199084 -0.7544084002
14300214200.0 0.6366162557 -0.7638863464
14350213900.0 0.6255065159 -0.7733996296
14400213600.0 0.6139141396 -0.7834537539
14450213300.0 0.6005947244 -0.7933612657
14500213000.0 0.5876633381 -0.8031571229
14550212700.0 0.5751122122 -0.8129177441
14600212400.0 0.5625765095 -0.8211763193
14650212100.0 0.5494162434 -0.8303703551
14700211800.0 0.535538888 -0.8400938676
14750211500.0 0.5232918553 -0.8478134773
14800211200.0 0.5114073888 -0.8558213217
14850210900.0 0.4991214983 -0.863538884
14900210600.0 0.4858174457 -0.8713312308
14950210300.0 0.4725206555 -0.8792238531
15000210000.0 0.4595538037 -0.8858281626
15050209700.0 0.4474619547 -0.891896755
15100209400.0 0.4351204567 -0.8979859243
15150209100.0 0.4226879631 -0.9035075015
15200208800.0 0.4096686442 -0.9087575597
15250208500.0 0.398083988 -0.9136289739
15300208200.0 0.3860311814 -0.9178729762
15350207900.0 0.3731562831 -0.9227774082
15400207600.0 0.3585680905 -0.9274080166
15450207300.0 0.3433432409 -0.9325444367
15500207000.0 0.3291250355 -0.9373666344
15550206700.0 0.3140350711 -0.9426520797
15600206400.0 0.2984540295 -0.9470565625
15650206100.0 0.2828877429 -0.9514472432
15700205800.0 0.2688872729 -0.9549422365
15750205500.0 0.2545160664 -0.9584563597
15800205200.0 0.2399356892 -0.9623705267
15850204900.0 0.225534457 -0.9655249534
15900204600.0 0.210437756 -0.9692184439
15950204300.0 0.1961458798 -0.9720449418
16000204000.0 0.1822141827 -0.9749509104
16050203700.0 0.1669735199 -0.9781686541
16100203400.0 0.1526874065 -0.9805471353
16150203100.0 0.138459391 -0.9825119361
16200202800.0 0.1237091969 -0.9846506057
16250202500.0 0.1095910274 -0.9865562924
16300202200.0 0.0942129898 -0.988016952
16350201900.0 0.0791410707 -0.9895564187
16400201600.0 0.0646362248 -0.9906518671
16450201300.0 0.0493584144 -0.9913896246
16500201000.0 0.0326991714 -0.9920241884
16550200700.0 0.0170263718 -0.9926392285
16600200400.0 0.0011662424 -0.9929488233
16650200100.0 -0.0145962147 -0.9925364262
16700199800.0 -0.0310268562 -0.9924233252
16750199500.0 -0.0499318557 -0.9915343717
16800199200.0 -0.0655752691 -0.9908278233
16850198900.0 -0.0805458914 -0.9895251944
16900198600.0 -0.0944512546 -0.9893032987
16950198300.0 -0.1083686901 -0.9870535577
17000198000.0 -0.121247115 -0.986495884
17050197700.0 -0.1336127156 -0.9845555621
17100197400.0 -0.146504523 -0.9819430802
17150197100.0 -0.1588246305 -0.9801334431
17200196800.0 -0.1717924461 -0.9776604672
17250196500.0 -0.184741506 -0.9758367438
17300196200.0 -0.1968854502 -0.9735342803
17350195900.0 -0.2088928545 -0.9711306344
17400195600.0 -0.2212630679 -0.9687125042
17450195300.0 -0.2344108322 -0.9658812452
17500195000.0 -0.2478226379 -0.9624538432
17550194700.0 -0.2617748108 -0.9588457022
17600194400.0 -0.2755551883 -0.9547005414
17650194100.0 -0.2891159471 -0.9512434923
17700193800.0 -0.3022626449 -0.9463757105
17750193500.0 -0.3167209435 -0.9420752809
17800193200.0 -0.3310097518 -0.9368885811
17850192900.0 -0.3460762906 -0.9315939322
17900192600.0 -0.361461881 -0.9252215655
17950192300.0 -0.3771012088 -0.9183819514
18000192000.0 -0.3916025104 -0.9110990215
18050191700.0 -0.4056534814 -0.9033148421
18100191400.0 -0.4198549766 -0.8956012777
18150191100.0 -0.4347496045 -0.8874912996
18200190800.0 -0.451791931 -0.8784194021
18250190500.0 -0.4686064107 -0.8690557202
18300190200.0 -0.4841360401 -0.860110752
18350189900.0 -0.4991840599 -0.8516930459
18400189600.0 -0.5136231784 -0.843320447
18450189300.0 -0.5268117656 -0.835590609
18500189000.0 -0.5400906887 -0.8272997883
18550188700.0 -0.5528002836 -0.820272794
18600188400.0 -0.5646918471 -0.8133477453
18650188100.0 -0.57574928 -0.806766039
18700187800.0 -0.5861971676 -0.8003120874
18750187500.0 -0.5969868863 -0.793659419
18800187200.0 -0.6078137713 -0.7867216443
18850186900.0 -0.6180643526 -0.7796909601
18900186600.0 -0.6282224484 -0.772286123
18950186300.0 -0.6381468151 -0.7646176016
19000186000.0 -0.6455948831 -0.7585972083
19050185700.0 -0.6549315629 -0.7514931623
19100185400.0 -0.6650271342 -0.7430754484
19150185100.0 -0.674312849 -0.7350834243
19200184800.0 -0.683893178 -0.7264579839
19250184500.0 -0.6942556569 -0.7171395637
19300184200.0 -0.7055218711 -0.7075247747
19350183900.0 -0.7166575589 -0.6978445776
19400183600.0 -0.7262448404 -0.6884365865
19450183300.0 -0.7351315755 -0.6782141013
19500183000.0 -0.7433222753 -0.6677304659
19550182700.0 -0.7536056188 -0.6568907221
19600182400.0 -0.7636105812 -0.6454837909
19650182100.0 -0.7744203108 -0.6333590315
19700181800.0 -0.7851084567 -0.6199559309
19750181500.0 -0.7957334001 -0.6054635137
19800181200.0 -0.8059651773 -0.5905617356
19850180900.0 -0.8157675386 -0.5753649732
19900180600.0 -0.8237422128 -0.5605237125
19950180300.0 -0.8325880565 -0.5442190403
20000180000.0 -0.8247635747 -0.5459555328
20050179700.0 -0.8338019428 -0.5335035354
20100179400.0 -0.8425509099 -0.5196410881
20150179100.0 -0.8511313613 -0.5074187988
20200178800.0 -0.8594071069 -0.4945824112
20250178500.0 -0.8700098314 -0.4816610374
20300178200.0 -0.8784046514 -0.4661571945
20350177900.0 -0.8875155198 -0.4522752011
20400177600.0 -0.8964542611 -0.4379347232
20450177300.0 -0.9047670002 -0.4230790596
20500177000.0 -0.9126945321 -0.4093530477
20550176700.0 -0.9207554761 -0.3957527165
20600176400.0 -0.9278144809 -0.3828739755
20650176100.0 -0.9341060615 -0.3704598305
20700175800.0 -0.941026246 -0.3588798097
20750175500.0 -0.9481602094 -0.3468320099
20800175200.0 -0.9528036521 -0.336055837
20850174900.0 -0.9571010237 -0.3248735168
20900174600.0 -0.9616757922 -0.3137895382
20950174300.0 -0.9652425438 -0.3018283535
21000174000.0 -0.9691817543 -0.2908041748
21050173700.0 -0.9721909084 -0.2801097719
21100173400.0 -0.9753447819 -0.2686517162
21150173100.0 -0.9800167664 -0.2555070678
21200172800.0 -0.9836081721 -0.2424993103
21250172500.0 -0.9865853953 -0.2287398493
21300172200.0 -0.9893860654 -0.2144080263
21350171900.0 -0.9904764244 -0.1998084888
21400171600.0 -0.9927503613 -0.1861297975
21450171300.0 -0.9927647025 -0.1710906954
21500171000.0 -0.9925622766 -0.1552873096
21550170700.0 -0.9934117315 -0.140811088
21600170400.0 -0.9926664719 -0.1241853738
21650170100.0 -0.9917537183 -0.1081853327
21700169800.0 -0.9899790252 -0.0936227337
21750169500.0 -0.9886322875 -0.0780512359
21800169200.0 -0.9884609514 -0.0612020917
21850168900.0 -0.9873993497 -0.0446647529
21900168600.0 -0.9856742967 -0.0285602827
21950168300.0 -0.9844370528 -0.0124581901
22000168000.0 -0.9832934359 0.0024370147
22050167700.0 -0.9836199258 0.0169078004
22100167400.0 -0.9837092967 0.0322903479
22150167100.0 -0.9847414755 0.0476016554
22200166800.0 -0.9846953827 0.0642969041
22250166500.0 -0.9848414591 0.0814132158
22300166200.0 -0.9837716849 0.097741721
22350165900.0 -0.9816613406 0.1141572743
22400165600.0 -0.9811799695 0.1298482541
22450165300.0 -0.9788282077 0.145109486
22500165000.0 -0.9752508399 0.1583617675
22550164700.0 -0.9753994432 0.1744419909
22600164400.0 -0.9738272594 0.1893201378
22650164100.0 -0.972466916 0.2044936505
22700163800.0 -0.9686163628 0.22020803
22750163500.0 -0.9665120817 0.2355008645
22800163200.0 -0.9634512738 0.2486464182
22850162900.0 -0.9615061345 0.2618898095
22900162600.0 -0.9598300501 0.2751430768
22950162300.0 -0.9586596885 0.2879426706
23000162000.0 -0.9576899934 0.2997046407
23050161700.0 -0.9554058365 0.3116286985
23100161400.0 -0.9538777181 0.3251551845
23150161100.0 -0.950760972 0.3378777673
23200160800.0 -0.9479069129 0.3496719426
23250160500.0 -0.9457369277 0.3623781026
23300160200.0 -0.9425905272 0.3735021139
23350159900.0 -0.9384087078 0.3872934956
23400159600.0 -0.9339832206 0.3998821587
23450159300.0 -0.9293111665 0.4137427683
23500159000.0 -0.9243564998 0.4261646735
23550158700.0 -0.9201742789 0.4396492263
23600158400.0 -0.9143873511 0.4531485653
23650158100.0 -0.9081903012 0.4670219268
23700157800.0 -0.9007833769 0.4808907072
23750157500.0 -0.8919173496 0.4950235282
23800157200.0 -0.8832749298 0.5084335279
23850156900.0 -0.8742953545 0.5211877899
23900156600.0 -0.8646931891 0.5339861665
23950156300.0 -0.8554290372 0.5462300198
24000156000.0 -0.8473257766 0.5581893272
24050155700.0 -0.8365367517 0.570153874
24100155400.0 -0.8260848584 0.5818023345
24150155100.0 -0.8162159911 0.5934280837
24200154800.0 -0.8049745521 0.6056347733
24250154500.0 -0.7945376609 0.616921988
24300154200.0 -0.7828456578 0.6285005392
24350153900.0 -0.7708493597 0.6389884961
24400153600.0 -0.7585553621 0.6490606715
24450153300.0 -0.7466743921 0.6591504468
24500153000.0 -0.7353468712 0.6683509201
24550152700.0 -0.7237886249 0.6780755202
24600152400.0 -0.7125362129 0.6876535598
24650152100.0 -0.7011214948 0.696467949
