!Created with skrf (http://scikit-rf.org).
# Hz S RI R 50.0 
!freq ReS11 ImS11
300000.0 -0.9726589072 -0.1236451622
50299700.0 -0.9998096217 0.0149658325
100299400.0 -0.9980342894 0.0279009171
150299100.0 -1.002702671 0.0447974431
200298800.0 -0.9994151517 0.0581622408
250298500.0 -0.9974579744 0.0717138683
300298200.0 -0.9858998307 0.0873169262
350297900.0 -0.9938840495 0.098315987
400297600.0 -0.9933101592 0.1147342134
450297300.0 -0.9908804041 0.1285404775
500297000.0 -0.9895634523 0.1433054526
550296700.0 -0.9841128298 0.1555252142
600296400.0 -1.017421743 0.1892371992
650296100.0 -0.9821831698 0.185550165
700295800.0 -0.9791913766 0.199723729
750295500.0 -0.9762732542 0.2140278218
800295200.0 -0.9729370437 0.2280923228
850294900.0 -0.9696030841 0.24169711
900294600.0 -0.965822505 0.2555198716
950294300.0 -0.9622955785 0.2690709482
1000294000.0 -0.9579961031 0.2830789932
1050293700.0 -0.9537011056 0.296977063
1100293400.0 -0.9493383395 0.3114817679
1150293100.0 -0.9453837824 0.3233996042
1200292800.0 -0.940184311 0.3376159552
1250292500.0 -0.9347430802 0.3510610114
1300292200.0 -0.9290552316 0.3642539676
1350291900.0 -0.9234917098 0.3783257217
1400291600.0 -0.91804312 0.3915052056
1450291300.0 -0.9125020652 0.4040076916
1500291000.0 -0.9064340992 0.4171290926
1550290700.0 -0.8998951964 0.4306459427
1600290400.0 -0.8934329386 0.4437566345
1650290100.0 -0.8867335403 0.4555640393
1700289800.0 -0.8800966054 0.4692909967
1750289500.0 -0.8728980033 0.4813448162
1800289200.0 -0.8657742377 0.494416113
1850288900.0 -0.8589299292 0.5055996883
1900288600.0 -0.8512739234 0.5188263584
1950288300.0 -0.8430826633 0.5313100994
2000288000.0 -0.8354194777 0.5426387997
2050287700.0 -0.827162739 0.5552901688
2100287400.0 -0.819593004 0.5664879375
2150287100.0 -0.8110613869 0.5785482436
2200286800.0 -0.8030110512 0.5892509857
2250286500.0 -0.7940868233 0.6011980314
2300286200.0 -0.7853055814 0.6130015514
2350285900.0 -0.7768837665 0.6233098769
2400285600.0 -0.7680713231 0.6342760255
2450285300.0 -0.7591152413 0.6450440022
2500285000.0 -0.7493733502 0.6566284083
2550284700.0 -0.7402861548 0.6671477584
2600284400.0 -0.7309699058 0.676756446
2650284100.0 -0.7224794769 0.687177968
2700283800.0 -0.71187457 0.6973133264
2750283500.0 -0.7016659147 0.7081370504
2800283200.0 -0.6917316831 0.717897406
2850282900.0 -0.6811689719 0.7281317966
2900282600.0 -0.670697324 0.7376951083
2950282300.0 -0.6604140055 0.747131941
3000282000.0 -0.6496644034 0.7566533378
3050281700.0 -0.6383891263 0.7658457983
3100281400.0 -0.6268862743 0.7749710031
3150281100.0 -0.6156619323 0.7838952356
3200280800.0 -0.6043713745 0.7922391254
3250280500.0 -0.5931068093 0.8000529759
3300280200.0 -0.5815943686 0.808498574
3350279900.0 -0.5692874995 0.8164694343
3400279600.0 -0.5565589605 0.8245675381
3450279300.0 -0.5455155278 0.8317627594
3500279000.0 -0.5337426609 0.8384490505
3550278700.0 -0.521847876 0.8456852307
3600278400.0 -0.5097250065 0.8520667751
3650278100.0 -0.4968100392 0.8598498959
3700277800.0 -0.4845430165 0.8663893714
3750277500.0 -0.4722677756 0.8733436726
3800277200.0 -0.4600852204 0.8796811462
3850276900.0 -0.4479474539 0.8855894967
3900276600.0 -0.4370571118 0.8913576998
3950276300.0 -0.424909783 0.8970430166
4000276000.0 -0.4131868767 0.9030231758
4050275700.0 -0.4004364184 0.908970838
4100275400.0 -0.3894644881 0.9146707728
4150275100.0 -0.3761462053 0.9203210584
4200274800.0 -0.3625467318 0.9259912481
4250274500.0 -0.3501531715 0.9313953575
4300274200.0 -0.3369329525 0.9365883698
4350273900.0 -0.322434442 0.9421345242
4400273600.0 -0.3078119246 0.9472269146
4450273300.0 -0.2927484289 0.9522515172
4500273000.0 -0.2797834692 0.9561439659
4550272700.0 -0.266220978 0.9605669163
4600272400.0 -0.2511591174 0.9646833709
4650272100.0 -0.2398420557 0.9677544969
4700271800.0 -0.2269358009 0.9711668213
4750271500.0 -0.21526923 0.9739913009
4800271200.0 -0.2030479293 0.9766395971
4850270900.0 -0.1893383819 0.9795576937
4900270600.0 -0.1755470443 0.9819099253
4950270300.0 -0.1608967509 0.9846929044
5000270000.0 -0.1463488983 0.9866293254
5050269700.0 -0.1329694008 0.9883242476
5100269400.0 -0.1187322976 0.9895450189
5150269100.0 -0.1049431596 0.9917475917
5200268800.0 -0.0913606102 0.9927291402
5250268500.0 -0.0783003286 0.9937980186
5300268200.0 -0.0647653992 0.9946999388
5350267900.0 -0.0517423559 0.9954198858
5400267600.0 -0.0354592474 0.9964422426
5450267300.0 -0.0221720925 0.9967066533
5500267000.0 -0.0066663147 0.9969799191
5550266700.0 0.0081362164 0.9972703113
5600266400.0 0.0236639968 0.9972010083
5650266100.0 0.0408754829 0.9967623249
5700265800.0 0.0547564595 0.9960491361
5750265500.0 0.069666836 0.9951735635
5800265200.0 0.0829196459 0.9939931476
5850264900.0 0.0962246564 0.9933184663
5900264600.0 0.1130886784 0.9912727625
5950264300.0 0.1243494684 0.9899977104
6000264000.0 0.1378587215 0.9879291441
6050263700.0 0.1494521353 0.9864187545
6100263400.0 0.16191876 0.98497922
6150263100.0 0.1763817477 0.9828215241
6200262800.0 0.1859424049 0.9810636597
6250262500.0 0.1985692892 0.9789141742
6300262200.0 0.2107447807 0.9762165486
6350261900.0 0.2235690589 0.9734445582
6400261600.0 0.2374891117 0.9702914209
6450261300.0 0.2486661209 0.9678952746
6500261000.0 0.2620881104 0.9642775172
6550260700.0 0.2748879081 0.9602066259
6600260400.0 0.2884731998 0.9561520648
6650260100.0 0.3025149221 0.9515998812
6700259800.0 0.3143340355 0.9473565384
6750259500.0 0.3282913538 0.9424824903
6800259200.0 0.3421927764 0.9375168232
6850258900.0 0.3542810291 0.9322219706
6900258600.0 0.3669335603 0.9270336449
6950258300.0 0.3795896543 0.9215700331
7000258000.0 0.3910233 0.916173027
7050257700.0 0.4030633458 0.9104411633
7100257400.0 0.4164846846 0.9039275836
7150257100.0 0.4272009768 0.8986317757
7200256800.0 0.4404157037 0.8922888702
7250256500.0 0.4529148516 0.8855448543
7300256200.0 0.4655690407 0.8785475066
7350255900.0 0.4790211552 0.872025249
7400255600.0 0.493223362 0.864145351
7450255300.0 0.5086908771 0.8548082204
7500255000.0 0.520950846 0.847570443
7550254700.0 0.5358105833 0.8382993728
7600254400.0 0.5478913647 0.8298547344
7650254100.0 0.5594749387 0.821790644
7700253800.0 0.5712112733 0.8138279869
7750253500.0 0.5820802554 0.8063264571
7800253200.0 0.5925396782 0.7984820925
7850252900.0 0.6025092113 0.791228506
7900252600.0 0.6138592566 0.7825011894
7950252300.0 0.6223276566 0.776182368
8000252000.0 0.6321497427 0.7686560008
8050251700.0 0.6425891789 0.7604961494
8100251400.0 0.6526480477 0.752557872
8150251100.0 0.6626841719 0.7442618652
8200250800.0 0.6720066552 0.7358233516
8250250500.0 0.6807942521 0.7281631454
8300250200.0 0.6898634717 0.7197089832
8350249900.0 0.6993949804 0.7107833015
8400249600.0 0.7073159497 0.7029702682
8450249300.0 0.7158775877 0.6942970314
8500249000.0 0.724404686 0.685306372
8550248700.0 0.7325540416 0.6763155953
8600248400.0 0.7409487719 0.6669704948
8650248100.0 0.7486938844 0.6575672499
8700247800.0 0.7580302691 0.6465765643
8750247500.0 0.7660575359 0.6363956303
8800247200.0 0.7739825871 0.6259848454
8850246900.0 0.7829339036 0.6146043118
8900246600.0 0.7912062303 0.603202802
8950246300.0 0.8006386058 0.5908194329
9000246000.0 0.8091856037 0.5787378895
9050245700.0 0.8178624847 0.5661437214
9100245400.0 0.8257073686 0.55401377
9150245100.0 0.8345567016 0.5414081731
9200244800.0 0.8437972209 0.5271255563
9250244500.0 0.8530942813 0.5123838067
9300244200.0 0.8613115066 0.4988705316
9350243900.0 0.8686271444 0.4857364561
9400243600.0 0.8752794026 0.4739459099
9450243300.0 0.8807844315 0.4635927767
9500243000.0 0.8869838279 0.452127661
9550242700.0 0.8908690925 0.444577957
9600242400.0 0.8952697031 0.4369792707
9650242100.0 0.8996596808 0.4299705415
9700241800.0 0.9046121155 0.4211159727
9750241500.0 0.9090751241 0.4133907502
9800241200.0 0.9138840518 0.4042160926
9850240900.0 0.9198364032 0.3924993575
9900240600.0 0.9255243802 0.380717072
9950240300.0 0.9329309887 0.3638182906
10000240000.0 0.937747262 0.3516798457
10050239700.0 0.9439498488 0.3355992403
10100239400.0 0.9490057964 0.3188616131
10150239100.0 0.9540485677 0.3033801713
10200238800.0 0.9582609273 0.287898623
10250238500.0 0.9614693393 0.2744757089
10300238200.0 0.9645212439 0.2604846091
10350237900.0 0.9673655783 0.247242689
10400237600.0 0.9699891303 0.2337944492
10450237300.0 0.9728716289 0.2197089769
10500237000.0 0.9750050711 0.2079433545
10550236700.0 0.9773867613 0.1929084672
10600236400.0 0.9794746394 0.1793645456
10650236100.0 0.9815278945 0.164702619
10700235800.0 0.9837130905 0.1522698749
10750235500.0 0.9860464397 0.1390631214
10800235200.0 0.9879018802 0.1244928905
10850234900.0 0.9898470351 0.1095838961
10900234600.0 0.9922941557 0.0949414958
10950234300.0 0.9936925721 0.0811961859
11000234000.0 0.9956235469 0.0655654366
11050233700.0 0.9974530075 0.0488728038
11100233400.0 0.9989848222 0.0311298315
11150233100.0 1.000170747 0.0143690099
11200232800.0 1.001062865 -0.0023062848
11250232500.0 1.002472529 -0.0196177834
11300232200.0 1.002490565 -0.0388161305
11350231900.0 1.002629175 -0.0544290353
11400231600.0 1.00177537 -0.0705802078
11450231300.0 1.000758294 -0.0854545775
11500231000.0 0.9995802428 -0.1022728175
11550230700.0 0.9983868561 -0.1145890421
11600230400.0 0.9971257533 -0.1284719489
11650230100.0 0.9947776276 -0.1399101042
11700229800.0 0.9927582242 -0.154704443
11750229500.0 0.9902817678 -0.1688081468
11800229200.0 0.9874478862 -0.1820225892
11850228900.0 0.9836606861 -0.1936678149
11900228600.0 0.9799262393 -0.203412205
11950228300.0 0.9764596246 -0.2126637008
12000228000.0 0.9737279398 -0.2223617375
12050227700.0 0.9701663094 -0.234882042
12100227400.0 0.9671444478 -0.2453280428
12150227100.0 0.9620847962 -0.2624161756
12200226800.0 0.9576867127 -0.2735158152
12250226500.0 0.9532387481 -0.2862452097
12300226200.0 0.9494813025 -0.2995569173
12350225900.0 0.9443392469 -0.3124357401
12400225600.0 0.9403563612 -0.3249353936
12450225300.0 0.9355693678 -0.3371477589
12500225000.0 0.9300886184 -0.3517177553
12550224700.0 0.9248092034 -0.3659350249
12600224400.0 0.9199575839 -0.3784759526
12650224100.0 0.9140100505 -0.3926203123
12700223800.0 0.9088244463 -0.4054891863
12750223500.0 0.9030866851 -0.4187412605
12800223200.0 0.8979487638 -0.4313045778
12850222900.0 0.8927354306 -0.4433023795
12900222600.0 0.8871662702 -0.4551443784
12950222300.0 0.8808869379 -0.4676242634
13000222000.0 0.8749539692 -0.4795657443
13050221700.0 0.8681157781 -0.4922173991
13100221400.0 0.8615282502 -0.5048986092
13150221100.0 0.8542692434 -0.5172333579
13200220800.0 0.8477351194 -0.5282742296
13250220500.0 0.8403845076 -0.5403947272
13300220200.0 0.8328566898 -0.5513050414
13350219900.0 0.8246004703 -0.5631813821
13400219600.0 0.8162967266 -0.5751272185
13450219300.0 0.8071110326 -0.5880714252
13500219000.0 0.7970258958 -0.6013250009
13550218700.0 0.7872278241 -0.6134524819
13600218400.0 0.7775514113 -0.6252954848
13650218100.0 0.7689074581 -0.6358791943
13700217800.0 0.7570609006 -0.6476446677
13750217500.0 0.7468357642 -0.6594898342
13800217200.0 0.7365409795 -0.6693074274
13850216900.0 0.7260098218 -0.6812138438
13900216600.0 0.7155568809 -0.6900600292
13950216300.0 0.7049147752 -0.6999451171
14000216000.0 0.6952917347 -0.7089348717
14050215700.0 0.6865983568 -0.717079482
14100215400.0 0.6764788285 -0.7263973462
14150215100.0 0.6676544831 -0.734930319
14200214800.0 0.6581679564 -0.7439199019
14250214500.0 0.6476317821 -0.7533701148
14300214200.0 0.6371999075 -0.7627735078
14350213900.0 0.6262150017 -0.7724894555
14400213600.0 0.6141275464 -0.782357671
14450213300.0 0.6012494117 -0.7925184521
14500213000.0 0.5886296971 -0.8024216276
14550212700.0 0.5758844065 -0.8121093819
14600212400.0 0.5638951694 -0.8199973276
14650212100.0 0.5509799452 -0.8291706598
14700211800.0 0.5377907476 -0.8390347514
14750211500.0 0.5250759009 -0.8473873955
14800211200.0 0.5125124768 -0.8554586974
14850210900.0 0.5000979792 -0.863139721
14900210600.0 0.4869483643 -0.8710294251
14950210300.0 0.4735269354 -0.8785493788
15000210000.0 0.4610480285 -0.8851964634
15050209700.0 0.4487129857 -0.891614478
15100209400.0 0.4363079208 -0.8976427115
15150209100.0 0.4235300991 -0.9027866018
15200208800.0 0.4107368464 -0.9079649098
15250208500.0 0.4004648911 -0.9119633681
15300208200.0 0.387712986 -0.9170213959
15350207900.0 0.3740138565 -0.9212715614
15400207600.0 0.3598147448 -0.927827725
15450207300.0 0.3450887067 -0.9329933583
15500207000.0 0.3306422558 -0.9370758265
15550206700.0 0.3165230219 -0.9414028311
15600206400.0 0.2994243187 -0.9464071596
15650206100.0 0.2838405624 -0.9508750651
15700205800.0 0.2702894499 -0.9541635441
15750205500.0 0.2565706524 -0.9579386375
15800205200.0 0.2425035728 -0.9611887916
15850204900.0 0.22840404 -0.9647525364
15900204600.0 0.2131571459 -0.9682560776
15950204300.0 0.1990910342 -0.9715254552
16000204000.0 0.1846712307 -0.9743661229
16050203700.0 0.1694769397 -0.9772454084
16100203400.0 0.1547454527 -0.9795913296
16150203100.0 0.1394801355 -0.9819963064
16200202800.0 0.125493335 -0.9841491355
16250202500.0 0.1108497182 -0.9857492751
16300202200.0 0.0953735158 -0.9873000801
16350201900.0 0.0801491184 -0.9888970916
16400201600.0 0.0655502254 -0.9903556977
16450201300.0 0.0499636794 -0.9913818105
16500201000.0 0.0328856427 -0.9921701478
16550200700.0 0.0168207957 -0.9925998752
16600200400.0 0.0008484102 -0.9925985793
16650200100.0 -0.0151264509 -0.9928533963
16700199800.0 -0.031740659 -0.9923836648
16750199500.0 -0.0505759474 -0.9914706913
16800199200.0 -0.0668691639 -0.990870187
16850198900.0 -0.0824611666 -0.9889050966
16900198600.0 -0.0963852918 -0.9886087521
16950198300.0 -0.1098407688 -0.9876592502
17000198000.0 -0.1234535602 -0.9857395898
17050197700.0 -0.136218422 -0.984345702
17100197400.0 -0.1489957146 -0.981975915
17150197100.0 -0.1618032114 -0.9799765449
17200196800.0 -0.1745460492 -0.9779732515
17250196500.0 -0.1867531148 -0.975190452
17300196200.0 -0.199476884 -0.9730717144
17350195900.0 -0.2111488754 -0.9706628847
17400195600.0 -0.22313517 -0.968238719
17450195300.0 -0.2361476195 -0.9654673305
17500195000.0 -0.2491003695 -0.962388218
17550194700.0 -0.2629210981 -0.9584639408
17600194400.0 -0.276993748 -0.9547471718
17650194100.0 -0.2907909491 -0.9503023798
17700193800.0 -0.3034064849 -0.9462292113
17750193500.0 -0.3181959576 -0.9419341605
17800193200.0 -0.3318376833 -0.9365053591
17850192900.0 -0.3466596823 -0.9311149969
17900192600.0 -0.3619120902 -0.9249948166
17950192300.0 -0.3772019311 -0.9178334633
18000192000.0 -0.3919345143 -0.9105856601
18050191700.0 -0.4059260061 -0.9027364743
18100191400.0 -0.4199378262 -0.895118597
18150191100.0 -0.4347685065 -0.887129669
18200190800.0 -0.4516973776 -0.8779320333
18250190500.0 -0.4687136242 -0.8685442902
18300190200.0 -0.4844294819 -0.8595789931
18350189900.0 -0.4994685959 -0.8513475991
18400189600.0 -0.5135607911 -0.842648
18450189300.0 -0.5271362484 -0.8349721698
18500189000.0 -0.5406417313 -0.826572586
18550188700.0 -0.5535857141 -0.8187851196
18600188400.0 -0.5652911204 -0.8123261867
18650188100.0 -0.5768876197 -0.8052573759
18700187800.0 -0.5876823559 -0.7989896991
18750187500.0 -0.5984826693 -0.7924036862
18800187200.0 -0.6091374878 -0.7854371945
18850186900.0 -0.619555635 -0.778340621
18900186600.0 -0.6297025141 -0.7711575403
18950186300.0 -0.6399779627 -0.7634498234
19000186000.0 -0.6476632351 -0.7569029881
19050185700.0 -0.6567620916 -0.7500196791
19100185400.0 -0.6669834017 -0.7420760986
19150185100.0 -0.676766279 -0.7332129357
19200184800.0 -0.6867190478 -0.7251694038
19250184500.0 -0.6967609871 -0.7158964735
19300184200.0 -0.7079286233 -0.7066458002
19350183900.0 -0.718698128 -0.697495013
19400183600.0 -0.7287494432 -0.6869126512
19450183300.0 -0.7373271965 -0.6763726802
19500183000.0 -0.7455363279 -0.666474285
19550182700.0 -0.755398341 -0.6558077711
19600182400.0 -0.7659848136 -0.6444356159
19650182100.0 -0.7762372383 -0.6318161345
19700181800.0 -0.7867288678 -0.6185911613
19750181500.0 -0.7970034143 -0.60442474
19800181200.0 -0.807146915 -0.5894254429
19850180900.0 -0.816790549 -0.5740823355
19900180600.0 -0.8243095655 -0.559640612
19950180300.0 -0.8335919781 -0.5429916763
20000180000.0 -0.8237059613 -0.5471218272
20050179700.0 -0.8310564814 -0.5341257653
20100179400.0 -0.8398724536 -0.5209273099
20150179100.0 -0.8475622046 -0.5098760976
20200178800.0 -0.8557531332 -0.4978347015
20250178500.0 -0.8656356816 -0.4852960155
20300178200.0 -0.8746944782 -0.4716099016
20350177900.0 -0.8845017333 -0.4580581426
20400177600.0 -0.8934878548 -0.4435239387
20450177300.0 -0.9017000673 -0.4293102062
20500177000.0 -0.909934302 -0.4154897245
20550176700.0 -0.9178909702 -0.4019915298
20600176400.0 -0.9249394136 -0.3893400668
20650176100.0 -0.9312664637 -0.3771296892
20700175800.0 -0.9382505611 -0.3646770626
20750175500.0 -0.94441046 -0.3529057236
20800175200.0 -0.9487551624 -0.3426433643
20850174900.0 -0.9536266513 -0.3317375068
20900174600.0 -0.9571963065 -0.3210828396
20950174300.0 -0.9610343714 -0.3095553956
21000174000.0 -0.9633071806 -0.2995531244
21050173700.0 -0.9654857351 -0.2900732219
21100173400.0 -0.9683027339 -0.2786515953
21150173100.0 -0.9724443275 -0.267268192
21200172800.0 -0.9766209135 -0.2539008199
21250172500.0 -0.9803861275 -0.2400917364
21300172200.0 -0.9838555408 -0.2259863607
21350171900.0 -0.9857557144 -0.2118435826
21400171600.0 -0.9877389514 -0.1976141905
21450171300.0 -0.9885127447 -0.1836549953
21500171000.0 -0.9894974983 -0.1679699087
21550170700.0 -0.9892624448 -0.1530589818
21600170400.0 -0.9901860819 -0.1378413545
21650170100.0 -0.9893563387 -0.12196745
21700169800.0 -0.9887612333 -0.1075310978
21750169500.0 -0.9893197898 -0.0909771071
21800169200.0 -0.9899612992 -0.0736319683
21850168900.0 -0.9898718742 -0.0575436632
21900168600.0 -0.9900196512 -0.0414026431
21950168300.0 -0.9887973792 -0.0257418583
22000168000.0 -0.9894379448 -0.010545546
22050167700.0 -0.9898472999 0.0038062205
22100167400.0 -0.9905153669 0.0197948058
22150167100.0 -0.9914908969 0.0357150256
22200166800.0 -0.9918815164 0.0519505113
22250166500.0 -0.991109852 0.06955799
22300166200.0 -0.990647621 0.0858883474
22350165900.0 -0.9899453543 0.1018126244
22400165600.0 -0.9874680265 0.1178527573
22450165300.0 -0.986988674 0.1329541419
22500165000.0 -0.9853317589 0.1473110277
22550164700.0 -0.9836881288 0.1633230967
22600164400.0 -0.981522469 0.1799748146
22650164100.0 -0.9785768889 0.1955704645
22700163800.0 -0.9752547287 0.2113698928
22750163500.0 -0.9728296467 0.2262277772
22800163200.0 -0.9692959594 0.2390977386
22850162900.0 -0.9668919298 0.2525729823
22900162600.0 -0.9650169784 0.2669405263
22950162300.0 -0.9629094978 0.2801600537
23000162000.0 -0.9611223922 0.2931083121
23050161700.0 -0.9586460042 0.3065474931
23100161400.0 -0.9555476663 0.3200856167
23150161100.0 -0.9526790248 0.3330226601
23200160800.0 -0.9494670293 0.3453420358
23250160500.0 -0.9470177141 0.3578832653
23300160200.0 -0.9445031269 0.3707471771
23350159900.0 -0.939688489 0.3846048408
23400159600.0 -0.9348962775 0.3982488658
23450159300.0 -0.9300836542 0.4126977333
23500159000.0 -0.92504443 0.4263381882
23550158700.0 -0.9201629546 0.4401993531
23600158400.0 -0.913980415 0.4543018278
23650158100.0 -0.9067195107 0.4689355797
23700157800.0 -0.8982731158 0.4830335017
23750157500.0 -0.8887117833 0.4975470426
23800157200.0 -0.8791879868 0.5106132275
23850156900.0 -0.8690942979 0.5236378403
23900156600.0 -0.8591974975 0.5360928663
23950156300.0 -0.8500132003 0.5482775516
24000156000.0 -0.8407445674 0.5613892773
24050155700.0 -0.8294450353 0.5737968386
24100155400.0 -0.8190724572 0.586428202
24150155100.0 -0.8085161957 0.5983421944
24200154800.0 -0.7970535055 0.6103587182
24250154500.0 -0.785424089 0.6226917879
24300154200.0 -0.7745633554 0.6344899134
24350153900.0 -0.7625223182 0.645616764
24400153600.0 -0.7495967054 0.6561504745
24450153300.0 -0.737356276 0.6663677324
24500153000.0 -0.725530163 0.6765834061
24550152700.0 -0.7143150596 0.6867695622
24600152400.0 -0.7022138785 0.6967285811
24650152100.0 -0.690252892 0.7046335571
