!Created with skrf (http://scikit-rf.org).
# Hz S RI R 50.0 
!freq ReS11 ImS11
300000.0 -0.9974497982 -0.0349348312
50299700.0 -0.9990889216 0.0163202874
100299400.0 -0.9971178547 0.0287680155
150299100.0 -1.001917668 0.0455451741
200298800.0 -0.9986369799 0.0588414762
250298500.0 -0.9963260763 0.0723069308
300298200.0 -0.9848488613 0.0880213227
350297900.0 -0.9929686176 0.0987600617
400297600.0 -0.9920297258 0.1152612789
450297300.0 -0.989771539 0.1287774939
500297000.0 -0.9879709038 0.1434002329
550296700.0 -0.9829419184 0.1560450174
600296400.0 -1.015754414 0.1892422873
650296100.0 -0.9805748102 0.1855415073
700295800.0 -0.9777004385 0.1998289739
750295500.0 -0.9745320718 0.2138529293
800295200.0 -0.9712392445 0.2277103804
850294900.0 -0.9680018431 0.2413601676
900294600.0 -0.9641095059 0.2551053209
950294300.0 -0.9604878982 0.2685659525
1000294000.0 -0.9567291914 0.2825593161
1050293700.0 -0.9520756957 0.2963725366
1100293400.0 -0.9479313039 0.3106059738
1150293100.0 -0.9442480229 0.3225190555
1200292800.0 -0.9389056118 0.3368535911
1250292500.0 -0.9334144581 0.3502805647
1300292200.0 -0.9277745716 0.363333662
1350291900.0 -0.9225312898 0.3773973785
1400291600.0 -0.9172035941 0.3904125062
1450291300.0 -0.9118086298 0.4025066789
1500291000.0 -0.9054813845 0.4160453434
1550290700.0 -0.8991620449 0.4292592985
1600290400.0 -0.8930035816 0.4423320847
1650290100.0 -0.8865254702 0.4542745336
1700289800.0 -0.8797089521 0.4678088571
1750289500.0 -0.8727380726 0.479757936
1800289200.0 -0.8655701296 0.4928059541
1850288900.0 -0.8587630467 0.5039688012
1900288600.0 -0.8513620853 0.5171981774
1950288300.0 -0.8431336186 0.5295294447
2000288000.0 -0.8355515254 0.5409919993
2050287700.0 -0.8275758249 0.5534563588
2100287400.0 -0.8197001808 0.5647843842
2150287100.0 -0.8110391111 0.5770633151
2200286800.0 -0.8033035183 0.5876844957
2250286500.0 -0.7946857417 0.5991607548
2300286200.0 -0.7859423124 0.6109250123
2350285900.0 -0.7770825523 0.6218022653
2400285600.0 -0.768078019 0.6330187861
2450285300.0 -0.7593835694 0.6434203794
2500285000.0 -0.7498726393 0.654347819
2550284700.0 -0.7406899029 0.6648014581
2600284400.0 -0.7311118148 0.675291684
2650284100.0 -0.7225381072 0.6853972804
2700283800.0 -0.7118532905 0.6956974049
2750283500.0 -0.7014981235 0.7061879471
2800283200.0 -0.6918197752 0.7161008092
2850282900.0 -0.681674744 0.7258818284
2900282600.0 -0.6711172709 0.7354137365
2950282300.0 -0.6612491703 0.7447134296
3000282000.0 -0.6501538038 0.7541138532
3050281700.0 -0.6393598641 0.7635217022
3100281400.0 -0.6282937675 0.7723299671
3150281100.0 -0.6171514873 0.7810975476
3200280800.0 -0.6054029582 0.7900751766
3250280500.0 -0.5944722969 0.7982664322
3300280200.0 -0.5829166152 0.8063964534
3350279900.0 -0.5717481147 0.8140657592
3400279600.0 -0.5595563278 0.8218602818
3450279300.0 -0.5486965361 0.8297058862
3500279000.0 -0.5368116679 0.8369311208
3550278700.0 -0.5247984435 0.8443696661
3600278400.0 -0.5132080069 0.8511834924
3650278100.0 -0.4997716661 0.858972726
3700277800.0 -0.487897939 0.8654285946
3750277500.0 -0.4757898829 0.8721163762
3800277200.0 -0.463377438 0.8788072924
3850276900.0 -0.4508092278 0.8850768553
3900276600.0 -0.4394955404 0.8908094837
3950276300.0 -0.4267495773 0.8973620288
4000276000.0 -0.4147640615 0.9033017761
4050275700.0 -0.4013175338 0.9092387885
4100275400.0 -0.3898304807 0.9145877245
4150275100.0 -0.377012982 0.9203368486
4200274800.0 -0.363448972 0.9256999479
4250274500.0 -0.3511918807 0.9307539004
4300274200.0 -0.3381797152 0.9356527482
4350273900.0 -0.3249660476 0.940772359
4400273600.0 -0.3108988797 0.9454629215
4450273300.0 -0.2964334109 0.9504823046
4500273000.0 -0.2833838263 0.9546485178
4550272700.0 -0.2698430085 0.9585126407
4600272400.0 -0.2544563345 0.9627901762
4650272100.0 -0.2423192773 0.9661517533
4700271800.0 -0.2288927088 0.9694138924
4750271500.0 -0.2162886976 0.972503429
4800271200.0 -0.2030869032 0.9752736055
4850270900.0 -0.1892786336 0.9782448052
4900270600.0 -0.1757407862 0.9806377785
4950270300.0 -0.162182187 0.9830175591
5000270000.0 -0.1479563887 0.9852557237
5050269700.0 -0.1346833131 0.9870757826
5100269400.0 -0.1205428565 0.9887929353
5150269100.0 -0.1070497641 0.990475752
5200268800.0 -0.0934810273 0.9917046735
5250268500.0 -0.0803548148 0.9929007982
5300268200.0 -0.0668510405 0.9938960136
5350267900.0 -0.0545196379 0.9944430659
5400267600.0 -0.0386265821 0.9955852318
5450267300.0 -0.0262016205 0.9957395657
5500267000.0 -0.0117590606 0.9961974569
5550266700.0 0.0017965209 0.996373378
5600266400.0 0.0170215708 0.99650331
5650266100.0 0.0325289851 0.9961156359
5700265800.0 0.0465085953 0.9953835548
5750265500.0 0.0608803221 0.9948999922
5800265200.0 0.0743047087 0.9934544438
5850264900.0 0.0878043267 0.9930974771
5900264600.0 0.1038362814 0.9910444601
5950264300.0 0.1165427187 0.9900199648
6000264000.0 0.130270203 0.9879841409
6050263700.0 0.143145807 0.9869016862
6100263400.0 0.156348451 0.9848315343
6150263100.0 0.1717397524 0.9820523891
6200262800.0 0.1824172824 0.9801895422
6250262500.0 0.1955651807 0.9776537455
6300262200.0 0.2082805978 0.9749598887
6350261900.0 0.2214561066 0.9722241681
6400261600.0 0.2357956284 0.9687519388
6450261300.0 0.2474640143 0.9659879111
6500261000.0 0.2604012091 0.962454664
6550260700.0 0.2735077634 0.9586436676
6600260400.0 0.2865309973 0.9548763441
6650260100.0 0.3003367095 0.9505138435
6700259800.0 0.3123219511 0.9463184895
6750259500.0 0.3259509415 0.9420818776
6800259200.0 0.339029301 0.9369722421
6850258900.0 0.3515590293 0.9320236476
6900258600.0 0.3640366504 0.9272852352
6950258300.0 0.3766697549 0.9223243422
7000258000.0 0.3887855399 0.917238269
7050257700.0 0.4007510628 0.9113984738
7100257400.0 0.4143877666 0.9050810939
7150257100.0 0.4251021413 0.9000210813
7200256800.0 0.4378172327 0.8937383251
7250256500.0 0.4490750629 0.8879843962
7300256200.0 0.4619834086 0.8813917419
7350255900.0 0.4741879003 0.8750344553
7400255600.0 0.4854513538 0.8686937293
7450255300.0 0.4999354481 0.8602927594
7500255000.0 0.5113262942 0.8534680176
7550254700.0 0.5240028489 0.8462482764
7600254400.0 0.5364489087 0.8383423075
7650254100.0 0.5474255314 0.8310259943
7700253800.0 0.559319035 0.8230476621
7750253500.0 0.5707631363 0.8154306256
7800253200.0 0.5819795671 0.8070991474
7850252900.0 0.5916145783 0.8001785582
7900252600.0 0.6036183592 0.7913451829
7950252300.0 0.6131378357 0.78419949
8000252000.0 0.6237842216 0.7760409587
8050251700.0 0.6343919449 0.7676030459
8100251400.0 0.6443995875 0.7594094326
8150251100.0 0.6549809546 0.7503825171
8200250800.0 0.6642515076 0.7423342414
8250250500.0 0.6742704541 0.7335109364
8300250200.0 0.6839500642 0.7247533051
8350249900.0 0.6934105853 0.7158439282
8400249600.0 0.7022494947 0.7071289335
8450249300.0 0.7115099599 0.6974172639
8500249000.0 0.7209316925 0.6883542383
8550248700.0 0.7298127121 0.6782147721
8600248400.0 0.7389655485 0.6686415348
8650248100.0 0.7466727157 0.6591095908
8700247800.0 0.7561131498 0.6484438897
8750247500.0 0.7647406224 0.6383447621
8800247200.0 0.7727435451 0.6281463943
8850246900.0 0.7815397071 0.6173138741
8900246600.0 0.7900006896 0.6064720088
8950246300.0 0.7986018673 0.5943278672
9000246000.0 0.8071196202 0.5830219053
9050245700.0 0.8150126414 0.5716225713
9100245400.0 0.8232641399 0.5594840303
9150245100.0 0.8318185406 0.5473422289
9200244800.0 0.8402646258 0.5349446831
9250244500.0 0.8486440332 0.5215121848
9300244200.0 0.8562094107 0.5091034174
9350243900.0 0.8634915388 0.4961056026
9400243600.0 0.8708176278 0.4837266976
9450243300.0 0.8768724745 0.4721309465
9500243000.0 0.8838959705 0.4591097553
9550242700.0 0.8896706679 0.4481565897
9600242400.0 0.8951257125 0.4376318658
9650242100.0 0.8997447295 0.428053743
9700241800.0 0.9050458795 0.4181856437
9750241500.0 0.9097971591 0.4074969596
9800241200.0 0.9147287929 0.3964767077
9850240900.0 0.9199819758 0.3848290959
9900240600.0 0.9250005123 0.3743823417
9950240300.0 0.9307383666 0.360026922
10000240000.0 0.9357288328 0.3472670968
10050239700.0 0.9411630073 0.3336061634
10100239400.0 0.9458051948 0.3193777572
10150239100.0 0.950130227 0.3054207343
10200238800.0 0.9546728756 0.2909443088
10250238500.0 0.958291178 0.2777143184
10300238200.0 0.9618759277 0.2639551425
10350237900.0 0.9649697533 0.2509663542
10400237600.0 0.9680875211 0.2374613667
10450237300.0 0.9711803336 0.2235471497
10500237000.0 0.9736443902 0.2112864615
10550236700.0 0.9761914356 0.1980876621
10600236400.0 0.9788073957 0.1844278923
10650236100.0 0.9812105755 0.169056741
10700235800.0 0.9831443895 0.1567127848
10750235500.0 0.9858102179 0.1431639859
10800235200.0 0.9874888636 0.129567291
10850234900.0 0.9891695239 0.1156652773
10900234600.0 0.9911539016 0.1012946945
10950234300.0 0.9926593091 0.0881817446
11000234000.0 0.994092408 0.0742276383
11050233700.0 0.9954015736 0.0600013119
11100233400.0 0.9966703258 0.0440282808
11150233100.0 0.9975653913 0.0288903246
11200232800.0 0.9978681357 0.0149143946
11250232500.0 0.998964881 4.72409e-05
11300232200.0 0.9988300545 -0.0167701331
11350231900.0 0.999184354 -0.0314993825
11400231600.0 0.998847154 -0.0461896651
11450231300.0 0.9976406083 -0.0598287663
11500231000.0 0.9969650198 -0.0757708818
11550230700.0 0.9960833401 -0.0895985561
11600230400.0 0.9948744213 -0.1038393615
11650230100.0 0.9932152282 -0.1159163631
11700229800.0 0.9917527681 -0.130805206
11750229500.0 0.9896951812 -0.1442948185
11800229200.0 0.9874074238 -0.1580502711
11850228900.0 0.9845145888 -0.1714474839
11900228600.0 0.9814162557 -0.184211735
11950228300.0 0.9788672495 -0.1961690825
12000228000.0 0.9758927644 -0.2076003509
12050227700.0 0.9722010583 -0.2211955996
12100227400.0 0.9696720725 -0.232062843
12150227100.0 0.9651171294 -0.2493395282
12200226800.0 0.9618760636 -0.2606063407
12250226500.0 0.957619582 -0.2743570691
12300226200.0 0.9544198269 -0.2864266241
12350225900.0 0.949088937 -0.3005417848
12400225600.0 0.9452704046 -0.3132360299
12450225300.0 0.9412529185 -0.3254070945
12500225000.0 0.9362113356 -0.3397853616
12550224700.0 0.9308346872 -0.3539891063
12600224400.0 0.9262007246 -0.3661995274
12650224100.0 0.9205057698 -0.3806119224
12700223800.0 0.9153006477 -0.3932509885
12750223500.0 0.9099590312 -0.4061956959
12800223200.0 0.9043461213 -0.4188115717
12850222900.0 0.8987269138 -0.4314362902
12900222600.0 0.8927486169 -0.4435710276
12950222300.0 0.8864901675 -0.4568035635
13000222000.0 0.8805104422 -0.4686904206
13050221700.0 0.8736844215 -0.4812930704
13100221400.0 0.8669966148 -0.4930653815
13150221100.0 0.8596909159 -0.5057769108
13200220800.0 0.8529220716 -0.5172970018
13250220500.0 0.8453360255 -0.5297983188
13300220200.0 0.8381245372 -0.5410404085
13350219900.0 0.8298960724 -0.5535520205
13400219600.0 0.821975843 -0.5649594309
13450219300.0 0.8134986999 -0.5774856961
13500219000.0 0.8042002378 -0.5899982598
13550218700.0 0.7950560769 -0.6020351724
13600218400.0 0.7852404509 -0.6141834984
13650218100.0 0.7764323237 -0.6253521806
13700217800.0 0.7662882751 -0.6370436484
13750217500.0 0.7565024353 -0.6484281748
13800217200.0 0.7464069008 -0.6600213064
13850216900.0 0.7364600137 -0.6716861395
13900216600.0 0.7266177392 -0.6809263087
13950216300.0 0.715847605 -0.6922331106
14000216000.0 0.7062752072 -0.7018268066
14050215700.0 0.6967728676 -0.7100222862
14100215400.0 0.6860016282 -0.7204611265
14150215100.0 0.6762565402 -0.7295924744
14200214800.0 0.666650372 -0.7385324601
14250214500.0 0.6561448514 -0.74835664
14300214200.0 0.6453922556 -0.7579777145
14350213900.0 0.6341901404 -0.767388577
14400213600.0 0.623454932 -0.7765304966
14450213300.0 0.6120424238 -0.7860624376
14500213000.0 0.5992588904 -0.7951166756
14550212700.0 0.5874273518 -0.8046267681
14600212400.0 0.5755236821 -0.8132538954
14650212100.0 0.5631854312 -0.8210280152
14700211800.0 0.5505547888 -0.8302637401
14750211500.0 0.5375998791 -0.8387489478
14800211200.0 0.5253099845 -0.8471504131
14850210900.0 0.5133235475 -0.8542153811
14900210600.0 0.5004679906 -0.8622856036
14950210300.0 0.4873364535 -0.8699482655
15000210000.0 0.4745338024 -0.8768179494
15050209700.0 0.4619303558 -0.8837383126
15100209400.0 0.448914979 -0.8902260113
15150209100.0 0.4363167641 -0.8962874203
15200208800.0 0.4232367048 -0.9025406146
15250208500.0 0.4108268351 -0.9076925324
15300208200.0 0.3975163009 -0.9134297989
15350207900.0 0.3846380672 -0.918584779
15400207600.0 0.3705638645 -0.9240361747
15450207300.0 0.3558981448 -0.9301450757
15500207000.0 0.3426788764 -0.9337773323
15550206700.0 0.3284430338 -0.9392723169
15600206400.0 0.3133507239 -0.943465251
15650206100.0 0.2984050525 -0.9483139923
15700205800.0 0.2846399423 -0.9528167695
15750205500.0 0.2704166987 -0.9565084588
15800205200.0 0.2563033769 -0.9602381443
15850204900.0 0.2424503156 -0.963761838
15900204600.0 0.2274355197 -0.9676927503
15950204300.0 0.2135342652 -0.9709266186
16000204000.0 0.1994780814 -0.9737826422
16050203700.0 0.1843736982 -0.9768708166
16100203400.0 0.1706562543 -0.9794071406
16150203100.0 0.1557557523 -0.9819581427
16200202800.0 0.1414559633 -0.9840892994
16250202500.0 0.1269075336 -0.9858026993
16300202200.0 0.1113248028 -0.9877834227
16350201900.0 0.0964684163 -0.9893915113
16400201600.0 0.0816932282 -0.9906215363
16450201300.0 0.0671663187 -0.9919777297
16500201000.0 0.0511347304 -0.9930090597
16550200700.0 0.035915498 -0.9936011867
16600200400.0 0.0204444804 -0.9940229951
16650200100.0 0.0047357154 -0.9942472143
16700199800.0 -0.0105136009 -0.9943720487
16750199500.0 -0.0276185353 -0.9939540209
16800199200.0 -0.0429068736 -0.9937724174
16850198900.0 -0.0585188884 -0.9928390269
16900198600.0 -0.0731990798 -0.9912610113
16950198300.0 -0.0873075361 -0.9909407785
17000198000.0 -0.1011264298 -0.9894843695
17050197700.0 -0.1152770346 -0.9872517
17100197400.0 -0.1296025507 -0.985754488
17150197100.0 -0.1433667717 -0.9838125464
17200196800.0 -0.1567285627 -0.9813806802
17250196500.0 -0.1706245034 -0.9793668664
17300196200.0 -0.1842260087 -0.9766411137
17350195900.0 -0.1973410476 -0.9741352711
17400195600.0 -0.2103924735 -0.9713165479
17450195300.0 -0.2239391465 -0.9686579106
17500195000.0 -0.237645883 -0.9651436572
17550194700.0 -0.2515751783 -0.9620689123
17600194400.0 -0.2654107254 -0.9579198896
17650194100.0 -0.2795032719 -0.9539276392
17700193800.0 -0.2930111872 -0.9502809511
17750193500.0 -0.3068439503 -0.9456651861
17800193200.0 -0.3210927992 -0.9408628127
17850192900.0 -0.335116207 -0.9362444549
17900192600.0 -0.3495108136 -0.9306417988
17950192300.0 -0.3641100493 -0.9243670205
18000192000.0 -0.3787703592 -0.9181275068
18050191700.0 -0.3929237317 -0.9108444193
18100191400.0 -0.4071814849 -0.9043449774
18150191100.0 -0.4211484758 -0.8973667348
18200190800.0 -0.4363622934 -0.8895756378
18250190500.0 -0.4519196387 -0.8817491335
18300190200.0 -0.4668597333 -0.8741102567
18350189900.0 -0.4817256764 -0.8662476197
18400189600.0 -0.4957844121 -0.8580627722
18450189300.0 -0.5094176955 -0.8505067885
18500189000.0 -0.5221367532 -0.8431403802
18550188700.0 -0.5357895497 -0.8352095934
18600188400.0 -0.5482780163 -0.8271851416
18650188100.0 -0.56018597 -0.8197911111
18700187800.0 -0.571823884 -0.8121060744
18750187500.0 -0.5835812746 -0.8046613999
18800187200.0 -0.594819584 -0.7967182623
18850186900.0 -0.6056649962 -0.7889210509
18900186600.0 -0.6163312738 -0.7808137272
18950186300.0 -0.6275152192 -0.7720794379
19000186000.0 -0.6364262647 -0.7646100903
19050185700.0 -0.6467759525 -0.7566946473
19100185400.0 -0.6573343039 -0.7476269272
19150185100.0 -0.6677266866 -0.7381445098
19200184800.0 -0.6774377886 -0.7298227822
19250184500.0 -0.6875911822 -0.7196246034
19300184200.0 -0.6978326955 -0.7103236364
19350183900.0 -0.7089433256 -0.7005505693
19400183600.0 -0.7182031471 -0.690751978
19450183300.0 -0.7281067984 -0.6801276751
19500183000.0 -0.7360850182 -0.6699782523
19550182700.0 -0.7459499933 -0.6588730125
19600182400.0 -0.7550661578 -0.6480853635
19650182100.0 -0.7654196742 -0.6364993059
19700181800.0 -0.7751718444 -0.6243236841
19750181500.0 -0.785008334 -0.6118048784
19800181200.0 -0.7946491016 -0.5984258793
19850180900.0 -0.8043192516 -0.5849564996
19900180600.0 -0.8122215268 -0.5722696159
19950180300.0 -0.8219049412 -0.5576049203
20000180000.0 -0.8247150783 -0.5517372872
20050179700.0 -0.8330962172 -0.5391518615
20100179400.0 -0.8410206747 -0.5256448697
20150179100.0 -0.8495745999 -0.5132043854
20200178800.0 -0.8572945813 -0.5010914855
20250178500.0 -0.8657800716 -0.4882769963
20300178200.0 -0.8741565922 -0.4746997464
20350177900.0 -0.88178214 -0.4610256082
20400177600.0 -0.8895012348 -0.4476486984
20450177300.0 -0.8966851922 -0.4339985758
20500177000.0 -0.9038604965 -0.4210647651
20550176700.0 -0.9110562817 -0.4071775555
20600176400.0 -0.9175508621 -0.3943858975
20650176100.0 -0.9237445925 -0.3816300005
20700175800.0 -0.9295438015 -0.3685897243
20750175500.0 -0.9361440698 -0.3563536082
20800175200.0 -0.9414124254 -0.3448645647
20850174900.0 -0.9457452995 -0.3332212378
20900174600.0 -0.9504162637 -0.3200049472
20950174300.0 -0.9539437183 -0.3081928164
21000174000.0 -0.9583738931 -0.2951523279
21050173700.0 -0.9610371722 -0.2842173092
21100173400.0 -0.9650230238 -0.2707528319
21150173100.0 -0.9684654098 -0.2581637108
21200172800.0 -0.9724526794 -0.2439511239
21250172500.0 -0.975417072 -0.2304014923
21300172200.0 -0.9786965057 -0.2169656426
21350171900.0 -0.9810193053 -0.2023147888
21400171600.0 -0.9837920961 -0.1878245014
21450171300.0 -0.98498985 -0.1741004924
21500171000.0 -0.9871098076 -0.1590205085
21550170700.0 -0.9876181334 -0.1436423077
21600170400.0 -0.9889227918 -0.1293175893
21650170100.0 -0.9900552488 -0.1134876856
21700169800.0 -0.9904540492 -0.0993071629
21750169500.0 -0.9916243301 -0.0832059845
21800169200.0 -0.9909386744 -0.0677335839
21850168900.0 -0.9909537542 -0.0522682737
21900168600.0 -0.9904810492 -0.0370901254
21950168300.0 -0.990601781 -0.0209394506
22000168000.0 -0.9896037575 -0.0066253491
22050167700.0 -0.9893650174 0.0079391769
22100167400.0 -0.9895033274 0.0229838782
22150167100.0 -0.9892235216 0.0376419453
22200166800.0 -0.989429881 0.0532340848
22250166500.0 -0.9884030767 0.069010937
22300166200.0 -0.9874293173 0.0845059677
22350165900.0 -0.986221257 0.1001701863
22400165600.0 -0.9849798925 0.1152532762
22450165300.0 -0.9828479653 0.1291180927
22500165000.0 -0.9804456692 0.1431335134
22550164700.0 -0.9797464194 0.1574719833
22600164400.0 -0.9780363483 0.172162147
22650164100.0 -0.9751923586 0.1855722495
22700163800.0 -0.9728942437 0.2002405196
22750163500.0 -0.9709557603 0.2149864443
22800163200.0 -0.9678739273 0.2281878542
22850162900.0 -0.9646523149 0.2413123366
22900162600.0 -0.9623737353 0.2541962048
22950162300.0 -0.9601147535 0.2679243454
23000162000.0 -0.9578039759 0.2803850849
23050161700.0 -0.954529144 0.29342947
23100161400.0 -0.9519751277 0.3065033148
23150161100.0 -0.9487266684 0.3187312119
23200160800.0 -0.9451630667 0.3325342254
23250160500.0 -0.941300832 0.3440168582
23300160200.0 -0.9387080871 0.3565830335
23350159900.0 -0.9342624891 0.3694994023
23400159600.0 -0.9297260344 0.3819376535
23450159300.0 -0.9252177752 0.3954035295
23500159000.0 -0.9205352932 0.4076740279
23550158700.0 -0.9153038807 0.4204588479
23600158400.0 -0.9099745145 0.4330276959
23650158100.0 -0.9042575707 0.4459051042
23700157800.0 -0.8974041101 0.4590926356
23750157500.0 -0.8900520569 0.4723026832
23800157200.0 -0.8828299632 0.4851192963
23850156900.0 -0.8750291402 0.4972844801
23900156600.0 -0.8663808558 0.5099069211
23950156300.0 -0.8583840193 0.5226725222
24000156000.0 -0.8503082441 0.533574307
24050155700.0 -0.8421501741 0.5462838171
24100155400.0 -0.8331017067 0.5583448728
24150155100.0 -0.8239911018 0.5701247805
24200154800.0 -0.814760777 0.5808761044
24250154500.0 -0.8054342864 0.5925555143
24300154200.0 -0.7958137858 0.6041048814
24350153900.0 -0.7856544432 0.6150959925
24400153600.0 -0.7748039481 0.6260849562
24450153300.0 -0.7644626582 0.636756132
24500153000.0 -0.754475029 0.6467990914
24550152700.0 -0.7442547564 0.6576621378
24600152400.0 -0.7338147346 0.6681904819
