!Created with skrf (http://scikit-rf.org).
# Hz S RI R 50.0 
!freq ReS11 ImS11
300000.0 -0.9754593946 -0.1215437686
50299700.0 -1.000009794 0.0151252445
100299400.0 -0.9980449943 0.0282272403
150299100.0 -1.002779498 0.0450347513
200298800.0 -0.9996921777 0.0584241224
250298500.0 -0.9975747497 0.0719577194
300298200.0 -0.9860732887 0.0875736515
350297900.0 -0.9940080853 0.098424042
400297600.0 -0.9931984627 0.1152266273
450297300.0 -0.9911149132 0.1290312307
500297000.0 -0.9897573119 0.1437188349
550296700.0 -0.9843749797 0.1561572846
600296400.0 -1.017352404 0.1895941685
650296100.0 -0.9822231012 0.1859154351
700295800.0 -0.9792631108 0.2004022669
750295500.0 -0.976429418 0.2140382104
800295200.0 -0.9729830419 0.2284440551
850294900.0 -0.9697066815 0.2422691298
900294600.0 -0.9658296151 0.255984859
950294300.0 -0.9622281742 0.2696598984
1000294000.0 -0.958110371 0.2837274889
1050293700.0 -0.9536168783 0.2974205021
1100293400.0 -0.9492707507 0.3117858611
1150293100.0 -0.9455075413 0.3234233309
1200292800.0 -0.9400568982 0.3381151759
1250292500.0 -0.9347123857 0.3514745822
1300292200.0 -0.9289446753 0.3647028667
1350291900.0 -0.9233821251 0.3786696146
1400291600.0 -0.9180248579 0.3918483943
1450291300.0 -0.9127434415 0.404242905
1500291000.0 -0.9061835969 0.417643137
1550290700.0 -0.8996139835 0.4310430476
1600290400.0 -0.8933195475 0.4438606408
1650290100.0 -0.8868116192 0.4559301191
1700289800.0 -0.8798416711 0.4694038253
1750289500.0 -0.872715031 0.4816704313
1800289200.0 -0.865590232 0.4946953087
1850288900.0 -0.8589482789 0.5061186427
1900288600.0 -0.8509792869 0.5191080784
1950288300.0 -0.8429277601 0.5314833195
2000288000.0 -0.8355739499 0.5429252748
2050287700.0 -0.8273558138 0.5553657453
2100287400.0 -0.8192672369 0.5669799724
2150287100.0 -0.8106605868 0.5789637168
2200286800.0 -0.8030098245 0.5892162467
2250286500.0 -0.7942312959 0.6015506527
2300286200.0 -0.7853352738 0.6127759648
2350285900.0 -0.7767711611 0.6239312218
2400285600.0 -0.7676962769 0.6349515877
2450285300.0 -0.7590551824 0.6453321162
2500285000.0 -0.7495246221 0.6567020986
2550284700.0 -0.7404067136 0.6667518535
2600284400.0 -0.7310539144 0.6771588596
2650284100.0 -0.7220485431 0.6877133408
2700283800.0 -0.7116505408 0.698167652
2750283500.0 -0.7011484613 0.7087214124
2800283200.0 -0.6914387287 0.7184267021
2850282900.0 -0.6810351723 0.7284187762
2900282600.0 -0.6709932354 0.7378564038
2950282300.0 -0.6605409469 0.747243108
3000282000.0 -0.6499371376 0.7568007183
3050281700.0 -0.6388681724 0.7659497999
3100281400.0 -0.6267129007 0.775259924
3150281100.0 -0.6151732998 0.7846230593
3200280800.0 -0.6034302521 0.7931170836
3250280500.0 -0.5924875989 0.8009956427
3300280200.0 -0.5812236543 0.8088226685
3350279900.0 -0.5697769997 0.8162879558
3400279600.0 -0.5576915756 0.8240156216
3450279300.0 -0.5464853266 0.8311506055
3500279000.0 -0.5341959892 0.838150298
3550278700.0 -0.5219206287 0.8457542202
3600278400.0 -0.5099292612 0.8525809347
3650278100.0 -0.4964358037 0.8600308011
3700277800.0 -0.4843558221 0.8667023334
3750277500.0 -0.4722887644 0.8733480269
3800277200.0 -0.4597884319 0.8797606165
3850276900.0 -0.4477994165 0.885828155
3900276600.0 -0.4371166926 0.8912411057
3950276300.0 -0.4245593232 0.8972651708
4000276000.0 -0.4124593922 0.9033897783
4050275700.0 -0.3997411186 0.9097351964
4100275400.0 -0.3886863667 0.914984729
4150275100.0 -0.375915705 0.9205740169
4200274800.0 -0.3627134187 0.9261220165
4250274500.0 -0.3506555811 0.9312441189
4300274200.0 -0.3377408684 0.9365317545
4350273900.0 -0.3239859512 0.9418995873
4400273600.0 -0.3089691767 0.9470928375
4450273300.0 -0.2936631638 0.9521695777
4500273000.0 -0.2803149275 0.9565645729
4550272700.0 -0.2659213401 0.9610201845
4600272400.0 -0.2505878817 0.9652278566
4650272100.0 -0.2388451324 0.9683149563
4700271800.0 -0.2256610921 0.9715650446
4750271500.0 -0.2137171292 0.9743938514
4800271200.0 -0.2013620421 0.9770590272
4850270900.0 -0.1872872995 0.9798388585
4900270600.0 -0.1733865736 0.9823844456
4950270300.0 -0.1590740952 0.9850116606
5000270000.0 -0.1450647565 0.9870519669
5050269700.0 -0.1315276849 0.9887938893
5100269400.0 -0.1177436305 0.9901683703
5150269100.0 -0.1043288708 0.9919374725
5200268800.0 -0.0911952438 0.9934643971
5250268500.0 -0.0781837085 0.9937744349
5300268200.0 -0.0648204603 0.9948381324
5350267900.0 -0.0525471177 0.9948695036
5400267600.0 -0.036424327 0.9964877789
5450267300.0 -0.0232942937 0.9966412359
5500267000.0 -0.0082371817 0.9969972009
5550266700.0 0.0067725499 0.9972862941
5600266400.0 0.0223421372 0.9972996088
5650266100.0 0.0385300236 0.9970874082
5700265800.0 0.0531170324 0.9959333676
5750265500.0 0.0682673108 0.9952958723
5800265200.0 0.0824214405 0.9943843779
5850264900.0 0.0956459269 0.9936300363
5900264600.0 0.1121288974 0.9917340605
5950264300.0 0.1241411679 0.9903725929
6000264000.0 0.1383431258 0.9884384196
6050263700.0 0.1504935088 0.9867553999
6100263400.0 0.1632228801 0.985354521
6150263100.0 0.1775756205 0.9829973682
6200262800.0 0.1881020384 0.980944674
6250262500.0 0.2005162766 0.978505747
6300262200.0 0.2132716142 0.9757454958
6350261900.0 0.2263810653 0.9728110092
6400261600.0 0.2401321984 0.969501926
6450261300.0 0.251401098 0.9668674929
6500261000.0 0.2644721824 0.9635054064
6550260700.0 0.277188345 0.9594417171
6600260400.0 0.2906217317 0.9553054674
6650260100.0 0.3047507838 0.951078354
6700259800.0 0.3167729428 0.946461142
6750259500.0 0.3305198939 0.9419654215
6800259200.0 0.343636221 0.9369196147
6850258900.0 0.355799487 0.9317296744
6900258600.0 0.3679798415 0.926668776
6950258300.0 0.3803872152 0.9211857124
7000258000.0 0.3925088406 0.9158587434
7050257700.0 0.4047681503 0.9097265009
7100257400.0 0.4174058903 0.9035705938
7150257100.0 0.4277805365 0.8984089684
7200256800.0 0.4407286269 0.8918181757
7250256500.0 0.4526587807 0.8857019585
7300256200.0 0.465674091 0.8788211544
7350255900.0 0.4785031181 0.8718439562
7400255600.0 0.4914160335 0.8647524424
7450255300.0 0.5063608672 0.8556105405
7500255000.0 0.518502148 0.8485946955
7550254700.0 0.532462273 0.8403844705
7600254400.0 0.5450966812 0.8320354344
7650254100.0 0.5567091509 0.8240436873
7700253800.0 0.5681760968 0.8161717021
7750253500.0 0.5797449709 0.808353648
7800253200.0 0.5899919815 0.8006768515
7850252900.0 0.5998141834 0.7936339246
7900252600.0 0.6115072877 0.7850781402
7950252300.0 0.6203543701 0.7783449677
8000252000.0 0.6303417936 0.7707094833
8050251700.0 0.6410566247 0.7625323771
8100251400.0 0.6510419742 0.7544176676
8150251100.0 0.6612965115 0.7457547975
8200250800.0 0.6705431855 0.737797023
8250250500.0 0.6797895347 0.7298972803
8300250200.0 0.6888903218 0.7213382397
8350249900.0 0.6979825769 0.7126756309
8400249600.0 0.7060705679 0.7045046727
8450249300.0 0.7151452949 0.6953513465
8500249000.0 0.7238046605 0.6862913492
8550248700.0 0.7320520286 0.6775054558
8600248400.0 0.7405414378 0.6678756927
8650248100.0 0.7482467923 0.6584795001
8700247800.0 0.757808737 0.6472469513
8750247500.0 0.7661516377 0.6371919747
8800247200.0 0.7742560789 0.6268065302
8850246900.0 0.7829678242 0.6153906053
8900246600.0 0.7917600702 0.6039455231
8950246300.0 0.8009312623 0.5909864032
9000246000.0 0.8102337162 0.578430054
9050245700.0 0.8194139321 0.5654353895
9100245400.0 0.8279733743 0.5530283282
9150245100.0 0.837171019 0.5394394139
9200244800.0 0.8467105238 0.5242750258
9250244500.0 0.8562803698 0.5088890888
9300244200.0 0.8646854492 0.4943178619
9350243900.0 0.8725935113 0.4804729434
9400243600.0 0.8794132307 0.4680487356
9450243300.0 0.8852376987 0.4566391122
9500243000.0 0.8916163381 0.4443802204
9550242700.0 0.8952765422 0.4367827152
9600242400.0 0.8992278358 0.4295115031
9650242100.0 0.9029264308 0.4226870687
9700241800.0 0.9074857358 0.414747132
9750241500.0 0.911495706 0.4071133108
9800241200.0 0.9165106451 0.397661252
9850240900.0 0.9216970901 0.386061162
9900240600.0 0.9276643951 0.3747711102
9950240300.0 0.9339138781 0.358610394
10000240000.0 0.9386810551 0.3473614753
10050239700.0 0.9445689289 0.331859273
10100239400.0 0.9495230323 0.3162083492
10150239100.0 0.9538984965 0.3014069752
10200238800.0 0.9580888293 0.2865897484
10250238500.0 0.9612517257 0.2729837249
10300238200.0 0.964605312 0.2593039419
10350237900.0 0.9671907849 0.2461246278
10400237600.0 0.9697114671 0.2331168098
10450237300.0 0.9725634647 0.2191266599
10500237000.0 0.9745538425 0.2070031624
10550236700.0 0.9765433969 0.1936020755
10600236400.0 0.9790188463 0.1792754367
10650236100.0 0.9811889841 0.1638549935
10700235800.0 0.9832205628 0.1524976818
10750235500.0 0.9854154748 0.1387935148
10800235200.0 0.987719117 0.1243471455
10850234900.0 0.9896757847 0.1099883617
10900234600.0 0.9917888481 0.0953118519
10950234300.0 0.9933705002 0.0821403662
11000234000.0 0.9951471261 0.0669998129
11050233700.0 0.9969805346 0.0507683995
11100233400.0 0.9983144844 0.0333376497
11150233100.0 0.9994862698 0.0173760737
11200232800.0 1.000260706 0.0019183679
11250232500.0 1.001120433 -0.0140812898
11300232200.0 1.001687917 -0.0323558889
11350231900.0 1.001946702 -0.0478438756
11400231600.0 1.001576475 -0.0640076057
11450231300.0 1.000773576 -0.077975275
11500231000.0 1.000416253 -0.0955819484
11550230700.0 0.9984668863 -0.1084093475
11600230400.0 0.9974898659 -0.1209814445
11650230100.0 0.9947320763 -0.1320297436
11700229800.0 0.9934395548 -0.1472279406
11750229500.0 0.9907544054 -0.1612034297
11800229200.0 0.9882274939 -0.1750636839
11850228900.0 0.9847971091 -0.1875071218
11900228600.0 0.9813974155 -0.1974098459
11950228300.0 0.9781840311 -0.2077862564
12000228000.0 0.9751734927 -0.217093262
12050227700.0 0.9717154517 -0.2301679046
12100227400.0 0.9689800681 -0.2393443564
12150227100.0 0.9634943395 -0.2574256347
12200226800.0 0.9597647075 -0.2684172752
12250226500.0 0.9558645495 -0.2819850305
12300226200.0 0.951272022 -0.2930493233
12350225900.0 0.9466674606 -0.3069226632
12400225600.0 0.9423787282 -0.3205958628
12450225300.0 0.9379666553 -0.3331855594
12500225000.0 0.932494297 -0.3482742174
12550224700.0 0.9272341606 -0.3621480717
12600224400.0 0.9221916872 -0.3747840555
12650224100.0 0.9163709982 -0.3891878175
12700223800.0 0.9110356139 -0.4020236401
12750223500.0 0.9057637106 -0.414691765
12800223200.0 0.9005929011 -0.4274086131
12850222900.0 0.895193045 -0.4392936694
12900222600.0 0.8891599117 -0.4517745008
12950222300.0 0.8829151153 -0.4644611035
13000222000.0 0.8769260858 -0.4757202504
13050221700.0 0.8702628301 -0.4887810576
13100221400.0 0.8635696024 -0.5007427075
13150221100.0 0.8567161117 -0.5127912699
13200220800.0 0.8499192737 -0.524495181
13250220500.0 0.842557426 -0.5363319624
13300220200.0 0.8352402976 -0.5474922581
13350219900.0 0.8271507253 -0.5592949629
13400219600.0 0.8189052274 -0.5713213788
13450219300.0 0.8098152592 -0.5849030334
13500219000.0 0.7995749609 -0.5987549521
13550218700.0 0.7893140199 -0.6114683643
13600218400.0 0.7790436233 -0.6236318048
13650218100.0 0.7695610972 -0.6343122719
13700217800.0 0.7591527339 -0.6471668725
13750217500.0 0.7487499606 -0.6578668577
13800217200.0 0.7374938396 -0.6697473656
13850216900.0 0.7260915567 -0.6805841744
13900216600.0 0.7170650847 -0.6901711397
13950216300.0 0.7055414656 -0.7002100644
14000216000.0 0.6962918501 -0.7099417634
14050215700.0 0.6862751141 -0.7185873599
14100215400.0 0.6766660613 -0.7273009844
14150215100.0 0.6672054368 -0.7358971204
14200214800.0 0.6579141491 -0.7445611441
14250214500.0 0.6474751821 -0.7540067622
14300214200.0 0.6370443384 -0.763352799
14350213900.0 0.625854603 -0.7729373182
14400213600.0 0.6137812244 -0.7829966761
14450213300.0 0.6013335421 -0.7929159204
14500213000.0 0.5878969287 -0.8028961701
14550212700.0 0.5754789389 -0.8124826582
14600212400.0 0.5630231459 -0.821326639
14650212100.0 0.5500867447 -0.8302457063
14700211800.0 0.536077575 -0.8394309417
14750211500.0 0.5239922754 -0.8477239973
14800211200.0 0.5116746699 -0.8557051901
14850210900.0 0.4994754231 -0.8629792014
14900210600.0 0.4866716204 -0.8710008561
14950210300.0 0.4730491388 -0.8785671459
15000210000.0 0.4602863206 -0.8852109441
15050209700.0 0.4479520345 -0.8918127584
15100209400.0 0.4353658932 -0.8979211874
15150209100.0 0.4230488388 -0.9031061537
15200208800.0 0.4102625681 -0.9082098705
15250208500.0 0.399314685 -0.9130688096
15300208200.0 0.3874505281 -0.9175104443
15350207900.0 0.3741777487 -0.922102837
15400207600.0 0.3587897993 -0.9284321885
15450207300.0 0.3442166424 -0.9325167163
15500207000.0 0.3297080204 -0.9375508356
15550206700.0 0.3151385228 -0.9423910177
15600206400.0 0.2996284036 -0.9470323315
15650206100.0 0.2835264986 -0.9511220768
15700205800.0 0.2696669251 -0.9551315142
15750205500.0 0.2548278576 -0.9585531023
15800205200.0 0.2406342499 -0.9619302598
15850204900.0 0.2262925578 -0.9654171931
15900204600.0 0.2112967841 -0.9689468373
15950204300.0 0.1969625806 -0.9720453124
16000204000.0 0.1826642102 -0.9746366894
16050203700.0 0.1681638699 -0.9779114079
16100203400.0 0.1536661318 -0.9800541302
16150203100.0 0.1389092117 -0.9825988573
16200202800.0 0.1247845673 -0.9842889158
16250202500.0 0.1103494548 -0.9861159658
16300202200.0 0.0943957705 -0.9873429954
16350201900.0 0.0797567219 -0.9893488198
16400201600.0 0.0647603604 -0.9901769563
16450201300.0 0.0497715901 -0.9912594274
16500201000.0 0.0330463225 -0.9920234013
16550200700.0 0.0176047765 -0.9926253013
16600200400.0 0.0019214065 -0.9927585558
16650200100.0 -0.014252393 -0.9926312588
16700199800.0 -0.0301920278 -0.9923038735
16750199500.0 -0.0493003491 -0.9915669684
16800199200.0 -0.0645098173 -0.9912293563
16850198900.0 -0.079447522 -0.9891663142
16900198600.0 -0.0938329542 -0.9887302903
16950198300.0 -0.1071290237 -0.9871799686
17000198000.0 -0.1203802282 -0.9865913387
17050197700.0 -0.132922268 -0.9843187923
17100197400.0 -0.1456826773 -0.982390839
17150197100.0 -0.1587350848 -0.9803071915
17200196800.0 -0.1710659811 -0.9785140269
17250196500.0 -0.1840547224 -0.9756621666
17300196200.0 -0.1962973842 -0.9737214368
17350195900.0 -0.2081194756 -0.9712649217
17400195600.0 -0.220253584 -0.9688633544
17450195300.0 -0.2336098466 -0.9659612205
17500195000.0 -0.2470643217 -0.962447721
17550194700.0 -0.2609892154 -0.959347347
17600194400.0 -0.2750220786 -0.9550684505
17650194100.0 -0.2884190758 -0.9510242148
17700193800.0 -0.301964402 -0.9467485
17750193500.0 -0.315930462 -0.9427636993
17800193200.0 -0.3306179643 -0.9374464697
17850192900.0 -0.3453028215 -0.9319062513
17900192600.0 -0.360702562 -0.9253513535
17950192300.0 -0.3762602075 -0.9186456271
18000192000.0 -0.3910033366 -0.911453402
18050191700.0 -0.4049545104 -0.9035893808
18100191400.0 -0.4192326669 -0.8958958501
18150191100.0 -0.4340578446 -0.8878070856
18200190800.0 -0.4510420953 -0.8788114017
18250190500.0 -0.467890848 -0.8695655579
18300190200.0 -0.4833316233 -0.8605413971
18350189900.0 -0.4983890454 -0.8525854487
18400189600.0 -0.5131311987 -0.8438083077
18450189300.0 -0.5267233629 -0.8364501758
18500189000.0 -0.5396103961 -0.8279236577
18550188700.0 -0.5518572192 -0.8203851979
18600188400.0 -0.564248263 -0.8138480426
18650188100.0 -0.575146497 -0.8074150154
18700187800.0 -0.5858564958 -0.8009100814
18750187500.0 -0.5962289345 -0.7942929515
18800187200.0 -0.6070560213 -0.7873256331
18850186900.0 -0.6170544896 -0.7804903014
18900186600.0 -0.6273234574 -0.7731928156
18950186300.0 -0.6370817874 -0.7654011561
19000186000.0 -0.6446099076 -0.7593089969
19050185700.0 -0.6537655009 -0.7524905594
19100185400.0 -0.6634963464 -0.7442510256
19150185100.0 -0.6739985014 -0.7352615247
19200184800.0 -0.6828327397 -0.7276189953
19250184500.0 -0.6931206967 -0.7177391462
19300184200.0 -0.7049735177 -0.7085538233
19350183900.0 -0.7157565061 -0.6992654576
19400183600.0 -0.7258402444 -0.6886492613
19450183300.0 -0.7343778736 -0.6785334732
19500183000.0 -0.741797653 -0.6684706568
19550182700.0 -0.7517952269 -0.6581318153
19600182400.0 -0.7622840849 -0.6457067826
19650182100.0 -0.7734100314 -0.6336291165
19700181800.0 -0.7839830003 -0.6202088649
19750181500.0 -0.7945711815 -0.6062088547
19800181200.0 -0.8051164298 -0.5912336862
19850180900.0 -0.8149596821 -0.5759114186
19900180600.0 -0.8227735074 -0.5613662981
19950180300.0 -0.831990782 -0.5450525434
20000180000.0 -0.8249422805 -0.5471528343
20050179700.0 -0.8327170946 -0.5351577198
20100179400.0 -0.8422944075 -0.5205701489
20150179100.0 -0.8507230211 -0.5083271921
20200178800.0 -0.8594799082 -0.4956168066
20250178500.0 -0.8691524869 -0.4818980035
20300178200.0 -0.8782094525 -0.4672331881
20350177900.0 -0.8874487959 -0.4526184203
20400177600.0 -0.8962731657 -0.4385848549
20450177300.0 -0.9044125852 -0.4242260372
20500177000.0 -0.9125836581 -0.4103180348
20550176700.0 -0.9203914063 -0.3970142975
20600176400.0 -0.9274591127 -0.3836744017
20650176100.0 -0.9334632998 -0.3712931071
20700175800.0 -0.9413825623 -0.3591988199
20750175500.0 -0.9478839291 -0.3480608459
20800175200.0 -0.951915187 -0.337808437
20850174900.0 -0.9565701251 -0.3256646842
20900174600.0 -0.961253564 -0.3149782762
20950174300.0 -0.9648702603 -0.303106827
21000174000.0 -0.9687405329 -0.2917389891
21050173700.0 -0.9714298719 -0.2813092366
21100173400.0 -0.9753796 -0.2693546868
21150173100.0 -0.9795455638 -0.2574838623
21200172800.0 -0.9825403605 -0.2438148477
21250172500.0 -0.9855324443 -0.2298933547
21300172200.0 -0.9886904461 -0.2157110877
21350171900.0 -0.9900474244 -0.2015245347
21400171600.0 -0.99134879 -0.1870937355
21450171300.0 -0.9925271274 -0.1723284657
21500171000.0 -0.9925649722 -0.1569623251
21550170700.0 -0.9918921805 -0.1423037368
21600170400.0 -0.9917908544 -0.1269845392
21650170100.0 -0.9915514237 -0.1100269278
21700169800.0 -0.9894594764 -0.0953176126
21750169500.0 -0.9890959888 -0.0791884199
21800169200.0 -0.9882073084 -0.0629526805
21850168900.0 -0.9876023191 -0.0466775442
21900168600.0 -0.9853360714 -0.030211361
21950168300.0 -0.9843867586 -0.0133334084
22000168000.0 -0.9842400621 0.00132391
22050167700.0 -0.9837591275 0.0153801561
22100167400.0 -0.9841081887 0.0306789034
22150167100.0 -0.9846253543 0.0461854358
22200166800.0 -0.984911215 0.0623291692
22250166500.0 -0.9848497277 0.0796378235
22300166200.0 -0.9841245573 0.0963104896
22350165900.0 -0.9828116235 0.1136027275
22400165600.0 -0.9808990557 0.1283597627
22450165300.0 -0.9796501809 0.1436015464
22500165000.0 -0.977164506 0.1567225448
22550164700.0 -0.9759562174 0.1720216494
22600164400.0 -0.9745825548 0.1872190517
22650164100.0 -0.9720441534 0.2030874299
22700163800.0 -0.9695225082 0.2189197626
22750163500.0 -0.9668917542 0.2341275384
22800163200.0 -0.9639839826 0.2470166294
22850162900.0 -0.9614069442 0.2604391173
22900162600.0 -0.9602611124 0.2736965795
22950162300.0 -0.959003023 0.2865763437
23000162000.0 -0.9578973803 0.2984478953
23050161700.0 -0.9556148535 0.3110907533
23100161400.0 -0.9531581977 0.3240323537
23150161100.0 -0.9497904403 0.3364291427
23200160800.0 -0.9475897499 0.3486066859
23250160500.0 -0.9456510493 0.3599144319
23300160200.0 -0.9424108548 0.3724365563
23350159900.0 -0.9385618467 0.3858128484
23400159600.0 -0.9338175122 0.3987804656
23450159300.0 -0.9294139504 0.412350077
23500159000.0 -0.9249229989 0.4255099407
23550158700.0 -0.9200003436 0.4389202233
23600158400.0 -0.9150350101 0.4521953492
23650158100.0 -0.9086527586 0.4662034448
23700157800.0 -0.901137013 0.4798534705
23750157500.0 -0.8925055264 0.4942338157
23800157200.0 -0.8835989761 0.5075888108
23850156900.0 -0.8747186002 0.519790487
23900156600.0 -0.8658286084 0.532532145
23950156300.0 -0.856264577 0.5457614538
24000156000.0 -0.8480073285 0.5571811107
24050155700.0 -0.8374768011 0.5682062213
24100155400.0 -0.8274199017 0.5820437497
24150155100.0 -0.8172614017 0.5934224815
24200154800.0 -0.8061651267 0.6036215707
24250154500.0 -0.795199713 0.6155950027
24300154200.0 -0.7839575478 0.6274365183
24350153900.0 -0.7718048218 0.6380268915
24400153600.0 -0.7592474753 0.648264275
24450153300.0 -0.7480439581 0.6580939606
24500153000.0 -0.7364504891 0.6674156182
24550152700.0 -0.7244968897 0.6773314652
24600152400.0 -0.7140620991 0.6862985889
24650152100.0 -0.701288255 0.6948602244
