!Created with skrf (http://scikit-rf.org).
# Hz S RI R 50.0 
!freq ReS11 ImS11
300000.0 -0.9771962287 -0.1155291683
50299700.0 -1.000154608 0.0155504389
100299400.0 -0.9980192712 0.0284017336
150299100.0 -1.002819307 0.0453024079
200298800.0 -0.9996150695 0.0586835375
250298500.0 -0.9974414908 0.0722712018
300298200.0 -0.9861589637 0.0881655924
350297900.0 -0.9939273402 0.0988482727
400297600.0 -0.9931757415 0.1155775967
450297300.0 -0.9910900481 0.1294209782
500297000.0 -0.9894147485 0.1440251385
550296700.0 -0.9845539553 0.1564048064
600296400.0 -1.017338142 0.1897434963
650296100.0 -0.9822524134 0.1864826393
700295800.0 -0.9793818341 0.2006993434
750295500.0 -0.9763641888 0.2147123627
800295200.0 -0.9728862025 0.2288240316
850294900.0 -0.9695950617 0.2425674659
900294600.0 -0.965995428 0.2563592384
950294300.0 -0.9620580698 0.2699980838
1000294000.0 -0.9581477561 0.2841689397
1050293700.0 -0.9536905377 0.2977442888
1100293400.0 -0.9493170742 0.3122527653
1150293100.0 -0.9455003326 0.324140408
1200292800.0 -0.9401566748 0.3383493538
1250292500.0 -0.9347514891 0.3518551497
1300292200.0 -0.9289320433 0.3652622954
1350291900.0 -0.9234666103 0.3792372613
1400291600.0 -0.9178161533 0.3922948455
1450291300.0 -0.9124924964 0.404513435
1500291000.0 -0.9061133879 0.4180871836
1550290700.0 -0.8996896766 0.4314369891
1600290400.0 -0.893305591 0.4444425421
1650290100.0 -0.8868294386 0.4563301105
1700289800.0 -0.8796979169 0.4698232591
1750289500.0 -0.8726831163 0.4822371785
1800289200.0 -0.8653197221 0.4949808968
1850288900.0 -0.8587971372 0.5063167869
1900288600.0 -0.8509325487 0.519332702
1950288300.0 -0.8428391342 0.5319127609
2000288000.0 -0.8353697928 0.543190347
2050287700.0 -0.8271043457 0.5558731276
2100287400.0 -0.8192527491 0.5673144448
2150287100.0 -0.8107143791 0.5795297365
2200286800.0 -0.8028027447 0.5898170902
2250286500.0 -0.7940026198 0.6016720228
2300286200.0 -0.7849752131 0.6134636359
2350285900.0 -0.7762743788 0.6244629531
2400285600.0 -0.7673921934 0.63536796
2450285300.0 -0.7587118283 0.6458071773
2500285000.0 -0.7489779344 0.6570931314
2550284700.0 -0.7401951113 0.6672464679
2600284400.0 -0.7307225014 0.6771821097
2650284100.0 -0.7217037032 0.6879970489
2700283800.0 -0.711083397 0.6986774078
2750283500.0 -0.7009473684 0.7092410831
2800283200.0 -0.6909153953 0.7188705352
2850282900.0 -0.6810729061 0.7286866028
2900282600.0 -0.6705754084 0.7380767352
2950282300.0 -0.6601622878 0.747512361
3000282000.0 -0.649470749 0.7569533303
3050281700.0 -0.6383430102 0.7662731186
3100281400.0 -0.6264126011 0.7755766233
3150281100.0 -0.6145882065 0.785022336
3200280800.0 -0.6030169859 0.7935225698
3250280500.0 -0.5922433641 0.8011475236
3300280200.0 -0.5809938407 0.8090046798
3350279900.0 -0.5692815372 0.8164762051
3400279600.0 -0.5573745394 0.8243475801
3450279300.0 -0.5460599359 0.8313565734
3500279000.0 -0.5341431245 0.8383181404
3550278700.0 -0.521526581 0.8457279577
3600278400.0 -0.5093001245 0.8529980192
3650278100.0 -0.4962897439 0.8606132959
3700277800.0 -0.4842875395 0.8669066829
3750277500.0 -0.4719052828 0.87339054
3800277200.0 -0.4594533175 0.8799556793
3850276900.0 -0.4473285299 0.8856643168
3900276600.0 -0.4366303207 0.8914213367
3950276300.0 -0.4242365137 0.8974791665
4000276000.0 -0.4123553373 0.9035870947
4050275700.0 -0.3991604033 0.9097145079
4100275400.0 -0.3879611687 0.9150185592
4150275100.0 -0.3753883176 0.9207852949
4200274800.0 -0.3623091131 0.9262631914
4250274500.0 -0.3501810651 0.9314098886
4300274200.0 -0.3371863826 0.936710498
4350273900.0 -0.3234839783 0.9421684058
4400273600.0 -0.3085732396 0.94740563
4450273300.0 -0.2931645398 0.9525148019
4500273000.0 -0.2794617072 0.9566321151
4550272700.0 -0.265186926 0.9609850797
4600272400.0 -0.2497901707 0.9651507857
4650272100.0 -0.238119142 0.9684605901
4700271800.0 -0.2247474058 0.9718070489
4750271500.0 -0.2132392162 0.9747797651
4800271200.0 -0.2006309866 0.977295845
4850270900.0 -0.1866905726 0.980170559
4900270600.0 -0.1729365237 0.9824172117
4950270300.0 -0.1585231474 0.9849879455
5000270000.0 -0.1442126037 0.987335206
5050269700.0 -0.1308074261 0.9885619316
5100269400.0 -0.1173746552 0.9905220868
5150269100.0 -0.1039631485 0.9918995854
5200268800.0 -0.0905217538 0.9926684867
5250268500.0 -0.0775887557 0.9942136402
5300268200.0 -0.064467136 0.9946128309
5350267900.0 -0.052260047 0.995313499
5400267600.0 -0.0361249363 0.9963909014
5450267300.0 -0.0229232116 0.9965325869
5500267000.0 -0.0077891133 0.9971089109
5550266700.0 0.0074129807 0.9973735122
5600266400.0 0.0229632976 0.997498165
5650266100.0 0.039359176 0.9967378906
5700265800.0 0.0535504633 0.9963644308
5750265500.0 0.0688585834 0.9956059668
5800265200.0 0.0829340681 0.9942364646
5850264900.0 0.0961153346 0.9931797576
5900264600.0 0.1131248945 0.9920630329
5950264300.0 0.1253078741 0.9901318535
6000264000.0 0.1390552637 0.9883489671
6050263700.0 0.1510470887 0.9866052415
6100263400.0 0.1638717018 0.9849899919
6150263100.0 0.1784144313 0.9826290177
6200262800.0 0.1888118037 0.9807443051
6250262500.0 0.2013306497 0.9784568169
6300262200.0 0.214262356 0.9755531849
6350261900.0 0.2274264526 0.9726728033
6400261600.0 0.2410474378 0.9693071497
6450261300.0 0.2527421584 0.9667441521
6500261000.0 0.2653723503 0.9631597241
6550260700.0 0.2784981734 0.9593543928
6600260400.0 0.2915751701 0.955227396
6650260100.0 0.3057397743 0.9508664944
6700259800.0 0.3173613341 0.9462876244
6750259500.0 0.3312107357 0.9413446824
6800259200.0 0.3444260221 0.9364290069
6850258900.0 0.3562204899 0.931343003
6900258600.0 0.3685696455 0.9264404
6950258300.0 0.3811433999 0.921231055
7000258000.0 0.3932390596 0.9158348024
7050257700.0 0.4054629182 0.9095036884
7100257400.0 0.4179991633 0.9032715697
7150257100.0 0.4284784264 0.8981578358
7200256800.0 0.4414037219 0.8917576438
7250256500.0 0.4531020954 0.885358841
7300256200.0 0.4658901015 0.878667602
7350255900.0 0.4783569663 0.8716524049
7400255600.0 0.49207363 0.8645847952
7450255300.0 0.5076888734 0.8559243022
7500255000.0 0.5187308544 0.8485228601
7550254700.0 0.5327793331 0.8399307835
7600254400.0 0.545448005 0.8318596626
7650254100.0 0.5570336242 0.8238890118
7700253800.0 0.5686633083 0.8156241206
7750253500.0 0.5799504938 0.8081735799
7800253200.0 0.5906075435 0.8004996088
7850252900.0 0.6002980801 0.7934036648
7900252600.0 0.6120588793 0.7848679935
7950252300.0 0.6205816079 0.7782160738
8000252000.0 0.6307200113 0.7705049541
8050251700.0 0.6411075124 0.7622779503
8100251400.0 0.6514772281 0.7540722724
8150251100.0 0.6615905595 0.7453583567
8200250800.0 0.6710446702 0.7374200354
8250250500.0 0.6800458249 0.7296558868
8300250200.0 0.6893028522 0.721020142
8350249900.0 0.698241962 0.7121397667
8400249600.0 0.70647539 0.7040690098
8450249300.0 0.7157299374 0.6950203487
8500249000.0 0.7243100685 0.6859958064
8550248700.0 0.7325778258 0.6771032455
8600248400.0 0.7410666229 0.6676032099
8650248100.0 0.7486488654 0.6581433883
8700247800.0 0.7581581751 0.6467308856
8750247500.0 0.7665790239 0.6367542442
8800247200.0 0.7747060538 0.6264952676
8850246900.0 0.7836147035 0.6148601972
8900246600.0 0.7919762821 0.6036359777
8950246300.0 0.8015876077 0.5906657934
9000246000.0 0.8109640192 0.577726871
9050245700.0 0.8198594471 0.5649100743
9100245400.0 0.8286498199 0.5521743994
9150245100.0 0.8377630346 0.538475345
9200244800.0 0.8479509921 0.5232424318
9250244500.0 0.8572172651 0.5076960379
9300244200.0 0.8656302356 0.4930619399
9350243900.0 0.8734455992 0.4791957989
9400243600.0 0.8800810271 0.4667708947
9450243300.0 0.8860460711 0.4551578042
9500243000.0 0.8922294684 0.4429929796
9550242700.0 0.8961093704 0.4352511213
9600242400.0 0.8998906606 0.4281137985
9650242100.0 0.9034575203 0.4215280117
9700241800.0 0.9080612346 0.4133495671
9750241500.0 0.9120128264 0.4060022537
9800241200.0 0.9166256663 0.3970586936
9850240900.0 0.9223620181 0.3850906104
9900240600.0 0.9280474329 0.3735369902
9950240300.0 0.9348435474 0.357348074
10000240000.0 0.9388547991 0.3457348273
10050239700.0 0.9444981141 0.33099824
10100239400.0 0.9498328819 0.3150672859
10150239100.0 0.9540108523 0.3003131173
10200238800.0 0.958289689 0.285435527
10250238500.0 0.9616987434 0.2721109522
10300238200.0 0.9647974128 0.2580777467
10350237900.0 0.9672866716 0.2453553373
10400237600.0 0.9697827137 0.2317672336
10450237300.0 0.9726233144 0.2183254846
10500237000.0 0.9748338436 0.2058339056
10550236700.0 0.9771299801 0.192176842
10600236400.0 0.9795402499 0.1782103172
10650236100.0 0.9811834363 0.1639772455
10700235800.0 0.983206605 0.1520184754
10750235500.0 0.985925262 0.1381171922
10800235200.0 0.9877731568 0.1242102644
10850234900.0 0.989753163 0.1096342044
10900234600.0 0.9916666322 0.0949651506
10950234300.0 0.9934726374 0.0817581153
11000234000.0 0.9952553663 0.0665757122
11050233700.0 0.9969296899 0.0502333311
11100233400.0 0.9986245507 0.0327366655
11150233100.0 0.9996626054 0.0171519647
11200232800.0 1.000277121 0.0016526952
11250232500.0 1.001269987 -0.0149073458
11300232200.0 1.001757376 -0.0329807688
11350231900.0 1.001530597 -0.0484867919
11400231600.0 1.00107551 -0.0649929565
11450231300.0 1.000949081 -0.0799030403
11500231000.0 1.000320237 -0.095890515
11550230700.0 0.9985668064 -0.1094143466
11600230400.0 0.9972077828 -0.1215429651
11650230100.0 0.9956372142 -0.1333846559
11700229800.0 0.9934230424 -0.1478031266
11750229500.0 0.9907993197 -0.1622900056
11800229200.0 0.9882205706 -0.1757547525
11850228900.0 0.9843975619 -0.1884773748
11900228600.0 0.9809704407 -0.1983527593
11950228300.0 0.9776561759 -0.2087516915
12000228000.0 0.9748245751 -0.2179821406
12050227700.0 0.9715174867 -0.2307329983
12100227400.0 0.9679639042 -0.2415311976
12150227100.0 0.9631226479 -0.2584023996
12200226800.0 0.9594994082 -0.2690573563
12250226500.0 0.9555256486 -0.2820724
12300226200.0 0.9510624569 -0.294007574
12350225900.0 0.9466619954 -0.3083970645
12400225600.0 0.9425712533 -0.3210670247
12450225300.0 0.9378317688 -0.3336084832
12500225000.0 0.9323469381 -0.3479917007
12550224700.0 0.9270679636 -0.3622659768
12600224400.0 0.922130601 -0.3752658982
12650224100.0 0.9162160119 -0.3895248364
12700223800.0 0.9110725818 -0.402322838
12750223500.0 0.9054854364 -0.4152720425
12800223200.0 0.9001035961 -0.4278081482
12850222900.0 0.8950124692 -0.4399657907
12900222600.0 0.8894422629 -0.452098817
12950222300.0 0.8829712523 -0.4645672287
13000222000.0 0.8770217927 -0.4762275044
13050221700.0 0.8701383305 -0.489416185
13100221400.0 0.8635481398 -0.5009474979
13150221100.0 0.8562692247 -0.5133996753
13200220800.0 0.849759444 -0.5247936928
13250220500.0 0.8425022371 -0.53720098
13300220200.0 0.8349836611 -0.5479738901
13350219900.0 0.8269990686 -0.5597355845
13400219600.0 0.818444166 -0.5719003103
13450219300.0 0.8091727098 -0.5853888659
13500219000.0 0.799039487 -0.5992531272
13550218700.0 0.7892745769 -0.612439277
13600218400.0 0.7784433008 -0.624625676
13650218100.0 0.7686442439 -0.6351688106
13700217800.0 0.7572953646 -0.6477303365
13750217500.0 0.7476722813 -0.6592006004
13800217200.0 0.7369386632 -0.6701491881
13850216900.0 0.7256906597 -0.6826986909
13900216600.0 0.7157476847 -0.6917624116
13950216300.0 0.7046025266 -0.7018690408
14000216000.0 0.6950644574 -0.7113596567
14050215700.0 0.6851199765 -0.7191404325
14100215400.0 0.6752108847 -0.7285737804
14150215100.0 0.6661884005 -0.7368682535
14200214800.0 0.6568793279 -0.7455190817
14250214500.0 0.6465715601 -0.7547982726
14300214200.0 0.6362867562 -0.7641649645
14350213900.0 0.624827656 -0.7736309163
14400213600.0 0.6133800641 -0.7836063013
14450213300.0 0.6005110795 -0.7936754271
14500213000.0 0.586965789 -0.804020233
14550212700.0 0.5742270858 -0.8128983457
14600212400.0 0.562310795 -0.8221054044
14650212100.0 0.549271702 -0.8307321462
14700211800.0 0.5350480368 -0.8404075462
14750211500.0 0.5230464653 -0.8484098429
14800211200.0 0.5107042885 -0.8562794393
14850210900.0 0.4986118923 -0.8638540193
14900210600.0 0.4855180288 -0.8717407239
14950210300.0 0.4720337948 -0.8792440091
15000210000.0 0.4592859216 -0.8860636042
15050209700.0 0.4469935382 -0.8921547677
15100209400.0 0.4339699694 -0.8980155657
15150209100.0 0.4215478779 -0.903334488
15200208800.0 0.4081221534 -0.9091854905
15250208500.0 0.3970379191 -0.9133131441
15300208200.0 0.3857174368 -0.9181121017
15350207900.0 0.3717887794 -0.9229901867
15400207600.0 0.3573760872 -0.9284012635
15450207300.0 0.3436954439 -0.9336897074
15500207000.0 0.3288082573 -0.9381767936
15550206700.0 0.3131931433 -0.9429831882
15600206400.0 0.297460537 -0.9475348098
15650206100.0 0.2815535264 -0.95205953
15700205800.0 0.26822761 -0.9552338655
15750205500.0 0.2533482869 -0.9589472203
15800205200.0 0.2389295217 -0.9624914053
15850204900.0 0.2245073081 -0.9657827614
15900204600.0 0.2096672911 -0.969424295
15950204300.0 0.195368207 -0.9725434392
16000204000.0 0.1812503162 -0.9751363591
16050203700.0 0.1661045132 -0.9780796676
16100203400.0 0.1518852374 -0.9803543151
16150203100.0 0.1376663001 -0.9823143479
16200202800.0 0.1232571656 -0.9845201323
16250202500.0 0.1087620249 -0.9863152031
16300202200.0 0.0934141056 -0.9877680041
16350201900.0 0.0780532077 -0.9892031054
16400201600.0 0.0637684613 -0.9903542527
16450201300.0 0.048541467 -0.9911286008
16500201000.0 0.0318848184 -0.9921523417
16550200700.0 0.0162556377 -0.9925472792
16600200400.0 0.0005948465 -0.9927120389
16650200100.0 -0.0153601827 -0.9928107911
16700199800.0 -0.031862217 -0.9926600486
16750199500.0 -0.0512403263 -0.9914979582
16800199200.0 -0.0659494809 -0.9904745794
16850198900.0 -0.0817729103 -0.9896698468
16900198600.0 -0.0955123396 -0.9887225662
16950198300.0 -0.1085833682 -0.9878420679
17000198000.0 -0.1215334253 -0.9855514253
17050197700.0 -0.13429561 -0.9842708722
17100197400.0 -0.1469832213 -0.9822820564
17150197100.0 -0.1594411389 -0.9801361837
17200196800.0 -0.1728911098 -0.9779702902
17250196500.0 -0.1852635874 -0.9756266044
17300196200.0 -0.197626207 -0.9735430884
17350195900.0 -0.2094803079 -0.9710024488
17400195600.0 -0.221791878 -0.9685227076
17450195300.0 -0.2347937066 -0.9658785885
17500195000.0 -0.2482908578 -0.9624722264
17550194700.0 -0.2619761333 -0.9589065219
17600194400.0 -0.2760524681 -0.9549912788
17650194100.0 -0.2897750482 -0.950510484
17700193800.0 -0.3028226617 -0.9468210024
17750193500.0 -0.3171867895 -0.9414047167
17800193200.0 -0.3316789257 -0.9366622987
17850192900.0 -0.3468121205 -0.9314416354
17900192600.0 -0.3618018981 -0.9253837388
17950192300.0 -0.3772758198 -0.9178235037
18000192000.0 -0.3921464031 -0.9108840348
18050191700.0 -0.4058587558 -0.9029725814
18100191400.0 -0.4201706351 -0.8953450981
18150191100.0 -0.4352440218 -0.8873191157
18200190800.0 -0.4522147005 -0.8780216003
18250190500.0 -0.4689969175 -0.8687021949
18300190200.0 -0.4845266812 -0.8595571382
18350189900.0 -0.4994315161 -0.8515345327
18400189600.0 -0.5139889952 -0.8431063932
18450189300.0 -0.5272270972 -0.8352004954
18500189000.0 -0.5407769832 -0.826973545
18550188700.0 -0.5532847651 -0.8195563503
18600188400.0 -0.5650257395 -0.8129225354
18650188100.0 -0.5760091669 -0.8066019452
18700187800.0 -0.5867226593 -0.7999869347
18750187500.0 -0.5974074866 -0.7933903208
18800187200.0 -0.608008289 -0.7864692813
18850186900.0 -0.6180655702 -0.7795761843
18900186600.0 -0.6282876876 -0.7722432823
18950186300.0 -0.6381720989 -0.7646220588
19000186000.0 -0.6455772518 -0.7587659705
19050185700.0 -0.6547331106 -0.7511045192
19100185400.0 -0.6648701426 -0.7430874791
19150185100.0 -0.6748614072 -0.7346919975
19200184800.0 -0.683818274 -0.7259607867
19250184500.0 -0.6948291946 -0.7168801103
19300184200.0 -0.7058738088 -0.7070326255
19350183900.0 -0.7170165385 -0.6974351324
19400183600.0 -0.7265018297 -0.6880797478
19450183300.0 -0.735501492 -0.6772615118
19500183000.0 -0.7433895438 -0.6673602356
19550182700.0 -0.7534288646 -0.6562854837
19600182400.0 -0.7637755284 -0.6447561797
19650182100.0 -0.7747623004 -0.632490431
19700181800.0 -0.7852356329 -0.619290608
19750181500.0 -0.7958774142 -0.6050942819
19800181200.0 -0.8062327142 -0.590251159
19850180900.0 -0.8161804779 -0.5745979266
19900180600.0 -0.8237845913 -0.56040507
19950180300.0 -0.8330442664 -0.5438718456
20000180000.0 -0.8267993309 -0.5468581743
20050179700.0 -0.8337459566 -0.5330906134
20100179400.0 -0.8430675165 -0.519330358
20150179100.0 -0.8513838609 -0.5074400102
20200178800.0 -0.8598583024 -0.493212889
20250178500.0 -0.8702456915 -0.4807239619
20300178200.0 -0.8792959196 -0.4658207852
20350177900.0 -0.887787303 -0.4510930782
20400177600.0 -0.8969700671 -0.4368908262
20450177300.0 -0.9055208664 -0.422669532
20500177000.0 -0.9132907774 -0.4085774824
20550176700.0 -0.9213603268 -0.3949834071
20600176400.0 -0.9283842511 -0.3816921547
20650176100.0 -0.9346764774 -0.3690560598
20700175800.0 -0.9418199948 -0.3576456849
20750175500.0 -0.947554602 -0.3462821504
20800175200.0 -0.9527183581 -0.3356494362
20850174900.0 -0.9579257854 -0.3236784372
20900174600.0 -0.9618210077 -0.3132017416
20950174300.0 -0.9662046814 -0.3012046573
21000174000.0 -0.9703134762 -0.28890758
21050173700.0 -0.972532994 -0.2789893834
21100173400.0 -0.9771957512 -0.2672890875
21150173100.0 -0.9807310835 -0.2547537405
21200172800.0 -0.9841814743 -0.2405113188
21250172500.0 -0.987666436 -0.2273281484
21300172200.0 -0.9902885195 -0.2126808029
21350171900.0 -0.9916776647 -0.1980292826
21400171600.0 -0.9925818235 -0.1841138634
21450171300.0 -0.9935201456 -0.1693512044
21500171000.0 -0.9929558675 -0.1545191648
21550170700.0 -0.9923498692 -0.1385073212
21600170400.0 -0.9924910291 -0.1226881077
21650170100.0 -0.9922726927 -0.1063723734
21700169800.0 -0.9905096117 -0.0925002039
21750169500.0 -0.9894574703 -0.0760784172
21800169200.0 -0.9886490041 -0.0598525651
21850168900.0 -0.9868351379 -0.0420796137
21900168600.0 -0.9855913178 -0.0268267958
21950168300.0 -0.984463272 -0.0104365246
22000168000.0 -0.9832719843 0.0044805127
22050167700.0 -0.9836265104 0.0183767431
22100167400.0 -0.9831439317 0.0336980155
22150167100.0 -0.9839561715 0.0495726327
22200166800.0 -0.9840655506 0.0650348022
22250166500.0 -0.9834856525 0.082613369
22300166200.0 -0.982593004 0.0998637556
22350165900.0 -0.9810912661 0.1157535459
22400165600.0 -0.9802649412 0.1312801236
22450165300.0 -0.9768683101 0.1462905308
22500165000.0 -0.9757140815 0.1600599119
22550164700.0 -0.9755962966 0.1761685256
22600164400.0 -0.9733814649 0.1912400807
22650164100.0 -0.970127888 0.206433067
22700163800.0 -0.9684173836 0.221486198
22750163500.0 -0.9658253522 0.236659143
22800163200.0 -0.9626510605 0.24963818
22850162900.0 -0.9607476944 0.263381105
22900162600.0 -0.9588402122 0.2767012231
22950162300.0 -0.9582171598 0.2895486175
23000162000.0 -0.9574090299 0.3012621862
23050161700.0 -0.9549383598 0.3132274373
23100161400.0 -0.9520835175 0.3265921983
23150161100.0 -0.9500127106 0.3393356841
23200160800.0 -0.9477288447 0.3515002835
23250160500.0 -0.9444419463 0.3621465441
23300160200.0 -0.9420791461 0.3753551182
23350159900.0 -0.9384355569 0.3882533192
23400159600.0 -0.9327878391 0.4013225034
23450159300.0 -0.9286831622 0.4143829742
23500159000.0 -0.9242931878 0.4275290834
23550158700.0 -0.9196186432 0.4404975732
23600158400.0 -0.9144550079 0.4536268649
23650158100.0 -0.9082676142 0.4676065789
23700157800.0 -0.9005787279 0.4814207104
23750157500.0 -0.8921079177 0.4956337991
23800157200.0 -0.8832055503 0.5088438696
23850156900.0 -0.8747590081 0.5217615425
23900156600.0 -0.8650773118 0.534104642
23950156300.0 -0.8557223484 0.5463973452
24000156000.0 -0.8470103164 0.5580772428
24050155700.0 -0.8368832489 0.570179077
24100155400.0 -0.8271396774 0.5831234515
24150155100.0 -0.8165425957 0.5936139098
24200154800.0 -0.8054518025 0.605230528
24250154500.0 -0.7939425605 0.6168308367
24300154200.0 -0.7825772214 0.6281754079
24350153900.0 -0.7707084233 0.6386695087
24400153600.0 -0.7585312453 0.6492399746
24450153300.0 -0.7469579387 0.6589347269
24500153000.0 -0.7353568576 0.6687420941
24550152700.0 -0.7242748982 0.678327762
24600152400.0 -0.7117783154 0.6877725134
24650152100.0 -0.7008433903 0.6961680499
