!Created with skrf (http://scikit-rf.org).
# Hz S RI R 50.0 
!freq ReS11 ImS11
300000.0 -0.9858728979 -0.0831500583
50299700.0 -0.9997777608 0.0164478975
100299400.0 -0.9979550928 0.0293748167
150299100.0 -1.002642723 0.0462943921
200298800.0 -0.9995325431 0.059517534
250298500.0 -0.9971919909 0.0731905023
300298200.0 -0.9857801338 0.0888673023
350297900.0 -0.9937186083 0.0995504451
400297600.0 -0.9929904115 0.1163327337
450297300.0 -0.9907722461 0.1300290119
500297000.0 -0.9890950681 0.1449593052
550296700.0 -0.983860541 0.1570981055
600296400.0 -1.016791949 0.1906378479
650296100.0 -0.9817026577 0.1873247702
700295800.0 -0.9786296884 0.201641357
750295500.0 -0.9759063264 0.2155756463
800295200.0 -0.9724959652 0.2296660268
850294900.0 -0.9690061978 0.2433557446
900294600.0 -0.9650689237 0.257065607
950294300.0 -0.9613911552 0.2707441406
1000294000.0 -0.9575081716 0.2848849227
1050293700.0 -0.9528782112 0.2987504234
1100293400.0 -0.9486473744 0.3129934162
1150293100.0 -0.9446802646 0.3247358464
1200292800.0 -0.9395030852 0.3391184554
1250292500.0 -0.9341918914 0.352542622
1300292200.0 -0.9284068652 0.3658051501
1350291900.0 -0.9228102098 0.3798477669
1400291600.0 -0.9173813576 0.3927775834
1450291300.0 -0.9119599697 0.4050133883
1500291000.0 -0.9058378705 0.4184208594
1550290700.0 -0.8990839345 0.431741692
1600290400.0 -0.8929098318 0.4445638217
1650290100.0 -0.8864140772 0.4569113949
1700289800.0 -0.8795384719 0.4702088431
1750289500.0 -0.8725391581 0.4824640619
1800289200.0 -0.8649939792 0.4953184331
1850288900.0 -0.8584175725 0.5066027251
1900288600.0 -0.8505826392 0.5199593358
1950288300.0 -0.8425521832 0.5322473516
2000288000.0 -0.835034683 0.5436171599
2050287700.0 -0.8265598377 0.5558590809
2100287400.0 -0.8188069107 0.5677097787
2150287100.0 -0.8100205214 0.5797608593
2200286800.0 -0.8022060156 0.5900607289
2250286500.0 -0.7934882783 0.6021542504
2300286200.0 -0.784545311 0.6135921925
2350285900.0 -0.7754580403 0.6249118191
2400285600.0 -0.7666739078 0.6360143346
2450285300.0 -0.7579437163 0.6464638212
2500285000.0 -0.748320743 0.6574336106
2550284700.0 -0.7391492156 0.6678002697
2600284400.0 -0.7295071495 0.6780191664
2650284100.0 -0.7208018812 0.6883727237
2700283800.0 -0.7099576371 0.6987885235
2750283500.0 -0.6999063199 0.7094039907
2800283200.0 -0.6900875643 0.7192328653
2850282900.0 -0.6798947188 0.7288565874
2900282600.0 -0.6695801021 0.738600588
2950282300.0 -0.6594527811 0.7476562387
3000282000.0 -0.6487496657 0.7571643865
3050281700.0 -0.6375529804 0.766461658
3100281400.0 -0.6259439114 0.7757267459
3150281100.0 -0.6143641884 0.7850802281
3200280800.0 -0.6025198706 0.7936475249
3250280500.0 -0.5916772976 0.8014484809
3300280200.0 -0.5807352955 0.8091519758
3350279900.0 -0.5693385962 0.8167145063
3400279600.0 -0.5571519609 0.824342889
3450279300.0 -0.5460671272 0.8314974754
3500279000.0 -0.5340269166 0.8387025549
3550278700.0 -0.5217738988 0.8460796335
3600278400.0 -0.509548618 0.8530706543
3650278100.0 -0.496255953 0.8608739514
3700277800.0 -0.4842140604 0.8672013012
3750277500.0 -0.4720995906 0.8738697863
3800277200.0 -0.4595555835 0.8802048271
3850276900.0 -0.4470749513 0.8863422221
3900276600.0 -0.4361980505 0.8918917931
3950276300.0 -0.4235883452 0.8983034385
4000276000.0 -0.4114682381 0.9040043501
4050275700.0 -0.3984148705 0.9101881148
4100275400.0 -0.3868296388 0.9156898868
4150275100.0 -0.3738593797 0.9211653551
4200274800.0 -0.3611219624 0.9267432074
4250274500.0 -0.3483936513 0.9318015415
4300274200.0 -0.335691646 0.9370828444
4350273900.0 -0.3219151879 0.9422229507
4400273600.0 -0.3073807789 0.9472000696
4450273300.0 -0.2919496684 0.9523420681
4500273000.0 -0.2785314223 0.9564952536
4550272700.0 -0.2644502435 0.9611156512
4600272400.0 -0.2488899295 0.965082311
4650272100.0 -0.2371593732 0.9680940707
4700271800.0 -0.2237238662 0.9716163837
4750271500.0 -0.2119834566 0.9745418551
4800271200.0 -0.199396804 0.9771789489
4850270900.0 -0.1854260541 0.9800487206
4900270600.0 -0.1716974138 0.9824629276
4950270300.0 -0.1576639531 0.9849251442
5000270000.0 -0.1434834018 0.9869468579
5050269700.0 -0.1300714004 0.9886807827
5100269400.0 -0.116334627 0.9903560603
5150269100.0 -0.103158701 0.9918346345
5200268800.0 -0.0899104964 0.9929619598
5250268500.0 -0.07667775 0.9938969705
5300268200.0 -0.0636171509 0.9947399081
5350267900.0 -0.0515770455 0.9954064507
5400267600.0 -0.035442801 0.9963194351
5450267300.0 -0.0226357657 0.9968393863
5500267000.0 -0.007812881 0.9969925188
5550266700.0 0.0070183791 0.9972882404
5600266400.0 0.0226987441 0.9972828959
5650266100.0 0.0391929646 0.9970290538
5700265800.0 0.053297389 0.9960828321
5750265500.0 0.0684677561 0.9953362188
5800265200.0 0.0824118134 0.9942801226
5850264900.0 0.0955431893 0.9930179344
5900264600.0 0.112360982 0.9913975024
5950264300.0 0.1245432633 0.9898279396
6000264000.0 0.138840215 0.9880462857
6050263700.0 0.1511701782 0.9862822298
6100263400.0 0.1638846994 0.9845672009
6150263100.0 0.1786391337 0.9817094612
6200262800.0 0.1893880558 0.979945244
6250262500.0 0.2021677534 0.9775519311
6300262200.0 0.2150973412 0.9746638455
6350261900.0 0.2282748024 0.9716177429
6400261600.0 0.2420364443 0.9685054884
6450261300.0 0.253563962 0.9655905007
6500261000.0 0.2659564768 0.9621967784
6550260700.0 0.2792023856 0.958272621
6600260400.0 0.2922983176 0.9540693817
6650260100.0 0.3062760529 0.9497420345
6700259800.0 0.3185532703 0.9454349516
6750259500.0 0.3319223211 0.9408416342
6800259200.0 0.3451445844 0.9360402637
6850258900.0 0.3570209446 0.9308360889
6900258600.0 0.3690757805 0.9258757803
6950258300.0 0.3816709074 0.9208644989
7000258000.0 0.3937087586 0.9153507028
7050257700.0 0.4059240107 0.9095202368
7100257400.0 0.4189440947 0.9032907266
7150257100.0 0.429226024 0.8979985055
7200256800.0 0.441947083 0.8917328662
7250256500.0 0.453849866 0.8855119228
7300256200.0 0.46647885 0.8785959155
7350255900.0 0.478539194 0.8719229048
7400255600.0 0.4913336663 0.865157504
7450255300.0 0.506876803 0.856419063
7500255000.0 0.5177069394 0.8488636737
7550254700.0 0.531819229 0.8409861581
7600254400.0 0.5446638973 0.832351646
7650254100.0 0.5560494865 0.8245239852
7700253800.0 0.5678433803 0.8166410956
7750253500.0 0.5792338468 0.8087641056
7800253200.0 0.5899042446 0.8008332675
7850252900.0 0.5997018762 0.7936272973
7900252600.0 0.6112615851 0.7848724522
7950252300.0 0.620488086 0.7780877968
8000252000.0 0.6307407364 0.7701724312
8050251700.0 0.6413673001 0.7617733995
8100251400.0 0.6515696965 0.7536381056
8150251100.0 0.6615690907 0.744581808
8200250800.0 0.6711713533 0.7366046538
8250250500.0 0.6801852498 0.7282405905
8300250200.0 0.6898878442 0.7195461395
8350249900.0 0.6987373294 0.7107972464
8400249600.0 0.7069830529 0.7029723525
8450249300.0 0.7160558041 0.6935122979
8500249000.0 0.7252382331 0.6845488697
8550248700.0 0.7336116416 0.67548011
8600248400.0 0.7420629368 0.6659214808
8650248100.0 0.749754625 0.656594716
8700247800.0 0.7592984724 0.6456318738
8750247500.0 0.7673092765 0.6356920099
8800247200.0 0.77557406 0.6254259186
8850246900.0 0.7840034825 0.6143650607
8900246600.0 0.7924076455 0.6032110886
8950246300.0 0.8020593218 0.5901869993
9000246000.0 0.8109240535 0.5779420509
9050245700.0 0.8200410598 0.5651881109
9100245400.0 0.82845689 0.5530220936
9150245100.0 0.8373928834 0.5396430918
9200244800.0 0.8470628926 0.5249499682
9250244500.0 0.8562175564 0.5099226333
9300244200.0 0.864252285 0.4956551002
9350243900.0 0.8721604787 0.4818364072
9400243600.0 0.8789041137 0.4688835006
9450243300.0 0.8850422651 0.4567768442
9500243000.0 0.8915562306 0.4441083095
9550242700.0 0.8958108517 0.4354712335
9600242400.0 0.8996149808 0.427429699
9650242100.0 0.9033236729 0.4203331696
9700241800.0 0.9083439278 0.4113177764
9750241500.0 0.9121251249 0.4035745239
9800241200.0 0.9167794738 0.3939388782
9850240900.0 0.9226472872 0.3822836207
9900240600.0 0.9280491632 0.3706747014
9950240300.0 0.9343213041 0.3551882207
10000240000.0 0.9387010587 0.343533815
10050239700.0 0.9443292057 0.3283353209
10100239400.0 0.9492621797 0.3132644395
10150239100.0 0.9537559503 0.2986540324
10200238800.0 0.9579787354 0.2838154669
10250238500.0 0.9611734121 0.2705003927
10300238200.0 0.964510878 0.2566840805
10350237900.0 0.9674559111 0.2435885481
10400237600.0 0.9700545838 0.2302762416
10450237300.0 0.9726378387 0.2172194435
10500237000.0 0.9749052499 0.2048622455
10550236700.0 0.9773375141 0.1912612982
10600236400.0 0.9795284322 0.1773386743
10650236100.0 0.9816259821 0.1630980289
10700235800.0 0.9838131893 0.1508656368
10750235500.0 0.9859137877 0.1376479572
10800235200.0 0.9880303469 0.1238574233
10850234900.0 0.9894107264 0.1095910032
10900234600.0 0.9918715339 0.0951968431
10950234300.0 0.9932096891 0.0819143368
11000234000.0 0.9950045487 0.0672246284
11050233700.0 0.9966372525 0.0511969118
11100233400.0 0.9980635449 0.0341252235
11150233100.0 0.9989148901 0.0180062391
11200232800.0 1.00001296 0.0028944767
11250232500.0 1.000407438 -0.0130831307
11300232200.0 1.000845315 -0.0303779437
11350231900.0 1.001217123 -0.0466525663
11400231600.0 1.000189395 -0.0620463732
11450231300.0 0.999317601 -0.077867903
11500231000.0 0.9987030087 -0.0940283793
11550230700.0 0.9969510394 -0.1068770897
11600230400.0 0.995562039 -0.1209910335
11650230100.0 0.9931320507 -0.131704504
11700229800.0 0.9915795508 -0.1470573039
11750229500.0 0.989355188 -0.1620506616
11800229200.0 0.9869660012 -0.1761028784
11850228900.0 0.9834429937 -0.1886996164
11900228600.0 0.9801727882 -0.1992550851
11950228300.0 0.9766471567 -0.2100057673
12000228000.0 0.9742664832 -0.2194449181
12050227700.0 0.9707462651 -0.2320370326
12100227400.0 0.9673138872 -0.2429499604
12150227100.0 0.9626293347 -0.25984378
12200226800.0 0.9592119941 -0.270714669
12250226500.0 0.9555493454 -0.2837106553
12300226200.0 0.9511847613 -0.2949380355
12350225900.0 0.9472026163 -0.3087599719
12400225600.0 0.9420221793 -0.3219923314
12450225300.0 0.9374840396 -0.3344812745
12500225000.0 0.9327171917 -0.3485321199
12550224700.0 0.9269229084 -0.3623772326
12600224400.0 0.922353679 -0.3750699074
12650224100.0 0.9165991483 -0.3891894312
12700223800.0 0.9116067837 -0.4015911722
12750223500.0 0.9060094824 -0.4143348309
12800223200.0 0.9007872626 -0.4269221019
12850222900.0 0.8953932411 -0.4387822254
12900222600.0 0.8894825286 -0.4514429229
12950222300.0 0.8828999163 -0.4638065128
13000222000.0 0.8765207984 -0.4763276984
13050221700.0 0.870207613 -0.4882394478
13100221400.0 0.8628725043 -0.5007980429
13150221100.0 0.856399684 -0.5128218609
13200220800.0 0.8490864761 -0.5246405828
13250220500.0 0.8415481242 -0.5367469334
13300220200.0 0.8342192206 -0.5479993604
13350219900.0 0.8258582834 -0.5600004508
13400219600.0 0.8174149565 -0.5724787968
13450219300.0 0.8079363236 -0.5857144731
13500219000.0 0.7978809584 -0.5996465665
13550218700.0 0.7876085968 -0.61258286
13600218400.0 0.7780943403 -0.6243012043
13650218100.0 0.7682088122 -0.6360584398
13700217800.0 0.756977615 -0.6486518546
13750217500.0 0.7468812078 -0.6596069626
13800217200.0 0.7357812107 -0.6712944481
13850216900.0 0.7252794505 -0.6829683858
13900216600.0 0.7158052286 -0.6923885537
13950216300.0 0.7049183041 -0.7024757511
14000216000.0 0.6944161174 -0.7117665183
14050215700.0 0.6850651581 -0.7200378541
14100215400.0 0.6750978929 -0.7290798721
14150215100.0 0.6660482317 -0.737402647
14200214800.0 0.6568084085 -0.7460314763
14250214500.0 0.6465494083 -0.7550775641
14300214200.0 0.6363147495 -0.7643539132
14350213900.0 0.6254357523 -0.7737739257
14400213600.0 0.6139374537 -0.7833605111
14450213300.0 0.6013958958 -0.7931989782
14500213000.0 0.5883875851 -0.8025144477
14550212700.0 0.5762517214 -0.8121810523
14600212400.0 0.5637297059 -0.8207989404
14650212100.0 0.5507891086 -0.829322715
14700211800.0 0.5370261194 -0.8388304401
14750211500.0 0.524824284 -0.846976488
14800211200.0 0.5125755263 -0.8548874078
14850210900.0 0.5001714374 -0.8624064707
14900210600.0 0.4868653836 -0.8703329083
14950210300.0 0.4732082334 -0.8781606986
15000210000.0 0.4604707638 -0.8850934529
15050209700.0 0.4478841412 -0.8910528811
15100209400.0 0.434483998 -0.8972251151
15150209100.0 0.421965755 -0.9029902684
15200208800.0 0.4092066852 -0.9087737171
15250208500.0 0.3970609991 -0.9133567682
15300208200.0 0.3848139439 -0.9189000465
15350207900.0 0.3706345505 -0.9225932761
15400207600.0 0.3566711803 -0.9285611188
15450207300.0 0.3418128466 -0.9332223544
15500207000.0 0.3273192494 -0.9382071975
15550206700.0 0.31243223 -0.9431852068
15600206400.0 0.2969705779 -0.9482432096
15650206100.0 0.2811620405 -0.9522581108
15700205800.0 0.2673715781 -0.9561621262
15750205500.0 0.2527658041 -0.9593057689
15800205200.0 0.2386417862 -0.9628149389
15850204900.0 0.2245476262 -0.9662457614
15900204600.0 0.2097289947 -0.9698616007
15950204300.0 0.1958391773 -0.9726044066
16000204000.0 0.182247505 -0.9757230555
16050203700.0 0.1679201164 -0.9783821091
16100203400.0 0.1534342418 -0.9803944132
16150203100.0 0.1394537208 -0.9828553623
16200202800.0 0.1248348522 -0.9849999124
16250202500.0 0.1108243218 -0.9865921781
16300202200.0 0.0952370552 -0.9878269354
16350201900.0 0.0805288551 -0.9896267528
16400201600.0 0.0662959115 -0.9901166302
16450201300.0 0.0511818709 -0.9912354474
16500201000.0 0.0348951664 -0.9922539029
16550200700.0 0.0191275668 -0.9925966067
16600200400.0 0.0033653031 -0.9929558312
16650200100.0 -0.0129911017 -0.9929158055
16700199800.0 -0.0294168544 -0.9924458527
16750199500.0 -0.0484241239 -0.9920194676
16800199200.0 -0.0637260499 -0.9911709058
16850198900.0 -0.0797790325 -0.9902641915
16900198600.0 -0.0933260195 -0.9892436141
16950198300.0 -0.1067023325 -0.9879755214
17000198000.0 -0.1210382885 -0.9866703502
17050197700.0 -0.1335477398 -0.9840994978
17100197400.0 -0.1475659976 -0.9821066268
17150197100.0 -0.1597675296 -0.9802001025
17200196800.0 -0.1728038132 -0.9780471614
17250196500.0 -0.186225759 -0.9752897808
17300196200.0 -0.1984943728 -0.9728867618
17350195900.0 -0.2108827677 -0.9705639619
17400195600.0 -0.2231180468 -0.968122807
17450195300.0 -0.236273619 -0.9651993614
17500195000.0 -0.2499220886 -0.9618512897
17550194700.0 -0.2635365008 -0.9582420099
17600194400.0 -0.2773190232 -0.9545209098
17650194100.0 -0.2911357057 -0.9500895648
17700193800.0 -0.304307172 -0.9460037262
17750193500.0 -0.3178628269 -0.9412213657
17800193200.0 -0.3320901791 -0.936619741
17850192900.0 -0.3468702376 -0.9310377913
17900192600.0 -0.3618965071 -0.9252316773
17950192300.0 -0.3772246321 -0.9183299871
18000192000.0 -0.391777712 -0.9114349471
18050191700.0 -0.4054067498 -0.9036324769
18100191400.0 -0.4194606899 -0.8962655163
18150191100.0 -0.4341369129 -0.8883277831
18200190800.0 -0.4507721502 -0.8794652305
18250190500.0 -0.4673324862 -0.8701838219
18300190200.0 -0.4825988927 -0.8617010419
18350189900.0 -0.4977925819 -0.8532126375
18400189600.0 -0.5119751125 -0.8450810336
18450189300.0 -0.525819687 -0.8366719542
18500189000.0 -0.5390171159 -0.8291150591
18550188700.0 -0.5516858336 -0.8209899377
18600188400.0 -0.5639179424 -0.8139214829
18650188100.0 -0.5748984278 -0.8068703542
18700187800.0 -0.586165018 -0.7999898984
18750187500.0 -0.5973395143 -0.7930334372
18800187200.0 -0.6081347431 -0.7855712848
18850186900.0 -0.6186674032 -0.7783272279
18900186600.0 -0.6291340209 -0.7704780224
18950186300.0 -0.6396668186 -0.7623650472
19000186000.0 -0.6472911374 -0.7555799392
19050185700.0 -0.6570614413 -0.7479091343
19100185400.0 -0.6670840472 -0.7396531603
19150185100.0 -0.677219909 -0.7313054926
19200184800.0 -0.6869519375 -0.722159278
19250184500.0 -0.6973078465 -0.7125706235
19300184200.0 -0.70825278 -0.7027824513
19350183900.0 -0.7195880046 -0.6932633553
19400183600.0 -0.7287237377 -0.6835324149
19450183300.0 -0.7374974925 -0.6735617862
19500183000.0 -0.7455890814 -0.6635963601
19550182700.0 -0.7550962131 -0.6528790272
19600182400.0 -0.7650223474 -0.6417003995
19650182100.0 -0.7753368513 -0.6294457407
19700181800.0 -0.785528011 -0.6166659093
19750181500.0 -0.79592858 -0.6032383219
19800181200.0 -0.8057870538 -0.5888732407
19850180900.0 -0.815327362 -0.5740329661
19900180600.0 -0.8230234201 -0.5601654112
19950180300.0 -0.831918565 -0.5444069527
20000180000.0 -0.8275847764 -0.5443165976
20050179700.0 -0.8357938246 -0.5314064954
20100179400.0 -0.8441626889 -0.5187339959
20150179100.0 -0.8514968975 -0.5058619556
20200178800.0 -0.8611170616 -0.493905242
20250178500.0 -0.8698345038 -0.4799026844
20300178200.0 -0.8780712139 -0.465246978
20350177900.0 -0.8876303648 -0.4506680174
20400177600.0 -0.8959027174 -0.4370794382
20450177300.0 -0.9038755809 -0.4226869504
20500177000.0 -0.9115760438 -0.4089381279
20550176700.0 -0.9193143794 -0.3949393381
20600176400.0 -0.9261084793 -0.381754493
20650176100.0 -0.9328699992 -0.3691886974
20700175800.0 -0.9392089406 -0.3563590602
20750175500.0 -0.9452442465 -0.3444861586
20800175200.0 -0.9506507895 -0.3337081139
20850174900.0 -0.9559484845 -0.3211810769
20900174600.0 -0.9607184421 -0.3101172491
20950174300.0 -0.9649815428 -0.2978460747
21000174000.0 -0.9684030349 -0.2857935465
21050173700.0 -0.9710993117 -0.2751914511
21100173400.0 -0.9749941023 -0.26258581
21150173100.0 -0.9791038394 -0.2492534074
21200172800.0 -0.9826596026 -0.2359671526
21250172500.0 -0.9858713968 -0.2221784214
21300172200.0 -0.9884392386 -0.2078082937
21350171900.0 -0.9909612957 -0.1936035477
21400171600.0 -0.9921059041 -0.1792962687
21450171300.0 -0.9929686443 -0.1645849443
21500171000.0 -0.9930460919 -0.1502021252
21550170700.0 -0.9924464588 -0.1350775671
21600170400.0 -0.9928925729 -0.1190682318
21650170100.0 -0.9912244549 -0.102728317
21700169800.0 -0.9907781188 -0.0883180376
21750169500.0 -0.9881425567 -0.0723967942
21800169200.0 -0.9890189052 -0.0580879526
21850168900.0 -0.9878514991 -0.0403262942
21900168600.0 -0.9864692237 -0.0249481029
21950168300.0 -0.9851971128 -0.0087902069
22000168000.0 -0.9838953186 0.0055532109
22050167700.0 -0.9834956496 0.0200255651
22100167400.0 -0.9833125434 0.0349221443
22150167100.0 -0.9835514787 0.0500417136
22200166800.0 -0.9843296964 0.0660691363
22250166500.0 -0.9833867979 0.0825293129
22300166200.0 -0.9818657364 0.0982649184
22350165900.0 -0.9810904156 0.1151984674
22400165600.0 -0.9793830375 0.1296354493
22450165300.0 -0.9766396984 0.1459012074
22500165000.0 -0.9753210832 0.1589728285
22550164700.0 -0.9742433047 0.1739349601
22600164400.0 -0.9720605244 0.1890192341
22650164100.0 -0.9700741731 0.2040439215
22700163800.0 -0.9674414532 0.2197356635
22750163500.0 -0.964711448 0.2354141069
22800163200.0 -0.9622541744 0.2485506935
22850162900.0 -0.9594860639 0.2616773795
22900162600.0 -0.9578245305 0.2753456532
22950162300.0 -0.9566268947 0.2882960704
23000162000.0 -0.9556752823 0.3005647367
23050161700.0 -0.9531308503 0.313024675
23100161400.0 -0.950735056 0.3259186292
23150161100.0 -0.9484709517 0.3384523777
23200160800.0 -0.9454248397 0.3504817117
23250160500.0 -0.941967965 0.3620823344
23300160200.0 -0.9391455075 0.3740713993
23350159900.0 -0.9354785708 0.3877853613
23400159600.0 -0.9308395725 0.399757094
23450159300.0 -0.926298948 0.4127173068
23500159000.0 -0.9221179963 0.4258143496
23550158700.0 -0.9171913387 0.4387057703
23600158400.0 -0.9118117244 0.4515793431
23650158100.0 -0.9057982341 0.4648668105
23700157800.0 -0.8982044014 0.4784788194
23750157500.0 -0.8901397456 0.4924371289
23800157200.0 -0.8813314226 0.505649702
23850156900.0 -0.8721247656 0.5183014055
23900156600.0 -0.8638538105 0.5298814713
23950156300.0 -0.8548488858 0.5420060439
24000156000.0 -0.8451072446 0.5550653185
24050155700.0 -0.8357068711 0.566212066
24100155400.0 -0.8261254615 0.5784492741
24150155100.0 -0.8157080349 0.5900747953
24200154800.0 -0.804929908 0.6006628785
24250154500.0 -0.7941440047 0.6125933253
24300154200.0 -0.782673918 0.624704717
24350153900.0 -0.7707392131 0.6356422575
24400153600.0 -0.7592146037 0.645948548
24450153300.0 -0.7473534168 0.6565095927
24500153000.0 -0.7353385761 0.6663380484
24550152700.0 -0.7247619082 0.6765264446
24600152400.0 -0.7132538447 0.6863869211
24650152100.0 -0.70181671 0.6950139638
