!Created with skrf (http://scikit-rf.org).
# Hz S RI R 50.0 
!freq ReS11 ImS11
300000.0 -0.975773562 -0.1189513259
50299700.0 -1.000028118 0.0154916256
100299400.0 -0.9980727562 0.0284397882
150299100.0 -1.002793017 0.0452093164
200298800.0 -0.9995657057 0.0587047434
250298500.0 -0.9974179861 0.0721790515
300298200.0 -0.9859777505 0.0880104306
350297900.0 -0.9941102838 0.0988570162
400297600.0 -0.9931058501 0.1154284502
450297300.0 -0.9911081858 0.1288995211
500297000.0 -0.9894322489 0.1439795989
550296700.0 -0.9843829504 0.156308393
600296400.0 -1.017430679 0.1896189462
650296100.0 -0.9822102174 0.1863667065
700295800.0 -0.9793853839 0.2005388221
750295500.0 -0.9762470613 0.2145797408
800295200.0 -0.9731067735 0.2285664338
850294900.0 -0.9696007161 0.2423806161
900294600.0 -0.9657368526 0.2564128686
950294300.0 -0.9621534462 0.2700945747
1000294000.0 -0.9581809308 0.2838962032
1050293700.0 -0.9535137982 0.2975760762
1100293400.0 -0.9492898168 0.3121516536
1150293100.0 -0.9455420099 0.3239562931
1200292800.0 -0.9400233642 0.3383788848
1250292500.0 -0.9346109051 0.3517323003
1300292200.0 -0.9289970203 0.3651426876
1350291900.0 -0.9233778937 0.3790421093
1400291600.0 -0.9179277689 0.3922097232
1450291300.0 -0.9123976907 0.4045136526
1500291000.0 -0.9061342103 0.4177408002
1550290700.0 -0.8996141598 0.4313352122
1600290400.0 -0.8933960906 0.443958268
1650290100.0 -0.8866628635 0.4563690597
1700289800.0 -0.8798673262 0.4697368888
1750289500.0 -0.872749356 0.4822015453
1800289200.0 -0.8654753042 0.4949743822
1850288900.0 -0.8586870329 0.5061316398
1900288600.0 -0.8510305748 0.5192616759
1950288300.0 -0.8427286742 0.5317783477
2000288000.0 -0.8354255754 0.5433026343
2050287700.0 -0.827004111 0.5556272656
2100287400.0 -0.8191553968 0.5673285356
2150287100.0 -0.8105180527 0.5791149114
2200286800.0 -0.8029492347 0.5894561527
2250286500.0 -0.7939746128 0.6016215097
2300286200.0 -0.7853725301 0.6132596218
2350285900.0 -0.7763245753 0.6241332562
2400285600.0 -0.7675475728 0.6350651802
2450285300.0 -0.7587995631 0.645490566
2500285000.0 -0.7492312801 0.6567122593
2550284700.0 -0.7402774425 0.6673264078
2600284400.0 -0.7308595636 0.677206827
2650284100.0 -0.7216494026 0.6875682927
2700283800.0 -0.7111105998 0.6981803289
2750283500.0 -0.7010589046 0.7090005458
2800283200.0 -0.6910985468 0.7185814868
2850282900.0 -0.6811619233 0.7286412387
2900282600.0 -0.6704464719 0.7380782629
2950282300.0 -0.6602940677 0.7473151544
3000282000.0 -0.6496295357 0.7567722623
3050281700.0 -0.638352883 0.7660115197
3100281400.0 -0.626600068 0.7753950919
3150281100.0 -0.6147369778 0.7847413918
3200280800.0 -0.603107748 0.7933930523
3250280500.0 -0.5922551835 0.8010487572
3300280200.0 -0.5809714633 0.8088628083
3350279900.0 -0.5694069889 0.816564846
3400279600.0 -0.5574337702 0.8242288815
3450279300.0 -0.5462392712 0.8313390589
3500279000.0 -0.5341736485 0.8382936798
3550278700.0 -0.5219335463 0.8455527883
3600278400.0 -0.5097563988 0.8528831325
3650278100.0 -0.4962951715 0.8604932505
3700277800.0 -0.4842407011 0.8669289603
3750277500.0 -0.4721043529 0.8734827787
3800277200.0 -0.4597290124 0.8800244306
3850276900.0 -0.4476303116 0.8859258225
3900276600.0 -0.4367112819 0.8916380968
3950276300.0 -0.42405816 0.8974493037
4000276000.0 -0.412424813 0.9035737048
4050275700.0 -0.3991868391 0.9095306783
4100275400.0 -0.3882004043 0.9149736826
4150275100.0 -0.3757452517 0.9207710595
4200274800.0 -0.3626568371 0.9264288664
4250274500.0 -0.3503982468 0.9313585071
4300274200.0 -0.3372081868 0.9366621283
4350273900.0 -0.3237204462 0.9419422488
4400273600.0 -0.3087178602 0.9469729684
4450273300.0 -0.2933003786 0.9521613543
4500273000.0 -0.2798063621 0.9566619699
4550272700.0 -0.2654733756 0.9608634737
4600272400.0 -0.2501403975 0.9650892822
4650272100.0 -0.2384495217 0.9684358783
4700271800.0 -0.2251179759 0.971672599
4750271500.0 -0.2134302019 0.9745740259
4800271200.0 -0.2009374826 0.9771688846
4850270900.0 -0.186964632 0.9801137771
4900270600.0 -0.1732115072 0.9824615395
4950270300.0 -0.1587849069 0.9850170928
5000270000.0 -0.1444917255 0.9869819154
5050269700.0 -0.1310743915 0.9886049746
5100269400.0 -0.1173522834 0.9904063133
5150269100.0 -0.1041824736 0.9919349686
5200268800.0 -0.0906226983 0.9929192109
5250268500.0 -0.077880724 0.9939377658
5300268200.0 -0.0645596432 0.9948551356
5350267900.0 -0.0525073074 0.9952080496
5400267600.0 -0.036160977 0.9962912797
5450267300.0 -0.0231241282 0.9965764692
5500267000.0 -0.0079641975 0.9970963235
5550266700.0 0.0071108943 0.9971667459
5600266400.0 0.0223997977 0.9972918794
5650266100.0 0.0392380933 0.9970526631
5700265800.0 0.0536018928 0.9959549815
5750265500.0 0.0686116945 0.99540176
5800265200.0 0.082764335 0.9946319579
5850264900.0 0.0957807562 0.9934093796
5900264600.0 0.1125944546 0.9916733701
5950264300.0 0.1246203293 0.989901732
6000264000.0 0.1386703053 0.9883193742
6050263700.0 0.1509414283 0.9868634319
6100263400.0 0.1633779275 0.9848769819
6150263100.0 0.1781030669 0.9828859048
6200262800.0 0.1885592704 0.9809682791
6250262500.0 0.2009642939 0.9783900485
6300262200.0 0.2138717845 0.9757745093
6350261900.0 0.2267151318 0.972923568
6400261600.0 0.2407045877 0.9693929229
6450261300.0 0.2518814186 0.9666143947
6500261000.0 0.2648984603 0.9632910377
6550260700.0 0.2780356192 0.9593011214
6600260400.0 0.2914224137 0.9553437849
6650260100.0 0.3055823401 0.9510511575
6700259800.0 0.3172182037 0.9466824406
6750259500.0 0.3310922 0.9416532529
6800259200.0 0.3439090652 0.9364360186
6850258900.0 0.3563297356 0.9317128164
6900258600.0 0.3681850839 0.9265593703
6950258300.0 0.3807130846 0.9211692366
7000258000.0 0.392726049 0.9157089191
7050257700.0 0.4049971586 0.9098107051
7100257400.0 0.4179756312 0.903486021
7150257100.0 0.4281556637 0.898246017
7200256800.0 0.4409053366 0.8916356939
7250256500.0 0.4528142707 0.8853270279
7300256200.0 0.4657485244 0.8785735759
7350255900.0 0.4784325713 0.8719327392
7400255600.0 0.4918839764 0.8644213917
7450255300.0 0.5070419363 0.8554175387
7500255000.0 0.5189660488 0.848465391
7550254700.0 0.5324032378 0.8397551857
7600254400.0 0.5451174265 0.8318102708
7650254100.0 0.5569379698 0.8241439999
7700253800.0 0.5686076691 0.8159537473
7750253500.0 0.5796815585 0.8081938409
7800253200.0 0.5905768812 0.800457922
7850252900.0 0.600231479 0.7934547303
7900252600.0 0.6118557419 0.7846231373
7950252300.0 0.6205997448 0.7782570166
8000252000.0 0.6307772729 0.7704180627
8050251700.0 0.6413783035 0.7622069127
8100251400.0 0.6515280892 0.7541634099
8150251100.0 0.6616322873 0.7454191691
8200250800.0 0.6706409478 0.7376030472
8250250500.0 0.6796071749 0.7295768866
8300250200.0 0.6892543333 0.7208866224
8350249900.0 0.6980311473 0.71227754
8400249600.0 0.706290311 0.7041468563
8450249300.0 0.715444582 0.6947452629
8500249000.0 0.7240942674 0.6861789095
8550248700.0 0.7323064126 0.6771130323
8600248400.0 0.7408230279 0.6677733242
8650248100.0 0.7487002668 0.6581634783
8700247800.0 0.7581617959 0.6469969943
8750247500.0 0.7664012525 0.6367375721
8800247200.0 0.774455499 0.6264326794
8850246900.0 0.7833270532 0.6149872592
8900246600.0 0.7920174972 0.6037220462
8950246300.0 0.8013907024 0.5906618604
9000246000.0 0.8108333569 0.5778296609
9050245700.0 0.8195138216 0.5650136144
9100245400.0 0.8283072702 0.5526847458
9150245100.0 0.8376747062 0.5388582162
9200244800.0 0.8472620003 0.5237404657
9250244500.0 0.8568011793 0.5082232968
9300244200.0 0.8649635037 0.4937849997
9350243900.0 0.8730859321 0.479929656
9400243600.0 0.8797462346 0.4674746448
9450243300.0 0.8854702244 0.4557808989
9500243000.0 0.891847655 0.4437219168
9550242700.0 0.8954277357 0.4360811208
9600242400.0 0.8995132457 0.428965878
9650242100.0 0.9031221377 0.422237497
9700241800.0 0.9075606864 0.4141943433
9750241500.0 0.9118206278 0.4064606516
9800241200.0 0.9163380494 0.3973989384
9850240900.0 0.9221356325 0.3857085389
9900240600.0 0.9276590213 0.3742188733
9950240300.0 0.9342802976 0.3578456719
10000240000.0 0.9388746576 0.3462223163
10050239700.0 0.9445511124 0.3312486284
10100239400.0 0.949651503 0.3155533948
10150239100.0 0.9539896423 0.3006028057
10200238800.0 0.9583023271 0.2858522379
10250238500.0 0.9613176066 0.272303265
10300238200.0 0.964551851 0.2584660817
10350237900.0 0.9672521491 0.2452619296
10400237600.0 0.9698158647 0.2324162397
10450237300.0 0.9725520247 0.2184927197
10500237000.0 0.9746860606 0.206420214
10550236700.0 0.9770111486 0.1922642268
10600236400.0 0.9794065202 0.1784006676
10650236100.0 0.981497259 0.1638753998
10700235800.0 0.9836313087 0.1513506143
10750235500.0 0.9858492206 0.1384285807
10800235200.0 0.9874719335 0.1244255331
10850234900.0 0.9894744517 0.1095899293
10900234600.0 0.9917991744 0.0950590983
10950234300.0 0.9933277621 0.0817443526
11000234000.0 0.9952473168 0.0666674006
11050233700.0 0.9969602685 0.0502388182
11100233400.0 0.9986263917 0.0326997793
11150233100.0 0.9995710775 0.0165066625
11200232800.0 1.000042426 0.0010180395
11250232500.0 1.001170764 -0.0149290526
11300232200.0 1.001864748 -0.0332735206
11350231900.0 1.001353518 -0.0487702081
11400231600.0 1.000897079 -0.0637869228
11450231300.0 1.000722828 -0.0791442077
11500231000.0 0.9997291447 -0.0958925457
11550230700.0 0.9983337553 -0.1091342795
11600230400.0 0.9968027904 -0.1214950795
11650230100.0 0.9953279854 -0.1336457006
11700229800.0 0.9933146089 -0.1478245027
11750229500.0 0.9906955978 -0.1626246345
11800229200.0 0.9879103715 -0.1762700063
11850228900.0 0.9844047368 -0.1887744658
11900228600.0 0.9808508099 -0.1986200728
11950228300.0 0.9775115926 -0.2087283689
12000228000.0 0.9751690848 -0.2177542953
12050227700.0 0.9713117267 -0.2309077486
12100227400.0 0.9677584537 -0.2419688975
12150227100.0 0.9632347954 -0.2572701598
12200226800.0 0.9594126022 -0.269076765
12250226500.0 0.9554808855 -0.2824999873
12300226200.0 0.9517118966 -0.2944434666
12350225900.0 0.9464090032 -0.3079167549
12400225600.0 0.9422721113 -0.3211117285
12450225300.0 0.9376945013 -0.3335955396
12500225000.0 0.9325187804 -0.3488748214
12550224700.0 0.9270224175 -0.3622309182
12600224400.0 0.9221734303 -0.3752509145
12650224100.0 0.9162349206 -0.389641446
12700223800.0 0.9109705177 -0.4024532219
12750223500.0 0.9055523527 -0.4154077711
12800223200.0 0.9002703589 -0.4278851084
12850222900.0 0.8944705087 -0.4400004803
12900222600.0 0.8891231037 -0.4523953698
12950222300.0 0.8823567656 -0.4654432199
13000222000.0 0.8769146208 -0.4763577356
13050221700.0 0.8698669223 -0.4892273147
13100221400.0 0.8638173572 -0.5011917604
13150221100.0 0.856440149 -0.5136287453
13200220800.0 0.8494346471 -0.5253686092
13250220500.0 0.8425270964 -0.5369930745
13300220200.0 0.83512107 -0.547713451
13350219900.0 0.8269261269 -0.5599135359
13400219600.0 0.8185749885 -0.5718699557
13450219300.0 0.8092199758 -0.5852394036
13500219000.0 0.7992680172 -0.5993448222
13550218700.0 0.7886279927 -0.6121379037
13600218400.0 0.7788149527 -0.6236133517
13650218100.0 0.7686833042 -0.6352293111
13700217800.0 0.7580036292 -0.6478116386
13750217500.0 0.7486377905 -0.6591000476
13800217200.0 0.7371946237 -0.6713556239
13850216900.0 0.726333851 -0.6818354056
13900216600.0 0.7156892671 -0.6912220283
13950216300.0 0.7046032755 -0.7023128985
14000216000.0 0.6952154503 -0.7108879787
14050215700.0 0.6855029032 -0.7195516906
14100215400.0 0.6756968525 -0.7277032526
14150215100.0 0.6664442837 -0.7366166689
14200214800.0 0.6570542035 -0.7452340756
14250214500.0 0.6468437106 -0.7546227019
14300214200.0 0.6363252079 -0.763931888
14350213900.0 0.6252608785 -0.7734228641
14400213600.0 0.6136433943 -0.7833168192
14450213300.0 0.600329806 -0.7936484148
14500213000.0 0.5875890535 -0.8034854151
14550212700.0 0.5752471908 -0.813183049
14600212400.0 0.5625880655 -0.8212957784
14650212100.0 0.549062304 -0.8302716388
14700211800.0 0.5354139038 -0.8398598614
14750211500.0 0.5236411534 -0.8484844473
14800211200.0 0.5114283773 -0.8557754102
14850210900.0 0.4993256278 -0.8635577153
14900210600.0 0.4857178272 -0.8714548596
14950210300.0 0.4723537734 -0.8791568171
15000210000.0 0.459692376 -0.8857472967
15050209700.0 0.4473041639 -0.8917542361
15100209400.0 0.4341619003 -0.8978445233
15150209100.0 0.4226998016 -0.9030323386
15200208800.0 0.4101185476 -0.9088018215
15250208500.0 0.3984746362 -0.9131995802
15300208200.0 0.3861707842 -0.9182278146
15350207900.0 0.372596407 -0.9230109018
15400207600.0 0.3585017243 -0.9276444061
15450207300.0 0.3430058018 -0.9329940263
15500207000.0 0.3294931025 -0.9368106207
15550206700.0 0.3147243531 -0.942484785
15600206400.0 0.2981545903 -0.9468051176
15650206100.0 0.2829452745 -0.9515607667
15700205800.0 0.2688300677 -0.9553947747
15750205500.0 0.2541547992 -0.9586290414
15800205200.0 0.240001917 -0.9621452733
15850204900.0 0.2252466111 -0.9655985396
15900204600.0 0.2103412344 -0.9691702373
15950204300.0 0.1961322461 -0.9720634383
16000204000.0 0.1822997535 -0.9750705823
16050203700.0 0.1667758895 -0.9782546961
16100203400.0 0.1521878326 -0.9800586359
16150203100.0 0.1379375084 -0.9821138341
16200202800.0 0.1234722166 -0.9840453784
16250202500.0 0.1094134125 -0.9860318992
16300202200.0 0.0938590778 -0.9876621753
16350201900.0 0.0791740289 -0.9893776097
16400201600.0 0.0641831466 -0.9901514031
16450201300.0 0.048943964 -0.9912250373
16500201000.0 0.0323015584 -0.9920973889
16550200700.0 0.0165241813 -0.9926005512
16600200400.0 0.0009577247 -0.9928990453
16650200100.0 -0.0148164709 -0.9927077621
16700199800.0 -0.031617699 -0.9924033933
16750199500.0 -0.0504840565 -0.9914734531
16800199200.0 -0.0659190252 -0.9908314005
16850198900.0 -0.0812301489 -0.9893993587
16900198600.0 -0.0958470259 -0.989426641
16950198300.0 -0.1083548887 -0.987315602
17000198000.0 -0.1214835407 -0.9859135376
17050197700.0 -0.1340815752 -0.9841333145
17100197400.0 -0.146703234 -0.9816453029
17150197100.0 -0.1590116872 -0.9798733182
17200196800.0 -0.1718233102 -0.9780729396
17250196500.0 -0.1851635125 -0.9758176377
17300196200.0 -0.1972938611 -0.9733819347
17350195900.0 -0.2092319864 -0.971247077
17400195600.0 -0.221437087 -0.9686155211
17450195300.0 -0.2345698619 -0.9658559174
17500195000.0 -0.2480857656 -0.9623882494
17550194700.0 -0.2619854641 -0.9588247478
17600194400.0 -0.2758454983 -0.9549280753
17650194100.0 -0.289497292 -0.950912738
17700193800.0 -0.3024318265 -0.9465590902
17750193500.0 -0.316965374 -0.9419934397
17800193200.0 -0.3316203707 -0.9365719635
17850192900.0 -0.3465593928 -0.9315493638
17900192600.0 -0.3611366391 -0.9250457652
17950192300.0 -0.3768999385 -0.917947936
18000192000.0 -0.3918877352 -0.9109249801
18050191700.0 -0.4057229986 -0.9030342882
18100191400.0 -0.4199927425 -0.8954000093
18150191100.0 -0.4350598291 -0.8874449087
18200190800.0 -0.4517747001 -0.8783339825
18250190500.0 -0.4689879438 -0.8687529697
18300190200.0 -0.4844308506 -0.8600967234
18350189900.0 -0.4990353775 -0.8515776887
18400189600.0 -0.5137030109 -0.8433050558
18450189300.0 -0.5271090799 -0.8356833913
18500189000.0 -0.5406069302 -0.8274734223
18550188700.0 -0.5531139907 -0.8197382925
18600188400.0 -0.5648619055 -0.8130623131
18650188100.0 -0.5760188791 -0.8066397532
18700187800.0 -0.5867101094 -0.7999140384
18750187500.0 -0.597043531 -0.7935170414
18800187200.0 -0.6077169176 -0.7868348387
18850186900.0 -0.6179984415 -0.7795718448
18900186600.0 -0.6282228209 -0.772280696
18950186300.0 -0.6382475234 -0.7645685073
19000186000.0 -0.6455791494 -0.7584298493
19050185700.0 -0.6551236394 -0.7514537294
19100185400.0 -0.6644350935 -0.7429774216
19150185100.0 -0.6749694972 -0.7343699298
19200184800.0 -0.6848520513 -0.7260751395
19250184500.0 -0.6948476662 -0.7167656149
19300184200.0 -0.7058717959 -0.7071267928
19350183900.0 -0.7168844748 -0.6976489678
19400183600.0 -0.7263378323 -0.6874007007
19450183300.0 -0.7352226743 -0.6776269541
19500183000.0 -0.743622386 -0.6675427666
19550182700.0 -0.7531379779 -0.6567570141
19600182400.0 -0.7632143741 -0.6448934885
19650182100.0 -0.7744613403 -0.6326075883
19700181800.0 -0.7850541311 -0.6193070539
19750181500.0 -0.7959232787 -0.605030886
19800181200.0 -0.8062038675 -0.5902344727
19850180900.0 -0.815841035 -0.5749056419
19900180600.0 -0.823717044 -0.5606359218
19950180300.0 -0.8329838559 -0.5436818578
20000180000.0 -0.8252057674 -0.5465432324
20050179700.0 -0.8339039764 -0.5326826044
20100179400.0 -0.8423487709 -0.5197746406
20150179100.0 -0.8507233037 -0.5080259816
20200178800.0 -0.8601700055 -0.494189046
20250178500.0 -0.8687061978 -0.4806058317
20300178200.0 -0.8791481307 -0.4665371753
20350177900.0 -0.8878449882 -0.4520259227
20400177600.0 -0.8968207604 -0.437482402
20450177300.0 -0.9051135784 -0.4229908348
20500177000.0 -0.912894534 -0.4092381462
20550176700.0 -0.9205508088 -0.3957313765
20600176400.0 -0.9279676576 -0.3825823176
20650176100.0 -0.9340795983 -0.3701019512
20700175800.0 -0.9410710903 -0.3583850788
20750175500.0 -0.9480353698 -0.3467207296
20800175200.0 -0.9520136741 -0.3356522248
20850174900.0 -0.957297473 -0.3252584053
20900174600.0 -0.9630943045 -0.3134142876
20950174300.0 -0.9650605536 -0.3028499945
21000174000.0 -0.9691913843 -0.2910793225
21050173700.0 -0.9713798333 -0.2798944769
21100173400.0 -0.9752233279 -0.2684374515
21150173100.0 -0.9799544197 -0.2555779123
21200172800.0 -0.9835681168 -0.2423755693
21250172500.0 -0.9863589166 -0.2284571187
21300172200.0 -0.9894196776 -0.2146659675
21350171900.0 -0.9909224163 -0.2000228244
21400171600.0 -0.9926345705 -0.1857328364
21450171300.0 -0.9925593805 -0.1716167987
21500171000.0 -0.9914768202 -0.1559633739
21550170700.0 -0.9923458633 -0.1397850935
21600170400.0 -0.9931847554 -0.1248727969
21650170100.0 -0.9907613086 -0.1094330043
21700169800.0 -0.9888237667 -0.0938691238
21750169500.0 -0.9885671784 -0.0788616437
21800169200.0 -0.9875096118 -0.0606116475
21850168900.0 -0.9872577788 -0.0451661571
21900168600.0 -0.9860583496 -0.0286021381
21950168300.0 -0.9847763491 -0.0123318592
22000168000.0 -0.9836935086 0.0024927196
22050167700.0 -0.9836985278 0.016993808
22100167400.0 -0.9836307088 0.032059742
22150167100.0 -0.9844771399 0.0476754795
22200166800.0 -0.9848325669 0.0637600333
22250166500.0 -0.9843709225 0.0814162312
22300166200.0 -0.9843734815 0.0968395401
22350165900.0 -0.9822403838 0.1140702594
22400165600.0 -0.9804166726 0.1289279078
22450165300.0 -0.9782247224 0.1443754821
22500165000.0 -0.9769031311 0.1578754427
22550164700.0 -0.9760700225 0.1738382249
22600164400.0 -0.9742101633 0.1895215766
22650164100.0 -0.9718211148 0.2049043017
22700163800.0 -0.9682150991 0.2198545756
22750163500.0 -0.9668095642 0.2349859035
22800163200.0 -0.96368686 0.2486318957
22850162900.0 -0.961097611 0.2619467576
22900162600.0 -0.9596655169 0.2753294427
22950162300.0 -0.9587926136 0.2880971433
23000162000.0 -0.9575862441 0.3002159651
23050161700.0 -0.9555977371 0.3125700372
23100161400.0 -0.9531288974 0.3254340909
23150161100.0 -0.9506484093 0.3378041583
23200160800.0 -0.947614379 0.3500438386
23250160500.0 -0.944727892 0.362007519
23300160200.0 -0.9424820562 0.3738718244
23350159900.0 -0.9373551448 0.3874227237
23400159600.0 -0.9338451585 0.4002966599
23450159300.0 -0.9286639915 0.4134505267
23500159000.0 -0.9239757241 0.4264203013
23550158700.0 -0.919972356 0.4402014239
23600158400.0 -0.9146017716 0.4534174524
23650158100.0 -0.9080272895 0.4674753823
23700157800.0 -0.9005916017 0.4813560445
23750157500.0 -0.8919166968 0.4956246119
23800157200.0 -0.8829475496 0.5083688195
23850156900.0 -0.8733197504 0.521859691
23900156600.0 -0.8647468931 0.5339005827
23950156300.0 -0.8560253617 0.5464609723
24000156000.0 -0.8467443018 0.5580183916
24050155700.0 -0.8367745468 0.5696745382
24100155400.0 -0.8269309651 0.5815078901
24150155100.0 -0.8156709073 0.5942466555
24200154800.0 -0.8051624628 0.6052661933
24250154500.0 -0.7931691753 0.6172272211
24300154200.0 -0.7822737945 0.6287181142
24350153900.0 -0.7709373586 0.6392220042
24400153600.0 -0.7583726276 0.6491711467
24450153300.0 -0.746864169 0.6589394494
24500153000.0 -0.7350283308 0.6687344415
24550152700.0 -0.7238437594 0.6789805919
24600152400.0 -0.7130394835 0.6873988981
