!Created with skrf (http://scikit-rf.org).
# Hz S RI R 50.0 
!freq ReS11 ImS11
300000.0 -0.9727134727 -0.1227618186
50299700.0 -0.999840533 0.0148299777
100299400.0 -0.9978002533 0.0280279401
150299100.0 -1.002559405 0.044881213
200298800.0 -0.999562845 0.0580325893
250298500.0 -0.9973746966 0.071544373
300298200.0 -0.9858025146 0.0873625542
350297900.0 -0.9939690991 0.0982963407
400297600.0 -0.9930852895 0.1146381886
450297300.0 -0.990941554 0.1285590533
500297000.0 -0.9893253594 0.1435299153
550296700.0 -0.9841247938 0.1558218808
600296400.0 -1.017327786 0.1891253089
650296100.0 -0.9821805691 0.1858054217
700295800.0 -0.9792509565 0.2001492947
750295500.0 -0.9762302654 0.2140922275
800295200.0 -0.9728585221 0.2278919981
850294900.0 -0.9698826257 0.2417866495
900294600.0 -0.9658977414 0.2554350353
950294300.0 -0.961891281 0.2694126184
1000294000.0 -0.9582085403 0.2834059366
1050293700.0 -0.9533358531 0.2968168534
1100293400.0 -0.9492989003 0.3114818255
1150293100.0 -0.9455606878 0.3235256629
1200292800.0 -0.9403157869 0.3378098053
1250292500.0 -0.9347031352 0.3511668299
1300292200.0 -0.9289627308 0.3644025688
1350291900.0 -0.9234067609 0.3785327506
1400291600.0 -0.9181012308 0.3915293387
1450291300.0 -0.9124972479 0.4039953854
1500291000.0 -0.9061515238 0.4174009219
1550290700.0 -0.8995867306 0.4305962924
1600290400.0 -0.8933455274 0.4435314956
1650290100.0 -0.8868665692 0.4557747638
1700289800.0 -0.8798994501 0.4692385296
1750289500.0 -0.872924011 0.4815936912
1800289200.0 -0.8656016498 0.4944043196
1850288900.0 -0.8587217445 0.5057348677
1900288600.0 -0.8509409432 0.5186650188
1950288300.0 -0.842781461 0.5311904772
2000288000.0 -0.8354054735 0.5427181288
2050287700.0 -0.8271640348 0.5552854472
2100287400.0 -0.8194414993 0.5666310225
2150287100.0 -0.8108975796 0.5785117411
2200286800.0 -0.8027194927 0.5891224893
2250286500.0 -0.7940665952 0.6013130029
2300286200.0 -0.7853207662 0.6128243105
2350285900.0 -0.7768034679 0.6234666769
2400285600.0 -0.7679984849 0.6343958365
2450285300.0 -0.7591173796 0.6448991494
2500285000.0 -0.7490880053 0.6565263304
2550284700.0 -0.7403019866 0.6670323855
2600284400.0 -0.730896553 0.6769477091
2650284100.0 -0.7222148186 0.6870955338
2700283800.0 -0.711721425 0.6976045521
2750283500.0 -0.7014652671 0.7081450894
2800283200.0 -0.6916769849 0.7183190841
2850282900.0 -0.6810062044 0.7283425858
2900282600.0 -0.6708755607 0.737943459
2950282300.0 -0.6602936704 0.7472637986
3000282000.0 -0.6496738933 0.7569954171
3050281700.0 -0.638280636 0.7660297638
3100281400.0 -0.6268095461 0.7751231606
3150281100.0 -0.6154725666 0.7838524599
3200280800.0 -0.6042615899 0.7923216589
3250280500.0 -0.5930250748 0.8002825732
3300280200.0 -0.5813717482 0.808369458
3350279900.0 -0.5693294496 0.8164562362
3400279600.0 -0.5564884444 0.8244229418
3450279300.0 -0.5455264844 0.831648899
3500279000.0 -0.5337882702 0.8385214479
3550278700.0 -0.5215435808 0.8452788879
3600278400.0 -0.5097344225 0.8524538743
3650278100.0 -0.4967962536 0.8597868936
3700277800.0 -0.4845099743 0.8665213441
3750277500.0 -0.4720522147 0.8732178844
3800277200.0 -0.4596478217 0.879616631
3850276900.0 -0.4474486913 0.8855108687
3900276600.0 -0.4368014081 0.8913811258
3950276300.0 -0.4248269981 0.8972835966
4000276000.0 -0.4129206122 0.902765399
4050275700.0 -0.4003917957 0.9089783681
4100275400.0 -0.3891893824 0.9146281555
4150275100.0 -0.3761949395 0.9204356499
4200274800.0 -0.3626805025 0.9263079467
4250274500.0 -0.3499220973 0.931444251
4300274200.0 -0.3368237418 0.9367713698
4350273900.0 -0.3226225595 0.9419909818
4400273600.0 -0.3075947464 0.9470126609
4450273300.0 -0.2926815719 0.9523232508
4500273000.0 -0.2795859302 0.9563217942
4550272700.0 -0.2659715098 0.9604939434
4600272400.0 -0.2508587171 0.9647180521
4650272100.0 -0.2397124844 0.9677049697
4700271800.0 -0.2267648977 0.9711680065
4750271500.0 -0.2150493417 0.9740406473
4800271200.0 -0.2028754574 0.9767164993
4850270900.0 -0.1889901065 0.979694599
4900270600.0 -0.1753174717 0.9819890486
4950270300.0 -0.1605837158 0.9845836286
5000270000.0 -0.1461671545 0.9865454834
5050269700.0 -0.1327550644 0.9882790562
5100269400.0 -0.1185927287 0.9899066675
5150269100.0 -0.1045690042 0.9920667319
5200268800.0 -0.0910988169 0.9927278836
5250268500.0 -0.078316945 0.9934544698
5300268200.0 -0.0646094886 0.994655557
5350267900.0 -0.0515147389 0.9950642594
5400267600.0 -0.0355566613 0.9963263734
5450267300.0 -0.0220732753 0.9966017452
5500267000.0 -0.0069128044 0.9969826715
5550266700.0 0.0081383984 0.9972395424
5600266400.0 0.0238527567 0.9972952638
5650266100.0 0.0406424854 0.9966776478
5700265800.0 0.0546915581 0.9958795616
5750265500.0 0.0698617955 0.9953661921
5800265200.0 0.0833294394 0.9940981136
5850264900.0 0.0963782648 0.9927405712
5900264600.0 0.1127253042 0.9911254272
5950264300.0 0.124576919 0.9895905536
6000264000.0 0.1379053317 0.9878623744
6050263700.0 0.1498667924 0.9865915764
6100263400.0 0.161846125 0.9847048967
6150263100.0 0.176418697 0.9825778685
6200262800.0 0.1863140935 0.9809271166
6250262500.0 0.1987960886 0.9785511661
6300262200.0 0.2110150833 0.9760471699
6350261900.0 0.2239588154 0.9735452503
6400261600.0 0.2377384668 0.9702673968
6450261300.0 0.2484707829 0.9677091384
6500261000.0 0.2620347007 0.9638172826
6550260700.0 0.2751579449 0.9599570478
6600260400.0 0.2885070936 0.9558298259
6650260100.0 0.3027526321 0.9519204851
6700259800.0 0.3151233358 0.9472378486
6750259500.0 0.3286283683 0.9423434093
6800259200.0 0.3419100186 0.9372660089
6850258900.0 0.3546176057 0.9321044392
6900258600.0 0.3672259151 0.9269447137
6950258300.0 0.3797206518 0.9216430454
7000258000.0 0.3913638366 0.9161301845
7050257700.0 0.4033877368 0.9104235628
7100257400.0 0.4166961152 0.9038916341
7150257100.0 0.4274214651 0.8986054602
7200256800.0 0.4404225257 0.8921857595
7250256500.0 0.4530346349 0.8857145934
7300256200.0 0.4661432552 0.8788113986
7350255900.0 0.4788024658 0.8717354433
7400255600.0 0.4928662029 0.8643465429
7450255300.0 0.508843622 0.8548995181
7500255000.0 0.5211099107 0.8471279959
7550254700.0 0.5355233622 0.8383455698
7600254400.0 0.5475751314 0.8297766942
7650254100.0 0.5588167946 0.8219763487
7700253800.0 0.5707891141 0.8139267106
7750253500.0 0.5817561811 0.8064718291
7800253200.0 0.5923809037 0.7986036864
7850252900.0 0.6022412982 0.7912510758
7900252600.0 0.6137097548 0.7826026802
7950252300.0 0.6222279061 0.7763652845
8000252000.0 0.6319421695 0.7687742176
8050251700.0 0.6424434628 0.7603921139
8100251400.0 0.652520858 0.7525814021
8150251100.0 0.6622742741 0.7440848682
8200250800.0 0.6721945487 0.7358242595
8250250500.0 0.6805768858 0.7279694085
8300250200.0 0.689920204 0.719832213
8350249900.0 0.6990088094 0.7107861883
8400249600.0 0.7067844519 0.7027408883
8450249300.0 0.7159985787 0.6940577437
8500249000.0 0.7245646964 0.6853243382
8550248700.0 0.7327460143 0.6762302767
8600248400.0 0.7410872352 0.6667272307
8650248100.0 0.7487464796 0.6573742602
8700247800.0 0.7578993317 0.6463766982
8750247500.0 0.7662226648 0.6362031872
8800247200.0 0.774325014 0.6261585451
8850246900.0 0.7829728913 0.6143609585
8900246600.0 0.7915304366 0.6030574997
8950246300.0 0.8006606634 0.5904200871
9000246000.0 0.8093988878 0.5785214609
9050245700.0 0.817509748 0.5660854006
9100245400.0 0.8260796951 0.5541338171
9150245100.0 0.8348409143 0.5411560465
9200244800.0 0.8443320427 0.5268260586
9250244500.0 0.8533677121 0.5117675842
9300244200.0 0.8612811565 0.4985172308
9350243900.0 0.8690332804 0.4852042123
9400243600.0 0.8755543101 0.4733750856
9450243300.0 0.8811604889 0.4630489218
9500243000.0 0.8874579351 0.4512921871
9550242700.0 0.8915360966 0.4438840384
9600242400.0 0.8956860798 0.4362145423
9650242100.0 0.8999083694 0.4292468025
9700241800.0 0.9051226692 0.4205459202
9750241500.0 0.9090470247 0.412935516
9800241200.0 0.9143256877 0.4036717574
9850240900.0 0.9202789874 0.3916378058
9900240600.0 0.9258329002 0.3798612535
9950240300.0 0.9333089833 0.36304631
10000240000.0 0.9380700694 0.3509665516
10050239700.0 0.9441299112 0.3349866028
10100239400.0 0.9493197056 0.3186877717
10150239100.0 0.9541049463 0.3027827533
10200238800.0 0.9584067211 0.2877837472
10250238500.0 0.9616562732 0.2740967904
10300238200.0 0.9646411095 0.2601865936
10350237900.0 0.9674692188 0.2468461228
10400237600.0 0.969992272 0.2333303398
10450237300.0 0.9729495101 0.2195832068
10500237000.0 0.9750477641 0.2070869994
10550236700.0 0.9771975062 0.193338606
10600236400.0 0.9794695269 0.1789932459
10650236100.0 0.981296023 0.1639836402
10700235800.0 0.983819088 0.1520295566
10750235500.0 0.9859572214 0.138595252
10800235200.0 0.9876167492 0.1246722117
10850234900.0 0.9899227198 0.1094637237
10900234600.0 0.9921375724 0.0947945806
10950234300.0 0.9937792487 0.0811056777
11000234000.0 0.9955099042 0.0655676244
11050233700.0 0.997330253 0.0488284818
11100233400.0 0.9986756742 0.0310779216
11150233100.0 0.9999902858 0.0143046984
11200232800.0 1.000982633 -0.0016388648
11250232500.0 1.00179977 -0.0199906731
11300232200.0 1.002346647 -0.0376308397
11350231900.0 1.002142136 -0.0549463235
11400231600.0 1.001786551 -0.0695966853
11450231300.0 1.000813126 -0.0854308506
11500231000.0 0.9996299471 -0.1023593018
11550230700.0 0.9980415441 -0.1147808854
11600230400.0 0.996786531 -0.1271597812
11650230100.0 0.9947673212 -0.1396221565
11700229800.0 0.9923452883 -0.1545823796
11750229500.0 0.9903933166 -0.1689491671
11800229200.0 0.9873843616 -0.1819925525
11850228900.0 0.9836764621 -0.1938024405
11900228600.0 0.9798162825 -0.2032316529
11950228300.0 0.9763433847 -0.2134296913
12000228000.0 0.9736512787 -0.2217725552
12050227700.0 0.9698477538 -0.2350254864
12100227400.0 0.9666782833 -0.2459691856
12150227100.0 0.9616441158 -0.2628301345
12200226800.0 0.9579234766 -0.2736555596
12250226500.0 0.9542235139 -0.2862071802
12300226200.0 0.9490293896 -0.2990202337
12350225900.0 0.9446776542 -0.3115516195
12400225600.0 0.9401313502 -0.3242439248
12450225300.0 0.9358927453 -0.3371888619
12500225000.0 0.9308636372 -0.3514943649
12550224700.0 0.9247360968 -0.3656673859
12600224400.0 0.9199805888 -0.3782671052
12650224100.0 0.9141058261 -0.392789475
12700223800.0 0.9088139694 -0.4054930822
12750223500.0 0.903150179 -0.4184396058
12800223200.0 0.8983324889 -0.4308404422
12850222900.0 0.892901897 -0.4428354518
12900222600.0 0.8872049401 -0.4554022075
12950222300.0 0.8809711155 -0.4681157112
13000222000.0 0.875636497 -0.4791425232
13050221700.0 0.86858793 -0.4926993933
13100221400.0 0.8613356213 -0.5053146886
13150221100.0 0.8545134118 -0.5169576155
13200220800.0 0.8476390296 -0.5281027985
13250220500.0 0.8403817902 -0.5405217838
13300220200.0 0.8327851793 -0.5513879469
13350219900.0 0.8247222074 -0.5632710592
13400219600.0 0.8164711365 -0.5753004238
13450219300.0 0.8067703255 -0.5883983175
13500219000.0 0.7971841325 -0.601455745
13550218700.0 0.7875068418 -0.6137552479
13600218400.0 0.7775544044 -0.6253055458
13650218100.0 0.7686497662 -0.6365725526
13700217800.0 0.7570525657 -0.6481752626
13750217500.0 0.7472559891 -0.6592481353
13800217200.0 0.7367699421 -0.6703449725
13850216900.0 0.7261183632 -0.6812084028
13900216600.0 0.7159469155 -0.6902288636
13950216300.0 0.7052686769 -0.7001724746
14000216000.0 0.6956220075 -0.7099306507
14050215700.0 0.6859060112 -0.717830161
14100215400.0 0.6766856521 -0.7264727181
14150215100.0 0.6675461243 -0.7351370693
14200214800.0 0.6579796655 -0.7442007238
14250214500.0 0.647566086 -0.7535875887
14300214200.0 0.6370566586 -0.7629021245
14350213900.0 0.6262074574 -0.7724512133
14400213600.0 0.6142074023 -0.7826228615
14450213300.0 0.6010535561 -0.7928051065
14500213000.0 0.5884520553 -0.8024701936
14550212700.0 0.57552915 -0.8119242934
14600212400.0 0.5629636348 -0.8204256497
14650212100.0 0.5504101815 -0.8289944618
14700211800.0 0.5369245817 -0.8390469284
14750211500.0 0.5246719754 -0.8472166745
14800211200.0 0.5123832552 -0.8555190125
14850210900.0 0.499903644 -0.8631785087
14900210600.0 0.486631501 -0.8710501183
14950210300.0 0.4733203827 -0.8786114945
15000210000.0 0.4609162224 -0.885581796
15050209700.0 0.448189872 -0.8915092476
15100209400.0 0.4358192814 -0.897361539
15150209100.0 0.4239463116 -0.9029664505
15200208800.0 0.4109229272 -0.9081595151
15250208500.0 0.3999608804 -0.9119130349
15300208200.0 0.3877880091 -0.9169616217
15350207900.0 0.37379686 -0.9220282473
15400207600.0 0.3596027322 -0.9270932122
15450207300.0 0.3442692596 -0.9321090972
15500207000.0 0.3304765671 -0.9376827672
15550206700.0 0.3154318527 -0.9425091342
15600206400.0 0.2996650301 -0.9467036254
15650206100.0 0.2836614476 -0.9508094248
15700205800.0 0.2702927281 -0.954329249
15750205500.0 0.2563987285 -0.9579183819
15800205200.0 0.242141128 -0.9612732964
15850204900.0 0.2280276754 -0.9646238954
15900204600.0 0.2129643059 -0.9682971504
15950204300.0 0.1986703836 -0.9715160167
16000204000.0 0.1842958079 -0.9742122657
16050203700.0 0.1688675233 -0.9771462512
16100203400.0 0.1542412314 -0.9799874749
16150203100.0 0.1395230672 -0.9821657233
16200202800.0 0.1248973312 -0.9843263782
16250202500.0 0.1103558696 -0.9861675581
16300202200.0 0.0945840033 -0.9871066097
16350201900.0 0.0799302972 -0.9888861296
16400201600.0 0.0653028893 -0.9900574157
16450201300.0 0.0496217336 -0.9914567562
16500201000.0 0.0326151722 -0.9920376827
16550200700.0 0.0165079674 -0.9924169986
16600200400.0 0.0005867941 -0.9927096654
16650200100.0 -0.0151374477 -0.9926398042
16700199800.0 -0.03178116 -0.9922532003
16750199500.0 -0.0503916926 -0.9917304514
16800199200.0 -0.0667049946 -0.9910120848
16850198900.0 -0.0824451526 -0.9901749584
16900198600.0 -0.0969669739 -0.9890575877
16950198300.0 -0.1098912703 -0.9877047536
17000198000.0 -0.1236318744 -0.9856348848
17050197700.0 -0.1361437439 -0.9845597997
17100197400.0 -0.1490362291 -0.9818178454
17150197100.0 -0.161224985 -0.9803043119
17200196800.0 -0.1742748441 -0.977951577
17250196500.0 -0.1872226206 -0.9752456319
17300196200.0 -0.1991943603 -0.9729912761
17350195900.0 -0.2112623547 -0.9707225153
17400195600.0 -0.2231350985 -0.968330789
17450195300.0 -0.2359918243 -0.9653289445
17500195000.0 -0.2493449858 -0.9621308882
17550194700.0 -0.263073978 -0.9584959854
17600194400.0 -0.2767301854 -0.9547060319
17650194100.0 -0.2900014226 -0.9510113655
17700193800.0 -0.3031090536 -0.9463071383
17750193500.0 -0.3174626994 -0.9415555983
17800193200.0 -0.3317222037 -0.9365048815
17850192900.0 -0.3470300628 -0.9311505639
17900192600.0 -0.3618561818 -0.9248246762
17950192300.0 -0.3773365602 -0.9181402887
18000192000.0 -0.3919698553 -0.9105134413
18050191700.0 -0.4059230643 -0.9027126754
18100191400.0 -0.4199554656 -0.895158489
18150191100.0 -0.4348520484 -0.8870502344
18200190800.0 -0.4518303859 -0.8779004296
18250190500.0 -0.4688071872 -0.8683961204
18300190200.0 -0.4841837306 -0.8598396789
18350189900.0 -0.4995156448 -0.8512159708
18400189600.0 -0.5142375623 -0.8428033272
18450189300.0 -0.5275267953 -0.8347987435
18500189000.0 -0.5409635101 -0.8264672827
18550188700.0 -0.5536953609 -0.8191199289
18600188400.0 -0.5653891229 -0.8121156095
18650188100.0 -0.5768140229 -0.8053614222
18700187800.0 -0.5878398122 -0.7991623063
18750187500.0 -0.5986035856 -0.7923609683
18800187200.0 -0.6094471143 -0.7852921865
18850186900.0 -0.6195263099 -0.7783439234
18900186600.0 -0.6300291255 -0.7709261853
18950186300.0 -0.6401638602 -0.763251659
19000186000.0 -0.6477019046 -0.7568822971
19050185700.0 -0.6569215963 -0.7498026952
19100185400.0 -0.6666980102 -0.7418722151
19150185100.0 -0.6769619157 -0.7331341216
19200184800.0 -0.6866131055 -0.7250936681
19250184500.0 -0.697091114 -0.7156913463
19300184200.0 -0.7082984261 -0.706080313
19350183900.0 -0.7190067716 -0.696515428
19400183600.0 -0.7286873765 -0.6867550218
19450183300.0 -0.7377132523 -0.6761718882
19500183000.0 -0.7460610103 -0.6661240365
19550182700.0 -0.7554101706 -0.6554565144
19600182400.0 -0.7659856329 -0.6435260024
19650182100.0 -0.7764269221 -0.6313170346
19700181800.0 -0.7866390856 -0.6182305587
19750181500.0 -0.7973487187 -0.6041507461
19800181200.0 -0.8073763517 -0.5892448877
19850180900.0 -0.8169935595 -0.5738994833
19900180600.0 -0.8244642237 -0.5595333038
19950180300.0 -0.8336174748 -0.5432963212
20000180000.0 -0.8235153663 -0.5473682249
20050179700.0 -0.831745449 -0.5340735485
20100179400.0 -0.8395796735 -0.5212545298
20150179100.0 -0.8473689701 -0.5091191676
20200178800.0 -0.8556743022 -0.4973456993
20250178500.0 -0.8662475593 -0.4853899275
20300178200.0 -0.8749798352 -0.4718608218
20350177900.0 -0.8844139351 -0.4584714033
20400177600.0 -0.8935900992 -0.4435130177
20450177300.0 -0.9021449414 -0.4291613505
20500177000.0 -0.910262768 -0.4153097056
20550176700.0 -0.9178877474 -0.4017701208
20600176400.0 -0.9251339386 -0.3888363392
20650176100.0 -0.9316093968 -0.3763779664
20700175800.0 -0.937977923 -0.3654185761
20750175500.0 -0.9450467213 -0.3521318832
20800175200.0 -0.9495579895 -0.3423425157
20850174900.0 -0.9536657018 -0.3315262372
20900174600.0 -0.9573523382 -0.3210513342
20950174300.0 -0.9614556547 -0.3094012558
21000174000.0 -0.9640384464 -0.2990989935
21050173700.0 -0.9656904334 -0.2888894242
21100173400.0 -0.9693012096 -0.2783762855
21150173100.0 -0.9726528369 -0.2671174477
21200172800.0 -0.9767623834 -0.2533096585
21250172500.0 -0.9804430463 -0.2396738782
21300172200.0 -0.9839188094 -0.2252425456
21350171900.0 -0.98671903 -0.2113477079
21400171600.0 -0.9876529192 -0.1973460829
21450171300.0 -0.9888613483 -0.1832078036
21500171000.0 -0.9893423627 -0.1679247891
21550170700.0 -0.9893224819 -0.1528331967
21600170400.0 -0.9910006762 -0.13831467
21650170100.0 -0.9913878902 -0.1217907305
21700169800.0 -0.9903678568 -0.1070531903
21750169500.0 -0.9897730047 -0.0901563961
21800169200.0 -0.9908057262 -0.0748078395
21850168900.0 -0.9898362443 -0.0567873282
21900168600.0 -0.9887875222 -0.0409288223
21950168300.0 -0.9886832928 -0.0249302022
22000168000.0 -0.9891177707 -0.0101119076
22050167700.0 -0.9895172245 0.0049058568
22100167400.0 -0.9899021599 0.0201952818
22150167100.0 -0.9910193204 0.0363998688
22200166800.0 -0.9912713836 0.0530400591
22250166500.0 -0.9910953916 0.0699247542
22300166200.0 -0.9901032822 0.0869967908
22350165900.0 -0.9892486358 0.1025431405
22400165600.0 -0.9876478016 0.1177865364
22450165300.0 -0.9861479375 0.1338340021
22500165000.0 -0.9839777204 0.1472387508
22550164700.0 -0.9831940169 0.1639375902
22600164400.0 -0.9801542583 0.1803095441
22650164100.0 -0.9777828081 0.1962367406
22700163800.0 -0.9743083661 0.2120046843
22750163500.0 -0.9724831812 0.2264598794
22800163200.0 -0.9688764408 0.2393800176
22850162900.0 -0.9663574393 0.2528483809
22900162600.0 -0.964483731 0.2669820504
22950162300.0 -0.9626481746 0.2806308439
23000162000.0 -0.9608203804 0.2933751183
23050161700.0 -0.9582208648 0.3066207352
23100161400.0 -0.9554767262 0.3201983275
23150161100.0 -0.9528773533 0.3332608623
23200160800.0 -0.949717822 0.345880363
23250160500.0 -0.9469709972 0.3583395137
23300160200.0 -0.9440252747 0.3708293449
23350159900.0 -0.9400176555 0.3847871062
23400159600.0 -0.9346137067 0.3980841269
23450159300.0 -0.9300337128 0.4123718036
23500159000.0 -0.9250700597 0.4256145094
23550158700.0 -0.9204191418 0.4401865206
23600158400.0 -0.914148292 0.454023774
23650158100.0 -0.907084302 0.468358703
23700157800.0 -0.8985640402 0.4826385141
23750157500.0 -0.8891632053 0.4971131858
23800157200.0 -0.879109702 0.5105000126
23850156900.0 -0.8699647823 0.5229834883
23900156600.0 -0.8592013315 0.5359792801
23950156300.0 -0.8499454836 0.5484945854
24000156000.0 -0.8413545914 0.5611556771
24050155700.0 -0.8305407433 0.5733373191
24100155400.0 -0.8202464539 0.5863141413
24150155100.0 -0.8094429811 0.5973999568
24200154800.0 -0.797410183 0.6094344099
24250154500.0 -0.7861761155 0.6214558546
24300154200.0 -0.775337657 0.6340103964
24350153900.0 -0.763088772 0.6450366866
24400153600.0 -0.7502273234 0.6555403824
24450153300.0 -0.7384941764 0.6657127962
24500153000.0 -0.7267871645 0.6755830789
24550152700.0 -0.7154665679 0.68620362
24600152400.0 -0.7031593974 0.6951916603
