!Created with skrf (http://scikit-rf.org).
# Hz S RI R 50.0 
!freq ReS11 ImS11
300000.0 -0.9745596229 -0.1185742779
50299700.0 -1.000078795 0.0154079346
100299400.0 -0.9980711061 0.0283255447
150299100.0 -1.002794424 0.0451103117
200298800.0 -0.9996212717 0.0584562178
250298500.0 -0.9973016127 0.0720010744
300298200.0 -0.9860154068 0.0878357023
350297900.0 -0.994029395 0.0987398441
400297600.0 -0.9932950612 0.115216481
450297300.0 -0.99118691 0.1289208279
500297000.0 -0.9895566845 0.1436901674
550296700.0 -0.9844435451 0.1562212286
600296400.0 -1.017295608 0.1894162449
650296100.0 -0.9823662847 0.1862014838
700295800.0 -0.9794611277 0.200470982
750295500.0 -0.9764845109 0.2142999467
800295200.0 -0.9730391423 0.2286501972
850294900.0 -0.9696897158 0.2423712405
900294600.0 -0.9658039 0.2560615797
950294300.0 -0.9621762302 0.2697595273
1000294000.0 -0.9581717104 0.2839609981
1050293700.0 -0.9537403335 0.2978330024
1100293400.0 -0.9493099709 0.3120083437
1150293100.0 -0.9457052404 0.3240539906
1200292800.0 -0.9401804222 0.3381768602
1250292500.0 -0.9348061399 0.3517512985
1300292200.0 -0.928949955 0.3649431206
1350291900.0 -0.923692614 0.3788683819
1400291600.0 -0.9180479951 0.392067839
1450291300.0 -0.912429388 0.4045815294
1500291000.0 -0.90620212 0.417809314
1550290700.0 -0.8996964722 0.4312735661
1600290400.0 -0.893361257 0.4440573599
1650290100.0 -0.8867916419 0.4561368082
1700289800.0 -0.8798980416 0.4696395912
1750289500.0 -0.8727538528 0.4819438179
1800289200.0 -0.8654416849 0.4946136144
1850288900.0 -0.8587208337 0.5060621583
1900288600.0 -0.8509349873 0.5191174494
1950288300.0 -0.8427582848 0.5318380606
2000288000.0 -0.835189809 0.5431237748
2050287700.0 -0.8271805801 0.5554978066
2100287400.0 -0.8192631629 0.5671031195
2150287100.0 -0.8105855558 0.5790297572
2200286800.0 -0.8030165792 0.5894784372
2250286500.0 -0.7939333447 0.6015896102
2300286200.0 -0.7852210479 0.6130844016
2350285900.0 -0.7763757194 0.6239852966
2400285600.0 -0.7675294811 0.6351024009
2450285300.0 -0.7590947321 0.6454522076
2500285000.0 -0.749272519 0.6568211185
2550284700.0 -0.7403201892 0.6672264054
2600284400.0 -0.7309286659 0.6772315893
2650284100.0 -0.7216741989 0.6876427056
2700283800.0 -0.7112395734 0.6980568573
2750283500.0 -0.7011428326 0.7088507155
2800283200.0 -0.6913519984 0.7187576239
2850282900.0 -0.6808504275 0.7285547854
2900282600.0 -0.6705654736 0.7381287446
2950282300.0 -0.6603514878 0.7471660103
3000282000.0 -0.6497170901 0.7567773863
3050281700.0 -0.6385322864 0.7660197022
3100281400.0 -0.6266384665 0.775355375
3150281100.0 -0.6148493419 0.7848018982
3200280800.0 -0.6033073705 0.7932020545
3250280500.0 -0.592324911 0.8008803612
3300280200.0 -0.5809605284 0.8088245709
3350279900.0 -0.5695091276 0.8163022296
3400279600.0 -0.5573879628 0.8243341665
3450279300.0 -0.5462045204 0.8312056814
3500279000.0 -0.5341363031 0.8385257774
3550278700.0 -0.5217848678 0.8458084548
3600278400.0 -0.5096867244 0.8527745712
3650278100.0 -0.4964277356 0.8603965228
3700277800.0 -0.4841321283 0.866755306
3750277500.0 -0.4720538433 0.8732336529
3800277200.0 -0.4595312851 0.8799183037
3850276900.0 -0.4475614046 0.8858494311
3900276600.0 -0.4365246913 0.8914100348
3950276300.0 -0.4242837156 0.8974940694
4000276000.0 -0.4124305426 0.9034115115
4050275700.0 -0.3993897268 0.9097414468
4100275400.0 -0.3882573046 0.9147471989
4150275100.0 -0.3755166364 0.9205948406
4200274800.0 -0.3626714516 0.9261347429
4250274500.0 -0.3502898737 0.9315008529
4300274200.0 -0.3373326483 0.9368061797
4350273900.0 -0.3236352779 0.9419012161
4400273600.0 -0.3085050412 0.9472629931
4450273300.0 -0.293272636 0.9524981982
4500273000.0 -0.2797238045 0.9566997059
4550272700.0 -0.265604514 0.9608957816
4600272400.0 -0.2501425914 0.9650834543
4650272100.0 -0.2384822615 0.9684003467
4700271800.0 -0.2253094516 0.9715900737
4750271500.0 -0.2135942759 0.9744771027
4800271200.0 -0.2010966951 0.9772752648
4850270900.0 -0.1872233708 0.9799473913
4900270600.0 -0.1732397469 0.9822388435
4950270300.0 -0.1589888408 0.985072463
5000270000.0 -0.144940896 0.9869461721
5050269700.0 -0.1311312162 0.988685093
5100269400.0 -0.1173882026 0.9905629674
5150269100.0 -0.1041161256 0.9921022276
5200268800.0 -0.090854856 0.9928350419
5250268500.0 -0.0777177839 0.9943393443
5300268200.0 -0.0646413553 0.9944155816
5350267900.0 -0.0524311584 0.9950749756
5400267600.0 -0.03638232 0.9962544354
5450267300.0 -0.0232803758 0.9968373884
5500267000.0 -0.0079082802 0.9973340992
5550266700.0 0.0071413063 0.9971799413
5600266400.0 0.0224690478 0.9973733803
5650266100.0 0.0392818766 0.9970551657
5700265800.0 0.0537146126 0.9962418153
5750265500.0 0.0688894147 0.9953617294
5800265200.0 0.0827416013 0.9944560794
5850264900.0 0.0957886198 0.9928748129
5900264600.0 0.1126257661 0.9916030312
5950264300.0 0.1244050912 0.9896549453
6000264000.0 0.1384736915 0.9883239872
6050263700.0 0.1509072829 0.9868322304
6100263400.0 0.1635518317 0.985070842
6150263100.0 0.1778164099 0.9826596061
6200262800.0 0.1880458605 0.980946509
6250262500.0 0.2009674758 0.9785429529
6300262200.0 0.213465604 0.9755762247
6350261900.0 0.2266149652 0.9728471435
6400261600.0 0.2404336182 0.9696249754
6450261300.0 0.2518479677 0.9668215739
6500261000.0 0.2645774923 0.9633958772
6550260700.0 0.2774854564 0.9593790784
6600260400.0 0.2910963384 0.9552352103
6650260100.0 0.3048680358 0.950966843
6700259800.0 0.3167142047 0.9466204375
6750259500.0 0.3305196235 0.9414569272
6800259200.0 0.34380227 0.9365244746
6850258900.0 0.3556333359 0.9313889723
6900258600.0 0.3679407643 0.9264824066
6950258300.0 0.3806982986 0.9211829543
7000258000.0 0.3927151466 0.9159139462
7050257700.0 0.4047973445 0.9097954168
7100257400.0 0.4178869412 0.9035339047
7150257100.0 0.4282618656 0.8982664666
7200256800.0 0.4408122224 0.8917429886
7250256500.0 0.452730294 0.8854219259
7300256200.0 0.4657973076 0.8783784464
7350255900.0 0.4784109799 0.8719386155
7400255600.0 0.4912804176 0.8645009355
7450255300.0 0.507008688 0.8556113839
7500255000.0 0.5189059756 0.8482421328
7550254700.0 0.5328979918 0.8399147985
7600254400.0 0.5453331969 0.8317515836
7650254100.0 0.5566615892 0.8239466305
7700253800.0 0.5686072177 0.8159208731
7750253500.0 0.5796827887 0.8080397018
7800253200.0 0.5907431747 0.8005218383
7850252900.0 0.6001303312 0.7933000299
7900252600.0 0.6118507997 0.7847477428
7950252300.0 0.6207246713 0.7781131199
8000252000.0 0.6308514016 0.7704248469
8050251700.0 0.6412536998 0.7622636882
8100251400.0 0.6511289794 0.7540138077
8150251100.0 0.6614528427 0.7453450794
8200250800.0 0.6709531576 0.7374666333
8250250500.0 0.6796761907 0.7296447414
8300250200.0 0.6888931634 0.7210051276
8350249900.0 0.6978053151 0.712386206
8400249600.0 0.7061115891 0.7042879192
8450249300.0 0.7154228045 0.6950063055
8500249000.0 0.7243461085 0.6862429142
8550248700.0 0.732318776 0.6771591426
8600248400.0 0.7407369055 0.6677135326
8650248100.0 0.7484307847 0.6582219206
8700247800.0 0.7579479676 0.6469285604
8750247500.0 0.7663624385 0.6367797499
8800247200.0 0.7744189049 0.6265789006
8850246900.0 0.7834527677 0.6148108422
8900246600.0 0.7918978313 0.6036295457
8950246300.0 0.8014374655 0.590634811
9000246000.0 0.8108276448 0.578058408
9050245700.0 0.8195631749 0.5649406242
9100245400.0 0.8283986829 0.5527187762
9150245100.0 0.8374311716 0.5390082916
9200244800.0 0.8473944569 0.5238265471
9250244500.0 0.8563427018 0.5082535809
9300244200.0 0.8649427092 0.4940057402
9350243900.0 0.8727875331 0.4801150539
9400243600.0 0.8793886363 0.467920477
9450243300.0 0.8853045271 0.4564041703
9500243000.0 0.8916552364 0.4440745517
9550242700.0 0.8954978678 0.4364750216
9600242400.0 0.8991550503 0.4291782592
9650242100.0 0.9030312509 0.4224684948
9700241800.0 0.9076284631 0.4143077958
9750241500.0 0.9115183047 0.4067736723
9800241200.0 0.9162495313 0.3979027826
9850240900.0 0.9221747801 0.3857804733
9900240600.0 0.9277388631 0.3744838114
9950240300.0 0.9345559324 0.3581492497
10000240000.0 0.9391117752 0.3465490032
10050239700.0 0.9447267271 0.3310063051
10100239400.0 0.9496641015 0.3157085897
10150239100.0 0.9541513542 0.3009750078
10200238800.0 0.9583488323 0.2861642334
10250238500.0 0.9616009908 0.2726681025
10300238200.0 0.9648087594 0.2587082177
10350237900.0 0.967276139 0.2455513718
10400237600.0 0.9699379 0.2324196644
10450237300.0 0.9725276999 0.2188917585
10500237000.0 0.9747381365 0.2066657908
10550236700.0 0.9768269354 0.1925579888
10600236400.0 0.9790601792 0.1789458437
10650236100.0 0.9810268102 0.1641418157
10700235800.0 0.9836016654 0.1520404776
10750235500.0 0.9856109818 0.1381659312
10800235200.0 0.9876298221 0.1244608985
10850234900.0 0.9895890646 0.1097848707
10900234600.0 0.9917043024 0.0949105692
10950234300.0 0.9933769719 0.0818400129
11000234000.0 0.9951797326 0.0666256316
11050233700.0 0.996905657 0.0502760922
11100233400.0 0.998386506 0.0327897677
11150233100.0 0.9994682747 0.0164518651
11200232800.0 1.000370744 0.0015195725
11250232500.0 1.001347794 -0.0154201144
11300232200.0 1.002048363 -0.0333313659
11350231900.0 1.002418754 -0.0495481591
11400231600.0 1.001278328 -0.0638740882
11450231300.0 1.001004783 -0.0799474155
11500231000.0 1.000320546 -0.0960652366
11550230700.0 0.998880756 -0.1087527284
11600230400.0 0.9968893649 -0.1218025784
11650230100.0 0.9955285717 -0.132904233
11700229800.0 0.9931846828 -0.148419261
11750229500.0 0.9910614714 -0.1629013018
11800229200.0 0.9880489784 -0.1763603872
11850228900.0 0.9845382799 -0.1888964953
11900228600.0 0.9811225566 -0.1985101226
11950228300.0 0.9775124603 -0.2090654743
12000228000.0 0.9749626976 -0.2178941365
12050227700.0 0.971400389 -0.2303819598
12100227400.0 0.9682015761 -0.2413596796
12150227100.0 0.9633100367 -0.2583845608
12200226800.0 0.9595578081 -0.2690843761
12250226500.0 0.9550103182 -0.2824516441
12300226200.0 0.9509014615 -0.2944028747
12350225900.0 0.9458377785 -0.3081732392
12400225600.0 0.9419251813 -0.3214274723
12450225300.0 0.9373855214 -0.3339206427
12500225000.0 0.932157905 -0.3484000517
12550224700.0 0.926536976 -0.3627485123
12600224400.0 0.9219536724 -0.3755160153
12650224100.0 0.9161295897 -0.3897952829
12700223800.0 0.9107669207 -0.4026346936
12750223500.0 0.9052968267 -0.4158119261
12800223200.0 0.9002463315 -0.4280044441
12850222900.0 0.8946466641 -0.4403760516
12900222600.0 0.8891112872 -0.4521329068
12950222300.0 0.8826975817 -0.4653637784
13000222000.0 0.8765028115 -0.4765225767
13050221700.0 0.870160759 -0.4890496607
13100221400.0 0.8633863673 -0.5010772384
13150221100.0 0.8567828971 -0.5130657409
13200220800.0 0.8495823958 -0.525115557
13250220500.0 0.8425833138 -0.5372946434
13300220200.0 0.8347607196 -0.5481727673
13350219900.0 0.8269172557 -0.5600319616
13400219600.0 0.818395943 -0.5722057419
13450219300.0 0.808859236 -0.5858436915
13500219000.0 0.7986370506 -0.5993576511
13550218700.0 0.7888071329 -0.6120726823
13600218400.0 0.778542443 -0.6243084233
13650218100.0 0.7688839239 -0.6353109497
13700217800.0 0.7583235684 -0.6476911076
13750217500.0 0.7486639158 -0.6584821692
13800217200.0 0.7365673684 -0.6703477483
13850216900.0 0.7255771595 -0.6817517747
13900216600.0 0.7169002157 -0.6906855887
13950216300.0 0.7050373017 -0.701272234
14000216000.0 0.6951512109 -0.7102623369
14050215700.0 0.6853398566 -0.7187752962
14100215400.0 0.6759095827 -0.728321136
14150215100.0 0.6665386975 -0.7362514304
14200214800.0 0.6572592125 -0.745091349
14250214500.0 0.6469755114 -0.7544206656
14300214200.0 0.6367208915 -0.7637240889
14350213900.0 0.625332393 -0.773484804
14400213600.0 0.6139504543 -0.7830514789
14450213300.0 0.600324746 -0.7935343302
14500213000.0 0.5876592529 -0.8031821229
14550212700.0 0.5747589189 -0.812849866
14600212400.0 0.5625523139 -0.822050957
14650212100.0 0.5498646276 -0.8303427548
14700211800.0 0.535572818 -0.8397573987
14750211500.0 0.5237424785 -0.8484062742
14800211200.0 0.511381143 -0.855870928
14850210900.0 0.4993135231 -0.86342425
14900210600.0 0.4858540347 -0.8713565274
14950210300.0 0.4726386101 -0.8790874404
15000210000.0 0.459942271 -0.8861260158
15050209700.0 0.4475429237 -0.8917767474
15100209400.0 0.4345549399 -0.8980306091
15150209100.0 0.422097401 -0.9029791371
15200208800.0 0.409522269 -0.9086406154
15250208500.0 0.3975628998 -0.9136666445
15300208200.0 0.3860378979 -0.9180635076
15350207900.0 0.3731658818 -0.9227667459
15400207600.0 0.3585687494 -0.9280491552
15450207300.0 0.3438689308 -0.9323470111
15500207000.0 0.3287561514 -0.9380333268
15550206700.0 0.314716651 -0.9420832026
15600206400.0 0.298215884 -0.9474952661
15650206100.0 0.2826000341 -0.951388651
15700205800.0 0.2687702947 -0.9549169994
15750205500.0 0.2544213786 -0.9585494908
15800205200.0 0.2397795014 -0.9621275865
15850204900.0 0.2254612238 -0.9655378265
15900204600.0 0.2103915582 -0.9691678883
15950204300.0 0.1965630329 -0.9722996551
16000204000.0 0.1820373222 -0.9750639164
16050203700.0 0.1668858182 -0.9780105444
16100203400.0 0.1526678002 -0.9804270959
16150203100.0 0.1380157869 -0.9825707323
16200202800.0 0.1239119617 -0.9843479472
16250202500.0 0.1093122403 -0.9860946241
16300202200.0 0.0939369048 -0.9876174938
16350201900.0 0.0789204625 -0.9893021605
16400201600.0 0.0644120755 -0.9900952505
16450201300.0 0.0491200191 -0.9912525694
16500201000.0 0.0323133195 -0.9921492416
16550200700.0 0.0167079905 -0.9926075408
16600200400.0 0.0009307345 -0.9927585802
16650200100.0 -0.0150634887 -0.9928099845
16700199800.0 -0.0316192948 -0.9923746161
16750199500.0 -0.0500402368 -0.9917619581
16800199200.0 -0.0662293138 -0.9909165064
16850198900.0 -0.0804373988 -0.9895641066
16900198600.0 -0.0941813402 -0.9888611084
16950198300.0 -0.1084369413 -0.9881951327
17000198000.0 -0.1212411281 -0.9860212042
17050197700.0 -0.1338849622 -0.9843266452
17100197400.0 -0.1468122775 -0.9818273421
17150197100.0 -0.1596225372 -0.980073361
17200196800.0 -0.1724154603 -0.9782946118
17250196500.0 -0.1851510367 -0.975793722
17300196200.0 -0.1972709421 -0.973534084
17350195900.0 -0.2092492263 -0.9712538209
17400195600.0 -0.2213973016 -0.968732128
17450195300.0 -0.2344135047 -0.9659387031
17500195000.0 -0.2479491808 -0.9624600647
17550194700.0 -0.2620932192 -0.9588711643
17600194400.0 -0.275694244 -0.955237766
17650194100.0 -0.2892056725 -0.9506529621
17700193800.0 -0.3027570636 -0.9465385089
17750193500.0 -0.3169439528 -0.9420882809
17800193200.0 -0.3313206669 -0.9368572422
17850192900.0 -0.3464502746 -0.9313898393
17900192600.0 -0.3616181058 -0.9253520043
17950192300.0 -0.3771728544 -0.9183074558
18000192000.0 -0.3919611061 -0.9110377942
18050191700.0 -0.4059480916 -0.9031457938
18100191400.0 -0.4200397466 -0.8954221412
18150191100.0 -0.4350338687 -0.8874058555
18200190800.0 -0.4520535028 -0.8782735901
18250190500.0 -0.4690175288 -0.8689110384
18300190200.0 -0.4843669208 -0.860164313
18350189900.0 -0.4994750998 -0.8516875129
18400189600.0 -0.5137082698 -0.8433968262
18450189300.0 -0.5270497314 -0.835427844
18500189000.0 -0.5407102595 -0.8273397006
18550188700.0 -0.5534008086 -0.8197299282
18600188400.0 -0.5647605 -0.812852399
18650188100.0 -0.5761158742 -0.8064372299
18700187800.0 -0.5865810723 -0.8000565636
18750187500.0 -0.5972228702 -0.7935422437
18800187200.0 -0.6078119646 -0.7865621973
18850186900.0 -0.618418172 -0.7795427715
18900186600.0 -0.6286360892 -0.7721729203
18950186300.0 -0.6383810747 -0.7646379325
19000186000.0 -0.6455318635 -0.7584018933
19050185700.0 -0.6550682796 -0.7514345639
19100185400.0 -0.6653752079 -0.7431294042
19150185100.0 -0.6753261716 -0.7347135508
19200184800.0 -0.6845223674 -0.7263742833
19250184500.0 -0.6944475204 -0.7171807472
19300184200.0 -0.7062435572 -0.7075346161
19350183900.0 -0.7168319723 -0.6976162325
19400183600.0 -0.7269310134 -0.6876659046
19450183300.0 -0.7351945846 -0.6778485303
19500183000.0 -0.7434411175 -0.6677041259
19550182700.0 -0.7537335635 -0.6573762479
19600182400.0 -0.7636355028 -0.6451592058
19650182100.0 -0.7747927053 -0.6330885081
19700181800.0 -0.7855251629 -0.6196802362
19750181500.0 -0.7959129296 -0.6055281201
19800181200.0 -0.806486312 -0.5902213544
19850180900.0 -0.8158577641 -0.5751098526
19900180600.0 -0.823850011 -0.5606950927
19950180300.0 -0.8327235867 -0.5443288856
20000180000.0 -0.8256299825 -0.5466385084
20050179700.0 -0.8341946162 -0.5332720809
20100179400.0 -0.8420399426 -0.5197948559
20150179100.0 -0.8506463136 -0.5073884249
20200178800.0 -0.8589581831 -0.4950249579
20250178500.0 -0.8690014324 -0.4814781026
20300178200.0 -0.8788377061 -0.4664856831
20350177900.0 -0.887517438 -0.4527556929
20400177600.0 -0.896603881 -0.4385760242
20450177300.0 -0.9046896799 -0.423746767
20500177000.0 -0.912418414 -0.4097529961
20550176700.0 -0.920676216 -0.3961866261
20600176400.0 -0.9277400155 -0.3833605128
20650176100.0 -0.9345008114 -0.3712572918
20700175800.0 -0.9408623073 -0.3586659313
20750175500.0 -0.9479940266 -0.3472215661
20800175200.0 -0.9523132754 -0.3370699447
20850174900.0 -0.9574038393 -0.3259744775
20900174600.0 -0.9614871918 -0.3132064225
20950174300.0 -0.9657672411 -0.3020576523
21000174000.0 -0.968821374 -0.2913205906
21050173700.0 -0.9720250605 -0.2807129304
21100173400.0 -0.974929259 -0.2686507889
21150173100.0 -0.9795001652 -0.2561084949
21200172800.0 -0.9830634209 -0.243608655
21250172500.0 -0.9860067017 -0.2293975131
21300172200.0 -0.9889798159 -0.2150822523
21350171900.0 -0.9905802586 -0.2004853437
21400171600.0 -0.9917245364 -0.1863225742
21450171300.0 -0.9931173738 -0.1727794108
21500171000.0 -0.9920934196 -0.156682885
21550170700.0 -0.9917516483 -0.1409617237
21600170400.0 -0.9929374371 -0.1252933963
21650170100.0 -0.9913104954 -0.1101134669
21700169800.0 -0.989583426 -0.0940633127
21750169500.0 -0.9890603742 -0.0781390716
21800169200.0 -0.9889591867 -0.0620178324
21850168900.0 -0.9871712254 -0.0445716541
21900168600.0 -0.9866475917 -0.0287446852
21950168300.0 -0.9846384142 -0.0133720641
22000168000.0 -0.9841429569 0.0016894788
22050167700.0 -0.9838873549 0.0164330039
22100167400.0 -0.983951154 0.0313896334
22150167100.0 -0.9847790746 0.0469536259
22200166800.0 -0.9850462452 0.0633183832
22250166500.0 -0.9844052632 0.0807699901
22300166200.0 -0.9842428144 0.0972907484
22350165900.0 -0.9825980165 0.1144070722
22400165600.0 -0.9809284118 0.1294601335
22450165300.0 -0.9784405556 0.1441341301
22500165000.0 -0.9773271738 0.1584051604
22550164700.0 -0.9767306476 0.1732345133
22600164400.0 -0.9737616596 0.1880551009
22650164100.0 -0.9723655507 0.2041047238
22700163800.0 -0.9687385435 0.2201414707
22750163500.0 -0.967799151 0.2350167534
22800163200.0 -0.9640446692 0.248074372
22850162900.0 -0.9615667196 0.261384329
22900162600.0 -0.9599581674 0.2747098892
22950162300.0 -0.9591760562 0.2874971703
23000162000.0 -0.9574760854 0.2993465916
23050161700.0 -0.9558164201 0.3121949441
23100161400.0 -0.9534335333 0.3246631948
23150161100.0 -0.9504361694 0.337643482
23200160800.0 -0.9475767517 0.3492286174
23250160500.0 -0.944963001 0.3609628817
23300160200.0 -0.942577794 0.3732407702
23350159900.0 -0.9383433136 0.3869608857
23400159600.0 -0.9342045729 0.3997940661
23450159300.0 -0.9290824183 0.4129259119
23500159000.0 -0.9247615408 0.4263373788
23550158700.0 -0.9199828737 0.4395755527
23600158400.0 -0.9147168463 0.4531717726
23650158100.0 -0.9083424917 0.4671717724
23700157800.0 -0.9006739241 0.48091206
23750157500.0 -0.8922980572 0.4948448231
23800157200.0 -0.8833245959 0.508308889
23850156900.0 -0.8747180254 0.5214231596
23900156600.0 -0.8654753908 0.533455316
23950156300.0 -0.8555283001 0.5461553792
24000156000.0 -0.8471285796 0.5581059766
24050155700.0 -0.8361550881 0.5699166151
24100155400.0 -0.8268528187 0.5813523515
24150155100.0 -0.8168101522 0.5940518936
24200154800.0 -0.8052965434 0.6045628595
24250154500.0 -0.7945207743 0.6165633112
24300154200.0 -0.7829335729 0.6284928591
24350153900.0 -0.7710525008 0.6384300102
24400153600.0 -0.7587601747 0.6490958503
24450153300.0 -0.7468757474 0.6590133485
24500153000.0 -0.7354248327 0.668265661
24550152700.0 -0.7245025258 0.6785768351
24600152400.0 -0.7121061163 0.6870070247
24650152100.0 -0.7007038031 0.6958285949
