!Created with skrf (http://scikit-rf.org).
# Hz S RI R 50.0 
!freq ReS11 ImS11
300000.0 -0.9767119996 -0.1191310329
50299700.0 -1.000105231 0.0154353434
100299400.0 -0.9980065911 0.0282528495
150299100.0 -1.00294968 0.0452100833
200298800.0 -0.9995919981 0.0586089075
250298500.0 -0.9973765746 0.0721139733
300298200.0 -0.9860089818 0.0877881917
350297900.0 -0.9939967713 0.0986133747
400297600.0 -0.9932935453 0.1153893811
450297300.0 -0.9911384341 0.1292433977
500297000.0 -0.9894714941 0.1439448561
550296700.0 -0.9845195306 0.1562792234
600296400.0 -1.017043417 0.1895939239
650296100.0 -0.9823876664 0.186313478
700295800.0 -0.9791702466 0.2006184728
750295500.0 -0.9763188657 0.2146237193
800295200.0 -0.9729010294 0.2285036337
850294900.0 -0.9697310238 0.242479477
900294600.0 -0.9656623988 0.2561345978
950294300.0 -0.9621127339 0.2698079172
1000294000.0 -0.9581328948 0.2838770882
1050293700.0 -0.9537025126 0.2975495404
1100293400.0 -0.9494471402 0.3118577574
1150293100.0 -0.9455709857 0.3237462293
1200292800.0 -0.9402015693 0.3381646988
1250292500.0 -0.9348530863 0.3517373499
1300292200.0 -0.9289878711 0.3649448737
1350291900.0 -0.9234419683 0.3791022445
1400291600.0 -0.9178891472 0.3921672062
1450291300.0 -0.9124979975 0.4044293486
1500291000.0 -0.9062012357 0.4178171844
1550290700.0 -0.8995267516 0.4313201755
1600290400.0 -0.8934994317 0.4440766888
1650290100.0 -0.8866182586 0.4564244941
1700289800.0 -0.8798270635 0.4695354374
1750289500.0 -0.8726201616 0.4821763555
1800289200.0 -0.8655782783 0.4949749505
1850288900.0 -0.8588413563 0.506330144
1900288600.0 -0.8511080792 0.5191388244
1950288300.0 -0.8429844003 0.5317103682
2000288000.0 -0.8351121764 0.5431111894
2050287700.0 -0.8270345625 0.5555302938
2100287400.0 -0.8194687321 0.5669856249
2150287100.0 -0.8108041625 0.5791658394
2200286800.0 -0.8028925412 0.5895222936
2250286500.0 -0.7942046591 0.6015975453
2300286200.0 -0.7851922233 0.6130904998
2350285900.0 -0.7763247859 0.6242962069
2400285600.0 -0.7675215745 0.635075775
2450285300.0 -0.7588460325 0.6456578043
2500285000.0 -0.7490850143 0.656836811
2550284700.0 -0.7403429863 0.6670392721
2600284400.0 -0.7309506456 0.6773814532
2650284100.0 -0.7217522603 0.6878905944
2700283800.0 -0.711243934 0.6984060122
2750283500.0 -0.7008883794 0.7088210605
2800283200.0 -0.6912388329 0.7186426424
2850282900.0 -0.6808982698 0.7285661792
2900282600.0 -0.6706455048 0.7379352426
2950282300.0 -0.6603266048 0.7474697054
3000282000.0 -0.6496184233 0.7568908891
3050281700.0 -0.6385882021 0.7660928789
3100281400.0 -0.6265933688 0.7754636286
3150281100.0 -0.6148080125 0.7848593633
3200280800.0 -0.6031512057 0.7933182945
3250280500.0 -0.5923190708 0.8011013407
3300280200.0 -0.5812295178 0.8088384707
3350279900.0 -0.5694830049 0.8163825033
3400279600.0 -0.5575504861 0.8242744548
3450279300.0 -0.5464402438 0.8313620034
3500279000.0 -0.5342278324 0.8386273183
3550278700.0 -0.5217517929 0.8458128569
3600278400.0 -0.5094292083 0.8528074118
3650278100.0 -0.4963805204 0.8605488857
3700277800.0 -0.4843539993 0.8667788453
3750277500.0 -0.472398476 0.8735817771
3800277200.0 -0.4597274534 0.8801865496
3850276900.0 -0.4473386744 0.8859534329
3900276600.0 -0.4366089842 0.8914317349
3950276300.0 -0.4241863999 0.8976611256
4000276000.0 -0.4122695833 0.9035138685
4050275700.0 -0.3993996029 0.9097353122
4100275400.0 -0.38823631 0.9150090643
4150275100.0 -0.3756346927 0.920786386
4200274800.0 -0.3626820528 0.9263422471
4250274500.0 -0.3502681369 0.9311502567
4300274200.0 -0.3373844153 0.9369377313
4350273900.0 -0.3233460223 0.942210106
4400273600.0 -0.3087513901 0.9472985006
4450273300.0 -0.2934705102 0.9523676165
4500273000.0 -0.2798359251 0.9567501191
4550272700.0 -0.2655569831 0.9608615515
4600272400.0 -0.2501413454 0.9649120185
4650272100.0 -0.2384496258 0.9683197528
4700271800.0 -0.2251217011 0.9717150978
4750271500.0 -0.2133914657 0.9745937746
4800271200.0 -0.2009370467 0.9771450055
4850270900.0 -0.1870932449 0.9800798822
4900270600.0 -0.1730840444 0.9824051928
4950270300.0 -0.1587852586 0.9850559961
5000270000.0 -0.1446845244 0.9868430948
5050269700.0 -0.131059455 0.9887354625
5100269400.0 -0.1176858485 0.990490864
5150269100.0 -0.1041312381 0.991756787
5200268800.0 -0.091014352 0.9931765254
5250268500.0 -0.0778715428 0.9937493293
5300268200.0 -0.0645993171 0.9947435438
5350267900.0 -0.0521251018 0.9952272089
5400267600.0 -0.0362254842 0.996475047
5450267300.0 -0.0231864882 0.9967687828
5500267000.0 -0.0077909061 0.997273716
5550266700.0 0.0069945303 0.997254814
5600266400.0 0.0225142209 0.9975167614
5650266100.0 0.0392934176 0.997219492
5700265800.0 0.0535953627 0.996305242
5750265500.0 0.0686374502 0.9954849276
5800265200.0 0.0826275811 0.9942323306
5850264900.0 0.0958364842 0.9934466627
5900264600.0 0.1125003529 0.991801438
5950264300.0 0.1245029539 0.9898380295
6000264000.0 0.1384922117 0.988437789
6050263700.0 0.1511072649 0.9869139027
6100263400.0 0.1631332324 0.9848497054
6150263100.0 0.1779297681 0.9827426669
6200262800.0 0.1883811855 0.9807522572
6250262500.0 0.2009319874 0.9784531506
6300262200.0 0.213828252 0.9757992545
6350261900.0 0.2267911825 0.972676264
6400261600.0 0.2405488033 0.969607334
6450261300.0 0.2520382449 0.9667842728
6500261000.0 0.2648530203 0.9632621557
6550260700.0 0.277682131 0.9593009814
6600260400.0 0.2909262836 0.9551765629
6650260100.0 0.3053546293 0.950968131
6700259800.0 0.3167072038 0.9465785201
6750259500.0 0.3310140693 0.9416675197
6800259200.0 0.3438317235 0.936578876
6850258900.0 0.3559790023 0.9316322428
6900258600.0 0.3683550829 0.9266349146
6950258300.0 0.3809604432 0.921267652
7000258000.0 0.3927038508 0.9158426559
7050257700.0 0.4049785881 0.9096561179
7100257400.0 0.4179586671 0.9034399777
7150257100.0 0.4282948682 0.8981342714
7200256800.0 0.4411948495 0.8917260195
7250256500.0 0.4531217257 0.8853922215
7300256200.0 0.466048335 0.8788400779
7350255900.0 0.4784528063 0.8715049577
7400255600.0 0.4918700472 0.8645084497
7450255300.0 0.5072176032 0.8555330065
7500255000.0 0.5188385143 0.8484602056
7550254700.0 0.5328562806 0.840158877
7600254400.0 0.5451812127 0.8315914978
7650254100.0 0.5568124826 0.8238703595
7700253800.0 0.5686851634 0.815915274
7750253500.0 0.5800666205 0.8082494342
7800253200.0 0.5905720638 0.8003969175
7850252900.0 0.6003269521 0.7934128983
7900252600.0 0.6119482673 0.7846573949
7950252300.0 0.6208134232 0.778118608
8000252000.0 0.6308691873 0.7705103484
8050251700.0 0.6412791254 0.7622560779
8100251400.0 0.6516223089 0.7541437688
8150251100.0 0.6613282898 0.7456227279
8200250800.0 0.6710003073 0.7374710432
8250250500.0 0.6797254353 0.7296516675
8300250200.0 0.6888661195 0.7208653229
8350249900.0 0.6981389702 0.712378186
8400249600.0 0.7064063499 0.7041335542
8450249300.0 0.7154937986 0.6949052237
8500249000.0 0.7241531618 0.6861292081
8550248700.0 0.7324083227 0.6771254046
8600248400.0 0.7408833532 0.6674670006
8650248100.0 0.748576737 0.6580111954
8700247800.0 0.7580619486 0.6469288595
8750247500.0 0.7664584743 0.6367124495
8800247200.0 0.7746025241 0.6266199806
8850246900.0 0.7833431801 0.6150167685
8900246600.0 0.7919278382 0.6036683544
8950246300.0 0.8013633427 0.5906274735
9000246000.0 0.8107999146 0.5779372192
9050245700.0 0.8200521894 0.5648681241
9100245400.0 0.8280200677 0.5525686908
9150245100.0 0.8374742632 0.5389573043
9200244800.0 0.8475405955 0.5237180705
9250244500.0 0.8570882885 0.508299977
9300244200.0 0.8653168574 0.4937369973
9350243900.0 0.873357145 0.4799166198
9400243600.0 0.8797636046 0.4674497803
9450243300.0 0.8855705952 0.4559619767
9500243000.0 0.8918398047 0.4439401938
9550242700.0 0.8957070577 0.4362733025
9600242400.0 0.8996320012 0.4288673572
9650242100.0 0.9030628028 0.4224607272
9700241800.0 0.9077144663 0.4141579845
9750241500.0 0.9119440734 0.4063281928
9800241200.0 0.9164771044 0.3975532941
9850240900.0 0.9218902608 0.3858852798
9900240600.0 0.9275436068 0.3743604996
9950240300.0 0.9342143275 0.3581288183
10000240000.0 0.9390133379 0.3463355183
10050239700.0 0.9448561184 0.3312832492
10100239400.0 0.9495904477 0.3156220219
10150239100.0 0.9542201284 0.3006461237
10200238800.0 0.9583440767 0.285916569
10250238500.0 0.9615313164 0.272521279
10300238200.0 0.9646262623 0.258699572
10350237900.0 0.9674138863 0.2454664404
10400237600.0 0.969887894 0.2322026886
10450237300.0 0.9725790303 0.2185981775
10500237000.0 0.974912851 0.2060082707
10550236700.0 0.9768910968 0.1922053322
10600236400.0 0.9790298696 0.178556289
10650236100.0 0.9813236932 0.163899176
10700235800.0 0.9835476857 0.1514596699
10750235500.0 0.9860034637 0.1383701292
10800235200.0 0.9876683485 0.123843372
10850234900.0 0.9894456195 0.1096499022
10900234600.0 0.9918112032 0.0948116917
10950234300.0 0.9935456376 0.0817108251
11000234000.0 0.9952013595 0.0665676139
11050233700.0 0.9971005009 0.0502208676
11100233400.0 0.998208486 0.0329544163
11150233100.0 0.9994516683 0.0165240239
11200232800.0 1.000098329 0.0016811969
11250232500.0 1.001362323 -0.015315228
11300232200.0 1.002067351 -0.0327173267
11350231900.0 1.00189684 -0.0482291982
11400231600.0 1.001894264 -0.0645942914
11450231300.0 1.000914812 -0.0791717959
11500231000.0 1.000386585 -0.0954881558
11550230700.0 0.9987708272 -0.1093040998
11600230400.0 0.9976016264 -0.1219883531
11650230100.0 0.9948249373 -0.1332691303
11700229800.0 0.993133066 -0.1480964229
11750229500.0 0.9909620102 -0.1622550358
11800229200.0 0.9883411149 -0.1763615762
11850228900.0 0.9847920282 -0.1885214832
11900228600.0 0.9812611216 -0.1984023162
11950228300.0 0.9779727018 -0.2090262854
12000228000.0 0.975079278 -0.2175670678
12050227700.0 0.9716774341 -0.2303090033
12100227400.0 0.9679423875 -0.2420718402
12150227100.0 0.963392075 -0.2579182105
12200226800.0 0.9595308474 -0.269383888
12250226500.0 0.9555963428 -0.2831290102
12300226200.0 0.9515203312 -0.2942550623
12350225900.0 0.946133384 -0.3082563184
12400225600.0 0.9418994999 -0.32122107
12450225300.0 0.9375907753 -0.3341702152
12500225000.0 0.9322188992 -0.3487025609
12550224700.0 0.9269211502 -0.362411064
12600224400.0 0.9218338003 -0.3754086372
12650224100.0 0.9160232374 -0.3896492113
12700223800.0 0.9107372878 -0.4026635905
12750223500.0 0.9053304246 -0.4153301792
12800223200.0 0.9002830236 -0.4283260245
12850222900.0 0.8945572509 -0.4402512565
12900222600.0 0.8889844303 -0.4522600948
12950222300.0 0.8829913854 -0.4654268787
13000222000.0 0.876828466 -0.4769288862
13050221700.0 0.8698608377 -0.4891008508
13100221400.0 0.8637569462 -0.5013602502
13150221100.0 0.8565084963 -0.5139090714
13200220800.0 0.8498462714 -0.5250244858
13250220500.0 0.8424538354 -0.5374014025
13300220200.0 0.8349849943 -0.5479763788
13350219900.0 0.8270653427 -0.559945017
13400219600.0 0.8185452173 -0.5720915582
13450219300.0 0.809253453 -0.5856151967
13500219000.0 0.7989254343 -0.5996108833
13550218700.0 0.7886109211 -0.6124823028
13600218400.0 0.7788864434 -0.624172469
13650218100.0 0.7693041619 -0.6353583434
13700217800.0 0.7583555453 -0.6473987271
13750217500.0 0.7484608611 -0.6588761282
13800217200.0 0.7378700662 -0.6698054056
13850216900.0 0.7264232212 -0.682628231
13900216600.0 0.7161032156 -0.6915276001
13950216300.0 0.7050939086 -0.7017415716
14000216000.0 0.6952678202 -0.7106452264
14050215700.0 0.6854022722 -0.719079081
14100215400.0 0.675862417 -0.7277261323
14150215100.0 0.6667151448 -0.7367273993
14200214800.0 0.6572135645 -0.7452682434
14250214500.0 0.646843141 -0.7545313561
14300214200.0 0.6364167892 -0.7637933349
14350213900.0 0.6252070658 -0.7736426671
14400213600.0 0.6137439032 -0.7832478194
14450213300.0 0.6004393902 -0.7936867712
14500213000.0 0.5875974695 -0.8032689851
14550212700.0 0.5747968832 -0.8129837395
14600212400.0 0.5624670816 -0.8215751992
14650212100.0 0.5496260454 -0.8301213616
14700211800.0 0.5352321316 -0.8399590061
14750211500.0 0.5234018517 -0.8483962486
14800211200.0 0.5109068079 -0.8563723278
14850210900.0 0.498879788 -0.8636194137
14900210600.0 0.4858155016 -0.8714161857
14950210300.0 0.4723163707 -0.8791951415
15000210000.0 0.4596616748 -0.8860830761
15050209700.0 0.447367973 -0.8920657368
15100209400.0 0.4343439525 -0.8978592885
15150209100.0 0.4226746821 -0.902980176
15200208800.0 0.4095968183 -0.9090841479
15250208500.0 0.3980979141 -0.9132420885
15300208200.0 0.3858342006 -0.9182384404
15350207900.0 0.3724823024 -0.92335397
15400207600.0 0.3585381977 -0.9280857561
15450207300.0 0.3436547458 -0.9327615063
15500207000.0 0.329937053 -0.9375673954
15550206700.0 0.3144508493 -0.9423233656
15600206400.0 0.2982476704 -0.9477665735
15650206100.0 0.2824336187 -0.951730217
15700205800.0 0.2685390807 -0.9552429781
15750205500.0 0.2540561366 -0.9585512758
15800205200.0 0.2397767766 -0.9621796852
15850204900.0 0.2253667146 -0.9656684465
15900204600.0 0.2104460358 -0.9692306286
15950204300.0 0.1962947277 -0.972381492
16000204000.0 0.1819159604 -0.9752912974
16050203700.0 0.167219708 -0.9779910211
16100203400.0 0.1520392724 -0.9801717202
16150203100.0 0.1379607097 -0.9823683404
16200202800.0 0.1236628306 -0.9847204752
16250202500.0 0.1092840339 -0.9864387201
16300202200.0 0.0940766308 -0.9876327563
16350201900.0 0.0786453261 -0.988985301
16400201600.0 0.0641862591 -0.9903276126
16450201300.0 0.0488199179 -0.9915152238
16500201000.0 0.0323390933 -0.9919614361
16550200700.0 0.016532369 -0.9925747391
16600200400.0 0.0009594139 -0.9928252818
16650200100.0 -0.0151186906 -0.9925988925
16700199800.0 -0.0312600838 -0.992190026
16750199500.0 -0.0502613144 -0.9915477751
16800199200.0 -0.0657971966 -0.9903778507
16850198900.0 -0.0819407753 -0.9897431324
16900198600.0 -0.0949838103 -0.9891320191
16950198300.0 -0.1083883514 -0.9875295266
17000198000.0 -0.1214848709 -0.9863420825
17050197700.0 -0.1343396812 -0.9842942981
17100197400.0 -0.1470958193 -0.9820493147
17150197100.0 -0.1597684055 -0.9797709133
17200196800.0 -0.1728555924 -0.9782481044
17250196500.0 -0.1852953526 -0.9757643158
17300196200.0 -0.1975432177 -0.9734488308
17350195900.0 -0.2093751828 -0.9711272968
17400195600.0 -0.2214624108 -0.9687781445
17450195300.0 -0.2345216824 -0.9660824292
17500195000.0 -0.248074507 -0.9626894065
17550194700.0 -0.2617609456 -0.9589058531
17600194400.0 -0.275634522 -0.9550666495
17650194100.0 -0.2894759868 -0.9506801261
17700193800.0 -0.3025785903 -0.9467302176
17750193500.0 -0.3169732536 -0.9419173759
17800193200.0 -0.3311635318 -0.936849608
17850192900.0 -0.3463075157 -0.9314882373
17900192600.0 -0.3614056629 -0.9252325126
17950192300.0 -0.3773602135 -0.9182125643
18000192000.0 -0.3918854142 -0.9112111957
18050191700.0 -0.4058306329 -0.9032763571
18100191400.0 -0.420016131 -0.8955759616
18150191100.0 -0.4350675066 -0.8874769572
18200190800.0 -0.4519556408 -0.8784596167
18250190500.0 -0.4688255219 -0.8687801395
18300190200.0 -0.4846078905 -0.8600369025
18350189900.0 -0.4994440317 -0.8515528845
18400189600.0 -0.5139278345 -0.8434349347
18450189300.0 -0.527041645 -0.8355735527
18500189000.0 -0.5405603547 -0.8277970621
18550188700.0 -0.55312436 -0.8199282814
18600188400.0 -0.5648092568 -0.8130696031
18650188100.0 -0.5761806853 -0.8064664088
18700187800.0 -0.5869948869 -0.8001081441
18750187500.0 -0.5974880542 -0.7936740965
18800187200.0 -0.6081911308 -0.7865919569
18850186900.0 -0.6182440113 -0.779718296
18900186600.0 -0.628388295 -0.7724117895
18950186300.0 -0.6382501116 -0.7647771934
19000186000.0 -0.6457946751 -0.7584663595
19050185700.0 -0.6547730749 -0.7515968765
19100185400.0 -0.6644142304 -0.743037192
19150185100.0 -0.6744997668 -0.7349242843
19200184800.0 -0.6843366272 -0.7263644017
19250184500.0 -0.6948130415 -0.7167140241
19300184200.0 -0.7063180865 -0.707497506
19350183900.0 -0.7169614062 -0.6979122635
19400183600.0 -0.7266430479 -0.6874240237
19450183300.0 -0.7350924378 -0.6775416679
19500183000.0 -0.7434843062 -0.6675193635
19550182700.0 -0.7532371265 -0.6573829058
19600182400.0 -0.7637530267 -0.6454085864
19650182100.0 -0.7743511759 -0.6327622385
19700181800.0 -0.7849791317 -0.6195961648
19750181500.0 -0.7957485502 -0.6054701677
19800181200.0 -0.8060894243 -0.5904942218
19850180900.0 -0.8157209027 -0.5751683236
19900180600.0 -0.8235204434 -0.5606741606
19950180300.0 -0.8329959943 -0.5443552184
20000180000.0 -0.825698569 -0.5463042392
20050179700.0 -0.8336137835 -0.5336750062
20100179400.0 -0.8424725584 -0.5201202239
20150179100.0 -0.8500616635 -0.5079814083
20200178800.0 -0.8601212213 -0.4947417197
20250178500.0 -0.8693200293 -0.481927701
20300178200.0 -0.877992574 -0.4660656557
20350177900.0 -0.8878311837 -0.4521023997
20400177600.0 -0.8966628812 -0.4379297913
20450177300.0 -0.9050403394 -0.4232565755
20500177000.0 -0.9128855246 -0.409609277
20550176700.0 -0.9209916946 -0.3963686903
20600176400.0 -0.9275645792 -0.3828279478
20650176100.0 -0.9340929321 -0.3705271986
20700175800.0 -0.9412569229 -0.358638577
20750175500.0 -0.9474342558 -0.3472968252
20800175200.0 -0.9525852794 -0.3369847685
20850174900.0 -0.9576545707 -0.3255514534
20900174600.0 -0.9622289336 -0.3143297404
20950174300.0 -0.9651024002 -0.3011799663
21000174000.0 -0.968847942 -0.2912276495
21050173700.0 -0.9718595844 -0.2806303738
21100173400.0 -0.9757705985 -0.2680033749
21150173100.0 -0.9793576261 -0.256140586
21200172800.0 -0.9835960788 -0.2423325507
21250172500.0 -0.9864078498 -0.228557756
21300172200.0 -0.9891814292 -0.214338653
21350171900.0 -0.9906972974 -0.2005888606
21400171600.0 -0.9921329136 -0.1861338274
21450171300.0 -0.9925897787 -0.1712042662
21500171000.0 -0.9925244039 -0.1562821701
21550170700.0 -0.9933139109 -0.1402666244
21600170400.0 -0.9928843285 -0.1248678735
21650170100.0 -0.9921579796 -0.1086450262
21700169800.0 -0.9896593996 -0.0932675244
21750169500.0 -0.9886880036 -0.0779467922
21800169200.0 -0.9870166824 -0.0610477512
21850168900.0 -0.9878619364 -0.0447562033
21900168600.0 -0.9859123276 -0.028752482
21950168300.0 -0.9854020015 -0.0129821041
22000168000.0 -0.9840920686 0.0020741094
22050167700.0 -0.9838298093 0.0164891427
22100167400.0 -0.9839894096 0.0319640369
22150167100.0 -0.9843567887 0.0475395908
22200166800.0 -0.9856194712 0.0637859643
22250166500.0 -0.9844000095 0.0808103866
22300166200.0 -0.9841820883 0.0977743171
22350165900.0 -0.9821836246 0.1133492829
22400165600.0 -0.9811934119 0.1295815032
22450165300.0 -0.9778496666 0.1443642162
22500165000.0 -0.9775398159 0.158593111
22550164700.0 -0.9763752412 0.1745474713
22600164400.0 -0.9739881561 0.1893387154
22650164100.0 -0.9714799884 0.2034216583
22700163800.0 -0.9688981956 0.2200293755
22750163500.0 -0.9668633263 0.234795877
22800163200.0 -0.9638583371 0.2482679481
22850162900.0 -0.9612390302 0.2611430143
22900162600.0 -0.9598548492 0.2747154992
22950162300.0 -0.9588448668 0.2873873946
23000162000.0 -0.9577342994 0.2994647757
23050161700.0 -0.9557485153 0.3119710252
23100161400.0 -0.9535720015 0.3249260164
23150161100.0 -0.9509002609 0.3375414823
23200160800.0 -0.9476440684 0.3492123214
23250160500.0 -0.9443913248 0.3613309042
23300160200.0 -0.9425380112 0.3729382658
23350159900.0 -0.9378905029 0.386447714
23400159600.0 -0.9342201215 0.4003344166
23450159300.0 -0.9291722256 0.4131172395
23500159000.0 -0.924368206 0.4264215836
23550158700.0 -0.9200845662 0.4394476389
23600158400.0 -0.9149854612 0.4526191455
23650158100.0 -0.9082090336 0.4668065901
23700157800.0 -0.9008328362 0.4808019431
23750157500.0 -0.8922617157 0.495040764
23800157200.0 -0.8832933153 0.5079946824
23850156900.0 -0.8744290906 0.5211760042
23900156600.0 -0.8656630123 0.5334823435
23950156300.0 -0.8556897803 0.5461847492
24000156000.0 -0.847723608 0.5583405465
24050155700.0 -0.837241488 0.569831088
24100155400.0 -0.8269469671 0.5815944481
24150155100.0 -0.8162317751 0.5939505041
24200154800.0 -0.8051035795 0.6047644046
24250154500.0 -0.7934300078 0.6166646765
24300154200.0 -0.7829547276 0.6279627334
24350153900.0 -0.771027304 0.6389425173
24400153600.0 -0.7586785295 0.6488468319
24450153300.0 -0.7468270256 0.6588401821
24500153000.0 -0.7359545228 0.6686075852
24550152700.0 -0.7241550766 0.6778434465
24600152400.0 -0.7126093973 0.6873706439
24650152100.0 -0.7005124223 0.6961200455
