!Created with skrf (http://scikit-rf.org).
# Hz S RI R 50.0 
!freq ReS11 ImS11
300000.0 -0.9820079997 -0.0972109188
50299700.0 -1.000023429 0.0164252324
100299400.0 -0.9979280694 0.0291914783
150299100.0 -1.002741814 0.0461181714
200298800.0 -0.9996277981 0.0593854388
250298500.0 -0.9974447806 0.072962208
300298200.0 -0.9859914475 0.0887063204
350297900.0 -0.9940274048 0.0997030413
400297600.0 -0.9931036504 0.1162655717
450297300.0 -0.9910064942 0.1301275866
500297000.0 -0.9894069609 0.1449454571
550296700.0 -0.9841150621 0.1571177164
600296400.0 -1.017137635 0.1905153113
650296100.0 -0.9818563218 0.1871794013
700295800.0 -0.9790927797 0.201668258
750295500.0 -0.9759367536 0.2156820317
800295200.0 -0.9725959053 0.2299615129
850294900.0 -0.969292165 0.2434954668
900294600.0 -0.965497833 0.2574469742
950294300.0 -0.9614754915 0.2710581596
1000294000.0 -0.957819277 0.284969769
1050293700.0 -0.9530616301 0.2987588677
1100293400.0 -0.948925609 0.3131242834
1150293100.0 -0.9447904111 0.3248787678
1200292800.0 -0.9395025694 0.3394520969
1250292500.0 -0.9343824762 0.3527456674
1300292200.0 -0.9285925087 0.3659598333
1350291900.0 -0.9229746911 0.3799603725
1400291600.0 -0.9175601902 0.3930521511
1450291300.0 -0.9118680786 0.4054028959
1500291000.0 -0.9058113721 0.4187794469
1550290700.0 -0.8991176588 0.4318891866
1600290400.0 -0.892965411 0.4447228782
1650290100.0 -0.8864999895 0.4572293514
1700289800.0 -0.8795190217 0.4705208679
1750289500.0 -0.8724788638 0.4826229011
1800289200.0 -0.86512065 0.4955344811
1850288900.0 -0.8583760443 0.5068127029
1900288600.0 -0.850601493 0.5199052143
1950288300.0 -0.8423828905 0.5324944041
2000288000.0 -0.8350212968 0.5439576289
2050287700.0 -0.8266956317 0.5560666798
2100287400.0 -0.8184347707 0.5678546724
2150287100.0 -0.8101024848 0.5801351171
2200286800.0 -0.802250539 0.5902677881
2250286500.0 -0.7935297214 0.602343833
2300286200.0 -0.7843669127 0.6142165938
2350285900.0 -0.7754623977 0.6252754821
2400285600.0 -0.7664550531 0.6360409836
2450285300.0 -0.757885615 0.6464320299
2500285000.0 -0.7483439927 0.6577431437
2550284700.0 -0.7393112035 0.6681810934
2600284400.0 -0.7295550632 0.6780369826
2650284100.0 -0.7207006698 0.6885938961
2700283800.0 -0.7099821724 0.6992884949
2750283500.0 -0.6997453034 0.7099083191
2800283200.0 -0.6901043443 0.719587006
2850282900.0 -0.6798912253 0.7294469922
2900282600.0 -0.6692741103 0.7388373613
2950282300.0 -0.659424895 0.7480917882
3000282000.0 -0.6486538689 0.7576233501
3050281700.0 -0.6376562501 0.7667297002
3100281400.0 -0.6257647444 0.7762309762
3150281100.0 -0.6140165801 0.7855469424
3200280800.0 -0.6024078991 0.7940690521
3250280500.0 -0.5915802092 0.8016275948
3300280200.0 -0.580393889 0.8094160296
3350279900.0 -0.5688946632 0.8171481523
3400279600.0 -0.5569026362 0.8248494606
3450279300.0 -0.5457565417 0.8319563543
3500279000.0 -0.5335902734 0.8390607377
3550278700.0 -0.5214438232 0.8463722779
3600278400.0 -0.5089648199 0.8532916033
3650278100.0 -0.4957753487 0.8611019121
3700277800.0 -0.4837651685 0.8672512445
3750277500.0 -0.4716370461 0.8739324049
3800277200.0 -0.4588842089 0.8804662171
3850276900.0 -0.4468437501 0.8864905569
3900276600.0 -0.4358510898 0.8920985742
3950276300.0 -0.4231075896 0.8982512368
4000276000.0 -0.4110978254 0.9042814233
4050275700.0 -0.3979495901 0.9104552266
4100275400.0 -0.3866230283 0.9156495722
4150275100.0 -0.3739215816 0.9214157267
4200274800.0 -0.360736827 0.926484638
4250274500.0 -0.3485242045 0.9319618642
4300274200.0 -0.3357786512 0.9372548918
4350273900.0 -0.3217749084 0.9420780471
4400273600.0 -0.3070631018 0.9475350503
4450273300.0 -0.291619937 0.9525784993
4500273000.0 -0.278015371 0.9570537944
4550272700.0 -0.2639060657 0.9611892501
4600272400.0 -0.2484514422 0.9653911564
4650272100.0 -0.2367425336 0.9685521187
4700271800.0 -0.223437268 0.9717449218
4750271500.0 -0.2115705612 0.9746846707
4800271200.0 -0.1990968237 0.9774259143
4850270900.0 -0.1851866197 0.9802847189
4900270600.0 -0.1715603877 0.9823725289
4950270300.0 -0.1573009946 0.9853330699
5000270000.0 -0.1432059957 0.9870699007
5050269700.0 -0.1296541298 0.988977639
5100269400.0 -0.1161012855 0.9906495552
5150269100.0 -0.1028363717 0.9922219292
5200268800.0 -0.0896835166 0.9929514063
5250268500.0 -0.0764462216 0.9939821483
5300268200.0 -0.0634595568 0.9946439844
5350267900.0 -0.051211029 0.9954176392
5400267600.0 -0.0350521928 0.9964989818
5450267300.0 -0.0221398877 0.9965914232
5500267000.0 -0.0068456087 0.9971584353
5550266700.0 0.0080996344 0.997299442
5600266400.0 0.0234334605 0.9970243674
5650266100.0 0.0397469087 0.9968561522
5700265800.0 0.0545001789 0.9961808168
5750265500.0 0.0697116011 0.9955946744
5800265200.0 0.0833914351 0.9940838222
5850264900.0 0.0969370773 0.9932623106
5900264600.0 0.1133082371 0.9910230034
5950264300.0 0.1257240394 0.9898674256
6000264000.0 0.1399563233 0.9882937413
6050263700.0 0.1520584468 0.9862722749
6100263400.0 0.164655463 0.9842666092
6150263100.0 0.1793587687 0.9820419822
6200262800.0 0.189957225 0.9801480659
6250262500.0 0.2027093456 0.9777540264
6300262200.0 0.2155671116 0.9750086794
6350261900.0 0.2285620748 0.9718145323
6400261600.0 0.2425688797 0.9687276713
6450261300.0 0.2540437519 0.9659941431
6500261000.0 0.2667910441 0.9624273696
6550260700.0 0.2795891957 0.9583291571
6600260400.0 0.2931988752 0.9547681173
6650260100.0 0.3068063924 0.9500491983
6700259800.0 0.3187301296 0.9459397864
6750259500.0 0.3323957304 0.9408046141
6800259200.0 0.3456370365 0.9359765519
6850258900.0 0.3576179733 0.9308288208
6900258600.0 0.369752113 0.9258506015
6950258300.0 0.3823030183 0.9207320701
7000258000.0 0.3940979893 0.9151628642
7050257700.0 0.4065151868 0.9094350119
7100257400.0 0.4193764707 0.9029684488
7150257100.0 0.429662523 0.8977408739
7200256800.0 0.4420750381 0.8914573189
7250256500.0 0.4540028416 0.8849881421
7300256200.0 0.467254778 0.8782471379
7350255900.0 0.4795542655 0.8712729068
7400255600.0 0.492778274 0.8644186433
7450255300.0 0.5078701135 0.8552199553
7500255000.0 0.5196384086 0.84822775
7550254700.0 0.5326928056 0.8395807823
7600254400.0 0.545458387 0.8312995452
7650254100.0 0.5571289917 0.823724472
7700253800.0 0.5693011148 0.8156131225
7750253500.0 0.5803561858 0.8074842848
7800253200.0 0.5912004418 0.799708873
7850252900.0 0.6009995653 0.7925111803
7900252600.0 0.6128598158 0.7836818433
7950252300.0 0.6215243731 0.7769970421
8000252000.0 0.6318121638 0.7691899043
8050251700.0 0.6425733399 0.7609280043
8100251400.0 0.6525605338 0.7525671502
8150251100.0 0.6628143444 0.7439187872
8200250800.0 0.6720850816 0.7359817334
8250250500.0 0.6809013255 0.7278755965
8300250200.0 0.6905629735 0.7191112606
8350249900.0 0.6997922192 0.7104952505
8400249600.0 0.7076368656 0.702498083
8450249300.0 0.7169155553 0.6930885886
8500249000.0 0.7259432427 0.6842873277
8550248700.0 0.733760718 0.6753579539
8600248400.0 0.7423502617 0.665858132
8650248100.0 0.7498592802 0.6566119675
8700247800.0 0.7594724159 0.6452373329
8750247500.0 0.7678212776 0.6354985469
8800247200.0 0.7757253772 0.6251257573
8850246900.0 0.7845041299 0.6138415388
8900246600.0 0.7929757745 0.6024799566
8950246300.0 0.8023786383 0.5896187171
9000246000.0 0.8116858926 0.5769992444
9050245700.0 0.820627018 0.5642899944
9100245400.0 0.82931126 0.5518843751
9150245100.0 0.838219048 0.538388869
9200244800.0 0.847939894 0.5236131683
9250244500.0 0.857213866 0.5078694593
9300244200.0 0.8654082961 0.4934823329
9350243900.0 0.8733185113 0.4794368179
9400243600.0 0.8802055785 0.4667953069
9450243300.0 0.8859498061 0.4548370428
9500243000.0 0.8923261617 0.4424531984
9550242700.0 0.8962964816 0.4343497406
9600242400.0 0.9003239699 0.4265362166
9650242100.0 0.9038202139 0.4198760072
9700241800.0 0.9086202197 0.4113275597
9750241500.0 0.912277497 0.403747258
9800241200.0 0.9171368504 0.3942289262
9850240900.0 0.9226103821 0.3826957499
9900240600.0 0.9281700195 0.3714113008
9950240300.0 0.9349610326 0.3548959531
10000240000.0 0.9393475873 0.3434465945
10050239700.0 0.9448147365 0.3280561605
10100239400.0 0.9499279773 0.3127918441
10150239100.0 0.9541487466 0.2980306691
10200238800.0 0.9585193918 0.2831722804
10250238500.0 0.9619234257 0.2699622939
10300238200.0 0.9650784366 0.2559725195
10350237900.0 0.9676477003 0.2429111754
10400237600.0 0.9702752913 0.2294421166
10450237300.0 0.9727406234 0.2164544905
10500237000.0 0.9750627735 0.204711118
10550236700.0 0.9772642884 0.1904679708
10600236400.0 0.9794091437 0.1772143581
10650236100.0 0.9816399548 0.1623269121
10700235800.0 0.9842716127 0.1500917189
10750235500.0 0.9860591428 0.13718191
10800235200.0 0.9879734823 0.1235644814
10850234900.0 0.9901091205 0.1088453244
10900234600.0 0.9918638318 0.094453176
10950234300.0 0.9934260757 0.08101867
11000234000.0 0.9952425876 0.0660391554
11050233700.0 0.9969414561 0.0497859612
11100233400.0 0.99806665 0.0326201589
11150233100.0 0.9993349587 0.0162614304
11200232800.0 0.9998864793 0.0006427831
11250232500.0 1.000469325 -0.0149214484
11300232200.0 1.000874356 -0.0332107728
11350231900.0 1.000913828 -0.049091264
11400231600.0 1.000740708 -0.0646768868
11450231300.0 1.000527696 -0.0804332392
11500231000.0 0.9991710801 -0.097469675
11550230700.0 0.9971298734 -0.1103343713
11600230400.0 0.9958176689 -0.1230942845
11650230100.0 0.9937929211 -0.1350614956
11700229800.0 0.9922224499 -0.1503400019
11750229500.0 0.9896847539 -0.1645726633
11800229200.0 0.9868937093 -0.1786782844
11850228900.0 0.9834597884 -0.1912115034
11900228600.0 0.9800083533 -0.2011866904
11950228300.0 0.9768265885 -0.2116102942
12000228000.0 0.9738780824 -0.2211211667
12050227700.0 0.9703308317 -0.2341887463
12100227400.0 0.9672419159 -0.2447080856
12150227100.0 0.9627538124 -0.261031784
12200226800.0 0.9583769397 -0.2725441912
12250226500.0 0.9549252601 -0.2850814707
12300226200.0 0.9503364682 -0.2969582864
12350225900.0 0.9453993916 -0.3106579121
12400225600.0 0.9415213291 -0.3235948045
12450225300.0 0.9370153107 -0.3355675198
12500225000.0 0.931896934 -0.3503561866
12550224700.0 0.9264353357 -0.364039752
12600224400.0 0.9218030492 -0.3764687262
12650224100.0 0.9159013669 -0.3904705633
12700223800.0 0.9105952398 -0.4031499632
12750223500.0 0.9050318977 -0.4161308298
12800223200.0 0.89989454 -0.428478762
12850222900.0 0.8944743972 -0.4409466761
12900222600.0 0.8886814875 -0.4528002943
12950222300.0 0.8824572027 -0.4661533042
13000222000.0 0.8762651785 -0.4767435311
13050221700.0 0.8695144516 -0.4895334284
13100221400.0 0.8627374855 -0.5024787554
13150221100.0 0.8554269611 -0.5146642646
13200220800.0 0.8485148526 -0.5261734739
13250220500.0 0.8410510679 -0.5384641086
13300220200.0 0.8336095746 -0.5494791225
13350219900.0 0.825366427 -0.5615976199
13400219600.0 0.816868376 -0.5739147699
13450219300.0 0.8072862642 -0.5877100826
13500219000.0 0.7970278732 -0.6016119828
13550218700.0 0.7865426745 -0.6147320458
13600218400.0 0.7768056329 -0.6265764891
13650218100.0 0.7671492603 -0.6375224281
13700217800.0 0.7555483091 -0.6503033141
13750217500.0 0.745537301 -0.6617703392
13800217200.0 0.734737815 -0.6730127621
13850216900.0 0.7237856378 -0.6850852292
13900216600.0 0.7140283786 -0.6935858982
13950216300.0 0.7029259785 -0.7034073269
14000216000.0 0.6929340737 -0.7124680902
14050215700.0 0.6836268096 -0.7209530776
14100215400.0 0.6733999348 -0.7300742177
14150215100.0 0.6644356542 -0.7386326338
14200214800.0 0.655436315 -0.7468493159
14250214500.0 0.6453140667 -0.7560897621
14300214200.0 0.6351999403 -0.7650251506
14350213900.0 0.6241133602 -0.7746047007
14400213600.0 0.6124892971 -0.7839341866
14450213300.0 0.5996187684 -0.7943047191
14500213000.0 0.5863346818 -0.8039921893
14550212700.0 0.5738542159 -0.8134539505
14600212400.0 0.561579068 -0.8219480038
14650212100.0 0.5489487307 -0.8306511324
14700211800.0 0.5352030555 -0.8398518217
14750211500.0 0.5227988789 -0.848267641
14800211200.0 0.510308464 -0.8564310259
14850210900.0 0.498167718 -0.8636942587
14900210600.0 0.484701794 -0.8718638094
14950210300.0 0.4712007287 -0.8795557946
15000210000.0 0.458061274 -0.8861752548
15050209700.0 0.4452616005 -0.8924989564
15100209400.0 0.4324206363 -0.8985574335
15150209100.0 0.4200862047 -0.9039533591
15200208800.0 0.4069521395 -0.9097159639
15250208500.0 0.3958345954 -0.9141170032
15300208200.0 0.3832123455 -0.9195960357
15350207900.0 0.3696543721 -0.923800477
15400207600.0 0.3555096794 -0.9293995281
15450207300.0 0.3402881846 -0.9348115873
15500207000.0 0.3254394015 -0.9389241469
15550206700.0 0.3109426802 -0.9439557313
15600206400.0 0.2944408758 -0.9485520073
15650206100.0 0.2792933883 -0.9529890154
15700205800.0 0.2650942449 -0.956100981
15750205500.0 0.2506680423 -0.9596104434
15800205200.0 0.2364197696 -0.9631677342
15850204900.0 0.222191724 -0.9666387605
15900204600.0 0.2073226879 -0.9700110849
15950204300.0 0.1936581877 -0.9729585189
16000204000.0 0.1797000776 -0.9755186503
16050203700.0 0.1647048837 -0.9785141418
16100203400.0 0.1505125941 -0.9804698631
16150203100.0 0.1367173416 -0.982391209
16200202800.0 0.1226598231 -0.9849908464
16250202500.0 0.1081227543 -0.9860871788
16300202200.0 0.0927006178 -0.9878631869
16350201900.0 0.077684198 -0.9896789066
16400201600.0 0.0631271909 -0.9903972811
16450201300.0 0.0483105916 -0.9912642248
16500201000.0 0.0315815772 -0.9920807374
16550200700.0 0.0161880027 -0.9924881612
16600200400.0 7.54216e-05 -0.9927854231
16650200100.0 -0.016239745 -0.9925733447
16700199800.0 -0.0327499724 -0.9919456802
16750199500.0 -0.0514209161 -0.9915224823
16800199200.0 -0.0676717195 -0.9905802001
16850198900.0 -0.0830851124 -0.9896825647
16900198600.0 -0.0965806099 -0.9884514746
16950198300.0 -0.1104306022 -0.9874756872
17000198000.0 -0.1238728313 -0.9855920858
17050197700.0 -0.1364392018 -0.9836954677
17100197400.0 -0.1498362403 -0.9820662532
17150197100.0 -0.1625626345 -0.9797361115
17200196800.0 -0.1753303703 -0.9773071474
17250196500.0 -0.1882620471 -0.9749920169
17300196200.0 -0.20038534 -0.9726936433
17350195900.0 -0.2124448424 -0.9702289456
17400195600.0 -0.2245789454 -0.9678519276
17450195300.0 -0.2377260854 -0.9648443412
17500195000.0 -0.2512645897 -0.9616366353
17550194700.0 -0.264783544 -0.9581434483
17600194400.0 -0.2787170825 -0.9541372145
17650194100.0 -0.2925885497 -0.9497131633
17700193800.0 -0.3051974933 -0.9458149427
17750193500.0 -0.3196697448 -0.9409966039
17800193200.0 -0.3337322925 -0.9360218136
17850192900.0 -0.3488132354 -0.930390799
17900192600.0 -0.3635436757 -0.9243847735
17950192300.0 -0.3790322847 -0.9177492061
18000192000.0 -0.3933357042 -0.9101951642
18050191700.0 -0.4073516444 -0.9025275383
18100191400.0 -0.4213375024 -0.8950264996
18150191100.0 -0.4362058504 -0.8869808087
18200190800.0 -0.4528107432 -0.8778247418
18250190500.0 -0.4697827487 -0.8685269127
18300190200.0 -0.4847954891 -0.8599634382
18350189900.0 -0.4996846461 -0.8519039691
18400189600.0 -0.5146196338 -0.8429827208
18450189300.0 -0.5282731881 -0.8349278109
18500189000.0 -0.5413380087 -0.8271588988
18550188700.0 -0.5537756502 -0.819174709
18600188400.0 -0.5656848967 -0.8122502017
18650188100.0 -0.5770776387 -0.8054841469
18700187800.0 -0.5879778351 -0.7989396973
18750187500.0 -0.5987732805 -0.7918108044
18800187200.0 -0.6097479553 -0.7844993549
18850186900.0 -0.6201006407 -0.7770892826
18900186600.0 -0.6305656429 -0.7697879416
18950186300.0 -0.6409575788 -0.7619875736
19000186000.0 -0.6485174061 -0.7551345193
19050185700.0 -0.6578848579 -0.7475678491
19100185400.0 -0.6683024598 -0.7391335407
19150185100.0 -0.6782746461 -0.7302391683
19200184800.0 -0.687666567 -0.7214181221
19250184500.0 -0.6983254116 -0.7119027934
19300184200.0 -0.7089220045 -0.7027759814
19350183900.0 -0.7200703883 -0.6934947302
19400183600.0 -0.7294976323 -0.6835235045
19450183300.0 -0.7386233854 -0.6730492588
19500183000.0 -0.7465513019 -0.6632965788
19550182700.0 -0.7568576741 -0.6526331565
19600182400.0 -0.7667386 -0.6412532129
19650182100.0 -0.7776049287 -0.6288641097
19700181800.0 -0.7877395463 -0.6160473979
19750181500.0 -0.7978311054 -0.602520623
19800181200.0 -0.8078363289 -0.5876286137
19850180900.0 -0.8173424364 -0.5727625589
19900180600.0 -0.8250393997 -0.5584994978
19950180300.0 -0.8341461217 -0.5426636809
20000180000.0 -0.8280934837 -0.5437737654
20050179700.0 -0.8353525492 -0.5302659597
20100179400.0 -0.8444857199 -0.5173094987
20150179100.0 -0.8524601161 -0.5049369184
20200178800.0 -0.8608359128 -0.4920252777
20250178500.0 -0.8702514941 -0.4794884471
20300178200.0 -0.8793303485 -0.4644760994
20350177900.0 -0.8880234518 -0.4500254832
20400177600.0 -0.8966366219 -0.4357588123
20450177300.0 -0.9049381488 -0.4218393867
20500177000.0 -0.912730433 -0.4073595775
20550176700.0 -0.9204609985 -0.3938140392
20600176400.0 -0.9275712968 -0.380284529
20650176100.0 -0.934169188 -0.3675890293
20700175800.0 -0.9413866495 -0.3558942782
20750175500.0 -0.9481658028 -0.3440930812
20800175200.0 -0.9521712266 -0.3329032765
20850174900.0 -0.9570125037 -0.3209979287
20900174600.0 -0.9612035133 -0.3100476399
20950174300.0 -0.9658877892 -0.2986022836
21000174000.0 -0.970048042 -0.2856879076
21050173700.0 -0.9720284047 -0.274978291
21100173400.0 -0.9769543263 -0.2632868681
21150173100.0 -0.9808533431 -0.2500257886
21200172800.0 -0.9842505956 -0.2364468489
21250172500.0 -0.9874015443 -0.2225944906
21300172200.0 -0.9901209968 -0.2080242777
21350171900.0 -0.9917909041 -0.1938043429
21400171600.0 -0.9938384049 -0.1791760087
21450171300.0 -0.9934380133 -0.1648954392
21500171000.0 -0.9934250018 -0.1495943194
21550170700.0 -0.9937486223 -0.1345485721
21600170400.0 -0.9938770843 -0.1194221703
21650170100.0 -0.9926011465 -0.1039317294
21700169800.0 -0.9915960698 -0.0892053594
21750169500.0 -0.9900102215 -0.0722370021
21800169200.0 -0.9889822862 -0.0561826463
21850168900.0 -0.9886425681 -0.0404410059
21900168600.0 -0.9866208788 -0.0239699602
21950168300.0 -0.9847089952 -0.0082419865
22000168000.0 -0.9836486598 0.0063526172
22050167700.0 -0.9831013245 0.0203012709
22100167400.0 -0.9829823858 0.0353090799
22150167100.0 -0.983268052 0.0509465396
22200166800.0 -0.983758069 0.0668373012
22250166500.0 -0.9831083724 0.083765807
22300166200.0 -0.9824278604 0.0998306047
22350165900.0 -0.9812376588 0.1161355266
22400165600.0 -0.978645816 0.1332526426
22450165300.0 -0.9772000643 0.147319948
22500165000.0 -0.9745421163 0.1603940837
22550164700.0 -0.9737981067 0.1771276795
22600164400.0 -0.972204086 0.1913007267
22650164100.0 -0.9700153639 0.2070630324
22700163800.0 -0.967487384 0.2222796393
22750163500.0 -0.9649558892 0.2381272391
22800163200.0 -0.9620769315 0.2514673233
22850162900.0 -0.9595709466 0.2652593694
22900162600.0 -0.9581644912 0.2782828651
22950162300.0 -0.956725782 0.2910018241
23000162000.0 -0.9558581202 0.3028737111
23050161700.0 -0.9537343872 0.3154569133
23100161400.0 -0.9517334115 0.328203117
23150161100.0 -0.9487301793 0.3400512115
23200160800.0 -0.946044596 0.3528379815
23250160500.0 -0.9429187901 0.3640473274
23300160200.0 -0.9410628896 0.3763446177
23350159900.0 -0.9366454335 0.3894569636
23400159600.0 -0.9322139808 0.4023328662
23450159300.0 -0.9267987474 0.4153474226
23500159000.0 -0.9225690971 0.4277582542
23550158700.0 -0.9179866605 0.4412655641
23600158400.0 -0.9124086965 0.4542967582
23650158100.0 -0.9063590204 0.4681215125
23700157800.0 -0.8987838371 0.4818509819
23750157500.0 -0.8901569856 0.4953153034
23800157200.0 -0.8813469631 0.5085310351
23850156900.0 -0.8725679313 0.5208499848
23900156600.0 -0.8635056552 0.5340321233
23950156300.0 -0.8547739866 0.5465111673
24000156000.0 -0.8451737303 0.5579250691
24050155700.0 -0.8346561226 0.5701446975
24100155400.0 -0.8248688101 0.5811723226
24150155100.0 -0.8141034022 0.5936206047
24200154800.0 -0.803070619 0.6048940762
24250154500.0 -0.7912409599 0.6170744869
24300154200.0 -0.7802286595 0.6286393073
24350153900.0 -0.7688542049 0.6392934285
24400153600.0 -0.7564859095 0.6497004584
24450153300.0 -0.7448846137 0.6600004356
24500153000.0 -0.7337680815 0.6696140396
24550152700.0 -0.7224884131 0.6794213127
24600152400.0 -0.7106543579 0.6883986592
24650152100.0 -0.6988682165 0.6978649463
