!Created with skrf (http://scikit-rf.org).
# Hz S RI R 50.0 
!freq ReS11 ImS11
300000.0 -0.9755980614 -0.1169760859
50299700.0 -0.9999773573 0.0153280604
100299400.0 -0.998128071 0.0282715927
150299100.0 -1.002644771 0.0452933813
200298800.0 -0.9996617829 0.0585228678
250298500.0 -0.9975698497 0.0721849999
300298200.0 -0.9859751138 0.0878544176
350297900.0 -0.994146154 0.0988165336
400297600.0 -0.993160366 0.1154365499
450297300.0 -0.9911102884 0.1289463282
500297000.0 -0.9894567297 0.1438214645
550296700.0 -0.9842316199 0.1563975074
600296400.0 -1.017308174 0.1897590583
650296100.0 -0.9821698547 0.1864603912
700295800.0 -0.9792151488 0.200591473
750295500.0 -0.9761781895 0.2145444316
800295200.0 -0.9729303377 0.2286056084
850294900.0 -0.9697148038 0.2424096223
900294600.0 -0.9657886464 0.256270293
950294300.0 -0.961923618 0.2697642191
1000294000.0 -0.9580611461 0.2838760727
1050293700.0 -0.9536616775 0.2978199002
1100293400.0 -0.9493955222 0.312211514
1150293100.0 -0.9455835822 0.324011967
1200292800.0 -0.9402982248 0.3384869569
1250292500.0 -0.9345806546 0.3516801492
1300292200.0 -0.9291412356 0.3648806778
1350291900.0 -0.9232966054 0.3788605708
1400291600.0 -0.9179998851 0.3921611957
1450291300.0 -0.9125961624 0.4044296205
1500291000.0 -0.9061241845 0.4177709049
1550290700.0 -0.8997987151 0.4311670981
1600290400.0 -0.8933292127 0.4441145238
1650290100.0 -0.8867496606 0.4562562864
1700289800.0 -0.8796851468 0.4697216583
1750289500.0 -0.8727389006 0.4820205423
1800289200.0 -0.8654742399 0.4949560076
1850288900.0 -0.858558122 0.5061903868
1900288600.0 -0.8508330309 0.5191635362
1950288300.0 -0.8427806563 0.5317269671
2000288000.0 -0.8353122295 0.5431223037
2050287700.0 -0.8271049787 0.5554381634
2100287400.0 -0.8193018767 0.5672690603
2150287100.0 -0.8105068295 0.5791333319
2200286800.0 -0.8027872695 0.5895542846
2250286500.0 -0.7941362783 0.6015567025
2300286200.0 -0.785194063 0.6134081894
2350285900.0 -0.7763864889 0.6240694388
2400285600.0 -0.767516343 0.6351663177
2450285300.0 -0.7588027426 0.6456737586
2500285000.0 -0.7490340422 0.6569394113
2550284700.0 -0.7401104594 0.6672539905
2600284400.0 -0.730707008 0.6772256277
2650284100.0 -0.7217972888 0.6877689093
2700283800.0 -0.7111051287 0.6983997009
2750283500.0 -0.7010717454 0.7087908237
2800283200.0 -0.6910571766 0.718689763
2850282900.0 -0.680835342 0.7285738284
2900282600.0 -0.6708261325 0.7382948756
2950282300.0 -0.6603275745 0.7473351617
3000282000.0 -0.6498188892 0.756929831
3050281700.0 -0.6383320807 0.7661034945
3100281400.0 -0.6266302116 0.7754401997
3150281100.0 -0.6148388543 0.7848988994
3200280800.0 -0.6033173527 0.7934218314
3250280500.0 -0.5923954874 0.8011018592
3300280200.0 -0.5812001637 0.808874793
3350279900.0 -0.5695072606 0.8163887036
3400279600.0 -0.5573416598 0.8241337182
3450279300.0 -0.5461297519 0.8312075184
3500279000.0 -0.5341467936 0.8382400789
3550278700.0 -0.5219035836 0.8457355941
3600278400.0 -0.5097953284 0.8527952714
3650278100.0 -0.4962720669 0.8603965729
3700277800.0 -0.4843243742 0.8666398952
3750277500.0 -0.4722327578 0.8732588458
3800277200.0 -0.4596989468 0.8798470454
3850276900.0 -0.4474907531 0.8857965563
3900276600.0 -0.4368142672 0.8914414808
3950276300.0 -0.4243796254 0.8976531812
4000276000.0 -0.4122483648 0.9033753647
4050275700.0 -0.3993858919 0.9094666167
4100275400.0 -0.3883024161 0.9149203607
4150275100.0 -0.3755670935 0.9207408455
4200274800.0 -0.3626449713 0.9263842804
4250274500.0 -0.3504365831 0.9311980116
4300274200.0 -0.3374308017 0.9365126494
4350273900.0 -0.3233928452 0.9419840573
4400273600.0 -0.3086631993 0.9473367394
4450273300.0 -0.2933986286 0.9523386026
4500273000.0 -0.2797914843 0.9566329548
4550272700.0 -0.2654615604 0.960846457
4600272400.0 -0.2500890777 0.9651691769
4650272100.0 -0.2383206463 0.9681936107
4700271800.0 -0.2250084061 0.971690378
4750271500.0 -0.2135207033 0.9745760562
4800271200.0 -0.201086326 0.9773032439
4850270900.0 -0.1869405662 0.9801627444
4900270600.0 -0.1732861032 0.9824063263
4950270300.0 -0.1587728742 0.9850902551
5000270000.0 -0.144618341 0.9874742057
5050269700.0 -0.1312088193 0.9886721034
5100269400.0 -0.1176344398 0.9902726961
5150269100.0 -0.1040478515 0.9920770288
5200268800.0 -0.090971727 0.9930018197
5250268500.0 -0.0776669555 0.9937965877
5300268200.0 -0.0648032352 0.9948904267
5350267900.0 -0.0523315011 0.9956464512
5400267600.0 -0.0361372534 0.9962814195
5450267300.0 -0.0228262386 0.9967330534
5500267000.0 -0.0078512865 0.9970291267
5550266700.0 0.0069780286 0.9972543939
5600266400.0 0.0224956458 0.9972993223
5650266100.0 0.0392076232 0.9970821078
5700265800.0 0.0538085592 0.9961934348
5750265500.0 0.0688325076 0.9955494812
5800265200.0 0.0828284257 0.9945595209
5850264900.0 0.0963289019 0.9937013067
5900264600.0 0.1126899354 0.9917783193
5950264300.0 0.1245713423 0.9902675089
6000264000.0 0.1388432303 0.9883475648
6050263700.0 0.1510599171 0.9869250419
6100263400.0 0.1635966465 0.9850938743
6150263100.0 0.1778584076 0.9827940327
6200262800.0 0.188258927 0.9809163217
6250262500.0 0.2009194202 0.9786278776
6300262200.0 0.2136371865 0.9758161643
6350261900.0 0.2268919279 0.9727598287
6400261600.0 0.2407009589 0.9694598104
6450261300.0 0.2521204542 0.9668288668
6500261000.0 0.264831161 0.9633020573
6550260700.0 0.2776804896 0.9593713907
6600260400.0 0.2910617347 0.9551376547
6650260100.0 0.3050957176 0.9508737396
6700259800.0 0.3172685375 0.94687774
6750259500.0 0.3308333341 0.9418773153
6800259200.0 0.3438380043 0.9365610463
6850258900.0 0.3561919825 0.9316054433
6900258600.0 0.368346709 0.9263777882
6950258300.0 0.3808764286 0.921085828
7000258000.0 0.3927843447 0.9158439937
7050257700.0 0.4050027289 0.909784819
7100257400.0 0.4177750763 0.9034946036
7150257100.0 0.4282058526 0.8982414135
7200256800.0 0.4408838779 0.8917907283
7250256500.0 0.452833765 0.8854347978
7300256200.0 0.4659846033 0.8785690278
7350255900.0 0.4784496297 0.8718086275
7400255600.0 0.4915153868 0.8642799953
7450255300.0 0.5072583498 0.8556587985
7500255000.0 0.5188803245 0.8485752803
7550254700.0 0.5323281233 0.8398118073
7600254400.0 0.5451955275 0.8315450208
7650254100.0 0.5567227289 0.8236557359
7700253800.0 0.5683950113 0.8156334742
7750253500.0 0.5799124263 0.8080881417
7800253200.0 0.590584873 0.8003697094
7850252900.0 0.6003889609 0.7934618526
7900252600.0 0.6118380219 0.7846577907
7950252300.0 0.6205856357 0.7782509217
8000252000.0 0.6308003528 0.7703830805
8050251700.0 0.6412084512 0.7621153747
8100251400.0 0.6511487408 0.7542116635
8150251100.0 0.6614155489 0.7455329533
8200250800.0 0.6710695636 0.7373953863
8250250500.0 0.6797028423 0.7294883186
8300250200.0 0.6890876499 0.7209114502
8350249900.0 0.6980958904 0.7121309362
8400249600.0 0.7064173583 0.7043289452
8450249300.0 0.7155853072 0.6950647328
8500249000.0 0.7239458864 0.686209345
8550248700.0 0.7323228626 0.6769610678
8600248400.0 0.7407322861 0.6675845423
8650248100.0 0.7485273133 0.6582151799
8700247800.0 0.7580069995 0.6469321946
8750247500.0 0.7663221147 0.6367996427
8800247200.0 0.7744980942 0.6266326316
8850246900.0 0.7831335759 0.6150422262
8900246600.0 0.7916945949 0.6038627991
8950246300.0 0.8015437027 0.5907573015
9000246000.0 0.8103618469 0.5780182014
9050245700.0 0.8196391379 0.5650284272
9100245400.0 0.828310859 0.5525808177
9150245100.0 0.8373871683 0.5388729725
9200244800.0 0.8474007977 0.5237978852
9250244500.0 0.8569106827 0.508547587
9300244200.0 0.8651659957 0.4938443851
9350243900.0 0.8729264488 0.4799762757
9400243600.0 0.8796630382 0.4676095951
9450243300.0 0.885508156 0.4560396135
9500243000.0 0.8917990367 0.4440064241
9550242700.0 0.8954833369 0.4361189178
9600242400.0 0.8995917724 0.4288333032
9650242100.0 0.9030230829 0.4224235238
9700241800.0 0.9077611604 0.414270725
9750241500.0 0.9115007449 0.40685527
9800241200.0 0.9165699561 0.3976459638
9850240900.0 0.9220819158 0.3857187557
9900240600.0 0.9278268763 0.3742181969
9950240300.0 0.9345558981 0.3577906981
10000240000.0 0.9386397395 0.3466152251
10050239700.0 0.9448686124 0.3311905585
10100239400.0 0.9498460807 0.3156854325
10150239100.0 0.9542666177 0.3008222411
10200238800.0 0.9583217846 0.2858156423
10250238500.0 0.961536653 0.2724814985
10300238200.0 0.9646870574 0.2584434871
10350237900.0 0.9674311963 0.2453867184
10400237600.0 0.969871395 0.2323373155
10450237300.0 0.9726924152 0.2183810039
10500237000.0 0.9747650987 0.2062161148
10550236700.0 0.976960748 0.1923296267
10600236400.0 0.9792286018 0.1786324855
10650236100.0 0.9813754481 0.1636025817
10700235800.0 0.9834240901 0.1516641076
10750235500.0 0.9856595041 0.1382824193
10800235200.0 0.9877347885 0.1244516404
10850234900.0 0.9897450448 0.1097055233
10900234600.0 0.9917081938 0.0953268979
10950234300.0 0.9933723516 0.0816338665
11000234000.0 0.9952859738 0.0666203923
11050233700.0 0.996933417 0.0501071097
11100233400.0 0.9986658227 0.0326196992
11150233100.0 0.9995233515 0.0168408298
11200232800.0 1.000263926 0.0010990538
11250232500.0 1.001570851 -0.0152789392
11300232200.0 1.00187323 -0.0331529611
11350231900.0 1.001607227 -0.0490021031
11400231600.0 1.001465642 -0.0643884123
11450231300.0 1.000894834 -0.0800766316
11500231000.0 0.9999022063 -0.0959596503
11550230700.0 0.9989032368 -0.1097949804
11600230400.0 0.996874951 -0.1216159605
11650230100.0 0.9949699022 -0.1330485733
11700229800.0 0.9930928032 -0.1488219345
11750229500.0 0.9906777697 -0.1628331507
11800229200.0 0.9880797772 -0.1765673996
11850228900.0 0.9845842174 -0.1888655211
11900228600.0 0.9810092765 -0.1983224193
11950228300.0 0.9778339532 -0.2089715007
12000228000.0 0.9747074066 -0.2177752918
12050227700.0 0.971126796 -0.2305884568
12100227400.0 0.9682226679 -0.2407967957
12150227100.0 0.9629020796 -0.2579274643
12200226800.0 0.9595018527 -0.2693132691
12250226500.0 0.9552174924 -0.2824160655
12300226200.0 0.9509094775 -0.2947032413
12350225900.0 0.9465864709 -0.3082715987
12400225600.0 0.9415608198 -0.3205466867
12450225300.0 0.9377688023 -0.3339025951
12500225000.0 0.9317590809 -0.3484200984
12550224700.0 0.9270570034 -0.3626123642
12600224400.0 0.9219358968 -0.3753173352
12650224100.0 0.9160643363 -0.3896568189
12700223800.0 0.910839846 -0.4025387006
12750223500.0 0.9054813434 -0.4153117095
12800223200.0 0.9001696427 -0.4281351412
12850222900.0 0.8948057528 -0.4405011281
12900222600.0 0.8891291909 -0.4524109776
12950222300.0 0.8828545718 -0.46503357
13000222000.0 0.8767536307 -0.4766253967
13050221700.0 0.8701778974 -0.4894636239
13100221400.0 0.863305327 -0.5017314723
13150221100.0 0.8570627273 -0.5133483316
13200220800.0 0.8496519883 -0.5248283525
13250220500.0 0.8425066131 -0.5370192541
13300220200.0 0.8350385894 -0.5478442531
13350219900.0 0.8269304365 -0.5597654616
13400219600.0 0.8186604312 -0.571813177
13450219300.0 0.8092024621 -0.5854357234
13500219000.0 0.7992378606 -0.5991789385
13550218700.0 0.788775844 -0.61210454
13600218400.0 0.7781990976 -0.6241351823
13650218100.0 0.7695916289 -0.6347242844
13700217800.0 0.7582636043 -0.6470598595
13750217500.0 0.7478294095 -0.6588604898
13800217200.0 0.7376642968 -0.6704100615
13850216900.0 0.7256875996 -0.6817046281
13900216600.0 0.7158187518 -0.6900951716
13950216300.0 0.7056746871 -0.7012446227
14000216000.0 0.6950064333 -0.7107876064
14050215700.0 0.6855175914 -0.7192989036
14100215400.0 0.6756984316 -0.7282916447
14150215100.0 0.6666610854 -0.7366124767
14200214800.0 0.6573020319 -0.7450050677
14250214500.0 0.6470140017 -0.7544527837
14300214200.0 0.6366711251 -0.7637127706
14350213900.0 0.6255546864 -0.7732868006
14400213600.0 0.6134188292 -0.7832143614
14450213300.0 0.6007249568 -0.7934361886
14500213000.0 0.5875857072 -0.8031003665
14550212700.0 0.5751618909 -0.8131401642
14600212400.0 0.5621583412 -0.8216073631
14650212100.0 0.5494504031 -0.8301800979
14700211800.0 0.5357538613 -0.8395794034
14750211500.0 0.5230490254 -0.848050337
14800211200.0 0.5113781644 -0.8560960026
14850210900.0 0.4991263143 -0.8634568894
14900210600.0 0.4859245927 -0.8713518368
14950210300.0 0.4724562312 -0.8790928248
15000210000.0 0.459606961 -0.8858103181
15050209700.0 0.447212626 -0.8918912712
15100209400.0 0.4347077313 -0.8982091727
15150209100.0 0.4220294751 -0.9031120392
15200208800.0 0.4097689068 -0.9087735291
15250208500.0 0.3983660846 -0.9129803317
15300208200.0 0.3855984425 -0.9175465716
15350207900.0 0.3733768878 -0.9224258461
15400207600.0 0.3586748419 -0.9279022551
15450207300.0 0.3435912061 -0.9325284891
15500207000.0 0.3294822477 -0.9371636872
15550206700.0 0.3140972895 -0.9426775704
15600206400.0 0.2982603238 -0.9474329217
15650206100.0 0.2823409036 -0.9514852599
15700205800.0 0.2687627812 -0.9549437658
15750205500.0 0.2543496615 -0.958790545
15800205200.0 0.2397369298 -0.9622140765
15850204900.0 0.2254375411 -0.9656383809
15900204600.0 0.2102955243 -0.9691656522
15950204300.0 0.19620391 -0.9720765832
16000204000.0 0.1821150837 -0.9750172365
16050203700.0 0.1671603931 -0.9781855184
16100203400.0 0.1523873768 -0.9803476711
16150203100.0 0.1381679718 -0.9827841407
16200202800.0 0.1240492125 -0.9843721246
16250202500.0 0.1094683203 -0.9859831405
16300202200.0 0.0938697593 -0.987685638
16350201900.0 0.0789790933 -0.9892551465
16400201600.0 0.0645141966 -0.9901583337
16450201300.0 0.0490023331 -0.9911423317
16500201000.0 0.032279216 -0.9920068915
16550200700.0 0.0166709147 -0.9926724756
16600200400.0 0.0011819385 -0.9928387327
16650200100.0 -0.0150893625 -0.9927228472
16700199800.0 -0.03135012 -0.9926760316
16750199500.0 -0.0501913399 -0.9920037584
16800199200.0 -0.0656666077 -0.9906004915
16850198900.0 -0.0814098707 -0.989578533
16900198600.0 -0.0947353945 -0.9886185978
16950198300.0 -0.108018704 -0.9879348257
17000198000.0 -0.1206960517 -0.9864351872
17050197700.0 -0.1343921195 -0.9839078582
17100197400.0 -0.1470303123 -0.9821954837
17150197100.0 -0.159450176 -0.9803400643
17200196800.0 -0.172160777 -0.9778745351
17250196500.0 -0.1853288736 -0.9757892037
17300196200.0 -0.1974755649 -0.9735063893
17350195900.0 -0.2093279868 -0.9710733984
17400195600.0 -0.2213797388 -0.968545534
17450195300.0 -0.2344519984 -0.9658651605
17500195000.0 -0.248078694 -0.9624931653
17550194700.0 -0.2619259141 -0.9587979938
17600194400.0 -0.2758746005 -0.9549172628
17650194100.0 -0.2893720793 -0.9508980121
17700193800.0 -0.3024960983 -0.946183247
17750193500.0 -0.3173064721 -0.9420767528
17800193200.0 -0.3311540334 -0.9363838069
17850192900.0 -0.3461804278 -0.9311124608
17900192600.0 -0.3613994579 -0.9254739044
17950192300.0 -0.376912207 -0.9182398126
18000192000.0 -0.3919670519 -0.910955264
18050191700.0 -0.4055675103 -0.9030239902
18100191400.0 -0.4200487353 -0.8954428959
18150191100.0 -0.4348556019 -0.8872506245
18200190800.0 -0.4519134005 -0.8782643955
18250190500.0 -0.4688828114 -0.8686312952
18300190200.0 -0.4843520651 -0.8601128279
18350189900.0 -0.4991671174 -0.8517129303
18400189600.0 -0.5137633526 -0.843232654
18450189300.0 -0.5268651206 -0.8353927971
18500189000.0 -0.5402376896 -0.8279746407
18550188700.0 -0.552958594 -0.8200327243
18600188400.0 -0.5646209255 -0.8127247164
18650188100.0 -0.5756292823 -0.806617339
18700187800.0 -0.5863172842 -0.800001174
18750187500.0 -0.597192548 -0.7934285619
18800187200.0 -0.6075968002 -0.7865496309
18850186900.0 -0.6178322002 -0.7796819869
18900186600.0 -0.6281678218 -0.7720719531
18950186300.0 -0.6381245054 -0.7647731358
19000186000.0 -0.6455899407 -0.7582872763
19050185700.0 -0.6543896927 -0.7513278233
19100185400.0 -0.6646072996 -0.7433099289
19150185100.0 -0.6746924885 -0.7345422386
19200184800.0 -0.6841922438 -0.7256111336
19250184500.0 -0.6944716614 -0.7171948303
19300184200.0 -0.7066275005 -0.7077222311
19350183900.0 -0.7168864569 -0.6972926112
19400183600.0 -0.7262800329 -0.6877046892
19450183300.0 -0.7342975385 -0.677200871
19500183000.0 -0.7435603975 -0.6675212878
19550182700.0 -0.7535339931 -0.6568833977
19600182400.0 -0.7636258227 -0.6451577655
19650182100.0 -0.7746419922 -0.6325456858
19700181800.0 -0.7851589495 -0.6194019497
19750181500.0 -0.7958833766 -0.605339337
19800181200.0 -0.8062522111 -0.5902758775
19850180900.0 -0.8159511871 -0.5749641877
19900180600.0 -0.8236339565 -0.5604342493
19950180300.0 -0.8329204469 -0.5440852785
20000180000.0 -0.8261294865 -0.5463042879
20050179700.0 -0.834201521 -0.5328327452
20100179400.0 -0.8426935321 -0.5191100026
20150179100.0 -0.8512946752 -0.5068691949
20200178800.0 -0.8593809725 -0.4949421527
20250178500.0 -0.8691014927 -0.4816301708
20300178200.0 -0.8782030433 -0.4660691372
20350177900.0 -0.8876389184 -0.4517255419
20400177600.0 -0.8966101808 -0.4373185864
20450177300.0 -0.9048193832 -0.4233223387
20500177000.0 -0.9130882055 -0.4094358979
20550176700.0 -0.920849284 -0.3959194185
20600176400.0 -0.9276699417 -0.3826671229
20650176100.0 -0.9339414369 -0.3702451905
20700175800.0 -0.9417486602 -0.358577938
20750175500.0 -0.9475014884 -0.3469378101
20800175200.0 -0.9524297669 -0.3356197764
20850174900.0 -0.9578783953 -0.3253518703
20900174600.0 -0.9622023706 -0.3145089874
20950174300.0 -0.9660478842 -0.3015667174
21000174000.0 -0.9694977033 -0.2906290723
21050173700.0 -0.9717130164 -0.2801686632
21100173400.0 -0.9756609203 -0.2681032074
21150173100.0 -0.9796716713 -0.255671806
21200172800.0 -0.983668851 -0.2421482665
21250172500.0 -0.9866077595 -0.2283344216
21300172200.0 -0.9892154335 -0.2141384825
21350171900.0 -0.9909407782 -0.1997897707
21400171600.0 -0.9923955687 -0.1855355138
21450171300.0 -0.9921242561 -0.1713856212
21500171000.0 -0.9925410079 -0.1556787841
21550170700.0 -0.9925877191 -0.1402324516
21600170400.0 -0.9929934691 -0.1253974938
21650170100.0 -0.9921348918 -0.1096092602
21700169800.0 -0.9903250821 -0.0949121016
21750169500.0 -0.98879136 -0.0780697337
21800169200.0 -0.9892351868 -0.0613715064
21850168900.0 -0.9869946505 -0.044726076
21900168600.0 -0.9860703188 -0.0290192031
21950168300.0 -0.9842456039 -0.0126199415
22000168000.0 -0.9839859416 0.0024135891
22050167700.0 -0.9838597043 0.0166710086
22100167400.0 -0.9836717318 0.0317567255
22150167100.0 -0.9843115096 0.0475183142
22200166800.0 -0.9849048414 0.0631203585
22250166500.0 -0.9837992772 0.0816091881
22300166200.0 -0.9836665235 0.0974799887
22350165900.0 -0.9821123279 0.1142785404
22400165600.0 -0.979774459 0.1290299135
22450165300.0 -0.9785321757 0.1442346804
22500165000.0 -0.9779994091 0.1580243652
22550164700.0 -0.9747002039 0.1733656068
22600164400.0 -0.9738601355 0.1891364826
22650164100.0 -0.9713866676 0.2038848402
22700163800.0 -0.9685552012 0.2195728351
22750163500.0 -0.9662210073 0.2355812557
22800163200.0 -0.9638072955 0.2484477415
22850162900.0 -0.9610778945 0.2619125228
22900162600.0 -0.9601136112 0.2754546238
22950162300.0 -0.9588314017 0.2883121324
23000162000.0 -0.9577353321 0.2998263687
23050161700.0 -0.9559078607 0.3128718782
23100161400.0 -0.9528169875 0.3250309824
23150161100.0 -0.9508001218 0.3376384201
23200160800.0 -0.9472759554 0.3498047647
23250160500.0 -0.9442603318 0.3620264756
23300160200.0 -0.9423712682 0.3744294929
23350159900.0 -0.9381164535 0.3874022375
23400159600.0 -0.9339683507 0.4002649437
23450159300.0 -0.9294710227 0.4138232711
23500159000.0 -0.9242314489 0.4267585774
23550158700.0 -0.9196490036 0.4398740095
23600158400.0 -0.9143425733 0.4533309578
23650158100.0 -0.9078981415 0.467577704
23700157800.0 -0.9001899867 0.4815066355
23750157500.0 -0.891723205 0.4954772572
23800157200.0 -0.8829024189 0.5087709924
23850156900.0 -0.8737517289 0.5216321909
23900156600.0 -0.8641984635 0.5339411278
23950156300.0 -0.8549904302 0.5471608259
24000156000.0 -0.8467583057 0.558672663
24050155700.0 -0.8365104995 0.5709183544
24100155400.0 -0.8260874667 0.5825753681
24150155100.0 -0.815797058 0.5944122251
24200154800.0 -0.8040496433 0.6060678399
24250154500.0 -0.7938386472 0.6171390729
24300154200.0 -0.7815427342 0.6291158672
24350153900.0 -0.7700493077 0.638921274
24400153600.0 -0.7580422531 0.6494343987
24450153300.0 -0.7462209803 0.6594316174
24500153000.0 -0.7348437422 0.6692141288
24550152700.0 -0.7229403555 0.6788104558
24600152400.0 -0.7113396052 0.6873187671
