!Created with skrf (http://scikit-rf.org).
# Hz S RI R 50.0 
!freq ReS11 ImS11
300000.0 -0.9728095728 -0.1199246181
50299700.0 -0.9998349426 0.0150553384
100299400.0 -0.997837675 0.027895362
150299100.0 -1.002768702 0.0449442247
200298800.0 -0.9995601179 0.0581068644
250298500.0 -0.997260698 0.0716550511
300298200.0 -0.985926091 0.0875432547
350297900.0 -0.993947282 0.0984371853
400297600.0 -0.9930669722 0.1148826613
450297300.0 -0.9908507032 0.1286427285
500297000.0 -0.9892767359 0.1434219138
550296700.0 -0.9842254953 0.1560244871
600296400.0 -1.017238771 0.1891562939
650296100.0 -0.9821323043 0.1858854722
700295800.0 -0.9791226233 0.200068749
750295500.0 -0.9762591203 0.2140056044
800295200.0 -0.9730219686 0.2282454252
850294900.0 -0.9696776823 0.2419409188
900294600.0 -0.965901034 0.25545297
950294300.0 -0.9620012183 0.2692555614
1000294000.0 -0.9579679602 0.2833811916
1050293700.0 -0.9536201154 0.2969958767
1100293400.0 -0.949355166 0.3117872921
1150293100.0 -0.9455996297 0.3236016668
1200292800.0 -0.9402245352 0.3379888588
1250292500.0 -0.934647745 0.3511166015
1300292200.0 -0.9289104748 0.3646249017
1350291900.0 -0.923508291 0.3784732017
1400291600.0 -0.9179517573 0.3916979655
1450291300.0 -0.9126394554 0.4040113052
1500291000.0 -0.9063237788 0.4174860954
1550290700.0 -0.8998055961 0.4307359188
1600290400.0 -0.8934118189 0.4437520766
1650290100.0 -0.8867876445 0.455793857
1700289800.0 -0.8797912494 0.4692875335
1750289500.0 -0.8729204163 0.4815932124
1800289200.0 -0.8655242877 0.4945422318
1850288900.0 -0.8588242981 0.5058353734
1900288600.0 -0.8511572972 0.5188765893
1950288300.0 -0.843004676 0.5314214968
2000288000.0 -0.835416006 0.5427653835
2050287700.0 -0.8269707956 0.5551343649
2100287400.0 -0.8194320237 0.5668546026
2150287100.0 -0.8107465643 0.5787451789
2200286800.0 -0.8028766622 0.5892362608
2250286500.0 -0.7941043739 0.6014801999
2300286200.0 -0.7850518974 0.6128047358
2350285900.0 -0.7767857891 0.6236310343
2400285600.0 -0.7679001191 0.634510138
2450285300.0 -0.7591026706 0.6450416788
2500285000.0 -0.749111611 0.6567983955
2550284700.0 -0.7400861603 0.667233719
2600284400.0 -0.7311919049 0.6769258001
2650284100.0 -0.7222556287 0.6872757808
2700283800.0 -0.7116397042 0.6976552152
2750283500.0 -0.7015443733 0.7081619039
2800283200.0 -0.6915525571 0.7183564539
2850282900.0 -0.6809282078 0.7280912527
2900282600.0 -0.6707884994 0.7378443416
2950282300.0 -0.6603369086 0.7474306809
3000282000.0 -0.6494530863 0.7566719029
3050281700.0 -0.6383470969 0.7658455203
3100281400.0 -0.6267265065 0.7751016953
3150281100.0 -0.6154559587 0.7840250571
3200280800.0 -0.6039941123 0.7924522259
3250280500.0 -0.5928086017 0.8004829175
3300280200.0 -0.5813420114 0.8086069199
3350279900.0 -0.5693340033 0.8164860331
3400279600.0 -0.5568159376 0.8244923785
3450279300.0 -0.5454941302 0.8316262774
3500279000.0 -0.5336836349 0.8384960443
3550278700.0 -0.5217076332 0.8455983351
3600278400.0 -0.5099165028 0.8523793216
3650278100.0 -0.4966402339 0.8599547626
3700277800.0 -0.4846959077 0.8664806695
3750277500.0 -0.4720631092 0.8734409049
3800277200.0 -0.459627062 0.8797648324
3850276900.0 -0.4477082362 0.885695231
3900276600.0 -0.4368545649 0.8911993663
3950276300.0 -0.4247249164 0.8971464053
4000276000.0 -0.4129964221 0.9032794459
4050275700.0 -0.3999453061 0.9092638958
4100275400.0 -0.3892093477 0.914702032
4150275100.0 -0.3758169199 0.9204884021
4200274800.0 -0.3625803447 0.9260980146
4250274500.0 -0.3500850895 0.9311439013
4300274200.0 -0.336876677 0.9368495127
4350273900.0 -0.3227890412 0.9421904848
4400273600.0 -0.3077691925 0.9472601986
4450273300.0 -0.2929649023 0.9522387658
4500273000.0 -0.2797535321 0.9564124754
4550272700.0 -0.2660070076 0.9604274781
4600272400.0 -0.2507302028 0.9646191535
4650272100.0 -0.2395505192 0.9678579034
4700271800.0 -0.226446756 0.9711634438
4750271500.0 -0.2148373533 0.9740496831
4800271200.0 -0.2026240882 0.9767508295
4850270900.0 -0.1887347583 0.9795696625
4900270600.0 -0.1749061347 0.9820385401
4950270300.0 -0.1604712352 0.9847257195
5000270000.0 -0.1459474567 0.9866118627
5050269700.0 -0.1326184868 0.9884388024
5100269400.0 -0.1184794852 0.9901222033
5150269100.0 -0.1043252342 0.9914927494
5200268800.0 -0.0911037579 0.9929093177
5250268500.0 -0.0779339398 0.9934035644
5300268200.0 -0.0645649823 0.9943279475
5350267900.0 -0.0514722882 0.9952808762
5400267600.0 -0.0355004342 0.9963467903
5450267300.0 -0.0222174149 0.9966172786
5500267000.0 -0.0068520471 0.9969906282
5550266700.0 0.0078857312 0.9970548521
5600266400.0 0.0236473452 0.9970128837
5650266100.0 0.0401645138 0.9967270692
5700265800.0 0.0543123374 0.9958192713
5750265500.0 0.0696570555 0.9951437574
5800265200.0 0.0831461207 0.9941213892
5850264900.0 0.0963909004 0.9932019457
5900264600.0 0.1129984056 0.9911213067
5950264300.0 0.1247216037 0.9897010786
6000264000.0 0.1381624686 0.9880634117
6050263700.0 0.1500080163 0.9865814599
6100263400.0 0.1622328854 0.9846860879
6150263100.0 0.176862886 0.9825122766
6200262800.0 0.1864372017 0.9810474673
6250262500.0 0.199113485 0.9787829157
6300262200.0 0.2115265163 0.9762282643
6350261900.0 0.2242684575 0.9733434493
6400261600.0 0.2381992175 0.9700584526
6450261300.0 0.2492538872 0.9676529804
6500261000.0 0.2625283455 0.9639983413
6550260700.0 0.2757484649 0.9599532976
6600260400.0 0.2889467511 0.9561221862
6650260100.0 0.303018723 0.9515195788
6700259800.0 0.315265176 0.9469871352
6750259500.0 0.3285223729 0.9421284504
6800259200.0 0.3427648352 0.9374549429
6850258900.0 0.3547860919 0.9318076743
6900258600.0 0.3676482858 0.9266631765
6950258300.0 0.3798299012 0.9214320731
7000258000.0 0.3915156157 0.9162190611
7050257700.0 0.4033874576 0.9103570406
7100257400.0 0.416913709 0.9039930953
7150257100.0 0.4274326806 0.8986571145
7200256800.0 0.4406929474 0.8920836869
7250256500.0 0.4528567943 0.8853090782
7300256200.0 0.4659566787 0.8787599147
7350255900.0 0.4787536544 0.8718517525
7400255600.0 0.4924930489 0.864111552
7450255300.0 0.5084566214 0.8550410495
7500255000.0 0.5205423178 0.8474475259
7550254700.0 0.5349876426 0.8383491123
7600254400.0 0.5469506768 0.8299984356
7650254100.0 0.5590175948 0.8221357812
7700253800.0 0.5708066252 0.8143484568
7750253500.0 0.5817226168 0.8064867705
7800253200.0 0.5923193797 0.7989675899
7850252900.0 0.6019556542 0.7916056996
7900252600.0 0.6135228826 0.7828309474
7950252300.0 0.6220269087 0.7764455583
8000252000.0 0.6319165262 0.7687407431
8050251700.0 0.6423216941 0.7607429328
8100251400.0 0.6523777463 0.7527580588
8150251100.0 0.6623674496 0.7441363646
8200250800.0 0.6719676214 0.735997302
8250250500.0 0.6805466559 0.7280952068
8300250200.0 0.6896056695 0.719999933
8350249900.0 0.6988803712 0.7110652625
8400249600.0 0.7070711097 0.7027891655
8450249300.0 0.7156860744 0.6941479318
8500249000.0 0.7243827345 0.6854558202
8550248700.0 0.7325468115 0.6763473059
8600248400.0 0.7409362884 0.6668746533
8650248100.0 0.7485797118 0.6574819337
8700247800.0 0.7581435834 0.6463664495
8750247500.0 0.7664161204 0.6361927446
8800247200.0 0.7742879624 0.626061719
8850246900.0 0.7829554393 0.6146431397
8900246600.0 0.7915693633 0.6032808604
8950246300.0 0.8008109354 0.5905417018
9000246000.0 0.8095523194 0.5785332001
9050245700.0 0.8179968596 0.5658746718
9100245400.0 0.8264115624 0.5536123026
9150245100.0 0.8353213462 0.5406789564
9200244800.0 0.8447499859 0.5263047507
9250244500.0 0.8537680961 0.511670038
9300244200.0 0.8620900645 0.4977051015
9350243900.0 0.8694143047 0.4845867207
9400243600.0 0.8761125795 0.4727160434
9450243300.0 0.8817547681 0.4622921461
9500243000.0 0.8880773182 0.4504846992
9550242700.0 0.8920200962 0.4430061526
9600242400.0 0.8961387813 0.4355122357
9650242100.0 0.9003572954 0.4284104094
9700241800.0 0.9052048757 0.419957809
9750241500.0 0.9093975448 0.4122077342
9800241200.0 0.914058607 0.4026891272
9850240900.0 0.9200297833 0.3915369367
9900240600.0 0.9260106324 0.3795002158
9950240300.0 0.9330435311 0.3626002112
10000240000.0 0.9381691961 0.3504194283
10050239700.0 0.944324203 0.33447594
10100239400.0 0.9494570151 0.3182109915
10150239100.0 0.9538079351 0.3027481151
10200238800.0 0.9583439446 0.2872197556
10250238500.0 0.9614854734 0.2739547787
10300238200.0 0.9646847199 0.2601388095
10350237900.0 0.9675799487 0.246747766
10400237600.0 0.9701377034 0.2330599383
10450237300.0 0.9727955193 0.2197200535
10500237000.0 0.9748671653 0.2073223003
10550236700.0 0.9773030753 0.1926368689
10600236400.0 0.9794758513 0.1789624934
10650236100.0 0.9814187596 0.1646517826
10700235800.0 0.98372868 0.1522111588
10750235500.0 0.9859544508 0.1382590883
10800235200.0 0.988180642 0.1247941091
10850234900.0 0.9899900771 0.1092867504
10900234600.0 0.9920509653 0.0949729643
10950234300.0 0.9936391773 0.0812258343
11000234000.0 0.9956189847 0.065669133
11050233700.0 0.9972560994 0.0490790636
11100233400.0 0.9986058166 0.0312460406
11150233100.0 0.9996327796 0.0148945514
11200232800.0 1.000725384 -0.0015373961
11250232500.0 1.001617588 -0.0188721807
11300232200.0 1.002516483 -0.0371283184
11350231900.0 1.001991259 -0.0531640684
11400231600.0 1.002020271 -0.0686819033
11450231300.0 1.00072232 -0.0842580847
11500231000.0 0.9996733579 -0.1013491386
11550230700.0 0.9986543521 -0.1142249719
11600230400.0 0.9969240853 -0.1273045086
11650230100.0 0.9952646147 -0.1381762293
11700229800.0 0.9925741124 -0.153763045
11750229500.0 0.9902964407 -0.167767296
11800229200.0 0.9874296669 -0.1813434917
11850228900.0 0.9837484143 -0.1930041008
11900228600.0 0.980069847 -0.2026708313
11950228300.0 0.9765311767 -0.2127675876
12000228000.0 0.9736369207 -0.2221167461
12050227700.0 0.9701118772 -0.234516268
12100227400.0 0.9665830922 -0.2455920301
12150227100.0 0.9618857036 -0.2618719945
12200226800.0 0.9582688278 -0.2728868628
12250226500.0 0.9536635632 -0.2868060439
12300226200.0 0.9499651131 -0.297853118
12350225900.0 0.9449436353 -0.3122773997
12400225600.0 0.940589762 -0.3240831294
12450225300.0 0.9357712181 -0.3367414309
12500225000.0 0.9303142158 -0.351537784
12550224700.0 0.9249328588 -0.3651421949
12600224400.0 0.9201114251 -0.3779780002
12650224100.0 0.9143985467 -0.3923348433
12700223800.0 0.9092032671 -0.405087406
12750223500.0 0.9034555305 -0.4181353869
12800223200.0 0.8984294381 -0.4307125421
12850222900.0 0.8928151649 -0.4431648661
12900222600.0 0.8873338035 -0.454925671
12950222300.0 0.8812513364 -0.4680521132
13000222000.0 0.8753047517 -0.4787275743
13050221700.0 0.8679561453 -0.4928020754
13100221400.0 0.8614604888 -0.503918999
13150221100.0 0.8549847347 -0.5164587539
13200220800.0 0.8477438461 -0.5279869801
13250220500.0 0.8404415691 -0.5401347203
13300220200.0 0.8330501097 -0.5511347547
13350219900.0 0.8248824024 -0.563053027
13400219600.0 0.8164105526 -0.5748371277
13450219300.0 0.8069204038 -0.588137915
13500219000.0 0.7974420327 -0.6012016527
13550218700.0 0.7875693824 -0.6135342718
13600218400.0 0.7777714868 -0.6253095267
13650218100.0 0.7677233668 -0.6364336255
13700217800.0 0.7571927204 -0.647674392
13750217500.0 0.7476692621 -0.6602805109
13800217200.0 0.7371309368 -0.6706292744
13850216900.0 0.7255183839 -0.681142523
13900216600.0 0.7157174745 -0.6902033151
13950216300.0 0.7049704856 -0.7007643083
14000216000.0 0.6957724564 -0.7094631346
14050215700.0 0.6857317792 -0.7176469094
14100215400.0 0.6766301033 -0.7268181631
14150215100.0 0.6671587106 -0.7353343307
14200214800.0 0.6577886342 -0.7442081418
14250214500.0 0.647565798 -0.7536998627
14300214200.0 0.6370439435 -0.7631054712
14350213900.0 0.6260185222 -0.7727847208
14400213600.0 0.6141388734 -0.7826421615
14450213300.0 0.6006700153 -0.7928353512
14500213000.0 0.5879431181 -0.8029180597
14550212700.0 0.5757709249 -0.8119713418
14600212400.0 0.5632633296 -0.8209856114
14650212100.0 0.5505666271 -0.8297624474
14700211800.0 0.5367885426 -0.8390227799
14750211500.0 0.5251467351 -0.8473178747
14800211200.0 0.5123266942 -0.8554688407
14850210900.0 0.4999608033 -0.8630637945
14900210600.0 0.4865143385 -0.8709868055
14950210300.0 0.4733167537 -0.8786711753
15000210000.0 0.4606353981 -0.8854870565
15050209700.0 0.4483945384 -0.8917612909
15100209400.0 0.4355584032 -0.897099537
15150209100.0 0.4236408093 -0.9029454487
15200208800.0 0.409913594 -0.9081391598
15250208500.0 0.3995996303 -0.9130806381
15300208200.0 0.3875302691 -0.9172080168
15350207900.0 0.3741990232 -0.9222698707
15400207600.0 0.3599240444 -0.9278818171
15450207300.0 0.3445943313 -0.9327557496
15500207000.0 0.3300298077 -0.9374173869
15550206700.0 0.3154735257 -0.9420965577
15600206400.0 0.2996043337 -0.9471998452
15650206100.0 0.2835512098 -0.9506817884
15700205800.0 0.269828337 -0.9544889521
15750205500.0 0.2558983268 -0.9578280882
15800205200.0 0.2418371703 -0.9614690537
15850204900.0 0.2276343561 -0.9647750329
15900204600.0 0.2126958211 -0.9683528487
15950204300.0 0.1982136481 -0.9716015903
16000204000.0 0.1837037427 -0.9743370548
16050203700.0 0.1689140702 -0.977495454
16100203400.0 0.1538930144 -0.9799555139
16150203100.0 0.1391296257 -0.9820458549
16200202800.0 0.1251564294 -0.9842517992
16250202500.0 0.1105528052 -0.9857780909
16300202200.0 0.0951024278 -0.9877642401
16350201900.0 0.0798661114 -0.9890634019
16400201600.0 0.0651342982 -0.9899241755
16450201300.0 0.0498366293 -0.9912986626
16500201000.0 0.0327525805 -0.9918954017
16550200700.0 0.0166013014 -0.9924048297
16600200400.0 0.0007136622 -0.9926157958
16650200100.0 -0.0154721591 -0.9925015235
16700199800.0 -0.031625277 -0.9921245033
16750199500.0 -0.0514642266 -0.9909714886
16800199200.0 -0.0663575971 -0.9905696395
16850198900.0 -0.0823009572 -0.9889381096
16900198600.0 -0.0968099304 -0.9887590701
16950198300.0 -0.1097974757 -0.9873942229
17000198000.0 -0.1228036358 -0.9860513771
17050197700.0 -0.1355311864 -0.984381042
17100197400.0 -0.148665003 -0.9819369778
17150197100.0 -0.1609420608 -0.9794225207
17200196800.0 -0.1742246489 -0.9782052579
17250196500.0 -0.1869765308 -0.9757373308
17300196200.0 -0.1991481107 -0.9733050594
17350195900.0 -0.2109250338 -0.9709566879
17400195600.0 -0.222963886 -0.9682755501
17450195300.0 -0.2359112321 -0.9654421736
17500195000.0 -0.2491634759 -0.9619937602
17550194700.0 -0.2625386976 -0.9586990903
17600194400.0 -0.2768940921 -0.9546245431
17650194100.0 -0.2906124745 -0.9503403521
17700193800.0 -0.3033946111 -0.9462749177
17750193500.0 -0.3174968508 -0.9419037991
17800193200.0 -0.3319520309 -0.9367708454
17850192900.0 -0.3467859021 -0.9314390888
17900192600.0 -0.3618380146 -0.9252873017
17950192300.0 -0.3773766754 -0.9181049684
18000192000.0 -0.3921226452 -0.9107809978
18050191700.0 -0.4059465501 -0.9028408687
18100191400.0 -0.4199985734 -0.8949541474
18150191100.0 -0.4348627023 -0.8871812043
18200190800.0 -0.451887774 -0.8779193158
18250190500.0 -0.4687463279 -0.8686244561
18300190200.0 -0.484205325 -0.8596554989
18350189900.0 -0.4993711144 -0.8513100689
18400189600.0 -0.5140546604 -0.8426983692
18450189300.0 -0.527385024 -0.8345453721
18500189000.0 -0.5408793903 -0.8267583476
18550188700.0 -0.5535400786 -0.8193651256
18600188400.0 -0.5653858343 -0.8125398807
18650188100.0 -0.5768022716 -0.8057787733
18700187800.0 -0.5877652039 -0.799191587
18750187500.0 -0.5986421791 -0.7924484684
18800187200.0 -0.6091096901 -0.7856010499
18850186900.0 -0.6194269252 -0.7786382269
18900186600.0 -0.6295419096 -0.7712141404
18950186300.0 -0.639927175 -0.7635769981
19000186000.0 -0.647434121 -0.7570333373
19050185700.0 -0.6565865329 -0.7501080086
19100185400.0 -0.6670377904 -0.741528028
19150185100.0 -0.6767825638 -0.733729802
19200184800.0 -0.6861438795 -0.725270853
19250184500.0 -0.6960292629 -0.7161917216
19300184200.0 -0.7077042419 -0.7066211437
19350183900.0 -0.7183638172 -0.6969001502
19400183600.0 -0.7273982186 -0.6867036996
19450183300.0 -0.7375467559 -0.6767049096
19500183000.0 -0.7455337813 -0.6667281202
19550182700.0 -0.7551634504 -0.656156395
19600182400.0 -0.7654031376 -0.6441248811
19650182100.0 -0.7758958876 -0.6316838346
19700181800.0 -0.7864348505 -0.6186752287
19750181500.0 -0.7967887983 -0.6045462395
19800181200.0 -0.8071245721 -0.5895568362
19850180900.0 -0.8166782641 -0.5742376627
19900180600.0 -0.8242226162 -0.5598432678
19950180300.0 -0.8333053185 -0.5434184242
20000180000.0 -0.8234453861 -0.5471965855
20050179700.0 -0.8322444325 -0.5347041026
20100179400.0 -0.8410031027 -0.5212779764
20150179100.0 -0.8486072227 -0.5090636983
20200178800.0 -0.8564390362 -0.4970865243
20250178500.0 -0.8663833882 -0.4844210076
20300178200.0 -0.8758432725 -0.4710459089
20350177900.0 -0.8849068579 -0.4568719425
20400177600.0 -0.8941810004 -0.4426714358
20450177300.0 -0.9024799106 -0.4282272792
20500177000.0 -0.9106030839 -0.4139944906
20550176700.0 -0.9184265338 -0.4010491925
20600176400.0 -0.9254095846 -0.3881302667
20650176100.0 -0.9322472418 -0.3758651438
20700175800.0 -0.9387488269 -0.3639115025
20750175500.0 -0.9447723731 -0.3519291104
20800175200.0 -0.9496189242 -0.3414935875
20850174900.0 -0.9539243081 -0.3313697132
20900174600.0 -0.9583336791 -0.319696231
20950174300.0 -0.9625406721 -0.3088736395
21000174000.0 -0.9648526618 -0.2978940298
21050173700.0 -0.9663716081 -0.2875448422
21100173400.0 -0.9704336894 -0.2773714703
21150173100.0 -0.9741339224 -0.2647415691
21200172800.0 -0.9775683725 -0.2511287173
21250172500.0 -0.9812697463 -0.2380517514
21300172200.0 -0.984837952 -0.2243036139
21350171900.0 -0.9869348411 -0.2097985686
21400171600.0 -0.9892188992 -0.195101197
21450171300.0 -0.9895132286 -0.1811554723
21500171000.0 -0.9895564294 -0.1657633715
21550170700.0 -0.989709216 -0.1511288604
21600170400.0 -0.9913365573 -0.1358708766
21650170100.0 -0.9912735168 -0.1202126535
21700169800.0 -0.9902436402 -0.1044442867
21750169500.0 -0.9901247137 -0.089433203
21800169200.0 -0.9886991577 -0.0720658337
21850168900.0 -0.9896700372 -0.055585943
21900168600.0 -0.9889081744 -0.0384275593
21950168300.0 -0.9886219974 -0.0233752731
22000168000.0 -0.9882730797 -0.0086541142
22050167700.0 -0.9888933999 0.006386842
22100167400.0 -0.9891890031 0.021796528
22150167100.0 -0.9901204692 0.0379994968
22200166800.0 -0.9907066716 0.0544406981
22250166500.0 -0.9899447196 0.0720076162
22300166200.0 -0.9895766076 0.0876842045
22350165900.0 -0.988221 0.1043880156
22400165600.0 -0.9860504037 0.1201479097
22450165300.0 -0.9852233261 0.1354472133
22500165000.0 -0.9825976012 0.1493047585
22550164700.0 -0.9815729891 0.1651937193
22600164400.0 -0.979054104 0.1822322321
22650164100.0 -0.9769981919 0.1965635998
22700163800.0 -0.9745630786 0.2125685335
22750163500.0 -0.971655316 0.2270642334
22800163200.0 -0.9686717323 0.2399779881
22850162900.0 -0.9653654715 0.2545083996
22900162600.0 -0.9638680938 0.2682263045
22950162300.0 -0.9624696558 0.2819216549
23000162000.0 -0.9607465799 0.2942351627
23050161700.0 -0.9577662519 0.3072943586
23100161400.0 -0.9548850359 0.3209169032
23150161100.0 -0.9524633986 0.3334660848
23200160800.0 -0.9495647361 0.3464191101
23250160500.0 -0.9464583994 0.3592599033
23300160200.0 -0.9440090628 0.3720874888
23350159900.0 -0.9395997656 0.3855657148
23400159600.0 -0.9345399012 0.3986002186
23450159300.0 -0.9298644994 0.412537055
23500159000.0 -0.9244747785 0.4258508732
23550158700.0 -0.9200088859 0.4401010139
23600158400.0 -0.914071511 0.4538957808
23650158100.0 -0.9071973299 0.4684313675
23700157800.0 -0.89850984 0.4824971676
23750157500.0 -0.8896156742 0.4971949438
23800157200.0 -0.8796614343 0.5104784136
23850156900.0 -0.8708662486 0.5229554739
23900156600.0 -0.8604118398 0.5360564392
23950156300.0 -0.8505670986 0.5482477345
24000156000.0 -0.8414548185 0.5606343783
24050155700.0 -0.8304481441 0.572772231
24100155400.0 -0.821153468 0.5852940862
24150155100.0 -0.8088042 0.5977830874
24200154800.0 -0.7983954959 0.6084831897
24250154500.0 -0.7874060516 0.6210444972
24300154200.0 -0.7759254534 0.6330820733
24350153900.0 -0.7637215379 0.6441872064
24400153600.0 -0.7513576861 0.6546938252
24450153300.0 -0.7390201075 0.6649780065
24500153000.0 -0.7275097459 0.6751078775
24550152700.0 -0.7157875259 0.6849749246
24600152400.0 -0.7044130625 0.6946556837
24650152100.0 -0.6925254961 0.7033603725
