!Created with skrf (http://scikit-rf.org).
# Hz S RI R 50.0 
!freq ReS11 ImS11
300000.0 -0.9733786489 -0.1225442622
50299700.0 -0.9999816107 0.0149276078
100299400.0 -0.9979063701 0.0278647519
150299100.0 -1.002593643 0.0445661127
200298800.0 -0.999542535 0.0578881133
250298500.0 -0.9973760826 0.0715193786
300298200.0 -0.9859781547 0.0872960959
350297900.0 -0.9939326909 0.0982777169
400297600.0 -0.9931348613 0.1149859403
450297300.0 -0.9909394704 0.1286539738
500297000.0 -0.9894269838 0.1432622779
550296700.0 -0.9843288965 0.1556828013
600296400.0 -1.017471674 0.1889426405
650296100.0 -0.9821496487 0.1857901683
700295800.0 -0.9792518083 0.200001965
750295500.0 -0.9764001291 0.2140386267
800295200.0 -0.9728716488 0.2278436396
850294900.0 -0.969590202 0.2415993434
900294600.0 -0.9660012794 0.2556757256
950294300.0 -0.9619828427 0.2692437899
1000294000.0 -0.9581584298 0.2830219585
1050293700.0 -0.9536804781 0.2969753982
1100293400.0 -0.9492567716 0.3114941927
1150293100.0 -0.9455933783 0.3233963896
1200292800.0 -0.9401619108 0.3376702236
1250292500.0 -0.9346298326 0.3511124295
1300292200.0 -0.9290894797 0.3643931776
1350291900.0 -0.9235255346 0.3782855617
1400291600.0 -0.9177960952 0.391610292
1450291300.0 -0.9124644389 0.4038340637
1500291000.0 -0.9063639962 0.4172336736
1550290700.0 -0.8996892825 0.4307885599
1600290400.0 -0.8933160446 0.4436087709
1650290100.0 -0.8865950669 0.4557516318
1700289800.0 -0.8799905643 0.4691593235
1750289500.0 -0.8729086642 0.481516975
1800289200.0 -0.865643539 0.4943960743
1850288900.0 -0.858861588 0.505706618
1900288600.0 -0.8510507684 0.5184965759
1950288300.0 -0.8430907911 0.5311425033
2000288000.0 -0.835314092 0.5425279869
2050287700.0 -0.8272890757 0.5551016238
2100287400.0 -0.8194755128 0.5665255274
2150287100.0 -0.8110732554 0.5786236799
2200286800.0 -0.8031456268 0.5891252037
2250286500.0 -0.7941188777 0.6012235338
2300286200.0 -0.785516047 0.6128852505
2350285900.0 -0.7771997957 0.6231904814
2400285600.0 -0.7679844771 0.6342690184
2450285300.0 -0.7591438524 0.6446995157
2500285000.0 -0.7492758543 0.6564521184
2550284700.0 -0.7401821351 0.6669962471
2600284400.0 -0.730920418 0.6766802834
2650284100.0 -0.7224318997 0.6870506423
2700283800.0 -0.7121362092 0.6975485131
2750283500.0 -0.7015932638 0.7081544655
2800283200.0 -0.691855458 0.7180381283
2850282900.0 -0.6811877801 0.7283142463
2900282600.0 -0.6710238879 0.7378377775
2950282300.0 -0.6601491852 0.7470687638
3000282000.0 -0.6496065824 0.7565991628
3050281700.0 -0.6383236288 0.7659327186
3100281400.0 -0.6269438619 0.7748963542
3150281100.0 -0.6156627874 0.7838257953
3200280800.0 -0.604225395 0.792288804
3250280500.0 -0.593181056 0.8001888637
3300280200.0 -0.5815539824 0.8083460541
3350279900.0 -0.5692297355 0.8166111121
3400279600.0 -0.5566875228 0.8245256818
3450279300.0 -0.5456141916 0.8316947987
3500279000.0 -0.5339744943 0.8385121677
3550278700.0 -0.5216362223 0.8454842056
3600278400.0 -0.5100357798 0.8523867715
3650278100.0 -0.4969827385 0.8599866772
3700277800.0 -0.485037085 0.8665225678
3750277500.0 -0.4725213204 0.8731255914
3800277200.0 -0.4599340049 0.8797697467
3850276900.0 -0.4479893687 0.885703825
3900276600.0 -0.4368663809 0.8913294393
3950276300.0 -0.4247913187 0.897120823
4000276000.0 -0.4133220978 0.9030451073
4050275700.0 -0.4007273799 0.9090940201
4100275400.0 -0.3893983947 0.9145141855
4150275100.0 -0.3762032886 0.9203220327
4200274800.0 -0.3626771186 0.9260540038
4250274500.0 -0.3501538157 0.9312461053
4300274200.0 -0.3369379753 0.9366453619
4350273900.0 -0.3224645054 0.9422156843
4400273600.0 -0.3079120841 0.9471841235
4450273300.0 -0.2928125872 0.9521085815
4500273000.0 -0.2797329461 0.9564809633
4550272700.0 -0.2662172045 0.9604449662
4600272400.0 -0.2512388232 0.9646636733
4650272100.0 -0.2398262694 0.9677130056
4700271800.0 -0.2269688858 0.9712112357
4750271500.0 -0.215401179 0.9739117691
4800271200.0 -0.2030273155 0.9765572715
4850270900.0 -0.1893126527 0.9794550328
4900270600.0 -0.175542458 0.9819881125
4950270300.0 -0.1609998125 0.9846074043
5000270000.0 -0.1465277141 0.9867214139
5050269700.0 -0.1329895024 0.9882951964
5100269400.0 -0.1189099447 0.9901438379
5150269100.0 -0.1049435959 0.9918180464
5200268800.0 -0.0916122253 0.9929222793
5250268500.0 -0.0782829613 0.9941890683
5300268200.0 -0.0646518692 0.9948402298
5350267900.0 -0.0517692392 0.9953459475
5400267600.0 -0.0356507357 0.9962241188
5450267300.0 -0.0222425467 0.9965489511
5500267000.0 -0.007007064 0.9972361046
5550266700.0 0.0079286161 0.9972926153
5600266400.0 0.0237671454 0.9973597017
5650266100.0 0.040492026 0.9967647239
5700265800.0 0.0542875888 0.9955860494
5750265500.0 0.0694767401 0.9952698908
5800265200.0 0.0830134612 0.9941859013
5850264900.0 0.0961206445 0.9927805482
5900264600.0 0.1127817468 0.991356696
5950264300.0 0.1244920832 0.9896337809
6000264000.0 0.1377783249 0.9881404267
6050263700.0 0.149498794 0.9865417701
6100263400.0 0.1614800183 0.9848918901
6150263100.0 0.1764699725 0.9827442251
6200262800.0 0.1857139081 0.9811189496
6250262500.0 0.198350983 0.9786738684
6300262200.0 0.2105337468 0.9762581975
6350261900.0 0.2234356143 0.9734128059
6400261600.0 0.2373009774 0.9702636772
6450261300.0 0.2484741211 0.9678040142
6500261000.0 0.2617348423 0.9641740793
6550260700.0 0.2747715541 0.9600796653
6600260400.0 0.2884110728 0.956377293
6650260100.0 0.3028031324 0.9519525701
6700259800.0 0.3147947505 0.947445847
6750259500.0 0.3283385861 0.9425681321
6800259200.0 0.3422739634 0.9375831998
6850258900.0 0.35418189 0.9320674621
6900258600.0 0.3669887499 0.9268279269
6950258300.0 0.3794231546 0.9214255638
7000258000.0 0.3909933959 0.916635192
7050257700.0 0.402930065 0.910564128
7100257400.0 0.4164782032 0.9041802696
7150257100.0 0.4271542154 0.8987402934
7200256800.0 0.4403310882 0.8922498351
7250256500.0 0.4527355241 0.8854891015
7300256200.0 0.4655497944 0.8789592585
7350255900.0 0.4786676145 0.8719088694
7400255600.0 0.4926346051 0.8641822421
7450255300.0 0.5083772756 0.8549851114
7500255000.0 0.5208570543 0.8475463649
7550254700.0 0.5350903644 0.8382940903
7600254400.0 0.5474265614 0.8296742536
7650254100.0 0.5594589342 0.8219417347
7700253800.0 0.5710868176 0.8139594768
7750253500.0 0.5819178417 0.8063618028
7800253200.0 0.5927062989 0.798544361
7850252900.0 0.6022761886 0.7912509508
7900252600.0 0.6137362909 0.7828223
7950252300.0 0.6221058402 0.7762095407
8000252000.0 0.6321117361 0.7685319615
8050251700.0 0.6425615561 0.7605082036
8100251400.0 0.6525057043 0.7526434766
8150251100.0 0.662440354 0.74426595
8200250800.0 0.6716005136 0.7359488441
8250250500.0 0.6805226827 0.7280857354
8300250200.0 0.6898086971 0.719760496
8350249900.0 0.6991625107 0.710817676
8400249600.0 0.7069271548 0.7028175623
8450249300.0 0.7157541695 0.694231405
8500249000.0 0.7241466429 0.6855165085
8550248700.0 0.7325750655 0.6763087777
8600248400.0 0.7408052602 0.6668609491
8650248100.0 0.7484951487 0.6575094176
8700247800.0 0.7578370283 0.6466716607
8750247500.0 0.7661475868 0.6363822276
8800247200.0 0.7741285353 0.6260787747
8850246900.0 0.7827435849 0.6146873754
8900246600.0 0.7909381244 0.6033419951
8950246300.0 0.8001643129 0.590692041
9000246000.0 0.8087280825 0.5789570343
9050245700.0 0.8173618927 0.5663948744
9100245400.0 0.8257967889 0.5543330073
9150245100.0 0.8349312386 0.5414590475
9200244800.0 0.843608112 0.5270543028
9250244500.0 0.8529910633 0.5125331346
9300244200.0 0.8608961478 0.4989109566
9350243900.0 0.8687157263 0.4858043503
9400243600.0 0.8750187296 0.4741578885
9450243300.0 0.8807675449 0.4637554781
9500243000.0 0.8870073205 0.4520533953
9550242700.0 0.891123884 0.444712424
9600242400.0 0.8953183798 0.4371697625
9650242100.0 0.8994563462 0.4300544467
9700241800.0 0.9046170769 0.4214651524
9750241500.0 0.9088035928 0.4139810779
9800241200.0 0.9138344557 0.4044179442
9850240900.0 0.9198024016 0.3925762258
9900240600.0 0.9254371344 0.3808772532
9950240300.0 0.9329993973 0.3638927758
10000240000.0 0.9375484857 0.3520493777
10050239700.0 0.9439446002 0.3356234976
10100239400.0 0.9494373185 0.3192799314
10150239100.0 0.9540771049 0.303567869
10200238800.0 0.9582560368 0.2882001635
10250238500.0 0.9615054126 0.2745639794
10300238200.0 0.964697208 0.2605844706
10350237900.0 0.9674624352 0.2472417346
10400237600.0 0.9700752733 0.2335285827
10450237300.0 0.9727047364 0.2201274976
10500237000.0 0.9748405261 0.2078873129
10550236700.0 0.9774444004 0.1933708347
10600236400.0 0.9794620287 0.1794784596
10650236100.0 0.9819196294 0.1641676149
10700235800.0 0.9835234759 0.1528486683
10750235500.0 0.986049575 0.1391083794
10800235200.0 0.9877965174 0.1250150317
10850234900.0 0.9897571142 0.1097732429
10900234600.0 0.9919641258 0.0947841317
10950234300.0 0.9939286045 0.0813106231
11000234000.0 0.9956118113 0.0657308478
11050233700.0 0.9975102269 0.0488940996
11100233400.0 0.9989337134 0.0311352067
11150233100.0 0.9998619635 0.0141867829
11200232800.0 1.000682526 -0.0019465529
11250232500.0 1.002151619 -0.0199141565
11300232200.0 1.002174244 -0.0379692959
11350231900.0 1.002337472 -0.0537631833
11400231600.0 1.002168508 -0.0701120453
11450231300.0 1.00123282 -0.0851248037
11500231000.0 0.9998091688 -0.1019320703
11550230700.0 0.9983577306 -0.1147523907
11600230400.0 0.9976460522 -0.1279403812
11650230100.0 0.9952270009 -0.1397791251
11700229800.0 0.9927827927 -0.1546213972
11750229500.0 0.9901809277 -0.1686672533
11800229200.0 0.9873728002 -0.1815793782
11850228900.0 0.9836668786 -0.1935280119
11900228600.0 0.9799353963 -0.2030736669
11950228300.0 0.9765813498 -0.2130080301
12000228000.0 0.9737744287 -0.2218564788
12050227700.0 0.9698639549 -0.2340915609
12100227400.0 0.9673728227 -0.245101944
12150227100.0 0.9618816143 -0.2626030016
12200226800.0 0.9588431758 -0.2727812413
12250226500.0 0.9535427605 -0.2861463444
12300226200.0 0.9496673442 -0.2981828297
12350225900.0 0.9442187335 -0.3123946262
12400225600.0 0.9402763351 -0.3244080256
12450225300.0 0.9358331129 -0.3371481271
12500225000.0 0.9303533306 -0.3518268857
12550224700.0 0.9246877339 -0.3656160756
12600224400.0 0.9198777127 -0.378273635
12650224100.0 0.9141370548 -0.3927132023
12700223800.0 0.9087790587 -0.4053847374
12750223500.0 0.9033553332 -0.4185330679
12800223200.0 0.8978558734 -0.4312109547
12850222900.0 0.8925443664 -0.4435955836
12900222600.0 0.887366609 -0.454733103
12950222300.0 0.8810401392 -0.4679419256
13000222000.0 0.875225435 -0.4794343248
13050221700.0 0.8682518502 -0.4923646971
13100221400.0 0.8616789478 -0.5045631055
13150221100.0 0.8548378199 -0.5165531498
13200220800.0 0.8476180684 -0.5279069216
13250220500.0 0.8403877477 -0.5404045056
13300220200.0 0.8328399565 -0.5512361335
13350219900.0 0.8246873397 -0.5630414121
13400219600.0 0.8164041527 -0.5749512722
13450219300.0 0.8068894974 -0.5880130993
13500219000.0 0.7972943374 -0.6011036026
13550218700.0 0.7878610748 -0.6132268577
13600218400.0 0.7778100718 -0.6251341804
13650218100.0 0.7682917086 -0.6359446769
13700217800.0 0.7572763485 -0.6475816057
13750217500.0 0.7473363338 -0.6589392362
13800217200.0 0.7367520096 -0.6697151221
13850216900.0 0.7264630336 -0.681024055
13900216600.0 0.7155310986 -0.6903096126
13950216300.0 0.705513623 -0.7002018463
14000216000.0 0.6956835666 -0.7089768457
14050215700.0 0.6865931997 -0.7172032544
14100215400.0 0.6767285596 -0.7263398068
14150215100.0 0.6678673891 -0.7348452609
14200214800.0 0.6583596547 -0.743766427
14250214500.0 0.6479261756 -0.7532513911
14300214200.0 0.6374723276 -0.7626583673
14350213900.0 0.6265287946 -0.7723464626
14400213600.0 0.614403623 -0.7821216054
14450213300.0 0.6015978316 -0.7925394369
14500213000.0 0.5886566915 -0.8019307133
14550212700.0 0.5762466633 -0.8113950624
14600212400.0 0.5635929162 -0.8204279061
14650212100.0 0.5511398958 -0.8289823397
14700211800.0 0.5374841137 -0.8389622396
14750211500.0 0.525323356 -0.846756231
14800211200.0 0.5126863939 -0.8551317588
14850210900.0 0.5001167177 -0.862963927
14900210600.0 0.4868603419 -0.8708268534
14950210300.0 0.4737611379 -0.8784702032
15000210000.0 0.4613148462 -0.8851369624
15050209700.0 0.4486991328 -0.8911138342
15100209400.0 0.4363740209 -0.8973106911
15150209100.0 0.4242956166 -0.9024192514
15200208800.0 0.4113048891 -0.9077331837
15250208500.0 0.4003591369 -0.912510176
15300208200.0 0.3883178204 -0.9168705348
15350207900.0 0.3746079571 -0.9219629461
15400207600.0 0.3593578265 -0.927295628
15450207300.0 0.3449336288 -0.9326761615
15500207000.0 0.3310792546 -0.9364888485
15550206700.0 0.3157448595 -0.9421037826
15600206400.0 0.3000969846 -0.9459935804
15650206100.0 0.2842295281 -0.9507650474
15700205800.0 0.2702763824 -0.9542981563
15750205500.0 0.2568871816 -0.9575245168
15800205200.0 0.2428017764 -0.9610137075
15850204900.0 0.2284908394 -0.9645590987
15900204600.0 0.2136665766 -0.9683147177
15950204300.0 0.1990210193 -0.9713815954
16000204000.0 0.18427611 -0.9744043158
16050203700.0 0.1695494651 -0.977445581
16100203400.0 0.1543468483 -0.9794381728
16150203100.0 0.1394965022 -0.9819111068
16200202800.0 0.1251490695 -0.9842972227
16250202500.0 0.1103127391 -0.9853800586
16300202200.0 0.0951813308 -0.9877013895
16350201900.0 0.0801176842 -0.9890034664
16400201600.0 0.0654384862 -0.9899473442
16450201300.0 0.0499739754 -0.9911922054
16500201000.0 0.0329761355 -0.9921360383
16550200700.0 0.0168015007 -0.9924988781
16600200400.0 0.0006902409 -0.9926303846
16650200100.0 -0.0153003577 -0.9925446498
16700199800.0 -0.0318480489 -0.9923757424
16750199500.0 -0.0513474474 -0.9914144086
16800199200.0 -0.066830787 -0.9907805156
16850198900.0 -0.082409739 -0.9893185353
16900198600.0 -0.0963318115 -0.9882580573
16950198300.0 -0.1099031791 -0.9874844302
17000198000.0 -0.1228027963 -0.9855933332
17050197700.0 -0.1356294044 -0.9838630214
17100197400.0 -0.1489023702 -0.9819687493
17150197100.0 -0.1609279709 -0.9796280366
17200196800.0 -0.1740835946 -0.977861368
17250196500.0 -0.1870640089 -0.9754857217
17300196200.0 -0.1991536109 -0.9728995469
17350195900.0 -0.2110434582 -0.970594685
17400195600.0 -0.2231656122 -0.9680119448
17450195300.0 -0.2360255895 -0.9653947228
17500195000.0 -0.2492254401 -0.9618616395
17550194700.0 -0.2630460819 -0.9584268252
17600194400.0 -0.2768967807 -0.954562096
17650194100.0 -0.2904697853 -0.9505716152
17700193800.0 -0.3036517946 -0.9465821482
17750193500.0 -0.3175687125 -0.9418571751
17800193200.0 -0.332188095 -0.9365561577
17850192900.0 -0.3468859969 -0.9311066973
17900192600.0 -0.3616718932 -0.9249225727
17950192300.0 -0.377395586 -0.9178543401
18000192000.0 -0.3920721173 -0.9104359949
18050191700.0 -0.4059194523 -0.9025500342
18100191400.0 -0.4199593493 -0.8949904956
18150191100.0 -0.4349384299 -0.88693611
18200190800.0 -0.451756378 -0.8778734688
18250190500.0 -0.4685080193 -0.8681041989
18300190200.0 -0.48415172 -0.8595119046
18350189900.0 -0.4994509237 -0.8510641724
18400189600.0 -0.5138727214 -0.8426677918
18450189300.0 -0.5276931616 -0.8350841175
18500189000.0 -0.5408132745 -0.8268649948
18550188700.0 -0.5532168791 -0.8190066583
18600188400.0 -0.5655509624 -0.8124924874
18650188100.0 -0.5767958612 -0.8057387755
18700187800.0 -0.588004621 -0.7986866157
18750187500.0 -0.5986449308 -0.7921680792
18800187200.0 -0.6093534872 -0.7851794294
18850186900.0 -0.6192086839 -0.7782818003
18900186600.0 -0.6297346431 -0.7709388774
18950186300.0 -0.6398948318 -0.7633789379
19000186000.0 -0.6473946683 -0.7571187536
19050185700.0 -0.6564904326 -0.7497772282
19100185400.0 -0.6663987695 -0.7416481237
19150185100.0 -0.677108658 -0.7331633645
19200184800.0 -0.6857034134 -0.7249056984
19250184500.0 -0.6970384541 -0.7157150426
19300184200.0 -0.7079401068 -0.7060731818
19350183900.0 -0.718644144 -0.6963789149
19400183600.0 -0.7283992047 -0.6863884624
19450183300.0 -0.7374756719 -0.6767243578
19500183000.0 -0.746284127 -0.6666542285
19550182700.0 -0.7554869346 -0.6555227695
19600182400.0 -0.7657793742 -0.6438068878
19650182100.0 -0.776191127 -0.6320166787
19700181800.0 -0.7866782786 -0.6184160654
19750181500.0 -0.7970818889 -0.6042847992
19800181200.0 -0.807263638 -0.5893179168
19850180900.0 -0.8168633181 -0.574164516
19900180600.0 -0.8244730285 -0.5594378351
19950180300.0 -0.8338345153 -0.5433760907
20000180000.0 -0.8231578674 -0.5462619689
20050179700.0 -0.8317025784 -0.5337954
20100179400.0 -0.8396586544 -0.5212316173
20150179100.0 -0.8474859516 -0.5095919157
20200178800.0 -0.8567467384 -0.4979830653
20250178500.0 -0.8652977722 -0.4854079062
20300178200.0 -0.8749905254 -0.4709251881
20350177900.0 -0.88484673 -0.4578157441
20400177600.0 -0.8935005508 -0.4432815856
20450177300.0 -0.9016580889 -0.4293326323
20500177000.0 -0.9099801107 -0.4154114792
20550176700.0 -0.9180376078 -0.4018087365
20600176400.0 -0.9248307488 -0.3888138506
20650176100.0 -0.9310668732 -0.3774707684
20700175800.0 -0.9372150546 -0.3644469156
20750175500.0 -0.9447154829 -0.3530928781
20800175200.0 -0.949228804 -0.3426082461
20850174900.0 -0.9531589609 -0.3310041251
20900174600.0 -0.9578313385 -0.3207889803
20950174300.0 -0.9614388068 -0.3098187337
21000174000.0 -0.964532348 -0.2989078411
21050173700.0 -0.9659391078 -0.2894064522
21100173400.0 -0.9686657628 -0.2780708264
21150173100.0 -0.9728657409 -0.2670163391
21200172800.0 -0.9767543393 -0.2533271657
21250172500.0 -0.9804684025 -0.2396876383
21300172200.0 -0.983708367 -0.2258216622
21350171900.0 -0.9859973849 -0.2115953716
21400171600.0 -0.9883675948 -0.1977773172
21450171300.0 -0.9880850645 -0.1830777182
21500171000.0 -0.9890826183 -0.1685273606
21550170700.0 -0.9904790765 -0.1531511386
21600170400.0 -0.9906411351 -0.1383920206
21650170100.0 -0.9902060365 -0.1230302423
21700169800.0 -0.9896768918 -0.1067677288
21750169500.0 -0.990796159 -0.0909887443
21800169200.0 -0.9908947117 -0.0744497329
21850168900.0 -0.9902679783 -0.0574261337
21900168600.0 -0.9894596999 -0.0411377593
21950168300.0 -0.9897641257 -0.0254516286
22000168000.0 -0.9894915309 -0.0103848025
22050167700.0 -0.9898627012 0.0038382602
22100167400.0 -0.9904440675 0.019559598
22150167100.0 -0.9914528467 0.0357973838
22200166800.0 -0.9922713427 0.0526201916
22250166500.0 -0.9908038189 0.0697855688
22300166200.0 -0.9907687905 0.0858854185
22350165900.0 -0.9893132284 0.1023785058
22400165600.0 -0.9883951233 0.1181452809
22450165300.0 -0.9861488639 0.1331379763
22500165000.0 -0.9854223389 0.1474886778
22550164700.0 -0.9833744641 0.1637754492
22600164400.0 -0.9821530847 0.1803044927
22650164100.0 -0.9790296701 0.195212728
22700163800.0 -0.9751773248 0.2118297205
22750163500.0 -0.9723170342 0.2264920884
22800163200.0 -0.9697672551 0.2392805729
22850162900.0 -0.9667240647 0.253167916
22900162600.0 -0.9647278855 0.2667469996
22950162300.0 -0.9631558231 0.2806989314
23000162000.0 -0.9610890993 0.2934406821
23050161700.0 -0.9585331595 0.3066695973
23100161400.0 -0.9558720586 0.3203645945
23150161100.0 -0.9530873202 0.3333985492
23200160800.0 -0.9500439714 0.3462299278
23250160500.0 -0.9477058501 0.3583398417
23300160200.0 -0.9445522374 0.3707376573
23350159900.0 -0.9403626865 0.3846323207
23400159600.0 -0.935258512 0.3989283789
23450159300.0 -0.9298997824 0.4120520841
23500159000.0 -0.9252128394 0.4263517365
23550158700.0 -0.9199912909 0.4400773727
23600158400.0 -0.9138507091 0.4541038177
23650158100.0 -0.9066340546 0.4689142412
23700157800.0 -0.8981837123 0.4833078449
23750157500.0 -0.888709165 0.4975567999
23800157200.0 -0.8787615273 0.510944672
23850156900.0 -0.8692516317 0.5243193919
23900156600.0 -0.8584504525 0.5366190063
23950156300.0 -0.8494026615 0.5489324807
24000156000.0 -0.840053419 0.5615170112
24050155700.0 -0.829248848 0.5737769455
24100155400.0 -0.8183224053 0.5865212533
24150155100.0 -0.8083738483 0.5988845047
24200154800.0 -0.7969694759 0.610521896
24250154500.0 -0.7856934528 0.6227959456
24300154200.0 -0.7741598354 0.634337697
24350153900.0 -0.7621383424 0.6458233636
24400153600.0 -0.7495553232 0.6563813868
24450153300.0 -0.7374558599 0.6664845536
24500153000.0 -0.726016914 0.6764675771
24550152700.0 -0.7143418779 0.6870469001
24600152400.0 -0.7023121618 0.6966961848
24650152100.0 -0.6903748291 0.7052309704
