!Created with skrf (http://scikit-rf.org).
# Hz S RI R 50.0 
!freq ReS11 ImS11
300000.0 -0.9746871619 -0.1218055024
50299700.0 -1.00011704 0.015106069
100299400.0 -0.9979482784 0.0280819422
150299100.0 -1.002807537 0.04502245
200298800.0 -0.9995352778 0.0583606765
250298500.0 -0.9973840791 0.071698106
300298200.0 -0.9859367854 0.0876047477
350297900.0 -0.9939737159 0.0984306491
400297600.0 -0.9930857854 0.1149669049
450297300.0 -0.9912986593 0.1289117024
500297000.0 -0.9894723949 0.1437265134
550296700.0 -0.9843901233 0.1560618792
600296400.0 -1.017394716 0.1895597312
650296100.0 -0.9823773845 0.1859273567
700295800.0 -0.9794662089 0.2000491293
750295500.0 -0.9763118193 0.2143178996
800295200.0 -0.972968352 0.2283023524
850294900.0 -0.9696355432 0.2422361052
900294600.0 -0.965763139 0.2560271927
950294300.0 -0.9620882597 0.2697151512
1000294000.0 -0.9580723567 0.2836913279
1050293700.0 -0.9536071212 0.2973998059
1100293400.0 -0.9492131338 0.3118402317
1150293100.0 -0.9454123682 0.3236617856
1200292800.0 -0.9404104625 0.3379926766
1250292500.0 -0.9346447353 0.3516058511
1300292200.0 -0.9290531615 0.3647190516
1350291900.0 -0.9236591076 0.378713827
1400291600.0 -0.9179964082 0.3918594959
1450291300.0 -0.9125131449 0.4042989336
1500291000.0 -0.9061890322 0.4175933665
1550290700.0 -0.8996628779 0.4309297198
1600290400.0 -0.893390795 0.4439792184
1650290100.0 -0.8867704766 0.4559373749
1700289800.0 -0.8798974165 0.4693551123
1750289500.0 -0.8728089577 0.4817793946
1800289200.0 -0.8657648684 0.4946169919
1850288900.0 -0.8587663144 0.506004571
1900288600.0 -0.851098748 0.5189763625
1950288300.0 -0.8427612403 0.5314806129
2000288000.0 -0.8354038343 0.5429137285
2050287700.0 -0.8270729357 0.5552559957
2100287400.0 -0.8193414616 0.5668539624
2150287100.0 -0.8106785664 0.5788162763
2200286800.0 -0.8031681779 0.5893005377
2250286500.0 -0.7941834383 0.6012620096
2300286200.0 -0.7851680459 0.6128415021
2350285900.0 -0.7766357688 0.6239323225
2400285600.0 -0.767671514 0.6348551364
2450285300.0 -0.7591479639 0.6452103837
2500285000.0 -0.7495292234 0.6567291569
2550284700.0 -0.740505192 0.6667756789
2600284400.0 -0.7310104387 0.677169758
2650284100.0 -0.7222151318 0.687637259
2700283800.0 -0.7115234999 0.6980313105
2750283500.0 -0.7010874837 0.7084069288
2800283200.0 -0.6915956253 0.7184630783
2850282900.0 -0.6811089215 0.7281792878
2900282600.0 -0.6707001704 0.7378096579
2950282300.0 -0.6607356921 0.7474537326
3000282000.0 -0.6496489557 0.7566468836
3050281700.0 -0.6385795942 0.7658420967
3100281400.0 -0.6266925062 0.7752103828
3150281100.0 -0.61492585 0.7844914094
3200280800.0 -0.6034821862 0.7928620338
3250280500.0 -0.592639213 0.8007418413
3300280200.0 -0.5813189225 0.8085851356
3350279900.0 -0.5694852661 0.8163938549
3400279600.0 -0.5572600658 0.8243123212
3450279300.0 -0.5463461179 0.8311794457
3500279000.0 -0.5342143394 0.838249894
3550278700.0 -0.5219033528 0.8455016307
3600278400.0 -0.5097552046 0.8525663489
3650278100.0 -0.4966875964 0.8602278173
3700277800.0 -0.484480697 0.8666073925
3750277500.0 -0.4722725125 0.8733560264
3800277200.0 -0.4598388115 0.8794764734
3850276900.0 -0.4478112494 0.8854977825
3900276600.0 -0.4367644908 0.8913375177
3950276300.0 -0.4245365091 0.8975442451
4000276000.0 -0.4127977533 0.9031832616
4050275700.0 -0.4000288001 0.9095199716
4100275400.0 -0.3888760457 0.9145051819
4150275100.0 -0.3759173538 0.9205926804
4200274800.0 -0.3629079484 0.9260011028
4250274500.0 -0.3504539915 0.9309723471
4300274200.0 -0.3374776627 0.9364303784
4350273900.0 -0.323466011 0.9417286193
4400273600.0 -0.3087192582 0.9469956179
4450273300.0 -0.2936213333 0.9521231004
4500273000.0 -0.280040352 0.9566365342
4550272700.0 -0.2659412598 0.9608168277
4600272400.0 -0.2505293899 0.9649787974
4650272100.0 -0.2389776921 0.9682666351
4700271800.0 -0.2257316963 0.9715045167
4750271500.0 -0.214039828 0.9743355586
4800271200.0 -0.2016522588 0.9770120327
4850270900.0 -0.1876703467 0.9798318734
4900270600.0 -0.1738620842 0.9823201871
4950270300.0 -0.1593473863 0.9849161448
5000270000.0 -0.145251481 0.9871646259
5050269700.0 -0.1317826548 0.9885243791
5100269400.0 -0.1180449439 0.9902174276
5150269100.0 -0.1044490449 0.9921359343
5200268800.0 -0.0911764076 0.9930944495
5250268500.0 -0.077776441 0.9939101322
5300268200.0 -0.0646467602 0.9946158849
5350267900.0 -0.0525493982 0.9950819291
5400267600.0 -0.0362720668 0.99635471
5450267300.0 -0.0230906303 0.9967303637
5500267000.0 -0.0080388781 0.9970422848
5550266700.0 0.0071078713 0.9972442342
5600266400.0 0.0224589367 0.9972026656
5650266100.0 0.0391271646 0.9967431678
5700265800.0 0.0535250048 0.9963403607
5750265500.0 0.0687479051 0.9954417849
5800265200.0 0.0825132486 0.9942430594
5850264900.0 0.0954802529 0.9932644914
5900264600.0 0.1124304455 0.9918020835
5950264300.0 0.1244032378 0.9905651054
6000264000.0 0.1380177248 0.9882001613
6050263700.0 0.1504859325 0.9866812978
6100263400.0 0.1631177277 0.9849064637
6150263100.0 0.1772552339 0.9827432385
6200262800.0 0.1873741619 0.9809310169
6250262500.0 0.2001273117 0.9785744363
6300262200.0 0.212962642 0.975814429
6350261900.0 0.2259970523 0.9729663613
6400261600.0 0.2397876123 0.9697558104
6450261300.0 0.2510591435 0.9669632022
6500261000.0 0.2637619767 0.9632728732
6550260700.0 0.2773397583 0.9595173713
6600260400.0 0.2902160205 0.9552220454
6650260100.0 0.3044136427 0.9508607372
6700259800.0 0.3165693513 0.9468142835
6750259500.0 0.3304273448 0.9418677788
6800259200.0 0.3434231204 0.9369526402
6850258900.0 0.3557244435 0.931845152
6900258600.0 0.3678561978 0.9266306263
6950258300.0 0.3803846404 0.921468551
7000258000.0 0.3921986489 0.9157947581
7050257700.0 0.4043444183 0.9100296903
7100257400.0 0.4174112527 0.9038032245
7150257100.0 0.4279529852 0.8983488543
7200256800.0 0.4405493268 0.8919957501
7250256500.0 0.4527505379 0.8857274933
7300256200.0 0.46571892 0.8787340317
7350255900.0 0.4780966963 0.8716280881
7400255600.0 0.4915723974 0.8644058219
7450255300.0 0.5073224959 0.8557946178
7500255000.0 0.5185613363 0.8482677615
7550254700.0 0.5330123665 0.8399982716
7600254400.0 0.5458220051 0.8312435494
7650254100.0 0.5570361869 0.8236326453
7700253800.0 0.5691560136 0.8158193681
7750253500.0 0.5799986021 0.8080374676
7800253200.0 0.5906580645 0.8000920077
7850252900.0 0.6003045578 0.7931432842
7900252600.0 0.6119760599 0.784557249
7950252300.0 0.620730772 0.7778638081
8000252000.0 0.6308233492 0.7701935678
8050251700.0 0.6412508802 0.7622487934
8100251400.0 0.6513078522 0.7540187605
8150251100.0 0.6612871672 0.7453381567
8200250800.0 0.6711073497 0.7372886874
8250250500.0 0.6795277523 0.7293792098
8300250200.0 0.6892221289 0.7209293502
8350249900.0 0.6979628083 0.7121076637
8400249600.0 0.7061857238 0.7041589823
8450249300.0 0.715349529 0.6950492654
8500249000.0 0.7239183525 0.686241652
8550248700.0 0.7322198141 0.6772576075
8600248400.0 0.7408229863 0.6675507544
8650248100.0 0.7483730697 0.6580902058
8700247800.0 0.7579464898 0.6470075963
8750247500.0 0.7661235665 0.6367769959
8800247200.0 0.7744672084 0.6264326551
8850246900.0 0.7830429398 0.615115972
8900246600.0 0.791632435 0.6038098701
8950246300.0 0.801080529 0.5907797405
9000246000.0 0.8103845216 0.5782373185
9050245700.0 0.819080826 0.5653299408
9100245400.0 0.8278445371 0.5529946892
9150245100.0 0.8370203851 0.5396153126
9200244800.0 0.8468312131 0.5246117344
9250244500.0 0.855739337 0.5093773453
9300244200.0 0.8643770538 0.4950950748
9350243900.0 0.8721782299 0.4812486319
9400243600.0 0.8787567356 0.4691050184
9450243300.0 0.8843601975 0.4577722786
9500243000.0 0.8907002326 0.4458798451
9550242700.0 0.8946417239 0.4379754361
9600242400.0 0.8984341311 0.4306476077
9650242100.0 0.9021957623 0.4239814179
9700241800.0 0.9070476505 0.4157939887
9750241500.0 0.9109777831 0.408512373
9800241200.0 0.9158262831 0.3989389894
9850240900.0 0.9216587168 0.3869892811
9900240600.0 0.9268932277 0.375838999
9950240300.0 0.9343166312 0.3593315158
10000240000.0 0.9387509594 0.3476090292
10050239700.0 0.9445020903 0.3324411481
10100239400.0 0.9498472939 0.3162975101
10150239100.0 0.9540236266 0.3017531807
10200238800.0 0.9581936888 0.2865691064
10250238500.0 0.9613640524 0.2732004976
10300238200.0 0.9646542594 0.2592213371
10350237900.0 0.9672412987 0.2458886343
10400237600.0 0.9697263626 0.233193391
10450237300.0 0.9726422887 0.2188148876
10500237000.0 0.9746198847 0.2066707567
10550236700.0 0.9770602011 0.1925322834
10600236400.0 0.9788459365 0.1792830646
10650236100.0 0.9811548671 0.1643808201
10700235800.0 0.9833072843 0.1530127295
10750235500.0 0.9860959425 0.1387405155
10800235200.0 0.987442039 0.1247671298
10850234900.0 0.9894907377 0.1101416594
10900234600.0 0.9917836184 0.0951913751
10950234300.0 0.9935163827 0.0818114885
11000234000.0 0.9952295178 0.0667544991
11050233700.0 0.9971250254 0.0502437697
11100233400.0 0.998694455 0.0329336488
11150233100.0 0.9998169808 0.0163801586
11200232800.0 1.000299906 0.0010017887
11250232500.0 1.001609877 -0.0162932741
11300232200.0 1.001966567 -0.0334591166
11350231900.0 1.002049278 -0.0486419105
11400231600.0 1.001779422 -0.0657132351
11450231300.0 1.001233806 -0.0804162826
11500231000.0 1.000311373 -0.0972751431
11550230700.0 0.9986258228 -0.1092965407
11600230400.0 0.9975315923 -0.1225254582
11650230100.0 0.9949672012 -0.1345052655
11700229800.0 0.9930532494 -0.1490144372
11750229500.0 0.9909287876 -0.1633110987
11800229200.0 0.9882197117 -0.1769737648
11850228900.0 0.9845359004 -0.1892757354
11900228600.0 0.9808892734 -0.198733107
11950228300.0 0.977647561 -0.20946186
12000228000.0 0.9746642864 -0.218275871
12050227700.0 0.97125626 -0.2310882543
12100227400.0 0.9679328528 -0.2415232607
12150227100.0 0.9627826641 -0.2585082176
12200226800.0 0.9594647272 -0.2692038218
12250226500.0 0.9556312813 -0.2815753594
12300226200.0 0.9513290256 -0.2947016385
12350225900.0 0.946384271 -0.3079220695
12400225600.0 0.9419981605 -0.3215297134
12450225300.0 0.9376549168 -0.3341810095
12500225000.0 0.9317437754 -0.3487796477
12550224700.0 0.9270446316 -0.3629447003
12600224400.0 0.9216428495 -0.3754590116
12650224100.0 0.9158310745 -0.3899261784
12700223800.0 0.9105378047 -0.4027910419
12750223500.0 0.9049848802 -0.4159286569
12800223200.0 0.8995485441 -0.4288431379
12850222900.0 0.8945776254 -0.440681614
12900222600.0 0.8886231818 -0.4528159812
12950222300.0 0.8828249534 -0.4657336737
13000222000.0 0.8768404543 -0.4769376664
13050221700.0 0.8698874386 -0.4898193703
13100221400.0 0.8632209175 -0.5015978089
13150221100.0 0.8560848404 -0.5139105308
13200220800.0 0.8494410837 -0.5251991488
13250220500.0 0.8423124586 -0.5374796207
13300220200.0 0.8348023527 -0.5483191563
13350219900.0 0.8267757102 -0.5601516333
13400219600.0 0.8182567436 -0.5723441594
13450219300.0 0.8091842116 -0.5856547823
13500219000.0 0.7990902305 -0.5994396189
13550218700.0 0.7892857307 -0.6121551054
13600218400.0 0.7793772473 -0.6234761587
13650218100.0 0.769211754 -0.6353310824
13700217800.0 0.7588600541 -0.647218741
13750217500.0 0.7481937116 -0.6584327845
13800217200.0 0.7373085822 -0.6698193942
13850216900.0 0.7263638067 -0.6815074718
13900216600.0 0.7173679815 -0.6904123794
13950216300.0 0.7060223842 -0.6999145016
14000216000.0 0.6950872288 -0.7093748788
14050215700.0 0.6860785995 -0.7180536383
14100215400.0 0.6766744931 -0.7271581573
14150215100.0 0.6671138582 -0.7358087282
14200214800.0 0.6578944437 -0.7445615571
14250214500.0 0.6475539177 -0.7538601788
14300214200.0 0.6370683661 -0.7632106542
14350213900.0 0.6261938334 -0.772763607
14400213600.0 0.613859881 -0.7828103883
14450213300.0 0.6009036585 -0.7929064767
14500213000.0 0.5880384212 -0.8032826414
14550212700.0 0.5754975141 -0.8124374044
14600212400.0 0.5631857446 -0.8207728211
14650212100.0 0.5502061148 -0.8300789047
14700211800.0 0.5360105811 -0.8393553134
14750211500.0 0.5241791868 -0.8479619295
14800211200.0 0.5117182024 -0.8557469216
14850210900.0 0.4995615069 -0.8631776695
14900210600.0 0.4862618604 -0.8710941322
14950210300.0 0.473003859 -0.8787373165
15000210000.0 0.4603509321 -0.8856114406
15050209700.0 0.4484197465 -0.8915686199
15100209400.0 0.4356855741 -0.8978352021
15150209100.0 0.4229841248 -0.9032704428
15200208800.0 0.4106013873 -0.9080977828
15250208500.0 0.3986651878 -0.9134009179
15300208200.0 0.3869134393 -0.91755954
15350207900.0 0.3734254247 -0.9221755131
15400207600.0 0.3592306877 -0.9275325675
15450207300.0 0.3459325061 -0.9332270487
15500207000.0 0.3295963339 -0.9377294162
15550206700.0 0.3152891449 -0.9423214663
15600206400.0 0.2993362987 -0.9467520668
15650206100.0 0.283616384 -0.9512006961
15700205800.0 0.2697115802 -0.954556789
15750205500.0 0.2551752388 -0.9584875582
15800205200.0 0.2409465938 -0.961871591
15850204900.0 0.2267847677 -0.9651639384
15900204600.0 0.2116363107 -0.9690302214
15950204300.0 0.1972198018 -0.9719894662
16000204000.0 0.1830274182 -0.9747831689
16050203700.0 0.167868864 -0.9777164168
16100203400.0 0.1535129172 -0.980048194
16150203100.0 0.1389971108 -0.9827544845
16200202800.0 0.1245377436 -0.9844898221
16250202500.0 0.1103077958 -0.9858283418
16300202200.0 0.0945146031 -0.9873885817
16350201900.0 0.0799062437 -0.9893046518
16400201600.0 0.0652103188 -0.9900182309
16450201300.0 0.0494854141 -0.9913294228
16500201000.0 0.0328716232 -0.9920728142
16550200700.0 0.0171035937 -0.9926524743
16600200400.0 0.0013115566 -0.992959958
16650200100.0 -0.014776047 -0.9926366317
16700199800.0 -0.0311697443 -0.9920007673
16750199500.0 -0.0497796322 -0.9921997917
16800199200.0 -0.0654236986 -0.991082432
16850198900.0 -0.080349873 -0.9896085607
16900198600.0 -0.094120638 -0.9889329952
16950198300.0 -0.1080246077 -0.9878487785
17000198000.0 -0.1213473021 -0.9856564758
17050197700.0 -0.1335886137 -0.9837651251
17100197400.0 -0.1466399583 -0.982275141
17150197100.0 -0.1591610725 -0.980374206
17200196800.0 -0.1720978477 -0.9783775646
17250196500.0 -0.1845871437 -0.975847083
17300196200.0 -0.1971708544 -0.9734935045
17350195900.0 -0.2088124137 -0.9711607899
17400195600.0 -0.2211450714 -0.9686995116
17450195300.0 -0.2341687355 -0.9659467476
17500195000.0 -0.2476048124 -0.9624988726
17550194700.0 -0.2614654457 -0.9591708486
17600194400.0 -0.2754490053 -0.9549306431
17650194100.0 -0.2890308067 -0.95092877
17700193800.0 -0.3020207232 -0.946995034
17750193500.0 -0.3170150864 -0.9419051342
17800193200.0 -0.330949424 -0.9369433011
17850192900.0 -0.3459686948 -0.9315965126
17900192600.0 -0.3612775018 -0.9256670281
17950192300.0 -0.3767568573 -0.9182757319
18000192000.0 -0.3914861418 -0.9111262186
18050191700.0 -0.4053852027 -0.9032474528
18100191400.0 -0.4195983343 -0.8957180019
18150191100.0 -0.434492714 -0.887783828
18200190800.0 -0.45147218 -0.8786610327
18250190500.0 -0.4682481863 -0.8692208529
18300190200.0 -0.4837709222 -0.8605494602
18350189900.0 -0.4988591764 -0.8520307962
18400189600.0 -0.513458507 -0.8436270284
18450189300.0 -0.5267576625 -0.8353586773
18500189000.0 -0.5399647414 -0.8276883816
18550188700.0 -0.5526840776 -0.820022014
18600188400.0 -0.5641242497 -0.8134869791
18650188100.0 -0.5755378198 -0.8071478677
18700187800.0 -0.5861902088 -0.8002884514
18750187500.0 -0.5969238338 -0.7938902314
18800187200.0 -0.6073542417 -0.786843533
18850186900.0 -0.6177223748 -0.7801271136
18900186600.0 -0.627775787 -0.7727544395
18950186300.0 -0.637606359 -0.7649889511
19000186000.0 -0.6450985334 -0.7588247932
19050185700.0 -0.6544272478 -0.7516243707
19100185400.0 -0.6639904345 -0.7438552086
19150185100.0 -0.6745565073 -0.735380052
19200184800.0 -0.6837622446 -0.7270831837
19250184500.0 -0.6933771775 -0.7179798171
19300184200.0 -0.7060137665 -0.7077264419
19350183900.0 -0.7161328117 -0.6988278753
19400183600.0 -0.7257575005 -0.6885712522
19450183300.0 -0.7347583282 -0.6782269867
19500183000.0 -0.7428488368 -0.6684879177
19550182700.0 -0.7525565147 -0.6576298814
19600182400.0 -0.763103629 -0.6458833134
19650182100.0 -0.7740835317 -0.6334166499
19700181800.0 -0.7848055165 -0.6199887243
19750181500.0 -0.7951907861 -0.6058258321
19800181200.0 -0.805688031 -0.5907598959
19850180900.0 -0.8154864037 -0.5755455264
19900180600.0 -0.823093261 -0.5610866252
19950180300.0 -0.8325882738 -0.5447230713
20000180000.0 -0.8249875742 -0.5469329844
20050179700.0 -0.8337871459 -0.5343641543
20100179400.0 -0.8416040292 -0.5206797007
20150179100.0 -0.8500228722 -0.5092865393
20200178800.0 -0.8584706805 -0.4956275333
20250178500.0 -0.8685019132 -0.4822459367
20300178200.0 -0.8774450158 -0.4682115315
20350177900.0 -0.8866005098 -0.4541005958
20400177600.0 -0.8958373314 -0.43930114
20450177300.0 -0.90438487 -0.4249399537
20500177000.0 -0.9119582584 -0.4111526188
20550176700.0 -0.9199329907 -0.397628442
20600176400.0 -0.9271489329 -0.3847621081
20650176100.0 -0.933812366 -0.3723322419
20700175800.0 -0.940020401 -0.3609727638
20750175500.0 -0.9465777708 -0.348931931
20800175200.0 -0.9513373648 -0.3384425009
20850174900.0 -0.9566280997 -0.3266147097
20900174600.0 -0.9611871311 -0.3164999753
20950174300.0 -0.964244097 -0.3041417926
21000174000.0 -0.9679576469 -0.2927920925
21050173700.0 -0.9705600147 -0.2826622694
21100173400.0 -0.9750012788 -0.2706564322
21150173100.0 -0.9781341761 -0.258776582
21200172800.0 -0.9815869846 -0.2457084172
21250172500.0 -0.9851121459 -0.2320663016
21300172200.0 -0.9877937731 -0.2181295846
21350171900.0 -0.9899363869 -0.2033707384
21400171600.0 -0.9915605898 -0.1890741448
21450171300.0 -0.9917143753 -0.1741947882
21500171000.0 -0.9909242248 -0.158783358
21550170700.0 -0.9923855399 -0.1431944381
21600170400.0 -0.9929899069 -0.1279656445
21650170100.0 -0.9910020573 -0.112493388
21700169800.0 -0.9904358986 -0.0959370172
21750169500.0 -0.9889004645 -0.0801318519
21800169200.0 -0.9889978013 -0.0645936883
21850168900.0 -0.988166881 -0.0482727132
21900168600.0 -0.9864211006 -0.0313699737
21950168300.0 -0.9861002592 -0.0160727056
22000168000.0 -0.985140021 -0.0008591713
22050167700.0 -0.9851200462 0.0134195008
22100167400.0 -0.9851454146 0.0288662603
22150167100.0 -0.9858228234 0.0442357729
22200166800.0 -0.9866568038 0.0610245871
22250166500.0 -0.9860947355 0.0778894481
22300166200.0 -0.9856411486 0.094175952
22350165900.0 -0.9842663788 0.110845158
22400165600.0 -0.9816096783 0.1272546611
22450165300.0 -0.9805813009 0.1409840583
22500165000.0 -0.9773680775 0.1557821035
22550164700.0 -0.9772657721 0.1707801547
22600164400.0 -0.9756253671 0.186530759
22650164100.0 -0.9734118477 0.2014166782
22700163800.0 -0.9707232331 0.2169702015
22750163500.0 -0.9677357412 0.2324360473
22800163200.0 -0.9651352256 0.2458730242
22850162900.0 -0.9626032326 0.2591900479
22900162600.0 -0.9613194335 0.2727194231
22950162300.0 -0.9599296778 0.2856398824
23000162000.0 -0.9584211288 0.2977355946
23050161700.0 -0.9564853506 0.3106857803
23100161400.0 -0.9541445047 0.3236186689
23150161100.0 -0.9509121738 0.3359785512
23200160800.0 -0.9482922633 0.3484298359
23250160500.0 -0.9455396816 0.3604511937
23300160200.0 -0.9423990096 0.3728592742
23350159900.0 -0.9392273234 0.386209313
23400159600.0 -0.9345757746 0.3989306761
23450159300.0 -0.9293629042 0.4125680998
23500159000.0 -0.9247571433 0.4251578413
23550158700.0 -0.9204517907 0.4387168577
23600158400.0 -0.9149265587 0.4527287678
23650158100.0 -0.9082581794 0.4666330763
23700157800.0 -0.9006437732 0.4808986971
23750157500.0 -0.8919282863 0.4949687991
23800157200.0 -0.8830360801 0.5080732582
23850156900.0 -0.8734946267 0.5207170717
23900156600.0 -0.8640170236 0.5343709849
23950156300.0 -0.8553391245 0.5458812945
24000156000.0 -0.8457711908 0.558415896
24050155700.0 -0.8356709622 0.5699220262
24100155400.0 -0.8267442344 0.5822760248
24150155100.0 -0.8151032419 0.594018477
24200154800.0 -0.8039408581 0.6050450829
24250154500.0 -0.7928174613 0.6169827375
24300154200.0 -0.7817781862 0.6288587295
24350153900.0 -0.7697860773 0.6393294854
24400153600.0 -0.7574882008 0.6497190107
24450153300.0 -0.7455950919 0.6601423087
24500153000.0 -0.7339750767 0.6692225729
24550152700.0 -0.7232464704 0.6791048504
24600152400.0 -0.7116170884 0.6890890677
24650152100.0 -0.7001670855 0.6965084127
