!Created with skrf (http://scikit-rf.org).
# Hz S RI R 50.0 
!freq ReS11 ImS11
300000.0 -0.987636446 -0.075460028
50299700.0 -0.9997088363 0.0166725087
100299400.0 -0.9979519113 0.0294670405
150299100.0 -1.00245299 0.0461714769
200298800.0 -0.9994495942 0.0595413296
250298500.0 -0.9971582591 0.0728813512
300298200.0 -0.9855225055 0.0886309144
350297900.0 -0.9937637372 0.0997051665
400297600.0 -0.9929018433 0.1163288826
450297300.0 -0.9905668775 0.1300013658
500297000.0 -0.9892062733 0.1447971137
550296700.0 -0.9836890649 0.1570314212
600296400.0 -1.016839419 0.1904304378
650296100.0 -0.9815419592 0.1869457368
700295800.0 -0.9786454649 0.2011928042
750295500.0 -0.9757220309 0.215341067
800295200.0 -0.9722254777 0.2294370983
850294900.0 -0.9688240914 0.2431632244
900294600.0 -0.9651524118 0.2569269163
950294300.0 -0.9611022044 0.2708055955
1000294000.0 -0.957453839 0.2844719768
1050293700.0 -0.9527108852 0.2983177529
1100293400.0 -0.9486256268 0.3128946609
1150293100.0 -0.9445274932 0.3246326599
1200292800.0 -0.9393019015 0.3389714396
1250292500.0 -0.9339803462 0.3522272672
1300292200.0 -0.9281120923 0.3654392784
1350291900.0 -0.9225353907 0.3793592657
1400291600.0 -0.9172776295 0.3924380824
1450291300.0 -0.911889406 0.4049749372
1500291000.0 -0.9055081597 0.4181416777
1550290700.0 -0.8991952976 0.4313994813
1600290400.0 -0.8929515654 0.4444266968
1650290100.0 -0.8863111272 0.4563117326
1700289800.0 -0.8794545222 0.4698018696
1750289500.0 -0.8724621217 0.4821405321
1800289200.0 -0.8650279979 0.4950988167
1850288900.0 -0.8582291625 0.5064400953
1900288600.0 -0.8507326685 0.5192728201
1950288300.0 -0.8426387722 0.5319767179
2000288000.0 -0.8350700609 0.5433471637
2050287700.0 -0.8268790228 0.5556453372
2100287400.0 -0.8188176012 0.5672534554
2150287100.0 -0.8101213622 0.5792473574
2200286800.0 -0.802588723 0.5898016646
2250286500.0 -0.7936366999 0.601726311
2300286200.0 -0.7846312339 0.6135136913
2350285900.0 -0.7758099769 0.624703846
2400285600.0 -0.7667340256 0.6355560946
2450285300.0 -0.7579605796 0.6460998503
2500285000.0 -0.7484718037 0.6569922737
2550284700.0 -0.7394408283 0.6674595253
2600284400.0 -0.7297616385 0.6778429729
2650284100.0 -0.7209258349 0.6882698524
2700283800.0 -0.710293922 0.6988517589
2750283500.0 -0.6998700621 0.7091142551
2800283200.0 -0.6902715112 0.7188128607
2850282900.0 -0.680020067 0.7286561084
2900282600.0 -0.6696167716 0.7381709578
2950282300.0 -0.6595531698 0.7472430294
3000282000.0 -0.6486526909 0.7568641489
3050281700.0 -0.6377949818 0.7661622603
3100281400.0 -0.6261067794 0.775136794
3150281100.0 -0.614495489 0.7846343304
3200280800.0 -0.6028524735 0.7931477403
3250280500.0 -0.5921000031 0.80099852
3300280200.0 -0.58087011 0.8087958429
3350279900.0 -0.5694073786 0.8163724897
3400279600.0 -0.5574629982 0.8242661929
3450279300.0 -0.5462833391 0.8313380964
3500279000.0 -0.5343059843 0.8386000817
3550278700.0 -0.5221628753 0.845873605
3600278400.0 -0.5096261103 0.8528494237
3650278100.0 -0.4967432288 0.8606665638
3700277800.0 -0.484538891 0.8672329452
3750277500.0 -0.4724904415 0.8734089735
3800277200.0 -0.4600565201 0.8802431964
3850276900.0 -0.4474688989 0.886353876
3900276600.0 -0.4367783296 0.8916268894
3950276300.0 -0.4237891514 0.8979853342
4000276000.0 -0.4115636546 0.904186618
4050275700.0 -0.3985824015 0.9101400268
4100275400.0 -0.3873810062 0.9153323184
4150275100.0 -0.3743123349 0.9211245901
4200274800.0 -0.3611623187 0.9266478243
4250274500.0 -0.3488740189 0.9314300223
4300274200.0 -0.3358459163 0.9370516046
4350273900.0 -0.3222149642 0.9419040781
4400273600.0 -0.307630185 0.9471385633
4450273300.0 -0.2924919312 0.9522306103
4500273000.0 -0.27906449 0.9561075358
4550272700.0 -0.2650158776 0.9605939585
4600272400.0 -0.2494757694 0.9646199488
4650272100.0 -0.2377042394 0.9679526318
4700271800.0 -0.2242311728 0.9712405927
4750271500.0 -0.2122575425 0.9741580605
4800271200.0 -0.1996345872 0.9769264003
4850270900.0 -0.1857725779 0.9798145259
4900270600.0 -0.1721543639 0.9820710475
4950270300.0 -0.158110824 0.9848693534
5000270000.0 -0.144048667 0.9867417851
5050269700.0 -0.1305794438 0.9885514807
5100269400.0 -0.1169519927 0.989948327
5150269100.0 -0.1036333953 0.9919329011
5200268800.0 -0.0901104935 0.9926418613
5250268500.0 -0.0773869135 0.9937814815
5300268200.0 -0.0642264801 0.9946522688
5350267900.0 -0.0520716727 0.9951920767
5400267600.0 -0.0358898456 0.996323463
5450267300.0 -0.0232754701 0.9964212962
5500267000.0 -0.0081153612 0.9969260102
5550266700.0 0.0062181403 0.9970764858
5600266400.0 0.0217705197 0.9969663111
5650266100.0 0.0380737827 0.9968593787
5700265800.0 0.0524367557 0.9960015915
5750265500.0 0.0672724964 0.9951121332
5800265200.0 0.0814337945 0.9940884611
5850264900.0 0.09481041 0.9929474317
5900264600.0 0.1110535886 0.991235984
5950264300.0 0.1236624097 0.9897386598
6000264000.0 0.1375820032 0.9880504119
6050263700.0 0.1502435534 0.9864519514
6100263400.0 0.1625795085 0.9841590977
6150263100.0 0.1778845684 0.9821952359
6200262800.0 0.188677559 0.9798184974
6250262500.0 0.2012618512 0.9775013848
6300262200.0 0.214256241 0.9745938344
6350261900.0 0.2272718968 0.9717956983
6400261600.0 0.2412960827 0.9681693841
6450261300.0 0.2530603116 0.9655142913
6500261000.0 0.2656570632 0.9620518373
6550260700.0 0.2786785691 0.9582346746
6600260400.0 0.291826614 0.9543436076
6650260100.0 0.3058841086 0.9500853574
6700259800.0 0.3175029059 0.9455344647
6750259500.0 0.3315591253 0.9409850954
6800259200.0 0.3444643821 0.9359960586
6850258900.0 0.3563887882 0.9309906711
6900258600.0 0.368547011 0.9260549928
6950258300.0 0.3811211824 0.9207795828
7000258000.0 0.3931969124 0.9154971422
7050257700.0 0.4054154655 0.9096721786
7100257400.0 0.4181773068 0.9035298081
7150257100.0 0.4287095912 0.898244304
7200256800.0 0.4414165131 0.8919278264
7250256500.0 0.4530642068 0.8858148244
7300256200.0 0.4663042073 0.8791105189
7350255900.0 0.4781516695 0.8720722909
7400255600.0 0.4905471227 0.8655738352
7450255300.0 0.5056654732 0.8565974064
7500255000.0 0.5166596429 0.8497085598
7550254700.0 0.5307319487 0.8417005805
7600254400.0 0.5429557309 0.8330700773
7650254100.0 0.5544517058 0.8252563941
7700253800.0 0.5665427666 0.8173602246
7750253500.0 0.5779807151 0.8096019359
7800253200.0 0.5890234201 0.801457104
7850252900.0 0.5987770592 0.7944577722
7900252600.0 0.610326452 0.7855241212
7950252300.0 0.6195688997 0.7787879489
8000252000.0 0.6299410243 0.7706374803
8050251700.0 0.6405416755 0.762258366
8100251400.0 0.6508452344 0.7541779088
8150251100.0 0.6611546941 0.7452898824
8200250800.0 0.6705622957 0.7371520059
8250250500.0 0.6795518087 0.7290168331
8300250200.0 0.6896288559 0.719925608
8350249900.0 0.6980441774 0.7115274416
8400249600.0 0.7064964144 0.7032103025
8450249300.0 0.7158535472 0.6937887078
8500249000.0 0.7246441606 0.6848170943
8550248700.0 0.7332966742 0.6756930774
8600248400.0 0.7418032794 0.6662908832
8650248100.0 0.7495321584 0.6568952675
8700247800.0 0.7587895592 0.6457835676
8750247500.0 0.7671749151 0.6358242941
8800247200.0 0.7752623606 0.625678981
8850246900.0 0.7837795402 0.6145152762
8900246600.0 0.7921161326 0.6033562777
8950246300.0 0.8015794262 0.590758582
9000246000.0 0.8105993724 0.5785273555
9050245700.0 0.8192160623 0.5661944621
9100245400.0 0.8277637427 0.5536906881
9150245100.0 0.8365836908 0.540878879
9200244800.0 0.8457169668 0.526552064
9250244500.0 0.8548524798 0.5117708929
9300244200.0 0.8631198797 0.4977594589
9350243900.0 0.8709799536 0.4839511306
9400243600.0 0.8778038694 0.4710042276
9450243300.0 0.8839744089 0.4588669825
9500243000.0 0.8904532684 0.4458769812
9550242700.0 0.8949900732 0.4369435836
9600242400.0 0.8993704734 0.4282118301
9650242100.0 0.9031236886 0.4206076584
9700241800.0 0.907987842 0.4120143824
9750241500.0 0.9121576057 0.4037312399
9800241200.0 0.9168566156 0.3938965229
9850240900.0 0.922388216 0.3822851854
9900240600.0 0.9272806501 0.3712616141
9950240300.0 0.9340018595 0.3553228918
10000240000.0 0.9382810095 0.3436911316
10050239700.0 0.9440458255 0.328897622
10100239400.0 0.9488830026 0.3139699056
10150239100.0 0.9531467951 0.2996134047
10200238800.0 0.9575631325 0.2846345652
10250238500.0 0.961098414 0.2713734645
10300238200.0 0.9643239481 0.2574019731
10350237900.0 0.9670533468 0.2442216092
10400237600.0 0.9696479906 0.2312588436
10450237300.0 0.9726602024 0.2172872604
10500237000.0 0.9749405439 0.2052029926
10550236700.0 0.9770140599 0.191778203
10600236400.0 0.9792535994 0.1786430783
10650236100.0 0.9811760343 0.1640416223
10700235800.0 0.983673614 0.1518383069
10750235500.0 0.9853605418 0.1388604757
10800235200.0 0.9881516246 0.1246491067
10850234900.0 0.9897243375 0.1105130699
10900234600.0 0.991627176 0.09619855
10950234300.0 0.9933419938 0.0828026771
11000234000.0 0.9949114184 0.0683317696
11050233700.0 0.9964047168 0.0524890135
11100233400.0 0.9977786212 0.0356096149
11150233100.0 0.9988496744 0.019817892
11200232800.0 0.9990168695 0.0046099109
11250232500.0 0.999892117 -0.0106718266
11300232200.0 1.000513141 -0.0288158661
11350231900.0 1.000732906 -0.0442388453
11400231600.0 1.000144158 -0.0606216589
11450231300.0 0.9992647969 -0.0757257119
11500231000.0 0.9982623036 -0.091784856
11550230700.0 0.9967552934 -0.1056549561
11600230400.0 0.9958014735 -0.1188035503
11650230100.0 0.9935989116 -0.1305452665
11700229800.0 0.9913039448 -0.1457353947
11750229500.0 0.9892187256 -0.1598366674
11800229200.0 0.9864363076 -0.1739389162
11850228900.0 0.9831694201 -0.1871804349
11900228600.0 0.9799747413 -0.1974663359
11950228300.0 0.9765068419 -0.2088223742
12000228000.0 0.9742125113 -0.2182539508
12050227700.0 0.9703441944 -0.2308312205
12100227400.0 0.9670100184 -0.2424322814
12150227100.0 0.9622467353 -0.2590047322
12200226800.0 0.9594331194 -0.2699506843
12250226500.0 0.9559485248 -0.282894432
12300226200.0 0.9508951466 -0.2946695292
12350225900.0 0.9464137168 -0.3087743037
12400225600.0 0.9424118948 -0.3206579971
12450225300.0 0.9382976166 -0.3332986727
12500225000.0 0.9328443354 -0.3482116874
12550224700.0 0.9275595978 -0.3619117012
12600224400.0 0.922760187 -0.3741149334
12650224100.0 0.9169551171 -0.388089072
12700223800.0 0.9119161871 -0.4005862257
12750223500.0 0.90621611 -0.4136744658
12800223200.0 0.901133424 -0.4260413281
12850222900.0 0.8957885923 -0.4385823752
12900222600.0 0.8898721786 -0.4502657993
12950222300.0 0.8833419741 -0.4636604727
13000222000.0 0.8774078497 -0.4750298634
13050221700.0 0.8698757844 -0.4883792424
13100221400.0 0.8637935123 -0.4997688543
13150221100.0 0.8563784709 -0.5121750325
13200220800.0 0.8491941792 -0.524043056
13250220500.0 0.8418554947 -0.5362495152
13300220200.0 0.834445166 -0.547064258
13350219900.0 0.8261409763 -0.5595579715
13400219600.0 0.8177485308 -0.5716973028
13450219300.0 0.8082013317 -0.5849827465
13500219000.0 0.7984234053 -0.5984875844
13550218700.0 0.7884539663 -0.611239939
13600218400.0 0.7785242869 -0.623212636
13650218100.0 0.7689814115 -0.6345505676
13700217800.0 0.7580091219 -0.6470804101
13750217500.0 0.7481431362 -0.6584523585
13800217200.0 0.7366864016 -0.6697063319
13850216900.0 0.725802316 -0.6815051721
13900216600.0 0.7163196818 -0.691069989
13950216300.0 0.7053585775 -0.701215948
14000216000.0 0.6959038152 -0.710238937
14050215700.0 0.6860888158 -0.7185213721
14100215400.0 0.6764523283 -0.7285485769
14150215100.0 0.6672321678 -0.7362668131
14200214800.0 0.6579703483 -0.7452561328
14250214500.0 0.6476401548 -0.7544253827
14300214200.0 0.637377187 -0.7635771323
14350213900.0 0.6263138222 -0.7727733472
14400213600.0 0.6150499516 -0.7822442046
14450213300.0 0.6025922857 -0.7923506338
14500213000.0 0.5897614537 -0.8018168495
14550212700.0 0.5771970393 -0.8107982136
14600212400.0 0.5651098098 -0.8194352194
14650212100.0 0.5523984639 -0.828087123
14700211800.0 0.5388345433 -0.8376800353
14750211500.0 0.5260787932 -0.8457226004
14800211200.0 0.513943561 -0.8539737236
14850210900.0 0.5019693412 -0.8614992771
14900210600.0 0.4885989184 -0.8692381924
14950210300.0 0.4751106087 -0.8768387896
15000210000.0 0.4620014229 -0.8840241235
15050209700.0 0.4493615245 -0.8903566757
15100209400.0 0.4360073345 -0.896706182
15150209100.0 0.4240055603 -0.9022614405
15200208800.0 0.4109639387 -0.9080826544
15250208500.0 0.3984062597 -0.912899859
15300208200.0 0.3861383836 -0.9182691504
15350207900.0 0.3722654326 -0.922821716
15400207600.0 0.3577634724 -0.9282989455
15450207300.0 0.3435830455 -0.9329765929
15500207000.0 0.3292069689 -0.9384723937
15550206700.0 0.3142409823 -0.9432107233
15600206400.0 0.2990035088 -0.9476578599
15650206100.0 0.2832948785 -0.9515188237
15700205800.0 0.2698393288 -0.955507899
15750205500.0 0.2550887291 -0.9592993143
15800205200.0 0.2407308316 -0.9624894628
15850204900.0 0.2266746235 -0.965818971
15900204600.0 0.2118847376 -0.9694761396
15950204300.0 0.1979045827 -0.9726033877
16000204000.0 0.1840468027 -0.9752541359
16050203700.0 0.1695515721 -0.978555837
16100203400.0 0.1551003113 -0.9800773758
16150203100.0 0.1412761833 -0.9826629722
16200202800.0 0.1273641674 -0.9844126698
16250202500.0 0.1128198382 -0.9860239739
16300202200.0 0.0973025258 -0.9876266811
16350201900.0 0.0828109944 -0.9894406662
16400201600.0 0.0681773582 -0.9905279519
16450201300.0 0.0531973436 -0.9914929129
16500201000.0 0.0368562351 -0.9921981853
16550200700.0 0.0212811179 -0.9928425282
16600200400.0 0.0054716996 -0.9930107947
16650200100.0 -0.010778991 -0.9929131557
16700199800.0 -0.0271609057 -0.9929021578
16750199500.0 -0.0456234562 -0.9922508893
16800199200.0 -0.0617061392 -0.9912502292
16850198900.0 -0.0767378318 -0.9900357217
16900198600.0 -0.0911027716 -0.9891857235
16950198300.0 -0.1057536014 -0.9882205376
17000198000.0 -0.1181896928 -0.9863010177
17050197700.0 -0.1312337547 -0.9840630699
17100197400.0 -0.1445047653 -0.982103441
17150197100.0 -0.1580304106 -0.9803061087
17200196800.0 -0.1710879979 -0.9782966055
17250196500.0 -0.1840931796 -0.9756660619
17300196200.0 -0.1968275432 -0.9733958146
17350195900.0 -0.2092972682 -0.9709503895
17400195600.0 -0.2215239029 -0.9683199267
17450195300.0 -0.2346099616 -0.9654472588
17500195000.0 -0.2481634319 -0.9621269451
17550194700.0 -0.2624124597 -0.9584748299
17600194400.0 -0.2760299668 -0.9545741393
17650194100.0 -0.2896303981 -0.9506507859
17700193800.0 -0.3027300722 -0.9466232078
17750193500.0 -0.3172614719 -0.9420044158
17800193200.0 -0.3304996545 -0.9371059694
17850192900.0 -0.3456301531 -0.9317177448
17900192600.0 -0.3601340656 -0.9260187445
17950192300.0 -0.3755503534 -0.9190088291
18000192000.0 -0.3900286234 -0.9122137038
18050191700.0 -0.4038635629 -0.9043690381
18100191400.0 -0.4179773163 -0.8972156196
18150191100.0 -0.4324886501 -0.8895023009
18200190800.0 -0.4488109416 -0.8807490896
18250190500.0 -0.4652294755 -0.8718975874
18300190200.0 -0.4805078018 -0.8633002446
18350189900.0 -0.4954008598 -0.8548469091
18400189600.0 -0.5093964249 -0.847082824
18450189300.0 -0.5230787115 -0.8387542527
18500189000.0 -0.5368079155 -0.8305414105
18550188700.0 -0.5498355589 -0.8229791163
18600188400.0 -0.5616604322 -0.8155273714
18650188100.0 -0.5731080153 -0.8086430702
18700187800.0 -0.5843959365 -0.8013656208
18750187500.0 -0.5951600021 -0.7944321426
18800187200.0 -0.6062018846 -0.7869144832
18850186900.0 -0.6166983751 -0.779456652
18900186600.0 -0.6276588231 -0.7715725349
18950186300.0 -0.6381005446 -0.763205651
19000186000.0 -0.6457585709 -0.7563927853
19050185700.0 -0.6553908155 -0.7490361406
19100185400.0 -0.6655626134 -0.7401651317
19150185100.0 -0.6761147919 -0.7315033495
19200184800.0 -0.6857607363 -0.722599477
19250184500.0 -0.6956867324 -0.7127661687
19300184200.0 -0.7073318969 -0.703678271
19350183900.0 -0.7176265984 -0.6938653472
19400183600.0 -0.7275965559 -0.6841660707
19450183300.0 -0.7361866737 -0.674214145
19500183000.0 -0.7448790831 -0.6634481364
19550182700.0 -0.7537622392 -0.6526813859
19600182400.0 -0.7639941264 -0.6418476596
19650182100.0 -0.7738749885 -0.6298414197
19700181800.0 -0.7842768271 -0.6169491523
19750181500.0 -0.7945136799 -0.6038887986
19800181200.0 -0.8043022208 -0.5898207676
19850180900.0 -0.8139155833 -0.575126821
19900180600.0 -0.8215921851 -0.5613860515
19950180300.0 -0.831041478 -0.5456960003
20000180000.0 -0.8276095847 -0.5447051328
20050179700.0 -0.8355628956 -0.532488214
20100179400.0 -0.8434806233 -0.5196054273
20150179100.0 -0.8520624593 -0.5062782888
20200178800.0 -0.8599303427 -0.4939260577
20250178500.0 -0.8689946683 -0.4818696252
20300178200.0 -0.8778092392 -0.4660501587
20350177900.0 -0.8863598938 -0.4524941977
20400177600.0 -0.8949921453 -0.4381611959
20450177300.0 -0.9028667249 -0.4240936496
20500177000.0 -0.9104314933 -0.4102768708
20550176700.0 -0.9185445369 -0.3967675961
20600176400.0 -0.9250364936 -0.3834501216
20650176100.0 -0.9314267442 -0.370942781
20700175800.0 -0.9379443426 -0.3579754824
20750175500.0 -0.9448803522 -0.3461305836
20800175200.0 -0.9492218539 -0.334959735
20850174900.0 -0.9542693979 -0.3232142529
20900174600.0 -0.9587711277 -0.311892509
20950174300.0 -0.9627372066 -0.2980225615
21000174000.0 -0.9666037668 -0.2870108702
21050173700.0 -0.9695001305 -0.275992662
21100173400.0 -0.9736595815 -0.2634003954
21150173100.0 -0.9784091781 -0.2502812945
21200172800.0 -0.9811832555 -0.2364671124
21250172500.0 -0.9847618547 -0.2225979299
21300172200.0 -0.9879694247 -0.2087594778
21350171900.0 -0.9891784783 -0.1940657054
21400171600.0 -0.9910432242 -0.1796383836
21450171300.0 -0.9917934283 -0.1653539144
21500171000.0 -0.9919940636 -0.1511564751
21550170700.0 -0.9922269175 -0.1357041702
21600170400.0 -0.9919272313 -0.1198133856
21650170100.0 -0.9917144016 -0.1049977325
21700169800.0 -0.9913296536 -0.0901683051
21750169500.0 -0.9908858384 -0.0748491614
21800169200.0 -0.989181803 -0.0588255181
21850168900.0 -0.9890563872 -0.0421704112
21900168600.0 -0.9872161563 -0.0267202825
21950168300.0 -0.9857186797 -0.0115132188
22000168000.0 -0.9845986238 0.0042016768
22050167700.0 -0.9841748162 0.0181254465
22100167400.0 -0.9842115691 0.0330219207
22150167100.0 -0.9844733025 0.048264722
22200166800.0 -0.9845970615 0.0638981017
22250166500.0 -0.9842712573 0.0805924364
22300166200.0 -0.9831788113 0.0963920824
22350165900.0 -0.9811622904 0.1123957458
22400165600.0 -0.9794442108 0.1286615597
22450165300.0 -0.9778225474 0.1435506011
22500165000.0 -0.9752949041 0.1568737424
22550164700.0 -0.9743329139 0.1715301796
22600164400.0 -0.9729078178 0.1874388849
22650164100.0 -0.9712725498 0.2016502986
22700163800.0 -0.9678188668 0.2172458595
22750163500.0 -0.9653661299 0.2322181588
22800163200.0 -0.9623744024 0.2462783512
22850162900.0 -0.9600975542 0.2595662037
22900162600.0 -0.9584272327 0.2728344894
22950162300.0 -0.9570274145 0.2859011624
23000162000.0 -0.9554536513 0.2979113337
23050161700.0 -0.9533505549 0.3109312334
23100161400.0 -0.9506207038 0.3228609024
23150161100.0 -0.9472977648 0.3354683656
23200160800.0 -0.9454660916 0.3481997049
23250160500.0 -0.9415230569 0.3598129313
23300160200.0 -0.9395398925 0.3719560505
23350159900.0 -0.9351523421 0.38498136
23400159600.0 -0.9310707379 0.3978537265
23450159300.0 -0.9254403326 0.4108849361
23500159000.0 -0.9215416238 0.4233181683
23550158700.0 -0.9170208449 0.4360873333
23600158400.0 -0.9115310341 0.4488797172
23650158100.0 -0.9056807851 0.4624448863
23700157800.0 -0.8983198714 0.4761579751
23750157500.0 -0.8899481016 0.48978357
23800157200.0 -0.8817607401 0.5026329056
23850156900.0 -0.8730163413 0.5145979552
23900156600.0 -0.8642722084 0.527012164
23950156300.0 -0.8551048119 0.5393724885
24000156000.0 -0.8465961175 0.5517408972
24050155700.0 -0.8363387039 0.5635858179
24100155400.0 -0.8268666839 0.5755226996
24150155100.0 -0.8164551361 0.5870512993
24200154800.0 -0.8053259893 0.5985270252
24250154500.0 -0.7946935397 0.6105755896
24300154200.0 -0.7839316495 0.6224636793
24350153900.0 -0.7723984699 0.6330240734
24400153600.0 -0.7608625562 0.6434249114
24450153300.0 -0.7492553411 0.6538736153
24500153000.0 -0.738286642 0.6637793464
24550152700.0 -0.7276378424 0.6740507078
24600152400.0 -0.7160918734 0.6837026418
24650152100.0 -0.7044889881 0.6924887473
