!Created with skrf (http://scikit-rf.org).
# Hz S RI R 50.0 
!freq ReS11 ImS11
300000.0 -0.9752114303 -0.1174986619
50299700.0 -0.9999482924 0.0154887434
100299400.0 -0.9980123825 0.0285742277
150299100.0 -1.0028754 0.0451896966
200298800.0 -0.9996714972 0.0585111445
250298500.0 -0.997427687 0.0722404798
300298200.0 -0.9860795064 0.0878849281
350297900.0 -0.994134419 0.0987286807
400297600.0 -0.9933404529 0.1153218867
450297300.0 -0.991135388 0.1290108357
500297000.0 -0.9895533755 0.1439800893
550296700.0 -0.9843119874 0.1562337756
600296400.0 -1.017369525 0.1896030777
650296100.0 -0.9822971755 0.1864225271
700295800.0 -0.9793208531 0.2007510142
750295500.0 -0.9762919533 0.2146187724
800295200.0 -0.9728952141 0.228730074
850294900.0 -0.9696536763 0.2424169483
900294600.0 -0.9658716465 0.2562203278
950294300.0 -0.9620256334 0.26991649
1000294000.0 -0.9582222975 0.2838270462
1050293700.0 -0.9535341077 0.2976794726
1100293400.0 -0.9492700298 0.312219601
1150293100.0 -0.9453677274 0.3240896786
1200292800.0 -0.9400199073 0.3383926557
1250292500.0 -0.9346416807 0.3517078403
1300292200.0 -0.9288860411 0.3649330033
1350291900.0 -0.9232507552 0.3789409482
1400291600.0 -0.9178111167 0.3922050976
1450291300.0 -0.9124565373 0.4045738836
1500291000.0 -0.9061046663 0.4178625231
1550290700.0 -0.8996851809 0.4311670189
1600290400.0 -0.8935571892 0.4441433922
1650290100.0 -0.886733513 0.4563407536
1700289800.0 -0.8796961422 0.4697126365
1750289500.0 -0.872651961 0.4820737538
1800289200.0 -0.8654281966 0.4949692344
1850288900.0 -0.8586812516 0.5060941734
1900288600.0 -0.8508470155 0.519100179
1950288300.0 -0.842791664 0.5317888631
2000288000.0 -0.83546502 0.5431497881
2050287700.0 -0.8270372235 0.5556828236
2100287400.0 -0.819090463 0.5672242197
2150287100.0 -0.8104213673 0.579219957
2200286800.0 -0.8029894459 0.5895174114
2250286500.0 -0.7937744612 0.6016258754
2300286200.0 -0.7851276663 0.6130646176
2350285900.0 -0.776417862 0.6241494636
2400285600.0 -0.7672989318 0.6354522517
2450285300.0 -0.7589811219 0.6456123074
2500285000.0 -0.749255233 0.6569629843
2550284700.0 -0.7401944821 0.667237669
2600284400.0 -0.7309567788 0.6772186105
2650284100.0 -0.7218981373 0.6879983483
2700283800.0 -0.7114402633 0.6984996512
2750283500.0 -0.7008133047 0.7089784846
2800283200.0 -0.6911389295 0.7188704643
2850282900.0 -0.6809159196 0.7285981741
2900282600.0 -0.670460968 0.7380261113
2950282300.0 -0.6602520998 0.7472291801
3000282000.0 -0.6497054702 0.7569531176
3050281700.0 -0.6385347483 0.7661352255
3100281400.0 -0.6264818943 0.775516346
3150281100.0 -0.6146418914 0.7849134101
3200280800.0 -0.603152713 0.7935241297
3250280500.0 -0.5921643908 0.8010270135
3300280200.0 -0.5809456791 0.808997118
3350279900.0 -0.5692903304 0.8164952205
3400279600.0 -0.557179228 0.8243586073
3450279300.0 -0.5461372309 0.8312920316
3500279000.0 -0.534098346 0.8383960731
3550278700.0 -0.5218539293 0.8459119246
3600278400.0 -0.5094278077 0.8529191613
3650278100.0 -0.4964461219 0.8605683074
3700277800.0 -0.4842899091 0.8668420166
3750277500.0 -0.4720712143 0.8735065611
3800277200.0 -0.4593815953 0.8800221334
3850276900.0 -0.4475339723 0.8858891735
3900276600.0 -0.4365219779 0.8914730278
3950276300.0 -0.424209686 0.8976732079
4000276000.0 -0.4123381229 0.9036716289
4050275700.0 -0.3992512622 0.9099218748
4100275400.0 -0.3881528039 0.9152615562
4150275100.0 -0.3754084353 0.9208250517
4200274800.0 -0.36236937 0.9261232493
4250274500.0 -0.3503542331 0.9314799439
4300274200.0 -0.3372715733 0.9367535926
4350273900.0 -0.3236256186 0.9420691031
4400273600.0 -0.3086483474 0.9473678348
4450273300.0 -0.2931645282 0.9524878445
4500273000.0 -0.279609905 0.9567718792
4550272700.0 -0.2654033078 0.9610126156
4600272400.0 -0.249951981 0.9650581631
4650272100.0 -0.2381613232 0.9684114175
4700271800.0 -0.224893386 0.9717280269
4750271500.0 -0.2131886131 0.9746086595
4800271200.0 -0.2006665706 0.9773578691
4850270900.0 -0.1868218175 0.9802108409
4900270600.0 -0.1730052723 0.9824192115
4950270300.0 -0.1587660028 0.9849712107
5000270000.0 -0.1442041218 0.9872294705
5050269700.0 -0.1309732928 0.9888603065
5100269400.0 -0.1171597551 0.9902311791
5150269100.0 -0.1041288131 0.9920570977
5200268800.0 -0.0908168484 0.9929829593
5250268500.0 -0.0776535987 0.9938228433
5300268200.0 -0.0644425726 0.9949133121
5350267900.0 -0.0522822276 0.9953779388
5400267600.0 -0.0360406547 0.9964998012
5450267300.0 -0.0231348711 0.9965532117
5500267000.0 -0.0079593871 0.9970589828
5550266700.0 0.0068894851 0.9974286621
5600266400.0 0.0227500539 0.9973144778
5650266100.0 0.0391520509 0.9970980722
5700265800.0 0.0536494672 0.9961628766
5750265500.0 0.0688415166 0.9955449923
5800265200.0 0.0826495884 0.9944755503
5850264900.0 0.0962165337 0.9937366013
5900264600.0 0.112750489 0.9918050015
5950264300.0 0.1246780272 0.9898954868
6000264000.0 0.1385595543 0.9879742982
6050263700.0 0.1512708963 0.9867938529
6100263400.0 0.1635187605 0.9847596799
6150263100.0 0.1784480495 0.9826019673
6200262800.0 0.1885705649 0.9808538095
6250262500.0 0.2014312988 0.978433024
6300262200.0 0.2142461012 0.9756782287
6350261900.0 0.2271769315 0.9727557754
6400261600.0 0.2409125969 0.9693450536
6450261300.0 0.2523446483 0.9665565871
6500261000.0 0.264955509 0.9629714426
6550260700.0 0.2779724782 0.9590736628
6600260400.0 0.2913921905 0.955148524
6650260100.0 0.3055452618 0.9506317912
6700259800.0 0.3173330322 0.9464346458
6750259500.0 0.3313418856 0.9414698717
6800259200.0 0.344099673 0.9365761974
6850258900.0 0.3562148818 0.9313626568
6900258600.0 0.3685557698 0.9265310133
6950258300.0 0.3809181793 0.9211253621
7000258000.0 0.3930149748 0.9156077165
7050257700.0 0.4054471379 0.9096153615
7100257400.0 0.4180752253 0.9033327539
7150257100.0 0.4283897156 0.898141915
7200256800.0 0.4412369177 0.89164995
7250256500.0 0.4529332608 0.885543887
7300256200.0 0.4661384437 0.8787117785
7350255900.0 0.4786196359 0.8719690914
7400255600.0 0.4913633112 0.864406637
7450255300.0 0.5067940307 0.855573418
7500255000.0 0.5185788866 0.8484262894
7550254700.0 0.5327114912 0.8398973006
7600254400.0 0.5449271455 0.831315032
7650254100.0 0.5567954976 0.8240007552
7700253800.0 0.5687166132 0.8158661509
7750253500.0 0.5796098254 0.8080259485
7800253200.0 0.5903907359 0.8004878765
7850252900.0 0.6001074482 0.7933956837
7900252600.0 0.6119784836 0.7847715412
7950252300.0 0.6207370348 0.7781630642
8000252000.0 0.6308154507 0.7704050473
8050251700.0 0.6413121635 0.7621519549
8100251400.0 0.6514026331 0.7542327191
8150251100.0 0.6615731295 0.7453584093
8200250800.0 0.6708583994 0.7375332721
8250250500.0 0.680265908 0.729630726
8300250200.0 0.6893487075 0.7208950945
8350249900.0 0.698214347 0.7122676633
8400249600.0 0.7063864636 0.7040167205
8450249300.0 0.7157103075 0.6948594491
8500249000.0 0.7239428862 0.6861445951
8550248700.0 0.7323939097 0.6769582352
8600248400.0 0.7410116501 0.6674803091
8650248100.0 0.7487668151 0.6582439177
8700247800.0 0.7581948529 0.6468394296
8750247500.0 0.7664396049 0.6367957839
8800247200.0 0.7746644439 0.6262777473
8850246900.0 0.7835480657 0.614981298
8900246600.0 0.7916691077 0.603560202
8950246300.0 0.8015743156 0.5904230339
9000246000.0 0.8111178731 0.5778475067
9050245700.0 0.820042434 0.5648461052
9100245400.0 0.8285702922 0.5523021092
9150245100.0 0.8378253041 0.5384723572
9200244800.0 0.8479167696 0.5232298059
9250244500.0 0.8570644634 0.5080501129
9300244200.0 0.865341222 0.4930842307
9350243900.0 0.8733583022 0.4794105572
9400243600.0 0.8798623798 0.4673642074
9450243300.0 0.8858776094 0.4554327483
9500243000.0 0.8919013962 0.4434157735
9550242700.0 0.8957586362 0.4357135448
9600242400.0 0.8998500337 0.4283681583
9650242100.0 0.9035700551 0.4217509941
9700241800.0 0.9080604252 0.4134952244
9750241500.0 0.9116984955 0.4065221656
9800241200.0 0.9169350985 0.3969768029
9850240900.0 0.9220719496 0.3852489793
9900240600.0 0.9279512837 0.3737503548
9950240300.0 0.9344173731 0.3574466795
10000240000.0 0.9392516404 0.3459600763
10050239700.0 0.9448861452 0.3304896101
10100239400.0 0.9497190593 0.3151990822
10150239100.0 0.9539987388 0.300658419
10200238800.0 0.958322733 0.2857019798
10250238500.0 0.9615008157 0.2723835613
10300238200.0 0.9646888272 0.258257709
10350237900.0 0.9673622833 0.2451423386
10400237600.0 0.9698134442 0.2321106622
10450237300.0 0.9725842329 0.2181739629
10500237000.0 0.9749903158 0.2060035964
10550236700.0 0.9770084321 0.1921943574
10600236400.0 0.9793271926 0.1778990339
10650236100.0 0.9814451617 0.1634002515
10700235800.0 0.983446882 0.1515593806
10750235500.0 0.9854134279 0.1382407319
10800235200.0 0.9875786282 0.1242680591
10850234900.0 0.9897335256 0.1093529143
10900234600.0 0.9917102447 0.0949692092
10950234300.0 0.9933807378 0.0817241761
11000234000.0 0.9953486319 0.0667491845
11050233700.0 0.9970046006 0.0502462687
11100233400.0 0.9983743669 0.0330552215
11150233100.0 0.9993595588 0.0167125255
11200232800.0 1.000513426 0.0012833406
11250232500.0 1.00114047 -0.0148200777
11300232200.0 1.001360993 -0.032833844
11350231900.0 1.001573819 -0.0482277842
11400231600.0 1.001503435 -0.0644318353
11450231300.0 1.00119092 -0.0800370363
11500231000.0 1.00003598 -0.0960246036
11550230700.0 0.9985498343 -0.1097695878
11600230400.0 0.9972269105 -0.1213604463
11650230100.0 0.9951443462 -0.1336466509
11700229800.0 0.9932183865 -0.1483265303
11750229500.0 0.9909683337 -0.162365018
11800229200.0 0.9880197525 -0.17584485
11850228900.0 0.9845916776 -0.188523696
11900228600.0 0.9812022617 -0.1984228729
11950228300.0 0.9776719071 -0.208828758
12000228000.0 0.9748576995 -0.2178366437
12050227700.0 0.9711915681 -0.2307652491
12100227400.0 0.9680892323 -0.2416163645
12150227100.0 0.9633190554 -0.2585058998
12200226800.0 0.959984849 -0.2688363834
12250226500.0 0.9560738101 -0.2817868159
12300226200.0 0.9513199466 -0.2939313388
12350225900.0 0.9462853979 -0.3083170018
12400225600.0 0.9419957313 -0.3210820253
12450225300.0 0.937654408 -0.333571131
12500225000.0 0.9323307397 -0.34845516
12550224700.0 0.926995343 -0.3623718297
12600224400.0 0.9221450011 -0.3751575816
12650224100.0 0.9162627633 -0.3894807065
12700223800.0 0.9110019666 -0.4021709202
12750223500.0 0.9056118678 -0.4151881626
12800223200.0 0.9002241038 -0.4279100488
12850222900.0 0.8947535245 -0.4400282618
12900222600.0 0.8891740078 -0.4519242749
12950222300.0 0.8824774648 -0.4650519901
13000222000.0 0.8769315778 -0.4763539189
13050221700.0 0.8700287197 -0.489270019
13100221400.0 0.8637677015 -0.501242365
13150221100.0 0.856797911 -0.5135678048
13200220800.0 0.8497910885 -0.5249539338
13250220500.0 0.8425104938 -0.5370519985
13300220200.0 0.8349690331 -0.5479528626
13350219900.0 0.827089282 -0.5595780355
13400219600.0 0.8188653523 -0.5717071749
13450219300.0 0.8090305498 -0.5857104897
13500219000.0 0.7989194646 -0.5994995185
13550218700.0 0.7885103316 -0.611837664
13600218400.0 0.7785252597 -0.6242696557
13650218100.0 0.7689609089 -0.6354901911
13700217800.0 0.7581726134 -0.6490016134
13750217500.0 0.7482564838 -0.6597565952
13800217200.0 0.7367269337 -0.670593444
13850216900.0 0.7257857148 -0.6819347201
13900216600.0 0.7157246949 -0.6912045242
13950216300.0 0.7049910831 -0.7013619396
14000216000.0 0.6953866288 -0.7109077295
14050215700.0 0.685703435 -0.7194780385
14100215400.0 0.6755605339 -0.7280527051
14150215100.0 0.6663888258 -0.7369059415
14200214800.0 0.6570216257 -0.7453421224
14250214500.0 0.6466303949 -0.7546153979
14300214200.0 0.6363491565 -0.7642065523
14350213900.0 0.6250751099 -0.7735172538
14400213600.0 0.6132033875 -0.783541014
14450213300.0 0.6004557098 -0.7934012144
14500213000.0 0.5869503928 -0.8034391076
14550212700.0 0.5751747769 -0.8130736677
14600212400.0 0.5626152519 -0.8213999009
14650212100.0 0.5493515738 -0.8301531712
14700211800.0 0.5353559026 -0.8399478888
14750211500.0 0.5238173041 -0.8482415025
14800211200.0 0.5109245378 -0.8561718886
14850210900.0 0.4988501632 -0.8636416714
14900210600.0 0.4856759719 -0.8714321569
14950210300.0 0.4723674071 -0.879150636
15000210000.0 0.4595892156 -0.8861208561
15050209700.0 0.4474416705 -0.8921218523
15100209400.0 0.4342872649 -0.8981119882
15150209100.0 0.422426772 -0.9040101861
15200208800.0 0.4096282119 -0.9085772314
15250208500.0 0.397523085 -0.9127419475
15300208200.0 0.3861540681 -0.918157549
15350207900.0 0.3727629461 -0.9226940147
15400207600.0 0.3581034701 -0.9278673028
15450207300.0 0.3433198776 -0.9327614975
15500207000.0 0.3285749525 -0.9378289072
15550206700.0 0.3141381396 -0.9430316891
15600206400.0 0.2980033093 -0.9477162658
15650206100.0 0.2821254157 -0.9516706359
15700205800.0 0.2682933082 -0.9552469113
15750205500.0 0.2537467143 -0.9588344455
15800205200.0 0.2395666398 -0.9622225665
15850204900.0 0.2250058388 -0.9657795572
15900204600.0 0.2098575076 -0.9691793395
15950204300.0 0.1957437008 -0.9723240095
16000204000.0 0.1814538789 -0.9753242573
16050203700.0 0.1667186384 -0.9778169672
16100203400.0 0.1524230751 -0.9800338016
16150203100.0 0.1378663103 -0.9824046641
16200202800.0 0.1233671521 -0.984317312
16250202500.0 0.1094495974 -0.9859936382
16300202200.0 0.0933639044 -0.9876436271
16350201900.0 0.0791684533 -0.9893088165
16400201600.0 0.0640146618 -0.9901472805
16450201300.0 0.0489317334 -0.9913731084
16500201000.0 0.0322116182 -0.9921540642
16550200700.0 0.0166140392 -0.9927530589
16600200400.0 0.0010007034 -0.9928890515
16650200100.0 -0.0149515325 -0.9928096241
16700199800.0 -0.0312252098 -0.9925765145
16750199500.0 -0.0501551495 -0.9920284801
16800199200.0 -0.0658637764 -0.9910691837
16850198900.0 -0.0812563117 -0.9893912253
16900198600.0 -0.0947459822 -0.9889133978
16950198300.0 -0.1083630582 -0.9873971971
17000198000.0 -0.1212341382 -0.9861009652
17050197700.0 -0.1343247776 -0.9844335741
17100197400.0 -0.1462912959 -0.9817593451
17150197100.0 -0.1596511056 -0.980035953
17200196800.0 -0.1719684975 -0.9782207257
17250196500.0 -0.1852495752 -0.9755073814
17300196200.0 -0.1970564379 -0.9735068277
17350195900.0 -0.2092012005 -0.9711966137
17400195600.0 -0.2215536346 -0.9685882113
17450195300.0 -0.2345105733 -0.9658287692
17500195000.0 -0.2481212124 -0.9624519747
17550194700.0 -0.2620281569 -0.9588409501
17600194400.0 -0.2758098913 -0.9549172675
17650194100.0 -0.2896796975 -0.9509381151
17700193800.0 -0.302516569 -0.9466316545
17750193500.0 -0.3169355089 -0.9421440676
17800193200.0 -0.3311317133 -0.9367532246
17850192900.0 -0.3462889919 -0.9313573378
17900192600.0 -0.3615629969 -0.9247668903
17950192300.0 -0.3771517094 -0.9183099431
18000192000.0 -0.3918781694 -0.9108912705
18050191700.0 -0.4059041906 -0.9030488997
18100191400.0 -0.420051697 -0.8953175936
18150191100.0 -0.4350144336 -0.887300477
18200190800.0 -0.4519078613 -0.8781862118
18250190500.0 -0.4689501931 -0.8688383345
18300190200.0 -0.4844433171 -0.8597503622
18350189900.0 -0.4993641233 -0.8512750507
18400189600.0 -0.5139587453 -0.8430976111
18450189300.0 -0.5274412404 -0.8353968019
18500189000.0 -0.5404881635 -0.8276543858
18550188700.0 -0.5532226293 -0.8196136912
18600188400.0 -0.5649246481 -0.812859999
18650188100.0 -0.5762197372 -0.8070796412
18700187800.0 -0.5864730955 -0.8001066044
18750187500.0 -0.5973185053 -0.7933733969
18800187200.0 -0.6079109481 -0.7865069325
18850186900.0 -0.6178944903 -0.7796183344
18900186600.0 -0.6282672677 -0.7722038565
18950186300.0 -0.638217582 -0.7646067936
19000186000.0 -0.6455237218 -0.758792069
19050185700.0 -0.65449963 -0.7512526811
19100185400.0 -0.6645208657 -0.7431459535
19150185100.0 -0.6743948584 -0.7345675667
19200184800.0 -0.6840347539 -0.7263454698
19250184500.0 -0.6943378296 -0.7171211417
19300184200.0 -0.7055063425 -0.7076616378
19350183900.0 -0.7165826181 -0.6976988667
19400183600.0 -0.7264961651 -0.6880903818
19450183300.0 -0.7351355362 -0.6779226361
19500183000.0 -0.7429598485 -0.6675510858
19550182700.0 -0.7537890154 -0.6571262703
19600182400.0 -0.7637752066 -0.6452837033
19650182100.0 -0.7748680823 -0.6330571414
19700181800.0 -0.7852857084 -0.6196768498
19750181500.0 -0.7960478755 -0.6054429051
19800181200.0 -0.8062555625 -0.5905001473
19850180900.0 -0.8158574586 -0.574960785
19900180600.0 -0.8237747752 -0.5604334306
19950180300.0 -0.8326700627 -0.5442060556
20000180000.0 -0.826026856 -0.5467058158
20050179700.0 -0.8342901221 -0.5339056522
20100179400.0 -0.8429838947 -0.5195366019
20150179100.0 -0.8512563963 -0.506989082
20200178800.0 -0.8591960853 -0.4940312021
20250178500.0 -0.8697878634 -0.4808477608
20300178200.0 -0.8791461285 -0.4660052172
20350177900.0 -0.8877983937 -0.4510945674
20400177600.0 -0.8971025766 -0.4370767684
20450177300.0 -0.9051193715 -0.4225838889
20500177000.0 -0.9131979707 -0.4088124106
20550176700.0 -0.9210051767 -0.3952297546
20600176400.0 -0.9278163421 -0.3821411284
20650176100.0 -0.9345405622 -0.3699803878
20700175800.0 -0.9417568827 -0.3576837974
20750175500.0 -0.9479591249 -0.3458561736
20800175200.0 -0.9519131167 -0.3348089652
20850174900.0 -0.9579234161 -0.3245034205
20900174600.0 -0.9625510669 -0.3138163823
20950174300.0 -0.9651257343 -0.3013189154
21000174000.0 -0.9704713324 -0.2905104035
21050173700.0 -0.9722458513 -0.2795327958
21100173400.0 -0.9762798405 -0.2677456653
21150173100.0 -0.9802880528 -0.2549492913
21200172800.0 -0.9842383938 -0.2415232968
21250172500.0 -0.9873211663 -0.2278498627
21300172200.0 -0.9895151253 -0.2133954642
21350171900.0 -0.9908963677 -0.1994676783
21400171600.0 -0.99194142 -0.1854426925
21450171300.0 -0.9936064584 -0.1698661432
21500171000.0 -0.9927878271 -0.1546502491
21550170700.0 -0.9919310134 -0.1392087094
21600170400.0 -0.9929616293 -0.1233286761
21650170100.0 -0.9927312809 -0.10730349
21700169800.0 -0.9906750007 -0.0936298395
21750169500.0 -0.9887578562 -0.0771476415
21800169200.0 -0.9884385705 -0.0602342006
21850168900.0 -0.9875395438 -0.0435100348
21900168600.0 -0.9855151037 -0.0267974609
21950168300.0 -0.9843512303 -0.0109673899
22000168000.0 -0.9832327226 0.0039402171
22050167700.0 -0.982836497 0.0180018507
22100167400.0 -0.9833401527 0.0331653227
22150167100.0 -0.983864708 0.0490532428
22200166800.0 -0.9841543123 0.0646283632
22250166500.0 -0.9838722884 0.0822493847
22300166200.0 -0.9828160131 0.0987490905
22350165900.0 -0.9818792576 0.1154968378
22400165600.0 -0.979988116 0.1312409977
22450165300.0 -0.9776968735 0.146672128
22500165000.0 -0.9761040456 0.1589362131
22550164700.0 -0.9756771142 0.1751227444
22600164400.0 -0.9733788954 0.1910819316
22650164100.0 -0.9720517914 0.2052805089
22700163800.0 -0.9687913197 0.2208495296
22750163500.0 -0.9663084632 0.2363591549
22800163200.0 -0.9637278548 0.2489992207
22850162900.0 -0.9609408099 0.2627880883
22900162600.0 -0.959589685 0.2763162249
22950162300.0 -0.9585428889 0.2890045167
23000162000.0 -0.9573331431 0.3008966245
23050161700.0 -0.9556549193 0.312945946
23100161400.0 -0.9523948069 0.3262491002
23150161100.0 -0.9501208065 0.3384022632
23200160800.0 -0.9472242658 0.3506459332
23250160500.0 -0.9441716032 0.362359286
23300160200.0 -0.9419682675 0.373993168
23350159900.0 -0.9381631245 0.3870655685
23400159600.0 -0.9335009595 0.4011885365
23450159300.0 -0.9292242762 0.4140682384
23500159000.0 -0.9241569237 0.4270600409
23550158700.0 -0.919534577 0.4401212234
23600158400.0 -0.9145385957 0.4533669989
23650158100.0 -0.9080600591 0.4674343321
23700157800.0 -0.9005022219 0.4812300093
23750157500.0 -0.8919765363 0.4954418923
23800157200.0 -0.8829337389 0.5090478735
23850156900.0 -0.8747480925 0.5217166965
23900156600.0 -0.8652850751 0.5341947907
23950156300.0 -0.8551567689 0.5467311323
24000156000.0 -0.8469621244 0.5582708244
24050155700.0 -0.8368704163 0.5702231455
24100155400.0 -0.8263832668 0.5823812234
24150155100.0 -0.8156492853 0.5935332793
24200154800.0 -0.8056993978 0.6050501677
24250154500.0 -0.7940696286 0.616591532
24300154200.0 -0.7827497593 0.6287504728
24350153900.0 -0.7704838069 0.6393179106
24400153600.0 -0.7584343774 0.6493197149
24450153300.0 -0.7464014447 0.6592460438
24500153000.0 -0.7349535435 0.6686519433
24550152700.0 -0.7237880987 0.6785595964
24600152400.0 -0.7123965474 0.6872242505
24650152100.0 -0.7013254145 0.6958438323
