!Created with skrf (http://scikit-rf.org).
# Hz S RI R 50.0 
!freq ReS11 ImS11
300000.0 -0.9764375884 -0.1132228175
50299700.0 -1.000170064 0.0157302696
100299400.0 -0.9980449979 0.0285785651
150299100.0 -1.002736508 0.0456810478
200298800.0 -0.9996244911 0.0589249976
250298500.0 -0.9974211177 0.0724642562
300298200.0 -0.9861254725 0.0881209228
350297900.0 -0.9940572977 0.0989508332
400297600.0 -0.9932811269 0.1158039643
450297300.0 -0.9909391981 0.1294426619
500297000.0 -0.989419908 0.1441164361
550296700.0 -0.9844935355 0.1567879762
600296400.0 -1.017373953 0.1900530293
650296100.0 -0.9822387766 0.1867715016
700295800.0 -0.9795147491 0.2007377249
750295500.0 -0.9763582654 0.2150052148
800295200.0 -0.9731069171 0.2289721064
850294900.0 -0.9695486435 0.242793006
900294600.0 -0.9656847526 0.2566257166
950294300.0 -0.9621058039 0.2703531833
1000294000.0 -0.9582593644 0.2843239645
1050293700.0 -0.9536553706 0.2981324514
1100293400.0 -0.9491317207 0.3124948512
1150293100.0 -0.9453820634 0.3244343376
1200292800.0 -0.9400835418 0.3388780321
1250292500.0 -0.9346166208 0.3521983214
1300292200.0 -0.9289139835 0.3654395934
1350291900.0 -0.9232714604 0.3794846106
1400291600.0 -0.9178737228 0.3923214409
1450291300.0 -0.9124681659 0.4048276029
1500291000.0 -0.9058897899 0.4181669369
1550290700.0 -0.8996022331 0.43155225
1600290400.0 -0.8932687205 0.444621093
1650290100.0 -0.8867476714 0.4566384216
1700289800.0 -0.8797573 0.4700252666
1750289500.0 -0.8726867586 0.4824069786
1800289200.0 -0.8652439497 0.4953283865
1850288900.0 -0.8585339758 0.5064933788
1900288600.0 -0.8507717138 0.5197382034
1950288300.0 -0.8425674909 0.5320013508
2000288000.0 -0.8351327656 0.5435675128
2050287700.0 -0.8268025467 0.5559600774
2100287400.0 -0.8189657903 0.5676197758
2150287100.0 -0.8103889463 0.5796692988
2200286800.0 -0.8025955826 0.5900532469
2250286500.0 -0.7939870379 0.6018436777
2300286200.0 -0.7847981417 0.6137164418
2350285900.0 -0.7762190754 0.6246150956
2400285600.0 -0.7672654234 0.6356952266
2450285300.0 -0.7583957303 0.6459783524
2500285000.0 -0.7486752259 0.6573015428
2550284700.0 -0.7399449118 0.6675036839
2600284400.0 -0.7304447913 0.6778399272
2650284100.0 -0.7214553189 0.6882180828
2700283800.0 -0.7107709641 0.6987630282
2750283500.0 -0.7008790502 0.7095153984
2800283200.0 -0.6906259964 0.7190642195
2850282900.0 -0.6806372833 0.7287701662
2900282600.0 -0.6701442388 0.7383691832
2950282300.0 -0.6600610941 0.7476391804
3000282000.0 -0.649526928 0.757285825
3050281700.0 -0.6382200558 0.7664402158
3100281400.0 -0.6262027481 0.7757988957
3150281100.0 -0.61440706 0.7853653307
3200280800.0 -0.6028379536 0.7937090402
3250280500.0 -0.5920550263 0.801232435
3300280200.0 -0.5807084137 0.8090991531
3350279900.0 -0.5692707092 0.8166530417
3400279600.0 -0.557229043 0.8244779701
3450279300.0 -0.5461160945 0.8315252382
3500279000.0 -0.5341097281 0.8386972351
3550278700.0 -0.5215098374 0.8459055751
3600278400.0 -0.5094189483 0.8530442545
3650278100.0 -0.4959539248 0.8607363916
3700277800.0 -0.4838573125 0.867130561
3750277500.0 -0.4718008668 0.8736954279
3800277200.0 -0.4594369794 0.8803060522
3850276900.0 -0.4470938692 0.8861866629
3900276600.0 -0.436132958 0.8915261652
3950276300.0 -0.4239142185 0.8976972383
4000276000.0 -0.4119052568 0.9036628756
4050275700.0 -0.3987556282 0.9100402514
4100275400.0 -0.3873259884 0.9152593044
4150275100.0 -0.375079661 0.9211262117
4200274800.0 -0.3619305744 0.9265839936
4250274500.0 -0.3497664837 0.9313068194
4300274200.0 -0.3366842047 0.9366181529
4350273900.0 -0.3231151011 0.9421413936
4400273600.0 -0.3082527119 0.9473842409
4450273300.0 -0.2925610394 0.9526287116
4500273000.0 -0.2791043249 0.9567959337
4550272700.0 -0.2648745622 0.9612175159
4600272400.0 -0.249359465 0.965334626
4650272100.0 -0.2378365676 0.9686263591
4700271800.0 -0.2244390134 0.9718870223
4750271500.0 -0.2127903579 0.9746685833
4800271200.0 -0.2002574757 0.9774358047
4850270900.0 -0.1864956004 0.980143684
4900270600.0 -0.1723408813 0.9827032857
4950270300.0 -0.1581691917 0.9852577125
5000270000.0 -0.1439086603 0.9873681969
5050269700.0 -0.1304210374 0.9890949965
5100269400.0 -0.1167033374 0.9904918259
5150269100.0 -0.1038052657 0.9923164298
5200268800.0 -0.0904475511 0.9933008586
5250268500.0 -0.0771644924 0.9938242187
5300268200.0 -0.0643553298 0.994582454
5350267900.0 -0.0521826352 0.995077367
5400267600.0 -0.0357554112 0.9964655978
5450267300.0 -0.0227575959 0.9968675396
5500267000.0 -0.0075833435 0.997078822
5550266700.0 0.0075089438 0.9973504071
5600266400.0 0.0231156602 0.9973580732
5650266100.0 0.0396429027 0.9969448469
5700265800.0 0.0542295283 0.9963598304
5750265500.0 0.0693603982 0.9955506317
5800265200.0 0.0834099461 0.994456098
5850264900.0 0.0964845218 0.9929800619
5900264600.0 0.1131594475 0.9914901754
5950264300.0 0.1251013316 0.9897456728
6000264000.0 0.1393201878 0.9882767745
6050263700.0 0.1515602516 0.9863834815
6100263400.0 0.1643625826 0.9850633924
6150263100.0 0.1784899726 0.9825319308
6200262800.0 0.1890920896 0.9808732653
6250262500.0 0.2017706596 0.9782342028
6300262200.0 0.2146954141 0.9755893595
6350261900.0 0.227775799 0.9726156144
6400261600.0 0.2415807593 0.9694499943
6450261300.0 0.2531221035 0.9667353639
6500261000.0 0.2657544398 0.9632500883
6550260700.0 0.2786430963 0.959170905
6600260400.0 0.2920391842 0.9550059559
6650260100.0 0.3061164128 0.9506555187
6700259800.0 0.3179205666 0.9463590958
6750259500.0 0.3319783548 0.9412996259
6800259200.0 0.3447384444 0.9364569646
6850258900.0 0.3571336097 0.9314768371
6900258600.0 0.3689992516 0.9263020096
6950258300.0 0.3813493702 0.9210003842
7000258000.0 0.3934050929 0.915720518
7050257700.0 0.4056562809 0.9095038724
7100257400.0 0.4182377666 0.9032333622
7150257100.0 0.428678888 0.8978862936
7200256800.0 0.4414831438 0.8915940598
7250256500.0 0.4532270478 0.8853177794
7300256200.0 0.4665226542 0.8783875518
7350255900.0 0.4791445257 0.8714929687
7400255600.0 0.4924688875 0.8643566207
7450255300.0 0.507523346 0.8552408019
7500255000.0 0.5190051548 0.8482808134
7550254700.0 0.5328744697 0.8395954148
7600254400.0 0.5458985101 0.831524107
7650254100.0 0.5573986328 0.8233450576
7700253800.0 0.569148488 0.8155405373
7750253500.0 0.5803080379 0.8075960592
7800253200.0 0.5908950618 0.8000452056
7850252900.0 0.6007162867 0.7930207233
7900252600.0 0.6124578044 0.7841554558
7950252300.0 0.6212072551 0.777500034
8000252000.0 0.6314444344 0.7697890559
8050251700.0 0.6420471059 0.7615432423
8100251400.0 0.6518847107 0.7535515744
8150251100.0 0.6623798582 0.7448274668
8200250800.0 0.671437843 0.7368458245
8250250500.0 0.680453796 0.7288531708
8300250200.0 0.689734227 0.7202780312
8350249900.0 0.6986681601 0.7116073773
8400249600.0 0.7070524867 0.7033847124
8450249300.0 0.7159086337 0.6942905144
8500249000.0 0.7245133428 0.6855503899
8550248700.0 0.7329478568 0.676511091
8600248400.0 0.7414191035 0.6670956104
8650248100.0 0.7488586962 0.6577213816
8700247800.0 0.7585551783 0.6465096906
8750247500.0 0.7667718542 0.6364506621
8800247200.0 0.7751966954 0.6259019091
8850246900.0 0.7837736672 0.6146074615
8900246600.0 0.7924205445 0.6030384696
8950246300.0 0.8017487106 0.5902134579
9000246000.0 0.8111559204 0.5775310765
9050245700.0 0.8200109088 0.5644044378
9100245400.0 0.8287253061 0.5520510815
9150245100.0 0.8382729699 0.5382655962
9200244800.0 0.8479534174 0.5228999775
9250244500.0 0.8575396224 0.5072318825
9300244200.0 0.8657761939 0.4924560649
9350243900.0 0.8737453724 0.4787319289
9400243600.0 0.8803542774 0.4663899299
9450243300.0 0.88613787 0.4548547152
9500243000.0 0.8923850869 0.442698813
9550242700.0 0.8961412238 0.4350906911
9600242400.0 0.9000446356 0.4277453172
9650242100.0 0.9033506224 0.4213127823
9700241800.0 0.9084944146 0.4129339232
9750241500.0 0.9119901759 0.4055796336
9800241200.0 0.9168494932 0.3964380364
9850240900.0 0.9223835419 0.3850142635
9900240600.0 0.9279217468 0.3733044216
9950240300.0 0.9348736258 0.3567748641
10000240000.0 0.9393211698 0.345250285
10050239700.0 0.9447151935 0.3299813261
10100239400.0 0.9501089706 0.314271475
10150239100.0 0.9543643391 0.2996069216
10200238800.0 0.9584175073 0.284723842
10250238500.0 0.9617415842 0.2716572318
10300238200.0 0.9649067359 0.257583768
10350237900.0 0.9675281411 0.2444419974
10400237600.0 0.9699327891 0.2312087256
10450237300.0 0.9726670104 0.2176711377
10500237000.0 0.974962316 0.2052576591
10550236700.0 0.9768688162 0.1916664771
10600236400.0 0.9792302274 0.1778826057
10650236100.0 0.9811856957 0.1634519458
10700235800.0 0.983685165 0.1511109125
10750235500.0 0.9862023793 0.1374230289
10800235200.0 0.9878559501 0.1235639084
10850234900.0 0.989742452 0.1089057795
10900234600.0 0.9918637082 0.0943635295
10950234300.0 0.9935988609 0.0811890249
11000234000.0 0.995307047 0.0661816595
11050233700.0 0.9969511008 0.0494930818
11100233400.0 0.9983760542 0.032271864
11150233100.0 1.000074445 0.0156841389
11200232800.0 1.000289415 0.0005145361
11250232500.0 1.001337853 -0.0153493732
11300232200.0 1.002111926 -0.0336437919
11350231900.0 1.001633257 -0.0493335696
11400231600.0 1.001914695 -0.0649704148
11450231300.0 1.000928065 -0.0802781346
11500231000.0 0.9998788394 -0.0965593866
11550230700.0 0.9982178454 -0.110341664
11600230400.0 0.9971331977 -0.1227605259
11650230100.0 0.9947063755 -0.13434027
11700229800.0 0.9926307218 -0.1494240563
11750229500.0 0.9905705322 -0.1636722786
11800229200.0 0.9876425531 -0.1777140257
11850228900.0 0.9842341515 -0.1899664716
11900228600.0 0.9806327317 -0.1994564444
11950228300.0 0.97735613 -0.2100661264
12000228000.0 0.9747743594 -0.2183752231
12050227700.0 0.9713239075 -0.2310185795
12100227400.0 0.9686120666 -0.2417180798
12150227100.0 0.9627010944 -0.2596561261
12200226800.0 0.9597272601 -0.2696485647
12250226500.0 0.9554436952 -0.2832069474
12300226200.0 0.9510889334 -0.2956007591
12350225900.0 0.9461617982 -0.3092421078
12400225600.0 0.9419995282 -0.3213919514
12450225300.0 0.9377141078 -0.3344000684
12500225000.0 0.9317720332 -0.3493794175
12550224700.0 0.9263846173 -0.363088989
12600224400.0 0.9216590729 -0.3758958586
12650224100.0 0.9159371051 -0.3900962052
12700223800.0 0.9106126288 -0.403031911
12750223500.0 0.904971357 -0.4161318457
12800223200.0 0.8998056706 -0.4286320798
12850222900.0 0.8946300816 -0.4409923235
12900222600.0 0.8889177659 -0.4532109681
12950222300.0 0.8824545127 -0.4656094146
13000222000.0 0.8763630529 -0.4775159078
13050221700.0 0.8700022545 -0.4898037261
13100221400.0 0.8635628222 -0.5008973084
13150221100.0 0.8562658465 -0.5142050766
13200220800.0 0.8492957991 -0.5255492575
13250220500.0 0.8418361649 -0.5375826722
13300220200.0 0.8345241477 -0.5483971951
13350219900.0 0.8263430529 -0.5606048641
13400219600.0 0.818021496 -0.5725969663
13450219300.0 0.80815048 -0.5863979507
13500219000.0 0.7980324516 -0.600427512
13550218700.0 0.787892501 -0.6131071804
13600218400.0 0.7778157625 -0.6254023803
13650218100.0 0.7679388137 -0.6366388961
13700217800.0 0.7575320355 -0.6489783019
13750217500.0 0.7473609596 -0.6602474944
13800217200.0 0.7351900209 -0.6714800702
13850216900.0 0.7247706839 -0.6836719267
13900216600.0 0.7148060024 -0.6921215522
13950216300.0 0.704263025 -0.7024840861
14000216000.0 0.6945405682 -0.7115475859
14050215700.0 0.6843181226 -0.7194793259
14100215400.0 0.6744356826 -0.7291149795
14150215100.0 0.6657030505 -0.7376245193
14200214800.0 0.6563304593 -0.7459678379
14250214500.0 0.6459993937 -0.7552607575
14300214200.0 0.6355210093 -0.7645896015
14350213900.0 0.624800866 -0.7741164022
14400213600.0 0.6127318136 -0.7840224189
14450213300.0 0.5993329328 -0.7941677841
14500213000.0 0.5866159306 -0.803846643
14550212700.0 0.5742694627 -0.8133713394
14600212400.0 0.5612950372 -0.8226254913
14650212100.0 0.5484428289 -0.8312053258
14700211800.0 0.5343834696 -0.8402164038
14750211500.0 0.5227898889 -0.8485842078
14800211200.0 0.5102834584 -0.8563400633
14850210900.0 0.4981993429 -0.864171471
14900210600.0 0.484872696 -0.8720491668
14950210300.0 0.4714814562 -0.8796219406
15000210000.0 0.4584948004 -0.8863180469
15050209700.0 0.4460689082 -0.8924128164
15100209400.0 0.4336674234 -0.8984896865
15150209100.0 0.4206787503 -0.9039796705
15200208800.0 0.4082314331 -0.9096170035
15250208500.0 0.3973275849 -0.9138531401
15300208200.0 0.3847437409 -0.9180692253
15350207900.0 0.371914699 -0.9226808416
15400207600.0 0.3574967202 -0.9282681055
15450207300.0 0.3426021387 -0.9340175645
15500207000.0 0.3271609695 -0.9383879333
15550206700.0 0.3128436105 -0.943227293
15600206400.0 0.2966831589 -0.9475844079
15650206100.0 0.2807000178 -0.9520298204
15700205800.0 0.2667785518 -0.955733856
15750205500.0 0.252270487 -0.959098083
15800205200.0 0.2378640156 -0.9625739423
15850204900.0 0.2235583196 -0.9659291684
15900204600.0 0.2085483823 -0.9695713742
15950204300.0 0.1944137539 -0.9724292962
16000204000.0 0.1803869075 -0.9752235604
16050203700.0 0.1655581071 -0.9781584641
16100203400.0 0.1512400112 -0.980402257
16150203100.0 0.1366009968 -0.9823966657
16200202800.0 0.1227975646 -0.9850003231
16250202500.0 0.1080171646 -0.9859910635
16300202200.0 0.0926642569 -0.9877340818
16350201900.0 0.078130927 -0.989064318
16400201600.0 0.0630860812 -0.9902584174
16450201300.0 0.0480049155 -0.9911565774
16500201000.0 0.0313212873 -0.9920286286
16550200700.0 0.0157120917 -0.9924857183
16600200400.0 -0.0001518598 -0.9923838794
16650200100.0 -0.0160179386 -0.9924386418
16700199800.0 -0.0329304875 -0.9921689458
16750199500.0 -0.0512472233 -0.9914851273
16800199200.0 -0.0677606146 -0.9903959946
16850198900.0 -0.0825724524 -0.9893456054
16900198600.0 -0.0959929407 -0.9886348878
16950198300.0 -0.1092328673 -0.9867396212
17000198000.0 -0.1219932827 -0.9857862533
17050197700.0 -0.1357030795 -0.9834822073
17100197400.0 -0.1485403842 -0.9817136694
17150197100.0 -0.1611055634 -0.9796280081
17200196800.0 -0.1738571376 -0.9779159771
17250196500.0 -0.1867911214 -0.9755907703
17300196200.0 -0.1988182031 -0.9730485231
17350195900.0 -0.2106596284 -0.9707340598
17400195600.0 -0.2227716796 -0.968288559
17450195300.0 -0.2359007655 -0.965509956
17500195000.0 -0.2493515287 -0.9621437548
17550194700.0 -0.2630558457 -0.9587349241
17600194400.0 -0.2770877247 -0.9546224432
17650194100.0 -0.2910240879 -0.9506509409
17700193800.0 -0.3036029652 -0.9461206346
17750193500.0 -0.3179531457 -0.9417165702
17800193200.0 -0.332997494 -0.9364756437
17850192900.0 -0.3476264078 -0.9312466582
17900192600.0 -0.3627898722 -0.92477757
17950192300.0 -0.3782239141 -0.9177058116
18000192000.0 -0.3930879169 -0.9105408803
18050191700.0 -0.4067711211 -0.9026400167
18100191400.0 -0.4210088743 -0.894776519
18150191100.0 -0.4359669716 -0.8868427681
18200190800.0 -0.452837032 -0.8774245405
18250190500.0 -0.4699682424 -0.8679563125
18300190200.0 -0.4855058832 -0.8592165525
18350189900.0 -0.5004938858 -0.8508170871
18400189600.0 -0.514464643 -0.8427305219
18450189300.0 -0.5280095606 -0.8340776359
18500189000.0 -0.5413657471 -0.8267581363
18550188700.0 -0.5536734372 -0.81867903
18600188400.0 -0.5656145099 -0.8121182153
18650188100.0 -0.5768839845 -0.8055403316
18700187800.0 -0.5874713032 -0.7995042943
18750187500.0 -0.5982566665 -0.7926062674
18800187200.0 -0.6088711915 -0.7854754738
18850186900.0 -0.6190650729 -0.7784886154
18900186600.0 -0.6293558359 -0.7713065233
18950186300.0 -0.6396430364 -0.7634247445
19000186000.0 -0.6465029175 -0.7574365444
19050185700.0 -0.6553296339 -0.749904186
19100185400.0 -0.6659958191 -0.7416772043
19150185100.0 -0.6761367948 -0.7332201547
19200184800.0 -0.6852665806 -0.7252467966
19250184500.0 -0.6953762837 -0.7156764967
19300184200.0 -0.7073813871 -0.7055747988
19350183900.0 -0.7176828025 -0.6964601239
19400183600.0 -0.7279442537 -0.6862411018
19450183300.0 -0.7360519928 -0.6764959235
19500183000.0 -0.7447657197 -0.6667402492
19550182700.0 -0.7547580161 -0.6555065759
19600182400.0 -0.7647661933 -0.6438097745
19650182100.0 -0.7757839423 -0.631141556
19700181800.0 -0.786284136 -0.6181767821
19750181500.0 -0.7969336922 -0.6040843434
19800181200.0 -0.8072311801 -0.5892847165
19850180900.0 -0.8167086581 -0.5736702317
19900180600.0 -0.8245804304 -0.5593950935
19950180300.0 -0.8334183133 -0.5426928452
20000180000.0 -0.8272735922 -0.5450889312
20050179700.0 -0.8345867623 -0.5321696572
20100179400.0 -0.8431849893 -0.518990457
20150179100.0 -0.850738285 -0.5060431987
20200178800.0 -0.8592203442 -0.492987697
20250178500.0 -0.8707575228 -0.4802574925
20300178200.0 -0.8786688051 -0.4653832169
20350177900.0 -0.8883851838 -0.4509372701
20400177600.0 -0.8970622208 -0.4364194859
20450177300.0 -0.9053056034 -0.4217599755
20500177000.0 -0.9134489663 -0.407976246
20550176700.0 -0.9216082211 -0.3943737787
20600176400.0 -0.9282272607 -0.381382923
20650176100.0 -0.9350852635 -0.3685473019
20700175800.0 -0.9417213556 -0.3574028
20750175500.0 -0.9483623535 -0.3457652473
20800175200.0 -0.9533372128 -0.3349619621
20850174900.0 -0.9579167244 -0.3224345631
20900174600.0 -0.9624426113 -0.3115370969
20950174300.0 -0.9660880265 -0.2999230265
21000174000.0 -0.9705898372 -0.2890165965
21050173700.0 -0.9719680771 -0.2775816941
21100173400.0 -0.9773757885 -0.2660829534
21150173100.0 -0.9808953564 -0.253069831
21200172800.0 -0.9849770681 -0.2394522484
21250172500.0 -0.9876690655 -0.225883875
21300172200.0 -0.9904451334 -0.2119976635
21350171900.0 -0.9912048665 -0.1969703078
21400171600.0 -0.9932621246 -0.1834475704
21450171300.0 -0.9933723962 -0.168708058
21500171000.0 -0.9939464105 -0.1541365435
21550170700.0 -0.9924107885 -0.1386159984
21600170400.0 -0.9929291073 -0.1229685093
21650170100.0 -0.9921252695 -0.1063011502
21700169800.0 -0.9891464378 -0.0921290159
21750169500.0 -0.9884058555 -0.0755555355
21800169200.0 -0.987505765 -0.0589263538
21850168900.0 -0.9871863873 -0.0421743546
21900168600.0 -0.9853998892 -0.0262211878
21950168300.0 -0.9842987692 -0.0107068043
22000168000.0 -0.9828725766 0.0046089186
22050167700.0 -0.9829660987 0.0188597372
22100167400.0 -0.9829671268 0.0339174836
22150167100.0 -0.9834719152 0.0492638003
22200166800.0 -0.9838628938 0.0664198056
22250166500.0 -0.9834790981 0.0837630344
22300166200.0 -0.9832801391 0.0995841629
22350165900.0 -0.9812128944 0.1163716213
22400165600.0 -0.9794828752 0.1316683623
22450165300.0 -0.978145038 0.1476159419
22500165000.0 -0.9761338396 0.16039662
22550164700.0 -0.9758033426 0.1762969108
22600164400.0 -0.9720327342 0.191803667
22650164100.0 -0.9703899588 0.2063741225
22700163800.0 -0.9682320004 0.2223779613
22750163500.0 -0.9657409296 0.2374126387
22800163200.0 -0.9630841978 0.2508710124
22850162900.0 -0.960139983 0.2641626752
22900162600.0 -0.9590192881 0.2777540305
22950162300.0 -0.9578016739 0.2904717862
23000162000.0 -0.9570905062 0.3020821428
23050161700.0 -0.9548225049 0.3147770965
23100161400.0 -0.9523614694 0.3276791856
23150161100.0 -0.9498521492 0.3399794883
23200160800.0 -0.946834296 0.352244855
23250160500.0 -0.9437459835 0.3641379075
23300160200.0 -0.9420990943 0.3762680935
23350159900.0 -0.9380981381 0.3886425383
23400159600.0 -0.9331853765 0.4015900569
23450159300.0 -0.9286159167 0.4153442499
23500159000.0 -0.9236474847 0.4282591703
23550158700.0 -0.9194084956 0.4414401359
23600158400.0 -0.913916927 0.4545952909
23650158100.0 -0.9075419475 0.4689256067
23700157800.0 -0.8998732011 0.4827032448
23750157500.0 -0.8912904849 0.4969749457
23800157200.0 -0.8825496344 0.5102133564
23850156900.0 -0.8734900452 0.5228097336
23900156600.0 -0.864004342 0.5354548006
23950156300.0 -0.8551127039 0.547139561
24000156000.0 -0.846141084 0.5596923616
24050155700.0 -0.8358762559 0.5712007346
24100155400.0 -0.8261475996 0.5829660891
24150155100.0 -0.8152571887 0.5949067332
24200154800.0 -0.804240431 0.6067485907
24250154500.0 -0.792395281 0.617677684
24300154200.0 -0.7813177161 0.6296995933
24350153900.0 -0.769589225 0.6402734832
24400153600.0 -0.7570607173 0.650506667
24450153300.0 -0.745271604 0.6601717796
24500153000.0 -0.7338384254 0.6700749267
24550152700.0 -0.7218544218 0.6797832704
24600152400.0 -0.7117873237 0.6884106702
24650152100.0 -0.6996110929 0.6969032542
