!Created with skrf (http://scikit-rf.org).
# Hz S RI R 50.0 
!freq ReS11 ImS11
300000.0 -0.9750600552 -0.117231274
50299700.0 -1.000033373 0.0155026614
100299400.0 -0.9979040654 0.0281965533
150299100.0 -1.002934389 0.04522101
200298800.0 -0.9994892451 0.0585066188
250298500.0 -0.997363386 0.0721137107
300298200.0 -0.985911072 0.0879544162
350297900.0 -0.9940606254 0.0987873329
400297600.0 -0.993208149 0.1153439869
450297300.0 -0.9912818029 0.1291194017
500297000.0 -0.9895221074 0.1439630357
550296700.0 -0.9844247417 0.1562477933
600296400.0 -1.017423453 0.189683145
650296100.0 -0.9823568082 0.1861812574
700295800.0 -0.9791248353 0.2006540232
750295500.0 -0.9763706733 0.2142749047
800295200.0 -0.9729476623 0.228839897
850294900.0 -0.9694997693 0.2426779005
900294600.0 -0.9658712788 0.2561089477
950294300.0 -0.9620352993 0.2699097404
1000294000.0 -0.9582242741 0.2839131774
1050293700.0 -0.9536708376 0.2976909831
1100293400.0 -0.9492893655 0.3120814667
1150293100.0 -0.9454152066 0.3240143946
1200292800.0 -0.9400707147 0.3383724508
1250292500.0 -0.9345833768 0.3517730872
1300292200.0 -0.9291460787 0.3649059901
1350291900.0 -0.923621437 0.3790442155
1400291600.0 -0.9179449299 0.3921824499
1450291300.0 -0.91234716 0.4044002105
1500291000.0 -0.9061398131 0.4178906117
1550290700.0 -0.8997382842 0.4311122135
1600290400.0 -0.8934441266 0.4440377079
1650290100.0 -0.8865893051 0.4562029347
1700289800.0 -0.8796860152 0.4697795595
1750289500.0 -0.8728575283 0.4819894488
1800289200.0 -0.8653339991 0.4948561447
1850288900.0 -0.8586710807 0.506388427
1900288600.0 -0.8507642112 0.5190333087
1950288300.0 -0.8428341136 0.5317055235
2000288000.0 -0.835263696 0.5431064803
2050287700.0 -0.8272311826 0.5553928992
2100287400.0 -0.8193199871 0.5670383256
2150287100.0 -0.8105696216 0.5791533985
2200286800.0 -0.8028574516 0.5894351824
2250286500.0 -0.7940905414 0.6015833115
2300286200.0 -0.7852022278 0.6133180251
2350285900.0 -0.7765656976 0.6242265153
2400285600.0 -0.7674638601 0.6354022718
2450285300.0 -0.7590053339 0.6457951705
2500285000.0 -0.7493191152 0.6571245791
2550284700.0 -0.7401806987 0.6674307785
2600284400.0 -0.7310270739 0.6774272732
2650284100.0 -0.7217769985 0.6879547091
2700283800.0 -0.7112128511 0.6983364954
2750283500.0 -0.7009907379 0.7089595946
2800283200.0 -0.6911416499 0.7186637484
2850282900.0 -0.6808563284 0.7285438497
2900282600.0 -0.6705259211 0.7381992143
2950282300.0 -0.6602998251 0.7473242112
3000282000.0 -0.6496550887 0.7566724026
3050281700.0 -0.6385887549 0.7660918529
3100281400.0 -0.626731354 0.775470584
3150281100.0 -0.6147104628 0.7848427701
3200280800.0 -0.6033365131 0.7932303731
3250280500.0 -0.5923891428 0.8012054656
3300280200.0 -0.581184885 0.8091696479
3350279900.0 -0.5695360168 0.8165138617
3400279600.0 -0.5573625998 0.8240269892
3450279300.0 -0.5461663263 0.8312268088
3500279000.0 -0.5343223274 0.8383448467
3550278700.0 -0.5217744599 0.8456509405
3600278400.0 -0.5094490187 0.8529238016
3650278100.0 -0.4962972399 0.8604254005
3700277800.0 -0.4841785875 0.8667971498
3750277500.0 -0.4721856561 0.8736318619
3800277200.0 -0.4595148039 0.8798259966
3850276900.0 -0.4476068224 0.8857752193
3900276600.0 -0.4367303936 0.891650434
3950276300.0 -0.4241184734 0.8975529007
4000276000.0 -0.4123241144 0.9037132498
4050275700.0 -0.399071125 0.909438418
4100275400.0 -0.388414268 0.9150975755
4150275100.0 -0.3755622023 0.9205965568
4200274800.0 -0.3626411047 0.926431055
4250274500.0 -0.350315457 0.93128249
4300274200.0 -0.337211033 0.9369776992
4350273900.0 -0.3234624963 0.9418440252
4400273600.0 -0.3085582654 0.9475538995
4450273300.0 -0.2934444663 0.9523641345
4500273000.0 -0.2796655007 0.9569194669
4550272700.0 -0.2654740881 0.9610498881
4600272400.0 -0.2500198883 0.9651637155
4650272100.0 -0.2384374671 0.9683402134
4700271800.0 -0.2250224273 0.9716850018
4750271500.0 -0.2134731101 0.9745649824
4800271200.0 -0.2008719835 0.9772446039
4850270900.0 -0.1870339967 0.9799056106
4900270600.0 -0.1730584157 0.9824807461
4950270300.0 -0.1588116645 0.9850308718
5000270000.0 -0.1446653248 0.9867978566
5050269700.0 -0.1309974291 0.988766228
5100269400.0 -0.1175982393 0.9902138221
5150269100.0 -0.1039362044 0.9922450526
5200268800.0 -0.0908914847 0.9932427409
5250268500.0 -0.0777048805 0.9941673128
5300268200.0 -0.0645537943 0.9946153139
5350267900.0 -0.0523397492 0.9954275934
5400267600.0 -0.0360840077 0.9964407141
5450267300.0 -0.0230628182 0.9966946276
5500267000.0 -0.0079644064 0.9970826669
5550266700.0 0.0071120875 0.9973554157
5600266400.0 0.0225799928 0.9973924866
5650266100.0 0.0388384331 0.996695903
5700265800.0 0.053634259 0.9957915515
5750265500.0 0.0688927375 0.9955977193
5800265200.0 0.0826535682 0.9945594767
5850264900.0 0.0961467992 0.9933382885
5900264600.0 0.1124597485 0.9918795921
5950264300.0 0.1244158994 0.9900939159
6000264000.0 0.1385025206 0.9882595743
6050263700.0 0.1506959538 0.9865428463
6100263400.0 0.1636123673 0.9850834596
6150263100.0 0.1779224644 0.9825575827
6200262800.0 0.1884800394 0.9806985546
6250262500.0 0.2008868855 0.9785071766
6300262200.0 0.2138994094 0.9757599564
6350261900.0 0.2268660818 0.9728024018
6400261600.0 0.2405181093 0.9695589654
6450261300.0 0.2518762369 0.9666629888
6500261000.0 0.2648129356 0.9632540265
6550260700.0 0.2776942592 0.9591770866
6600260400.0 0.2910263616 0.9548967076
6650260100.0 0.3049811415 0.9508658794
6700259800.0 0.3170593325 0.9463979128
6750259500.0 0.3310157425 0.9415471333
6800259200.0 0.3440166697 0.9365302036
6850258900.0 0.3560185359 0.9314409959
6900258600.0 0.3682856305 0.9264417066
6950258300.0 0.3807227348 0.9210995072
7000258000.0 0.3926900883 0.9158632728
7050257700.0 0.4050689134 0.909987142
7100257400.0 0.4178098014 0.9033264264
7150257100.0 0.42820645 0.8983237411
7200256800.0 0.4412008454 0.8919487184
7250256500.0 0.4528310625 0.8855267061
7300256200.0 0.4662010923 0.8787181573
7350255900.0 0.4785367491 0.8720398795
7400255600.0 0.491595405 0.8650408972
7450255300.0 0.5071524119 0.8557677841
7500255000.0 0.5186870285 0.8485018748
7550254700.0 0.5323537459 0.8400254943
7600254400.0 0.5453686576 0.8317280183
7650254100.0 0.5567542325 0.8238328214
7700253800.0 0.5685640345 0.8160148214
7750253500.0 0.5797986242 0.8082054734
7800253200.0 0.5903798294 0.8004178993
7850252900.0 0.6001750697 0.7934311789
7900252600.0 0.6118077017 0.7846793837
7950252300.0 0.6206887479 0.7781239841
8000252000.0 0.6309113368 0.7704504293
8050251700.0 0.6413919215 0.7623173516
8100251400.0 0.6512605367 0.7541899356
8150251100.0 0.6614739205 0.7454802848
8200250800.0 0.671009574 0.737498837
8250250500.0 0.6798567113 0.7296540042
8300250200.0 0.6890005529 0.7209425928
8350249900.0 0.6978715992 0.7124777572
8400249600.0 0.706546498 0.7041418088
8450249300.0 0.7153401955 0.6949854962
8500249000.0 0.7239443527 0.6862162848
8550248700.0 0.7322807959 0.6773168175
8600248400.0 0.7407436037 0.6675275793
8650248100.0 0.7485079011 0.6584220129
8700247800.0 0.7579641112 0.6471678757
8750247500.0 0.7664032122 0.6370501839
8800247200.0 0.7744134739 0.6265637622
8850246900.0 0.7831927747 0.6151622153
8900246600.0 0.7919483415 0.6038482129
8950246300.0 0.8012725447 0.5908852874
9000246000.0 0.8107396573 0.5781427823
9050245700.0 0.8196497627 0.5653039655
9100245400.0 0.8283164754 0.5526154356
9150245100.0 0.8375324328 0.5391890818
9200244800.0 0.847150375 0.5239229895
9250244500.0 0.8567297591 0.5083458818
9300244200.0 0.8653104116 0.4938823332
9350243900.0 0.8729145028 0.4799616221
9400243600.0 0.879582896 0.4677242167
9450243300.0 0.8853795572 0.4560162461
9500243000.0 0.8916809348 0.4440567158
9550242700.0 0.8955815469 0.4363279923
9600242400.0 0.8995697168 0.4289602799
9650242100.0 0.9031394945 0.4223080494
9700241800.0 0.9079820742 0.4140963488
9750241500.0 0.9117770246 0.4066870816
9800241200.0 0.9161238796 0.3976802159
9850240900.0 0.9221083949 0.3858297838
9900240600.0 0.9277553356 0.3740566406
9950240300.0 0.9344273022 0.3580543447
10000240000.0 0.9388336493 0.3467468633
10050239700.0 0.9446584372 0.3312935547
10100239400.0 0.9496014842 0.3156597411
10150239100.0 0.9541619982 0.3008959309
10200238800.0 0.9579785442 0.2858736014
10250238500.0 0.9614973298 0.2724812454
10300238200.0 0.9646793645 0.2586035576
10350237900.0 0.9674318155 0.2455301109
10400237600.0 0.9698942856 0.2323965324
10450237300.0 0.9727681595 0.2185263162
10500237000.0 0.9746051396 0.206474883
10550236700.0 0.9767727339 0.1925959823
10600236400.0 0.9791537786 0.1787222852
10650236100.0 0.9812477796 0.1642836728
10700235800.0 0.983519785 0.1512586701
10750235500.0 0.9857283149 0.1384450835
10800235200.0 0.9879244551 0.1243290281
10850234900.0 0.9895625805 0.109737496
10900234600.0 0.9917770586 0.0953518095
10950234300.0 0.9935093084 0.0818556263
11000234000.0 0.9952167022 0.0667443644
11050233700.0 0.9971063973 0.050402983
11100233400.0 0.9984074861 0.0331044456
11150233100.0 0.9993170279 0.0169190845
11200232800.0 1.000240495 0.0016417981
11250232500.0 1.001563217 -0.0150271042
11300232200.0 1.00189315 -0.0321906306
11350231900.0 1.001575465 -0.0486817928
11400231600.0 1.001545259 -0.063973586
11450231300.0 1.000792958 -0.0791548926
11500231000.0 1.000012469 -0.0955391124
11550230700.0 0.9984432449 -0.109626662
11600230400.0 0.9971959088 -0.1216552977
11650230100.0 0.9948475418 -0.133311122
11700229800.0 0.993249399 -0.1480873101
11750229500.0 0.9905837411 -0.1622664232
11800229200.0 0.9880456147 -0.1759214675
11850228900.0 0.984515959 -0.1884227488
11900228600.0 0.9811560711 -0.1979809
11950228300.0 0.9775884972 -0.2086927973
12000228000.0 0.9748398887 -0.2177274314
12050227700.0 0.9714427604 -0.2302328519
12100227400.0 0.9685766321 -0.2415056931
12150227100.0 0.9635214512 -0.2573889551
12200226800.0 0.959705013 -0.2685455829
12250226500.0 0.9557247982 -0.2816585162
12300226200.0 0.9514247072 -0.2935365513
12350225900.0 0.9470052495 -0.3077645277
12400225600.0 0.9424466517 -0.3204109346
12450225300.0 0.9377511574 -0.333364955
12500225000.0 0.9322474567 -0.3483443901
12550224700.0 0.9270612097 -0.3620736023
12600224400.0 0.9221586054 -0.3749946352
12650224100.0 0.9162656119 -0.3894561774
12700223800.0 0.9108843446 -0.4022353953
12750223500.0 0.9055785173 -0.4152942908
12800223200.0 0.9001178087 -0.4279255087
12850222900.0 0.8949947476 -0.4401030672
12900222600.0 0.8891404434 -0.4526907153
12950222300.0 0.8825758837 -0.4652253039
13000222000.0 0.876704005 -0.4763586192
13050221700.0 0.8702589743 -0.4884826072
13100221400.0 0.8635577367 -0.5006894239
13150221100.0 0.8567194553 -0.5131968769
13200220800.0 0.8496045275 -0.524909193
13250220500.0 0.8422728628 -0.5368680808
13300220200.0 0.8352425687 -0.5476270186
13350219900.0 0.8270471316 -0.5596495605
13400219600.0 0.8186166736 -0.5718503095
13450219300.0 0.8092810023 -0.5850821189
13500219000.0 0.7990909489 -0.5993942168
13550218700.0 0.7894108089 -0.6122048979
13600218400.0 0.7788168171 -0.6240164894
13650218100.0 0.7693357219 -0.6351818566
13700217800.0 0.7584932565 -0.64795637
13750217500.0 0.7475920268 -0.6587499745
13800217200.0 0.7372672238 -0.6706146309
13850216900.0 0.7258716004 -0.6814861975
13900216600.0 0.7157488995 -0.6915425945
13950216300.0 0.7056274525 -0.7014310704
14000216000.0 0.6954149457 -0.7101006413
14050215700.0 0.6854809864 -0.7185418826
14100215400.0 0.6755009311 -0.7280239758
14150215100.0 0.6667534609 -0.7362019428
14200214800.0 0.6575085691 -0.7449502101
14250214500.0 0.6470640958 -0.7544421927
14300214200.0 0.636467531 -0.7637865891
14350213900.0 0.6254637367 -0.7734406259
14400213600.0 0.6137632098 -0.7831458998
14450213300.0 0.6008262985 -0.7935669754
14500213000.0 0.587907295 -0.8034007066
14550212700.0 0.5748872336 -0.812520677
14600212400.0 0.5631852412 -0.8213042991
14650212100.0 0.5494209203 -0.8303375131
14700211800.0 0.5357156028 -0.8399924084
14750211500.0 0.523713508 -0.8479466129
14800211200.0 0.5113827015 -0.8559231267
14850210900.0 0.4992802051 -0.8632922784
14900210600.0 0.4861557785 -0.8713963925
14950210300.0 0.4727148846 -0.878951867
15000210000.0 0.4600178609 -0.885850478
15050209700.0 0.4478668127 -0.8916908324
15100209400.0 0.4348002162 -0.8978509486
15150209100.0 0.4228426107 -0.9030515896
15200208800.0 0.4095754938 -0.9090454954
15250208500.0 0.3991434257 -0.913160899
15300208200.0 0.3863742809 -0.9179919306
15350207900.0 0.3730478715 -0.9226338251
15400207600.0 0.3582220356 -0.9286751401
15450207300.0 0.3436305539 -0.9328405476
15500207000.0 0.3298308136 -0.937636734
15550206700.0 0.3143688265 -0.9430014076
15600206400.0 0.2983782232 -0.9471346201
15650206100.0 0.2823580867 -0.9513927332
15700205800.0 0.2688552506 -0.9552105965
15750205500.0 0.2542891797 -0.9584618558
15800205200.0 0.239917455 -0.9621825964
15850204900.0 0.2254181577 -0.9655737066
15900204600.0 0.2104918561 -0.9693215983
15950204300.0 0.1962343505 -0.972123807
16000204000.0 0.1818567574 -0.9750014573
16050203700.0 0.1669434929 -0.977883908
16100203400.0 0.1527349361 -0.9802063038
16150203100.0 0.1376284163 -0.9821519731
16200202800.0 0.1240123738 -0.9845295563
16250202500.0 0.1092371971 -0.9864331967
16300202200.0 0.0938355923 -0.9875533698
16350201900.0 0.0790039813 -0.9892979919
16400201600.0 0.0643192842 -0.9903208195
16450201300.0 0.0492126308 -0.9914045425
16500201000.0 0.0325485044 -0.9922243828
16550200700.0 0.0168446046 -0.9926735247
16600200400.0 0.0011373558 -0.9928025208
16650200100.0 -0.0146389955 -0.9925906077
16700199800.0 -0.0310503034 -0.9922902272
16750199500.0 -0.0495525714 -0.9915753363
16800199200.0 -0.06554669 -0.9911288128
16850198900.0 -0.0804399799 -0.9895622723
16900198600.0 -0.0951026316 -0.9884435491
16950198300.0 -0.1075354411 -0.9878196753
17000198000.0 -0.120310073 -0.986003433
17050197700.0 -0.1334273708 -0.9842746883
17100197400.0 -0.1469944423 -0.9823033457
17150197100.0 -0.159283989 -0.9801123915
17200196800.0 -0.1720179725 -0.9780133198
17250196500.0 -0.1849751102 -0.9758568257
17300196200.0 -0.1970072512 -0.9732759983
17350195900.0 -0.2089615649 -0.9711070966
17400195600.0 -0.2211310736 -0.9686092164
17450195300.0 -0.234423056 -0.9657414682
17500195000.0 -0.2476055236 -0.9624623877
17550194700.0 -0.2616080056 -0.9588383622
17600194400.0 -0.2754816736 -0.9548483166
17650194100.0 -0.2893326678 -0.9506378846
17700193800.0 -0.3022583814 -0.9466696938
17750193500.0 -0.316908108 -0.9419961139
17800193200.0 -0.3314072448 -0.9372710526
17850192900.0 -0.3461567083 -0.9316137011
17900192600.0 -0.3612591452 -0.9254313677
17950192300.0 -0.3770535423 -0.9180955303
18000192000.0 -0.3915659716 -0.9110999431
18050191700.0 -0.4055001461 -0.9031413711
18100191400.0 -0.419774453 -0.895454929
18150191100.0 -0.4348310427 -0.8874052881
18200190800.0 -0.4518140873 -0.8781219582
18250190500.0 -0.4686618708 -0.8687070905
18300190200.0 -0.484043895 -0.860232934
18350189900.0 -0.4991775912 -0.8516921023
18400189600.0 -0.5134358445 -0.8434798947
18450189300.0 -0.5266272945 -0.8354202162
18500189000.0 -0.5401136996 -0.8276161907
18550188700.0 -0.5528446522 -0.8198677056
18600188400.0 -0.5641282303 -0.8131821909
18650188100.0 -0.575281173 -0.8066726288
18700187800.0 -0.5861515112 -0.800174749
18750187500.0 -0.5967607837 -0.7939066241
18800187200.0 -0.6072272009 -0.7868907272
18850186900.0 -0.6176385954 -0.7796629197
18900186600.0 -0.6278304973 -0.7725403311
18950186300.0 -0.6378321893 -0.7649235965
19000186000.0 -0.6450632299 -0.7588336714
19050185700.0 -0.6542898098 -0.7517744701
19100185400.0 -0.6639565878 -0.7433542515
19150185100.0 -0.674070341 -0.7348032638
19200184800.0 -0.6835993056 -0.7263439769
19250184500.0 -0.694088798 -0.716634741
19300184200.0 -0.7054024179 -0.7076663289
19350183900.0 -0.7160022031 -0.6977357783
19400183600.0 -0.7256404816 -0.687805749
19450183300.0 -0.7344906958 -0.678214174
19500183000.0 -0.7432575028 -0.6676705263
19550182700.0 -0.7532225003 -0.6564946065
19600182400.0 -0.7635312806 -0.6453415111
19650182100.0 -0.7744836778 -0.6327949128
19700181800.0 -0.7850737025 -0.6193835365
19750181500.0 -0.7954612879 -0.6054377303
19800181200.0 -0.8060447209 -0.5903991275
19850180900.0 -0.8156862206 -0.5751575687
19900180600.0 -0.8236614285 -0.5605846656
19950180300.0 -0.8326751203 -0.5442557825
20000180000.0 -0.8256848729 -0.5464339299
20050179700.0 -0.8344475418 -0.5335805633
20100179400.0 -0.8414940801 -0.5194128352
20150179100.0 -0.8504837346 -0.5070665758
20200178800.0 -0.8598047586 -0.4945176088
20250178500.0 -0.869429627 -0.4811162766
20300178200.0 -0.878946098 -0.4666052457
20350177900.0 -0.8877541662 -0.4525585671
20400177600.0 -0.8967623938 -0.4374515782
20450177300.0 -0.9048988844 -0.4231420337
20500177000.0 -0.9128444099 -0.4091819419
20550176700.0 -0.9207972985 -0.3951531239
20600176400.0 -0.9275625181 -0.3825305469
20650176100.0 -0.9344626713 -0.3702558229
20700175800.0 -0.9408036799 -0.3581260152
20750175500.0 -0.9478191083 -0.3460683208
20800175200.0 -0.9521579614 -0.3357632026
20850174900.0 -0.9570058372 -0.3248475645
20900174600.0 -0.9613908793 -0.3129994378
20950174300.0 -0.9662152867 -0.3022022427
21000174000.0 -0.9699017757 -0.2901625551
21050173700.0 -0.9726092337 -0.279523935
21100173400.0 -0.9760539384 -0.2678180374
21150173100.0 -0.9801533793 -0.2554591121
21200172800.0 -0.98351655 -0.2420695377
21250172500.0 -0.9866404667 -0.2284854303
21300172200.0 -0.989686926 -0.2140580194
21350171900.0 -0.9910791854 -0.1996568336
21400171600.0 -0.9924119378 -0.1853135317
21450171300.0 -0.9930803124 -0.1706847117
21500171000.0 -0.991966088 -0.1558768646
21550170700.0 -0.9919575117 -0.1398373373
21600170400.0 -0.9926865136 -0.124529997
21650170100.0 -0.9915058901 -0.1079034843
21700169800.0 -0.9907193945 -0.0924911679
21750169500.0 -0.9893380206 -0.0768683453
21800169200.0 -0.9878788221 -0.0619056184
21850168900.0 -0.9868612782 -0.0446068983
21900168600.0 -0.9863778745 -0.0272971099
21950168300.0 -0.9849862092 -0.011592073
22000168000.0 -0.9840621723 0.002870281
22050167700.0 -0.9836245094 0.0170722604
22100167400.0 -0.9837908042 0.0321511751
22150167100.0 -0.9845342141 0.0479223584
22200166800.0 -0.9846443185 0.0646570804
22250166500.0 -0.9842003169 0.0810271927
22300166200.0 -0.9839059626 0.0980852077
22350165900.0 -0.9827154857 0.1136887007
22400165600.0 -0.9805890969 0.1303335247
22450165300.0 -0.9780906854 0.1443114984
22500165000.0 -0.9759043258 0.1589323415
22550164700.0 -0.9762168914 0.174043037
22600164400.0 -0.973967361 0.1892383368
22650164100.0 -0.9717407941 0.2049652703
22700163800.0 -0.9697310304 0.2201110396
22750163500.0 -0.9670386161 0.235075702
22800163200.0 -0.9630889694 0.2487788274
22850162900.0 -0.9614908843 0.2619348474
22900162600.0 -0.9601395806 0.2755994301
22950162300.0 -0.9587317228 0.2883649066
23000162000.0 -0.9574900904 0.3001142807
23050161700.0 -0.9558066471 0.3125002101
23100161400.0 -0.9531664797 0.3255828545
23150161100.0 -0.9498308963 0.3381666964
23200160800.0 -0.9479595935 0.3500962141
23250160500.0 -0.9443379024 0.3620887453
23300160200.0 -0.9422432272 0.3740103892
23350159900.0 -0.9389082069 0.3868120996
23400159600.0 -0.9338723357 0.4003825923
23450159300.0 -0.9289206949 0.4144843519
23500159000.0 -0.9243153084 0.4268943757
23550158700.0 -0.9198590257 0.4403988337
23600158400.0 -0.9144411519 0.4534695674
23650158100.0 -0.9081568282 0.4675366736
23700157800.0 -0.9003365912 0.4814659672
23750157500.0 -0.8919175319 0.4957617833
23800157200.0 -0.8831251482 0.5087670033
23850156900.0 -0.873774047 0.5213824338
23900156600.0 -0.8652753145 0.5337490461
23950156300.0 -0.8557861118 0.5464134943
24000156000.0 -0.8461454355 0.5582553318
24050155700.0 -0.8367664875 0.5698109731
24100155400.0 -0.8262848605 0.5825822673
24150155100.0 -0.8157932345 0.593155295
24200154800.0 -0.8048389585 0.6055631348
24250154500.0 -0.7931207665 0.6169436964
24300154200.0 -0.7817289598 0.62872997
24350153900.0 -0.7703762779 0.6391089802
24400153600.0 -0.7579474075 0.6495156161
24450153300.0 -0.7458646997 0.6595216738
24500153000.0 -0.7348269616 0.6690686661
24550152700.0 -0.7235906728 0.6788294686
24600152400.0 -0.7119980743 0.687693571
24650152100.0 -0.7003720244 0.6963910431
