!Created with skrf (http://scikit-rf.org).
# Hz S RI R 50.0 
!freq ReS11 ImS11
300000.0 -0.9760899053 -0.1160258053
50299700.0 -1.000031865 0.0155434814
100299400.0 -0.9982212839 0.0285398123
150299100.0 -1.002799958 0.0454371048
200298800.0 -0.9996704104 0.0587359468
250298500.0 -0.9973889747 0.0721286068
300298200.0 -0.9859614313 0.0879667044
350297900.0 -0.9941119284 0.0989708064
400297600.0 -0.9931739568 0.1155149424
450297300.0 -0.9912329 0.1294435904
500297000.0 -0.9895114453 0.1441247708
550296700.0 -0.9844797903 0.1565151888
600296400.0 -1.017584696 0.1899178414
650296100.0 -0.9822775299 0.18647149
700295800.0 -0.9792186924 0.2008871742
750295500.0 -0.9763035775 0.2146377234
800295200.0 -0.9730606524 0.2290897794
850294900.0 -0.969510331 0.2428339995
900294600.0 -0.9657285244 0.2564747201
950294300.0 -0.9620632922 0.2704006716
1000294000.0 -0.9580101448 0.2841052655
1050293700.0 -0.9535209685 0.2979162369
1100293400.0 -0.9492280875 0.3123863068
1150293100.0 -0.9453105612 0.3241468525
1200292800.0 -0.9401594309 0.3385811454
1250292500.0 -0.9346510766 0.3520194558
1300292200.0 -0.9290012027 0.3651135124
1350291900.0 -0.9234893534 0.3794595987
1400291600.0 -0.9177289765 0.3923158065
1450291300.0 -0.9123545481 0.4048379839
1500291000.0 -0.9060859313 0.4182374398
1550290700.0 -0.8995053501 0.4314843549
1600290400.0 -0.8932163032 0.4443787411
1650290100.0 -0.886616894 0.4567407871
1700289800.0 -0.8798061043 0.469952899
1750289500.0 -0.8727976456 0.482211019
1800289200.0 -0.865411583 0.4952878438
1850288900.0 -0.8585281361 0.5065136542
1900288600.0 -0.85074403 0.5193343754
1950288300.0 -0.8426290775 0.531858746
2000288000.0 -0.83527391 0.543492179
2050287700.0 -0.8269022735 0.5556468364
2100287400.0 -0.8190036953 0.5674226591
2150287100.0 -0.8103480447 0.5797011258
2200286800.0 -0.8026169868 0.5897725509
2250286500.0 -0.7940005607 0.6019794562
2300286200.0 -0.7849675194 0.6133386127
2350285900.0 -0.7762369494 0.6246413447
2400285600.0 -0.7670353397 0.6354640693
2450285300.0 -0.7586517349 0.6460052394
2500285000.0 -0.7489776376 0.6571137253
2550284700.0 -0.7399034927 0.6674691958
2600284400.0 -0.7307008221 0.6775200384
2650284100.0 -0.7215653424 0.6881211639
2700283800.0 -0.7110086885 0.6987167514
2750283500.0 -0.7007743539 0.7093197039
2800283200.0 -0.6911039083 0.7190937718
2850282900.0 -0.6805602666 0.7288384681
2900282600.0 -0.6702316493 0.7383225465
2950282300.0 -0.6601332169 0.7478680977
3000282000.0 -0.6494697358 0.757034992
3050281700.0 -0.6384554605 0.7665230838
3100281400.0 -0.6263107039 0.7758818771
3150281100.0 -0.6145862862 0.7851774255
3200280800.0 -0.6028502232 0.7935703532
3250280500.0 -0.592210724 0.8013126577
3300280200.0 -0.5808547717 0.8091428549
3350279900.0 -0.5693234924 0.816722229
3400279600.0 -0.5573043505 0.8244412912
3450279300.0 -0.5461368127 0.8314053274
3500279000.0 -0.5339388617 0.8387089233
3550278700.0 -0.5214610095 0.8459780339
3600278400.0 -0.5093546028 0.8531051666
3650278100.0 -0.4958640845 0.8605550388
3700277800.0 -0.4837679059 0.8669843237
3750277500.0 -0.4717870134 0.8735437054
3800277200.0 -0.4592904713 0.8802243831
3850276900.0 -0.4472372254 0.886134125
3900276600.0 -0.4363868091 0.8916018546
3950276300.0 -0.4239791479 0.8978903333
4000276000.0 -0.4117307075 0.9039392158
4050275700.0 -0.398857669 0.9097763732
4100275400.0 -0.3878510034 0.9151394301
4150275100.0 -0.3750530129 0.9208246302
4200274800.0 -0.3622112061 0.9262808828
4250274500.0 -0.3500145222 0.9316107045
4300274200.0 -0.3371082001 0.9370189133
4350273900.0 -0.3230805827 0.9422002667
4400273600.0 -0.3082760997 0.9471257101
4450273300.0 -0.2927699518 0.9526338556
4500273000.0 -0.2792094416 0.9568570801
4550272700.0 -0.2649828853 0.9612218507
4600272400.0 -0.2496385384 0.9653181283
4650272100.0 -0.2377591927 0.9685238763
4700271800.0 -0.2244454466 0.971742944
4750271500.0 -0.2126990965 0.9746734232
4800271200.0 -0.2003433865 0.9772714774
4850270900.0 -0.1864870998 0.9801604586
4900270600.0 -0.1723412602 0.9825587128
4950270300.0 -0.1580925307 0.985204431
5000270000.0 -0.144036051 0.987194886
5050269700.0 -0.1305081659 0.9887326026
5100269400.0 -0.1170054598 0.9904364369
5150269100.0 -0.1034127957 0.9923278383
5200268800.0 -0.0902789384 0.9931648008
5250268500.0 -0.0773061516 0.9941230346
5300268200.0 -0.0641237369 0.994651288
5350267900.0 -0.051986788 0.9954258475
5400267600.0 -0.0355195084 0.9962254063
5450267300.0 -0.0224367128 0.9965885255
5500267000.0 -0.0074078555 0.997151694
5550266700.0 0.0074649316 0.9972989882
5600266400.0 0.0230658125 0.9973262086
5650266100.0 0.0394020248 0.9969865563
5700265800.0 0.0542259383 0.9958969126
5750265500.0 0.0695295187 0.9955394826
5800265200.0 0.0838516625 0.9946248137
5850264900.0 0.0967412631 0.9936065841
5900264600.0 0.1132442319 0.9917736523
5950264300.0 0.1254887076 0.9900386298
6000264000.0 0.1392879757 0.9881485312
6050263700.0 0.1519555937 0.9868451448
6100263400.0 0.164052232 0.9848060466
6150263100.0 0.1784904284 0.9824872878
6200262800.0 0.1890372312 0.9806705255
6250262500.0 0.2017338923 0.9782387264
6300262200.0 0.2145812283 0.975575962
6350261900.0 0.2277936635 0.9726588931
6400261600.0 0.2414719005 0.9692197242
6450261300.0 0.2526262832 0.9665833247
6500261000.0 0.2656109571 0.9628928239
6550260700.0 0.2785065639 0.9591534387
6600260400.0 0.2919176443 0.9549695504
6650260100.0 0.3059163552 0.9505565763
6700259800.0 0.3177744989 0.9461044478
6750259500.0 0.3317535223 0.9415469436
6800259200.0 0.3444557484 0.9363755536
6850258900.0 0.3566847865 0.9313988057
6900258600.0 0.3688714964 0.9260414948
6950258300.0 0.3813946235 0.9207510345
7000258000.0 0.3934194701 0.9153678606
7050257700.0 0.4056997826 0.9094226304
7100257400.0 0.4185059541 0.9031992335
7150257100.0 0.4287644346 0.897974007
7200256800.0 0.4418984043 0.8913948799
7250256500.0 0.4534191648 0.8853561838
7300256200.0 0.4663559011 0.8781479176
7350255900.0 0.4791610055 0.8714189457
7400255600.0 0.4925902527 0.8641173467
7450255300.0 0.5075834521 0.8553909468
7500255000.0 0.5189879712 0.848104625
7550254700.0 0.532579773 0.8395016244
7600254400.0 0.5454639727 0.8312529085
7650254100.0 0.5570994794 0.8235603008
7700253800.0 0.568973891 0.8154326794
7750253500.0 0.5803993081 0.807830724
7800253200.0 0.5907434853 0.8002114613
7850252900.0 0.6006394415 0.7931516452
7900252600.0 0.6122012617 0.7842294346
7950252300.0 0.6211102382 0.7777474002
8000252000.0 0.6313837175 0.7701048557
8050251700.0 0.6419632665 0.7617706491
8100251400.0 0.6518293973 0.7535785197
8150251100.0 0.6621138308 0.7449217686
8200250800.0 0.6714365399 0.7370638977
8250250500.0 0.6798130364 0.7291714197
8300250200.0 0.6895520667 0.7204274443
8350249900.0 0.698759827 0.711874318
8400249600.0 0.7068238305 0.703736008
8450249300.0 0.7160079666 0.6944770078
8500249000.0 0.7244982807 0.6855850429
8550248700.0 0.732962704 0.6766180537
8600248400.0 0.7411791398 0.6671276387
8650248100.0 0.7489575899 0.6577207731
8700247800.0 0.7586470254 0.6464930074
8750247500.0 0.7666615816 0.6363861146
8800247200.0 0.7750044658 0.6260859681
8850246900.0 0.7840425582 0.6144807858
8900246600.0 0.792318465 0.6030856322
8950246300.0 0.8016585594 0.5902435734
9000246000.0 0.8111063979 0.5772899747
9050245700.0 0.8204709112 0.5643069849
9100245400.0 0.8288920339 0.5518153937
9150245100.0 0.8384786363 0.5380054891
9200244800.0 0.8480269426 0.5230497833
9250244500.0 0.8576258643 0.5072377867
9300244200.0 0.8660292251 0.4927927576
9350243900.0 0.8737058048 0.4787504791
9400243600.0 0.8802950873 0.4663918085
9450243300.0 0.8862220201 0.4546552956
9500243000.0 0.8924901504 0.4425250464
9550242700.0 0.89621217 0.4350617331
9600242400.0 0.9001384484 0.4277477052
9650242100.0 0.9036932789 0.4211885641
9700241800.0 0.9083355043 0.4128068994
9750241500.0 0.9121644737 0.4056529647
9800241200.0 0.9169240574 0.3960792811
9850240900.0 0.9223767203 0.3845881972
9900240600.0 0.9278436392 0.3731606289
9950240300.0 0.9348905027 0.3567825715
10000240000.0 0.938821951 0.3457013015
10050239700.0 0.9446580517 0.3302358749
10100239400.0 0.9495318773 0.314693477
10150239100.0 0.9542159067 0.2999110233
10200238800.0 0.958306596 0.2849280355
10250238500.0 0.9616877609 0.2714940239
10300238200.0 0.9646252639 0.2575153078
10350237900.0 0.967468506 0.2443428191
10400237600.0 0.9700439488 0.2310776872
10450237300.0 0.9726792511 0.2177461226
10500237000.0 0.9749631494 0.2052643147
10550236700.0 0.9772438857 0.1914257667
10600236400.0 0.9790607975 0.17801177
10650236100.0 0.9809532107 0.1637794741
10700235800.0 0.9834521736 0.1510425826
10750235500.0 0.9859079778 0.1377786997
10800235200.0 0.9877720135 0.1238945812
10850234900.0 0.9898507869 0.1090322549
10900234600.0 0.9917689229 0.0946486866
10950234300.0 0.9935159601 0.0813767514
11000234000.0 0.9952529573 0.0662000842
11050233700.0 0.9969670289 0.0495427116
11100233400.0 0.9985053527 0.032214357
11150233100.0 0.9995400388 0.0161655444
11200232800.0 1.000160554 0.0007712712
11250232500.0 1.001283012 -0.0162370606
11300232200.0 1.001600962 -0.0336757285
11350231900.0 1.001658977 -0.0496903301
11400231600.0 1.002338667 -0.0659093965
11450231300.0 1.000296718 -0.0802114211
11500231000.0 0.9994494937 -0.0968320933
11550230700.0 0.9982230992 -0.1104388377
11600230400.0 0.9967581455 -0.1222393809
11650230100.0 0.9949112438 -0.1336562499
11700229800.0 0.9927448797 -0.1490951994
11750229500.0 0.9903580754 -0.1635533074
11800229200.0 0.9879919377 -0.1777158201
11850228900.0 0.9842189836 -0.1896739395
11900228600.0 0.9806089262 -0.1995890372
11950228300.0 0.9773445338 -0.2098279641
12000228000.0 0.9747373793 -0.2185649051
12050227700.0 0.9711278076 -0.2314640404
12100227400.0 0.9677498683 -0.2427497655
12150227100.0 0.9630857415 -0.2587629573
12200226800.0 0.9590061842 -0.2705791657
12250226500.0 0.9551765006 -0.2830531451
12300226200.0 0.9509898222 -0.295344073
12350225900.0 0.9461452433 -0.3085303238
12400225600.0 0.9417997014 -0.3218509459
12450225300.0 0.9374696932 -0.3339684441
12500225000.0 0.9320383741 -0.3492330485
12550224700.0 0.9266863943 -0.3630532266
12600224400.0 0.9219211163 -0.3757607466
12650224100.0 0.9159818179 -0.3901410126
12700223800.0 0.910752507 -0.4028845036
12750223500.0 0.9052102266 -0.4159906815
12800223200.0 0.8998122072 -0.4284011429
12850222900.0 0.8945176581 -0.4408653485
12900222600.0 0.8888796627 -0.4527528211
12950222300.0 0.8827021361 -0.4654959634
13000222000.0 0.8765221547 -0.4767030506
13050221700.0 0.8696440974 -0.4894624887
13100221400.0 0.8631941473 -0.5017344226
13150221100.0 0.856052258 -0.5138560871
13200220800.0 0.849373262 -0.5253164277
13250220500.0 0.8418302216 -0.5376840807
13300220200.0 0.8343860716 -0.5484702535
13350219900.0 0.826386977 -0.5604784503
13400219600.0 0.8180886021 -0.5726712156
13450219300.0 0.8088071872 -0.586195941
13500219000.0 0.7984449599 -0.6004151232
13550218700.0 0.788658197 -0.6129413768
13600218400.0 0.7778743638 -0.6249196183
13650218100.0 0.76860292 -0.6367817029
13700217800.0 0.7573670808 -0.6485314822
13750217500.0 0.7471681832 -0.6601973037
13800217200.0 0.7356481481 -0.6716945147
13850216900.0 0.724308229 -0.6826363454
13900216600.0 0.7159609784 -0.6918791639
13950216300.0 0.7046943545 -0.7020039124
14000216000.0 0.6942361727 -0.7111131916
14050215700.0 0.6850916045 -0.719659423
14100215400.0 0.6750876628 -0.7292309033
14150215100.0 0.6658162359 -0.7372957555
14200214800.0 0.6562984901 -0.7458875989
14250214500.0 0.6462362813 -0.7552358062
14300214200.0 0.6357712203 -0.7644011963
14350213900.0 0.6247409613 -0.773974599
14400213600.0 0.6129947232 -0.7838179588
14450213300.0 0.6001286701 -0.7939326418
14500213000.0 0.586479309 -0.803878204
14550212700.0 0.5746856237 -0.8132381516
14600212400.0 0.5617862975 -0.8214662257
14650212100.0 0.5485781574 -0.8311778306
14700211800.0 0.5346508489 -0.8405092408
14750211500.0 0.5222957377 -0.8484701329
14800211200.0 0.510683406 -0.8567803065
14850210900.0 0.4981484799 -0.8639876242
14900210600.0 0.4846807533 -0.8718767115
14950210300.0 0.4712403173 -0.8794439417
15000210000.0 0.4585735536 -0.8863880011
15050209700.0 0.4466010979 -0.892465463
15100209400.0 0.4334379261 -0.8983570766
15150209100.0 0.4205809081 -0.9039080068
15200208800.0 0.4080427336 -0.9096331022
15250208500.0 0.3970482185 -0.9138731968
15300208200.0 0.3838775515 -0.9186689025
15350207900.0 0.3714070451 -0.9230631251
15400207600.0 0.3571014892 -0.928151918
15450207300.0 0.3419524536 -0.9340719495
15500207000.0 0.3281333655 -0.9384542993
15550206700.0 0.3131874535 -0.9437441144
15600206400.0 0.2968028426 -0.9475222475
15650206100.0 0.2811996936 -0.9519869151
15700205800.0 0.2670790996 -0.9554217571
15750205500.0 0.2528239446 -0.9589973434
15800205200.0 0.2381740885 -0.9626295488
15850204900.0 0.2237964013 -0.9659421423
15900204600.0 0.2085946972 -0.9693510752
15950204300.0 0.1944987565 -0.9725873254
16000204000.0 0.1807446566 -0.9753852241
16050203700.0 0.1658230111 -0.9781521928
16100203400.0 0.1512897745 -0.980110896
16150203100.0 0.13672597 -0.9824908504
16200202800.0 0.1226860283 -0.9843050907
16250202500.0 0.1084504084 -0.9860892713
16300202200.0 0.092813001 -0.987802445
16350201900.0 0.0779626238 -0.9890730622
16400201600.0 0.0631085798 -0.9900559126
16450201300.0 0.048025278 -0.9911676991
16500201000.0 0.0314125683 -0.9919716999
16550200700.0 0.0156302045 -0.9923913026
16600200400.0 0.0001190092 -0.9926044689
16650200100.0 -0.0167333111 -0.9922925161
16700199800.0 -0.0325112805 -0.9920313526
16750199500.0 -0.0512694563 -0.9916534361
16800199200.0 -0.0673136518 -0.9905213349
16850198900.0 -0.0823437398 -0.9893042505
16900198600.0 -0.0958606069 -0.9880481623
16950198300.0 -0.1094160857 -0.9870868739
17000198000.0 -0.123214647 -0.9857298856
17050197700.0 -0.1353529998 -0.9841149754
17100197400.0 -0.1482285316 -0.9816405937
17150197100.0 -0.1606225487 -0.9798975772
17200196800.0 -0.17360204 -0.9780090087
17250196500.0 -0.1863680998 -0.9756327644
17300196200.0 -0.1986291456 -0.9731400202
17350195900.0 -0.2104519167 -0.9710220915
17400195600.0 -0.2225022193 -0.9684584202
17450195300.0 -0.2357303182 -0.965688592
17500195000.0 -0.248986875 -0.9623811151
17550194700.0 -0.2629883592 -0.9588066036
17600194400.0 -0.2764980861 -0.9547598107
17650194100.0 -0.290537438 -0.9505314184
17700193800.0 -0.3035906639 -0.9460964797
17750193500.0 -0.3180934589 -0.9413824821
17800193200.0 -0.3322219308 -0.9360941212
17850192900.0 -0.3473153308 -0.9309477784
17900192600.0 -0.362654431 -0.9248291956
17950192300.0 -0.3780945545 -0.9176495584
18000192000.0 -0.3928893674 -0.9103291691
18050191700.0 -0.4067786376 -0.9023423166
18100191400.0 -0.4209714186 -0.8947654278
18150191100.0 -0.4359252449 -0.8869040967
18200190800.0 -0.4528144791 -0.8777141492
18250190500.0 -0.4698189149 -0.8681171566
18300190200.0 -0.4851181635 -0.8593485303
18350189900.0 -0.50005479 -0.8507522683
18400189600.0 -0.5149703506 -0.8423117819
18450189300.0 -0.5280158842 -0.8343307818
18500189000.0 -0.5414509542 -0.8267638923
18550188700.0 -0.5542997183 -0.819210245
18600188400.0 -0.5657528911 -0.8124507536
18650188100.0 -0.5766440174 -0.8058509865
18700187800.0 -0.5876878285 -0.7992642467
18750187500.0 -0.5983180608 -0.7927040672
18800187200.0 -0.6089653185 -0.7856112875
18850186900.0 -0.6190487563 -0.7788222651
18900186600.0 -0.6293249558 -0.7715125774
18950186300.0 -0.6393241612 -0.7637872772
19000186000.0 -0.6465268289 -0.7573738297
19050185700.0 -0.6555986671 -0.7504345027
19100185400.0 -0.665946733 -0.7422246723
19150185100.0 -0.6757097766 -0.7334541527
19200184800.0 -0.6854641917 -0.7250182399
19250184500.0 -0.6957044908 -0.7163377563
19300184200.0 -0.7067917762 -0.7060040813
19350183900.0 -0.7174454014 -0.695978254
19400183600.0 -0.7268074808 -0.6870453872
19450183300.0 -0.7361009106 -0.6765312527
19500183000.0 -0.7441995629 -0.6667176642
19550182700.0 -0.7542275065 -0.6557565813
19600182400.0 -0.76520538 -0.644541608
19650182100.0 -0.7752375011 -0.6319211718
19700181800.0 -0.7861846202 -0.6184806713
19750181500.0 -0.7966272202 -0.6044768807
19800181200.0 -0.8069296554 -0.5894106223
19850180900.0 -0.8166068989 -0.5738730532
19900180600.0 -0.8243128198 -0.5593967102
19950180300.0 -0.8336011857 -0.5430033856
20000180000.0 -0.8268475946 -0.5456350376
20050179700.0 -0.8349411992 -0.5319112918
20100179400.0 -0.8427337153 -0.5181870631
20150179100.0 -0.8508777453 -0.5066593202
20200178800.0 -0.8606491637 -0.493579036
20250178500.0 -0.8693184861 -0.4795421662
20300178200.0 -0.8798008557 -0.4660980469
20350177900.0 -0.8886711446 -0.4512451425
20400177600.0 -0.8972360661 -0.4365267903
20450177300.0 -0.9053106865 -0.4220557323
20500177000.0 -0.9136824512 -0.4080135565
20550176700.0 -0.9210533028 -0.3945787819
20600176400.0 -0.9286460865 -0.3816858532
20650176100.0 -0.9347667305 -0.3690956888
20700175800.0 -0.9419729472 -0.3567622596
20750175500.0 -0.9476796196 -0.3454206667
20800175200.0 -0.9530010091 -0.3344793704
20850174900.0 -0.9578438365 -0.3237525503
20900174600.0 -0.9618728673 -0.3123899922
20950174300.0 -0.9672607741 -0.3003694047
21000174000.0 -0.9707390139 -0.2890282452
21050173700.0 -0.9732265435 -0.2778358302
21100173400.0 -0.976796197 -0.2657735732
21150173100.0 -0.9806594569 -0.2533837258
21200172800.0 -0.9844918893 -0.2401759093
21250172500.0 -0.9875220161 -0.2261737648
21300172200.0 -0.9900849119 -0.212460012
21350171900.0 -0.991657966 -0.1980074422
21400171600.0 -0.9934130136 -0.1838081348
21450171300.0 -0.993678384 -0.1691801481
21500171000.0 -0.9937678312 -0.1537869549
21550170700.0 -0.9930142603 -0.1380257805
21600170400.0 -0.9932926441 -0.1225584594
21650170100.0 -0.9914160783 -0.1059935726
21700169800.0 -0.9893386194 -0.0917323301
21750169500.0 -0.9891767901 -0.0762837438
21800169200.0 -0.9879487955 -0.059553782
21850168900.0 -0.986612886 -0.0427527038
21900168600.0 -0.9855851412 -0.0256492237
21950168300.0 -0.9842571934 -0.0103792308
22000168000.0 -0.9829388976 0.0049276568
22050167700.0 -0.9828694979 0.0186878064
22100167400.0 -0.9828798725 0.0342401219
22150167100.0 -0.9835284887 0.0497073407
22200166800.0 -0.9841107457 0.0658486956
22250166500.0 -0.9835145546 0.0831920157
22300166200.0 -0.9831459585 0.099204991
22350165900.0 -0.9810179809 0.116534488
22400165600.0 -0.9790229023 0.1318440477
22450165300.0 -0.9780212763 0.1469607058
22500165000.0 -0.976648786 0.1604571734
22550164700.0 -0.9755441629 0.1756592916
22600164400.0 -0.9722154092 0.1908331738
22650164100.0 -0.9709650364 0.2057483191
22700163800.0 -0.9681336323 0.2223909121
22750163500.0 -0.9653830275 0.237287241
22800163200.0 -0.9627016752 0.2504527669
22850162900.0 -0.9604757705 0.2640502442
22900162600.0 -0.9588829759 0.2775932663
22950162300.0 -0.9581084993 0.2900245515
23000162000.0 -0.9572787206 0.3015430432
23050161700.0 -0.9545133717 0.3143987255
23100161400.0 -0.9526015111 0.3271873536
23150161100.0 -0.9504390683 0.3393980542
23200160800.0 -0.946912416 0.3514885463
23250160500.0 -0.9444068008 0.3632450766
23300160200.0 -0.9417038173 0.3755925171
23350159900.0 -0.9376621818 0.3880263537
23400159600.0 -0.932983775 0.4011832947
23450159300.0 -0.9290486238 0.4154134318
23500159000.0 -0.9245279993 0.4278065712
23550158700.0 -0.9195052757 0.4411938626
23600158400.0 -0.9142859109 0.4542901787
23650158100.0 -0.9079751097 0.4683989308
23700157800.0 -0.9002807183 0.4822186418
23750157500.0 -0.8917924516 0.496170487
23800157200.0 -0.8828481603 0.5096425751
23850156900.0 -0.8741005797 0.5225830309
23900156600.0 -0.8649825315 0.5350848285
23950156300.0 -0.8559719783 0.5472666612
24000156000.0 -0.8463761575 0.5588214052
24050155700.0 -0.8359191881 0.570966019
24100155400.0 -0.8267241024 0.5827487779
24150155100.0 -0.8157134324 0.5942853782
24200154800.0 -0.8044400878 0.6059263679
24250154500.0 -0.7931060574 0.6176067763
24300154200.0 -0.7816230373 0.6287638062
24350153900.0 -0.7703258624 0.6394607301
24400153600.0 -0.757850147 0.6498678695
24450153300.0 -0.7457499255 0.6594842363
24500153000.0 -0.7346995139 0.6691963709
24550152700.0 -0.7233255289 0.6785802034
24600152400.0 -0.7119021565 0.6876044593
24650152100.0 -0.7008671791 0.6963449198
