!Created with skrf (http://scikit-rf.org).
# Hz S RI R 50.0 
!freq ReS11 ImS11
300000.0 -0.9967253371 -0.0312655426
50299700.0 -0.9991513593 0.0161316083
100299400.0 -0.9971593553 0.0289539339
150299100.0 -1.001812539 0.0454747355
200298800.0 -0.9986706862 0.0587069118
250298500.0 -0.9962842827 0.0722012133
300298200.0 -0.9847688911 0.087901321
350297900.0 -0.9926594632 0.0987810305
400297600.0 -0.9918327641 0.1149963023
450297300.0 -0.989614963 0.1289571302
500297000.0 -0.9878374378 0.1433033155
550296700.0 -0.9827554163 0.155769036
600296400.0 -1.015515627 0.1889950653
650296100.0 -0.9805861762 0.1854801667
700295800.0 -0.9774712578 0.1995782938
750295500.0 -0.974548077 0.2136883285
800295200.0 -0.9711876632 0.2274274994
850294900.0 -0.9678999817 0.2411839309
900294600.0 -0.9640488092 0.2549034087
950294300.0 -0.9603637352 0.2684492006
1000294000.0 -0.9565218784 0.2823647045
1050293700.0 -0.9519317868 0.2960955113
1100293400.0 -0.9477349655 0.3103813986
1150293100.0 -0.9440595142 0.3223353577
1200292800.0 -0.9388727384 0.3365420734
1250292500.0 -0.9333937606 0.3500285836
1300292200.0 -0.9278738903 0.3632050512
1350291900.0 -0.9225069793 0.3771856398
1400291600.0 -0.9171696495 0.3902328426
1450291300.0 -0.9117175553 0.4025814061
1500291000.0 -0.9056273813 0.4158529737
1550290700.0 -0.899164006 0.4291129491
1600290400.0 -0.8930830513 0.441965689
1650290100.0 -0.8866516408 0.4540058695
1700289800.0 -0.879690615 0.4674230184
1750289500.0 -0.8728070382 0.4798057419
1800289200.0 -0.865690021 0.4925365335
1850288900.0 -0.8589621613 0.5037517203
1900288600.0 -0.8510943181 0.5167564248
1950288300.0 -0.8432829507 0.5292960245
2000288000.0 -0.8357218207 0.5408510879
2050287700.0 -0.8276778194 0.5529885506
2100287400.0 -0.8197992682 0.5643823736
2150287100.0 -0.8112229933 0.5768012727
2200286800.0 -0.8035894203 0.5872071301
2250286500.0 -0.7946680889 0.5990637065
2300286200.0 -0.785968058 0.6105739842
2350285900.0 -0.7771881923 0.6214289634
2400285600.0 -0.7682380616 0.6327261837
2450285300.0 -0.7594373648 0.6432306115
2500285000.0 -0.749952691 0.6541814178
2550284700.0 -0.7408117363 0.6646754499
2600284400.0 -0.7309698191 0.6750112319
2650284100.0 -0.7224144631 0.6852242067
2700283800.0 -0.7123674206 0.6955844596
2750283500.0 -0.7019108911 0.7060957954
2800283200.0 -0.6918146747 0.7157364024
2850282900.0 -0.6816928048 0.725730096
2900282600.0 -0.6712952831 0.7353350187
2950282300.0 -0.6611265155 0.7443512381
3000282000.0 -0.6503851856 0.7539792643
3050281700.0 -0.6395207274 0.7632646766
3100281400.0 -0.6284384449 0.7720074804
3150281100.0 -0.6173565889 0.7809859045
3200280800.0 -0.6056770868 0.7897229911
3250280500.0 -0.5944700987 0.7980669752
3300280200.0 -0.5831350859 0.8062483231
3350279900.0 -0.5719641449 0.8137023406
3400279600.0 -0.5598799296 0.8219258322
3450279300.0 -0.5486918872 0.8295030566
3500279000.0 -0.5370490679 0.8367423278
3550278700.0 -0.5248625753 0.8439257031
3600278400.0 -0.5133237214 0.8508702401
3650278100.0 -0.4998624885 0.8588341967
3700277800.0 -0.4881586019 0.8654768386
3750277500.0 -0.4760976112 0.8720738827
3800277200.0 -0.4635628949 0.8786302009
3850276900.0 -0.4511823906 0.8849059663
3900276600.0 -0.4399428528 0.8908359285
3950276300.0 -0.4268766295 0.8971567246
4000276000.0 -0.4148536748 0.9030279254
4050275700.0 -0.4015153115 0.9092597241
4100275400.0 -0.3900494593 0.9146703117
4150275100.0 -0.3772608357 0.9203272607
4200274800.0 -0.3635526222 0.9257175518
4250274500.0 -0.3514819937 0.9304102551
4300274200.0 -0.3387222998 0.9357182955
4350273900.0 -0.32546314 0.940599874
4400273600.0 -0.3112556877 0.9452332359
4450273300.0 -0.296874742 0.9502339788
4500273000.0 -0.2837733941 0.954428258
4550272700.0 -0.2703751401 0.9585838077
4600272400.0 -0.2550454122 0.9626626331
4650272100.0 -0.2426862268 0.9658353093
4700271800.0 -0.2294422799 0.9692129887
4750271500.0 -0.2165778771 0.9723098621
4800271200.0 -0.2033761683 0.9750887573
4850270900.0 -0.1895530618 0.977848211
4900270600.0 -0.1761903193 0.9803716271
4950270300.0 -0.1626295494 0.9830108955
5000270000.0 -0.1484941254 0.9850152642
5050269700.0 -0.1347027843 0.9863688735
5100269400.0 -0.1209945906 0.9887945034
5150269100.0 -0.1075474416 0.9902337265
5200268800.0 -0.0937499625 0.9916518187
5250268500.0 -0.0808029091 0.9930424406
5300268200.0 -0.0670547357 0.9938069455
5350267900.0 -0.0547485327 0.9945507812
5400267600.0 -0.0389055726 0.9953507647
5450267300.0 -0.0264525365 0.9955525101
5500267000.0 -0.0119915037 0.9960455596
5550266700.0 0.0013591898 0.9961976629
5600266400.0 0.0161016886 0.9962364591
5650266100.0 0.0319513263 0.9959838191
5700265800.0 0.0456422213 0.9954817988
5750265500.0 0.0599791494 0.994636085
5800265200.0 0.073945662 0.9938373841
5850264900.0 0.0872222118 0.992489231
5900264600.0 0.1033634833 0.9912767266
5950264300.0 0.1155966607 0.9898467453
6000264000.0 0.1296162429 0.9881081498
6050263700.0 0.1422214994 0.9864613429
6100263400.0 0.1556020624 0.98453099
6150263100.0 0.1708146535 0.9817275966
6200262800.0 0.1817183579 0.9804757771
6250262500.0 0.1949582953 0.9777456185
6300262200.0 0.207647757 0.9750165167
6350261900.0 0.2208588801 0.9721227233
6400261600.0 0.2353033838 0.9688957386
6450261300.0 0.2467010243 0.9658839776
6500261000.0 0.2595838649 0.9624261734
6550260700.0 0.2727596096 0.9585316631
6600260400.0 0.2856454505 0.9547509311
6650260100.0 0.2997048502 0.9504864566
6700259800.0 0.3120322988 0.9466472971
6750259500.0 0.3253725486 0.9418490275
6800259200.0 0.3387217488 0.9374145181
6850258900.0 0.3508892097 0.9321983723
6900258600.0 0.3632725525 0.927462835
6950258300.0 0.3763726249 0.9224213358
7000258000.0 0.3882633698 0.9171272535
7050257700.0 0.4001207654 0.9115838122
7100257400.0 0.4137053722 0.9053018366
7150257100.0 0.4244223418 0.9003220049
7200256800.0 0.4375206378 0.8942184576
7250256500.0 0.4489293588 0.8878796142
7300256200.0 0.4616402318 0.8815874607
7350255900.0 0.4734383387 0.8750735503
7400255600.0 0.4849690065 0.8689223706
7450255300.0 0.4996289368 0.860767044
7500255000.0 0.5111776617 0.8539386341
7550254700.0 0.5228789776 0.8466782874
7600254400.0 0.5357088273 0.8388430526
7650254100.0 0.5467950451 0.8314178347
7700253800.0 0.5587419236 0.8235964841
7750253500.0 0.5701904057 0.8158626577
7800253200.0 0.5813498379 0.8077945375
7850252900.0 0.5908138749 0.8008457193
7900252600.0 0.6028131637 0.7920873594
7950252300.0 0.6124517115 0.7846668234
8000252000.0 0.6230672876 0.7764087084
8050251700.0 0.6335163094 0.7681966996
8100251400.0 0.6434125639 0.7600569463
8150251100.0 0.654357362 0.7508481099
8200250800.0 0.6640802013 0.742735631
8250250500.0 0.6737693409 0.733906371
8300250200.0 0.6832011446 0.7249999305
8350249900.0 0.693030134 0.7161841788
8400249600.0 0.7014749342 0.7076722046
8450249300.0 0.7115713739 0.6979265567
8500249000.0 0.7202998963 0.6886553918
8550248700.0 0.7294986159 0.6787104237
8600248400.0 0.7386823176 0.6688543467
8650248100.0 0.7462997417 0.6594167174
8700247800.0 0.7559259549 0.6487097012
8750247500.0 0.7642279304 0.6385981906
8800247200.0 0.772742291 0.6282835627
8850246900.0 0.7815062906 0.6173573228
8900246600.0 0.7896326482 0.6065128174
8950246300.0 0.7985223202 0.5946771828
9000246000.0 0.8067175504 0.5835951982
9050245700.0 0.81481083 0.5719655578
9100245400.0 0.8231176915 0.5601551893
9150245100.0 0.8313186188 0.5481416716
9200244800.0 0.8392305543 0.5358569159
9250244500.0 0.8479672892 0.522543109
9300244200.0 0.8555315723 0.5102835314
9350243900.0 0.8629995824 0.4973528618
9400243600.0 0.8699884742 0.4850494139
9450243300.0 0.8761124015 0.4736101225
9500243000.0 0.8831964773 0.4605760678
9550242700.0 0.8886916275 0.449780644
9600242400.0 0.8942554385 0.4386765202
9650242100.0 0.8990177736 0.4289454646
9700241800.0 0.9044672887 0.4186048065
9750241500.0 0.9094581172 0.4081062587
9800241200.0 0.9146080858 0.3965788715
9850240900.0 0.919878062 0.3849720457
9900240600.0 0.9247637738 0.3749305775
9950240300.0 0.930574151 0.3600530136
10000240000.0 0.935602502 0.3478842838
10050239700.0 0.940767119 0.3338755783
10100239400.0 0.9453359581 0.3197345731
10150239100.0 0.9497146558 0.3062566253
10200238800.0 0.9540832818 0.2916405372
10250238500.0 0.9578519556 0.2784656815
10300238200.0 0.9615682381 0.2645113872
10350237900.0 0.9646660769 0.2516252329
10400237600.0 0.9679334875 0.2380442627
10450237300.0 0.971100126 0.2240622085
10500237000.0 0.9734653345 0.2118336496
10550236700.0 0.9765082398 0.1976700711
10600236400.0 0.9788718639 0.1849688471
10650236100.0 0.9811924603 0.1694016175
10700235800.0 0.98327762 0.1576914063
10750235500.0 0.985531087 0.143979345
10800235200.0 0.9875042137 0.1304775718
10850234900.0 0.9890908951 0.1163900396
10900234600.0 0.9909626557 0.1022034002
10950234300.0 0.992533963 0.0886949582
11000234000.0 0.9940820979 0.0747857584
11050233700.0 0.9953375615 0.0606009459
11100233400.0 0.9963312809 0.0449783654
11150233100.0 0.9973654478 0.0295698227
11200232800.0 0.9977154914 0.0152927816
11250232500.0 0.9984671709 0.0005787508
11300232200.0 0.9990465177 -0.0152886629
11350231900.0 0.9988319206 -0.0301845024
11400231600.0 0.9986923173 -0.0451096527
11450231300.0 0.9980525333 -0.0600535757
11500231000.0 0.9975247335 -0.0740463693
11550230700.0 0.9960500744 -0.0876805369
11600230400.0 0.9948476551 -0.1019081409
11650230100.0 0.9932292779 -0.114799658
11700229800.0 0.9913859996 -0.1288315697
11750229500.0 0.9895099752 -0.1428514306
11800229200.0 0.9872657825 -0.1566508899
11850228900.0 0.9845338713 -0.170486525
11900228600.0 0.9815735366 -0.1830442623
11950228300.0 0.9787807236 -0.1956417234
12000228000.0 0.9761031175 -0.2062323075
12050227700.0 0.972648835 -0.2203474919
12100227400.0 0.969874407 -0.2311390227
12150227100.0 0.9652011081 -0.2486195924
12200226800.0 0.9623732459 -0.2597819367
12250226500.0 0.9583751529 -0.272981383
12300226200.0 0.954517946 -0.285023084
12350225900.0 0.9492780586 -0.3004313158
12400225600.0 0.9459133704 -0.3128925598
12450225300.0 0.9417088461 -0.3245412064
12500225000.0 0.9363584189 -0.3395806852
12550224700.0 0.9313558468 -0.3533328059
12600224400.0 0.926688462 -0.3655678428
12650224100.0 0.9208492346 -0.3798057084
12700223800.0 0.9155342836 -0.3926284711
12750223500.0 0.9100088084 -0.4055251671
12800223200.0 0.9042472363 -0.4185546693
12850222900.0 0.8990143135 -0.4308101752
12900222600.0 0.8932513383 -0.4430302841
12950222300.0 0.8866207485 -0.4561026433
13000222000.0 0.8803937784 -0.4675576303
13050221700.0 0.8734987607 -0.4807682231
13100221400.0 0.8672779196 -0.4925317486
13150221100.0 0.8601915965 -0.5051456066
13200220800.0 0.8528348445 -0.5172495762
13250220500.0 0.8457255602 -0.5290460725
13300220200.0 0.8383510608 -0.5402502439
13350219900.0 0.8303006907 -0.5526805948
13400219600.0 0.8224736275 -0.5643607239
13450219300.0 0.8138032337 -0.5767642596
13500219000.0 0.8052473816 -0.5892926333
13550218700.0 0.7957446873 -0.6016544112
13600218400.0 0.7863542735 -0.6127907798
13650218100.0 0.7779354504 -0.6234618153
13700217800.0 0.7673639583 -0.635159071
13750217500.0 0.7573696931 -0.6466696806
13800217200.0 0.7485396102 -0.6585854837
13850216900.0 0.7367080865 -0.6711104189
13900216600.0 0.7284297394 -0.6797511492
13950216300.0 0.7167790983 -0.6904984039
14000216000.0 0.7072249551 -0.7004641413
14050215700.0 0.6977842935 -0.7094054329
14100215400.0 0.6872941916 -0.7192189457
14150215100.0 0.6772856587 -0.7291242373
14200214800.0 0.6677507299 -0.7380012226
14250214500.0 0.6569556508 -0.7477770483
14300214200.0 0.6461837758 -0.7574335205
14350213900.0 0.6355538563 -0.7667423821
14400213600.0 0.624279944 -0.7760370933
14450213300.0 0.6120040696 -0.7857028901
14500213000.0 0.6005370684 -0.794512458
14550212700.0 0.5888010234 -0.8038853845
14600212400.0 0.5764793198 -0.8123400296
14650212100.0 0.5644277568 -0.8205382444
14700211800.0 0.5510707737 -0.8295519518
14750211500.0 0.5386673592 -0.83829824
14800211200.0 0.5263284966 -0.8461745231
14850210900.0 0.5142504161 -0.8536396043
14900210600.0 0.5017009402 -0.861457577
14950210300.0 0.4886785664 -0.8691421135
15000210000.0 0.4756693023 -0.8763291978
15050209700.0 0.4631022015 -0.8832172184
15100209400.0 0.44986919 -0.8899084075
15150209100.0 0.4371562704 -0.895414561
15200208800.0 0.4247748042 -0.9020606862
15250208500.0 0.4117979733 -0.9071121239
15300208200.0 0.3981982341 -0.9129301734
15350207900.0 0.3861850715 -0.9189889282
15400207600.0 0.371607512 -0.9236582834
15450207300.0 0.3577559107 -0.9289085345
15500207000.0 0.3435468884 -0.9339615716
15550206700.0 0.3294894264 -0.9386711167
15600206400.0 0.3153496167 -0.9437265006
15650206100.0 0.2999082802 -0.9480809433
15700205800.0 0.2862818707 -0.9519649812
15750205500.0 0.2719092984 -0.9562638654
15800205200.0 0.2580652365 -0.9598374984
15850204900.0 0.2441330235 -0.9635467383
15900204600.0 0.2292149828 -0.9673791574
15950204300.0 0.2150025003 -0.9703968226
16000204000.0 0.2010295711 -0.9737561572
16050203700.0 0.1860784753 -0.9769214982
16100203400.0 0.1717090649 -0.9793775747
16150203100.0 0.1574109265 -0.9815786295
16200202800.0 0.1431835513 -0.9840620463
16250202500.0 0.1284872285 -0.9861737658
16300202200.0 0.1129038558 -0.9876066834
16350201900.0 0.0978999745 -0.98936697
16400201600.0 0.0832336044 -0.9904764678
16450201300.0 0.0685951581 -0.9918759348
16500201000.0 0.0526440743 -0.9928836203
16550200700.0 0.0373995532 -0.9937389035
16600200400.0 0.022014206 -0.9941011761
16650200100.0 0.0062495099 -0.9945718479
16700199800.0 -0.0084557401 -0.9947091764
16750199500.0 -0.02524411 -0.9944289387
16800199200.0 -0.0407948976 -0.9939268412
16850198900.0 -0.0565516784 -0.9932908594
16900198600.0 -0.0709081048 -0.9921770852
16950198300.0 -0.0857726101 -0.9912439874
17000198000.0 -0.0997945469 -0.9897051946
17050197700.0 -0.1132887528 -0.9885246243
17100197400.0 -0.1278638636 -0.9863432475
17150197100.0 -0.1417054688 -0.9840944319
17200196800.0 -0.1552856358 -0.981955657
17250196500.0 -0.1689223386 -0.9797920604
17300196200.0 -0.1825337085 -0.9770601018
17350195900.0 -0.1960428483 -0.9745581432
17400195600.0 -0.2091468126 -0.9716993515
17450195300.0 -0.2227953985 -0.968930323
17500195000.0 -0.2362634682 -0.965604697
17550194700.0 -0.2501621933 -0.962368766
17600194400.0 -0.2645580405 -0.9584532231
17650194100.0 -0.2787064843 -0.954215784
17700193800.0 -0.2918723437 -0.9501435807
17750193500.0 -0.3058144529 -0.9460065579
17800193200.0 -0.3192755039 -0.9413871479
17850192900.0 -0.3340566149 -0.9365615753
17900192600.0 -0.3481169901 -0.9312863376
17950192300.0 -0.3629096017 -0.9249154054
18000192000.0 -0.3776718115 -0.9184618653
18050191700.0 -0.3917338571 -0.9116545299
18100191400.0 -0.4059949448 -0.9050945706
18150191100.0 -0.4198172694 -0.8981614195
18200190800.0 -0.4348694746 -0.8905480706
18250190500.0 -0.4505050145 -0.8825804046
18300190200.0 -0.4654744112 -0.875303204
18350189900.0 -0.4800479856 -0.8671816671
18400189600.0 -0.4944182911 -0.8597545844
18450189300.0 -0.5075783141 -0.8522755606
18500189000.0 -0.5209842151 -0.8444471095
18550188700.0 -0.5341480472 -0.8363359076
18600188400.0 -0.5467004217 -0.8288350414
18650188100.0 -0.5589601423 -0.8212868392
18700187800.0 -0.5704664488 -0.8138083839
18750187500.0 -0.5820009051 -0.8060005883
18800187200.0 -0.5934276963 -0.797860868
18850186900.0 -0.6042627692 -0.7900304219
18900186600.0 -0.6150360674 -0.7819011779
18950186300.0 -0.6264011309 -0.7732050375
19000186000.0 -0.6357505444 -0.7654304494
19050185700.0 -0.6458939443 -0.7572312861
19100185400.0 -0.6562999033 -0.7479664249
19150185100.0 -0.6669330218 -0.739304012
19200184800.0 -0.6767445242 -0.7301972462
19250184500.0 -0.6868086597 -0.7210212278
19300184200.0 -0.6975692395 -0.7110652331
19350183900.0 -0.7079785138 -0.7010743883
19400183600.0 -0.7180345722 -0.6912777476
19450183300.0 -0.7271298911 -0.6802445338
19500183000.0 -0.7358227576 -0.6703955021
19550182700.0 -0.7454279867 -0.6598260569
19600182400.0 -0.7551311385 -0.6484775
19650182100.0 -0.7647558755 -0.6371914762
19700181800.0 -0.7742092498 -0.6252381754
19750181500.0 -0.7843775877 -0.6124599797
19800181200.0 -0.7938068287 -0.5992934799
19850180900.0 -0.8034288342 -0.5857392542
19900180600.0 -0.8115017735 -0.5732862443
19950180300.0 -0.821180597 -0.558810564
20000180000.0 -0.8243319147 -0.552969055
20050179700.0 -0.8321817468 -0.5396297929
20100179400.0 -0.8396509128 -0.5268195365
20150179100.0 -0.8482765154 -0.514392805
20200178800.0 -0.8574067748 -0.5008982313
20250178500.0 -0.8650418297 -0.4889036378
20300178200.0 -0.8732886898 -0.475413688
20350177900.0 -0.8808564712 -0.4625325688
20400177600.0 -0.8881819332 -0.4492332655
20450177300.0 -0.8960115932 -0.4357778619
20500177000.0 -0.9030420109 -0.4220843508
20550176700.0 -0.9102376741 -0.4087329401
20600176400.0 -0.9163863668 -0.3958997655
20650176100.0 -0.9225769789 -0.3831553483
20700175800.0 -0.9285818899 -0.3704191027
20750175500.0 -0.9349099265 -0.3583446825
20800175200.0 -0.9390194197 -0.3457727514
20850174900.0 -0.944342212 -0.3340594476
20900174600.0 -0.9490737635 -0.3218362106
20950174300.0 -0.9533410435 -0.3091593437
21000174000.0 -0.9571232478 -0.2957733941
21050173700.0 -0.9604924272 -0.2843979289
21100173400.0 -0.9635764327 -0.2714268664
21150173100.0 -0.9668435177 -0.2587392467
21200172800.0 -0.9705865362 -0.245292127
21250172500.0 -0.9746209857 -0.2316466241
21300172200.0 -0.9773636377 -0.2176543841
21350171900.0 -0.9800132162 -0.203221956
21400171600.0 -0.983101814 -0.1892395533
21450171300.0 -0.9841016898 -0.1755572415
21500171000.0 -0.9852401773 -0.1601045345
21550170700.0 -0.9872531758 -0.1459533116
21600170400.0 -0.9891872059 -0.1300830324
21650170100.0 -0.9899523014 -0.1154955812
21700169800.0 -0.9893562982 -0.0996386527
21750169500.0 -0.9900061331 -0.0846909608
21800169200.0 -0.9913521229 -0.0692697144
21850168900.0 -0.9906978198 -0.0542985523
21900168600.0 -0.9918503066 -0.0380028433
21950168300.0 -0.9906392077 -0.0228345594
22000168000.0 -0.9904250375 -0.0076210684
22050167700.0 -0.9901152049 0.0064532102
22100167400.0 -0.9901893766 0.0215860379
22150167100.0 -0.989929014 0.0366143174
22200166800.0 -0.9897577652 0.0517145685
22250166500.0 -0.9887241293 0.06748498
22300166200.0 -0.9880860056 0.0824296446
22350165900.0 -0.9869625619 0.0973766957
22400165600.0 -0.98534812 0.1117098359
22450165300.0 -0.9836455043 0.1276351698
22500165000.0 -0.9819226001 0.1405758955
22550164700.0 -0.9808665294 0.1558297796
22600164400.0 -0.9778833336 0.171108262
22650164100.0 -0.9765439585 0.1832771681
22700163800.0 -0.9737806888 0.1980694322
22750163500.0 -0.9710224528 0.2128606625
22800163200.0 -0.9681091676 0.226070681
22850162900.0 -0.9649766958 0.2387426399
22900162600.0 -0.9631109473 0.2522069802
22950162300.0 -0.960472797 0.2656278232
23000162000.0 -0.9581552577 0.2781105792
23050161700.0 -0.954795955 0.2913095071
23100161400.0 -0.9524188002 0.3039767889
23150161100.0 -0.9486909876 0.3169008327
23200160800.0 -0.9453418091 0.3298337114
23250160500.0 -0.9412041253 0.3419555588
23300160200.0 -0.9385847801 0.3552335801
23350159900.0 -0.9345352692 0.3679665564
23400159600.0 -0.9289783078 0.3805775763
23450159300.0 -0.9249894179 0.3929396025
23500159000.0 -0.9199668029 0.405521465
23550158700.0 -0.9152420624 0.4187128389
23600158400.0 -0.909847163 0.431413872
23650158100.0 -0.903990565 0.4441709607
23700157800.0 -0.8973000007 0.456964725
23750157500.0 -0.8897892337 0.4706941776
23800157200.0 -0.8826076781 0.4830303395
23850156900.0 -0.8752221638 0.4954299232
23900156600.0 -0.8671729972 0.5074365956
23950156300.0 -0.8596351646 0.5200279919
24000156000.0 -0.8511373248 0.5320412878
24050155700.0 -0.84220203 0.5438625927
24100155400.0 -0.8340136603 0.555587471
24150155100.0 -0.8251788841 0.5672203667
24200154800.0 -0.8157336803 0.5784355388
24250154500.0 -0.8063755268 0.5904591167
24300154200.0 -0.7965987861 0.6026088846
24350153900.0 -0.7865461055 0.6134740049
24400153600.0 -0.7761564681 0.6245071649
24450153300.0 -0.7659083936 0.6347909789
24500153000.0 -0.7560809678 0.6453221109
24550152700.0 -0.7458319873 0.6560921726
24600152400.0 -0.7358846605 0.6661062893
24650152100.0 -0.72465894 0.6766968192
