!Created with skrf (http://scikit-rf.org).
# Hz S RI R 50.0 
!freq ReS11 ImS11
300000.0 -0.9794045338 -0.1082424408
50299700.0 -1.00011601 0.0158793992
100299400.0 -0.9981559225 0.0287107061
150299100.0 -1.002760914 0.0458981532
200298800.0 -0.9997220549 0.0591045408
250298500.0 -0.9974652876 0.0726418455
300298200.0 -0.9860641986 0.0884144207
350297900.0 -0.993913045 0.0994090563
400297600.0 -0.9930234691 0.115857714
450297300.0 -0.9910376874 0.1295211812
500297000.0 -0.9895255468 0.1446399745
550296700.0 -0.9842916977 0.1568546017
600296400.0 -1.017382524 0.1904386953
650296100.0 -0.9822481129 0.1870949015
700295800.0 -0.979267846 0.2012629707
750295500.0 -0.9765195299 0.2152077295
800295200.0 -0.9730913957 0.2293362512
850294900.0 -0.9695463168 0.2431089245
900294600.0 -0.9656360246 0.2567925996
950294300.0 -0.9619250544 0.270594234
1000294000.0 -0.9578294781 0.2845327189
1050293700.0 -0.9534847822 0.2981811284
1100293400.0 -0.9491079793 0.3125940677
1150293100.0 -0.9453413259 0.3244902107
1200292800.0 -0.9398090421 0.3389598633
1250292500.0 -0.9345782527 0.352315105
1300292200.0 -0.9288129157 0.3655397464
1350291900.0 -0.9231291786 0.3797003354
1400291600.0 -0.917685689 0.3927600831
1450291300.0 -0.9122309169 0.4050530901
1500291000.0 -0.9058924965 0.4184710578
1550290700.0 -0.8993024342 0.4316518359
1600290400.0 -0.8930732078 0.4445862934
1650290100.0 -0.886612494 0.4568722604
1700289800.0 -0.8796654593 0.4702480672
1750289500.0 -0.8725621116 0.4825058578
1800289200.0 -0.8652510077 0.4954625441
1850288900.0 -0.8584233942 0.5065808561
1900288600.0 -0.8507266521 0.5195957136
1950288300.0 -0.8425988438 0.5324527508
2000288000.0 -0.8348832949 0.5435795757
2050287700.0 -0.8269829138 0.5561164202
2100287400.0 -0.8188938893 0.5676861946
2150287100.0 -0.8101208394 0.5797048378
2200286800.0 -0.8024853212 0.5903078175
2250286500.0 -0.793658104 0.6022425463
2300286200.0 -0.7845739322 0.6137981051
2350285900.0 -0.7757782438 0.6248344342
2400285600.0 -0.7670183188 0.6358615261
2450285300.0 -0.7582093416 0.6462549633
2500285000.0 -0.7486669006 0.6572703849
2550284700.0 -0.7397467618 0.6675017344
2600284400.0 -0.7303154199 0.6776548319
2650284100.0 -0.7212639703 0.6886666468
2700283800.0 -0.7105436594 0.699107329
2750283500.0 -0.70048012 0.7097435074
2800283200.0 -0.6905006061 0.7194880155
2850282900.0 -0.6804472442 0.7292071861
2900282600.0 -0.6698454107 0.7387216848
2950282300.0 -0.6596975918 0.7478209677
3000282000.0 -0.6491278876 0.7573876698
3050281700.0 -0.6378800462 0.7667124286
3100281400.0 -0.6259913156 0.7760191902
3150281100.0 -0.614137182 0.7854300117
3200280800.0 -0.602488856 0.7940251636
3250280500.0 -0.5917310828 0.8015704191
3300280200.0 -0.5807002718 0.8093234534
3350279900.0 -0.5690573111 0.8171110171
3400279600.0 -0.5570693129 0.8245242624
3450279300.0 -0.5458844481 0.8316268391
3500279000.0 -0.5337827933 0.8388500228
3550278700.0 -0.5214313413 0.8462636756
3600278400.0 -0.5087904278 0.8529838245
3650278100.0 -0.4958791982 0.8609555272
3700277800.0 -0.4837408772 0.8673740144
3750277500.0 -0.4716588541 0.873865916
3800277200.0 -0.4590318071 0.8803910635
3850276900.0 -0.4469324694 0.8863088638
3900276600.0 -0.4360571162 0.8918215454
3950276300.0 -0.4234819091 0.8980052842
4000276000.0 -0.4115144387 0.9040258749
4050275700.0 -0.3985030306 0.9099583096
4100275400.0 -0.3872832381 0.9155128092
4150275100.0 -0.3744924891 0.921224358
4200274800.0 -0.3619690026 0.9266879324
4250274500.0 -0.349329967 0.9314295757
4300274200.0 -0.3363474789 0.9371320772
4350273900.0 -0.3226424698 0.9423375232
4400273600.0 -0.3076706522 0.9474184794
4450273300.0 -0.2922664331 0.9525376769
4500273000.0 -0.278716146 0.9569151533
4550272700.0 -0.264608899 0.9611098823
4600272400.0 -0.2490016249 0.9653347913
4650272100.0 -0.2371616108 0.9686621706
4700271800.0 -0.2239961629 0.9720040591
4750271500.0 -0.2122666071 0.9747676542
4800271200.0 -0.1998342485 0.9774805395
4850270900.0 -0.1857880229 0.9803397196
4900270600.0 -0.1720078977 0.9826521135
4950270300.0 -0.1576250952 0.9852119993
5000270000.0 -0.143645796 0.987489043
5050269700.0 -0.1301606731 0.9886020158
5100269400.0 -0.116472904 0.9902605613
5150269100.0 -0.1033071738 0.9924785258
5200268800.0 -0.0900602861 0.9930775324
5250268500.0 -0.0768943004 0.9943261823
5300268200.0 -0.0639190753 0.9946476024
5350267900.0 -0.0517386832 0.9954134782
5400267600.0 -0.0355247475 0.9962565952
5450267300.0 -0.0223524365 0.996677159
5500267000.0 -0.0071209679 0.9971310638
5550266700.0 0.0079233129 0.9972883368
5600266400.0 0.0231090554 0.9971498426
5650266100.0 0.0397541566 0.9970038449
5700265800.0 0.0541786751 0.9960237706
5750265500.0 0.0694059155 0.9953099871
5800265200.0 0.0837010644 0.9946198355
5850264900.0 0.0967079844 0.9931144244
5900264600.0 0.1135169357 0.9917238507
5950264300.0 0.1253778029 0.9898181704
6000264000.0 0.1394773118 0.9877158226
6050263700.0 0.1518785374 0.9865043997
6100263400.0 0.1645753904 0.9847487916
6150263100.0 0.1791209428 0.9825209169
6200262800.0 0.1896604526 0.9804487534
6250262500.0 0.2022984146 0.9779975653
6300262200.0 0.2152541004 0.9752612562
6350261900.0 0.2280808782 0.9722669799
6400261600.0 0.2418711172 0.9689335916
6450261300.0 0.2535217256 0.966418338
6500261000.0 0.2663940571 0.9628336174
6550260700.0 0.2790283881 0.9588042218
6600260400.0 0.2928730114 0.9548454276
6650260100.0 0.3063794757 0.9504159578
6700259800.0 0.3179538099 0.9459993573
6750259500.0 0.3321656823 0.9409818535
6800259200.0 0.3453529811 0.9362133211
6850258900.0 0.3572284428 0.9310692734
6900258600.0 0.3691174386 0.9261157015
6950258300.0 0.3816702883 0.920756429
7000258000.0 0.3937937039 0.9153549472
7050257700.0 0.4060830356 0.9095510894
7100257400.0 0.4188421454 0.9030030684
7150257100.0 0.429108283 0.8978056696
7200256800.0 0.4419864119 0.8912490705
7250256500.0 0.4533136915 0.8850073677
7300256200.0 0.4666744097 0.8782922997
7350255900.0 0.4788691664 0.8713942873
7400255600.0 0.4923456412 0.8643420156
7450255300.0 0.5073128545 0.85513399
7500255000.0 0.5191219233 0.8480267924
7550254700.0 0.5327042291 0.8397653926
7600254400.0 0.5458162249 0.8313229818
7650254100.0 0.5573031657 0.8236039872
7700253800.0 0.5690038365 0.8154014804
7750253500.0 0.5803474495 0.8078021519
7800253200.0 0.59085833 0.8000325864
7850252900.0 0.6007419179 0.7929034102
7900252600.0 0.6124672645 0.7841788263
7950252300.0 0.6212526014 0.7775240679
8000252000.0 0.6312827616 0.7698327395
8050251700.0 0.6418689857 0.7614974024
8100251400.0 0.6523806606 0.75320541
8150251100.0 0.6624227961 0.7445523579
8200250800.0 0.671508982 0.7365490284
8250250500.0 0.6802781779 0.7285864961
8300250200.0 0.6898033633 0.7200460055
8350249900.0 0.6986538931 0.7112377208
8400249600.0 0.7073895318 0.7034666035
8450249300.0 0.7163305447 0.6942127997
8500249000.0 0.7248982478 0.6852944358
8550248700.0 0.7331542342 0.6761866779
8600248400.0 0.7414911466 0.666739616
8650248100.0 0.7492412546 0.6572284096
8700247800.0 0.7588447175 0.6461825143
8750247500.0 0.7670853914 0.6361468216
8800247200.0 0.7752519708 0.6256358516
8850246900.0 0.7838745417 0.6143652783
8900246600.0 0.7921669574 0.6030602705
8950246300.0 0.802033683 0.5899952018
9000246000.0 0.8115127045 0.5774284126
9050245700.0 0.8204204224 0.5642769289
9100245400.0 0.8286297417 0.5517244611
9150245100.0 0.8383442526 0.5380596221
9200244800.0 0.8481613618 0.5226261665
9250244500.0 0.8575846031 0.5070475489
9300244200.0 0.8661383641 0.4923717099
9350243900.0 0.8738783616 0.47865696
9400243600.0 0.8806580956 0.4658874193
9450243300.0 0.886473317 0.4540895392
9500243000.0 0.8927510411 0.4419115366
9550242700.0 0.8965009887 0.4340322255
9600242400.0 0.9004221303 0.4268811653
9650242100.0 0.9039717768 0.420201636
9700241800.0 0.908252374 0.4121043094
9750241500.0 0.9127906682 0.4042307199
9800241200.0 0.9169745035 0.3951294162
9850240900.0 0.9226129987 0.3837168143
9900240600.0 0.928260296 0.3720707839
9950240300.0 0.9349444148 0.3560549781
10000240000.0 0.9394920708 0.3444766348
10050239700.0 0.9453578243 0.3288142055
10100239400.0 0.9501803718 0.3134153093
10150239100.0 0.9542844723 0.2990452871
10200238800.0 0.9585632856 0.2843333972
10250238500.0 0.9616079819 0.2707443974
10300238200.0 0.9648206063 0.2568658274
10350237900.0 0.9675146058 0.24374448
10400237600.0 0.970088974 0.2305583258
10450237300.0 0.9726902155 0.2172728721
10500237000.0 0.9750032436 0.2050507442
10550236700.0 0.9771045207 0.1912722921
10600236400.0 0.9792250093 0.1777478483
10650236100.0 0.981509822 0.1631662313
10700235800.0 0.983445034 0.1510471603
10750235500.0 0.9861951333 0.1373848914
10800235200.0 0.9874785135 0.1234117208
10850234900.0 0.9894029307 0.1089373079
10900234600.0 0.9918714128 0.0943885963
10950234300.0 0.9934700758 0.0811518122
11000234000.0 0.9951967886 0.0659644787
11050233700.0 0.9968877038 0.0496466732
11100233400.0 0.9984479664 0.0323178582
11150233100.0 0.999608655 0.0160599836
11200232800.0 1.000319342 0.0008792454
11250232500.0 1.000952836 -0.0153402991
11300232200.0 1.001838339 -0.0341091536
11350231900.0 1.001385891 -0.0485345934
11400231600.0 1.000389971 -0.0640101021
11450231300.0 1.000953718 -0.0796072118
11500231000.0 1.000017497 -0.0969642578
11550230700.0 0.9978269398 -0.1094737412
11600230400.0 0.9965650698 -0.1231254247
11650230100.0 0.994833548 -0.134905534
11700229800.0 0.9925320991 -0.1491401008
11750229500.0 0.9902045954 -0.1636667362
11800229200.0 0.987726522 -0.1778115905
11850228900.0 0.9842265324 -0.1901022927
11900228600.0 0.9805169035 -0.1997680731
11950228300.0 0.9773962072 -0.2104389439
12000228000.0 0.9745826574 -0.2192277209
12050227700.0 0.970950866 -0.2314547576
12100227400.0 0.9677101513 -0.2432162792
12150227100.0 0.9628093039 -0.2592079235
12200226800.0 0.9593473927 -0.2706800813
12250226500.0 0.9549847899 -0.2831211808
12300226200.0 0.9508253834 -0.2947408581
12350225900.0 0.9457830948 -0.3091454273
12400225600.0 0.9418889274 -0.3221335957
12450225300.0 0.9373022147 -0.3342010467
12500225000.0 0.9320898056 -0.3494401058
12550224700.0 0.9267045325 -0.3629025794
12600224400.0 0.9218609523 -0.3757121671
12650224100.0 0.9160152645 -0.3901470207
12700223800.0 0.9108404792 -0.4027114938
12750223500.0 0.9055752064 -0.4154846316
12800223200.0 0.9000036941 -0.4284506507
12850222900.0 0.8945414083 -0.4406271932
12900222600.0 0.8889424799 -0.4522154383
12950222300.0 0.8825633148 -0.4652480402
13000222000.0 0.8764941977 -0.4771821165
13050221700.0 0.8700072121 -0.4891424323
13100221400.0 0.8633490164 -0.5010822139
13150221100.0 0.8568198606 -0.5132813868
13200220800.0 0.8492949022 -0.525527834
13250220500.0 0.8418995698 -0.5374978197
13300220200.0 0.8345732353 -0.5485107357
13350219900.0 0.8263279443 -0.5603924449
13400219600.0 0.8180146135 -0.5726958265
13450219300.0 0.8086911401 -0.5862773941
13500219000.0 0.7982255781 -0.6002627828
13550218700.0 0.7877735078 -0.6133022847
13600218400.0 0.7780125322 -0.6253164979
13650218100.0 0.7671176716 -0.6371573503
13700217800.0 0.7570385091 -0.6492378682
13750217500.0 0.746793493 -0.6598238257
13800217200.0 0.7358219635 -0.6720837899
13850216900.0 0.7257074419 -0.6831631303
13900216600.0 0.714364158 -0.6924004872
13950216300.0 0.7036359551 -0.7032394983
14000216000.0 0.693855463 -0.7118082801
14050215700.0 0.6841233893 -0.7203443378
14100215400.0 0.6740641547 -0.7298033668
14150215100.0 0.6651272357 -0.7376294608
14200214800.0 0.6558810885 -0.746292224
14250214500.0 0.6456012398 -0.7556164021
14300214200.0 0.6352592564 -0.7647817832
14350213900.0 0.6240055578 -0.7744041128
14400213600.0 0.6126151864 -0.783862191
14450213300.0 0.5995976731 -0.7943280964
14500213000.0 0.5871400039 -0.803808611
14550212700.0 0.5740591715 -0.8130443693
14600212400.0 0.561128759 -0.8222593624
14650212100.0 0.5488651015 -0.8313752122
14700211800.0 0.5345361829 -0.8402989198
14750211500.0 0.5226093068 -0.8488624596
14800211200.0 0.5102363428 -0.8566524979
14850210900.0 0.498107651 -0.8641431278
14900210600.0 0.484869034 -0.871870016
14950210300.0 0.4712724181 -0.8794774826
15000210000.0 0.4584509354 -0.8863321061
15050209700.0 0.4461643214 -0.892295708
15100209400.0 0.4332178202 -0.8986396096
15150209100.0 0.4201251749 -0.9036967536
15200208800.0 0.407751681 -0.9096318777
15250208500.0 0.3956296785 -0.9142166086
15300208200.0 0.3832851078 -0.9179147081
15350207900.0 0.3711066011 -0.9228860899
15400207600.0 0.3561064039 -0.9284970355
15450207300.0 0.3414210634 -0.9333477907
15500207000.0 0.3270987293 -0.9377529961
15550206700.0 0.3117824467 -0.9432321019
15600206400.0 0.2962347606 -0.948017034
15650206100.0 0.2805094663 -0.9526022824
15700205800.0 0.2662726464 -0.9556320463
15750205500.0 0.2518661226 -0.9592836055
15800205200.0 0.2373067826 -0.9626802406
15850204900.0 0.2229821061 -0.966075865
15900204600.0 0.2079879818 -0.9697204609
15950204300.0 0.1939206984 -0.9727582799
16000204000.0 0.1799730245 -0.9753129399
16050203700.0 0.1654673242 -0.9785705383
16100203400.0 0.1507620449 -0.9802786206
16150203100.0 0.1368800057 -0.9826192674
16200202800.0 0.1225414779 -0.9847192133
16250202500.0 0.1076166858 -0.9865438818
16300202200.0 0.0922661842 -0.9879924931
16350201900.0 0.0777605638 -0.9895434497
16400201600.0 0.0632626619 -0.9900064196
16450201300.0 0.0479599214 -0.9914185218
16500201000.0 0.031528198 -0.9921576069
16550200700.0 0.0158392651 -0.992486514
16600200400.0 6.53516e-05 -0.9927439446
16650200100.0 -0.0161384516 -0.9924303573
16700199800.0 -0.032482973 -0.991884512
16750199500.0 -0.0517276737 -0.9911982168
16800199200.0 -0.0672858727 -0.9905067887
16850198900.0 -0.0829280088 -0.9899983223
16900198600.0 -0.0965055628 -0.9887847852
16950198300.0 -0.1099251528 -0.9871343515
17000198000.0 -0.1230541085 -0.9851030871
17050197700.0 -0.1353831409 -0.983757906
17100197400.0 -0.1485833351 -0.9816911815
17150197100.0 -0.1617117635 -0.9801892966
17200196800.0 -0.1737886284 -0.9776795288
17250196500.0 -0.1869604511 -0.9750786796
17300196200.0 -0.1988480981 -0.9730132985
17350195900.0 -0.210879804 -0.9706227499
17400195600.0 -0.2230237232 -0.9680959761
17450195300.0 -0.2362610377 -0.9654030189
17500195000.0 -0.2496997408 -0.9619364362
17550194700.0 -0.2635328768 -0.9583197839
17600194400.0 -0.2772703439 -0.9544693348
17650194100.0 -0.2911927096 -0.9502982918
17700193800.0 -0.3037446766 -0.9460355607
17750193500.0 -0.3184490576 -0.941282093
17800193200.0 -0.3327891471 -0.9359241454
17850192900.0 -0.3479868838 -0.9308417668
17900192600.0 -0.3629866174 -0.9249447814
17950192300.0 -0.378229583 -0.917806783
18000192000.0 -0.3930049532 -0.9106733324
18050191700.0 -0.4069911324 -0.9025488411
18100191400.0 -0.4210107162 -0.8950425217
18150191100.0 -0.435922658 -0.8870124526
18200190800.0 -0.4529500311 -0.8777147046
18250190500.0 -0.4697576511 -0.8683091427
18300190200.0 -0.4849299812 -0.8590021257
18350189900.0 -0.5001625667 -0.8510127824
18400189600.0 -0.5144590398 -0.8430629784
18450189300.0 -0.5281506399 -0.8347359002
18500189000.0 -0.5408574679 -0.8269327473
18550188700.0 -0.5536655614 -0.819107585
18600188400.0 -0.5653784384 -0.8120553221
18650188100.0 -0.5768154432 -0.8053733819
18700187800.0 -0.5878985809 -0.7992200286
18750187500.0 -0.598284914 -0.7922132775
18800187200.0 -0.6089720253 -0.7852099956
18850186900.0 -0.6192447488 -0.7781302421
18900186600.0 -0.6296327501 -0.7707624757
18950186300.0 -0.6397236675 -0.7629392694
19000186000.0 -0.6471825158 -0.7565797904
19050185700.0 -0.6563194196 -0.7495940765
19100185400.0 -0.6665256948 -0.7405254443
19150185100.0 -0.6766153686 -0.7319397922
19200184800.0 -0.6857959857 -0.7241994952
19250184500.0 -0.6964183713 -0.7147001934
19300184200.0 -0.7079732094 -0.7048805081
19350183900.0 -0.7193563826 -0.695557247
19400183600.0 -0.7284273543 -0.6856663603
19450183300.0 -0.7372682628 -0.6755336827
19500183000.0 -0.7451775098 -0.6652192809
19550182700.0 -0.7548806691 -0.6547696592
19600182400.0 -0.7654534096 -0.6431346518
19650182100.0 -0.7764001594 -0.6308895544
19700181800.0 -0.786720633 -0.6174486749
19750181500.0 -0.7971125968 -0.6036875317
19800181200.0 -0.8074660028 -0.5888257149
19850180900.0 -0.8170609809 -0.5732741394
19900180600.0 -0.8247668181 -0.5589562615
19950180300.0 -0.8339596312 -0.5427221878
20000180000.0 -0.8270141354 -0.5448347082
20050179700.0 -0.8349419991 -0.5312265442
20100179400.0 -0.843939374 -0.5181992816
20150179100.0 -0.8509780005 -0.5056484811
20200178800.0 -0.8598230609 -0.4931168985
20250178500.0 -0.8698085121 -0.4794591741
20300178200.0 -0.8792835679 -0.4647644378
20350177900.0 -0.8883141306 -0.4500854054
20400177600.0 -0.897527493 -0.4356291975
20450177300.0 -0.9055794241 -0.421192235
20500177000.0 -0.913578228 -0.407525707
20550176700.0 -0.9214579727 -0.3937541097
20600176400.0 -0.9286457302 -0.3806380773
20650176100.0 -0.9342028577 -0.3682342765
20700175800.0 -0.9418430275 -0.3557359016
20750175500.0 -0.9477333688 -0.3446090445
20800175200.0 -0.9530934333 -0.3336743559
20850174900.0 -0.958448865 -0.3218628152
20900174600.0 -0.9622737082 -0.3105601812
20950174300.0 -0.9674284974 -0.2986614345
21000174000.0 -0.9700692845 -0.2870243354
21050173700.0 -0.9733902508 -0.2766003617
21100173400.0 -0.9776357851 -0.2637284615
21150173100.0 -0.9815682264 -0.2517811357
21200172800.0 -0.9851234118 -0.2378014081
21250172500.0 -0.9878575933 -0.223815042
21300172200.0 -0.9907527204 -0.2100543156
21350171900.0 -0.9923512774 -0.1953263555
21400171600.0 -0.9932773065 -0.1814091221
21450171300.0 -0.9943405289 -0.1666620767
21500171000.0 -0.9933239007 -0.151237861
21550170700.0 -0.9934737912 -0.1359297752
21600170400.0 -0.9926564632 -0.1202769198
21650170100.0 -0.9918608866 -0.1048558106
21700169800.0 -0.9904003862 -0.0890962028
21750169500.0 -0.9893742955 -0.0742252294
21800169200.0 -0.9879051497 -0.0575227372
21850168900.0 -0.9865339024 -0.0413457788
21900168600.0 -0.9853632531 -0.0242427435
21950168300.0 -0.9834558979 -0.0089487735
22000168000.0 -0.9827149592 0.0060389461
22050167700.0 -0.982607973 0.0204509013
22100167400.0 -0.9822324313 0.0354379494
22150167100.0 -0.9827635731 0.0507257409
22200166800.0 -0.9830659394 0.0670672534
22250166500.0 -0.9829250572 0.0842643767
22300166200.0 -0.9816016919 0.1003457855
22350165900.0 -0.9808493996 0.1173643301
22400165600.0 -0.9792521993 0.1326065294
22450165300.0 -0.9767602669 0.1475614797
22500165000.0 -0.9748468644 0.1615472526
22550164700.0 -0.9742484259 0.1768618861
22600164400.0 -0.972166338 0.1925167248
22650164100.0 -0.9700191011 0.207725004
22700163800.0 -0.9667172586 0.2226495887
22750163500.0 -0.9656883463 0.2382809925
22800163200.0 -0.9621114189 0.2512983651
22850162900.0 -0.9596890364 0.2646242973
22900162600.0 -0.9584795513 0.2783868491
22950162300.0 -0.9571827071 0.2911377339
23000162000.0 -0.9564505522 0.3024752305
23050161700.0 -0.9542574512 0.3154475616
23100161400.0 -0.9522851371 0.3280690791
23150161100.0 -0.9496282364 0.3409076041
23200160800.0 -0.9464220924 0.3528380559
23250160500.0 -0.9435868473 0.3644793382
23300160200.0 -0.9411085078 0.3758355025
23350159900.0 -0.9368754215 0.3895585266
23400159600.0 -0.9323245163 0.4019848078
23450159300.0 -0.9282622616 0.4157235326
23500159000.0 -0.9232146577 0.4283956323
23550158700.0 -0.9189979813 0.4415421923
23600158400.0 -0.9132732456 0.4547005685
23650158100.0 -0.9073198227 0.4685256752
23700157800.0 -0.8994908161 0.4823205943
23750157500.0 -0.8909138774 0.4965673555
23800157200.0 -0.8818860077 0.5095857044
23850156900.0 -0.873433376 0.5223224234
23900156600.0 -0.8648944242 0.5345541044
23950156300.0 -0.8556171113 0.5477749112
24000156000.0 -0.8460506116 0.5582869692
24050155700.0 -0.8357502534 0.5706098807
24100155400.0 -0.8263972379 0.5829094902
24150155100.0 -0.8158281779 0.5935167037
24200154800.0 -0.8041929177 0.6054822679
24250154500.0 -0.7932350139 0.6173411923
24300154200.0 -0.7816700153 0.6284537729
24350153900.0 -0.7698018351 0.6395637018
24400153600.0 -0.7573000163 0.6495049384
24450153300.0 -0.7455338725 0.659596622
24500153000.0 -0.7340988064 0.6692472757
24550152700.0 -0.7230099144 0.6790104324
24600152400.0 -0.7108560715 0.6877091308
24650152100.0 -0.7000564918 0.6960254484
