!Created with skrf (http://scikit-rf.org).
# Hz S RI R 50.0 
!freq ReS11 ImS11
300000.0 -0.9735678139 -0.1202529231
50299700.0 -0.9999098467 0.0152001796
100299400.0 -0.9979937311 0.0282814705
150299100.0 -1.002660562 0.0450246298
200298800.0 -0.9996558212 0.0583441894
250298500.0 -0.9974224048 0.0718679275
300298200.0 -0.9859806373 0.0876566962
350297900.0 -0.9940820625 0.0985088011
400297600.0 -0.9931356949 0.1150819201
450297300.0 -0.9911183219 0.1289486336
500297000.0 -0.9894479264 0.1438239667
550296700.0 -0.9842494626 0.1561816423
600296400.0 -1.017283661 0.1892574046
650296100.0 -0.9822702834 0.1860853826
700295800.0 -0.9793161761 0.2005063831
750295500.0 -0.9764529211 0.2143019219
800295200.0 -0.9727880556 0.2285716739
850294900.0 -0.969748774 0.2421854801
900294600.0 -0.9657688425 0.2560521736
950294300.0 -0.961862769 0.2697087571
1000294000.0 -0.9583198167 0.2836426532
1050293700.0 -0.9535803418 0.297472217
1100293400.0 -0.9491928036 0.3119121414
1150293100.0 -0.9456006104 0.3237322157
1200292800.0 -0.9401254225 0.3382528118
1250292500.0 -0.9347657077 0.3514738574
1300292200.0 -0.9291061104 0.3649550259
1350291900.0 -0.9233800642 0.3787833199
1400291600.0 -0.9179229223 0.3918009591
1450291300.0 -0.9125944996 0.4042218584
1500291000.0 -0.9063930901 0.4176879038
1550290700.0 -0.8995802621 0.4310975964
1600290400.0 -0.8933985914 0.4439467386
1650290100.0 -0.8868384009 0.4561273947
1700289800.0 -0.8797212673 0.4694291367
1750289500.0 -0.8727620811 0.4818939127
1800289200.0 -0.8654357899 0.4948768072
1850288900.0 -0.8588109239 0.5060324669
1900288600.0 -0.8510125161 0.5189671641
1950288300.0 -0.8426807622 0.5316177768
2000288000.0 -0.835582415 0.5429203859
2050287700.0 -0.8271694185 0.5552720317
2100287400.0 -0.8191664153 0.5670268096
2150287100.0 -0.8107393818 0.5789349625
2200286800.0 -0.8029593846 0.5893427265
2250286500.0 -0.7940139919 0.6014313407
2300286200.0 -0.7852777561 0.6129597609
2350285900.0 -0.776650654 0.6239654942
2400285600.0 -0.7677807231 0.6348434609
2450285300.0 -0.7591073712 0.6454108834
2500285000.0 -0.7494182129 0.6565231422
2550284700.0 -0.7403136714 0.6669939334
2600284400.0 -0.7310029964 0.6770867509
2650284100.0 -0.7219499012 0.6874817631
2700283800.0 -0.7112934556 0.69807723
2750283500.0 -0.7013929673 0.7087683435
2800283200.0 -0.6911645122 0.7183144518
2850282900.0 -0.6812647489 0.7284296871
2900282600.0 -0.6708474623 0.7377388945
2950282300.0 -0.6605761936 0.747401924
3000282000.0 -0.6497838406 0.7566731647
3050281700.0 -0.6386314589 0.7658574552
3100281400.0 -0.6267982292 0.7752519338
3150281100.0 -0.6151688102 0.7844952356
3200280800.0 -0.6034682691 0.7930106595
3250280500.0 -0.592506838 0.8008391163
3300280200.0 -0.5813250655 0.8086712624
3350279900.0 -0.5698481231 0.8163985507
3400279600.0 -0.557528542 0.823915436
3450279300.0 -0.5462894318 0.8312330366
3500279000.0 -0.5342775131 0.8382383183
3550278700.0 -0.5220057289 0.8455413093
3600278400.0 -0.5096329915 0.852586274
3650278100.0 -0.4964928143 0.8601869662
3700277800.0 -0.4845681955 0.8669726969
3750277500.0 -0.4722081701 0.873091437
3800277200.0 -0.4597023957 0.8798824144
3850276900.0 -0.4476388728 0.8858263711
3900276600.0 -0.4368814474 0.8912609846
3950276300.0 -0.4244468005 0.8973136624
4000276000.0 -0.4125621028 0.9034373538
4050275700.0 -0.3995706939 0.9091387844
4100275400.0 -0.3883560684 0.9150216366
4150275100.0 -0.3758241722 0.9204722618
4200274800.0 -0.362849145 0.9262260077
4250274500.0 -0.3505419993 0.9311549113
4300274200.0 -0.3374770647 0.9363290314
4350273900.0 -0.3237747185 0.9420195363
4400273600.0 -0.3089830574 0.947097994
4450273300.0 -0.2936579085 0.9523141067
4500273000.0 -0.2801355447 0.9565382322
4550272700.0 -0.2660205364 0.9608483722
4600272400.0 -0.2504816256 0.9648775395
4650272100.0 -0.238630381 0.9681285596
4700271800.0 -0.2255606944 0.9715753615
4750271500.0 -0.2137925921 0.9744802419
4800271200.0 -0.2013154803 0.9770856403
4850270900.0 -0.187388946 0.9798985549
4900270600.0 -0.1735324962 0.9824162133
4950270300.0 -0.1592614348 0.9849830545
5000270000.0 -0.1449842603 0.98722979
5050269700.0 -0.1313022667 0.9886443819
5100269400.0 -0.11783359 0.9902917024
5150269100.0 -0.1041260845 0.9919317578
5200268800.0 -0.0912130835 0.9928689167
5250268500.0 -0.0778719792 0.9942198899
5300268200.0 -0.0649013685 0.9947044538
5350267900.0 -0.0524449621 0.9954406451
5400267600.0 -0.0365492983 0.9964440489
5450267300.0 -0.0230394285 0.9965226864
5500267000.0 -0.0078975311 0.9970635246
5550266700.0 0.0069537318 0.9972145125
5600266400.0 0.0224503696 0.9974646201
5650266100.0 0.0386851477 0.9968277405
5700265800.0 0.0532342033 0.9961474317
5750265500.0 0.0683277741 0.995410855
5800265200.0 0.0822172643 0.9942936963
5850264900.0 0.0957324664 0.993331982
5900264600.0 0.1122357566 0.991703496
5950264300.0 0.1242618331 0.9902531969
6000264000.0 0.1382971855 0.9882042267
6050263700.0 0.1505873186 0.9869681114
6100263400.0 0.1629747908 0.98516016
6150263100.0 0.1773564586 0.9827538335
6200262800.0 0.1878133806 0.9809468409
6250262500.0 0.2006919873 0.9785096995
6300262200.0 0.2132316563 0.9758516983
6350261900.0 0.226394004 0.9727481702
6400261600.0 0.2404659215 0.9696462649
6450261300.0 0.2515478873 0.9669669786
6500261000.0 0.2645731172 0.9632885995
6550260700.0 0.2770178408 0.9591891492
6600260400.0 0.2906728353 0.95552076
6650260100.0 0.3046178647 0.9510317459
6700259800.0 0.3167774469 0.9465836331
6750259500.0 0.3304545399 0.941778068
6800259200.0 0.3437279607 0.9366897033
6850258900.0 0.3556678145 0.9316024338
6900258600.0 0.3678720359 0.9264504757
6950258300.0 0.3804290227 0.9212562387
7000258000.0 0.3923951191 0.9155926431
7050257700.0 0.4047849998 0.9097139943
7100257400.0 0.4176517182 0.9035918024
7150257100.0 0.4281151844 0.8981924748
7200256800.0 0.4410317831 0.8920865841
7250256500.0 0.4528354149 0.8855133127
7300256200.0 0.4659149269 0.8787931429
7350255900.0 0.4786486397 0.8718726196
7400255600.0 0.4919192881 0.8648187317
7450255300.0 0.506987998 0.8559209404
7500255000.0 0.5186000005 0.8485774167
7550254700.0 0.5321999962 0.8398859171
7600254400.0 0.5449457796 0.8318870801
7650254100.0 0.5563754153 0.8240102661
7700253800.0 0.5682883434 0.8158684552
7750253500.0 0.5794733805 0.8084577599
7800253200.0 0.5900770622 0.8006522666
7850252900.0 0.5998471415 0.7934846505
7900252600.0 0.6116968568 0.7849657282
7950252300.0 0.6204838719 0.778266776
8000252000.0 0.6304115945 0.7706808548
8050251700.0 0.6408692205 0.762356006
8100251400.0 0.6510853511 0.7542041211
8150251100.0 0.6612072598 0.7455803728
8200250800.0 0.6706104116 0.7378322884
8250250500.0 0.6794894994 0.7297969738
8300250200.0 0.6887876374 0.7212114185
8350249900.0 0.6979536265 0.7125293147
8400249600.0 0.706327108 0.7045242015
8450249300.0 0.7152090352 0.6952367408
8500249000.0 0.7238553473 0.6862613038
8550248700.0 0.7321114447 0.6774714601
8600248400.0 0.7407693083 0.6677743684
8650248100.0 0.7484383358 0.6582386809
8700247800.0 0.757895065 0.6471565266
8750247500.0 0.766322969 0.6370413869
8800247200.0 0.7743747718 0.6265963424
8850246900.0 0.7832400913 0.615269741
8900246600.0 0.7917417555 0.6037077513
8950246300.0 0.801069142 0.5910467736
9000246000.0 0.8105402553 0.5782608468
9050245700.0 0.8194869434 0.5653810914
9100245400.0 0.8278118389 0.5529279079
9150245100.0 0.8371907397 0.5392006548
9200244800.0 0.8471969688 0.524214547
9250244500.0 0.8563701098 0.5089261934
9300244200.0 0.8649883488 0.4944585941
9350243900.0 0.8723568853 0.4805770564
9400243600.0 0.8793578494 0.4682085326
9450243300.0 0.8852108414 0.4567292058
9500243000.0 0.891498814 0.4446809338
9550242700.0 0.8951294617 0.4368256732
9600242400.0 0.899227244 0.429471523
9650242100.0 0.9027016836 0.4229847366
9700241800.0 0.9076342397 0.4147162506
9750241500.0 0.9116640507 0.4071031378
9800241200.0 0.9162898434 0.3977278246
9850240900.0 0.9217908956 0.3862759945
9900240600.0 0.927522903 0.374909412
9950240300.0 0.9340205027 0.3587103918
10000240000.0 0.9387725604 0.3472897557
10050239700.0 0.9443104072 0.3318945035
10100239400.0 0.9493394968 0.3162785445
10150239100.0 0.9539437976 0.3013323788
10200238800.0 0.95808417 0.2862928712
10250238500.0 0.9614706405 0.2729222903
10300238200.0 0.9646834225 0.2587952654
10350237900.0 0.9672318721 0.2456764238
10400237600.0 0.9698079747 0.2326992705
10450237300.0 0.9725169813 0.2188516811
10500237000.0 0.974744374 0.2064765764
10550236700.0 0.9768327748 0.1927748264
10600236400.0 0.9792820517 0.1786414207
10650236100.0 0.9809111695 0.1645086632
10700235800.0 0.9832707089 0.1525794592
10750235500.0 0.9854652281 0.1384486853
10800235200.0 0.9877634433 0.1242835957
10850234900.0 0.9893913892 0.1103767709
10900234600.0 0.9916391249 0.0952953336
10950234300.0 0.9934409733 0.0821346014
11000234000.0 0.9951743488 0.0669445973
11050233700.0 0.9971675934 0.0506779801
11100233400.0 0.9983617095 0.0331049613
11150233100.0 0.9996720119 0.0166889986
11200232800.0 1.000037085 0.0021056611
11250232500.0 1.001675082 -0.014723302
11300232200.0 1.001714847 -0.0324597773
11350231900.0 1.00139251 -0.0482952948
11400231600.0 1.001126826 -0.0633221437
11450231300.0 1.000601206 -0.0795183251
11500231000.0 1.000148755 -0.0960297715
11550230700.0 0.9985046607 -0.1090629544
11600230400.0 0.9970521358 -0.121563273
11650230100.0 0.9955949477 -0.1335040229
11700229800.0 0.9935579897 -0.1476466929
11750229500.0 0.9909730572 -0.1622416909
11800229200.0 0.988144869 -0.1757209653
11850228900.0 0.984775851 -0.1881572521
11900228600.0 0.9812861203 -0.1977248183
11950228300.0 0.9779529356 -0.2082872371
12000228000.0 0.9752359835 -0.2170599627
12050227700.0 0.9714619771 -0.2306969851
12100227400.0 0.9677597056 -0.2414176663
12150227100.0 0.9626468546 -0.2582291172
12200226800.0 0.9599039051 -0.2686806129
12250226500.0 0.9557990144 -0.2816585644
12300226200.0 0.9516413977 -0.2938997537
12350225900.0 0.946873757 -0.3073665005
12400225600.0 0.9420975224 -0.3199486218
12450225300.0 0.9378883854 -0.3336323135
12500225000.0 0.9322290101 -0.3480808729
12550224700.0 0.9267904832 -0.3622088214
12600224400.0 0.9221482137 -0.3750502999
12650224100.0 0.9162107954 -0.389319836
12700223800.0 0.9110290938 -0.4021729607
12750223500.0 0.9056790454 -0.4149915541
12800223200.0 0.9001414235 -0.4278650286
12850222900.0 0.8951998906 -0.4396944037
12900222600.0 0.8889242769 -0.4522005611
12950222300.0 0.8824195511 -0.4650426165
13000222000.0 0.8768270788 -0.4764415727
13050221700.0 0.8702149806 -0.489104364
13100221400.0 0.8633497315 -0.5010270076
13150221100.0 0.856761748 -0.5134794469
13200220800.0 0.8496642895 -0.5248908676
13250220500.0 0.8424295238 -0.536654286
13300220200.0 0.8352648966 -0.5476999705
13350219900.0 0.8271469723 -0.5595596199
13400219600.0 0.8191668818 -0.571508883
13450219300.0 0.8094757826 -0.5852829015
13500219000.0 0.7989599578 -0.5989436693
13550218700.0 0.7893185188 -0.6115125664
13600218400.0 0.7792831379 -0.623269136
13650218100.0 0.7699898403 -0.6344778376
13700217800.0 0.7586510676 -0.6472511495
13750217500.0 0.7483005642 -0.6584541157
13800217200.0 0.7372250785 -0.6696183961
13850216900.0 0.7263735595 -0.6806121009
13900216600.0 0.7169195407 -0.690616564
13950216300.0 0.7053340325 -0.7013651384
14000216000.0 0.6959063641 -0.7103870502
14050215700.0 0.6864986373 -0.7186088909
14100215400.0 0.6764064387 -0.7273833305
14150215100.0 0.6673007096 -0.7360291679
14200214800.0 0.6576798951 -0.7446681985
14250214500.0 0.6474677804 -0.7541392405
14300214200.0 0.6371566748 -0.763477418
14350213900.0 0.6259674145 -0.7730638794
14400213600.0 0.6139172546 -0.7829545358
14450213300.0 0.6009416649 -0.7933700906
14500213000.0 0.5879214684 -0.8028756279
14550212700.0 0.5753217603 -0.8124815661
14600212400.0 0.5627113587 -0.8210588203
14650212100.0 0.5503576804 -0.8296798632
14700211800.0 0.5362484264 -0.8397712967
14750211500.0 0.523913369 -0.8478201784
14800211200.0 0.5118331357 -0.8558597101
14850210900.0 0.4994781195 -0.8633139245
14900210600.0 0.4862932992 -0.871197942
14950210300.0 0.4729357934 -0.8788218365
15000210000.0 0.460192401 -0.885764068
15050209700.0 0.4477821384 -0.8917538944
15100209400.0 0.4353620754 -0.8976294798
15150209100.0 0.4228245706 -0.9036543417
15200208800.0 0.4102967628 -0.9088759071
15250208500.0 0.3982692561 -0.9132358184
15300208200.0 0.3863820674 -0.9182851951
15350207900.0 0.3737261644 -0.922685649
15400207600.0 0.3599054945 -0.9277481123
15450207300.0 0.3443512626 -0.9330114536
15500207000.0 0.3298406418 -0.9374807395
15550206700.0 0.314636882 -0.9427030168
15600206400.0 0.2990563962 -0.9471892347
15650206100.0 0.2829323825 -0.9510318421
15700205800.0 0.2694285796 -0.9551051076
15750205500.0 0.2548568275 -0.9585085274
15800205200.0 0.2405718764 -0.9620180779
15850204900.0 0.226253136 -0.9654555366
15900204600.0 0.2112012334 -0.9690373487
15950204300.0 0.1967934286 -0.9719957586
16000204000.0 0.1827335662 -0.9747838855
16050203700.0 0.1678023482 -0.9781463394
16100203400.0 0.1530962057 -0.9797553272
16150203100.0 0.1390787268 -0.9826464083
16200202800.0 0.1242961681 -0.9847363009
16250202500.0 0.1098135767 -0.9863850122
16300202200.0 0.0941904149 -0.9878602334
16350201900.0 0.079152838 -0.9890251993
16400201600.0 0.0647528749 -0.9901045325
16450201300.0 0.0494567739 -0.9911406965
16500201000.0 0.0328245157 -0.9920163393
16550200700.0 0.0170441544 -0.9925239637
16600200400.0 0.0014262468 -0.9927646317
16650200100.0 -0.0148645357 -0.9930429273
16700199800.0 -0.0308516754 -0.9923586962
16750199500.0 -0.049573163 -0.9919048369
16800199200.0 -0.0648301643 -0.9909088786
16850198900.0 -0.0800805953 -0.9894667263
16900198600.0 -0.0941566639 -0.9884809513
16950198300.0 -0.1079109497 -0.9879007636
17000198000.0 -0.1199537313 -0.9861531661
17050197700.0 -0.1328656303 -0.9836720167
17100197400.0 -0.146433086 -0.9820427875
17150197100.0 -0.1588216324 -0.9807340422
17200196800.0 -0.1716772671 -0.9783331675
17250196500.0 -0.1845137379 -0.975632117
17300196200.0 -0.1966277089 -0.9735770466
17350195900.0 -0.2084662042 -0.9712465855
17400195600.0 -0.2206432229 -0.968883727
17450195300.0 -0.2339618529 -0.9659581181
17500195000.0 -0.2470954866 -0.9628210592
17550194700.0 -0.2614259541 -0.9588572132
17600194400.0 -0.2752976527 -0.9547676915
17650194100.0 -0.288833686 -0.9512705164
17700193800.0 -0.3018373492 -0.9468288894
17750193500.0 -0.3165380837 -0.9422096215
17800193200.0 -0.3308587995 -0.9371688017
17850192900.0 -0.3457967048 -0.9318212832
17900192600.0 -0.3609642178 -0.9256333677
17950192300.0 -0.3765422764 -0.9185250343
18000192000.0 -0.3914049859 -0.9112528928
18050191700.0 -0.4051415076 -0.9033848233
18100191400.0 -0.4194302385 -0.8956968965
18150191100.0 -0.4343772382 -0.8877756447
18200190800.0 -0.4513675711 -0.8786117844
18250190500.0 -0.4685157696 -0.8691581041
18300190200.0 -0.483783289 -0.8607126064
18350189900.0 -0.4983079436 -0.8523728104
18400189600.0 -0.513467493 -0.8438294283
18450189300.0 -0.5267101843 -0.8359170514
18500189000.0 -0.5396510828 -0.82814964
18550188700.0 -0.5522845161 -0.820508846
18600188400.0 -0.564244028 -0.8133431684
18650188100.0 -0.5751525687 -0.8072269961
18700187800.0 -0.5855998272 -0.8006599838
18750187500.0 -0.5964255168 -0.7944009885
18800187200.0 -0.6072257483 -0.7872485123
18850186900.0 -0.6169695104 -0.7804893449
18900186600.0 -0.6273401981 -0.7730504377
18950186300.0 -0.6371720097 -0.7657199903
19000186000.0 -0.6443804692 -0.7593794973
19050185700.0 -0.6539032822 -0.7519146479
19100185400.0 -0.6635962403 -0.7436177009
19150185100.0 -0.6736763958 -0.7353884409
19200184800.0 -0.6830259003 -0.7267075231
19250184500.0 -0.6935263601 -0.7174501042
19300184200.0 -0.7054864635 -0.7080728125
19350183900.0 -0.7154393372 -0.6986618069
19400183600.0 -0.7247332059 -0.6888616585
19450183300.0 -0.7338695905 -0.6782267626
19500183000.0 -0.7423012705 -0.6688070528
19550182700.0 -0.752715003 -0.6574548042
19600182400.0 -0.7624585343 -0.6461706807
19650182100.0 -0.7730760487 -0.633630568
19700181800.0 -0.7841990046 -0.6204897791
19750181500.0 -0.79490328 -0.6062358888
19800181200.0 -0.8051567258 -0.5910538235
19850180900.0 -0.8150975055 -0.5756477028
19900180600.0 -0.8228414306 -0.5610605182
19950180300.0 -0.8322751928 -0.5448483487
20000180000.0 -0.8258359302 -0.5463938817
20050179700.0 -0.8327402413 -0.5336113555
20100179400.0 -0.842046226 -0.520132051
20150179100.0 -0.8504709131 -0.5079595162
20200178800.0 -0.8598358663 -0.4954433466
20250178500.0 -0.8689696044 -0.4816777143
20300178200.0 -0.878284167 -0.466629531
20350177900.0 -0.8879985443 -0.4528756131
20400177600.0 -0.8966879552 -0.4383850552
20450177300.0 -0.9047209544 -0.4238621453
20500177000.0 -0.9126271033 -0.4103313077
20550176700.0 -0.9203282563 -0.3967174815
20600176400.0 -0.9274515029 -0.3836553182
20650176100.0 -0.9339803576 -0.3708207625
20700175800.0 -0.9409338833 -0.3600576676
20750175500.0 -0.9468798157 -0.348164875
20800175200.0 -0.9520127104 -0.3371095986
20850174900.0 -0.9571229113 -0.3257771789
20900174600.0 -0.9610041489 -0.314332026
20950174300.0 -0.9648077047 -0.3025570713
21000174000.0 -0.9682282723 -0.2914852
21050173700.0 -0.9712382195 -0.2807198316
21100173400.0 -0.9751892754 -0.2694815681
21150173100.0 -0.9789962452 -0.2569024704
21200172800.0 -0.9822510711 -0.243461228
21250172500.0 -0.9860412767 -0.2294797067
21300172200.0 -0.9887261461 -0.2156882999
21350171900.0 -0.9901219588 -0.2007805932
21400171600.0 -0.9919388891 -0.1871822603
21450171300.0 -0.9920728017 -0.1721132558
21500171000.0 -0.99273047 -0.1565502488
21550170700.0 -0.9925602417 -0.1418820847
21600170400.0 -0.9922541673 -0.1259137923
21650170100.0 -0.9914842561 -0.1105290164
21700169800.0 -0.9905150723 -0.0948897446
21750169500.0 -0.9881298626 -0.0780946065
21800169200.0 -0.9883576072 -0.0621409559
21850168900.0 -0.9873772117 -0.0466669862
21900168600.0 -0.9867357937 -0.0295946294
21950168300.0 -0.9855276302 -0.0142165394
22000168000.0 -0.9839192335 0.0013048334
22050167700.0 -0.9840449642 0.0155613476
22100167400.0 -0.9842461809 0.0305167755
22150167100.0 -0.984449284 0.0465044766
22200166800.0 -0.985141042 0.0623068409
22250166500.0 -0.9847113633 0.0800645857
22300166200.0 -0.9844739974 0.0961737462
22350165900.0 -0.9823297681 0.1127997442
22400165600.0 -0.9814595365 0.1280410101
22450165300.0 -0.9792487522 0.1440472131
22500165000.0 -0.97740155 0.1578614247
22550164700.0 -0.9762444416 0.1718902884
22600164400.0 -0.9739604213 0.1875826589
22650164100.0 -0.9723566327 0.2037288431
22700163800.0 -0.9698615843 0.219339513
22750163500.0 -0.9669785225 0.2337018371
22800163200.0 -0.9640061862 0.2472389099
22850162900.0 -0.9617820706 0.2605889555
22900162600.0 -0.9600893173 0.273986795
22950162300.0 -0.9589451479 0.2869923085
23000162000.0 -0.9579302644 0.2985492643
23050161700.0 -0.9557554179 0.3117542046
23100161400.0 -0.9533671429 0.3236602627
23150161100.0 -0.9510575177 0.3370324788
23200160800.0 -0.9474174834 0.3490280749
23250160500.0 -0.9445321043 0.3602883389
23300160200.0 -0.9422119957 0.3727233767
23350159900.0 -0.9394900228 0.3860706569
23400159600.0 -0.9342973653 0.3990403249
23450159300.0 -0.929280472 0.4126291117
23500159000.0 -0.9247169073 0.4255439133
23550158700.0 -0.9205217244 0.4388704414
23600158400.0 -0.9148794888 0.4522342311
23650158100.0 -0.9087944911 0.4664552229
23700157800.0 -0.9010398642 0.4804403596
23750157500.0 -0.8924035363 0.4947458033
23800157200.0 -0.8835114984 0.5074686711
23850156900.0 -0.8745460179 0.5202746703
23900156600.0 -0.8653171737 0.5329731775
23950156300.0 -0.856343406 0.5451653779
24000156000.0 -0.8468953222 0.5573230467
24050155700.0 -0.8368077952 0.5696479815
24100155400.0 -0.8263782319 0.5811415406
24150155100.0 -0.8165476205 0.5931891344
24200154800.0 -0.8057563636 0.6046363373
24250154500.0 -0.7937573779 0.6160958344
24300154200.0 -0.7832007863 0.6273697104
24350153900.0 -0.7714918773 0.6383878888
24400153600.0 -0.7591012911 0.6486301064
24450153300.0 -0.7471112473 0.6584888574
24500153000.0 -0.7358215908 0.6683277249
24550152700.0 -0.7244825947 0.6780983432
24600152400.0 -0.7129420943 0.6866925677
24650152100.0 -0.7009099653 0.6947757489
