!Created with skrf (http://scikit-rf.org).
# Hz S RI R 50.0 
!freq ReS11 ImS11
300000.0 -0.9803197657 -0.104200004
50299700.0 -1.000060373 0.0162483909
100299400.0 -0.9980647183 0.0291548884
150299100.0 -1.00283215 0.0459790629
200298800.0 -0.9996927708 0.0591767586
250298500.0 -0.9975300269 0.0726778549
300298200.0 -0.9860293243 0.0885658017
350297900.0 -0.9938614156 0.099373681
400297600.0 -0.9932610614 0.1159670508
450297300.0 -0.9910148306 0.1299971531
500297000.0 -0.9894275087 0.1446316013
550296700.0 -0.9843402961 0.1571103295
600296400.0 -1.017118882 0.1904933263
650296100.0 -0.9821048868 0.1870577806
700295800.0 -0.9793546742 0.2013735649
750295500.0 -0.9760148007 0.2155342985
800295200.0 -0.9727335555 0.2295086432
850294900.0 -0.9694763996 0.2435883299
900294600.0 -0.9654896774 0.2570810042
950294300.0 -0.9617311255 0.2707781554
1000294000.0 -0.9579272926 0.2848218795
1050293700.0 -0.953440704 0.2985188689
1100293400.0 -0.9489345814 0.3130725553
1150293100.0 -0.9450360562 0.3249465134
1200292800.0 -0.9397913137 0.3391522384
1250292500.0 -0.93448243 0.3526263059
1300292200.0 -0.9285069044 0.3658598682
1350291900.0 -0.9231292044 0.3798312646
1400291600.0 -0.9175959974 0.3929941386
1450291300.0 -0.9121642051 0.4052360877
1500291000.0 -0.9059529506 0.4186229866
1550290700.0 -0.8992715078 0.4318070403
1600290400.0 -0.8932162989 0.4448570006
1650290100.0 -0.8864130158 0.4569082113
1700289800.0 -0.8795217507 0.4702588317
1750289500.0 -0.8725789372 0.4828365538
1800289200.0 -0.8650447293 0.4956797934
1850288900.0 -0.8584235477 0.5069552823
1900288600.0 -0.850313709 0.5199350468
1950288300.0 -0.8423120869 0.5325133733
2000288000.0 -0.8351108748 0.5438428357
2050287700.0 -0.8266387463 0.5561899511
2100287400.0 -0.8187237103 0.5680318233
2150287100.0 -0.8101197385 0.579944696
2200286800.0 -0.8023062664 0.5903657323
2250286500.0 -0.7936543533 0.60232262
2300286200.0 -0.7844406339 0.6142033299
2350285900.0 -0.7755619168 0.6250800408
2400285600.0 -0.7667318743 0.6359965637
2450285300.0 -0.7580753034 0.6462029989
2500285000.0 -0.7482971572 0.6576715531
2550284700.0 -0.7392945437 0.6678545331
2600284400.0 -0.7300255244 0.6781111275
2650284100.0 -0.7209660265 0.6887343246
2700283800.0 -0.7105150106 0.699197419
2750283500.0 -0.7001442665 0.7097904488
2800283200.0 -0.6904881333 0.7196713845
2850282900.0 -0.6802260025 0.7292782555
2900282600.0 -0.6696513537 0.7389035553
2950282300.0 -0.6594038086 0.7480902143
3000282000.0 -0.6489299521 0.7575689326
3050281700.0 -0.6377647691 0.7668115245
3100281400.0 -0.625897392 0.7760979538
3150281100.0 -0.6140670986 0.7854750866
3200280800.0 -0.6024401309 0.7939910375
3250280500.0 -0.591613402 0.8016672511
3300280200.0 -0.5805350504 0.8096625593
3350279900.0 -0.5688139313 0.8169820715
3400279600.0 -0.5568482154 0.824655188
3450279300.0 -0.5456901156 0.831831992
3500279000.0 -0.5335628353 0.8388477818
3550278700.0 -0.5211426038 0.8461804354
3600278400.0 -0.5088799301 0.8534418252
3650278100.0 -0.4955992144 0.8607515411
3700277800.0 -0.4836670091 0.8675342116
3750277500.0 -0.4715217232 0.8739306005
3800277200.0 -0.4590516995 0.880361821
3850276900.0 -0.4470095061 0.8862015953
3900276600.0 -0.4358524318 0.8919208185
3950276300.0 -0.4232318589 0.8981039263
4000276000.0 -0.4113092432 0.904252245
4050275700.0 -0.398276902 0.9100726254
4100275400.0 -0.3869034981 0.9155438863
4150275100.0 -0.374257944 0.9209734132
4200274800.0 -0.3614030077 0.9267492512
4250274500.0 -0.349047266 0.9320611913
4300274200.0 -0.3358342042 0.9371097187
4350273900.0 -0.3222068695 0.9424482005
4400273600.0 -0.3072256366 0.9475816128
4450273300.0 -0.292105107 0.9526373954
4500273000.0 -0.2782182335 0.9570092998
4550272700.0 -0.2641691853 0.9611871007
4600272400.0 -0.2486111772 0.9653346684
4650272100.0 -0.2369022955 0.9687451233
4700271800.0 -0.2236587067 0.9718878502
4750271500.0 -0.2118650737 0.9747235577
4800271200.0 -0.1994024816 0.9776274367
4850270900.0 -0.1853318039 0.9802190234
4900270600.0 -0.1717161743 0.9825708799
4950270300.0 -0.1574386194 0.9852410153
5000270000.0 -0.1430709949 0.9871643635
5050269700.0 -0.1297378681 0.9887431269
5100269400.0 -0.1163714255 0.9904130174
5150269100.0 -0.1029909662 0.99220919
5200268800.0 -0.0897785231 0.9931550958
5250268500.0 -0.076693893 0.9944242738
5300268200.0 -0.063678097 0.9949156675
5350267900.0 -0.0512440887 0.9953478442
5400267600.0 -0.0354606966 0.9964639255
5450267300.0 -0.022336913 0.9970762835
5500267000.0 -0.0070615287 0.9970573561
5550266700.0 0.0079567438 0.9971764763
5600266400.0 0.023581852 0.9973790096
5650266100.0 0.0399463011 0.9967666568
5700265800.0 0.0548063092 0.9962061939
5750265500.0 0.0695379756 0.9950431857
5800265200.0 0.0836177748 0.9941283615
5850264900.0 0.0971676063 0.9932983095
5900264600.0 0.1136429368 0.99143664
5950264300.0 0.1256896531 0.9898616232
6000264000.0 0.1398897016 0.988079011
6050263700.0 0.1525671881 0.9866339615
6100263400.0 0.1646532708 0.9844555308
6150263100.0 0.1794233934 0.9821735123
6200262800.0 0.18979328 0.9803245624
6250262500.0 0.202682606 0.9779438152
6300262200.0 0.2155168784 0.9751747329
6350261900.0 0.2286978609 0.9721760777
6400261600.0 0.2424424957 0.9689067726
6450261300.0 0.2538350856 0.9660906159
6500261000.0 0.2665016326 0.9624473142
6550260700.0 0.279599948 0.9588461463
6600260400.0 0.2927673395 0.9545982358
6650260100.0 0.307059348 0.9502583231
6700259800.0 0.3186651977 0.9460941704
6750259500.0 0.3325261906 0.9410939063
6800259200.0 0.3454590181 0.9363197944
6850258900.0 0.3575281275 0.9312135535
6900258600.0 0.3698132385 0.9259814003
6950258300.0 0.3820533202 0.9208118058
7000258000.0 0.3939370176 0.9153272934
7050257700.0 0.4063568871 0.9092242397
7100257400.0 0.4190599003 0.9030032822
7150257100.0 0.4293868045 0.8978149788
7200256800.0 0.4422765737 0.8915922174
7250256500.0 0.4541659891 0.8853477945
7300256200.0 0.4668458528 0.8782864284
7350255900.0 0.4791592041 0.8713639284
7400255600.0 0.4930572307 0.8643390659
7450255300.0 0.5077854552 0.8554724295
7500255000.0 0.5195538762 0.8481855919
7550254700.0 0.5331843738 0.8394987965
7600254400.0 0.5459974973 0.8311824016
7650254100.0 0.5576860672 0.8233784713
7700253800.0 0.5694122855 0.8153196225
7750253500.0 0.5806156523 0.807467401
7800253200.0 0.5912543219 0.7996801817
7850252900.0 0.6010924398 0.7926036339
7900252600.0 0.6126982781 0.7838655732
7950252300.0 0.6216314421 0.7773682925
8000252000.0 0.631783257 0.7693954473
8050251700.0 0.6421273255 0.7611668348
8100251400.0 0.6524967472 0.7529692566
8150251100.0 0.6625279753 0.7442891762
8200250800.0 0.6719178643 0.7362074479
8250250500.0 0.6809104237 0.7282353796
8300250200.0 0.6904563069 0.7195971272
8350249900.0 0.6993415121 0.7109170683
8400249600.0 0.7075227885 0.7030549957
8450249300.0 0.7166030589 0.6937153027
8500249000.0 0.7252757828 0.684742612
8550248700.0 0.7336437512 0.6759866257
8600248400.0 0.7419379345 0.6665974284
8650248100.0 0.7496429709 0.6569818217
8700247800.0 0.7589105182 0.6459272622
8750247500.0 0.7673286816 0.6357452888
8800247200.0 0.7754581744 0.6255119207
8850246900.0 0.784018138 0.6139550213
8900246600.0 0.7925464464 0.6027677248
8950246300.0 0.8022462876 0.5898297977
9000246000.0 0.8116621126 0.5771312191
9050245700.0 0.8205531035 0.5640191236
9100245400.0 0.8291039451 0.5515516166
9150245100.0 0.8387894197 0.5378291252
9200244800.0 0.8482143882 0.5225931888
9250244500.0 0.8577159636 0.5068222204
9300244200.0 0.8661165189 0.4922833872
9350243900.0 0.8737994892 0.4783611549
9400243600.0 0.8806026353 0.4659314396
9450243300.0 0.886447862 0.454099749
9500243000.0 0.8927419217 0.4417158758
9550242700.0 0.8965856365 0.4338210333
9600242400.0 0.9005137905 0.4264787703
9650242100.0 0.904339568 0.4198733324
9700241800.0 0.9087478232 0.4115946859
9750241500.0 0.9124407721 0.4041890513
9800241200.0 0.9171614044 0.3950236579
9850240900.0 0.9225153077 0.3835282737
9900240600.0 0.9282237759 0.3717762483
9950240300.0 0.9352124834 0.3554133763
10000240000.0 0.9398624149 0.3438937723
10050239700.0 0.9456398724 0.3284745224
10100239400.0 0.9501058046 0.3131972429
10150239100.0 0.9544192305 0.29870889
10200238800.0 0.9587523159 0.2835557326
10250238500.0 0.9619715696 0.2702368011
10300238200.0 0.9649631161 0.2564023823
10350237900.0 0.9676358008 0.2434878988
10400237600.0 0.9702170272 0.2303561253
10450237300.0 0.9729783173 0.216411575
10500237000.0 0.974975086 0.2045974123
10550236700.0 0.9774163143 0.1904183781
10600236400.0 0.9794760025 0.1768406987
10650236100.0 0.98153104 0.1626172909
10700235800.0 0.9833290459 0.1506466599
10750235500.0 0.985688001 0.1373064175
10800235200.0 0.9879965103 0.1231293195
10850234900.0 0.9898609612 0.1084828631
10900234600.0 0.9920246388 0.0938746287
10950234300.0 0.9936278806 0.0807921595
11000234000.0 0.9953036915 0.0657674988
11050233700.0 0.9969540011 0.0493515936
11100233400.0 0.9983137596 0.0320235378
11150233100.0 0.9989555182 0.015824558
11200232800.0 1.000328314 0.0007695148
11250232500.0 1.001449737 -0.0162200643
11300232200.0 1.001313197 -0.0340729616
11350231900.0 1.001383818 -0.0495795677
11400231600.0 1.0012321 -0.0650085217
11450231300.0 1.000779033 -0.0807072116
11500231000.0 0.9995312429 -0.0979137073
11550230700.0 0.9982550511 -0.111246249
11600230400.0 0.9965974448 -0.1236452787
11650230100.0 0.9945658857 -0.1354288408
11700229800.0 0.992426148 -0.1498964801
11750229500.0 0.9902911556 -0.1648821496
11800229200.0 0.9873588466 -0.1784709745
11850228900.0 0.983812251 -0.1909790968
11900228600.0 0.9804785064 -0.2008400391
11950228300.0 0.976731444 -0.2111984919
12000228000.0 0.9742073578 -0.2201773284
12050227700.0 0.9704318909 -0.2336185649
12100227400.0 0.9673304354 -0.244117499
12150227100.0 0.9619689669 -0.2602167254
12200226800.0 0.9588737784 -0.2708605322
12250226500.0 0.9542818176 -0.2841007718
12300226200.0 0.9506147025 -0.2964773696
12350225900.0 0.9460500845 -0.3101867338
12400225600.0 0.9415325087 -0.3224579538
12450225300.0 0.9373763469 -0.3352092539
12500225000.0 0.9317597638 -0.3504630602
12550224700.0 0.9265352296 -0.3637900285
12600224400.0 0.9215378377 -0.376318414
12650224100.0 0.9157664984 -0.3907600558
12700223800.0 0.9105616932 -0.4033617416
12750223500.0 0.904992835 -0.4163442323
12800223200.0 0.8995599197 -0.429133495
12850222900.0 0.8943057887 -0.4409546107
12900222600.0 0.8889700778 -0.4531686607
12950222300.0 0.8820322044 -0.466118966
13000222000.0 0.8764374116 -0.4773854052
13050221700.0 0.8696529366 -0.4900412733
13100221400.0 0.8628124701 -0.5023620046
13150221100.0 0.8559868782 -0.5147060061
13200220800.0 0.8486347198 -0.526162908
13250220500.0 0.8411922217 -0.5383852872
13300220200.0 0.8337988895 -0.5493868253
13350219900.0 0.8257207162 -0.5614273764
13400219600.0 0.8173530347 -0.5736019163
13450219300.0 0.8075786227 -0.5872635593
13500219000.0 0.7976162451 -0.6013941648
13550218700.0 0.7869179835 -0.6145882095
13600218400.0 0.7767133289 -0.626595025
13650218100.0 0.7671711697 -0.637692913
13700217800.0 0.7560704771 -0.6505007926
13750217500.0 0.7462942252 -0.6605315215
13800217200.0 0.7354479111 -0.6723356865
13850216900.0 0.7233003964 -0.6848511445
13900216600.0 0.7139286979 -0.6927947773
13950216300.0 0.7031213454 -0.7029277719
14000216000.0 0.6930003192 -0.7126029536
14050215700.0 0.6831774887 -0.7207903383
14100215400.0 0.6737417271 -0.7299160412
14150215100.0 0.6646575554 -0.7382635799
14200214800.0 0.6552481207 -0.7469044327
14250214500.0 0.64518924 -0.7561301517
14300214200.0 0.6349892419 -0.7651591141
14350213900.0 0.6238609219 -0.7748744156
14400213600.0 0.6116834916 -0.7845069339
14450213300.0 0.5993957564 -0.7944735647
14500213000.0 0.5859013738 -0.8040693955
14550212700.0 0.5733473074 -0.8137566357
14600212400.0 0.5607331259 -0.8227406686
14650212100.0 0.5479103041 -0.8309783843
14700211800.0 0.5342132457 -0.8403113739
14750211500.0 0.5220774691 -0.8487568779
14800211200.0 0.5099416961 -0.8567848311
14850210900.0 0.4977483376 -0.8643957028
14900210600.0 0.4843861833 -0.8721943896
14950210300.0 0.4705274225 -0.879972958
15000210000.0 0.4576427476 -0.8866469578
15050209700.0 0.4450812752 -0.8930294443
15100209400.0 0.4327966133 -0.898892696
15150209100.0 0.4198279278 -0.904808832
15200208800.0 0.4066814217 -0.9100451866
15250208500.0 0.3955444366 -0.9145458097
15300208200.0 0.3826492042 -0.9188870941
15350207900.0 0.3690155072 -0.9243341964
15400207600.0 0.3551375517 -0.9293788744
15450207300.0 0.3400152228 -0.9343217351
15500207000.0 0.326079067 -0.9386219432
15550206700.0 0.3109610163 -0.9438149816
15600206400.0 0.2947521775 -0.9484159975
15650206100.0 0.2792856556 -0.9519447641
15700205800.0 0.2650643766 -0.9561767576
15750205500.0 0.2506642975 -0.959487365
15800205200.0 0.2364209655 -0.962978263
15850204900.0 0.2220870305 -0.9664312052
15900204600.0 0.2071337581 -0.9698174652
15950204300.0 0.193142966 -0.9730252409
16000204000.0 0.179174974 -0.9755660835
16050203700.0 0.1641878301 -0.9785239053
16100203400.0 0.1501443844 -0.9806572638
16150203100.0 0.1357707103 -0.9825916045
16200202800.0 0.1217910838 -0.9846078755
16250202500.0 0.1074072133 -0.9862895562
16300202200.0 0.0920431314 -0.9876970633
16350201900.0 0.0771938409 -0.9892256696
16400201600.0 0.0625342953 -0.9902458168
16450201300.0 0.0475017548 -0.9913069962
16500201000.0 0.0309849385 -0.9919665098
16550200700.0 0.0152549004 -0.9924220231
16600200400.0 -0.0005955851 -0.9927038924
16650200100.0 -0.017207688 -0.992599149
16700199800.0 -0.0338686155 -0.9921012384
16750199500.0 -0.0524968993 -0.9911660306
16800199200.0 -0.0678454156 -0.9904915451
16850198900.0 -0.0840107795 -0.9889656918
16900198600.0 -0.0979013451 -0.9885627923
16950198300.0 -0.1108756676 -0.9875188654
17000198000.0 -0.123892805 -0.9852704298
17050197700.0 -0.1369237507 -0.9836428499
17100197400.0 -0.1495260613 -0.9820176789
17150197100.0 -0.1623859488 -0.9790508812
17200196800.0 -0.1751634246 -0.9775301264
17250196500.0 -0.1879526757 -0.9749171527
17300196200.0 -0.2002680012 -0.9728315237
17350195900.0 -0.2122872161 -0.9703958789
17400195600.0 -0.2245201134 -0.9680284293
17450195300.0 -0.2375626297 -0.9651350003
17500195000.0 -0.2507375562 -0.9618491239
17550194700.0 -0.26468704 -0.9580051608
17600194400.0 -0.2785619659 -0.9543369004
17650194100.0 -0.2920651957 -0.9499969472
17700193800.0 -0.3054965334 -0.9458173079
17750193500.0 -0.3196445567 -0.9412098473
17800193200.0 -0.33412436 -0.9359925596
17850192900.0 -0.3486111064 -0.930410072
17900192600.0 -0.364024593 -0.9245967059
17950192300.0 -0.3792623538 -0.9173839419
18000192000.0 -0.3939174742 -0.9101797328
18050191700.0 -0.4076285542 -0.9024296761
18100191400.0 -0.4218228807 -0.8946989036
18150191100.0 -0.4367634352 -0.8866763869
18200190800.0 -0.453579525 -0.8774094719
18250190500.0 -0.4706366626 -0.867757934
18300190200.0 -0.4858226247 -0.8593060643
18350189900.0 -0.5008106608 -0.8506378758
18400189600.0 -0.5152226454 -0.8421125036
18450189300.0 -0.5284934803 -0.8340677302
18500189000.0 -0.5415593827 -0.8261341994
18550188700.0 -0.5551959942 -0.8184032274
18600188400.0 -0.5662666901 -0.8118567669
18650188100.0 -0.5773853668 -0.8048275862
18700187800.0 -0.5883036682 -0.7983898216
18750187500.0 -0.5991437378 -0.791630819
18800187200.0 -0.6100197602 -0.7845321654
18850186900.0 -0.6202977877 -0.7772690802
18900186600.0 -0.6305318043 -0.7699860992
18950186300.0 -0.6409681686 -0.7621233674
19000186000.0 -0.6481878968 -0.7557931751
19050185700.0 -0.6576681595 -0.7484746826
19100185400.0 -0.6678378116 -0.7400441655
19150185100.0 -0.6778776422 -0.7314678721
19200184800.0 -0.6873520548 -0.7230640684
19250184500.0 -0.6982631609 -0.713857185
19300184200.0 -0.7093669751 -0.7037592684
19350183900.0 -0.7201799917 -0.69499659
19400183600.0 -0.729444906 -0.6844695521
19450183300.0 -0.7384623402 -0.6748125623
19500183000.0 -0.7465223039 -0.6644882328
19550182700.0 -0.7561319756 -0.654241394
19600182400.0 -0.7665079956 -0.6421815611
19650182100.0 -0.7768828335 -0.6298751316
19700181800.0 -0.7874957532 -0.6168231784
19750181500.0 -0.7978246644 -0.6027991598
19800181200.0 -0.8079669974 -0.5881367521
19850180900.0 -0.8176678713 -0.5726219079
19900180600.0 -0.8252668163 -0.5583006064
19950180300.0 -0.8344930489 -0.5421574519
20000180000.0 -0.8279788212 -0.5443336657
20050179700.0 -0.8347395177 -0.5311864041
20100179400.0 -0.8428466783 -0.5174678227
20150179100.0 -0.8522021558 -0.5055748031
20200178800.0 -0.8601317494 -0.4927711999
20250178500.0 -0.870144163 -0.478805732
20300178200.0 -0.8794214061 -0.4640847945
20350177900.0 -0.8885172206 -0.4500237611
20400177600.0 -0.8971639572 -0.4352509233
20450177300.0 -0.9054197051 -0.4210913873
20500177000.0 -0.9134007292 -0.4069351176
20550176700.0 -0.9213169009 -0.3930933025
20600176400.0 -0.9282462388 -0.3802838102
20650176100.0 -0.9350648494 -0.367222974
20700175800.0 -0.9414586003 -0.3556034401
20750175500.0 -0.9483552707 -0.3434297507
20800175200.0 -0.9535877791 -0.3326207801
20850174900.0 -0.9582205025 -0.3219094404
20900174600.0 -0.962856227 -0.3099457168
20950174300.0 -0.9671709857 -0.2971409201
21000174000.0 -0.9702222426 -0.286611759
21050173700.0 -0.9736258462 -0.2756261664
21100173400.0 -0.9776765174 -0.2638331135
21150173100.0 -0.9818225231 -0.2508200115
21200172800.0 -0.9849792903 -0.2369811033
21250172500.0 -0.9881664808 -0.2236919211
21300172200.0 -0.9908319477 -0.209168148
21350171900.0 -0.9925421511 -0.1947464663
21400171600.0 -0.9934203957 -0.1807809426
21450171300.0 -0.993745803 -0.1660096161
21500171000.0 -0.9935090973 -0.1508926105
21550170700.0 -0.9928370401 -0.1356025302
21600170400.0 -0.9933190078 -0.1185253539
21650170100.0 -0.9924278151 -0.1041200169
21700169800.0 -0.9907075769 -0.0887591415
21750169500.0 -0.9880078335 -0.0724930274
21800169200.0 -0.9880781601 -0.0565349084
21850168900.0 -0.9877220998 -0.0405272554
21900168600.0 -0.9856155269 -0.0243183203
21950168300.0 -0.9842830136 -0.0086556193
22000168000.0 -0.9831559919 0.0063054299
22050167700.0 -0.9825372383 0.0207343597
22100167400.0 -0.9825336644 0.035387307
22150167100.0 -0.9830377696 0.0512934995
22200166800.0 -0.9830802584 0.0677340998
22250166500.0 -0.9832125587 0.0843886126
22300166200.0 -0.9822324206 0.101610059
22350165900.0 -0.9810950124 0.1172265056
22400165600.0 -0.9791214478 0.1333769783
22450165300.0 -0.9769962502 0.1483661779
22500165000.0 -0.9745883813 0.1620310132
22550164700.0 -0.9730411032 0.1777021308
22600164400.0 -0.9715812565 0.1924319758
22650164100.0 -0.9706681162 0.2067787578
22700163800.0 -0.9677756624 0.2235245287
22750163500.0 -0.9652399961 0.2386460748
22800163200.0 -0.9622035418 0.2518656038
22850162900.0 -0.9596830646 0.2652427761
22900162600.0 -0.9582257922 0.2787188958
22950162300.0 -0.9575195375 0.2913105803
23000162000.0 -0.9561590983 0.3032907203
23050161700.0 -0.9540185791 0.3158713983
23100161400.0 -0.9518984337 0.3286503978
23150161100.0 -0.9493812369 0.3407783307
23200160800.0 -0.9463433662 0.3532754111
23250160500.0 -0.9436056085 0.3651890968
23300160200.0 -0.9412356462 0.3770550073
23350159900.0 -0.9374034277 0.3895806854
23400159600.0 -0.9321026337 0.402883309
23450159300.0 -0.9281421887 0.4158544609
23500159000.0 -0.9228368352 0.428670333
23550158700.0 -0.9184003907 0.4420270008
23600158400.0 -0.9130854295 0.4549410291
23650158100.0 -0.9068959805 0.4689899747
23700157800.0 -0.8994788103 0.4825342702
23750157500.0 -0.8907003658 0.496680489
23800157200.0 -0.8818404539 0.5100005439
23850156900.0 -0.8732314646 0.5227206051
23900156600.0 -0.8636892205 0.5345352927
23950156300.0 -0.8544466957 0.5474068442
24000156000.0 -0.8454127482 0.56031735
24050155700.0 -0.8358916132 0.5716421021
24100155400.0 -0.8256793915 0.583177438
24150155100.0 -0.815450436 0.5945736969
24200154800.0 -0.8032604397 0.6064068915
24250154500.0 -0.792298502 0.6182730656
24300154200.0 -0.7809752857 0.6297379681
24350153900.0 -0.7687826643 0.6402099675
24400153600.0 -0.7565787443 0.6502141023
24450153300.0 -0.745070629 0.6604453812
24500153000.0 -0.7336694582 0.6699987314
24550152700.0 -0.7223016423 0.6797919766
24600152400.0 -0.7108802066 0.6886365895
24650152100.0 -0.6998294836 0.6968170639
