!Created with skrf (http://scikit-rf.org).
# Hz S RI R 50.0 
!freq ReS11 ImS11
300000.0 -0.9882670215 -0.0754148242
50299700.0 -0.9998302671 0.0165934074
100299400.0 -0.9977819283 0.0293932224
150299100.0 -1.00251349 0.0461062617
200298800.0 -0.9995185816 0.059309602
250298500.0 -0.9970635221 0.072963537
300298200.0 -0.9857235792 0.0888652638
350297900.0 -0.993648648 0.0997016172
400297600.0 -0.9927162514 0.1162488896
450297300.0 -0.9906169467 0.1298568357
500297000.0 -0.9890662691 0.1446172117
550296700.0 -0.98400219 0.1574110607
600296400.0 -1.016610549 0.1905180707
650296100.0 -0.9817172929 0.1869502946
700295800.0 -0.9785937623 0.2013603493
750295500.0 -0.9754767023 0.2154004589
800295200.0 -0.9723152234 0.2294725231
850294900.0 -0.9688479962 0.243238771
900294600.0 -0.9648570853 0.2570291852
950294300.0 -0.9612669059 0.2705728782
1000294000.0 -0.9574600894 0.2846563138
1050293700.0 -0.9529132391 0.298381663
1100293400.0 -0.9482700529 0.3127065996
1150293100.0 -0.9445642497 0.3247223879
1200292800.0 -0.93922858 0.3389961087
1250292500.0 -0.9338478217 0.3522676756
1300292200.0 -0.9281399846 0.3657450608
1350291900.0 -0.9227021935 0.3796564204
1400291600.0 -0.9172546194 0.3926002604
1450291300.0 -0.9119150006 0.4047897082
1500291000.0 -0.9055811357 0.4182057571
1550290700.0 -0.8991971299 0.4314840783
1600290400.0 -0.8930898937 0.4443042992
1650290100.0 -0.8862027538 0.4565758539
1700289800.0 -0.879347042 0.4699648
1750289500.0 -0.8724436672 0.4823811322
1800289200.0 -0.8651024357 0.4949668689
1850288900.0 -0.8583821212 0.5063277749
1900288600.0 -0.850538114 0.5194088307
1950288300.0 -0.8425642538 0.5319872172
2000288000.0 -0.8349584159 0.543414498
2050287700.0 -0.8267294526 0.5556956291
2100287400.0 -0.8186508784 0.5674944992
2150287100.0 -0.8102398124 0.5793899715
2200286800.0 -0.8023183271 0.5898722727
2250286500.0 -0.7935158245 0.6017917025
2300286200.0 -0.7845778384 0.6134929163
2350285900.0 -0.7757086306 0.6243777555
2400285600.0 -0.7666178085 0.6355103731
2450285300.0 -0.7582121262 0.6460223102
2500285000.0 -0.7484949471 0.6569814697
2550284700.0 -0.7392130272 0.6675231187
2600284400.0 -0.7294889506 0.6776924566
2650284100.0 -0.7208854924 0.6882253769
2700283800.0 -0.7102507183 0.6987007725
2750283500.0 -0.6998943977 0.7091481733
2800283200.0 -0.6902731951 0.7188792098
2850282900.0 -0.6800355369 0.7288478339
2900282600.0 -0.6695688177 0.7383654499
2950282300.0 -0.6596117048 0.7473140958
3000282000.0 -0.6488465111 0.7568709762
3050281700.0 -0.6378783005 0.7661614185
3100281400.0 -0.6262465399 0.7753684746
3150281100.0 -0.6145043286 0.7847056152
3200280800.0 -0.6027831771 0.7931905855
3250280500.0 -0.5921834844 0.8008547555
3300280200.0 -0.5808640825 0.8089841786
3350279900.0 -0.5696612754 0.8164162462
3400279600.0 -0.5575091345 0.8242528012
3450279300.0 -0.5462158309 0.8313089191
3500279000.0 -0.534271018 0.8387236119
3550278700.0 -0.5220167203 0.8457738609
3600278400.0 -0.5098445103 0.8527831335
3650278100.0 -0.4967450797 0.860536784
3700277800.0 -0.4845648822 0.8670605994
3750277500.0 -0.4723502898 0.8736408103
3800277200.0 -0.4599285394 0.8801117262
3850276900.0 -0.4475919873 0.8861324731
3900276600.0 -0.4364862311 0.8918601374
3950276300.0 -0.4238089882 0.8980199062
4000276000.0 -0.41159919 0.9039639976
4050275700.0 -0.3984577265 0.9101014532
4100275400.0 -0.3870362065 0.9156560592
4150275100.0 -0.3741258376 0.9211705225
4200274800.0 -0.3608047991 0.9267358162
4250274500.0 -0.3489146429 0.9315401935
4300274200.0 -0.3356670402 0.9368064338
4350273900.0 -0.3220821369 0.9420764203
4400273600.0 -0.3074430666 0.9472428809
4450273300.0 -0.2923394266 0.9520255765
4500273000.0 -0.2787965366 0.9562847508
4550272700.0 -0.2649720754 0.9606087505
4600272400.0 -0.2494296208 0.9647066427
4650272100.0 -0.2375422552 0.9678498517
4700271800.0 -0.2242138152 0.9712958723
4750271500.0 -0.2121818256 0.9742867688
4800271200.0 -0.199496487 0.9769490574
4850270900.0 -0.1858355499 0.9797971935
4900270600.0 -0.1721291641 0.9819966562
4950270300.0 -0.1582517884 0.9847589397
5000270000.0 -0.1439670527 0.9866313835
5050269700.0 -0.1305825143 0.9883870462
5100269400.0 -0.1168558218 0.9901129321
5150269100.0 -0.1035559734 0.9915991646
5200268800.0 -0.0900193814 0.9923809094
5250268500.0 -0.0769841075 0.9938526993
5300268200.0 -0.06390373 0.9945685788
5350267900.0 -0.0518972367 0.9950471743
5400267600.0 -0.0357861095 0.9961283205
5450267300.0 -0.0228721592 0.9963263235
5500267000.0 -0.0081131424 0.9968966027
5550266700.0 0.0064446211 0.9969120139
5600266400.0 0.0218382504 0.9967049428
5650266100.0 0.0382549183 0.9968725357
5700265800.0 0.052532542 0.9958849506
5750265500.0 0.0677082382 0.995262938
5800265200.0 0.0814432143 0.9941299735
5850264900.0 0.0945338673 0.9928074586
5900264600.0 0.1112647021 0.9907358874
5950264300.0 0.12358691 0.989870034
6000264000.0 0.1377357196 0.9876874422
6050263700.0 0.1503281256 0.9863757993
6100263400.0 0.1629742731 0.9842674364
6150263100.0 0.1780099432 0.9817747022
6200262800.0 0.1884998488 0.9800826184
6250262500.0 0.2015755505 0.9772450643
6300262200.0 0.2144302434 0.974718675
6350261900.0 0.2273163546 0.9716966693
6400261600.0 0.241447952 0.9681655808
6450261300.0 0.2527951235 0.9657344446
6500261000.0 0.2656802772 0.9622710761
6550260700.0 0.2790460903 0.958512504
6600260400.0 0.2921023974 0.9540912773
6650260100.0 0.3055628937 0.9498314939
6700259800.0 0.3177010745 0.9458140516
6750259500.0 0.3314948771 0.940968002
6800259200.0 0.3446277167 0.9359786877
6850258900.0 0.3565536674 0.9309821984
6900258600.0 0.3689172978 0.9261934624
6950258300.0 0.3812856225 0.9210266919
7000258000.0 0.3933318574 0.915491861
7050257700.0 0.4053712788 0.9096565532
7100257400.0 0.4183874653 0.9035557381
7150257100.0 0.4287539782 0.8981125796
7200256800.0 0.4417110955 0.8920509338
7250256500.0 0.453032198 0.8854895276
7300256200.0 0.4660047702 0.8792694426
7350255900.0 0.4784920802 0.872500635
7400255600.0 0.490815777 0.865343852
7450255300.0 0.5059037749 0.8565555354
7500255000.0 0.5173387028 0.8495227688
7550254700.0 0.5307908467 0.8411500914
7600254400.0 0.5436935048 0.8329726559
7650254100.0 0.5548795195 0.8252563402
7700253800.0 0.567027003 0.8170703604
7750253500.0 0.5780781164 0.8094090767
7800253200.0 0.5892505313 0.8015005528
7850252900.0 0.5986649226 0.7942637545
7900252600.0 0.6106108584 0.7854294373
7950252300.0 0.6198351985 0.7784161301
8000252000.0 0.630159706 0.7705561449
8050251700.0 0.640708043 0.7621640987
8100251400.0 0.6507644027 0.7538536641
8150251100.0 0.6612483356 0.7451677609
8200250800.0 0.6708384112 0.7368608312
8250250500.0 0.6796942335 0.7287324452
8300250200.0 0.6887703613 0.7198150645
8350249900.0 0.698511944 0.7111780794
8400249600.0 0.7066430013 0.702914689
8450249300.0 0.7159565807 0.6935922392
8500249000.0 0.7247454337 0.6847170343
8550248700.0 0.7334298962 0.6756271372
8600248400.0 0.7418801935 0.6659163698
8650248100.0 0.7496691936 0.6566909861
8700247800.0 0.7590243565 0.6457188667
8750247500.0 0.767257337 0.6355693564
8800247200.0 0.7750239403 0.6255763488
8850246900.0 0.7838134685 0.6142567288
8900246600.0 0.7920621786 0.6033727503
8950246300.0 0.8015625221 0.5907168553
9000246000.0 0.8106669913 0.5783089968
9050245700.0 0.8195201203 0.5656883039
9100245400.0 0.8276089704 0.5535835531
9150245100.0 0.8364631274 0.5405937889
9200244800.0 0.8458057299 0.5262520804
9250244500.0 0.8549274247 0.511405289
9300244200.0 0.8630967921 0.497671707
9350243900.0 0.870831515 0.4836351048
9400243600.0 0.8778759465 0.4708464679
9450243300.0 0.883912197 0.4587472794
9500243000.0 0.8906359636 0.4457466649
9550242700.0 0.895046404 0.4368628187
9600242400.0 0.8990666463 0.4284243564
9650242100.0 0.9030319138 0.4210359237
9700241800.0 0.9077288809 0.4120930688
9750241500.0 0.9120892129 0.4035562427
9800241200.0 0.9165712436 0.3941143121
9850240900.0 0.9222435988 0.3822837136
9900240600.0 0.9272819122 0.3712740562
9950240300.0 0.9336430111 0.3554154252
10000240000.0 0.9384213129 0.3435824983
10050239700.0 0.9439146078 0.3286662744
10100239400.0 0.9488935961 0.3136082438
10150239100.0 0.9531986723 0.2992922358
10200238800.0 0.9574038751 0.2844772704
10250238500.0 0.9611364729 0.2711518824
10300238200.0 0.9643390806 0.2572392441
10350237900.0 0.967172329 0.2442081776
10400237600.0 0.9697324661 0.2313641117
10450237300.0 0.9725864921 0.2172313905
10500237000.0 0.9750265554 0.2051318871
10550236700.0 0.9771938622 0.1916691277
10600236400.0 0.9797131376 0.1781971226
10650236100.0 0.9817846159 0.1632059694
10700235800.0 0.9833281573 0.1519243014
10750235500.0 0.9861657053 0.1378980009
10800235200.0 0.9879828367 0.1243567232
10850234900.0 0.989626617 0.1101234324
10900234600.0 0.9917307307 0.0957967407
10950234300.0 0.9932992651 0.0826580593
11000234000.0 0.9949103398 0.0680242034
11050233700.0 0.9965059907 0.0522673192
11100233400.0 0.997524259 0.0351177211
11150233100.0 0.9989693488 0.0192389535
11200232800.0 0.999053667 0.0043761584
11250232500.0 1.000341572 -0.0117517421
11300232200.0 1.000311805 -0.0294985636
11350231900.0 1.000181252 -0.0449536964
11400231600.0 1.000216771 -0.0607502038
11450231300.0 0.9992934505 -0.0760155427
11500231000.0 0.9980790979 -0.0919978991
11550230700.0 0.9968487533 -0.1058940642
11600230400.0 0.9953149084 -0.1191548155
11650230100.0 0.9932945329 -0.131357359
11700229800.0 0.9916580548 -0.1453400347
11750229500.0 0.9891835424 -0.1603351367
11800229200.0 0.9864953604 -0.1741576398
11850228900.0 0.9831055936 -0.1874781967
11900228600.0 0.9797750324 -0.198078258
11950228300.0 0.9766717741 -0.2089649163
12000228000.0 0.9736707324 -0.2193502557
12050227700.0 0.9705073105 -0.2313690694
12100227400.0 0.9675031535 -0.2420186492
12150227100.0 0.9629492308 -0.2588486515
12200226800.0 0.9585818374 -0.270870063
12250226500.0 0.954742485 -0.2826005493
12300226200.0 0.9508333487 -0.2949754285
12350225900.0 0.9461702405 -0.3090753924
12400225600.0 0.9419058826 -0.3214829378
12450225300.0 0.9377199262 -0.3338372469
12500225000.0 0.9324866807 -0.3484712379
12550224700.0 0.9272513966 -0.3619452779
12600224400.0 0.922645537 -0.3744195365
12650224100.0 0.9168400696 -0.3883507581
12700223800.0 0.911691151 -0.4009609094
12750223500.0 0.9061529936 -0.4138978658
12800223200.0 0.900925419 -0.4261072267
12850222900.0 0.8951060937 -0.4385569487
12900222600.0 0.8895890506 -0.4508673262
12950222300.0 0.8831256373 -0.4634446069
13000222000.0 0.8770226277 -0.4750624306
13050221700.0 0.8700546943 -0.4885120985
13100221400.0 0.86352211 -0.499844506
13150221100.0 0.856386035 -0.5125295231
13200220800.0 0.8493930717 -0.5239350116
13250220500.0 0.8417654984 -0.5368256779
13300220200.0 0.8343522037 -0.5473974183
13350219900.0 0.8260264004 -0.559917528
13400219600.0 0.8175636705 -0.5720630491
13450219300.0 0.8085475484 -0.584940538
13500219000.0 0.7987448522 -0.5986904494
13550218700.0 0.7882897805 -0.6118425369
13600218400.0 0.778183421 -0.6238152662
13650218100.0 0.7681482762 -0.6354114311
13700217800.0 0.7579796611 -0.6474652192
13750217500.0 0.7477450809 -0.6583391666
13800217200.0 0.7369165361 -0.6700826836
13850216900.0 0.7266003069 -0.6817904847
13900216600.0 0.716032945 -0.6902592483
13950216300.0 0.7052892104 -0.701362037
14000216000.0 0.695156644 -0.7102166512
14050215700.0 0.6860465995 -0.718797977
14100215400.0 0.6759436566 -0.7282440154
14150215100.0 0.6670352706 -0.736932158
14200214800.0 0.6577729919 -0.7451780907
14250214500.0 0.6475621425 -0.7545870678
14300214200.0 0.637167693 -0.763733982
14350213900.0 0.6263710895 -0.7730135456
14400213600.0 0.6149329196 -0.7825709243
14450213300.0 0.6024658312 -0.7922867666
14500213000.0 0.5896812011 -0.8022796842
14550212700.0 0.5769784195 -0.8112007088
14600212400.0 0.564868776 -0.8195259572
14650212100.0 0.5520453945 -0.8284036589
14700211800.0 0.5389573632 -0.8379524112
14750211500.0 0.5266473701 -0.845931785
14800211200.0 0.5137654447 -0.8541660414
14850210900.0 0.501848179 -0.8615170263
14900210600.0 0.4884899239 -0.8693819094
14950210300.0 0.4747582343 -0.8770303377
15000210000.0 0.4618908219 -0.8839345939
15050209700.0 0.4493960802 -0.8905213485
15100209400.0 0.4363629958 -0.896320364
15150209100.0 0.4233767584 -0.9021711986
15200208800.0 0.4103099659 -0.9081457037
15250208500.0 0.3984488913 -0.9127566647
15300208200.0 0.3858467781 -0.9174366685
15350207900.0 0.3727223444 -0.9221304929
15400207600.0 0.3577475643 -0.9283083139
15450207300.0 0.3431205973 -0.9333496037
15500207000.0 0.3290352445 -0.9373683972
15550206700.0 0.3138315821 -0.9437588608
15600206400.0 0.2985767794 -0.9476659758
15650206100.0 0.2828523971 -0.9518289799
15700205800.0 0.2692903049 -0.9555530999
15750205500.0 0.2546823696 -0.9592679001
15800205200.0 0.2405696505 -0.9626467843
15850204900.0 0.2265501459 -0.9660366906
15900204600.0 0.2116278415 -0.9695887463
15950204300.0 0.1976557486 -0.9724631978
16000204000.0 0.1839856285 -0.9751802889
16050203700.0 0.1690986797 -0.9779727924
16100203400.0 0.1555976048 -0.9801744809
16150203100.0 0.1411227819 -0.9825131209
16200202800.0 0.1269451936 -0.9846101771
16250202500.0 0.112480347 -0.9860370896
16300202200.0 0.0972388875 -0.9881449881
16350201900.0 0.0826834843 -0.9892415331
16400201600.0 0.0678829885 -0.9903876066
16450201300.0 0.0529179248 -0.9912634819
16500201000.0 0.0366126885 -0.9922368858
16550200700.0 0.0209284145 -0.9927896693
16600200400.0 0.005300347 -0.9930550196
16650200100.0 -0.0111224872 -0.9928899692
16700199800.0 -0.0277636097 -0.9925814042
16750199500.0 -0.0456765394 -0.9919317767
16800199200.0 -0.0620401309 -0.9914372394
16850198900.0 -0.077454761 -0.9902509451
16900198600.0 -0.0914316597 -0.9892397053
16950198300.0 -0.1053138347 -0.9880313226
17000198000.0 -0.1187285196 -0.9862723745
17050197700.0 -0.1317295993 -0.9842671323
17100197400.0 -0.1453258592 -0.9818628372
17150197100.0 -0.1583794028 -0.9798610179
17200196800.0 -0.1716161935 -0.9781074273
17250196500.0 -0.1847098865 -0.9758003175
17300196200.0 -0.1972802278 -0.9731159228
17350195900.0 -0.2097847944 -0.9707782533
17400195600.0 -0.2219309574 -0.9683602221
17450195300.0 -0.2351328141 -0.965481899
17500195000.0 -0.2484981726 -0.9622235931
17550194700.0 -0.2626804732 -0.9585504781
17600194400.0 -0.2766117694 -0.954700006
17650194100.0 -0.2901424728 -0.9507156365
17700193800.0 -0.3029617885 -0.946256015
17750193500.0 -0.3169129674 -0.941775407
17800193200.0 -0.3310493305 -0.9366765384
17850192900.0 -0.3457821622 -0.931434734
17900192600.0 -0.3606228021 -0.925545299
17950192300.0 -0.3758598206 -0.9187645058
18000192000.0 -0.3901375534 -0.9119764011
18050191700.0 -0.4040922626 -0.9042777875
18100191400.0 -0.4180869823 -0.8969158364
18150191100.0 -0.4327736395 -0.8892870667
18200190800.0 -0.4490942868 -0.8804958437
18250190500.0 -0.4652805163 -0.8714621472
18300190200.0 -0.4811374556 -0.8629868539
18350189900.0 -0.4953810791 -0.8545543036
18400189600.0 -0.5095944278 -0.8463130448
18450189300.0 -0.5232630788 -0.838434566
18500189000.0 -0.5367279342 -0.8297274875
18550188700.0 -0.5503082045 -0.8224139014
18600188400.0 -0.5620283372 -0.8153262529
18650188100.0 -0.5736777577 -0.8081558944
18700187800.0 -0.5847929889 -0.8009713596
18750187500.0 -0.5960220995 -0.7941572817
18800187200.0 -0.6068201857 -0.7866048923
18850186900.0 -0.6173808091 -0.7789914055
18900186600.0 -0.6280271844 -0.7713356899
18950186300.0 -0.6387028269 -0.7631307573
19000186000.0 -0.6465156739 -0.7561780328
19050185700.0 -0.6561424395 -0.7489994743
19100185400.0 -0.666751627 -0.7396753218
19150185100.0 -0.6766108959 -0.7306555907
19200184800.0 -0.686327779 -0.7227473307
19250184500.0 -0.6965990665 -0.7130544324
19300184200.0 -0.7078730937 -0.7037742767
19350183900.0 -0.7184128429 -0.6933801813
19400183600.0 -0.7275864514 -0.6839969068
19450183300.0 -0.7373468302 -0.673222043
19500183000.0 -0.7450918214 -0.6638412492
19550182700.0 -0.7546450773 -0.6531733689
19600182400.0 -0.7642340877 -0.6413270122
19650182100.0 -0.7745063378 -0.6296588158
19700181800.0 -0.7845268404 -0.6168715464
19750181500.0 -0.7948065528 -0.6037347216
19800181200.0 -0.8046530351 -0.5894393326
19850180900.0 -0.8141558597 -0.5749584242
19900180600.0 -0.8220438127 -0.5609793873
19950180300.0 -0.8310357045 -0.5454352542
20000180000.0 -0.8273822922 -0.5449164982
20050179700.0 -0.8359547257 -0.5323737664
20100179400.0 -0.8432674423 -0.5188952811
20150179100.0 -0.8512544026 -0.5061945875
20200178800.0 -0.8597073102 -0.4942417312
20250178500.0 -0.8693325712 -0.4805809591
20300178200.0 -0.8786327211 -0.4665414715
20350177900.0 -0.8866710924 -0.4530224465
20400177600.0 -0.8950198363 -0.4382884724
20450177300.0 -0.9031316201 -0.4239757695
20500177000.0 -0.9106720347 -0.410279256
20550176700.0 -0.9181098131 -0.3965380093
20600176400.0 -0.924641291 -0.3832790924
20650176100.0 -0.9312175184 -0.3700710407
20700175800.0 -0.9380984897 -0.358436632
20750175500.0 -0.9446757324 -0.3463320895
20800175200.0 -0.9490039153 -0.3343557276
20850174900.0 -0.9559429109 -0.3240334086
20900174600.0 -0.9588558536 -0.3112853004
20950174300.0 -0.962244693 -0.2985053722
21000174000.0 -0.9669145327 -0.2867817114
21050173700.0 -0.9696563428 -0.2751282415
21100173400.0 -0.9736502311 -0.2632798325
21150173100.0 -0.9775278513 -0.2497576953
21200172800.0 -0.9811995793 -0.2363758273
21250172500.0 -0.9844314003 -0.2226962824
21300172200.0 -0.9875216385 -0.2087229177
21350171900.0 -0.9892317518 -0.1942948948
21400171600.0 -0.9903819366 -0.179747302
21450171300.0 -0.9913609325 -0.1660129706
21500171000.0 -0.9924356857 -0.1505773747
21550170700.0 -0.9924531622 -0.1357537404
21600170400.0 -0.9929406572 -0.1209275567
21650170100.0 -0.9929004782 -0.1046316196
21700169800.0 -0.9910834783 -0.0898995996
21750169500.0 -0.9905290837 -0.0737014065
21800169200.0 -0.9891617976 -0.058967051
21850168900.0 -0.989208107 -0.0424216204
21900168600.0 -0.9870157278 -0.0261069246
21950168300.0 -0.9857587664 -0.0106153594
22000168000.0 -0.9848190974 0.0041891628
22050167700.0 -0.984385584 0.0183106504
22100167400.0 -0.9845041026 0.0329844318
22150167100.0 -0.9842764743 0.0479777924
22200166800.0 -0.9843607464 0.0639073539
22250166500.0 -0.9833262842 0.0806830412
22300166200.0 -0.9831211885 0.0968454554
22350165900.0 -0.9819359876 0.11311972
22400165600.0 -0.9790927297 0.1284093213
22450165300.0 -0.9783099486 0.1435811541
22500165000.0 -0.9758591075 0.1566865564
22550164700.0 -0.9746869577 0.1719347639
22600164400.0 -0.9724319333 0.1870698872
22650164100.0 -0.9708235995 0.2010957013
22700163800.0 -0.9679431236 0.2176103288
22750163500.0 -0.9654825217 0.2326336373
22800163200.0 -0.9627432153 0.2455594603
22850162900.0 -0.959870191 0.2594903582
22900162600.0 -0.9582908726 0.2733090495
22950162300.0 -0.9570359728 0.2862419365
23000162000.0 -0.9554910545 0.2982667406
23050161700.0 -0.9531050666 0.3106322024
23100161400.0 -0.9507499923 0.3233427836
23150161100.0 -0.9477097853 0.3350977576
23200160800.0 -0.9445205307 0.3480151858
23250160500.0 -0.9421209184 0.3606056673
23300160200.0 -0.9393390675 0.37220235
23350159900.0 -0.9356113858 0.3845157393
23400159600.0 -0.9306616352 0.398251868
23450159300.0 -0.9266385844 0.4109486044
23500159000.0 -0.921394534 0.4236576789
23550158700.0 -0.9172739605 0.4363631914
23600158400.0 -0.9116437689 0.449248349
23650158100.0 -0.9056483806 0.4628615108
23700157800.0 -0.8982687931 0.4760201033
23750157500.0 -0.890068143 0.4895332794
23800157200.0 -0.8813466214 0.5023404843
23850156900.0 -0.8727703123 0.5150170051
23900156600.0 -0.8638725102 0.5273763118
23950156300.0 -0.8554520327 0.5400333829
24000156000.0 -0.8462925923 0.5516735123
24050155700.0 -0.8360301777 0.5639370401
24100155400.0 -0.8263968691 0.5756291909
24150155100.0 -0.8162572249 0.5877458099
24200154800.0 -0.8056703153 0.599074131
24250154500.0 -0.7944966853 0.6108038859
24300154200.0 -0.7840486775 0.621961558
24350153900.0 -0.7724401492 0.6331998674
24400153600.0 -0.7605215498 0.6438721851
24450153300.0 -0.7491848373 0.6543718679
24500153000.0 -0.7378920265 0.66408821
24550152700.0 -0.7267877063 0.6741861994
24600152400.0 -0.7154046937 0.6838497947
24650152100.0 -0.7037264842 0.6927559339
