!Created with skrf (http://scikit-rf.org).
# Hz S RI R 50.0 
!freq ReS11 ImS11
300000.0 -1.005175688 0.0249670238
50299700.0 -0.9979448257 0.0155215467
100299400.0 -0.9959120853 0.0277991111
150299100.0 -1.000762432 0.0443896806
200298800.0 -0.997431174 0.0574981359
250298500.0 -0.9951248049 0.0706177827
300298200.0 -0.9834039368 0.0862917325
350297900.0 -0.9912743893 0.0969693756
400297600.0 -0.9901790556 0.1131468608
450297300.0 -0.9879364229 0.1267567978
500297000.0 -0.9863871635 0.1410490663
550296700.0 -0.9811245388 0.1533408107
600296400.0 -1.013732284 0.1858194731
650296100.0 -0.9788807464 0.1825195294
700295800.0 -0.9756317127 0.1961845536
750295500.0 -0.9727734399 0.210291247
800295200.0 -0.9694953094 0.2238188895
850294900.0 -0.9661834858 0.2373796642
900294600.0 -0.9624890166 0.2511350589
950294300.0 -0.9591121367 0.2644134479
1000294000.0 -0.955059436 0.2783193524
1050293700.0 -0.9510415946 0.291915505
1100293400.0 -0.9468516079 0.306261828
1150293100.0 -0.9430498238 0.3180711093
1200292800.0 -0.9380245441 0.3322772847
1250292500.0 -0.9328450685 0.3457054552
1300292200.0 -0.927462445 0.3587449043
1350291900.0 -0.9219145604 0.3729871141
1400291600.0 -0.9165792909 0.3859385841
1450291300.0 -0.9116577002 0.3980765687
1500291000.0 -0.9054644279 0.411543698
1550290700.0 -0.899256815 0.4247592089
1600290400.0 -0.8933288986 0.4376410985
1650290100.0 -0.8871636791 0.4495305013
1700289800.0 -0.8801934212 0.4633098119
1750289500.0 -0.8736479679 0.475316485
1800289200.0 -0.8666373812 0.4878874752
1850288900.0 -0.8599950769 0.4991586034
1900288600.0 -0.8527326951 0.5121339055
1950288300.0 -0.8448150241 0.524479376
2000288000.0 -0.8373212206 0.5361357719
2050287700.0 -0.8293400672 0.5483895605
2100287400.0 -0.8222147371 0.5594808212
2150287100.0 -0.8134779024 0.5716442973
2200286800.0 -0.8057333203 0.5823261204
2250286500.0 -0.7973094781 0.5941210148
2300286200.0 -0.7890301199 0.6050368319
2350285900.0 -0.7806218611 0.6158531714
2400285600.0 -0.771367398 0.6272484667
2450285300.0 -0.7624430806 0.6380830321
2500285000.0 -0.753535144 0.6484350419
2550284700.0 -0.7444300713 0.6590478582
2600284400.0 -0.7341318457 0.6697503296
2650284100.0 -0.7260586908 0.6794806264
2700283800.0 -0.7158625213 0.6898410997
2750283500.0 -0.7057229132 0.6999335964
2800283200.0 -0.6960583012 0.7099593087
2850282900.0 -0.6852895439 0.7198827067
2900282600.0 -0.6749409133 0.7295868984
2950282300.0 -0.6647253375 0.7388874314
3000282000.0 -0.653919584 0.7483469511
3050281700.0 -0.6430043347 0.7575595859
3100281400.0 -0.6324436109 0.76614769
3150281100.0 -0.6224399767 0.7748049178
3200280800.0 -0.610957456 0.7837847348
3250280500.0 -0.5997670277 0.792606243
3300280200.0 -0.587727054 0.8017972393
3350279900.0 -0.5767001398 0.8096122766
3400279600.0 -0.564338063 0.8180047176
3450279300.0 -0.5528994772 0.8265420002
3500279000.0 -0.5412572999 0.8342163662
3550278700.0 -0.5293422106 0.8419974766
3600278400.0 -0.5190193668 0.8486501535
3650278100.0 -0.5060562937 0.8568848542
3700277800.0 -0.4939843914 0.8637459835
3750277500.0 -0.482073701 0.8704767011
3800277200.0 -0.4695983996 0.8772074229
3850276900.0 -0.457021413 0.8836005707
3900276600.0 -0.4451977666 0.8901995024
3950276300.0 -0.4319898855 0.8965336384
4000276000.0 -0.4203093191 0.9022188744
4050275700.0 -0.4067913636 0.9085510701
4100275400.0 -0.3954151414 0.9138450884
4150275100.0 -0.3822276678 0.9190829635
4200274800.0 -0.3682710466 0.9246987379
4250274500.0 -0.3560464248 0.9292843499
4300274200.0 -0.3432904725 0.9341813275
4350273900.0 -0.3296106865 0.9389947783
4400273600.0 -0.3169939403 0.9430489207
4450273300.0 -0.3039225409 0.9472467521
4500273000.0 -0.2917396346 0.9512532108
4550272700.0 -0.2795753829 0.9548707306
4600272400.0 -0.2649269194 0.9587524305
4650272100.0 -0.2524962716 0.9620824566
4700271800.0 -0.2394013089 0.9654857752
4750271500.0 -0.2253258863 0.9687177306
4800271200.0 -0.2112328989 0.9718702124
4850270900.0 -0.1973588179 0.974638681
4900270600.0 -0.1839628713 0.9771601491
4950270300.0 -0.1713521084 0.9796812347
5000270000.0 -0.1574644035 0.9818607947
5050269700.0 -0.14365657 0.983799141
5100269400.0 -0.1290749785 0.9857048572
5150269100.0 -0.1149950125 0.9877954478
5200268800.0 -0.1008664548 0.9892701922
5250268500.0 -0.0877791423 0.9902221171
5300268200.0 -0.0733299072 0.9917097655
5350267900.0 -0.0601165451 0.9925761292
5400267600.0 -0.044146973 0.9938365546
5450267300.0 -0.0320156946 0.9938995175
5500267000.0 -0.0179825148 0.9942682199
5550266700.0 -0.0059946354 0.9944202301
5600266400.0 0.0079830254 0.9946307734
5650266100.0 0.0223362848 0.9943548682
5700265800.0 0.0351955048 0.9936160478
5750265500.0 0.0485453089 0.9933384568
5800265200.0 0.0614837688 0.992421326
5850264900.0 0.0747082368 0.9917411501
5900264600.0 0.0902058371 0.9907892111
5950264300.0 0.1013572404 0.9897685549
6000264000.0 0.1146281183 0.9878686899
6050263700.0 0.1274531795 0.9870209196
6100263400.0 0.1410311115 0.9848624616
6150263100.0 0.1568650277 0.9825084158
6200262800.0 0.1684715847 0.9808352417
6250262500.0 0.1818470033 0.9781219116
6300262200.0 0.1948231358 0.9755939712
6350261900.0 0.2081092016 0.9729835217
6400261600.0 0.2231119565 0.9697959161
6450261300.0 0.2352704827 0.9670575288
6500261000.0 0.2486259005 0.9634426086
6550260700.0 0.2621542838 0.9599710875
6600260400.0 0.2741899531 0.9560818255
6650260100.0 0.2883779046 0.9524232076
6700259800.0 0.3005471965 0.9483575853
6750259500.0 0.3135711288 0.9439695568
6800259200.0 0.3271177064 0.9393942336
6850258900.0 0.3396306676 0.9349035525
6900258600.0 0.3528432745 0.9300548254
6950258300.0 0.3660723462 0.9252942932
7000258000.0 0.3785733584 0.9202875815
7050257700.0 0.3897421459 0.9153540612
7100257400.0 0.4041785417 0.9093692117
7150257100.0 0.415736014 0.9041934752
7200256800.0 0.4296190183 0.898218707
7250256500.0 0.4410070555 0.8922306639
7300256200.0 0.454160251 0.8862001044
7350255900.0 0.4662885451 0.8798231738
7400255600.0 0.4763803374 0.8748878698
7450255300.0 0.4890296198 0.8677281957
7500255000.0 0.5002821152 0.8611312212
7550254700.0 0.5107243161 0.8550276642
7600254400.0 0.5226497123 0.8482061118
7650254100.0 0.5330374931 0.8413621347
7700253800.0 0.5450232692 0.8343577145
7750253500.0 0.555762169 0.8271065356
7800253200.0 0.5678431004 0.8187919181
7850252900.0 0.5769340168 0.8122853632
7900252600.0 0.5888399946 0.8038889099
7950252300.0 0.5992972995 0.7961270559
8000252000.0 0.6101423633 0.7877637554
8050251700.0 0.6211374354 0.7791184921
8100251400.0 0.6308264709 0.7712947439
8150251100.0 0.6416125124 0.762020087
8200250800.0 0.6517227504 0.753694767
8250250500.0 0.66271989 0.7441159204
8300250200.0 0.6724475616 0.7350976837
8350249900.0 0.6817217213 0.7258118608
8400249600.0 0.6915064074 0.7164965237
8450249300.0 0.7019280871 0.7063346399
8500249000.0 0.7114465067 0.6965793435
8550248700.0 0.7220601875 0.6856147102
8600248400.0 0.73226288 0.6748529269
8650248100.0 0.7404671091 0.6656233559
8700247800.0 0.7496610689 0.6551470825
8750247500.0 0.7587684402 0.6445691702
8800247200.0 0.7676970745 0.6339570879
8850246900.0 0.7766140768 0.6229417776
8900246600.0 0.7849053197 0.6122025894
8950246300.0 0.7936799942 0.6011838641
9000246000.0 0.8009671732 0.5914913065
9050245700.0 0.8080913435 0.5813321506
9100245400.0 0.8163467363 0.5698055332
9150245100.0 0.8235377951 0.5590783544
9200244800.0 0.829529789 0.5503911321
9250244500.0 0.8364956167 0.5396945875
9300244200.0 0.8427374842 0.5301934825
9350243900.0 0.8492864434 0.5193298876
9400243600.0 0.8565980257 0.5074129248
9450243300.0 0.8618099441 0.4982637641
9500243000.0 0.8687629988 0.4868400499
9550242700.0 0.876051372 0.4747156273
9600242400.0 0.8830513537 0.4615187204
9650242100.0 0.8893817311 0.44860561
9700241800.0 0.8960407746 0.4360456204
9750241500.0 0.903088032 0.4214710908
9800241200.0 0.9101417997 0.405349625
9850240900.0 0.9156496243 0.3921556747
9900240600.0 0.9198720421 0.3824844466
9950240300.0 0.9253990237 0.3689420647
10000240000.0 0.9304955988 0.3555880603
10050239700.0 0.9351441433 0.3426478752
10100239400.0 0.9396667297 0.3303811727
10150239100.0 0.9435906725 0.3181232812
10200238800.0 0.948067387 0.3043876535
10250238500.0 0.9522428602 0.2915655597
10300238200.0 0.9562963181 0.278352669
10350237900.0 0.9600330574 0.2657031977
10400237600.0 0.9636393857 0.2524103483
10450237300.0 0.9675954919 0.2385211303
10500237000.0 0.9710131874 0.2247196003
10550236700.0 0.9741840878 0.2108083138
10600236400.0 0.9770953418 0.1978159788
10650236100.0 0.979756814 0.1820330795
10700235800.0 0.9823772159 0.1678774819
10750235500.0 0.9844176567 0.1546248008
10800235200.0 0.9866755726 0.1410065759
10850234900.0 0.9884170274 0.1279573763
10900234600.0 0.9901109491 0.1140481136
10950234300.0 0.9915097492 0.0998007675
11000234000.0 0.9927499058 0.0858812315
11050233700.0 0.9936135064 0.0732049838
11100233400.0 0.994389744 0.0593906353
11150233100.0 0.9951296834 0.0464076128
11200232800.0 0.995638811 0.033339253
11250232500.0 0.9960279709 0.0199855455
11300232200.0 0.9960248596 0.0066759947
11350231900.0 0.9959693803 -0.0062209107
11400231600.0 0.9949663466 -0.0192768108
11450231300.0 0.9946221034 -0.0318567139
11500231000.0 0.9939355767 -0.0434357838
11550230700.0 0.9937969165 -0.0560610082
11600230400.0 0.992854814 -0.0721744259
11650230100.0 0.9916063486 -0.0844709067
11700229800.0 0.990550229 -0.0985208037
11750229500.0 0.9888859841 -0.111972068
11800229200.0 0.9875146659 -0.1237172558
11850228900.0 0.98587967 -0.1383877579
11900228600.0 0.9841218998 -0.1530385101
11950228300.0 0.981781003 -0.1687993845
12000228000.0 0.9793924306 -0.1821537208
12050227700.0 0.9769349355 -0.1966104415
12100227400.0 0.9749172218 -0.2081706368
12150227100.0 0.9701955003 -0.2274655779
12200226800.0 0.9682921659 -0.2386208994
12250226500.0 0.9644683952 -0.2532124231
12300226200.0 0.9613488166 -0.2660334649
12350225900.0 0.9558527121 -0.2822661976
12400225600.0 0.951868217 -0.2967050895
12450225300.0 0.9480951985 -0.3084553026
12500225000.0 0.9431479303 -0.3235541983
12550224700.0 0.9378010033 -0.3375635871
12600224400.0 0.9337645191 -0.3489511065
12650224100.0 0.9283461041 -0.363163065
12700223800.0 0.9230332117 -0.3760827297
12750223500.0 0.9173592385 -0.3894876502
12800223200.0 0.9113037351 -0.4032290398
12850222900.0 0.9055135006 -0.4165724034
12900222600.0 0.899762096 -0.4289698937
12950222300.0 0.892804907 -0.4421519258
13000222000.0 0.8866162685 -0.4549528288
13050221700.0 0.8797685786 -0.4676541628
13100221400.0 0.8736670815 -0.4792675065
13150221100.0 0.8666154448 -0.4924117087
13200220800.0 0.8594843085 -0.5045578152
13250220500.0 0.8522375558 -0.5169873917
13300220200.0 0.8450029325 -0.5287641731
13350219900.0 0.8367319314 -0.5418751444
13400219600.0 0.8295352242 -0.5529874288
13450219300.0 0.8223581951 -0.5638585397
13500219000.0 0.8150524003 -0.574219154
13550218700.0 0.8070801509 -0.5855309142
13600218400.0 0.7987537481 -0.5961201058
13650218100.0 0.7924126012 -0.6051385684
13700217800.0 0.7826725276 -0.6175116056
13750217500.0 0.7749785118 -0.6274790967
13800217200.0 0.7657183237 -0.6386884269
13850216900.0 0.7567068244 -0.6505281528
13900216600.0 0.7478267464 -0.6591368406
13950216300.0 0.738111309 -0.6713076153
14000216000.0 0.7284964235 -0.6816423884
14050215700.0 0.7195086788 -0.6908014388
14100215400.0 0.7075495517 -0.7026321904
14150215100.0 0.6963871977 -0.7140500062
14200214800.0 0.6856813565 -0.7245624563
14250214500.0 0.673838832 -0.7353041971
14300214200.0 0.6620631509 -0.7461663428
14350213900.0 0.6505623572 -0.7559676473
14400213600.0 0.6399267907 -0.764843076
14450213300.0 0.6295317382 -0.7735177686
14500213000.0 0.6189585262 -0.7820605756
14550212700.0 0.6076760141 -0.791240271
14600212400.0 0.5955939691 -0.799633631
14650212100.0 0.5856751891 -0.8066181296
14700211800.0 0.5736272845 -0.8152616687
14750211500.0 0.5622410236 -0.8228888119
14800211200.0 0.5494984578 -0.8317444107
14850210900.0 0.5378232402 -0.8391324816
14900210600.0 0.5256870796 -0.8467517378
14950210300.0 0.5136606474 -0.8542187623
15000210000.0 0.5015988203 -0.8614296801
15050209700.0 0.4888794999 -0.868538024
15100209400.0 0.4755919936 -0.876069821
15150209100.0 0.464473654 -0.8827613859
15200208800.0 0.4507492195 -0.8896184784
15250208500.0 0.4373198851 -0.8962254747
15300208200.0 0.4230488235 -0.9041566921
15350207900.0 0.410510031 -0.9094035347
15400207600.0 0.3976476 -0.9154665048
15450207300.0 0.3845096452 -0.9206832907
15500207000.0 0.3719797913 -0.9258866987
15550206700.0 0.3585506857 -0.9313757985
15600206400.0 0.3460066849 -0.9369011897
15650206100.0 0.3312537131 -0.9415083382
15700205800.0 0.3181903956 -0.9462062382
15750205500.0 0.3035441098 -0.9510176925
15800205200.0 0.2898113325 -0.9550792394
15850204900.0 0.2761100165 -0.9593973184
15900204600.0 0.2601647396 -0.9639916973
15950204300.0 0.2461429451 -0.9677666727
16000204000.0 0.2310079609 -0.9712150913
16050203700.0 0.2158135936 -0.9745221416
16100203400.0 0.201877946 -0.9772559677
16150203100.0 0.1863207433 -0.9804572999
16200202800.0 0.1705796943 -0.9830611622
16250202500.0 0.1560209646 -0.9853692014
16300202200.0 0.1408697852 -0.9875251059
16350201900.0 0.1254442203 -0.9892994368
16400201600.0 0.1102023594 -0.9908154854
16450201300.0 0.0962502116 -0.9923199018
16500201000.0 0.0813142873 -0.9938047184
16550200700.0 0.067175744 -0.9949629143
16600200400.0 0.0521849861 -0.9959372934
16650200100.0 0.0369145006 -0.9967768524
16700199800.0 0.0235993427 -0.9972203993
16750199500.0 0.0104627767 -0.9978062251
16800199200.0 -0.0022661326 -0.9975689654
16850198900.0 -0.0165323935 -0.9974763837
16900198600.0 -0.0311866892 -0.9973995186
16950198300.0 -0.0460359479 -0.9963393243
17000198000.0 -0.0610409373 -0.9953139029
17050197700.0 -0.0757383354 -0.9942906326
17100197400.0 -0.0921463232 -0.9931582985
17150197100.0 -0.1081739473 -0.9918224549
17200196800.0 -0.1227037719 -0.9897931724
17250196500.0 -0.1373217776 -0.9874083927
17300196200.0 -0.1535535501 -0.9853512625
17350195900.0 -0.1695268278 -0.982652878
17400195600.0 -0.1849469003 -0.9796258871
17450195300.0 -0.2000328504 -0.9765450084
17500195000.0 -0.2148192696 -0.9734027663
17550194700.0 -0.2299357582 -0.9702123718
17600194400.0 -0.2445974554 -0.9665960513
17650194100.0 -0.2596078131 -0.9628622686
17700193800.0 -0.2732498425 -0.95871536
17750193500.0 -0.2871470985 -0.9544903642
17800193200.0 -0.3010358381 -0.9504987943
17850192900.0 -0.3152267883 -0.9463632694
17900192600.0 -0.3286585135 -0.9409449051
17950192300.0 -0.3425761503 -0.9359642845
18000192000.0 -0.357195389 -0.9306214115
18050191700.0 -0.3709798138 -0.9246526177
18100191400.0 -0.385247859 -0.9190820103
18150191100.0 -0.3981951743 -0.9133827884
18200190800.0 -0.4107270385 -0.9077803861
18250190500.0 -0.4239231354 -0.9016619069
18300190200.0 -0.4372019504 -0.8960106788
18350189900.0 -0.4504121384 -0.8901278717
18400189600.0 -0.4630058861 -0.8840086169
18450189300.0 -0.4756476721 -0.8770955614
18500189000.0 -0.4878506266 -0.8707056635
18550188700.0 -0.5004503975 -0.8631410145
18600188400.0 -0.5134040668 -0.8555659948
18650188100.0 -0.5255994353 -0.8475392415
18700187800.0 -0.5385266516 -0.8393690279
18750187500.0 -0.5508811078 -0.8310711823
18800187200.0 -0.5629117084 -0.8222476771
18850186900.0 -0.5750656355 -0.8133527611
18900186600.0 -0.5865692179 -0.804657801
18950186300.0 -0.5991699311 -0.7950322609
19000186000.0 -0.6111817046 -0.7860115156
19050185700.0 -0.624322984 -0.7764563194
19100185400.0 -0.6357372497 -0.7663749912
19150185100.0 -0.6480502481 -0.7566901469
19200184800.0 -0.6595029443 -0.7469884417
19250184500.0 -0.6709581127 -0.7369447346
19300184200.0 -0.6811744077 -0.726655323
19350183900.0 -0.6921260635 -0.716035088
19400183600.0 -0.7033147416 -0.7048361194
19450183300.0 -0.715299017 -0.6939429517
19500183000.0 -0.7259184398 -0.6822673446
19550182700.0 -0.7363276081 -0.6708075997
19600182400.0 -0.7460015696 -0.6591622967
19650182100.0 -0.7561894325 -0.6476999584
19700181800.0 -0.7654756497 -0.6360576367
19750181500.0 -0.7745143373 -0.6241454575
19800181200.0 -0.7835955761 -0.6123906894
19850180900.0 -0.7923764197 -0.600623378
19900180600.0 -0.8001450552 -0.5897879729
19950180300.0 -0.8098965476 -0.5776120272
20000180000.0 -0.821662591 -0.5626996533
20050179700.0 -0.8294296438 -0.5518693485
20100179400.0 -0.8381885075 -0.5390424103
20150179100.0 -0.846241501 -0.5263880848
20200178800.0 -0.8540266254 -0.5137483732
20250178500.0 -0.8608146203 -0.5017752342
20300178200.0 -0.866903224 -0.4899769634
20350177900.0 -0.872818442 -0.4780170348
20400177600.0 -0.8791674756 -0.4664188122
20450177300.0 -0.8844862613 -0.4544696282
20500177000.0 -0.8901293597 -0.4424811478
20550176700.0 -0.8957933037 -0.4301345814
20600176400.0 -0.9008901419 -0.4177446382
20650176100.0 -0.9063792642 -0.4046990084
20700175800.0 -0.9118235785 -0.3916936476
20750175500.0 -0.9180023289 -0.3782707461
20800175200.0 -0.9215989965 -0.3656315737
20850174900.0 -0.9262409091 -0.3516507781
20900174600.0 -0.9317841483 -0.3377607963
20950174300.0 -0.9356289969 -0.3255556037
21000174000.0 -0.9397433054 -0.3107309444
21050173700.0 -0.9428244827 -0.296551356
21100173400.0 -0.9469081789 -0.2827353586
21150173100.0 -0.9507634374 -0.2683116114
21200172800.0 -0.9546857579 -0.2536512661
21250172500.0 -0.9575448746 -0.2396094441
21300172200.0 -0.9617771543 -0.2251845142
21350171900.0 -0.9647081622 -0.2110438422
21400171600.0 -0.9687166112 -0.1968643249
21450171300.0 -0.9714652844 -0.1816870331
21500171000.0 -0.973988795 -0.1674687982
21550170700.0 -0.976819044 -0.1538068473
21600170400.0 -0.9812745885 -0.1395535147
21650170100.0 -0.9854950071 -0.1254810761
21700169800.0 -0.9863356587 -0.1112738065
21750169500.0 -0.9895384587 -0.095914181
21800169200.0 -0.9928367994 -0.0812134792
21850168900.0 -0.9944645277 -0.0675757938
21900168600.0 -0.9967620557 -0.0535777355
21950168300.0 -0.9989821909 -0.0391001938
22000168000.0 -1.000196579 -0.0249016081
22050167700.0 -1.001447638 -0.0100837395
22100167400.0 -1.001370257 0.0054970902
22150167100.0 -1.001421437 0.0200900399
22200166800.0 -1.000383865 0.0340856649
22250166500.0 -0.9993375769 0.048005645
22300166200.0 -0.9991129084 0.0614023815
22350165900.0 -0.9982433379 0.0740705564
22400165600.0 -0.9980450334 0.0873857532
22450165300.0 -0.9961202123 0.1014478114
22500165000.0 -0.9940396167 0.1137310891
22550164700.0 -0.9931098998 0.1284141273
22600164400.0 -0.9910582548 0.1418753313
22650164100.0 -0.9881036331 0.1530634186
22700163800.0 -0.9856346074 0.1647950361
22750163500.0 -0.9826747924 0.1780636639
22800163200.0 -0.9799576481 0.1903129586
22850162900.0 -0.9763630801 0.2032954734
22900162600.0 -0.972949063 0.2165603571
22950162300.0 -0.9684788813 0.2303259165
23000162000.0 -0.9640425267 0.2437712206
23050161700.0 -0.9584652407 0.2582709001
23100161400.0 -0.9540758075 0.2721104508
23150161100.0 -0.949214809 0.2859083943
23200160800.0 -0.9439624883 0.2999047964
23250160500.0 -0.9391413059 0.3143845661
23300160200.0 -0.9339402357 0.3282375944
23350159900.0 -0.9271855933 0.3424328125
23400159600.0 -0.922490449 0.3550178866
23450159300.0 -0.9171816562 0.3675760755
23500159000.0 -0.9115237811 0.3807851323
23550158700.0 -0.9057803182 0.3940889462
23600158400.0 -0.8995786321 0.4062780383
23650158100.0 -0.8937254674 0.4185146787
23700157800.0 -0.8872400922 0.430444645
23750157500.0 -0.880948113 0.4427869439
23800157200.0 -0.8753976619 0.4542917408
23850156900.0 -0.869959335 0.4659031637
23900156600.0 -0.8643945744 0.4773335285
23950156300.0 -0.8577953449 0.4892477547
24000156000.0 -0.8519434669 0.5006389326
24050155700.0 -0.8456044402 0.5125241665
24100155400.0 -0.8390956229 0.5234066114
24150155100.0 -0.8335009467 0.5348312695
24200154800.0 -0.8264468076 0.5454265785
24250154500.0 -0.8200476901 0.5557242369
24300154200.0 -0.8141639338 0.5668286096
24350153900.0 -0.8076085725 0.577667446
24400153600.0 -0.8003990742 0.5882369175
24450153300.0 -0.7928006393 0.5993357081
24500153000.0 -0.7854584599 0.6100310747
24550152700.0 -0.7778370083 0.6199633175
24600152400.0 -0.7698475045 0.6306665556
24650152100.0 -0.7614373666 0.6411150647
