!Created with skrf (http://scikit-rf.org).
# Hz S RI R 50.0 
!freq ReS11 ImS11
300000.0 -0.9843715919 -0.0892841144
50299700.0 -0.999901922 0.0165278763
100299400.0 -0.9978302335 0.0293247287
150299100.0 -1.002713335 0.0461599147
200298800.0 -0.9995996979 0.0595610914
250298500.0 -0.9973262096 0.0729787204
300298200.0 -0.9860340259 0.0888409024
350297900.0 -0.9935507895 0.0997590866
400297600.0 -0.9928838568 0.1164266931
450297300.0 -0.9909066805 0.1302505541
500297000.0 -0.989367063 0.1449145812
550296700.0 -0.9840459559 0.1572853602
600296400.0 -1.017061271 0.1909399609
650296100.0 -0.9816977893 0.1873829391
700295800.0 -0.9788813353 0.2013979455
750295500.0 -0.9760853927 0.2155860055
800295200.0 -0.9725417259 0.2297827049
850294900.0 -0.9691712387 0.2435243042
900294600.0 -0.9653344153 0.2571608146
950294300.0 -0.9612793568 0.2709161706
1000294000.0 -0.9577982342 0.2848930359
1050293700.0 -0.9531024715 0.2986215286
1100293400.0 -0.9488309027 0.3131444344
1150293100.0 -0.9447911779 0.3250791423
1200292800.0 -0.9394997735 0.339220954
1250292500.0 -0.9340727089 0.3527682146
1300292200.0 -0.9284974582 0.3658387495
1350291900.0 -0.9227646144 0.3798984856
1400291600.0 -0.91755568 0.3931067576
1450291300.0 -0.9120507272 0.4052949435
1500291000.0 -0.9056501864 0.4184909578
1550290700.0 -0.8993751533 0.4319825343
1600290400.0 -0.8931307072 0.4447472156
1650290100.0 -0.8862538904 0.4569790528
1700289800.0 -0.8794784714 0.4703708684
1750289500.0 -0.872514496 0.4826530149
1800289200.0 -0.8652191412 0.4955540602
1850288900.0 -0.8586035978 0.5069532551
1900288600.0 -0.8505904752 0.5197993416
1950288300.0 -0.8425120169 0.5323763523
2000288000.0 -0.834852806 0.5440688937
2050287700.0 -0.8266178476 0.5563220665
2100287400.0 -0.818543015 0.5678943002
2150287100.0 -0.8102188261 0.5799448682
2200286800.0 -0.8023875096 0.5902940595
2250286500.0 -0.7934417008 0.6025483962
2300286200.0 -0.7844452137 0.6140694259
2350285900.0 -0.7755376897 0.6252110253
2400285600.0 -0.7665071314 0.6360705397
2450285300.0 -0.7578427444 0.6465444227
2500285000.0 -0.7480294823 0.6575145449
2550284700.0 -0.7391993267 0.6679805136
2600284400.0 -0.729640008 0.6782684539
2650284100.0 -0.7206483508 0.6885845121
2700283800.0 -0.7099861997 0.6990606488
2750283500.0 -0.6997053518 0.7096879763
2800283200.0 -0.6899956492 0.7193092276
2850282900.0 -0.6797556129 0.7293207844
2900282600.0 -0.6694852558 0.7388507843
2950282300.0 -0.6594184455 0.7481362517
3000282000.0 -0.6486388644 0.7574231976
3050281700.0 -0.6375276169 0.7666025605
3100281400.0 -0.6258104768 0.7759296467
3150281100.0 -0.6141633859 0.7852015842
3200280800.0 -0.6023795225 0.7938007761
3250280500.0 -0.5916899986 0.8014856684
3300280200.0 -0.5804837172 0.8092538386
3350279900.0 -0.5690501484 0.8168848821
3400279600.0 -0.5571222515 0.8248306987
3450279300.0 -0.5456810899 0.8315774658
3500279000.0 -0.5338986939 0.8389819435
3550278700.0 -0.521375722 0.8464031096
3600278400.0 -0.5092525166 0.853325214
3650278100.0 -0.4959323127 0.8608648194
3700277800.0 -0.4838349007 0.8672849633
3750277500.0 -0.4717346812 0.8741135007
3800277200.0 -0.4590895522 0.8804702174
3850276900.0 -0.4468754578 0.8865309858
3900276600.0 -0.4361558471 0.8923227432
3950276300.0 -0.4233264122 0.89833329
4000276000.0 -0.4109186685 0.9041728184
4050275700.0 -0.3981225221 0.9102906719
4100275400.0 -0.3867647996 0.9158071992
4150275100.0 -0.3739676847 0.9213419882
4200274800.0 -0.3609127654 0.9266133029
4250274500.0 -0.3487165517 0.9317261869
4300274200.0 -0.3355307684 0.9369593117
4350273900.0 -0.3219386848 0.9420564834
4400273600.0 -0.3070708119 0.9473577961
4450273300.0 -0.291751005 0.9526985932
4500273000.0 -0.2780956252 0.9566614065
4550272700.0 -0.2639771825 0.9611430828
4600272400.0 -0.2484388903 0.9652442712
4650272100.0 -0.2368536995 0.9684347557
4700271800.0 -0.2234507001 0.9718438505
4750271500.0 -0.2116565522 0.9745730562
4800271200.0 -0.1989587187 0.9773220962
4850270900.0 -0.1850807576 0.9800915912
4900270600.0 -0.1714786863 0.9824743149
4950270300.0 -0.157404805 0.9851761594
5000270000.0 -0.1435090387 0.9871121302
5050269700.0 -0.129879137 0.9886039173
5100269400.0 -0.116385146 0.9903814046
5150269100.0 -0.1028976365 0.9920591822
5200268800.0 -0.0898162784 0.9928405904
5250268500.0 -0.076784996 0.9941430994
5300268200.0 -0.0635742712 0.9948382587
5350267900.0 -0.0514202484 0.9952129419
5400267600.0 -0.0352938453 0.9966538004
5450267300.0 -0.0223717591 0.9967372245
5500267000.0 -0.0071592158 0.9969708208
5550266700.0 0.0076089866 0.9972375548
5600266400.0 0.0229782674 0.9972183023
5650266100.0 0.0394066982 0.9967161074
5700265800.0 0.054071409 0.9959478398
5750265500.0 0.0689308355 0.9951286986
5800265200.0 0.0829145799 0.9941701558
5850264900.0 0.0964080868 0.9933642889
5900264600.0 0.1130474071 0.9915446865
5950264300.0 0.1252562148 0.9896453497
6000264000.0 0.1390415965 0.9880260521
6050263700.0 0.1519381522 0.9864088075
6100263400.0 0.1645178601 0.9843145708
6150263100.0 0.1792191122 0.9818537644
6200262800.0 0.1895318476 0.9800328844
6250262500.0 0.2025501922 0.9777016254
6300262200.0 0.2154511431 0.9746573336
6350261900.0 0.228474251 0.9717169477
6400261600.0 0.2423381748 0.9684686168
6450261300.0 0.253947246 0.9658438965
6500261000.0 0.2666193043 0.9623148801
6550260700.0 0.2795343033 0.9582793462
6600260400.0 0.2928870445 0.9542838462
6650260100.0 0.3068296678 0.9500449089
6700259800.0 0.3187981023 0.9457379834
6750259500.0 0.3324429708 0.9410688836
6800259200.0 0.3457594557 0.9362448173
6850258900.0 0.3574736778 0.9307952071
6900258600.0 0.3695964021 0.9259172859
6950258300.0 0.3821424704 0.9207109192
7000258000.0 0.3941310266 0.9153658213
7050257700.0 0.4064302154 0.9094158297
7100257400.0 0.4193647657 0.9031227454
7150257100.0 0.4294213612 0.8981888601
7200256800.0 0.4423365305 0.8915666773
7250256500.0 0.4540235904 0.8852811032
7300256200.0 0.4670165919 0.8788962428
7350255900.0 0.4792597657 0.8717252212
7400255600.0 0.4918939529 0.8644820635
7450255300.0 0.5068611597 0.8558967444
7500255000.0 0.5185982884 0.8486581112
7550254700.0 0.531970517 0.8401590234
7600254400.0 0.5454045105 0.8319619844
7650254100.0 0.5565813994 0.8242733531
7700253800.0 0.5687408334 0.8160561403
7750253500.0 0.5797361184 0.8078830695
7800253200.0 0.5905156259 0.8001599802
7850252900.0 0.6003520254 0.7930594401
7900252600.0 0.6121384952 0.7841768347
7950252300.0 0.6210643401 0.777586718
8000252000.0 0.6314722958 0.7696291044
8050251700.0 0.6420804341 0.76136052
8100251400.0 0.6521187993 0.7530950469
8150251100.0 0.6618511053 0.7443533001
8200250800.0 0.6717426567 0.7360978898
8250250500.0 0.6806129916 0.7283362974
8300250200.0 0.689927914 0.7193718979
8350249900.0 0.6991850006 0.7106630062
8400249600.0 0.7077829242 0.7025912484
8450249300.0 0.7169810249 0.6933809868
8500249000.0 0.7253466804 0.6843834533
8550248700.0 0.7339653601 0.6754694308
8600248400.0 0.742148586 0.6658855233
8650248100.0 0.7499566045 0.6563988892
8700247800.0 0.7595236949 0.645381418
8750247500.0 0.7677115055 0.6354141744
8800247200.0 0.775625565 0.6252813185
8850246900.0 0.7844108606 0.6139319333
8900246600.0 0.7930699042 0.6027413902
8950246300.0 0.8021361101 0.5900887403
9000246000.0 0.8114562617 0.5777393518
9050245700.0 0.8203476827 0.5646526015
9100245400.0 0.8287930237 0.5522806706
9150245100.0 0.8379366894 0.5389528781
9200244800.0 0.8470498184 0.5241550273
9250244500.0 0.8567135218 0.5086549243
9300244200.0 0.8649369172 0.4946550638
9350243900.0 0.8727485043 0.480437821
9400243600.0 0.87963835 0.4678427988
9450243300.0 0.8855062818 0.455783745
9500243000.0 0.892104012 0.4432244792
9550242700.0 0.8962559559 0.4347182943
9600242400.0 0.9002257165 0.4266937835
9650242100.0 0.9038194132 0.4197686184
9700241800.0 0.9088477706 0.4111448535
9750241500.0 0.9125334704 0.403329702
9800241200.0 0.9168699552 0.3939657704
9850240900.0 0.9228232702 0.3821239115
9900240600.0 0.9278693084 0.3710083169
9950240300.0 0.9348211909 0.3546054601
10000240000.0 0.9390409279 0.3430117852
10050239700.0 0.9449596339 0.3279067968
10100239400.0 0.9498072051 0.312848434
10150239100.0 0.9539611287 0.2982570759
10200238800.0 0.958365716 0.2833303273
10250238500.0 0.9617265075 0.2700665901
10300238200.0 0.9648108822 0.256175011
10350237900.0 0.9675581722 0.2429115618
10400237600.0 0.9700567455 0.2301808015
10450237300.0 0.9726718754 0.2168649191
10500237000.0 0.9749370125 0.2047228616
10550236700.0 0.9775667514 0.1906898341
10600236400.0 0.9793608695 0.1775370436
10650236100.0 0.981676629 0.1621887915
10700235800.0 0.9838279778 0.1506134858
10750235500.0 0.9858144538 0.1377042672
10800235200.0 0.9878158611 0.123613535
10850234900.0 0.9895604658 0.109233763
10900234600.0 0.99193833 0.0947321057
10950234300.0 0.9933439223 0.0814501448
11000234000.0 0.9951079011 0.0667314347
11050233700.0 0.9967027244 0.0505703846
11100233400.0 0.9979483742 0.0334534211
11150233100.0 0.9989775768 0.017018772
11200232800.0 0.9998741652 0.0023734669
11250232500.0 1.000854015 -0.0137654477
11300232200.0 1.001176608 -0.0318301891
11350231900.0 1.001165618 -0.0471707575
11400231600.0 1.00039493 -0.0635029559
11450231300.0 1.000304227 -0.0784414728
11500231000.0 0.9991545025 -0.0950499877
11550230700.0 0.9977609784 -0.1089118202
11600230400.0 0.9958363457 -0.1218969376
11650230100.0 0.9935263844 -0.1338299636
11700229800.0 0.991575576 -0.1488270996
11750229500.0 0.9897594208 -0.1640950175
11800229200.0 0.987048849 -0.1774858757
11850228900.0 0.9834515223 -0.1902739566
11900228600.0 0.9798759604 -0.2005535096
11950228300.0 0.9767979787 -0.2112461307
12000228000.0 0.9740016038 -0.2208336429
12050227700.0 0.9703815567 -0.2334002534
12100227400.0 0.9671389427 -0.2444662353
12150227100.0 0.9622982367 -0.2610716697
12200226800.0 0.9591518953 -0.2713205009
12250226500.0 0.955290885 -0.2839829741
12300226200.0 0.9506217344 -0.2967768165
12350225900.0 0.9456445108 -0.3100093739
12400225600.0 0.9416768763 -0.3235038627
12450225300.0 0.9374678873 -0.3351167535
12500225000.0 0.9321065838 -0.3496851718
12550224700.0 0.9267355965 -0.3631214654
12600224400.0 0.9220130553 -0.3758175865
12650224100.0 0.9161134369 -0.3899829484
12700223800.0 0.9110025718 -0.4024705661
12750223500.0 0.9056250574 -0.4152134596
12800223200.0 0.9004736049 -0.4277256545
12850222900.0 0.8947889069 -0.4403869246
12900222600.0 0.8890599993 -0.4519399615
12950222300.0 0.8827211968 -0.4649445953
13000222000.0 0.8767863754 -0.475833905
13050221700.0 0.8697796207 -0.4901451405
13100221400.0 0.8632052462 -0.5012611325
13150221100.0 0.8559748736 -0.5137040491
13200220800.0 0.8487156947 -0.5255003023
13250220500.0 0.8412175021 -0.5378582064
13300220200.0 0.8338043288 -0.5489586088
13350219900.0 0.8256770256 -0.5611325581
13400219600.0 0.8173347378 -0.573118511
13450219300.0 0.807491082 -0.5870002936
13500219000.0 0.7973398631 -0.6008109428
13550218700.0 0.7871203373 -0.6135497222
13600218400.0 0.7763818272 -0.6259779597
13650218100.0 0.7674312347 -0.6367532941
13700217800.0 0.7568322637 -0.6492843851
13750217500.0 0.7466934384 -0.6605627364
13800217200.0 0.7347049998 -0.6727861373
13850216900.0 0.7245673502 -0.6837220318
13900216600.0 0.7146137378 -0.6928247043
13950216300.0 0.703195264 -0.7035202907
14000216000.0 0.6939726365 -0.7121326829
14050215700.0 0.6839624442 -0.7208671001
14100215400.0 0.6741789076 -0.7300138204
14150215100.0 0.664989545 -0.7379867402
14200214800.0 0.6560903399 -0.7466383142
14250214500.0 0.6458597657 -0.7557090481
14300214200.0 0.6355740224 -0.7649585726
14350213900.0 0.6246148233 -0.7743253063
14400213600.0 0.6132691581 -0.7839564818
14450213300.0 0.6003205031 -0.793911021
14500213000.0 0.5878291074 -0.8030737546
14550212700.0 0.5746459063 -0.813129811
14600212400.0 0.5623861792 -0.8214721293
14650212100.0 0.5497166387 -0.8299646369
14700211800.0 0.5357692856 -0.8395844816
14750211500.0 0.523651984 -0.8480790904
14800211200.0 0.5113916842 -0.8558586017
14850210900.0 0.49915362 -0.8632250699
14900210600.0 0.4855903905 -0.8711851145
14950210300.0 0.4718954939 -0.8787120274
15000210000.0 0.4591022069 -0.8856672822
15050209700.0 0.4467000328 -0.8918646173
15100209400.0 0.4334908655 -0.8979473581
15150209100.0 0.4212334968 -0.9037493007
15200208800.0 0.4073358053 -0.9091150073
15250208500.0 0.3962414014 -0.914087598
15300208200.0 0.3842164781 -0.9191709378
15350207900.0 0.3702514477 -0.9234870061
15400207600.0 0.3552077942 -0.9293435679
15450207300.0 0.3408871403 -0.9340756322
15500207000.0 0.3265586786 -0.9385383942
15550206700.0 0.3113977254 -0.9432241413
15600206400.0 0.2960120816 -0.9479098476
15650206100.0 0.2799560164 -0.9525007703
15700205800.0 0.2661350483 -0.9561474337
15750205500.0 0.2515367457 -0.9595464237
15800205200.0 0.2373581304 -0.9630274777
15850204900.0 0.2232040672 -0.9663978328
15900204600.0 0.2083032787 -0.9699233642
15950204300.0 0.1946594527 -0.972796228
16000204000.0 0.180405844 -0.9756061075
16050203700.0 0.1661918601 -0.9785897594
16100203400.0 0.1519463611 -0.9804702196
16150203100.0 0.1382031983 -0.9831441958
16200202800.0 0.1236343206 -0.9850212535
16250202500.0 0.1086925628 -0.9862485788
16300202200.0 0.0941323358 -0.9880861307
16350201900.0 0.079356179 -0.9888926792
16400201600.0 0.0644818304 -0.9905724508
16450201300.0 0.0495034781 -0.9912710294
16500201000.0 0.0330592489 -0.9920596606
16550200700.0 0.0175282242 -0.9927323181
16600200400.0 0.001706376 -0.9927613452
16650200100.0 -0.0146506834 -0.9926096332
16700199800.0 -0.0314363047 -0.992637637
16750199500.0 -0.0503951516 -0.9915080655
16800199200.0 -0.0662869211 -0.9902069275
16850198900.0 -0.0812241064 -0.9895736494
16900198600.0 -0.0961058777 -0.9881990475
16950198300.0 -0.1089092856 -0.9877421896
17000198000.0 -0.1224240704 -0.9855240204
17050197700.0 -0.1351085039 -0.9842881132
17100197400.0 -0.1486658737 -0.9820390897
17150197100.0 -0.161690578 -0.9804746576
17200196800.0 -0.1746067629 -0.9775554695
17250196500.0 -0.1873593487 -0.9752322995
17300196200.0 -0.1998387859 -0.9727943422
17350195900.0 -0.211854324 -0.9705848486
17400195600.0 -0.2240524164 -0.9680755387
17450195300.0 -0.2372067754 -0.9651209432
17500195000.0 -0.2505986335 -0.9618980782
17550194700.0 -0.2642271255 -0.9583199162
17600194400.0 -0.2782610561 -0.9543632255
17650194100.0 -0.2919896842 -0.9497174691
17700193800.0 -0.3047454037 -0.9457412262
17750193500.0 -0.3190833791 -0.9413460052
17800193200.0 -0.333546633 -0.9361288012
17850192900.0 -0.347863284 -0.9308995075
17900192600.0 -0.363046206 -0.9247762292
17950192300.0 -0.3780301536 -0.9178598316
18000192000.0 -0.3927717269 -0.9111240469
18050191700.0 -0.4062891423 -0.9031485301
18100191400.0 -0.4204368759 -0.895597226
18150191100.0 -0.4351537395 -0.8875605863
18200190800.0 -0.4517230253 -0.8786695442
18250190500.0 -0.4686480237 -0.8693070594
18300190200.0 -0.4840318978 -0.8606744875
18350189900.0 -0.49886793 -0.8523517843
18400189600.0 -0.5130909089 -0.8437853036
18450189300.0 -0.526481922 -0.835746185
18500189000.0 -0.5396986927 -0.8280580249
18550188700.0 -0.5528185895 -0.8201691944
18600188400.0 -0.5645007336 -0.8126645165
18650188100.0 -0.5763510523 -0.8059394958
18700187800.0 -0.5871321858 -0.7992051931
18750187500.0 -0.598048571 -0.7922880789
18800187200.0 -0.6089703618 -0.7851063977
18850186900.0 -0.6194076522 -0.7776952131
18900186600.0 -0.6299886692 -0.7699132114
18950186300.0 -0.6405717812 -0.7615984512
19000186000.0 -0.6483197943 -0.7550390987
19050185700.0 -0.6579595153 -0.7476023419
19100185400.0 -0.6676611566 -0.7396250839
19150185100.0 -0.677826295 -0.7306818138
19200184800.0 -0.6879812548 -0.7220208636
19250184500.0 -0.6984642605 -0.7123520475
19300184200.0 -0.7089400884 -0.7031615064
19350183900.0 -0.7201352247 -0.6940073559
19400183600.0 -0.729699466 -0.6835768093
19450183300.0 -0.7384487425 -0.6730672748
19500183000.0 -0.7460446861 -0.6632190917
19550182700.0 -0.7562814047 -0.6521453299
19600182400.0 -0.7662674364 -0.6409776942
19650182100.0 -0.7765090634 -0.6289107739
19700181800.0 -0.7872520098 -0.6158894265
19750181500.0 -0.7972063399 -0.6024399791
19800181200.0 -0.8073172552 -0.5877673118
19850180900.0 -0.8166000538 -0.5730477494
19900180600.0 -0.8243983272 -0.5588091112
19950180300.0 -0.8334652485 -0.5432847132
20000180000.0 -0.8277799255 -0.5438341808
20050179700.0 -0.8361090199 -0.5309939708
20100179400.0 -0.8439762015 -0.5178041689
20150179100.0 -0.8524527981 -0.5047568517
20200178800.0 -0.8608186613 -0.4927002338
20250178500.0 -0.8696850032 -0.4791515301
20300178200.0 -0.8792646531 -0.4643155989
20350177900.0 -0.8878275448 -0.450286002
20400177600.0 -0.8965933124 -0.4361085109
20450177300.0 -0.9042245914 -0.4218122581
20500177000.0 -0.9120962754 -0.407898692
20550176700.0 -0.919679661 -0.3941398747
20600176400.0 -0.9269919802 -0.3807339994
20650176100.0 -0.9332454103 -0.3685082755
20700175800.0 -0.9401324697 -0.3559089391
20750175500.0 -0.9474734535 -0.3439048078
20800175200.0 -0.9515274552 -0.3321912663
20850174900.0 -0.9564647919 -0.3204867504
20900174600.0 -0.9614822351 -0.309145128
20950174300.0 -0.964980576 -0.2979494558
21000174000.0 -0.9691511201 -0.2855425902
21050173700.0 -0.9721636146 -0.2738624883
21100173400.0 -0.9769675883 -0.2619286637
21150173100.0 -0.9801208805 -0.2491184549
21200172800.0 -0.9840244157 -0.2355260152
21250172500.0 -0.9868925345 -0.221596138
21300172200.0 -0.9899612025 -0.2073632897
21350171900.0 -0.9917585116 -0.1932871207
21400171600.0 -0.9929307665 -0.179306034
21450171300.0 -0.9935562538 -0.1643027792
21500171000.0 -0.9927258952 -0.1485586117
21550170700.0 -0.9928172486 -0.1342124899
21600170400.0 -0.9935269966 -0.1183855979
21650170100.0 -0.9932809431 -0.1025268421
21700169800.0 -0.9909944967 -0.0883438767
21750169500.0 -0.9904293192 -0.0726326137
21800169200.0 -0.988051408 -0.0562944274
21850168900.0 -0.9872143454 -0.0405410142
21900168600.0 -0.9864854345 -0.0238457142
21950168300.0 -0.9849621047 -0.0084654093
22000168000.0 -0.983226891 0.0067645565
22050167700.0 -0.98322829 0.0207048138
22100167400.0 -0.9829044674 0.035541133
22150167100.0 -0.9831603611 0.0505677448
22200166800.0 -0.9839889011 0.0666407878
22250166500.0 -0.9830505925 0.0835913168
22300166200.0 -0.9820975907 0.1002739388
22350165900.0 -0.9801386856 0.1160690325
22400165600.0 -0.9793508759 0.132203656
22450165300.0 -0.9768344535 0.1465302413
22500165000.0 -0.9749447945 0.1603931089
22550164700.0 -0.9738761414 0.1763039864
22600164400.0 -0.9721174738 0.1902281193
22650164100.0 -0.9702238477 0.2056543974
22700163800.0 -0.9676228683 0.222092294
22750163500.0 -0.9647659311 0.2368788693
22800163200.0 -0.96195468 0.2500710105
22850162900.0 -0.9593571534 0.2634030537
22900162600.0 -0.9580840389 0.277203797
22950162300.0 -0.9565198939 0.2899364632
23000162000.0 -0.9554714979 0.3019833638
23050161700.0 -0.9532621074 0.3149666297
23100161400.0 -0.9508464003 0.327304169
23150161100.0 -0.9485302755 0.33951183
23200160800.0 -0.9445468013 0.3523775234
23250160500.0 -0.9424660256 0.3636076245
23300160200.0 -0.9400120475 0.3756167136
23350159900.0 -0.9361873294 0.3888502505
23400159600.0 -0.9314861726 0.4011416463
23450159300.0 -0.9271440089 0.414042613
23500159000.0 -0.9221137371 0.4274588836
23550158700.0 -0.9176305626 0.4401865689
23600158400.0 -0.9119910871 0.4529205116
23650158100.0 -0.9060636781 0.4665802823
23700157800.0 -0.8986948604 0.4801686367
23750157500.0 -0.8899208581 0.4939883107
23800157200.0 -0.8811877646 0.5071248226
23850156900.0 -0.872444333 0.5199951453
23900156600.0 -0.86337074 0.5324941012
23950156300.0 -0.8545192653 0.5442635382
24000156000.0 -0.8461990181 0.5569027242
24050155700.0 -0.8350019815 0.5672378998
24100155400.0 -0.8252493171 0.5799049871
24150155100.0 -0.8144140269 0.5920969552
24200154800.0 -0.8037279351 0.6032191288
24250154500.0 -0.7929105473 0.615024896
24300154200.0 -0.7812629558 0.6265427301
24350153900.0 -0.7694604797 0.6375751172
24400153600.0 -0.7575335998 0.6477893641
24450153300.0 -0.7458296108 0.658233361
24500153000.0 -0.7347710422 0.6679479852
24550152700.0 -0.7233374304 0.6781714174
24600152400.0 -0.711882645 0.687588422
24650152100.0 -0.7005423426 0.6964757862
