!Created with skrf (http://scikit-rf.org).
# Hz S RI R 50.0 
!freq ReS11 ImS11
300000.0 -0.9736584489 -0.1237664861
50299700.0 -0.9998566809 0.0147988872
100299400.0 -0.9980500501 0.0279163341
150299100.0 -1.002846339 0.0446664233
200298800.0 -0.9995605337 0.0580203194
250298500.0 -0.9974375341 0.0714032682
300298200.0 -0.9857666752 0.087355076
350297900.0 -0.9939991226 0.0983046215
400297600.0 -0.9929452718 0.1148394914
450297300.0 -0.9910812006 0.1286516351
500297000.0 -0.9893317914 0.1432986887
550296700.0 -0.9842701844 0.1559291284
600296400.0 -1.017098652 0.189064314
650296100.0 -0.9822482854 0.1857241939
700295800.0 -0.9791954594 0.2001539871
750295500.0 -0.9763552276 0.2139482134
800295200.0 -0.9727511767 0.2280679908
850294900.0 -0.969607926 0.2417812481
900294600.0 -0.9659088197 0.2554917746
950294300.0 -0.9620639402 0.2694038294
1000294000.0 -0.9582011902 0.2831065727
1050293700.0 -0.9534925738 0.2970122492
1100293400.0 -0.9491861835 0.3113278674
1150293100.0 -0.9454429507 0.3232889927
1200292800.0 -0.9402063951 0.3377705573
1250292500.0 -0.9346667605 0.3511232732
1300292200.0 -0.9291068729 0.3644052885
1350291900.0 -0.9236264706 0.3784921875
1400291600.0 -0.9179696687 0.3915464346
1450291300.0 -0.912570768 0.4039505984
1500291000.0 -0.9061866764 0.4173171702
1550290700.0 -0.8996388843 0.4305404331
1600290400.0 -0.8934099997 0.4437103737
1650290100.0 -0.8867380056 0.4557484682
1700289800.0 -0.8797869162 0.4692747817
1750289500.0 -0.8728538126 0.4814503269
1800289200.0 -0.8655402638 0.4944380639
1850288900.0 -0.8587258959 0.5058151982
1900288600.0 -0.851015826 0.5186089204
1950288300.0 -0.8429445656 0.5313314697
2000288000.0 -0.8354222335 0.5426643246
2050287700.0 -0.8271969836 0.5552274447
2100287400.0 -0.8194216015 0.5664959863
2150287100.0 -0.8107755497 0.5785507674
2200286800.0 -0.8029091333 0.5893093553
2250286500.0 -0.7939598543 0.6014473692
2300286200.0 -0.7850605491 0.6129130901
2350285900.0 -0.7768235457 0.6234696717
2400285600.0 -0.7678738915 0.6342234523
2450285300.0 -0.7592196981 0.64505754
2500285000.0 -0.7491871061 0.6567828438
2550284700.0 -0.7401293712 0.6669220956
2600284400.0 -0.7310228849 0.6767764263
2650284100.0 -0.7223422658 0.6873093134
2700283800.0 -0.7119741614 0.6976595425
2750283500.0 -0.7014345746 0.7079631947
2800283200.0 -0.6915649973 0.7179151827
2850282900.0 -0.6811422612 0.7281388962
2900282600.0 -0.6706615921 0.7378414176
2950282300.0 -0.6601784065 0.7475025714
3000282000.0 -0.6495459869 0.7566232713
3050281700.0 -0.6383767539 0.7658628525
3100281400.0 -0.6268590173 0.7749966352
3150281100.0 -0.615554009 0.7840526125
3200280800.0 -0.6041786216 0.7923014197
3250280500.0 -0.5929831592 0.8002377602
3300280200.0 -0.5813802724 0.8084970107
3350279900.0 -0.5691482602 0.8166254992
3400279600.0 -0.5565650967 0.8244936262
3450279300.0 -0.5454338854 0.8317328826
3500279000.0 -0.5339734156 0.8386309104
3550278700.0 -0.5218741492 0.8458751539
3600278400.0 -0.5099502699 0.8522867431
3650278100.0 -0.4968176636 0.8600974178
3700277800.0 -0.484539755 0.8664973984
3750277500.0 -0.4721946113 0.8731443261
3800277200.0 -0.459827929 0.8796456992
3850276900.0 -0.4477578552 0.8855547278
3900276600.0 -0.4367177521 0.8913360073
3950276300.0 -0.424791407 0.8970027568
4000276000.0 -0.4131352214 0.903155449
4050275700.0 -0.4004718551 0.9090781594
4100275400.0 -0.3896400516 0.9146586802
4150275100.0 -0.376081606 0.9205748996
4200274800.0 -0.3627427727 0.9260562211
4250274500.0 -0.3500494873 0.9315427968
4300274200.0 -0.3365860834 0.9369459029
4350273900.0 -0.3224999113 0.9421626703
4400273600.0 -0.3077178276 0.9471702818
4450273300.0 -0.2927598853 0.9523704062
4500273000.0 -0.2796442521 0.9565523431
4550272700.0 -0.2659838335 0.9605488409
4600272400.0 -0.2509571795 0.9647630094
4650272100.0 -0.2396610731 0.9677223375
4700271800.0 -0.2266908424 0.9712630986
4750271500.0 -0.2151683562 0.9738554303
4800271200.0 -0.2030474713 0.9766722092
4850270900.0 -0.1892085658 0.9794640264
4900270600.0 -0.1753849819 0.9819130735
4950270300.0 -0.160887024 0.9845005118
5000270000.0 -0.1464155896 0.9868076986
5050269700.0 -0.1328588673 0.9883198144
5100269400.0 -0.1186992294 0.9896371025
5150269100.0 -0.1045806335 0.9914512639
5200268800.0 -0.091280502 0.9927341448
5250268500.0 -0.0782283317 0.9936805562
5300268200.0 -0.0644676775 0.9947037343
5350267900.0 -0.0517493049 0.9953811442
5400267600.0 -0.0357636245 0.9960413499
5450267300.0 -0.0222160337 0.9966581924
5500267000.0 -0.0066109522 0.9969298543
5550266700.0 0.0081918987 0.9970288444
5600266400.0 0.0240066715 0.9970938311
5650266100.0 0.0407796594 0.9967130327
5700265800.0 0.054844947 0.9958988382
5750265500.0 0.0698888987 0.9952010541
5800265200.0 0.0831882158 0.9944481757
5850264900.0 0.0965032707 0.9936146043
5900264600.0 0.1131404719 0.9914298537
5950264300.0 0.1245219267 0.9899139708
6000264000.0 0.1379207118 0.9880552874
6050263700.0 0.1497155482 0.9867984193
6100263400.0 0.1618229749 0.9850851571
6150263100.0 0.1766199136 0.9827450604
6200262800.0 0.1860869945 0.9810960177
6250262500.0 0.1987391333 0.9785769471
6300262200.0 0.2109085134 0.9763443847
6350261900.0 0.2238243326 0.9735511969
6400261600.0 0.237523109 0.9702456739
6450261300.0 0.2487384244 0.9677735762
6500261000.0 0.2619075221 0.9638746661
6550260700.0 0.275196392 0.9602064489
6600260400.0 0.2887405598 0.956247935
6650260100.0 0.3025648177 0.9517173683
6700259800.0 0.3149771952 0.9473608966
6750259500.0 0.3287296392 0.9424070421
6800259200.0 0.3422327735 0.9372340536
6850258900.0 0.3546414072 0.9320392396
6900258600.0 0.3672878518 0.926737738
6950258300.0 0.3795263106 0.9213797587
7000258000.0 0.3912567628 0.9161831937
7050257700.0 0.4032715591 0.910502262
7100257400.0 0.4164447207 0.9038609455
7150257100.0 0.4272660112 0.8985163311
7200256800.0 0.4404501679 0.8919686796
7250256500.0 0.4528363631 0.8855096864
7300256200.0 0.4661676181 0.8787090079
7350255900.0 0.4787666702 0.8717356192
7400255600.0 0.493035909 0.8643207368
7450255300.0 0.5086166671 0.8551338727
7500255000.0 0.5211490044 0.8473203077
7550254700.0 0.535645948 0.8382404472
7600254400.0 0.5474465728 0.8297782615
7650254100.0 0.5593315168 0.821927052
7700253800.0 0.571158615 0.8138142942
7750253500.0 0.5821472603 0.806380312
7800253200.0 0.592325246 0.7985038988
7850252900.0 0.602367243 0.7911476745
7900252600.0 0.613885323 0.7825144864
7950252300.0 0.6222429746 0.7761806793
8000252000.0 0.6321230986 0.7685332486
8050251700.0 0.6425978241 0.7604434962
8100251400.0 0.6525672211 0.752553204
8150251100.0 0.6624586762 0.7442207146
8200250800.0 0.6719295697 0.7358147542
8250250500.0 0.6806867872 0.7278643908
8300250200.0 0.6892868953 0.7196082616
8350249900.0 0.6991835813 0.7106751516
8400249600.0 0.7073974996 0.7030220645
8450249300.0 0.7158800178 0.6941057197
8500249000.0 0.7243761047 0.685336243
8550248700.0 0.7325780925 0.6763779113
8600248400.0 0.7409552637 0.6667303356
8650248100.0 0.7486927787 0.6572802898
8700247800.0 0.758157173 0.6463271362
8750247500.0 0.7661491894 0.6363029573
8800247200.0 0.7741055846 0.6260984319
8850246900.0 0.7827327395 0.6145891563
8900246600.0 0.7911585489 0.6033764357
8950246300.0 0.8005618541 0.5904312747
9000246000.0 0.8094072302 0.5786493048
9050245700.0 0.817362872 0.5662711759
9100245400.0 0.8261403096 0.5539295826
9150245100.0 0.8348423024 0.5410843409
9200244800.0 0.84432985 0.5267101119
9250244500.0 0.8531886048 0.5120976329
9300244200.0 0.8613966148 0.4985626939
9350243900.0 0.8691150459 0.4853357807
9400243600.0 0.8754385549 0.4737669874
9450243300.0 0.8811066167 0.4632870275
9500243000.0 0.8873945269 0.4516170408
9550242700.0 0.8913738919 0.4442750319
9600242400.0 0.8956292227 0.4365858127
9650242100.0 0.8995700414 0.429919734
9700241800.0 0.9046129796 0.4209783979
9750241500.0 0.9087496626 0.4134550314
9800241200.0 0.9140846019 0.4039079057
9850240900.0 0.9199578665 0.3922624473
9900240600.0 0.9258607248 0.3803304175
9950240300.0 0.9330134024 0.363384534
10000240000.0 0.9375119037 0.3516254593
10050239700.0 0.9438853508 0.3355643263
10100239400.0 0.9494070165 0.3186589924
10150239100.0 0.9537792661 0.3032387548
10200238800.0 0.9584146685 0.2878019158
10250238500.0 0.9613979017 0.2741671794
10300238200.0 0.9647375916 0.2602752366
10350237900.0 0.9675243175 0.2469424107
10400237600.0 0.970042082 0.2336283838
10450237300.0 0.9729094812 0.219775624
10500237000.0 0.9753120731 0.2072642839
10550236700.0 0.9777164239 0.1928568883
10600236400.0 0.9795681771 0.1792470666
10650236100.0 0.9814926717 0.164790426
10700235800.0 0.9838692631 0.1524419045
10750235500.0 0.9860639367 0.1387913985
10800235200.0 0.987816151 0.1247433447
10850234900.0 0.989898339 0.1094390573
10900234600.0 0.9922306587 0.0944244117
10950234300.0 0.9938875022 0.0811655645
11000234000.0 0.9954523589 0.0655525821
11050233700.0 0.9974249446 0.0487948022
11100233400.0 0.9989593897 0.0309383333
11150233100.0 0.9999847943 0.0144078521
11200232800.0 1.000882355 -0.0015080619
11250232500.0 1.002038723 -0.0201321959
11300232200.0 1.001837391 -0.0377770671
11350231900.0 1.001982109 -0.0546821607
11400231600.0 1.001603253 -0.0697297705
11450231300.0 1.001156759 -0.0860384538
11500231000.0 0.9999236291 -0.1028891357
11550230700.0 0.9985378902 -0.1149135272
11600230400.0 0.997095196 -0.1272850261
11650230100.0 0.994814717 -0.1403963309
11700229800.0 0.992494654 -0.1550341517
11750229500.0 0.9901405915 -0.1692596208
11800229200.0 0.9874297396 -0.1822780314
11850228900.0 0.9835398463 -0.194151124
11900228600.0 0.9796127845 -0.2034300635
11950228300.0 0.9761701784 -0.2133332632
12000228000.0 0.9738242552 -0.2221625475
12050227700.0 0.9696887023 -0.2349178068
12100227400.0 0.9661995595 -0.2458265344
12150227100.0 0.9616246873 -0.262843872
12200226800.0 0.9579733295 -0.2734999745
12250226500.0 0.9536282739 -0.2869837002
12300226200.0 0.9495326656 -0.2984621246
12350225900.0 0.9449395191 -0.3119723944
12400225600.0 0.9400422226 -0.3249300881
12450225300.0 0.9362700225 -0.337059773
12500225000.0 0.9301171394 -0.351963656
12550224700.0 0.9248422794 -0.3656509241
12600224400.0 0.9198381244 -0.3784260884
12650224100.0 0.9140399001 -0.3926702788
12700223800.0 0.908762751 -0.4056513721
12750223500.0 0.9030886367 -0.4190178533
12800223200.0 0.898151916 -0.4312985521
12850222900.0 0.8928317549 -0.4430379151
12900222600.0 0.8872472044 -0.4552036686
12950222300.0 0.8808093606 -0.4681282853
13000222000.0 0.8748867003 -0.4794617183
13050221700.0 0.8680209922 -0.4923079339
13100221400.0 0.8614890416 -0.5042217233
13150221100.0 0.8544927636 -0.5164582433
13200220800.0 0.847421044 -0.5285155421
13250220500.0 0.8399188137 -0.540405558
13300220200.0 0.8326224238 -0.5514435875
13350219900.0 0.8244603761 -0.5633935832
13400219600.0 0.8161652573 -0.575234501
13450219300.0 0.807179101 -0.5882577853
13500219000.0 0.7967139442 -0.601602653
13550218700.0 0.7874423545 -0.6139242555
13600218400.0 0.7773291202 -0.6257976036
13650218100.0 0.7683628114 -0.6364129769
13700217800.0 0.7566071566 -0.6490743301
13750217500.0 0.7465126439 -0.6591702817
13800217200.0 0.7372266382 -0.670280681
13850216900.0 0.7254870511 -0.6814124968
13900216600.0 0.7156959848 -0.6901691585
13950216300.0 0.7052175929 -0.7000353736
14000216000.0 0.6950477658 -0.7094321291
14050215700.0 0.6862177872 -0.7172719251
14100215400.0 0.6768256473 -0.7265820871
14150215100.0 0.6677714934 -0.7351309597
14200214800.0 0.6581884497 -0.7439275308
14250214500.0 0.6477179121 -0.7534111143
14300214200.0 0.6371016416 -0.7627341889
14350213900.0 0.6258222508 -0.7723787637
14400213600.0 0.6145136189 -0.7822751566
14450213300.0 0.6014543434 -0.7926467259
14500213000.0 0.5884143252 -0.8023652985
14550212700.0 0.5757201747 -0.8117075216
14600212400.0 0.5637908986 -0.8203266178
14650212100.0 0.5507887576 -0.8291006262
14700211800.0 0.5372136152 -0.8387217828
14750211500.0 0.5247535454 -0.8472517287
14800211200.0 0.5124479185 -0.8556714392
14850210900.0 0.4999117239 -0.863064564
14900210600.0 0.486513454 -0.8709945842
14950210300.0 0.4733051459 -0.8786230493
15000210000.0 0.460564544 -0.8852679084
15050209700.0 0.4484087578 -0.8916372236
15100209400.0 0.4356892107 -0.8972442493
15150209100.0 0.4234010531 -0.9024360162
15200208800.0 0.4113377538 -0.908250178
15250208500.0 0.3994209079 -0.9128197198
15300208200.0 0.3876645516 -0.9171679355
15350207900.0 0.3742956079 -0.9217576744
15400207600.0 0.359577056 -0.927295096
15450207300.0 0.3448642009 -0.9326703433
15500207000.0 0.3311131798 -0.9369588612
15550206700.0 0.3156877958 -0.9420773293
15600206400.0 0.2994443874 -0.9465960871
15650206100.0 0.2836666188 -0.950683927
15700205800.0 0.2703698614 -0.9542485541
15750205500.0 0.2563781634 -0.9576290851
15800205200.0 0.2423457605 -0.961074947
15850204900.0 0.2282733074 -0.9647071016
15900204600.0 0.2130783089 -0.9682903508
15950204300.0 0.1986735346 -0.9715729313
16000204000.0 0.1842380187 -0.9747024051
16050203700.0 0.1690540402 -0.9775203392
16100203400.0 0.1540574685 -0.9795867566
16150203100.0 0.1394963918 -0.9825546214
16200202800.0 0.124948635 -0.9841283779
16250202500.0 0.1103501216 -0.9858654923
16300202200.0 0.0950004724 -0.9872340946
16350201900.0 0.0803099342 -0.9888929237
16400201600.0 0.0652340539 -0.9900943687
16450201300.0 0.049843791 -0.991128284
16500201000.0 0.0326243765 -0.9921334825
16550200700.0 0.0166361908 -0.9924660189
16600200400.0 0.0007306986 -0.9926559328
16650200100.0 -0.0153623804 -0.9925668819
16700199800.0 -0.0318376541 -0.9918062552
16750199500.0 -0.05066446 -0.9915985231
16800199200.0 -0.0674090297 -0.9906157295
16850198900.0 -0.0822986445 -0.9894866133
16900198600.0 -0.096981224 -0.9886513862
16950198300.0 -0.1100430374 -0.9873930788
17000198000.0 -0.123778232 -0.9856476839
17050197700.0 -0.1363546242 -0.983544029
17100197400.0 -0.1492048164 -0.9822265027
17150197100.0 -0.1618460066 -0.9801717389
17200196800.0 -0.1741870244 -0.9775717671
17250196500.0 -0.1872523798 -0.9754178078
17300196200.0 -0.1994672728 -0.9731427985
17350195900.0 -0.2112041291 -0.9706899301
17400195600.0 -0.2231832666 -0.9681390886
17450195300.0 -0.2359929591 -0.9654568258
17500195000.0 -0.2493943927 -0.9618662123
17550194700.0 -0.2633095978 -0.9583109533
17600194400.0 -0.2770104893 -0.9543403692
17650194100.0 -0.2903685483 -0.9505180685
17700193800.0 -0.3032787807 -0.9466916758
17750193500.0 -0.31785893 -0.9414811899
17800193200.0 -0.3320378441 -0.9366392122
17850192900.0 -0.34665868 -0.931402809
17900192600.0 -0.3619474171 -0.9251357509
17950192300.0 -0.3772333707 -0.9177932201
18000192000.0 -0.3922817071 -0.9105524846
18050191700.0 -0.4060393454 -0.9026412207
18100191400.0 -0.4200896068 -0.8948512733
18150191100.0 -0.4349599376 -0.8869475159
18200190800.0 -0.4518085229 -0.8777776944
18250190500.0 -0.4686750713 -0.8682447664
18300190200.0 -0.4843068604 -0.8593200514
18350189900.0 -0.4992432755 -0.850962931
18400189600.0 -0.5139026597 -0.8421429761
18450189300.0 -0.5274763529 -0.8345801312
18500189000.0 -0.5402093176 -0.8267345518
18550188700.0 -0.5535554094 -0.8191404635
18600188400.0 -0.5655674958 -0.8120092286
18650188100.0 -0.5765911501 -0.8058070792
18700187800.0 -0.5877651641 -0.79873609
18750187500.0 -0.5987164861 -0.7922282131
18800187200.0 -0.6092446729 -0.7853029722
18850186900.0 -0.6195910877 -0.77821391
18900186600.0 -0.6299269782 -0.7707959087
18950186300.0 -0.6399669056 -0.7630387706
19000186000.0 -0.6477842732 -0.7569108014
19050185700.0 -0.6571301695 -0.7495866086
19100185400.0 -0.6666849436 -0.7410458782
19150185100.0 -0.677296938 -0.7334454016
19200184800.0 -0.6863513014 -0.7249841483
19250184500.0 -0.6959839703 -0.7155310567
19300184200.0 -0.7083704782 -0.7054425787
19350183900.0 -0.7189223914 -0.6961149619
19400183600.0 -0.7288237421 -0.686738265
19450183300.0 -0.7374401408 -0.6761390068
19500183000.0 -0.7463764113 -0.6664782648
19550182700.0 -0.7555698814 -0.6555368946
19600182400.0 -0.7661553678 -0.6441344872
19650182100.0 -0.7766008703 -0.6317813524
19700181800.0 -0.7867707378 -0.6185039808
19750181500.0 -0.7970254437 -0.6042045114
19800181200.0 -0.8073400078 -0.5892771847
19850180900.0 -0.8169825982 -0.574080052
19900180600.0 -0.8245065245 -0.5596056052
19950180300.0 -0.8334239213 -0.5431810685
20000180000.0 -0.8236161298 -0.5465050662
20050179700.0 -0.8313765464 -0.5342947992
20100179400.0 -0.8389392382 -0.5221592348
20150179100.0 -0.8476735937 -0.5100280141
20200178800.0 -0.855354161 -0.4978409533
20250178500.0 -0.8656560171 -0.4849975354
20300178200.0 -0.8749074751 -0.4713803914
20350177900.0 -0.8844449193 -0.4580925717
20400177600.0 -0.8933704906 -0.443417063
20450177300.0 -0.90191818 -0.4286745411
20500177000.0 -0.9100790844 -0.4151123238
20550176700.0 -0.9181991508 -0.4016095436
20600176400.0 -0.9251109633 -0.3888470681
20650176100.0 -0.9317492486 -0.376280829
20700175800.0 -0.9383483111 -0.3644040411
20750175500.0 -0.9445297417 -0.3525362731
20800175200.0 -0.9491155222 -0.3420217693
20850174900.0 -0.9536572387 -0.3313364145
20900174600.0 -0.9575104743 -0.3200934974
20950174300.0 -0.9601110379 -0.3090681615
21000174000.0 -0.964150432 -0.2986814108
21050173700.0 -0.9655670652 -0.2888258809
21100173400.0 -0.9693306218 -0.2781805529
21150173100.0 -0.9735294711 -0.2669125028
21200172800.0 -0.9772394716 -0.2531859315
21250172500.0 -0.9813165949 -0.2395726471
21300172200.0 -0.9844576165 -0.2252757136
21350171900.0 -0.9863680084 -0.2110529431
21400171600.0 -0.9885164785 -0.1972797809
21450171300.0 -0.9891730948 -0.1829703675
21500171000.0 -0.9898538076 -0.168379646
21550170700.0 -0.9901212948 -0.152742149
21600170400.0 -0.991349098 -0.1377844475
21650170100.0 -0.9913981705 -0.1223456401
21700169800.0 -0.9906664802 -0.1068443402
21750169500.0 -0.9903794363 -0.0898995835
21800169200.0 -0.9901744429 -0.0734029683
21850168900.0 -0.9893856175 -0.0566670334
21900168600.0 -0.9887678677 -0.0409734225
21950168300.0 -0.989163974 -0.0254775237
22000168000.0 -0.9886769563 -0.0104190275
22050167700.0 -0.989810515 0.0045399056
22100167400.0 -0.990496759 0.0201988031
22150167100.0 -0.9914133028 0.0361890949
22200166800.0 -0.9918928717 0.0530538852
22250166500.0 -0.9913571673 0.069876353
22300166200.0 -0.9908766307 0.0865250274
22350165900.0 -0.9899006653 0.1018541339
22400165600.0 -0.9888380162 0.1185943095
22450165300.0 -0.9861302246 0.1335938328
22500165000.0 -0.9848274119 0.1470461801
22550164700.0 -0.9822352527 0.1635913877
22600164400.0 -0.9808439301 0.1809164677
22650164100.0 -0.9781279925 0.1956600329
22700163800.0 -0.9749784503 0.2116914213
22750163500.0 -0.9719699452 0.2268550183
22800163200.0 -0.9688047838 0.2391104363
22850162900.0 -0.9665108827 0.25295582
22900162600.0 -0.964506886 0.2669434984
22950162300.0 -0.9628772273 0.2808967785
23000162000.0 -0.9610478021 0.293570148
23050161700.0 -0.9585775006 0.3070201451
23100161400.0 -0.9560453824 0.3203363226
23150161100.0 -0.9525791859 0.3336040522
23200160800.0 -0.9495495357 0.3459467036
23250160500.0 -0.9472024507 0.358181771
23300160200.0 -0.9440968755 0.3712167306
23350159900.0 -0.939671749 0.3859089758
23400159600.0 -0.9349547486 0.3984591745
23450159300.0 -0.9299298461 0.4123426895
23500159000.0 -0.924861317 0.4257009122
23550158700.0 -0.9202799007 0.4403804571
23600158400.0 -0.9141516145 0.454355167
23650158100.0 -0.9067883068 0.4688857096
23700157800.0 -0.8982704225 0.483151015
23750157500.0 -0.8888236389 0.4972751524
23800157200.0 -0.8792140556 0.5111002695
23850156900.0 -0.869596624 0.5235088242
23900156600.0 -0.859377732 0.5359907979
23950156300.0 -0.8493420134 0.5492537741
24000156000.0 -0.8405690665 0.5616808566
24050155700.0 -0.8296917716 0.5737651036
24100155400.0 -0.8191251614 0.5857414587
24150155100.0 -0.808273412 0.5987200844
24200154800.0 -0.7974372594 0.6107402065
24250154500.0 -0.7858633083 0.6226157896
24300154200.0 -0.7744727373 0.6342927232
24350153900.0 -0.7623698304 0.6453948173
24400153600.0 -0.7496144326 0.6559140387
24450153300.0 -0.7376282191 0.6666556432
24500153000.0 -0.7261663469 0.6759979041
24550152700.0 -0.7147782438 0.6861423549
24600152400.0 -0.7028810141 0.6956331495
24650152100.0 -0.6909390574 0.7045675241
