!Created with skrf (http://scikit-rf.org).
# Hz S RI R 50.0 
!freq ReS11 ImS11
300000.0 -0.9794542145 -0.1054683257
50299700.0 -1.00001189 0.0160821871
100299400.0 -0.9981128571 0.0291226634
150299100.0 -1.002751821 0.0460140343
200298800.0 -0.9996638136 0.0590792551
250298500.0 -0.9974423621 0.0726129172
300298200.0 -0.9860185698 0.0885996176
350297900.0 -0.994092894 0.0994781027
400297600.0 -0.9929943252 0.1158648387
450297300.0 -0.9910427965 0.1298019104
500297000.0 -0.9894281306 0.1446504018
550296700.0 -0.9844518758 0.1570147028
600296400.0 -1.017411358 0.1904297047
650296100.0 -0.9821731954 0.187105595
700295800.0 -0.9790665256 0.2012578333
750295500.0 -0.9762346399 0.2154117443
800295200.0 -0.9728247322 0.2296118775
850294900.0 -0.9694640491 0.243227171
900294600.0 -0.9656993782 0.2569283778
950294300.0 -0.9617235213 0.2707330972
1000294000.0 -0.9579516097 0.284702595
1050293700.0 -0.9535509622 0.2985706512
1100293400.0 -0.9488630485 0.3130669209
1150293100.0 -0.9452320384 0.3248275538
1200292800.0 -0.9398424986 0.3391321918
1250292500.0 -0.9344022984 0.3526139269
1300292200.0 -0.9285477481 0.3656670422
1350291900.0 -0.9230959802 0.380034317
1400291600.0 -0.9175789758 0.3928745797
1450291300.0 -0.9122930974 0.4051834399
1500291000.0 -0.9057032243 0.4186933006
1550290700.0 -0.8994362824 0.4317636954
1600290400.0 -0.8930703451 0.4447544481
1650290100.0 -0.88637053 0.4569340764
1700289800.0 -0.879602225 0.4701687081
1750289500.0 -0.8725230148 0.482917321
1800289200.0 -0.8651412133 0.4955722105
1850288900.0 -0.8585192335 0.5068483712
1900288600.0 -0.8505613758 0.5198568614
1950288300.0 -0.8426154262 0.5323985312
2000288000.0 -0.8351441778 0.5438057865
2050287700.0 -0.8269688683 0.5561892755
2100287400.0 -0.8187516175 0.5679489311
2150287100.0 -0.8101993353 0.5799594396
2200286800.0 -0.8022974419 0.5903301335
2250286500.0 -0.7936930362 0.6023018211
2300286200.0 -0.7845666037 0.6140771887
2350285900.0 -0.7757426205 0.6250585109
2400285600.0 -0.7667515776 0.6360401998
2450285300.0 -0.7583335546 0.6462941247
2500285000.0 -0.7484655513 0.6577053289
2550284700.0 -0.7395868308 0.66796077
2600284400.0 -0.7301803006 0.6780751445
2650284100.0 -0.7209456255 0.6886614614
2700283800.0 -0.7104185208 0.6992874074
2750283500.0 -0.700138356 0.7097566867
2800283200.0 -0.6901289323 0.7194513742
2850282900.0 -0.6801947033 0.7292120635
2900282600.0 -0.6696332982 0.7386766681
2950282300.0 -0.6595894422 0.7478349731
3000282000.0 -0.6490513805 0.7573851529
3050281700.0 -0.637609074 0.7668896541
3100281400.0 -0.6257216003 0.7760288785
3150281100.0 -0.6139789129 0.7855319952
3200280800.0 -0.6024361412 0.7941118981
3250280500.0 -0.5916591245 0.8016107003
3300280200.0 -0.5804253016 0.8095167592
3350279900.0 -0.5689542327 0.8170692329
3400279600.0 -0.5566336296 0.8246156815
3450279300.0 -0.5460102673 0.8318002239
3500279000.0 -0.5337157047 0.8390191564
3550278700.0 -0.5214157972 0.8462257811
3600278400.0 -0.5091560602 0.8534335935
3650278100.0 -0.4955089344 0.8608201727
3700277800.0 -0.4836060775 0.8673107421
3750277500.0 -0.4713449467 0.8741205985
3800277200.0 -0.4588801886 0.8804812704
3850276900.0 -0.4469049898 0.8863622996
3900276600.0 -0.4358230101 0.8920484601
3950276300.0 -0.4232549881 0.8979475935
4000276000.0 -0.411260107 0.9042007781
4050275700.0 -0.3983250029 0.9102254538
4100275400.0 -0.3870461477 0.9154435508
4150275100.0 -0.3742112819 0.9212710671
4200274800.0 -0.3613970076 0.9264557416
4250274500.0 -0.3490589061 0.9317927154
4300274200.0 -0.3360657281 0.936926967
4350273900.0 -0.3223575537 0.9422670793
4400273600.0 -0.3074655767 0.9474960149
4450273300.0 -0.2917441393 0.9527898581
4500273000.0 -0.2784897464 0.9570347956
4550272700.0 -0.264101987 0.9609542917
4600272400.0 -0.2486765662 0.9653581447
4650272100.0 -0.2368949603 0.9686239998
4700271800.0 -0.223648192 0.9719289802
4750271500.0 -0.2118659492 0.9748936392
4800271200.0 -0.1994113224 0.9774906894
4850270900.0 -0.1855586322 0.9803025434
4900270600.0 -0.1717222006 0.9825994328
4950270300.0 -0.1574281979 0.9854020024
5000270000.0 -0.1432989338 0.9874214778
5050269700.0 -0.1295949133 0.9886795947
5100269400.0 -0.116196088 0.9907825367
5150269100.0 -0.1030403532 0.9920066241
5200268800.0 -0.0898651397 0.9932715332
5250268500.0 -0.0766995204 0.9943031659
5300268200.0 -0.0636566119 0.9946682262
5350267900.0 -0.0514180399 0.9955825447
5400267600.0 -0.0355128827 0.9966346924
5450267300.0 -0.0222280988 0.996977697
5500267000.0 -0.0071085171 0.997083511
5550266700.0 0.0078427781 0.9974294846
5600266400.0 0.0234345265 0.9974940455
5650266100.0 0.0401292198 0.9971420969
5700265800.0 0.0546274002 0.9961762707
5750265500.0 0.0696739114 0.9952014303
5800265200.0 0.0839065941 0.9943788426
5850264900.0 0.0969744469 0.9933847437
5900264600.0 0.1133059853 0.9912748112
5950264300.0 0.1258777146 0.9902463998
6000264000.0 0.1401686221 0.9884004154
6050263700.0 0.1525436839 0.9864370641
6100263400.0 0.1650155249 0.9846354329
6150263100.0 0.1794122384 0.9820944798
6200262800.0 0.1898421271 0.980470328
6250262500.0 0.2025027905 0.9780042114
6300262200.0 0.2154452324 0.9753208192
6350261900.0 0.2286602343 0.9722053959
6400261600.0 0.2424311559 0.9690111252
6450261300.0 0.2540063161 0.9660173821
6500261000.0 0.2663444183 0.9624716415
6550260700.0 0.2795048416 0.9588563613
6600260400.0 0.2928977822 0.9545717585
6650260100.0 0.3066187514 0.9502587198
6700259800.0 0.3188788872 0.9464251674
6750259500.0 0.3322590301 0.9406874183
6800259200.0 0.3455745754 0.9361136141
6850258900.0 0.3577199587 0.9311553046
6900258600.0 0.3694907919 0.925996552
6950258300.0 0.3821777507 0.9207229251
7000258000.0 0.3942341822 0.9152540951
7050257700.0 0.4065846553 0.9093049206
7100257400.0 0.4190617304 0.9028825561
7150257100.0 0.4295685417 0.8978253994
7200256800.0 0.4422400988 0.8914540765
7250256500.0 0.4541109441 0.8849246458
7300256200.0 0.4674255072 0.8783792982
7350255900.0 0.4794227883 0.8711547254
7400255600.0 0.4929207838 0.8642355652
7450255300.0 0.5078291112 0.8553980311
7500255000.0 0.5191163358 0.8481211277
7550254700.0 0.5330809843 0.8396916437
7600254400.0 0.545550391 0.8312219906
7650254100.0 0.5574494858 0.8231106992
7700253800.0 0.5694301782 0.8152648209
7750253500.0 0.5805607745 0.8075617243
7800253200.0 0.5912791184 0.7997555183
7850252900.0 0.601075514 0.7925544164
7900252600.0 0.6127815479 0.7837089515
7950252300.0 0.6215209597 0.7772048817
8000252000.0 0.6317371034 0.7694021723
8050251700.0 0.6422380137 0.7612103816
8100251400.0 0.6524855881 0.7529171
8150251100.0 0.6627258508 0.7444260286
8200250800.0 0.6715496863 0.7365344785
8250250500.0 0.6808994124 0.7283320185
8300250200.0 0.6904814626 0.719775083
8350249900.0 0.6994105616 0.7109788236
8400249600.0 0.7077253464 0.7031496889
8450249300.0 0.7165907604 0.6937492584
8500249000.0 0.7250586473 0.6849705897
8550248700.0 0.7334493992 0.675983006
8600248400.0 0.7419720635 0.6663823557
8650248100.0 0.7496284744 0.6570142031
8700247800.0 0.7592566552 0.6457894843
8750247500.0 0.767552041 0.6356594333
8800247200.0 0.7754448762 0.6255478002
8850246900.0 0.7844504212 0.6140821275
8900246600.0 0.7925853312 0.6028217139
8950246300.0 0.8024078172 0.5898073793
9000246000.0 0.8115731555 0.5770397604
9050245700.0 0.8203628147 0.5642640807
9100245400.0 0.8294622015 0.5513998773
9150245100.0 0.8386310395 0.537825392
9200244800.0 0.8480936429 0.5225394522
9250244500.0 0.8581535986 0.5069758235
9300244200.0 0.8662598354 0.4922167683
9350243900.0 0.8741129078 0.4783125247
9400243600.0 0.8807646326 0.465664232
9450243300.0 0.8865895509 0.4539125674
9500243000.0 0.8927469624 0.4416580035
9550242700.0 0.8965086104 0.4338381804
9600242400.0 0.9007519605 0.4259787081
9650242100.0 0.9039512454 0.4199126277
9700241800.0 0.9088541938 0.4112593813
9750241500.0 0.912567024 0.40402004
9800241200.0 0.9174012377 0.3948135726
9850240900.0 0.9230552116 0.3832131827
9900240600.0 0.9284453078 0.37178938
9950240300.0 0.9352049958 0.3555091212
10000240000.0 0.939745266 0.3435114058
10050239700.0 0.9452817743 0.3288158479
10100239400.0 0.9500038237 0.3133383714
10150239100.0 0.9545981064 0.2984907455
10200238800.0 0.9586943316 0.2836826817
10250238500.0 0.9619666547 0.2703844405
10300238200.0 0.9650819194 0.2563950551
10350237900.0 0.9676501422 0.2436146789
10400237600.0 0.9701556305 0.230147548
10450237300.0 0.9728305697 0.2166413139
10500237000.0 0.9750360881 0.2040720531
10550236700.0 0.9773603126 0.1907726331
10600236400.0 0.9791615254 0.1773644956
10650236100.0 0.9813626591 0.1628342644
10700235800.0 0.9835443223 0.1506765011
10750235500.0 0.9860603781 0.1371846719
10800235200.0 0.9879344199 0.1231276783
10850234900.0 0.9894491896 0.1085174782
10900234600.0 0.9917259696 0.0941434749
10950234300.0 0.9934504322 0.0808947869
11000234000.0 0.9951692703 0.0658487533
11050233700.0 0.9969670971 0.0495206784
11100233400.0 0.99832337 0.0324461204
11150233100.0 0.9993380294 0.0157016604
11200232800.0 0.9999420844 0.0010549257
11250232500.0 1.000998141 -0.0156353594
11300232200.0 1.000838285 -0.0334954069
11350231900.0 1.00134904 -0.0492883251
11400231600.0 1.001069357 -0.0651404411
11450231300.0 1.00118495 -0.0802499499
11500231000.0 0.9999255282 -0.0967533727
11550230700.0 0.9980335782 -0.1105182369
11600230400.0 0.9965374129 -0.1234979347
11650230100.0 0.9944142471 -0.135368265
11700229800.0 0.9924041247 -0.1494025722
11750229500.0 0.9902010023 -0.1642113203
11800229200.0 0.9876971407 -0.1783274041
11850228900.0 0.9838909031 -0.1906273144
11900228600.0 0.9804530227 -0.2004323286
11950228300.0 0.9772008473 -0.2111191627
12000228000.0 0.9744553132 -0.2201035156
12050227700.0 0.9707859961 -0.2327118118
12100227400.0 0.9674680881 -0.2430337256
12150227100.0 0.9627843834 -0.2605902788
12200226800.0 0.9589663777 -0.2714198098
12250226500.0 0.954290306 -0.2842631795
12300226200.0 0.9510270914 -0.295462568
12350225900.0 0.9461854137 -0.3095463834
12400225600.0 0.941675833 -0.3225985624
12450225300.0 0.9375613197 -0.3353678307
12500225000.0 0.9317344859 -0.3499618103
12550224700.0 0.9263976258 -0.3635145882
12600224400.0 0.9216459714 -0.3760758345
12650224100.0 0.9160067832 -0.3903735617
12700223800.0 0.9107578399 -0.4030597801
12750223500.0 0.9052688506 -0.4160123011
12800223200.0 0.8998851916 -0.4286511528
12850222900.0 0.8945399725 -0.4404112076
12900222600.0 0.8888110112 -0.45276468
12950222300.0 0.8824505473 -0.4658734133
13000222000.0 0.8766355013 -0.4769950618
13050221700.0 0.8699200272 -0.4899305846
13100221400.0 0.8630837558 -0.5022719818
13150221100.0 0.8562062938 -0.5141715256
13200220800.0 0.8489914388 -0.5258202402
13250220500.0 0.8416753411 -0.5382673104
13300220200.0 0.8340319317 -0.5489375888
13350219900.0 0.8260306951 -0.5608925447
13400219600.0 0.817571003 -0.5733067257
13450219300.0 0.808010522 -0.5868313201
13500219000.0 0.797250934 -0.6011435726
13550218700.0 0.7873260902 -0.6138327829
13600218400.0 0.7773367667 -0.626134893
13650218100.0 0.7677563474 -0.6369829754
13700217800.0 0.7561780964 -0.6494482987
13750217500.0 0.7463162414 -0.6603857354
13800217200.0 0.7351980452 -0.6722061947
13850216900.0 0.7238896669 -0.6841283546
13900216600.0 0.7146355895 -0.6929581716
13950216300.0 0.7032189277 -0.7033883304
14000216000.0 0.6933241752 -0.7121152834
14050215700.0 0.6837447035 -0.7205921141
14100215400.0 0.673969643 -0.7299200847
14150215100.0 0.6648482009 -0.7380001695
14200214800.0 0.6555538334 -0.7466058071
14250214500.0 0.6453322891 -0.7557476944
14300214200.0 0.6350076173 -0.765058948
14350213900.0 0.6237199949 -0.7745307661
14400213600.0 0.6120772043 -0.7840737215
14450213300.0 0.5989156455 -0.7945679341
14500213000.0 0.5864014555 -0.8041564566
14550212700.0 0.5732933701 -0.8134117645
14600212400.0 0.5608565514 -0.8222945357
14650212100.0 0.548123448 -0.8310790298
14700211800.0 0.5341785297 -0.8408233661
14750211500.0 0.5220247682 -0.8490339889
14800211200.0 0.5097592086 -0.8567328186
14850210900.0 0.4976973168 -0.8641741936
14900210600.0 0.4842815395 -0.8721461649
14950210300.0 0.4708473303 -0.8797926655
15000210000.0 0.4577509107 -0.8866901756
15050209700.0 0.4456514136 -0.892726674
15100209400.0 0.4329610603 -0.8989167956
15150209100.0 0.4202996509 -0.9041737598
15200208800.0 0.4069904055 -0.9102825789
15250208500.0 0.3960019648 -0.9148485984
15300208200.0 0.3833282239 -0.9187780061
15350207900.0 0.370652444 -0.9237293498
15400207600.0 0.3550378583 -0.9291538284
15450207300.0 0.3407197158 -0.9344180167
15500207000.0 0.3259561926 -0.9389234074
15550206700.0 0.3114712105 -0.9438932111
15600206400.0 0.2953942057 -0.9483757891
15650206100.0 0.2794568451 -0.952269224
15700205800.0 0.2654634174 -0.9559882572
15750205500.0 0.2512030072 -0.9594795163
15800205200.0 0.2365313465 -0.9628407392
15850204900.0 0.2220896618 -0.9662828909
15900204600.0 0.207046939 -0.9698397073
15950204300.0 0.1934225324 -0.9727407847
16000204000.0 0.1790783772 -0.9755406216
16050203700.0 0.1651268132 -0.9784197585
16100203400.0 0.1502809837 -0.9804555294
16150203100.0 0.1365701701 -0.9828775264
16200202800.0 0.1217850626 -0.9847413035
16250202500.0 0.1071547763 -0.9864361523
16300202200.0 0.0920968044 -0.9876738238
16350201900.0 0.0773580609 -0.9892605225
16400201600.0 0.06291558 -0.9902551022
16450201300.0 0.0474745544 -0.9913641692
16500201000.0 0.0310308393 -0.9919873018
16550200700.0 0.0153740037 -0.992542808
16600200400.0 -0.0003619297 -0.9926604407
16650200100.0 -0.0167378551 -0.9926337038
16700199800.0 -0.0333851654 -0.9918165316
16750199500.0 -0.0521317675 -0.9913157192
16800199200.0 -0.0682310944 -0.9904868872
16850198900.0 -0.0826121148 -0.9895780603
16900198600.0 -0.0969992609 -0.9883222769
16950198300.0 -0.1110296255 -0.9871373233
17000198000.0 -0.1232409945 -0.9854761736
17050197700.0 -0.1365644889 -0.9837452675
17100197400.0 -0.1489771198 -0.9815159695
17150197100.0 -0.1618559776 -0.9792258374
17200196800.0 -0.1749450091 -0.9776581965
17250196500.0 -0.1875884226 -0.9749941368
17300196200.0 -0.1996946413 -0.9727500626
17350195900.0 -0.2116290371 -0.9705320132
17400195600.0 -0.2238973453 -0.9680817412
17450195300.0 -0.2371543407 -0.965278665
17500195000.0 -0.2505039124 -0.9618345288
17550194700.0 -0.2640910943 -0.958202555
17600194400.0 -0.2780785832 -0.9542320598
17650194100.0 -0.2917036952 -0.9499577939
17700193800.0 -0.304626533 -0.9459135975
17750193500.0 -0.3193713304 -0.9411006841
17800193200.0 -0.3335623696 -0.9362999923
17850192900.0 -0.3485671947 -0.9306796992
17900192600.0 -0.3634517577 -0.9246200346
17950192300.0 -0.3790846906 -0.9176620764
18000192000.0 -0.3936244139 -0.9103631963
18050191700.0 -0.407349665 -0.9025497625
18100191400.0 -0.4214866613 -0.8947510473
18150191100.0 -0.4365317572 -0.8867679619
18200190800.0 -0.4532128944 -0.8775296177
18250190500.0 -0.4699140213 -0.8682610714
18300190200.0 -0.4856860276 -0.8594781251
18350189900.0 -0.5005528238 -0.8509004798
18400189600.0 -0.5151255902 -0.842120519
18450189300.0 -0.5281952687 -0.8342925551
18500189000.0 -0.5416299086 -0.8263401684
18550188700.0 -0.5540197431 -0.8184592442
18600188400.0 -0.565989694 -0.8117084553
18650188100.0 -0.5774068244 -0.805217569
18700187800.0 -0.5879843625 -0.7986949912
18750187500.0 -0.5987100849 -0.791954042
18800187200.0 -0.6095523246 -0.784900672
18850186900.0 -0.6199056502 -0.7776635154
18900186600.0 -0.6303786109 -0.7701390977
18950186300.0 -0.6402399374 -0.76227472
19000186000.0 -0.6472374494 -0.7565246579
19050185700.0 -0.6569492147 -0.7487969152
19100185400.0 -0.6673332541 -0.7402819366
19150185100.0 -0.6772103406 -0.7316556068
19200184800.0 -0.6867482138 -0.7234846309
19250184500.0 -0.6978055345 -0.7139757375
19300184200.0 -0.7089348609 -0.704106625
19350183900.0 -0.7193912886 -0.6948602851
19400183600.0 -0.7291796768 -0.6847522875
19450183300.0 -0.7373708671 -0.6749187472
19500183000.0 -0.7459843932 -0.6645224308
19550182700.0 -0.7556255092 -0.6541268173
19600182400.0 -0.7656500259 -0.6424379628
19650182100.0 -0.7766382499 -0.6303347165
19700181800.0 -0.7872105339 -0.6170107172
19750181500.0 -0.7976941087 -0.6034255535
19800181200.0 -0.8078024942 -0.5882512967
19850180900.0 -0.8172922595 -0.572883381
19900180600.0 -0.825069375 -0.5584743381
19950180300.0 -0.8340540257 -0.5421109189
20000180000.0 -0.828020384 -0.5445119777
20050179700.0 -0.835964553 -0.5316917083
20100179400.0 -0.8441889751 -0.51746399
20150179100.0 -0.8519085093 -0.5058044246
20200178800.0 -0.8608423018 -0.4933000315
20250178500.0 -0.8705553667 -0.479557971
20300178200.0 -0.879470993 -0.4645482814
20350177900.0 -0.8885176512 -0.4499881561
20400177600.0 -0.8973508905 -0.4351680171
20450177300.0 -0.905652576 -0.4213042034
20500177000.0 -0.9134670835 -0.4069023833
20550176700.0 -0.9213948383 -0.3934373797
20600176400.0 -0.9281424628 -0.3800560153
20650176100.0 -0.9350469849 -0.3679508981
20700175800.0 -0.9415404146 -0.3556579731
20750175500.0 -0.9489328855 -0.3441959351
20800175200.0 -0.9534545454 -0.3329608651
20850174900.0 -0.95742733 -0.3226933771
20900174600.0 -0.9626707177 -0.3094452978
20950174300.0 -0.9670383485 -0.2982591928
21000174000.0 -0.9712294846 -0.2864184013
21050173700.0 -0.9735609126 -0.2756890103
21100173400.0 -0.9778653546 -0.2635331457
21150173100.0 -0.9816794593 -0.2504717332
21200172800.0 -0.9852414577 -0.2368596531
21250172500.0 -0.9882903616 -0.2233287433
21300172200.0 -0.9910852532 -0.2091233894
21350171900.0 -0.9920228515 -0.194526529
21400171600.0 -0.9938014383 -0.1804531971
21450171300.0 -0.9939838566 -0.1660977192
21500171000.0 -0.9934771815 -0.1507084887
21550170700.0 -0.9933666973 -0.1351693178
21600170400.0 -0.9932086157 -0.1194658692
21650170100.0 -0.9929783528 -0.1041525211
21700169800.0 -0.9905224522 -0.0886792394
21750169500.0 -0.989775936 -0.0728692572
21800169200.0 -0.9883003899 -0.0567500108
21850168900.0 -0.9864465622 -0.0399926501
21900168600.0 -0.9853637354 -0.023226918
21950168300.0 -0.9840467786 -0.0082496237
22000168000.0 -0.9826807611 0.0069280106
22050167700.0 -0.981834915 0.0212572276
22100167400.0 -0.9822442655 0.0359264017
22150167100.0 -0.9827929154 0.0516303318
22200166800.0 -0.9834598848 0.0676917056
22250166500.0 -0.982271611 0.0850176887
22300166200.0 -0.9822113672 0.1013730633
22350165900.0 -0.9804628243 0.1183883663
22400165600.0 -0.9780805052 0.1336071157
22450165300.0 -0.9764843808 0.1489823176
22500165000.0 -0.9745992474 0.1617716768
22550164700.0 -0.9731735162 0.1772600174
22600164400.0 -0.971278163 0.1931599441
22650164100.0 -0.9696952539 0.2071061797
22700163800.0 -0.967170113 0.2233561617
22750163500.0 -0.9643932847 0.2394360865
22800163200.0 -0.9620564408 0.2522834234
22850162900.0 -0.9596888915 0.2657208425
22900162600.0 -0.9582120064 0.2791046448
22950162300.0 -0.9571390979 0.2917861058
23000162000.0 -0.9562058313 0.3033836692
23050161700.0 -0.9540525994 0.3159301713
23100161400.0 -0.9517580953 0.3288314636
23150161100.0 -0.9494509605 0.3409140991
23200160800.0 -0.9462604459 0.3528518703
23250160500.0 -0.9438162839 0.3644769565
23300160200.0 -0.9401208163 0.376655578
23350159900.0 -0.9372276906 0.3901654946
23400159600.0 -0.9325400149 0.4030062518
23450159300.0 -0.9276427005 0.4156779284
23500159000.0 -0.9231702719 0.4285839877
23550158700.0 -0.9185667687 0.4420217417
23600158400.0 -0.9135338425 0.4546785516
23650158100.0 -0.9071301328 0.4690117766
23700157800.0 -0.8995302391 0.4823978558
23750157500.0 -0.8911066734 0.4966107383
23800157200.0 -0.8824327964 0.5096748943
23850156900.0 -0.8737105416 0.5221134028
23900156600.0 -0.864430776 0.5348581917
23950156300.0 -0.8546331184 0.5463352116
24000156000.0 -0.8468081251 0.5591557127
24050155700.0 -0.835860771 0.5708360847
24100155400.0 -0.8266943668 0.5829888652
24150155100.0 -0.8149751977 0.5946794998
24200154800.0 -0.8045056276 0.6057700379
24250154500.0 -0.7929655083 0.6178783855
24300154200.0 -0.7814314481 0.6296711983
24350153900.0 -0.7696439088 0.6398356286
24400153600.0 -0.7574062063 0.6497694569
24450153300.0 -0.7457921757 0.6597089819
24500153000.0 -0.7339876031 0.6694980677
24550152700.0 -0.7225749025 0.6791345904
24600152400.0 -0.7116726722 0.6886250417
24650152100.0 -0.700324617 0.6969721684
