!Created with skrf (http://scikit-rf.org).
# Hz S RI R 50.0 
!freq ReS11 ImS11
300000.0 -0.9762448503 -0.118971023
50299700.0 -1.000054872 0.0153160968
100299400.0 -0.9979975907 0.0283124771
150299100.0 -1.002777247 0.0452593513
200298800.0 -0.9996400624 0.0584455204
250298500.0 -0.9974298674 0.0718830821
300298200.0 -0.986136519 0.0877318754
350297900.0 -0.9939708557 0.0986814117
400297600.0 -0.9933377976 0.1152498405
450297300.0 -0.9909345662 0.1290699734
500297000.0 -0.9896313199 0.1437939887
550296700.0 -0.9844086325 0.1562725966
600296400.0 -1.017427474 0.1895893089
650296100.0 -0.9822801536 0.1860715509
700295800.0 -0.9792979056 0.2004232374
750295500.0 -0.9764370875 0.2144705355
800295200.0 -0.9729361421 0.2283242707
850294900.0 -0.9696784783 0.2424261978
900294600.0 -0.9658370204 0.2560053116
950294300.0 -0.9622524291 0.2697925321
1000294000.0 -0.9582630094 0.2837911729
1050293700.0 -0.9536225429 0.2975278034
1100293400.0 -0.9495018237 0.312008403
1150293100.0 -0.9455043128 0.3238860146
1200292800.0 -0.9402039735 0.3380973704
1250292500.0 -0.9346129847 0.3517279979
1300292200.0 -0.9291499241 0.3648086251
1350291900.0 -0.9234722757 0.3790112459
1400291600.0 -0.9178008146 0.3920336965
1450291300.0 -0.9124531349 0.4044739168
1500291000.0 -0.9062144283 0.4177386881
1550290700.0 -0.8996811585 0.4311218111
1600290400.0 -0.8935856528 0.44398031
1650290100.0 -0.8867308476 0.4561191302
1700289800.0 -0.8799167171 0.4695270621
1750289500.0 -0.8727181838 0.4821152836
1800289200.0 -0.8655325547 0.4945924771
1850288900.0 -0.8586698077 0.505934321
1900288600.0 -0.8510784964 0.5190393346
1950288300.0 -0.8430145613 0.5318744453
2000288000.0 -0.8354062202 0.5431293015
2050287700.0 -0.8270788641 0.5554633268
2100287400.0 -0.8193467208 0.5670325944
2150287100.0 -0.8108234063 0.5790755764
2200286800.0 -0.802990127 0.5893515934
2250286500.0 -0.7941470368 0.601604843
2300286200.0 -0.7853287549 0.6130600453
2350285900.0 -0.7767189055 0.6240578866
2400285600.0 -0.7677132219 0.6349914626
2450285300.0 -0.7592288324 0.6452554672
2500285000.0 -0.7492717182 0.6569146466
2550284700.0 -0.7404227412 0.6672395116
2600284400.0 -0.7309212869 0.6771602375
2650284100.0 -0.7221211577 0.687684829
2700283800.0 -0.7112835243 0.6982847117
2750283500.0 -0.7013709777 0.7087927607
2800283200.0 -0.6913986091 0.7184272087
2850282900.0 -0.6810634658 0.7284842777
2900282600.0 -0.6708109226 0.7382334956
2950282300.0 -0.6605428569 0.7472409022
3000282000.0 -0.6498283492 0.7568874149
3050281700.0 -0.6384562021 0.7660321748
3100281400.0 -0.6266705518 0.7753782801
3150281100.0 -0.6148932525 0.7846864667
3200280800.0 -0.6033164579 0.7932310307
3250280500.0 -0.5925618842 0.8009241274
3300280200.0 -0.5812427273 0.8087901993
3350279900.0 -0.5696345195 0.816326111
3400279600.0 -0.5574827894 0.8241112609
3450279300.0 -0.5464537761 0.8312913879
3500279000.0 -0.5345011196 0.8383995762
3550278700.0 -0.5218029431 0.8455544933
3600278400.0 -0.5098358247 0.8528219175
3650278100.0 -0.4966048876 0.8603694378
3700277800.0 -0.4845819477 0.8669138704
3750277500.0 -0.4723192884 0.8733260388
3800277200.0 -0.4597428746 0.8799443343
3850276900.0 -0.4477308364 0.8858748357
3900276600.0 -0.4370689427 0.8915239032
3950276300.0 -0.4244102812 0.8975110902
4000276000.0 -0.4125028049 0.9033183389
4050275700.0 -0.3995895392 0.9095295807
4100275400.0 -0.3884184166 0.9148330736
4150275100.0 -0.3756850675 0.9206486064
4200274800.0 -0.3626848786 0.925954691
4250274500.0 -0.3505144847 0.931309184
4300274200.0 -0.337373126 0.9367182161
4350273900.0 -0.3234933545 0.9421081803
4400273600.0 -0.3088155317 0.9471582528
4450273300.0 -0.2934661878 0.9522702742
4500273000.0 -0.2798391872 0.9565644907
4550272700.0 -0.2659803974 0.9608298418
4600272400.0 -0.2503764364 0.9649816309
4650272100.0 -0.2386857395 0.968254778
4700271800.0 -0.2253778281 0.9715487116
4750271500.0 -0.2136944347 0.9744270604
4800271200.0 -0.2011849446 0.9772065444
4850270900.0 -0.187228121 0.9801333212
4900270600.0 -0.1733732688 0.9823482296
4950270300.0 -0.159112889 0.9850924511
5000270000.0 -0.1448353842 0.9869339062
5050269700.0 -0.1312978678 0.9885131602
5100269400.0 -0.1177263088 0.9904926256
5150269100.0 -0.1041439502 0.9918315059
5200268800.0 -0.091013639 0.9929562473
5250268500.0 -0.0780393456 0.9935455932
5300268200.0 -0.0647052756 0.9945707505
5350267900.0 -0.0525304189 0.995428781
5400267600.0 -0.0359505034 0.99648159
5450267300.0 -0.023352923 0.99673287
5500267000.0 -0.0079011204 0.9970224433
5550266700.0 0.0068916474 0.9973470744
5600266400.0 0.0225025391 0.9971523025
5650266100.0 0.0390349245 0.9970938583
5700265800.0 0.0534823225 0.996170372
5750265500.0 0.0682178951 0.995174821
5800265200.0 0.0823090184 0.9942760934
5850264900.0 0.0959888988 0.993459161
5900264600.0 0.1124038775 0.9919670913
5950264300.0 0.1244388069 0.9899834322
6000264000.0 0.1383211443 0.9881714585
6050263700.0 0.1509392904 0.9869567722
6100263400.0 0.1631868259 0.9853534066
6150263100.0 0.1776792282 0.9826318463
6200262800.0 0.1880226333 0.9811091686
6250262500.0 0.2007151915 0.9786965379
6300262200.0 0.2135121677 0.975904608
6350261900.0 0.226413547 0.9729298118
6400261600.0 0.2404063757 0.9695250321
6450261300.0 0.251415315 0.9667973762
6500261000.0 0.2645011562 0.9633618751
6550260700.0 0.2776536591 0.9593141844
6600260400.0 0.2907834084 0.9554990936
6650260100.0 0.3048263308 0.9509165088
6700259800.0 0.3167473957 0.9466615941
6750259500.0 0.3306230244 0.9416584688
6800259200.0 0.3435180926 0.9367050343
6850258900.0 0.3557489759 0.9317263492
6900258600.0 0.3678550966 0.9265991801
6950258300.0 0.3806827154 0.9214053806
7000258000.0 0.3926953587 0.9158213759
7050257700.0 0.4048820884 0.9099476176
7100257400.0 0.4175719606 0.9036101518
7150257100.0 0.4280473449 0.898291246
7200256800.0 0.4407859936 0.8920012351
7250256500.0 0.4527576369 0.8852564512
7300256200.0 0.4658125749 0.8787668826
7350255900.0 0.4785567868 0.8718586347
7400255600.0 0.4918818282 0.8647987236
7450255300.0 0.5072947556 0.8560162916
7500255000.0 0.5185909059 0.8483477808
7550254700.0 0.5329095572 0.8402298716
7600254400.0 0.5454420605 0.8313912129
7650254100.0 0.5570578692 0.8238746195
7700253800.0 0.5685100329 0.8158252822
7750253500.0 0.5799292392 0.8082877884
7800253200.0 0.5905911002 0.8003960447
7850252900.0 0.6003576568 0.7934908547
7900252600.0 0.6120106623 0.7846274272
7950252300.0 0.6207287826 0.7779530685
8000252000.0 0.6307705371 0.7703982119
8050251700.0 0.6411757053 0.7623377292
8100251400.0 0.6512590757 0.7540283664
8150251100.0 0.6614921636 0.7453368687
8200250800.0 0.6704651252 0.737591859
8250250500.0 0.6796190551 0.7296192502
8300250200.0 0.6890190965 0.7210297718
8350249900.0 0.6980759946 0.7120066776
8400249600.0 0.7063967357 0.7041235124
8450249300.0 0.7154723281 0.6951072041
8500249000.0 0.7241296034 0.6861869186
8550248700.0 0.7323929132 0.6770952382
8600248400.0 0.7407864584 0.6678065497
8650248100.0 0.7486169826 0.6583085748
8700247800.0 0.7580721244 0.647074703
8750247500.0 0.7662801659 0.6369914395
8800247200.0 0.7744064404 0.6264547375
8850246900.0 0.7834453448 0.6151407542
8900246600.0 0.7917081112 0.6039170963
8950246300.0 0.8010754756 0.5908158664
9000246000.0 0.8107475759 0.578025824
9050245700.0 0.8194331201 0.5651662979
9100245400.0 0.8280129147 0.552932799
9150245100.0 0.8373181044 0.5391636667
9200244800.0 0.8471885582 0.5240531593
9250244500.0 0.8562857068 0.5088093099
9300244200.0 0.8648758741 0.4943541064
9350243900.0 0.8726147292 0.4805255351
9400243600.0 0.8792222181 0.4680812631
9450243300.0 0.8851594472 0.4566946861
9500243000.0 0.8915418206 0.4444830582
9550242700.0 0.8952322646 0.4368251721
9600242400.0 0.8993080465 0.4295333508
9650242100.0 0.9029199243 0.422964672
9700241800.0 0.9075015756 0.4145446314
9750241500.0 0.9115455549 0.407175405
9800241200.0 0.9165466019 0.3977614451
9850240900.0 0.9219915299 0.3864587002
9900240600.0 0.9277445168 0.3746640055
9950240300.0 0.9343726689 0.3586300718
10000240000.0 0.9388996835 0.347063874
10050239700.0 0.9450441573 0.3314207188
10100239400.0 0.9494866949 0.3159641654
10150239100.0 0.9541026391 0.3010376405
10200238800.0 0.9583267775 0.2861569715
10250238500.0 0.9614962391 0.2728266807
10300238200.0 0.9646284085 0.2588777278
10350237900.0 0.9673401174 0.2457162108
10400237600.0 0.9697820965 0.2328178025
10450237300.0 0.9727052859 0.2189787341
10500237000.0 0.9748998322 0.2061052715
10550236700.0 0.976875745 0.1929796889
10600236400.0 0.9793934427 0.1787056917
10650236100.0 0.9809012032 0.1640814958
10700235800.0 0.983691139 0.1515561546
10750235500.0 0.9855111639 0.1392109228
10800235200.0 0.9878337789 0.1244398365
10850234900.0 0.9894912309 0.109778982
10900234600.0 0.9919557736 0.095102828
10950234300.0 0.993594196 0.0819183635
11000234000.0 0.9952208974 0.0666665612
11050233700.0 0.9971154337 0.0502102511
11100233400.0 0.9984157199 0.0329709087
11150233100.0 0.9995528997 0.0164693278
11200232800.0 1.000462307 0.0014347896
11250232500.0 1.001940915 -0.015370496
11300232200.0 1.001831816 -0.0326522139
11350231900.0 1.001594711 -0.0487685732
11400231600.0 1.001589274 -0.0649086888
11450231300.0 1.00128943 -0.0796808991
11500231000.0 1.000305825 -0.0949208262
11550230700.0 0.9983002783 -0.1089362183
11600230400.0 0.9971111427 -0.1220261439
11650230100.0 0.9950492439 -0.1331573067
11700229800.0 0.9933696783 -0.1479962787
11750229500.0 0.9909013163 -0.1621311595
11800229200.0 0.9882090143 -0.1762292124
11850228900.0 0.9845730489 -0.1885202371
11900228600.0 0.9811038433 -0.1981314688
11950228300.0 0.9776885895 -0.20885045
12000228000.0 0.9754594824 -0.2176183741
12050227700.0 0.9715000491 -0.2304467271
12100227400.0 0.968251157 -0.2411802924
12150227100.0 0.9634622749 -0.2574750501
12200226800.0 0.9594758165 -0.2692610371
12250226500.0 0.9557873657 -0.2822245399
12300226200.0 0.951211314 -0.2941125792
12350225900.0 0.9465087866 -0.3079500754
12400225600.0 0.9423249908 -0.3209337351
12450225300.0 0.9379380861 -0.3339137467
12500225000.0 0.932342255 -0.3483598926
12550224700.0 0.9268944656 -0.3623724093
12600224400.0 0.9219319269 -0.3751151944
12650224100.0 0.9161282193 -0.3897203076
12700223800.0 0.9108941712 -0.4024980214
12750223500.0 0.9053935954 -0.4155234339
12800223200.0 0.8999650645 -0.428355164
12850222900.0 0.8945185954 -0.4401916424
12900222600.0 0.8887904928 -0.45265102
12950222300.0 0.8827865928 -0.4652626756
13000222000.0 0.8771768489 -0.4768122834
13050221700.0 0.8700098253 -0.4888937586
13100221400.0 0.8631644701 -0.5014066491
13150221100.0 0.8566633561 -0.51345019
13200220800.0 0.8492953721 -0.5251367272
13250220500.0 0.8425339052 -0.5369540515
13300220200.0 0.8348760742 -0.5481218988
13350219900.0 0.8271026374 -0.5598520554
13400219600.0 0.8187693968 -0.572009472
13450219300.0 0.8093071452 -0.5853505646
13500219000.0 0.7995508812 -0.5989707686
13550218700.0 0.7890656 -0.6118351547
13600218400.0 0.7785613667 -0.623635723
13650218100.0 0.7692129946 -0.635206898
13700217800.0 0.757903488 -0.6479594345
13750217500.0 0.7481259309 -0.6583116769
13800217200.0 0.736385099 -0.6701872849
13850216900.0 0.726393428 -0.6812016172
13900216600.0 0.7162485188 -0.6900629512
13950216300.0 0.7056262601 -0.7013430662
14000216000.0 0.6958652272 -0.7097749856
14050215700.0 0.6859647087 -0.7182503585
14100215400.0 0.6761157057 -0.7275504504
14150215100.0 0.6671117708 -0.7360563798
14200214800.0 0.6575170514 -0.7449352358
14250214500.0 0.6473664715 -0.7541576109
14300214200.0 0.636765337 -0.7636458563
14350213900.0 0.6256790097 -0.7731865913
14400213600.0 0.6138013172 -0.7832073819
14450213300.0 0.6008982826 -0.7934039779
14500213000.0 0.5876419382 -0.8031867959
14550212700.0 0.5753411529 -0.8123099284
14600212400.0 0.5630890077 -0.8217484214
14650212100.0 0.5497830512 -0.8300788625
14700211800.0 0.5354623605 -0.8395197155
14750211500.0 0.5236307824 -0.8477437764
14800211200.0 0.511617783 -0.8555973348
14850210900.0 0.4994342896 -0.8635849666
14900210600.0 0.4860767993 -0.8711977398
14950210300.0 0.4728265511 -0.8789484408
15000210000.0 0.4599185719 -0.8857381134
15050209700.0 0.4475943401 -0.8916656601
15100209400.0 0.4346877012 -0.8975587455
15150209100.0 0.4227294163 -0.9032940427
15200208800.0 0.4095025779 -0.908626407
15250208500.0 0.3986966111 -0.9131777795
15300208200.0 0.3864949429 -0.9180229622
15350207900.0 0.3735690536 -0.9222987238
15400207600.0 0.3592005601 -0.9277544891
15450207300.0 0.3448501834 -0.9326641896
15500207000.0 0.3294615433 -0.9377371645
15550206700.0 0.3146815549 -0.943274866
15600206400.0 0.2987743683 -0.9471953369
15650206100.0 0.2832568964 -0.951713545
15700205800.0 0.2695897499 -0.9549067704
15750205500.0 0.2548086628 -0.9582999123
15800205200.0 0.2403353553 -0.962103801
15850204900.0 0.2258898401 -0.9654519432
15900204600.0 0.2108687845 -0.9690774722
15950204300.0 0.196511675 -0.9718616646
16000204000.0 0.1826561656 -0.9752548665
16050203700.0 0.1673756234 -0.9782707669
16100203400.0 0.1527900769 -0.9803216839
16150203100.0 0.1382168579 -0.982525232
16200202800.0 0.1243668553 -0.9845160921
16250202500.0 0.109409662 -0.986492816
16300202200.0 0.0943244966 -0.9877398456
16350201900.0 0.0791224675 -0.9890644583
16400201600.0 0.0645159499 -0.990375764
16450201300.0 0.049292233 -0.991373304
16500201000.0 0.0326625676 -0.9921401574
16550200700.0 0.0171286159 -0.9927275347
16600200400.0 0.0015128504 -0.9928525945
16650200100.0 -0.0148693361 -0.9927955613
16700199800.0 -0.0311823828 -0.9923731404
16750199500.0 -0.0499678109 -0.9919334075
16800199200.0 -0.0650022879 -0.9906852541
16850198900.0 -0.0806631152 -0.9893854794
16900198600.0 -0.0946629022 -0.9894156949
16950198300.0 -0.1080298478 -0.9877650731
17000198000.0 -0.1212368598 -0.985544011
17050197700.0 -0.1328173637 -0.9842048894
17100197400.0 -0.1461542713 -0.9821301592
17150197100.0 -0.1592490718 -0.9805828977
17200196800.0 -0.171676156 -0.9782481032
17250196500.0 -0.1849349284 -0.975915531
17300196200.0 -0.1968030455 -0.9736055388
17350195900.0 -0.2088898294 -0.9713634857
17400195600.0 -0.2208876284 -0.9688042913
17450195300.0 -0.2341101048 -0.9658634453
17500195000.0 -0.2473962213 -0.9626782155
17550194700.0 -0.2613591363 -0.9587875516
17600194400.0 -0.2754855469 -0.9549516645
17650194100.0 -0.2893094638 -0.9509158294
17700193800.0 -0.3021769102 -0.9466589996
17750193500.0 -0.3165251709 -0.9421367268
17800193200.0 -0.3310678978 -0.9371929303
17850192900.0 -0.3459000914 -0.9316192043
17900192600.0 -0.3611244906 -0.9253179033
17950192300.0 -0.3766671292 -0.9187601
18000192000.0 -0.3913271177 -0.9113014509
18050191700.0 -0.4054048424 -0.9032396644
18100191400.0 -0.4196582446 -0.8957471781
18150191100.0 -0.4347111389 -0.8875907249
18200190800.0 -0.4514336149 -0.8786168822
18250190500.0 -0.4686483206 -0.8690581801
18300190200.0 -0.4840329388 -0.8604560022
18350189900.0 -0.4990868278 -0.8522637313
18400189600.0 -0.5134248748 -0.8435257202
18450189300.0 -0.5266355477 -0.8355414144
18500189000.0 -0.540043034 -0.8280557323
18550188700.0 -0.552656846 -0.8199130245
18600188400.0 -0.5641130691 -0.8134234952
18650188100.0 -0.5756154939 -0.8069123489
18700187800.0 -0.5859842496 -0.8002751872
18750187500.0 -0.5968444418 -0.7940020284
18800187200.0 -0.607486381 -0.7869264552
18850186900.0 -0.6175948065 -0.7800118092
18900186600.0 -0.6277534114 -0.7725415269
18950186300.0 -0.6376519022 -0.7651165575
19000186000.0 -0.6452935928 -0.7587402452
19050185700.0 -0.654137076 -0.7519528449
19100185400.0 -0.6646025667 -0.7434252718
19150185100.0 -0.6742666587 -0.7351320872
19200184800.0 -0.6835720355 -0.72700042
19250184500.0 -0.6938898146 -0.7174684113
19300184200.0 -0.7052170334 -0.7075059223
19350183900.0 -0.7163229484 -0.6980588259
19400183600.0 -0.725878806 -0.6884100686
19450183300.0 -0.7346239673 -0.6780704133
19500183000.0 -0.7432894534 -0.6683154747
19550182700.0 -0.7532432758 -0.6574715028
19600182400.0 -0.763020075 -0.6452828643
19650182100.0 -0.7743752242 -0.6334818616
19700181800.0 -0.7847441826 -0.620033827
19750181500.0 -0.7954658122 -0.6057884627
19800181200.0 -0.805667997 -0.5907772446
19850180900.0 -0.8156566225 -0.575621845
19900180600.0 -0.823393642 -0.5612778071
19950180300.0 -0.8326295837 -0.5447760854
20000180000.0 -0.8259216351 -0.5471294498
20050179700.0 -0.8335010219 -0.5343739959
20100179400.0 -0.8416503758 -0.5200867104
20150179100.0 -0.8506370063 -0.5077179722
20200178800.0 -0.85875327 -0.4950378341
20250178500.0 -0.8683663113 -0.4821751744
20300178200.0 -0.8785064205 -0.4670286473
20350177900.0 -0.8871803028 -0.4527297689
20400177600.0 -0.8959194422 -0.438463896
20450177300.0 -0.9045202762 -0.4243454139
20500177000.0 -0.9126766057 -0.4102120892
20550176700.0 -0.9206044976 -0.3967282829
20600176400.0 -0.9274515091 -0.3840288216
20650176100.0 -0.9339422075 -0.3711621749
20700175800.0 -0.9404630321 -0.3597478198
20750175500.0 -0.9472709757 -0.3479233696
20800175200.0 -0.9519032178 -0.3374626719
20850174900.0 -0.9569859943 -0.3254500212
20900174600.0 -0.9618820833 -0.3141251722
20950174300.0 -0.965785622 -0.3035582634
21000174000.0 -0.9684964583 -0.2920497918
21050173700.0 -0.9705606267 -0.2815497632
21100173400.0 -0.9751012091 -0.2697307344
21150173100.0 -0.9791173866 -0.2574370846
21200172800.0 -0.9829194927 -0.2434296379
21250172500.0 -0.9857855744 -0.2298408281
21300172200.0 -0.9886039223 -0.2159175167
21350171900.0 -0.9903993949 -0.201589244
21400171600.0 -0.9909431451 -0.1872499983
21450171300.0 -0.9927891031 -0.1734125546
21500171000.0 -0.9922455379 -0.1574866295
21550170700.0 -0.9911502754 -0.1423299828
21600170400.0 -0.9924191872 -0.1271039567
21650170100.0 -0.9919069356 -0.1102612769
21700169800.0 -0.9908964204 -0.0959222157
21750169500.0 -0.9887910026 -0.0794252239
21800169200.0 -0.9879201561 -0.0630197014
21850168900.0 -0.9873295637 -0.0468473463
21900168600.0 -0.9862741844 -0.0301512486
21950168300.0 -0.9849763351 -0.0137245281
22000168000.0 -0.9842954204 0.0008007138
22050167700.0 -0.9840305912 0.015191712
22100167400.0 -0.9843313337 0.0307194374
22150167100.0 -0.9847754597 0.0462384909
22200166800.0 -0.9857170323 0.0626758139
22250166500.0 -0.9847749329 0.0801665362
22300166200.0 -0.9839119349 0.0963291669
22350165900.0 -0.9830171148 0.1133902469
22400165600.0 -0.9811322177 0.1288623811
22450165300.0 -0.9793587461 0.14409245
22500165000.0 -0.9769137713 0.1571262754
22550164700.0 -0.9755668669 0.1722267593
22600164400.0 -0.9741566852 0.187631089
22650164100.0 -0.9721280798 0.2033958433
22700163800.0 -0.9697711981 0.219098108
22750163500.0 -0.9667219682 0.2345535502
22800163200.0 -0.9642315225 0.2472640108
22850162900.0 -0.9621062136 0.2607595286
22900162600.0 -0.9603985393 0.2739463914
22950162300.0 -0.959033353 0.2870249791
23000162000.0 -0.9577648975 0.2987758555
23050161700.0 -0.9556427238 0.3115143524
23100161400.0 -0.9536936082 0.3239454725
23150161100.0 -0.9511298819 0.3369466882
23200160800.0 -0.9476374105 0.3493344704
23250160500.0 -0.9455321869 0.3619918603
23300160200.0 -0.9427297139 0.3735934206
23350159900.0 -0.9387680316 0.386581792
23400159600.0 -0.9341342956 0.399642622
23450159300.0 -0.9289892467 0.4130283482
23500159000.0 -0.9249812472 0.426208512
23550158700.0 -0.9198310633 0.4393480755
23600158400.0 -0.9147804435 0.45272196
23650158100.0 -0.9083482915 0.4669166495
23700157800.0 -0.9007451528 0.4807265904
23750157500.0 -0.8923070752 0.494938914
23800157200.0 -0.8830328251 0.5082726935
23850156900.0 -0.8748983081 0.5214453526
23900156600.0 -0.8647449098 0.5334073255
23950156300.0 -0.8567190469 0.5458666724
24000156000.0 -0.8468568291 0.5577344063
24050155700.0 -0.8374435549 0.5693374985
24100155400.0 -0.8267306871 0.581995932
24150155100.0 -0.8163346285 0.5935804136
24200154800.0 -0.8052053504 0.6043267616
24250154500.0 -0.7937923049 0.6167179073
24300154200.0 -0.7829625645 0.6283051091
24350153900.0 -0.7709573308 0.6388256652
24400153600.0 -0.7588990248 0.6487598101
24450153300.0 -0.7466760274 0.6590793247
24500153000.0 -0.7355781022 0.6683268286
24550152700.0 -0.7240997002 0.6781602041
24600152400.0 -0.7121037915 0.686997039
24650152100.0 -0.7009535044 0.6959973758
