!Created with skrf (http://scikit-rf.org).
# Hz S RI R 50.0 
!freq ReS11 ImS11
300000.0 -0.9745395807 -0.1210185314
50299700.0 -0.9999052885 0.0150598295
100299400.0 -0.9977510389 0.0280247767
150299100.0 -1.002782884 0.044956595
200298800.0 -0.9995415917 0.0581816485
250298500.0 -0.997563642 0.071568336
300298200.0 -0.9858634405 0.0873818073
350297900.0 -0.9938171027 0.0981779648
400297600.0 -0.9929208847 0.1149925372
450297300.0 -0.99105335 0.128739745
500297000.0 -0.9893538562 0.1435167657
550296700.0 -0.9841931205 0.1558562679
600296400.0 -1.01724972 0.1891500599
650296100.0 -0.9819884314 0.1859695928
700295800.0 -0.979058842 0.1999236032
750295500.0 -0.9761334216 0.2141957883
800295200.0 -0.9732049866 0.2280050161
850294900.0 -0.9696687944 0.2419189738
900294600.0 -0.9658561213 0.2557016825
950294300.0 -0.9619207938 0.2692162308
1000294000.0 -0.9583127562 0.283359189
1050293700.0 -0.9534254563 0.2971993955
1100293400.0 -0.9493125317 0.3113487668
1150293100.0 -0.9454380065 0.3234057226
1200292800.0 -0.9401716657 0.3376143218
1250292500.0 -0.9345333598 0.3512642052
1300292200.0 -0.9288937902 0.3643914822
1350291900.0 -0.9234161141 0.3783682967
1400291600.0 -0.9180639483 0.3915419013
1450291300.0 -0.9124267513 0.403998507
1500291000.0 -0.906192526 0.4172600889
1550290700.0 -0.8998029386 0.4305751786
1600290400.0 -0.8934187652 0.4436385505
1650290100.0 -0.8867665439 0.4556866797
1700289800.0 -0.8799553884 0.4692488339
1750289500.0 -0.8727947634 0.4814539001
1800289200.0 -0.8654545973 0.4944960511
1850288900.0 -0.858847163 0.5058251575
1900288600.0 -0.8508841468 0.5187018739
1950288300.0 -0.8429434359 0.5313472235
2000288000.0 -0.8355097989 0.542883875
2050287700.0 -0.8270992965 0.5552603203
2100287400.0 -0.8194417961 0.566625634
2150287100.0 -0.8109986036 0.5786292528
2200286800.0 -0.802934071 0.5891891452
2250286500.0 -0.7941728265 0.6015028761
2300286200.0 -0.7853363967 0.612824384
2350285900.0 -0.7768982518 0.6235683232
2400285600.0 -0.7680522319 0.6343619803
2450285300.0 -0.7590184801 0.6451292205
2500285000.0 -0.7491442203 0.6567593467
2550284700.0 -0.7401980705 0.6672302187
2600284400.0 -0.7309659822 0.676886467
2650284100.0 -0.7222270115 0.687054232
2700283800.0 -0.7117488155 0.6975384736
2750283500.0 -0.7015680056 0.7082052278
2800283200.0 -0.6914564539 0.7179432784
2850282900.0 -0.6813533462 0.7284038314
2900282600.0 -0.6706496207 0.737742976
2950282300.0 -0.6601448805 0.7472176657
3000282000.0 -0.6494207599 0.7566262295
3050281700.0 -0.6383906996 0.7659830235
3100281400.0 -0.6268555749 0.7750103171
3150281100.0 -0.6154961015 0.7839328092
3200280800.0 -0.6040899776 0.7922591002
3250280500.0 -0.5929668045 0.8003595654
3300280200.0 -0.5814972102 0.8084850063
3350279900.0 -0.5693570079 0.8163191494
3400279600.0 -0.556708144 0.8245763433
3450279300.0 -0.5455836501 0.831437289
3500279000.0 -0.5338814767 0.8383744326
3550278700.0 -0.5216805968 0.8456501775
3600278400.0 -0.5101360961 0.8522765229
3650278100.0 -0.4968922367 0.8599641151
3700277800.0 -0.4847025751 0.8666230398
3750277500.0 -0.4723868356 0.8732097379
3800277200.0 -0.4597541437 0.8796601549
3850276900.0 -0.4478423661 0.8857372501
3900276600.0 -0.4368452529 0.8911069219
3950276300.0 -0.4247414067 0.897146906
4000276000.0 -0.4129640295 0.9030325549
4050275700.0 -0.4001886325 0.9089394241
4100275400.0 -0.3890642992 0.9143249863
4150275100.0 -0.3759988734 0.920399737
4200274800.0 -0.3625673881 0.9259266521
4250274500.0 -0.3501509565 0.931623445
4300274200.0 -0.3370263919 0.9366304088
4350273900.0 -0.3224566812 0.9420499772
4400273600.0 -0.3079763311 0.9470316276
4450273300.0 -0.2929056537 0.952182221
4500273000.0 -0.2797473756 0.9564287214
4550272700.0 -0.2662211785 0.9605099204
4600272400.0 -0.2510514293 0.9646536982
4650272100.0 -0.2394717289 0.9678439165
4700271800.0 -0.2266303638 0.9711772482
4750271500.0 -0.2150064183 0.9740032675
4800271200.0 -0.2027036249 0.9766818422
4850270900.0 -0.1890280785 0.9796035745
4900270600.0 -0.1753012993 0.9820641619
4950270300.0 -0.1606387712 0.9847519995
5000270000.0 -0.1461589466 0.9868439584
5050269700.0 -0.1328210888 0.9882757052
5100269400.0 -0.1187168955 0.9901213923
5150269100.0 -0.1047544639 0.9915283075
5200268800.0 -0.0913228227 0.9926267961
5250268500.0 -0.0782646717 0.9936917751
5300268200.0 -0.0646431216 0.9943709167
5350267900.0 -0.0517741268 0.995201071
5400267600.0 -0.0355375251 0.9963256716
5450267300.0 -0.0220458257 0.9964501156
5500267000.0 -0.0070993702 0.9969735419
5550266700.0 0.0080959117 0.9971726169
5600266400.0 0.0235318685 0.9971927616
5650266100.0 0.0402400874 0.9966361738
5700265800.0 0.0546438181 0.9959032265
5750265500.0 0.0691999137 0.9948263045
5800265200.0 0.0830681844 0.99407695
5850264900.0 0.0963620037 0.9931420432
5900264600.0 0.1126261458 0.9911712032
5950264300.0 0.1242142022 0.9895420911
6000264000.0 0.1379432264 0.9881449762
6050263700.0 0.1498875412 0.9863915669
6100263400.0 0.1619725345 0.9850421948
6150263100.0 0.1766341317 0.9826394238
6200262800.0 0.1862934417 0.9810814652
6250262500.0 0.1989058258 0.9787624545
6300262200.0 0.2111302124 0.9761830102
6350261900.0 0.2239292485 0.9733072562
6400261600.0 0.2378625048 0.9701478393
6450261300.0 0.2487135268 0.9676274956
6500261000.0 0.262175405 0.9639757419
6550260700.0 0.2750384545 0.9599124868
6600260400.0 0.2886259443 0.9558470179
6650260100.0 0.3026957281 0.9515846689
6700259800.0 0.3148748906 0.9473117443
6750259500.0 0.3286631836 0.9423854021
6800259200.0 0.3422954574 0.9373795692
6850258900.0 0.354501069 0.9319346257
6900258600.0 0.366924373 0.926804046
6950258300.0 0.3797711813 0.9214942101
7000258000.0 0.3912697487 0.9163894885
7050257700.0 0.4032554875 0.9104715316
7100257400.0 0.4165647761 0.9039890301
7150257100.0 0.4273039055 0.898514038
7200256800.0 0.4404670261 0.891947241
7250256500.0 0.4530936144 0.8854163168
7300256200.0 0.4660339072 0.8786956696
7350255900.0 0.4786905352 0.8716914905
7400255600.0 0.4926800117 0.8640837865
7450255300.0 0.5087467948 0.855426494
7500255000.0 0.5207625369 0.8475397536
7550254700.0 0.5350303002 0.8385111017
7600254400.0 0.5473862305 0.8301258774
7650254100.0 0.5594027352 0.8223987916
7700253800.0 0.5706382466 0.8141230013
7750253500.0 0.5816236878 0.8066317795
7800253200.0 0.5925630529 0.7985840994
7850252900.0 0.6019532678 0.7915879266
7900252600.0 0.6135621108 0.7829263549
7950252300.0 0.6219911338 0.7764487871
8000252000.0 0.6319180152 0.7688427959
8050251700.0 0.6424514026 0.7608111855
8100251400.0 0.6521778528 0.7528103239
8150251100.0 0.6623598724 0.7443555021
8200250800.0 0.6713943827 0.7363253
8250250500.0 0.6803064647 0.7283674447
8300250200.0 0.6897562091 0.7200007584
8350249900.0 0.6989198635 0.7111761542
8400249600.0 0.7072562344 0.7033244631
8450249300.0 0.7157738537 0.694233055
8500249000.0 0.7244997461 0.6855847034
8550248700.0 0.7328710172 0.6764612875
8600248400.0 0.7410552233 0.6668894036
8650248100.0 0.7486574639 0.657454549
8700247800.0 0.7579592451 0.6464802933
8750247500.0 0.7661393822 0.6363066108
8800247200.0 0.7741829295 0.6262253376
8850246900.0 0.783104554 0.6144470796
8900246600.0 0.7914126442 0.6029425952
8950246300.0 0.8006126118 0.5906711722
9000246000.0 0.809193359 0.5786118236
9050245700.0 0.8179370243 0.5662934871
9100245400.0 0.8261100372 0.5538344041
9150245100.0 0.8349529525 0.5409382722
9200244800.0 0.8444307391 0.5266937936
9250244500.0 0.8534128376 0.5120872569
9300244200.0 0.8614578729 0.4984858106
9350243900.0 0.8691217652 0.4850717614
9400243600.0 0.8758707478 0.4733648466
9450243300.0 0.8813131623 0.4627621837
9500243000.0 0.8876471153 0.4510862467
9550242700.0 0.8917817606 0.4434729344
9600242400.0 0.8960406514 0.435814905
9650242100.0 0.8999612918 0.4289081551
9700241800.0 0.9050409126 0.4203322104
9750241500.0 0.9092493402 0.4126940239
9800241200.0 0.9143695568 0.4033883274
9850240900.0 0.9201258325 0.3917275027
9900240600.0 0.9262761811 0.3794960524
9950240300.0 0.9330939058 0.3632611915
10000240000.0 0.9382272606 0.3510733187
10050239700.0 0.9442096383 0.3350757253
10100239400.0 0.9490754466 0.3187381242
10150239100.0 0.9538017793 0.303349648
10200238800.0 0.9581624492 0.2880466007
10250238500.0 0.9615583905 0.2743071648
10300238200.0 0.9647022015 0.2604073572
10350237900.0 0.9675221445 0.2469474168
10400237600.0 0.9700752492 0.2334086465
10450237300.0 0.9727854815 0.2199596456
10500237000.0 0.9750458293 0.2075029535
10550236700.0 0.9770682566 0.1928748209
10600236400.0 0.9792647922 0.1794234061
10650236100.0 0.9816054077 0.1647436075
10700235800.0 0.9838813016 0.1521555069
10750235500.0 0.985773735 0.138786252
10800235200.0 0.9880644876 0.1241384017
10850234900.0 0.9898633013 0.1093220193
10900234600.0 0.9918737805 0.0946906392
10950234300.0 0.9937103656 0.0812624989
11000234000.0 0.9955477569 0.0657413129
11050233700.0 0.9972816099 0.0491601287
11100233400.0 0.9987110371 0.0312708773
11150233100.0 1.000051301 0.0149568083
11200232800.0 1.000807376 -0.0009142972
11250232500.0 1.001826144 -0.0193779974
11300232200.0 1.002151064 -0.03724118
11350231900.0 1.001849707 -0.053007327
11400231600.0 1.001184552 -0.0689356484
11450231300.0 1.001452626 -0.0839327544
11500231000.0 0.9996673162 -0.1011077159
11550230700.0 0.9981439772 -0.114628929
11600230400.0 0.9967573886 -0.1273704769
11650230100.0 0.9947554763 -0.1389290414
11700229800.0 0.992805569 -0.1543818524
11750229500.0 0.9902927246 -0.1678179007
11800229200.0 0.9874596203 -0.1810865607
11850228900.0 0.9837873995 -0.1929742118
11900228600.0 0.9803002455 -0.2024873531
11950228300.0 0.9763341721 -0.2126043419
12000228000.0 0.9738053761 -0.2212463106
12050227700.0 0.9701175798 -0.2340363873
12100227400.0 0.9670619048 -0.2453146552
12150227100.0 0.9623366656 -0.2621039185
12200226800.0 0.9582286573 -0.2727092647
12250226500.0 0.9536372658 -0.2857694835
12300226200.0 0.9498525933 -0.297819363
12350225900.0 0.9440889195 -0.3123820238
12400225600.0 0.9403785616 -0.324187686
12450225300.0 0.9358219964 -0.3368883948
12500225000.0 0.9302447855 -0.3514496435
12550224700.0 0.9248609555 -0.3651012578
12600224400.0 0.9200873414 -0.3779402487
12650224100.0 0.9142144037 -0.3922101393
12700223800.0 0.9090250499 -0.4050993835
12750223500.0 0.9033723543 -0.4184164961
12800223200.0 0.8980574438 -0.4310369954
12850222900.0 0.8927135581 -0.4430426834
12900222600.0 0.8872198098 -0.4544413558
12950222300.0 0.8812021226 -0.4678656097
13000222000.0 0.8754506646 -0.4792428481
13050221700.0 0.8681630469 -0.492460353
13100221400.0 0.8617853885 -0.5041958596
13150221100.0 0.8548541217 -0.5162237534
13200220800.0 0.8477762272 -0.5277550979
13250220500.0 0.8406468718 -0.5399162783
13300220200.0 0.8328623379 -0.55092058
13350219900.0 0.8247360708 -0.5631262018
13400219600.0 0.8163304965 -0.5747061613
13450219300.0 0.8069697025 -0.5879962544
13500219000.0 0.7973557072 -0.6010662854
13550218700.0 0.7873809557 -0.6133904388
13600218400.0 0.777449468 -0.6250357452
13650218100.0 0.7680921426 -0.6365301547
13700217800.0 0.7574162547 -0.6480596159
13750217500.0 0.7474431356 -0.6593600669
13800217200.0 0.7366085057 -0.6696179656
13850216900.0 0.7262028788 -0.6808501602
13900216600.0 0.7159214526 -0.6899878272
13950216300.0 0.7047091301 -0.7002717663
14000216000.0 0.6957695547 -0.709064748
14050215700.0 0.6864415792 -0.7172191201
14100215400.0 0.6766300711 -0.7264477116
14150215100.0 0.6677027257 -0.7351917882
14200214800.0 0.6578994009 -0.74404837
14250214500.0 0.6476878752 -0.753447688
14300214200.0 0.6372988807 -0.7629431379
14350213900.0 0.625857938 -0.7725856964
14400213600.0 0.6142303164 -0.7821529186
14450213300.0 0.6015080488 -0.7922625542
14500213000.0 0.5881363729 -0.8026871419
14550212700.0 0.5761747945 -0.8122152201
14600212400.0 0.563480263 -0.820573237
14650212100.0 0.5510561435 -0.8294118457
14700211800.0 0.5370757377 -0.8386156986
14750211500.0 0.5249645341 -0.8470111413
14800211200.0 0.5124015475 -0.8555352478
14850210900.0 0.5002628663 -0.8629997755
14900210600.0 0.4868182301 -0.8706732041
14950210300.0 0.4735092741 -0.878466113
15000210000.0 0.4607589088 -0.8852202044
15050209700.0 0.4483039595 -0.8911842038
15100209400.0 0.4355506605 -0.897233628
15150209100.0 0.4231781055 -0.9026296134
15200208800.0 0.4113855026 -0.9084305104
15250208500.0 0.3997989562 -0.9128548116
15300208200.0 0.3875159891 -0.917157596
15350207900.0 0.3743443368 -0.9222644472
15400207600.0 0.3596212276 -0.9276401005
15450207300.0 0.3444633217 -0.9317402584
15500207000.0 0.330449151 -0.9372533893
15550206700.0 0.3158871802 -0.9419161892
15600206400.0 0.2999050386 -0.9466727121
15650206100.0 0.2842657056 -0.9508386235
15700205800.0 0.2702413431 -0.9543421597
15750205500.0 0.2565755228 -0.9578824164
15800205200.0 0.2424397381 -0.9611787015
15850204900.0 0.2282445723 -0.9646981718
15900204600.0 0.2131837965 -0.9683338674
15950204300.0 0.1988595552 -0.9714968678
16000204000.0 0.1846992464 -0.9746522585
16050203700.0 0.1691563786 -0.9777072038
16100203400.0 0.154236811 -0.979691632
16150203100.0 0.1403401208 -0.9822055622
16200202800.0 0.1255747966 -0.9840194655
16250202500.0 0.1104610268 -0.9859451234
16300202200.0 0.0950128785 -0.9874733344
16350201900.0 0.0801937994 -0.9890247697
16400201600.0 0.0657153266 -0.9900251875
16450201300.0 0.0500457035 -0.9912639279
16500201000.0 0.0329315651 -0.9919979363
16550200700.0 0.0168907984 -0.9925428583
16600200400.0 0.0008646447 -0.9928455744
16650200100.0 -0.0149710815 -0.9926152925
16700199800.0 -0.0317206312 -0.9923647029
16750199500.0 -0.0501015278 -0.9913959322
16800199200.0 -0.0666057314 -0.9908601439
16850198900.0 -0.0818212813 -0.9897824068
16900198600.0 -0.0959748832 -0.9883579134
16950198300.0 -0.1095874373 -0.9878028547
17000198000.0 -0.1229242873 -0.9860195564
17050197700.0 -0.1356340263 -0.9844602573
17100197400.0 -0.1488400327 -0.9820619445
17150197100.0 -0.1615440817 -0.9799544992
17200196800.0 -0.174011291 -0.9780017674
17250196500.0 -0.1871959341 -0.9755344772
17300196200.0 -0.198994248 -0.9732622311
17350195900.0 -0.2110548783 -0.9709227268
17400195600.0 -0.223025974 -0.9682329579
17450195300.0 -0.2357914951 -0.9656721265
17500195000.0 -0.2491355218 -0.962394253
17550194700.0 -0.2628473154 -0.9586301769
17600194400.0 -0.2764577891 -0.9546271118
17650194100.0 -0.2902809382 -0.9507779989
17700193800.0 -0.3029732966 -0.9463627539
17750193500.0 -0.3169454007 -0.941853736
17800193200.0 -0.3315868094 -0.9370397954
17850192900.0 -0.3465888595 -0.9317659355
17900192600.0 -0.3616554615 -0.9252593887
17950192300.0 -0.3769768015 -0.9178306296
18000192000.0 -0.3917807914 -0.9107618062
18050191700.0 -0.4056225994 -0.9030065308
18100191400.0 -0.4197685524 -0.8952142005
18150191100.0 -0.4345792045 -0.8872426666
18200190800.0 -0.4513112221 -0.878199706
18250190500.0 -0.4683048522 -0.8684732826
18300190200.0 -0.4839580959 -0.8599741611
18350189900.0 -0.4989710656 -0.8512950271
18400189600.0 -0.5137357248 -0.8426764407
18450189300.0 -0.5268625423 -0.8355497211
18500189000.0 -0.5405327094 -0.8264548868
18550188700.0 -0.5530331629 -0.8194036718
18600188400.0 -0.5652546358 -0.812331101
18650188100.0 -0.5765478283 -0.8056043283
18700187800.0 -0.5876048051 -0.7989915364
18750187500.0 -0.5984135954 -0.7924000584
18800187200.0 -0.6091688682 -0.7854819799
18850186900.0 -0.6194581315 -0.7785652306
18900186600.0 -0.6295972666 -0.7711888834
18950186300.0 -0.6398598761 -0.7635557101
19000186000.0 -0.6472716655 -0.7574541156
19050185700.0 -0.6566331079 -0.7501369321
19100185400.0 -0.6666780381 -0.7420677093
19150185100.0 -0.6767071774 -0.7334567486
19200184800.0 -0.6856923794 -0.7255274602
19250184500.0 -0.6960118184 -0.7165761828
19300184200.0 -0.7074054115 -0.7064771213
19350183900.0 -0.7184289457 -0.6972771437
19400183600.0 -0.7283975534 -0.6866671873
19450183300.0 -0.7367422368 -0.677265733
19500183000.0 -0.7455744707 -0.66668292
19550182700.0 -0.7550650076 -0.6562731023
19600182400.0 -0.7650662547 -0.6443868054
19650182100.0 -0.7755954348 -0.6320075875
19700181800.0 -0.7863155509 -0.6188118112
19750181500.0 -0.796551197 -0.6050214771
19800181200.0 -0.8068050861 -0.5897040652
19850180900.0 -0.8164163002 -0.574568246
19900180600.0 -0.8239907943 -0.5601935288
19950180300.0 -0.8331395627 -0.5438223509
20000180000.0 -0.8229912271 -0.547380828
20050179700.0 -0.8313154748 -0.5343097297
20100179400.0 -0.8401352866 -0.5212978805
20150179100.0 -0.8477856069 -0.5093637301
20200178800.0 -0.8562567752 -0.4980948169
20250178500.0 -0.8657133108 -0.4858506306
20300178200.0 -0.8754658629 -0.4716059718
20350177900.0 -0.884451073 -0.4578417514
20400177600.0 -0.8932609224 -0.4432932064
20450177300.0 -0.9021154648 -0.4288610775
20500177000.0 -0.9101811229 -0.4153353339
20550176700.0 -0.9176532934 -0.4018149393
20600176400.0 -0.9250547715 -0.3888122115
20650176100.0 -0.931463971 -0.3769744521
20700175800.0 -0.9375755842 -0.3643071269
20750175500.0 -0.9449921915 -0.3533109102
20800175200.0 -0.9497179216 -0.3434291208
20850174900.0 -0.9538575669 -0.3310535529
20900174600.0 -0.9576824344 -0.3208699259
20950174300.0 -0.9629584596 -0.3096148505
21000174000.0 -0.9644199534 -0.2986608791
21050173700.0 -0.966263313 -0.2890081741
21100173400.0 -0.9699126194 -0.2775949814
21150173100.0 -0.9733142617 -0.2662510888
21200172800.0 -0.9769405687 -0.2532547167
21250172500.0 -0.9811955387 -0.2395835092
21300172200.0 -0.9843848087 -0.2254360818
21350171900.0 -0.9859655569 -0.2111379838
21400171600.0 -0.9883498006 -0.1967827166
21450171300.0 -0.9890379465 -0.1829334936
21500171000.0 -0.9890756576 -0.1674237723
21550170700.0 -0.9897984213 -0.1529103122
21600170400.0 -0.9904432577 -0.1367381956
21650170100.0 -0.9912789842 -0.1213062478
21700169800.0 -0.9899437139 -0.1059616887
21750169500.0 -0.9901482819 -0.0898927499
21800169200.0 -0.9892784393 -0.0729422488
21850168900.0 -0.9897458344 -0.0569427239
21900168600.0 -0.9891035305 -0.040000433
21950168300.0 -0.9887074571 -0.0246255943
22000168000.0 -0.9889309273 -0.0094690369
22050167700.0 -0.9894650708 0.0048392076
22100167400.0 -0.9898316369 0.0205508653
22150167100.0 -0.9908634698 0.0367860196
22200166800.0 -0.9907597547 0.0528616044
22250166500.0 -0.9913131981 0.0699605739
22300166200.0 -0.9900177045 0.0867704141
22350165900.0 -0.988378804 0.1026881516
22400165600.0 -0.9876749994 0.1188494606
22450165300.0 -0.9864572493 0.1339371373
22500165000.0 -0.9845037421 0.1474372354
22550164700.0 -0.9830939143 0.1644808656
22600164400.0 -0.9808954245 0.1799950887
22650164100.0 -0.9776131916 0.1958710801
22700163800.0 -0.9748596463 0.2115658595
22750163500.0 -0.9716930058 0.2260802682
22800163200.0 -0.9689937764 0.2389401512
22850162900.0 -0.9663845075 0.2531057543
22900162600.0 -0.9645194301 0.2665863469
22950162300.0 -0.962826588 0.280376463
23000162000.0 -0.9610581598 0.2931722403
23050161700.0 -0.958264435 0.3062283391
23100161400.0 -0.9554519511 0.3198075277
23150161100.0 -0.952917628 0.3327203296
23200160800.0 -0.9493706807 0.3457804225
23250160500.0 -0.9466481041 0.3575867013
23300160200.0 -0.9443191575 0.3705963048
23350159900.0 -0.9394304388 0.3842927271
23400159600.0 -0.9348431676 0.3987176755
23450159300.0 -0.929468089 0.4120623804
23500159000.0 -0.9251038519 0.4251800959
23550158700.0 -0.92017328 0.4392448328
23600158400.0 -0.9140590413 0.4535044932
23650158100.0 -0.9069752328 0.4677228395
23700157800.0 -0.8985674905 0.4821412952
23750157500.0 -0.8891768706 0.4966350429
23800157200.0 -0.8797267454 0.5102842037
23850156900.0 -0.8699511903 0.5230854239
23900156600.0 -0.8601200649 0.5353984358
23950156300.0 -0.8508281296 0.5475903609
24000156000.0 -0.841466525 0.5599032673
24050155700.0 -0.8310668768 0.5728127886
24100155400.0 -0.8209038125 0.5848240467
24150155100.0 -0.8092675995 0.5970045852
24200154800.0 -0.7991414692 0.6084400058
24250154500.0 -0.7874551632 0.6211164533
24300154200.0 -0.7757516545 0.6328997125
24350153900.0 -0.7638508399 0.6439679512
24400153600.0 -0.7511784109 0.6547361108
24450153300.0 -0.7389991862 0.6650057493
24500153000.0 -0.7275584757 0.6751174147
24550152700.0 -0.7165297843 0.6854015508
24600152400.0 -0.7046000277 0.6943619974
24650152100.0 -0.6926566592 0.7026631533
