!Created with skrf (http://scikit-rf.org).
# Hz S RI R 50.0 
!freq ReS11 ImS11
300000.0 -0.9763856702 -0.1160192979
50299700.0 -1.000086443 0.015509318
100299400.0 -0.9979716984 0.0284580654
150299100.0 -1.002716322 0.0452612283
200298800.0 -0.9996268855 0.0587501315
250298500.0 -0.9974063562 0.0721737931
300298200.0 -0.9860863223 0.0879684635
350297900.0 -0.9939502271 0.0986992278
400297600.0 -0.9932661603 0.1155098253
450297300.0 -0.9910570886 0.129215155
500297000.0 -0.9896830081 0.1440996894
550296700.0 -0.9843719735 0.1562218347
600296400.0 -1.017308861 0.1896254501
650296100.0 -0.982202125 0.1863006016
700295800.0 -0.9795262607 0.200686967
750295500.0 -0.976456408 0.2145144089
800295200.0 -0.9730343202 0.2286462188
850294900.0 -0.969647195 0.2425155597
900294600.0 -0.9658897774 0.2560969093
950294300.0 -0.9621788383 0.2697089349
1000294000.0 -0.9581112703 0.283924288
1050293700.0 -0.9537989955 0.2977271738
1100293400.0 -0.9492780182 0.3121390227
1150293100.0 -0.9453350667 0.3240879942
1200292800.0 -0.9401564129 0.3383576341
1250292500.0 -0.9346028031 0.3518852136
1300292200.0 -0.9289134666 0.365068
1350291900.0 -0.9234001927 0.3790829341
1400291600.0 -0.9179895474 0.3920777549
1450291300.0 -0.9123184853 0.4046095096
1500291000.0 -0.9060160596 0.4179538465
1550290700.0 -0.899383151 0.4312642395
1600290400.0 -0.8934087688 0.444281262
1650290100.0 -0.8865791969 0.4562844941
1700289800.0 -0.8796577028 0.4698964754
1750289500.0 -0.8728152587 0.4820601842
1800289200.0 -0.8653520042 0.4949322744
1850288900.0 -0.858692491 0.5063289379
1900288600.0 -0.8509117986 0.5192901443
1950288300.0 -0.8428234134 0.5318778495
2000288000.0 -0.8352670071 0.543211212
2050287700.0 -0.8271550212 0.5556213409
2100287400.0 -0.8191814811 0.5672567744
2150287100.0 -0.8104832 0.5792356194
2200286800.0 -0.8028046362 0.5896350104
2250286500.0 -0.7939595249 0.6016324266
2300286200.0 -0.7850436111 0.613411642
2350285900.0 -0.7764300474 0.6243502724
2400285600.0 -0.7673871113 0.635246365
2450285300.0 -0.7588930651 0.6457681996
2500285000.0 -0.7491295989 0.6568047951
2550284700.0 -0.7400749133 0.6671433988
2600284400.0 -0.7306772457 0.677298128
2650284100.0 -0.7218939421 0.6880635837
2700283800.0 -0.7111796081 0.6985488977
2750283500.0 -0.7008396927 0.7092958856
2800283200.0 -0.6908989632 0.7186731401
2850282900.0 -0.6807312931 0.7285843859
2900282600.0 -0.6703317726 0.7382101466
2950282300.0 -0.6603813751 0.747486782
3000282000.0 -0.649808263 0.75684304
3050281700.0 -0.6383926434 0.766327716
3100281400.0 -0.6263406627 0.7755604702
3150281100.0 -0.614597006 0.7848959495
3200280800.0 -0.6031988551 0.7934259173
3250280500.0 -0.5923521715 0.8011098466
3300280200.0 -0.5809694948 0.8090293636
3350279900.0 -0.5695696087 0.8165377463
3400279600.0 -0.5573641576 0.8242454561
3450279300.0 -0.5463418617 0.8312961802
3500279000.0 -0.5340009 0.838554387
3550278700.0 -0.5216064721 0.8455586929
3600278400.0 -0.5095184461 0.8529047536
3650278100.0 -0.4962904613 0.8606857501
3700277800.0 -0.4842751787 0.8668122033
3750277500.0 -0.4719470734 0.8735861246
3800277200.0 -0.4594785374 0.8801866647
3850276900.0 -0.4474774601 0.886036625
3900276600.0 -0.4366624751 0.8916420205
3950276300.0 -0.4240534334 0.897608075
4000276000.0 -0.412039936 0.903778339
4050275700.0 -0.3993641743 0.9095243364
4100275400.0 -0.3879466301 0.9150602216
4150275100.0 -0.3755206683 0.9209372801
4200274800.0 -0.3622749786 0.9262313655
4250274500.0 -0.350035538 0.9313213978
4300274200.0 -0.337245147 0.9366792469
4350273900.0 -0.3233566495 0.9420832486
4400273600.0 -0.3084918388 0.9471651455
4450273300.0 -0.2932133405 0.9524423066
4500273000.0 -0.2794644935 0.9567367538
4550272700.0 -0.2654465712 0.9609409887
4600272400.0 -0.2498964984 0.9651272151
4650272100.0 -0.2382581073 0.9682336234
4700271800.0 -0.2249787242 0.9716690128
4750271500.0 -0.2132554226 0.9746533448
4800271200.0 -0.2006046026 0.9772919917
4850270900.0 -0.1867269795 0.9800005084
4900270600.0 -0.1728810982 0.9824333176
4950270300.0 -0.1586459631 0.9851220314
5000270000.0 -0.1443662166 0.9871094471
5050269700.0 -0.1309732887 0.9887977691
5100269400.0 -0.1172612415 0.9905622515
5150269100.0 -0.1037790822 0.9920620162
5200268800.0 -0.0906266244 0.9931639245
5250268500.0 -0.0776598517 0.9938579957
5300268200.0 -0.0644808276 0.9947300411
5350267900.0 -0.05229603 0.9953943522
5400267600.0 -0.0358731073 0.996523391
5450267300.0 -0.0228713162 0.9967210687
5500267000.0 -0.0077281498 0.9969708197
5550266700.0 0.0072942262 0.9973648264
5600266400.0 0.0226683809 0.9972537641
5650266100.0 0.0393748173 0.9970478342
5700265800.0 0.0538055728 0.9963042565
5750265500.0 0.0690160933 0.9954002769
5800265200.0 0.0826328233 0.9940957287
5850264900.0 0.0961275713 0.9932451594
5900264600.0 0.1129541845 0.9916953661
5950264300.0 0.1249218827 0.9903291662
6000264000.0 0.1386223067 0.9880754606
6050263700.0 0.1512386717 0.9866282648
6100263400.0 0.1637857806 0.9851725141
6150263100.0 0.1781995936 0.9826336769
6200262800.0 0.1887465375 0.9807944008
6250262500.0 0.2010801232 0.9783348575
6300262200.0 0.2140362497 0.9757193279
6350261900.0 0.2272483815 0.9726338003
6400261600.0 0.2409144848 0.9694178792
6450261300.0 0.2522524854 0.9665980818
6500261000.0 0.2653419626 0.9632919232
6550260700.0 0.2782328367 0.9592875088
6600260400.0 0.2915211169 0.9551790441
6650260100.0 0.3052903249 0.9508056253
6700259800.0 0.3175025131 0.9466047784
6750259500.0 0.3311816178 0.9414665095
6800259200.0 0.3442584381 0.936605686
6850258900.0 0.3564601612 0.9314073836
6900258600.0 0.3683649506 0.9262588288
6950258300.0 0.3811546566 0.9210274807
7000258000.0 0.3930160851 0.9157547235
7050257700.0 0.4053016822 0.909778446
7100257400.0 0.4180536334 0.9035057149
7150257100.0 0.4285021874 0.8979043509
7200256800.0 0.4414269937 0.891671745
7250256500.0 0.4530386833 0.8853651147
7300256200.0 0.4660812154 0.878437567
7350255900.0 0.4786367318 0.8715345463
7400255600.0 0.4920129033 0.8645338266
7450255300.0 0.5072415779 0.8553927203
7500255000.0 0.5185840423 0.8484151669
7550254700.0 0.53289395 0.8400576019
7600254400.0 0.5456876232 0.8314428857
7650254100.0 0.5568287635 0.823894935
7700253800.0 0.5689374464 0.8156986961
7750253500.0 0.5800689472 0.8078969063
7800253200.0 0.5906895278 0.8004087631
7850252900.0 0.6003355799 0.7933278584
7900252600.0 0.6120253493 0.7843872641
7950252300.0 0.6208543204 0.778071859
8000252000.0 0.6310244295 0.7703896215
8050251700.0 0.6415325505 0.7621046525
8100251400.0 0.6516056807 0.7541019521
8150251100.0 0.6618928146 0.7452848385
8200250800.0 0.6709277106 0.7374723687
8250250500.0 0.6796171947 0.7294057418
8300250200.0 0.6894384931 0.7206387619
8350249900.0 0.698637138 0.7120853711
8400249600.0 0.7065351284 0.7040008143
8450249300.0 0.7155187034 0.6946877833
8500249000.0 0.724194092 0.6859054865
8550248700.0 0.7325562588 0.6769972048
8600248400.0 0.7409583046 0.6673427108
8650248100.0 0.7487591001 0.6580641086
8700247800.0 0.7583351171 0.6466777974
8750247500.0 0.7667357942 0.636536489
8800247200.0 0.7745765319 0.6263155816
8850246900.0 0.7837216089 0.6147962652
8900246600.0 0.7920675704 0.6033203642
8950246300.0 0.8016923149 0.5903661352
9000246000.0 0.8109002691 0.5777362612
9050245700.0 0.8198083382 0.5648129928
9100245400.0 0.8281444484 0.5524491051
9150245100.0 0.8377844834 0.5387346405
9200244800.0 0.8476056305 0.5233708052
9250244500.0 0.8568718067 0.5077560242
9300244200.0 0.865441379 0.4935305882
9350243900.0 0.8730721116 0.4795448742
9400243600.0 0.879928819 0.4671522277
9450243300.0 0.8858209227 0.4555622588
9500243000.0 0.8919836733 0.4434578811
9550242700.0 0.8958657641 0.4358619727
9600242400.0 0.8997578634 0.4283040331
9650242100.0 0.9033973755 0.4218046394
9700241800.0 0.9078629569 0.4138539067
9750241500.0 0.9117907771 0.4061798779
9800241200.0 0.9166759703 0.3967615125
9850240900.0 0.9220412521 0.3854828555
9900240600.0 0.9274120524 0.3738481946
9950240300.0 0.9342005039 0.3576628618
10000240000.0 0.939232733 0.3462889337
10050239700.0 0.944751716 0.3308887769
10100239400.0 0.9496095995 0.3155254893
10150239100.0 0.9541900977 0.3004616581
10200238800.0 0.9582935874 0.2853869041
10250238500.0 0.9617300366 0.2721752442
10300238200.0 0.9646552897 0.2582793936
10350237900.0 0.9673090533 0.2448624319
10400237600.0 0.9699510799 0.2319881467
10450237300.0 0.9725617452 0.2183342003
10500237000.0 0.9746958359 0.2059337031
10550236700.0 0.9771540275 0.191930606
10600236400.0 0.9791912113 0.178521659
10650236100.0 0.9812758871 0.1639080904
10700235800.0 0.9834766847 0.1511004365
10750235500.0 0.9860872891 0.1380583375
10800235200.0 0.9877298979 0.1242700096
10850234900.0 0.9897116682 0.1095199478
10900234600.0 0.9915743369 0.0949043166
10950234300.0 0.9936126239 0.0813979913
11000234000.0 0.9951998436 0.0663671578
11050233700.0 0.996901542 0.0501559947
11100233400.0 0.9983743821 0.032681168
11150233100.0 0.9993899426 0.0165123373
11200232800.0 0.9998961935 0.001250584
11250232500.0 1.001374814 -0.0151693681
11300232200.0 1.001617647 -0.0329959347
11350231900.0 1.001307812 -0.0490120443
11400231600.0 1.001692144 -0.0646120471
11450231300.0 1.001016064 -0.0798665462
11500231000.0 0.9996334898 -0.0966094121
11550230700.0 0.9985563715 -0.1104420664
11600230400.0 0.9969657509 -0.1221693156
11650230100.0 0.9945761512 -0.1334926831
11700229800.0 0.9928404442 -0.1481179515
11750229500.0 0.9905897264 -0.1631537958
11800229200.0 0.987878875 -0.1766932351
11850228900.0 0.9843764616 -0.1887784627
11900228600.0 0.9809159797 -0.1986125782
11950228300.0 0.9778967483 -0.2093314631
12000228000.0 0.9746855676 -0.2183458827
12050227700.0 0.9709017825 -0.2312832847
12100227400.0 0.9682349825 -0.2417948349
12150227100.0 0.962571808 -0.2588333245
12200226800.0 0.9596553585 -0.2693440914
12250226500.0 0.9554377458 -0.2817211827
12300226200.0 0.9510808096 -0.2947558503
12350225900.0 0.9468164453 -0.308952994
12400225600.0 0.9418483126 -0.3213597588
12450225300.0 0.9371817467 -0.3340748744
12500225000.0 0.9322708629 -0.3486774805
12550224700.0 0.9270521163 -0.3625053843
12600224400.0 0.9220794989 -0.3755061221
12650224100.0 0.9160204924 -0.3898690527
12700223800.0 0.9108192322 -0.4026791633
12750223500.0 0.9052463848 -0.4158272957
12800223200.0 0.9000958437 -0.4278519587
12850222900.0 0.8945838846 -0.4403560743
12900222600.0 0.8888119918 -0.4526003552
12950222300.0 0.8826609242 -0.4652039012
13000222000.0 0.8767452741 -0.4769893302
13050221700.0 0.8700982501 -0.4896154673
13100221400.0 0.863414002 -0.5010876431
13150221100.0 0.8565477368 -0.5137454838
13200220800.0 0.8495840955 -0.5251373355
13250220500.0 0.8423634892 -0.5374044597
13300220200.0 0.8346796879 -0.5481451396
13350219900.0 0.8266986969 -0.5600609462
13400219600.0 0.8184071965 -0.5720639722
13450219300.0 0.8088696174 -0.5856831134
13500219000.0 0.7988339212 -0.5994087488
13550218700.0 0.7886781641 -0.6124045726
13600218400.0 0.7790297264 -0.6245170444
13650218100.0 0.7689968085 -0.6360771772
13700217800.0 0.7577558712 -0.6477225301
13750217500.0 0.7486125779 -0.6587597027
13800217200.0 0.7365148194 -0.671390771
13850216900.0 0.7256503521 -0.6826428016
13900216600.0 0.7160568764 -0.6918586555
13950216300.0 0.7049022049 -0.7016768697
14000216000.0 0.6945195521 -0.7108081583
14050215700.0 0.6852727984 -0.7194765272
14100215400.0 0.6751089261 -0.7281937028
14150215100.0 0.6662573743 -0.7369510942
14200214800.0 0.6568874162 -0.7451525427
14250214500.0 0.6466577306 -0.7547838227
14300214200.0 0.6361590939 -0.7638790172
14350213900.0 0.6251586048 -0.773595868
14400213600.0 0.6129909699 -0.7835478457
14450213300.0 0.6000159444 -0.7935782208
14500213000.0 0.5870704453 -0.8032674701
14550212700.0 0.5747214117 -0.813085719
14600212400.0 0.5621053261 -0.8220334995
14650212100.0 0.5496544858 -0.8303318274
14700211800.0 0.5354431897 -0.8400843421
14750211500.0 0.5228230458 -0.8481342331
14800211200.0 0.5108718587 -0.8562406093
14850210900.0 0.4985147626 -0.8638211031
14900210600.0 0.485339496 -0.8717709705
14950210300.0 0.4718290216 -0.8792994792
15000210000.0 0.459195869 -0.886005276
15050209700.0 0.4471460892 -0.8923218115
15100209400.0 0.4337145368 -0.8980214736
15150209100.0 0.4216870282 -0.9037234661
15200208800.0 0.408494692 -0.9088473979
15250208500.0 0.3974577906 -0.9132180969
15300208200.0 0.3854755142 -0.9181689993
15350207900.0 0.3723246488 -0.922702267
15400207600.0 0.3580700036 -0.9286520674
15450207300.0 0.3428274472 -0.9331887682
15500207000.0 0.3288105497 -0.9379517008
15550206700.0 0.3132958946 -0.9434742744
15600206400.0 0.2977222611 -0.9471116326
15650206100.0 0.2818934976 -0.9513007399
15700205800.0 0.2676955432 -0.9552850232
15750205500.0 0.2536603696 -0.9588099076
15800205200.0 0.2391797397 -0.9623889402
15850204900.0 0.2246869809 -0.9657025245
15900204600.0 0.2098261963 -0.9692569219
15950204300.0 0.1955437467 -0.9723074236
16000204000.0 0.1814311688 -0.9750835073
16050203700.0 0.1666022896 -0.9778830217
16100203400.0 0.1519483413 -0.9801701854
16150203100.0 0.137266674 -0.9827947579
16200202800.0 0.1233252491 -0.9840312256
16250202500.0 0.1087100308 -0.9863087272
16300202200.0 0.0934380228 -0.9879632044
16350201900.0 0.0785566704 -0.98890716
16400201600.0 0.0638204274 -0.9902813062
16450201300.0 0.0488216564 -0.9911248189
16500201000.0 0.0319247445 -0.9919395719
16550200700.0 0.0162011182 -0.9925393494
16600200400.0 0.0006405951 -0.9927019034
16650200100.0 -0.0157213362 -0.9923802783
16700199800.0 -0.0319529758 -0.9922759667
16750199500.0 -0.0508756426 -0.9914304778
16800199200.0 -0.065964347 -0.9903542041
16850198900.0 -0.0812812856 -0.9899302397
16900198600.0 -0.0953070866 -0.9881570649
16950198300.0 -0.1084291113 -0.9876128757
17000198000.0 -0.1212285449 -0.9856789078
17050197700.0 -0.1348742533 -0.9835940411
17100197400.0 -0.1470802401 -0.9821347834
17150197100.0 -0.160013377 -0.979718514
17200196800.0 -0.1725728424 -0.97738073
17250196500.0 -0.1857158596 -0.9756623529
17300196200.0 -0.1977008476 -0.9731478122
17350195900.0 -0.2098193306 -0.9711652743
17400195600.0 -0.2218705191 -0.9685981335
17450195300.0 -0.2351198255 -0.9656999472
17500195000.0 -0.2483840218 -0.9625257219
17550194700.0 -0.2624601827 -0.9587388982
17600194400.0 -0.2761471507 -0.9551193934
17650194100.0 -0.2896907381 -0.9506814037
17700193800.0 -0.3028244494 -0.9467159542
17750193500.0 -0.317184644 -0.9416642295
17800193200.0 -0.3312886792 -0.9366206354
17850192900.0 -0.3465596259 -0.931611988
17900192600.0 -0.3619115668 -0.9250690097
17950192300.0 -0.3775460904 -0.9181380859
18000192000.0 -0.3922460913 -0.910751204
18050191700.0 -0.4060876399 -0.9030161368
18100191400.0 -0.4202863583 -0.8951946213
18150191100.0 -0.4352148177 -0.88736872
18200190800.0 -0.4520999499 -0.8781273162
18250190500.0 -0.4689724473 -0.8687796727
18300190200.0 -0.4844700094 -0.8599948301
18350189900.0 -0.499431077 -0.8514912411
18400189600.0 -0.5139486072 -0.8430569501
18450189300.0 -0.527433398 -0.8349930142
18500189000.0 -0.540424017 -0.8271191762
18550188700.0 -0.5534973867 -0.8193411731
18600188400.0 -0.5652279155 -0.8125466919
18650188100.0 -0.5758447424 -0.8062038414
18700187800.0 -0.5869605649 -0.7997280814
18750187500.0 -0.5978317774 -0.7932524812
18800187200.0 -0.6081233662 -0.7862275992
18850186900.0 -0.6183803016 -0.7793008642
18900186600.0 -0.6286805869 -0.7718141939
18950186300.0 -0.6386566639 -0.7641593781
19000186000.0 -0.6461729623 -0.7581520508
19050185700.0 -0.6549417667 -0.7507132958
19100185400.0 -0.6650064668 -0.7425220642
19150185100.0 -0.6748851902 -0.7344026565
19200184800.0 -0.6836982723 -0.72631762
19250184500.0 -0.6943665015 -0.7166042665
19300184200.0 -0.7064574564 -0.7070416938
19350183900.0 -0.7168703875 -0.6978498449
19400183600.0 -0.7262640366 -0.6877671623
19450183300.0 -0.7356009574 -0.6773466635
19500183000.0 -0.7434034787 -0.6674737729
19550182700.0 -0.7536677338 -0.6563850177
19600182400.0 -0.7640159043 -0.6449873644
19650182100.0 -0.7746432016 -0.6326445161
19700181800.0 -0.785306742 -0.6193106911
19750181500.0 -0.7960302858 -0.6050922491
19800181200.0 -0.8064584103 -0.5901809484
19850180900.0 -0.8162433301 -0.5746315889
19900180600.0 -0.8238189386 -0.5603808103
19950180300.0 -0.8328710608 -0.5436488805
20000180000.0 -0.8260332084 -0.5460802523
20050179700.0 -0.8340268745 -0.5331793789
20100179400.0 -0.8428836469 -0.5194413557
20150179100.0 -0.850546002 -0.5073047417
20200178800.0 -0.8590939136 -0.4947244846
20250178500.0 -0.8687907969 -0.4805524353
20300178200.0 -0.8788044631 -0.4657180346
20350177900.0 -0.8881175189 -0.4522194208
20400177600.0 -0.8964230778 -0.4373924957
20450177300.0 -0.9048864083 -0.4228057476
20500177000.0 -0.9132784152 -0.4088896459
20550176700.0 -0.920966342 -0.3954136751
20600176400.0 -0.9280013953 -0.3821142699
20650176100.0 -0.9342818187 -0.3698510897
20700175800.0 -0.9410150241 -0.3582556411
20750175500.0 -0.9476509347 -0.3466832927
20800175200.0 -0.9531295676 -0.3358968799
20850174900.0 -0.9571359768 -0.3246491224
20900174600.0 -0.9619813433 -0.3134262695
20950174300.0 -0.9670332075 -0.3013893725
21000174000.0 -0.9693902483 -0.2904376492
21050173700.0 -0.9723144913 -0.2795620305
21100173400.0 -0.9758210998 -0.2674740873
21150173100.0 -0.9806564798 -0.2552756581
21200172800.0 -0.9833105802 -0.2411976533
21250172500.0 -0.986914035 -0.227606923
21300172200.0 -0.9896864646 -0.2138005058
21350171900.0 -0.9908668019 -0.1995589099
21400171600.0 -0.9928964848 -0.1847783713
21450171300.0 -0.9931960481 -0.170717366
21500171000.0 -0.9929102536 -0.1546174763
21550170700.0 -0.993297048 -0.139625655
21600170400.0 -0.9920977417 -0.1245558162
21650170100.0 -0.9914546641 -0.1073842307
21700169800.0 -0.9892120614 -0.0931749028
21750169500.0 -0.9889637246 -0.076378987
21800169200.0 -0.9872233081 -0.0603280103
21850168900.0 -0.9868178175 -0.0437397987
21900168600.0 -0.9858991615 -0.0281356546
21950168300.0 -0.9846604026 -0.0121142665
22000168000.0 -0.9838774626 0.0031259832
22050167700.0 -0.9834071275 0.0174331385
22100167400.0 -0.9834704581 0.0326700435
22150167100.0 -0.9843937945 0.0481839758
22200166800.0 -0.9846891185 0.0641300996
22250166500.0 -0.9839438519 0.0816803664
22300166200.0 -0.9832037267 0.0980143961
22350165900.0 -0.9819741796 0.1145456524
22400165600.0 -0.9797618309 0.1312141736
22450165300.0 -0.9789112119 0.1445625797
22500165000.0 -0.976569998 0.1589359127
22550164700.0 -0.9746803072 0.1741062431
22600164400.0 -0.9744602415 0.189929032
22650164100.0 -0.9714493555 0.2043699239
22700163800.0 -0.9683391249 0.2207954211
22750163500.0 -0.966635021 0.2363012086
22800163200.0 -0.9626697874 0.2491813438
22850162900.0 -0.9610223996 0.2626022907
22900162600.0 -0.9597930344 0.2756158573
22950162300.0 -0.9587880385 0.2884810103
23000162000.0 -0.9573937214 0.300534422
23050161700.0 -0.955237414 0.3129393495
23100161400.0 -0.952839469 0.3256438177
23150161100.0 -0.9500004446 0.3379410807
23200160800.0 -0.9477724271 0.3503232505
23250160500.0 -0.9452101458 0.3625224986
23300160200.0 -0.9422118484 0.3736141339
23350159900.0 -0.9380872059 0.3873130076
23400159600.0 -0.9331854944 0.4008915839
23450159300.0 -0.9289164808 0.4137294045
23500159000.0 -0.9245244703 0.426665298
23550158700.0 -0.9196650971 0.4401581154
23600158400.0 -0.914714291 0.45384635
23650158100.0 -0.9082303229 0.4677159477
23700157800.0 -0.9003447672 0.4812738238
23750157500.0 -0.891957234 0.4957661369
23800157200.0 -0.8830384558 0.5087492697
23850156900.0 -0.8737099224 0.5213925799
23900156600.0 -0.8655074629 0.5339267385
23950156300.0 -0.8560849514 0.5464558016
24000156000.0 -0.8467233026 0.5582524404
24050155700.0 -0.8364988403 0.5708807466
24100155400.0 -0.826623966 0.5825399838
24150155100.0 -0.8161568707 0.5939218677
24200154800.0 -0.8048643765 0.6058982099
24250154500.0 -0.7932312366 0.6171965398
24300154200.0 -0.7826369153 0.6282017815
24350153900.0 -0.7705367681 0.6390798502
24400153600.0 -0.7579421542 0.6495776517
24450153300.0 -0.745855608 0.659610761
24500153000.0 -0.7345891961 0.6690189504
24550152700.0 -0.7240509319 0.6788332581
24600152400.0 -0.7117192249 0.6877758707
24650152100.0 -0.7003284488 0.6957424831
