!Created with skrf (http://scikit-rf.org).
# Hz S RI R 50.0 
!freq ReS11 ImS11
300000.0 -0.9752050586 -0.1215543676
50299700.0 -1.000056056 0.0149403202
100299400.0 -0.998033476 0.0279324125
150299100.0 -1.002731895 0.0448812979
200298800.0 -0.9995690635 0.0582175169
250298500.0 -0.9974680716 0.0716259067
300298200.0 -0.9861240828 0.0874144659
350297900.0 -0.9940212201 0.0983005078
400297600.0 -0.9930936034 0.1147689876
450297300.0 -0.9910512317 0.1287338893
500297000.0 -0.989320684 0.1433355758
550296700.0 -0.9843636997 0.1559486621
600296400.0 -1.017235694 0.1891684648
650296100.0 -0.9820417262 0.185794585
700295800.0 -0.9793538971 0.2000268771
750295500.0 -0.9762595416 0.2139689518
800295200.0 -0.973009901 0.2282276088
850294900.0 -0.9697102945 0.2419430711
900294600.0 -0.9659200933 0.2555398016
950294300.0 -0.9619629411 0.2692262033
1000294000.0 -0.9581459668 0.2832150449
1050293700.0 -0.9537321011 0.2971063335
1100293400.0 -0.9493024856 0.3114696624
1150293100.0 -0.9455555002 0.3235571114
1200292800.0 -0.9402566467 0.3377082954
1250292500.0 -0.934888772 0.3510907977
1300292200.0 -0.92905347 0.3645184014
1350291900.0 -0.9234737 0.3786372283
1400291600.0 -0.9181016016 0.3914649649
1450291300.0 -0.912463545 0.4040136196
1500291000.0 -0.9063584745 0.417393795
1550290700.0 -0.899782099 0.4308231825
1600290400.0 -0.8935215314 0.4435371593
1650290100.0 -0.8868569826 0.4558532346
1700289800.0 -0.8798888895 0.4691388063
1750289500.0 -0.8729968208 0.4814630297
1800289200.0 -0.8655866978 0.4943824559
1850288900.0 -0.858672029 0.5057586461
1900288600.0 -0.851031591 0.5188156078
1950288300.0 -0.8429327547 0.5314355751
2000288000.0 -0.8353551841 0.5428745785
2050287700.0 -0.8272689594 0.5553547645
2100287400.0 -0.8195393614 0.5666433181
2150287100.0 -0.8108827199 0.5785735392
2200286800.0 -0.8030146815 0.5892293397
2250286500.0 -0.7940928312 0.6014252707
2300286200.0 -0.785412746 0.6128533288
2350285900.0 -0.7769824633 0.6236638324
2400285600.0 -0.7680801629 0.6342148914
2450285300.0 -0.7591287661 0.6452692319
2500285000.0 -0.7491390806 0.6567300538
2550284700.0 -0.740116029 0.6670971485
2600284400.0 -0.731055067 0.6767985187
2650284100.0 -0.7223155557 0.6871654141
2700283800.0 -0.71195366 0.6977032076
2750283500.0 -0.701576934 0.7081047947
2800283200.0 -0.6915845243 0.7181692698
2850282900.0 -0.6809663818 0.7282797888
2900282600.0 -0.6707138502 0.7377761188
2950282300.0 -0.6601334542 0.7472766277
3000282000.0 -0.6496002887 0.7567349155
3050281700.0 -0.6383911488 0.7659356051
3100281400.0 -0.6267529989 0.7751338797
3150281100.0 -0.6155286414 0.7841369744
3200280800.0 -0.6040267895 0.7923958782
3250280500.0 -0.5930543161 0.8002203252
3300280200.0 -0.5813403674 0.8083783684
3350279900.0 -0.5692086199 0.8165450688
3400279600.0 -0.5567462523 0.8245550995
3450279300.0 -0.545657627 0.8316018603
3500279000.0 -0.533914132 0.838521219
3550278700.0 -0.5216408845 0.8457564354
3600278400.0 -0.509918082 0.8524082577
3650278100.0 -0.4967610417 0.8601174743
3700277800.0 -0.4846891034 0.8665305093
3750277500.0 -0.4719930874 0.8731352709
3800277200.0 -0.4598419848 0.8799333779
3850276900.0 -0.4477874016 0.8857111884
3900276600.0 -0.436884707 0.8912490422
3950276300.0 -0.424765084 0.897113145
4000276000.0 -0.4130748673 0.9029957487
4050275700.0 -0.4005556272 0.9092523211
4100275400.0 -0.3894596273 0.9144411398
4150275100.0 -0.3761706844 0.9207688424
4200274800.0 -0.3623769358 0.92590309
4250274500.0 -0.3501084458 0.9313394944
4300274200.0 -0.3366906653 0.9367545115
4350273900.0 -0.3225299127 0.9420528656
4400273600.0 -0.3077580979 0.9471771117
4450273300.0 -0.2929104787 0.9524947122
4500273000.0 -0.279512036 0.9565084805
4550272700.0 -0.2660875573 0.9606574866
4600272400.0 -0.2509535313 0.9648165345
4650272100.0 -0.2396894738 0.9679021254
4700271800.0 -0.2266866348 0.971103667
4750271500.0 -0.2149860674 0.9741504179
4800271200.0 -0.2027545051 0.9767968143
4850270900.0 -0.1890677294 0.9794897801
4900270600.0 -0.1750559492 0.9818896634
4950270300.0 -0.160564893 0.9846400609
5000270000.0 -0.1461766062 0.9864540182
5050269700.0 -0.132620436 0.9884155648
5100269400.0 -0.1184110979 0.989924248
5150269100.0 -0.1046770761 0.9919638204
5200268800.0 -0.0911211502 0.9929560805
5250268500.0 -0.0781098864 0.9937117944
5300268200.0 -0.0644986904 0.9942665557
5350267900.0 -0.0516685758 0.9953680775
5400267600.0 -0.0356108684 0.9963512731
5450267300.0 -0.0222889308 0.9965767505
5500267000.0 -0.0067981344 0.9971759217
5550266700.0 0.0080020572 0.9971290652
5600266400.0 0.0238054248 0.9973612334
5650266100.0 0.0406635937 0.9969579174
5700265800.0 0.0546202099 0.9958589555
5750265500.0 0.0695320026 0.995045261
5800265200.0 0.0831956145 0.9942655141
5850264900.0 0.0963049144 0.9929002974
5900264600.0 0.1127939177 0.9916115051
5950264300.0 0.1243285157 0.989757168
6000264000.0 0.1382713207 0.9883798688
6050263700.0 0.1496457171 0.98670787
6100263400.0 0.1620210804 0.9851252244
6150263100.0 0.1764985667 0.9825941135
6200262800.0 0.1860246798 0.9809582409
6250262500.0 0.1989232967 0.9787260707
6300262200.0 0.2112177955 0.9761781484
6350261900.0 0.2239488346 0.9734893665
6400261600.0 0.2379813164 0.9702266153
6450261300.0 0.2489027442 0.9678164962
6500261000.0 0.262420672 0.9642560703
6550260700.0 0.27532071 0.960095564
6600260400.0 0.2886938829 0.95584583
6650260100.0 0.3030031296 0.951633459
6700259800.0 0.3148620948 0.9473610693
6750259500.0 0.328793123 0.9425037118
6800259200.0 0.3425099789 0.9375077412
6850258900.0 0.3546135475 0.932099478
6900258600.0 0.3670849995 0.9270219846
6950258300.0 0.3798025514 0.9217427732
7000258000.0 0.3913567821 0.9162711141
7050257700.0 0.4033620619 0.910558068
7100257400.0 0.4167427915 0.9039530136
7150257100.0 0.4273809828 0.8985427287
7200256800.0 0.4404035509 0.8919738832
7250256500.0 0.4529715053 0.8854399835
7300256200.0 0.4659456444 0.8790760166
7350255900.0 0.4789538305 0.8719058332
7400255600.0 0.492864055 0.8640476034
7450255300.0 0.5086583171 0.8551345265
7500255000.0 0.5207707027 0.8473235231
7550254700.0 0.5350011187 0.8384015943
7600254400.0 0.5475884662 0.8301797621
7650254100.0 0.5589154241 0.8220997659
7700253800.0 0.5710639975 0.8142678765
7750253500.0 0.5815525374 0.8066559401
7800253200.0 0.5922855248 0.7986906174
7850252900.0 0.6023770075 0.7915258919
7900252600.0 0.613740894 0.7828051024
7950252300.0 0.6221748237 0.7763124071
8000252000.0 0.6320151924 0.7689445151
8050251700.0 0.6426813629 0.760589366
8100251400.0 0.6522139975 0.7527995389
8150251100.0 0.6624364287 0.7442483906
8200250800.0 0.6718408367 0.7361745178
8250250500.0 0.6806513058 0.7282537726
8300250200.0 0.6899983556 0.7199848305
8350249900.0 0.6989040551 0.711047216
8400249600.0 0.7072053883 0.7029278288
8450249300.0 0.7156698876 0.6942960623
8500249000.0 0.7242445564 0.6854334557
8550248700.0 0.7325860324 0.6763880626
8600248400.0 0.7408212546 0.6668502878
8650248100.0 0.7486917481 0.6576620577
8700247800.0 0.7580094891 0.6465375204
8750247500.0 0.7663752632 0.6363401167
8800247200.0 0.7743026727 0.6260534469
8850246900.0 0.7827852718 0.6144164581
8900246600.0 0.7915375144 0.603094982
8950246300.0 0.8005711377 0.5904785239
9000246000.0 0.8093216896 0.5784378504
9050245700.0 0.8178581946 0.5662123959
9100245400.0 0.8261690435 0.553968774
9150245100.0 0.8349420615 0.5410066714
9200244800.0 0.8443273205 0.5266470624
9250244500.0 0.8534481545 0.5119280041
9300244200.0 0.8613742517 0.4983596011
9350243900.0 0.8689984767 0.4851053856
9400243600.0 0.8756195895 0.473323735
9450243300.0 0.8814560571 0.4627357444
9500243000.0 0.887683254 0.4511474243
9550242700.0 0.8916992227 0.4435624802
9600242400.0 0.8958273874 0.4361252878
9650242100.0 0.8999300214 0.4290760324
9700241800.0 0.9048028558 0.4206222355
9750241500.0 0.9092119352 0.4129324395
9800241200.0 0.9140250281 0.4036733424
9850240900.0 0.9199450335 0.3918519376
9900240600.0 0.9258482488 0.3800829472
9950240300.0 0.933233896 0.3629837729
10000240000.0 0.9380882008 0.3505277219
10050239700.0 0.943847932 0.3350862974
10100239400.0 0.9494909431 0.3185021735
10150239100.0 0.9540763398 0.3029747419
10200238800.0 0.9583258786 0.2876589106
10250238500.0 0.9616250733 0.274167915
10300238200.0 0.9646637282 0.2602335614
10350237900.0 0.9675996441 0.2469653587
10400237600.0 0.9699141455 0.2334121684
10450237300.0 0.9729719083 0.2197268334
10500237000.0 0.9751504703 0.2074255109
10550236700.0 0.9773296711 0.1931154683
10600236400.0 0.9793105292 0.1793676209
10650236100.0 0.9812033968 0.1648092299
10700235800.0 0.9838674299 0.152252669
10750235500.0 0.9859545582 0.1387925986
10800235200.0 0.9880445753 0.1249664559
10850234900.0 0.9901196743 0.1095552829
10900234600.0 0.9920161051 0.0944633664
10950234300.0 0.9939039639 0.0812440611
11000234000.0 0.9956425643 0.0655588438
11050233700.0 0.9973846642 0.0486839823
11100233400.0 0.9990175452 0.0312397876
11150233100.0 1.000311514 0.0141379158
11200232800.0 1.001117202 -0.0019775976
11250232500.0 1.001903081 -0.0196182617
11300232200.0 1.001753592 -0.0384448244
11350231900.0 1.002374881 -0.0542228883
11400231600.0 1.001580853 -0.0695232142
11450231300.0 1.001244776 -0.0849010059
11500231000.0 0.9995460969 -0.1018603368
11550230700.0 0.9984305072 -0.1148291176
11600230400.0 0.9967942877 -0.1274054841
11650230100.0 0.994629714 -0.1388565701
11700229800.0 0.9925733494 -0.1539356169
11750229500.0 0.9901573869 -0.1684830283
11800229200.0 0.9874153449 -0.1818484491
11850228900.0 0.9834674193 -0.1935010805
11900228600.0 0.980104641 -0.2028807764
11950228300.0 0.9765681798 -0.2131493878
12000228000.0 0.9737751103 -0.2220646671
12050227700.0 0.9699214199 -0.2346796617
12100227400.0 0.9662075303 -0.2458422352
12150227100.0 0.9617688736 -0.2624380343
12200226800.0 0.9578570167 -0.2736600628
12250226500.0 0.9541141051 -0.2857926163
12300226200.0 0.9495844726 -0.2982431229
12350225900.0 0.9451153738 -0.3119162527
12400225600.0 0.9408115464 -0.3247427932
12450225300.0 0.9355938792 -0.3371424166
12500225000.0 0.9304938669 -0.3517296712
12550224700.0 0.9250120736 -0.3653627311
12600224400.0 0.9199132364 -0.378082377
12650224100.0 0.9142487653 -0.3924522183
12700223800.0 0.9088410065 -0.4053318128
12750223500.0 0.9033718334 -0.4185910204
12800223200.0 0.8979803721 -0.4311832162
12850222900.0 0.8929602574 -0.4432348648
12900222600.0 0.8871872202 -0.4551314798
12950222300.0 0.8811964158 -0.4670945698
13000222000.0 0.8751440976 -0.4791175941
13050221700.0 0.8687373312 -0.4918987899
13100221400.0 0.8616297132 -0.5047109276
13150221100.0 0.8548559635 -0.516485425
13200220800.0 0.8479928065 -0.5276702381
13250220500.0 0.8405215557 -0.5399557403
13300220200.0 0.8330874877 -0.5511008623
13350219900.0 0.8249268278 -0.5632067022
13400219600.0 0.8163405432 -0.5749156506
13450219300.0 0.8071457818 -0.5879875758
13500219000.0 0.7977441101 -0.6007060933
13550218700.0 0.7872755509 -0.6134464067
13600218400.0 0.7777312377 -0.6255678029
13650218100.0 0.7683359748 -0.6355098387
13700217800.0 0.7566487914 -0.6487494624
13750217500.0 0.7478243846 -0.6591821885
13800217200.0 0.7364274516 -0.6697735831
13850216900.0 0.7260904873 -0.6811727318
13900216600.0 0.7157641732 -0.6900075647
13950216300.0 0.705109447 -0.7005164978
14000216000.0 0.6955084957 -0.7094433246
14050215700.0 0.6862538215 -0.7174648236
14100215400.0 0.6763548045 -0.7264988741
14150215100.0 0.6674927653 -0.7353487634
14200214800.0 0.6580126832 -0.7440858966
14250214500.0 0.6476013935 -0.7535999328
14300214200.0 0.6371543455 -0.7630245705
14350213900.0 0.6258814565 -0.77268563
14400213600.0 0.6141846639 -0.7827727448
14450213300.0 0.600647013 -0.7923391795
14500213000.0 0.5880244202 -0.8026020883
14550212700.0 0.5762838515 -0.8118680259
14600212400.0 0.5632567971 -0.8205439657
14650212100.0 0.5508516775 -0.8290220959
14700211800.0 0.5369347716 -0.838915057
14750211500.0 0.5245993364 -0.847396867
14800211200.0 0.5123233513 -0.855835679
14850210900.0 0.4999171182 -0.863011886
14900210600.0 0.4868442193 -0.8710221149
14950210300.0 0.4734069279 -0.8787104965
15000210000.0 0.460777621 -0.8854477575
15050209700.0 0.4484386785 -0.8916580145
15100209400.0 0.4355586703 -0.8973538385
15150209100.0 0.4234164237 -0.9025386789
15200208800.0 0.4108593244 -0.9087339005
15250208500.0 0.4001255573 -0.9125524532
15300208200.0 0.3872715898 -0.9175573956
15350207900.0 0.3741579189 -0.9221901005
15400207600.0 0.359726187 -0.927619662
15450207300.0 0.3449853018 -0.9324206449
15500207000.0 0.3307129801 -0.9363120913
15550206700.0 0.315500171 -0.9420548447
15600206400.0 0.2994924955 -0.9467576615
15650206100.0 0.2837415833 -0.9506709667
15700205800.0 0.2702340782 -0.9542236419
15750205500.0 0.2561797846 -0.9578293477
15800205200.0 0.2423977176 -0.9612093286
15850204900.0 0.2281708983 -0.964639547
15900204600.0 0.2129048211 -0.9685163923
15950204300.0 0.198409864 -0.9714731351
16000204000.0 0.1841664098 -0.9740704588
16050203700.0 0.1694668988 -0.9777276373
16100203400.0 0.1545566275 -0.9798219797
16150203100.0 0.1394209605 -0.9821065517
16200202800.0 0.1254023265 -0.9843307397
16250202500.0 0.11076629 -0.9858198002
16300202200.0 0.0947861659 -0.9872876949
16350201900.0 0.0800188814 -0.9885200269
16400201600.0 0.065399542 -0.9901338334
16450201300.0 0.04970273 -0.9912488514
16500201000.0 0.0327263639 -0.9922342979
16550200700.0 0.0166944052 -0.9924817316
16600200400.0 0.0007240465 -0.9925077756
16650200100.0 -0.0154936553 -0.9927676638
16700199800.0 -0.031954578 -0.9925845871
16750199500.0 -0.050446945 -0.991397739
16800199200.0 -0.0671157619 -0.9903366125
16850198900.0 -0.0824967513 -0.9893712991
16900198600.0 -0.0955292095 -0.988615566
16950198300.0 -0.1100244897 -0.9873662901
17000198000.0 -0.1233802595 -0.9860548869
17050197700.0 -0.1359566832 -0.9839694733
17100197400.0 -0.1486321875 -0.9823116146
17150197100.0 -0.1612443076 -0.9799718411
17200196800.0 -0.1740781916 -0.9777662619
17250196500.0 -0.1872232411 -0.9757876658
17300196200.0 -0.1992229494 -0.9732816799
17350195900.0 -0.2112498944 -0.9707215673
17400195600.0 -0.2230324256 -0.9683336912
17450195300.0 -0.2359966035 -0.9654218539
17500195000.0 -0.2490013669 -0.9620447421
17550194700.0 -0.2632061343 -0.9587311372
17600194400.0 -0.2767071764 -0.9545636927
17650194100.0 -0.2902186243 -0.9506512122
17700193800.0 -0.3034753201 -0.9463484182
17750193500.0 -0.3176418178 -0.9415483451
17800193200.0 -0.3316399461 -0.9367044038
17850192900.0 -0.3466111615 -0.9310808559
17900192600.0 -0.3619751129 -0.9245063723
17950192300.0 -0.3773263465 -0.9178889367
18000192000.0 -0.3919011692 -0.910727413
18050191700.0 -0.4058994595 -0.9028255165
18100191400.0 -0.4198956986 -0.8951121858
18150191100.0 -0.4349488966 -0.8869963284
18200190800.0 -0.4517356024 -0.8780005968
18250190500.0 -0.4685833737 -0.8684872311
18300190200.0 -0.4839532655 -0.8596241198
18350189900.0 -0.4994823287 -0.8511941319
18400189600.0 -0.5136700218 -0.8428101255
18450189300.0 -0.5269835681 -0.8349603931
18500189000.0 -0.5407264305 -0.826852548
18550188700.0 -0.5537390431 -0.8191645972
18600188400.0 -0.565667942 -0.8125837629
18650188100.0 -0.57667612 -0.8054679364
18700187800.0 -0.5877269494 -0.7988091163
18750187500.0 -0.5984547718 -0.792590241
18800187200.0 -0.6092016488 -0.7852805317
18850186900.0 -0.6194209123 -0.7786072341
18900186600.0 -0.6296686073 -0.7711463862
18950186300.0 -0.639786255 -0.7633680683
19000186000.0 -0.6474523236 -0.756970258
19050185700.0 -0.6566187951 -0.750383193
19100185400.0 -0.6668387845 -0.7419623272
19150185100.0 -0.676774643 -0.7336618195
19200184800.0 -0.6863398317 -0.7256312454
19250184500.0 -0.6966121706 -0.7161697485
19300184200.0 -0.7077563486 -0.706105308
19350183900.0 -0.7184844867 -0.6960665264
19400183600.0 -0.7286730941 -0.6870000437
19450183300.0 -0.7369559981 -0.6767339765
19500183000.0 -0.745172525 -0.6667503108
19550182700.0 -0.7548771025 -0.6560159889
19600182400.0 -0.7652205232 -0.6443614827
19650182100.0 -0.7760420553 -0.6318041445
19700181800.0 -0.7865320964 -0.618618799
19750181500.0 -0.7969234153 -0.6044702457
19800181200.0 -0.8072306331 -0.5896403189
19850180900.0 -0.8167267081 -0.5742974025
19900180600.0 -0.8245911974 -0.5597120565
19950180300.0 -0.8336699148 -0.5435822312
20000180000.0 -0.8231388754 -0.547240344
20050179700.0 -0.8312989912 -0.5338304804
20100179400.0 -0.84016482 -0.5209535535
20150179100.0 -0.8479412361 -0.5091571126
20200178800.0 -0.8565990125 -0.4976063963
20250178500.0 -0.865742717 -0.4847172835
20300178200.0 -0.87509145 -0.4709840297
20350177900.0 -0.8846863871 -0.4576667396
20400177600.0 -0.8937935158 -0.4430428726
20450177300.0 -0.9021779849 -0.4286882709
20500177000.0 -0.9102164296 -0.4149499519
20550176700.0 -0.9183906839 -0.4015443385
20600176400.0 -0.9252951965 -0.3883688772
20650176100.0 -0.9317101387 -0.3763379979
20700175800.0 -0.9383527993 -0.3644274835
20750175500.0 -0.944611272 -0.3530636236
20800175200.0 -0.9492005663 -0.3419486899
20850174900.0 -0.9537976162 -0.3315056526
20900174600.0 -0.9580993237 -0.3200012346
20950174300.0 -0.961512043 -0.3097562545
21000174000.0 -0.9644364307 -0.298427529
21050173700.0 -0.9661108581 -0.2896869396
21100173400.0 -0.9695617334 -0.2782860301
21150173100.0 -0.9734582295 -0.2659282677
21200172800.0 -0.9779877524 -0.2530126595
21250172500.0 -0.980801142 -0.2389231341
21300172200.0 -0.9845351501 -0.2248950349
21350171900.0 -0.9864907881 -0.2105830587
21400171600.0 -0.98869813 -0.1967420902
21450171300.0 -0.9885734487 -0.1819079863
21500171000.0 -0.9893339526 -0.1672804917
21550170700.0 -0.9901255948 -0.152268486
21600170400.0 -0.9907500611 -0.1366279133
21650170100.0 -0.9910408465 -0.1210916365
21700169800.0 -0.9899959402 -0.1059216021
21750169500.0 -0.989971665 -0.0895760838
21800169200.0 -0.9898548361 -0.0726945531
21850168900.0 -0.989568428 -0.0565805592
21900168600.0 -0.9895376843 -0.0405623875
21950168300.0 -0.9883913724 -0.0245410169
22000168000.0 -0.9891570216 -0.0093313267
22050167700.0 -0.9895867824 0.0052328121
22100167400.0 -0.990118318 0.0207023667
22150167100.0 -0.9907626434 0.0366519201
22200166800.0 -0.9919383897 0.0532820808
22250166500.0 -0.9909112264 0.0706575719
22300166200.0 -0.9899748761 0.0867225515
22350165900.0 -0.9891886341 0.1032874828
22400165600.0 -0.9879641338 0.1192532792
22450165300.0 -0.9854983455 0.1340334258
22500165000.0 -0.983513399 0.1482453083
22550164700.0 -0.9833039749 0.1641384184
22600164400.0 -0.980987989 0.1810545904
22650164100.0 -0.9784147626 0.1959711057
22700163800.0 -0.9746313069 0.2123728305
22750163500.0 -0.9715998788 0.2266919823
22800163200.0 -0.9688633798 0.2404894565
22850162900.0 -0.9663708349 0.253593539
22900162600.0 -0.9644660833 0.2675722761
22950162300.0 -0.9627621388 0.2809175541
23000162000.0 -0.9607875101 0.2939257357
23050161700.0 -0.958790801 0.3075469839
23100161400.0 -0.955923839 0.3209564493
23150161100.0 -0.9527117657 0.3331377412
23200160800.0 -0.9491770207 0.3463431546
23250160500.0 -0.946402507 0.3592257929
23300160200.0 -0.9439769718 0.3714013896
23350159900.0 -0.9401413163 0.3855999827
23400159600.0 -0.9347764676 0.3991725554
23450159300.0 -0.9301077534 0.4119092402
23500159000.0 -0.9251260984 0.425947387
23550158700.0 -0.9204241847 0.4400776948
23600158400.0 -0.9145285925 0.4539702297
23650158100.0 -0.90709838 0.4686145661
23700157800.0 -0.8985004809 0.4828809579
23750157500.0 -0.889022333 0.4972158934
23800157200.0 -0.8796430933 0.5103573817
23850156900.0 -0.8703704354 0.5231492263
23900156600.0 -0.8596867547 0.5361188221
23950156300.0 -0.8504204522 0.5488357128
24000156000.0 -0.8408470311 0.5614274453
24050155700.0 -0.8301427331 0.5733065911
24100155400.0 -0.8194580556 0.5860260349
24150155100.0 -0.8093125033 0.5975713549
24200154800.0 -0.7981824314 0.6091437879
24250154500.0 -0.7864612404 0.621586899
24300154200.0 -0.7748532958 0.6339098203
24350153900.0 -0.7631930566 0.6448447605
24400153600.0 -0.7503803959 0.6551734309
24450153300.0 -0.7387944876 0.6653940972
24500153000.0 -0.7268845471 0.6758782691
24550152700.0 -0.7154258802 0.6858689314
24600152400.0 -0.7037719024 0.6951047501
24650152100.0 -0.69171109 0.7035833617
