!Created with skrf (http://scikit-rf.org).
# Hz S RI R 50.0 
!freq ReS11 ImS11
300000.0 -0.9739571831 -0.1208374349
50299700.0 -0.9999131416 0.014901511
100299400.0 -0.9980304604 0.0280249557
150299100.0 -1.002673996 0.0448490992
200298800.0 -0.9997091708 0.0580679267
250298500.0 -0.9974698264 0.0716886284
300298200.0 -0.9859427972 0.0873906459
350297900.0 -0.9938883682 0.0983504168
400297600.0 -0.993087394 0.1149374124
450297300.0 -0.9908653143 0.1285422081
500297000.0 -0.989661826 0.1435326514
550296700.0 -0.9845131636 0.1559452983
600296400.0 -1.017314487 0.1891841133
650296100.0 -0.9821719693 0.1857711792
700295800.0 -0.9794325125 0.2001800273
750295500.0 -0.9763532516 0.21391546
800295200.0 -0.9729728291 0.2279364375
850294900.0 -0.9696921697 0.2419638974
900294600.0 -0.9657546005 0.2556654625
950294300.0 -0.9622149574 0.2692844948
1000294000.0 -0.9579746755 0.2832207872
1050293700.0 -0.9535596142 0.2972465603
1100293400.0 -0.9493688117 0.311431311
1150293100.0 -0.945530875 0.3235763972
1200292800.0 -0.9402165733 0.3377696039
1250292500.0 -0.9346635934 0.3512541713
1300292200.0 -0.9290016548 0.3643659623
1350291900.0 -0.9233582216 0.3784231399
1400291600.0 -0.9178959785 0.3916559864
1450291300.0 -0.9125658408 0.4040059179
1500291000.0 -0.9062076795 0.4174518263
1550290700.0 -0.8996584984 0.4309292632
1600290400.0 -0.8935385665 0.4435813188
1650290100.0 -0.8868610156 0.4558832677
1700289800.0 -0.8799301239 0.4692921189
1750289500.0 -0.8726870123 0.4815861604
1800289200.0 -0.8655025403 0.4943165105
1850288900.0 -0.858712233 0.5057811617
1900288600.0 -0.851106601 0.5189087833
1950288300.0 -0.8429085372 0.5313736534
2000288000.0 -0.8354168533 0.5427546948
2050287700.0 -0.8272243211 0.5551201439
2100287400.0 -0.8193865671 0.5667402702
2150287100.0 -0.8109061656 0.5786091034
2200286800.0 -0.80311125 0.5892594008
2250286500.0 -0.7940641125 0.6013518533
2300286200.0 -0.7851970341 0.6129033677
2350285900.0 -0.7766842377 0.6235156551
2400285600.0 -0.767938774 0.6343567052
2450285300.0 -0.7590306959 0.6451377698
2500285000.0 -0.7491748175 0.656798482
2550284700.0 -0.7402425747 0.6672441338
2600284400.0 -0.7309931664 0.6769524972
2650284100.0 -0.7225172643 0.687062628
2700283800.0 -0.711698333 0.697501881
2750283500.0 -0.7014862107 0.7082824507
2800283200.0 -0.6914676296 0.7181417266
2850282900.0 -0.6809992762 0.7278829884
2900282600.0 -0.6706857511 0.737757976
2950282300.0 -0.6601776944 0.7472156404
3000282000.0 -0.649553635 0.7567373373
3050281700.0 -0.6384276465 0.7658832442
3100281400.0 -0.626868885 0.7750921966
3150281100.0 -0.61553243 0.7839591157
3200280800.0 -0.6041410678 0.7923844013
3250280500.0 -0.5930975223 0.8002346714
3300280200.0 -0.5814988229 0.8084879567
3350279900.0 -0.569296852 0.8166135981
3400279600.0 -0.5567874246 0.8246015339
3450279300.0 -0.5454082063 0.8317195818
3500279000.0 -0.5338907334 0.8387297218
3550278700.0 -0.5219002577 0.8457067694
3600278400.0 -0.5098285744 0.8524180848
3650278100.0 -0.4967385081 0.8597994439
3700277800.0 -0.4846528367 0.8663049765
3750277500.0 -0.4721920908 0.8731935516
3800277200.0 -0.4599770619 0.879813481
3850276900.0 -0.4476811136 0.8856979978
3900276600.0 -0.4369919437 0.8914360048
3950276300.0 -0.4249810567 0.8972567691
4000276000.0 -0.4131071144 0.9029470225
4050275700.0 -0.4003149965 0.9091082204
4100275400.0 -0.3892768979 0.9145771242
4150275100.0 -0.376150496 0.9205938435
4200274800.0 -0.3627600169 0.9263363359
4250274500.0 -0.3501005232 0.9313518726
4300274200.0 -0.3366783585 0.9367048377
4350273900.0 -0.3227833046 0.9420147031
4400273600.0 -0.307820023 0.9471449291
4450273300.0 -0.2928498024 0.9521740752
4500273000.0 -0.2797033886 0.9565088394
4550272700.0 -0.2659795906 0.960506463
4600272400.0 -0.2511273935 0.9646403979
4650272100.0 -0.2396209191 0.9679433418
4700271800.0 -0.2266484642 0.9711810154
4750271500.0 -0.2149769993 0.9739064898
4800271200.0 -0.2028837738 0.9767309046
4850270900.0 -0.188934414 0.9795711199
4900270600.0 -0.1751967462 0.982045009
4950270300.0 -0.160635788 0.9845362166
5000270000.0 -0.1463542152 0.9867320158
5050269700.0 -0.132656589 0.9882990272
5100269400.0 -0.118684188 0.9900742788
5150269100.0 -0.1045768862 0.9915864163
5200268800.0 -0.0911975949 0.9931303944
5250268500.0 -0.0780595307 0.9936133438
5300268200.0 -0.064721512 0.9945645778
5350267900.0 -0.0518239937 0.9954991346
5400267600.0 -0.0353380602 0.9964509103
5450267300.0 -0.0221576599 0.9966993034
5500267000.0 -0.0070926341 0.9970954382
5550266700.0 0.0080005109 0.997110759
5600266400.0 0.0237645837 0.997231949
5650266100.0 0.0404753857 0.9970299975
5700265800.0 0.0547571147 0.9959277561
5750265500.0 0.0695169681 0.9949506663
5800265200.0 0.0830849823 0.9941271703
5850264900.0 0.0963500934 0.9930361056
5900264600.0 0.1129866361 0.9913867527
5950264300.0 0.1248042133 0.9893775338
6000264000.0 0.1379839108 0.9882108516
6050263700.0 0.1497813283 0.9867203894
6100263400.0 0.1619705617 0.9848608172
6150263100.0 0.1765914548 0.9825504165
6200262800.0 0.1860886724 0.981020268
6250262500.0 0.1987136947 0.9786428013
6300262200.0 0.2110859747 0.9761809245
6350261900.0 0.22401627 0.973477448
6400261600.0 0.2376097061 0.9702339072
6450261300.0 0.2487568545 0.9675626692
6500261000.0 0.2621507186 0.9640044308
6550260700.0 0.2754683516 0.9602259914
6600260400.0 0.288479755 0.9560835968
6650260100.0 0.3027001875 0.9516785645
6700259800.0 0.3150657276 0.9475909227
6750259500.0 0.328757012 0.942427921
6800259200.0 0.3422360129 0.937429122
6850258900.0 0.3545589859 0.9321323812
6900258600.0 0.3672348681 0.9269607918
6950258300.0 0.3799502099 0.9215878058
7000258000.0 0.3912446002 0.9162761228
7050257700.0 0.4033025585 0.9105376249
7100257400.0 0.4166187206 0.9040368705
7150257100.0 0.4272249041 0.8987060953
7200256800.0 0.440469888 0.8920623791
7250256500.0 0.4533319966 0.8853781435
7300256200.0 0.465626065 0.8783934415
7350255900.0 0.4788939916 0.8718304796
7400255600.0 0.4930167881 0.8640066945
7450255300.0 0.5083401811 0.8549575454
7500255000.0 0.5209078463 0.8476409903
7550254700.0 0.5351834788 0.8384397147
7600254400.0 0.5478807151 0.8301455101
7650254100.0 0.5591893665 0.8224041414
7700253800.0 0.5707669197 0.813990995
7750253500.0 0.5818374289 0.806469191
7800253200.0 0.5924083281 0.7986598207
7850252900.0 0.602265981 0.7913348659
7900252600.0 0.6137828405 0.7825815794
7950252300.0 0.6220099309 0.7762678333
8000252000.0 0.6321095694 0.7685811607
8050251700.0 0.6423985927 0.7603486979
8100251400.0 0.6526253825 0.7525718519
8150251100.0 0.6624396249 0.7440634446
8200250800.0 0.6718488138 0.7358729415
8250250500.0 0.6806858167 0.7280326156
8300250200.0 0.6899148419 0.7197572865
8350249900.0 0.6991802275 0.7108878169
8400249600.0 0.7071889657 0.7027405239
8450249300.0 0.716047954 0.694204373
8500249000.0 0.7243328395 0.6854104584
8550248700.0 0.7327974669 0.6762898117
8600248400.0 0.7410878062 0.6666774277
8650248100.0 0.7486431166 0.657361702
8700247800.0 0.7579614513 0.6463085293
8750247500.0 0.7662257223 0.63634088
8800247200.0 0.77425548 0.6260055112
8850246900.0 0.7832494504 0.6145887674
8900246600.0 0.7914655722 0.603125201
8950246300.0 0.8006956188 0.5904712745
9000246000.0 0.8093354221 0.5783736722
9050245700.0 0.8177924161 0.5661422281
9100245400.0 0.8263588107 0.5537556056
9150245100.0 0.8350865059 0.5408535138
9200244800.0 0.8444805266 0.5265434498
9250244500.0 0.8533429387 0.5119202739
9300244200.0 0.8615265618 0.4983408626
9350243900.0 0.8692172209 0.4848836196
9400243600.0 0.8758774138 0.4733269538
9450243300.0 0.8813055082 0.4627260724
9500243000.0 0.8875847814 0.4511784537
9550242700.0 0.8917058579 0.4435164029
9600242400.0 0.895788116 0.4360441507
9650242100.0 0.9000583244 0.4291947543
9700241800.0 0.9050764288 0.4203661267
9750241500.0 0.9089675723 0.4130919923
9800241200.0 0.9140013461 0.4033067723
9850240900.0 0.9198874636 0.3917827626
9900240600.0 0.925835411 0.3800793258
9950240300.0 0.9327087102 0.3632990773
10000240000.0 0.9377720085 0.3509403517
10050239700.0 0.9439896605 0.3345584235
10100239400.0 0.9493546123 0.3184228929
10150239100.0 0.9540111083 0.3031467871
10200238800.0 0.9583572504 0.2875983707
10250238500.0 0.9615829004 0.2741826185
10300238200.0 0.9647481745 0.260278848
10350237900.0 0.967508969 0.2468148172
10400237600.0 0.9700956867 0.2335190248
10450237300.0 0.9726294252 0.2196971712
10500237000.0 0.9748916124 0.2074711383
10550236700.0 0.9776770365 0.1925431629
10600236400.0 0.979404005 0.1789859767
10650236100.0 0.981648706 0.1646519896
10700235800.0 0.9838497291 0.152082933
10750235500.0 0.9859707345 0.1388439268
10800235200.0 0.9882351784 0.1241802394
10850234900.0 0.9898118455 0.1096751288
10900234600.0 0.9919691818 0.0944137927
10950234300.0 0.993666836 0.0812427827
11000234000.0 0.9956026732 0.0656312249
11050233700.0 0.997433026 0.0489336262
11100233400.0 0.9990356992 0.0310962523
11150233100.0 1.000127027 0.0143387515
11200232800.0 1.001256656 -0.0018837762
11250232500.0 1.001916802 -0.0193426064
11300232200.0 1.002296925 -0.038577675
11350231900.0 1.001665445 -0.0538712782
11400231600.0 1.001808963 -0.0701009691
11450231300.0 1.001041372 -0.084983792
11500231000.0 0.9996706652 -0.1023848404
11550230700.0 0.9981619599 -0.1142661806
11600230400.0 0.9974055324 -0.1271653771
11650230100.0 0.9947475535 -0.1398231272
11700229800.0 0.9924379032 -0.1541240204
11750229500.0 0.9901917558 -0.1688206816
11800229200.0 0.9873385866 -0.1813195311
11850228900.0 0.983667442 -0.1935984751
11900228600.0 0.9798659265 -0.2030372023
11950228300.0 0.9763728514 -0.2128409207
12000228000.0 0.9741151763 -0.2214635535
12050227700.0 0.9699997403 -0.2339643174
12100227400.0 0.9667612017 -0.2459483739
12150227100.0 0.9615590526 -0.2624650564
12200226800.0 0.9575861165 -0.2734292179
12250226500.0 0.9539229887 -0.285922138
12300226200.0 0.9494689274 -0.2987761573
12350225900.0 0.94515945 -0.3119326107
12400225600.0 0.9403905011 -0.3243362781
12450225300.0 0.9357922104 -0.3367707651
12500225000.0 0.9301073625 -0.351401914
12550224700.0 0.9247541772 -0.3656702387
12600224400.0 0.9200973108 -0.3782415931
12650224100.0 0.9142055964 -0.3925644066
12700223800.0 0.9089023088 -0.4054588292
12750223500.0 0.903263543 -0.4184438509
12800223200.0 0.8981070486 -0.4308373687
12850222900.0 0.8928270341 -0.4429650891
12900222600.0 0.8872088179 -0.4552192974
12950222300.0 0.8810566063 -0.4675044632
13000222000.0 0.8751235711 -0.4797076435
13050221700.0 0.8680713012 -0.4923190475
13100221400.0 0.8615103876 -0.5043837392
13150221100.0 0.8548588995 -0.5168116479
13200220800.0 0.8475289079 -0.5283253912
13250220500.0 0.8406072555 -0.5400990622
13300220200.0 0.8328403846 -0.5511397233
13350219900.0 0.8247731629 -0.563017619
13400219600.0 0.8166243501 -0.5750886051
13450219300.0 0.8072377665 -0.5880357929
13500219000.0 0.7974274302 -0.6009673686
13550218700.0 0.7874003222 -0.6135259691
13600218400.0 0.7771877272 -0.6258256163
13650218100.0 0.7681035739 -0.6357669008
13700217800.0 0.7570368334 -0.6485309952
13750217500.0 0.7477885358 -0.6588117363
13800217200.0 0.7363268962 -0.670147337
13850216900.0 0.7264002293 -0.6812490705
13900216600.0 0.7161416154 -0.6899602209
13950216300.0 0.7050739722 -0.700778227
14000216000.0 0.6954383876 -0.7085684738
14050215700.0 0.6859789503 -0.7169160977
14100215400.0 0.6765545368 -0.7259316167
14150215100.0 0.667568112 -0.735016702
14200214800.0 0.6579510611 -0.7440023362
14250214500.0 0.6476267987 -0.7535238606
14300214200.0 0.6371648485 -0.7629342059
14350213900.0 0.625648722 -0.7724976295
14400213600.0 0.614034252 -0.7823580006
14450213300.0 0.6010075956 -0.7926885805
14500213000.0 0.5880921876 -0.8023003892
14550212700.0 0.5758407232 -0.8115074655
14600212400.0 0.5637847971 -0.8206340467
14650212100.0 0.5506178828 -0.8293906543
14700211800.0 0.5369863862 -0.838994838
14750211500.0 0.5251348444 -0.8469882945
14800211200.0 0.5123538357 -0.8551811999
14850210900.0 0.5001236878 -0.8632215531
14900210600.0 0.4868557977 -0.8710221873
14950210300.0 0.4734665111 -0.8788154086
15000210000.0 0.4607738319 -0.8854894824
15050209700.0 0.4485704603 -0.8918273366
15100209400.0 0.4358261708 -0.8972658695
15150209100.0 0.4234838305 -0.902647162
15200208800.0 0.4101248267 -0.907908411
15250208500.0 0.3996226908 -0.9124781718
15300208200.0 0.3871932581 -0.9166050604
15350207900.0 0.3749468737 -0.921299393
15400207600.0 0.3591930082 -0.9272037591
15450207300.0 0.3444433307 -0.9320162898
15500207000.0 0.3304158239 -0.9372190568
15550206700.0 0.3157523499 -0.9421396564
15600206400.0 0.299300473 -0.9467362988
15650206100.0 0.28341531 -0.9509525171
15700205800.0 0.2702165433 -0.9543698966
15750205500.0 0.2562661193 -0.9579358309
15800205200.0 0.242115303 -0.9612795509
15850204900.0 0.2279445971 -0.9647109148
15900204600.0 0.2131606085 -0.9682233489
15950204300.0 0.1985863771 -0.9713981949
16000204000.0 0.1841468922 -0.9743352326
16050203700.0 0.168952447 -0.9776807373
16100203400.0 0.1541291372 -0.9794166518
16150203100.0 0.1393276093 -0.9819440622
16200202800.0 0.1252255115 -0.9842475308
16250202500.0 0.1104096181 -0.9860547058
16300202200.0 0.0945068699 -0.9871715636
16350201900.0 0.0797228973 -0.989018497
16400201600.0 0.0650198725 -0.9901695517
16450201300.0 0.0496344722 -0.9911979606
16500201000.0 0.0326429861 -0.9920508606
16550200700.0 0.0165735016 -0.9926433652
16600200400.0 0.0007344125 -0.9926879402
16650200100.0 -0.015648151 -0.9926656748
16700199800.0 -0.0319404085 -0.9921552102
16750199500.0 -0.051086676 -0.9915943317
16800199200.0 -0.0671434851 -0.9902524109
16850198900.0 -0.082782231 -0.9891088386
16900198600.0 -0.0961351894 -0.9880851882
16950198300.0 -0.1103706037 -0.986805713
17000198000.0 -0.1227873326 -0.9853266025
17050197700.0 -0.1353443557 -0.9840362794
17100197400.0 -0.1488923157 -0.9816727955
17150197100.0 -0.1612694789 -0.9799277584
17200196800.0 -0.1743446472 -0.977819005
17250196500.0 -0.1871460568 -0.9752662029
17300196200.0 -0.1992794894 -0.972931438
17350195900.0 -0.2113160348 -0.9707043009
17400195600.0 -0.223342518 -0.9680937677
17450195300.0 -0.236003568 -0.9653375265
17500195000.0 -0.2495100351 -0.9618719397
17550194700.0 -0.2629784689 -0.9585475087
17600194400.0 -0.2768408267 -0.9548287107
17650194100.0 -0.2904779436 -0.9503923237
17700193800.0 -0.3034734569 -0.9462505125
17750193500.0 -0.3179367619 -0.9414218306
17800193200.0 -0.3320372736 -0.936179551
17850192900.0 -0.3469601028 -0.9309967323
17900192600.0 -0.361933869 -0.9249919658
17950192300.0 -0.3774988454 -0.9179304029
18000192000.0 -0.3921253514 -0.9107108564
18050191700.0 -0.4059189618 -0.9026818857
18100191400.0 -0.4200221379 -0.8950785944
18150191100.0 -0.4348792374 -0.8870252608
18200190800.0 -0.4517954236 -0.8778149096
18250190500.0 -0.4684842575 -0.8681655492
18300190200.0 -0.4839644021 -0.8598660335
18350189900.0 -0.4992899266 -0.8513780304
18400189600.0 -0.5135504945 -0.8429875387
18450189300.0 -0.5274713464 -0.8347118051
18500189000.0 -0.540674533 -0.8265009269
18550188700.0 -0.553565511 -0.8184658966
18600188400.0 -0.5652725954 -0.8120838961
18650188100.0 -0.5767461771 -0.8056695697
18700187800.0 -0.5879011248 -0.7990280665
18750187500.0 -0.598509135 -0.7921850376
18800187200.0 -0.6091527905 -0.7851473172
18850186900.0 -0.6196059664 -0.7783729818
18900186600.0 -0.6296749623 -0.7711401071
18950186300.0 -0.6399820313 -0.7634595392
19000186000.0 -0.6477559466 -0.756897668
19050185700.0 -0.6563592226 -0.7500978606
19100185400.0 -0.6666760854 -0.7417442026
19150185100.0 -0.6770648449 -0.733525901
19200184800.0 -0.6864560736 -0.7250739441
19250184500.0 -0.6962677488 -0.716237694
19300184200.0 -0.7074002158 -0.7062625704
19350183900.0 -0.7190998571 -0.6963697447
19400183600.0 -0.7282102255 -0.6868686105
19450183300.0 -0.7370959329 -0.6769023096
19500183000.0 -0.7456055899 -0.6666428175
19550182700.0 -0.7553086618 -0.6561956958
19600182400.0 -0.7652592144 -0.6440393318
19650182100.0 -0.7761078808 -0.6318497891
19700181800.0 -0.7864120095 -0.6186056268
19750181500.0 -0.7972206224 -0.6041813186
19800181200.0 -0.8072416282 -0.5894835069
19850180900.0 -0.8169441234 -0.5740076799
19900180600.0 -0.8244479135 -0.559704967
19950180300.0 -0.8336959217 -0.5435496552
20000180000.0 -0.8226566417 -0.547004094
20050179700.0 -0.8312939459 -0.5339959721
20100179400.0 -0.8399721529 -0.5214173221
20150179100.0 -0.8476557003 -0.508633272
20200178800.0 -0.8566822575 -0.4973128978
20250178500.0 -0.8654751824 -0.4856191048
20300178200.0 -0.8752320772 -0.4717483753
20350177900.0 -0.8846988512 -0.4574770725
20400177600.0 -0.8937658117 -0.4433157272
20450177300.0 -0.9020535081 -0.4292325578
20500177000.0 -0.9102891039 -0.4148712237
20550176700.0 -0.9180391774 -0.4013946995
20600176400.0 -0.9250970465 -0.3886262422
20650176100.0 -0.9316026598 -0.3761736757
20700175800.0 -0.9383019153 -0.3639058613
20750175500.0 -0.9445449403 -0.3530542469
20800175200.0 -0.9491162269 -0.3418699454
20850174900.0 -0.9546241499 -0.3315264673
20900174600.0 -0.9574718203 -0.3200285023
20950174300.0 -0.9609024938 -0.3096186915
21000174000.0 -0.9642070788 -0.2994544276
21050173700.0 -0.9654317186 -0.2890890057
21100173400.0 -0.9697628504 -0.2782961879
21150173100.0 -0.9736558938 -0.2659903254
21200172800.0 -0.9776987214 -0.2530104358
21250172500.0 -0.9813075717 -0.2395082376
21300172200.0 -0.9843698109 -0.2254653376
21350171900.0 -0.9867530599 -0.210930621
21400171600.0 -0.9883998014 -0.1972030819
21450171300.0 -0.9892663803 -0.1830156865
21500171000.0 -0.9890778775 -0.1670579443
21550170700.0 -0.989745374 -0.1530516594
21600170400.0 -0.9916740177 -0.1366808812
21650170100.0 -0.9905508013 -0.1218916042
21700169800.0 -0.9903294493 -0.10708436
21750169500.0 -0.9899073506 -0.0901406595
21800169200.0 -0.9902966061 -0.0738608004
21850168900.0 -0.9901211038 -0.0569912471
21900168600.0 -0.9891151061 -0.0408706192
21950168300.0 -0.9894691283 -0.0250342235
22000168000.0 -0.988801861 -0.0098229069
22050167700.0 -0.9896802782 0.0047907266
22100167400.0 -0.9900815342 0.0206413125
22150167100.0 -0.991106512 0.0366722232
22200166800.0 -0.9916408416 0.0528440143
22250166500.0 -0.9905507152 0.0703473752
22300166200.0 -0.9904463551 0.0870141553
22350165900.0 -0.98883461 0.102672076
22400165600.0 -0.9875419707 0.1187740121
22450165300.0 -0.9862871304 0.1340884175
22500165000.0 -0.9838785739 0.1475559113
22550164700.0 -0.9829838656 0.1644209066
22600164400.0 -0.9802709699 0.1809935472
22650164100.0 -0.9776686605 0.1957470901
22700163800.0 -0.9752548581 0.2120256731
22750163500.0 -0.9718412852 0.2270673366
22800163200.0 -0.9688328256 0.2398270324
22850162900.0 -0.9661170176 0.2533150025
22900162600.0 -0.9643231503 0.2672656039
22950162300.0 -0.9629381982 0.2809097677
23000162000.0 -0.9609250377 0.2935548216
23050161700.0 -0.958353686 0.3067862245
23100161400.0 -0.9560681616 0.3203719847
23150161100.0 -0.952835099 0.3332374948
23200160800.0 -0.9491853305 0.3457351436
23250160500.0 -0.9469339781 0.3585555418
23300160200.0 -0.9434591857 0.3709795274
23350159900.0 -0.9402521519 0.3848774576
23400159600.0 -0.9350073552 0.3990334164
23450159300.0 -0.9294828113 0.4120347176
23500159000.0 -0.9249776141 0.4259790871
23550158700.0 -0.9203564429 0.4398034513
23600158400.0 -0.9139464534 0.4539927241
23650158100.0 -0.90698735 0.4685571522
23700157800.0 -0.8983226943 0.4828374487
23750157500.0 -0.8892446864 0.497274474
23800157200.0 -0.8789218253 0.5109487294
23850156900.0 -0.8693595996 0.5235536214
23900156600.0 -0.859752787 0.5355315584
23950156300.0 -0.849779527 0.5487377088
24000156000.0 -0.8403559496 0.5608747337
24050155700.0 -0.8301825231 0.5733965866
24100155400.0 -0.8203831636 0.5859025626
24150155100.0 -0.8091633264 0.5972628918
24200154800.0 -0.7982020646 0.6098567047
24250154500.0 -0.7867101345 0.6217777196
24300154200.0 -0.7751776412 0.6344976372
24350153900.0 -0.7633918895 0.6447512832
24400153600.0 -0.7505645621 0.6553328993
24450153300.0 -0.7384282162 0.6656479762
24500153000.0 -0.7269533658 0.6754111142
24550152700.0 -0.715514861 0.685892898
24600152400.0 -0.7033375244 0.6944627113
24650152100.0 -0.6915859501 0.7032689563
