!Created with skrf (http://scikit-rf.org).
# Hz S RI R 50.0 
!freq ReS11 ImS11
300000.0 -0.9751286259 -0.1202720339
50299700.0 -0.9999267866 0.0152317762
100299400.0 -0.9979931189 0.0280436526
150299100.0 -1.002699186 0.0449509215
200298800.0 -0.999605649 0.0581363766
250298500.0 -0.9971954974 0.0718753494
300298200.0 -0.9858945896 0.0877130097
350297900.0 -0.9939699218 0.0983309715
400297600.0 -0.9932686205 0.1149484933
450297300.0 -0.9909451575 0.1289055623
500297000.0 -0.9892216553 0.1436604837
550296700.0 -0.9842588196 0.1560865853
600296400.0 -1.017420644 0.1891506181
650296100.0 -0.9820337379 0.1857798213
700295800.0 -0.9793775525 0.2002067421
750295500.0 -0.9761435198 0.2139653032
800295200.0 -0.9730092647 0.2283043596
850294900.0 -0.9696687787 0.2419218194
900294600.0 -0.9658443439 0.2557098558
950294300.0 -0.9620543911 0.2696537597
1000294000.0 -0.9582114729 0.2834628731
1050293700.0 -0.9536508078 0.2971826901
1100293400.0 -0.9493139479 0.3115165323
1150293100.0 -0.9455757612 0.3235910612
1200292800.0 -0.9400573513 0.3381517107
1250292500.0 -0.9345209706 0.3515356763
1300292200.0 -0.9288508412 0.3644942526
1350291900.0 -0.9234750216 0.3786177286
1400291600.0 -0.9178830374 0.3917696816
1450291300.0 -0.9123995043 0.4040612737
1500291000.0 -0.9060391486 0.4175651068
1550290700.0 -0.8996812437 0.4307869044
1600290400.0 -0.8934260033 0.443640545
1650290100.0 -0.8868170902 0.4559568267
1700289800.0 -0.8796812406 0.4694283592
1750289500.0 -0.8727610001 0.4815719126
1800289200.0 -0.8655295892 0.4946478236
1850288900.0 -0.8584974892 0.5059555327
1900288600.0 -0.8510208866 0.5190143086
1950288300.0 -0.842889623 0.5314999166
2000288000.0 -0.8352933527 0.5428768828
2050287700.0 -0.8271983983 0.5552497071
2100287400.0 -0.8193681974 0.5668099439
2150287100.0 -0.8107672411 0.5787715071
2200286800.0 -0.8029110902 0.5890432628
2250286500.0 -0.7941145761 0.6012689712
2300286200.0 -0.7852735419 0.612975427
2350285900.0 -0.7766366774 0.6237735789
2400285600.0 -0.7676977856 0.6347901775
2450285300.0 -0.7591947438 0.6453136042
2500285000.0 -0.749291128 0.6564744105
2550284700.0 -0.7402600391 0.6670989473
2600284400.0 -0.730879308 0.6769006012
2650284100.0 -0.7220411781 0.6873240954
2700283800.0 -0.7117461229 0.697878425
2750283500.0 -0.7012295114 0.7086969708
2800283200.0 -0.6913902817 0.7183571093
2850282900.0 -0.6809419617 0.7282023713
2900282600.0 -0.6707594648 0.737910065
2950282300.0 -0.6605147754 0.7470749759
3000282000.0 -0.6497690826 0.756566023
3050281700.0 -0.6386133745 0.7657860467
3100281400.0 -0.6268158551 0.7750371989
3150281100.0 -0.6152614955 0.7842307027
3200280800.0 -0.603631407 0.792770865
3250280500.0 -0.5926548838 0.800657991
3300280200.0 -0.5813252259 0.8085334302
3350279900.0 -0.5694855965 0.8162375793
3400279600.0 -0.5571459829 0.8241168965
3450279300.0 -0.5463770343 0.8313808423
3500279000.0 -0.5341962543 0.8381491717
3550278700.0 -0.5218620816 0.8453402752
3600278400.0 -0.5100043891 0.8525306113
3650278100.0 -0.4967371027 0.8600626917
3700277800.0 -0.4846758035 0.8664149648
3750277500.0 -0.4722413667 0.8730659006
3800277200.0 -0.4598348236 0.8798372598
3850276900.0 -0.4479185144 0.8856137572
3900276600.0 -0.4368043135 0.8914122162
3950276300.0 -0.4246095141 0.8971586305
4000276000.0 -0.4128027738 0.9034312288
4050275700.0 -0.3997847071 0.909261406
4100275400.0 -0.3887829059 0.9147402293
4150275100.0 -0.3759024871 0.9205074118
4200274800.0 -0.3627628083 0.9259551115
4250274500.0 -0.3504812725 0.9312643234
4300274200.0 -0.3373908863 0.9363392632
4350273900.0 -0.3235269058 0.9419655892
4400273600.0 -0.3086193632 0.9471017358
4450273300.0 -0.2934279008 0.9521162601
4500273000.0 -0.2799561078 0.9565517209
4550272700.0 -0.2659586289 0.9607563532
4600272400.0 -0.2507635 0.9649560576
4650272100.0 -0.2392446534 0.9680393131
4700271800.0 -0.2259095338 0.9713445139
4750271500.0 -0.2141940343 0.9742097399
4800271200.0 -0.2018262009 0.9770391509
4850270900.0 -0.1880055521 0.9797451047
4900270600.0 -0.1741568784 0.9822349603
4950270300.0 -0.1597984311 0.984917044
5000270000.0 -0.1454691324 0.9867647266
5050269700.0 -0.1320227723 0.9883136151
5100269400.0 -0.1179000296 0.9899171015
5150269100.0 -0.1045288066 0.9918450161
5200268800.0 -0.0912194211 0.9927411105
5250268500.0 -0.0781944096 0.9938970732
5300268200.0 -0.0648026092 0.9943870696
5350267900.0 -0.0523924759 0.9950525038
5400267600.0 -0.0361868596 0.9963099683
5450267300.0 -0.0230096615 0.9966065404
5500267000.0 -0.0075731261 0.9969326776
5550266700.0 0.0070839866 0.9971549324
5600266400.0 0.0228440011 0.9969851051
5650266100.0 0.0395708807 0.9970094572
5700265800.0 0.0538006498 0.9962471313
5750265500.0 0.0686302663 0.9953642043
5800265200.0 0.0828895919 0.9941871209
5850264900.0 0.0956090999 0.9931736183
5900264600.0 0.1123457271 0.9916090913
5950264300.0 0.1241502203 0.9898239196
6000264000.0 0.1379283367 0.9879763033
6050263700.0 0.1503305959 0.9867036743
6100263400.0 0.1626565579 0.9849411281
6150263100.0 0.1772983617 0.9828433575
6200262800.0 0.1872576212 0.9809250559
6250262500.0 0.1997471651 0.9785642243
6300262200.0 0.2124944256 0.9759410396
6350261900.0 0.2255208526 0.9730864019
6400261600.0 0.2393731893 0.9697315078
6450261300.0 0.2505689726 0.9673079025
6500261000.0 0.2635520023 0.9635451837
6550260700.0 0.2765669755 0.9596137237
6600260400.0 0.2901243225 0.9557236443
6650260100.0 0.303982685 0.9508669902
6700259800.0 0.3161183425 0.9467165734
6750259500.0 0.3297390304 0.941886362
6800259200.0 0.3430822931 0.936856145
6850258900.0 0.3554796143 0.9317906807
6900258600.0 0.3677222791 0.9266252945
6950258300.0 0.3799652279 0.9212883454
7000258000.0 0.3921052688 0.915959495
7050257700.0 0.4042486101 0.9100398091
7100257400.0 0.4171993791 0.903662012
7150257100.0 0.4277372 0.8982056628
7200256800.0 0.4407627719 0.8918509192
7250256500.0 0.4527962488 0.8855579691
7300256200.0 0.4656354386 0.8786562054
7350255900.0 0.4781996858 0.8719111716
7400255600.0 0.4921147499 0.8644344112
7450255300.0 0.5076814705 0.8552904901
7500255000.0 0.5188156471 0.847661435
7550254700.0 0.5336987213 0.8394362469
7600254400.0 0.5459671303 0.830875562
7650254100.0 0.5577082854 0.8233440562
7700253800.0 0.5691325873 0.8153603291
7750253500.0 0.5802346778 0.8076278792
7800253200.0 0.5911060398 0.799933395
7850252900.0 0.6006759892 0.7927073891
7900252600.0 0.6123963139 0.7841435935
7950252300.0 0.6210013436 0.7776844191
8000252000.0 0.6311356393 0.7698290484
8050251700.0 0.6413398077 0.7618497944
8100251400.0 0.6515355586 0.7536255545
8150251100.0 0.6614033441 0.7451215889
8200250800.0 0.6708278093 0.7371836476
8250250500.0 0.6798421219 0.729007462
8300250200.0 0.6890303932 0.7205970206
8350249900.0 0.6984701342 0.7119071558
8400249600.0 0.7065638628 0.7039723638
8450249300.0 0.715107475 0.6947242436
8500249000.0 0.7242308744 0.6859687452
8550248700.0 0.7324965272 0.676911936
8600248400.0 0.7407439183 0.6674679526
8650248100.0 0.7484866002 0.657998419
8700247800.0 0.7578876874 0.6469089607
8750247500.0 0.7662531288 0.6364906776
8800247200.0 0.7741114202 0.626483121
8850246900.0 0.7830927293 0.6148516904
8900246600.0 0.7916053954 0.6034712889
8950246300.0 0.8008441831 0.5908509893
9000246000.0 0.8099845942 0.5782349907
9050245700.0 0.8186457602 0.5656247122
9100245400.0 0.8274637445 0.5531936424
9150245100.0 0.8362735768 0.5397860007
9200244800.0 0.8461389702 0.5251930623
9250244500.0 0.855270533 0.5099375332
9300244200.0 0.8637249797 0.4957615369
9350243900.0 0.8714815264 0.4821168283
9400243600.0 0.8779882975 0.4701382121
9450243300.0 0.8838643944 0.4587036572
9500243000.0 0.8900959031 0.4468135207
9550242700.0 0.8939724498 0.4393849807
9600242400.0 0.8980115404 0.431882285
9650242100.0 0.9019274653 0.4251054322
9700241800.0 0.9065010589 0.4167856485
9750241500.0 0.9104018782 0.4092375683
9800241200.0 0.915332563 0.399849375
9850240900.0 0.9212015976 0.3880095216
9900240600.0 0.926827737 0.3767218973
9950240300.0 0.9338960599 0.3599811614
10000240000.0 0.9382523564 0.3485375406
10050239700.0 0.9443388873 0.3327284798
10100239400.0 0.9495986543 0.3166856291
10150239100.0 0.9538155838 0.3019819652
10200238800.0 0.9581539167 0.2868587249
10250238500.0 0.9613360961 0.2733944496
10300238200.0 0.9646094233 0.2594142428
10350237900.0 0.9671458356 0.2462653319
10400237600.0 0.9697590449 0.2331041817
10450237300.0 0.9726104171 0.2192920562
10500237000.0 0.9747334224 0.2069422722
10550236700.0 0.9771983734 0.1926160928
10600236400.0 0.9792881524 0.1794163859
10650236100.0 0.9810990092 0.1642102959
10700235800.0 0.9832231003 0.1522603737
10750235500.0 0.9856690001 0.1387310833
10800235200.0 0.9877629147 0.1243443406
10850234900.0 0.9894373301 0.1098514058
10900234600.0 0.9917705317 0.0952456168
10950234300.0 0.9934306614 0.0817584128
11000234000.0 0.9953131409 0.0664499823
11050233700.0 0.9971966515 0.0500300523
11100233400.0 0.9986103669 0.0325314014
11150233100.0 0.9997848303 0.0160074913
11200232800.0 1.000557953 0.0011296136
11250232500.0 1.001263714 -0.0165971194
11300232200.0 1.002250374 -0.034630534
11350231900.0 1.00201495 -0.0509518258
11400231600.0 1.00158589 -0.0654214713
11450231300.0 1.001393785 -0.0814413987
11500231000.0 1.000713871 -0.0972807511
11550230700.0 0.9985468626 -0.1103381683
11600230400.0 0.9976590457 -0.1240503766
11650230100.0 0.9950237049 -0.1350432843
11700229800.0 0.9927701608 -0.1499073379
11750229500.0 0.9907861344 -0.1644036208
11800229200.0 0.9879017422 -0.1780712698
11850228900.0 0.9843092367 -0.1899074014
11900228600.0 0.9806621083 -0.1997627829
11950228300.0 0.9773172511 -0.2102725951
12000228000.0 0.9743918062 -0.2195981269
12050227700.0 0.9711835651 -0.2315072459
12100227400.0 0.9681398658 -0.2426620527
12150227100.0 0.962676928 -0.2592736758
12200226800.0 0.9592633407 -0.2698194395
12250226500.0 0.9547034141 -0.2831952133
12300226200.0 0.950565177 -0.2953321826
12350225900.0 0.9457626924 -0.3093339735
12400225600.0 0.9411160886 -0.3218154768
12450225300.0 0.937150071 -0.3346048166
12500225000.0 0.931540224 -0.3492207753
12550224700.0 0.9260699472 -0.3635502065
12600224400.0 0.9214667334 -0.3761879193
12650224100.0 0.9154391396 -0.3904434437
12700223800.0 0.9102931662 -0.4032230449
12750223500.0 0.9046534363 -0.4163520783
12800223200.0 0.8993690625 -0.4290039881
12850222900.0 0.8940148604 -0.4413094284
12900222600.0 0.8885213266 -0.45300619
12950222300.0 0.8824523704 -0.4654746416
13000222000.0 0.8762550849 -0.477484264
13050221700.0 0.8697843654 -0.4901392124
13100221400.0 0.8629613656 -0.5025519006
13150221100.0 0.8558686698 -0.5141024026
13200220800.0 0.8489122344 -0.5258388264
13250220500.0 0.8419960319 -0.5378460951
13300220200.0 0.834382881 -0.5487008533
13350219900.0 0.8262702313 -0.5608894618
13400219600.0 0.8179890173 -0.5729094913
13450219300.0 0.80860582 -0.5861226787
13500219000.0 0.7988079512 -0.5996966607
13550218700.0 0.7885867945 -0.6121671434
13600218400.0 0.7792264977 -0.6237899395
13650218100.0 0.769552384 -0.6354246324
13700217800.0 0.7583326926 -0.6470777859
13750217500.0 0.7488441346 -0.6582240331
13800217200.0 0.7375798416 -0.6700210482
13850216900.0 0.7255672653 -0.6817953764
13900216600.0 0.7162173052 -0.6905708906
13950216300.0 0.7058246537 -0.7005306356
14000216000.0 0.69532483 -0.7097991381
14050215700.0 0.6861640856 -0.7181414517
14100215400.0 0.6763209317 -0.7270586743
14150215100.0 0.6672212833 -0.7355177298
14200214800.0 0.6577422237 -0.7444920649
14250214500.0 0.647512888 -0.7539125619
14300214200.0 0.6368429847 -0.7631609664
14350213900.0 0.6260756808 -0.7728189105
14400213600.0 0.6137488099 -0.7826023828
14450213300.0 0.601105709 -0.7927929259
14500213000.0 0.5880435941 -0.8027386047
14550212700.0 0.5753961292 -0.8121926291
14600212400.0 0.5632595593 -0.8211649435
14650212100.0 0.5500397011 -0.8294101224
14700211800.0 0.5360939556 -0.8392961222
14750211500.0 0.5243335857 -0.847597192
14800211200.0 0.5116863799 -0.8554102621
14850210900.0 0.4993889273 -0.8631192767
14900210600.0 0.4865307379 -0.8710725642
14950210300.0 0.4730548708 -0.8786075341
15000210000.0 0.4605349325 -0.8853349277
15050209700.0 0.4480707642 -0.8915059797
15100209400.0 0.4352410396 -0.8975274297
15150209100.0 0.4229351291 -0.9029472509
15200208800.0 0.4106264394 -0.9085273856
15250208500.0 0.3993145379 -0.9130264275
15300208200.0 0.3873918124 -0.9177279941
15350207900.0 0.373559837 -0.9224445275
15400207600.0 0.3592299824 -0.9273242896
15450207300.0 0.344663089 -0.9334212583
15500207000.0 0.3298465028 -0.9373424494
15550206700.0 0.3153534939 -0.9421237805
15600206400.0 0.2995013827 -0.9467590615
15650206100.0 0.2834221636 -0.9511324111
15700205800.0 0.26951741 -0.9545248264
15750205500.0 0.2554113526 -0.9581592333
15800205200.0 0.2413624646 -0.9615911263
15850204900.0 0.2269388714 -0.9650906031
15900204600.0 0.2118003684 -0.9688472772
15950204300.0 0.197434526 -0.9718027077
16000204000.0 0.1834102038 -0.974971979
16050203700.0 0.1680291137 -0.9776153579
16100203400.0 0.1534275764 -0.9801543075
16150203100.0 0.1388300404 -0.9819676705
16200202800.0 0.1245488874 -0.9840821579
16250202500.0 0.1101656551 -0.9856542057
16300202200.0 0.0945884799 -0.9873105334
16350201900.0 0.0796476771 -0.988887342
16400201600.0 0.064951833 -0.9898778884
16450201300.0 0.0496020131 -0.9910261105
16500201000.0 0.0328091065 -0.9920375129
16550200700.0 0.0170420989 -0.992540036
16600200400.0 0.0011969313 -0.9926972165
16650200100.0 -0.0148333749 -0.9926033068
16700199800.0 -0.0312984115 -0.9923215975
16750199500.0 -0.0497232296 -0.9914866177
16800199200.0 -0.0659992913 -0.9909359173
16850198900.0 -0.0810231802 -0.9891730086
16900198600.0 -0.0947894568 -0.9885200493
16950198300.0 -0.1085530796 -0.9876759211
17000198000.0 -0.1215667764 -0.9853737891
17050197700.0 -0.1338230633 -0.9841599046
17100197400.0 -0.1470813678 -0.9822396271
17150197100.0 -0.1593953538 -0.9800344887
17200196800.0 -0.1725809927 -0.9780456622
17250196500.0 -0.1855169079 -0.9757046699
17300196200.0 -0.1976034309 -0.9734331997
17350195900.0 -0.2092921482 -0.9712672471
17400195600.0 -0.2214830728 -0.9685932719
17450195300.0 -0.2344667943 -0.9658559916
17500195000.0 -0.2478913831 -0.9623441505
17550194700.0 -0.2619345427 -0.9589646145
17600194400.0 -0.275783159 -0.9548142648
17650194100.0 -0.2892014829 -0.9509951507
17700193800.0 -0.302234523 -0.9466096322
17750193500.0 -0.3165670039 -0.9422136514
17800193200.0 -0.3307264446 -0.9369160819
17850192900.0 -0.3462819432 -0.9316618849
17900192600.0 -0.3609987374 -0.9252657113
17950192300.0 -0.3767573275 -0.9181625225
18000192000.0 -0.3914651892 -0.9108581979
18050191700.0 -0.4055178825 -0.9031829288
18100191400.0 -0.4196301498 -0.8954627758
18150191100.0 -0.4345690934 -0.8874303673
18200190800.0 -0.4513516991 -0.8785087708
18250190500.0 -0.4684953991 -0.8688085741
18300190200.0 -0.4839651635 -0.8604044432
18350189900.0 -0.4988399522 -0.8517981313
18400189600.0 -0.5134922958 -0.8433996638
18450189300.0 -0.5270480104 -0.8354172213
18500189000.0 -0.5405215961 -0.8272640827
18550188700.0 -0.5529909622 -0.8203904434
18600188400.0 -0.5647631138 -0.8131600175
18650188100.0 -0.5761461813 -0.8067431934
18700187800.0 -0.5867735335 -0.8001201449
18750187500.0 -0.5973131953 -0.7935076117
18800187200.0 -0.6079187477 -0.7867035624
18850186900.0 -0.6179986778 -0.7797226633
18900186600.0 -0.6283487167 -0.7723336677
18950186300.0 -0.6385666234 -0.7646829042
19000186000.0 -0.6457292389 -0.7582678111
19050185700.0 -0.6550262687 -0.7512191644
19100185400.0 -0.6650526677 -0.7427410068
19150185100.0 -0.6754998035 -0.7346218369
19200184800.0 -0.6844391127 -0.7260870948
19250184500.0 -0.6940032551 -0.7165882885
19300184200.0 -0.7058417664 -0.7074261532
19350183900.0 -0.7160006039 -0.6983700723
19400183600.0 -0.7265633303 -0.6871113563
19450183300.0 -0.7354153968 -0.677861831
19500183000.0 -0.7437755842 -0.6683127595
19550182700.0 -0.7533907246 -0.6568306441
19600182400.0 -0.7634998209 -0.6450492931
19650182100.0 -0.7745657401 -0.6325754232
19700181800.0 -0.7850582227 -0.6194673051
19750181500.0 -0.7957021947 -0.6052946723
19800181200.0 -0.8059971992 -0.5904779958
19850180900.0 -0.815602681 -0.5750821605
19900180600.0 -0.8236003436 -0.5607355293
19950180300.0 -0.8329386678 -0.5447321628
20000180000.0 -0.8249887933 -0.547544175
20050179700.0 -0.8326951752 -0.5346855504
20100179400.0 -0.8405982343 -0.5209049257
20150179100.0 -0.8487518866 -0.5086855297
20200178800.0 -0.8584945705 -0.4965930888
20250178500.0 -0.8675301623 -0.4830479557
20300178200.0 -0.8771686226 -0.4692305916
20350177900.0 -0.8856017639 -0.4548588545
20400177600.0 -0.8953057975 -0.4405364155
20450177300.0 -0.9038480011 -0.4260751937
20500177000.0 -0.9117116603 -0.4120697878
20550176700.0 -0.9196785924 -0.3986597169
20600176400.0 -0.9267035349 -0.3855385649
20650176100.0 -0.9337015642 -0.3732480488
20700175800.0 -0.9397030831 -0.3614190068
20750175500.0 -0.9462233319 -0.3495431902
20800175200.0 -0.9505681252 -0.339588907
20850174900.0 -0.9557911513 -0.3270367782
20900174600.0 -0.9603681363 -0.3172246559
20950174300.0 -0.963076128 -0.3056821937
21000174000.0 -0.9673971999 -0.2947296325
21050173700.0 -0.969208793 -0.2840538015
21100173400.0 -0.9737523117 -0.2719577816
21150173100.0 -0.9771007525 -0.2605092029
21200172800.0 -0.9805454591 -0.2469497361
21250172500.0 -0.98394239 -0.233308557
21300172200.0 -0.987023621 -0.2190164608
21350171900.0 -0.9887941573 -0.2048732425
21400171600.0 -0.9903253378 -0.1907635162
21450171300.0 -0.9910179664 -0.1761429584
21500171000.0 -0.9914120602 -0.1614843396
21550170700.0 -0.9912125224 -0.1463762745
21600170400.0 -0.9919069918 -0.1296430973
21650170100.0 -0.9910979611 -0.1148519851
21700169800.0 -0.9904744854 -0.0989807883
21750169500.0 -0.9891216755 -0.082752568
21800169200.0 -0.9892304246 -0.0659080717
21850168900.0 -0.9878968614 -0.04936652
21900168600.0 -0.9867040414 -0.0339041637
21950168300.0 -0.986340954 -0.0175633402
22000168000.0 -0.985950041 -0.0031653123
22050167700.0 -0.9858166025 0.0111746519
22100167400.0 -0.9860480154 0.0266681679
22150167100.0 -0.986923182 0.0428623458
22200166800.0 -0.9873786756 0.0591021079
22250166500.0 -0.9869734138 0.0763544186
22300166200.0 -0.9858702279 0.0934117495
22350165900.0 -0.9848522018 0.1093974078
22400165600.0 -0.9837094729 0.12509616
22450165300.0 -0.9814043618 0.1397523755
22500165000.0 -0.9790904699 0.1535896172
22550164700.0 -0.9784973884 0.1706605942
22600164400.0 -0.9762111752 0.185462833
22650164100.0 -0.9747641782 0.20051317
22700163800.0 -0.9710629872 0.2168046488
22750163500.0 -0.9687369443 0.2313551512
22800163200.0 -0.9658188875 0.2447681022
22850162900.0 -0.9631891052 0.2581110792
22900162600.0 -0.9617705015 0.2715961344
22950162300.0 -0.9603456569 0.2846968655
23000162000.0 -0.9589859461 0.2965854755
23050161700.0 -0.9565522221 0.3095951789
23100161400.0 -0.9542874835 0.3225605519
23150161100.0 -0.9512343977 0.3351966359
23200160800.0 -0.9481044482 0.3478379558
23250160500.0 -0.9457633639 0.3599919265
23300160200.0 -0.9431532724 0.3721508159
23350159900.0 -0.9394901427 0.3857384524
23400159600.0 -0.9348061035 0.398842846
23450159300.0 -0.9296293858 0.4124305448
23500159000.0 -0.9245830791 0.4252520353
23550158700.0 -0.9201132437 0.4393256696
23600158400.0 -0.9146959444 0.4526882485
23650158100.0 -0.9078873221 0.467004887
23700157800.0 -0.8998874328 0.4812900108
23750157500.0 -0.8913946464 0.4953667208
23800157200.0 -0.8821461125 0.5087811623
23850156900.0 -0.8728932771 0.5210714756
23900156600.0 -0.8638308018 0.5338004889
23950156300.0 -0.8543531279 0.5469472278
24000156000.0 -0.8449223887 0.558256203
24050155700.0 -0.83485858 0.5710952006
24100155400.0 -0.8236092546 0.5825573383
24150155100.0 -0.8137052654 0.5949761691
24200154800.0 -0.80341568 0.6061567792
24250154500.0 -0.7912622053 0.6178974628
24300154200.0 -0.7803019715 0.6296257453
24350153900.0 -0.7685222466 0.6406828765
24400153600.0 -0.7561231735 0.6509612322
24450153300.0 -0.7444081266 0.6611765726
24500153000.0 -0.7330050364 0.6709129722
24550152700.0 -0.7210959921 0.6805317756
24600152400.0 -0.7095428535 0.6899960236
24650152100.0 -0.6981186084 0.6982331554
