!Created with skrf (http://scikit-rf.org).
# Hz S RI R 50.0 
!freq ReS11 ImS11
300000.0 -0.9748272723 -0.1203380328
50299700.0 -0.9999970433 0.0152965248
100299400.0 -0.9979592648 0.0281750453
150299100.0 -1.00273721 0.0449613201
200298800.0 -0.9996830161 0.0584599756
250298500.0 -0.9973962741 0.0717057074
300298200.0 -0.9858709673 0.0875952213
350297900.0 -0.9940285853 0.0986196388
400297600.0 -0.993222019 0.1150983317
450297300.0 -0.9910605829 0.1289275697
500297000.0 -0.9892471635 0.1437079795
550296700.0 -0.9844626871 0.1560924024
600296400.0 -1.017497375 0.1893590295
650296100.0 -0.9820615739 0.1859944883
700295800.0 -0.9794706225 0.2002268653
750295500.0 -0.9763782834 0.2142313526
800295200.0 -0.9728716689 0.2283108059
850294900.0 -0.9694980925 0.2420419634
900294600.0 -0.9658234213 0.2558276531
950294300.0 -0.9620646639 0.2696714866
1000294000.0 -0.9579921942 0.2833716409
1050293700.0 -0.9536967951 0.2974750121
1100293400.0 -0.9494912919 0.3121034104
1150293100.0 -0.9454506368 0.3237179727
1200292800.0 -0.9402308432 0.3380524139
1250292500.0 -0.9347498129 0.3514621759
1300292200.0 -0.9288699063 0.3645635913
1350291900.0 -0.9236014424 0.3789037048
1400291600.0 -0.9180581372 0.391760842
1450291300.0 -0.9125122094 0.4042853059
1500291000.0 -0.9062895399 0.4176126606
1550290700.0 -0.8997141407 0.4310016967
1600290400.0 -0.8934938167 0.4439135957
1650290100.0 -0.8868976003 0.4559552754
1700289800.0 -0.8798469621 0.4693486094
1750289500.0 -0.8728512853 0.481584877
1800289200.0 -0.8655103398 0.4946813447
1850288900.0 -0.8586327712 0.5059581937
1900288600.0 -0.8509092391 0.5189128023
1950288300.0 -0.8428039013 0.531302399
2000288000.0 -0.8353939048 0.5428630864
2050287700.0 -0.8272506543 0.5552727927
2100287400.0 -0.8191372102 0.5669706323
2150287100.0 -0.8107063394 0.5790755999
2200286800.0 -0.8028513969 0.5893198183
2250286500.0 -0.7940665416 0.6012584156
2300286200.0 -0.7852773701 0.612990236
2350285900.0 -0.7765761417 0.6238481562
2400285600.0 -0.767640633 0.6348982611
2450285300.0 -0.7590594055 0.6451090334
2500285000.0 -0.7493479555 0.6566730625
2550284700.0 -0.7403743663 0.6670267446
2600284400.0 -0.7309588259 0.6769289764
2650284100.0 -0.7221673407 0.6874977407
2700283800.0 -0.7113548783 0.6980569465
2750283500.0 -0.7012691538 0.7088288753
2800283200.0 -0.6915628147 0.718248013
2850282900.0 -0.6812379327 0.7285165101
2900282600.0 -0.6709246277 0.7379630505
2950282300.0 -0.6605745767 0.7471178637
3000282000.0 -0.649906667 0.7564302382
3050281700.0 -0.6385024953 0.7660237303
3100281400.0 -0.6267037526 0.7751119873
3150281100.0 -0.6151718768 0.7844940997
3200280800.0 -0.6034662599 0.7931742066
3250280500.0 -0.5925738446 0.8008045099
3300280200.0 -0.5813952037 0.8086380248
3350279900.0 -0.5694882886 0.8161763822
3400279600.0 -0.5575384168 0.8239939398
3450279300.0 -0.5464707922 0.8310179177
3500279000.0 -0.5344246605 0.8382983431
3550278700.0 -0.5219149952 0.8453893431
3600278400.0 -0.5100035722 0.8526333342
3650278100.0 -0.4964120514 0.8601799071
3700277800.0 -0.4844777091 0.8666320499
3750277500.0 -0.4725547347 0.8733309689
3800277200.0 -0.4599901792 0.8797590513
3850276900.0 -0.4478863308 0.8855799746
3900276600.0 -0.4371820432 0.8914447782
3950276300.0 -0.4245478786 0.8973299543
4000276000.0 -0.4124003413 0.903295524
4050275700.0 -0.3998257525 0.9093811204
4100275400.0 -0.3887525427 0.9148761932
4150275100.0 -0.3759969397 0.9207283138
4200274800.0 -0.3630651484 0.9259530554
4250274500.0 -0.3508424607 0.931227579
4300274200.0 -0.3378984983 0.9364838702
4350273900.0 -0.3239148312 0.9417786614
4400273600.0 -0.3089942732 0.9470338831
4450273300.0 -0.2938086137 0.9521771558
4500273000.0 -0.2802539851 0.9566936513
4550272700.0 -0.2660285583 0.9607301582
4600272400.0 -0.2507674146 0.9649324606
4650272100.0 -0.238980978 0.9681965097
4700271800.0 -0.2256635893 0.971546743
4750271500.0 -0.2140189833 0.9743521168
4800271200.0 -0.2014754554 0.9771702683
4850270900.0 -0.187458794 0.9799258209
4900270600.0 -0.1735559281 0.982301988
4950270300.0 -0.1593545944 0.9847569331
5000270000.0 -0.1450181524 0.9868142536
5050269700.0 -0.1315087609 0.988567881
5100269400.0 -0.117930847 0.9900904812
5150269100.0 -0.1043736907 0.9919610936
5200268800.0 -0.0912852814 0.9930077181
5250268500.0 -0.0781142917 0.9938956552
5300268200.0 -0.0648745397 0.9943632873
5350267900.0 -0.0527040547 0.9949545802
5400267600.0 -0.0365872736 0.9962376856
5450267300.0 -0.0234936935 0.996763079
5500267000.0 -0.0080966311 0.9969396659
5550266700.0 0.0069336489 0.9973183445
5600266400.0 0.0224619232 0.9972349491
5650266100.0 0.0385378227 0.9967460119
5700265800.0 0.0530505514 0.9962530907
5750265500.0 0.0684848024 0.9954754931
5800265200.0 0.0823303609 0.9944334381
5850264900.0 0.0955487072 0.993212025
5900264600.0 0.1120062148 0.9913680283
5950264300.0 0.124422225 0.9904148762
6000264000.0 0.1378566103 0.9880526544
6050263700.0 0.1505367816 0.987082684
6100263400.0 0.162845335 0.9847369459
6150263100.0 0.1771309758 0.982981033
6200262800.0 0.187604656 0.9807962169
6250262500.0 0.2002153124 0.9786307193
6300262200.0 0.2132236684 0.9756448564
6350261900.0 0.2262737318 0.9729395968
6400261600.0 0.2400253983 0.9697843663
6450261300.0 0.2514352196 0.9669449803
6500261000.0 0.2643318827 0.9633426697
6550260700.0 0.2771844881 0.9594297961
6600260400.0 0.290651206 0.955303408
6650260100.0 0.3047100907 0.9511435319
6700259800.0 0.3165383 0.9463570959
6750259500.0 0.3305614648 0.9417732969
6800259200.0 0.3438956636 0.9371723686
6850258900.0 0.3554790753 0.9315119284
6900258600.0 0.3678222904 0.9266036179
6950258300.0 0.3804435723 0.9214671515
7000258000.0 0.3924881219 0.915827309
7050257700.0 0.4045426168 0.9099761401
7100257400.0 0.4175567709 0.9035769241
7150257100.0 0.4279610451 0.8983411845
7200256800.0 0.4405466716 0.8918555729
7250256500.0 0.4524043614 0.8855285917
7300256200.0 0.465786818 0.8789929622
7350255900.0 0.4776884503 0.8719046628
7400255600.0 0.4912887122 0.8647415244
7450255300.0 0.5065888742 0.8556292807
7500255000.0 0.5185468184 0.8485035635
7550254700.0 0.5320113458 0.8400827334
7600254400.0 0.5447433247 0.8315561122
7650254100.0 0.5562029687 0.8241824262
7700253800.0 0.5684907674 0.8159801517
7750253500.0 0.5796211371 0.8081460277
7800253200.0 0.5902653368 0.8005864011
7850252900.0 0.5999187377 0.7936124011
7900252600.0 0.6115513069 0.7847261155
7950252300.0 0.620240074 0.7784636962
8000252000.0 0.630320635 0.7706264018
8050251700.0 0.6409956361 0.7623583965
8100251400.0 0.6510875671 0.7545388223
8150251100.0 0.6610056868 0.745973235
8200250800.0 0.6706807774 0.7376992607
8250250500.0 0.6793804763 0.7299997105
8300250200.0 0.6887628305 0.7212355942
8350249900.0 0.6980702874 0.7126829282
8400249600.0 0.705657841 0.7046786223
8450249300.0 0.7150033971 0.6954526251
8500249000.0 0.7238838127 0.6865725944
8550248700.0 0.7319406861 0.6775075525
8600248400.0 0.7403794398 0.6679446435
8650248100.0 0.7481898932 0.6586171878
8700247800.0 0.7579600015 0.6473329471
8750247500.0 0.766083408 0.6371473586
8800247200.0 0.7739599808 0.6267711663
8850246900.0 0.7830510188 0.6154546304
8900246600.0 0.7914064564 0.6039380842
8950246300.0 0.801040802 0.591037584
9000246000.0 0.8101327222 0.5783933072
9050245700.0 0.8193171733 0.5656279488
9100245400.0 0.8277078533 0.5530870123
9150245100.0 0.8372040494 0.5394162717
9200244800.0 0.8466937324 0.5244423863
9250244500.0 0.8564027297 0.5089646702
9300244200.0 0.8644106234 0.4945036358
9350243900.0 0.8725219451 0.480776565
9400243600.0 0.879075098 0.468334237
9450243300.0 0.8849922619 0.4570532506
9500243000.0 0.8911340119 0.4447491846
9550242700.0 0.8949452295 0.4372828212
9600242400.0 0.8989207544 0.4296519731
9650242100.0 0.9025200845 0.4233655202
9700241800.0 0.9074796066 0.4151271789
9750241500.0 0.911279837 0.4074654383
9800241200.0 0.9161060585 0.3982235984
9850240900.0 0.9219124262 0.3866969709
9900240600.0 0.9274713938 0.3749690935
9950240300.0 0.9339738191 0.3590054734
10000240000.0 0.9394485382 0.3466551663
10050239700.0 0.9443101251 0.3322355291
10100239400.0 0.9494778859 0.3163126261
10150239100.0 0.9538015376 0.3013053247
10200238800.0 0.958141207 0.2866654486
10250238500.0 0.9613352417 0.2730707036
10300238200.0 0.9645411534 0.2591182152
10350237900.0 0.9670341478 0.2460430987
10400237600.0 0.9698221264 0.2327466007
10450237300.0 0.9724170238 0.2190773724
10500237000.0 0.9747037666 0.2070010747
10550236700.0 0.9766113753 0.1932329311
10600236400.0 0.9792050374 0.1786555276
10650236100.0 0.9809505003 0.1645303358
10700235800.0 0.9836284441 0.152235272
10750235500.0 0.9852877796 0.1390421037
10800235200.0 0.9878115771 0.1249599851
10850234900.0 0.9897762842 0.1098981227
10900234600.0 0.9916322528 0.0955601092
10950234300.0 0.993351 0.0822078809
11000234000.0 0.9952509812 0.0670210805
11050233700.0 0.9970990338 0.0505910732
11100233400.0 0.9986177652 0.0333058762
11150233100.0 0.9993079784 0.0172063183
11200232800.0 1.000156574 0.0019267796
11250232500.0 1.001282977 -0.0147972818
11300232200.0 1.001745397 -0.0324543031
11350231900.0 1.002252657 -0.0485270757
11400231600.0 1.001041654 -0.0630131493
11450231300.0 1.000870332 -0.0794322817
11500231000.0 1.000146663 -0.0959067178
11550230700.0 0.9980933245 -0.1077800489
11600230400.0 0.9973222479 -0.1212911675
11650230100.0 0.995499453 -0.1329212421
11700229800.0 0.9929347536 -0.1468901234
11750229500.0 0.9909364469 -0.1615827281
11800229200.0 0.9880562557 -0.1753925976
11850228900.0 0.9847619949 -0.187663171
11900228600.0 0.9812048174 -0.1976374168
11950228300.0 0.9778619545 -0.2080054501
12000228000.0 0.9750690801 -0.2168253066
12050227700.0 0.9713292978 -0.2298044996
12100227400.0 0.9685880914 -0.2408172145
12150227100.0 0.9636872449 -0.2571038701
12200226800.0 0.9597597019 -0.2681788656
12250226500.0 0.9551761679 -0.2811826422
12300226200.0 0.9513626539 -0.2937291631
12350225900.0 0.9469190868 -0.3067266128
12400225600.0 0.9420340188 -0.3208584219
12450225300.0 0.9378358315 -0.3333694095
12500225000.0 0.9319975087 -0.3481065866
12550224700.0 0.9266265277 -0.3620644308
12600224400.0 0.9220489001 -0.3748937856
12650224100.0 0.9161816098 -0.3892696489
12700223800.0 0.9109883125 -0.4021663421
12750223500.0 0.9055882529 -0.415165778
12800223200.0 0.9002095252 -0.4278261818
12850222900.0 0.8946469381 -0.440060516
12900222600.0 0.8891976365 -0.4520194536
12950222300.0 0.8826371212 -0.4649111023
13000222000.0 0.8768361073 -0.476347609
13050221700.0 0.870294232 -0.488989285
13100221400.0 0.8640841195 -0.5004005066
13150221100.0 0.8569836681 -0.512866232
13200220800.0 0.8498662498 -0.5248217535
13250220500.0 0.8424236782 -0.5364416919
13300220200.0 0.8352553459 -0.5476181157
13350219900.0 0.8273056279 -0.5594276524
13400219600.0 0.8189685714 -0.5711601396
13450219300.0 0.8095539922 -0.584734565
13500219000.0 0.7994317352 -0.5987071456
13550218700.0 0.789324704 -0.6114262187
13600218400.0 0.7795559846 -0.6234244046
13650218100.0 0.7700214121 -0.6343657608
13700217800.0 0.7587967087 -0.6467307597
13750217500.0 0.7495412597 -0.6575945981
13800217200.0 0.7379268913 -0.6696959953
13850216900.0 0.7265282827 -0.6805634564
13900216600.0 0.7171451349 -0.6906543902
13950216300.0 0.7063614441 -0.7001552153
14000216000.0 0.695877491 -0.7094906707
14050215700.0 0.68631893 -0.7181450786
14100215400.0 0.6763782412 -0.7271269811
14150215100.0 0.6674951425 -0.7357495219
14200214800.0 0.6579266381 -0.744630898
14250214500.0 0.6475215276 -0.7538134858
14300214200.0 0.6371714298 -0.763313162
14350213900.0 0.6260371442 -0.7730210026
14400213600.0 0.6142556207 -0.7830096666
14450213300.0 0.6010065239 -0.7930509662
14500213000.0 0.5881400721 -0.8029129793
14550212700.0 0.5755535844 -0.8120814473
14600212400.0 0.5631358327 -0.8206501001
14650212100.0 0.5500074425 -0.829601702
14700211800.0 0.5363535123 -0.8393859351
14750211500.0 0.5243637434 -0.8477398361
14800211200.0 0.511737322 -0.8554918439
14850210900.0 0.4997192386 -0.8632997947
14900210600.0 0.4866126441 -0.8710175253
14950210300.0 0.4731735385 -0.8786590683
15000210000.0 0.4605873524 -0.8854234836
15050209700.0 0.4480598696 -0.8913847634
15100209400.0 0.435601537 -0.8970870765
15150209100.0 0.4234108204 -0.9027246374
15200208800.0 0.4102632176 -0.908238902
15250208500.0 0.4000568223 -0.9132403947
15300208200.0 0.3867074834 -0.9169541333
15350207900.0 0.3742527683 -0.9219332118
15400207600.0 0.3594169775 -0.9271896029
15450207300.0 0.3449455728 -0.9327019966
15500207000.0 0.3302796639 -0.937313748
15550206700.0 0.3153128683 -0.9419795741
15600206400.0 0.2994709432 -0.9464348837
15650206100.0 0.2834504652 -0.9509210864
15700205800.0 0.2697713877 -0.954943665
15750205500.0 0.2552052733 -0.9583682033
15800205200.0 0.240946604 -0.9618272546
15850204900.0 0.2265750081 -0.9653178483
15900204600.0 0.2113363872 -0.9688284486
15950204300.0 0.1972466401 -0.9720454765
16000204000.0 0.1831892737 -0.9747479296
16050203700.0 0.1680669648 -0.9778297884
16100203400.0 0.1536643934 -0.9800019361
16150203100.0 0.1383882095 -0.9821220935
16200202800.0 0.1249830454 -0.9843511632
16250202500.0 0.1100070751 -0.9857971765
16300202200.0 0.0948187892 -0.9879533813
16350201900.0 0.0795087949 -0.9892998362
16400201600.0 0.0650191965 -0.9902800596
16450201300.0 0.0500048713 -0.991264273
16500201000.0 0.0331797421 -0.992193309
16550200700.0 0.0173817731 -0.9924881969
16600200400.0 0.0018671638 -0.9929442565
16650200100.0 -0.0143528765 -0.9928126171
16700199800.0 -0.0301997018 -0.9929039844
16750199500.0 -0.0489679144 -0.9915303682
16800199200.0 -0.0651517709 -0.9903379399
16850198900.0 -0.0793552838 -0.9901132058
16900198600.0 -0.0943917546 -0.9886714904
16950198300.0 -0.1068674857 -0.9876495048
17000198000.0 -0.1200831926 -0.985871239
17050197700.0 -0.1329105277 -0.9842714553
17100197400.0 -0.1458146758 -0.9818372975
17150197100.0 -0.1584256156 -0.9799583577
17200196800.0 -0.1714067829 -0.9781190197
17250196500.0 -0.1839848036 -0.9758744394
17300196200.0 -0.1963769464 -0.9734160181
17350195900.0 -0.2083247761 -0.9713243444
17400195600.0 -0.2205145309 -0.9687314397
17450195300.0 -0.2336729503 -0.9659516552
17500195000.0 -0.2469659471 -0.962556923
17550194700.0 -0.2607298052 -0.9591885444
17600194400.0 -0.2750037421 -0.955096915
17650194100.0 -0.2887240648 -0.9508005721
17700193800.0 -0.3018318594 -0.9467977927
17750193500.0 -0.3161756496 -0.9424721291
17800193200.0 -0.3306480146 -0.9370655994
17850192900.0 -0.3458128061 -0.9315824671
17900192600.0 -0.3608687648 -0.925745356
17950192300.0 -0.3764858036 -0.918614731
18000192000.0 -0.3912777165 -0.9112110903
18050191700.0 -0.4050668625 -0.9035138575
18100191400.0 -0.4192516836 -0.895851668
18150191100.0 -0.4343572832 -0.8876649027
18200190800.0 -0.4510896093 -0.8785918023
18250190500.0 -0.4680534597 -0.8690664332
18300190200.0 -0.4837180861 -0.8605651736
18350189900.0 -0.49886177 -0.8524320329
18400189600.0 -0.512745196 -0.8439002893
18450189300.0 -0.5263883868 -0.8359686433
18500189000.0 -0.5400179778 -0.8277929978
18550188700.0 -0.5519171254 -0.8204329265
18600188400.0 -0.5638072967 -0.8137102212
18650188100.0 -0.5746715027 -0.8076057728
18700187800.0 -0.5859441419 -0.8006800592
18750187500.0 -0.5965171156 -0.7941817331
18800187200.0 -0.6067945749 -0.7871602345
18850186900.0 -0.6170589498 -0.7804168004
18900186600.0 -0.6271638356 -0.7730360683
18950186300.0 -0.637037959 -0.765269003
19000186000.0 -0.6446266933 -0.7592995893
19050185700.0 -0.6537358959 -0.7522722722
19100185400.0 -0.6635809348 -0.7436749995
19150185100.0 -0.6736810883 -0.7348803576
19200184800.0 -0.68318343 -0.7268913088
19250184500.0 -0.693349619 -0.7174325082
19300184200.0 -0.7045800591 -0.7083049865
19350183900.0 -0.7159330214 -0.6984957939
19400183600.0 -0.7251417753 -0.6885500328
19450183300.0 -0.7345443276 -0.6788373828
19500183000.0 -0.7424242628 -0.6682555123
19550182700.0 -0.7518700218 -0.657584103
19600182400.0 -0.7628871705 -0.6455274786
19650182100.0 -0.7734087597 -0.6336450017
19700181800.0 -0.7845192022 -0.6201622979
19750181500.0 -0.7949797863 -0.605941852
19800181200.0 -0.8054009249 -0.5911958721
19850180900.0 -0.8151646649 -0.5759183752
19900180600.0 -0.8230252166 -0.5614063561
19950180300.0 -0.8323653069 -0.5448453708
20000180000.0 -0.8247095211 -0.5475904382
20050179700.0 -0.8339569277 -0.5337359606
20100179400.0 -0.8420491228 -0.5208231849
20150179100.0 -0.8499820248 -0.5073993996
20200178800.0 -0.8593923067 -0.4952542737
20250178500.0 -0.8690969222 -0.4810824435
20300178200.0 -0.8779772782 -0.4677246915
20350177900.0 -0.8874757789 -0.4529903567
20400177600.0 -0.8963122549 -0.438753857
20450177300.0 -0.9045593665 -0.4242760045
20500177000.0 -0.9124308336 -0.4101012668
20550176700.0 -0.9205268006 -0.3966229168
20600176400.0 -0.927148671 -0.3833402661
20650176100.0 -0.9343990232 -0.3712483407
20700175800.0 -0.9400985804 -0.3592098811
20750175500.0 -0.9472170988 -0.3478346399
20800175200.0 -0.9517437185 -0.3375077204
20850174900.0 -0.9573965351 -0.325535147
20900174600.0 -0.9617789833 -0.3147208403
20950174300.0 -0.9649543994 -0.3027833902
21000174000.0 -0.9688478598 -0.2921666768
21050173700.0 -0.971225896 -0.2811253976
21100173400.0 -0.9753811603 -0.2696747
21150173100.0 -0.9790275178 -0.257277035
21200172800.0 -0.9830498179 -0.2435888911
21250172500.0 -0.985725357 -0.2301297419
21300172200.0 -0.9887916103 -0.2158671148
21350171900.0 -0.9903346677 -0.201759581
21400171600.0 -0.9921130319 -0.1870888236
21450171300.0 -0.9927297786 -0.1722511527
21500171000.0 -0.9927668892 -0.1577381077
21550170700.0 -0.9916818947 -0.1426573379
21600170400.0 -0.9914477881 -0.1267849726
21650170100.0 -0.991499944 -0.1106635475
21700169800.0 -0.9902310198 -0.0950452597
21750169500.0 -0.9887386611 -0.0792018765
21800169200.0 -0.988775646 -0.0627062622
21850168900.0 -0.9877065816 -0.0465041543
21900168600.0 -0.9861636018 -0.0304366304
21950168300.0 -0.9850531544 -0.0144528345
22000168000.0 -0.9839056878 0.0008635177
22050167700.0 -0.9842188886 0.0152180826
22100167400.0 -0.9840668773 0.030573096
22150167100.0 -0.9845963129 0.0462885424
22200166800.0 -0.9853574081 0.0623172798
22250166500.0 -0.9849344221 0.0798289896
22300166200.0 -0.9846963225 0.0967658695
22350165900.0 -0.9835180587 0.1126376132
22400165600.0 -0.9813059975 0.1286635873
22450165300.0 -0.9793161864 0.1438002176
22500165000.0 -0.978287084 0.1574597597
22550164700.0 -0.976138369 0.1726539007
22600164400.0 -0.9745330246 0.1892423958
22650164100.0 -0.9723316448 0.2034323802
22700163800.0 -0.9700506437 0.2192284606
22750163500.0 -0.9671640823 0.2345634647
22800163200.0 -0.9641673955 0.2470797584
22850162900.0 -0.9620351613 0.2606189198
22900162600.0 -0.9603502597 0.2741382028
22950162300.0 -0.9591371459 0.2870821548
23000162000.0 -0.9580887765 0.2985573786
23050161700.0 -0.9554919159 0.3115264845
23100161400.0 -0.9534225204 0.3250953666
23150161100.0 -0.9507665597 0.3365023163
23200160800.0 -0.9479102893 0.3496185093
23250160500.0 -0.9451121861 0.3606721612
23300160200.0 -0.9424082341 0.3725144842
23350159900.0 -0.9386191527 0.3865965792
23400159600.0 -0.9334312575 0.3996718985
23450159300.0 -0.9293625268 0.4128087114
23500159000.0 -0.9246029742 0.425477399
23550158700.0 -0.9199118622 0.4390155728
23600158400.0 -0.9149841096 0.452478227
23650158100.0 -0.908461246 0.4667745681
23700157800.0 -0.9008465533 0.4806233782
23750157500.0 -0.8920480875 0.4945549639
23800157200.0 -0.8833558037 0.5081012448
23850156900.0 -0.8745897395 0.5207314759
23900156600.0 -0.8648810775 0.5327720343
23950156300.0 -0.8562227327 0.5459129961
24000156000.0 -0.8468198248 0.5579769764
24050155700.0 -0.8368385056 0.5698897458
24100155400.0 -0.8265438727 0.5826907266
24150155100.0 -0.815758216 0.5929342734
24200154800.0 -0.8055664048 0.6042812012
24250154500.0 -0.79405302 0.6162065827
24300154200.0 -0.7828998667 0.628097659
24350153900.0 -0.7706887562 0.63882874
24400153600.0 -0.7586553209 0.6489726359
24450153300.0 -0.7468117625 0.6588543164
24500153000.0 -0.7352592309 0.6685596982
24550152700.0 -0.7240609022 0.6781297099
24600152400.0 -0.7130369364 0.6865597678
24650152100.0 -0.7003335491 0.6952596129
