!Created with skrf (http://scikit-rf.org).
# Hz S RI R 50.0 
!freq ReS11 ImS11
300000.0 -0.9735631589 -0.1208073553
50299700.0 -0.9999781318 0.0152357104
100299400.0 -0.9979591167 0.028310601
150299100.0 -1.002713165 0.0449412325
200298800.0 -0.9997203802 0.0583130035
250298500.0 -0.9975154747 0.0719464312
300298200.0 -0.986095279 0.0877091791
350297900.0 -0.9939782555 0.0985982439
400297600.0 -0.9933444582 0.1150591045
450297300.0 -0.9909978847 0.128983162
500297000.0 -0.9894775257 0.1436143278
550296700.0 -0.98429543 0.1560833192
600296400.0 -1.017293024 0.189529801
650296100.0 -0.9821814401 0.18587426
700295800.0 -0.9793365868 0.2002895438
750295500.0 -0.9763376861 0.2143464746
800295200.0 -0.9730603932 0.2285546399
850294900.0 -0.9696430617 0.242285424
900294600.0 -0.9658970244 0.2560447114
950294300.0 -0.9619562919 0.2696726082
1000294000.0 -0.9582507221 0.2836798568
1050293700.0 -0.9536210476 0.2974035535
1100293400.0 -0.949394476 0.3117972663
1150293100.0 -0.9454773473 0.323786818
1200292800.0 -0.9403842993 0.3382046011
1250292500.0 -0.9347036787 0.351600372
1300292200.0 -0.9287277541 0.3646504668
1350291900.0 -0.9233619659 0.378663346
1400291600.0 -0.917985331 0.3919088999
1450291300.0 -0.9125365387 0.4042719768
1500291000.0 -0.9063056085 0.4177123743
1550290700.0 -0.8996419897 0.4309326259
1600290400.0 -0.8933799855 0.4438417894
1650290100.0 -0.8869537268 0.4560726564
1700289800.0 -0.880001952 0.4694681643
1750289500.0 -0.8727681432 0.481750018
1800289200.0 -0.8656492292 0.4946456814
1850288900.0 -0.8589305412 0.506072076
1900288600.0 -0.8510993944 0.519179601
1950288300.0 -0.8430089273 0.53143941
2000288000.0 -0.8353655106 0.5430184073
2050287700.0 -0.8272249522 0.5552921186
2100287400.0 -0.8192413446 0.5670444394
2150287100.0 -0.8107001599 0.5789758664
2200286800.0 -0.80292512 0.5893186177
2250286500.0 -0.7940114158 0.6013734832
2300286200.0 -0.7852579392 0.6130280557
2350285900.0 -0.7765208839 0.6240310758
2400285600.0 -0.7677379772 0.6348456199
2450285300.0 -0.7589530259 0.6452487676
2500285000.0 -0.749309213 0.6566370687
2550284700.0 -0.740401714 0.6670129947
2600284400.0 -0.7309481853 0.6770829963
2650284100.0 -0.7219805122 0.6875495003
2700283800.0 -0.7113988286 0.6980573772
2750283500.0 -0.7011546503 0.7085856278
2800283200.0 -0.6914535598 0.718427093
2850282900.0 -0.6810450454 0.7283654341
2900282600.0 -0.6708127388 0.7379085423
2950282300.0 -0.6606220567 0.747108248
3000282000.0 -0.6497625895 0.75669499
3050281700.0 -0.6385749751 0.7660191914
3100281400.0 -0.6268126035 0.7753790172
3150281100.0 -0.6151244508 0.7847055092
3200280800.0 -0.60336015 0.7930819309
3250280500.0 -0.5924935332 0.8009901991
3300280200.0 -0.5811800559 0.8087856516
3350279900.0 -0.5694788535 0.8163363469
3400279600.0 -0.5574157909 0.82396351
3450279300.0 -0.54652306 0.8311289686
3500279000.0 -0.5343447007 0.8382059269
3550278700.0 -0.521974337 0.8454441008
3600278400.0 -0.5097687642 0.8526481234
3650278100.0 -0.4963720473 0.8602210828
3700277800.0 -0.4844502896 0.8668756921
3750277500.0 -0.4723827068 0.873498153
3800277200.0 -0.4599137068 0.8798564738
3850276900.0 -0.4477011135 0.8857815345
3900276600.0 -0.4368143326 0.8912687771
3950276300.0 -0.4243863087 0.8972822393
4000276000.0 -0.4125804959 0.9035584988
4050275700.0 -0.3995272574 0.9096114634
4100275400.0 -0.3885308416 0.9147869059
4150275100.0 -0.3760218528 0.9208626813
4200274800.0 -0.362979663 0.9261036387
4250274500.0 -0.3506553851 0.9310260921
4300274200.0 -0.3376752233 0.9368426578
4350273900.0 -0.3239729542 0.9418393273
4400273600.0 -0.3089671768 0.9471134635
4450273300.0 -0.2936211712 0.9520681267
4500273000.0 -0.2800644351 0.9565548022
4550272700.0 -0.2659584433 0.960753342
4600272400.0 -0.2503755753 0.9650029781
4650272100.0 -0.2388430319 0.9683189418
4700271800.0 -0.2253905978 0.9715946825
4750271500.0 -0.2137514341 0.9744169437
4800271200.0 -0.2012490806 0.9772377166
4850270900.0 -0.1873242749 0.9799997193
4900270600.0 -0.1735072957 0.9824671684
4950270300.0 -0.159216071 0.9848904365
5000270000.0 -0.1447781785 0.9872002108
5050269700.0 -0.1313554162 0.9887759518
5100269400.0 -0.1177471527 0.9901251754
5150269100.0 -0.104396278 0.9918948053
5200268800.0 -0.0910193506 0.9932005001
5250268500.0 -0.0779772893 0.9941536446
5300268200.0 -0.0648745517 0.9943422479
5350267900.0 -0.0525333679 0.9951801669
5400267600.0 -0.0364478081 0.9966458059
5450267300.0 -0.0231000989 0.9967637632
5500267000.0 -0.0080765684 0.9969215241
5550266700.0 0.0068260989 0.9973726821
5600266400.0 0.0224090236 0.9973822321
5650266100.0 0.0390146075 0.997113504
5700265800.0 0.0535946874 0.9961200611
5750265500.0 0.0683480572 0.9953485717
5800265200.0 0.0823105258 0.9946443881
5850264900.0 0.0955646872 0.9936185104
5900264600.0 0.1121221107 0.9914106248
5950264300.0 0.1241393593 0.9903642894
6000264000.0 0.1385020931 0.9881291738
6050263700.0 0.1504575303 0.9865527613
6100263400.0 0.1628087959 0.98510848
6150263100.0 0.177547109 0.9828386693
6200262800.0 0.1878436082 0.980913038
6250262500.0 0.2004646732 0.9785950844
6300262200.0 0.2133912403 0.9756944746
6350261900.0 0.2265316001 0.9729849592
6400261600.0 0.2404741972 0.9695744697
6450261300.0 0.2517449255 0.9669035798
6500261000.0 0.2644841721 0.9633537832
6550260700.0 0.277514378 0.9594940146
6600260400.0 0.2907118873 0.9551245052
6650260100.0 0.3048229371 0.9510197207
6700259800.0 0.3168188667 0.9468084311
6750259500.0 0.3306862123 0.941795858
6800259200.0 0.3439570794 0.9369280567
6850258900.0 0.3557466381 0.9317635481
6900258600.0 0.3681049314 0.9267980878
6950258300.0 0.3804883902 0.9213815796
7000258000.0 0.3925727385 0.9159359784
7050257700.0 0.4047459522 0.9097652853
7100257400.0 0.4176340704 0.9036285946
7150257100.0 0.4280976424 0.8982201833
7200256800.0 0.4409814664 0.8920059338
7250256500.0 0.4527010727 0.8854446193
7300256200.0 0.4656286752 0.8787254355
7350255900.0 0.4778352788 0.8718108134
7400255600.0 0.4914435419 0.8645942337
7450255300.0 0.5067984866 0.8556712805
7500255000.0 0.5182422183 0.8487545743
7550254700.0 0.5316233176 0.8399591253
7600254400.0 0.545108377 0.8318668572
7650254100.0 0.5564117442 0.8239867928
7700253800.0 0.5687657803 0.8160152938
7750253500.0 0.5795305181 0.8084655844
7800253200.0 0.5900797799 0.8005172874
7850252900.0 0.6001214429 0.7937396879
7900252600.0 0.611619039 0.7847971811
7950252300.0 0.620355091 0.7784176338
8000252000.0 0.6305767554 0.7705352485
8050251700.0 0.6412552534 0.7624433031
8100251400.0 0.6511322274 0.754327818
8150251100.0 0.6612948183 0.7456570734
8200250800.0 0.6708606665 0.7377659952
8250250500.0 0.6797141628 0.7296751993
8300250200.0 0.6886307897 0.7211607505
8350249900.0 0.6980566617 0.7126383265
8400249600.0 0.706105329 0.7046619095
8450249300.0 0.7150485903 0.6953392964
8500249000.0 0.7240470734 0.6864280294
8550248700.0 0.7321800859 0.6775359971
8600248400.0 0.7405141042 0.6679534604
8650248100.0 0.748360294 0.6586204432
8700247800.0 0.7578762584 0.6472662294
8750247500.0 0.7662644174 0.6372131336
8800247200.0 0.7744131752 0.62672569
8850246900.0 0.7829980873 0.6152875928
8900246600.0 0.7915542734 0.6041326726
8950246300.0 0.8009568023 0.590916047
9000246000.0 0.8102998781 0.5781766069
9050245700.0 0.8194623274 0.5654216922
9100245400.0 0.8282015769 0.5527459887
9150245100.0 0.8373048312 0.5393306265
9200244800.0 0.8469736184 0.5241978868
9250244500.0 0.8565341555 0.5088503645
9300244200.0 0.864998436 0.4941923746
9350243900.0 0.8728065469 0.4804283682
9400243600.0 0.879560223 0.4680050787
9450243300.0 0.8852505426 0.4563668359
9500243000.0 0.8917013394 0.4443393743
9550242700.0 0.8954372071 0.4365592893
9600242400.0 0.8993158733 0.4290826769
9650242100.0 0.9031330662 0.4226370267
9700241800.0 0.9077521887 0.4145257915
9750241500.0 0.9113713197 0.4068376591
9800241200.0 0.9162208994 0.3976655072
9850240900.0 0.9223776679 0.3859367139
9900240600.0 0.9277421658 0.3743595269
9950240300.0 0.9340951852 0.358503321
10000240000.0 0.9387163306 0.3466063986
10050239700.0 0.9445785631 0.3317767988
10100239400.0 0.9495615093 0.3163071041
10150239100.0 0.9538523086 0.3013154926
10200238800.0 0.9581124338 0.2863533397
10250238500.0 0.9614123614 0.2729043817
10300238200.0 0.964605097 0.2589362032
10350237900.0 0.9670951483 0.2459717911
10400237600.0 0.9697259643 0.232683996
10450237300.0 0.9725155664 0.2188679872
10500237000.0 0.9746947699 0.2063747747
10550236700.0 0.9770805481 0.1924621724
10600236400.0 0.979221445 0.1788124435
10650236100.0 0.9810101623 0.1641774346
10700235800.0 0.9834808385 0.1521575626
10750235500.0 0.9858087886 0.1384878857
10800235200.0 0.987953302 0.1248930392
10850234900.0 0.9893990785 0.1100415514
10900234600.0 0.9916028333 0.0953983398
10950234300.0 0.9933622512 0.0820218223
11000234000.0 0.9952387669 0.0669183511
11050233700.0 0.9970545584 0.0506259977
11100233400.0 0.9982476936 0.0334384148
11150233100.0 0.999499448 0.0170519549
11200232800.0 1.000458096 0.0023092726
11250232500.0 1.001591492 -0.0142771287
11300232200.0 1.001505008 -0.032468858
11350231900.0 1.001917811 -0.0477320379
11400231600.0 1.001758983 -0.0635478208
11450231300.0 1.000828821 -0.0787628492
11500231000.0 1.000472274 -0.0953558667
11550230700.0 0.9984669046 -0.10842837
11600230400.0 0.9972672471 -0.1206866246
11650230100.0 0.9951110767 -0.1330471087
11700229800.0 0.9935037852 -0.1475747185
11750229500.0 0.9910564377 -0.1619761421
11800229200.0 0.988392353 -0.1755098666
11850228900.0 0.9847239618 -0.1877964573
11900228600.0 0.9813196257 -0.1974375889
11950228300.0 0.9779815044 -0.2081226301
12000228000.0 0.9750133446 -0.2172985519
12050227700.0 0.9714505359 -0.2301594771
12100227400.0 0.9687615009 -0.2409574876
12150227100.0 0.9636040031 -0.2574090139
12200226800.0 0.9596312793 -0.2686265971
12250226500.0 0.9556659755 -0.2821450519
12300226200.0 0.9519155699 -0.2933867473
12350225900.0 0.9463410574 -0.3079419142
12400225600.0 0.9426053411 -0.3208385821
12450225300.0 0.9379693559 -0.3333797785
12500225000.0 0.9322117663 -0.3482333061
12550224700.0 0.9270049155 -0.3618139476
12600224400.0 0.9221551176 -0.374894723
12650224100.0 0.9162583599 -0.3893340719
12700223800.0 0.9111032619 -0.4021703819
12750223500.0 0.9057199831 -0.4149483423
12800223200.0 0.900163399 -0.4277045999
12850222900.0 0.8947156168 -0.4398256759
12900222600.0 0.8890729084 -0.4521381714
12950222300.0 0.882684221 -0.4647042702
13000222000.0 0.8769413822 -0.4760381504
13050221700.0 0.8704985747 -0.489273762
13100221400.0 0.863674293 -0.5007560089
13150221100.0 0.8570169179 -0.5132022966
13200220800.0 0.849999231 -0.5249909499
13250220500.0 0.8425278573 -0.5369664587
13300220200.0 0.8353832277 -0.5474602985
13350219900.0 0.8271960655 -0.5594229324
13400219600.0 0.8190021046 -0.5716809436
13450219300.0 0.8094335252 -0.5849371268
13500219000.0 0.799494061 -0.5990445077
13550218700.0 0.7897688824 -0.6116596159
13600218400.0 0.7793880646 -0.6237042989
13650218100.0 0.7696813948 -0.6349032468
13700217800.0 0.7581813283 -0.6464090332
13750217500.0 0.7491372811 -0.658372462
13800217200.0 0.737140596 -0.6706616684
13850216900.0 0.7263211038 -0.6813219468
13900216600.0 0.7167937284 -0.6907030459
13950216300.0 0.7059410196 -0.7011031966
14000216000.0 0.6965245957 -0.7090791149
14050215700.0 0.6863162854 -0.7183257475
14100215400.0 0.6762908234 -0.7274974974
14150215100.0 0.6669846223 -0.7360509008
14200214800.0 0.6575516215 -0.7449315021
14250214500.0 0.6473875664 -0.7541849465
14300214200.0 0.6369719184 -0.7635675714
14350213900.0 0.6256685289 -0.7730359552
14400213600.0 0.6141019996 -0.7830480169
14450213300.0 0.6007174785 -0.7931726848
14500213000.0 0.5880991451 -0.8030564327
14550212700.0 0.5754889516 -0.812621617
14600212400.0 0.5630274036 -0.8215300203
14650212100.0 0.5497866057 -0.8301791706
14700211800.0 0.536048451 -0.8398365067
14750211500.0 0.5240335312 -0.8477296783
14800211200.0 0.5118495107 -0.8556877294
14850210900.0 0.4999431414 -0.8632641022
14900210600.0 0.4862392124 -0.8713087378
14950210300.0 0.4730432197 -0.8789095473
15000210000.0 0.4603239959 -0.8854949705
15050209700.0 0.4478652374 -0.8916078159
15100209400.0 0.4352856533 -0.8978888083
15150209100.0 0.4228773427 -0.9030731027
15200208800.0 0.4101638952 -0.9082022098
15250208500.0 0.3992556742 -0.9134702526
15300208200.0 0.3862811005 -0.9175169578
15350207900.0 0.3734453978 -0.9220742497
15400207600.0 0.358290776 -0.9280325798
15450207300.0 0.3446046982 -0.9323155977
15500207000.0 0.3294394753 -0.9371514777
15550206700.0 0.3146956818 -0.9420328126
15600206400.0 0.2987061942 -0.9465148635
15650206100.0 0.2831573709 -0.9513399247
15700205800.0 0.2692755333 -0.9551089127
15750205500.0 0.2547265999 -0.958430012
15800205200.0 0.2405528279 -0.9619505849
15850204900.0 0.2262194066 -0.9654090324
15900204600.0 0.2111413219 -0.9691151848
15950204300.0 0.1968018908 -0.9721269418
16000204000.0 0.182515298 -0.9750315834
16050203700.0 0.1678551317 -0.9781657043
16100203400.0 0.1533421205 -0.9799315838
16150203100.0 0.1388288694 -0.9825175964
16200202800.0 0.1244104888 -0.9843969337
16250202500.0 0.1099982714 -0.9863361399
16300202200.0 0.0943642983 -0.9875726033
16350201900.0 0.0791943448 -0.9892834802
16400201600.0 0.0649636476 -0.99037284
16450201300.0 0.0494457812 -0.9915040278
16500201000.0 0.0329647779 -0.9921841993
16550200700.0 0.0174807542 -0.9926684899
16600200400.0 0.0017177115 -0.9927877275
16650200100.0 -0.0143344253 -0.9925890501
16700199800.0 -0.0307808795 -0.9923407803
16750199500.0 -0.0495563291 -0.9921065339
16800199200.0 -0.0650226507 -0.9907517076
16850198900.0 -0.0803505001 -0.9903944871
16900198600.0 -0.0939766859 -0.9892700306
16950198300.0 -0.1074766995 -0.9872524993
17000198000.0 -0.1210635834 -0.985896956
17050197700.0 -0.1332161952 -0.9844547141
17100197400.0 -0.1459724478 -0.9821201333
17150197100.0 -0.1585870148 -0.9803101874
17200196800.0 -0.1714986523 -0.9782449928
17250196500.0 -0.1842781158 -0.9758144043
17300196200.0 -0.1964589607 -0.9735445377
17350195900.0 -0.2084283481 -0.9714157809
17400195600.0 -0.2204663505 -0.9689091865
17450195300.0 -0.2334945231 -0.9661778036
17500195000.0 -0.247342048 -0.9626814632
17550194700.0 -0.2610407185 -0.9592508617
17600194400.0 -0.2749144647 -0.9550810433
17650194100.0 -0.2887696454 -0.9513674399
17700193800.0 -0.3018404013 -0.9468413485
17750193500.0 -0.3161803999 -0.942589706
17800193200.0 -0.3304735918 -0.9369201089
17850192900.0 -0.3453278027 -0.9317970864
17900192600.0 -0.361025628 -0.9255174692
17950192300.0 -0.3763715773 -0.9187341125
18000192000.0 -0.3912152479 -0.9112989723
18050191700.0 -0.4049762002 -0.9036135551
18100191400.0 -0.4194284477 -0.8958474232
18150191100.0 -0.4343336987 -0.8876841897
18200190800.0 -0.4515597402 -0.8787097382
18250190500.0 -0.4681161781 -0.8692552088
18300190200.0 -0.4840794212 -0.8607034385
18350189900.0 -0.4987074026 -0.8521922476
18400189600.0 -0.5134733382 -0.8436331706
18450189300.0 -0.5262171515 -0.8357667286
18500189000.0 -0.5394828017 -0.8280390307
18550188700.0 -0.5526406403 -0.8204870956
18600188400.0 -0.5641936634 -0.8138709869
18650188100.0 -0.5752580245 -0.8075000537
18700187800.0 -0.5859715107 -0.8006654339
18750187500.0 -0.5968894985 -0.7941773539
18800187200.0 -0.6072352361 -0.7870371635
18850186900.0 -0.6171943405 -0.7802485729
18900186600.0 -0.6274014541 -0.7730263177
18950186300.0 -0.637577065 -0.7652388991
19000186000.0 -0.644844986 -0.7592747676
19050185700.0 -0.6532526483 -0.7518236936
19100185400.0 -0.6638058931 -0.7443662066
19150185100.0 -0.6738770994 -0.7350264496
19200184800.0 -0.6830258223 -0.7269651772
19250184500.0 -0.6936774722 -0.7180684591
19300184200.0 -0.7044891502 -0.7082497568
19350183900.0 -0.7155560339 -0.6983204747
19400183600.0 -0.7255189987 -0.6887602591
19450183300.0 -0.7342777994 -0.6784990212
19500183000.0 -0.7423481936 -0.668565779
19550182700.0 -0.7523216423 -0.657805449
19600182400.0 -0.7624998624 -0.6461896714
19650182100.0 -0.7737407164 -0.6336170956
19700181800.0 -0.7844296861 -0.620662025
19750181500.0 -0.7950602583 -0.6066370389
19800181200.0 -0.805361971 -0.5914401871
19850180900.0 -0.8150444395 -0.5761453342
19900180600.0 -0.8228959123 -0.5614182656
19950180300.0 -0.8320963842 -0.5451707603
20000180000.0 -0.8249161973 -0.546900754
20050179700.0 -0.8323380821 -0.5345157784
20100179400.0 -0.8421853603 -0.5209473028
20150179100.0 -0.8508527602 -0.5079688162
20200178800.0 -0.8586179616 -0.4953477807
20250178500.0 -0.8686511414 -0.4817462234
20300178200.0 -0.8786041569 -0.46769957
20350177900.0 -0.8872773416 -0.453005167
20400177600.0 -0.8964388883 -0.4383091696
20450177300.0 -0.9046204988 -0.423857311
20500177000.0 -0.9125444538 -0.4101289379
20550176700.0 -0.9206295132 -0.3966544768
20600176400.0 -0.927509791 -0.3833588636
20650176100.0 -0.9342492179 -0.3712168167
20700175800.0 -0.9412456168 -0.3588933701
20750175500.0 -0.9472630284 -0.3480270415
20800175200.0 -0.9520273425 -0.3368416992
20850174900.0 -0.9564011501 -0.326139207
20900174600.0 -0.9607714434 -0.3144294251
20950174300.0 -0.9658847415 -0.3030341275
21000174000.0 -0.9691358641 -0.2912524856
21050173700.0 -0.9719212545 -0.2811893766
21100173400.0 -0.9762399035 -0.2694543308
21150173100.0 -0.9796107815 -0.2568408915
21200172800.0 -0.9830264283 -0.2433953393
21250172500.0 -0.9860549671 -0.2299510515
21300172200.0 -0.989005552 -0.2155368798
21350171900.0 -0.9905122414 -0.2011792198
21400171600.0 -0.9919702755 -0.1873759761
21450171300.0 -0.9920097742 -0.1718618056
21500171000.0 -0.9922467267 -0.1561682647
21550170700.0 -0.9922658875 -0.1421548727
21600170400.0 -0.9922835468 -0.1258314868
21650170100.0 -0.99156247 -0.1102852846
21700169800.0 -0.9896675556 -0.0940864976
21750169500.0 -0.9903518021 -0.0793306259
21800169200.0 -0.9883062551 -0.0621594116
21850168900.0 -0.9875325637 -0.0459119331
21900168600.0 -0.9859640421 -0.0299479658
21950168300.0 -0.9850926461 -0.0133813276
22000168000.0 -0.9838502559 0.0019323572
22050167700.0 -0.9837328279 0.016227363
22100167400.0 -0.9837346756 0.0314505893
22150167100.0 -0.9846244287 0.0467709821
22200166800.0 -0.9855265127 0.0633289392
22250166500.0 -0.9845658945 0.0809794174
22300166200.0 -0.9841985765 0.0968453047
22350165900.0 -0.9831782678 0.1127683922
22400165600.0 -0.9809868708 0.1301711555
22450165300.0 -0.9792947896 0.143436194
22500165000.0 -0.9767727512 0.1581020065
22550164700.0 -0.9766245998 0.1727165056
22600164400.0 -0.9747399891 0.188714889
22650164100.0 -0.9721365998 0.2029954871
22700163800.0 -0.9694631689 0.2192143212
22750163500.0 -0.9666512234 0.2344988294
22800163200.0 -0.9641542226 0.2474117973
22850162900.0 -0.9617066549 0.260823577
22900162600.0 -0.960545259 0.2739692336
22950162300.0 -0.9589987619 0.2869905237
23000162000.0 -0.9579856793 0.2987340686
23050161700.0 -0.9554446412 0.311334608
23100161400.0 -0.9538455019 0.3240380677
23150161100.0 -0.9506938928 0.3366176288
23200160800.0 -0.9473088942 0.3489893397
23250160500.0 -0.9458256623 0.3610683066
23300160200.0 -0.9428609691 0.3725331562
23350159900.0 -0.9389913278 0.3857615033
23400159600.0 -0.9338484648 0.3991272659
23450159300.0 -0.9297697516 0.4127174611
23500159000.0 -0.9248402429 0.4253689778
23550158700.0 -0.9201822195 0.4388727997
23600158400.0 -0.9146643798 0.4521524711
23650158100.0 -0.908635903 0.4660061491
23700157800.0 -0.9009122997 0.4800760104
23750157500.0 -0.8923660978 0.4946211478
23800157200.0 -0.8836478533 0.5074746932
23850156900.0 -0.8746327412 0.5205898082
23900156600.0 -0.8656926171 0.5326875667
23950156300.0 -0.856257492 0.5447332709
24000156000.0 -0.8475696977 0.5573191559
24050155700.0 -0.837339222 0.5686345211
24100155400.0 -0.827466916 0.5804971051
24150155100.0 -0.8174451808 0.5925934032
24200154800.0 -0.8058625611 0.6048128113
24250154500.0 -0.7948341902 0.6154354738
24300154200.0 -0.7834667571 0.6276509126
24350153900.0 -0.7715948422 0.6380570692
24400153600.0 -0.7598454694 0.6481669217
24450153300.0 -0.7477947422 0.6583239274
24500153000.0 -0.7364607386 0.6679163919
24550152700.0 -0.7255542118 0.6774450305
24600152400.0 -0.7139357019 0.686132446
24650152100.0 -0.7014202783 0.6943640362
