!Created with skrf (http://scikit-rf.org).
# Hz S RI R 50.0 
!freq ReS11 ImS11
300000.0 -0.9737616493 -0.1207764292
50299700.0 -1.000020495 0.0151389252
100299400.0 -0.9979465796 0.0278827282
150299100.0 -1.002693193 0.0447541269
200298800.0 -0.99971071 0.058121399
250298500.0 -0.9973334138 0.0717121124
300298200.0 -0.9858719604 0.0875433008
350297900.0 -0.9939283877 0.0984971591
400297600.0 -0.9932284592 0.1149598422
450297300.0 -0.9908067221 0.1288427263
500297000.0 -0.9893128047 0.1435747497
550296700.0 -0.9842622865 0.1559310484
600296400.0 -1.017268655 0.1892036657
650296100.0 -0.9821557131 0.185894386
700295800.0 -0.9790947553 0.2000656586
750295500.0 -0.9763064081 0.213887446
800295200.0 -0.9730580445 0.2282199451
850294900.0 -0.9697234104 0.2418509036
900294600.0 -0.9659200527 0.2557869215
950294300.0 -0.9621885411 0.2693573455
1000294000.0 -0.9582621169 0.2831790777
1050293700.0 -0.9536562419 0.2971403225
1100293400.0 -0.9491301025 0.3115883453
1150293100.0 -0.9455317823 0.3234632309
1200292800.0 -0.9402577926 0.3379031894
1250292500.0 -0.9346854142 0.3513057818
1300292200.0 -0.9289579769 0.3644429898
1350291900.0 -0.9234338963 0.3784835958
1400291600.0 -0.9180676326 0.3916791056
1450291300.0 -0.9123260355 0.404064775
1500291000.0 -0.9063822992 0.4174818396
1550290700.0 -0.8996379794 0.4307425914
1600290400.0 -0.8933239799 0.4436055776
1650290100.0 -0.8868763843 0.4558044335
1700289800.0 -0.8798398158 0.4693907071
1750289500.0 -0.8728017604 0.481769592
1800289200.0 -0.8653623607 0.4944325533
1850288900.0 -0.8586681811 0.5058789641
1900288600.0 -0.8510996235 0.518811902
1950288300.0 -0.8430852168 0.5313351273
2000288000.0 -0.8355864473 0.5427310641
2050287700.0 -0.82730336 0.5553735403
2100287400.0 -0.8192278813 0.566746512
2150287100.0 -0.8108389286 0.5786556214
2200286800.0 -0.8030188714 0.5892745888
2250286500.0 -0.7940571477 0.6013752646
2300286200.0 -0.7851876603 0.6129154722
2350285900.0 -0.7767717579 0.6235974164
2400285600.0 -0.767767622 0.6344858259
2450285300.0 -0.7589671561 0.6451977734
2500285000.0 -0.7492268972 0.656610566
2550284700.0 -0.7400418778 0.6672403798
2600284400.0 -0.730978616 0.6770794636
2650284100.0 -0.7222166466 0.6873181288
2700283800.0 -0.7116087955 0.6977874679
2750283500.0 -0.7015463982 0.7083501267
2800283200.0 -0.6915618853 0.7180273534
2850282900.0 -0.6810402004 0.7281232792
2900282600.0 -0.6708244155 0.7378518392
2950282300.0 -0.6605034772 0.7473656686
3000282000.0 -0.6495246466 0.7567845931
3050281700.0 -0.6384356954 0.7659816552
3100281400.0 -0.6268398995 0.7751186955
3150281100.0 -0.6154778755 0.78418237
3200280800.0 -0.6040611716 0.7925678762
3250280500.0 -0.592876949 0.8003541814
3300280200.0 -0.5813279631 0.808560317
3350279900.0 -0.5694536103 0.816584948
3400279600.0 -0.5568476093 0.824557922
3450279300.0 -0.5455871813 0.8314763156
3500279000.0 -0.5338707165 0.8386758396
3550278700.0 -0.5215486703 0.8457917503
3600278400.0 -0.5098068793 0.8523663322
3650278100.0 -0.4964699596 0.859949283
3700277800.0 -0.4847122263 0.866479485
3750277500.0 -0.4722279284 0.8733608055
3800277200.0 -0.459891938 0.8797904682
3850276900.0 -0.4477250262 0.885800022
3900276600.0 -0.4367888368 0.8913628768
3950276300.0 -0.4247703124 0.8972470883
4000276000.0 -0.4128056997 0.9032577298
4050275700.0 -0.4003099584 0.9090376157
4100275400.0 -0.3892088866 0.9146384724
4150275100.0 -0.3760700105 0.9205526931
4200274800.0 -0.3626205772 0.9260009327
4250274500.0 -0.3500440398 0.9313982134
4300274200.0 -0.3368113058 0.9368679454
4350273900.0 -0.3224805429 0.9420522411
4400273600.0 -0.3079552425 0.9471468794
4450273300.0 -0.292945196 0.952147355
4500273000.0 -0.2795767386 0.956688011
4550272700.0 -0.2659002131 0.9604802307
4600272400.0 -0.2507065208 0.9647624498
4650272100.0 -0.2394686348 0.9678861654
4700271800.0 -0.226330915 0.9713265121
4750271500.0 -0.2146840023 0.9739745077
4800271200.0 -0.2025487283 0.9768910043
4850270900.0 -0.1886384914 0.97946329
4900270600.0 -0.174815948 0.9820314702
4950270300.0 -0.1603310784 0.9846641131
5000270000.0 -0.1458085397 0.9869307799
5050269700.0 -0.1322256698 0.9882048254
5100269400.0 -0.1183765108 0.9903164158
5150269100.0 -0.1045447768 0.9918622195
5200268800.0 -0.0910713925 0.9926787674
5250268500.0 -0.0778896993 0.9937334023
5300268200.0 -0.0645901972 0.9948107466
5350267900.0 -0.0517107124 0.9950217875
5400267600.0 -0.0354536368 0.9962804455
5450267300.0 -0.0223944465 0.9967806137
5500267000.0 -0.0069242207 0.9968585044
5550266700.0 0.0077922286 0.9973102343
5600266400.0 0.0236019707 0.9972434047
5650266100.0 0.0403355323 0.9969223166
5700265800.0 0.0547830843 0.996348309
5750265500.0 0.0696051711 0.9952003623
5800265200.0 0.0831497518 0.9942464542
5850264900.0 0.0964993283 0.9930110609
5900264600.0 0.1129985731 0.9914383623
5950264300.0 0.1246512715 0.989597374
6000264000.0 0.138428963 0.9879204172
6050263700.0 0.1499338044 0.9866498657
6100263400.0 0.1621595357 0.9852579627
6150263100.0 0.1769091503 0.9828776814
6200262800.0 0.1867745241 0.9808932738
6250262500.0 0.199062244 0.9786096541
6300262200.0 0.2115140824 0.9759856436
6350261900.0 0.2243950803 0.9733423903
6400261600.0 0.2381820106 0.9701761873
6450261300.0 0.2491596482 0.9673352241
6500261000.0 0.2624114185 0.9638518741
6550260700.0 0.2758169949 0.9599767352
6600260400.0 0.2893066752 0.9559403386
6650260100.0 0.3028010222 0.9513304698
6700259800.0 0.3155423531 0.947569048
6750259500.0 0.3288914203 0.9420289349
6800259200.0 0.3429103973 0.9373367373
6850258900.0 0.3548263796 0.9318528507
6900258600.0 0.3672318955 0.9266773638
6950258300.0 0.3799346439 0.921303898
7000258000.0 0.3917621424 0.9160080029
7050257700.0 0.4037841007 0.9103189171
7100257400.0 0.4167542975 0.9038388502
7150257100.0 0.4276424341 0.8984522274
7200256800.0 0.4406826644 0.8919320151
7250256500.0 0.4531624435 0.8855061392
7300256200.0 0.4659703988 0.8785863847
7350255900.0 0.4786860598 0.8717449478
7400255600.0 0.4929138115 0.8639514867
7450255300.0 0.508226448 0.8548953225
7500255000.0 0.5211772606 0.8477333182
7550254700.0 0.5349997793 0.8383349955
7600254400.0 0.5471277152 0.8301076633
7650254100.0 0.5588511991 0.822230141
7700253800.0 0.5709579904 0.8142669185
7750253500.0 0.5817044867 0.8068622921
7800253200.0 0.5923733985 0.7987996237
7850252900.0 0.6021408518 0.7914846543
7900252600.0 0.6135776497 0.7829125264
7950252300.0 0.6220485702 0.7763694325
8000252000.0 0.6318958555 0.7688361847
8050251700.0 0.6426128722 0.7605879195
8100251400.0 0.6523175663 0.7527604591
8150251100.0 0.6622714278 0.7441005322
8200250800.0 0.6719235267 0.7360802229
8250250500.0 0.6806069251 0.7282734022
8300250200.0 0.6896736924 0.7198082731
8350249900.0 0.6992159349 0.7109670138
8400249600.0 0.7069416316 0.7029342082
8450249300.0 0.7158549105 0.6941738056
8500249000.0 0.7243567069 0.6850770169
8550248700.0 0.7327723919 0.6762468742
8600248400.0 0.7410549621 0.666696657
8650248100.0 0.7487801545 0.6572344538
8700247800.0 0.7580766388 0.6462244675
8750247500.0 0.7664043205 0.63620362
8800247200.0 0.7745315096 0.6257364092
8850246900.0 0.7831045504 0.6144804713
8900246600.0 0.791766942 0.6030890051
8950246300.0 0.8008218941 0.5903282594
9000246000.0 0.8096384192 0.578067307
9050245700.0 0.8178270997 0.5659660592
9100245400.0 0.8265194492 0.5536951286
9150245100.0 0.8355128561 0.5407094922
9200244800.0 0.8448722751 0.5261736753
9250244500.0 0.8537404663 0.5112791729
9300244200.0 0.8619922613 0.497615129
9350243900.0 0.8697296934 0.4841852993
9400243600.0 0.8762939142 0.4724243848
9450243300.0 0.8819274006 0.4617978702
9500243000.0 0.888250406 0.4499950691
9550242700.0 0.8922420942 0.4426410078
9600242400.0 0.8963329093 0.4349602946
9650242100.0 0.9004599571 0.4280982277
9700241800.0 0.9055741898 0.4194817332
9750241500.0 0.9093929562 0.412002854
9800241200.0 0.9144296548 0.4026107732
9850240900.0 0.9204539446 0.3907177684
9900240600.0 0.9262754541 0.3789886914
9950240300.0 0.9331649139 0.3623488017
10000240000.0 0.9378288523 0.3506598001
10050239700.0 0.9443108514 0.3341977602
10100239400.0 0.9493498564 0.3180242339
10150239100.0 0.953852862 0.3027512239
10200238800.0 0.9583114653 0.2874058509
10250238500.0 0.9617186671 0.2738397019
10300238200.0 0.9646777139 0.2598490657
10350237900.0 0.9675709139 0.2465195259
10400237600.0 0.9699412081 0.2333736298
10450237300.0 0.9727959707 0.2195409774
10500237000.0 0.9750020461 0.2071393094
10550236700.0 0.9773084792 0.1929191784
10600236400.0 0.9794043408 0.1791357536
10650236100.0 0.9816792223 0.1643227099
10700235800.0 0.9838392945 0.1521443181
10750235500.0 0.985963807 0.1387850951
10800235200.0 0.988062704 0.1243423637
10850234900.0 0.9894843677 0.1093477493
10900234600.0 0.9919886636 0.0944617641
10950234300.0 0.9937529145 0.0810546747
11000234000.0 0.9956448228 0.0656214032
11050233700.0 0.9973649536 0.0489384841
11100233400.0 0.9986825901 0.0313453278
11150233100.0 0.9997097348 0.014673078
11200232800.0 1.000613692 -0.0014306754
11250232500.0 1.001594742 -0.0192496327
11300232200.0 1.002104792 -0.0368307277
11350231900.0 1.001965386 -0.05285432
11400231600.0 1.00117918 -0.0690571871
11450231300.0 1.001046699 -0.0852156994
11500231000.0 0.9996052518 -0.100683136
11550230700.0 0.9984199483 -0.1142011195
11600230400.0 0.9973516407 -0.1269755944
11650230100.0 0.9950299118 -0.1386918141
11700229800.0 0.992566012 -0.1539541652
11750229500.0 0.9904487264 -0.1677697292
11800229200.0 0.9874437213 -0.1813716366
11850228900.0 0.9837683064 -0.1930584866
11900228600.0 0.9800634833 -0.2026542099
11950228300.0 0.9768971338 -0.2130937735
12000228000.0 0.9738948373 -0.2214716554
12050227700.0 0.9699782751 -0.2346744209
12100227400.0 0.9671029131 -0.2455882727
12150227100.0 0.9613894157 -0.2631177543
12200226800.0 0.9579787503 -0.2735911717
12250226500.0 0.9541182358 -0.2858603415
12300226200.0 0.9499379739 -0.297885374
12350225900.0 0.9450251501 -0.3114960511
12400225600.0 0.9399087483 -0.3244299061
12450225300.0 0.9354950627 -0.3369212217
12500225000.0 0.930671108 -0.3512515991
12550224700.0 0.9251132655 -0.3653804449
12600224400.0 0.9202037713 -0.3780773934
12650224100.0 0.9143824796 -0.3923015613
12700223800.0 0.9091540627 -0.4051122724
12750223500.0 0.9036552242 -0.4179881274
12800223200.0 0.8982836009 -0.4304493923
12850222900.0 0.8929281765 -0.4432307172
12900222600.0 0.8874462448 -0.4548999532
12950222300.0 0.8815167859 -0.4673442227
13000222000.0 0.8754421402 -0.4792781517
13050221700.0 0.8685449675 -0.4922961968
13100221400.0 0.8619748532 -0.5038111917
13150221100.0 0.8549075562 -0.516530978
13200220800.0 0.8480460614 -0.5275687392
13250220500.0 0.8406499093 -0.5401093023
13300220200.0 0.8328668283 -0.5509807699
13350219900.0 0.8248467801 -0.5629582155
13400219600.0 0.8164460392 -0.5749440342
13450219300.0 0.8074755177 -0.5878983155
13500219000.0 0.7974458415 -0.6011368993
13550218700.0 0.7874729718 -0.6134357925
13600218400.0 0.7771079719 -0.6254524556
13650218100.0 0.7685126324 -0.6362367997
13700217800.0 0.7579816617 -0.6478359345
13750217500.0 0.7468154379 -0.6591891276
13800217200.0 0.7358234793 -0.6708474734
13850216900.0 0.7256699332 -0.6815450287
13900216600.0 0.7162544576 -0.69111301
13950216300.0 0.7046070151 -0.7010992584
14000216000.0 0.695676506 -0.7093248729
14050215700.0 0.6861847215 -0.7177511516
14100215400.0 0.6761781932 -0.7269548733
14150215100.0 0.6672542577 -0.7358876983
14200214800.0 0.6577278967 -0.744418994
14250214500.0 0.6472747827 -0.7539105577
14300214200.0 0.6368183505 -0.763189784
14350213900.0 0.6256496635 -0.7729686227
14400213600.0 0.6139913152 -0.7824977232
14450213300.0 0.6005945872 -0.7926998381
14500213000.0 0.5881844065 -0.8024940401
14550212700.0 0.5756404801 -0.8119962471
14600212400.0 0.5634228576 -0.8207456927
14650212100.0 0.5505924553 -0.8295005607
14700211800.0 0.5368730635 -0.8391380527
14750211500.0 0.5246719793 -0.8477060847
14800211200.0 0.5116400911 -0.8553574749
14850210900.0 0.4996894636 -0.8630741775
14900210600.0 0.486384671 -0.8711907549
14950210300.0 0.4729425552 -0.8789661462
15000210000.0 0.4600165005 -0.8856989498
15050209700.0 0.4479413306 -0.891680525
15100209400.0 0.4350961346 -0.8974670595
15150209100.0 0.4232948906 -0.9032298752
15200208800.0 0.4101219306 -0.908238054
15250208500.0 0.399074761 -0.9126863727
15300208200.0 0.3864098942 -0.9173579866
15350207900.0 0.3740404833 -0.9227038895
15400207600.0 0.3583593507 -0.9275617758
15450207300.0 0.3446468948 -0.9324661379
15500207000.0 0.3291183121 -0.9369594401
15550206700.0 0.3151719827 -0.9420816376
15600206400.0 0.2994856334 -0.9468586798
15650206100.0 0.2835147204 -0.9504900547
15700205800.0 0.2699014838 -0.9544937731
15750205500.0 0.2560667065 -0.9580822191
15800205200.0 0.2416602758 -0.961431182
15850204900.0 0.2273577362 -0.9649793627
15900204600.0 0.2124137188 -0.9685553846
15950204300.0 0.1981684231 -0.9715892524
16000204000.0 0.1834296291 -0.9742105354
16050203700.0 0.168406737 -0.9772388098
16100203400.0 0.1537442175 -0.9797168529
16150203100.0 0.1390879141 -0.9820471897
16200202800.0 0.1250001528 -0.9840444065
16250202500.0 0.1104108872 -0.9862266681
16300202200.0 0.0946993556 -0.9874942553
16350201900.0 0.0795431905 -0.9890572476
16400201600.0 0.0646878772 -0.98976531
16450201300.0 0.0492503638 -0.9912813998
16500201000.0 0.0322581659 -0.9921678063
16550200700.0 0.0162635039 -0.9925239721
16600200400.0 0.0003345712 -0.9926772662
16650200100.0 -0.0158701861 -0.9928643881
16700199800.0 -0.0323807135 -0.992167018
16750199500.0 -0.0514060901 -0.9913173532
16800199200.0 -0.0674751936 -0.990767581
16850198900.0 -0.0827716524 -0.9894445382
16900198600.0 -0.0965587205 -0.9888286799
16950198300.0 -0.1099880645 -0.9870754096
17000198000.0 -0.1235948317 -0.9855567233
17050197700.0 -0.1356150681 -0.9843596622
17100197400.0 -0.1495574394 -0.981732217
17150197100.0 -0.1615357281 -0.9800887192
17200196800.0 -0.1742372767 -0.9777843304
17250196500.0 -0.1873950565 -0.9756545212
17300196200.0 -0.1995009706 -0.9730856077
17350195900.0 -0.2111927925 -0.9706590353
17400195600.0 -0.223385426 -0.9682619522
17450195300.0 -0.2359788518 -0.9654565845
17500195000.0 -0.2492205896 -0.9622267353
17550194700.0 -0.2632459583 -0.958548459
17600194400.0 -0.2767442728 -0.9546512592
17650194100.0 -0.2905966158 -0.9504823389
17700193800.0 -0.3035066075 -0.9463965527
17750193500.0 -0.3179028982 -0.9416457044
17800193200.0 -0.3319628438 -0.9362672706
17850192900.0 -0.3466932721 -0.9312561606
17900192600.0 -0.3619869474 -0.9251091051
17950192300.0 -0.3773669663 -0.9178304251
18000192000.0 -0.3923151351 -0.9105876009
18050191700.0 -0.4061593663 -0.9026052996
18100191400.0 -0.4201551964 -0.8950817321
18150191100.0 -0.4350921265 -0.8870594123
18200190800.0 -0.4519171218 -0.877735059
18250190500.0 -0.4689701713 -0.8683485456
18300190200.0 -0.4844041829 -0.8597598984
18350189900.0 -0.5001027429 -0.8511904065
18400189600.0 -0.5142316037 -0.8426340252
18450189300.0 -0.5275529459 -0.8345509301
18500189000.0 -0.5413211938 -0.82670849
18550188700.0 -0.5537232275 -0.8189222934
18600188400.0 -0.565211212 -0.8124726477
18650188100.0 -0.577305342 -0.805605633
18700187800.0 -0.5880466853 -0.7986939854
18750187500.0 -0.5989467273 -0.7922575742
18800187200.0 -0.6095685537 -0.7853457093
18850186900.0 -0.6198755068 -0.7782506765
18900186600.0 -0.6299384454 -0.7710299447
18950186300.0 -0.6400408223 -0.7632470225
19000186000.0 -0.6476918926 -0.7569961024
19050185700.0 -0.6571947801 -0.7501457157
19100185400.0 -0.6667140083 -0.7418517426
19150185100.0 -0.6773562743 -0.7335490867
19200184800.0 -0.6862785563 -0.7254753078
19250184500.0 -0.6967211878 -0.7153786696
19300184200.0 -0.7078229493 -0.7062788804
19350183900.0 -0.7187517147 -0.6966763286
19400183600.0 -0.7283659126 -0.6868190958
19450183300.0 -0.7367432121 -0.6767548801
19500183000.0 -0.7454980544 -0.6667690621
19550182700.0 -0.7552525725 -0.6556361191
19600182400.0 -0.7656467649 -0.644036315
19650182100.0 -0.7758526113 -0.6317220048
19700181800.0 -0.7865571565 -0.6186079181
19750181500.0 -0.7968297136 -0.6043216854
19800181200.0 -0.8071732773 -0.5893752303
19850180900.0 -0.8165575518 -0.5742508704
19900180600.0 -0.8244692493 -0.5598196338
19950180300.0 -0.8334773243 -0.5436056283
20000180000.0 -0.8242101236 -0.5470880956
20050179700.0 -0.8315065237 -0.5334173079
20100179400.0 -0.8408548217 -0.5206998899
20150179100.0 -0.8482666404 -0.5093949768
20200178800.0 -0.8565022095 -0.4971183025
20250178500.0 -0.8663272642 -0.4849015906
20300178200.0 -0.875541426 -0.4706444174
20350177900.0 -0.8849553484 -0.4570442528
20400177600.0 -0.8943247762 -0.4422696539
20450177300.0 -0.9026016053 -0.4283769834
20500177000.0 -0.9106416318 -0.4141819226
20550176700.0 -0.9183755469 -0.4008112783
20600176400.0 -0.9256173118 -0.3878556639
20650176100.0 -0.9320753501 -0.3753836482
20700175800.0 -0.9390382849 -0.3638026084
20750175500.0 -0.9451224067 -0.3529169472
20800175200.0 -0.949288092 -0.3409337159
20850174900.0 -0.9544653909 -0.3303015635
20900174600.0 -0.9590494901 -0.3190969593
20950174300.0 -0.9624126461 -0.3084521696
21000174000.0 -0.9652377267 -0.2974451432
21050173700.0 -0.966858912 -0.288088855
21100173400.0 -0.9709083098 -0.2761932478
21150173100.0 -0.9741796247 -0.2648037337
21200172800.0 -0.9779534581 -0.2513444814
21250172500.0 -0.9818864141 -0.2378576797
21300172200.0 -0.9850370724 -0.22384244
21350171900.0 -0.9869509324 -0.2095400031
21400171600.0 -0.9888071502 -0.1952415075
21450171300.0 -0.9894015416 -0.1807576469
21500171000.0 -0.9891942153 -0.1654529852
21550170700.0 -0.9904406729 -0.1506913357
21600170400.0 -0.9916143277 -0.1353085776
21650170100.0 -0.9913144875 -0.1192361067
21700169800.0 -0.9909893695 -0.1048447972
21750169500.0 -0.9903281371 -0.088285615
21800169200.0 -0.9902712184 -0.0715981503
21850168900.0 -0.9895676639 -0.054809637
21900168600.0 -0.9894359246 -0.0384290202
21950168300.0 -0.9888036333 -0.0227072676
22000168000.0 -0.9881003111 -0.007984922
22050167700.0 -0.9886301803 0.0068157289
22100167400.0 -0.9893220577 0.0220441398
22150167100.0 -0.9898453843 0.0380414345
22200166800.0 -0.9910126106 0.0546987883
22250166500.0 -0.9897819295 0.0713782094
22300166200.0 -0.9894085575 0.0881717834
22350165900.0 -0.9881962261 0.1047540999
22400165600.0 -0.9874450892 0.1202615506
22450165300.0 -0.9850559345 0.1354746478
22500165000.0 -0.982542082 0.1496469308
22550164700.0 -0.9814384595 0.1651971727
22600164400.0 -0.9796236496 0.1814617915
22650164100.0 -0.9770279026 0.1963596312
22700163800.0 -0.9741899812 0.2130353256
22750163500.0 -0.9714541656 0.2278378749
22800163200.0 -0.9680718939 0.2406617733
22850162900.0 -0.9657564353 0.2545730816
22900162600.0 -0.9637902891 0.2682418091
22950162300.0 -0.9620312807 0.2821123349
23000162000.0 -0.960576951 0.2942965838
23050161700.0 -0.957772202 0.3079602588
23100161400.0 -0.9553113717 0.3211899962
23150161100.0 -0.9526929692 0.333718108
23200160800.0 -0.9491972925 0.3471023115
23250160500.0 -0.9460389836 0.3588637773
23300160200.0 -0.9440104571 0.3712779606
23350159900.0 -0.9394270603 0.3852356517
23400159600.0 -0.9351480677 0.3991424141
23450159300.0 -0.9296223365 0.4127896587
23500159000.0 -0.9254650672 0.4257207607
23550158700.0 -0.9204094528 0.4399792282
23600158400.0 -0.9143229323 0.4536144654
23650158100.0 -0.9070418305 0.4681689806
23700157800.0 -0.8988709027 0.4824844612
23750157500.0 -0.8896837534 0.4969745432
23800157200.0 -0.8801592061 0.5103655163
23850156900.0 -0.8704409346 0.5227260188
23900156600.0 -0.860499085 0.5360345416
23950156300.0 -0.8515487074 0.5479620801
24000156000.0 -0.8413259461 0.5607874709
24050155700.0 -0.8303073884 0.5728552994
24100155400.0 -0.8210388585 0.5855719534
24150155100.0 -0.8096359516 0.5975907521
24200154800.0 -0.7986082176 0.6089045698
24250154500.0 -0.7876198339 0.621121615
24300154200.0 -0.7761913279 0.6327549431
24350153900.0 -0.7638529315 0.6442732139
24400153600.0 -0.7515680369 0.6546613487
24450153300.0 -0.739454985 0.6645930042
24500153000.0 -0.7280459709 0.6747185588
24550152700.0 -0.7164248139 0.6847197549
24600152400.0 -0.7046770634 0.6946609751
24650152100.0 -0.6929841532 0.7029960123
