!Created with skrf (http://scikit-rf.org).
# Hz S RI R 50.0 
!freq ReS11 ImS11
300000.0 -0.9868508531 -0.0776479188
50299700.0 -0.9997518555 0.0164808767
100299400.0 -0.9978326907 0.0293526999
150299100.0 -1.002620467 0.0463003564
200298800.0 -0.9994514322 0.0594435205
250298500.0 -0.9972017381 0.0729582466
300298200.0 -0.9858027572 0.0887271246
350297900.0 -0.9938461235 0.0995010848
400297600.0 -0.9926497282 0.1163145459
450297300.0 -0.990552894 0.1298313893
500297000.0 -0.9889866614 0.1446437873
550296700.0 -0.9838942922 0.1571357613
600296400.0 -1.016650051 0.1904597566
650296100.0 -0.9816852012 0.1871593018
700295800.0 -0.9785494979 0.2014641688
750295500.0 -0.9756006637 0.215369616
800295200.0 -0.9724617819 0.2295974779
850294900.0 -0.9688462806 0.2434265818
900294600.0 -0.9650478814 0.2568215202
950294300.0 -0.9612637968 0.2707987382
1000294000.0 -0.9573428262 0.2846576944
1050293700.0 -0.9526486205 0.298217592
1100293400.0 -0.9485165748 0.3128889145
1150293100.0 -0.9446434107 0.3246763205
1200292800.0 -0.939483012 0.3390309858
1250292500.0 -0.9339388237 0.3523808244
1300292200.0 -0.9283274377 0.3656285052
1350291900.0 -0.9227817489 0.379741273
1400291600.0 -0.9173011576 0.3926296072
1450291300.0 -0.9118385003 0.4047926345
1500291000.0 -0.9056269058 0.4182940266
1550290700.0 -0.8990502963 0.4318015584
1600290400.0 -0.8929607825 0.4445609002
1650290100.0 -0.8863866796 0.4565587363
1700289800.0 -0.879478352 0.4700974194
1750289500.0 -0.8723138036 0.4823197204
1800289200.0 -0.8651735627 0.4951651734
1850288900.0 -0.8583218042 0.5064601242
1900288600.0 -0.8504952859 0.519514658
1950288300.0 -0.8426101999 0.5322308225
2000288000.0 -0.8348203872 0.5434564725
2050287700.0 -0.8267865343 0.5557215665
2100287400.0 -0.8187554231 0.5674236383
2150287100.0 -0.810099891 0.5795794484
2200286800.0 -0.802180061 0.5899850214
2250286500.0 -0.7934790332 0.6018794078
2300286200.0 -0.7845586485 0.6134488343
2350285900.0 -0.7757360843 0.6246928905
2400285600.0 -0.7666511941 0.6355423932
2450285300.0 -0.7578915863 0.6459099259
2500285000.0 -0.7482137498 0.6570631712
2550284700.0 -0.7394466559 0.6676471614
2600284400.0 -0.7298031197 0.6776391981
2650284100.0 -0.7206600041 0.6882401201
2700283800.0 -0.7102023522 0.6988143036
2750283500.0 -0.6999896225 0.709189214
2800283200.0 -0.6898731421 0.7190109695
2850282900.0 -0.6799517014 0.7288939999
2900282600.0 -0.6697895133 0.7383496781
2950282300.0 -0.6595162392 0.7473509948
3000282000.0 -0.6485879537 0.7570778403
3050281700.0 -0.6376936984 0.7662309712
3100281400.0 -0.6259435388 0.7754362592
3150281100.0 -0.6145260429 0.7846739168
3200280800.0 -0.6026977599 0.793170073
3250280500.0 -0.5920035567 0.8009310944
3300280200.0 -0.5807963863 0.8089715318
3350279900.0 -0.5693420458 0.8164223213
3400279600.0 -0.5572124901 0.8241840556
3450279300.0 -0.5462552048 0.8316438965
3500279000.0 -0.534251008 0.8384995138
3550278700.0 -0.5218842986 0.8458728547
3600278400.0 -0.5100341947 0.853003166
3650278100.0 -0.4965268726 0.8606534351
3700277800.0 -0.4845751822 0.8671091569
3750277500.0 -0.4724490748 0.8735702706
3800277200.0 -0.4596937269 0.8801938029
3850276900.0 -0.447577511 0.8862052644
3900276600.0 -0.4363608212 0.8918307787
3950276300.0 -0.423812632 0.8982203707
4000276000.0 -0.4116178322 0.9041503914
4050275700.0 -0.3983123752 0.9103724745
4100275400.0 -0.3870089813 0.9154750095
4150275100.0 -0.3742197577 0.9210246347
4200274800.0 -0.3609158126 0.9264906005
4250274500.0 -0.3487085362 0.9317901005
4300274200.0 -0.3357001037 0.9368517766
4350273900.0 -0.3219843879 0.9421403114
4400273600.0 -0.307210424 0.9471251122
4450273300.0 -0.2922072835 0.9521267796
4500273000.0 -0.2788175964 0.9564779681
4550272700.0 -0.2647125617 0.9606000903
4600272400.0 -0.2492877618 0.964712769
4650272100.0 -0.2375618018 0.9679530991
4700271800.0 -0.2241183118 0.9713766131
4750271500.0 -0.2120763638 0.9741885059
4800271200.0 -0.1993849003 0.9771112128
4850270900.0 -0.1857361344 0.9797478818
4900270600.0 -0.1719294123 0.9820923174
4950270300.0 -0.157989589 0.9846247238
5000270000.0 -0.1437296347 0.9868549923
5050269700.0 -0.1302392341 0.988373326
5100269400.0 -0.116848363 0.9900093027
5150269100.0 -0.1035771151 0.9918457944
5200268800.0 -0.0902221892 0.9927140945
5250268500.0 -0.0769742619 0.9940596759
5300268200.0 -0.0637713853 0.9948858512
5350267900.0 -0.0516605757 0.9951396468
5400267600.0 -0.0356841436 0.9964301962
5450267300.0 -0.0229277098 0.9966863304
5500267000.0 -0.0078805117 0.9969285043
5550266700.0 0.006673566 0.9970159761
5600266400.0 0.0222277844 0.9971852673
5650266100.0 0.038290317 0.9966765752
5700265800.0 0.0526040779 0.9957328841
5750265500.0 0.0680810904 0.9951803965
5800265200.0 0.0818716488 0.994188555
5850264900.0 0.0950927018 0.9932012219
5900264600.0 0.1119235768 0.9916626119
5950264300.0 0.1240523423 0.9901359035
6000264000.0 0.1377611388 0.9880116934
6050263700.0 0.1505864015 0.9861863452
6100263400.0 0.1633948637 0.9840554927
6150263100.0 0.17823907 0.9818340207
6200262800.0 0.1886340209 0.9800002857
6250262500.0 0.2015529276 0.977308984
6300262200.0 0.2146194152 0.9744933554
6350261900.0 0.2275147508 0.9717153431
6400261600.0 0.2415315685 0.9684851003
6450261300.0 0.2531111402 0.9655952211
6500261000.0 0.265999575 0.9621649703
6550260700.0 0.2786159506 0.9580984493
6600260400.0 0.2924036395 0.954376541
6650260100.0 0.3057635454 0.9498609673
6700259800.0 0.3179552074 0.9456641384
6750259500.0 0.3314836665 0.9409641932
6800259200.0 0.3447198631 0.9359822461
6850258900.0 0.3562936568 0.9309144451
6900258600.0 0.3686962921 0.9261213687
6950258300.0 0.3815131408 0.9208863521
7000258000.0 0.3931112937 0.9156190935
7050257700.0 0.4054912671 0.909717782
7100257400.0 0.418574052 0.9034449714
7150257100.0 0.4285825612 0.8982653468
7200256800.0 0.4413755816 0.8917702627
7250256500.0 0.4532854867 0.8856699677
7300256200.0 0.466023215 0.8789739996
7350255900.0 0.4786039438 0.8723799038
7400255600.0 0.4907198144 0.8652937536
7450255300.0 0.5059616431 0.8564497001
7500255000.0 0.5179463442 0.8497784586
7550254700.0 0.5305820679 0.8411407634
7600254400.0 0.5437417531 0.8327774899
7650254100.0 0.5551556316 0.8252647762
7700253800.0 0.5670026937 0.8169730422
7750253500.0 0.5783713624 0.8091486277
7800253200.0 0.5893826676 0.8012977018
7850252900.0 0.5990832973 0.7940682814
7900252600.0 0.6110790556 0.7851775047
7950252300.0 0.6199081123 0.7782981393
8000252000.0 0.6302666833 0.7705022221
8050251700.0 0.6407503456 0.762056706
8100251400.0 0.6508891092 0.753824267
8150251100.0 0.6610722455 0.7449862402
8200250800.0 0.670503278 0.7368854422
8250250500.0 0.6800906968 0.7286791412
8300250200.0 0.6892075007 0.7198956479
8350249900.0 0.6985244852 0.7111608006
8400249600.0 0.7066674358 0.7030735223
8450249300.0 0.7159989197 0.6935510739
8500249000.0 0.7248495076 0.6848816363
8550248700.0 0.7334709638 0.6755012836
8600248400.0 0.7419206548 0.6659962891
8650248100.0 0.749559838 0.6566755228
8700247800.0 0.7589445975 0.645483786
8750247500.0 0.7671482015 0.6357848964
8800247200.0 0.7754326442 0.6256176597
8850246900.0 0.7842514215 0.6141946157
8900246600.0 0.7921999356 0.6032428882
8950246300.0 0.8014716381 0.5908181172
9000246000.0 0.8106524688 0.5782371239
9050245700.0 0.8190170257 0.5659458714
9100245400.0 0.8278697562 0.5534293873
9150245100.0 0.8366107572 0.5405097083
9200244800.0 0.8460531332 0.525934396
9250244500.0 0.8551170862 0.5111888968
9300244200.0 0.863409303 0.4971704775
9350243900.0 0.8712664797 0.4833541204
9400243600.0 0.8780367724 0.470435009
9450243300.0 0.884249474 0.458172687
9500243000.0 0.890786806 0.4452330677
9550242700.0 0.8950536271 0.4365675617
9600242400.0 0.8992891645 0.427934441
9650242100.0 0.9029991061 0.4206779925
9700241800.0 0.9079811741 0.4120477218
9750241500.0 0.9122383481 0.4037227386
9800241200.0 0.9167797394 0.3939563532
9850240900.0 0.9222310059 0.3823122937
9900240600.0 0.9276547102 0.3711302236
9950240300.0 0.9340521394 0.3552814489
10000240000.0 0.938566338 0.3432923435
10050239700.0 0.9439655895 0.3287638446
10100239400.0 0.9490688436 0.3135778321
10150239100.0 0.9534328521 0.2991244472
10200238800.0 0.9577476043 0.2841823087
10250238500.0 0.9610903201 0.2709271271
10300238200.0 0.9643598222 0.257145239
10350237900.0 0.9671953371 0.2439476424
10400237600.0 0.9698488967 0.2307996757
10450237300.0 0.9725113576 0.2175376425
10500237000.0 0.9749305381 0.2053303353
10550236700.0 0.9769288147 0.1916956784
10600236400.0 0.9793117724 0.1782045063
10650236100.0 0.9813118023 0.1635788811
10700235800.0 0.9836372841 0.1512427252
10750235500.0 0.9862197764 0.1380618684
10800235200.0 0.9880379336 0.12433941
10850234900.0 0.9895948195 0.1102156959
10900234600.0 0.9916253957 0.0957516749
10950234300.0 0.9932812698 0.0823958378
11000234000.0 0.9949369717 0.0677584459
11050233700.0 0.9964562806 0.052011853
11100233400.0 0.997819975 0.0350461504
11150233100.0 0.9986363614 0.019511337
11200232800.0 0.9990179572 0.0041581966
11250232500.0 1.000224477 -0.0117709119
11300232200.0 1.000356127 -0.0289025264
11350231900.0 1.000904332 -0.0456221745
11400231600.0 0.9992737923 -0.0604227247
11450231300.0 0.9993580277 -0.0764954758
11500231000.0 0.9984812745 -0.0935164885
11550230700.0 0.996331682 -0.1058380931
11600230400.0 0.9957633196 -0.1201609701
11650230100.0 0.9937079269 -0.1316310317
11700229800.0 0.9914787561 -0.146430005
11750229500.0 0.989179088 -0.1603534751
11800229200.0 0.9867639132 -0.1747263152
11850228900.0 0.9831859322 -0.1878785304
11900228600.0 0.9796199291 -0.1986634097
11950228300.0 0.97652127 -0.2093496466
12000228000.0 0.9740123147 -0.2189583368
12050227700.0 0.9703001147 -0.2316614648
12100227400.0 0.9673532206 -0.2429729174
12150227100.0 0.962287751 -0.2601090485
12200226800.0 0.9593532523 -0.2704466108
12250226500.0 0.9545675172 -0.2832787611
12300226200.0 0.9511473218 -0.2956045807
12350225900.0 0.9467245324 -0.308790757
12400225600.0 0.9419848928 -0.3217884187
12450225300.0 0.9380768347 -0.3338723396
12500225000.0 0.932542391 -0.3483372497
12550224700.0 0.9272456979 -0.3625118548
12600224400.0 0.9225593694 -0.3745355257
12650224100.0 0.9167648635 -0.3885470925
12700223800.0 0.9116932385 -0.4011464472
12750223500.0 0.9061689088 -0.4139254739
12800223200.0 0.9007511071 -0.4265680002
12850222900.0 0.8955045117 -0.4387622118
12900222600.0 0.8892912206 -0.4507077131
12950222300.0 0.8829305209 -0.4640660569
13000222000.0 0.8771837133 -0.4756393199
13050221700.0 0.8703487617 -0.4883175618
13100221400.0 0.8634351171 -0.5001547009
13150221100.0 0.8562180618 -0.5124644253
13200220800.0 0.8492097042 -0.5241343383
13250220500.0 0.8416335593 -0.536467131
13300220200.0 0.8340535376 -0.5475382576
13350219900.0 0.8260773913 -0.5599454561
13400219600.0 0.8175472996 -0.5719453755
13450219300.0 0.8084947512 -0.5851868043
13500219000.0 0.7984501611 -0.5988894547
13550218700.0 0.7882274273 -0.6118315727
13600218400.0 0.778053266 -0.6238004701
13650218100.0 0.7690905333 -0.6347414656
13700217800.0 0.7579343907 -0.6474202548
13750217500.0 0.7476631822 -0.6594032002
13800217200.0 0.7360307679 -0.6708972899
13850216900.0 0.7251764563 -0.6820265068
13900216600.0 0.7160467914 -0.6912899293
13950216300.0 0.705535193 -0.7018133456
14000216000.0 0.6957157238 -0.7106808864
14050215700.0 0.6858955629 -0.7190913827
14100215400.0 0.6756097394 -0.7282670441
14150215100.0 0.6666703486 -0.7370307066
14200214800.0 0.6574096097 -0.7455124583
14250214500.0 0.6473059547 -0.7547308662
14300214200.0 0.637077237 -0.7638837211
14350213900.0 0.6261970438 -0.7731283323
14400213600.0 0.6151174186 -0.7826878219
14450213300.0 0.6020853825 -0.7926018027
14500213000.0 0.5892485495 -0.8024427736
14550212700.0 0.5770638319 -0.8116659038
14600212400.0 0.5648703086 -0.8197916445
14650212100.0 0.5522602072 -0.8288044451
14700211800.0 0.5377821442 -0.8380660752
14750211500.0 0.5257649423 -0.8466625024
14800211200.0 0.5135582541 -0.8544752649
14850210900.0 0.5013201057 -0.861513737
14900210600.0 0.4880606727 -0.869571575
14950210300.0 0.4745626965 -0.8774385083
15000210000.0 0.4615263716 -0.8842272387
15050209700.0 0.4487943106 -0.890606203
15100209400.0 0.4357330906 -0.8966558605
15150209100.0 0.4234754497 -0.9020632222
15200208800.0 0.4099555445 -0.9083478654
15250208500.0 0.3980588672 -0.9132627278
15300208200.0 0.385445661 -0.9184301252
15350207900.0 0.3728755575 -0.922010737
15400207600.0 0.3567268658 -0.9285781502
15450207300.0 0.3430531007 -0.9332798777
15500207000.0 0.3275012931 -0.9376201927
15550206700.0 0.3132794545 -0.9433369066
15600206400.0 0.297636602 -0.9470196504
15650206100.0 0.2826419939 -0.9518610387
15700205800.0 0.2686628709 -0.955472121
15750205500.0 0.2542665185 -0.9590776799
15800205200.0 0.2398984105 -0.9626990138
15850204900.0 0.2257811362 -0.9659360132
15900204600.0 0.2109109805 -0.9695740586
15950204300.0 0.1973715803 -0.9725102722
16000204000.0 0.1832827828 -0.9754063943
16050203700.0 0.1689693251 -0.978295344
16100203400.0 0.1547293807 -0.9800067547
16150203100.0 0.1406991835 -0.982603817
16200202800.0 0.1265403552 -0.984805739
16250202500.0 0.1119541051 -0.9863227984
16300202200.0 0.0968797398 -0.9878683055
16350201900.0 0.0819560103 -0.9891044881
16400201600.0 0.0676530596 -0.9901362692
16450201300.0 0.0525874676 -0.9913394268
16500201000.0 0.0361489186 -0.9921158303
16550200700.0 0.0205373822 -0.9927798009
16600200400.0 0.0048049259 -0.9928514128
16650200100.0 -0.0113391801 -0.9928474546
16700199800.0 -0.0280755807 -0.9921508443
16750199500.0 -0.0459470378 -0.9919544086
16800199200.0 -0.0620534523 -0.9918722453
16850198900.0 -0.0775954246 -0.9901583664
16900198600.0 -0.092295183 -0.9887695405
16950198300.0 -0.1056776831 -0.9870141559
17000198000.0 -0.1196927234 -0.9864771462
17050197700.0 -0.1325814495 -0.9845407241
17100197400.0 -0.1455898552 -0.9818348981
17150197100.0 -0.1584718039 -0.9806159301
17200196800.0 -0.1719079867 -0.9777829889
17250196500.0 -0.1851195113 -0.9756137289
17300196200.0 -0.1975742612 -0.9731268243
17350195900.0 -0.2098899769 -0.9707471117
17400195600.0 -0.2222976229 -0.968145129
17450195300.0 -0.2354603221 -0.9653824386
17500195000.0 -0.2487761559 -0.9620713152
17550194700.0 -0.2628053563 -0.9583964318
17600194400.0 -0.2768751852 -0.9546523677
17650194100.0 -0.290609975 -0.9504878582
17700193800.0 -0.3030926011 -0.9462646923
17750193500.0 -0.3174974776 -0.9418135209
17800193200.0 -0.3317067728 -0.9367278922
17850192900.0 -0.3462384261 -0.9314113323
17900192600.0 -0.3606795217 -0.9256574051
17950192300.0 -0.3760006229 -0.9185453165
18000192000.0 -0.3905727979 -0.9118467166
18050191700.0 -0.40439752 -0.9041211794
18100191400.0 -0.4185157635 -0.8967532631
18150191100.0 -0.4331100312 -0.8889992644
18200190800.0 -0.4493015312 -0.8802050957
18250190500.0 -0.4658541395 -0.8711398677
18300190200.0 -0.4811748329 -0.8626318634
18350189900.0 -0.4958405654 -0.8545812273
18400189600.0 -0.5105644118 -0.8459702152
18450189300.0 -0.5238046112 -0.8383895926
18500189000.0 -0.5372556778 -0.8298318147
18550188700.0 -0.5499126876 -0.8219871428
18600188400.0 -0.5622604165 -0.8150381776
18650188100.0 -0.5741081097 -0.8079202737
18700187800.0 -0.5851517633 -0.8007718601
18750187500.0 -0.596214418 -0.7938317569
18800187200.0 -0.6072508798 -0.7861904263
18850186900.0 -0.6176843305 -0.7786887118
18900186600.0 -0.6282632579 -0.7710573323
18950186300.0 -0.6387813931 -0.7629264113
19000186000.0 -0.6467432121 -0.7561428922
19050185700.0 -0.6561454448 -0.7482074137
19100185400.0 -0.6668329336 -0.7395332723
19150185100.0 -0.6773041637 -0.730874651
19200184800.0 -0.6859322185 -0.72218286
19250184500.0 -0.6967717852 -0.7130127572
19300184200.0 -0.7082723933 -0.7028675642
19350183900.0 -0.7186092847 -0.6936301435
19400183600.0 -0.7283793684 -0.684328518
19450183300.0 -0.73699146 -0.6732542885
19500183000.0 -0.7455190738 -0.66294434
19550182700.0 -0.7545530317 -0.6534056798
19600182400.0 -0.7647896012 -0.6416821384
19650182100.0 -0.7745807031 -0.6296281301
19700181800.0 -0.7846927925 -0.6172307403
19750181500.0 -0.7950111445 -0.6035829961
19800181200.0 -0.8049974884 -0.5893782679
19850180900.0 -0.8145379097 -0.5747082167
19900180600.0 -0.8219163818 -0.5608886296
19950180300.0 -0.8313370282 -0.5456824079
20000180000.0 -0.8270671763 -0.5447334428
20050179700.0 -0.8356289488 -0.5319649698
20100179400.0 -0.8435368176 -0.5178901318
20150179100.0 -0.851771768 -0.5067524087
20200178800.0 -0.860539992 -0.4932816022
20250178500.0 -0.8688373489 -0.480536322
20300178200.0 -0.8779666935 -0.4666592111
20350177900.0 -0.8867514297 -0.4522677228
20400177600.0 -0.8949789662 -0.4378303491
20450177300.0 -0.9032360699 -0.4238200021
20500177000.0 -0.9108385082 -0.4097701304
20550176700.0 -0.918523198 -0.3962005373
20600176400.0 -0.9254184225 -0.3828378044
20650176100.0 -0.9318909981 -0.369743561
20700175800.0 -0.9379500238 -0.3574502483
20750175500.0 -0.9442256547 -0.3459014355
20800175200.0 -0.949170031 -0.3350910975
20850174900.0 -0.9543415665 -0.3231625765
20900174600.0 -0.9594709528 -0.3104364745
20950174300.0 -0.9631120022 -0.299033292
21000174000.0 -0.9670567304 -0.2864758848
21050173700.0 -0.9705267504 -0.2751011551
21100173400.0 -0.9741208546 -0.2632814658
21150173100.0 -0.9779308449 -0.2498463114
21200172800.0 -0.9810624513 -0.2367402953
21250172500.0 -0.9846368629 -0.2227278633
21300172200.0 -0.9875229844 -0.2083625794
21350171900.0 -0.9890927382 -0.1942307125
21400171600.0 -0.9909452169 -0.1799865814
21450171300.0 -0.991704017 -0.1660316838
21500171000.0 -0.9922564401 -0.1500414548
21550170700.0 -0.9925954696 -0.1362897774
21600170400.0 -0.9919703255 -0.1211330741
21650170100.0 -0.9918526897 -0.1041428653
21700169800.0 -0.9902999767 -0.0894211544
21750169500.0 -0.9900346994 -0.0740120504
21800169200.0 -0.9888238552 -0.0580216439
21850168900.0 -0.9883260906 -0.0434549089
21900168600.0 -0.9867557652 -0.0259343439
21950168300.0 -0.9856591618 -0.0104447856
22000168000.0 -0.9843753285 0.0042330751
22050167700.0 -0.9842755493 0.0182275088
22100167400.0 -0.983788481 0.0330809993
22150167100.0 -0.9839447095 0.0487649955
22200166800.0 -0.9842303061 0.0639400984
22250166500.0 -0.9835707942 0.0811215746
22300166200.0 -0.9829560996 0.0973806606
22350165900.0 -0.9811597958 0.1137637702
22400165600.0 -0.9802737419 0.1287530113
22450165300.0 -0.9776336634 0.1435035196
22500165000.0 -0.9761758764 0.1575837707
22550164700.0 -0.9746824987 0.1717281462
22600164400.0 -0.9728228931 0.1873810088
22650164100.0 -0.9704701062 0.2026066947
22700163800.0 -0.968037136 0.2177664227
22750163500.0 -0.9649906062 0.2329433071
22800163200.0 -0.9627494772 0.2466758092
22850162900.0 -0.959719838 0.2596417502
22900162600.0 -0.9583136823 0.2734368844
22950162300.0 -0.9568034368 0.2862111701
23000162000.0 -0.9555583061 0.2983713977
23050161700.0 -0.9532345723 0.3113423736
23100161400.0 -0.9507333545 0.3236872778
23150161100.0 -0.9476944126 0.3360596341
23200160800.0 -0.9443318682 0.3486230829
23250160500.0 -0.9422487533 0.3609912577
23300160200.0 -0.9392030051 0.3727289644
23350159900.0 -0.9350350408 0.3853974129
23400159600.0 -0.930198141 0.3989027137
23450159300.0 -0.9264446804 0.4109736901
23500159000.0 -0.9213207087 0.4240018475
23550158700.0 -0.9167145665 0.4368540024
23600158400.0 -0.9115422414 0.4497213317
23650158100.0 -0.9054402142 0.4631489198
23700157800.0 -0.8982115617 0.4767233936
23750157500.0 -0.8897854354 0.4905603974
23800157200.0 -0.8813703853 0.5032168474
23850156900.0 -0.8729034512 0.5160611627
23900156600.0 -0.8643382483 0.5280799362
23950156300.0 -0.8546516697 0.5406765748
24000156000.0 -0.8462526077 0.5523760267
24050155700.0 -0.8361699433 0.5651326589
24100155400.0 -0.8268583471 0.5763076731
24150155100.0 -0.8164182247 0.5875599446
24200154800.0 -0.8052423454 0.5991591827
24250154500.0 -0.7945281629 0.6112111407
24300154200.0 -0.7830148477 0.6231938465
24350153900.0 -0.7718497751 0.6337906267
24400153600.0 -0.7603222142 0.644568552
24450153300.0 -0.7491330482 0.6546409358
24500153000.0 -0.7370563217 0.6648702026
24550152700.0 -0.7266866454 0.674834171
24600152400.0 -0.7150533281 0.6843625234
24650152100.0 -0.7042943831 0.693173862
