!Created with skrf (http://scikit-rf.org).
# Hz S RI R 50.0 
!freq ReS11 ImS11
300000.0 -0.9740518345 -0.1229409171
50299700.0 -0.9998614512 0.0149493495
100299400.0 -0.9979319111 0.0278949419
150299100.0 -1.002784019 0.0449115637
200298800.0 -0.9996582097 0.0582011254
250298500.0 -0.9974219233 0.0714948264
300298200.0 -0.9858293661 0.0875142266
350297900.0 -0.9939005859 0.0981785927
400297600.0 -0.9932596589 0.1149538881
450297300.0 -0.9908996047 0.1286935465
500297000.0 -0.9893871824 0.1435843996
550296700.0 -0.9843425843 0.155998216
600296400.0 -1.017245282 0.1892408822
650296100.0 -0.9821012534 0.1859184932
700295800.0 -0.9793627404 0.2000826409
750295500.0 -0.9765571548 0.2139972793
800295200.0 -0.9728607819 0.2283275332
850294900.0 -0.9696360698 0.2420937189
900294600.0 -0.96576353 0.2556077195
950294300.0 -0.9621315651 0.2692829602
1000294000.0 -0.9581358435 0.2833443777
1050293700.0 -0.9534264895 0.2970756787
1100293400.0 -0.9495293193 0.3115293847
1150293100.0 -0.945467196 0.3234813571
1200292800.0 -0.9400867282 0.337860077
1250292500.0 -0.9347107107 0.3512101947
1300292200.0 -0.9290748224 0.3645227555
1350291900.0 -0.923480213 0.378515585
1400291600.0 -0.9179388977 0.3916347504
1450291300.0 -0.9125401234 0.4040097518
1500291000.0 -0.9062354392 0.4174820385
1550290700.0 -0.8996331472 0.43080499
1600290400.0 -0.8935047663 0.4437229241
1650290100.0 -0.8866492349 0.455791444
1700289800.0 -0.8799046951 0.4691472218
1750289500.0 -0.8728695089 0.4815610688
1800289200.0 -0.8655535871 0.4944950132
1850288900.0 -0.8589282502 0.5058659858
1900288600.0 -0.8511689617 0.5187013028
1950288300.0 -0.8429142556 0.5314097948
2000288000.0 -0.8353740967 0.5428145588
2050287700.0 -0.8271710826 0.5553529553
2100287400.0 -0.8195182234 0.5665539993
2150287100.0 -0.8109007606 0.5784748203
2200286800.0 -0.8030405014 0.589208374
2250286500.0 -0.7940339876 0.6015187161
2300286200.0 -0.785199552 0.6129383592
2350285900.0 -0.7768799533 0.623499394
2400285600.0 -0.7678901281 0.6344409979
2450285300.0 -0.7592541714 0.6450678538
2500285000.0 -0.7492450219 0.6569278194
2550284700.0 -0.7401688022 0.6669791913
2600284400.0 -0.7310025405 0.6767369465
2650284100.0 -0.7225151038 0.6874117321
2700283800.0 -0.7121186704 0.6978278211
2750283500.0 -0.7014382989 0.708111024
2800283200.0 -0.6917075889 0.7181149791
2850282900.0 -0.6812068159 0.7280574199
2900282600.0 -0.6705958249 0.7377591571
2950282300.0 -0.6602800012 0.7471512805
3000282000.0 -0.6493379852 0.7567966807
3050281700.0 -0.6383754226 0.7659548953
3100281400.0 -0.6267930807 0.7749441043
3150281100.0 -0.6156118273 0.7839705936
3200280800.0 -0.604126571 0.7924403708
3250280500.0 -0.5929825471 0.8004279367
3300280200.0 -0.5814498059 0.8085277954
3350279900.0 -0.5692223118 0.8164553215
3400279600.0 -0.556576436 0.8247276096
3450279300.0 -0.5455258581 0.8316933321
3500279000.0 -0.5335946853 0.8383823508
3550278700.0 -0.5216750462 0.8458141621
3600278400.0 -0.5099390782 0.8523552214
3650278100.0 -0.496719159 0.8597815006
3700277800.0 -0.4847105152 0.8664904545
3750277500.0 -0.4721124761 0.8732731026
3800277200.0 -0.4596743758 0.8797556887
3850276900.0 -0.4475421448 0.8857325182
3900276600.0 -0.4368205807 0.8913512198
3950276300.0 -0.424645618 0.8974457696
4000276000.0 -0.4131371478 0.9029286436
4050275700.0 -0.4001360967 0.9093032165
4100275400.0 -0.3892005123 0.914644869
4150275100.0 -0.3759954847 0.9206056375
4200274800.0 -0.3627918192 0.9261190379
4250274500.0 -0.3500379137 0.9314075953
4300274200.0 -0.3367762274 0.9369032547
4350273900.0 -0.3222198191 0.9421940628
4400273600.0 -0.307842837 0.9472201676
4450273300.0 -0.2928365859 0.9520718958
4500273000.0 -0.2797057508 0.9564365048
4550272700.0 -0.2659567937 0.9605075718
4600272400.0 -0.2510419258 0.9646002907
4650272100.0 -0.2396119127 0.9679387814
4700271800.0 -0.2267128732 0.9711190064
4750271500.0 -0.2150044435 0.9740608734
4800271200.0 -0.2026654571 0.9768181493
4850270900.0 -0.1889307695 0.9795524625
4900270600.0 -0.1752702091 0.9819244527
4950270300.0 -0.1605890907 0.9848125344
5000270000.0 -0.1460787621 0.9867534762
5050269700.0 -0.1325762958 0.9882895436
5100269400.0 -0.1185854508 0.9900877319
5150269100.0 -0.1047096291 0.9914389912
5200268800.0 -0.0911503312 0.9928489506
5250268500.0 -0.0781512611 0.9940985933
5300268200.0 -0.0647460252 0.9947767877
5350267900.0 -0.0516355328 0.9951866344
5400267600.0 -0.0355080702 0.9961131222
5450267300.0 -0.0221816126 0.996667371
5500267000.0 -0.0067378737 0.9970677646
5550266700.0 0.0080927132 0.9971879466
5600266400.0 0.0238054554 0.9973424355
5650266100.0 0.0406113235 0.9970346789
5700265800.0 0.0546179209 0.9959897503
5750265500.0 0.0697773156 0.9952758722
5800265200.0 0.0830227789 0.9940271545
5850264900.0 0.0964800847 0.9932073953
5900264600.0 0.1130547636 0.9912435507
5950264300.0 0.1247503949 0.9897599128
6000264000.0 0.1380441395 0.9879023423
6050263700.0 0.1499173931 0.9866336286
6100263400.0 0.1620664364 0.9850034472
6150263100.0 0.1767517465 0.9827369473
6200262800.0 0.1862835714 0.9808357363
6250262500.0 0.1987933902 0.9785673758
6300262200.0 0.211120367 0.9760331478
6350261900.0 0.2240885933 0.973389758
6400261600.0 0.2380414215 0.9701542009
6450261300.0 0.2491562003 0.9676332113
6500261000.0 0.2622313053 0.9642323356
6550260700.0 0.2752906475 0.9600344554
6600260400.0 0.2888528749 0.9558335127
6650260100.0 0.302854518 0.9514253929
6700259800.0 0.3148614538 0.9473002942
6750259500.0 0.3288754058 0.9425656632
6800259200.0 0.3422411227 0.9376048208
6850258900.0 0.354940167 0.9321026714
6900258600.0 0.367173053 0.9268760293
6950258300.0 0.3799249681 0.9216086343
7000258000.0 0.3915704038 0.9162889255
7050257700.0 0.4032901733 0.9105103513
7100257400.0 0.4167354368 0.9039462117
7150257100.0 0.4274327555 0.8985279303
7200256800.0 0.440578578 0.8921150867
7250256500.0 0.4533182523 0.8853019895
7300256200.0 0.4663608823 0.8787230032
7350255900.0 0.4788861917 0.8716005605
7400255600.0 0.4930994913 0.8640317081
7450255300.0 0.5084011207 0.8549265754
7500255000.0 0.5205587265 0.8472479924
7550254700.0 0.5351867157 0.8383093182
7600254400.0 0.5477116413 0.8299593511
7650254100.0 0.559478678 0.8219767394
7700253800.0 0.5710812412 0.8139688355
7750253500.0 0.5820067396 0.8065524893
7800253200.0 0.5927972701 0.7985551244
7850252900.0 0.6023481602 0.791097661
7900252600.0 0.6138737762 0.782462678
7950252300.0 0.6221140137 0.7762416806
8000252000.0 0.6322415296 0.7686067959
8050251700.0 0.6425974452 0.7604456855
8100251400.0 0.6526113904 0.7525698352
8150251100.0 0.6623589031 0.7440820997
8200250800.0 0.6717811072 0.7360191413
8250250500.0 0.6809217679 0.7280415881
8300250200.0 0.6901424801 0.7195507877
8350249900.0 0.6992984729 0.7110092099
8400249600.0 0.7073835697 0.7027928158
8450249300.0 0.7161054875 0.693887776
8500249000.0 0.7244642941 0.6851932667
8550248700.0 0.7326371167 0.6761568128
8600248400.0 0.741150348 0.6666041305
8650248100.0 0.7488797952 0.6572231422
8700247800.0 0.7580635488 0.6462714647
8750247500.0 0.7664478926 0.6360754556
8800247200.0 0.7745185117 0.625797853
8850246900.0 0.78312562 0.6144471102
8900246600.0 0.7916362422 0.6031471463
8950246300.0 0.8008013699 0.5903390755
9000246000.0 0.8093105329 0.5783568751
9050245700.0 0.8177676839 0.5661323631
9100245400.0 0.8261682222 0.5538329448
9150245100.0 0.8350594414 0.5410797049
9200244800.0 0.8444418405 0.5268338839
9250244500.0 0.8536143212 0.5117256184
9300244200.0 0.8616557634 0.4982729042
9350243900.0 0.8692442945 0.4848520642
9400243600.0 0.8759030273 0.4730487856
9450243300.0 0.8815327024 0.4625847937
9500243000.0 0.887627924 0.4510427615
9550242700.0 0.8917278214 0.4435160107
9600242400.0 0.8958624991 0.4361304019
9650242100.0 0.9000344846 0.4292896383
9700241800.0 0.9049651953 0.420570998
9750241500.0 0.9091815733 0.4128129835
9800241200.0 0.9137553606 0.4033589411
9850240900.0 0.9199539817 0.3916093625
9900240600.0 0.9259039207 0.3800399724
9950240300.0 0.9331595712 0.3631653407
10000240000.0 0.9377201201 0.3510466489
10050239700.0 0.9441325294 0.3349056264
10100239400.0 0.9496111925 0.3185036897
10150239100.0 0.953731056 0.3035168545
10200238800.0 0.9581602632 0.2876030973
10250238500.0 0.9616178935 0.2742324106
10300238200.0 0.9647270355 0.2602723835
10350237900.0 0.9675028206 0.2467030708
10400237600.0 0.970170918 0.2330190926
10450237300.0 0.9725301919 0.2198044341
10500237000.0 0.9750852703 0.2072055901
10550236700.0 0.9773242848 0.1931765142
10600236400.0 0.9799827105 0.1784258135
10650236100.0 0.9817255123 0.1644179981
10700235800.0 0.9837150617 0.1519581611
10750235500.0 0.9859227584 0.1386215854
10800235200.0 0.9878208043 0.1246025303
10850234900.0 0.9898477225 0.1094789472
10900234600.0 0.9920488001 0.0945273418
10950234300.0 0.9939478874 0.0810356097
11000234000.0 0.9955868226 0.0655125026
11050233700.0 0.9973349252 0.0487333327
11100233400.0 0.9988456088 0.0310919196
11150233100.0 0.999862641 0.0144228443
11200232800.0 1.0006703 -0.0012612189
11250232500.0 1.001916814 -0.0201815889
11300232200.0 1.002008172 -0.0378445803
11350231900.0 1.00223663 -0.0540273827
11400231600.0 1.001109037 -0.0702764495
11450231300.0 1.000804104 -0.0854051443
11500231000.0 0.9996888469 -0.1021272798
11550230700.0 0.9977317895 -0.1149321427
11600230400.0 0.9971438011 -0.12745792
11650230100.0 0.9952641198 -0.1398807307
11700229800.0 0.992488796 -0.1541816341
11750229500.0 0.9902202756 -0.168760334
11800229200.0 0.9875327102 -0.1820255177
11850228900.0 0.9835614057 -0.1938743741
11900228600.0 0.9799226712 -0.2032807082
11950228300.0 0.9766203686 -0.213216482
12000228000.0 0.9738157469 -0.2218628252
12050227700.0 0.9697660152 -0.2350406478
12100227400.0 0.96705023 -0.2455562442
12150227100.0 0.9619371587 -0.2624428527
12200226800.0 0.9581141985 -0.2734706133
12250226500.0 0.9544526016 -0.2865629053
12300226200.0 0.9496220216 -0.2994538079
12350225900.0 0.9448166738 -0.3119990366
12400225600.0 0.9408358397 -0.324344931
12450225300.0 0.935660032 -0.3376259912
12500225000.0 0.9301370416 -0.3520141714
12550224700.0 0.9248920409 -0.365691096
12600224400.0 0.9197661332 -0.3784370825
12650224100.0 0.9140146589 -0.3927195277
12700223800.0 0.9088484656 -0.4054944108
12750223500.0 0.9032059171 -0.4187234096
12800223200.0 0.8980192206 -0.4313909128
12850222900.0 0.8926592044 -0.4432081133
12900222600.0 0.8870936638 -0.4550481484
12950222300.0 0.8809368703 -0.4677487761
13000222000.0 0.8750368105 -0.4791076738
13050221700.0 0.8683418702 -0.4921552389
13100221400.0 0.8613647299 -0.5046063079
13150221100.0 0.8543461115 -0.5168937535
13200220800.0 0.8476406277 -0.5279495459
13250220500.0 0.8402798851 -0.5404648541
13300220200.0 0.8329420775 -0.5513381175
13350219900.0 0.8248839448 -0.5632563716
13400219600.0 0.8162470694 -0.5753163437
13450219300.0 0.80695973 -0.5882475796
13500219000.0 0.7967511959 -0.6014338319
13550218700.0 0.7873723447 -0.6135488616
13600218400.0 0.7777214616 -0.6258903952
13650218100.0 0.7684029066 -0.6363331834
13700217800.0 0.7570934302 -0.6488034163
13750217500.0 0.7476362817 -0.6589296099
13800217200.0 0.7367609874 -0.6701571644
13850216900.0 0.725751192 -0.6814402094
13900216600.0 0.7160596289 -0.6908577112
13950216300.0 0.704757407 -0.7005297187
14000216000.0 0.6949848168 -0.7094590404
14050215700.0 0.6860156018 -0.7173377534
14100215400.0 0.6759032157 -0.726512463
14150215100.0 0.6669340297 -0.7353158097
14200214800.0 0.6577000771 -0.7440957423
14250214500.0 0.6473566602 -0.7536001691
14300214200.0 0.636898462 -0.7630655208
14350213900.0 0.6257489276 -0.7727816977
14400213600.0 0.6140141881 -0.782351142
14450213300.0 0.6011529957 -0.7926734886
14500213000.0 0.587981753 -0.8026284185
14550212700.0 0.5756877855 -0.8124888808
14600212400.0 0.5629987939 -0.8207024348
14650212100.0 0.5506373764 -0.8296690339
14700211800.0 0.536742003 -0.8389461068
14750211500.0 0.5244905305 -0.8474395764
14800211200.0 0.5117237498 -0.8555208367
14850210900.0 0.4998332558 -0.8631649275
14900210600.0 0.4862767898 -0.8711468745
14950210300.0 0.4729917326 -0.8787931119
15000210000.0 0.4603496675 -0.8855493913
15050209700.0 0.4478691232 -0.8915375536
15100209400.0 0.4351149802 -0.8974259284
15150209100.0 0.4229495438 -0.902679877
15200208800.0 0.4104737167 -0.9081471271
15250208500.0 0.3998773916 -0.9126136061
15300208200.0 0.3873945477 -0.9170906101
15350207900.0 0.3745784294 -0.9219826987
15400207600.0 0.3592647657 -0.9277603335
15450207300.0 0.3447900745 -0.9324374579
15500207000.0 0.3302606109 -0.9367012055
15550206700.0 0.3153710613 -0.941869106
15600206400.0 0.2991772117 -0.9465160927
15650206100.0 0.2835063618 -0.9510668967
15700205800.0 0.2699559528 -0.9547531562
15750205500.0 0.2559218619 -0.9577633489
15800205200.0 0.24192893 -0.9613281711
15850204900.0 0.2278586989 -0.9647243138
15900204600.0 0.2125523326 -0.968431164
15950204300.0 0.198188896 -0.9715389942
16000204000.0 0.1842814414 -0.9743799712
16050203700.0 0.1685851339 -0.9774552868
16100203400.0 0.1541677939 -0.9800968286
16150203100.0 0.13930439 -0.9823365962
16200202800.0 0.1245003873 -0.9842246774
16250202500.0 0.1101532445 -0.985863948
16300202200.0 0.0945017919 -0.9877730628
16350201900.0 0.0795898453 -0.9889715624
16400201600.0 0.0650604896 -0.9901704566
16450201300.0 0.0494566001 -0.9911564319
16500201000.0 0.0323425487 -0.9920350275
16550200700.0 0.0162376947 -0.9925409644
16600200400.0 0.0003507201 -0.9928126743
16650200100.0 -0.015619661 -0.9927199835
16700199800.0 -0.0316768615 -0.99224283
16750199500.0 -0.0513217533 -0.9912385701
16800199200.0 -0.067102526 -0.9908938854
16850198900.0 -0.0823610007 -0.9895318618
16900198600.0 -0.0972365089 -0.9883263732
16950198300.0 -0.1109724203 -0.9873072623
17000198000.0 -0.1237983773 -0.9854853678
17050197700.0 -0.1366967304 -0.9833252053
17100197400.0 -0.1495762984 -0.9820498757
17150197100.0 -0.1615873962 -0.9801377193
17200196800.0 -0.1745029295 -0.9777353456
17250196500.0 -0.1879121714 -0.9752202939
17300196200.0 -0.1998706487 -0.9728296249
17350195900.0 -0.211626643 -0.9706193972
17400195600.0 -0.223584583 -0.9680319415
17450195300.0 -0.236421112 -0.9653718883
17500195000.0 -0.2496312318 -0.9619999358
17550194700.0 -0.263672948 -0.95847788
17600194400.0 -0.277349006 -0.9545128487
17650194100.0 -0.2908823549 -0.9503101474
17700193800.0 -0.3034437981 -0.9464175014
17750193500.0 -0.318671402 -0.9415674274
17800193200.0 -0.3323165882 -0.9363685375
17850192900.0 -0.3471191596 -0.9309932664
17900192600.0 -0.3621624741 -0.924700265
17950192300.0 -0.3777081066 -0.917893512
18000192000.0 -0.3922832861 -0.9104581902
18050191700.0 -0.4061134601 -0.9025426071
18100191400.0 -0.4202000942 -0.8948754921
18150191100.0 -0.4352847218 -0.8867342868
18200190800.0 -0.4519670956 -0.877703511
18250190500.0 -0.4691791833 -0.8680064244
18300190200.0 -0.4843579949 -0.8595067726
18350189900.0 -0.4997817166 -0.8514612878
18400189600.0 -0.514115592 -0.8422472069
18450189300.0 -0.5273533765 -0.8347218579
18500189000.0 -0.5411145701 -0.8267592692
18550188700.0 -0.5536720853 -0.8186394658
18600188400.0 -0.5659643508 -0.811896179
18650188100.0 -0.5769482036 -0.8052909875
18700187800.0 -0.5882723794 -0.7984586727
18750187500.0 -0.5991002052 -0.7920409644
18800187200.0 -0.6095752306 -0.7849844225
18850186900.0 -0.6197771303 -0.7782085765
18900186600.0 -0.6300872978 -0.7709289115
18950186300.0 -0.6402089821 -0.7631353509
19000186000.0 -0.6481873678 -0.7567636441
19050185700.0 -0.6571391659 -0.7496487899
19100185400.0 -0.6670949358 -0.7413489061
19150185100.0 -0.6770838913 -0.7334221062
19200184800.0 -0.6862021198 -0.7248168173
19250184500.0 -0.6967319237 -0.7151795285
19300184200.0 -0.7080054246 -0.7062118851
19350183900.0 -0.7189112813 -0.696816028
19400183600.0 -0.7279501347 -0.6861650382
19450183300.0 -0.7371102886 -0.6762206577
19500183000.0 -0.7458833724 -0.6665131246
19550182700.0 -0.7551848876 -0.6558291704
19600182400.0 -0.765640566 -0.643964321
19650182100.0 -0.7763329728 -0.6313292857
19700181800.0 -0.78646427 -0.6185631339
19750181500.0 -0.7969761105 -0.6043314688
19800181200.0 -0.8072078474 -0.5893208111
19850180900.0 -0.8166941446 -0.5739579397
19900180600.0 -0.8244822245 -0.559523042
19950180300.0 -0.833709246 -0.5431476258
20000180000.0 -0.8236854751 -0.5474252349
20050179700.0 -0.831054714 -0.5346267951
20100179400.0 -0.8389231123 -0.5218676195
20150179100.0 -0.8476807446 -0.5097417913
20200178800.0 -0.8567067212 -0.4986854072
20250178500.0 -0.865611699 -0.4851620096
20300178200.0 -0.875979823 -0.4720351486
20350177900.0 -0.884627297 -0.4570938413
20400177600.0 -0.8936166409 -0.4435653232
20450177300.0 -0.9022448492 -0.4291752625
20500177000.0 -0.9102103443 -0.4151930885
20550176700.0 -0.9179732828 -0.4016064515
20600176400.0 -0.9247742157 -0.3886122889
20650176100.0 -0.9306763689 -0.3770452862
20700175800.0 -0.9384982871 -0.3650596657
20750175500.0 -0.9447620919 -0.352598247
20800175200.0 -0.9482559488 -0.3423497395
20850174900.0 -0.9536438894 -0.3312853183
20900174600.0 -0.958602053 -0.3216163581
20950174300.0 -0.9616575735 -0.3098287529
21000174000.0 -0.9639390518 -0.299572299
21050173700.0 -0.9652064603 -0.2887641217
21100173400.0 -0.9695304904 -0.2784464687
21150173100.0 -0.9732700058 -0.2662603111
21200172800.0 -0.9773145227 -0.2529870288
21250172500.0 -0.9808453254 -0.2396130093
21300172200.0 -0.9842411465 -0.225724701
21350171900.0 -0.9858954945 -0.2110018857
21400171600.0 -0.9885129375 -0.1972563441
21450171300.0 -0.9890345271 -0.1829173729
21500171000.0 -0.9888319706 -0.168246792
21550170700.0 -0.9896365414 -0.1525666254
21600170400.0 -0.9909095591 -0.1378409359
21650170100.0 -0.9909075001 -0.1220902243
21700169800.0 -0.9903334443 -0.1053029852
21750169500.0 -0.9893296529 -0.0901397391
21800169200.0 -0.9902145852 -0.0743359284
21850168900.0 -0.9896082823 -0.0571321228
21900168600.0 -0.9892145407 -0.0412960727
21950168300.0 -0.9891199914 -0.02490661
22000168000.0 -0.9889466797 -0.0099290747
22050167700.0 -0.9892306508 0.0046910287
22100167400.0 -0.990101234 0.0203750257
22150167100.0 -0.9911783973 0.0363196863
22200166800.0 -0.9912195958 0.0531377954
22250166500.0 -0.9913006409 0.0700416412
22300166200.0 -0.9904416597 0.0865747222
22350165900.0 -0.989415368 0.1029424738
22400165600.0 -0.9883409784 0.1183170257
22450165300.0 -0.9858029228 0.1336045623
22500165000.0 -0.9841814158 0.1470934433
22550164700.0 -0.9828647433 0.1650592021
22600164400.0 -0.9800492829 0.1802330387
22650164100.0 -0.9787387307 0.1965242924
22700163800.0 -0.9750962194 0.2116109756
22750163500.0 -0.9716836301 0.2267122147
22800163200.0 -0.9690779962 0.2392513878
22850162900.0 -0.9663379625 0.2530886062
22900162600.0 -0.9646954885 0.2669821734
22950162300.0 -0.9627905011 0.2807223647
23000162000.0 -0.9608978202 0.2931311685
23050161700.0 -0.9583555421 0.3069554994
23100161400.0 -0.955693518 0.3204742207
23150161100.0 -0.9527437528 0.3327655709
23200160800.0 -0.9486715785 0.3460917268
23250160500.0 -0.9471251396 0.3587604307
23300160200.0 -0.9441080101 0.3702468176
23350159900.0 -0.9394241271 0.3848955282
23400159600.0 -0.9347805093 0.3989086729
23450159300.0 -0.9302145081 0.4126761909
23500159000.0 -0.9249524026 0.426089732
23550158700.0 -0.9206176341 0.4401345921
23600158400.0 -0.9139330872 0.4539506345
23650158100.0 -0.9069400747 0.468592483
23700157800.0 -0.8985947673 0.482863787
23750157500.0 -0.8890597047 0.4973070756
23800157200.0 -0.8795135884 0.5109034434
23850156900.0 -0.8697031748 0.523569634
23900156600.0 -0.8594334508 0.5360957101
23950156300.0 -0.8501937821 0.5487261071
24000156000.0 -0.8400953196 0.5614468107
24050155700.0 -0.8297103741 0.5734775335
24100155400.0 -0.819446618 0.585837895
24150155100.0 -0.8087281808 0.5976599412
24200154800.0 -0.7983482002 0.6090498052
24250154500.0 -0.7865853455 0.6220722102
24300154200.0 -0.7751795278 0.6339519757
24350153900.0 -0.7632284912 0.6452173062
24400153600.0 -0.7504929437 0.6554611526
24450153300.0 -0.7383876753 0.6658840308
24500153000.0 -0.7267382324 0.676003386
24550152700.0 -0.715303011 0.6857743836
24600152400.0 -0.703785615 0.6954488876
24650152100.0 -0.6913509332 0.703842181
