!Created with skrf (http://scikit-rf.org).
# Hz S RI R 50.0 
!freq ReS11 ImS11
300000.0 -0.973626628 -0.1199886479
50299700.0 -1.000000795 0.015217175
100299400.0 -0.9979306966 0.0280474638
150299100.0 -1.002689073 0.0450053549
200298800.0 -0.9994487276 0.0582782277
250298500.0 -0.9973915765 0.0718402993
300298200.0 -0.9858732373 0.0875376576
350297900.0 -0.9939023616 0.0983615436
400297600.0 -0.9931468265 0.1149983523
450297300.0 -0.991040467 0.1287386498
500297000.0 -0.9893332913 0.1436251268
550296700.0 -0.9842884068 0.1558054019
600296400.0 -1.017361503 0.1892619284
650296100.0 -0.9822833808 0.1858619514
700295800.0 -0.979352171 0.1999881647
750295500.0 -0.9763951968 0.2141616696
800295200.0 -0.9730414472 0.2281570677
850294900.0 -0.969680439 0.2418850616
900294600.0 -0.9658628862 0.2559375696
950294300.0 -0.9620911731 0.2695383927
1000294000.0 -0.9581060525 0.2834099415
1050293700.0 -0.9535145075 0.2974124833
1100293400.0 -0.9493202997 0.3116984612
1150293100.0 -0.9454349418 0.3236085635
1200292800.0 -0.9401402698 0.3378541664
1250292500.0 -0.9346273556 0.351412679
1300292200.0 -0.9291174839 0.3646283763
1350291900.0 -0.923578822 0.3787438841
1400291600.0 -0.918080004 0.3918682741
1450291300.0 -0.9124751777 0.4041474947
1500291000.0 -0.9061023278 0.4174943802
1550290700.0 -0.8997716168 0.4308272791
1600290400.0 -0.8935643759 0.4437881363
1650290100.0 -0.8866944966 0.4558499566
1700289800.0 -0.8798932644 0.4695253447
1750289500.0 -0.8728634798 0.4816701281
1800289200.0 -0.8655384334 0.4947651639
1850288900.0 -0.858693525 0.5058663857
1900288600.0 -0.8509965063 0.5190373922
1950288300.0 -0.8428843514 0.5315887165
2000288000.0 -0.8353635516 0.542810191
2050287700.0 -0.827136262 0.5552229349
2100287400.0 -0.819466172 0.5667434624
2150287100.0 -0.8107828289 0.5788348815
2200286800.0 -0.8031070164 0.5891533548
2250286500.0 -0.7939626336 0.6011797465
2300286200.0 -0.7852236047 0.6127792228
2350285900.0 -0.7766625632 0.6237035822
2400285600.0 -0.7675311505 0.6346866464
2450285300.0 -0.7590708307 0.6451670516
2500285000.0 -0.7493673817 0.6567460858
2550284700.0 -0.7403300295 0.6669347989
2600284400.0 -0.7310816724 0.6768642856
2650284100.0 -0.7220146742 0.6874174466
2700283800.0 -0.7115631142 0.6977551888
2750283500.0 -0.7013467577 0.7085911976
2800283200.0 -0.6915372158 0.7183237683
2850282900.0 -0.6811643184 0.7282057111
2900282600.0 -0.6708302949 0.7378319606
2950282300.0 -0.6604430236 0.7473751682
3000282000.0 -0.6497843145 0.7565957806
3050281700.0 -0.6385012251 0.7657641258
3100281400.0 -0.6267616866 0.7750451085
3150281100.0 -0.6153280215 0.784398297
3200280800.0 -0.6036151146 0.7927959306
3250280500.0 -0.5928735304 0.8006230562
3300280200.0 -0.5811645683 0.8086406452
3350279900.0 -0.5693566577 0.8162654643
3400279600.0 -0.5571169879 0.8242149649
3450279300.0 -0.5460690696 0.8313210257
3500279000.0 -0.5342206292 0.8383093242
3550278700.0 -0.5218887802 0.8454996643
3600278400.0 -0.5096349011 0.852452284
3650278100.0 -0.4965346233 0.860130789
3700277800.0 -0.4843963717 0.8665694595
3750277500.0 -0.4722242757 0.8732972717
3800277200.0 -0.4596563215 0.879505248
3850276900.0 -0.4477573748 0.8857254772
3900276600.0 -0.4367396634 0.8912605604
3950276300.0 -0.4244177772 0.8972802983
4000276000.0 -0.412647483 0.9033532529
4050275700.0 -0.3998650908 0.9092494571
4100275400.0 -0.388733018 0.9145451176
4150275100.0 -0.3758233436 0.9207564124
4200274800.0 -0.3627976681 0.9259481734
4250274500.0 -0.3503510661 0.9312414717
4300274200.0 -0.3372893064 0.9367637726
4350273900.0 -0.3235640963 0.9419573245
4400273600.0 -0.3086531381 0.9472704433
4450273300.0 -0.2933462552 0.9520581531
4500273000.0 -0.2799283787 0.9566227083
4550272700.0 -0.2659655407 0.9607540355
4600272400.0 -0.2506788719 0.9649341327
4650272100.0 -0.2389967913 0.9680403486
4700271800.0 -0.2259216494 0.9714944177
4750271500.0 -0.2141627526 0.9742228744
4800271200.0 -0.2018842927 0.977012042
4850270900.0 -0.1878197225 0.9797774044
4900270600.0 -0.1740109588 0.9821777172
4950270300.0 -0.1596156563 0.9847920708
5000270000.0 -0.1452999939 0.9867029449
5050269700.0 -0.1320400994 0.9885337336
5100269400.0 -0.1180521168 0.9903130687
5150269100.0 -0.1045192013 0.9916660781
5200268800.0 -0.0910723174 0.9924790538
5250268500.0 -0.0779719782 0.9937765121
5300268200.0 -0.0647108458 0.9942948007
5350267900.0 -0.0523169311 0.9953069646
5400267600.0 -0.0358638721 0.9966729896
5450267300.0 -0.0230064732 0.996663321
5500267000.0 -0.0077452417 0.9969116352
5550266700.0 0.0072158352 0.9974711931
5600266400.0 0.0230074796 0.9971910235
5650266100.0 0.0393178753 0.9969564734
5700265800.0 0.0539558874 0.9959667135
5750265500.0 0.068780225 0.9952470272
5800265200.0 0.0824529988 0.9939602956
5850264900.0 0.0960933509 0.9932505272
5900264600.0 0.112498639 0.9914529924
5950264300.0 0.124354071 0.9899123193
6000264000.0 0.1380458326 0.9881130552
6050263700.0 0.1506342985 0.9868131516
6100263400.0 0.1627391257 0.9851233023
6150263100.0 0.1771378313 0.9829177607
6200262800.0 0.1871790401 0.980877007
6250262500.0 0.1999715041 0.9787433523
6300262200.0 0.2125368693 0.9759050206
6350261900.0 0.2257746113 0.9730517885
6400261600.0 0.2394137117 0.9697434536
6450261300.0 0.250739624 0.9670947845
6500261000.0 0.2640097649 0.9636980593
6550260700.0 0.2766027406 0.9596206512
6600260400.0 0.2901975033 0.9555977764
6650260100.0 0.304234659 0.9511913221
6700259800.0 0.3160065532 0.9466930411
6750259500.0 0.3299622622 0.9420149238
6800259200.0 0.3432411385 0.9369287135
6850258900.0 0.3551844886 0.9315904774
6900258600.0 0.3680342604 0.9269655769
6950258300.0 0.3803898551 0.9214999453
7000258000.0 0.3921027549 0.9159280884
7050257700.0 0.4041565267 0.9100908073
7100257400.0 0.4172003387 0.9037995185
7150257100.0 0.4279406732 0.8982736777
7200256800.0 0.4408255079 0.8919537834
7250256500.0 0.4526628948 0.8855309162
7300256200.0 0.4659740921 0.8786030812
7350255900.0 0.4784147997 0.8718235997
7400255600.0 0.4917562608 0.8644161634
7450255300.0 0.5074987953 0.8552841632
7500255000.0 0.5192674114 0.8480519236
7550254700.0 0.5335338234 0.8395888036
7600254400.0 0.5454832113 0.8312854796
7650254100.0 0.5570306467 0.823369814
7700253800.0 0.5691700395 0.8151368111
7750253500.0 0.580574514 0.8077099616
7800253200.0 0.5910689986 0.8000854019
7850252900.0 0.6008566491 0.7927696429
7900252600.0 0.6123397476 0.7841051079
7950252300.0 0.6209814055 0.7776181187
8000252000.0 0.6311729959 0.7698364382
8050251700.0 0.6413817713 0.7617948455
8100251400.0 0.6515799439 0.7537783326
8150251100.0 0.6614661717 0.7453708029
8200250800.0 0.6711241285 0.7371722613
8250250500.0 0.6796842097 0.729159655
8300250200.0 0.689250862 0.7205275498
8350249900.0 0.6983914053 0.7118831169
8400249600.0 0.7066335896 0.7039487992
8450249300.0 0.7153114897 0.6948853566
8500249000.0 0.7240409711 0.6861066975
8550248700.0 0.7323940774 0.6769203221
8600248400.0 0.7407834195 0.6673293698
8650248100.0 0.7485764749 0.657890377
8700247800.0 0.7579903552 0.6470170327
8750247500.0 0.7665143679 0.636665525
8800247200.0 0.7743708946 0.6264610973
8850246900.0 0.7829418708 0.6149232983
8900246600.0 0.7914732704 0.6036910027
8950246300.0 0.8007897806 0.5906838151
9000246000.0 0.8101547049 0.5783188788
9050245700.0 0.8188820267 0.5655149818
9100245400.0 0.8271334857 0.5531420758
9150245100.0 0.8366575967 0.5399379072
9200244800.0 0.846462786 0.5248745373
9250244500.0 0.8553906889 0.5097705984
9300244200.0 0.8637252691 0.4958139351
9350243900.0 0.8713884712 0.482008791
9400243600.0 0.8782573572 0.4699215811
9450243300.0 0.8839551331 0.4587696546
9500243000.0 0.8902751067 0.4467497658
9550242700.0 0.8940354239 0.4390581416
9600242400.0 0.8980028744 0.4316638486
9650242100.0 0.9019419312 0.4250422353
9700241800.0 0.9064639133 0.4165997502
9750241500.0 0.9110324609 0.408844137
9800241200.0 0.9158071593 0.3996277756
9850240900.0 0.9211156063 0.3880652926
9900240600.0 0.9270759928 0.3762997565
9950240300.0 0.9337976749 0.3599580595
10000240000.0 0.9385181107 0.348379902
10050239700.0 0.944415333 0.3326049281
10100239400.0 0.9495761449 0.3171779669
10150239100.0 0.9541344037 0.3017604775
10200238800.0 0.9580897294 0.2867500428
10250238500.0 0.9615099508 0.2733267859
10300238200.0 0.9646672152 0.2593081203
10350237900.0 0.9673340843 0.2463479682
10400237600.0 0.9696542569 0.2330648637
10450237300.0 0.9725023802 0.2192355851
10500237000.0 0.9746398641 0.2071261565
10550236700.0 0.9770098763 0.1927701309
10600236400.0 0.9793079615 0.1790492691
10650236100.0 0.9809603581 0.1646855293
10700235800.0 0.9837651136 0.1519919831
10750235500.0 0.9857770464 0.1383196493
10800235200.0 0.9878073045 0.1241382284
10850234900.0 0.9896253479 0.1094709066
10900234600.0 0.9918341145 0.0952681802
10950234300.0 0.9936579319 0.0815470428
11000234000.0 0.9954015028 0.06643679
11050233700.0 0.9971496166 0.049878137
11100233400.0 0.998551946 0.0321555932
11150233100.0 0.9998965065 0.0158667107
11200232800.0 1.000522151 0.0008467291
11250232500.0 1.001832831 -0.0165551477
11300232200.0 1.002239406 -0.0342943989
11350231900.0 1.001768724 -0.0496677076
11400231600.0 1.001263103 -0.0648909558
11450231300.0 1.001226466 -0.0807885528
11500231000.0 0.9997183316 -0.0982920435
11550230700.0 0.9985534154 -0.1107490372
11600230400.0 0.9971160467 -0.1233948551
11650230100.0 0.9947575948 -0.1350512362
11700229800.0 0.9927960248 -0.1500076494
11750229500.0 0.9907568387 -0.1643008269
11800229200.0 0.9878487302 -0.1776706645
11850228900.0 0.984078895 -0.1898820906
11900228600.0 0.9806702055 -0.1997513872
11950228300.0 0.9771536666 -0.2102471758
12000228000.0 0.9745246363 -0.2190596583
12050227700.0 0.9708019837 -0.2316284986
12100227400.0 0.9676992883 -0.2431363518
12150227100.0 0.9624642164 -0.2596527589
12200226800.0 0.9593187415 -0.2704289362
12250226500.0 0.9551541472 -0.283547441
12300226200.0 0.9507874338 -0.2951599293
12350225900.0 0.9455809438 -0.3098706438
12400225600.0 0.9414103545 -0.3218721518
12450225300.0 0.9370312797 -0.3341569792
12500225000.0 0.9317141844 -0.3499891153
12550224700.0 0.926146933 -0.3637525123
12600224400.0 0.9213589194 -0.3757742406
12650224100.0 0.9154546724 -0.3903704541
12700223800.0 0.9104042867 -0.403253214
12750223500.0 0.9046238539 -0.416625624
12800223200.0 0.8994433237 -0.4288628754
12850222900.0 0.8942625644 -0.4409643615
12900222600.0 0.8882150372 -0.4528330017
12950222300.0 0.882029037 -0.4661087886
13000222000.0 0.8759915075 -0.4777149003
13050221700.0 0.8693534272 -0.4902802762
13100221400.0 0.8631357005 -0.5026487997
13150221100.0 0.855880771 -0.5146306721
13200220800.0 0.8490757284 -0.5257820484
13250220500.0 0.8416180132 -0.5381622292
13300220200.0 0.8342773865 -0.5489684302
13350219900.0 0.8264257118 -0.5607270456
13400219600.0 0.8179138853 -0.5727530972
13450219300.0 0.8084784898 -0.5860361417
13500219000.0 0.7983009682 -0.6000849147
13550218700.0 0.788321203 -0.6122487665
13600218400.0 0.7781667948 -0.6242638342
13650218100.0 0.7690749362 -0.635328495
13700217800.0 0.7570752042 -0.6475836354
13750217500.0 0.7481307071 -0.6586132745
13800217200.0 0.7373020925 -0.6701623719
13850216900.0 0.7258789976 -0.6815366653
13900216600.0 0.7168076034 -0.6898063357
13950216300.0 0.7052377756 -0.700881179
14000216000.0 0.6954284787 -0.7101260265
14050215700.0 0.6864985525 -0.7181123754
14100215400.0 0.6762905195 -0.7271683356
14150215100.0 0.6672423412 -0.7354832032
14200214800.0 0.6577509546 -0.744533968
14250214500.0 0.6473986656 -0.7538825206
14300214200.0 0.6368789039 -0.7633699079
14350213900.0 0.626305494 -0.7728745024
14400213600.0 0.6142048392 -0.7827262714
14450213300.0 0.6009867517 -0.7928548539
14500213000.0 0.5875968784 -0.8024695497
14550212700.0 0.5756308694 -0.8123378981
14600212400.0 0.5632819523 -0.8211934372
14650212100.0 0.5499008814 -0.8293646217
14700211800.0 0.5367597633 -0.8393943098
14750211500.0 0.5238563365 -0.847515282
14800211200.0 0.5117571685 -0.8558812093
14850210900.0 0.4992594355 -0.8630564931
14900210600.0 0.48639591 -0.8710099495
14950210300.0 0.4729850054 -0.8787452232
15000210000.0 0.4605017109 -0.8853932804
15050209700.0 0.4479795246 -0.8918132693
15100209400.0 0.4354894668 -0.8976818229
15150209100.0 0.4228494351 -0.9028746694
15200208800.0 0.4095499824 -0.9089120433
15250208500.0 0.3992708021 -0.9130268956
15300208200.0 0.3871884114 -0.9175408235
15350207900.0 0.3734952315 -0.9220329382
15400207600.0 0.3597022 -0.9277929288
15450207300.0 0.3444810482 -0.9326095018
15500207000.0 0.3304839569 -0.9373832611
15550206700.0 0.3151618523 -0.9423959823
15600206400.0 0.2995262958 -0.9468997947
15650206100.0 0.2835949876 -0.9514282454
15700205800.0 0.2697385293 -0.954563631
15750205500.0 0.2554418876 -0.9581401186
15800205200.0 0.2412585339 -0.9617801788
15850204900.0 0.226928582 -0.9650921636
15900204600.0 0.2118042604 -0.9686714316
15950204300.0 0.1975201633 -0.9717833461
16000204000.0 0.1834376968 -0.9748180417
16050203700.0 0.1681000338 -0.9775997291
16100203400.0 0.1538559826 -0.9801050473
16150203100.0 0.1391722598 -0.9823205528
16200202800.0 0.124742585 -0.9845999688
16250202500.0 0.1101841903 -0.9859560778
16300202200.0 0.0942500926 -0.9877916492
16350201900.0 0.079647089 -0.9892059964
16400201600.0 0.0646457664 -0.9902112179
16450201300.0 0.0495868174 -0.9911398317
16500201000.0 0.0328398382 -0.9920585675
16550200700.0 0.0169825065 -0.9924994027
16600200400.0 0.0012547475 -0.9929603055
16650200100.0 -0.0151728782 -0.9927613671
16700199800.0 -0.030961056 -0.9926629117
16750199500.0 -0.050237954 -0.9918920719
16800199200.0 -0.0658049308 -0.9909671559
16850198900.0 -0.0819244332 -0.9897378142
16900198600.0 -0.095551355 -0.9896685708
16950198300.0 -0.1081069565 -0.9875958175
17000198000.0 -0.1210883341 -0.9861474474
17050197700.0 -0.1339193148 -0.9840968957
17100197400.0 -0.1471896316 -0.9819281364
17150197100.0 -0.1591716679 -0.9804948435
17200196800.0 -0.1724291366 -0.9785248635
17250196500.0 -0.1859442654 -0.9756879932
17300196200.0 -0.1973733148 -0.9733093173
17350195900.0 -0.2095068849 -0.9711887062
17400195600.0 -0.2214655043 -0.9686290684
17450195300.0 -0.234479282 -0.9659228676
17500195000.0 -0.2478878065 -0.9625203703
17550194700.0 -0.2616449143 -0.9590070914
17600194400.0 -0.2757603687 -0.9550419562
17650194100.0 -0.2896298339 -0.9509912148
17700193800.0 -0.3023388689 -0.9466732461
17750193500.0 -0.3167877665 -0.9422045737
17800193200.0 -0.3308872945 -0.9371814596
17850192900.0 -0.3458786826 -0.9313741996
17900192600.0 -0.3604904323 -0.925047851
17950192300.0 -0.3766586273 -0.9183002619
18000192000.0 -0.3913389987 -0.9108079855
18050191700.0 -0.4053729244 -0.903203113
18100191400.0 -0.4195730293 -0.8954877379
18150191100.0 -0.4345353339 -0.8875469092
18200190800.0 -0.4514884206 -0.8783800383
18250190500.0 -0.4687371331 -0.8689701343
18300190200.0 -0.4840809657 -0.8599958847
18350189900.0 -0.4988653715 -0.852119361
18400189600.0 -0.5137372246 -0.8431010346
18450189300.0 -0.5268894636 -0.8356117967
18500189000.0 -0.5403595242 -0.8273810843
18550188700.0 -0.5527762573 -0.8199031927
18600188400.0 -0.5648772471 -0.8131349559
18650188100.0 -0.5760659581 -0.8065774039
18700187800.0 -0.5866542749 -0.8002582993
18750187500.0 -0.5974908923 -0.7935342182
18800187200.0 -0.6079108266 -0.7865838494
18850186900.0 -0.6181736632 -0.7797201796
18900186600.0 -0.6283782648 -0.7724215175
18950186300.0 -0.6383674114 -0.7648880969
19000186000.0 -0.6456794831 -0.7583943396
19050185700.0 -0.6545864235 -0.7515812708
19100185400.0 -0.6648719978 -0.7428180306
19150185100.0 -0.6750270327 -0.7338091977
19200184800.0 -0.6839100681 -0.7265910531
19250184500.0 -0.6946611644 -0.7174886281
19300184200.0 -0.7060228863 -0.7079398747
19350183900.0 -0.7158111761 -0.6977657622
19400183600.0 -0.7260412984 -0.6886551103
19450183300.0 -0.7353449956 -0.6781000006
19500183000.0 -0.7436567551 -0.6682912812
19550182700.0 -0.7532089563 -0.6571953467
19600182400.0 -0.7637487551 -0.645339525
19650182100.0 -0.774399276 -0.6326114717
19700181800.0 -0.785516152 -0.6195165976
19750181500.0 -0.7956277044 -0.6054043089
19800181200.0 -0.8060719093 -0.590580015
19850180900.0 -0.8156862836 -0.5751981004
19900180600.0 -0.823782337 -0.5606879758
19950180300.0 -0.8327736418 -0.5442866956
20000180000.0 -0.8256252247 -0.5467568985
20050179700.0 -0.8321799862 -0.5342710066
20100179400.0 -0.8414031199 -0.5203042208
20150179100.0 -0.8495694767 -0.5090867572
20200178800.0 -0.8583170245 -0.4950680477
20250178500.0 -0.8682120243 -0.4831587085
20300178200.0 -0.8767141765 -0.4682228166
20350177900.0 -0.8867630076 -0.4544988003
20400177600.0 -0.8958305976 -0.4403026671
20450177300.0 -0.9040134084 -0.4255931475
20500177000.0 -0.9116485465 -0.4116354005
20550176700.0 -0.9198186481 -0.3981973653
20600176400.0 -0.9268800332 -0.3855507243
20650176100.0 -0.9333051853 -0.3741009884
20700175800.0 -0.9399567592 -0.3607568573
20750175500.0 -0.9460624572 -0.349449859
20800175200.0 -0.950729022 -0.3389392304
20850174900.0 -0.9552180481 -0.328071282
20900174600.0 -0.9599118059 -0.3168255478
20950174300.0 -0.9640594123 -0.3048719763
21000174000.0 -0.966770129 -0.2941720278
21050173700.0 -0.9691731531 -0.2842815137
21100173400.0 -0.9733594065 -0.2725532568
21150173100.0 -0.9771556211 -0.260435529
21200172800.0 -0.9806119076 -0.2464392286
21250172500.0 -0.9841636927 -0.2332218176
21300172200.0 -0.9871439122 -0.2188440102
21350171900.0 -0.989247765 -0.2049068184
21400171600.0 -0.9907621357 -0.1902304622
21450171300.0 -0.9903669718 -0.1763208701
21500171000.0 -0.9913760443 -0.1598836619
21550170700.0 -0.990722068 -0.1450665918
21600170400.0 -0.990789783 -0.1296221979
21650170100.0 -0.9907105865 -0.1133472118
21700169800.0 -0.9901739451 -0.0989899253
21750169500.0 -0.9885832963 -0.082680376
21800169200.0 -0.9894109066 -0.0664132096
21850168900.0 -0.9876311593 -0.0500864204
21900168600.0 -0.9866100385 -0.0334603916
21950168300.0 -0.9863343829 -0.0172064559
22000168000.0 -0.9856452954 -0.0023329547
22050167700.0 -0.9856460575 0.0120957486
22100167400.0 -0.9861246708 0.0276925227
22150167100.0 -0.9866096743 0.0429529588
22200166800.0 -0.9871995632 0.0592547347
22250166500.0 -0.9870652129 0.0769004626
22300166200.0 -0.9865604955 0.0933387235
22350165900.0 -0.9847735498 0.1098331354
22400165600.0 -0.9834878481 0.1252985649
22450165300.0 -0.9804234906 0.1412143095
22500165000.0 -0.9801843972 0.1535660308
22550164700.0 -0.9792619845 0.1696713916
22600164400.0 -0.976283188 0.1851149631
22650164100.0 -0.9742759409 0.2008852967
22700163800.0 -0.971093566 0.2163508483
22750163500.0 -0.9674573369 0.2314339195
22800163200.0 -0.9656412788 0.2449454545
22850162900.0 -0.9634142712 0.2580458529
22900162600.0 -0.9617208329 0.2717429155
22950162300.0 -0.9602624855 0.2847406192
23000162000.0 -0.9588732866 0.2967999243
23050161700.0 -0.9565938399 0.3097785538
23100161400.0 -0.9541360076 0.3229327781
23150161100.0 -0.9507652776 0.3357410035
23200160800.0 -0.947558129 0.3474790091
23250160500.0 -0.9453195881 0.3599074917
23300160200.0 -0.9430648812 0.3717266207
23350159900.0 -0.9387725244 0.385734057
23400159600.0 -0.9342160215 0.3990285317
23450159300.0 -0.9296806761 0.4123387854
23500159000.0 -0.9247783543 0.4254648681
23550158700.0 -0.920092066 0.43934224
23600158400.0 -0.9146635591 0.4528577172
23650158100.0 -0.9079338695 0.467001964
23700157800.0 -0.9000445892 0.481121005
23750157500.0 -0.8912655744 0.4952934766
23800157200.0 -0.8826825001 0.5085384906
23850156900.0 -0.8729548554 0.5212461315
23900156600.0 -0.8629782954 0.5340608283
23950156300.0 -0.8543620084 0.5463394063
24000156000.0 -0.8456981794 0.5584982173
24050155700.0 -0.8349852967 0.5711574459
24100155400.0 -0.825403693 0.5822516202
24150155100.0 -0.8136750773 0.5950628615
24200154800.0 -0.8033214069 0.6056600167
24250154500.0 -0.7923092805 0.6177666574
24300154200.0 -0.7806626706 0.6296125054
24350153900.0 -0.7687275147 0.6402531066
24400153600.0 -0.7563167318 0.6506895468
24450153300.0 -0.7442728745 0.6608602481
24500153000.0 -0.7327432661 0.6704873335
24550152700.0 -0.7218291563 0.6802874462
24600152400.0 -0.7099440983 0.6896148783
