!Created with skrf (http://scikit-rf.org).
# Hz S RI R 50.0 
!freq ReS11 ImS11
300000.0 -0.9754067263 -0.1183103986
50299700.0 -1.000097072 0.0153111351
100299400.0 -0.9980803999 0.0282161363
150299100.0 -1.002749317 0.0450490259
200298800.0 -0.9994987441 0.0584708103
250298500.0 -0.9974311979 0.0719995088
300298200.0 -0.9860299731 0.0875988551
350297900.0 -0.9940380822 0.0986944003
400297600.0 -0.9933315461 0.1152251531
450297300.0 -0.9911199214 0.1289331891
500297000.0 -0.989458964 0.1438788217
550296700.0 -0.9844900761 0.1561176461
600296400.0 -1.017347644 0.1896209924
650296100.0 -0.982275556 0.1861134272
700295800.0 -0.9792967793 0.2005091168
750295500.0 -0.9764330058 0.2141772674
800295200.0 -0.9730204247 0.2285613086
850294900.0 -0.9695374583 0.2423074018
900294600.0 -0.9658133482 0.2561071681
950294300.0 -0.9623664603 0.2697216698
1000294000.0 -0.9582115061 0.2835891689
1050293700.0 -0.9536364531 0.297442867
1100293400.0 -0.9493959225 0.3119544276
1150293100.0 -0.9454844551 0.3237216316
1200292800.0 -0.940256605 0.3382724875
1250292500.0 -0.9347268426 0.3516692586
1300292200.0 -0.929043039 0.3647275272
1350291900.0 -0.9234549137 0.3789189884
1400291600.0 -0.918006113 0.3918080097
1450291300.0 -0.912484069 0.4042703205
1500291000.0 -0.9061075559 0.4176241451
1550290700.0 -0.8996936911 0.4310484247
1600290400.0 -0.8933816432 0.4440206273
1650290100.0 -0.8867643399 0.4561039374
1700289800.0 -0.8798905377 0.4695037136
1750289500.0 -0.8729424919 0.4817640972
1800289200.0 -0.8653932193 0.4948857441
1850288900.0 -0.8587599996 0.505914283
1900288600.0 -0.8510763128 0.5191826219
1950288300.0 -0.8428716435 0.5316093813
2000288000.0 -0.8354571225 0.5430526191
2050287700.0 -0.8270753426 0.5553912087
2100287400.0 -0.8192735278 0.5669319534
2150287100.0 -0.8105866882 0.5788759505
2200286800.0 -0.8029634474 0.5893523896
2250286500.0 -0.7939330318 0.6013482405
2300286200.0 -0.7853649357 0.613140014
2350285900.0 -0.7764641227 0.6238293294
2400285600.0 -0.7676432248 0.6351379357
2450285300.0 -0.7589878781 0.6454046729
2500285000.0 -0.7493516188 0.6566189041
2550284700.0 -0.7404352818 0.6670818671
2600284400.0 -0.7308719062 0.6771102999
2650284100.0 -0.7219964915 0.6878026315
2700283800.0 -0.7115757765 0.698383085
2750283500.0 -0.701338298 0.7088613894
2800283200.0 -0.691242919 0.718376705
2850282900.0 -0.6810603105 0.7281577145
2900282600.0 -0.6708098693 0.7380121035
2950282300.0 -0.6603977642 0.7471083466
3000282000.0 -0.6497880632 0.7568237318
3050281700.0 -0.6386015032 0.7659139451
3100281400.0 -0.626787278 0.775400345
3150281100.0 -0.6151441198 0.7846482967
3200280800.0 -0.6033491054 0.7932669792
3250280500.0 -0.5924893703 0.8008021713
3300280200.0 -0.5812187539 0.8088194455
3350279900.0 -0.5696172972 0.8165341928
3400279600.0 -0.5573862455 0.8241601569
3450279300.0 -0.5462775743 0.8312148253
3500279000.0 -0.5342385794 0.8381173871
3550278700.0 -0.5218301936 0.8456165915
3600278400.0 -0.5095945806 0.8526798829
3650278100.0 -0.4962531013 0.8602571051
3700277800.0 -0.4842554065 0.8668711479
3750277500.0 -0.4722429452 0.8733702144
3800277200.0 -0.4597039559 0.8797972966
3850276900.0 -0.4476049904 0.885715353
3900276600.0 -0.4368692308 0.891217713
3950276300.0 -0.4242534619 0.8973024918
4000276000.0 -0.4126344743 0.9034270699
4050275700.0 -0.3997038875 0.9097334799
4100275400.0 -0.3884781112 0.9148866016
4150275100.0 -0.3756398698 0.9208950278
4200274800.0 -0.3627138141 0.9262534963
4250274500.0 -0.3504933406 0.9313937599
4300274200.0 -0.337527627 0.9367882498
4350273900.0 -0.3236945352 0.9420673853
4400273600.0 -0.308817117 0.9473812449
4450273300.0 -0.2934720267 0.9523624599
4500273000.0 -0.2799408748 0.9565589364
4550272700.0 -0.2657802713 0.9607425181
4600272400.0 -0.2503518689 0.9650624481
4650272100.0 -0.2387638254 0.9681852404
4700271800.0 -0.2254576495 0.9714713277
4750271500.0 -0.2137320867 0.9744561094
4800271200.0 -0.2013908207 0.9772368395
4850270900.0 -0.1871839386 0.9799322838
4900270600.0 -0.1733134623 0.9822821594
4950270300.0 -0.1592172809 0.9850496453
5000270000.0 -0.1448987899 0.9871238901
5050269700.0 -0.1313368179 0.9887330623
5100269400.0 -0.1177225933 0.9902082752
5150269100.0 -0.1044330519 0.9920386279
5200268800.0 -0.090961902 0.992917068
5250268500.0 -0.0777366665 0.9942384362
5300268200.0 -0.0645754899 0.9947222162
5350267900.0 -0.0525040089 0.9951440174
5400267600.0 -0.0362200442 0.9964197824
5450267300.0 -0.0230646558 0.9969440935
5500267000.0 -0.0079934388 0.9969723034
5550266700.0 0.0067994968 0.9972149707
5600266400.0 0.0226268371 0.9971426883
5650266100.0 0.0389862495 0.9970071209
5700265800.0 0.0535949976 0.996207326
5750265500.0 0.0685478614 0.9954831968
5800265200.0 0.0825566351 0.9946576205
5850264900.0 0.0954764473 0.993230772
5900264600.0 0.11256526 0.991700903
5950264300.0 0.1247395906 0.9903992813
6000264000.0 0.1383705971 0.9883101855
6050263700.0 0.150675562 0.9866818952
6100263400.0 0.1631994997 0.9850524688
6150263100.0 0.1776549157 0.9827918289
6200262800.0 0.1881707105 0.9811869534
6250262500.0 0.2005355464 0.9784761028
6300262200.0 0.2133860495 0.9758891326
6350261900.0 0.2264117249 0.9726668301
6400261600.0 0.2403730608 0.9694777818
6450261300.0 0.2516071947 0.9669798808
6500261000.0 0.2643323829 0.9631718552
6550260700.0 0.2779060539 0.9597490855
6600260400.0 0.2906061116 0.9553101039
6650260100.0 0.3051132674 0.950996265
6700259800.0 0.3166599433 0.9467300087
6750259500.0 0.3304849556 0.9417263945
6800259200.0 0.343880206 0.9369810332
6850258900.0 0.3557171295 0.9316521593
6900258600.0 0.3678980992 0.9265303639
6950258300.0 0.3803998406 0.9213766547
7000258000.0 0.3924902274 0.9158596786
7050257700.0 0.4047639732 0.9098045366
7100257400.0 0.4175137005 0.9036825891
7150257100.0 0.428104903 0.8982094405
7200256800.0 0.4409170361 0.8919102107
7250256500.0 0.4525347043 0.8854528181
7300256200.0 0.4658654003 0.8788317255
7350255900.0 0.4782206611 0.8717212953
7400255600.0 0.4914346031 0.8647305606
7450255300.0 0.5069687933 0.8555465277
7500255000.0 0.5188714946 0.8485504281
7550254700.0 0.5326759029 0.8400382748
7600254400.0 0.5452742773 0.8317146807
7650254100.0 0.5564960778 0.8237954999
7700253800.0 0.5687208554 0.8160251088
7750253500.0 0.5797076085 0.8082455718
7800253200.0 0.5902980287 0.8007557282
7850252900.0 0.6001002571 0.7936387536
7900252600.0 0.6116769169 0.7847601068
7950252300.0 0.6206264276 0.7782948605
8000252000.0 0.6306413026 0.7704872246
8050251700.0 0.641180183 0.7622869045
8100251400.0 0.6511626127 0.7541511945
8150251100.0 0.6613520225 0.7454806198
8200250800.0 0.6704480464 0.7376308986
8250250500.0 0.6794549535 0.7296905491
8300250200.0 0.6891392831 0.7210525795
8350249900.0 0.6983011041 0.7122791181
8400249600.0 0.706125929 0.7042544022
8450249300.0 0.7154323653 0.6952143015
8500249000.0 0.7240309134 0.6862561666
8550248700.0 0.7321948933 0.6771685624
8600248400.0 0.7405506108 0.6677755079
8650248100.0 0.7483985477 0.658397313
8700247800.0 0.7578264808 0.6471282056
8750247500.0 0.7663722915 0.6368119179
8800247200.0 0.7744472883 0.6265849914
8850246900.0 0.7832861544 0.6152017606
8900246600.0 0.7917974336 0.6037530297
8950246300.0 0.8014993019 0.5906572379
9000246000.0 0.810634318 0.5781971924
9050245700.0 0.8195264311 0.5650889336
9100245400.0 0.8282745404 0.5528320813
9150245100.0 0.8371887102 0.5393722689
9200244800.0 0.8469772765 0.5243135428
9250244500.0 0.8563041549 0.5090004947
9300244200.0 0.8649589888 0.4943015478
9350243900.0 0.8725514955 0.4805925888
9400243600.0 0.8793500471 0.4682298618
9450243300.0 0.8852936901 0.4567322647
9500243000.0 0.8915086008 0.4445954148
9550242700.0 0.8951580681 0.4368418443
9600242400.0 0.8990233608 0.4295106397
9650242100.0 0.9029473782 0.4227651643
9700241800.0 0.9076394794 0.4144832502
9750241500.0 0.9114349519 0.4072830719
9800241200.0 0.9162074906 0.3978323455
9850240900.0 0.9220369393 0.3862244217
9900240600.0 0.9275280003 0.3746641273
9950240300.0 0.9340260263 0.3583223731
10000240000.0 0.9384651656 0.3472209848
10050239700.0 0.9444307737 0.3315709634
10100239400.0 0.9495087454 0.31593483
10150239100.0 0.9539940033 0.3013841568
10200238800.0 0.9579885111 0.2862266623
10250238500.0 0.9616468724 0.272906154
10300238200.0 0.9645307336 0.259005304
10350237900.0 0.9673685804 0.2455622016
10400237600.0 0.9699058754 0.2325808247
10450237300.0 0.9726400262 0.2190048786
10500237000.0 0.9749325982 0.206421083
10550236700.0 0.976958107 0.1926445969
10600236400.0 0.9792554864 0.1783856857
10650236100.0 0.9810122371 0.1644943193
10700235800.0 0.9836426721 0.1520541044
10750235500.0 0.9854121996 0.138769067
10800235200.0 0.9875988624 0.1242793796
10850234900.0 0.9895926068 0.1098289337
10900234600.0 0.9918425912 0.0949747036
10950234300.0 0.993540869 0.0819302601
11000234000.0 0.9952182967 0.0667466539
11050233700.0 0.9969867439 0.0503423656
11100233400.0 0.9984133482 0.0329429724
11150233100.0 0.9993294993 0.0171039712
11200232800.0 1.000421797 0.0011968418
11250232500.0 1.001462207 -0.0151424314
11300232200.0 1.001954117 -0.0326274717
11350231900.0 1.001856573 -0.049047411
11400231600.0 1.000930585 -0.0640191674
11450231300.0 1.000687134 -0.0799367665
11500231000.0 1.000371903 -0.0958425175
11550230700.0 0.9982636127 -0.1090852532
11600230400.0 0.997474709 -0.1221152829
11650230100.0 0.9951184099 -0.1335436908
11700229800.0 0.9933299418 -0.1479933945
11750229500.0 0.9907878801 -0.1624864155
11800229200.0 0.9882349723 -0.1762464595
11850228900.0 0.9848296811 -0.1885225729
11900228600.0 0.9810597561 -0.198519573
11950228300.0 0.9779265199 -0.2084061816
12000228000.0 0.9751313189 -0.2179111777
12050227700.0 0.9716134928 -0.2300445084
12100227400.0 0.9681517171 -0.241615753
12150227100.0 0.9635686763 -0.2583936286
12200226800.0 0.9593513762 -0.2692857946
12250226500.0 0.9555047545 -0.2828187789
12300226200.0 0.9514346523 -0.2950063776
12350225900.0 0.9470451898 -0.3081698104
12400225600.0 0.9421092958 -0.3206860817
12450225300.0 0.9375273005 -0.3339238482
12500225000.0 0.9321454349 -0.3484455534
12550224700.0 0.9269526119 -0.3627453
12600224400.0 0.9220615269 -0.3752116146
12650224100.0 0.9161314963 -0.3896549743
12700223800.0 0.9107865328 -0.4025363294
12750223500.0 0.9053812037 -0.4153445275
12800223200.0 0.9000864085 -0.4279581945
12850222900.0 0.8947696271 -0.4402136413
12900222600.0 0.8891094619 -0.4525663863
12950222300.0 0.8825884496 -0.4650967545
13000222000.0 0.8770817977 -0.4763616439
13050221700.0 0.8699194732 -0.4898938232
13100221400.0 0.8634324858 -0.501974884
13150221100.0 0.8561583285 -0.5138717494
13200220800.0 0.8496270558 -0.5249645716
13250220500.0 0.8422085195 -0.5373348483
13300220200.0 0.8349643932 -0.5479746518
13350219900.0 0.8269571984 -0.5599249494
13400219600.0 0.8188248229 -0.5719399629
13450219300.0 0.8092407351 -0.5853500022
13500219000.0 0.7990746023 -0.5990788081
13550218700.0 0.7886854577 -0.6122528309
13600218400.0 0.7789258046 -0.6238247423
13650218100.0 0.7698971196 -0.6350606387
13700217800.0 0.7586866717 -0.6473947994
13750217500.0 0.7488033567 -0.658541955
13800217200.0 0.7376148523 -0.6700027283
13850216900.0 0.7262324665 -0.6810343774
13900216600.0 0.716500796 -0.6901970333
13950216300.0 0.7051198653 -0.7009702527
14000216000.0 0.6953263554 -0.7104808226
14050215700.0 0.6857765012 -0.7184664264
14100215400.0 0.6762860356 -0.7276715635
14150215100.0 0.6667513132 -0.7364364231
14200214800.0 0.6576230334 -0.7447748118
14250214500.0 0.6473183318 -0.7542002364
14300214200.0 0.6368480026 -0.7635452087
14350213900.0 0.6254924751 -0.7731531386
14400213600.0 0.6136310394 -0.7825925706
14450213300.0 0.6008194077 -0.7933722953
14500213000.0 0.5875118285 -0.8031283082
14550212700.0 0.5752499057 -0.8127587396
14600212400.0 0.5626381209 -0.821378273
14650212100.0 0.5494796251 -0.8302246622
14700211800.0 0.5359986749 -0.839607564
14750211500.0 0.5237121467 -0.8476626378
14800211200.0 0.5115702615 -0.8559759028
14850210900.0 0.4996314631 -0.8634990358
14900210600.0 0.4860312716 -0.8712203635
14950210300.0 0.4726416371 -0.8789851943
15000210000.0 0.4601681568 -0.885721419
15050209700.0 0.4477276284 -0.891880916
15100209400.0 0.4348619844 -0.8975375252
15150209100.0 0.4227718159 -0.9035366881
15200208800.0 0.4101860581 -0.9088319097
15250208500.0 0.3992057421 -0.9131897157
15300208200.0 0.3862113832 -0.9174149749
15350207900.0 0.3735414682 -0.9230052255
15400207600.0 0.3583079055 -0.927290392
15450207300.0 0.3446228019 -0.9322966752
15500207000.0 0.3294472534 -0.9373114014
15550206700.0 0.3154801566 -0.9427283915
15600206400.0 0.2987690911 -0.9466204237
15650206100.0 0.2833680685 -0.9515164388
15700205800.0 0.269142574 -0.9548937039
15750205500.0 0.2550465237 -0.9586567069
15800205200.0 0.2403130961 -0.9621016563
15850204900.0 0.2260450426 -0.9654516874
15900204600.0 0.2108538085 -0.9691190975
15950204300.0 0.1967894457 -0.9720997025
16000204000.0 0.1827637398 -0.9747269325
16050203700.0 0.1676341635 -0.9780446335
16100203400.0 0.1529546846 -0.9803619779
16150203100.0 0.1384834446 -0.9823422385
16200202800.0 0.1245002119 -0.9847713106
16250202500.0 0.1098024557 -0.9862410629
16300202200.0 0.0940215263 -0.9877539541
16350201900.0 0.0792936346 -0.9890307528
16400201600.0 0.0647691628 -0.9903321202
16450201300.0 0.0491244754 -0.9912157631
16500201000.0 0.0327260446 -0.992066721
16550200700.0 0.016972733 -0.9926879315
16600200400.0 0.0012937353 -0.9927429979
16650200100.0 -0.0148541018 -0.9929957493
16700199800.0 -0.0309106841 -0.9923949953
16750199500.0 -0.0496573048 -0.9914750664
16800199200.0 -0.0654709171 -0.9910000571
16850198900.0 -0.0810965156 -0.9898908855
16900198600.0 -0.0948049081 -0.988843673
16950198300.0 -0.1082651144 -0.987729599
17000198000.0 -0.1212157163 -0.9859756154
17050197700.0 -0.1338597361 -0.9842234383
17100197400.0 -0.1463093598 -0.9823421971
17150197100.0 -0.1591908137 -0.9801724264
17200196800.0 -0.1716975759 -0.9778766912
17250196500.0 -0.1846089192 -0.9759811337
17300196200.0 -0.1970548787 -0.9735346651
17350195900.0 -0.2088030796 -0.9713257908
17400195600.0 -0.221039166 -0.9687564644
17450195300.0 -0.2341755802 -0.9659695169
17500195000.0 -0.2477876744 -0.9626301956
17550194700.0 -0.261296265 -0.9590369846
17600194400.0 -0.2753936432 -0.9548718861
17650194100.0 -0.289196648 -0.9509281033
17700193800.0 -0.3024258883 -0.9469602197
17750193500.0 -0.3165176241 -0.9419762223
17800193200.0 -0.3310973628 -0.9372283463
17850192900.0 -0.3459168067 -0.9312703957
17900192600.0 -0.3609514995 -0.9252939933
17950192300.0 -0.376996343 -0.9182343922
18000192000.0 -0.3914860517 -0.9110585186
18050191700.0 -0.4053773682 -0.9034335987
18100191400.0 -0.419599696 -0.8956150995
18150191100.0 -0.4346032562 -0.8877396397
18200190800.0 -0.4515199476 -0.8784667803
18250190500.0 -0.4683439981 -0.8689787332
18300190200.0 -0.4841294488 -0.8605548584
18350189900.0 -0.4990023229 -0.8520199875
18400189600.0 -0.5135466276 -0.843615809
18450189300.0 -0.5268421081 -0.835569494
18500189000.0 -0.5401634273 -0.827609767
18550188700.0 -0.5527820374 -0.8199644843
18600188400.0 -0.5645633847 -0.8133212488
18650188100.0 -0.5755585258 -0.8068724923
18700187800.0 -0.5866937594 -0.8002107206
18750187500.0 -0.5969173484 -0.7935484015
18800187200.0 -0.6076062049 -0.7868511886
18850186900.0 -0.6177202728 -0.7798438762
18900186600.0 -0.6280813503 -0.7725151367
18950186300.0 -0.6379876517 -0.7648845231
19000186000.0 -0.6454171786 -0.7587514176
19050185700.0 -0.6548097786 -0.7517403017
19100185400.0 -0.6643990699 -0.742957243
19150185100.0 -0.6752889974 -0.7343944003
19200184800.0 -0.6841020163 -0.7266192852
19250184500.0 -0.6943385814 -0.7174662891
19300184200.0 -0.7055437097 -0.7076232975
19350183900.0 -0.7159772806 -0.6988633438
19400183600.0 -0.7258551801 -0.6879540853
19450183300.0 -0.7344536491 -0.677843902
19500183000.0 -0.7432229682 -0.6682657529
19550182700.0 -0.7531963201 -0.6574184583
19600182400.0 -0.7631361936 -0.644953069
19650182100.0 -0.7743568452 -0.6330808583
19700181800.0 -0.7850478734 -0.619807128
19750181500.0 -0.7955047648 -0.6056382293
19800181200.0 -0.8059074932 -0.5905937018
19850180900.0 -0.8155010934 -0.5754787618
19900180600.0 -0.823539212 -0.5605719358
19950180300.0 -0.8326944407 -0.5443712269
20000180000.0 -0.8252256414 -0.5471035936
20050179700.0 -0.8336290071 -0.5333261852
20100179400.0 -0.84210219 -0.5202880629
20150179100.0 -0.8504263392 -0.5079143931
20200178800.0 -0.859441876 -0.4954308388
20250178500.0 -0.8685829307 -0.481483883
20300178200.0 -0.8786303783 -0.46719226
20350177900.0 -0.887560499 -0.4529422057
20400177600.0 -0.8963299093 -0.4385361302
20450177300.0 -0.9043992635 -0.4240578721
20500177000.0 -0.9125243856 -0.410331724
20550176700.0 -0.9201674898 -0.3966848293
20600176400.0 -0.9275193716 -0.3835473197
20650176100.0 -0.9343688952 -0.3715502403
20700175800.0 -0.9412186292 -0.3590339135
20750175500.0 -0.9474306603 -0.3480548006
20800175200.0 -0.9521449866 -0.3371838313
20850174900.0 -0.9572363594 -0.3264245475
20900174600.0 -0.9613403994 -0.3143483108
20950174300.0 -0.9654315509 -0.3035252348
21000174000.0 -0.9688029916 -0.2918999343
21050173700.0 -0.9713112373 -0.2811176525
21100173400.0 -0.9755601614 -0.2693110548
21150173100.0 -0.9797681298 -0.2575739593
21200172800.0 -0.9834211133 -0.2437031276
21250172500.0 -0.9857102186 -0.2296687086
21300172200.0 -0.9887208121 -0.2155492355
21350171900.0 -0.9902218791 -0.2015277614
21400171600.0 -0.9923346702 -0.1872842947
21450171300.0 -0.9922201095 -0.1721861794
21500171000.0 -0.9923316778 -0.1563174724
21550170700.0 -0.9918874587 -0.140965226
21600170400.0 -0.9927069355 -0.1257121711
21650170100.0 -0.9913557928 -0.1099155483
21700169800.0 -0.9904855499 -0.0951048319
21750169500.0 -0.9900060172 -0.0785665365
21800169200.0 -0.9889490313 -0.06212545
21850168900.0 -0.9880887543 -0.0456804505
21900168600.0 -0.9865952029 -0.0298619083
21950168300.0 -0.9854928422 -0.0139504165
22000168000.0 -0.9841750637 0.001036897
22050167700.0 -0.9840786345 0.0150861674
22100167400.0 -0.9842047358 0.030750212
22150167100.0 -0.9846186665 0.0462706265
22200166800.0 -0.985317129 0.0627718596
22250166500.0 -0.985254871 0.0796029311
22300166200.0 -0.98401674 0.0958038689
22350165900.0 -0.9828488245 0.1137047342
22400165600.0 -0.9815058726 0.128480178
22450165300.0 -0.9789881005 0.143933214
22500165000.0 -0.9784923313 0.1564948366
22550164700.0 -0.9767331051 0.1725786592
22600164400.0 -0.9739880637 0.1882598114
22650164100.0 -0.9719171745 0.2019881169
22700163800.0 -0.9697909119 0.2188728269
22750163500.0 -0.9672539459 0.2338637508
22800163200.0 -0.9646599465 0.2471222712
22850162900.0 -0.961932609 0.2605546693
22900162600.0 -0.9607921692 0.2738500767
22950162300.0 -0.9592428149 0.2866491737
23000162000.0 -0.9578044579 0.2986993146
23050161700.0 -0.9560006467 0.3115816244
23100161400.0 -0.9532782555 0.3238668715
23150161100.0 -0.9507918586 0.3365798117
23200160800.0 -0.9481029282 0.3484961306
23250160500.0 -0.9448834685 0.3603568169
23300160200.0 -0.9429434995 0.3728695533
23350159900.0 -0.9387353971 0.3864047071
23400159600.0 -0.934269338 0.39948444
23450159300.0 -0.9290876743 0.4126706471
23500159000.0 -0.9248050344 0.4257216643
23550158700.0 -0.9201094042 0.439160047
23600158400.0 -0.9147448904 0.4526841944
23650158100.0 -0.9080992951 0.4669018228
23700157800.0 -0.9006491084 0.4805363821
23750157500.0 -0.8917980613 0.4947682634
23800157200.0 -0.8830437028 0.5077478882
23850156900.0 -0.8749809328 0.5206962203
23900156600.0 -0.8657799401 0.5331197986
23950156300.0 -0.8558790193 0.5458735047
24000156000.0 -0.8468929488 0.5587740161
24050155700.0 -0.8368716352 0.5699537956
24100155400.0 -0.8269472049 0.581705679
24150155100.0 -0.8156156326 0.5929317961
24200154800.0 -0.8048780965 0.604641585
24250154500.0 -0.7942782559 0.6161746468
24300154200.0 -0.7827844136 0.6275302091
24350153900.0 -0.7711631403 0.6385463044
24400153600.0 -0.7587068216 0.6488623393
24450153300.0 -0.7469334311 0.6586524562
24500153000.0 -0.7353342611 0.6686776611
24550152700.0 -0.7244100118 0.6784196117
24600152400.0 -0.7125163515 0.6874507741
24650152100.0 -0.7008544498 0.6961076574
