!Created with skrf (http://scikit-rf.org).
# Hz S RI R 50.0 
!freq ReS11 ImS11
300000.0 -0.9733265003 -0.1222351452
50299700.0 -0.9999620485 0.0148939118
100299400.0 -0.9978985639 0.0278797875
150299100.0 -1.002617017 0.0446612286
200298800.0 -0.9996456864 0.0582597691
250298500.0 -0.9973189161 0.0717115219
300298200.0 -0.985926126 0.0872916575
350297900.0 -0.9938714381 0.0982890835
400297600.0 -0.993122782 0.1149937908
450297300.0 -0.9907063341 0.1286784795
500297000.0 -0.9893765632 0.1433128863
550296700.0 -0.9843468772 0.1557775595
600296400.0 -1.017300841 0.1888305384
650296100.0 -0.9823337555 0.1857070971
700295800.0 -0.9793021406 0.1998681013
750295500.0 -0.9761456348 0.2140596112
800295200.0 -0.9729409532 0.2280222247
850294900.0 -0.9697808252 0.2417323604
900294600.0 -0.9656552079 0.2555197742
950294300.0 -0.9621733392 0.2693271474
1000294000.0 -0.9580753287 0.2831695146
1050293700.0 -0.9536614529 0.2969828231
1100293400.0 -0.949500072 0.3112489258
1150293100.0 -0.9455275671 0.3233204216
1200292800.0 -0.9403056789 0.3376948454
1250292500.0 -0.9348065045 0.3512496861
1300292200.0 -0.9288485452 0.3643356458
1350291900.0 -0.9235372026 0.3782854786
1400291600.0 -0.9178626677 0.3916295734
1450291300.0 -0.9125398146 0.4040401129
1500291000.0 -0.906174552 0.4173329399
1550290700.0 -0.8996043526 0.4308498412
1600290400.0 -0.8934525052 0.4434803046
1650290100.0 -0.8869236681 0.455659488
1700289800.0 -0.8800006564 0.4691392647
1750289500.0 -0.8729714829 0.4814987231
1800289200.0 -0.8656144846 0.4943402787
1850288900.0 -0.8589348151 0.505747302
1900288600.0 -0.8509924383 0.5188135886
1950288300.0 -0.8429797205 0.5313250529
2000288000.0 -0.8354282566 0.5427262046
2050287700.0 -0.8271314943 0.5552595875
2100287400.0 -0.8192720681 0.5665271623
2150287100.0 -0.8109753105 0.5786461795
2200286800.0 -0.8029298849 0.5892337842
2250286500.0 -0.7939828123 0.6013911202
2300286200.0 -0.7851198532 0.6127935822
2350285900.0 -0.7767520807 0.6235050663
2400285600.0 -0.7678711608 0.6342771774
2450285300.0 -0.759125019 0.6451344223
2500285000.0 -0.7491222252 0.6565539574
2550284700.0 -0.7401319263 0.6670950722
2600284400.0 -0.7307963377 0.6771191447
2650284100.0 -0.7223553894 0.687129983
2700283800.0 -0.7120185233 0.6974055428
2750283500.0 -0.7016169034 0.7081429157
2800283200.0 -0.6915069945 0.7178502025
2850282900.0 -0.6811345023 0.7280725941
2900282600.0 -0.670740969 0.7375940366
2950282300.0 -0.6601600996 0.7474159222
3000282000.0 -0.6494312883 0.7567898822
3050281700.0 -0.638400965 0.7659393747
3100281400.0 -0.627005841 0.7751399251
3150281100.0 -0.6157312625 0.7839980268
3200280800.0 -0.6040856421 0.7923108656
3250280500.0 -0.593041968 0.8002489565
3300280200.0 -0.5814994629 0.8084057178
3350279900.0 -0.5692545609 0.8164190726
3400279600.0 -0.5566975969 0.8243956918
3450279300.0 -0.5456929752 0.8317504403
3500279000.0 -0.53373939 0.8384445431
3550278700.0 -0.5215830807 0.845700544
3600278400.0 -0.5098162265 0.8522939601
3650278100.0 -0.4970766662 0.8602416811
3700277800.0 -0.4846860796 0.8665265591
3750277500.0 -0.4722844539 0.8732113997
3800277200.0 -0.4599006726 0.8798666531
3850276900.0 -0.4479129472 0.8854703045
3900276600.0 -0.4367965203 0.8913214173
3950276300.0 -0.4248260147 0.8971048665
4000276000.0 -0.4129859493 0.9029475518
4050275700.0 -0.4005464634 0.9091472263
4100275400.0 -0.3894443868 0.9146909168
4150275100.0 -0.3761018895 0.9203118704
4200274800.0 -0.3624947565 0.9261402425
4250274500.0 -0.3499815302 0.9314154442
4300274200.0 -0.3369356 0.9369468046
4350273900.0 -0.3225811605 0.9418902382
4400273600.0 -0.3077752221 0.947201376
4450273300.0 -0.2928461191 0.9522364452
4500273000.0 -0.2796559515 0.9563016163
4550272700.0 -0.2660624789 0.9605113313
4600272400.0 -0.2509169211 0.9645440205
4650272100.0 -0.2397130498 0.9677953149
4700271800.0 -0.2267521904 0.9710919496
4750271500.0 -0.2150487151 0.9740090121
4800271200.0 -0.202946824 0.9764481203
4850270900.0 -0.1890410273 0.9794204405
4900270600.0 -0.1752259675 0.9820018688
4950270300.0 -0.1608543552 0.9843217691
5000270000.0 -0.1463182957 0.9865697369
5050269700.0 -0.132794406 0.988409887
5100269400.0 -0.1185012576 0.9899594624
5150269100.0 -0.1045384824 0.9917159493
5200268800.0 -0.0913288635 0.9927057314
5250268500.0 -0.0782878514 0.9937645979
5300268200.0 -0.0646166954 0.9946117973
5350267900.0 -0.0518246307 0.9949418385
5400267600.0 -0.0356022046 0.9962683904
5450267300.0 -0.0221832702 0.9966378903
5500267000.0 -0.0069215612 0.9969491008
5550266700.0 0.0080599721 0.9971851455
5600266400.0 0.0236416801 0.9972601736
5650266100.0 0.040557996 0.9966111591
5700265800.0 0.0547389719 0.9958248066
5750265500.0 0.0694729016 0.9952332058
5800265200.0 0.0831139598 0.9942904973
5850264900.0 0.09636619 0.9932331446
5900264600.0 0.113142823 0.9916124877
5950264300.0 0.124564579 0.9896740326
6000264000.0 0.1379601061 0.9881577047
6050263700.0 0.1501185633 0.9869296456
6100263400.0 0.161938976 0.9851198153
6150263100.0 0.176582496 0.9824944541
6200262800.0 0.1861826857 0.9809762727
6250262500.0 0.1988950565 0.9785917077
6300262200.0 0.210938368 0.9762520371
6350261900.0 0.2238919139 0.9733622907
6400261600.0 0.2378912373 0.9701228926
6450261300.0 0.2489243665 0.9678428366
6500261000.0 0.2623803543 0.9640771554
6550260700.0 0.275350595 0.960042484
6600260400.0 0.2886182053 0.9561811209
6650260100.0 0.3023577267 0.9514835285
6700259800.0 0.3148336114 0.9473702569
6750259500.0 0.3286803327 0.9425125599
6800259200.0 0.3422304748 0.937296589
6850258900.0 0.3544886691 0.9317058562
6900258600.0 0.3673617945 0.9270186803
6950258300.0 0.3795937505 0.9215550132
7000258000.0 0.391175811 0.9161213906
7050257700.0 0.4032241963 0.9105126969
7100257400.0 0.4165774037 0.9041296221
7150257100.0 0.4273852758 0.8983902659
7200256800.0 0.4404741523 0.8923481475
7250256500.0 0.4530407543 0.8853990054
7300256200.0 0.4659098593 0.8787180529
7350255900.0 0.4789226422 0.8715910124
7400255600.0 0.4927344522 0.8638990502
7450255300.0 0.5087091079 0.8551650631
7500255000.0 0.5207908595 0.8471195315
7550254700.0 0.5350920129 0.8381896402
7600254400.0 0.5480388168 0.8300382511
7650254100.0 0.5592460176 0.8219661147
7700253800.0 0.5708258799 0.8138799897
7750253500.0 0.5817488547 0.8063220607
7800253200.0 0.5924324877 0.798513233
7850252900.0 0.6022680415 0.7913036076
7900252600.0 0.6136677599 0.7824833076
7950252300.0 0.6221529069 0.7761690767
8000252000.0 0.6321478143 0.7687465814
8050251700.0 0.6423834121 0.7605542289
8100251400.0 0.6525981311 0.7524907005
8150251100.0 0.6626388933 0.744093426
8200250800.0 0.6720948994 0.7357616579
8250250500.0 0.6805295101 0.7281015404
8300250200.0 0.689643835 0.7198816126
8350249900.0 0.6990278652 0.7108429743
8400249600.0 0.7071776848 0.7028027714
8450249300.0 0.7160026327 0.6940394755
8500249000.0 0.7245717737 0.6852881358
8550248700.0 0.7325142689 0.6762049805
8600248400.0 0.7411725572 0.6667578213
8650248100.0 0.7486881947 0.6572911596
8700247800.0 0.75805722 0.646302986
8750247500.0 0.7661286548 0.6362985989
8800247200.0 0.7742399177 0.6259947948
8850246900.0 0.7829951333 0.6143688685
8900246600.0 0.7912362166 0.603306415
8950246300.0 0.8007601434 0.5902421086
9000246000.0 0.8091833462 0.5784115097
9050245700.0 0.8178963856 0.5662260354
9100245400.0 0.8263283091 0.5541209817
9150245100.0 0.8349502911 0.5409991663
9200244800.0 0.8441225249 0.5265240933
9250244500.0 0.8531884545 0.5121060374
9300244200.0 0.8612974558 0.498417665
9350243900.0 0.8693303085 0.4851794932
9400243600.0 0.8756485642 0.4734775296
9450243300.0 0.8812688217 0.4631483058
9500243000.0 0.8875112318 0.451266951
9550242700.0 0.89145869 0.4440116362
9600242400.0 0.8957778856 0.4363322986
9650242100.0 0.9000705913 0.4292185973
9700241800.0 0.9047514268 0.4207587026
9750241500.0 0.9088515845 0.4132184674
9800241200.0 0.9142454623 0.4035946012
9850240900.0 0.9199542367 0.3918121595
9900240600.0 0.9258128337 0.3799290623
9950240300.0 0.9327528555 0.3635106445
10000240000.0 0.9380910195 0.3510894195
10050239700.0 0.9439220017 0.3353555089
10100239400.0 0.9493862904 0.3187351391
10150239100.0 0.9539037958 0.3030087924
10200238800.0 0.9580813899 0.2878646745
10250238500.0 0.9615314723 0.2743819719
10300238200.0 0.9646175926 0.260260971
10350237900.0 0.9675166256 0.2469340618
10400237600.0 0.9700861752 0.2336267085
10450237300.0 0.9727387398 0.2200247053
10500237000.0 0.9746470843 0.2075390047
10550236700.0 0.9776279233 0.1924188347
10600236400.0 0.9798262195 0.1788589751
10650236100.0 0.9813574611 0.164350434
10700235800.0 0.9835262855 0.1520032815
10750235500.0 0.9858382592 0.1386674072
10800235200.0 0.9885455349 0.1239514177
10850234900.0 0.989930408 0.1092384922
10900234600.0 0.9920339544 0.0946675986
10950234300.0 0.9937433523 0.0810007039
11000234000.0 0.9957061461 0.0654530291
11050233700.0 0.9974577564 0.0487169777
11100233400.0 0.9989572518 0.0310836805
11150233100.0 0.999841032 0.014551743
11200232800.0 1.000760374 -0.0013123906
11250232500.0 1.001943002 -0.0192027671
11300232200.0 1.002442743 -0.0376535727
11350231900.0 1.001992733 -0.0540547014
11400231600.0 1.002068991 -0.0699011317
11450231300.0 1.001179657 -0.0863324504
11500231000.0 0.9995545825 -0.1017368234
11550230700.0 0.9983858454 -0.1151688255
11600230400.0 0.9969878555 -0.1285073281
11650230100.0 0.9949762378 -0.1397247377
11700229800.0 0.9925369699 -0.1546985181
11750229500.0 0.9902086928 -0.1687325544
11800229200.0 0.9873926693 -0.1817523342
11850228900.0 0.9836528908 -0.1938193668
11900228600.0 0.9797794683 -0.2031450027
11950228300.0 0.9766219671 -0.2127540934
12000228000.0 0.9732793169 -0.222673435
12050227700.0 0.9695847973 -0.2345252132
12100227400.0 0.966219206 -0.2464550579
12150227100.0 0.9617876248 -0.2626029148
12200226800.0 0.9574192995 -0.2742048812
12250226500.0 0.9540876594 -0.2859339442
12300226200.0 0.9497030382 -0.2983954484
12350225900.0 0.9445785881 -0.3127118382
12400225600.0 0.9399628621 -0.324819146
12450225300.0 0.9356494007 -0.3376959122
12500225000.0 0.9299772406 -0.3520520803
12550224700.0 0.9246127245 -0.3656479592
12600224400.0 0.9198533913 -0.3783666505
12650224100.0 0.914057388 -0.3926289536
12700223800.0 0.9088691879 -0.4054862439
12750223500.0 0.9034775059 -0.4184475436
12800223200.0 0.8980898245 -0.4311283024
12850222900.0 0.8926374711 -0.4433283396
12900222600.0 0.8872203723 -0.4551954256
12950222300.0 0.880833996 -0.4677805731
13000222000.0 0.8751253926 -0.4792627702
13050221700.0 0.8686483379 -0.4924551771
13100221400.0 0.8611199535 -0.5041546152
13150221100.0 0.85463118 -0.5165818891
13200220800.0 0.8476766652 -0.5278594221
13250220500.0 0.8402926504 -0.540273852
13300220200.0 0.8328862216 -0.5512903234
13350219900.0 0.8243958791 -0.5634241761
13400219600.0 0.8160785148 -0.5754132715
13450219300.0 0.8069837799 -0.5881436329
13500219000.0 0.7970964571 -0.6015686633
13550218700.0 0.7873659829 -0.6137427517
13600218400.0 0.7776695484 -0.6251187107
13650218100.0 0.767682119 -0.6365709374
13700217800.0 0.7569715722 -0.6481199791
13750217500.0 0.7473810843 -0.6586710222
13800217200.0 0.7370701952 -0.6702867269
13850216900.0 0.7258060536 -0.6811347111
13900216600.0 0.7159375289 -0.6903924017
13950216300.0 0.7052260904 -0.7004025612
14000216000.0 0.6956008193 -0.7092495004
14050215700.0 0.6859179074 -0.717490382
14100215400.0 0.6764056168 -0.7266413455
14150215100.0 0.6677055755 -0.7351836719
14200214800.0 0.6580621217 -0.7439471273
14250214500.0 0.6475709831 -0.7535150416
14300214200.0 0.63729153 -0.7627863221
14350213900.0 0.6259914916 -0.7727125852
14400213600.0 0.6141218565 -0.7824686549
14450213300.0 0.6012561495 -0.792764215
14500213000.0 0.5882365834 -0.8020861998
14550212700.0 0.5758782912 -0.8116192688
14600212400.0 0.5634236051 -0.8203195668
14650212100.0 0.5506825988 -0.8296707843
14700211800.0 0.5369161734 -0.8384396297
14750211500.0 0.5245630287 -0.8470705048
14800211200.0 0.5121450339 -0.8551976268
14850210900.0 0.5000124217 -0.8630610096
14900210600.0 0.4866496869 -0.8708191898
14950210300.0 0.4733854674 -0.8785320333
15000210000.0 0.4606544085 -0.8853699092
15050209700.0 0.4482212363 -0.891283383
15100209400.0 0.4353529552 -0.89712829
15150209100.0 0.4230294783 -0.9025237084
15200208800.0 0.4105136225 -0.9078359365
15250208500.0 0.3992092158 -0.9126006533
15300208200.0 0.3876477216 -0.9173181718
15350207900.0 0.3732849308 -0.9220773085
15400207600.0 0.3592190409 -0.9272696979
15450207300.0 0.3445877841 -0.933313142
15500207000.0 0.329845644 -0.9374548306
15550206700.0 0.3153366522 -0.9419174946
15600206400.0 0.299505376 -0.9466259928
15650206100.0 0.2840100626 -0.9508133151
15700205800.0 0.2701785604 -0.95457095
15750205500.0 0.2563362759 -0.9576757603
15800205200.0 0.2422827107 -0.961364434
15850204900.0 0.2280727307 -0.9647080904
15900204600.0 0.2130599196 -0.9682843793
15950204300.0 0.1990070868 -0.971418644
16000204000.0 0.1843307227 -0.9745149115
16050203700.0 0.1691106846 -0.9776066201
16100203400.0 0.1545611303 -0.9796809416
16150203100.0 0.1398445941 -0.9817879391
16200202800.0 0.1251846775 -0.9842106118
16250202500.0 0.110205931 -0.9856249432
16300202200.0 0.0951566546 -0.9873215401
16350201900.0 0.0801852777 -0.9892138473
16400201600.0 0.0654232961 -0.9901879852
16450201300.0 0.0498894004 -0.9913243901
16500201000.0 0.0326533039 -0.9919891645
16550200700.0 0.0165877949 -0.9925240507
16600200400.0 0.0007867919 -0.9925905346
16650200100.0 -0.0157301157 -0.9925348881
16700199800.0 -0.0317831635 -0.9921261525
16750199500.0 -0.0512970924 -0.9915490387
16800199200.0 -0.066464619 -0.9907134086
16850198900.0 -0.0819055871 -0.9887669416
16900198600.0 -0.096939847 -0.9885427387
16950198300.0 -0.110226669 -0.9877809651
17000198000.0 -0.1229183472 -0.9858679358
17050197700.0 -0.1351967052 -0.9834889338
17100197400.0 -0.1486293563 -0.9820265122
17150197100.0 -0.1615884586 -0.9796340775
17200196800.0 -0.1741403005 -0.9779917341
17250196500.0 -0.1871036393 -0.9752485168
17300196200.0 -0.1992640157 -0.9729253957
17350195900.0 -0.2111780661 -0.9707884935
17400195600.0 -0.2232514678 -0.9681623961
17450195300.0 -0.2359590248 -0.965333121
17500195000.0 -0.2492716396 -0.9622389216
17550194700.0 -0.263093792 -0.9586065892
17600194400.0 -0.2768223235 -0.9546972798
17650194100.0 -0.2904301127 -0.9506699939
17700193800.0 -0.3035075184 -0.9461854094
17750193500.0 -0.3177703134 -0.9418107666
17800193200.0 -0.3316551902 -0.9366968012
17850192900.0 -0.3468273055 -0.9312814562
17900192600.0 -0.3617839952 -0.9249368927
17950192300.0 -0.3770468352 -0.9177951952
18000192000.0 -0.3921647677 -0.9108756446
18050191700.0 -0.4058649802 -0.9026784747
18100191400.0 -0.4198714939 -0.8950733945
18150191100.0 -0.4347342745 -0.8871827405
18200190800.0 -0.4516937582 -0.8778786862
18250190500.0 -0.4685845615 -0.8685566761
18300190200.0 -0.4839476918 -0.8593203313
18350189900.0 -0.4991824466 -0.8511440791
18400189600.0 -0.5143213195 -0.8428621161
18450189300.0 -0.5275080777 -0.8345038728
18500189000.0 -0.5410385983 -0.8268057385
18550188700.0 -0.55380182 -0.8188881185
18600188400.0 -0.5660763743 -0.811944964
18650188100.0 -0.5768319822 -0.8054821446
18700187800.0 -0.5880043061 -0.798837399
18750187500.0 -0.5985209353 -0.7921873327
18800187200.0 -0.6093183895 -0.7853218719
18850186900.0 -0.6195904883 -0.7783587879
18900186600.0 -0.6300522104 -0.7709375005
18950186300.0 -0.6401326303 -0.7632193451
19000186000.0 -0.6478513359 -0.7569442643
19050185700.0 -0.6571610979 -0.7501694791
19100185400.0 -0.667187659 -0.7417090031
19150185100.0 -0.6771871132 -0.7329411488
19200184800.0 -0.6863908069 -0.7250338282
19250184500.0 -0.6965752992 -0.7155742734
19300184200.0 -0.7080316986 -0.706504299
19350183900.0 -0.7187101754 -0.6967203132
19400183600.0 -0.7280088285 -0.6866420173
19450183300.0 -0.7372268857 -0.6767623254
19500183000.0 -0.745613788 -0.6661537463
19550182700.0 -0.7553451972 -0.6557932367
19600182400.0 -0.7653076926 -0.6443473643
19650182100.0 -0.7758687555 -0.6319087202
19700181800.0 -0.7864555475 -0.61851973
19750181500.0 -0.796553925 -0.604541882
19800181200.0 -0.8069267589 -0.5895659535
19850180900.0 -0.8163078386 -0.5743061742
19900180600.0 -0.8240514269 -0.5599460949
19950180300.0 -0.8330803425 -0.5436040301
20000180000.0 -0.8229778914 -0.5466322821
20050179700.0 -0.8307755937 -0.5342633611
20100179400.0 -0.8399574128 -0.5212633548
20150179100.0 -0.8473791808 -0.5094943112
20200178800.0 -0.8562029119 -0.4975922023
20250178500.0 -0.8654985475 -0.4855838536
20300178200.0 -0.8745648083 -0.4717930024
20350177900.0 -0.8842395647 -0.4575258691
20400177600.0 -0.8939556222 -0.4436599551
20450177300.0 -0.902308353 -0.4294270378
20500177000.0 -0.9100692984 -0.4153876952
20550176700.0 -0.9178333885 -0.4018346591
20600176400.0 -0.9246880878 -0.3888607166
20650176100.0 -0.9313340791 -0.3767600301
20700175800.0 -0.9386054269 -0.364875579
20750175500.0 -0.9448171421 -0.3533160322
20800175200.0 -0.9491802569 -0.3428663705
20850174900.0 -0.9535622528 -0.3315903432
20900174600.0 -0.9582291118 -0.3218117745
20950174300.0 -0.9613326979 -0.3102195622
21000174000.0 -0.9645790522 -0.2989757405
21050173700.0 -0.9658568675 -0.289728465
21100173400.0 -0.969559612 -0.278891123
21150173100.0 -0.9724647797 -0.2667367874
21200172800.0 -0.9766624329 -0.2529931495
21250172500.0 -0.9803718584 -0.239699719
21300172200.0 -0.9841887325 -0.2256640036
21350171900.0 -0.9859610068 -0.2114363753
21400171600.0 -0.9881088988 -0.1973615237
21450171300.0 -0.9883166326 -0.1827671968
21500171000.0 -0.9890060439 -0.168261279
21550170700.0 -0.9896018274 -0.1535801746
21600170400.0 -0.9899289683 -0.1378928078
21650170100.0 -0.9907404257 -0.1219760085
21700169800.0 -0.9895821358 -0.107109825
21750169500.0 -0.9900885691 -0.0908424218
21800169200.0 -0.9891877206 -0.0737352176
21850168900.0 -0.9899321328 -0.0571429544
21900168600.0 -0.9888821308 -0.0407425355
21950168300.0 -0.9889765533 -0.0254002705
22000168000.0 -0.9890415925 -0.0106054023
22050167700.0 -0.9896190599 0.0041949063
22100167400.0 -0.9903360165 0.0198676757
22150167100.0 -0.9912487495 0.0359796241
22200166800.0 -0.9917556307 0.0524154897
22250166500.0 -0.9916347472 0.0692609443
22300166200.0 -0.9918276842 0.0859661599
22350165900.0 -0.9884695965 0.1025375431
22400165600.0 -0.9874160154 0.1177897158
22450165300.0 -0.9867058663 0.132991898
22500165000.0 -0.98474886 0.146942435
22550164700.0 -0.9832506341 0.1635399614
22600164400.0 -0.9803883667 0.1799316177
22650164100.0 -0.9788920877 0.1949387224
22700163800.0 -0.9742362062 0.211806085
22750163500.0 -0.972545449 0.2268152213
22800163200.0 -0.9687843646 0.2390670954
22850162900.0 -0.9663516201 0.2526357819
22900162600.0 -0.9646777977 0.2663385106
22950162300.0 -0.9627640749 0.2803985966
23000162000.0 -0.9610516773 0.2927335483
23050161700.0 -0.9588949141 0.3060557104
23100161400.0 -0.9561996521 0.3199940511
23150161100.0 -0.9524834024 0.3323564657
23200160800.0 -0.949595921 0.3462139793
23250160500.0 -0.9468654932 0.3581346113
23300160200.0 -0.9445465871 0.3713285154
23350159900.0 -0.9405258534 0.3844749691
23400159600.0 -0.9350367789 0.3981475129
23450159300.0 -0.9296395948 0.4117203423
23500159000.0 -0.9254896643 0.425169714
23550158700.0 -0.9201286693 0.4396342848
23600158400.0 -0.9142245593 0.453561681
23650158100.0 -0.9069100449 0.4684395268
23700157800.0 -0.8985784236 0.4825399479
23750157500.0 -0.8892295904 0.4969819971
23800157200.0 -0.8795155198 0.5102888029
23850156900.0 -0.870149985 0.5232059242
23900156600.0 -0.8603034735 0.5357145922
23950156300.0 -0.8500871559 0.5483523808
24000156000.0 -0.8412397743 0.5604152105
24050155700.0 -0.8307358012 0.5727263022
24100155400.0 -0.8198469178 0.5858522355
24150155100.0 -0.8097350877 0.5970265583
24200154800.0 -0.7969067028 0.6090192005
24250154500.0 -0.7862882768 0.6211460284
24300154200.0 -0.7755488544 0.6335007739
24350153900.0 -0.763089471 0.6446610482
24400153600.0 -0.7504852778 0.6553316236
24450153300.0 -0.7384495474 0.6652751621
24500153000.0 -0.7270103901 0.6752028001
24550152700.0 -0.7159856712 0.685634117
24600152400.0 -0.7035173022 0.6949527571
24650152100.0 -0.6918402602 0.7034916306
