!Created with skrf (http://scikit-rf.org).
# Hz S RI R 50.0 
!freq ReS11 ImS11
300000.0 -0.9749023073 -0.1210209375
50299700.0 -0.9998472781 0.0150269101
100299400.0 -0.9977798802 0.0280796195
150299100.0 -1.002650557 0.0448235018
200298800.0 -0.9995746599 0.0580861762
250298500.0 -0.9971044043 0.0716753387
300298200.0 -0.9858987944 0.0874400164
350297900.0 -0.9940112146 0.0983417497
400297600.0 -0.9932325288 0.115032763
450297300.0 -0.9910765096 0.1287627795
500297000.0 -0.9893258522 0.1435282986
550296700.0 -0.9845344035 0.1558715779
600296400.0 -1.017367125 0.1889908836
650296100.0 -0.9822682929 0.185948382
700295800.0 -0.9794357775 0.2001353871
750295500.0 -0.9762814736 0.2142280605
800295200.0 -0.9729625398 0.2282007634
850294900.0 -0.9695024501 0.2419145691
900294600.0 -0.9657299119 0.2557470481
950294300.0 -0.9621481149 0.2692207743
1000294000.0 -0.9580966964 0.2832089583
1050293700.0 -0.9537635671 0.2972349646
1100293400.0 -0.9493670777 0.311538803
1150293100.0 -0.9456421552 0.3235160094
1200292800.0 -0.9401761284 0.3378913606
1250292500.0 -0.9346526018 0.3514139187
1300292200.0 -0.9287394218 0.3645649333
1350291900.0 -0.9234406971 0.3786021179
1400291600.0 -0.9179139231 0.3916377283
1450291300.0 -0.9124131001 0.4039797121
1500291000.0 -0.9062226455 0.4174381588
1550290700.0 -0.8995919942 0.4307907902
1600290400.0 -0.8935501463 0.4437665861
1650290100.0 -0.8868126021 0.4558490474
1700289800.0 -0.8798527476 0.4693653688
1750289500.0 -0.873016144 0.4815888728
1800289200.0 -0.8654875654 0.4945061874
1850288900.0 -0.8587954893 0.5059046782
1900288600.0 -0.8509153511 0.5189681231
1950288300.0 -0.8428792732 0.5312539197
2000288000.0 -0.835316663 0.5427995005
2050287700.0 -0.8273023945 0.555190925
2100287400.0 -0.8194793532 0.5666529221
2150287100.0 -0.8109354697 0.5787906759
2200286800.0 -0.8030428999 0.5891633117
2250286500.0 -0.7939861584 0.6012716245
2300286200.0 -0.7851075346 0.6128444097
2350285900.0 -0.7768253064 0.6235734969
2400285600.0 -0.7679403371 0.6345410303
2450285300.0 -0.7590510733 0.6452535098
2500285000.0 -0.7493313034 0.6566396735
2550284700.0 -0.7401992744 0.6669997976
2600284400.0 -0.7309283485 0.6767925278
2650284100.0 -0.722279005 0.6873780943
2700283800.0 -0.7118571973 0.697591965
2750283500.0 -0.7013814769 0.7083287265
2800283200.0 -0.6915531982 0.7181559735
2850282900.0 -0.6810838058 0.7282414723
2900282600.0 -0.6709230195 0.73789115
2950282300.0 -0.6603326679 0.7471078402
3000282000.0 -0.64962829 0.7565528064
3050281700.0 -0.6383513741 0.7659325187
3100281400.0 -0.6268760757 0.7751681619
3150281100.0 -0.6155171761 0.7840411335
3200280800.0 -0.6038819033 0.792594397
3250280500.0 -0.5930249566 0.8003572138
3300280200.0 -0.5813955033 0.8085560155
3350279900.0 -0.5692162408 0.8164809162
3400279600.0 -0.5566459657 0.8242712199
3450279300.0 -0.545789185 0.8316846307
3500279000.0 -0.5339564323 0.8384466019
3550278700.0 -0.5216708538 0.8455027833
3600278400.0 -0.5097622553 0.8523617305
3650278100.0 -0.4966977207 0.8601810296
3700277800.0 -0.4847841363 0.8664789858
3750277500.0 -0.4722137159 0.8731805598
3800277200.0 -0.459976907 0.8797222017
3850276900.0 -0.4477038264 0.885776798
3900276600.0 -0.4368346398 0.8912204037
3950276300.0 -0.424726207 0.8971044213
4000276000.0 -0.4129465491 0.9031246039
4050275700.0 -0.4002099186 0.9092219111
4100275400.0 -0.3891250565 0.9147163088
4150275100.0 -0.3759270875 0.9205617343
4200274800.0 -0.3626152416 0.9261013701
4250274500.0 -0.3499806016 0.9312846044
4300274200.0 -0.3369175691 0.9367445683
4350273900.0 -0.3226872217 0.9422367615
4400273600.0 -0.3079338679 0.9473136335
4450273300.0 -0.2931468039 0.9521561261
4500273000.0 -0.2795385787 0.9564804325
4550272700.0 -0.2660828018 0.9606358717
4600272400.0 -0.2507469428 0.9647805008
4650272100.0 -0.2393981621 0.9678562476
4700271800.0 -0.2265132394 0.9712041338
4750271500.0 -0.2147194127 0.9740909396
4800271200.0 -0.2023267941 0.9767604113
4850270900.0 -0.1885749846 0.9795941373
4900270600.0 -0.1748362063 0.9821099451
4950270300.0 -0.1603925025 0.9847621011
5000270000.0 -0.145902803 0.9866337739
5050269700.0 -0.1324944103 0.9882972439
5100269400.0 -0.1183719745 0.9905096341
5150269100.0 -0.1043719435 0.9916060952
5200268800.0 -0.0910220023 0.9926761894
5250268500.0 -0.0780962376 0.9937127031
5300268200.0 -0.0644927578 0.9944970427
5350267900.0 -0.0517356847 0.9951993529
5400267600.0 -0.0357965507 0.9961278052
5450267300.0 -0.0223114584 0.9965300974
5500267000.0 -0.007118088 0.9969971222
5550266700.0 0.0077942505 0.9970824864
5600266400.0 0.0236677341 0.9972742643
5650266100.0 0.0401841013 0.9970448067
5700265800.0 0.0543294641 0.9958272588
5750265500.0 0.0694884466 0.9951908531
5800265200.0 0.0832125278 0.9944566849
5850264900.0 0.0962633098 0.9931699252
5900264600.0 0.1125476472 0.9912245797
5950264300.0 0.124586135 0.9895379573
6000264000.0 0.1380045263 0.9879135867
6050263700.0 0.1498318379 0.9866167951
6100263400.0 0.162223059 0.9852335289
6150263100.0 0.1768020771 0.9826490997
6200262800.0 0.1866473931 0.980939833
6250262500.0 0.1992484937 0.9785484925
6300262200.0 0.2115669917 0.9760933975
6350261900.0 0.2246724956 0.9734627656
6400261600.0 0.238617453 0.9701026895
6450261300.0 0.2496444353 0.9674964289
6500261000.0 0.2626871935 0.9637367053
6550260700.0 0.27588958 0.9597885456
6600260400.0 0.2890853953 0.9557489325
6650260100.0 0.3036409048 0.9517987896
6700259800.0 0.3154856605 0.9471907444
6750259500.0 0.3290421096 0.9423259624
6800259200.0 0.3424342847 0.9371468499
6850258900.0 0.3550771797 0.9319100702
6900258600.0 0.3675489924 0.9266591963
6950258300.0 0.3801232845 0.9214813588
7000258000.0 0.3916721881 0.9161624593
7050257700.0 0.40372744 0.9103927579
7100257400.0 0.4169796495 0.9039883941
7150257100.0 0.4276081838 0.8985130315
7200256800.0 0.4405638498 0.8920884008
7250256500.0 0.4531019005 0.8855602156
7300256200.0 0.4660469682 0.8786454592
7350255900.0 0.4786975702 0.8714832412
7400255600.0 0.4926759317 0.864000543
7450255300.0 0.5082996957 0.8550330599
7500255000.0 0.5208775048 0.8478806022
7550254700.0 0.5343934241 0.8386450286
7600254400.0 0.5470401574 0.8303096755
7650254100.0 0.5589441071 0.8227304737
7700253800.0 0.5703403602 0.8145944215
7750253500.0 0.5811869162 0.8068135745
7800253200.0 0.5921108885 0.7990310942
7850252900.0 0.6016705157 0.7918398761
7900252600.0 0.6134831631 0.7829250932
7950252300.0 0.6219286336 0.7766213532
8000252000.0 0.6319483072 0.7689864721
8050251700.0 0.6421951658 0.7610169587
8100251400.0 0.6523333375 0.7530634731
8150251100.0 0.6619820315 0.7443882419
8200250800.0 0.6718795468 0.7361915028
8250250500.0 0.6805267646 0.7283187465
8300250200.0 0.6895039146 0.7200176809
8350249900.0 0.6991242119 0.7111309328
8400249600.0 0.7070281065 0.7031622001
8450249300.0 0.715609545 0.6943516105
8500249000.0 0.724397535 0.6853530101
8550248700.0 0.7324105342 0.676306073
8600248400.0 0.7410000069 0.666987502
8650248100.0 0.748643968 0.6575016731
8700247800.0 0.7580134278 0.6464943264
8750247500.0 0.7665112129 0.6361396066
8800247200.0 0.7744685661 0.6260506773
8850246900.0 0.7829946878 0.6146635411
8900246600.0 0.7914540576 0.6032903226
8950246300.0 0.8006211463 0.5906973466
9000246000.0 0.8094791639 0.5782817476
9050245700.0 0.8181748066 0.5661378311
9100245400.0 0.8260741304 0.5537617611
9150245100.0 0.8353348096 0.540799761
9200244800.0 0.845025445 0.5260903029
9250244500.0 0.8541672921 0.5110754525
9300244200.0 0.8622811072 0.4973367455
9350243900.0 0.8700642074 0.4840624163
9400243600.0 0.8763962594 0.4722102214
9450243300.0 0.8823162675 0.4614884682
9500243000.0 0.8885674858 0.4497501942
9550242700.0 0.8926019015 0.4420692657
9600242400.0 0.8967335749 0.4346201698
9650242100.0 0.9004159637 0.4278809894
9700241800.0 0.9056592802 0.4192176879
9750241500.0 0.9096309571 0.4116554685
9800241200.0 0.9145580668 0.4022637038
9850240900.0 0.9203246224 0.3903615079
9900240600.0 0.9264436388 0.3785655513
9950240300.0 0.9331210908 0.3621682663
10000240000.0 0.9386392149 0.3502744253
10050239700.0 0.943936651 0.3342153259
10100239400.0 0.9495763079 0.3178678514
10150239100.0 0.9539595628 0.3028323803
10200238800.0 0.958193651 0.2874369133
10250238500.0 0.9615488173 0.2738336846
10300238200.0 0.964741804 0.2599359327
10350237900.0 0.9673696243 0.2468218791
10400237600.0 0.9699855455 0.2330348777
10450237300.0 0.972525835 0.2198930162
10500237000.0 0.9751287248 0.2066822875
10550236700.0 0.9771532373 0.1927287292
10600236400.0 0.979020306 0.1791891401
10650236100.0 0.9812273148 0.1643621027
10700235800.0 0.9839515388 0.1520728333
10750235500.0 0.9858395839 0.1386648498
10800235200.0 0.987973154 0.1241881239
10850234900.0 0.9900588641 0.1095581928
10900234600.0 0.9919457945 0.0950183404
10950234300.0 0.9937531167 0.0813729227
11000234000.0 0.9954020272 0.0658335257
11050233700.0 0.9972766063 0.0490802203
11100233400.0 0.9986171194 0.0315117445
11150233100.0 0.9998053425 0.0149561403
11200232800.0 1.000698138 -0.0007593248
11250232500.0 1.001596355 -0.0180364206
11300232200.0 1.00228205 -0.0378091004
11350231900.0 1.00179179 -0.0527033212
11400231600.0 1.001443448 -0.0682360655
11450231300.0 1.000880961 -0.0841976638
11500231000.0 0.9998441386 -0.1002705017
11550230700.0 0.9979762628 -0.1133571495
11600230400.0 0.997486779 -0.1256768314
11650230100.0 0.9947882093 -0.1379853473
11700229800.0 0.9928225571 -0.1525062913
11750229500.0 0.9903993704 -0.167053381
11800229200.0 0.9876407014 -0.1805869368
11850228900.0 0.9838916023 -0.1925218934
11900228600.0 0.9798333799 -0.201995319
11950228300.0 0.9768440901 -0.2119538671
12000228000.0 0.9742074352 -0.2209993605
12050227700.0 0.9704852507 -0.2337530393
12100227400.0 0.9671916267 -0.2447576281
12150227100.0 0.9626989554 -0.2612071797
12200226800.0 0.958204682 -0.2727482522
12250226500.0 0.9542343107 -0.2855188218
12300226200.0 0.9500199136 -0.2974633589
12350225900.0 0.9453266038 -0.3110977188
12400225600.0 0.9405568339 -0.3238133416
12450225300.0 0.936054599 -0.3363564886
12500225000.0 0.9308683729 -0.3505604607
12550224700.0 0.9251987907 -0.3647328407
12600224400.0 0.9204050453 -0.3774784445
12650224100.0 0.9146215652 -0.3918344226
12700223800.0 0.9094419322 -0.4045930077
12750223500.0 0.9037069827 -0.4178358009
12800223200.0 0.8984019709 -0.4302868046
12850222900.0 0.8929145174 -0.4425049873
12900222600.0 0.8876851483 -0.4541306787
12950222300.0 0.8814845355 -0.466998316
13000222000.0 0.8756382708 -0.4782636669
13050221700.0 0.8689003352 -0.4917531666
13100221400.0 0.8619201464 -0.5032288426
13150221100.0 0.8546615871 -0.5161211528
13200220800.0 0.8482515578 -0.5271474414
13250220500.0 0.8408653857 -0.5396053086
13300220200.0 0.8334626528 -0.5504971926
13350219900.0 0.8251874764 -0.5625438684
13400219600.0 0.816827321 -0.5743966105
13450219300.0 0.8077219543 -0.5875955447
13500219000.0 0.7975311997 -0.601086653
13550218700.0 0.7881485397 -0.6132892241
13600218400.0 0.7774660105 -0.625386679
13650218100.0 0.7687968515 -0.6359584525
13700217800.0 0.7570502406 -0.6482575875
13750217500.0 0.7478104442 -0.6585381866
13800217200.0 0.736928423 -0.6705065191
13850216900.0 0.7264774286 -0.681450145
13900216600.0 0.7160363489 -0.6899406856
13950216300.0 0.7052151379 -0.7008634127
14000216000.0 0.6953857123 -0.7089946889
14050215700.0 0.685995599 -0.7173660109
14100215400.0 0.6767920756 -0.7261825346
14150215100.0 0.6671463074 -0.735686752
14200214800.0 0.6577513778 -0.7443214805
14250214500.0 0.6475243751 -0.7536404368
14300214200.0 0.6369936701 -0.7631846862
14350213900.0 0.6257580894 -0.7726374085
14400213600.0 0.6141300554 -0.7824893171
14450213300.0 0.601385957 -0.7924092027
14500213000.0 0.5880839968 -0.8025918001
14550212700.0 0.5752364254 -0.8125830541
14600212400.0 0.5632509207 -0.8207598324
14650212100.0 0.5506452223 -0.8291626698
14700211800.0 0.5368594408 -0.8390690353
14750211500.0 0.5246001091 -0.8475739096
14800211200.0 0.5120701883 -0.8555049561
14850210900.0 0.4997861589 -0.8632212241
14900210600.0 0.4864663098 -0.8709919035
14950210300.0 0.4732560648 -0.878619494
15000210000.0 0.4606553184 -0.885351584
15050209700.0 0.4481297731 -0.8916358143
15100209400.0 0.4351602375 -0.8978190043
15150209100.0 0.4230785688 -0.9027363505
15200208800.0 0.410597183 -0.9082849144
15250208500.0 0.399100863 -0.9128364097
15300208200.0 0.3873590702 -0.9169027051
15350207900.0 0.3739737023 -0.9223838464
15400207600.0 0.3592641489 -0.9273930918
15450207300.0 0.3447226663 -0.9327246087
15500207000.0 0.329891026 -0.9374447768
15550206700.0 0.3153223334 -0.9426035247
15600206400.0 0.2996363295 -0.9470474315
15650206100.0 0.284017199 -0.950575862
15700205800.0 0.2699476648 -0.9547763102
15750205500.0 0.255734127 -0.9581556804
15800205200.0 0.2418171939 -0.9614124495
15850204900.0 0.2276632554 -0.9649204222
15900204600.0 0.2124945019 -0.9685114
15950204300.0 0.1980845569 -0.9715085315
16000204000.0 0.1838298024 -0.9746930662
16050203700.0 0.1685870149 -0.977266333
16100203400.0 0.1535939286 -0.9795571717
16150203100.0 0.139569932 -0.9819009511
16200202800.0 0.1250411718 -0.9845687023
16250202500.0 0.110344139 -0.9860210871
16300202200.0 0.0947925659 -0.9875623184
16350201900.0 0.0796992215 -0.9888400718
16400201600.0 0.0651847973 -0.990199805
16450201300.0 0.0495489088 -0.9912050926
16500201000.0 0.0327135326 -0.9920740426
16550200700.0 0.0167227979 -0.9925443425
16600200400.0 0.0008652431 -0.9928540775
16650200100.0 -0.0151107813 -0.9928842129
16700199800.0 -0.0316713333 -0.9922227959
16750199500.0 -0.0507696264 -0.9914768188
16800199200.0 -0.066837965 -0.9905918775
16850198900.0 -0.0817533155 -0.9892339555
16900198600.0 -0.0957605479 -0.9879768919
16950198300.0 -0.1093088669 -0.9877234387
17000198000.0 -0.1227676031 -0.9864207421
17050197700.0 -0.134955252 -0.9844322882
17100197400.0 -0.1481243769 -0.981629475
17150197100.0 -0.1612238254 -0.9799205752
17200196800.0 -0.1739225778 -0.9777930888
17250196500.0 -0.1867961427 -0.9751719169
17300196200.0 -0.1989401997 -0.973511187
17350195900.0 -0.2106696909 -0.9708190871
17400195600.0 -0.2227299254 -0.9682171501
17450195300.0 -0.2357694558 -0.9654000312
17500195000.0 -0.2489944217 -0.9622616967
17550194700.0 -0.2628929248 -0.9587248473
17600194400.0 -0.2764610757 -0.9546234678
17650194100.0 -0.2903319253 -0.9505826885
17700193800.0 -0.3031758891 -0.9463779137
17750193500.0 -0.3172717851 -0.9419308292
17800193200.0 -0.3314778523 -0.9367565383
17850192900.0 -0.3467073576 -0.930992738
17900192600.0 -0.3614922045 -0.9250814382
17950192300.0 -0.3773889979 -0.9181060025
18000192000.0 -0.3919395338 -0.910816713
18050191700.0 -0.4058726886 -0.9025353077
18100191400.0 -0.4199338565 -0.8950886243
18150191100.0 -0.4348354189 -0.8871036611
18200190800.0 -0.4517200773 -0.8778744438
18250190500.0 -0.468779827 -0.8684740575
18300190200.0 -0.4839567971 -0.8598568335
18350189900.0 -0.4991003628 -0.8514585337
18400189600.0 -0.5141329655 -0.8435096733
18450189300.0 -0.5270778993 -0.8348207838
18500189000.0 -0.5405541461 -0.8268062275
18550188700.0 -0.5534892228 -0.8189398678
18600188400.0 -0.5653246198 -0.8127876359
18650188100.0 -0.5766606393 -0.8059302238
18700187800.0 -0.5873258783 -0.7990830928
18750187500.0 -0.598212654 -0.7925636735
18800187200.0 -0.6090095467 -0.7856483039
18850186900.0 -0.6190642297 -0.7788708207
18900186600.0 -0.6292463821 -0.7714402277
18950186300.0 -0.6398631505 -0.7637332488
19000186000.0 -0.6473333127 -0.7574968294
19050185700.0 -0.6563962215 -0.7503714092
19100185400.0 -0.6662646212 -0.7424944796
19150185100.0 -0.6760737845 -0.7340072748
19200184800.0 -0.6857941562 -0.7252250003
19250184500.0 -0.696485909 -0.7166219845
19300184200.0 -0.7074428319 -0.7064459996
19350183900.0 -0.7175730668 -0.6970015832
19400183600.0 -0.7273200995 -0.6872755625
19450183300.0 -0.7362567785 -0.6766542282
19500183000.0 -0.7453573187 -0.6668809467
19550182700.0 -0.7540428168 -0.6562707877
19600182400.0 -0.764984861 -0.6443090964
19650182100.0 -0.7754475513 -0.6322215107
19700181800.0 -0.786171951 -0.6189828379
19750181500.0 -0.796490104 -0.6047599683
19800181200.0 -0.8068837361 -0.5898087213
19850180900.0 -0.8163629612 -0.5745432367
19900180600.0 -0.8240651112 -0.5599637534
19950180300.0 -0.8331854566 -0.5435159432
20000180000.0 -0.8237998824 -0.5468262873
20050179700.0 -0.8320899323 -0.534008532
20100179400.0 -0.8396535424 -0.5211513423
20150179100.0 -0.8484761933 -0.509187898
20200178800.0 -0.857505538 -0.4975965725
20250178500.0 -0.8658945266 -0.484600396
20300178200.0 -0.87620599 -0.4701326293
20350177900.0 -0.8855637727 -0.4563520968
20400177600.0 -0.8945473358 -0.4420455159
20450177300.0 -0.9025020385 -0.4279649902
20500177000.0 -0.9105726422 -0.4141477282
20550176700.0 -0.9186833299 -0.4008025686
20600176400.0 -0.9259022232 -0.3877303416
20650176100.0 -0.9323342976 -0.375421649
20700175800.0 -0.9391052815 -0.3636367695
20750175500.0 -0.9448909738 -0.3513446953
20800175200.0 -0.949608528 -0.3411895698
20850174900.0 -0.9547528399 -0.3304861559
20900174600.0 -0.9584482856 -0.3197275808
20950174300.0 -0.9631619512 -0.307119876
21000174000.0 -0.9650688532 -0.2971492987
21050173700.0 -0.9670688426 -0.2879901406
21100173400.0 -0.9706350059 -0.2769898201
21150173100.0 -0.9741979848 -0.2638508585
21200172800.0 -0.9785987988 -0.2511144547
21250172500.0 -0.9821246005 -0.2374257004
21300172200.0 -0.9855356188 -0.2231621757
21350171900.0 -0.987589656 -0.2085026613
21400171600.0 -0.9886156565 -0.1948150992
21450171300.0 -0.9891502955 -0.1803009874
21500171000.0 -0.9897897634 -0.1659536911
21550170700.0 -0.9904470667 -0.1502951468
21600170400.0 -0.9904651855 -0.1337130112
21650170100.0 -0.9906004599 -0.1195723246
21700169800.0 -0.989740879 -0.1032214886
21750169500.0 -0.9901007219 -0.0879186804
21800169200.0 -0.9899280259 -0.0717233507
21850168900.0 -0.9902567076 -0.0541627563
21900168600.0 -0.9885173894 -0.0385544635
21950168300.0 -0.9885558588 -0.0225129449
22000168000.0 -0.9882578489 -0.0075256793
22050167700.0 -0.9882826154 0.0071042971
22100167400.0 -0.9889518639 0.0227287134
22150167100.0 -0.9895024168 0.0386279158
22200166800.0 -0.9900095124 0.0554588812
22250166500.0 -0.9895148069 0.0729132965
22300166200.0 -0.9891328153 0.0889822814
22350165900.0 -0.9877914262 0.1049977926
22400165600.0 -0.9863484096 0.1198813351
22450165300.0 -0.9846339628 0.1356916874
22500165000.0 -0.9827575571 0.1498469238
22550164700.0 -0.9815128739 0.1658451893
22600164400.0 -0.9793913485 0.1823121715
22650164100.0 -0.9761941341 0.1975884151
22700163800.0 -0.9740808845 0.2135438191
22750163500.0 -0.971702155 0.22810398
22800163200.0 -0.9682652655 0.2413540831
22850162900.0 -0.9652989981 0.2547392005
22900162600.0 -0.9637218291 0.2685811923
22950162300.0 -0.9619558604 0.2819330873
23000162000.0 -0.9602858088 0.2942957171
23050161700.0 -0.9574852223 0.3078905355
23100161400.0 -0.9553032717 0.3210550863
23150161100.0 -0.9526032447 0.3341013211
23200160800.0 -0.9492413447 0.3461471612
23250160500.0 -0.9463309193 0.3591147995
23300160200.0 -0.9435689369 0.3713081085
23350159900.0 -0.9396532507 0.3853749968
23400159600.0 -0.9345167691 0.3986756155
23450159300.0 -0.9301032576 0.4125516497
23500159000.0 -0.9246061659 0.4252958497
23550158700.0 -0.9202500354 0.4396140131
23600158400.0 -0.9143470382 0.4533268502
23650158100.0 -0.9072842931 0.4680244678
23700157800.0 -0.8990212295 0.4821642556
23750157500.0 -0.8899190153 0.4962615946
23800157200.0 -0.8804590361 0.5095772163
23850156900.0 -0.8704506163 0.5226015503
23900156600.0 -0.8607370113 0.5352371287
23950156300.0 -0.8512756272 0.5480764356
24000156000.0 -0.8424757789 0.5594917565
24050155700.0 -0.8311912579 0.5718582573
24100155400.0 -0.8215119548 0.5844698936
24150155100.0 -0.8107106182 0.5965284234
24200154800.0 -0.8002503152 0.6086238011
24250154500.0 -0.7886949699 0.6202716132
24300154200.0 -0.7768779441 0.6325421338
24350153900.0 -0.7644816926 0.6433572912
24400153600.0 -0.7525072985 0.6539101168
24450153300.0 -0.7408658113 0.6641064383
24500153000.0 -0.7291037829 0.6739796283
24550152700.0 -0.7182956767 0.6839103006
24600152400.0 -0.7064007746 0.6929911026
24650152100.0 -0.6939046244 0.7020154207
