!Created with skrf (http://scikit-rf.org).
# Hz S RI R 50.0 
!freq ReS11 ImS11
300000.0 -0.976037089 -0.1191867229
50299700.0 -0.9999645652 0.0154600234
100299400.0 -0.9981994657 0.0282857983
150299100.0 -1.002877235 0.0452086682
200298800.0 -0.9996042254 0.0586559907
250298500.0 -0.9974275658 0.0720480374
300298200.0 -0.9860099027 0.0878930294
350297900.0 -0.9939898004 0.098749429
400297600.0 -0.993109293 0.1152860901
450297300.0 -0.9910698263 0.1291679023
500297000.0 -0.9895246439 0.1439425845
550296700.0 -0.9842839994 0.1563791433
600296400.0 -1.017228254 0.1895332963
650296100.0 -0.9822542776 0.1862394628
700295800.0 -0.9792679278 0.2005496547
750295500.0 -0.9763461671 0.2145900359
800295200.0 -0.9730906593 0.2288137006
850294900.0 -0.9697057999 0.2425879191
900294600.0 -0.9658372424 0.2563056453
950294300.0 -0.9620362375 0.2699812706
1000294000.0 -0.9583194735 0.2838839674
1050293700.0 -0.9534612 0.2976648906
1100293400.0 -0.9494075882 0.3122372652
1150293100.0 -0.9453552069 0.3240931771
1200292800.0 -0.9401363499 0.3383687545
1250292500.0 -0.9346124425 0.351658205
1300292200.0 -0.9288243853 0.364959958
1350291900.0 -0.9230771037 0.3790656307
1400291600.0 -0.9179351511 0.3920930411
1450291300.0 -0.9124612716 0.4044234591
1500291000.0 -0.9063355723 0.4177590787
1550290700.0 -0.8997070012 0.4313301672
1600290400.0 -0.8931840315 0.4439423684
1650290100.0 -0.8867327606 0.4562079008
1700289800.0 -0.8798237462 0.4695567243
1750289500.0 -0.8727056954 0.481891725
1800289200.0 -0.8654585209 0.4949385939
1850288900.0 -0.8588820916 0.5061983618
1900288600.0 -0.8509155727 0.5192348109
1950288300.0 -0.8426726517 0.5317512293
2000288000.0 -0.8354623793 0.5431126987
2050287700.0 -0.8269702165 0.5554777202
2100287400.0 -0.8191351744 0.5672839159
2150287100.0 -0.8103953597 0.5792393712
2200286800.0 -0.8027973257 0.5894529006
2250286500.0 -0.7941723154 0.6016928839
2300286200.0 -0.7849825089 0.6134488912
2350285900.0 -0.7762738556 0.6242891631
2400285600.0 -0.7675310181 0.6351904025
2450285300.0 -0.7588724744 0.645662955
2500285000.0 -0.7490739662 0.6570982774
2550284700.0 -0.7402190279 0.6672565
2600284400.0 -0.7308127081 0.6774539618
2650284100.0 -0.7218787284 0.687629035
2700283800.0 -0.7110038727 0.6982664926
2750283500.0 -0.7011250536 0.7092956911
2800283200.0 -0.6912298778 0.7188160503
2850282900.0 -0.6808239613 0.7284081915
2900282600.0 -0.6703374834 0.7381650091
2950282300.0 -0.6605027213 0.747386593
3000282000.0 -0.6497967492 0.7569096988
3050281700.0 -0.6383850918 0.7660313075
3100281400.0 -0.6267352568 0.7755133737
3150281100.0 -0.6147451076 0.7848741212
3200280800.0 -0.6032161681 0.7933858001
3250280500.0 -0.5923756472 0.8011182137
3300280200.0 -0.581007915 0.8088630171
3350279900.0 -0.5693893781 0.8164069749
3400279600.0 -0.5573985008 0.8241395666
3450279300.0 -0.5460862616 0.8312327657
3500279000.0 -0.5340929747 0.8382842523
3550278700.0 -0.5218090411 0.8458345127
3600278400.0 -0.5094649255 0.8530510259
3650278100.0 -0.4962420611 0.8604425877
3700277800.0 -0.4842872082 0.8667650021
3750277500.0 -0.4721917336 0.8734240631
3800277200.0 -0.4595581166 0.8800360896
3850276900.0 -0.4475522425 0.8857815674
3900276600.0 -0.4367319413 0.8915804853
3950276300.0 -0.4241772089 0.8976135304
4000276000.0 -0.4123434066 0.9034711863
4050275700.0 -0.3992960752 0.9096775236
4100275400.0 -0.3883772456 0.9151080037
4150275100.0 -0.3755291067 0.9208005361
4200274800.0 -0.3624374288 0.926454082
4250274500.0 -0.3502073305 0.9313698121
4300274200.0 -0.3372456143 0.9367435353
4350273900.0 -0.3234008106 0.9420311981
4400273600.0 -0.3086030868 0.9469687009
4450273300.0 -0.2933670777 0.9523326691
4500273000.0 -0.2795996648 0.9566409838
4550272700.0 -0.2654385959 0.9607898949
4600272400.0 -0.2501077246 0.9651976399
4650272100.0 -0.2384174914 0.9681429536
4700271800.0 -0.2250252338 0.9716306342
4750271500.0 -0.2132765572 0.9745117698
4800271200.0 -0.2008732479 0.9772197742
4850270900.0 -0.1870465475 0.9801937762
4900270600.0 -0.1729843508 0.9826082244
4950270300.0 -0.1589185538 0.9851837888
5000270000.0 -0.144385263 0.9867324988
5050269700.0 -0.1309096411 0.9889727805
5100269400.0 -0.1175700809 0.9904814256
5150269100.0 -0.1041503338 0.9919350932
5200268800.0 -0.0907413375 0.9928917046
5250268500.0 -0.0774232185 0.9936885764
5300268200.0 -0.0645091642 0.9946169353
5350267900.0 -0.0523235237 0.9952082457
5400267600.0 -0.0362279663 0.9965483272
5450267300.0 -0.0231024003 0.9967643598
5500267000.0 -0.0077444097 0.997278914
5550266700.0 0.0072247236 0.9972548084
5600266400.0 0.0226436664 0.9974115484
5650266100.0 0.0390180809 0.9966709074
5700265800.0 0.0534021703 0.9959129074
5750265500.0 0.0689749195 0.9951631539
5800265200.0 0.0826757974 0.9940920168
5850264900.0 0.0960367096 0.9930587886
5900264600.0 0.1125545137 0.9915203301
5950264300.0 0.1247463781 0.9903323902
6000264000.0 0.1388022081 0.9884056156
6050263700.0 0.1507281549 0.9867353071
6100263400.0 0.1634591818 0.9851480681
6150263100.0 0.1780817765 0.982700653
6200262800.0 0.1881388506 0.980972574
6250262500.0 0.2009681974 0.9783878911
6300262200.0 0.2139108328 0.9756650074
6350261900.0 0.2270137713 0.9727681309
6400261600.0 0.240682971 0.969434968
6450261300.0 0.2520926964 0.9668489389
6500261000.0 0.2650072656 0.963092186
6550260700.0 0.2779013641 0.9593320625
6600260400.0 0.2913949226 0.9550859312
6650260100.0 0.3053127233 0.9508858318
6700259800.0 0.3171806735 0.9464463318
6750259500.0 0.3311280671 0.9415581478
6800259200.0 0.3441330229 0.9364997044
6850258900.0 0.3561493823 0.9314249372
6900258600.0 0.3684075784 0.9264342528
6950258300.0 0.3808118299 0.9212760235
7000258000.0 0.3930334263 0.9157366856
7050257700.0 0.4053528189 0.9098509796
7100257400.0 0.4177938653 0.9033651796
7150257100.0 0.4281680325 0.8980304148
7200256800.0 0.4411049594 0.8918401218
7250256500.0 0.4531513763 0.8853747343
7300256200.0 0.4664514382 0.878817826
7350255900.0 0.4782220603 0.8716895691
7400255600.0 0.4919728586 0.8646678257
7450255300.0 0.506919125 0.8552831469
7500255000.0 0.518535737 0.8483678008
7550254700.0 0.5327406922 0.8399813453
7600254400.0 0.5454183748 0.8312950981
7650254100.0 0.5566957773 0.8240192197
7700253800.0 0.568815287 0.8159572689
7750253500.0 0.5800193422 0.807965708
7800253200.0 0.5903995819 0.800418219
7850252900.0 0.6003421727 0.7933002953
7900252600.0 0.6118553147 0.7846649358
7950252300.0 0.6207922248 0.7779488846
8000252000.0 0.6308111888 0.7704694778
8050251700.0 0.6414640945 0.7621841371
8100251400.0 0.6513975031 0.7538938397
8150251100.0 0.6612310249 0.7453318862
8200250800.0 0.6709136192 0.737543192
8250250500.0 0.6797996173 0.7294411661
8300250200.0 0.6892656922 0.7207002294
8350249900.0 0.6979299844 0.712129803
8400249600.0 0.7065512831 0.7043496548
8450249300.0 0.7156541161 0.6949430867
8500249000.0 0.7242315937 0.6861282281
8550248700.0 0.7324971521 0.6771014963
8600248400.0 0.7407738226 0.6674031979
8650248100.0 0.7486008621 0.6581407793
8700247800.0 0.7582074579 0.6468496178
8750247500.0 0.7664836822 0.6367544526
8800247200.0 0.7745571334 0.6261578252
8850246900.0 0.7834725598 0.6148602276
8900246600.0 0.7918592476 0.6035853203
8950246300.0 0.8015510956 0.5905703902
9000246000.0 0.8108970807 0.5778438593
9050245700.0 0.8199163267 0.5647528529
9100245400.0 0.8284584607 0.5523633105
9150245100.0 0.8378785957 0.5388345096
9200244800.0 0.8474182934 0.5236352454
9250244500.0 0.8570039544 0.5080005909
9300244200.0 0.8651476367 0.4935562115
9350243900.0 0.8730020087 0.4797282432
9400243600.0 0.8798173593 0.4673646944
9450243300.0 0.885688561 0.4558254473
9500243000.0 0.8917637717 0.443552759
9550242700.0 0.8956760882 0.4360233476
9600242400.0 0.8992732284 0.4287881411
9650242100.0 0.9033385399 0.4222050329
9700241800.0 0.9076791518 0.4139101742
9750241500.0 0.9113813385 0.4064242667
9800241200.0 0.9165210842 0.3970865343
9850240900.0 0.9220144201 0.385564472
9900240600.0 0.9274827852 0.3739689741
9950240300.0 0.9341000125 0.3580816192
10000240000.0 0.9389193676 0.3464347166
10050239700.0 0.944819026 0.3316004095
10100239400.0 0.9496284699 0.3156251004
10150239100.0 0.9539269868 0.3010627787
10200238800.0 0.9580822374 0.2857093237
10250238500.0 0.9615932035 0.2724340635
10300238200.0 0.96464426 0.2584667543
10350237900.0 0.9672780226 0.2454639478
10400237600.0 0.9699546859 0.2321692724
10450237300.0 0.9726475647 0.2187923649
10500237000.0 0.974760687 0.206375055
10550236700.0 0.9771575212 0.1921573132
10600236400.0 0.9793593068 0.1782743592
10650236100.0 0.9816449424 0.1634754956
10700235800.0 0.9838510563 0.1509194504
10750235500.0 0.986311838 0.1381575809
10800235200.0 0.9877643591 0.1243765462
10850234900.0 0.9895504371 0.1095570655
10900234600.0 0.9914718847 0.0951848052
10950234300.0 0.9935001743 0.0817429814
11000234000.0 0.9952017405 0.0665581603
11050233700.0 0.996964045 0.0501957635
11100233400.0 0.9984017897 0.0325756165
11150233100.0 0.9995665639 0.0165943949
11200232800.0 1.000127165 0.0013625873
11250232500.0 1.001134514 -0.0151864489
11300232200.0 1.00181734 -0.0331260717
11350231900.0 1.001250851 -0.0489119679
11400231600.0 1.002044351 -0.0644965409
11450231300.0 1.001200393 -0.0796663897
11500231000.0 0.9998771987 -0.0957612743
11550230700.0 0.9989766116 -0.1086761057
11600230400.0 0.997730959 -0.1223400296
11650230100.0 0.995674135 -0.1329040257
11700229800.0 0.9929876711 -0.1483351293
11750229500.0 0.9910775018 -0.1631011896
11800229200.0 0.9879142592 -0.1762847672
11850228900.0 0.9843831045 -0.1885577971
11900228600.0 0.9810204257 -0.1984856521
11950228300.0 0.9778905333 -0.2090945157
12000228000.0 0.9748394738 -0.2180767517
12050227700.0 0.971377216 -0.2311761424
12100227400.0 0.9677618447 -0.2416526686
12150227100.0 0.9633149697 -0.2581818971
12200226800.0 0.9597157017 -0.2689396523
12250226500.0 0.9548652206 -0.2828226066
12300226200.0 0.9517875748 -0.2944755615
12350225900.0 0.9463703062 -0.3082304752
12400225600.0 0.9418279087 -0.3210532362
12450225300.0 0.9375145109 -0.3338567648
12500225000.0 0.9322120473 -0.3484564345
12550224700.0 0.9267335787 -0.3623413594
12600224400.0 0.921903165 -0.3751787746
12650224100.0 0.9161180498 -0.3895887873
12700223800.0 0.9108843407 -0.402419488
12750223500.0 0.9052889607 -0.4156128635
12800223200.0 0.9000990579 -0.4281635949
12850222900.0 0.8949503962 -0.4402484939
12900222600.0 0.8893200255 -0.4523702152
12950222300.0 0.8829273749 -0.4651016501
13000222000.0 0.876411364 -0.4764255285
13050221700.0 0.870205536 -0.4891971279
13100221400.0 0.8633121497 -0.5011686962
13150221100.0 0.8566713171 -0.5135409516
13200220800.0 0.8496738238 -0.5248222967
13250220500.0 0.8424533942 -0.5369489113
13300220200.0 0.8351540508 -0.5477150856
13350219900.0 0.8270946225 -0.5598009652
13400219600.0 0.8185462487 -0.5717757294
13450219300.0 0.8092867206 -0.5853872707
13500219000.0 0.7989744328 -0.5995227304
13550218700.0 0.7886571432 -0.6123245264
13600218400.0 0.779110516 -0.6242604262
13650218100.0 0.7688396967 -0.6352535618
13700217800.0 0.7576728064 -0.6478720289
13750217500.0 0.7485850037 -0.6584585373
13800217200.0 0.7365630509 -0.6711222954
13850216900.0 0.7264500835 -0.6818697738
13900216600.0 0.7155891455 -0.6913321582
13950216300.0 0.7049060898 -0.70125865
14000216000.0 0.6952211271 -0.7104558935
14050215700.0 0.6855202683 -0.7188473366
14100215400.0 0.675727654 -0.728149783
14150215100.0 0.6664710416 -0.7366065743
14200214800.0 0.6572113226 -0.745165414
14250214500.0 0.6467990723 -0.7545686119
14300214200.0 0.6364425248 -0.7637431799
14350213900.0 0.6252785153 -0.7735472424
14400213600.0 0.6136525104 -0.7831403392
14450213300.0 0.6004973205 -0.7935843333
14500213000.0 0.5877137887 -0.80322597
14550212700.0 0.5748435945 -0.8128176013
14600212400.0 0.5622335208 -0.8217479833
14650212100.0 0.5499521763 -0.8305599678
14700211800.0 0.5353509494 -0.8398644
14750211500.0 0.5232026359 -0.8478017951
14800211200.0 0.5113060657 -0.85604482
14850210900.0 0.4988984689 -0.8634998885
14900210600.0 0.4857235715 -0.8715793632
14950210300.0 0.4724753589 -0.8791298223
15000210000.0 0.4595854419 -0.8858518195
15050209700.0 0.4471546112 -0.8918782474
15100209400.0 0.4347777261 -0.8977588225
15150209100.0 0.4222548145 -0.9031714654
15200208800.0 0.4096926813 -0.9090476833
15250208500.0 0.3985778299 -0.9133830626
15300208200.0 0.3855508645 -0.9179022238
15350207900.0 0.3739512741 -0.9222773991
15400207600.0 0.358438633 -0.9276296217
15450207300.0 0.3441343716 -0.9333496625
15500207000.0 0.3289537219 -0.9373332243
15550206700.0 0.3141282813 -0.942321713
15600206400.0 0.2980868411 -0.9478684299
15650206100.0 0.2825885964 -0.9513579485
15700205800.0 0.2682333043 -0.955181793
15750205500.0 0.2541497403 -0.9586584043
15800205200.0 0.2394498728 -0.9622249073
15850204900.0 0.2252716983 -0.9655831598
15900204600.0 0.2101096109 -0.9692314711
15950204300.0 0.1961786504 -0.9724851577
16000204000.0 0.1820545518 -0.9749301174
16050203700.0 0.1671302391 -0.9783430494
16100203400.0 0.1523062579 -0.9801588338
16150203100.0 0.137865308 -0.9822699403
16200202800.0 0.1241729962 -0.9848173113
16250202500.0 0.1095185619 -0.9863736801
16300202200.0 0.0937877387 -0.9875135021
16350201900.0 0.0789684951 -0.9890379284
16400201600.0 0.0642726212 -0.9902404914
16450201300.0 0.0489520898 -0.9910647203
16500201000.0 0.0324232631 -0.9921181901
16550200700.0 0.0166632167 -0.9925736415
16600200400.0 0.0011277389 -0.9927318178
16650200100.0 -0.0151209257 -0.992755362
16700199800.0 -0.0315275262 -0.9923747492
16750199500.0 -0.0499452251 -0.9916140599
16800199200.0 -0.0658255507 -0.9904632003
16850198900.0 -0.0814388492 -0.9898287148
16900198600.0 -0.094528852 -0.9887612161
16950198300.0 -0.1081878715 -0.9874094295
17000198000.0 -0.1211103959 -0.9856667103
17050197700.0 -0.1340063443 -0.9844594615
17100197400.0 -0.1470376545 -0.9818259828
17150197100.0 -0.1593572536 -0.9798179023
17200196800.0 -0.1719793087 -0.9779392302
17250196500.0 -0.1851583797 -0.9757027834
17300196200.0 -0.1975378 -0.9734431101
17350195900.0 -0.2091609301 -0.9712298895
17400195600.0 -0.2214361671 -0.9686811703
17450195300.0 -0.2344618807 -0.9658502328
17500195000.0 -0.2481476345 -0.9625197515
17550194700.0 -0.262013732 -0.9589520301
17600194400.0 -0.2760185737 -0.9550005145
17650194100.0 -0.2896662457 -0.9504857137
17700193800.0 -0.3026715983 -0.9465910408
17750193500.0 -0.3171751188 -0.9421192688
17800193200.0 -0.331406201 -0.9369594071
17850192900.0 -0.3463717669 -0.9310470252
17900192600.0 -0.3614869376 -0.9250750936
17950192300.0 -0.3772184284 -0.9181789842
18000192000.0 -0.3919278548 -0.9110038496
18050191700.0 -0.4057173739 -0.9031722271
18100191400.0 -0.4199488155 -0.8953972202
18150191100.0 -0.4349107551 -0.8873529045
18200190800.0 -0.4517891136 -0.8782642997
18250190500.0 -0.4687490225 -0.8689571987
18300190200.0 -0.4844246923 -0.8601691869
18350189900.0 -0.4995151264 -0.8514905257
18400189600.0 -0.5139550099 -0.8429224378
18450189300.0 -0.5268651868 -0.8352163124
18500189000.0 -0.5398833521 -0.8276648255
18550188700.0 -0.5533156454 -0.8199347147
18600188400.0 -0.5649845714 -0.8128766676
18650188100.0 -0.5759113322 -0.8066949359
18700187800.0 -0.5865351313 -0.7999176442
18750187500.0 -0.5972313815 -0.7935711248
18800187200.0 -0.607704263 -0.7866540596
18850186900.0 -0.6178670321 -0.7796661049
18900186600.0 -0.6280717173 -0.7723379523
18950186300.0 -0.6382044285 -0.7648002531
19000186000.0 -0.6453448351 -0.758725879
19050185700.0 -0.6546018188 -0.7515127931
19100185400.0 -0.6646622994 -0.7432748198
19150185100.0 -0.674518813 -0.7340652536
19200184800.0 -0.6840503661 -0.7264897466
19250184500.0 -0.6950870404 -0.7168817226
19300184200.0 -0.7057860975 -0.7070911395
19350183900.0 -0.7166352039 -0.6986127566
19400183600.0 -0.7263057156 -0.6876318613
19450183300.0 -0.7350445373 -0.6782053113
19500183000.0 -0.7431368931 -0.6678411647
19550182700.0 -0.753719236 -0.6566079387
19600182400.0 -0.7633130131 -0.6450763633
19650182100.0 -0.7741330014 -0.6327639855
19700181800.0 -0.7849896397 -0.6193809791
19750181500.0 -0.7956736095 -0.6052660309
19800181200.0 -0.8060287507 -0.5902356002
19850180900.0 -0.8157331172 -0.5751302569
19900180600.0 -0.8233725343 -0.5605529106
19950180300.0 -0.8327332283 -0.544187654
20000180000.0 -0.8252272964 -0.5468874963
20050179700.0 -0.8341032085 -0.5335274112
20100179400.0 -0.8432953316 -0.5192443922
20150179100.0 -0.8504470553 -0.5075404537
20200178800.0 -0.8596685693 -0.495381983
20250178500.0 -0.8694720857 -0.4815766126
20300178200.0 -0.8786771932 -0.466310109
20350177900.0 -0.8879177299 -0.4519622641
20400177600.0 -0.8964840381 -0.4376989069
20450177300.0 -0.905040622 -0.4232709788
20500177000.0 -0.9128009922 -0.409610992
20550176700.0 -0.9209616304 -0.3960202234
20600176400.0 -0.9278220201 -0.3826868634
20650176100.0 -0.9342395868 -0.3703288475
20700175800.0 -0.9412261035 -0.3582611235
20750175500.0 -0.9476437043 -0.346906663
20800175200.0 -0.9518836473 -0.3359030993
20850174900.0 -0.9574103556 -0.3255363674
20900174600.0 -0.9609833778 -0.3133922334
20950174300.0 -0.9664249262 -0.30227126
21000174000.0 -0.9692868733 -0.2907398328
21050173700.0 -0.9712386319 -0.2808903464
21100173400.0 -0.9757995281 -0.2686084048
21150173100.0 -0.9798638715 -0.2559237281
21200172800.0 -0.9832798985 -0.2426822306
21250172500.0 -0.9865480636 -0.22873358
21300172200.0 -0.9895987728 -0.2145110031
21350171900.0 -0.991038945 -0.1999452269
21400171600.0 -0.9917805515 -0.1855646148
21450171300.0 -0.9930297826 -0.1708624569
21500171000.0 -0.9918003255 -0.1555741416
21550170700.0 -0.9927525946 -0.1401347141
21600170400.0 -0.9920759648 -0.1245212296
21650170100.0 -0.9911943547 -0.1083636701
21700169800.0 -0.989606863 -0.0934256769
21750169500.0 -0.9887770025 -0.0775128857
21800169200.0 -0.9878349795 -0.0608998451
21850168900.0 -0.986685761 -0.0435770537
21900168600.0 -0.9863281701 -0.0279025233
21950168300.0 -0.984423161 -0.012307582
22000168000.0 -0.9836448617 0.0027170966
22050167700.0 -0.9836181788 0.0166691572
22100167400.0 -0.9835918825 0.0321848918
22150167100.0 -0.9843497967 0.0478867327
22200166800.0 -0.9851201204 0.0640624761
22250166500.0 -0.9843168404 0.081226114
22300166200.0 -0.9832086164 0.0976921008
22350165900.0 -0.9825754629 0.1140337289
22400165600.0 -0.9807658171 0.1293398129
22450165300.0 -0.9779248621 0.1447218668
22500165000.0 -0.9762624195 0.1583197691
22550164700.0 -0.9745944163 0.1741802713
22600164400.0 -0.9737130208 0.1902902818
22650164100.0 -0.9715708452 0.2048885419
22700163800.0 -0.9694009759 0.2199383531
22750163500.0 -0.9665667152 0.2356038658
22800163200.0 -0.9634386464 0.2485282274
22850162900.0 -0.9611900871 0.2622024315
22900162600.0 -0.9598153531 0.2754172833
22950162300.0 -0.9585069078 0.2879389006
23000162000.0 -0.9573045693 0.3001147884
23050161700.0 -0.9546582356 0.3126819468
23100161400.0 -0.9530783113 0.3249204253
23150161100.0 -0.9505695202 0.3376826618
23200160800.0 -0.9470271843 0.3500144258
23250160500.0 -0.9445649343 0.3620977106
23300160200.0 -0.9422384365 0.3740829433
23350159900.0 -0.9381392878 0.3873440552
23400159600.0 -0.9343613208 0.3994911649
23450159300.0 -0.9290798329 0.4137666288
23500159000.0 -0.9247448919 0.4262305474
23550158700.0 -0.9202752369 0.4402965018
23600158400.0 -0.9149595836 0.4533266047
23650158100.0 -0.9082653789 0.4673957067
23700157800.0 -0.900917469 0.4811420538
23750157500.0 -0.8919536005 0.4951692076
23800157200.0 -0.8836202786 0.5084096679
23850156900.0 -0.8743672206 0.5214917473
23900156600.0 -0.8644682912 0.5339158744
23950156300.0 -0.8566996159 0.5460975501
24000156000.0 -0.847576397 0.5577849849
24050155700.0 -0.8372284432 0.5696487484
24100155400.0 -0.826790432 0.5819299147
24150155100.0 -0.8162721839 0.5934077538
24200154800.0 -0.8056873934 0.6049569462
24250154500.0 -0.7937568959 0.616707356
24300154200.0 -0.7827461944 0.6284034517
24350153900.0 -0.7707049152 0.6385517176
24400153600.0 -0.7585686724 0.6493127547
24450153300.0 -0.7467393138 0.6588771834
24500153000.0 -0.7353388277 0.6685760981
24550152700.0 -0.7239034314 0.677730539
24600152400.0 -0.7123087781 0.6868208176
24650152100.0 -0.7006372188 0.6959982244
