!Created with skrf (http://scikit-rf.org).
# Hz S RI R 50.0 
!freq ReS11 ImS11
300000.0 -0.9752877611 -0.1201112785
50299700.0 -0.9999960197 0.0152901845
100299400.0 -0.9979706387 0.0280212204
150299100.0 -1.002707695 0.0450690946
200298800.0 -0.9996166625 0.0582931706
250298500.0 -0.9972768633 0.0719245277
300298200.0 -0.9859536312 0.0875794928
350297900.0 -0.9940032143 0.0985484245
400297600.0 -0.9932541652 0.114988898
450297300.0 -0.9910821012 0.1289263994
500297000.0 -0.989534663 0.1436791227
550296700.0 -0.984436797 0.1561027725
600296400.0 -1.017189265 0.1894133448
650296100.0 -0.982336712 0.1861090049
700295800.0 -0.9793877897 0.2001183228
750295500.0 -0.9763739486 0.2143029956
800295200.0 -0.9729422056 0.2282327062
850294900.0 -0.9696097152 0.242122552
900294600.0 -0.9657929656 0.2558713831
950294300.0 -0.9623015975 0.2695530295
1000294000.0 -0.9581959617 0.283602538
1050293700.0 -0.9537661862 0.2974979484
1100293400.0 -0.9492739569 0.3116909515
1150293100.0 -0.9455938411 0.3238028402
1200292800.0 -0.9402200697 0.337974775
1250292500.0 -0.9348554254 0.3514189701
1300292200.0 -0.9291224216 0.3646124102
1350291900.0 -0.9235037419 0.3787851853
1400291600.0 -0.917912279 0.3919101215
1450291300.0 -0.9126245837 0.4042531136
1500291000.0 -0.9062778206 0.4175165379
1550290700.0 -0.8998316483 0.4309389908
1600290400.0 -0.8935116807 0.4438181761
1650290100.0 -0.8867017615 0.4559475879
1700289800.0 -0.8799476242 0.469656061
1750289500.0 -0.8728572962 0.4817884572
1800289200.0 -0.8655966837 0.4948303278
1850288900.0 -0.8588682836 0.5059628817
1900288600.0 -0.8509119282 0.5191867223
1950288300.0 -0.8429116474 0.5316227021
2000288000.0 -0.8353726809 0.5429527876
2050287700.0 -0.8272224368 0.5552120742
2100287400.0 -0.8191651288 0.5669372019
2150287100.0 -0.8107333141 0.5791034699
2200286800.0 -0.803109191 0.5893566108
2250286500.0 -0.7941762205 0.6015527926
2300286200.0 -0.7852055947 0.613035532
2350285900.0 -0.7767165925 0.6241002157
2400285600.0 -0.7677474177 0.63508763
2450285300.0 -0.7591465324 0.6453381661
2500285000.0 -0.7492035976 0.656572516
2550284700.0 -0.7406363805 0.6671000986
2600284400.0 -0.7312614715 0.6770549867
2650284100.0 -0.7222185846 0.6877424798
2700283800.0 -0.7113680986 0.6979817353
2750283500.0 -0.7013257695 0.7086909881
2800283200.0 -0.6913910418 0.7185088604
2850282900.0 -0.681191049 0.728132096
2900282600.0 -0.6708259645 0.7380822123
2950282300.0 -0.660680532 0.7473262575
3000282000.0 -0.6497676153 0.7565971688
3050281700.0 -0.6385844335 0.7660993875
3100281400.0 -0.6268072065 0.775244285
3150281100.0 -0.6151692408 0.7844718885
3200280800.0 -0.6034167472 0.7930655966
3250280500.0 -0.5924780993 0.8007891102
3300280200.0 -0.5812363667 0.8086873387
3350279900.0 -0.5697778662 0.8164439439
3400279600.0 -0.557320082 0.8242777957
3450279300.0 -0.5461964952 0.8311972401
3500279000.0 -0.5343402956 0.8383517951
3550278700.0 -0.52179176 0.8455459573
3600278400.0 -0.5096963714 0.8527682807
3650278100.0 -0.4967730837 0.8601998284
3700277800.0 -0.4846227531 0.8668760063
3750277500.0 -0.4720367452 0.8732993837
3800277200.0 -0.4599758065 0.8797531524
3850276900.0 -0.4477719373 0.8856793511
3900276600.0 -0.437062874 0.8916037527
3950276300.0 -0.4246578071 0.8974089224
4000276000.0 -0.4126192264 0.9033609334
4050275700.0 -0.3997553241 0.9091575544
4100275400.0 -0.3885603499 0.9149111859
4150275100.0 -0.3758481128 0.9205773066
4200274800.0 -0.362756056 0.9263165701
4250274500.0 -0.3504265342 0.9314832293
4300274200.0 -0.3373615594 0.9367678492
4350273900.0 -0.3236172996 0.9419330889
4400273600.0 -0.308693509 0.9468129394
4450273300.0 -0.2935353117 0.9521381481
4500273000.0 -0.2799514826 0.9566323945
4550272700.0 -0.2659900066 0.9607000007
4600272400.0 -0.2504714907 0.96503087
4650272100.0 -0.2386883017 0.9682708251
4700271800.0 -0.2257127419 0.9715343224
4750271500.0 -0.2139380842 0.9743590582
4800271200.0 -0.2013743906 0.9770501975
4850270900.0 -0.1874782405 0.9800353502
4900270600.0 -0.1736295335 0.9821712549
4950270300.0 -0.1593848704 0.9847914453
5000270000.0 -0.1449558364 0.987047673
5050269700.0 -0.1313812438 0.9887161147
5100269400.0 -0.1175174843 0.9903597597
5150269100.0 -0.1043377384 0.9919528297
5200268800.0 -0.0911639906 0.9930394666
5250268500.0 -0.0780120663 0.9937754055
5300268200.0 -0.0648335245 0.995006097
5350267900.0 -0.0526044841 0.995368485
5400267600.0 -0.0361076485 0.9963303994
5450267300.0 -0.0229822859 0.9968490926
5500267000.0 -0.0081343141 0.9971191887
5550266700.0 0.0067591666 0.9972979072
5600266400.0 0.0223885593 0.9972317237
5650266100.0 0.0391496387 0.9970100615
5700265800.0 0.0534423405 0.9961561524
5750265500.0 0.0682682352 0.9955762058
5800265200.0 0.0825017821 0.9944658808
5850264900.0 0.0955341088 0.9934429665
5900264600.0 0.1122153885 0.9918983266
5950264300.0 0.1244187857 0.9901772198
6000264000.0 0.1384372122 0.9882936817
6050263700.0 0.1505026959 0.9869344776
6100263400.0 0.1631072336 0.9851521853
6150263100.0 0.177529822 0.9825069794
6200262800.0 0.1877366824 0.9808464529
6250262500.0 0.2005410019 0.9787125238
6300262200.0 0.2133070499 0.9759415565
6350261900.0 0.2261936987 0.9730528783
6400261600.0 0.2400874668 0.9697548556
6450261300.0 0.251421543 0.9670725944
6500261000.0 0.2642893776 0.9634677903
6550260700.0 0.2775822603 0.9595930754
6600260400.0 0.2907717239 0.9553397396
6650260100.0 0.3045825081 0.9505759496
6700259800.0 0.31659649 0.9466916847
6750259500.0 0.3305427893 0.9415878547
6800259200.0 0.3438813066 0.9368485406
6850258900.0 0.3558161381 0.9316966739
6900258600.0 0.368072998 0.9267470206
6950258300.0 0.3806186147 0.9213094891
7000258000.0 0.3924182239 0.9159390621
7050257700.0 0.4047948955 0.9097440265
7100257400.0 0.4175272339 0.9034811615
7150257100.0 0.4279380945 0.8983830241
7200256800.0 0.4407994284 0.8919577678
7250256500.0 0.452989102 0.8855804266
7300256200.0 0.4659740041 0.8784810625
7350255900.0 0.4784590114 0.8719328105
7400255600.0 0.4917798371 0.8646289728
7450255300.0 0.5070830524 0.8556950729
7500255000.0 0.5189515314 0.8486913508
7550254700.0 0.532570245 0.839789597
7600254400.0 0.5455322927 0.83160707
7650254100.0 0.5568357916 0.8237780593
7700253800.0 0.5685291097 0.8158468506
7750253500.0 0.5797531875 0.8083799386
7800253200.0 0.5906688728 0.8004458896
7850252900.0 0.6004007747 0.7932748495
7900252600.0 0.6119970741 0.7845831451
7950252300.0 0.6205594122 0.7781792165
8000252000.0 0.6307760013 0.7704345451
8050251700.0 0.6411975189 0.7623417093
8100251400.0 0.6511835851 0.7542649658
8150251100.0 0.6612781831 0.7454192053
8200250800.0 0.6706290481 0.7377187814
8250250500.0 0.6795242561 0.729571523
8300250200.0 0.6892762769 0.7210983006
8350249900.0 0.6979944045 0.7120914748
8400249600.0 0.7063054983 0.7041627461
8450249300.0 0.7152979226 0.6950596537
8500249000.0 0.7239175592 0.6862296989
8550248700.0 0.7321228564 0.6770294684
8600248400.0 0.7408744289 0.6676265679
8650248100.0 0.7484474467 0.6582130142
8700247800.0 0.7580405974 0.6469981216
8750247500.0 0.7661824433 0.6368976756
8800247200.0 0.7744525871 0.6267057564
8850246900.0 0.7831609141 0.6150255637
8900246600.0 0.7917559637 0.6037010193
8950246300.0 0.8013756826 0.5907058598
9000246000.0 0.8105396882 0.5783602562
9050245700.0 0.819352338 0.5652601195
9100245400.0 0.8280741156 0.5530011084
9150245100.0 0.8372365994 0.5394220178
9200244800.0 0.8470441125 0.524384275
9250244500.0 0.8560946915 0.5090321274
9300244200.0 0.8643995229 0.4947423501
9350243900.0 0.8722830774 0.4808517312
9400243600.0 0.8789253243 0.4686883598
9450243300.0 0.8848811707 0.4572247086
9500243000.0 0.8912912941 0.4450072445
9550242700.0 0.8949406382 0.4374422311
9600242400.0 0.8990498979 0.4299491038
9650242100.0 0.9028346501 0.4233720404
9700241800.0 0.9073105733 0.4151111044
9750241500.0 0.9113530743 0.407431549
9800241200.0 0.9160156892 0.3982386673
9850240900.0 0.9215989161 0.3866516346
9900240600.0 0.9274842809 0.3754293404
9950240300.0 0.9340488638 0.358870542
10000240000.0 0.9383338506 0.3479003577
10050239700.0 0.9445788266 0.3316681911
10100239400.0 0.9495581853 0.3162206643
10150239100.0 0.9540861271 0.3015586228
10200238800.0 0.9582350981 0.2864677782
10250238500.0 0.9614846134 0.2731855133
10300238200.0 0.9645860393 0.2592731959
10350237900.0 0.9672774883 0.2460234769
10400237600.0 0.9696825529 0.2327666907
10450237300.0 0.9725182288 0.2191219629
10500237000.0 0.9745753034 0.206985492
10550236700.0 0.9769677385 0.1927127526
10600236400.0 0.9790264087 0.178830215
10650236100.0 0.9814141516 0.1640400275
10700235800.0 0.9833795379 0.1521780561
10750235500.0 0.98596893 0.1383341003
10800235200.0 0.9873356049 0.1246603073
10850234900.0 0.9895726416 0.1100604612
10900234600.0 0.9917183672 0.095192459
10950234300.0 0.9935880752 0.0818439903
11000234000.0 0.9952683373 0.0666810671
11050233700.0 0.9970449464 0.0504824509
11100233400.0 0.99852891 0.0332576163
11150233100.0 0.9995555508 0.0167483214
11200232800.0 1.000234187 0.0012616338
11250232500.0 1.001371419 -0.015323142
11300232200.0 1.001796004 -0.032567418
11350231900.0 1.002204772 -0.0487100918
11400231600.0 1.001793643 -0.0645109303
11450231300.0 1.000546915 -0.0803631682
11500231000.0 0.9997677319 -0.0966591923
11550230700.0 0.9983240696 -0.109275931
11600230400.0 0.9971638065 -0.1222018029
11650230100.0 0.9948406321 -0.1333717727
11700229800.0 0.9930405525 -0.1484508598
11750229500.0 0.990674751 -0.1628205893
11800229200.0 0.9881400724 -0.1766476027
11850228900.0 0.9846464297 -0.1884935254
11900228600.0 0.980986393 -0.1983199203
11950228300.0 0.977765136 -0.208938246
12000228000.0 0.9749597926 -0.2173707611
12050227700.0 0.9711549024 -0.2306464162
12100227400.0 0.9685507764 -0.2413665043
12150227100.0 0.9633825765 -0.2583755326
12200226800.0 0.9590483654 -0.269459655
12250226500.0 0.9550654357 -0.2822834222
12300226200.0 0.9512565485 -0.294311325
12350225900.0 0.946033561 -0.308528542
12400225600.0 0.942309479 -0.320622859
12450225300.0 0.9374899834 -0.3341134914
12500225000.0 0.9323348382 -0.3487888509
12550224700.0 0.9268225931 -0.3627175817
12600224400.0 0.9218873102 -0.3754770921
12650224100.0 0.9159471842 -0.3897791282
12700223800.0 0.9107609033 -0.4025824427
12750223500.0 0.90523778 -0.4156400606
12800223200.0 0.8998545631 -0.4281272586
12850222900.0 0.8949334871 -0.4402410596
12900222600.0 0.8890857626 -0.452152718
12950222300.0 0.882833437 -0.4649128729
13000222000.0 0.8764280738 -0.4765612848
13050221700.0 0.8701043459 -0.4898309451
13100221400.0 0.8634610908 -0.5008817501
13150221100.0 0.856440903 -0.513568817
13200220800.0 0.8494725232 -0.5251779723
13250220500.0 0.8423147833 -0.5372586696
13300220200.0 0.8351479279 -0.5479212093
13350219900.0 0.8270496514 -0.5597032988
13400219600.0 0.8186117614 -0.5718539269
13450219300.0 0.8094624921 -0.5854006119
13500219000.0 0.7989154708 -0.5993322881
13550218700.0 0.7892648507 -0.6118150727
13600218400.0 0.7790058048 -0.6237834644
13650218100.0 0.7695171873 -0.6351423665
13700217800.0 0.7582387712 -0.6471736997
13750217500.0 0.7488204338 -0.6582539357
13800217200.0 0.7371917992 -0.6695900947
13850216900.0 0.7257947654 -0.6813289293
13900216600.0 0.7167212904 -0.6901276311
13950216300.0 0.7058110198 -0.7008693808
14000216000.0 0.6955150149 -0.709555782
14050215700.0 0.6863677646 -0.7182746683
14100215400.0 0.6765145569 -0.7274710906
14150215100.0 0.6671057548 -0.7361447741
14200214800.0 0.6577760048 -0.7448076323
14250214500.0 0.6474303404 -0.7540458878
14300214200.0 0.6370291493 -0.7633678976
14350213900.0 0.6259551865 -0.7731137222
14400213600.0 0.6138392293 -0.7829316348
14450213300.0 0.6009414662 -0.7929986489
14500213000.0 0.5880264037 -0.8032541514
14550212700.0 0.5756284833 -0.8126392944
14600212400.0 0.5624567955 -0.8210265651
14650212100.0 0.5502415086 -0.8299831066
14700211800.0 0.535874437 -0.8394777531
14750211500.0 0.5239081307 -0.8478256306
14800211200.0 0.5116097771 -0.8556182002
14850210900.0 0.4995580768 -0.8631672875
14900210600.0 0.4863372391 -0.8713031585
14950210300.0 0.4729712439 -0.8788069616
15000210000.0 0.4602377477 -0.8853635631
15050209700.0 0.4479251588 -0.8917129424
15100209400.0 0.4351741414 -0.8976054845
15150209100.0 0.422753049 -0.9030754494
15200208800.0 0.4105678287 -0.9084249815
15250208500.0 0.3987139125 -0.9132714939
15300208200.0 0.3867940134 -0.9180201191
15350207900.0 0.3730254583 -0.922527717
15400207600.0 0.3590830689 -0.9277982539
15450207300.0 0.3443950154 -0.9333242147
15500207000.0 0.3303774537 -0.9377251043
15550206700.0 0.3149270792 -0.9424305262
15600206400.0 0.2987899658 -0.9470333395
15650206100.0 0.2837727976 -0.9510089916
15700205800.0 0.2694767809 -0.9547393836
15750205500.0 0.2551006431 -0.9582569871
15800205200.0 0.2407440204 -0.9619753032
15850204900.0 0.2264117652 -0.9654164848
15900204600.0 0.2112876732 -0.9688883637
15950204300.0 0.1971846297 -0.9718920974
16000204000.0 0.1826462832 -0.9748222574
16050203700.0 0.168024441 -0.9778007995
16100203400.0 0.1533397336 -0.9800896448
16150203100.0 0.1389219385 -0.9824442611
16200202800.0 0.12474365 -0.9843395635
16250202500.0 0.1094728941 -0.9861913474
16300202200.0 0.094037049 -0.987685018
16350201900.0 0.0796088359 -0.9891813712
16400201600.0 0.0646988247 -0.9903420625
16450201300.0 0.049300596 -0.9913617484
16500201000.0 0.0327105584 -0.9921693481
16550200700.0 0.0171384111 -0.9926228184
16600200400.0 0.0015011039 -0.9927753714
16650200100.0 -0.0148654036 -0.9926424502
16700199800.0 -0.0310459366 -0.9924805942
16750199500.0 -0.0498696944 -0.9913704415
16800199200.0 -0.0656916924 -0.9907923953
16850198900.0 -0.0809399003 -0.9896344699
16900198600.0 -0.0943293571 -0.988767548
16950198300.0 -0.1081414009 -0.9877628158
17000198000.0 -0.1208629082 -0.9862440366
17050197700.0 -0.1338216038 -0.9841740528
17100197400.0 -0.1465010946 -0.9820663151
17150197100.0 -0.1589403313 -0.9802534323
17200196800.0 -0.1717989558 -0.9784165009
17250196500.0 -0.1848376436 -0.9759530877
17300196200.0 -0.196886847 -0.9736007066
17350195900.0 -0.2088755815 -0.9711987031
17400195600.0 -0.2209541235 -0.9687135918
17450195300.0 -0.2340981684 -0.9658946308
17500195000.0 -0.2476869421 -0.9627564565
17550194700.0 -0.2613374005 -0.9590594304
17600194400.0 -0.2753045563 -0.9549055692
17650194100.0 -0.2891427098 -0.9508575989
17700193800.0 -0.3022180824 -0.946988353
17750193500.0 -0.3166244079 -0.942390476
17800193200.0 -0.3308366659 -0.9371076837
17850192900.0 -0.3461049359 -0.931420296
17900192600.0 -0.3614999359 -0.9255152394
17950192300.0 -0.3769161626 -0.9182568614
18000192000.0 -0.3915861007 -0.9112146933
18050191700.0 -0.4054485192 -0.9032856114
18100191400.0 -0.4196868573 -0.8956360722
18150191100.0 -0.4344947314 -0.8876497762
18200190800.0 -0.4514797303 -0.8784582197
18250190500.0 -0.4684371496 -0.8689296917
18300190200.0 -0.4839324259 -0.8605186547
18350189900.0 -0.4989786787 -0.8515276081
18400189600.0 -0.5131168088 -0.8432718987
18450189300.0 -0.5266366941 -0.8357426349
18500189000.0 -0.5405873607 -0.8273929694
18550188700.0 -0.5528046013 -0.8199394387
18600188400.0 -0.5645691636 -0.8134600633
18650188100.0 -0.5753900685 -0.8070340078
18700187800.0 -0.5861707077 -0.8004361476
18750187500.0 -0.5969201989 -0.7938701294
18800187200.0 -0.607656834 -0.7869005433
18850186900.0 -0.6176670635 -0.7799010259
18900186600.0 -0.6277156493 -0.772872864
18950186300.0 -0.6377908467 -0.7652504726
19000186000.0 -0.6451967691 -0.7589184069
19050185700.0 -0.6543081151 -0.75152546
19100185400.0 -0.6640402307 -0.7436352277
19150185100.0 -0.6744633208 -0.7351299359
19200184800.0 -0.6833704573 -0.7268864416
19250184500.0 -0.6935277313 -0.71691152
19300184200.0 -0.7059031632 -0.7077628496
19350183900.0 -0.7161857135 -0.6983308607
19400183600.0 -0.7258767874 -0.6882061499
19450183300.0 -0.7342957286 -0.6779602642
19500183000.0 -0.7431081485 -0.6684945552
19550182700.0 -0.7529619616 -0.6573654341
19600182400.0 -0.7631271959 -0.6457282525
19650182100.0 -0.7739661395 -0.6331781963
19700181800.0 -0.7850142968 -0.6200164589
19750181500.0 -0.7954461499 -0.6059429198
19800181200.0 -0.8057777595 -0.5910082493
19850180900.0 -0.8153960608 -0.5754576933
19900180600.0 -0.8233539964 -0.5606377348
19950180300.0 -0.8327521745 -0.5445330917
20000180000.0 -0.8257100703 -0.5472261226
20050179700.0 -0.8336261748 -0.5339015182
20100179400.0 -0.841276 -0.5207879513
20150179100.0 -0.8500045085 -0.5081716673
20200178800.0 -0.8587318706 -0.4958488528
20250178500.0 -0.868541974 -0.4823335659
20300178200.0 -0.8777547604 -0.4673962753
20350177900.0 -0.8867053072 -0.4530403856
20400177600.0 -0.895789105 -0.4390393053
20450177300.0 -0.904388237 -0.4246557017
20500177000.0 -0.9123411816 -0.4108008009
20550176700.0 -0.9204902495 -0.3969993253
20600176400.0 -0.9273186082 -0.3839455326
20650176100.0 -0.9342048696 -0.3714842661
20700175800.0 -0.9404482078 -0.3599622435
20750175500.0 -0.9467277022 -0.3484326697
20800175200.0 -0.9517839632 -0.3369305866
20850174900.0 -0.9568428216 -0.3272757691
20900174600.0 -0.9612432354 -0.3157016126
20950174300.0 -0.9653752961 -0.3042539957
21000174000.0 -0.9690136293 -0.2922759092
21050173700.0 -0.9708566285 -0.2821593318
21100173400.0 -0.9751012278 -0.2705311788
21150173100.0 -0.9792192114 -0.2578969882
21200172800.0 -0.9826084809 -0.2447285542
21250172500.0 -0.9857982825 -0.230728277
21300172200.0 -0.9884034364 -0.2166667622
21350171900.0 -0.9898109737 -0.2021145659
21400171600.0 -0.9911085877 -0.1877586003
21450171300.0 -0.9922922966 -0.1733633586
21500171000.0 -0.9918049816 -0.158251883
21550170700.0 -0.9917728471 -0.1425233303
21600170400.0 -0.9921186842 -0.1270020133
21650170100.0 -0.9913499471 -0.1099676867
21700169800.0 -0.9908847575 -0.0968605987
21750169500.0 -0.9895356496 -0.0801518704
21800169200.0 -0.9886118417 -0.0632367715
21850168900.0 -0.9877928835 -0.0461678561
21900168600.0 -0.9864729561 -0.0301366704
21950168300.0 -0.9854375184 -0.0146348355
22000168000.0 -0.984638881 6.62733e-05
22050167700.0 -0.9845186515 0.0147786545
22100167400.0 -0.9844985294 0.0298660735
22150167100.0 -0.9853737977 0.0453353104
22200166800.0 -0.9856820425 0.0617379835
22250166500.0 -0.9854986185 0.0790146409
22300166200.0 -0.9847420195 0.0957792881
22350165900.0 -0.9831095116 0.1124984981
22400165600.0 -0.9812543818 0.1285301685
22450165300.0 -0.9795438513 0.142937012
22500165000.0 -0.9773058042 0.1571610579
22550164700.0 -0.9772507396 0.1727098923
22600164400.0 -0.9746776885 0.1876266387
22650164100.0 -0.972530968 0.2027207531
22700163800.0 -0.9695068927 0.2187167358
22750163500.0 -0.9672269758 0.2336974264
22800163200.0 -0.9646127093 0.2469734651
22850162900.0 -0.9620505096 0.2600796862
22900162600.0 -0.9605216276 0.2739443828
22950162300.0 -0.9591621222 0.2865020365
23000162000.0 -0.9581230013 0.2981691331
23050161700.0 -0.9559539028 0.3109057668
23100161400.0 -0.9537933843 0.3240088804
23150161100.0 -0.9506979935 0.3363400313
23200160800.0 -0.9477819735 0.3486784964
23250160500.0 -0.9453084958 0.3611056207
23300160200.0 -0.9427557569 0.3729074043
23350159900.0 -0.9392319112 0.3860441136
23400159600.0 -0.933767593 0.3993641047
23450159300.0 -0.9294548021 0.4133183429
23500159000.0 -0.924955559 0.425902443
23550158700.0 -0.9202788223 0.4390078024
23600158400.0 -0.9148843695 0.452823795
23650158100.0 -0.9085135003 0.4668802421
23700157800.0 -0.900706723 0.4807977079
23750157500.0 -0.891978637 0.4951125313
23800157200.0 -0.8834275284 0.5083450462
23850156900.0 -0.8740439916 0.5204589807
23900156600.0 -0.8645530708 0.5339219577
23950156300.0 -0.8556557502 0.545628136
24000156000.0 -0.8458524734 0.5585027173
24050155700.0 -0.8370090129 0.5704119973
24100155400.0 -0.826742129 0.5816719845
24150155100.0 -0.8157472401 0.5938232389
24200154800.0 -0.8045267487 0.6053853791
24250154500.0 -0.7935845926 0.6169570629
24300154200.0 -0.7818850435 0.628413365
24350153900.0 -0.7702219139 0.6393981635
24400153600.0 -0.7582543722 0.6494490532
24450153300.0 -0.7459936948 0.6595420246
24500153000.0 -0.7349815282 0.6690566665
24550152700.0 -0.7234424028 0.679601725
24600152400.0 -0.7119431443 0.6881568648
24650152100.0 -0.7004459144 0.6968458349
