!Created with skrf (http://scikit-rf.org).
# Hz S RI R 50.0 
!freq ReS11 ImS11
300000.0 -0.9842232285 -0.088321575
50299700.0 -1.000131501 0.0165325229
100299400.0 -0.9980345184 0.0295371114
150299100.0 -1.002843761 0.0461978723
200298800.0 -0.9995578229 0.059629933
250298500.0 -0.9974923966 0.073238605
300298200.0 -0.9859870553 0.0887916734
350297900.0 -0.9940721396 0.099844384
400297600.0 -0.9930752727 0.1163442297
450297300.0 -0.9908023124 0.1299619149
500297000.0 -0.989354003 0.1447964536
550296700.0 -0.9840165018 0.1574328677
600296400.0 -1.017162614 0.190818921
650296100.0 -0.9818166418 0.1873979827
700295800.0 -0.9788372045 0.2015506431
750295500.0 -0.975770232 0.2157464335
800295200.0 -0.9726353557 0.2298326776
850294900.0 -0.969121552 0.2434378091
900294600.0 -0.9652507093 0.257352063
950294300.0 -0.961539606 0.2710475323
1000294000.0 -0.9574637065 0.2848714598
1050293700.0 -0.9529041303 0.2987540564
1100293400.0 -0.9488491242 0.3131976507
1150293100.0 -0.9449142166 0.3250110211
1200292800.0 -0.9394941022 0.3393983279
1250292500.0 -0.9341254808 0.3527345949
1300292200.0 -0.9283069303 0.3659297829
1350291900.0 -0.9228330621 0.3800268348
1400291600.0 -0.917354945 0.3929104694
1450291300.0 -0.912011865 0.4054266968
1500291000.0 -0.9057055319 0.4185523674
1550290700.0 -0.8993452488 0.4319886483
1600290400.0 -0.8930864783 0.444892636
1650290100.0 -0.8863878387 0.4570285833
1700289800.0 -0.87955136 0.470387299
1750289500.0 -0.8725730339 0.4828164118
1800289200.0 -0.8651185734 0.4955793409
1850288900.0 -0.8582436085 0.5068162368
1900288600.0 -0.8504887088 0.5200473301
1950288300.0 -0.8423526024 0.5325305642
2000288000.0 -0.8349062502 0.543962383
2050287700.0 -0.8267188265 0.5562102734
2100287400.0 -0.8186112821 0.5679769082
2150287100.0 -0.8099776055 0.5798881502
2200286800.0 -0.8022924425 0.5902955992
2250286500.0 -0.7934448501 0.602416721
2300286200.0 -0.7843154177 0.6138861879
2350285900.0 -0.7756499395 0.6251728263
2400285600.0 -0.7664753983 0.6361065706
2450285300.0 -0.7577296834 0.6466213094
2500285000.0 -0.7482749857 0.6575564427
2550284700.0 -0.7391629344 0.6680072409
2600284400.0 -0.7296984944 0.6783548439
2650284100.0 -0.7207665116 0.6885598326
2700283800.0 -0.7101488567 0.6991736281
2750283500.0 -0.6999452939 0.7098245791
2800283200.0 -0.689996707 0.7196196665
2850282900.0 -0.6798080065 0.7291064902
2900282600.0 -0.669620856 0.7389287416
2950282300.0 -0.6591896183 0.7479694446
3000282000.0 -0.6485693647 0.7574405961
3050281700.0 -0.6374720327 0.7666814526
3100281400.0 -0.6256634306 0.7759560248
3150281100.0 -0.6140050296 0.7853413804
3200280800.0 -0.6023747521 0.7937917224
3250280500.0 -0.5917066732 0.8016835328
3300280200.0 -0.580430071 0.8094667684
3350279900.0 -0.5690716139 0.8170111088
3400279600.0 -0.5569075141 0.8246765619
3450279300.0 -0.545704944 0.8317437139
3500279000.0 -0.5337283638 0.8388620471
3550278700.0 -0.5214219462 0.8462850549
3600278400.0 -0.5092383833 0.8533609908
3650278100.0 -0.4958653096 0.8610929722
3700277800.0 -0.483944003 0.8673846211
3750277500.0 -0.4716493901 0.8739615564
3800277200.0 -0.4590790092 0.8804581386
3850276900.0 -0.4466257394 0.8865213073
3900276600.0 -0.4357874804 0.8921529803
3950276300.0 -0.4234747642 0.8981414309
4000276000.0 -0.4109969021 0.9042580507
4050275700.0 -0.3979555043 0.9105061151
4100275400.0 -0.3865293791 0.9157385292
4150275100.0 -0.373877951 0.9213253961
4200274800.0 -0.3608492579 0.9268906367
4250274500.0 -0.3483761296 0.9316365128
4300274200.0 -0.3354152705 0.9370578636
4350273900.0 -0.3217568783 0.9423066579
4400273600.0 -0.3070551319 0.9472930642
4450273300.0 -0.2917470922 0.9524164789
4500273000.0 -0.2781142573 0.9568698749
4550272700.0 -0.2638818294 0.9609643841
4600272400.0 -0.2484449116 0.9652773327
4650272100.0 -0.2366172206 0.9685044132
4700271800.0 -0.2232911931 0.9717824144
4750271500.0 -0.2116266324 0.974746203
4800271200.0 -0.1989258791 0.9775024494
4850270900.0 -0.1850581106 0.9800369075
4900270600.0 -0.1715184389 0.9824201845
4950270300.0 -0.1572436793 0.9850051948
5000270000.0 -0.1430973254 0.9873566157
5050269700.0 -0.1295898487 0.9888186417
5100269400.0 -0.1162326268 0.9904386661
5150269100.0 -0.1031041457 0.9921381019
5200268800.0 -0.0897071338 0.9929562466
5250268500.0 -0.0765838447 0.9939373461
5300268200.0 -0.063397782 0.994813059
5350267900.0 -0.0515000806 0.9951811492
5400267600.0 -0.0352247872 0.996445077
5450267300.0 -0.022176564 0.9967883172
5500267000.0 -0.007076767 0.9971159757
5550266700.0 0.0075172465 0.997305731
5600266400.0 0.0230208143 0.9973271886
5650266100.0 0.0393580096 0.9968124589
5700265800.0 0.0538818427 0.9961813061
5750265500.0 0.0692734761 0.9954618343
5800265200.0 0.0831445779 0.9941704474
5850264900.0 0.0966550384 0.9929985326
5900264600.0 0.1133219527 0.9916093416
5950264300.0 0.1251118453 0.9898084959
6000264000.0 0.1392534582 0.9878294431
6050263700.0 0.1521310687 0.9864163882
6100263400.0 0.1649643888 0.9841406875
6150263100.0 0.1792746246 0.9816595681
6200262800.0 0.1898908554 0.9798831322
6250262500.0 0.2027922557 0.9774858958
6300262200.0 0.2156261146 0.9746421451
6350261900.0 0.2286214472 0.971656014
6400261600.0 0.2425518195 0.9683252454
6450261300.0 0.2542649271 0.9657596497
6500261000.0 0.266976293 0.9622602269
6550260700.0 0.2798613997 0.9582678311
6600260400.0 0.2931105493 0.9540413305
6650260100.0 0.3067583542 0.9500022347
6700259800.0 0.3188573743 0.9455700228
6750259500.0 0.33266999 0.940809536
6800259200.0 0.3459809182 0.9358804296
6850258900.0 0.3574525838 0.9309100208
6900258600.0 0.3699171732 0.9258264222
6950258300.0 0.3823850836 0.9205807484
7000258000.0 0.394303906 0.9151896645
7050257700.0 0.4065523325 0.90927951
7100257400.0 0.4192486774 0.9031039358
7150257100.0 0.4294726204 0.8978606925
7200256800.0 0.4421169079 0.8914781143
7250256500.0 0.454041004 0.8854439582
7300256200.0 0.466924536 0.8783481249
7350255900.0 0.4789538034 0.871757588
7400255600.0 0.4918669541 0.8644942387
7450255300.0 0.506885397 0.8555542856
7500255000.0 0.5188176276 0.8484907652
7550254700.0 0.5323771699 0.8400736817
7600254400.0 0.5453387533 0.8318427435
7650254100.0 0.5566435399 0.8240650142
7700253800.0 0.5686981968 0.816046139
7750253500.0 0.5799126451 0.8079778611
7800253200.0 0.5906854643 0.8002637904
7850252900.0 0.6003471589 0.7929027095
7900252600.0 0.6122674104 0.7841176931
7950252300.0 0.621311252 0.7774503806
8000252000.0 0.6315263073 0.769375867
8050251700.0 0.6422092411 0.7610574686
8100251400.0 0.6521851598 0.7529086825
8150251100.0 0.6624852645 0.7442232009
8200250800.0 0.6715504131 0.7361833919
8250250500.0 0.6808028621 0.7279781873
8300250200.0 0.6903733998 0.7193162977
8350249900.0 0.6992438932 0.7108432558
8400249600.0 0.7078897315 0.7023261402
8450249300.0 0.7167745817 0.6932275537
8500249000.0 0.7256337601 0.6841602863
8550248700.0 0.7337288859 0.6751185964
8600248400.0 0.7424266164 0.6657105307
8650248100.0 0.749995792 0.6563158248
8700247800.0 0.7595088964 0.6453680051
8750247500.0 0.7676204183 0.6352679242
8800247200.0 0.7757684636 0.6250978489
8850246900.0 0.7844327999 0.6137306333
8900246600.0 0.7929578607 0.6025397927
8950246300.0 0.8022159635 0.5901489433
9000246000.0 0.8114271507 0.5772530354
9050245700.0 0.8203258408 0.5644749794
9100245400.0 0.8290898061 0.5519388549
9150245100.0 0.8381422265 0.5386137429
9200244800.0 0.8478746422 0.5238762584
9250244500.0 0.8568525075 0.5085991881
9300244200.0 0.8651433998 0.4942924571
9350243900.0 0.8729601497 0.480092709
9400243600.0 0.8799098121 0.4672644597
9450243300.0 0.8858535708 0.4552490392
9500243000.0 0.8922796709 0.4425430889
9550242700.0 0.896295315 0.4343247324
9600242400.0 0.9004448946 0.4263039756
9650242100.0 0.9041708505 0.4192714578
9700241800.0 0.9088697391 0.4109136697
9750241500.0 0.9125079456 0.4031378805
9800241200.0 0.9169790951 0.3936895102
9850240900.0 0.9226245595 0.3820270293
9900240600.0 0.927995056 0.3706340472
9950240300.0 0.9344249403 0.3544579266
10000240000.0 0.9392112956 0.3431023189
10050239700.0 0.9446712089 0.3278458222
10100239400.0 0.9497481348 0.3128941677
10150239100.0 0.9542439548 0.2981469021
10200238800.0 0.9584439545 0.2831732547
10250238500.0 0.9617279391 0.2699467188
10300238200.0 0.9647926541 0.2560550259
10350237900.0 0.9675139676 0.243013663
10400237600.0 0.9701628586 0.229884298
10450237300.0 0.9727643306 0.2164069823
10500237000.0 0.9753269184 0.2038581654
10550236700.0 0.9776339049 0.1906536713
10600236400.0 0.9792399773 0.1769148736
10650236100.0 0.9816577897 0.1630545987
10700235800.0 0.984115199 0.1508050261
10750235500.0 0.985959889 0.1373870706
10800235200.0 0.9879026637 0.1235164486
10850234900.0 0.9898091325 0.109135044
10900234600.0 0.991973242 0.0944831152
10950234300.0 0.9934388982 0.0813278688
11000234000.0 0.9951782696 0.0664880335
11050233700.0 0.9968024167 0.0503968173
11100233400.0 0.9981482147 0.0332866954
11150233100.0 0.9990846209 0.0169427939
11200232800.0 0.9995057039 0.0020259192
11250232500.0 1.000454128 -0.0146100688
11300232200.0 1.001384054 -0.0321623908
11350231900.0 1.001046823 -0.0476504014
11400231600.0 1.000659129 -0.0645120339
11450231300.0 0.999966718 -0.0790013846
11500231000.0 0.9991703421 -0.0960420776
11550230700.0 0.9973876944 -0.1094790067
11600230400.0 0.9959778695 -0.1224500335
11650230100.0 0.9942347894 -0.1338666429
11700229800.0 0.991847156 -0.1491031005
11750229500.0 0.9894058886 -0.1633919404
11800229200.0 0.9867325363 -0.177673289
11850228900.0 0.9833481372 -0.190742936
11900228600.0 0.9797991052 -0.2004312008
11950228300.0 0.9766070113 -0.2114823159
12000228000.0 0.9737478267 -0.2207827587
12050227700.0 0.9706628176 -0.2333753329
12100227400.0 0.9669437141 -0.245268282
12150227100.0 0.9625580833 -0.2608864253
12200226800.0 0.9586332017 -0.2717131183
12250226500.0 0.9552921578 -0.2837947359
12300226200.0 0.9503125932 -0.2959416004
12350225900.0 0.9459736022 -0.3102864114
12400225600.0 0.9416288492 -0.3231103616
12450225300.0 0.9377090166 -0.3355646602
12500225000.0 0.9316720258 -0.350068103
12550224700.0 0.9266706689 -0.3635177744
12600224400.0 0.921888291 -0.3757726463
12650224100.0 0.91614355 -0.3900383674
12700223800.0 0.9109440026 -0.4026574743
12750223500.0 0.9052462786 -0.4156534947
12800223200.0 0.9001312779 -0.4280595155
12850222900.0 0.8948089553 -0.4401423576
12900222600.0 0.8889122548 -0.4524862928
12950222300.0 0.8826846735 -0.4650198258
13000222000.0 0.8764926831 -0.4768123948
13050221700.0 0.8696354513 -0.4895622248
13100221400.0 0.8628518591 -0.501298926
13150221100.0 0.8559766924 -0.5139253791
13200220800.0 0.8489941518 -0.5256477649
13250220500.0 0.8415781813 -0.5377421889
13300220200.0 0.8336539101 -0.5490714711
13350219900.0 0.8254398481 -0.5610804672
13400219600.0 0.8169686467 -0.573479795
13450219300.0 0.8074760732 -0.5869448963
13500219000.0 0.7974534187 -0.6009956123
13550218700.0 0.787038102 -0.6139476983
13600218400.0 0.7769419547 -0.6259798454
13650218100.0 0.7666011269 -0.6378457947
13700217800.0 0.7556633951 -0.6496257186
13750217500.0 0.7455992388 -0.6613365101
13800217200.0 0.7347757723 -0.6723871109
13850216900.0 0.7242822738 -0.6843058642
13900216600.0 0.7143767331 -0.6925060759
13950216300.0 0.7034432096 -0.7036397564
14000216000.0 0.6935412313 -0.7122828774
14050215700.0 0.6837228754 -0.7208912246
14100215400.0 0.6740553895 -0.7299577153
14150215100.0 0.6649637594 -0.7381754324
14200214800.0 0.6556032039 -0.7467682341
14250214500.0 0.6455682157 -0.7558275933
14300214200.0 0.6352119558 -0.7650341225
14350213900.0 0.6244318004 -0.7742572308
14400213600.0 0.6128865046 -0.783728202
14450213300.0 0.6000143026 -0.7938886464
14500213000.0 0.5867173474 -0.8033000684
14550212700.0 0.5744587009 -0.8129173316
14600212400.0 0.562297365 -0.8218463509
14650212100.0 0.5492196929 -0.8305599196
14700211800.0 0.5355562798 -0.8394342843
14750211500.0 0.5237513235 -0.8477356225
14800211200.0 0.510950267 -0.8560188191
14850210900.0 0.4987768021 -0.8632572187
14900210600.0 0.4854999657 -0.8712196878
14950210300.0 0.471788118 -0.8789905812
15000210000.0 0.4587386998 -0.8858654361
15050209700.0 0.4463994617 -0.8920916976
15100209400.0 0.4334564956 -0.8981534896
15150209100.0 0.4206184924 -0.9035494111
15200208800.0 0.4071444138 -0.9092623011
15250208500.0 0.3960004786 -0.9137918677
15300208200.0 0.3827754174 -0.9188294005
15350207900.0 0.3699002459 -0.9236096653
15400207600.0 0.3548170001 -0.9290976287
15450207300.0 0.3399846616 -0.9340875593
15500207000.0 0.3262353272 -0.939216685
15550206700.0 0.3114498516 -0.9444192057
15600206400.0 0.2948286735 -0.9488173422
15650206100.0 0.2800887335 -0.9523523716
15700205800.0 0.2657951415 -0.9563422728
15750205500.0 0.2512750173 -0.9599594229
15800205200.0 0.2368834791 -0.9631928842
15850204900.0 0.2227968713 -0.9664493433
15900204600.0 0.2078426626 -0.9700795328
15950204300.0 0.1940921229 -0.9725856158
16000204000.0 0.1801564457 -0.975838059
16050203700.0 0.1658925262 -0.9781732147
16100203400.0 0.1515471639 -0.9807427431
16150203100.0 0.1371229993 -0.9834534597
16200202800.0 0.1234901686 -0.9851363927
16250202500.0 0.108695233 -0.9858522681
16300202200.0 0.0933038931 -0.9880572448
16350201900.0 0.078843378 -0.9895407443
16400201600.0 0.0643059831 -0.9903767975
16450201300.0 0.0492118314 -0.9914145796
16500201000.0 0.0328519649 -0.9922740214
16550200700.0 0.0170313455 -0.9926033899
16600200400.0 0.001066171 -0.9926305818
16650200100.0 -0.0153928098 -0.9924986075
16700199800.0 -0.031895447 -0.9924587184
16750199500.0 -0.050396795 -0.991869683
16800199200.0 -0.0666543506 -0.9911003743
16850198900.0 -0.0819945864 -0.989571763
16900198600.0 -0.0960947509 -0.9889099674
16950198300.0 -0.1093145446 -0.9872538647
17000198000.0 -0.1229412018 -0.985250716
17050197700.0 -0.135592018 -0.9834828458
17100197400.0 -0.1485213293 -0.982140415
17150197100.0 -0.1616742164 -0.9795870609
17200196800.0 -0.1741990085 -0.977184131
17250196500.0 -0.1877032485 -0.9753811458
17300196200.0 -0.1997550312 -0.9727232729
17350195900.0 -0.2120844254 -0.970324704
17400195600.0 -0.2243668821 -0.9678122792
17450195300.0 -0.2373327128 -0.965214211
17500195000.0 -0.2507120866 -0.9616947784
17550194700.0 -0.264382244 -0.9582261374
17600194400.0 -0.2785333651 -0.9542481711
17650194100.0 -0.291974569 -0.9498260337
17700193800.0 -0.3048221416 -0.9457440345
17750193500.0 -0.3193297343 -0.9411865821
17800193200.0 -0.3331541233 -0.9364855775
17850192900.0 -0.3477976279 -0.9308722171
17900192600.0 -0.3625590733 -0.9247916065
17950192300.0 -0.3783734206 -0.9177972529
18000192000.0 -0.3929951516 -0.9107047619
18050191700.0 -0.4067252041 -0.9029580714
18100191400.0 -0.4207944631 -0.8953518431
18150191100.0 -0.4354488448 -0.8873646466
18200190800.0 -0.4521499232 -0.8786331936
18250190500.0 -0.4689413155 -0.86893705
18300190200.0 -0.4840900798 -0.8604290906
18350189900.0 -0.4992664414 -0.8519707267
18400189600.0 -0.5135458527 -0.843563485
18450189300.0 -0.5269655784 -0.835545658
18500189000.0 -0.5400903377 -0.8273434598
18550188700.0 -0.5529493141 -0.8195825229
18600188400.0 -0.5653255113 -0.8126817948
18650188100.0 -0.5764160632 -0.8059635535
18700187800.0 -0.5871494007 -0.7991465578
18750187500.0 -0.5985100536 -0.7921146728
18800187200.0 -0.6092052712 -0.7847922402
18850186900.0 -0.6198163353 -0.7774011275
18900186600.0 -0.6304946274 -0.7697361038
18950186300.0 -0.6406898904 -0.7617094328
19000186000.0 -0.6483226546 -0.7549462398
19050185700.0 -0.6579894652 -0.7473126948
19100185400.0 -0.6681278366 -0.7394862763
19150185100.0 -0.6782862585 -0.7302669288
19200184800.0 -0.6875544433 -0.7221313549
19250184500.0 -0.6980669005 -0.7127860699
19300184200.0 -0.7091177979 -0.7026803542
19350183900.0 -0.7204822878 -0.6936197226
19400183600.0 -0.7299025343 -0.6833827738
19450183300.0 -0.7383319512 -0.6730222683
19500183000.0 -0.7463561858 -0.6631580141
19550182700.0 -0.7562082828 -0.6528150801
19600182400.0 -0.7664201606 -0.6414656829
19650182100.0 -0.7769239746 -0.6284268516
19700181800.0 -0.7870654415 -0.6159431126
19750181500.0 -0.7971956556 -0.6023761162
19800181200.0 -0.8071658799 -0.5879059251
19850180900.0 -0.8167208561 -0.5728076887
19900180600.0 -0.8243428761 -0.5587594071
19950180300.0 -0.8334647481 -0.5429829832
20000180000.0 -0.8283614202 -0.5448594106
20050179700.0 -0.8360628615 -0.5318463109
20100179400.0 -0.844383011 -0.5164552159
20150179100.0 -0.8529695588 -0.5052147508
20200178800.0 -0.8607434591 -0.4923693098
20250178500.0 -0.8702599729 -0.4793134481
20300178200.0 -0.8793632175 -0.4649316852
20350177900.0 -0.8874646239 -0.4503890254
20400177600.0 -0.8962651598 -0.4358404094
20450177300.0 -0.9045492796 -0.4213015885
20500177000.0 -0.9125206082 -0.4074572241
20550176700.0 -0.9200659118 -0.393698649
20600176400.0 -0.9265163918 -0.3805486172
20650176100.0 -0.9336965356 -0.3677650075
20700175800.0 -0.9403610129 -0.3566061288
20750175500.0 -0.9470225916 -0.3437455104
20800175200.0 -0.9516621388 -0.3326912994
20850174900.0 -0.9564752259 -0.3221971436
20900174600.0 -0.9612827631 -0.3083398192
20950174300.0 -0.9655367405 -0.2978415339
21000174000.0 -0.9688083848 -0.2859553824
21050173700.0 -0.9726519645 -0.2736199927
21100173400.0 -0.9765814077 -0.2615157094
21150173100.0 -0.9802785287 -0.2488741945
21200172800.0 -0.9841708275 -0.2346210534
21250172500.0 -0.9874438658 -0.2213243407
21300172200.0 -0.9899422862 -0.2071792232
21350171900.0 -0.9912719243 -0.1925382307
21400171600.0 -0.9928152587 -0.1779513945
21450171300.0 -0.9936041752 -0.1638471856
21500171000.0 -0.9931314559 -0.1487964062
21550170700.0 -0.9930979638 -0.1339720842
21600170400.0 -0.9928550924 -0.1183795758
21650170100.0 -0.993422205 -0.1039665279
21700169800.0 -0.9912214452 -0.0873684666
21750169500.0 -0.9898437349 -0.0723472367
21800169200.0 -0.9876410477 -0.0559475394
21850168900.0 -0.9877115224 -0.0400370085
21900168600.0 -0.985815568 -0.0229624947
21950168300.0 -0.9841192069 -0.0080288815
22000168000.0 -0.9834645823 0.0066817892
22050167700.0 -0.9826897206 0.0209455151
22100167400.0 -0.9826898586 0.0357904819
22150167100.0 -0.9833487576 0.0512052468
22200166800.0 -0.983216388 0.0670076631
22250166500.0 -0.9824273446 0.0839899857
22300166200.0 -0.9824345918 0.0993773816
22350165900.0 -0.9800731613 0.1159902263
22400165600.0 -0.9792779965 0.1322643653
22450165300.0 -0.9772326908 0.1471005788
22500165000.0 -0.9746328883 0.1607334208
22550164700.0 -0.9732662875 0.1759855462
22600164400.0 -0.9709070185 0.1918695911
22650164100.0 -0.9695062326 0.2066567399
22700163800.0 -0.9665558746 0.2213326437
22750163500.0 -0.964759991 0.2375412564
22800163200.0 -0.9615201138 0.2511485607
22850162900.0 -0.9589401769 0.2641271257
22900162600.0 -0.9575417451 0.2774576663
22950162300.0 -0.956476824 0.2904489003
23000162000.0 -0.9556361293 0.3023164628
23050161700.0 -0.9532883914 0.3147786875
23100161400.0 -0.9507235442 0.327640038
23150161100.0 -0.9480260087 0.3398407685
23200160800.0 -0.9454324666 0.352170243
23250160500.0 -0.9427075547 0.3640753752
23300160200.0 -0.9395495251 0.3753606978
23350159900.0 -0.9363057234 0.3892317905
23400159600.0 -0.9315762707 0.4012244189
23450159300.0 -0.9265810449 0.4152504339
23500159000.0 -0.9218542159 0.4271821734
23550158700.0 -0.9177130801 0.4402440283
23600158400.0 -0.9123307894 0.4532865285
23650158100.0 -0.9060057577 0.4668252
23700157800.0 -0.8985295727 0.4804433758
23750157500.0 -0.8901989969 0.4940586166
23800157200.0 -0.8811071274 0.5071900732
23850156900.0 -0.8731627032 0.5197464427
23900156600.0 -0.8641037598 0.5321798693
23950156300.0 -0.8543628023 0.5445118695
24000156000.0 -0.8458656582 0.5565136368
24050155700.0 -0.8352936118 0.567710921
24100155400.0 -0.8250203248 0.5804211062
24150155100.0 -0.814767714 0.5916986652
24200154800.0 -0.8043257687 0.6026976836
24250154500.0 -0.7924312091 0.6153206978
24300154200.0 -0.7817811266 0.6264582506
24350153900.0 -0.7702140026 0.6374272323
24400153600.0 -0.7581006234 0.6479391185
24450153300.0 -0.7464534343 0.6577918999
24500153000.0 -0.7348360673 0.6677313624
24550152700.0 -0.7239981915 0.6775684626
24600152400.0 -0.7126125481 0.6871453957
24650152100.0 -0.7013047605 0.6953690208
