!Created with skrf (http://scikit-rf.org).
# Hz S RI R 50.0 
!freq ReS11 ImS11
300000.0 -0.9723464117 -0.1219190396
50299700.0 -0.9999097987 0.0150453546
100299400.0 -0.9978827573 0.0278230232
150299100.0 -1.002801861 0.0448362245
200298800.0 -0.9997667914 0.058257252
250298500.0 -0.9973346444 0.0718078441
300298200.0 -0.9861934678 0.0875001523
350297900.0 -0.9940284243 0.0983847992
400297600.0 -0.9929892285 0.1148219068
450297300.0 -0.9908710869 0.1286988933
500297000.0 -0.9892312703 0.1432560547
550296700.0 -0.9841260477 0.1557595756
600296400.0 -1.017190114 0.1891872124
650296100.0 -0.9820922097 0.1859116286
700295800.0 -0.9790860615 0.1998515595
750295500.0 -0.9762603414 0.2138720484
800295200.0 -0.9729767984 0.2279240152
850294900.0 -0.969490939 0.2417380367
900294600.0 -0.9657913777 0.2554947087
950294300.0 -0.9620897398 0.2692377865
1000294000.0 -0.958140261 0.2833709611
1050293700.0 -0.9536765047 0.2971590824
1100293400.0 -0.9492742431 0.3115001861
1150293100.0 -0.9453936571 0.3232400286
1200292800.0 -0.94017398 0.3377628988
1250292500.0 -0.9345501937 0.3511437308
1300292200.0 -0.9287951512 0.3643142296
1350291900.0 -0.9236324325 0.3783927123
1400291600.0 -0.9179855218 0.391589202
1450291300.0 -0.9124413415 0.4040530745
1500291000.0 -0.9062251682 0.4171280103
1550290700.0 -0.8995967074 0.4307585609
1600290400.0 -0.8936555988 0.4435361667
1650290100.0 -0.8867789126 0.4557254866
1700289800.0 -0.8800122643 0.4691913656
1750289500.0 -0.8728831864 0.4813043784
1800289200.0 -0.8655536323 0.4943519811
1850288900.0 -0.858771942 0.5057231558
1900288600.0 -0.8511760282 0.5187097938
1950288300.0 -0.8429867079 0.5311721115
2000288000.0 -0.8355375405 0.5429248413
2050287700.0 -0.8270936014 0.5552134778
2100287400.0 -0.8195130218 0.5666491285
2150287100.0 -0.8108116919 0.5785508521
2200286800.0 -0.8029993584 0.5889418249
2250286500.0 -0.7940373003 0.6012557199
2300286200.0 -0.7851981565 0.6126784017
2350285900.0 -0.7768565927 0.6234616356
2400285600.0 -0.7680459667 0.6342418032
2450285300.0 -0.7590278068 0.6451297948
2500285000.0 -0.7492653436 0.6564134839
2550284700.0 -0.7402524153 0.667118291
2600284400.0 -0.7310158902 0.6768523391
2650284100.0 -0.722440871 0.6869261897
2700283800.0 -0.711924678 0.6973201467
2750283500.0 -0.7014623483 0.707943313
2800283200.0 -0.6919197164 0.7178693272
2850282900.0 -0.6811836239 0.7280836253
2900282600.0 -0.6708192342 0.7378832814
2950282300.0 -0.6604909841 0.7474073529
3000282000.0 -0.649402874 0.7563662596
3050281700.0 -0.6384396266 0.7658618181
3100281400.0 -0.6270022662 0.7750548052
3150281100.0 -0.6157496399 0.7838401886
3200280800.0 -0.6042396834 0.7922204519
3250280500.0 -0.5930859701 0.8002205879
3300280200.0 -0.5814160114 0.8082659259
3350279900.0 -0.5691640683 0.8163540131
3400279600.0 -0.5566537522 0.8246493931
3450279300.0 -0.5455166895 0.8315009388
3500279000.0 -0.5339348299 0.8385674824
3550278700.0 -0.521795581 0.8455733673
3600278400.0 -0.5099650786 0.8521146208
3650278100.0 -0.4968070873 0.8599671164
3700277800.0 -0.4846588792 0.8664154482
3750277500.0 -0.4722684947 0.8732933283
3800277200.0 -0.4599143718 0.8796818619
3850276900.0 -0.4478570839 0.8853841191
3900276600.0 -0.4370934049 0.891178142
3950276300.0 -0.4248850941 0.8970779374
4000276000.0 -0.4131929586 0.9032673809
4050275700.0 -0.4003129687 0.9089456512
4100275400.0 -0.3895769799 0.9145536483
4150275100.0 -0.3761395851 0.9204863399
4200274800.0 -0.3629273588 0.9260132694
4250274500.0 -0.350032698 0.9312737015
4300274200.0 -0.3369314667 0.9367729411
4350273900.0 -0.3225365766 0.9419391405
4400273600.0 -0.3078168034 0.9471042495
4450273300.0 -0.2929444535 0.9520857875
4500273000.0 -0.2797520791 0.9565108722
4550272700.0 -0.2661530447 0.9605634426
4600272400.0 -0.2510476146 0.9645848921
4650272100.0 -0.2396807773 0.9677423194
4700271800.0 -0.2268825794 0.9710706416
4750271500.0 -0.2152932829 0.9738165197
4800271200.0 -0.2030542488 0.9765738353
4850270900.0 -0.1892503258 0.9793917042
4900270600.0 -0.1754016788 0.9818539036
4950270300.0 -0.160868026 0.9845837826
5000270000.0 -0.1463462511 0.986710072
5050269700.0 -0.1329939849 0.9881917027
5100269400.0 -0.1187237612 0.9899195162
5150269100.0 -0.1048552837 0.9920575628
5200268800.0 -0.0913611026 0.9924412833
5250268500.0 -0.0781009434 0.9942282283
5300268200.0 -0.064594092 0.9943609428
5350267900.0 -0.0518881883 0.9950521923
5400267600.0 -0.0357829185 0.9962337314
5450267300.0 -0.0224631557 0.9967855417
5500267000.0 -0.0069596531 0.9969734158
5550266700.0 0.0079829298 0.9969373058
5600266400.0 0.0238738985 0.9970891153
5650266100.0 0.0404807234 0.9969182242
5700265800.0 0.054402754 0.9958571414
5750265500.0 0.0695606574 0.9951696828
5800265200.0 0.0829741873 0.9941900135
5850264900.0 0.0962333496 0.993335739
5900264600.0 0.11294059 0.9912321388
5950264300.0 0.1243505068 0.989996128
6000264000.0 0.1382982536 0.9881846244
6050263700.0 0.1493739477 0.9863902132
6100263400.0 0.1616574199 0.9848705047
6150263100.0 0.1762966778 0.9825773812
6200262800.0 0.1857902756 0.980875433
6250262500.0 0.1985468647 0.9786788731
6300262200.0 0.2107468168 0.9763332653
6350261900.0 0.2235787635 0.9733969998
6400261600.0 0.2374084613 0.9701146226
6450261300.0 0.2486242672 0.9677351426
6500261000.0 0.2618856001 0.9642005081
6550260700.0 0.2748626933 0.9600283702
6600260400.0 0.2885330393 0.9562759497
6650260100.0 0.3026614312 0.9515629531
6700259800.0 0.3146263831 0.9474914784
6750259500.0 0.3282761365 0.9424795838
6800259200.0 0.3421614156 0.9372813409
6850258900.0 0.3544818269 0.9321221044
6900258600.0 0.3668607879 0.9267758198
6950258300.0 0.3794694686 0.9214569052
7000258000.0 0.3910937519 0.9164279376
7050257700.0 0.4029779789 0.9105146847
7100257400.0 0.4164703266 0.9041118171
7150257100.0 0.4271059232 0.8985689665
7200256800.0 0.4401620902 0.8919342197
7250256500.0 0.4527482514 0.8855884587
7300256200.0 0.4656058125 0.8789590168
7350255900.0 0.4786133381 0.871760126
7400255600.0 0.4928422367 0.8643925354
7450255300.0 0.5085917759 0.8549433044
7500255000.0 0.520790961 0.8474473739
7550254700.0 0.5348241393 0.8383165678
7600254400.0 0.5474952595 0.830046523
7650254100.0 0.5590137679 0.8220632115
7700253800.0 0.5709512497 0.8140977187
7750253500.0 0.581731027 0.8065628945
7800253200.0 0.5923993216 0.7986933425
7850252900.0 0.6022344117 0.7915082349
7900252600.0 0.6137004686 0.7827779297
7950252300.0 0.6222673627 0.7762215614
8000252000.0 0.6320460659 0.7686581427
8050251700.0 0.6424202813 0.7604873539
8100251400.0 0.6524532654 0.7526875987
8150251100.0 0.6624267684 0.7442827638
8200250800.0 0.6720411122 0.7360521954
8250250500.0 0.6807506136 0.7281620474
8300250200.0 0.6895724289 0.7197037917
8350249900.0 0.6992067091 0.7109119853
8400249600.0 0.7069377764 0.7029320389
8450249300.0 0.715617453 0.6941268095
8500249000.0 0.7243753241 0.6854765018
8550248700.0 0.732503972 0.6763151082
8600248400.0 0.7408999499 0.6668057234
8650248100.0 0.7486496561 0.6574064078
8700247800.0 0.7578875844 0.6463460803
8750247500.0 0.7661187834 0.6362424476
8800247200.0 0.7740930261 0.6260681515
8850246900.0 0.7825737885 0.6146716773
8900246600.0 0.791051309 0.6031473612
8950246300.0 0.8006222967 0.5906358261
9000246000.0 0.8090083393 0.5786372871
9050245700.0 0.8179129048 0.5661245117
9100245400.0 0.8257574446 0.554111839
9150245100.0 0.8348427488 0.5413167681
9200244800.0 0.8442130312 0.5269195045
9250244500.0 0.8531519336 0.5123188256
9300244200.0 0.8613156337 0.4988813593
9350243900.0 0.8687154501 0.4854929549
9400243600.0 0.8753321893 0.4739361977
9450243300.0 0.8808749916 0.4634118568
9500243000.0 0.887231378 0.4517619952
9550242700.0 0.891174147 0.4444035546
9600242400.0 0.8955967499 0.4367024388
9650242100.0 0.8997522081 0.4298626569
9700241800.0 0.9046778191 0.421147933
9750241500.0 0.9092012349 0.413555892
9800241200.0 0.9140445247 0.4039644127
9850240900.0 0.9198430247 0.3922400018
9900240600.0 0.9258667248 0.3803066689
9950240300.0 0.9328176432 0.3635476119
10000240000.0 0.9378927414 0.3519359865
10050239700.0 0.9438721278 0.3353046543
10100239400.0 0.9494001732 0.3191263647
10150239100.0 0.9541503811 0.3035089629
10200238800.0 0.9582814262 0.2881104829
10250238500.0 0.9615195876 0.2745915728
10300238200.0 0.9646630805 0.2603690832
10350237900.0 0.9674262515 0.2470632584
10400237600.0 0.9699506858 0.2338303719
10450237300.0 0.9728505794 0.2200735226
10500237000.0 0.9748342085 0.2075672407
10550236700.0 0.9775953512 0.1929015536
10600236400.0 0.9795380616 0.1792309252
10650236100.0 0.9813691872 0.1643408548
10700235800.0 0.9840331044 0.152506933
10750235500.0 0.9859963536 0.1388410772
10800235200.0 0.9879596469 0.124439143
10850234900.0 0.9897647931 0.109553986
10900234600.0 0.991789155 0.0945633064
10950234300.0 0.993800509 0.0812721214
11000234000.0 0.9955570488 0.0655695146
11050233700.0 0.9974924746 0.0489525157
11100233400.0 0.9988065615 0.0309641316
11150233100.0 0.9999893908 0.0143262834
11200232800.0 1.000910099 -0.0018280076
11250232500.0 1.002126108 -0.0194391009
11300232200.0 1.00224587 -0.0376666396
11350231900.0 1.001551493 -0.0539532762
11400231600.0 1.001881579 -0.0703307044
11450231300.0 1.000865135 -0.0847812911
11500231000.0 1.000364004 -0.1017535663
11550230700.0 0.9980783424 -0.1145079209
11600230400.0 0.9971700078 -0.1280335847
11650230100.0 0.9947823106 -0.1395806473
11700229800.0 0.9927905786 -0.1546634852
11750229500.0 0.990428219 -0.1683847568
11800229200.0 0.9875225988 -0.1820056681
11850228900.0 0.9834924076 -0.1937679738
11900228600.0 0.9799888153 -0.2033492598
11950228300.0 0.9766769778 -0.2132966624
12000228000.0 0.973751243 -0.2221402331
12050227700.0 0.9698429613 -0.2348029485
12100227400.0 0.9667899987 -0.2455225465
12150227100.0 0.9616617911 -0.2620101591
12200226800.0 0.9581798654 -0.2732562864
12250226500.0 0.9536788598 -0.2862174876
12300226200.0 0.949607895 -0.2987267553
12350225900.0 0.9453986506 -0.3118536569
12400225600.0 0.9402321019 -0.3244691129
12450225300.0 0.936014399 -0.3368167575
12500225000.0 0.9298066123 -0.3520939548
12550224700.0 0.9249117605 -0.365412481
12600224400.0 0.9198641373 -0.3781811201
12650224100.0 0.9140503557 -0.3926388123
12700223800.0 0.9087223909 -0.40546331
12750223500.0 0.903267197 -0.4187887431
12800223200.0 0.8982412899 -0.4310693414
12850222900.0 0.8929855953 -0.443029451
12900222600.0 0.886845044 -0.4553038493
12950222300.0 0.8807743862 -0.4677368602
13000222000.0 0.8749918116 -0.4796664218
13050221700.0 0.8685839494 -0.4916700265
13100221400.0 0.8613918112 -0.5047243615
13150221100.0 0.8544485453 -0.5168821681
13200220800.0 0.8476337882 -0.5279771809
13250220500.0 0.8407190867 -0.5399665754
13300220200.0 0.8330456626 -0.5509797659
13350219900.0 0.8247991054 -0.563083971
13400219600.0 0.8163511239 -0.574959271
13450219300.0 0.8071569402 -0.5879075492
13500219000.0 0.79756998 -0.6012437801
13550218700.0 0.787100409 -0.6132835928
13600218400.0 0.7775040136 -0.6245651592
13650218100.0 0.7683064181 -0.6360280674
13700217800.0 0.7567685234 -0.6477541064
13750217500.0 0.7481986076 -0.6590915288
13800217200.0 0.7373131309 -0.6701549654
13850216900.0 0.7258280107 -0.6813032989
13900216600.0 0.7161889838 -0.6901021337
13950216300.0 0.7054148929 -0.7002629033
14000216000.0 0.6956649007 -0.7088800427
14050215700.0 0.686086072 -0.7171304945
14100215400.0 0.676744873 -0.7258637353
14150215100.0 0.6677359519 -0.7351123751
14200214800.0 0.6580940328 -0.743789671
14250214500.0 0.6478072411 -0.7534073624
14300214200.0 0.6371363784 -0.7627725971
14350213900.0 0.6261162894 -0.7725013059
14400213600.0 0.6142382079 -0.7823325708
14450213300.0 0.6011831329 -0.7922964527
14500213000.0 0.5886728161 -0.8022586521
14550212700.0 0.5763148949 -0.8113107095
14600212400.0 0.5642476352 -0.8205700192
14650212100.0 0.5512419862 -0.8290153894
14700211800.0 0.5369615201 -0.8389682396
14750211500.0 0.5250123198 -0.8471405119
14800211200.0 0.5126957793 -0.8553391162
14850210900.0 0.5003189205 -0.8630322821
14900210600.0 0.4870277865 -0.8707884158
14950210300.0 0.4737116024 -0.8784496994
15000210000.0 0.4611909595 -0.8851451527
15050209700.0 0.4485124836 -0.8911720966
15100209400.0 0.4354706459 -0.8972183912
15150209100.0 0.4233856512 -0.902582081
15200208800.0 0.4104046364 -0.908141708
15250208500.0 0.400248036 -0.9121968897
15300208200.0 0.3870741284 -0.9172147939
15350207900.0 0.3745444223 -0.922013477
15400207600.0 0.3600789297 -0.928117415
15450207300.0 0.3456530414 -0.9323543912
15500207000.0 0.3308957273 -0.9368207106
15550206700.0 0.3155215712 -0.942037543
15600206400.0 0.2998891731 -0.9466408666
15650206100.0 0.2840040633 -0.9504896601
15700205800.0 0.2703084381 -0.9544513224
15750205500.0 0.2566892841 -0.9576784185
15800205200.0 0.2427288481 -0.9611384278
15850204900.0 0.228470865 -0.9645070388
15900204600.0 0.2135434249 -0.9683563705
15950204300.0 0.1991253523 -0.9715867749
16000204000.0 0.1845352381 -0.9743451492
16050203700.0 0.1693421495 -0.9775290637
16100203400.0 0.1543302872 -0.979602036
16150203100.0 0.1400951056 -0.9822927622
16200202800.0 0.1261247058 -0.984208181
16250202500.0 0.1103457258 -0.9859671863
16300202200.0 0.0953832217 -0.9875957442
16350201900.0 0.0803789101 -0.9887716568
16400201600.0 0.0657774829 -0.9902701443
16450201300.0 0.0502432427 -0.9911673142
16500201000.0 0.032945824 -0.9919747576
16550200700.0 0.017088828 -0.9925620785
16600200400.0 0.0011756439 -0.9926113216
16650200100.0 -0.014975119 -0.992507887
16700199800.0 -0.0315718234 -0.9922041903
16750199500.0 -0.0507435542 -0.9912644124
16800199200.0 -0.0664834023 -0.9899586732
16850198900.0 -0.0818521651 -0.9893435709
16900198600.0 -0.095814056 -0.9885294525
16950198300.0 -0.1101603757 -0.9876476533
17000198000.0 -0.1234130938 -0.9861052539
17050197700.0 -0.135889208 -0.9842199212
17100197400.0 -0.1485264972 -0.9820192932
17150197100.0 -0.1613021459 -0.9800762774
17200196800.0 -0.1740815717 -0.9777756727
17250196500.0 -0.1869314973 -0.9755201199
17300196200.0 -0.1993772328 -0.9731055803
17350195900.0 -0.211295303 -0.9707345061
17400195600.0 -0.2230607677 -0.9682507674
17450195300.0 -0.2360594014 -0.96536627
17500195000.0 -0.249148869 -0.9621607116
17550194700.0 -0.2629136724 -0.9585412136
17600194400.0 -0.2770394072 -0.9545089293
17650194100.0 -0.2902063129 -0.9504046524
17700193800.0 -0.3030035236 -0.9462535739
17750193500.0 -0.3174563555 -0.9419188398
17800193200.0 -0.3315355161 -0.9366961469
17850192900.0 -0.3466065999 -0.9311039151
17900192600.0 -0.3614669935 -0.9252708573
17950192300.0 -0.3772083907 -0.9176333295
18000192000.0 -0.3917471358 -0.9107419627
18050191700.0 -0.4056828128 -0.9028202436
18100191400.0 -0.4196798447 -0.8952876053
18150191100.0 -0.4345831317 -0.8871044656
18200190800.0 -0.4513879121 -0.8780107395
18250190500.0 -0.4683593085 -0.8685325395
18300190200.0 -0.483926714 -0.8596526693
18350189900.0 -0.4993124356 -0.8509887921
18400189600.0 -0.5134645089 -0.8428336867
18450189300.0 -0.5270092097 -0.8343150601
18500189000.0 -0.5407079463 -0.8264647009
18550188700.0 -0.5530739671 -0.8190713373
18600188400.0 -0.5656449468 -0.8124383573
18650188100.0 -0.5766275919 -0.8056634361
18700187800.0 -0.5876056414 -0.7989775676
18750187500.0 -0.5984534083 -0.7923298462
18800187200.0 -0.6091829066 -0.7852276897
18850186900.0 -0.6193517599 -0.7784571505
18900186600.0 -0.6297408618 -0.7710633929
18950186300.0 -0.6401379759 -0.7633303331
19000186000.0 -0.6474810954 -0.7572436671
19050185700.0 -0.6567404391 -0.7499256054
19100185400.0 -0.6668445325 -0.7418535946
19150185100.0 -0.6768688588 -0.7332681552
19200184800.0 -0.6862166696 -0.725387868
19250184500.0 -0.6962333659 -0.7161558664
19300184200.0 -0.7079538736 -0.7067324559
19350183900.0 -0.7187722111 -0.6972309567
19400183600.0 -0.7279661985 -0.6870194598
19450183300.0 -0.7369445528 -0.6767145801
19500183000.0 -0.7455521318 -0.6667249748
19550182700.0 -0.7553472203 -0.655831858
19600182400.0 -0.7653431173 -0.6441709636
19650182100.0 -0.7761392282 -0.6320140909
19700181800.0 -0.7868796702 -0.6187214987
19750181500.0 -0.7972190769 -0.6045391274
19800181200.0 -0.8071353949 -0.5895658647
19850180900.0 -0.8166944162 -0.574367088
19900180600.0 -0.8243410902 -0.5598874537
19950180300.0 -0.8333678653 -0.5436792144
20000180000.0 -0.8230518818 -0.5467856823
20050179700.0 -0.8314796373 -0.5343712007
20100179400.0 -0.8397722911 -0.5208355147
20150179100.0 -0.8473094692 -0.5094922311
20200178800.0 -0.8555273072 -0.4979246229
20250178500.0 -0.8656206324 -0.4857302198
20300178200.0 -0.8752318992 -0.4717591137
20350177900.0 -0.884442827 -0.4579791237
20400177600.0 -0.8933119294 -0.4437738908
20450177300.0 -0.901847411 -0.42957057
20500177000.0 -0.9100209344 -0.41556037
20550176700.0 -0.9176407469 -0.4020740192
20600176400.0 -0.9251574639 -0.3892026086
20650176100.0 -0.9311329847 -0.3773819466
20700175800.0 -0.9380749121 -0.3647551266
20750175500.0 -0.9450783067 -0.353336813
20800175200.0 -0.9494911914 -0.3429723197
20850174900.0 -0.9533623533 -0.3327497091
20900174600.0 -0.9577606121 -0.3207858182
20950174300.0 -0.9615152779 -0.30996232
21000174000.0 -0.9635399287 -0.2994029296
21050173700.0 -0.9651752319 -0.2905415055
21100173400.0 -0.9684376353 -0.2796116425
21150173100.0 -0.972956123 -0.2671174349
21200172800.0 -0.9769363006 -0.2540066105
21250172500.0 -0.9805531631 -0.240317471
21300172200.0 -0.983678391 -0.2261384651
21350171900.0 -0.9861908893 -0.2122339257
21400171600.0 -0.9877973328 -0.1977913361
21450171300.0 -0.9885168134 -0.1836721019
21500171000.0 -0.9892833098 -0.1687473838
21550170700.0 -0.9892997865 -0.1535495897
21600170400.0 -0.9899099331 -0.138133004
21650170100.0 -0.9906366797 -0.1217751955
21700169800.0 -0.9893617152 -0.1072365655
21750169500.0 -0.9896032755 -0.0910281967
21800169200.0 -0.9906114394 -0.0740237779
21850168900.0 -0.9896215191 -0.0579297237
21900168600.0 -0.9894218083 -0.0417655026
21950168300.0 -0.9884264661 -0.0260517366
22000168000.0 -0.9894012737 -0.0109629862
22050167700.0 -0.9898845056 0.0037351302
22100167400.0 -0.9903873624 0.019751698
22150167100.0 -0.991603549 0.0358730427
22200166800.0 -0.9916008357 0.0521029651
22250166500.0 -0.9913171754 0.0697227782
22300166200.0 -0.9914797808 0.0858149165
22350165900.0 -0.9895085798 0.1022696553
22400165600.0 -0.9886386937 0.1177741102
22450165300.0 -0.9871670721 0.1326594492
22500165000.0 -0.9852311664 0.1470149465
22550164700.0 -0.9833826493 0.163790608
22600164400.0 -0.9821119185 0.1791426482
22650164100.0 -0.9783589445 0.1949931988
22700163800.0 -0.9754862717 0.2109337387
22750163500.0 -0.9727262505 0.2257805789
22800163200.0 -0.9693089153 0.2386984203
22850162900.0 -0.9667771842 0.2520514172
22900162600.0 -0.9648944402 0.2663637496
22950162300.0 -0.9631518751 0.2801087234
23000162000.0 -0.9611085934 0.2926364572
23050161700.0 -0.9589180448 0.3061267225
23100161400.0 -0.9561976828 0.3200824986
23150161100.0 -0.952283184 0.3327279478
23200160800.0 -0.9502235013 0.345594772
23250160500.0 -0.9471812409 0.3580712178
23300160200.0 -0.9445287046 0.3702417816
23350159900.0 -0.9405858146 0.3848705467
23400159600.0 -0.9347375599 0.3982292462
23450159300.0 -0.9303543068 0.411785612
23500159000.0 -0.9249901798 0.4250891519
23550158700.0 -0.9202381305 0.4395474819
23600158400.0 -0.9141960613 0.4536049724
23650158100.0 -0.9071430216 0.4683139182
23700157800.0 -0.8984808251 0.4826296826
23750157500.0 -0.8890315565 0.497030346
23800157200.0 -0.8792619067 0.5101962007
23850156900.0 -0.8697608923 0.522935592
23900156600.0 -0.8599744385 0.5357433161
23950156300.0 -0.8495998512 0.5485507449
24000156000.0 -0.8410915892 0.5603235109
24050155700.0 -0.8300582913 0.5729547641
24100155400.0 -0.8198362901 0.5849848277
24150155100.0 -0.8085565669 0.597824482
24200154800.0 -0.7973727403 0.6093958236
24250154500.0 -0.7870456259 0.6218998235
24300154200.0 -0.7746601346 0.6338934873
24350153900.0 -0.762789149 0.6447494642
24400153600.0 -0.750265193 0.6552868674
24450153300.0 -0.7383827252 0.6657271143
24500153000.0 -0.7265004277 0.6754461742
24550152700.0 -0.7154581564 0.6859424831
24600152400.0 -0.7033233801 0.6954429517
24650152100.0 -0.6911131152 0.7041911029
