!Created with skrf (http://scikit-rf.org).
# Hz S RI R 50.0 
!freq ReS11 ImS11
300000.0 -0.974426742 -0.1190514845
50299700.0 -0.9998917869 0.0151537258
100299400.0 -0.9980336218 0.0280027566
150299100.0 -1.002782126 0.0447757177
200298800.0 -0.9995075002 0.0582189313
250298500.0 -0.9973502756 0.0717492287
300298200.0 -0.9858398379 0.0876223771
350297900.0 -0.9939150781 0.0985462481
400297600.0 -0.993179678 0.1148537828
450297300.0 -0.9907225494 0.1288083429
500297000.0 -0.9894248665 0.1435390005
550296700.0 -0.9842671286 0.1557869773
600296400.0 -1.017238737 0.1891655356
650296100.0 -0.9821589533 0.1857192883
700295800.0 -0.9793436141 0.2000196312
750295500.0 -0.9762403234 0.2141058114
800295200.0 -0.9729204036 0.2281478949
850294900.0 -0.969592738 0.2419773054
900294600.0 -0.9659810302 0.2556025514
950294300.0 -0.9621780914 0.2693767351
1000294000.0 -0.9582741554 0.283241899
1050293700.0 -0.9535979284 0.297091317
1100293400.0 -0.9491742546 0.3116158947
1150293100.0 -0.9454343067 0.3234758005
1200292800.0 -0.9402787434 0.3378835834
1250292500.0 -0.9346623098 0.3513735447
1300292200.0 -0.9289645551 0.3645104228
1350291900.0 -0.9235228439 0.3785562209
1400291600.0 -0.9178776544 0.3917100757
1450291300.0 -0.9125271317 0.404010925
1500291000.0 -0.9063018946 0.4174831871
1550290700.0 -0.8998212022 0.4308530624
1600290400.0 -0.8933156859 0.4436823591
1650290100.0 -0.88688719 0.4559522587
1700289800.0 -0.8800141287 0.4694824644
1750289500.0 -0.8727263431 0.4812331406
1800289200.0 -0.865425664 0.4944449705
1850288900.0 -0.8587585519 0.5059200541
1900288600.0 -0.851040331 0.5189050406
1950288300.0 -0.8428362604 0.5312930318
2000288000.0 -0.8353118091 0.5427144267
2050287700.0 -0.8272644966 0.5550221807
2100287400.0 -0.8192716334 0.5665921183
2150287100.0 -0.810724329 0.5787227626
2200286800.0 -0.8029018768 0.589145418
2250286500.0 -0.7941553666 0.6014599582
2300286200.0 -0.7852629804 0.6131010069
2350285900.0 -0.7767691549 0.623538378
2400285600.0 -0.7678527083 0.6344524945
2450285300.0 -0.7590329802 0.6452035302
2500285000.0 -0.7491564192 0.6564720137
2550284700.0 -0.7401476195 0.6669632409
2600284400.0 -0.7311386573 0.6768801013
2650284100.0 -0.7221840018 0.6872465928
2700283800.0 -0.7118252671 0.6975732106
2750283500.0 -0.7014780732 0.708295372
2800283200.0 -0.6916895605 0.7180231219
2850282900.0 -0.6811303197 0.7281473399
2900282600.0 -0.670814232 0.7380761029
2950282300.0 -0.6601655301 0.7471250018
3000282000.0 -0.6495552318 0.7565379495
3050281700.0 -0.6385693009 0.7658194856
3100281400.0 -0.6268709564 0.7750046561
3150281100.0 -0.6155732515 0.7840889092
3200280800.0 -0.6039118851 0.7924764739
3250280500.0 -0.5927840137 0.8003985228
3300280200.0 -0.5814520384 0.8084893152
3350279900.0 -0.5693872805 0.8164172117
3400279600.0 -0.556778792 0.8243968838
3450279300.0 -0.5456686376 0.8316348428
3500279000.0 -0.5340296194 0.8384405881
3550278700.0 -0.5216069922 0.8455747946
3600278400.0 -0.5097108649 0.8523559082
3650278100.0 -0.4967170734 0.8602503955
3700277800.0 -0.4845407667 0.8664865383
3750277500.0 -0.472414194 0.8733732878
3800277200.0 -0.4598263559 0.8797616211
3850276900.0 -0.4478315769 0.8856629431
3900276600.0 -0.4366931957 0.8912746163
3950276300.0 -0.4246385825 0.8973203787
4000276000.0 -0.4128231103 0.903383648
4050275700.0 -0.4003116821 0.9092846467
4100275400.0 -0.3890529435 0.9145398738
4150275100.0 -0.3760934082 0.9203271438
4200274800.0 -0.3627376916 0.9259753163
4250274500.0 -0.3501092822 0.9314262908
4300274200.0 -0.3371509734 0.9368108601
4350273900.0 -0.3227802657 0.9417183579
4400273600.0 -0.3081583897 0.9472423214
4450273300.0 -0.2931181292 0.9521627665
4500273000.0 -0.2798035542 0.9564565155
4550272700.0 -0.2659567812 0.960726243
4600272400.0 -0.2510315064 0.9647934876
4650272100.0 -0.2394910114 0.9679532349
4700271800.0 -0.2264761326 0.9712973657
4750271500.0 -0.214523186 0.9740606256
4800271200.0 -0.2025399575 0.9767511742
4850270900.0 -0.1886714891 0.9795427095
4900270600.0 -0.1747347764 0.9819626842
4950270300.0 -0.1602653199 0.9845695278
5000270000.0 -0.1458966121 0.9867239355
5050269700.0 -0.1323637155 0.9885392148
5100269400.0 -0.1184960862 0.9902077336
5150269100.0 -0.1043997455 0.9917383813
5200268800.0 -0.091138709 0.9927383448
5250268500.0 -0.0780763275 0.9939132272
5300268200.0 -0.0647858621 0.994558194
5350267900.0 -0.0518514646 0.994965402
5400267600.0 -0.0356970837 0.996146694
5450267300.0 -0.0224446508 0.9965645279
5500267000.0 -0.0070513975 0.9970728211
5550266700.0 0.0074958003 0.9972287592
5600266400.0 0.0233818162 0.9972271105
5650266100.0 0.0401260169 0.9967556314
5700265800.0 0.0543396455 0.9962186636
5750265500.0 0.069379593 0.9952479466
5800265200.0 0.0827500727 0.9940939265
5850264900.0 0.0961295246 0.9929109283
5900264600.0 0.1126821145 0.9913712425
5950264300.0 0.1243499051 0.989905665
6000264000.0 0.1382346848 0.988010275
6050263700.0 0.1498353446 0.9866411106
6100263400.0 0.1622767118 0.9851611547
6150263100.0 0.1768612311 0.982730587
6200262800.0 0.1866064955 0.9809999222
6250262500.0 0.1991874809 0.9785432177
6300262200.0 0.2115820849 0.9759936363
6350261900.0 0.2245586689 0.9733387692
6400261600.0 0.2385709466 0.9699914857
6450261300.0 0.2496207654 0.9675929021
6500261000.0 0.2624862325 0.9635725486
6550260700.0 0.2757383997 0.9598120681
6600260400.0 0.2889288967 0.9556289279
6650260100.0 0.3033964067 0.9515191416
6700259800.0 0.3153799809 0.9470695506
6750259500.0 0.3296968607 0.9423653882
6800259200.0 0.3425058562 0.9372282024
6850258900.0 0.3548960145 0.9317655362
6900258600.0 0.3674043742 0.9267275524
6950258300.0 0.3800799534 0.9213553304
7000258000.0 0.3915381742 0.9160812678
7050257700.0 0.4037222353 0.9103079357
7100257400.0 0.416953291 0.9040411741
7150257100.0 0.4277571851 0.898447442
7200256800.0 0.4407505619 0.8918248254
7250256500.0 0.4527864634 0.8854301106
7300256200.0 0.4660702738 0.8788590496
7350255900.0 0.4788500877 0.8718824207
7400255600.0 0.4923485241 0.8640912762
7450255300.0 0.5078593146 0.8551960696
7500255000.0 0.5206677024 0.8475403837
7550254700.0 0.5347148463 0.8387803281
7600254400.0 0.5472431337 0.830622519
7650254100.0 0.5585062545 0.8226254647
7700253800.0 0.5702913143 0.8145784346
7750253500.0 0.5812209787 0.8070746539
7800253200.0 0.5917721728 0.7990484386
7850252900.0 0.6016200994 0.7919153359
7900252600.0 0.61314816 0.7832884841
7950252300.0 0.6216575473 0.7767634445
8000252000.0 0.6317247829 0.7692280803
8050251700.0 0.6419445961 0.7608792487
8100251400.0 0.6523500303 0.7531114222
8150251100.0 0.6623944345 0.7444989023
8200250800.0 0.6715577704 0.736284749
8250250500.0 0.6804252412 0.7283402935
8300250200.0 0.6897109309 0.7200869585
8350249900.0 0.6989636697 0.7113259102
8400249600.0 0.7069416365 0.7031499719
8450249300.0 0.7157988704 0.6944701134
8500249000.0 0.7243516579 0.6853506292
8550248700.0 0.7328217637 0.6763333084
8600248400.0 0.7410580527 0.666916104
8650248100.0 0.7486982763 0.6576135298
8700247800.0 0.7580844707 0.646343807
8750247500.0 0.7663713832 0.6362071969
8800247200.0 0.7744285216 0.626063708
8850246900.0 0.7830785201 0.6146562047
8900246600.0 0.7914254433 0.6031158483
8950246300.0 0.8009151731 0.5904286068
9000246000.0 0.8096162758 0.5784471112
9050245700.0 0.818218845 0.5658635022
9100245400.0 0.8264701509 0.553755955
9150245100.0 0.835577706 0.5406527984
9200244800.0 0.8449708875 0.5259166525
9250244500.0 0.8543165746 0.5111971435
9300244200.0 0.8623884365 0.4974279172
9350243900.0 0.8699313747 0.4840672952
9400243600.0 0.8764176988 0.4722518981
9450243300.0 0.882122849 0.4614410432
9500243000.0 0.8885021444 0.4498436339
9550242700.0 0.8924733058 0.4421451987
9600242400.0 0.8968245874 0.4344689171
9650242100.0 0.900448608 0.4279633478
9700241800.0 0.905527238 0.4191779655
9750241500.0 0.9096843802 0.411412989
9800241200.0 0.9144333956 0.402313328
9850240900.0 0.9205809499 0.390484179
9900240600.0 0.926238229 0.3786440652
9950240300.0 0.9330473515 0.3624531932
10000240000.0 0.9381187713 0.350091674
10050239700.0 0.9440831101 0.3344802537
10100239400.0 0.9492336642 0.3180662093
10150239100.0 0.9539468387 0.302700773
10200238800.0 0.9583415774 0.2873638636
10250238500.0 0.9614184884 0.273838339
10300238200.0 0.9645946897 0.2599034446
10350237900.0 0.9672353248 0.2468760849
10400237600.0 0.9699105962 0.2334768383
10450237300.0 0.9727108078 0.2193857919
10500237000.0 0.975020193 0.2069851285
10550236700.0 0.9772991424 0.1928739803
10600236400.0 0.9794184662 0.1791706018
10650236100.0 0.9812753439 0.1644335857
10700235800.0 0.9841547137 0.1520884923
10750235500.0 0.9861682744 0.1385128259
10800235200.0 0.9879449474 0.1243554548
10850234900.0 0.9900321064 0.1095061773
10900234600.0 0.991828299 0.09489364
10950234300.0 0.9937588698 0.081288042
11000234000.0 0.9954237117 0.0659535303
11050233700.0 0.9972060251 0.0494591129
11100233400.0 0.9986090281 0.0316359708
11150233100.0 0.9996487303 0.0147422931
11200232800.0 1.000913896 -0.0008032057
11250232500.0 1.001584326 -0.0183333524
11300232200.0 1.002261744 -0.0358222746
11350231900.0 1.001551074 -0.0518539528
11400231600.0 1.001584531 -0.0681803128
11450231300.0 1.000881838 -0.0833165327
11500231000.0 0.9997026439 -0.0995480684
11550230700.0 0.9981420072 -0.1137604705
11600230400.0 0.9966182135 -0.1256643069
11650230100.0 0.9949591811 -0.1379216009
11700229800.0 0.9925755688 -0.1525302855
11750229500.0 0.9906101907 -0.1671001621
11800229200.0 0.9876310728 -0.1806104198
11850228900.0 0.9838953508 -0.1923290835
11900228600.0 0.9801449372 -0.2019159943
11950228300.0 0.9766749044 -0.2121867328
12000228000.0 0.97427233 -0.2207073896
12050227700.0 0.9701728812 -0.2332257993
12100227400.0 0.9675684427 -0.2440960841
12150227100.0 0.9619330789 -0.261079922
12200226800.0 0.9582927632 -0.272768754
12250226500.0 0.9542064418 -0.2853974573
12300226200.0 0.9499120776 -0.2975439579
12350225900.0 0.9446531918 -0.3114405545
12400225600.0 0.9408943729 -0.3237740482
12450225300.0 0.9360807155 -0.3364113492
12500225000.0 0.9308575108 -0.3504662618
12550224700.0 0.9253833199 -0.3646584523
12600224400.0 0.9204078548 -0.3773868742
12650224100.0 0.9145663658 -0.391713534
12700223800.0 0.9094127872 -0.4046947947
12750223500.0 0.9038608577 -0.4177402591
12800223200.0 0.8985294525 -0.4304287298
12850222900.0 0.8933039995 -0.4427917707
12900222600.0 0.8876381543 -0.4543515924
12950222300.0 0.8814297066 -0.4669793413
13000222000.0 0.8752674818 -0.478700995
13050221700.0 0.8694917276 -0.4912111648
13100221400.0 0.8618304171 -0.5032655122
13150221100.0 0.8551093892 -0.515682363
13200220800.0 0.8483109828 -0.5270658563
13250220500.0 0.8410715017 -0.5395720313
13300220200.0 0.8333855516 -0.5505902762
13350219900.0 0.825288194 -0.5623752609
13400219600.0 0.8168452824 -0.5742633239
13450219300.0 0.8077764659 -0.5873736639
13500219000.0 0.7975924917 -0.6008638978
13550218700.0 0.7881800796 -0.6132350965
13600218400.0 0.7780533748 -0.6252280165
13650218100.0 0.7684437435 -0.6358899454
13700217800.0 0.7572717081 -0.6475989077
13750217500.0 0.7472592154 -0.6596947913
13800217200.0 0.7369618486 -0.67002262
13850216900.0 0.7262814865 -0.6817358625
13900216600.0 0.7154472967 -0.6902988869
13950216300.0 0.7057484601 -0.7011146657
14000216000.0 0.6953369692 -0.7097391038
14050215700.0 0.6863037281 -0.7177201052
14100215400.0 0.6762475316 -0.7267312497
14150215100.0 0.6674104523 -0.7351655977
14200214800.0 0.6577744067 -0.7441945041
14250214500.0 0.6476056896 -0.7537066804
14300214200.0 0.6370016643 -0.763088916
14350213900.0 0.6259772684 -0.7725904324
14400213600.0 0.6143180128 -0.7823729899
14450213300.0 0.6014191876 -0.7925715011
14500213000.0 0.588659893 -0.8027761269
14550212700.0 0.575563405 -0.811728696
14600212400.0 0.5645512432 -0.8211517957
14650212100.0 0.5508431272 -0.8295287942
14700211800.0 0.5366740404 -0.8390176361
14750211500.0 0.5247943806 -0.8474932364
14800211200.0 0.5122353707 -0.8556374367
14850210900.0 0.4998744965 -0.8630261482
14900210600.0 0.4864051038 -0.871002889
14950210300.0 0.4731430512 -0.8788180064
15000210000.0 0.4607594101 -0.8854739037
15050209700.0 0.448398737 -0.89132974
15100209400.0 0.4359875568 -0.897280535
15150209100.0 0.4233080476 -0.9028465864
15200208800.0 0.4112108069 -0.9079513873
15250208500.0 0.3996934187 -0.9130303809
15300208200.0 0.3877290857 -0.9175620875
15350207900.0 0.3741310073 -0.9226548776
15400207600.0 0.360014619 -0.9272436555
15450207300.0 0.3443668547 -0.932783447
15500207000.0 0.3303312169 -0.9367563226
15550206700.0 0.3160128618 -0.9422968328
15600206400.0 0.2998094001 -0.9466082001
15650206100.0 0.283892042 -0.9508753923
15700205800.0 0.2703897921 -0.9545195201
15750205500.0 0.2560024517 -0.957845906
15800205200.0 0.2419566521 -0.9613497794
15850204900.0 0.227657222 -0.9647125276
15900204600.0 0.2126479106 -0.9685569619
15950204300.0 0.1982551452 -0.9716796344
16000204000.0 0.1839760435 -0.974278727
16050203700.0 0.169126696 -0.9777850298
16100203400.0 0.1540493607 -0.9797144439
16150203100.0 0.1395246181 -0.9822596376
16200202800.0 0.1248966535 -0.9842688085
16250202500.0 0.1105779226 -0.9859389716
16300202200.0 0.0948964533 -0.9877352787
16350201900.0 0.0798656378 -0.9892041013
16400201600.0 0.0650900833 -0.9902834573
16450201300.0 0.0496075453 -0.9913967669
16500201000.0 0.0325682461 -0.9920211338
16550200700.0 0.0167038072 -0.9924641042
16600200400.0 0.0006796857 -0.9927975003
16650200100.0 -0.0151738289 -0.9925140603
16700199800.0 -0.0313889607 -0.9922505057
16750199500.0 -0.0506684985 -0.9917092802
16800199200.0 -0.0661102213 -0.9907316115
16850198900.0 -0.08185654 -0.9898258416
16900198600.0 -0.0953022914 -0.9888360949
16950198300.0 -0.1102051331 -0.9877183234
17000198000.0 -0.1226288281 -0.9863368596
17050197700.0 -0.1350539228 -0.9839121119
17100197400.0 -0.1477683703 -0.9821587462
17150197100.0 -0.16046357 -0.9799326066
17200196800.0 -0.1734882924 -0.9779957604
17250196500.0 -0.1865850538 -0.9754653147
17300196200.0 -0.1988837411 -0.9733360916
17350195900.0 -0.2106444279 -0.9710179618
17400195600.0 -0.2226130236 -0.9684041582
17450195300.0 -0.2355127032 -0.9657280215
17500195000.0 -0.2487622513 -0.9621679932
17550194700.0 -0.2629893789 -0.9587805394
17600194400.0 -0.2761727932 -0.9547097183
17650194100.0 -0.2898927158 -0.9506068756
17700193800.0 -0.3030602234 -0.9462626777
17750193500.0 -0.3173521425 -0.9418757217
17800193200.0 -0.3314843676 -0.9367985476
17850192900.0 -0.3460718259 -0.9315336617
17900192600.0 -0.3612839558 -0.9251367519
17950192300.0 -0.3770269485 -0.9179714923
18000192000.0 -0.3918131341 -0.9109651909
18050191700.0 -0.4055797705 -0.9029796999
18100191400.0 -0.4198259508 -0.8954054778
18150191100.0 -0.4346432941 -0.8874331158
18200190800.0 -0.4514143945 -0.8781094064
18250190500.0 -0.4686583218 -0.8686627638
18300190200.0 -0.4837866831 -0.8599359186
18350189900.0 -0.4991241614 -0.8516684106
18400189600.0 -0.5138334006 -0.8431490245
18450189300.0 -0.5271629017 -0.8355866579
18500189000.0 -0.5403921039 -0.8268439543
18550188700.0 -0.5533608961 -0.8195302025
18600188400.0 -0.5649494222 -0.8128741054
18650188100.0 -0.5762138774 -0.805669464
18700187800.0 -0.5878429623 -0.799190838
18750187500.0 -0.5982196787 -0.7927034255
18800187200.0 -0.6089327626 -0.7856278244
18850186900.0 -0.6190234056 -0.7787965102
18900186600.0 -0.6294281233 -0.7713956485
18950186300.0 -0.639671332 -0.763776127
19000186000.0 -0.6470417128 -0.7576534553
19050185700.0 -0.656375992 -0.7503802721
19100185400.0 -0.6666164411 -0.7420538319
19150185100.0 -0.676331052 -0.7337076813
19200184800.0 -0.6861832126 -0.7255875845
19250184500.0 -0.6958471321 -0.7164856974
19300184200.0 -0.7066925613 -0.7068032686
19350183900.0 -0.7182728598 -0.6973928704
19400183600.0 -0.7276510076 -0.6865966889
19450183300.0 -0.7368478951 -0.6769283667
19500183000.0 -0.7449915501 -0.6661717941
19550182700.0 -0.7546075431 -0.6563465915
19600182400.0 -0.7650298225 -0.6443791708
19650182100.0 -0.7752627037 -0.6322733848
19700181800.0 -0.7858884938 -0.6189309604
19750181500.0 -0.7964887369 -0.6047099772
19800181200.0 -0.8066651276 -0.5899538285
19850180900.0 -0.8162099428 -0.5747590576
19900180600.0 -0.8241557944 -0.5603370207
19950180300.0 -0.8332753522 -0.5440651032
20000180000.0 -0.8237982013 -0.5468344217
20050179700.0 -0.8326676155 -0.5337978697
20100179400.0 -0.8404244531 -0.5210787508
20150179100.0 -0.8492042736 -0.5092142217
20200178800.0 -0.8566054794 -0.4970110254
20250178500.0 -0.8663944339 -0.4851815055
20300178200.0 -0.8761274585 -0.4704230343
20350177900.0 -0.8855076061 -0.4565147994
20400177600.0 -0.8939767767 -0.4427037472
20450177300.0 -0.9025157319 -0.4281599396
20500177000.0 -0.9106760222 -0.4143151399
20550176700.0 -0.9186643474 -0.4005926036
20600176400.0 -0.9251983666 -0.3879664971
20650176100.0 -0.9321023042 -0.3754948566
20700175800.0 -0.9390964792 -0.363402336
20750175500.0 -0.9452745981 -0.3518011101
20800175200.0 -0.9497606075 -0.3410903882
20850174900.0 -0.9539038895 -0.3301550685
20900174600.0 -0.9581616174 -0.3196641557
20950174300.0 -0.9621509348 -0.3075133895
21000174000.0 -0.9646125175 -0.2976370423
21050173700.0 -0.9675723893 -0.2872926324
21100173400.0 -0.9706720553 -0.2765995432
21150173100.0 -0.9744939315 -0.2640807504
21200172800.0 -0.9783942009 -0.2507373126
21250172500.0 -0.9819552525 -0.2372054611
21300172200.0 -0.9852096521 -0.2230444056
21350171900.0 -0.9872361989 -0.2087026675
21400171600.0 -0.9888320511 -0.1948734303
21450171300.0 -0.9893428644 -0.1810544542
21500171000.0 -0.9898328918 -0.1649014933
21550170700.0 -0.9904624665 -0.1505474918
21600170400.0 -0.9917397214 -0.1344161206
21650170100.0 -0.9908285283 -0.118836064
21700169800.0 -0.9908380763 -0.1044266911
21750169500.0 -0.9902055882 -0.0877664714
21800169200.0 -0.9899634143 -0.0716707407
21850168900.0 -0.988531059 -0.0531668868
21900168600.0 -0.9885943716 -0.038321013
21950168300.0 -0.9883230194 -0.0226387579
22000168000.0 -0.9875990818 -0.0071171238
22050167700.0 -0.9882934239 0.007193159
22100167400.0 -0.989021585 0.0227392354
22150167100.0 -0.989490696 0.0388227111
22200166800.0 -0.9901724195 0.0554929704
22250166500.0 -0.9888122006 0.0722405164
22300166200.0 -0.9889991373 0.0889317574
22350165900.0 -0.9873728101 0.1054205542
22400165600.0 -0.9872929123 0.1209319838
22450165300.0 -0.9840006738 0.1366533654
22500165000.0 -0.983170498 0.1505619109
22550164700.0 -0.98156104 0.1658625374
22600164400.0 -0.9794007512 0.1817227192
22650164100.0 -0.9767824895 0.1978955295
22700163800.0 -0.9741222584 0.21375923
22750163500.0 -0.9710124826 0.2285616598
22800163200.0 -0.9682242969 0.2413120411
22850162900.0 -0.9652869651 0.2546685414
22900162600.0 -0.9636197907 0.2684109383
22950162300.0 -0.961942727 0.2818421572
23000162000.0 -0.9605182291 0.2941997813
23050161700.0 -0.9579565908 0.3075754191
23100161400.0 -0.9555575839 0.3206557256
23150161100.0 -0.9517463304 0.3332959272
23200160800.0 -0.9491180621 0.346765607
23250160500.0 -0.9458408066 0.3582913966
23300160200.0 -0.9446046784 0.3711903389
23350159900.0 -0.9398473505 0.3854152182
23400159600.0 -0.9346495552 0.3977918326
23450159300.0 -0.9298555589 0.4118323503
23500159000.0 -0.9248239922 0.4254808107
23550158700.0 -0.9204644976 0.4392565564
23600158400.0 -0.9143810608 0.4532398009
23650158100.0 -0.9072886003 0.4675991787
23700157800.0 -0.8990759403 0.481825452
23750157500.0 -0.8899582623 0.4960157674
23800157200.0 -0.8803871905 0.5094971731
23850156900.0 -0.8711697702 0.5222133905
23900156600.0 -0.861631153 0.5349156367
23950156300.0 -0.8514419303 0.5475578354
24000156000.0 -0.8429602389 0.5592683305
24050155700.0 -0.8322587752 0.5725094262
24100155400.0 -0.8221546854 0.5845543802
24150155100.0 -0.8108747793 0.5966600703
24200154800.0 -0.8001161733 0.6079024202
24250154500.0 -0.7889195535 0.6199969571
24300154200.0 -0.7772437427 0.6322080982
24350153900.0 -0.7653556308 0.6429973139
24400153600.0 -0.7527613174 0.6534119666
24450153300.0 -0.7409115126 0.6641592248
24500153000.0 -0.7298424409 0.6738538053
24550152700.0 -0.7184437245 0.6838956659
24600152400.0 -0.7065261998 0.6931254305
24650152100.0 -0.6941136441 0.7021204486
