!Created with skrf (http://scikit-rf.org).
# Hz S RI R 50.0 
!freq ReS11 ImS11
300000.0 -0.9886344546 -0.0752942779
50299700.0 -0.9997290393 0.0166782811
100299400.0 -0.9977933435 0.0292718833
150299100.0 -1.00246826 0.0463153523
200298800.0 -0.999419563 0.0594155641
250298500.0 -0.9971565873 0.0730073902
300298200.0 -0.9857528446 0.0887989396
350297900.0 -0.9936408639 0.0996709066
400297600.0 -0.9928060475 0.1162037896
450297300.0 -0.990712784 0.13010127
500297000.0 -0.9887926563 0.1445670463
550296700.0 -0.9839223517 0.1573332195
600296400.0 -1.016738173 0.1903935054
650296100.0 -0.9815313367 0.1870130835
700295800.0 -0.9785445335 0.2013678784
750295500.0 -0.9757592259 0.215227334
800295200.0 -0.9721079028 0.2293854671
850294900.0 -0.9689098757 0.2431474024
900294600.0 -0.9650803124 0.2569373449
950294300.0 -0.961118875 0.2706433436
1000294000.0 -0.9573679178 0.2847322251
1050293700.0 -0.952546484 0.2985353955
1100293400.0 -0.9484626628 0.3129398772
1150293100.0 -0.9446576854 0.3245681365
1200292800.0 -0.9393797993 0.3388821082
1250292500.0 -0.9340280348 0.3524151946
1300292200.0 -0.9282592388 0.3656244458
1350291900.0 -0.9228527364 0.3796202801
1400291600.0 -0.9173918505 0.3925319666
1450291300.0 -0.9118065882 0.4050913885
1500291000.0 -0.9055612267 0.4181837986
1550290700.0 -0.8991823975 0.4316003998
1600290400.0 -0.8929005843 0.4442194167
1650290100.0 -0.8863984053 0.456650972
1700289800.0 -0.8795637221 0.4698307702
1750289500.0 -0.8723126312 0.4821021153
1800289200.0 -0.8650627337 0.4952670493
1850288900.0 -0.8584336843 0.5065034484
1900288600.0 -0.8505748337 0.519436264
1950288300.0 -0.8424906418 0.5319839406
2000288000.0 -0.8348294246 0.5435219019
2050287700.0 -0.8266929513 0.5556902708
2100287400.0 -0.8188610146 0.5672159746
2150287100.0 -0.8101146222 0.5794337186
2200286800.0 -0.8023354847 0.589930862
2250286500.0 -0.7934569404 0.6019892267
2300286200.0 -0.784438404 0.6134292257
2350285900.0 -0.7757128296 0.6245866473
2400285600.0 -0.7666606588 0.6356065958
2450285300.0 -0.7580187202 0.6461539274
2500285000.0 -0.7482392121 0.6572188058
2550284700.0 -0.7395097041 0.6676094953
2600284400.0 -0.7296269357 0.6777407249
2650284100.0 -0.7208210121 0.6882277516
2700283800.0 -0.7101560811 0.6988427071
2750283500.0 -0.7000871544 0.7093430735
2800283200.0 -0.6900493916 0.7187979053
2850282900.0 -0.6799166248 0.7289874186
2900282600.0 -0.6695817176 0.7381406125
2950282300.0 -0.6595517481 0.747386315
3000282000.0 -0.648807648 0.7570356157
3050281700.0 -0.6376348813 0.766256775
3100281400.0 -0.6261393702 0.7754198013
3150281100.0 -0.6144846124 0.7845180007
3200280800.0 -0.6027959629 0.7932120402
3250280500.0 -0.5920564651 0.8009513587
3300280200.0 -0.580942112 0.8089228174
3350279900.0 -0.5694996995 0.8164110498
3400279600.0 -0.5573554192 0.8241193848
3450279300.0 -0.546044927 0.8313294943
3500279000.0 -0.5340139202 0.8383899478
3550278700.0 -0.5220434847 0.845904053
3600278400.0 -0.5099040172 0.8531132368
3650278100.0 -0.4965172671 0.8606579985
3700277800.0 -0.4844245528 0.8672648429
3750277500.0 -0.4724875631 0.873482338
3800277200.0 -0.4598725739 0.8802420337
3850276900.0 -0.4474339764 0.886072988
3900276600.0 -0.436492867 0.8917644118
3950276300.0 -0.4237574772 0.89814227
4000276000.0 -0.4115325161 0.9040294465
4050275700.0 -0.3984030346 0.9099717263
4100275400.0 -0.387003591 0.915375199
4150275100.0 -0.3744570643 0.9210881975
4200274800.0 -0.3611336103 0.9264047101
4250274500.0 -0.3489119307 0.931907917
4300274200.0 -0.3360689341 0.9367145012
4350273900.0 -0.3219928035 0.942073392
4400273600.0 -0.3074707037 0.9469818869
4450273300.0 -0.2921774905 0.9523086244
4500273000.0 -0.2788172314 0.9563938318
4550272700.0 -0.2650571831 0.960605203
4600272400.0 -0.2493266784 0.9647246932
4650272100.0 -0.2375035466 0.9679642263
4700271800.0 -0.2241691167 0.9713178039
4750271500.0 -0.2123122234 0.9742114111
4800271200.0 -0.1993793467 0.9770479994
4850270900.0 -0.1856439762 0.9796831078
4900270600.0 -0.1719827552 0.9821381141
4950270300.0 -0.1580009901 0.9851190552
5000270000.0 -0.1440104829 0.9868736616
5050269700.0 -0.1306222177 0.9884706857
5100269400.0 -0.1171180434 0.9900506644
5150269100.0 -0.1037832505 0.9919299532
5200268800.0 -0.090291985 0.992850082
5250268500.0 -0.0771284739 0.9940543393
5300268200.0 -0.0640106418 0.9945262454
5350267900.0 -0.051828657 0.9951320314
5400267600.0 -0.0358599454 0.9963221526
5450267300.0 -0.0229317494 0.996669813
5500267000.0 -0.0079982442 0.9969478964
5550266700.0 0.0067059683 0.9970680433
5600266400.0 0.0218108817 0.9971130762
5650266100.0 0.0381700468 0.9964839757
5700265800.0 0.0526555076 0.9958534327
5750265500.0 0.0674286711 0.9953556135
5800265200.0 0.0814433755 0.9942845888
5850264900.0 0.09453598 0.9929050573
5900264600.0 0.1113342927 0.9913129335
5950264300.0 0.1237245273 0.9895653249
6000264000.0 0.1374269691 0.9877334379
6050263700.0 0.150410004 0.9861870358
6100263400.0 0.1632818152 0.9842045963
6150263100.0 0.1779161784 0.9818589671
6200262800.0 0.1887828243 0.9801005174
6250262500.0 0.2014002115 0.9774306122
6300262200.0 0.2143944814 0.9746608154
6350261900.0 0.2274132735 0.9716585954
6400261600.0 0.2415275422 0.9683196972
6450261300.0 0.2529861849 0.965544693
6500261000.0 0.265842306 0.9619080027
6550260700.0 0.2787129587 0.9582262414
6600260400.0 0.2919870256 0.9541592209
6650260100.0 0.3056923154 0.9498922775
6700259800.0 0.317926223 0.9457321181
6750259500.0 0.331105005 0.9406952111
6800259200.0 0.3444400615 0.9361010604
6850258900.0 0.3569278954 0.9311796523
6900258600.0 0.3688550401 0.9262042818
6950258300.0 0.381442168 0.9209412502
7000258000.0 0.3933790918 0.9156085248
7050257700.0 0.4053851329 0.9097362303
7100257400.0 0.4182979944 0.9034491755
7150257100.0 0.4286385468 0.8984759156
7200256800.0 0.4415836808 0.8921519056
7250256500.0 0.453018716 0.8858115156
7300256200.0 0.4657690461 0.8790424433
7350255900.0 0.4783470121 0.8722124234
7400255600.0 0.4907210237 0.8653302527
7450255300.0 0.5059297569 0.8565068384
7500255000.0 0.5173797642 0.8493103252
7550254700.0 0.5307824499 0.841318807
7600254400.0 0.5437012169 0.833066113
7650254100.0 0.5548658809 0.8250401597
7700253800.0 0.5667724093 0.8169795438
7750253500.0 0.5779464317 0.8093124492
7800253200.0 0.5891910185 0.8013602202
7850252900.0 0.5987107725 0.7941839452
7900252600.0 0.6105815747 0.785327592
7950252300.0 0.619835266 0.7786195128
8000252000.0 0.6301825191 0.7704875782
8050251700.0 0.6408061209 0.762099619
8100251400.0 0.6507025754 0.7540233635
8150251100.0 0.6611022594 0.7449557477
8200250800.0 0.6705099705 0.7369707438
8250250500.0 0.6797754167 0.728702678
8300250200.0 0.6890592004 0.7200300438
8350249900.0 0.6983915854 0.7113992598
8400249600.0 0.7067792258 0.7030225126
8450249300.0 0.7161661841 0.6937844433
8500249000.0 0.724702574 0.6847595665
8550248700.0 0.7332241049 0.6756848261
8600248400.0 0.7416484328 0.6658737656
8650248100.0 0.7494443304 0.6567117061
8700247800.0 0.7588790092 0.6459766857
8750247500.0 0.7672955365 0.6357007397
8800247200.0 0.7750808996 0.6256082406
8850246900.0 0.7840350617 0.6142759689
8900246600.0 0.7921859317 0.6033923792
8950246300.0 0.8017316977 0.5906091571
9000246000.0 0.8104513654 0.5785775498
9050245700.0 0.8191549672 0.5658587738
9100245400.0 0.8277082605 0.5536202903
9150245100.0 0.8366937983 0.5406104701
9200244800.0 0.8459563549 0.5261345335
9250244500.0 0.8551287058 0.5113503685
9300244200.0 0.8632239545 0.4975042751
9350243900.0 0.8707548039 0.4837252715
9400243600.0 0.8780574142 0.4706720208
9450243300.0 0.8841103747 0.4585109454
9500243000.0 0.8906530644 0.4455477247
9550242700.0 0.8951057802 0.4365939091
9600242400.0 0.8993231416 0.4282790133
9650242100.0 0.9032770278 0.4209169079
9700241800.0 0.9078772256 0.4119435682
9750241500.0 0.9120097879 0.4037663107
9800241200.0 0.9167467549 0.3939183389
9850240900.0 0.9218899363 0.3824516443
9900240600.0 0.9273236443 0.371223874
9950240300.0 0.9336956639 0.35562458
10000240000.0 0.9382522738 0.3438984069
10050239700.0 0.9439802901 0.3286994651
10100239400.0 0.9491654996 0.3135417761
10150239100.0 0.9535106065 0.2994119181
10200238800.0 0.9576529636 0.2844727588
10250238500.0 0.9610428575 0.2710795122
10300238200.0 0.9642899944 0.2570375558
10350237900.0 0.9670269537 0.2442368385
10400237600.0 0.9698028104 0.2311915054
10450237300.0 0.9726690444 0.2174820686
10500237000.0 0.9750754599 0.2053670012
10550236700.0 0.9769657213 0.1919033144
10600236400.0 0.9793081512 0.178573926
10650236100.0 0.9814940878 0.1637655263
10700235800.0 0.9835769405 0.1518750014
10750235500.0 0.9864875498 0.1383260643
10800235200.0 0.9878534251 0.1250243293
10850234900.0 0.9894837275 0.1101564222
10900234600.0 0.9918484935 0.0958203915
10950234300.0 0.9933187147 0.0826609328
11000234000.0 0.9948555995 0.0681184454
11050233700.0 0.9963892628 0.0524458933
11100233400.0 0.9978852534 0.0352460665
11150233100.0 0.9985837947 0.0196934952
11200232800.0 0.9989772299 0.0050117932
11250232500.0 0.9999983611 -0.0114528462
11300232200.0 1.000625359 -0.0292056101
11350231900.0 1.000725322 -0.0449436239
11400231600.0 1.00044088 -0.0608239638
11450231300.0 0.9999761348 -0.0759216212
11500231000.0 0.9986756023 -0.0930468545
11550230700.0 0.9968966286 -0.1059934666
11600230400.0 0.9954016158 -0.1187606807
11650230100.0 0.9934936592 -0.1306241938
11700229800.0 0.991323645 -0.1457183032
11750229500.0 0.989177699 -0.1603874397
11800229200.0 0.9867254416 -0.1739188569
11850228900.0 0.9833110548 -0.1874488725
11900228600.0 0.9798703874 -0.197767053
11950228300.0 0.9767208681 -0.208827185
12000228000.0 0.9737338355 -0.2186471568
12050227700.0 0.9707469359 -0.2312650497
12100227400.0 0.9669284033 -0.242370435
12150227100.0 0.9629348072 -0.2588096292
12200226800.0 0.9592623342 -0.2705752949
12250226500.0 0.9545006851 -0.282480243
12300226200.0 0.9511372772 -0.2947873356
12350225900.0 0.9466539391 -0.3091439297
12400225600.0 0.9425366574 -0.3217614237
12450225300.0 0.9377214643 -0.3336655381
12500225000.0 0.9326471244 -0.3480830487
12550224700.0 0.9273018034 -0.3617908138
12600224400.0 0.9226466261 -0.3739756851
12650224100.0 0.9169419469 -0.388338814
12700223800.0 0.9119025911 -0.4008183711
12750223500.0 0.9063758977 -0.4135381259
12800223200.0 0.9011571708 -0.4259691917
12850222900.0 0.8952783086 -0.4386493201
12900222600.0 0.8898300818 -0.4507006805
12950222300.0 0.8834602161 -0.4637019155
13000222000.0 0.8769752441 -0.4748067826
13050221700.0 0.8703345053 -0.4877591821
13100221400.0 0.8634534828 -0.50012918
13150221100.0 0.8564542945 -0.5123362387
13200220800.0 0.8492778227 -0.5243406687
13250220500.0 0.8418413958 -0.5364980866
13300220200.0 0.8342227565 -0.5477336929
13350219900.0 0.8261929931 -0.559687401
13400219600.0 0.8178109231 -0.5718099635
13450219300.0 0.8083436569 -0.5850149974
13500219000.0 0.7985621879 -0.598839488
13550218700.0 0.7883133687 -0.6114008137
13600218400.0 0.7781780454 -0.6235606762
13650218100.0 0.7687981378 -0.6350583297
13700217800.0 0.7584791794 -0.6470763218
13750217500.0 0.7476627759 -0.6582729275
13800217200.0 0.7373848297 -0.6705741324
13850216900.0 0.7262072558 -0.6818873736
13900216600.0 0.7161388536 -0.6909598941
13950216300.0 0.7052733589 -0.7013214785
14000216000.0 0.6953526548 -0.710889976
14050215700.0 0.6867762863 -0.7190618454
14100215400.0 0.6763410961 -0.7279858886
14150215100.0 0.6668518795 -0.7368423639
14200214800.0 0.6578298945 -0.7452034615
14250214500.0 0.6474362539 -0.7544549922
14300214200.0 0.6373212427 -0.7637937053
14350213900.0 0.6264272125 -0.772943333
14400213600.0 0.6148670267 -0.7825905475
14450213300.0 0.6021225292 -0.7922431286
14500213000.0 0.5895709273 -0.802130798
14550212700.0 0.5772193342 -0.8111713028
14600212400.0 0.5649747303 -0.8197036317
14650212100.0 0.55257776 -0.8284609118
14700211800.0 0.5382868906 -0.837659409
14750211500.0 0.5263569508 -0.8458331889
14800211200.0 0.5140779777 -0.8539126678
14850210900.0 0.5017701756 -0.8614553898
14900210600.0 0.4885828523 -0.8693897665
14950210300.0 0.474979782 -0.8771451702
15000210000.0 0.4620853603 -0.8838743523
15050209700.0 0.4493606966 -0.8902186472
15100209400.0 0.4360585999 -0.8963625668
15150209100.0 0.4239178408 -0.9025380314
15200208800.0 0.4099868908 -0.907697093
15250208500.0 0.3991785605 -0.9125382011
15300208200.0 0.3851777483 -0.9178225584
15350207900.0 0.3724023223 -0.9227152414
15400207600.0 0.3578346988 -0.9277767163
15450207300.0 0.3433595036 -0.9328151511
15500207000.0 0.3287992971 -0.9382885549
15550206700.0 0.3144157717 -0.9430634349
15600206400.0 0.2981307483 -0.9473277159
15650206100.0 0.2833235151 -0.9517625565
15700205800.0 0.2690803128 -0.9557528739
15750205500.0 0.2548247561 -0.9589951295
15800205200.0 0.2404594555 -0.9625778923
15850204900.0 0.2263626943 -0.9659348005
15900204600.0 0.211610248 -0.9694362526
15950204300.0 0.1976577365 -0.9724204322
16000204000.0 0.1839791651 -0.9754334501
16050203700.0 0.1692260196 -0.9779037683
16100203400.0 0.155690078 -0.9803069881
16150203100.0 0.1411310493 -0.982657091
16200202800.0 0.1265526658 -0.9844946446
16250202500.0 0.1120339252 -0.986179451
16300202200.0 0.0971773878 -0.9878382398
16350201900.0 0.0823202168 -0.9892490726
16400201600.0 0.0677124965 -0.990505396
16450201300.0 0.0528279027 -0.9915465724
16500201000.0 0.0366168505 -0.9922606147
16550200700.0 0.0210520327 -0.992788313
16600200400.0 0.0050915628 -0.9930987623
16650200100.0 -0.011119129 -0.9930578298
16700199800.0 -0.0269990354 -0.9927674201
16750199500.0 -0.0461620648 -0.9919924112
16800199200.0 -0.0619498315 -0.9912503162
16850198900.0 -0.0772924491 -0.9905112587
16900198600.0 -0.0918789763 -0.9885819508
16950198300.0 -0.1058494931 -0.9876531026
17000198000.0 -0.1182367323 -0.9866061701
17050197700.0 -0.1318404142 -0.9840601511
17100197400.0 -0.1452638425 -0.9820432142
17150197100.0 -0.1583102484 -0.9802550561
17200196800.0 -0.1713175974 -0.9780335467
17250196500.0 -0.1848358922 -0.9758744298
17300196200.0 -0.1973066179 -0.9731453619
17350195900.0 -0.2095565063 -0.9708737387
17400195600.0 -0.2219914028 -0.9682054296
17450195300.0 -0.2352510365 -0.9652744864
17500195000.0 -0.2487758314 -0.9620590664
17550194700.0 -0.2624290758 -0.9585790453
17600194400.0 -0.2763827812 -0.9542337853
17650194100.0 -0.2901005101 -0.9505181281
17700193800.0 -0.3029661355 -0.9462872882
17750193500.0 -0.3177736286 -0.942204639
17800193200.0 -0.3311998005 -0.9367006728
17850192900.0 -0.3462589979 -0.9313625463
17900192600.0 -0.3608254021 -0.9258462891
17950192300.0 -0.3757328591 -0.9187893221
18000192000.0 -0.3904027734 -0.9120346555
18050191700.0 -0.4039825635 -0.9044065463
18100191400.0 -0.4181825595 -0.8969679839
18150191100.0 -0.4327320272 -0.8893252541
18200190800.0 -0.449149835 -0.8804683865
18250190500.0 -0.465870865 -0.871413217
18300190200.0 -0.4807908981 -0.8631751547
18350189900.0 -0.4958929197 -0.854783972
18400189600.0 -0.5102230885 -0.846661939
18450189300.0 -0.5238678346 -0.8385178631
18500189000.0 -0.5370163513 -0.8302376276
18550188700.0 -0.550142292 -0.821988089
18600188400.0 -0.5620891999 -0.8151864058
18650188100.0 -0.5737014563 -0.8082217064
18700187800.0 -0.584833594 -0.8011230968
18750187500.0 -0.5958602455 -0.7940916822
18800187200.0 -0.6068697934 -0.7864805879
18850186900.0 -0.6175084021 -0.7789830455
18900186600.0 -0.6280920659 -0.7711181287
18950186300.0 -0.6385384523 -0.7631208153
19000186000.0 -0.6467337579 -0.7560252121
19050185700.0 -0.6562377215 -0.7483183179
19100185400.0 -0.6664310946 -0.7396520766
19150185100.0 -0.6771053035 -0.7306179015
19200184800.0 -0.686151584 -0.7220060883
19250184500.0 -0.6965496384 -0.71287896
19300184200.0 -0.7072450972 -0.703224826
19350183900.0 -0.7177778698 -0.6936728386
19400183600.0 -0.7275510456 -0.6844562533
19450183300.0 -0.73677193 -0.6739882222
19500183000.0 -0.745158638 -0.6635852163
19550182700.0 -0.7546539443 -0.6529870267
19600182400.0 -0.7644765945 -0.6419548071
19650182100.0 -0.7748767348 -0.6298080899
19700181800.0 -0.7849793842 -0.6169869199
19750181500.0 -0.7947892611 -0.6037653861
19800181200.0 -0.8047192324 -0.5895299842
19850180900.0 -0.8143596212 -0.5750025156
19900180600.0 -0.8218416225 -0.5613564405
19950180300.0 -0.8312497821 -0.5455414957
20000180000.0 -0.8273456905 -0.5448171315
20050179700.0 -0.8355992712 -0.532196638
20100179400.0 -0.843263979 -0.5182734939
20150179100.0 -0.8520701573 -0.5062506339
20200178800.0 -0.859944463 -0.4938635464
20250178500.0 -0.8695240966 -0.4804593152
20300178200.0 -0.8778257521 -0.466047537
20350177900.0 -0.8863132223 -0.4520745739
20400177600.0 -0.8949991613 -0.4379482286
20450177300.0 -0.9030209594 -0.4235352579
20500177000.0 -0.9104159389 -0.4099563995
20550176700.0 -0.9182861801 -0.3960970691
20600176400.0 -0.9253692417 -0.3829388529
20650176100.0 -0.9317477068 -0.3700409612
20700175800.0 -0.9385089744 -0.358195489
20750175500.0 -0.9451897311 -0.3450281925
20800175200.0 -0.9496732072 -0.33427859
20850174900.0 -0.9542358165 -0.3221892353
20900174600.0 -0.9591230991 -0.3106376123
20950174300.0 -0.96346937 -0.299928559
21000174000.0 -0.9661971853 -0.2866763862
21050173700.0 -0.9693898937 -0.2754564843
21100173400.0 -0.9745756187 -0.2631522323
21150173100.0 -0.977593569 -0.2503458238
21200172800.0 -0.9816676501 -0.2365011087
21250172500.0 -0.9849070017 -0.2230714742
21300172200.0 -0.9872231676 -0.2086729347
21350171900.0 -0.9893231247 -0.1943904814
21400171600.0 -0.9913710465 -0.1803872567
21450171300.0 -0.9923557371 -0.1665559527
21500171000.0 -0.9926002369 -0.1506838775
21550170700.0 -0.9915007551 -0.1358708161
21600170400.0 -0.9931906141 -0.1198130005
21650170100.0 -0.9930356321 -0.1051203461
21700169800.0 -0.991808218 -0.089788642
21750169500.0 -0.9899584818 -0.0741181049
21800169200.0 -0.9890544305 -0.0578871935
21850168900.0 -0.9884527549 -0.0418869702
21900168600.0 -0.9863804026 -0.0263899125
21950168300.0 -0.985751324 -0.0106333374
22000168000.0 -0.9848406547 0.0039545086
22050167700.0 -0.9841831571 0.0186018978
22100167400.0 -0.9840100584 0.0332918406
22150167100.0 -0.9842160576 0.0479700241
22200166800.0 -0.9844904674 0.0638427848
22250166500.0 -0.9836968626 0.0808681908
22300166200.0 -0.982752287 0.0971461855
22350165900.0 -0.9820345915 0.1131149113
22400165600.0 -0.9802001116 0.1289447235
22450165300.0 -0.9779226096 0.1430221273
22500165000.0 -0.9766339601 0.1570554614
22550164700.0 -0.9748648626 0.1719033808
22600164400.0 -0.9737162559 0.1874673763
22650164100.0 -0.9707758952 0.2017590807
22700163800.0 -0.9680424006 0.2174394396
22750163500.0 -0.9655859155 0.2325541049
22800163200.0 -0.9623912561 0.2461300601
22850162900.0 -0.9600303092 0.2600107495
22900162600.0 -0.9583391912 0.2733590834
22950162300.0 -0.9569758226 0.286146385
23000162000.0 -0.9558124987 0.2983621029
23050161700.0 -0.9533343037 0.3109529886
23100161400.0 -0.9501320391 0.323847897
23150161100.0 -0.9478914396 0.3365713822
23200160800.0 -0.9448372471 0.3484617708
23250160500.0 -0.9422476373 0.360666638
23300160200.0 -0.9392633628 0.3719658293
23350159900.0 -0.9358223526 0.3859807852
23400159600.0 -0.9309748915 0.3980167071
23450159300.0 -0.9258175409 0.4114101304
23500159000.0 -0.9216352043 0.4236330942
23550158700.0 -0.9171828858 0.4367791388
23600158400.0 -0.9116110409 0.44978081
23650158100.0 -0.9055640765 0.462971722
23700157800.0 -0.8981244975 0.4764825273
23750157500.0 -0.8898743771 0.490042133
23800157200.0 -0.8816579846 0.5028514618
23850156900.0 -0.872701589 0.5154119387
23900156600.0 -0.8636945888 0.5274777856
23950156300.0 -0.8545762894 0.5405440368
24000156000.0 -0.8463517149 0.5518776399
24050155700.0 -0.8362418031 0.5633908187
24100155400.0 -0.8262488423 0.5761841234
24150155100.0 -0.8162807305 0.5884950413
24200154800.0 -0.8058103575 0.599700894
24250154500.0 -0.7945443528 0.6110016633
24300154200.0 -0.7839696517 0.6228244588
24350153900.0 -0.7724027522 0.633645624
24400153600.0 -0.7602405052 0.644424899
24450153300.0 -0.7489009041 0.6541326322
24500153000.0 -0.7378886034 0.6642702754
24550152700.0 -0.7269107201 0.6745014855
24600152400.0 -0.7155975236 0.6842231635
24650152100.0 -0.7037715107 0.6933953572
