!Created with skrf (http://scikit-rf.org).
# Hz S RI R 50.0 
!freq ReS11 ImS11
300000.0 -0.9757469029 -0.1125254306
50299700.0 -1.000032315 0.0156963042
100299400.0 -0.9981154239 0.0286993423
150299100.0 -1.002961553 0.0455380685
200298800.0 -0.9997678876 0.0588770847
250298500.0 -0.9973774672 0.0723326139
300298200.0 -0.9859667167 0.0882439133
350297900.0 -0.993909816 0.0992122848
400297600.0 -0.9930449996 0.1155512927
450297300.0 -0.9909321352 0.129583019
500297000.0 -0.9895103134 0.1441533248
550296700.0 -0.9843074603 0.1567612417
600296400.0 -1.017363957 0.1900904233
650296100.0 -0.9820440922 0.1866003522
700295800.0 -0.9791837119 0.2010047849
750295500.0 -0.9763906206 0.2149501994
800295200.0 -0.9729333112 0.2290829085
850294900.0 -0.969509811 0.2429427758
900294600.0 -0.9657963369 0.2565411212
950294300.0 -0.9618751056 0.2704829153
1000294000.0 -0.9581689223 0.2845320376
1050293700.0 -0.9536826525 0.2982031346
1100293400.0 -0.9491193858 0.3124638976
1150293100.0 -0.9453127355 0.3244828237
1200292800.0 -0.940030032 0.3388483428
1250292500.0 -0.9343607134 0.3521839136
1300292200.0 -0.928840537 0.3654772315
1350291900.0 -0.9233201666 0.3795962051
1400291600.0 -0.9177100768 0.3926184917
1450291300.0 -0.9121399436 0.4048416733
1500291000.0 -0.9061531242 0.4184216007
1550290700.0 -0.899606329 0.4316194595
1600290400.0 -0.8933325888 0.4444838486
1650290100.0 -0.8864447355 0.4566949982
1700289800.0 -0.8797167324 0.4700908972
1750289500.0 -0.8727538158 0.4823911471
1800289200.0 -0.8651652942 0.4952563944
1850288900.0 -0.858538941 0.5066699069
1900288600.0 -0.8505646348 0.519612221
1950288300.0 -0.8427670341 0.5324931468
2000288000.0 -0.8351198161 0.5436820492
2050287700.0 -0.827128035 0.5558588846
2100287400.0 -0.8190088973 0.5676334375
2150287100.0 -0.8101879012 0.5796861142
2200286800.0 -0.80266284 0.5900294542
2250286500.0 -0.7937269253 0.6019707011
2300286200.0 -0.7848312088 0.6136520505
2350285900.0 -0.7759300561 0.6246440932
2400285600.0 -0.76689858 0.6357263748
2450285300.0 -0.7585537994 0.646095903
2500285000.0 -0.7487407137 0.6573183042
2550284700.0 -0.739847134 0.6678789323
2600284400.0 -0.7304746853 0.6777549164
2650284100.0 -0.7214423467 0.6883062475
2700283800.0 -0.7106896558 0.6988046428
2750283500.0 -0.7005550436 0.7095415956
2800283200.0 -0.6906279179 0.7189506913
2850282900.0 -0.6806272653 0.7291115278
2900282600.0 -0.6701473544 0.738610462
2950282300.0 -0.6601424936 0.7479189252
3000282000.0 -0.6490694552 0.7571371396
3050281700.0 -0.638086256 0.7666701244
3100281400.0 -0.6261347276 0.7759255856
3150281100.0 -0.6145036314 0.785263095
3200280800.0 -0.6026376108 0.7937953548
3250280500.0 -0.5918613767 0.8015929251
3300280200.0 -0.5806331717 0.809205003
3350279900.0 -0.5691876505 0.8166766498
3400279600.0 -0.5571744486 0.8243825112
3450279300.0 -0.5458730014 0.8315225725
3500279000.0 -0.5339813451 0.8386700187
3550278700.0 -0.5215033738 0.846036632
3600278400.0 -0.5090751454 0.8530048478
3650278100.0 -0.4959036347 0.8608674688
3700277800.0 -0.4839363436 0.8670253737
3750277500.0 -0.4715472394 0.8736255122
3800277200.0 -0.4588375886 0.88010514
3850276900.0 -0.4469287761 0.8861397538
3900276600.0 -0.4362003522 0.8917372026
3950276300.0 -0.4238106224 0.8979175131
4000276000.0 -0.4116392991 0.9037892176
4050275700.0 -0.398696002 0.9097608925
4100275400.0 -0.3873627389 0.9152844609
4150275100.0 -0.3751527325 0.9210488477
4200274800.0 -0.3619156365 0.9264788923
4250274500.0 -0.3495153667 0.9317298001
4300274200.0 -0.3367836774 0.9367284081
4350273900.0 -0.3228304867 0.9422296597
4400273600.0 -0.3079538039 0.947476807
4450273300.0 -0.2924495832 0.9526228175
4500273000.0 -0.2790460491 0.9569026025
4550272700.0 -0.2647359633 0.9611166232
4600272400.0 -0.2492444749 0.9653463086
4650272100.0 -0.237441551 0.9685186528
4700271800.0 -0.2241776568 0.9718280866
4750271500.0 -0.2125898126 0.9747656726
4800271200.0 -0.2001041022 0.9774225199
4850270900.0 -0.1861162345 0.9803357844
4900270600.0 -0.1723071586 0.9827407229
4950270300.0 -0.1580819955 0.9852636793
5000270000.0 -0.1438682598 0.9871174906
5050269700.0 -0.1304996253 0.988853521
5100269400.0 -0.1168749184 0.9905318489
5150269100.0 -0.103658583 0.9921608805
5200268800.0 -0.0901880877 0.9929951087
5250268500.0 -0.0771812936 0.9937948877
5300268200.0 -0.0640885747 0.9947228943
5350267900.0 -0.0519684606 0.9953130962
5400267600.0 -0.035622406 0.9962866833
5450267300.0 -0.0227820193 0.9965433186
5500267000.0 -0.0073867813 0.9970910955
5550266700.0 0.0075697731 0.9972657699
5600266400.0 0.0231664969 0.9970816483
5650266100.0 0.0397323434 0.9970388495
5700265800.0 0.0540554926 0.9963061253
5750265500.0 0.0693728309 0.9954698695
5800265200.0 0.0833662081 0.9942771876
5850264900.0 0.0969318984 0.9933149786
5900264600.0 0.1135061468 0.9917773975
5950264300.0 0.1254165759 0.9901406985
6000264000.0 0.1393795855 0.9881000712
6050263700.0 0.1519005466 0.9867479373
6100263400.0 0.1643192239 0.9846915538
6150263100.0 0.1789071304 0.9823672213
6200262800.0 0.1892725241 0.9805416138
6250262500.0 0.2020324817 0.9782356816
6300262200.0 0.2148092654 0.9753705117
6350261900.0 0.2279794828 0.9724743066
6400261600.0 0.2416431605 0.9691414602
6450261300.0 0.2531682361 0.9665596323
6500261000.0 0.2659233706 0.9628291412
6550260700.0 0.2788563815 0.9591388849
6600260400.0 0.2919038503 0.9547314261
6650260100.0 0.3059762364 0.9505981451
6700259800.0 0.3183393427 0.9462253954
6750259500.0 0.3319499343 0.9414752863
6800259200.0 0.3451193254 0.9362158414
6850258900.0 0.3569008759 0.9312776291
6900258600.0 0.3689602015 0.9260065676
6950258300.0 0.3817641261 0.9208811013
7000258000.0 0.3936539244 0.9153679701
7050257700.0 0.4060315313 0.9093227557
7100257400.0 0.4186526145 0.9032459239
7150257100.0 0.4289483996 0.8978615883
7200256800.0 0.4417843791 0.8913027342
7250256500.0 0.453482003 0.8852196642
7300256200.0 0.4668676066 0.8784539038
7350255900.0 0.4789343468 0.8714986954
7400255600.0 0.4923176964 0.8643015481
7450255300.0 0.5075313547 0.8547987977
7500255000.0 0.5191623865 0.8481578271
7550254700.0 0.5332958229 0.8394296798
7600254400.0 0.5460433736 0.8313480006
7650254100.0 0.5576120826 0.8236866897
7700253800.0 0.5690853121 0.8155729466
7750253500.0 0.5804465498 0.8075857263
7800253200.0 0.5909477291 0.800018961
7850252900.0 0.6009291786 0.792967696
7900252600.0 0.612380744 0.7843104727
7950252300.0 0.6214009223 0.7776694883
8000252000.0 0.6314945739 0.7697891288
8050251700.0 0.641728546 0.7616105216
8100251400.0 0.6520706865 0.7534756715
8150251100.0 0.6617050232 0.7448457852
8200250800.0 0.6715648571 0.7368460291
8250250500.0 0.6803013582 0.7287717893
8300250200.0 0.6899636688 0.720080893
8350249900.0 0.6989108879 0.7115370144
8400249600.0 0.70679497 0.7032588595
8450249300.0 0.7162311843 0.6941471261
8500249000.0 0.7247941141 0.6854070912
8550248700.0 0.7330211964 0.676359581
8600248400.0 0.7413523407 0.6668596371
8650248100.0 0.7490639818 0.6574388348
8700247800.0 0.758799672 0.64633924
8750247500.0 0.7669072449 0.6362813431
8800247200.0 0.7750239956 0.6257037906
8850246900.0 0.7839620601 0.6143970124
8900246600.0 0.7925088284 0.6028874408
8950246300.0 0.8019679447 0.5898566053
9000246000.0 0.8113929956 0.577314633
9050245700.0 0.8203377928 0.5642053643
9100245400.0 0.8290708927 0.5516349608
9150245100.0 0.8383056871 0.5380262866
9200244800.0 0.8484124384 0.5226848291
9250244500.0 0.8575824231 0.5069973348
9300244200.0 0.8663395755 0.4921323777
9350243900.0 0.873899399 0.47840172
9400243600.0 0.8805339978 0.4660869841
9450243300.0 0.8863566508 0.4542712037
9500243000.0 0.8924726481 0.4421007312
9550242700.0 0.896367859 0.4345065507
9600242400.0 0.9001065887 0.4273112089
9650242100.0 0.9037567813 0.4208465696
9700241800.0 0.9083145047 0.4126818185
9750241500.0 0.9120315368 0.4051019447
9800241200.0 0.9166477479 0.3959950837
9850240900.0 0.9225471113 0.3842370051
9900240600.0 0.9282127541 0.3725276485
9950240300.0 0.9346429215 0.3566284414
10000240000.0 0.9394904732 0.3446897823
10050239700.0 0.9451685949 0.3293529374
10100239400.0 0.9500831642 0.3142042063
10150239100.0 0.954277102 0.2993943307
10200238800.0 0.9584402794 0.284586123
10250238500.0 0.9618138771 0.2711132362
10300238200.0 0.9649011558 0.2572788572
10350237900.0 0.9674729377 0.2443760725
10400237600.0 0.9700409808 0.2308267677
10450237300.0 0.9723848706 0.2174156208
10500237000.0 0.9747653113 0.205130614
10550236700.0 0.9772482453 0.1909596157
10600236400.0 0.9793420331 0.1774098989
10650236100.0 0.9815185812 0.1633121328
10700235800.0 0.9839798094 0.1509766614
10750235500.0 0.986235102 0.1373653242
10800235200.0 0.9877954023 0.1239224497
10850234900.0 0.9897420516 0.1088621234
10900234600.0 0.9918081591 0.0943991152
10950234300.0 0.993556684 0.0809975828
11000234000.0 0.9953400317 0.0660391065
11050233700.0 0.9969273466 0.0496284804
11100233400.0 0.9983853827 0.0321930976
11150233100.0 0.9996595596 0.0160824401
11200232800.0 1.000245461 0.0007950626
11250232500.0 1.00107688 -0.0155631157
11300232200.0 1.001772551 -0.0337759229
11350231900.0 1.001703371 -0.0498143492
11400231600.0 1.0014735 -0.0658506728
11450231300.0 1.000885776 -0.0803707581
11500231000.0 1.000037458 -0.0974163265
11550230700.0 0.9977883558 -0.1099386655
11600230400.0 0.9965954614 -0.123715824
11650230100.0 0.9944389495 -0.1340257308
11700229800.0 0.9924838961 -0.1495103945
11750229500.0 0.9904366857 -0.1638112717
11800229200.0 0.9877010994 -0.1774358237
11850228900.0 0.9839991836 -0.1897970043
11900228600.0 0.9806541422 -0.1995412533
11950228300.0 0.9777139713 -0.2098051323
12000228000.0 0.9743650698 -0.2187457461
12050227700.0 0.9708605256 -0.2319164395
12100227400.0 0.9675869788 -0.243120961
12150227100.0 0.9634526957 -0.2594897352
12200226800.0 0.9599005934 -0.2696652437
12250226500.0 0.9548600061 -0.2824866623
12300226200.0 0.9508315561 -0.2952743575
12350225900.0 0.9461046354 -0.3090206835
12400225600.0 0.9418832157 -0.3217341927
12450225300.0 0.9375793554 -0.3347880594
12500225000.0 0.9319490812 -0.3491696352
12550224700.0 0.926809137 -0.3632479244
12600224400.0 0.9219119919 -0.3759569184
12650224100.0 0.915980801 -0.3901507291
12700223800.0 0.9106652496 -0.4030413521
12750223500.0 0.9053630099 -0.4159215805
12800223200.0 0.8999376674 -0.4282531709
12850222900.0 0.8947437304 -0.440458467
12900222600.0 0.8889603174 -0.4523054593
12950222300.0 0.8826600388 -0.4654925898
13000222000.0 0.8767721787 -0.4773180454
13050221700.0 0.86986143 -0.489672281
13100221400.0 0.8630933764 -0.5014880397
13150221100.0 0.856260987 -0.5139728805
13200220800.0 0.8490815374 -0.5251598751
13250220500.0 0.8417904922 -0.5376789955
13300220200.0 0.8346836206 -0.5487495705
13350219900.0 0.8265434273 -0.5605730902
13400219600.0 0.8179483678 -0.5726963355
13450219300.0 0.8082091556 -0.5864124517
13500219000.0 0.7983242019 -0.600552041
13550218700.0 0.7878667067 -0.612782052
13600218400.0 0.7774575919 -0.6255876302
13650218100.0 0.7685076032 -0.6369316167
13700217800.0 0.7560449396 -0.6487182681
13750217500.0 0.7465375668 -0.6598618773
13800217200.0 0.7359097327 -0.6724184014
13850216900.0 0.7247130231 -0.6837811241
13900216600.0 0.7150436459 -0.6922706364
13950216300.0 0.7041143056 -0.7036983977
14000216000.0 0.6941488865 -0.7118063366
14050215700.0 0.6843781455 -0.7201071633
14100215400.0 0.6747581641 -0.7294473736
14150215100.0 0.6654366198 -0.7375357451
14200214800.0 0.6559812079 -0.7461090741
14250214500.0 0.6459213025 -0.75532128
14300214200.0 0.635511391 -0.7646381765
14350213900.0 0.6246361985 -0.7742612554
14400213600.0 0.6126920849 -0.783921054
14450213300.0 0.5998756259 -0.7940307826
14500213000.0 0.5862028845 -0.8041501101
14550212700.0 0.5738143992 -0.8135492651
14600212400.0 0.5610478259 -0.8219532662
14650212100.0 0.5486361424 -0.8311046912
14700211800.0 0.5346763046 -0.8408625376
14750211500.0 0.5224481153 -0.8484400908
14800211200.0 0.5104703491 -0.8565049716
14850210900.0 0.4981922421 -0.8638317406
14900210600.0 0.4845519797 -0.8718913394
14950210300.0 0.4712107656 -0.879528496
15000210000.0 0.4583268551 -0.8864497779
15050209700.0 0.4460799882 -0.8925893146
15100209400.0 0.4335109039 -0.8985942677
15150209100.0 0.421227439 -0.9037105965
15200208800.0 0.4082304799 -0.9094548247
15250208500.0 0.3965659574 -0.9138884147
15300208200.0 0.3842310665 -0.9189318499
15350207900.0 0.3709347321 -0.922735982
15400207600.0 0.3574134766 -0.9291206357
15450207300.0 0.3424957206 -0.9337149112
15500207000.0 0.3269891442 -0.9378460075
15550206700.0 0.3124851529 -0.943329519
15600206400.0 0.295915436 -0.9478108652
15650206100.0 0.2798841986 -0.9522465163
15700205800.0 0.26678411 -0.9558277369
15750205500.0 0.2521812239 -0.9591632764
15800205200.0 0.2376376301 -0.9627520104
15850204900.0 0.2231813426 -0.9660690502
15900204600.0 0.2081482447 -0.9696745324
15950204300.0 0.1940748173 -0.972422511
16000204000.0 0.1800119966 -0.975497783
16050203700.0 0.1652835906 -0.9780788659
16100203400.0 0.1507969659 -0.97997635
16150203100.0 0.1363772755 -0.9822997973
16200202800.0 0.1223765084 -0.9843410058
16250202500.0 0.1076535191 -0.9860253988
16300202200.0 0.0925157886 -0.9877454903
16350201900.0 0.0776466844 -0.9892181823
16400201600.0 0.0627370482 -0.9902535237
16450201300.0 0.0477913157 -0.9913980957
16500201000.0 0.0311737049 -0.9922188206
16550200700.0 0.015683951 -0.9925529083
16600200400.0 -2.36083e-05 -0.9927807305
16650200100.0 -0.0164509019 -0.9925985453
16700199800.0 -0.033136908 -0.992292055
16750199500.0 -0.051785241 -0.9915551466
16800199200.0 -0.0677827458 -0.9908995269
16850198900.0 -0.0826304493 -0.9893280499
16900198600.0 -0.0966650456 -0.9884170928
16950198300.0 -0.109685196 -0.9874073531
17000198000.0 -0.1229006657 -0.9856805577
17050197700.0 -0.1356763806 -0.9836821039
17100197400.0 -0.1484187983 -0.9819743423
17150197100.0 -0.1604207902 -0.9795676182
17200196800.0 -0.1737854685 -0.9779877574
17250196500.0 -0.1867549465 -0.9755800063
17300196200.0 -0.1987200778 -0.9730995664
17350195900.0 -0.2106771724 -0.9707623858
17400195600.0 -0.2228079116 -0.9685513067
17450195300.0 -0.2359827998 -0.9656086065
17500195000.0 -0.2493996916 -0.9620999581
17550194700.0 -0.2632043951 -0.9585894969
17600194400.0 -0.2773445238 -0.9547215651
17650194100.0 -0.2907032072 -0.9503983432
17700193800.0 -0.3037031689 -0.9460089579
17750193500.0 -0.3183143102 -0.941843122
17800193200.0 -0.3326981565 -0.9365004614
17850192900.0 -0.3473232076 -0.9312234076
17900192600.0 -0.3627491941 -0.924804094
17950192300.0 -0.3782702752 -0.9179922943
18000192000.0 -0.3928359355 -0.9103381993
18050191700.0 -0.4067385542 -0.9024553966
18100191400.0 -0.4210398235 -0.8947706012
18150191100.0 -0.4359708242 -0.8867733193
18200190800.0 -0.4531463365 -0.8776685141
18250190500.0 -0.4700914511 -0.8684734141
18300190200.0 -0.4853509229 -0.8591864809
18350189900.0 -0.5004011892 -0.8508789387
18400189600.0 -0.514524935 -0.8424829748
18450189300.0 -0.5276550978 -0.8345271282
18500189000.0 -0.5414819807 -0.8268257625
18550188700.0 -0.554006521 -0.8185643138
18600188400.0 -0.5656021659 -0.8120027184
18650188100.0 -0.5770412183 -0.8059012284
18700187800.0 -0.5876809976 -0.7993566365
18750187500.0 -0.5983458568 -0.792790139
18800187200.0 -0.6089971449 -0.7856107022
18850186900.0 -0.619103835 -0.7786976479
18900186600.0 -0.6292521322 -0.7712908623
18950186300.0 -0.6393855613 -0.7634641178
19000186000.0 -0.6465329349 -0.7574128014
19050185700.0 -0.6556238464 -0.7501470791
19100185400.0 -0.6656756634 -0.7420353475
19150185100.0 -0.6759563907 -0.7331316296
19200184800.0 -0.6854383422 -0.725382655
19250184500.0 -0.6960387907 -0.7154017251
19300184200.0 -0.7071751881 -0.7062389184
19350183900.0 -0.7177161089 -0.6964245973
19400183600.0 -0.7280119882 -0.6864685277
19450183300.0 -0.736226366 -0.6762483882
19500183000.0 -0.7444348757 -0.66666082
19550182700.0 -0.754381049 -0.6557369203
19600182400.0 -0.7647437186 -0.6436587525
19650182100.0 -0.7757539107 -0.6313635251
19700181800.0 -0.7864152114 -0.618449187
19750181500.0 -0.7966711562 -0.6042360775
19800181200.0 -0.8070230329 -0.589245434
19850180900.0 -0.8165336261 -0.5737908815
19900180600.0 -0.824425357 -0.5592539128
19950180300.0 -0.8335575176 -0.5429861481
20000180000.0 -0.8272102356 -0.5450760446
20050179700.0 -0.8351894213 -0.5319355622
20100179400.0 -0.8436017744 -0.5186145657
20150179100.0 -0.8523430798 -0.5053973574
20200178800.0 -0.8598723777 -0.494160189
20250178500.0 -0.8700975941 -0.4796583264
20300178200.0 -0.879829682 -0.4652118999
20350177900.0 -0.8883164698 -0.4505116546
20400177600.0 -0.8974150002 -0.4356888313
20450177300.0 -0.9054414195 -0.4214792036
20500177000.0 -0.9135526755 -0.4078451016
20550176700.0 -0.9216359587 -0.3942233565
20600176400.0 -0.9284282568 -0.3807857023
20650176100.0 -0.9352106652 -0.3686481988
20700175800.0 -0.9418927195 -0.3565874719
20750175500.0 -0.9483384109 -0.3450123124
20800175200.0 -0.9532033173 -0.3338044575
20850174900.0 -0.958314052 -0.3235421051
20900174600.0 -0.9624162013 -0.3115030254
20950174300.0 -0.9673904839 -0.2998113441
21000174000.0 -0.9700956151 -0.287970036
21050173700.0 -0.9739144908 -0.2778442457
21100173400.0 -0.9772771976 -0.26478104
21150173100.0 -0.9815136768 -0.2529846493
21200172800.0 -0.9849794142 -0.2388018156
21250172500.0 -0.9877931895 -0.2253496143
21300172200.0 -0.9905118269 -0.2108366364
21350171900.0 -0.9922691402 -0.1963224678
21400171600.0 -0.9930779246 -0.1825277947
21450171300.0 -0.9935648616 -0.1676230234
21500171000.0 -0.9930266401 -0.1523233275
21550170700.0 -0.9931741614 -0.1380749658
21600170400.0 -0.9928141946 -0.1213199523
21650170100.0 -0.9919885853 -0.1064797099
21700169800.0 -0.9895603853 -0.0905951607
21750169500.0 -0.9901010169 -0.0743080751
21800169200.0 -0.9878003258 -0.0582988209
21850168900.0 -0.9866543484 -0.0419262264
21900168600.0 -0.9857033195 -0.0255954852
21950168300.0 -0.9842040394 -0.009586341
22000168000.0 -0.9828144848 0.0053234696
22050167700.0 -0.9829404328 0.0192488599
22100167400.0 -0.9827750534 0.0344990743
22150167100.0 -0.9833325726 0.050101359
22200166800.0 -0.9833707187 0.0665621575
22250166500.0 -0.9835737151 0.0836554996
22300166200.0 -0.9821812379 0.1001558763
22350165900.0 -0.9813452328 0.1168247079
22400165600.0 -0.9791405957 0.1323998476
22450165300.0 -0.9777105226 0.1468355668
22500165000.0 -0.9752815721 0.1606549743
22550164700.0 -0.973658905 0.1771550012
22600164400.0 -0.9726406145 0.1921543854
22650164100.0 -0.9705093567 0.2072246356
22700163800.0 -0.9676032577 0.222443832
22750163500.0 -0.96498766 0.2378056109
22800163200.0 -0.9627238902 0.2509519043
22850162900.0 -0.9601804468 0.2644487494
22900162600.0 -0.9588756275 0.277895517
22950162300.0 -0.957366111 0.2906588688
23000162000.0 -0.9567525501 0.3024477519
23050161700.0 -0.9545996512 0.3145829877
23100161400.0 -0.9520983664 0.3277172306
23150161100.0 -0.9500887979 0.3395290934
23200160800.0 -0.9468919905 0.3522067712
23250160500.0 -0.9439810269 0.3643933836
23300160200.0 -0.9416832714 0.3755736097
23350159900.0 -0.9380388856 0.3885573964
23400159600.0 -0.9329833148 0.4017061214
23450159300.0 -0.9284002242 0.4154897528
23500159000.0 -0.9240812312 0.4283815838
23550158700.0 -0.9194877973 0.4409883923
23600158400.0 -0.9142757717 0.454549845
23650158100.0 -0.9078707511 0.4683304467
23700157800.0 -0.9002009035 0.4825238255
23750157500.0 -0.8917896717 0.496044394
23800157200.0 -0.8830127807 0.5095836153
23850156900.0 -0.8741818606 0.5221325747
23900156600.0 -0.8646136657 0.5347713612
23950156300.0 -0.8561506887 0.5474714522
24000156000.0 -0.8469833946 0.5592613707
24050155700.0 -0.8363221574 0.5711480461
24100155400.0 -0.8261437662 0.5827189742
24150155100.0 -0.8160363148 0.5947256722
24200154800.0 -0.8050205362 0.6057214745
24250154500.0 -0.7929658012 0.6175774844
24300154200.0 -0.7821206518 0.6287122736
24350153900.0 -0.7703468082 0.6396000055
24400153600.0 -0.7582517862 0.6496045178
24450153300.0 -0.7462082912 0.6593608141
24500153000.0 -0.7351334224 0.6690045655
24550152700.0 -0.7234211286 0.6790600654
24600152400.0 -0.7120328761 0.6877708036
24650152100.0 -0.7003536343 0.6962854206
