!Created with skrf (http://scikit-rf.org).
# Hz S RI R 50.0 
!freq ReS11 ImS11
300000.0 -0.9757629478 -0.1201662273
50299700.0 -0.9997744939 0.0150292651
100299400.0 -0.9979235931 0.02803351
150299100.0 -1.002718832 0.0447917934
200298800.0 -0.9997453044 0.0580333245
250298500.0 -0.9974754642 0.0716877334
300298200.0 -0.9857973789 0.0873483567
350297900.0 -0.9940493456 0.0983207653
400297600.0 -0.9929949664 0.1151235317
450297300.0 -0.9909860988 0.1286977912
500297000.0 -0.9892692341 0.1433729388
550296700.0 -0.9841043797 0.1557103464
600296400.0 -1.017330472 0.1892161649
650296100.0 -0.9821749221 0.1857138102
700295800.0 -0.9791294902 0.1999559301
750295500.0 -0.9762745635 0.2139415746
800295200.0 -0.9729373838 0.2281598742
850294900.0 -0.9695105049 0.2418269122
900294600.0 -0.9658858558 0.2556197031
950294300.0 -0.9621585287 0.2692340172
1000294000.0 -0.95816532 0.2831521172
1050293700.0 -0.9535229684 0.297171816
1100293400.0 -0.9491442254 0.3113782926
1150293100.0 -0.945549115 0.3232476144
1200292800.0 -0.9399554138 0.3378741943
1250292500.0 -0.9347170713 0.3513335737
1300292200.0 -0.9289126245 0.3645643352
1350291900.0 -0.9234150906 0.3785264979
1400291600.0 -0.9178236443 0.3916500071
1450291300.0 -0.9125028918 0.4038935434
1500291000.0 -0.9062169678 0.4173780504
1550290700.0 -0.899953909 0.4305868935
1600290400.0 -0.8932340776 0.4435653594
1650290100.0 -0.8867862216 0.4557693188
1700289800.0 -0.8798136776 0.4691243643
1750289500.0 -0.8729856909 0.4816261512
1800289200.0 -0.8653514958 0.4943826962
1850288900.0 -0.858828159 0.5057298695
1900288600.0 -0.8510752651 0.5186977423
1950288300.0 -0.8427971309 0.5312454722
2000288000.0 -0.8352539357 0.5427393404
2050287700.0 -0.8272970083 0.5551374426
2100287400.0 -0.8194565042 0.5664359805
2150287100.0 -0.8109120681 0.5783656092
2200286800.0 -0.8029981552 0.5891019894
2250286500.0 -0.7942729058 0.6013169505
2300286200.0 -0.7851053002 0.6127848985
2350285900.0 -0.7768115914 0.6234630946
2400285600.0 -0.7678450443 0.6343170906
2450285300.0 -0.7593043875 0.6451390131
2500285000.0 -0.7494678875 0.6567062269
2550284700.0 -0.7401139602 0.6668152483
2600284400.0 -0.7309633725 0.6767986549
2650284100.0 -0.7224474463 0.6873052064
2700283800.0 -0.7116651406 0.6975388184
2750283500.0 -0.7016192522 0.7081162093
2800283200.0 -0.6917257986 0.7182352229
2850282900.0 -0.6811504657 0.7281932631
2900282600.0 -0.6707899782 0.737706213
2950282300.0 -0.6602321675 0.7471306858
3000282000.0 -0.6497259616 0.7565808601
3050281700.0 -0.6383786877 0.7657948767
3100281400.0 -0.6269212567 0.7750573964
3150281100.0 -0.6155306205 0.7839675036
3200280800.0 -0.6041090692 0.7923891631
3250280500.0 -0.5930461015 0.8003263579
3300280200.0 -0.5816386527 0.8085165824
3350279900.0 -0.569433444 0.8163755722
3400279600.0 -0.5568414412 0.8243325546
3450279300.0 -0.5457764412 0.831412967
3500279000.0 -0.534124964 0.8383992335
3550278700.0 -0.5217423808 0.8453363978
3600278400.0 -0.5100214956 0.8523606912
3650278100.0 -0.4968029556 0.8599427873
3700277800.0 -0.4847002332 0.8663552141
3750277500.0 -0.4722740093 0.873127787
3800277200.0 -0.4598815117 0.8797193478
3850276900.0 -0.4479716045 0.8855861759
3900276600.0 -0.437024515 0.8913004434
3950276300.0 -0.4248632876 0.8971353048
4000276000.0 -0.4131399892 0.9031929704
4050275700.0 -0.4004124491 0.909158192
4100275400.0 -0.38934052 0.9146379714
4150275100.0 -0.3761660042 0.9204865822
4200274800.0 -0.3627276806 0.9261901599
4250274500.0 -0.3503432599 0.9312517535
4300274200.0 -0.3371616504 0.9366908681
4350273900.0 -0.3227688377 0.9420465689
4400273600.0 -0.308169295 0.9470906983
4450273300.0 -0.2931885992 0.9519676162
4500273000.0 -0.2797679047 0.9564763809
4550272700.0 -0.2662261668 0.9605947343
4600272400.0 -0.2510630181 0.9648561917
4650272100.0 -0.2397390062 0.9679313726
4700271800.0 -0.2266679446 0.9712053405
4750271500.0 -0.2149887948 0.9740596931
4800271200.0 -0.2026026347 0.9767445557
4850270900.0 -0.1888544831 0.9795169609
4900270600.0 -0.1750115352 0.9818724968
4950270300.0 -0.1604542945 0.9844692396
5000270000.0 -0.1459168947 0.9866444451
5050269700.0 -0.1326376904 0.9885790347
5100269400.0 -0.1185502881 0.9901385586
5150269100.0 -0.1046663662 0.9916311078
5200268800.0 -0.0912893324 0.9928341389
5250268500.0 -0.0782685185 0.9938321791
5300268200.0 -0.0647243076 0.9944819059
5350267900.0 -0.0519193306 0.9950452821
5400267600.0 -0.0357436615 0.9962212952
5450267300.0 -0.022396785 0.9967066305
5500267000.0 -0.0071861569 0.9969233715
5550266700.0 0.0076628422 0.9971604723
5600266400.0 0.0231955856 0.9971732868
5650266100.0 0.0399150929 0.996619342
5700265800.0 0.0538755126 0.9959527756
5750265500.0 0.0691167436 0.9949705548
5800265200.0 0.0828973892 0.9945189329
5850264900.0 0.0960502621 0.9933440034
5900264600.0 0.1125888977 0.99150863
5950264300.0 0.1241211033 0.9898847327
6000264000.0 0.1378212636 0.988020927
6050263700.0 0.1497206506 0.9868691536
6100263400.0 0.1619606982 0.9846602026
6150263100.0 0.1766599334 0.9829198401
6200262800.0 0.1863656465 0.9808973503
6250262500.0 0.1989862416 0.9788052882
6300262200.0 0.2114560697 0.976176033
6350261900.0 0.2243096425 0.9733349214
6400261600.0 0.2381364898 0.970130704
6450261300.0 0.249269239 0.9675563829
6500261000.0 0.2627071404 0.9641621254
6550260700.0 0.2755475626 0.9599793777
6600260400.0 0.2889588139 0.9559028863
6650260100.0 0.3030772508 0.9513725949
6700259800.0 0.315028167 0.9473386709
6750259500.0 0.3289899744 0.942515484
6800259200.0 0.3425104449 0.9372487611
6850258900.0 0.3549924866 0.9320853949
6900258600.0 0.3673445598 0.9268788722
6950258300.0 0.3799883556 0.9214441996
7000258000.0 0.3912958109 0.9161921985
7050257700.0 0.403652582 0.9102870349
7100257400.0 0.4168884106 0.9039248708
7150257100.0 0.4273323587 0.8985429678
7200256800.0 0.4404052927 0.8920976426
7250256500.0 0.4531631843 0.8857574836
7300256200.0 0.4659064291 0.8787532638
7350255900.0 0.4784596199 0.871944866
7400255600.0 0.4926950646 0.8641449862
7450255300.0 0.5076920284 0.8552236728
7500255000.0 0.5203192372 0.8478051465
7550254700.0 0.534024905 0.8387357122
7600254400.0 0.5467957245 0.830568319
7650254100.0 0.5580948675 0.8227300499
7700253800.0 0.5700547844 0.8146794165
7750253500.0 0.5810567921 0.8069032125
7800253200.0 0.5919281133 0.7995160252
7850252900.0 0.6015088832 0.7920347525
7900252600.0 0.6130584421 0.7832598051
7950252300.0 0.6216102429 0.7769799207
8000252000.0 0.6313473689 0.7692630796
8050251700.0 0.6419713266 0.7612496789
8100251400.0 0.6517830733 0.7530774433
8150251100.0 0.6617289151 0.744612761
8200250800.0 0.6716200719 0.7364996465
8250250500.0 0.6799351944 0.7285680093
8300250200.0 0.6893219732 0.7202751485
8350249900.0 0.6986013364 0.7112990522
8400249600.0 0.706886171 0.7034034818
8450249300.0 0.715368607 0.6944970786
8500249000.0 0.7239688635 0.6857219217
8550248700.0 0.7325610708 0.6764891538
8600248400.0 0.7409076081 0.6668779162
8650248100.0 0.7485655769 0.657728875
8700247800.0 0.7578695889 0.6465393381
8750247500.0 0.7661498362 0.6363436122
8800247200.0 0.7742069518 0.6261323396
8850246900.0 0.7829255127 0.6147245525
8900246600.0 0.7913870739 0.6034887866
8950246300.0 0.8006862711 0.5905076235
9000246000.0 0.8094813834 0.5785953064
9050245700.0 0.8180060518 0.5660868129
9100245400.0 0.8264652569 0.5539620541
9150245100.0 0.8352450092 0.540982947
9200244800.0 0.8445723227 0.5263956005
9250244500.0 0.8538319269 0.5115400351
9300244200.0 0.8619819484 0.4977590851
9350243900.0 0.8697738643 0.4844309862
9400243600.0 0.8764362878 0.4726026985
9450243300.0 0.8819803509 0.4616203905
9500243000.0 0.8884766376 0.4499632758
9550242700.0 0.8922705746 0.4423681119
9600242400.0 0.8965436791 0.4347570545
9650242100.0 0.9004701893 0.4280013449
9700241800.0 0.9052958747 0.4194954052
9750241500.0 0.9095268422 0.4119590947
9800241200.0 0.9145569089 0.4022230244
9850240900.0 0.9200717415 0.390507229
9900240600.0 0.9260264171 0.3788141277
9950240300.0 0.9330832786 0.3624700355
10000240000.0 0.9381771875 0.3498964235
10050239700.0 0.943918757 0.3345094206
10100239400.0 0.9492432338 0.3184358545
10150239100.0 0.953913448 0.3027095921
10200238800.0 0.9582666576 0.2874275034
10250238500.0 0.9613037373 0.274104996
10300238200.0 0.9645764031 0.2601563995
10350237900.0 0.9673395214 0.2468277459
10400237600.0 0.9700672974 0.2332760806
10450237300.0 0.9724099215 0.2199834443
10500237000.0 0.9750741364 0.2068825867
10550236700.0 0.9774007219 0.1925298009
10600236400.0 0.9794573594 0.1788806377
10650236100.0 0.9817998898 0.1641591587
10700235800.0 0.9836454515 0.1525859606
10750235500.0 0.9860047993 0.1389160186
10800235200.0 0.9879153896 0.1243656912
10850234900.0 0.989772221 0.1097270466
10900234600.0 0.992021632 0.0949718326
10950234300.0 0.9938967739 0.0814242049
11000234000.0 0.9954336016 0.066043918
11050233700.0 0.9972642904 0.0494092107
11100233400.0 0.9987640958 0.0319011121
11150233100.0 0.9997577819 0.0151318385
11200232800.0 1.000535962 -0.0003259399
11250232500.0 1.001366793 -0.01752807
11300232200.0 1.002061758 -0.0364762458
11350231900.0 1.002076933 -0.052450803
11400231600.0 1.00164366 -0.0681291081
11450231300.0 1.001251756 -0.083747561
11500231000.0 0.9998424572 -0.0995366399
11550230700.0 0.9982909214 -0.1132277583
11600230400.0 0.9967907637 -0.1257854447
11650230100.0 0.9949040559 -0.1371057068
11700229800.0 0.9927693851 -0.1522116415
11750229500.0 0.9904327545 -0.166707171
11800229200.0 0.9877651082 -0.180043459
11850228900.0 0.9836839548 -0.1919380492
11900228600.0 0.9802087677 -0.2015093944
11950228300.0 0.9769321293 -0.2114239505
12000228000.0 0.9742193673 -0.2204597796
12050227700.0 0.9701264218 -0.2329835996
12100227400.0 0.9667528489 -0.2441982085
12150227100.0 0.9624139622 -0.2602523455
12200226800.0 0.9584027268 -0.2720664706
12250226500.0 0.9541037798 -0.2847059985
12300226200.0 0.9504939271 -0.2972603636
12350225900.0 0.945079676 -0.3109648743
12400225600.0 0.9410777509 -0.3231900289
12450225300.0 0.9366352335 -0.3358895837
12500225000.0 0.9309124458 -0.3505304023
12550224700.0 0.9253451818 -0.3646682682
12600224400.0 0.920585672 -0.3772347023
12650224100.0 0.9147200416 -0.3915118911
12700223800.0 0.909386693 -0.4045798704
12750223500.0 0.9038928504 -0.4173548939
12800223200.0 0.898916206 -0.4297927112
12850222900.0 0.8933751384 -0.442186816
12900222600.0 0.8878505264 -0.4542604705
12950222300.0 0.881417481 -0.4671873299
13000222000.0 0.876026014 -0.4783186056
13050221700.0 0.8686068512 -0.4915460991
13100221400.0 0.862204357 -0.5037539575
13150221100.0 0.8553861259 -0.5157578743
13200220800.0 0.8481545969 -0.527217021
13250220500.0 0.8408106202 -0.539425881
13300220200.0 0.8333704619 -0.5501931751
13350219900.0 0.8252951957 -0.5622453883
13400219600.0 0.817172507 -0.5740610747
13450219300.0 0.8078073812 -0.5871125806
13500219000.0 0.7976307446 -0.6003137563
13550218700.0 0.7883484959 -0.6123980329
13600218400.0 0.7775415566 -0.6251480836
13650218100.0 0.7682234155 -0.6358882966
13700217800.0 0.7576906461 -0.6472033217
13750217500.0 0.7485397152 -0.6585213518
13800217200.0 0.737249905 -0.6693472738
13850216900.0 0.7258454788 -0.6816408536
13900216600.0 0.7159404418 -0.6903402133
13950216300.0 0.705585413 -0.6999740811
14000216000.0 0.6958760842 -0.7093318705
14050215700.0 0.6865590577 -0.7177023299
14100215400.0 0.6765267715 -0.7267796381
14150215100.0 0.6675132266 -0.7350219741
14200214800.0 0.6581579587 -0.7440965689
14250214500.0 0.647976692 -0.7534751851
14300214200.0 0.6374219699 -0.7629125168
14350213900.0 0.6261578071 -0.7725280094
14400213600.0 0.6144909904 -0.7824828168
14450213300.0 0.601275894 -0.7926358586
14500213000.0 0.5883228066 -0.8023208511
14550212700.0 0.5759598147 -0.8118532166
14600212400.0 0.5632788475 -0.8204096026
14650212100.0 0.5509142037 -0.8291683079
14700211800.0 0.5368772757 -0.8385908752
14750211500.0 0.5251043012 -0.8470392507
14800211200.0 0.5123511776 -0.8552665215
14850210900.0 0.4999240539 -0.8627602909
14900210600.0 0.4868806777 -0.8709446984
14950210300.0 0.4734545382 -0.8783576052
15000210000.0 0.4608675466 -0.8851801286
15050209700.0 0.4486323116 -0.8913500917
15100209400.0 0.435683089 -0.8972774369
15150209100.0 0.4233673062 -0.9027328875
15200208800.0 0.4113339589 -0.9080510271
15250208500.0 0.3992409782 -0.9126814349
15300208200.0 0.3876428548 -0.9171401612
15350207900.0 0.3747870085 -0.9216495306
15400207600.0 0.3588664456 -0.927811496
15450207300.0 0.3453009998 -0.9329563166
15500207000.0 0.3307301271 -0.9368926709
15550206700.0 0.3154640508 -0.9423278464
15600206400.0 0.3001003375 -0.9468111184
15650206100.0 0.2842820726 -0.9506736042
15700205800.0 0.2706371367 -0.9543996356
15750205500.0 0.2566659446 -0.9578143148
15800205200.0 0.2425290537 -0.9612406483
15850204900.0 0.2281958939 -0.9647317972
15900204600.0 0.2131027278 -0.9684449763
15950204300.0 0.198610156 -0.9713417179
16000204000.0 0.18429502 -0.9745444359
16050203700.0 0.1692716295 -0.9772358461
16100203400.0 0.1544541946 -0.9794670125
16150203100.0 0.13942459 -0.9819051185
16200202800.0 0.1256575055 -0.9845731983
16250202500.0 0.1107709424 -0.9858207636
16300202200.0 0.0955108873 -0.9876388095
16350201900.0 0.0801755932 -0.9891009833
16400201600.0 0.0655932784 -0.9902897118
16450201300.0 0.0500342847 -0.9911691135
16500201000.0 0.0331407597 -0.9920178967
16550200700.0 0.0172279382 -0.9925793667
16600200400.0 0.0013104668 -0.9927429141
16650200100.0 -0.0146254692 -0.9928436269
16700199800.0 -0.0311870569 -0.9923991867
16750199500.0 -0.0501195107 -0.9918807466
16800199200.0 -0.0657303511 -0.991065667
16850198900.0 -0.0811044474 -0.989525762
16900198600.0 -0.0950821525 -0.9884763547
16950198300.0 -0.1089278178 -0.9879771697
17000198000.0 -0.1224703537 -0.9861401474
17050197700.0 -0.134309437 -0.9838586999
17100197400.0 -0.1478593962 -0.9823257182
17150197100.0 -0.1604385666 -0.9800391621
17200196800.0 -0.173522199 -0.9781122247
17250196500.0 -0.186226713 -0.9754747602
17300196200.0 -0.1982995451 -0.9731712414
17350195900.0 -0.2102156595 -0.9710538119
17400195600.0 -0.2221732221 -0.9684099602
17450195300.0 -0.2349713985 -0.9655629488
17500195000.0 -0.2484410278 -0.9623593867
17550194700.0 -0.2620070615 -0.9587583826
17600194400.0 -0.2759768159 -0.9551473984
17650194100.0 -0.2893793285 -0.9507333854
17700193800.0 -0.3027491506 -0.946482372
17750193500.0 -0.3170336606 -0.9418832004
17800193200.0 -0.3309546949 -0.9365073003
17850192900.0 -0.3458630188 -0.9308033049
17900192600.0 -0.3614541781 -0.9253757405
17950192300.0 -0.3767460548 -0.9181157316
18000192000.0 -0.3914266824 -0.9109553609
18050191700.0 -0.4052906456 -0.9033015524
18100191400.0 -0.4195393038 -0.8953867551
18150191100.0 -0.4344215742 -0.8873529801
18200190800.0 -0.4513061252 -0.878335325
18250190500.0 -0.4682850825 -0.8685326818
18300190200.0 -0.4834779779 -0.8600914968
18350189900.0 -0.499138641 -0.8514526478
18400189600.0 -0.5130834299 -0.8434722769
18450189300.0 -0.5267845052 -0.8360055133
18500189000.0 -0.5398941312 -0.8278876855
18550188700.0 -0.5529744086 -0.8195534049
18600188400.0 -0.5650750885 -0.8128617432
18650188100.0 -0.5762828284 -0.8060735208
18700187800.0 -0.5870095893 -0.7996339095
18750187500.0 -0.5979088155 -0.793103448
18800187200.0 -0.6085051624 -0.7858869826
18850186900.0 -0.6188633092 -0.7790754753
18900186600.0 -0.6289812325 -0.7717311903
18950186300.0 -0.6391381988 -0.7640252752
19000186000.0 -0.6466772688 -0.7578074366
19050185700.0 -0.6560505207 -0.7506076596
19100185400.0 -0.6656504356 -0.7422686869
19150185100.0 -0.6761130524 -0.7338658471
19200184800.0 -0.6857158136 -0.7254676296
19250184500.0 -0.6961584626 -0.7164643764
19300184200.0 -0.7069586002 -0.7072932324
19350183900.0 -0.7176035481 -0.6968783663
19400183600.0 -0.7275060665 -0.6873151231
19450183300.0 -0.7363761727 -0.6775775637
19500183000.0 -0.7447900272 -0.6672770964
19550182700.0 -0.7543778506 -0.6563124936
19600182400.0 -0.7649144148 -0.6446988635
19650182100.0 -0.7754457552 -0.6321385999
19700181800.0 -0.7859340068 -0.6189926364
19750181500.0 -0.7962164097 -0.6048780096
19800181200.0 -0.8064491881 -0.5899168715
19850180900.0 -0.8162524299 -0.5746633746
19900180600.0 -0.8238978647 -0.5602909155
19950180300.0 -0.8331282438 -0.5439022283
20000180000.0 -0.8244360193 -0.5475651783
20050179700.0 -0.8315692915 -0.53386379
20100179400.0 -0.8402283769 -0.5205650674
20150179100.0 -0.848239149 -0.5098779039
20200178800.0 -0.8574081126 -0.4974481667
20250178500.0 -0.8661269129 -0.484774124
20300178200.0 -0.8759168757 -0.4709173081
20350177900.0 -0.8849722524 -0.4568465944
20400177600.0 -0.8942980451 -0.4423469434
20450177300.0 -0.9023301714 -0.4279009728
20500177000.0 -0.9107226895 -0.4143119086
20550176700.0 -0.9185681363 -0.4006777524
20600176400.0 -0.9252058364 -0.3877254869
20650176100.0 -0.9318122402 -0.3753265121
20700175800.0 -0.9387767837 -0.3631174627
20750175500.0 -0.9451265103 -0.3522343458
20800175200.0 -0.9494106997 -0.341496663
20850174900.0 -0.9541658507 -0.3299854763
20900174600.0 -0.9586317974 -0.319557212
20950174300.0 -0.962217557 -0.3075176932
21000174000.0 -0.9656325054 -0.2970042011
21050173700.0 -0.9668715366 -0.2876159767
21100173400.0 -0.9701791776 -0.2759561044
21150173100.0 -0.9744437493 -0.2644109041
21200172800.0 -0.9779927768 -0.2509896075
21250172500.0 -0.9820695921 -0.2373609595
21300172200.0 -0.9850907937 -0.2233158611
21350171900.0 -0.987158368 -0.2086276326
21400171600.0 -0.9891394439 -0.1947710777
21450171300.0 -0.9895346754 -0.1801793154
21500171000.0 -0.9893812282 -0.1649279951
21550170700.0 -0.9907475173 -0.1501712636
21600170400.0 -0.9911807861 -0.1350163412
21650170100.0 -0.9913529912 -0.1198250863
21700169800.0 -0.9904564941 -0.1044069687
21750169500.0 -0.989831752 -0.0871458162
21800169200.0 -0.9892214605 -0.0715201349
21850168900.0 -0.989144483 -0.0546127829
21900168600.0 -0.9884907538 -0.0382234235
21950168300.0 -0.987911209 -0.0221538873
22000168000.0 -0.9878892255 -0.0075402186
22050167700.0 -0.9883030506 0.0070794443
22100167400.0 -0.9892133529 0.022462764
22150167100.0 -0.9896222927 0.0385999586
22200166800.0 -0.9901262669 0.0547511689
22250166500.0 -0.9894101956 0.0724658599
22300166200.0 -0.9895649407 0.0888233824
22350165900.0 -0.9875550823 0.1044146591
22400165600.0 -0.9866597916 0.1204890166
22450165300.0 -0.9847477401 0.1353894145
22500165000.0 -0.9830918217 0.1493783781
22550164700.0 -0.9814391202 0.1655097752
22600164400.0 -0.9793574151 0.1815900402
22650164100.0 -0.9761560396 0.1971797167
22700163800.0 -0.9742152441 0.213647735
22750163500.0 -0.9708788374 0.2274879083
22800163200.0 -0.9679106299 0.2411603882
22850162900.0 -0.9650823372 0.2545084326
22900162600.0 -0.9637224593 0.2682717667
22950162300.0 -0.9617498891 0.2817771682
23000162000.0 -0.9601865737 0.294340326
23050161700.0 -0.9578228499 0.3075917522
23100161400.0 -0.9553888493 0.3207910837
23150161100.0 -0.9525019865 0.3333666004
23200160800.0 -0.9492409217 0.3469812712
23250160500.0 -0.9463792512 0.3586317217
23300160200.0 -0.9438552448 0.3710524958
23350159900.0 -0.9395389503 0.3849355077
23400159600.0 -0.9355699796 0.3985697471
23450159300.0 -0.9298698957 0.4117027484
23500159000.0 -0.9254088666 0.4251055325
23550158700.0 -0.9203257634 0.4391836699
23600158400.0 -0.9144469068 0.4532401223
23650158100.0 -0.9075555573 0.4675977487
23700157800.0 -0.8993855495 0.4818357192
23750157500.0 -0.8901911188 0.4961270183
23800157200.0 -0.8806643284 0.5095224033
23850156900.0 -0.8713651422 0.5221547909
23900156600.0 -0.8609272612 0.5349837499
23950156300.0 -0.8517045013 0.5476351119
24000156000.0 -0.8426488577 0.5599805282
24050155700.0 -0.8318797549 0.5723497761
24100155400.0 -0.8208808826 0.584757931
24150155100.0 -0.8107486717 0.5964977138
24200154800.0 -0.7995803881 0.6078077979
24250154500.0 -0.7883495862 0.6198698745
24300154200.0 -0.7768309673 0.6319810041
24350153900.0 -0.7653264862 0.6430646976
24400153600.0 -0.7525947179 0.6534542903
24450153300.0 -0.7410266523 0.6640045511
24500153000.0 -0.7288402044 0.6740341629
24550152700.0 -0.7178081055 0.6839491844
24600152400.0 -0.7060927651 0.6932226075
24650152100.0 -0.6949937163 0.7017336873
