!Created with skrf (http://scikit-rf.org).
# Hz S RI R 50.0 
!freq ReS11 ImS11
300000.0 -0.9735833242 -0.1223374138
50299700.0 -0.9998826441 0.0151690659
100299400.0 -0.9980346553 0.0279304746
150299100.0 -1.002695071 0.0449674481
200298800.0 -0.9995219765 0.0581199191
250298500.0 -0.9972784108 0.0716828192
300298200.0 -0.9862062004 0.0873983396
350297900.0 -0.9938671619 0.0984340484
400297600.0 -0.9930379165 0.1150482427
450297300.0 -0.9910089872 0.1287193039
500297000.0 -0.989363524 0.1435129159
550296700.0 -0.9842400509 0.155853754
600296400.0 -1.017288824 0.1893127126
650296100.0 -0.9822547093 0.18577754
700295800.0 -0.9793257126 0.2000269121
750295500.0 -0.9764465435 0.2140029649
800295200.0 -0.9730682705 0.2282301738
850294900.0 -0.9694931646 0.2418433022
900294600.0 -0.9658035857 0.2555809506
950294300.0 -0.9622082902 0.2695091281
1000294000.0 -0.9581719821 0.2832952563
1050293700.0 -0.9535852302 0.2970847878
1100293400.0 -0.9493809624 0.3115447412
1150293100.0 -0.9454819513 0.3234482955
1200292800.0 -0.940040031 0.3377702907
1250292500.0 -0.934481857 0.3511161089
1300292200.0 -0.9291431342 0.36445399
1350291900.0 -0.9235683806 0.3787034521
1400291600.0 -0.9179467588 0.3917148614
1450291300.0 -0.912557589 0.404058159
1500291000.0 -0.906352462 0.4173449845
1550290700.0 -0.8995588471 0.430882649
1600290400.0 -0.8934705713 0.4436376154
1650290100.0 -0.8868268752 0.4556424225
1700289800.0 -0.8800637766 0.4692685833
1750289500.0 -0.8727428411 0.4816153947
1800289200.0 -0.8655305401 0.4946823095
1850288900.0 -0.8588285286 0.5059860972
1900288600.0 -0.8508111622 0.5186939005
1950288300.0 -0.8429050986 0.5315027239
2000288000.0 -0.8354442184 0.5429105545
2050287700.0 -0.8270861672 0.5552650771
2100287400.0 -0.8193309204 0.5666597263
2150287100.0 -0.8108354484 0.5787301277
2200286800.0 -0.8029720532 0.5893071491
2250286500.0 -0.7939791722 0.6014276287
2300286200.0 -0.785220913 0.612994294
2350285900.0 -0.7769812691 0.6236035376
2400285600.0 -0.7680318838 0.6344842973
2450285300.0 -0.7590400427 0.6452142708
2500285000.0 -0.7490879237 0.656634298
2550284700.0 -0.7400094089 0.6669626094
2600284400.0 -0.7311128181 0.6771113258
2650284100.0 -0.7224729404 0.6872625942
2700283800.0 -0.7117137547 0.6977355836
2750283500.0 -0.7014194016 0.7083348254
2800283200.0 -0.691514727 0.7182810763
2850282900.0 -0.6808790416 0.7282049089
2900282600.0 -0.6706524041 0.7379943743
2950282300.0 -0.6602246588 0.7473080597
3000282000.0 -0.6494748485 0.7566840211
3050281700.0 -0.638331206 0.765904541
3100281400.0 -0.6267511167 0.7750747009
3150281100.0 -0.6154157985 0.7839672929
3200280800.0 -0.6038488399 0.7925181913
3250280500.0 -0.5929567039 0.8004546677
3300280200.0 -0.5815704535 0.8087030368
3350279900.0 -0.5691803785 0.8164469147
3400279600.0 -0.5567326711 0.8246366597
3450279300.0 -0.5456270801 0.8315287731
3500279000.0 -0.5339375314 0.8384017298
3550278700.0 -0.5216179706 0.8457282086
3600278400.0 -0.5099379026 0.8524348166
3650278100.0 -0.4965551267 0.8599185012
3700277800.0 -0.4846074425 0.8664858134
3750277500.0 -0.4720666429 0.8732600305
3800277200.0 -0.4598033955 0.8798097666
3850276900.0 -0.4476769907 0.885856844
3900276600.0 -0.4367073404 0.8913130911
3950276300.0 -0.4247521751 0.8973956488
4000276000.0 -0.4128780419 0.903059708
4050275700.0 -0.4001421941 0.9091644007
4100275400.0 -0.3891753501 0.9146173653
4150275100.0 -0.3761461624 0.9206066658
4200274800.0 -0.3626190459 0.9260857884
4250274500.0 -0.3500273238 0.9312251581
4300274200.0 -0.3368135876 0.9366983641
4350273900.0 -0.3227518322 0.9418033977
4400273600.0 -0.3079320709 0.9473136337
4450273300.0 -0.2928434232 0.9520785841
4500273000.0 -0.279612195 0.9565130631
4550272700.0 -0.265921001 0.9605592852
4600272400.0 -0.2509080677 0.9648208495
4650272100.0 -0.2394010264 0.9680059798
4700271800.0 -0.2265258899 0.971302539
4750271500.0 -0.2148987843 0.974128203
4800271200.0 -0.2025975349 0.9766583145
4850270900.0 -0.1888788577 0.9796464175
4900270600.0 -0.1749864893 0.9820717973
4950270300.0 -0.1604251879 0.9846681045
5000270000.0 -0.145843935 0.9868123351
5050269700.0 -0.1325141767 0.98865526
5100269400.0 -0.1184072366 0.9903566452
5150269100.0 -0.1045959221 0.9914536874
5200268800.0 -0.0910953038 0.9925808494
5250268500.0 -0.07796151 0.9937607577
5300268200.0 -0.0644320248 0.9945221332
5350267900.0 -0.0515115715 0.9954182033
5400267600.0 -0.0356095681 0.9963184378
5450267300.0 -0.0222458567 0.9965985911
5500267000.0 -0.0069980109 0.9970026223
5550266700.0 0.0078744319 0.9971144285
5600266400.0 0.024004068 0.9973439785
5650266100.0 0.0404735173 0.9970321111
5700265800.0 0.0545856213 0.9960148646
5750265500.0 0.0697646711 0.995055393
5800265200.0 0.083287713 0.9940475068
5850264900.0 0.0960743658 0.9930270077
5900264600.0 0.1126013365 0.9913740744
5950264300.0 0.1246071217 0.9893758895
6000264000.0 0.1381408053 0.9877533459
6050263700.0 0.1502170401 0.9867380189
6100263400.0 0.162160356 0.9848634341
6150263100.0 0.1768878438 0.9825169044
6200262800.0 0.1864252359 0.980999425
6250262500.0 0.1990521191 0.9786080017
6300262200.0 0.2113589303 0.9760231361
6350261900.0 0.2241035013 0.97317456
6400261600.0 0.2379758374 0.9699586516
6450261300.0 0.2491968022 0.9676254954
6500261000.0 0.2626896385 0.9640026459
6550260700.0 0.275774735 0.9600454675
6600260400.0 0.2891814612 0.9556986963
6650260100.0 0.3030793389 0.9516009017
6700259800.0 0.3149582484 0.9469397581
6750259500.0 0.3288594258 0.9423065892
6800259200.0 0.3425206946 0.9371662168
6850258900.0 0.3548099368 0.9316894374
6900258600.0 0.3674764722 0.9266430404
6950258300.0 0.3799116199 0.921651875
7000258000.0 0.3916615892 0.9162457636
7050257700.0 0.4036112387 0.9102525892
7100257400.0 0.4168169477 0.9039412999
7150257100.0 0.4276122418 0.8984633174
7200256800.0 0.4404542736 0.892066881
7250256500.0 0.4529915089 0.8855937206
7300256200.0 0.466103624 0.8787518614
7350255900.0 0.4790325546 0.8715972522
7400255600.0 0.4928773849 0.8641000763
7450255300.0 0.5083512274 0.8550302938
7500255000.0 0.5205600236 0.8473615007
7550254700.0 0.5347961215 0.8384797816
7600254400.0 0.5476309245 0.8300534797
7650254100.0 0.5586741608 0.8221804027
7700253800.0 0.5707630969 0.8142187516
7750253500.0 0.5813552077 0.8065154538
7800253200.0 0.5920360615 0.7988210971
7850252900.0 0.6021113685 0.7915922319
7900252600.0 0.6135139437 0.7830379377
7950252300.0 0.6221182923 0.7764486652
8000252000.0 0.6320016883 0.7688705777
8050251700.0 0.6421347044 0.7606902978
8100251400.0 0.6520246425 0.7528181146
8150251100.0 0.6623780256 0.7442647855
8200250800.0 0.6717835863 0.7360474707
8250250500.0 0.6807036312 0.7282337537
8300250200.0 0.6897045478 0.7197871017
8350249900.0 0.6988329947 0.7111513714
8400249600.0 0.7071038395 0.7029577947
8450249300.0 0.7158587825 0.6942720793
8500249000.0 0.7244778586 0.6853282972
8550248700.0 0.7326376443 0.6763046052
8600248400.0 0.7411589164 0.6668785096
8650248100.0 0.7487837876 0.6573647421
8700247800.0 0.757960855 0.6463261582
8750247500.0 0.7662784352 0.6363144263
8800247200.0 0.7744059793 0.6259158171
8850246900.0 0.7831241717 0.6147073786
8900246600.0 0.7915762357 0.6030598875
8950246300.0 0.8009164228 0.5905276093
9000246000.0 0.8097886208 0.5780598316
9050245700.0 0.8180492546 0.5660174392
9100245400.0 0.8265108602 0.5537730812
9150245100.0 0.8352579284 0.5408867297
9200244800.0 0.8446019658 0.5262928932
9250244500.0 0.8538034936 0.5115054523
9300244200.0 0.8619049431 0.4979070258
9350243900.0 0.8697565603 0.4843278514
9400243600.0 0.8762951494 0.4724709685
9450243300.0 0.8817530041 0.4620678321
9500243000.0 0.8880516929 0.4502828011
9550242700.0 0.8921582061 0.4426978178
9600242400.0 0.8965963872 0.4349727993
9650242100.0 0.9004326289 0.4284283757
9700241800.0 0.9055843254 0.4196780679
9750241500.0 0.9093914754 0.4122429592
9800241200.0 0.914459355 0.402756808
9850240900.0 0.9203407928 0.3907015131
9900240600.0 0.926236367 0.3792073566
9950240300.0 0.9334399684 0.3621206877
10000240000.0 0.9383466035 0.3507522687
10050239700.0 0.9440334197 0.3344318495
10100239400.0 0.94955667 0.3180605153
10150239100.0 0.954031849 0.3026736667
10200238800.0 0.958290705 0.2875291925
10250238500.0 0.9617132752 0.2739057376
10300238200.0 0.9648359777 0.2598779103
10350237900.0 0.9675701369 0.2467234005
10400237600.0 0.9700302226 0.2332562767
10450237300.0 0.9727901609 0.2194355084
10500237000.0 0.9749105906 0.2071763695
10550236700.0 0.9775067573 0.192932095
10600236400.0 0.9791613409 0.1791167124
10650236100.0 0.9813165981 0.1641264556
10700235800.0 0.9838724008 0.1520393805
10750235500.0 0.9860935073 0.1386857
10800235200.0 0.9882367754 0.1240316838
10850234900.0 0.989954656 0.1094198678
10900234600.0 0.9919567614 0.0948031951
10950234300.0 0.9938624946 0.0811287459
11000234000.0 0.9955306451 0.0655034062
11050233700.0 0.997221259 0.0489595076
11100233400.0 0.9990826638 0.0311387233
11150233100.0 0.999819425 0.0142602354
11200232800.0 1.000497741 -0.0008921072
11250232500.0 1.001712266 -0.0190331298
11300232200.0 1.001988005 -0.037187532
11350231900.0 1.00225181 -0.0541755008
11400231600.0 1.002198936 -0.0699648983
11450231300.0 1.001085384 -0.0842865954
11500231000.0 0.9997833786 -0.100825914
11550230700.0 0.9979018695 -0.1143888594
11600230400.0 0.996842913 -0.1273212697
11650230100.0 0.9946708127 -0.1388487502
11700229800.0 0.9923870229 -0.1538220375
11750229500.0 0.9900257424 -0.1677240777
11800229200.0 0.9876242705 -0.181244162
11850228900.0 0.9835406076 -0.1932792979
11900228600.0 0.9800918794 -0.2028895996
11950228300.0 0.9766589293 -0.2128743808
12000228000.0 0.9736885547 -0.2218903643
12050227700.0 0.9700655829 -0.2343725108
12100227400.0 0.9666867022 -0.2454680985
12150227100.0 0.9616199073 -0.2624225134
12200226800.0 0.9581132066 -0.2729202126
12250226500.0 0.9537549422 -0.2855278895
12300226200.0 0.9494310838 -0.2973789978
12350225900.0 0.9449177748 -0.3113811267
12400225600.0 0.9408801352 -0.3242663877
12450225300.0 0.9363689501 -0.3370108244
12500225000.0 0.9304083406 -0.3520678083
12550224700.0 0.9250167652 -0.3651307068
12600224400.0 0.9199996546 -0.3778231873
12650224100.0 0.9144363034 -0.3923398669
12700223800.0 0.9090186088 -0.4050890014
12750223500.0 0.9035084385 -0.4182798871
12800223200.0 0.8985585994 -0.4304291259
12850222900.0 0.8926725615 -0.4430368672
12900222600.0 0.8872391126 -0.4549356826
12950222300.0 0.8809877631 -0.4677770145
13000222000.0 0.8754353003 -0.4791464454
13050221700.0 0.8682979655 -0.4925933508
13100221400.0 0.8615544749 -0.5045846463
13150221100.0 0.8545992497 -0.5166155419
13200220800.0 0.8477493178 -0.5282856867
13250220500.0 0.8403722299 -0.5403534291
13300220200.0 0.8331212123 -0.5508510151
13350219900.0 0.8249587113 -0.5629371671
13400219600.0 0.8165275067 -0.5749036423
13450219300.0 0.8071670581 -0.5879062398
13500219000.0 0.7971037557 -0.6012425742
13550218700.0 0.7875492394 -0.6137094818
13600218400.0 0.7775110993 -0.625394872
13650218100.0 0.7679289305 -0.6364094981
13700217800.0 0.757460948 -0.648179487
13750217500.0 0.7481842394 -0.6588350376
13800217200.0 0.7361200702 -0.6706176102
13850216900.0 0.7258049701 -0.6814883661
13900216600.0 0.7158632085 -0.6904515864
13950216300.0 0.7047414966 -0.7006287511
14000216000.0 0.6955636156 -0.7094145671
14050215700.0 0.6858665017 -0.7180540438
14100215400.0 0.676565511 -0.7268872682
14150215100.0 0.6673135389 -0.7354319164
14200214800.0 0.6578477649 -0.7444375096
14250214500.0 0.6474058141 -0.7537961199
14300214200.0 0.636860867 -0.7632531531
14350213900.0 0.6259972541 -0.7728874414
14400213600.0 0.6140911717 -0.7827027258
14450213300.0 0.6008485123 -0.7926876092
14500213000.0 0.5883311683 -0.802878174
14550212700.0 0.5755268067 -0.8119351117
14600212400.0 0.563025355 -0.8208583034
14650212100.0 0.5504148031 -0.8297078823
14700211800.0 0.5369300265 -0.839143468
14750211500.0 0.5247165925 -0.8473012533
14800211200.0 0.512134678 -0.8555310103
14850210900.0 0.4998557001 -0.863159928
14900210600.0 0.4863856485 -0.8709975739
14950210300.0 0.4729422242 -0.8787457539
15000210000.0 0.4603056569 -0.8855660747
15050209700.0 0.4484727546 -0.8913006399
15100209400.0 0.4353437032 -0.8978625338
15150209100.0 0.4228521139 -0.9030252057
15200208800.0 0.4103615873 -0.9081017813
15250208500.0 0.3986569946 -0.9128862684
15300208200.0 0.386581317 -0.9170463689
15350207900.0 0.3728055166 -0.9220643707
15400207600.0 0.3576380443 -0.927324642
15450207300.0 0.344084241 -0.9326445986
15500207000.0 0.3299858621 -0.9372232312
15550206700.0 0.3150310885 -0.941952312
15600206400.0 0.2992511821 -0.9466415704
15650206100.0 0.2834807805 -0.9509956588
15700205800.0 0.2702567024 -0.9544796368
15750205500.0 0.2556208559 -0.9580276738
15800205200.0 0.2416426099 -0.961392252
15850204900.0 0.2274699531 -0.9648258459
15900204600.0 0.2125486897 -0.9686388749
15950204300.0 0.198323485 -0.971334504
16000204000.0 0.1840523236 -0.9745394164
16050203700.0 0.1694110553 -0.9777186191
16100203400.0 0.1541843703 -0.9798611779
16150203100.0 0.1390265313 -0.9822686113
16200202800.0 0.1251920846 -0.9842906343
16250202500.0 0.11022571 -0.9854361474
16300202200.0 0.0943405171 -0.9874849539
16350201900.0 0.0794684269 -0.9887055535
16400201600.0 0.0648921597 -0.9902641269
16450201300.0 0.0494057278 -0.9914296562
16500201000.0 0.0324397966 -0.9921712959
16550200700.0 0.0165080365 -0.992517883
16600200400.0 0.0002904797 -0.9926179534
16650200100.0 -0.0156010575 -0.9926645836
16700199800.0 -0.0322314097 -0.9922289132
16750199500.0 -0.0507299771 -0.9913481935
16800199200.0 -0.0669703268 -0.990767714
16850198900.0 -0.08285577 -0.9886363013
16900198600.0 -0.0965945435 -0.9888914012
16950198300.0 -0.109687768 -0.9874199394
17000198000.0 -0.1232365006 -0.986419933
17050197700.0 -0.1363597559 -0.9843748062
17100197400.0 -0.1488571354 -0.9820747118
17150197100.0 -0.1614854584 -0.9801341596
17200196800.0 -0.1743010133 -0.9780338985
17250196500.0 -0.1869323932 -0.9755119167
17300196200.0 -0.1991693935 -0.9731553606
17350195900.0 -0.2111517102 -0.9709366498
17400195600.0 -0.2232291354 -0.9682522023
17450195300.0 -0.236044011 -0.9654295278
17500195000.0 -0.2493876793 -0.9619761823
17550194700.0 -0.2630521662 -0.9585397396
17600194400.0 -0.2770424648 -0.9550950919
17650194100.0 -0.2906886574 -0.9503964332
17700193800.0 -0.3036022562 -0.9466479035
17750193500.0 -0.3173901017 -0.9416160236
17800193200.0 -0.3318402994 -0.9368018291
17850192900.0 -0.3467641038 -0.9311095113
17900192600.0 -0.3618487251 -0.9249191678
17950192300.0 -0.3774674611 -0.9177420959
18000192000.0 -0.3920191342 -0.9104960103
18050191700.0 -0.4058414474 -0.9026169425
18100191400.0 -0.4201886619 -0.8951660007
18150191100.0 -0.4349600646 -0.8870217746
18200190800.0 -0.4517630959 -0.8778887968
18250190500.0 -0.4687969933 -0.8682812334
18300190200.0 -0.4846139588 -0.8595970329
18350189900.0 -0.4993215002 -0.851170668
18400189600.0 -0.5141079844 -0.842485057
18450189300.0 -0.5275673248 -0.8351405898
18500189000.0 -0.5409953464 -0.8270670707
18550188700.0 -0.5541164549 -0.8192544993
18600188400.0 -0.5659888639 -0.8123300068
18650188100.0 -0.5769279432 -0.8055491914
18700187800.0 -0.587758579 -0.7991029712
18750187500.0 -0.5988080826 -0.7923935069
18800187200.0 -0.6092645118 -0.7853374624
18850186900.0 -0.6195929702 -0.7783948826
18900186600.0 -0.6298336885 -0.7712124636
18950186300.0 -0.6400535456 -0.7635908523
19000186000.0 -0.6474822027 -0.7572781745
19050185700.0 -0.6571123941 -0.7498207821
19100185400.0 -0.666669286 -0.7419087382
19150185100.0 -0.6768534725 -0.7330478525
19200184800.0 -0.6864147496 -0.7254359012
19250184500.0 -0.6965676274 -0.7159597612
19300184200.0 -0.7080279565 -0.7070021415
19350183900.0 -0.7191167296 -0.6966723535
19400183600.0 -0.728610934 -0.6868547765
19450183300.0 -0.7365177048 -0.6770228592
19500183000.0 -0.7459243484 -0.6668452857
19550182700.0 -0.7549214899 -0.6559013707
19600182400.0 -0.7653381473 -0.644577095
19650182100.0 -0.77615514 -0.6317222541
19700181800.0 -0.7865982204 -0.6189369999
19750181500.0 -0.7969442706 -0.6045132372
19800181200.0 -0.8072557472 -0.5895179261
19850180900.0 -0.8165409134 -0.5743324102
19900180600.0 -0.8242312114 -0.5597785361
19950180300.0 -0.8336433249 -0.5431194951
20000180000.0 -0.8239377077 -0.5468505257
20050179700.0 -0.831982826 -0.5336548421
20100179400.0 -0.8412514959 -0.5212864509
20150179100.0 -0.8479203125 -0.5087328291
20200178800.0 -0.8564355303 -0.4971828439
20250178500.0 -0.8664767815 -0.4849740072
20300178200.0 -0.8756578092 -0.4709733991
20350177900.0 -0.885065843 -0.456856893
20400177600.0 -0.8937957467 -0.4426621804
20450177300.0 -0.9023777668 -0.4283316863
20500177000.0 -0.9105593864 -0.4142978013
20550176700.0 -0.9183844674 -0.4011334264
20600176400.0 -0.9252661846 -0.3881047256
20650176100.0 -0.9317566369 -0.3754249017
20700175800.0 -0.9384776546 -0.3637186633
20750175500.0 -0.944881905 -0.3527582265
20800175200.0 -0.9488713599 -0.3417766016
20850174900.0 -0.9540772041 -0.3301565243
20900174600.0 -0.9584907521 -0.3197446648
20950174300.0 -0.9618591666 -0.3092263173
21000174000.0 -0.9648940502 -0.2982241928
21050173700.0 -0.9662677512 -0.2882217942
21100173400.0 -0.9702772047 -0.2774132716
21150173100.0 -0.973944174 -0.2650964411
21200172800.0 -0.9775860214 -0.2517537869
21250172500.0 -0.9815172062 -0.2385932766
21300172200.0 -0.9847360672 -0.224119172
21350171900.0 -0.9864677598 -0.2099178872
21400171600.0 -0.9880446992 -0.1954531171
21450171300.0 -0.9897645422 -0.1815707142
21500171000.0 -0.9898917786 -0.1666343582
21550170700.0 -0.9903047909 -0.1512246731
21600170400.0 -0.9918520018 -0.1369319682
21650170100.0 -0.9902059187 -0.1202831776
21700169800.0 -0.9898259532 -0.104295764
21750169500.0 -0.9899246374 -0.0880185272
21800169200.0 -0.990267213 -0.0721816326
21850168900.0 -0.9895927038 -0.0551452428
21900168600.0 -0.9893139888 -0.0381939164
21950168300.0 -0.9881102084 -0.0236429624
22000168000.0 -0.9882290346 -0.0082183899
22050167700.0 -0.9886901921 0.0059805893
22100167400.0 -0.9892324931 0.0218376268
22150167100.0 -0.990380038 0.0377155479
22200166800.0 -0.9904700182 0.0542820843
22250166500.0 -0.9905110123 0.0718536241
22300166200.0 -0.9893533328 0.0879538874
22350165900.0 -0.987696256 0.1042481662
22400165600.0 -0.9856494395 0.1199102757
22450165300.0 -0.9836843796 0.1353789682
22500165000.0 -0.9842068319 0.1498709713
22550164700.0 -0.9815758256 0.1651132908
22600164400.0 -0.9800618365 0.1811943617
22650164100.0 -0.9774692164 0.1966103505
22700163800.0 -0.9738298556 0.2126002185
22750163500.0 -0.9714407537 0.2275225582
22800163200.0 -0.9683722459 0.2407975578
22850162900.0 -0.965701211 0.2542115855
22900162600.0 -0.9641864129 0.2682405765
22950162300.0 -0.9621222104 0.2816247336
23000162000.0 -0.960605952 0.2941335481
23050161700.0 -0.9578842767 0.3073116469
23100161400.0 -0.9555034717 0.3206610004
23150161100.0 -0.9527633138 0.3341141818
23200160800.0 -0.9491792182 0.3464427204
23250160500.0 -0.9462173109 0.3591353031
23300160200.0 -0.943493589 0.3717377622
23350159900.0 -0.9396796395 0.3849569371
23400159600.0 -0.9350638872 0.3987624078
23450159300.0 -0.9295865163 0.4127237372
23500159000.0 -0.9251101226 0.4260517697
23550158700.0 -0.9203348677 0.4398749284
23600158400.0 -0.9140686171 0.4539084558
23650158100.0 -0.9070206677 0.4684009776
23700157800.0 -0.8990749914 0.4825111755
23750157500.0 -0.8895499225 0.4972049425
23800157200.0 -0.8800507512 0.5102066312
23850156900.0 -0.8703409559 0.5226957117
23900156600.0 -0.8605459354 0.5355073326
23950156300.0 -0.8512539622 0.5476687831
24000156000.0 -0.8411946072 0.5607271342
24050155700.0 -0.830997811 0.5728856032
24100155400.0 -0.8209666616 0.5848299902
24150155100.0 -0.8102938959 0.596481429
24200154800.0 -0.7985985086 0.6089670714
24250154500.0 -0.7870866435 0.6213126264
24300154200.0 -0.7759664803 0.632714234
24350153900.0 -0.7638153017 0.6439563724
24400153600.0 -0.7511881155 0.6547002258
24450153300.0 -0.7391936048 0.664939605
24500153000.0 -0.727359872 0.6750165232
24550152700.0 -0.7164645548 0.685247017
24600152400.0 -0.7048341518 0.6945287347
24650152100.0 -0.6926759691 0.7027982211
