!Created with skrf (http://scikit-rf.org).
# Hz S RI R 50.0 
!freq ReS11 ImS11
300000.0 -0.974418998 -0.1181187855
50299700.0 -1.000044575 0.015439418
100299400.0 -0.9980974434 0.028473461
150299100.0 -1.00278733 0.0454431613
200298800.0 -0.9996896937 0.058692088
250298500.0 -0.9973642474 0.0719985367
300298200.0 -0.9859067646 0.0878986134
350297900.0 -0.993938759 0.0988387462
400297600.0 -0.9932469277 0.1155953578
450297300.0 -0.9910158011 0.1294176555
500297000.0 -0.9895933761 0.1439109861
550296700.0 -0.9843276159 0.1564180384
600296400.0 -1.017386013 0.1897195732
650296100.0 -0.9822744051 0.1864274329
700295800.0 -0.9795266376 0.2006555864
750295500.0 -0.9763033512 0.2146484767
800295200.0 -0.9729247963 0.2287778968
850294900.0 -0.9695588633 0.2426553816
900294600.0 -0.9660203277 0.256174118
950294300.0 -0.9622257261 0.270064121
1000294000.0 -0.9580951654 0.2840478061
1050293700.0 -0.9537333962 0.2976775605
1100293400.0 -0.9493264709 0.3121563448
1150293100.0 -0.945364987 0.32415687
1200292800.0 -0.940273217 0.3383853527
1250292500.0 -0.9346315601 0.3517759111
1300292200.0 -0.9288883255 0.3650631987
1350291900.0 -0.923443733 0.3791525019
1400291600.0 -0.9176302239 0.3921135621
1450291300.0 -0.912377174 0.4044652332
1500291000.0 -0.9061847338 0.4181139219
1550290700.0 -0.8994481497 0.4312089261
1600290400.0 -0.8933117917 0.4441083374
1650290100.0 -0.8866828252 0.4564161987
1700289800.0 -0.8798713357 0.469633423
1750289500.0 -0.8728812378 0.4821677039
1800289200.0 -0.8653529144 0.4949067037
1850288900.0 -0.8587583539 0.5063070139
1900288600.0 -0.8509060562 0.5192708172
1950288300.0 -0.8428403882 0.5319673941
2000288000.0 -0.8353478125 0.5431846414
2050287700.0 -0.8271034079 0.555470378
2100287400.0 -0.8190673859 0.5672063256
2150287100.0 -0.81048618 0.5793301268
2200286800.0 -0.8029224821 0.5896700167
2250286500.0 -0.7940376385 0.6014643963
2300286200.0 -0.7850486817 0.6134730416
2350285900.0 -0.7763332476 0.6243042349
2400285600.0 -0.7672544213 0.635338141
2450285300.0 -0.7588797075 0.645541905
2500285000.0 -0.7491719311 0.657124863
2550284700.0 -0.7402869331 0.667278355
2600284400.0 -0.7306244065 0.6773212738
2650284100.0 -0.7216830917 0.6881414339
2700283800.0 -0.7109999973 0.6984941051
2750283500.0 -0.7007053061 0.7090386979
2800283200.0 -0.6912222469 0.7189011231
2850282900.0 -0.6807787188 0.7285825385
2900282600.0 -0.6706148481 0.7383737357
2950282300.0 -0.6602924377 0.7473173126
3000282000.0 -0.6495469152 0.7570002523
3050281700.0 -0.6383375575 0.7661797241
3100281400.0 -0.6265651973 0.7756644652
3150281100.0 -0.614709134 0.7849608696
3200280800.0 -0.6030299339 0.7935509977
3250280500.0 -0.5921691226 0.8010352944
3300280200.0 -0.5811199944 0.8089345004
3350279900.0 -0.5694554848 0.8165426846
3400279600.0 -0.5573797421 0.8242108168
3450279300.0 -0.5461427551 0.8313138392
3500279000.0 -0.5341685343 0.8385681209
3550278700.0 -0.5217506812 0.8457370479
3600278400.0 -0.5096105727 0.8529250144
3650278100.0 -0.4962548546 0.860589446
3700277800.0 -0.4842909833 0.8670908389
3750277500.0 -0.4720359364 0.8734172353
3800277200.0 -0.4594184258 0.879854031
3850276900.0 -0.4473904611 0.8861188616
3900276600.0 -0.4365163796 0.8915323901
3950276300.0 -0.4240902868 0.8977495785
4000276000.0 -0.4120236684 0.9034696994
4050275700.0 -0.3994153988 0.9098008874
4100275400.0 -0.387981024 0.9151190685
4150275100.0 -0.3755093211 0.920666697
4200274800.0 -0.3624976008 0.9263555261
4250274500.0 -0.3502215467 0.9315117367
4300274200.0 -0.3370496593 0.9366247545
4350273900.0 -0.3234050662 0.9420022234
4400273600.0 -0.3084584994 0.9473713146
4450273300.0 -0.2931113449 0.9523762953
4500273000.0 -0.279598257 0.9567278594
4550272700.0 -0.2652423619 0.9609620777
4600272400.0 -0.2500036764 0.9651438848
4650272100.0 -0.2381757818 0.9683269002
4700271800.0 -0.2248616677 0.971729492
4750271500.0 -0.2130916689 0.9745998059
4800271200.0 -0.200727129 0.977318728
4850270900.0 -0.1867543693 0.9799854182
4900270600.0 -0.1728940697 0.9825990219
4950270300.0 -0.1585393948 0.9848244161
5000270000.0 -0.1443174915 0.9872928536
5050269700.0 -0.131002119 0.9887147877
5100269400.0 -0.1171882286 0.9905167197
5150269100.0 -0.1039013787 0.9920335137
5200268800.0 -0.0905718377 0.9931985207
5250268500.0 -0.0774405962 0.994303262
5300268200.0 -0.0645455299 0.9948282872
5350267900.0 -0.0522349002 0.9952074891
5400267600.0 -0.0360542746 0.9961263151
5450267300.0 -0.0229672273 0.9966836775
5500267000.0 -0.007769804 0.9971388808
5550266700.0 0.0072559624 0.9974228925
5600266400.0 0.0226803123 0.9970497298
5650266100.0 0.0391743017 0.9967957332
5700265800.0 0.0538726984 0.9962856371
5750265500.0 0.0690711287 0.9955525634
5800265200.0 0.0830833273 0.9941331476
5850264900.0 0.0961961017 0.9934479644
5900264600.0 0.112754347 0.9918265275
5950264300.0 0.1247474679 0.9899262759
6000264000.0 0.1387820254 0.9882665156
6050263700.0 0.1513473818 0.9868081116
6100263400.0 0.1635722915 0.9848806251
6150263100.0 0.1782638928 0.9826865777
6200262800.0 0.1886325464 0.9808362345
6250262500.0 0.2011598916 0.9782644638
6300262200.0 0.2140779203 0.9756245864
6350261900.0 0.2271698806 0.9727283906
6400261600.0 0.2410001468 0.9693247071
6450261300.0 0.2524239647 0.9665988511
6500261000.0 0.2651270975 0.9630688795
6550260700.0 0.2780879232 0.9591245731
6600260400.0 0.291859941 0.955452882
6650260100.0 0.3055099711 0.95095912
6700259800.0 0.317131702 0.946332743
6750259500.0 0.3313782391 0.9415774903
6800259200.0 0.3444705882 0.9365776909
6850258900.0 0.3561205802 0.9312443975
6900258600.0 0.3684066344 0.9263839799
6950258300.0 0.3810687327 0.9212497219
7000258000.0 0.393070923 0.9157363923
7050257700.0 0.4053506001 0.9095132609
7100257400.0 0.4179574401 0.9032571438
7150257100.0 0.4282873854 0.8981521862
7200256800.0 0.4410908063 0.8917494511
7250256500.0 0.4531157987 0.8854743609
7300256200.0 0.4661149449 0.8788728632
7350255900.0 0.4782656472 0.8713153703
7400255600.0 0.491478128 0.8646516433
7450255300.0 0.5069580307 0.8555506196
7500255000.0 0.5188268119 0.8483051354
7550254700.0 0.5325870902 0.8398102263
7600254400.0 0.5456388652 0.8314445649
7650254100.0 0.5570697418 0.8238023868
7700253800.0 0.5689418781 0.8157404726
7750253500.0 0.5798052408 0.8079780031
7800253200.0 0.5907394923 0.8002583441
7850252900.0 0.6003728417 0.7932794054
7900252600.0 0.6119574244 0.7845021372
7950252300.0 0.6209591999 0.7779957958
8000252000.0 0.63100929 0.7702174534
8050251700.0 0.6414699098 0.762084606
8100251400.0 0.6514715193 0.753921391
8150251100.0 0.6615159721 0.7453291809
8200250800.0 0.6708718888 0.7373495981
8250250500.0 0.6797649091 0.7292951127
8300250200.0 0.6893698138 0.7208147237
8350249900.0 0.698147967 0.7120240004
8400249600.0 0.7064087923 0.7039133887
8450249300.0 0.7156851317 0.6949181251
8500249000.0 0.7244664659 0.6860249697
8550248700.0 0.7327224649 0.6768472792
8600248400.0 0.7410484382 0.6674253307
8650248100.0 0.7486934256 0.6581629269
8700247800.0 0.757994637 0.6466624522
8750247500.0 0.766600459 0.6366142077
8800247200.0 0.7745831456 0.6262553436
8850246900.0 0.7833578926 0.6147736984
8900246600.0 0.7917457066 0.60349414
8950246300.0 0.8016858467 0.5904197998
9000246000.0 0.8108880895 0.5775588456
9050245700.0 0.8198988124 0.5646976215
9100245400.0 0.8282927976 0.5522910634
9150245100.0 0.8377071175 0.5386534778
9200244800.0 0.8477858897 0.5234829116
9250244500.0 0.8573381909 0.508028515
9300244200.0 0.8655693197 0.4931183273
9350243900.0 0.8733620973 0.4793155931
9400243600.0 0.8799892605 0.466932686
9450243300.0 0.8858201118 0.4554536278
9500243000.0 0.8918972137 0.4433471828
9550242700.0 0.8958296819 0.4358063977
9600242400.0 0.8997141162 0.4283067812
9650242100.0 0.9032791506 0.4220474435
9700241800.0 0.9079593112 0.4134797578
9750241500.0 0.9119959617 0.4061304621
9800241200.0 0.9167184806 0.3971144252
9850240900.0 0.9220255619 0.385206366
9900240600.0 0.9277327688 0.3740220643
9950240300.0 0.9343217285 0.3576959509
10000240000.0 0.9390933489 0.3460758426
10050239700.0 0.944687251 0.3306951743
10100239400.0 0.9498505521 0.3151832297
10150239100.0 0.9541731834 0.3003669585
10200238800.0 0.9580665748 0.2855358857
10250238500.0 0.9616533023 0.2720537193
10300238200.0 0.9647480352 0.2581670511
10350237900.0 0.9673082318 0.2450382743
10400237600.0 0.9698362477 0.2318648074
10450237300.0 0.97275399 0.2180817327
10500237000.0 0.9748140666 0.2058804119
10550236700.0 0.9767316837 0.1922418758
10600236400.0 0.9790867766 0.1781762473
10650236100.0 0.9811472773 0.163671956
10700235800.0 0.9832319994 0.1517459384
10750235500.0 0.9856487829 0.1379363599
10800235200.0 0.9875342527 0.1242385356
10850234900.0 0.9895950447 0.1094265663
10900234600.0 0.9918041887 0.0949016532
10950234300.0 0.9934448517 0.0816492754
11000234000.0 0.9952730132 0.0665234372
11050233700.0 0.9969255538 0.0503482899
11100233400.0 0.9984372493 0.0328716448
11150233100.0 0.9994898936 0.0163381075
11200232800.0 1.000224003 0.0017359386
11250232500.0 1.001403429 -0.0150713693
11300232200.0 1.001732433 -0.033518529
11350231900.0 1.001678385 -0.0481613645
11400231600.0 1.001636997 -0.0636766747
11450231300.0 1.000923884 -0.0796686165
11500231000.0 0.9994763564 -0.0961492924
11550230700.0 0.9987246764 -0.1090944818
11600230400.0 0.9967848621 -0.1220109008
11650230100.0 0.9952814451 -0.1335441027
11700229800.0 0.9931802744 -0.1478502942
11750229500.0 0.9909486724 -0.1621290117
11800229200.0 0.9880352937 -0.1764165871
11850228900.0 0.9843497687 -0.1885682049
11900228600.0 0.9809402302 -0.198448466
11950228300.0 0.9780351731 -0.2086812331
12000228000.0 0.9750703005 -0.2178223471
12050227700.0 0.9713767334 -0.2302875851
12100227400.0 0.967711849 -0.2414693897
12150227100.0 0.9631825439 -0.2587282289
12200226800.0 0.9594148119 -0.2695976142
12250226500.0 0.9554386507 -0.2822500218
12300226200.0 0.9515581934 -0.2932061266
12350225900.0 0.9466437549 -0.3080644123
12400225600.0 0.9420616547 -0.3206603064
12450225300.0 0.9380164265 -0.333954337
12500225000.0 0.9322269259 -0.3490010834
12550224700.0 0.9269410497 -0.3623694807
12600224400.0 0.921924057 -0.3751919147
12650224100.0 0.9162852635 -0.3893842024
12700223800.0 0.9108469941 -0.4025085613
12750223500.0 0.9055360571 -0.4154551244
12800223200.0 0.9001265842 -0.4278732422
12850222900.0 0.8947430405 -0.4402853453
12900222600.0 0.8888824808 -0.4526372942
12950222300.0 0.8825741015 -0.4651006132
13000222000.0 0.8768763672 -0.4765988971
13050221700.0 0.869837473 -0.4888600586
13100221400.0 0.8634307146 -0.5013354634
13150221100.0 0.8565209473 -0.5132613324
13200220800.0 0.8495431078 -0.5246606902
13250220500.0 0.8420938135 -0.5370643354
13300220200.0 0.8349610055 -0.5478708319
13350219900.0 0.8269519503 -0.5599260134
13400219600.0 0.8185930622 -0.5720142526
13450219300.0 0.8089081989 -0.5855791731
13500219000.0 0.7989800417 -0.5994578517
13550218700.0 0.7888569772 -0.6119443604
13600218400.0 0.7779989608 -0.6247395812
13650218100.0 0.769123556 -0.6348343673
13700217800.0 0.7571529622 -0.6481262354
13750217500.0 0.7475549694 -0.6594717278
13800217200.0 0.7366636879 -0.6716223258
13850216900.0 0.7257957498 -0.6823023506
13900216600.0 0.7157090987 -0.6907955344
13950216300.0 0.7054480753 -0.7019660603
14000216000.0 0.6948699175 -0.7108854917
14050215700.0 0.6852151024 -0.719177319
14100215400.0 0.6754453612 -0.7281963255
14150215100.0 0.6660604301 -0.7368870992
14200214800.0 0.6569959001 -0.7452272217
14250214500.0 0.6466478086 -0.7546807954
14300214200.0 0.6362475456 -0.763993358
14350213900.0 0.625258061 -0.7735569049
14400213600.0 0.6130719938 -0.7834709997
14450213300.0 0.6004030635 -0.7935830301
14500213000.0 0.5868192141 -0.8032449348
14550212700.0 0.5740978624 -0.8128755239
14600212400.0 0.5623193798 -0.8219624957
14650212100.0 0.5489426088 -0.8299522948
14700211800.0 0.5349038045 -0.8401451691
14750211500.0 0.5232605507 -0.8482904263
14800211200.0 0.5110214134 -0.8560686534
14850210900.0 0.4988862834 -0.8636916603
14900210600.0 0.4856220874 -0.8715534222
14950210300.0 0.4720880543 -0.8792838967
15000210000.0 0.4593628511 -0.8859968481
15050209700.0 0.4471039986 -0.8922284397
15100209400.0 0.4343591552 -0.8983075013
15150209100.0 0.4222772725 -0.9033181965
15200208800.0 0.4097279364 -0.9090616207
15250208500.0 0.3979826106 -0.9137916982
15300208200.0 0.3856698148 -0.9181158573
15350207900.0 0.3724346654 -0.9226195935
15400207600.0 0.3572883217 -0.9283426359
15450207300.0 0.343892702 -0.9340954167
15500207000.0 0.329033667 -0.9374325211
15550206700.0 0.3142320249 -0.9430508589
15600206400.0 0.2978690995 -0.9470847973
15650206100.0 0.282333172 -0.9515087463
15700205800.0 0.2680981022 -0.9552491451
15750205500.0 0.2536373829 -0.9587051651
15800205200.0 0.2393091856 -0.9622952138
15850204900.0 0.224659369 -0.9656334126
15900204600.0 0.2097848463 -0.9693816099
15950204300.0 0.1957830675 -0.9723022483
16000204000.0 0.1816061707 -0.9751554028
16050203700.0 0.1662776941 -0.9779621353
16100203400.0 0.1519099038 -0.9800371907
16150203100.0 0.1375274653 -0.9827218835
16200202800.0 0.1232997993 -0.9848136949
16250202500.0 0.1084367544 -0.9863204561
16300202200.0 0.0932513658 -0.9877070201
16350201900.0 0.0786505875 -0.9893816786
16400201600.0 0.0640489571 -0.99072416
16450201300.0 0.0487649003 -0.9913800003
16500201000.0 0.0321573323 -0.9920814263
16550200700.0 0.016305264 -0.9926102752
16600200400.0 0.0008038911 -0.9927694593
16650200100.0 -0.0154234965 -0.9926457692
16700199800.0 -0.0316337628 -0.9921101064
16750199500.0 -0.0502952357 -0.9918289778
16800199200.0 -0.0663344236 -0.990848974
16850198900.0 -0.0814259652 -0.9891195351
16900198600.0 -0.0952180863 -0.9892848883
16950198300.0 -0.1084954142 -0.9877499007
17000198000.0 -0.1220062322 -0.9860593525
17050197700.0 -0.134603358 -0.9840570755
17100197400.0 -0.1466422537 -0.9819138197
17150197100.0 -0.1596701977 -0.9801260763
17200196800.0 -0.1728370654 -0.9779367789
17250196500.0 -0.1855432629 -0.9755049617
17300196200.0 -0.1974203195 -0.9733513738
17350195900.0 -0.2094421298 -0.970826631
17400195600.0 -0.2216385275 -0.9686480133
17450195300.0 -0.2346632013 -0.9658122393
17500195000.0 -0.2481065591 -0.9625282316
17550194700.0 -0.2623225074 -0.9587801139
17600194400.0 -0.2762630253 -0.9549544191
17650194100.0 -0.2895845694 -0.9506399002
17700193800.0 -0.3027268695 -0.9467984211
17750193500.0 -0.3175950998 -0.9422376642
17800193200.0 -0.3315396829 -0.93658302
17850192900.0 -0.346806039 -0.9311581806
17900192600.0 -0.3617659999 -0.9252215373
17950192300.0 -0.3776544059 -0.9180520618
18000192000.0 -0.3921952712 -0.9109472502
18050191700.0 -0.4059489267 -0.9028254936
18100191400.0 -0.4202307417 -0.8952826303
18150191100.0 -0.4352468488 -0.8873606474
18200190800.0 -0.4522339356 -0.8781015151
18250190500.0 -0.4691304443 -0.8683899176
18300190200.0 -0.4845238911 -0.8598319597
18350189900.0 -0.49958178 -0.8516873333
18400189600.0 -0.5138263754 -0.8427631685
18450189300.0 -0.5274194233 -0.8354446715
18500189000.0 -0.5406907656 -0.8272042121
18550188700.0 -0.5534553503 -0.819202134
18600188400.0 -0.5649955441 -0.8127204389
18650188100.0 -0.5758702827 -0.8065278742
18700187800.0 -0.5868164231 -0.8001864043
18750187500.0 -0.5974908121 -0.7932719232
18800187200.0 -0.6079838759 -0.7863510854
18850186900.0 -0.6181275856 -0.7793804198
18900186600.0 -0.628472426 -0.7721709275
18950186300.0 -0.6385104805 -0.7643789238
19000186000.0 -0.6457744787 -0.7583297042
19050185700.0 -0.6551470623 -0.7513461319
19100185400.0 -0.665271274 -0.7423514688
19150185100.0 -0.6756558054 -0.7339752837
19200184800.0 -0.6850857142 -0.7260334287
19250184500.0 -0.6953699127 -0.717251
19300184200.0 -0.706871483 -0.7067759759
19350183900.0 -0.7172946072 -0.6976516274
19400183600.0 -0.7267327994 -0.6871415112
19450183300.0 -0.7352848746 -0.6774602911
19500183000.0 -0.7443064426 -0.6673516814
19550182700.0 -0.7535948498 -0.6570191745
19600182400.0 -0.7639304738 -0.6450346316
19650182100.0 -0.774720322 -0.6323700984
19700181800.0 -0.7855509548 -0.6193064095
19750181500.0 -0.7962408363 -0.6052271022
19800181200.0 -0.8065368373 -0.5900601454
19850180900.0 -0.8161301113 -0.5747021511
19900180600.0 -0.8238607827 -0.5601073935
19950180300.0 -0.8332077006 -0.5436519808
20000180000.0 -0.8263176541 -0.5464260921
20050179700.0 -0.8337887368 -0.5328830646
20100179400.0 -0.8423278991 -0.5188239826
20150179100.0 -0.8509648662 -0.5064280874
20200178800.0 -0.8594861082 -0.4948292047
20250178500.0 -0.8689134815 -0.4813588701
20300178200.0 -0.878760195 -0.4656466103
20350177900.0 -0.888020916 -0.4520529315
20400177600.0 -0.8967608666 -0.4371161664
20450177300.0 -0.9049729861 -0.4224564152
20500177000.0 -0.9131985294 -0.4087501457
20550176700.0 -0.9211011805 -0.3952327924
20600176400.0 -0.9281559873 -0.3821066375
20650176100.0 -0.9346141558 -0.3699297421
20700175800.0 -0.9413062381 -0.3580897549
20750175500.0 -0.9480310633 -0.347081416
20800175200.0 -0.9525225478 -0.3353516002
20850174900.0 -0.9576343282 -0.3244508748
20900174600.0 -0.9621969762 -0.3133280361
20950174300.0 -0.9656800783 -0.3015119724
21000174000.0 -0.9694023629 -0.2900901905
21050173700.0 -0.9718838232 -0.2798125049
21100173400.0 -0.9764927014 -0.2673930449
21150173100.0 -0.9808150745 -0.2548077326
21200172800.0 -0.9843297969 -0.2413058153
21250172500.0 -0.9871321567 -0.2275011889
21300172200.0 -0.9895146239 -0.2136281071
21350171900.0 -0.9917988256 -0.1992514005
21400171600.0 -0.9930179087 -0.1851683705
21450171300.0 -0.9927615001 -0.1696356746
21500171000.0 -0.9930828858 -0.1549085486
21550170700.0 -0.9924053545 -0.1392145542
21600170400.0 -0.9927177811 -0.1235621888
21650170100.0 -0.991804947 -0.1075832816
21700169800.0 -0.9907459596 -0.0912703093
21750169500.0 -0.9885502327 -0.0764950384
21800169200.0 -0.9888520238 -0.0607663923
21850168900.0 -0.9866546267 -0.0432679195
21900168600.0 -0.9861396009 -0.0275901683
21950168300.0 -0.9842868801 -0.0112770217
22000168000.0 -0.9834404058 0.0035139273
22050167700.0 -0.9832016548 0.0179192394
22100167400.0 -0.9830394 0.03263284
22150167100.0 -0.9838710467 0.0483947846
22200166800.0 -0.9841739202 0.064400574
22250166500.0 -0.9837453279 0.08218969
22300166200.0 -0.9834187584 0.0984271093
22350165900.0 -0.9819947266 0.1156623447
22400165600.0 -0.980682524 0.1312515577
22450165300.0 -0.9787680465 0.1470362625
22500165000.0 -0.9760961266 0.1595100423
22550164700.0 -0.9759039427 0.1746222039
22600164400.0 -0.9740881457 0.1902330149
22650164100.0 -0.9710780504 0.2045327437
22700163800.0 -0.9690397439 0.2213126563
22750163500.0 -0.9658274682 0.2369508963
22800163200.0 -0.9635239225 0.2496299546
22850162900.0 -0.9609756284 0.2626537866
22900162600.0 -0.9593761539 0.2761584033
22950162300.0 -0.9581199434 0.2889689496
23000162000.0 -0.9575312833 0.3010040832
23050161700.0 -0.9551247646 0.3131603811
23100161400.0 -0.9529926727 0.3260214711
23150161100.0 -0.9503283707 0.3381888612
23200160800.0 -0.9476421095 0.3509524455
23250160500.0 -0.9447084996 0.3621482617
23300160200.0 -0.9422692964 0.3744387402
23350159900.0 -0.9387000578 0.3881612356
23400159600.0 -0.9330209166 0.4012447934
23450159300.0 -0.9290557198 0.4142408611
23500159000.0 -0.9246007026 0.4273268272
23550158700.0 -0.9197928109 0.4404333141
23600158400.0 -0.9146378965 0.4538649034
23650158100.0 -0.908141679 0.4679187466
23700157800.0 -0.9005046709 0.4819118918
23750157500.0 -0.8919750245 0.4959986477
23800157200.0 -0.8831050144 0.5087081885
23850156900.0 -0.8742215311 0.5221196588
23900156600.0 -0.8651205281 0.5335141539
23950156300.0 -0.8562674734 0.5468896457
24000156000.0 -0.8468855028 0.5581094568
24050155700.0 -0.8365073416 0.5699781758
24100155400.0 -0.8271348854 0.5827990534
24150155100.0 -0.8155206967 0.5936322784
24200154800.0 -0.8050514972 0.6052428521
24250154500.0 -0.7943322592 0.6166473598
24300154200.0 -0.7824583489 0.6287695908
24350153900.0 -0.7705075995 0.6390348776
24400153600.0 -0.7583248913 0.6493496722
24450153300.0 -0.7462832671 0.6595509878
24500153000.0 -0.7351304872 0.668520189
24550152700.0 -0.7237334507 0.6786032038
24600152400.0 -0.7124690684 0.6875371794
24650152100.0 -0.7003024636 0.696442046
