!Created with skrf (http://scikit-rf.org).
# Hz S RI R 50.0 
!freq ReS11 ImS11
300000.0 -0.9778773537 -0.1098714285
50299700.0 -0.999961408 0.0157973374
100299400.0 -0.9980657649 0.0289187095
150299100.0 -1.0029415 0.0456582085
200298800.0 -0.9997110578 0.0590055926
250298500.0 -0.9974866835 0.0724686416
300298200.0 -0.9860217931 0.0882109175
350297900.0 -0.9942383314 0.0994194808
400297600.0 -0.9932421435 0.1158249073
450297300.0 -0.991184384 0.1295989097
500297000.0 -0.9895501932 0.1443642258
550296700.0 -0.984220266 0.1567176949
600296400.0 -1.017081732 0.19019948
650296100.0 -0.982003879 0.1867811653
700295800.0 -0.979132342 0.2010880358
750295500.0 -0.9763312853 0.2151174239
800295200.0 -0.9728321995 0.229272408
850294900.0 -0.9695869261 0.2429346263
900294600.0 -0.9656798981 0.2568355605
950294300.0 -0.9621012517 0.2703382383
1000294000.0 -0.9580191003 0.2845223584
1050293700.0 -0.9534722493 0.2983109969
1100293400.0 -0.9491811417 0.3126822384
1150293100.0 -0.9453453653 0.3246029418
1200292800.0 -0.9398797078 0.3389224258
1250292500.0 -0.9345122725 0.3522657675
1300292200.0 -0.9287489281 0.3655765615
1350291900.0 -0.9233886863 0.3795039755
1400291600.0 -0.9178203735 0.3926403584
1450291300.0 -0.9122305698 0.4051340797
1500291000.0 -0.9059823355 0.4183373432
1550290700.0 -0.8993944318 0.431727835
1600290400.0 -0.8931910583 0.4445969538
1650290100.0 -0.886500541 0.4568171315
1700289800.0 -0.8796650977 0.4700431114
1750289500.0 -0.8726209259 0.4825498055
1800289200.0 -0.865244287 0.4953639996
1850288900.0 -0.8585045645 0.5066661161
1900288600.0 -0.8507292642 0.5198897359
1950288300.0 -0.8425062422 0.5322876524
2000288000.0 -0.8351283688 0.5436091675
2050287700.0 -0.8267273883 0.5558090708
2100287400.0 -0.8187787205 0.5675254337
2150287100.0 -0.8101170483 0.5797938411
2200286800.0 -0.8026258586 0.5900913585
2250286500.0 -0.7936566784 0.6021484496
2300286200.0 -0.7847740686 0.6137535437
2350285900.0 -0.7759027781 0.6247619102
2400285600.0 -0.7670706677 0.6358253834
2450285300.0 -0.7584739212 0.6462247496
2500285000.0 -0.7486600013 0.6574118138
2550284700.0 -0.7396711787 0.6678752728
2600284400.0 -0.7303197221 0.6777411014
2650284100.0 -0.7213549216 0.6883098291
2700283800.0 -0.7108160635 0.6990914664
2750283500.0 -0.7003724998 0.7094722576
2800283200.0 -0.6906440782 0.7193712835
2850282900.0 -0.6802961492 0.7289508909
2900282600.0 -0.6701285236 0.7388199255
2950282300.0 -0.6598642303 0.7479801595
3000282000.0 -0.6491389953 0.7572444735
3050281700.0 -0.6378111544 0.766626731
3100281400.0 -0.6260519121 0.7760897958
3150281100.0 -0.61426396 0.7852263917
3200280800.0 -0.6026818627 0.7938537647
3250280500.0 -0.5917490875 0.8015481005
3300280200.0 -0.5805809026 0.8092948531
3350279900.0 -0.5690927815 0.8167293035
3400279600.0 -0.5570893799 0.8246363314
3450279300.0 -0.5459333124 0.8315304912
3500279000.0 -0.5337917918 0.8385899217
3550278700.0 -0.5213830061 0.8460554714
3600278400.0 -0.5089689039 0.8531761395
3650278100.0 -0.4958804083 0.8608158266
3700277800.0 -0.4836761689 0.8670887056
3750277500.0 -0.4715846498 0.873602624
3800277200.0 -0.4589234869 0.8805627832
3850276900.0 -0.4468513222 0.8861605954
3900276600.0 -0.436078185 0.8917447568
3950276300.0 -0.4233784038 0.8979491084
4000276000.0 -0.4114383366 0.9041855589
4050275700.0 -0.3987119279 0.9099025867
4100275400.0 -0.3873080752 0.915325541
4150275100.0 -0.374615081 0.9209768764
4200274800.0 -0.3618329018 0.9266737531
4250274500.0 -0.349597131 0.9316661818
4300274200.0 -0.3364140873 0.9368846293
4350273900.0 -0.322619405 0.9423479897
4400273600.0 -0.3075695404 0.9474786829
4450273300.0 -0.2923544436 0.9527330188
4500273000.0 -0.278706198 0.9570693266
4550272700.0 -0.2644448972 0.9611498381
4600272400.0 -0.2490307255 0.9654802371
4650272100.0 -0.237305538 0.9686788906
4700271800.0 -0.22405344 0.9720181748
4750271500.0 -0.2124560667 0.9747940779
4800271200.0 -0.1999083 0.9774373398
4850270900.0 -0.1859264917 0.9800574148
4900270600.0 -0.17198615 0.9825742977
4950270300.0 -0.1578901648 0.9851068198
5000270000.0 -0.1435597017 0.9872529719
5050269700.0 -0.1302439504 0.9888721711
5100269400.0 -0.1166163657 0.9904247367
5150269100.0 -0.1033351068 0.9924066873
5200268800.0 -0.089940379 0.9933390946
5250268500.0 -0.0770706001 0.9943362343
5300268200.0 -0.0637805477 0.9947715716
5350267900.0 -0.0515220504 0.995400324
5400267600.0 -0.0355533052 0.9966211311
5450267300.0 -0.0221656228 0.996808238
5500267000.0 -0.007120503 0.996943841
5550266700.0 0.0079689255 0.9973753438
5600266400.0 0.0236389129 0.997484731
5650266100.0 0.039998471 0.9969051418
5700265800.0 0.0543132249 0.9961547823
5750265500.0 0.0697564566 0.9954703436
5800265200.0 0.0835718958 0.993918522
5850264900.0 0.0970057435 0.9934298062
5900264600.0 0.1137131076 0.9917988154
5950264300.0 0.125799571 0.9900512941
6000264000.0 0.1399129116 0.9883318915
6050263700.0 0.152368528 0.9869061548
6100263400.0 0.1647697884 0.9850912899
6150263100.0 0.17916231 0.9823092605
6200262800.0 0.1896118074 0.9805288373
6250262500.0 0.2021336568 0.9782229174
6300262200.0 0.215051651 0.9752980021
6350261900.0 0.2280126327 0.9725295059
6400261600.0 0.2419023203 0.969075675
6450261300.0 0.2530966328 0.9663532379
6500261000.0 0.2661964236 0.9628814134
6550260700.0 0.2789263362 0.958976416
6600260400.0 0.2923131086 0.9548308414
6650260100.0 0.306265541 0.9506152663
6700259800.0 0.3182711873 0.9462401673
6750259500.0 0.331796752 0.9411378894
6800259200.0 0.3453430792 0.9363492361
6850258900.0 0.3566879878 0.93114853
6900258600.0 0.3691845682 0.926091767
6950258300.0 0.3820032135 0.9212032043
7000258000.0 0.39363921 0.9153554096
7050257700.0 0.4061120677 0.9093882809
7100257400.0 0.418708915 0.9032405085
7150257100.0 0.4291559602 0.8978638347
7200256800.0 0.4418840935 0.8916430069
7250256500.0 0.4538656617 0.8850328114
7300256200.0 0.4665722908 0.8780765328
7350255900.0 0.4792856599 0.8715315997
7400255600.0 0.4924777447 0.8642222546
7450255300.0 0.5080810395 0.8553949406
7500255000.0 0.5198564633 0.8477953171
7550254700.0 0.5336185439 0.8396107614
7600254400.0 0.5458988078 0.8310089297
7650254100.0 0.5575942154 0.8232666782
7700253800.0 0.5693734022 0.8151315701
7750253500.0 0.5807413456 0.8075972601
7800253200.0 0.5912001135 0.7995973137
7850252900.0 0.6009687373 0.792731133
7900252600.0 0.6127247938 0.7839379872
7950252300.0 0.6213820498 0.7774598053
8000252000.0 0.6317048189 0.7695411247
8050251700.0 0.6423118281 0.7612950426
8100251400.0 0.6522294622 0.7531632884
8150251100.0 0.6625955392 0.7445150317
8200250800.0 0.672074572 0.7363275546
8250250500.0 0.6807936696 0.7283756314
8300250200.0 0.6898019891 0.7198024359
8350249900.0 0.6993646555 0.7111969962
8400249600.0 0.7073711329 0.7031152569
8450249300.0 0.7162872877 0.6940445552
8500249000.0 0.7248051881 0.6851483022
8550248700.0 0.733057968 0.6762276729
8600248400.0 0.7415857346 0.6667285865
8650248100.0 0.7494085711 0.6573312519
8700247800.0 0.7588291494 0.6460458773
8750247500.0 0.7669890367 0.6361670964
8800247200.0 0.7751306827 0.6258240779
8850246900.0 0.7838663708 0.614217048
8900246600.0 0.7925060309 0.602923538
8950246300.0 0.8018441326 0.5898255076
9000246000.0 0.8113062921 0.5771635419
9050245700.0 0.8203990751 0.5641099958
9100245400.0 0.8290614674 0.5514513288
9150245100.0 0.8384642956 0.538085226
9200244800.0 0.8482865275 0.5225675366
9250244500.0 0.8575612778 0.5070304194
9300244200.0 0.8660468419 0.4923693137
9350243900.0 0.8738005875 0.4784095633
9400243600.0 0.8804436639 0.4660934724
9450243300.0 0.8863367628 0.4542945023
9500243000.0 0.8925324389 0.4421350415
9550242700.0 0.8963658738 0.434508159
9600242400.0 0.9002076096 0.4271913147
9650242100.0 0.9037562678 0.4208332245
9700241800.0 0.9083139342 0.412471372
9750241500.0 0.9123510115 0.4049278102
9800241200.0 0.9168747991 0.3956208567
9850240900.0 0.9227918223 0.3840235945
9900240600.0 0.9282861359 0.3725930735
9950240300.0 0.9347767126 0.3561828452
10000240000.0 0.93967615 0.3445439756
10050239700.0 0.9451420132 0.3298393397
10100239400.0 0.9500191234 0.3140033859
10150239100.0 0.9543417964 0.2992259891
10200238800.0 0.9585108723 0.2841077376
10250238500.0 0.9618714493 0.270763353
10300238200.0 0.9649608474 0.2569323871
10350237900.0 0.9675059438 0.2440469856
10400237600.0 0.9699173687 0.2307679211
10450237300.0 0.9726943239 0.2173916525
10500237000.0 0.9751939075 0.2048806615
10550236700.0 0.9774237653 0.190945278
10600236400.0 0.9788507454 0.1776593278
10650236100.0 0.9814552635 0.1632435597
10700235800.0 0.9838271712 0.1506649609
10750235500.0 0.9855134052 0.1379807627
10800235200.0 0.9879918551 0.1233024532
10850234900.0 0.989730602 0.1088707802
10900234600.0 0.9919001006 0.094031447
10950234300.0 0.9934740574 0.0809362574
11000234000.0 0.9952346988 0.066016714
11050233700.0 0.9970241102 0.0494161592
11100233400.0 0.9985608938 0.0321969287
11150233100.0 0.9993535369 0.0161686964
11200232800.0 0.9999680469 0.0010723495
11250232500.0 1.001113443 -0.0157057643
11300232200.0 1.002160271 -0.0337483825
11350231900.0 1.001572343 -0.0496595156
11400231600.0 1.000684278 -0.0657693554
11450231300.0 1.000643129 -0.0807628475
11500231000.0 0.9993861872 -0.0982809879
11550230700.0 0.9981624531 -0.1108915797
11600230400.0 0.9966697872 -0.1237870567
11650230100.0 0.9944308583 -0.1354961745
11700229800.0 0.9927529504 -0.1504950106
11750229500.0 0.9905601218 -0.1643882404
11800229200.0 0.9876607819 -0.1786192546
11850228900.0 0.9839321284 -0.1906610237
11900228600.0 0.98029059 -0.2004929731
11950228300.0 0.9773201444 -0.2108203937
12000228000.0 0.9743894185 -0.219507938
12050227700.0 0.9710183964 -0.232172756
12100227400.0 0.9679283754 -0.2429440568
12150227100.0 0.9632080216 -0.2595330183
12200226800.0 0.9591369912 -0.2704938676
12250226500.0 0.9549480509 -0.2832736225
12300226200.0 0.9509128773 -0.2955600099
12350225900.0 0.9460435168 -0.31020807
12400225600.0 0.9416325938 -0.3224150018
12450225300.0 0.936973246 -0.3349174825
12500225000.0 0.9319356442 -0.3499293062
12550224700.0 0.9265666662 -0.3635716364
12600224400.0 0.9215879358 -0.3760794065
12650224100.0 0.9158811902 -0.3905301104
12700223800.0 0.9106533849 -0.4031671312
12750223500.0 0.9049221648 -0.416240761
12800223200.0 0.8997446565 -0.4287022824
12850222900.0 0.8942711647 -0.441089439
12900222600.0 0.8888076568 -0.4525260212
12950222300.0 0.8826367467 -0.465670799
13000222000.0 0.8765735687 -0.4771716632
13050221700.0 0.8697180575 -0.4899658214
13100221400.0 0.8628321387 -0.5018869542
13150221100.0 0.8559729786 -0.5145451672
13200220800.0 0.8488969596 -0.5255145754
13250220500.0 0.8414821214 -0.538240555
13300220200.0 0.8340116599 -0.5490129129
13350219900.0 0.8259798972 -0.5608348632
13400219600.0 0.8174801521 -0.5733045538
13450219300.0 0.8083669234 -0.5867268566
13500219000.0 0.7975945266 -0.6010442864
13550218700.0 0.787644585 -0.6137130106
13600218400.0 0.7776635351 -0.6256942989
13650218100.0 0.7677456096 -0.6368015676
13700217800.0 0.7570517507 -0.648978599
13750217500.0 0.746608667 -0.660745033
13800217200.0 0.7345659935 -0.6721653101
13850216900.0 0.7244399067 -0.683980164
13900216600.0 0.7142248093 -0.6929247813
13950216300.0 0.7040563395 -0.701954574
14000216000.0 0.6937931821 -0.7122054669
14050215700.0 0.6839458497 -0.7204584253
14100215400.0 0.6741088433 -0.7294481887
14150215100.0 0.6651365235 -0.7382509368
14200214800.0 0.6557634944 -0.7463576099
14250214500.0 0.6456552232 -0.7554620523
14300214200.0 0.6352854536 -0.7648159456
14350213900.0 0.6244023091 -0.7743826474
14400213600.0 0.6126266866 -0.7840355948
14450213300.0 0.5994373259 -0.7942306719
14500213000.0 0.5865356436 -0.8039174047
14550212700.0 0.5733892875 -0.8132998031
14600212400.0 0.561321271 -0.8225778679
14650212100.0 0.5486237321 -0.8309042562
14700211800.0 0.5343894011 -0.8401270808
14750211500.0 0.5223129977 -0.8489248927
14800211200.0 0.5098297174 -0.856923888
14850210900.0 0.4979417429 -0.8638242249
14900210600.0 0.4844170781 -0.8720352146
14950210300.0 0.4709588623 -0.8796338783
15000210000.0 0.4579299915 -0.8866247871
15050209700.0 0.4452420005 -0.892576094
15100209400.0 0.4327723959 -0.898964661
15150209100.0 0.4207117938 -0.9044278243
15200208800.0 0.4079291498 -0.9094277149
15250208500.0 0.3964728966 -0.9142631035
15300208200.0 0.3835101938 -0.9184890787
15350207900.0 0.3708365033 -0.9226316097
15400207600.0 0.3560298055 -0.9287835502
15450207300.0 0.3407587744 -0.934176012
15500207000.0 0.3268513617 -0.9385431195
15550206700.0 0.3115601309 -0.9431898661
15600206400.0 0.29634788 -0.9477986611
15650206100.0 0.2799995858 -0.9521770272
15700205800.0 0.2664137478 -0.955788914
15750205500.0 0.251669151 -0.9593532693
15800205200.0 0.2370796448 -0.9628542225
15850204900.0 0.2227484709 -0.9661989896
15900204600.0 0.207920769 -0.9697773129
15950204300.0 0.1940520498 -0.9726943106
16000204000.0 0.1797206926 -0.9754144892
16050203700.0 0.165269476 -0.978153748
16100203400.0 0.1507282974 -0.9803436322
16150203100.0 0.1365436127 -0.9823808737
16200202800.0 0.1220558542 -0.9845985741
16250202500.0 0.1079234974 -0.9861595777
16300202200.0 0.0924469879 -0.9877720561
16350201900.0 0.0775364437 -0.9888928361
16400201600.0 0.0626569508 -0.9903280255
16450201300.0 0.047618292 -0.99094379
16500201000.0 0.0309505483 -0.9919684293
16550200700.0 0.0154531857 -0.9924811871
16600200400.0 -0.0006612089 -0.9925181856
16650200100.0 -0.016598198 -0.9926803281
16700199800.0 -0.033199926 -0.9919924791
16750199500.0 -0.0524146956 -0.9914447902
16800199200.0 -0.0683184184 -0.9903847415
16850198900.0 -0.0832768982 -0.9890695893
16900198600.0 -0.0964987571 -0.9884589945
16950198300.0 -0.1102959698 -0.9877434801
17000198000.0 -0.1227467353 -0.9858727734
17050197700.0 -0.1360236743 -0.9837948382
17100197400.0 -0.1483906913 -0.9813977927
17150197100.0 -0.1606186965 -0.9796527832
17200196800.0 -0.1743828771 -0.9773636461
17250196500.0 -0.1870096752 -0.9750105517
17300196200.0 -0.1992147423 -0.972959245
17350195900.0 -0.21132979 -0.9706153287
17400195600.0 -0.2233031192 -0.9681110682
17450195300.0 -0.2364793066 -0.9653625292
17500195000.0 -0.2499392423 -0.9618933043
17550194700.0 -0.2637599642 -0.9585290072
17600194400.0 -0.2777087958 -0.9543257276
17650194100.0 -0.291308825 -0.9502707035
17700193800.0 -0.3042033926 -0.9459172368
17750193500.0 -0.3187780369 -0.9416265628
17800193200.0 -0.333081932 -0.9359468692
17850192900.0 -0.348364566 -0.9306763909
17900192600.0 -0.3629556741 -0.9247009812
17950192300.0 -0.3786367898 -0.9175672957
18000192000.0 -0.3934256853 -0.9101747623
18050191700.0 -0.4071479966 -0.9023181094
18100191400.0 -0.421336518 -0.8946919249
18150191100.0 -0.4363464141 -0.8865439411
18200190800.0 -0.453214795 -0.8774219558
18250190500.0 -0.4703584028 -0.8679079062
18300190200.0 -0.485788152 -0.8591982727
18350189900.0 -0.5005614216 -0.8506791233
18400189600.0 -0.5149706991 -0.842290606
18450189300.0 -0.5284571961 -0.834180625
18500189000.0 -0.5416669249 -0.8261128662
18550188700.0 -0.5541996544 -0.8186587295
18600188400.0 -0.5662047069 -0.8118114833
18650188100.0 -0.5768789218 -0.8054332701
18700187800.0 -0.5875601004 -0.7988642949
18750187500.0 -0.5983906096 -0.7921311564
18800187200.0 -0.6092813956 -0.7850511276
18850186900.0 -0.6196439273 -0.77799314
18900186600.0 -0.6299036872 -0.7707117647
18950186300.0 -0.6396545367 -0.7629554315
19000186000.0 -0.647374407 -0.7567542574
19050185700.0 -0.6562817114 -0.7495320967
19100185400.0 -0.6670267921 -0.7406755907
19150185100.0 -0.6763949872 -0.7323613481
19200184800.0 -0.6863792572 -0.7242636647
19250184500.0 -0.6969645673 -0.7146360542
19300184200.0 -0.7082159125 -0.7044634221
19350183900.0 -0.7188531079 -0.6961865127
19400183600.0 -0.7285923042 -0.6858032877
19450183300.0 -0.737280423 -0.6755943154
19500183000.0 -0.7448806373 -0.6657940262
19550182700.0 -0.7551540242 -0.6547732925
19600182400.0 -0.7656027457 -0.6428790181
19650182100.0 -0.776567796 -0.6306425028
19700181800.0 -0.7868296877 -0.6173808446
19750181500.0 -0.7975463491 -0.6032825386
19800181200.0 -0.8077114463 -0.5884878605
19850180900.0 -0.8172072007 -0.5733429048
19900180600.0 -0.8248777937 -0.5585955974
19950180300.0 -0.83416081 -0.5424420028
20000180000.0 -0.8273165348 -0.5446295099
20050179700.0 -0.8361722566 -0.5316658475
20100179400.0 -0.8433254554 -0.5180244565
20150179100.0 -0.85204055 -0.5057665644
20200178800.0 -0.8601682002 -0.4929428153
20250178500.0 -0.8697773684 -0.4790128707
20300178200.0 -0.8793401026 -0.4648936301
20350177900.0 -0.8885137657 -0.4507628869
20400177600.0 -0.8973578847 -0.4358966757
20450177300.0 -0.9056398837 -0.4213656024
20500177000.0 -0.9133966861 -0.4075031547
20550176700.0 -0.9213009161 -0.3939974774
20600176400.0 -0.9286709674 -0.3805987694
20650176100.0 -0.9346086531 -0.3679874737
20700175800.0 -0.9413378012 -0.3561109567
20750175500.0 -0.9481031092 -0.3446965343
20800175200.0 -0.9527977872 -0.3342381137
20850174900.0 -0.9579379217 -0.3229271475
20900174600.0 -0.9622359957 -0.3108137327
20950174300.0 -0.9663821035 -0.2989470842
21000174000.0 -0.9703226879 -0.2883513009
21050173700.0 -0.9728232957 -0.2769169262
21100173400.0 -0.9771529851 -0.2652093319
21150173100.0 -0.9813819794 -0.25186846
21200172800.0 -0.9847428154 -0.2389826711
21250172500.0 -0.9877167496 -0.2250056189
21300172200.0 -0.9907174634 -0.2106067775
21350171900.0 -0.9918462 -0.1965688953
21400171600.0 -0.9931666673 -0.1817615091
21450171300.0 -0.9937459309 -0.1677853346
21500171000.0 -0.992997497 -0.1521635761
21550170700.0 -0.9933736533 -0.1370115742
21600170400.0 -0.9935356483 -0.1222250573
21650170100.0 -0.9923754047 -0.1062544875
21700169800.0 -0.9902488817 -0.0907763674
21750169500.0 -0.9889797075 -0.0752091704
21800169200.0 -0.9881670045 -0.0580456531
21850168900.0 -0.9869357964 -0.0417637232
21900168600.0 -0.9847147057 -0.0264072757
21950168300.0 -0.9839983946 -0.0097264526
22000168000.0 -0.983496776 0.0050147333
22050167700.0 -0.982626194 0.0193626971
22100167400.0 -0.9830415399 0.0347518693
22150167100.0 -0.9833281945 0.0497779233
22200166800.0 -0.9841311855 0.0663647606
22250166500.0 -0.9832757959 0.0833565813
22300166200.0 -0.9826018807 0.1000300089
22350165900.0 -0.9807381508 0.1166872682
22400165600.0 -0.9799746372 0.1318860234
22450165300.0 -0.9776210204 0.1466187402
22500165000.0 -0.9762438082 0.1612274986
22550164700.0 -0.9741426918 0.1767403999
22600164400.0 -0.9728336588 0.1919042335
22650164100.0 -0.9703366656 0.2065123028
22700163800.0 -0.9678273089 0.2223985452
22750163500.0 -0.9646150847 0.2376561008
22800163200.0 -0.9625069345 0.2511130357
22850162900.0 -0.9601592513 0.2646148157
22900162600.0 -0.9586423558 0.2781306163
22950162300.0 -0.9574815601 0.2905640153
23000162000.0 -0.9565977642 0.3028478029
23050161700.0 -0.9546678165 0.3153034797
23100161400.0 -0.9521770744 0.3279204248
23150161100.0 -0.9501889638 0.3401078128
23200160800.0 -0.9466317573 0.3521075753
23250160500.0 -0.9443176159 0.3645062384
23300160200.0 -0.9411247984 0.3764228132
23350159900.0 -0.9377025875 0.389222937
23400159600.0 -0.9326438743 0.4023715159
23450159300.0 -0.9283783101 0.4158991357
23500159000.0 -0.9240043722 0.4284438021
23550158700.0 -0.9191988582 0.4416142766
23600158400.0 -0.9136245563 0.4549567969
23650158100.0 -0.9071241312 0.4690043977
23700157800.0 -0.8996322062 0.4827398843
23750157500.0 -0.8913131145 0.4968172994
23800157200.0 -0.8820986284 0.5101444038
23850156900.0 -0.8731103731 0.5225775244
23900156600.0 -0.8641868351 0.5353667116
23950156300.0 -0.8551777212 0.5474654729
24000156000.0 -0.845946399 0.559249351
24050155700.0 -0.8361198181 0.5712216977
24100155400.0 -0.8259318274 0.5840216095
24150155100.0 -0.8152563187 0.5951186626
24200154800.0 -0.8038592245 0.6062318584
24250154500.0 -0.7922261377 0.6181995167
24300154200.0 -0.7810562124 0.629675543
24350153900.0 -0.7691277708 0.6403941909
24400153600.0 -0.7567610571 0.6507190621
24450153300.0 -0.7447020245 0.660586289
24500153000.0 -0.7331619597 0.6706136704
24550152700.0 -0.7220727227 0.6795964769
24600152400.0 -0.7101929313 0.6891885158
24650152100.0 -0.6987939343 0.6975305003
