!Created with skrf (http://scikit-rf.org).
# Hz S RI R 50.0 
!freq ReS11 ImS11
300000.0 -0.9743316041 -0.1201181543
50299700.0 -0.9999144042 0.0152444919
100299400.0 -0.9978027043 0.0281014549
150299100.0 -1.002754292 0.0449973869
200298800.0 -0.9996567466 0.0581262706
250298500.0 -0.9972781707 0.0716445089
300298200.0 -0.9859285399 0.0875256846
350297900.0 -0.9939042488 0.0983545219
400297600.0 -0.9931399232 0.1149512145
450297300.0 -0.9909243724 0.1286393418
500297000.0 -0.9894896436 0.1435485063
550296700.0 -0.9843452604 0.155860228
600296400.0 -1.017130856 0.1891150131
650296100.0 -0.9822658641 0.1859478753
700295800.0 -0.9792972737 0.2001061895
750295500.0 -0.9763485796 0.2140093251
800295200.0 -0.9729554935 0.2280404948
850294900.0 -0.969687369 0.242124789
900294600.0 -0.9658113633 0.2559334261
950294300.0 -0.9621326856 0.2694478757
1000294000.0 -0.9581245064 0.2834015798
1050293700.0 -0.9536486513 0.2972725995
1100293400.0 -0.9494457409 0.3115383935
1150293100.0 -0.9454595268 0.3233321478
1200292800.0 -0.9401592421 0.3377179314
1250292500.0 -0.9348206441 0.3512752212
1300292200.0 -0.9288888993 0.3645896405
1350291900.0 -0.9233984129 0.3785167224
1400291600.0 -0.9179729768 0.3915694379
1450291300.0 -0.9125591118 0.4037580206
1500291000.0 -0.9061370186 0.4173889846
1550290700.0 -0.8998396131 0.4308052773
1600290400.0 -0.8931993934 0.4437153983
1650290100.0 -0.8867903387 0.455591357
1700289800.0 -0.8799574647 0.4692769774
1750289500.0 -0.8728747148 0.4815816073
1800289200.0 -0.8653427328 0.4946046611
1850288900.0 -0.8588039713 0.5058791112
1900288600.0 -0.8509769419 0.5186665723
1950288300.0 -0.8429012328 0.531554415
2000288000.0 -0.8356101699 0.5430082469
2050287700.0 -0.8272020145 0.5552145985
2100287400.0 -0.819173905 0.5665915864
2150287100.0 -0.8107825233 0.5785566938
2200286800.0 -0.8030141179 0.5892752451
2250286500.0 -0.79399993 0.6013180382
2300286200.0 -0.7851710034 0.6128096483
2350285900.0 -0.7769531768 0.6233920078
2400285600.0 -0.7680296603 0.6346545725
2450285300.0 -0.7592161556 0.6450141735
2500285000.0 -0.7491907767 0.6567892471
2550284700.0 -0.7403842281 0.6669016846
2600284400.0 -0.7311534787 0.6768484542
2650284100.0 -0.722374589 0.6871643114
2700283800.0 -0.7118099697 0.6975376029
2750283500.0 -0.7015646902 0.7082369322
2800283200.0 -0.6915896785 0.71808464
2850282900.0 -0.6808785221 0.7281160532
2900282600.0 -0.6708784181 0.7380397668
2950282300.0 -0.6604435131 0.7472899785
3000282000.0 -0.6496311966 0.7567312912
3050281700.0 -0.638399552 0.7659648245
3100281400.0 -0.6269783519 0.7751070767
3150281100.0 -0.6154806869 0.7840753762
3200280800.0 -0.6040314492 0.7925463147
3250280500.0 -0.5930505007 0.8004009761
3300280200.0 -0.5816205787 0.8084989496
3350279900.0 -0.5694487701 0.8164559995
3400279600.0 -0.5569573463 0.8244247594
3450279300.0 -0.5458093071 0.8314696573
3500279000.0 -0.5340008558 0.838490269
3550278700.0 -0.5219335878 0.8455684162
3600278400.0 -0.5097895326 0.852388237
3650278100.0 -0.4969582053 0.8603013068
3700277800.0 -0.4846793837 0.8665914077
3750277500.0 -0.4722118931 0.8731806928
3800277200.0 -0.4599782106 0.8797086767
3850276900.0 -0.4476673274 0.8855830264
3900276600.0 -0.4369667752 0.8914193875
3950276300.0 -0.4247591799 0.8972959346
4000276000.0 -0.4129969012 0.9031653318
4050275700.0 -0.4001528797 0.9094099357
4100275400.0 -0.389057232 0.9145999819
4150275100.0 -0.3760127182 0.9202955456
4200274800.0 -0.3628958541 0.9261834474
4250274500.0 -0.3502687342 0.9313895055
4300274200.0 -0.337021563 0.9367071305
4350273900.0 -0.3230425124 0.9419782509
4400273600.0 -0.3083281953 0.9472746983
4450273300.0 -0.2930199597 0.9521963287
4500273000.0 -0.2799379545 0.9562998816
4550272700.0 -0.2661382897 0.9605115817
4600272400.0 -0.2508904512 0.9647429822
4650272100.0 -0.2396223801 0.9679031632
4700271800.0 -0.2263720665 0.9713250547
4750271500.0 -0.2147036046 0.9740144061
4800271200.0 -0.202488312 0.9767692897
4850270900.0 -0.188670942 0.9795839928
4900270600.0 -0.1748384263 0.9819594836
4950270300.0 -0.1604546415 0.9845247087
5000270000.0 -0.1460292905 0.9867893582
5050269700.0 -0.1326308545 0.9881399945
5100269400.0 -0.1184912541 0.9901255891
5150269100.0 -0.1047637264 0.9917346429
5200268800.0 -0.0915099659 0.9926840214
5250268500.0 -0.0784084124 0.9938929909
5300268200.0 -0.0649387171 0.9945636976
5350267900.0 -0.0521536007 0.9953204719
5400267600.0 -0.0359883291 0.9960215048
5450267300.0 -0.0225463475 0.9965110659
5500267000.0 -0.0073520793 0.9970798109
5550266700.0 0.007620507 0.9971941429
5600266400.0 0.0232590602 0.9972561215
5650266100.0 0.0398778548 0.9968120221
5700265800.0 0.0543300583 0.996327184
5750265500.0 0.069145844 0.9954342058
5800265200.0 0.082651027 0.9938207363
5850264900.0 0.0960580372 0.9934103099
5900264600.0 0.1123309063 0.9913064148
5950264300.0 0.1244109615 0.9902743544
6000264000.0 0.1378369122 0.988364821
6050263700.0 0.150015349 0.9869657539
6100263400.0 0.1618708245 0.9846816675
6150263100.0 0.1766720919 0.9825311437
6200262800.0 0.1865855104 0.980785014
6250262500.0 0.1990794657 0.9787712903
6300262200.0 0.2115391242 0.9760526158
6350261900.0 0.224358744 0.9732674408
6400261600.0 0.2383120561 0.9701213552
6450261300.0 0.2494234381 0.9673904173
6500261000.0 0.2622543748 0.963825328
6550260700.0 0.2754889178 0.9599065416
6600260400.0 0.2891248552 0.955939219
6650260100.0 0.303460904 0.9517671363
6700259800.0 0.315041801 0.9472033451
6750259500.0 0.3290782847 0.9422249713
6800259200.0 0.3423647288 0.9370565616
6850258900.0 0.3547740589 0.9319783687
6900258600.0 0.3673160664 0.9269162558
6950258300.0 0.3796913145 0.9215801513
7000258000.0 0.3915733019 0.9161831245
7050257700.0 0.403573795 0.910354739
7100257400.0 0.4168494459 0.9037926176
7150257100.0 0.4274537999 0.8984807023
7200256800.0 0.4404303697 0.892193571
7250256500.0 0.4530396377 0.8856122717
7300256200.0 0.4660304721 0.8788785897
7350255900.0 0.4782294786 0.871767942
7400255600.0 0.4923931522 0.8645552509
7450255300.0 0.5078394486 0.8552922514
7500255000.0 0.519952593 0.8479698893
7550254700.0 0.5336914724 0.8385812753
7600254400.0 0.5465840574 0.8305704933
7650254100.0 0.5584921751 0.8229354019
7700253800.0 0.570150504 0.8148461527
7750253500.0 0.5807899414 0.8070705697
7800253200.0 0.5918966338 0.7992072768
7850252900.0 0.6015231824 0.7921102346
7900252600.0 0.6129297029 0.7832401996
7950252300.0 0.6214892983 0.7769066998
8000252000.0 0.6314506775 0.7695853032
8050251700.0 0.6420679744 0.7612674698
8100251400.0 0.6520048097 0.7531930641
8150251100.0 0.6618625778 0.7447531563
8200250800.0 0.6713117001 0.7366619721
8250250500.0 0.6801175855 0.7287606661
8300250200.0 0.6890832465 0.7203587189
8350249900.0 0.6985743289 0.7114594613
8400249600.0 0.7065409083 0.7035513427
8450249300.0 0.7153123316 0.6946048433
8500249000.0 0.7241760655 0.6856646086
8550248700.0 0.7324749841 0.6766725388
8600248400.0 0.7407559626 0.6671200561
8650248100.0 0.7484269505 0.6576110911
8700247800.0 0.7577304686 0.6467441857
8750247500.0 0.7662518468 0.6364852038
8800247200.0 0.7742762279 0.626308462
8850246900.0 0.7829022121 0.6147734386
8900246600.0 0.7914575362 0.6034264396
8950246300.0 0.8004778584 0.5907488845
9000246000.0 0.8093526793 0.5787751982
9050245700.0 0.8180516832 0.5662264707
9100245400.0 0.8264988257 0.5538214163
9150245100.0 0.8354892037 0.5409120885
9200244800.0 0.8449058761 0.5264136205
9250244500.0 0.8542408842 0.5113445452
9300244200.0 0.862242785 0.4977415122
9350243900.0 0.8698819699 0.4841381446
9400243600.0 0.8765515617 0.4722496619
9450243300.0 0.8821621105 0.4615721838
9500243000.0 0.8884512659 0.4497741275
9550242700.0 0.8925894134 0.4420464158
9600242400.0 0.8967580754 0.4344373791
9650242100.0 0.9005442105 0.4277729481
9700241800.0 0.9053907222 0.4192576997
9750241500.0 0.9097697793 0.4115257001
9800241200.0 0.9145273073 0.4021648751
9850240900.0 0.9202098899 0.3905358279
9900240600.0 0.9263401235 0.3785215005
9950240300.0 0.9333496106 0.3622383683
10000240000.0 0.9378742827 0.3503970251
10050239700.0 0.9438496216 0.334166146
10100239400.0 0.9490312004 0.3184495539
10150239100.0 0.9540135564 0.3029830546
10200238800.0 0.9581733393 0.287547609
10250238500.0 0.9614821318 0.2741187003
10300238200.0 0.9645688711 0.2601994928
10350237900.0 0.9673029501 0.2468612594
10400237600.0 0.9698735471 0.2332605156
10450237300.0 0.9725999506 0.2197242287
10500237000.0 0.9746462441 0.2077246467
10550236700.0 0.9773001429 0.1928226138
10600236400.0 0.9794920859 0.1791929963
10650236100.0 0.9810125758 0.164411382
10700235800.0 0.9835329931 0.1524385276
10750235500.0 0.9856379611 0.1389248286
10800235200.0 0.9880837882 0.1246218933
10850234900.0 0.9900749836 0.1095021998
10900234600.0 0.9920476096 0.0949495382
10950234300.0 0.9937895856 0.0815456141
11000234000.0 0.9955005743 0.0661092011
11050233700.0 0.9972717155 0.0494042974
11100233400.0 0.9984800244 0.0319556315
11150233100.0 0.9995982482 0.0154224347
11200232800.0 1.000599457 -0.0001449229
11250232500.0 1.001587109 -0.0177337463
11300232200.0 1.002268149 -0.0358493951
11350231900.0 1.001763501 -0.0521433527
11400231600.0 1.001786037 -0.0673518491
11450231300.0 1.001094439 -0.0834041894
11500231000.0 0.9993991114 -0.0987063598
11550230700.0 0.9982670843 -0.1125477298
11600230400.0 0.9966159602 -0.1259656442
11650230100.0 0.9945729629 -0.1366509834
11700229800.0 0.9927580165 -0.1524100112
11750229500.0 0.9905994946 -0.1663475351
11800229200.0 0.987588967 -0.1799722107
11850228900.0 0.9840941647 -0.1916225205
11900228600.0 0.9804886404 -0.2011533838
11950228300.0 0.9769238415 -0.2114701907
12000228000.0 0.9740768221 -0.220086902
12050227700.0 0.9703997188 -0.2333300571
12100227400.0 0.9675107515 -0.2433093562
12150227100.0 0.9628558319 -0.2607388898
12200226800.0 0.9582583061 -0.2718700689
12250226500.0 0.9543074432 -0.2843160088
12300226200.0 0.9501117177 -0.2970644576
12350225900.0 0.9449451491 -0.311450148
12400225600.0 0.9405807627 -0.3233393863
12450225300.0 0.9364254404 -0.3356664777
12500225000.0 0.9306786801 -0.3509583152
12550224700.0 0.9255545168 -0.3645086602
12600224400.0 0.9206735133 -0.3772194448
12650224100.0 0.9148020848 -0.3914718872
12700223800.0 0.9095461837 -0.4043254241
12750223500.0 0.9040151273 -0.4173170662
12800223200.0 0.8985084709 -0.4300519646
12850222900.0 0.8934998024 -0.4423122482
12900222600.0 0.8878569271 -0.4543184642
12950222300.0 0.8814576263 -0.4665968817
13000222000.0 0.875897977 -0.4784070896
13050221700.0 0.8686689918 -0.4912414205
13100221400.0 0.8620782204 -0.5033826182
13150221100.0 0.8554489403 -0.5154473137
13200220800.0 0.8484324276 -0.5267191546
13250220500.0 0.841117742 -0.5393056949
13300220200.0 0.8336233846 -0.549929573
13350219900.0 0.8254578609 -0.5619927173
13400219600.0 0.8170106686 -0.5740107889
13450219300.0 0.8076683762 -0.5870587074
13500219000.0 0.797637762 -0.6004286936
13550218700.0 0.7882128405 -0.6126142045
13600218400.0 0.7778568077 -0.6250780028
13650218100.0 0.769010392 -0.6355791695
13700217800.0 0.7568139457 -0.647335994
13750217500.0 0.747965619 -0.6582015345
13800217200.0 0.7366704533 -0.6697899609
13850216900.0 0.7268356784 -0.6807259172
13900216600.0 0.7160935487 -0.6899212905
13950216300.0 0.7059049338 -0.7002714273
14000216000.0 0.6959124347 -0.7094584908
14050215700.0 0.6866084387 -0.7174983858
14100215400.0 0.6768543339 -0.7263368538
14150215100.0 0.667509132 -0.7351611669
14200214800.0 0.6581168687 -0.7440526176
14250214500.0 0.6476658079 -0.7534880448
14300214200.0 0.6373392296 -0.7629702197
14350213900.0 0.6264173661 -0.7724166814
14400213600.0 0.6142940943 -0.7823928237
14450213300.0 0.6013385689 -0.7927213219
14500213000.0 0.5878403264 -0.8024875791
14550212700.0 0.5759472848 -0.811623335
14600212400.0 0.56307107 -0.8203711996
14650212100.0 0.5507030054 -0.8294339471
14700211800.0 0.5367015431 -0.8385986646
14750211500.0 0.5250343457 -0.8474644211
14800211200.0 0.5125413222 -0.8555326928
14850210900.0 0.5002949299 -0.8629724666
14900210600.0 0.4868451091 -0.8709376141
14950210300.0 0.4737023292 -0.8784843495
15000210000.0 0.4608793535 -0.8853089553
15050209700.0 0.4482953308 -0.8915095238
15100209400.0 0.4355722806 -0.897385907
15150209100.0 0.4236474773 -0.9029031711
15200208800.0 0.4107121526 -0.9079011996
15250208500.0 0.3994244628 -0.9125703143
15300208200.0 0.3877270153 -0.9170637532
15350207900.0 0.3746234997 -0.9224080305
15400207600.0 0.3596728633 -0.9272824511
15450207300.0 0.3449565038 -0.9321032057
15500207000.0 0.3312920465 -0.9368960571
15550206700.0 0.3158467878 -0.942231986
15600206400.0 0.2994511811 -0.9466996956
15650206100.0 0.2841441153 -0.9511107252
15700205800.0 0.2704444974 -0.9543244061
15750205500.0 0.2563026085 -0.9580090192
15800205200.0 0.2423051954 -0.9612587434
15850204900.0 0.2279846962 -0.9648239738
15900204600.0 0.2130441123 -0.9684911482
15950204300.0 0.1985544782 -0.9715475149
16000204000.0 0.1844686558 -0.9747058501
16050203700.0 0.1691507288 -0.9774445878
16100203400.0 0.1542759075 -0.980272972
16150203100.0 0.1397694424 -0.9821842955
16200202800.0 0.1261824098 -0.984266183
16250202500.0 0.1104262417 -0.9858582783
16300202200.0 0.0953502911 -0.9873426863
16350201900.0 0.0800488637 -0.98921166
16400201600.0 0.0655653516 -0.9902917058
16450201300.0 0.0501768826 -0.9913081294
16500201000.0 0.0331007973 -0.9920639558
16550200700.0 0.0171528643 -0.9925956673
16600200400.0 0.0013174048 -0.992810944
16650200100.0 -0.0146465103 -0.9929801306
16700199800.0 -0.0310940124 -0.9922564434
16750199500.0 -0.050000695 -0.9912666982
16800199200.0 -0.0658451799 -0.9910496904
16850198900.0 -0.0813535714 -0.9898027622
16900198600.0 -0.0950311209 -0.9888598072
16950198300.0 -0.1083644024 -0.9877986686
17000198000.0 -0.1225538315 -0.9856688978
17050197700.0 -0.1348140514 -0.9843942881
17100197400.0 -0.1477609434 -0.9818464978
17150197100.0 -0.160744479 -0.9803905562
17200196800.0 -0.1729735849 -0.9778094085
17250196500.0 -0.1862483098 -0.9755978012
17300196200.0 -0.1981204163 -0.9732008266
17350195900.0 -0.2099477173 -0.9710644094
17400195600.0 -0.2221094056 -0.9684862643
17450195300.0 -0.2350186161 -0.9657327764
17500195000.0 -0.2483612894 -0.962502963
17550194700.0 -0.2625415936 -0.9584995334
17600194400.0 -0.2759901906 -0.9546953294
17650194100.0 -0.2894883604 -0.9508048592
17700193800.0 -0.3029080556 -0.946402921
17750193500.0 -0.3164703993 -0.9421993473
17800193200.0 -0.3312037704 -0.9365138469
17850192900.0 -0.345922293 -0.9313293654
17900192600.0 -0.3611780378 -0.9251109081
17950192300.0 -0.3769310442 -0.9182492486
18000192000.0 -0.3912473161 -0.9110390249
18050191700.0 -0.4053134908 -0.9030494186
18100191400.0 -0.4196026471 -0.8955106679
18150191100.0 -0.4344602258 -0.8873594037
18200190800.0 -0.4512303675 -0.8782297787
18250190500.0 -0.4682694192 -0.8691181923
18300190200.0 -0.4837227352 -0.8602368886
18350189900.0 -0.4990229534 -0.8518226363
18400189600.0 -0.513134964 -0.8434997838
18450189300.0 -0.5266615523 -0.8354181422
18500189000.0 -0.5402104127 -0.8274050587
18550188700.0 -0.5529629796 -0.8196373028
18600188400.0 -0.5646764564 -0.812627561
18650188100.0 -0.5759808358 -0.8064161654
18700187800.0 -0.5872153298 -0.7995425047
18750187500.0 -0.5976849573 -0.7928616632
18800187200.0 -0.6085821236 -0.7862496953
18850186900.0 -0.61863812 -0.7791379705
18900186600.0 -0.6290695033 -0.7717272654
18950186300.0 -0.6389755285 -0.7641302827
19000186000.0 -0.6464326774 -0.7578876324
19050185700.0 -0.6559489333 -0.7507043325
19100185400.0 -0.665635034 -0.7425275145
19150185100.0 -0.6760695031 -0.7339937404
19200184800.0 -0.6851883414 -0.725576964
19250184500.0 -0.6954610695 -0.7167537603
19300184200.0 -0.7071909951 -0.7079513779
19350183900.0 -0.7180450694 -0.6973653667
19400183600.0 -0.7277302672 -0.6878949364
19450183300.0 -0.736746672 -0.6775598906
19500183000.0 -0.7449288758 -0.6670949775
19550182700.0 -0.7540340219 -0.6560023035
19600182400.0 -0.7649339964 -0.6449463905
19650182100.0 -0.7754111347 -0.6324409364
19700181800.0 -0.785862818 -0.6191043878
19750181500.0 -0.7962354955 -0.6050579611
19800181200.0 -0.806647167 -0.5901584156
19850180900.0 -0.8162156337 -0.5747898963
19900180600.0 -0.8240301674 -0.5602053838
19950180300.0 -0.8332050138 -0.5437753757
20000180000.0 -0.8244527154 -0.5468862911
20050179700.0 -0.832048149 -0.5349123104
20100179400.0 -0.8405311091 -0.5211528533
20150179100.0 -0.8480222274 -0.5084874207
20200178800.0 -0.8569234174 -0.4972990252
20250178500.0 -0.8654364665 -0.4847351407
20300178200.0 -0.8759942048 -0.4698230477
20350177900.0 -0.8853701342 -0.4565232316
20400177600.0 -0.8944335754 -0.4417722677
20450177300.0 -0.9026773977 -0.427889713
20500177000.0 -0.9105617739 -0.4139895737
20550176700.0 -0.9187208861 -0.4005815558
20600176400.0 -0.9254003121 -0.3878171559
20650176100.0 -0.9321754947 -0.3753208958
20700175800.0 -0.9380176687 -0.3632023254
20750175500.0 -0.9452024493 -0.3516749226
20800175200.0 -0.9500327055 -0.3406842443
20850174900.0 -0.9542768817 -0.3300030303
20900174600.0 -0.9587721257 -0.3188113836
20950174300.0 -0.9629202276 -0.3078697472
21000174000.0 -0.9652315517 -0.2970023965
21050173700.0 -0.9676682344 -0.2875846285
21100173400.0 -0.9704260133 -0.2759583376
21150173100.0 -0.9749561631 -0.2639979962
21200172800.0 -0.9787395437 -0.2505216126
21250172500.0 -0.9822127034 -0.2369531409
21300172200.0 -0.9852390269 -0.2235090773
21350171900.0 -0.9877752452 -0.2087190761
21400171600.0 -0.9893254823 -0.194108932
21450171300.0 -0.9898373506 -0.1801589476
21500171000.0 -0.9903398323 -0.1644855991
21550170700.0 -0.9905228368 -0.14994044
21600170400.0 -0.9914781733 -0.1344958497
21650170100.0 -0.9913129967 -0.1188366527
21700169800.0 -0.989685507 -0.1038792295
21750169500.0 -0.9896202273 -0.0876533513
21800169200.0 -0.9898645735 -0.0710528101
21850168900.0 -0.98909029 -0.0540577541
21900168600.0 -0.9883781824 -0.037826886
21950168300.0 -0.9880898412 -0.021885542
22000168000.0 -0.9871069207 -0.0068527891
22050167700.0 -0.9880886887 0.0073314759
22100167400.0 -0.9887080614 0.0231698152
22150167100.0 -0.9896118067 0.0389250315
22200166800.0 -0.9896794902 0.0551464259
22250166500.0 -0.9889004997 0.0722763326
22300166200.0 -0.988792448 0.0892300132
22350165900.0 -0.9887228575 0.1059688141
22400165600.0 -0.9859872868 0.1218131029
22450165300.0 -0.9849795271 0.1366193106
22500165000.0 -0.9822647057 0.1501107505
22550164700.0 -0.9817474073 0.1661643919
22600164400.0 -0.9784648443 0.1824183031
22650164100.0 -0.9762321625 0.1973555293
22700163800.0 -0.9734324518 0.2133716953
22750163500.0 -0.9704643834 0.2288925465
22800163200.0 -0.9676839366 0.2412881479
22850162900.0 -0.9651542303 0.2550037961
22900162600.0 -0.9634555766 0.2687526853
22950162300.0 -0.9618946206 0.2819622821
23000162000.0 -0.9604570094 0.2950283381
23050161700.0 -0.9575804367 0.3074246901
23100161400.0 -0.9549733004 0.3214876386
23150161100.0 -0.9518105289 0.3338285941
23200160800.0 -0.9493723771 0.3467206557
23250160500.0 -0.9463874284 0.3586631686
23300160200.0 -0.9432005286 0.3712704352
23350159900.0 -0.9391884542 0.3847383969
23400159600.0 -0.9351262607 0.398290325
23450159300.0 -0.9302995408 0.4119837556
23500159000.0 -0.9247082249 0.4257991354
23550158700.0 -0.9201594276 0.4397984725
23600158400.0 -0.91425878 0.4533677602
23650158100.0 -0.9073219187 0.4679512966
23700157800.0 -0.8992117809 0.481774796
23750157500.0 -0.8896472145 0.4964925547
23800157200.0 -0.880486143 0.5094505748
23850156900.0 -0.8714386368 0.5225162891
23900156600.0 -0.8616797768 0.5350129127
23950156300.0 -0.8524515944 0.54676188
24000156000.0 -0.8425211777 0.5594859356
24050155700.0 -0.8329878352 0.5716084291
24100155400.0 -0.8218943592 0.584551135
24150155100.0 -0.8113384757 0.5968457042
24200154800.0 -0.8000533356 0.6078846076
24250154500.0 -0.7892349147 0.6201469952
24300154200.0 -0.7772486942 0.6320551669
24350153900.0 -0.7653983181 0.6430104
24400153600.0 -0.7527713059 0.6536821617
24450153300.0 -0.7411292816 0.6634113877
24500153000.0 -0.7293770499 0.6737731641
24550152700.0 -0.7175040864 0.6834022033
24600152400.0 -0.7059545948 0.692805027
24650152100.0 -0.6941925203 0.701834335
