!Created with skrf (http://scikit-rf.org).
# Hz S RI R 50.0 
!freq ReS11 ImS11
300000.0 -0.9758584765 -0.1125295353
50299700.0 -1.000122194 0.0158470389
100299400.0 -0.9980507692 0.0287267025
150299100.0 -1.002690649 0.0455826337
200298800.0 -0.9997794027 0.0589010083
250298500.0 -0.9975787593 0.07251053
300298200.0 -0.9859633968 0.0883997452
350297900.0 -0.9941060684 0.0991481823
400297600.0 -0.993232501 0.1157815396
450297300.0 -0.9910612217 0.1296183509
500297000.0 -0.9895521115 0.1443572948
550296700.0 -0.9844236351 0.1570012418
600296400.0 -1.017338793 0.190163303
650296100.0 -0.9822308974 0.1868887253
700295800.0 -0.9793042007 0.2010885935
750295500.0 -0.9763875227 0.2149565232
800295200.0 -0.972901026 0.2291222694
850294900.0 -0.9696103738 0.2429338756
900294600.0 -0.965702497 0.2569004902
950294300.0 -0.9620180658 0.2704235587
1000294000.0 -0.9580311963 0.2845468253
1050293700.0 -0.953543689 0.2981466799
1100293400.0 -0.9493835277 0.312655959
1150293100.0 -0.9454703639 0.3243784488
1200292800.0 -0.9401086018 0.3386543857
1250292500.0 -0.9344801065 0.352199922
1300292200.0 -0.9288597361 0.3653384091
1350291900.0 -0.9234423371 0.3795338378
1400291600.0 -0.91767985 0.3924725931
1450291300.0 -0.9123560915 0.4049556928
1500291000.0 -0.9061980904 0.4182142134
1550290700.0 -0.8995794928 0.4315667424
1600290400.0 -0.8933142059 0.4445668608
1650290100.0 -0.8867246362 0.4566914095
1700289800.0 -0.879680683 0.4701878729
1750289500.0 -0.8726197257 0.4826195528
1800289200.0 -0.8652830278 0.4953845798
1850288900.0 -0.8586195106 0.5066502442
1900288600.0 -0.8508513922 0.5195299883
1950288300.0 -0.8425395522 0.5321569441
2000288000.0 -0.8353112623 0.5436739129
2050287700.0 -0.8268366758 0.5557625495
2100287400.0 -0.8190649153 0.5674898793
2150287100.0 -0.8105379482 0.579650754
2200286800.0 -0.8026685538 0.5900549057
2250286500.0 -0.7939063197 0.6019743431
2300286200.0 -0.7848505638 0.6138247643
2350285900.0 -0.775925897 0.6245829141
2400285600.0 -0.7671651075 0.6357439463
2450285300.0 -0.7585372566 0.6462599063
2500285000.0 -0.7487612236 0.6572868467
2550284700.0 -0.7400144831 0.6676291254
2600284400.0 -0.7304553918 0.6777641207
2650284100.0 -0.7213180104 0.6885241427
2700283800.0 -0.7109088797 0.6987067698
2750283500.0 -0.7008604214 0.7094162277
2800283200.0 -0.6909249642 0.7193746154
2850282900.0 -0.680674546 0.7289569145
2900282600.0 -0.6701491491 0.7385861278
2950282300.0 -0.6599658249 0.7476660125
3000282000.0 -0.6494808451 0.7572152507
3050281700.0 -0.6379822885 0.7665263289
3100281400.0 -0.6261025085 0.7758486429
3150281100.0 -0.6143381826 0.7853523501
3200280800.0 -0.6027362825 0.7937746916
3250280500.0 -0.591932431 0.8014048961
3300280200.0 -0.5807262862 0.809302219
3350279900.0 -0.5691778464 0.8168156343
3400279600.0 -0.5570371422 0.8242743095
3450279300.0 -0.54584138 0.8316345407
3500279000.0 -0.5338751739 0.8387871304
3550278700.0 -0.5212866444 0.8459291955
3600278400.0 -0.5093263811 0.8532367283
3650278100.0 -0.4960499783 0.8609154269
3700277800.0 -0.4841206509 0.8672130975
3750277500.0 -0.4716416939 0.8737263452
3800277200.0 -0.4592453578 0.8803848296
3850276900.0 -0.4470369509 0.8861954127
3900276600.0 -0.4361685019 0.8917874374
3950276300.0 -0.4238905792 0.8977770432
4000276000.0 -0.4116520947 0.903660604
4050275700.0 -0.3987396832 0.9100374014
4100275400.0 -0.3876890247 0.9154637041
4150275100.0 -0.3749785496 0.9210377121
4200274800.0 -0.3619241947 0.9265301854
4250274500.0 -0.3496964975 0.9316594499
4300274200.0 -0.3366736047 0.9367720172
4350273900.0 -0.3229684568 0.9419934099
4400273600.0 -0.3080485479 0.9476695923
4450273300.0 -0.2926614861 0.952466228
4500273000.0 -0.2788438249 0.9567979313
4550272700.0 -0.2647381007 0.9610897397
4600272400.0 -0.2493650269 0.9651757962
4650272100.0 -0.2376632496 0.9685530119
4700271800.0 -0.2242680345 0.9718170224
4750271500.0 -0.2124825371 0.9747941154
4800271200.0 -0.2000216546 0.9774598828
4850270900.0 -0.1861747307 0.9801801389
4900270600.0 -0.1721347238 0.9825787803
4950270300.0 -0.1580243136 0.9852758969
5000270000.0 -0.1436990035 0.9875840791
5050269700.0 -0.1301661092 0.9888229957
5100269400.0 -0.116713498 0.9905451359
5150269100.0 -0.10344746 0.9925731767
5200268800.0 -0.0901705352 0.9929644608
5250268500.0 -0.0772722202 0.9942683696
5300268200.0 -0.064198522 0.9946739041
5350267900.0 -0.0518983149 0.9953914712
5400267600.0 -0.035619137 0.9965150167
5450267300.0 -0.0226804963 0.9966118873
5500267000.0 -0.0073672206 0.9971192964
5550266700.0 0.0075912425 0.9973830383
5600266400.0 0.0231067485 0.997158241
5650266100.0 0.0395361034 0.9970384647
5700265800.0 0.0540437324 0.9961401771
5750265500.0 0.0692254109 0.9953757026
5800265200.0 0.0833445709 0.9941156817
5850264900.0 0.0965210237 0.9932732967
5900264600.0 0.1130151883 0.9910451745
5950264300.0 0.1253570361 0.990112852
6000264000.0 0.1396199981 0.9883074595
6050263700.0 0.1519497616 0.9867247966
6100263400.0 0.1645094372 0.9849473133
6150263100.0 0.1790079569 0.9826485355
6200262800.0 0.1895004425 0.9808912426
6250262500.0 0.2019624577 0.9783415017
6300262200.0 0.2149381453 0.9753114725
6350261900.0 0.2278992696 0.9724559412
6400261600.0 0.241655932 0.9691519076
6450261300.0 0.2531444166 0.9663566881
6500261000.0 0.2655769726 0.9629395239
6550260700.0 0.2788288676 0.9589602271
6600260400.0 0.292298542 0.954752018
6650260100.0 0.306147278 0.9507516206
6700259800.0 0.3181061401 0.9464449546
6750259500.0 0.3319549739 0.9411565089
6800259200.0 0.3451720207 0.9365332675
6850258900.0 0.3571364169 0.9313583322
6900258600.0 0.3688705064 0.9261921734
6950258300.0 0.3815958043 0.9208510838
7000258000.0 0.3938351009 0.9156591512
7050257700.0 0.4060510886 0.9093166087
7100257400.0 0.4186615647 0.9032388783
7150257100.0 0.4289627987 0.8979409128
7200256800.0 0.4416933231 0.8915326052
7250256500.0 0.453461175 0.885254164
7300256200.0 0.4668708431 0.8787417476
7350255900.0 0.4791403438 0.8715584068
7400255600.0 0.4923315193 0.8643444599
7450255300.0 0.5073432819 0.8553822908
7500255000.0 0.5190727609 0.8483499278
7550254700.0 0.532814461 0.8393981282
7600254400.0 0.5457778236 0.8314773208
7650254100.0 0.5571052303 0.8237176071
7700253800.0 0.5691981493 0.8155552912
7750253500.0 0.5803479355 0.8076347543
7800253200.0 0.5909416154 0.7999899338
7850252900.0 0.6007526202 0.7930192321
7900252600.0 0.6123624869 0.7842338023
7950252300.0 0.6212349171 0.7777323533
8000252000.0 0.6314827971 0.7696921661
8050251700.0 0.6418579575 0.7616886683
8100251400.0 0.652052991 0.7534145625
8150251100.0 0.6619433933 0.7445547419
8200250800.0 0.6715264295 0.7367754621
8250250500.0 0.6802484108 0.7288346965
8300250200.0 0.6897004972 0.7202426065
8350249900.0 0.6986186943 0.7115528311
8400249600.0 0.707055786 0.7036882836
8450249300.0 0.7162177701 0.694343429
8500249000.0 0.7247656477 0.6855934848
8550248700.0 0.7329338215 0.6764647271
8600248400.0 0.7414432753 0.6670593454
8650248100.0 0.7491087209 0.657667563
8700247800.0 0.7586321291 0.6464547475
8750247500.0 0.7670362673 0.6362842708
8800247200.0 0.7753040489 0.6259000467
8850246900.0 0.7836573855 0.6145965281
8900246600.0 0.7923525468 0.6031696186
8950246300.0 0.8019085391 0.5902158057
9000246000.0 0.8113461632 0.5773442926
9050245700.0 0.8206612184 0.5644289695
9100245400.0 0.8291083556 0.5518300279
9150245100.0 0.8383514813 0.5381678773
9200244800.0 0.8483934089 0.5228656055
9250244500.0 0.8578951405 0.5069206323
9300244200.0 0.8662345246 0.4924160076
9350243900.0 0.8738723239 0.4785164027
9400243600.0 0.8804890911 0.4660053312
9450243300.0 0.8864512819 0.4543757169
9500243000.0 0.8927138343 0.4421919486
9550242700.0 0.8963888734 0.4344069532
9600242400.0 0.9000836212 0.4270135092
9650242100.0 0.9037606126 0.4206806542
9700241800.0 0.9081859144 0.4125283443
9750241500.0 0.9120510724 0.4049708334
9800241200.0 0.916877744 0.395864926
9850240900.0 0.9225879244 0.3841951026
9900240600.0 0.9283318203 0.3724131464
9950240300.0 0.9348672583 0.3564384821
10000240000.0 0.9392252028 0.3451788547
10050239700.0 0.9450252033 0.329733377
10100239400.0 0.9502873604 0.3137957638
10150239100.0 0.9542925262 0.2994668196
10200238800.0 0.9584997813 0.2844456689
10250238500.0 0.9618786357 0.2711207923
10300238200.0 0.9648522062 0.257159642
10350237900.0 0.9677222165 0.2440633754
10400237600.0 0.9700972168 0.2308085961
10450237300.0 0.9729164707 0.2172934547
10500237000.0 0.9750442459 0.205460452
10550236700.0 0.9772749355 0.1912248806
10600236400.0 0.97918927 0.1776079604
10650236100.0 0.9812488101 0.1629735689
10700235800.0 0.9835603659 0.1510697909
10750235500.0 0.9858097314 0.1380374197
10800235200.0 0.9876411807 0.1237552143
10850234900.0 0.989463777 0.109172591
10900234600.0 0.9918427108 0.0945465295
10950234300.0 0.9934822232 0.0812172378
11000234000.0 0.9952596131 0.0660317932
11050233700.0 0.9969043878 0.0497283184
11100233400.0 0.9985105768 0.0322073979
11150233100.0 0.9993535129 0.0157692103
11200232800.0 1.000022002 0.0010900988
11250232500.0 1.00091122 -0.0155654817
11300232200.0 1.001785041 -0.0335627102
11350231900.0 1.001236002 -0.049464963
11400231600.0 1.00165859 -0.0650796276
11450231300.0 1.000543033 -0.0802769753
11500231000.0 0.999382367 -0.0970553532
11550230700.0 0.9983918988 -0.1101718976
11600230400.0 0.9973483244 -0.1226263123
11650230100.0 0.9946761744 -0.1344982101
11700229800.0 0.9927222792 -0.1495235783
11750229500.0 0.9904508421 -0.1631653137
11800229200.0 0.9878140129 -0.1774578286
11850228900.0 0.9842000696 -0.1898588476
11900228600.0 0.9807982356 -0.1995431883
11950228300.0 0.9775941572 -0.2098208179
12000228000.0 0.9749514149 -0.2185084844
12050227700.0 0.9709634305 -0.232220838
12100227400.0 0.9682381354 -0.2421743303
12150227100.0 0.9627168171 -0.2592732531
12200226800.0 0.9595520006 -0.2699871105
12250226500.0 0.9553428531 -0.2828425921
12300226200.0 0.9514584941 -0.2946562976
12350225900.0 0.9464491688 -0.3094290308
12400225600.0 0.9417109605 -0.322322433
12450225300.0 0.937258808 -0.3343265907
12500225000.0 0.9323247605 -0.3493329996
12550224700.0 0.9268620275 -0.3630293885
12600224400.0 0.9218767801 -0.3756659972
12650224100.0 0.916053706 -0.390100838
12700223800.0 0.9107692087 -0.4028966825
12750223500.0 0.9053222672 -0.4159020093
12800223200.0 0.899882868 -0.4282622547
12850222900.0 0.8945144321 -0.4408921649
12900222600.0 0.8889319786 -0.4527764779
12950222300.0 0.8823474806 -0.4653732978
13000222000.0 0.8768094092 -0.4767566467
13050221700.0 0.8696992256 -0.4893479056
13100221400.0 0.8633796365 -0.5012369263
13150221100.0 0.8560395684 -0.5139218763
13200220800.0 0.8492612905 -0.5255463121
13250220500.0 0.8417980511 -0.5378379255
13300220200.0 0.8342733674 -0.5483605969
13350219900.0 0.8264780999 -0.5606075001
13400219600.0 0.8179226191 -0.5726118615
13450219300.0 0.8084459197 -0.5865756562
13500219000.0 0.7988013392 -0.6004091413
13550218700.0 0.787885648 -0.6132661717
13600218400.0 0.7778953771 -0.6253048469
13650218100.0 0.7677768129 -0.6360727264
13700217800.0 0.7575916475 -0.6491298657
13750217500.0 0.7464543736 -0.6608881652
13800217200.0 0.7352034374 -0.6718529924
13850216900.0 0.7241883136 -0.6838285589
13900216600.0 0.7153168359 -0.6923360377
13950216300.0 0.7036704422 -0.7025180968
14000216000.0 0.6943105854 -0.7117131268
14050215700.0 0.6845049498 -0.7203795521
14100215400.0 0.6745168994 -0.7293737442
14150215100.0 0.6654557516 -0.7375354167
14200214800.0 0.6561979307 -0.7460768609
14250214500.0 0.6459078494 -0.7554047712
14300214200.0 0.6354606133 -0.7646808779
14350213900.0 0.6246605933 -0.7740182008
14400213600.0 0.6123904044 -0.7840343586
14450213300.0 0.5997369289 -0.7939335512
14500213000.0 0.5863180197 -0.8039696154
14550212700.0 0.5737535412 -0.8135320914
14600212400.0 0.5613198269 -0.8223136367
14650212100.0 0.5483000626 -0.8312771667
14700211800.0 0.534660091 -0.8406266585
14750211500.0 0.5223588661 -0.8486805705
14800211200.0 0.5101944135 -0.8566765942
14850210900.0 0.4980225203 -0.8639537656
14900210600.0 0.4844519112 -0.8720212808
14950210300.0 0.4713514027 -0.8796056696
15000210000.0 0.4585387035 -0.886306864
15050209700.0 0.4462553368 -0.892732504
15100209400.0 0.4330418214 -0.898363887
15150209100.0 0.4209517065 -0.9041192603
15200208800.0 0.407716537 -0.909449281
15250208500.0 0.3967359114 -0.9139422393
15300208200.0 0.3843259945 -0.9181404759
15350207900.0 0.3716601281 -0.9233369578
15400207600.0 0.3563570484 -0.9284683809
15450207300.0 0.3418614605 -0.9341597617
15500207000.0 0.3269173386 -0.9382619745
15550206700.0 0.3127110473 -0.9431944688
15600206400.0 0.2963120449 -0.9472989234
15650206100.0 0.2807632504 -0.9520024036
15700205800.0 0.2668301076 -0.9555611388
15750205500.0 0.2521502816 -0.9593752507
15800205200.0 0.2377138689 -0.9626630866
15850204900.0 0.2233080325 -0.9660806382
15900204600.0 0.208296305 -0.9696906885
15950204300.0 0.1942642222 -0.9726630974
16000204000.0 0.1804481818 -0.9754006804
16050203700.0 0.1654673163 -0.9782264433
16100203400.0 0.1511183689 -0.9801713808
16150203100.0 0.1368599668 -0.9821973038
16200202800.0 0.1226086057 -0.984419931
16250202500.0 0.1080614084 -0.9863857228
16300202200.0 0.0925836434 -0.9879374675
16350201900.0 0.0778365011 -0.9890930243
16400201600.0 0.0632764513 -0.9901142983
16450201300.0 0.0479803271 -0.9912543524
16500201000.0 0.0314198988 -0.9919947768
16550200700.0 0.015780482 -0.9924933923
16600200400.0 4.58369e-05 -0.9928220596
16650200100.0 -0.0158778719 -0.9925597928
16700199800.0 -0.0327750146 -0.9919390948
16750199500.0 -0.0512888361 -0.9912142213
16800199200.0 -0.0675583966 -0.990414825
16850198900.0 -0.0826422068 -0.9897351224
16900198600.0 -0.0970218603 -0.9879843793
16950198300.0 -0.1094782418 -0.9870528087
17000198000.0 -0.123112451 -0.9851194427
17050197700.0 -0.1348714227 -0.983796055
17100197400.0 -0.1478047337 -0.9821080215
17150197100.0 -0.1603403621 -0.979649294
17200196800.0 -0.1734225201 -0.977526461
17250196500.0 -0.1864520343 -0.9755123877
17300196200.0 -0.1985630948 -0.9728483516
17350195900.0 -0.2104661133 -0.970633837
17400195600.0 -0.2228705448 -0.9682873335
17450195300.0 -0.2359070468 -0.965489855
17500195000.0 -0.2496334944 -0.9623330253
17550194700.0 -0.2633683623 -0.9585083692
17600194400.0 -0.2773102082 -0.9546996296
17650194100.0 -0.2908771242 -0.9502844568
17700193800.0 -0.3038089664 -0.9461220627
17750193500.0 -0.3178438061 -0.9417037751
17800193200.0 -0.3327566205 -0.9362627892
17850192900.0 -0.3479139858 -0.9310732015
17900192600.0 -0.3625865094 -0.9246149883
17950192300.0 -0.3784759832 -0.9176365373
18000192000.0 -0.3929818885 -0.9103282914
18050191700.0 -0.4067678413 -0.9027454606
18100191400.0 -0.4209364386 -0.8949509751
18150191100.0 -0.4358767703 -0.8868217449
18200190800.0 -0.4529140578 -0.8775983265
18250190500.0 -0.4698346606 -0.8682129037
18300190200.0 -0.4853274963 -0.859229852
18350189900.0 -0.5003374078 -0.8509426161
18400189600.0 -0.5146986226 -0.842519163
18450189300.0 -0.5273803746 -0.8349879587
18500189000.0 -0.5412098257 -0.8265767588
18550188700.0 -0.5537176764 -0.8188990303
18600188400.0 -0.5653450156 -0.8126467341
18650188100.0 -0.5763245522 -0.8056234124
18700187800.0 -0.5871941502 -0.7992484769
18750187500.0 -0.5980636952 -0.7927326616
18800187200.0 -0.6088302491 -0.7856819723
18850186900.0 -0.6189533916 -0.77854506
18900186600.0 -0.6294502506 -0.7711669312
18950186300.0 -0.6393068443 -0.7633087159
19000186000.0 -0.646441049 -0.7575171066
19050185700.0 -0.6558766056 -0.7499134026
19100185400.0 -0.6660067657 -0.7417518199
19150185100.0 -0.6760032185 -0.7330158326
19200184800.0 -0.685473845 -0.724937183
19250184500.0 -0.6960504545 -0.7152760341
19300184200.0 -0.7070271403 -0.7056838124
19350183900.0 -0.7181901128 -0.696928492
19400183600.0 -0.7279085512 -0.6866772727
19450183300.0 -0.7366293598 -0.6769851674
19500183000.0 -0.7453030099 -0.6666736755
19550182700.0 -0.7544728435 -0.6553088348
19600182400.0 -0.7646607434 -0.6436802034
19650182100.0 -0.7753912749 -0.6317592573
19700181800.0 -0.7863697797 -0.6184201227
19750181500.0 -0.7970803344 -0.6042902383
19800181200.0 -0.8072002123 -0.5892127872
19850180900.0 -0.8168752754 -0.5740758172
19900180600.0 -0.8246337874 -0.5593598595
19950180300.0 -0.8339556921 -0.5432128274
20000180000.0 -0.8266723391 -0.5451371817
20050179700.0 -0.8354820926 -0.53279035
20100179400.0 -0.8434539695 -0.5182653048
20150179100.0 -0.852196406 -0.5065386338
20200178800.0 -0.8592165809 -0.494065308
20250178500.0 -0.8701030069 -0.4792537763
20300178200.0 -0.8793990496 -0.4656650673
20350177900.0 -0.8885437098 -0.4507238333
20400177600.0 -0.8975360448 -0.4358855721
20450177300.0 -0.9053671831 -0.4216447072
20500177000.0 -0.9135133508 -0.4077907429
20550176700.0 -0.9214561472 -0.3939231494
20600176400.0 -0.9286065729 -0.3811169915
20650176100.0 -0.9350121452 -0.3680568651
20700175800.0 -0.941572716 -0.3561355951
20750175500.0 -0.9481586624 -0.3445313999
20800175200.0 -0.9531496618 -0.3344873127
20850174900.0 -0.9587233057 -0.3223438913
20900174600.0 -0.9625184028 -0.3119082764
20950174300.0 -0.9666731652 -0.2998873854
21000174000.0 -0.9704801696 -0.2884003543
21050173700.0 -0.973010247 -0.277928984
21100173400.0 -0.9775949794 -0.2649319193
21150173100.0 -0.9812760643 -0.252389939
21200172800.0 -0.9845406311 -0.2386428716
21250172500.0 -0.9876860723 -0.2255904688
21300172200.0 -0.990498509 -0.2107027574
21350171900.0 -0.9923051544 -0.197149475
21400171600.0 -0.9929229826 -0.1824056908
21450171300.0 -0.9931655654 -0.1674520485
21500171000.0 -0.9936056412 -0.1529891181
21550170700.0 -0.9934044307 -0.1374886917
21600170400.0 -0.9926536336 -0.1209587759
21650170100.0 -0.9915558928 -0.1057313195
21700169800.0 -0.9903590711 -0.0894839205
21750169500.0 -0.9890488597 -0.0754142205
21800169200.0 -0.9876288741 -0.0590883456
21850168900.0 -0.9875431727 -0.0415944437
21900168600.0 -0.9858425707 -0.0257128833
21950168300.0 -0.9837820517 -0.0099832578
22000168000.0 -0.9831271226 0.0052362548
22050167700.0 -0.982613448 0.0193248176
22100167400.0 -0.9825887199 0.0345159672
22150167100.0 -0.9832372115 0.0499248051
22200166800.0 -0.983733483 0.066450202
22250166500.0 -0.9825119783 0.0835508227
22300166200.0 -0.9823417994 0.1005825308
22350165900.0 -0.9804985669 0.1169508887
22400165600.0 -0.979523756 0.1322035782
22450165300.0 -0.9772474359 0.1478536754
22500165000.0 -0.9749921012 0.160988534
22550164700.0 -0.9747186465 0.1769902234
22600164400.0 -0.9722816899 0.1913897608
22650164100.0 -0.9702537442 0.2064535259
22700163800.0 -0.9674675431 0.2230173336
22750163500.0 -0.96528322 0.2381224956
22800163200.0 -0.9627566497 0.2514007279
22850162900.0 -0.9599331189 0.2648194538
22900162600.0 -0.9585309289 0.2781628943
22950162300.0 -0.9577464293 0.2908802907
23000162000.0 -0.9567078917 0.3024508066
23050161700.0 -0.9545063737 0.3147689745
23100161400.0 -0.9526444783 0.3279641987
23150161100.0 -0.949139632 0.3405680057
23200160800.0 -0.9472935499 0.3523787391
23250160500.0 -0.9441101691 0.3642533926
23300160200.0 -0.9422182068 0.3764657813
23350159900.0 -0.938580235 0.3883512745
23400159600.0 -0.9333585724 0.4020077424
23450159300.0 -0.9284117783 0.415212601
23500159000.0 -0.9239038165 0.4280596957
23550158700.0 -0.9193622037 0.4415167467
23600158400.0 -0.9142552407 0.4546671511
23650158100.0 -0.907649652 0.4683622387
23700157800.0 -0.9003314426 0.4822933468
23750157500.0 -0.891650771 0.4963334433
23800157200.0 -0.8829327539 0.509642618
23850156900.0 -0.8737505886 0.5223862661
23900156600.0 -0.8645379583 0.5351102128
23950156300.0 -0.855430123 0.5470465207
24000156000.0 -0.8465535689 0.5580531986
24050155700.0 -0.8363079026 0.5704033544
24100155400.0 -0.8261926186 0.5830127252
24150155100.0 -0.8162896921 0.5941106838
24200154800.0 -0.8047182476 0.6065243788
24250154500.0 -0.792984029 0.6177612789
24300154200.0 -0.7823230704 0.6290565306
24350153900.0 -0.7705066016 0.639546162
24400153600.0 -0.7579668294 0.6497427438
24450153300.0 -0.7458170011 0.659805266
24500153000.0 -0.7346488353 0.6692053543
24550152700.0 -0.7236044215 0.6790430586
24600152400.0 -0.7118390168 0.6874360079
24650152100.0 -0.7005455615 0.6962844579
