!Created with skrf (http://scikit-rf.org).
# Hz S RI R 50.0 
!freq ReS11 ImS11
300000.0 -0.9733132451 -0.1255525064
50299700.0 -0.9997906301 0.0149327878
100299400.0 -0.9978811072 0.0279603213
150299100.0 -1.002710326 0.0447194711
200298800.0 -0.999458572 0.0581812311
250298500.0 -0.9972913995 0.0716099906
300298200.0 -0.9858247947 0.0872167895
350297900.0 -0.9939033119 0.0982529513
400297600.0 -0.9930880345 0.1149978108
450297300.0 -0.9910692974 0.1285871801
500297000.0 -0.9893178623 0.1433660957
550296700.0 -0.9843113195 0.1557347019
600296400.0 -1.017238756 0.1889682501
650296100.0 -0.9821764013 0.1858890584
700295800.0 -0.9792169861 0.1999716096
750295500.0 -0.9763129236 0.2138471258
800295200.0 -0.9730119782 0.228005384
850294900.0 -0.9696899523 0.2417981524
900294600.0 -0.9658234049 0.2554541513
950294300.0 -0.9621037407 0.2692542172
1000294000.0 -0.9580889008 0.2830873593
1050293700.0 -0.9538497173 0.2968907377
1100293400.0 -0.9494273378 0.3112267083
1150293100.0 -0.9455429384 0.3234164525
1200292800.0 -0.9402335707 0.3377465987
1250292500.0 -0.9347000515 0.3511910749
1300292200.0 -0.9290612674 0.3643646769
1350291900.0 -0.923468841 0.3783706577
1400291600.0 -0.9180201142 0.39147219
1450291300.0 -0.9125969316 0.4039332738
1500291000.0 -0.9063301793 0.4172459342
1550290700.0 -0.8996734801 0.4306959868
1600290400.0 -0.8934887515 0.4438107468
1650290100.0 -0.8868646777 0.4556194046
1700289800.0 -0.879698752 0.4693644418
1750289500.0 -0.8728891277 0.4814248131
1800289200.0 -0.8655806365 0.4944433184
1850288900.0 -0.8587048272 0.5057989504
1900288600.0 -0.851133024 0.5187666654
1950288300.0 -0.8430557214 0.531375312
2000288000.0 -0.8354126036 0.5427778802
2050287700.0 -0.8271196379 0.5551894397
2100287400.0 -0.8194556464 0.5665185308
2150287100.0 -0.8109764419 0.5786963403
2200286800.0 -0.8030110001 0.5891096653
2250286500.0 -0.7940596407 0.601250469
2300286200.0 -0.7851957353 0.6129564809
2350285900.0 -0.7767888585 0.6232147254
2400285600.0 -0.7681890703 0.6342504082
2450285300.0 -0.7590284123 0.6448608611
2500285000.0 -0.7491111617 0.6565996042
2550284700.0 -0.7400745965 0.6671015877
2600284400.0 -0.7308994164 0.6768800013
2650284100.0 -0.7223308581 0.6870414624
2700283800.0 -0.7121137343 0.6974978328
2750283500.0 -0.7016879595 0.7080858058
2800283200.0 -0.6918073159 0.7182279334
2850282900.0 -0.6813320532 0.7282912572
2900282600.0 -0.6706828869 0.7379179494
2950282300.0 -0.6602837858 0.7472005543
3000282000.0 -0.6495504156 0.7565376647
3050281700.0 -0.6383495674 0.7658697537
3100281400.0 -0.6268113157 0.7749549781
3150281100.0 -0.6155321354 0.7839342091
3200280800.0 -0.604120663 0.7921700114
3250280500.0 -0.5931435682 0.8001678058
3300280200.0 -0.5814780043 0.8085419199
3350279900.0 -0.5691160859 0.8165608494
3400279600.0 -0.5566921437 0.8247144102
3450279300.0 -0.5455233941 0.8316506197
3500279000.0 -0.5337205186 0.8386268684
3550278700.0 -0.5215552499 0.8456611008
3600278400.0 -0.5098578085 0.8524285243
3650278100.0 -0.4970517916 0.8600967643
3700277800.0 -0.4847648631 0.8665114534
3750277500.0 -0.4723616615 0.8731737403
3800277200.0 -0.460047096 0.8797668628
3850276900.0 -0.4478203361 0.8855103889
3900276600.0 -0.4368662004 0.8912862087
3950276300.0 -0.4248881594 0.8969179198
4000276000.0 -0.4134308122 0.9029090802
4050275700.0 -0.4002313663 0.9091425161
4100275400.0 -0.3896685644 0.9145343412
4150275100.0 -0.3762656073 0.9206859738
4200274800.0 -0.3627445239 0.9260698674
4250274500.0 -0.349995784 0.9315196737
4300274200.0 -0.3367096452 0.9367163305
4350273900.0 -0.3224400971 0.9419688855
4400273600.0 -0.3078904543 0.9473081603
4450273300.0 -0.2928048948 0.9520603719
4500273000.0 -0.2797037197 0.9560744012
4550272700.0 -0.2661060285 0.9605197257
4600272400.0 -0.2510555045 0.9647733158
4650272100.0 -0.2398665642 0.9677395599
4700271800.0 -0.2267357392 0.9711877234
4750271500.0 -0.2151874328 0.9738330209
4800271200.0 -0.2029631855 0.9765231256
4850270900.0 -0.1892124162 0.979389716
4900270600.0 -0.1755113298 0.9819759837
4950270300.0 -0.1608698023 0.9843633601
5000270000.0 -0.1464001789 0.9868295722
5050269700.0 -0.1328193823 0.9882251837
5100269400.0 -0.1188086819 0.9898555597
5150269100.0 -0.1048036456 0.9919138924
5200268800.0 -0.0914639591 0.9927933245
5250268500.0 -0.0785167091 0.993373269
5300268200.0 -0.0645695821 0.9944371478
5350267900.0 -0.0516797214 0.994961546
5400267600.0 -0.0353847349 0.9962640077
5450267300.0 -0.0221844703 0.9967136509
5500267000.0 -0.0068635556 0.9970975029
5550266700.0 0.0081653343 0.9973207209
5600266400.0 0.0239668114 0.9972944927
5650266100.0 0.040726388 0.9967864512
5700265800.0 0.0551476012 0.9961090456
5750265500.0 0.0695510162 0.9949337314
5800265200.0 0.083152372 0.9935640714
5850264900.0 0.0964144027 0.9932525712
5900264600.0 0.1133801087 0.9917007241
5950264300.0 0.1244640098 0.9894736122
6000264000.0 0.1381703917 0.9878899137
6050263700.0 0.1494428403 0.986413984
6100263400.0 0.1619046341 0.9847575501
6150263100.0 0.1764983529 0.9826275357
6200262800.0 0.1861055295 0.9810091835
6250262500.0 0.1986254846 0.9786601483
6300262200.0 0.210787723 0.9762095585
6350261900.0 0.2235950645 0.9734246159
6400261600.0 0.2376182978 0.9703652745
6450261300.0 0.2484209162 0.9678816934
6500261000.0 0.2617328168 0.9640775723
6550260700.0 0.2750020414 0.9601371045
6600260400.0 0.2884486617 0.9560781586
6650260100.0 0.3025934532 0.9515568785
6700259800.0 0.3150097256 0.9474043583
6750259500.0 0.3280907986 0.9425500638
6800259200.0 0.3420495894 0.9374732447
6850258900.0 0.3543269265 0.9321109941
6900258600.0 0.3669052195 0.9268231571
6950258300.0 0.3796987199 0.9215558698
7000258000.0 0.3911732363 0.9163228022
7050257700.0 0.4030475296 0.9104664932
7100257400.0 0.4164573012 0.9042415213
7150257100.0 0.4270952648 0.8986208428
7200256800.0 0.4405411861 0.8922559248
7250256500.0 0.4529844096 0.8855183054
7300256200.0 0.4657866835 0.8784202145
7350255900.0 0.478847719 0.8716483249
7400255600.0 0.4928374815 0.8638969594
7450255300.0 0.5084184838 0.854944103
7500255000.0 0.521346303 0.847366729
7550254700.0 0.5358037937 0.8382052786
7600254400.0 0.5479371094 0.8295780195
7650254100.0 0.5596155287 0.8218202468
7700253800.0 0.5711970058 0.813720023
7750253500.0 0.5820110739 0.8062690167
7800253200.0 0.592680821 0.7983352061
7850252900.0 0.6026252622 0.7911859844
7900252600.0 0.6138360979 0.7825914895
7950252300.0 0.6223755257 0.7760564364
8000252000.0 0.6323632084 0.7685190636
8050251700.0 0.6424157646 0.7604525136
8100251400.0 0.6524548147 0.7523905219
8150251100.0 0.6623311458 0.7441260978
8200250800.0 0.6720015035 0.735768846
8250250500.0 0.680644277 0.727870967
8300250200.0 0.6897307645 0.7197419349
8350249900.0 0.6990424368 0.7107647224
8400249600.0 0.7072478331 0.7027504984
8450249300.0 0.7157147016 0.6940135645
8500249000.0 0.7244037831 0.6853684844
8550248700.0 0.7327877589 0.6762902367
8600248400.0 0.7410352648 0.6667273553
8650248100.0 0.7487260247 0.6572321768
8700247800.0 0.7579003995 0.6462151259
8750247500.0 0.7661980964 0.6362470038
8800247200.0 0.7742212209 0.6259381552
8850246900.0 0.7827968168 0.614449755
8900246600.0 0.7912372135 0.6032458307
8950246300.0 0.8005843605 0.5904160037
9000246000.0 0.809164701 0.5785673691
9050245700.0 0.8175524518 0.5662387536
9100245400.0 0.8258339023 0.554068138
9150245100.0 0.8343888884 0.5414539919
9200244800.0 0.8441950242 0.5269716969
9250244500.0 0.8532559424 0.5123279396
9300244200.0 0.8610437319 0.4990070738
9350243900.0 0.8687298991 0.4857931718
9400243600.0 0.8751578276 0.4743433167
9450243300.0 0.8807610274 0.4637098027
9500243000.0 0.886959601 0.4521795753
9550242700.0 0.890992088 0.4447959934
9600242400.0 0.8954247241 0.4371401856
9650242100.0 0.899560008 0.4298720699
9700241800.0 0.9044362076 0.4213896945
9750241500.0 0.9086461632 0.413899369
9800241200.0 0.9138557442 0.4044032716
9850240900.0 0.9196436788 0.3927061632
9900240600.0 0.9255054076 0.3808895927
9950240300.0 0.9329001253 0.3637559132
10000240000.0 0.9378520537 0.3515929109
10050239700.0 0.9438389134 0.3357746496
10100239400.0 0.9491957499 0.3194153601
10150239100.0 0.9540508722 0.3032407768
10200238800.0 0.9582805357 0.2877237317
10250238500.0 0.9615233838 0.2744314339
10300238200.0 0.9647223314 0.2603969161
10350237900.0 0.9675425172 0.2469730629
10400237600.0 0.9701941628 0.2333644244
10450237300.0 0.9724815755 0.2201332697
10500237000.0 0.975037192 0.207231574
10550236700.0 0.9774119241 0.1929516304
10600236400.0 0.9793078895 0.1792728043
10650236100.0 0.9817845036 0.1641420603
10700235800.0 0.9839473157 0.152210493
10750235500.0 0.9859056595 0.1385957232
10800235200.0 0.9880853023 0.1241671751
10850234900.0 0.9900567495 0.10953632
10900234600.0 0.9921349254 0.0945542883
10950234300.0 0.9939335761 0.081111959
11000234000.0 0.9956208133 0.0654677827
11050233700.0 0.9974476975 0.0486625299
11100233400.0 0.9988665931 0.0308822884
11150233100.0 0.9999108289 0.0145302949
11200232800.0 1.000741618 -0.0022485221
11250232500.0 1.00177097 -0.0197975399
11300232200.0 1.001967506 -0.0383244487
11350231900.0 1.00196209 -0.0547149115
11400231600.0 1.001419476 -0.0699222179
11450231300.0 1.001403947 -0.0857698823
11500231000.0 0.999377472 -0.1025482576
11550230700.0 0.9982202113 -0.1154697224
11600230400.0 0.9970308375 -0.1283702876
11650230100.0 0.9949310811 -0.1398756081
11700229800.0 0.9924975963 -0.1549239983
11750229500.0 0.9900814151 -0.1694192352
11800229200.0 0.9871736968 -0.1825305042
11850228900.0 0.9835191802 -0.1938877626
11900228600.0 0.9798351195 -0.2036734997
11950228300.0 0.9761751829 -0.2137070794
12000228000.0 0.9736227481 -0.2224705364
12050227700.0 0.9699248246 -0.235043301
12100227400.0 0.9666739589 -0.2459112252
12150227100.0 0.9614230987 -0.2623800251
12200226800.0 0.9581986242 -0.2737705381
12250226500.0 0.9535347004 -0.2865539963
12300226200.0 0.949413015 -0.299372676
12350225900.0 0.9441512799 -0.3129851989
12400225600.0 0.9400131457 -0.3252288268
12450225300.0 0.9355223857 -0.3376844667
12500225000.0 0.929958579 -0.352032782
12550224700.0 0.9247304808 -0.3657263618
12600224400.0 0.9196601579 -0.3785382065
12650224100.0 0.9139087539 -0.3930118051
12700223800.0 0.9086257095 -0.4056871773
12750223500.0 0.9032355135 -0.4186299107
12800223200.0 0.8977646407 -0.4316324498
12850222900.0 0.892490667 -0.4436758398
12900222600.0 0.8870460344 -0.4551844985
12950222300.0 0.8808825047 -0.4683679514
13000222000.0 0.8748592327 -0.4795554971
13050221700.0 0.8681997624 -0.4923388594
13100221400.0 0.860796626 -0.5051778058
13150221100.0 0.8542780568 -0.5173822092
13200220800.0 0.8474496474 -0.528587663
13250220500.0 0.8399739836 -0.5407105095
13300220200.0 0.832624142 -0.5519134422
13350219900.0 0.8243679807 -0.5635793742
13400219600.0 0.8159916977 -0.5753878265
13450219300.0 0.8068432156 -0.588484334
13500219000.0 0.7967014183 -0.6016060659
13550218700.0 0.78705329 -0.6138703097
13600218400.0 0.7770874893 -0.6258001497
13650218100.0 0.7682801291 -0.636209311
13700217800.0 0.7570681231 -0.6484762259
13750217500.0 0.7472649919 -0.6589436886
13800217200.0 0.7370994175 -0.6700785284
13850216900.0 0.7257710205 -0.6815193071
13900216600.0 0.7156774403 -0.6902401155
13950216300.0 0.7049517792 -0.7002159898
14000216000.0 0.6955800237 -0.7091649432
14050215700.0 0.6860573231 -0.717155859
14100215400.0 0.6768054193 -0.7258599599
14150215100.0 0.6672370498 -0.7350095916
14200214800.0 0.6579270172 -0.7441634581
14250214500.0 0.6476593704 -0.7533664842
14300214200.0 0.6370936122 -0.7627925295
14350213900.0 0.6259123089 -0.7724116092
14400213600.0 0.6141563163 -0.7823493238
14450213300.0 0.6011252367 -0.7925585658
14500213000.0 0.5882537536 -0.8024050937
14550212700.0 0.5756076997 -0.811908817
14600212400.0 0.5638820351 -0.8206410956
14650212100.0 0.551008577 -0.8290640771
14700211800.0 0.5372368646 -0.8385980389
14750211500.0 0.5248766043 -0.8471033615
14800211200.0 0.5125516458 -0.8557005578
14850210900.0 0.5000640505 -0.8629384952
14900210600.0 0.4866496366 -0.870995751
14950210300.0 0.4735687114 -0.8785742296
15000210000.0 0.4606611856 -0.8854406006
15050209700.0 0.4486009784 -0.8915084939
15100209400.0 0.4355700015 -0.8972729418
15150209100.0 0.4236084072 -0.9033555179
15200208800.0 0.4110388588 -0.908343142
15250208500.0 0.3997460407 -0.9122879504
15300208200.0 0.3873313421 -0.9175200267
15350207900.0 0.3742035316 -0.9216798287
15400207600.0 0.360059585 -0.9275340199
15450207300.0 0.3444765701 -0.9320018682
15500207000.0 0.3301438774 -0.9369856404
15550206700.0 0.3155588471 -0.9416584129
15600206400.0 0.2998465636 -0.9464746056
15650206100.0 0.2834313529 -0.9510365943
15700205800.0 0.2702503959 -0.954202827
15750205500.0 0.2565215681 -0.9577293424
15800205200.0 0.2425134133 -0.9612324227
15850204900.0 0.2283666708 -0.9645071832
15900204600.0 0.2131102701 -0.9682811555
15950204300.0 0.1987504353 -0.9713704345
16000204000.0 0.184592404 -0.9743976093
16050203700.0 0.1691427163 -0.9771435117
16100203400.0 0.154860842 -0.9790315707
16150203100.0 0.1396246848 -0.9821861571
16200202800.0 0.1252934972 -0.9840893521
16250202500.0 0.1106879961 -0.9857888073
16300202200.0 0.0950035625 -0.9873121615
16350201900.0 0.0798624072 -0.9890727153
16400201600.0 0.0653266023 -0.9901188184
16450201300.0 0.0497595342 -0.9911735255
16500201000.0 0.0328405753 -0.9919890245
16550200700.0 0.0166824674 -0.9924223614
16600200400.0 0.0007160252 -0.9928693958
16650200100.0 -0.0153350593 -0.992432902
16700199800.0 -0.0318276134 -0.9923451467
16750199500.0 -0.0511231073 -0.9917396772
16800199200.0 -0.0672212467 -0.990412021
16850198900.0 -0.0825687837 -0.9893014534
16900198600.0 -0.0966558615 -0.9883208833
16950198300.0 -0.1097450507 -0.9870843423
17000198000.0 -0.1233722343 -0.9859107746
17050197700.0 -0.1359575124 -0.9835605586
17100197400.0 -0.1493482022 -0.981520679
17150197100.0 -0.1618239807 -0.9801397415
17200196800.0 -0.1747170385 -0.9780188134
17250196500.0 -0.1877736044 -0.9751238938
17300196200.0 -0.1995659358 -0.9730090689
17350195900.0 -0.2113739185 -0.9705782717
17400195600.0 -0.2234854563 -0.9681174317
17450195300.0 -0.2361616921 -0.965273069
17500195000.0 -0.2496206735 -0.9618175154
17550194700.0 -0.2631346789 -0.9584724661
17600194400.0 -0.2770914103 -0.9544201022
17650194100.0 -0.2905536447 -0.9503757777
17700193800.0 -0.3035398125 -0.9462195475
17750193500.0 -0.3175961005 -0.9415688415
17800193200.0 -0.3320357168 -0.936325872
17850192900.0 -0.346753766 -0.9307732604
17900192600.0 -0.3619832569 -0.9250598632
17950192300.0 -0.3773717804 -0.9175315956
18000192000.0 -0.3921211006 -0.9105492451
18050191700.0 -0.4059826003 -0.9025638322
18100191400.0 -0.4200847864 -0.8949811564
18150191100.0 -0.4349062168 -0.8869976935
18200190800.0 -0.4516464195 -0.877678066
18250190500.0 -0.4688118292 -0.8684005188
18300190200.0 -0.4839747436 -0.8593274537
18350189900.0 -0.4992363815 -0.851028551
18400189600.0 -0.5138344903 -0.8425419335
18450189300.0 -0.5273724969 -0.8341837892
18500189000.0 -0.5402028015 -0.8262515072
18550188700.0 -0.5537975977 -0.8188344146
18600188400.0 -0.5655022691 -0.8122382451
18650188100.0 -0.5764989846 -0.80533914
18700187800.0 -0.5881097189 -0.7986135973
18750187500.0 -0.5989345939 -0.7919054924
18800187200.0 -0.6098145087 -0.7848242174
18850186900.0 -0.6196643558 -0.7780833265
18900186600.0 -0.6302298383 -0.770780202
18950186300.0 -0.6401464093 -0.7633531971
19000186000.0 -0.6477747589 -0.7568056153
19050185700.0 -0.6569864212 -0.7498433473
19100185400.0 -0.6670662806 -0.7412411712
19150185100.0 -0.6774253475 -0.7329120711
19200184800.0 -0.6861063974 -0.7245300599
19250184500.0 -0.6967500843 -0.7158954608
19300184200.0 -0.7075531027 -0.7061336802
19350183900.0 -0.7190731023 -0.6961642801
19400183600.0 -0.7287598114 -0.6860652205
19450183300.0 -0.7378459445 -0.6760168989
19500183000.0 -0.7461914693 -0.6662724436
19550182700.0 -0.7557623754 -0.6551779173
19600182400.0 -0.7661172413 -0.643282611
19650182100.0 -0.7764574499 -0.6314955331
19700181800.0 -0.7866684078 -0.6181427767
19750181500.0 -0.7973145016 -0.6039083624
19800181200.0 -0.8074856259 -0.5891632278
19850180900.0 -0.8169326334 -0.5736800739
19900180600.0 -0.8246119046 -0.55944445
19950180300.0 -0.833694812 -0.5431130733
20000180000.0 -0.8231567689 -0.5467622376
20050179700.0 -0.832124468 -0.5342750626
20100179400.0 -0.8393678466 -0.5214762092
20150179100.0 -0.846624466 -0.5088774546
20200178800.0 -0.85520756 -0.4976441628
20250178500.0 -0.8653057541 -0.4864021813
20300178200.0 -0.8751478816 -0.4718147365
20350177900.0 -0.8844642453 -0.4581690602
20400177600.0 -0.8933261558 -0.4443366129
20450177300.0 -0.9014402163 -0.4296260434
20500177000.0 -0.9097964392 -0.4155324073
20550176700.0 -0.9177397809 -0.4019183753
20600176400.0 -0.9245775027 -0.3890816826
20650176100.0 -0.9309658801 -0.3764692881
20700175800.0 -0.9379682993 -0.3649754877
20750175500.0 -0.9445319765 -0.3533065142
20800175200.0 -0.9483926545 -0.3426316723
20850174900.0 -0.9536083869 -0.3318403722
20900174600.0 -0.9581368954 -0.320988867
20950174300.0 -0.9607833107 -0.3096958631
21000174000.0 -0.9632949945 -0.2999843666
21050173700.0 -0.9651858432 -0.2903353916
21100173400.0 -0.9688793454 -0.2798736043
21150173100.0 -0.9730483482 -0.2674474997
21200172800.0 -0.9763390202 -0.2544578336
21250172500.0 -0.9803709263 -0.2401316889
21300172200.0 -0.983959415 -0.2263652546
21350171900.0 -0.985854691 -0.2121678294
21400171600.0 -0.9874848077 -0.1985434559
21450171300.0 -0.9884467344 -0.1840095786
21500171000.0 -0.9882252444 -0.1689157331
21550170700.0 -0.9895551569 -0.1547846024
21600170400.0 -0.9892453689 -0.1385298761
21650170100.0 -0.9898127449 -0.1233670795
21700169800.0 -0.9898883292 -0.1087319009
21750169500.0 -0.9893115974 -0.0917429957
21800169200.0 -0.9897896756 -0.0744368475
21850168900.0 -0.9906030151 -0.0584833318
21900168600.0 -0.9892903382 -0.0415762199
21950168300.0 -0.9889675912 -0.0260676481
22000168000.0 -0.9894364124 -0.0107975142
22050167700.0 -0.9902437873 0.0037799042
22100167400.0 -0.9908475414 0.0192111821
22150167100.0 -0.9919323894 0.0348478317
22200166800.0 -0.9921821832 0.051716082
22250166500.0 -0.9917156628 0.0692781506
22300166200.0 -0.9917678316 0.0858141753
22350165900.0 -0.9886611074 0.1019690745
22400165600.0 -0.988544282 0.1172114135
22450165300.0 -0.9866441514 0.1320445161
22500165000.0 -0.9849141463 0.146240341
22550164700.0 -0.9837695216 0.1633371687
22600164400.0 -0.9814873977 0.1798177854
22650164100.0 -0.9786276599 0.1951472745
22700163800.0 -0.9751606706 0.2110986758
22750163500.0 -0.9720906115 0.2259486066
22800163200.0 -0.9693772339 0.2387110309
22850162900.0 -0.9669050143 0.2522388725
22900162600.0 -0.9651421044 0.2663697267
22950162300.0 -0.9631216354 0.2800649018
23000162000.0 -0.961426167 0.2928755566
23050161700.0 -0.9587991273 0.3062888454
23100161400.0 -0.9559371518 0.3200550504
23150161100.0 -0.9527915786 0.3324058911
23200160800.0 -0.9500037771 0.3459624958
23250160500.0 -0.9467869026 0.3575418583
23300160200.0 -0.9442475387 0.3709317348
23350159900.0 -0.9400232484 0.3840999912
23400159600.0 -0.9349349415 0.3988911071
23450159300.0 -0.9295953328 0.4122778194
23500159000.0 -0.9250628406 0.4259413489
23550158700.0 -0.9203725966 0.4397536058
23600158400.0 -0.913902277 0.4540246751
23650158100.0 -0.9067290167 0.4687900823
23700157800.0 -0.898300221 0.4829581705
23750157500.0 -0.8884584163 0.4973605176
23800157200.0 -0.8786393277 0.5106938215
23850156900.0 -0.8688056573 0.5242437503
23900156600.0 -0.8589634563 0.5365141435
23950156300.0 -0.8488057247 0.5488859668
24000156000.0 -0.8397260653 0.5606391947
24050155700.0 -0.8285998842 0.5740857843
24100155400.0 -0.8184804313 0.5871980466
24150155100.0 -0.8077625303 0.5984096469
24200154800.0 -0.7966696174 0.6102167611
24250154500.0 -0.7857492356 0.6220499098
24300154200.0 -0.7737775173 0.6345229288
24350153900.0 -0.7616961352 0.6453526212
24400153600.0 -0.7492523074 0.6564578096
24450153300.0 -0.7371394383 0.6665811142
24500153000.0 -0.7258644552 0.676695406
24550152700.0 -0.7146382397 0.6866487225
24600152400.0 -0.701758567 0.6958940861
