!Created with skrf (http://scikit-rf.org).
# Hz S RI R 50.0 
!freq ReS11 ImS11
300000.0 -0.9745739609 -0.1194166619
50299700.0 -0.9997717399 0.0149571291
100299400.0 -0.9979850317 0.0281239868
150299100.0 -1.002724265 0.0449763267
200298800.0 -0.9994760659 0.0581338084
250298500.0 -0.9971634635 0.0716098392
300298200.0 -0.9858487016 0.0873274024
350297900.0 -0.9939181531 0.0981873381
400297600.0 -0.9931785455 0.114892261
450297300.0 -0.9908583963 0.1285635196
500297000.0 -0.9893455862 0.143323491
550296700.0 -0.9843103083 0.1559255276
600296400.0 -1.017161129 0.1890599459
650296100.0 -0.9821819306 0.1859030279
700295800.0 -0.9791956531 0.2000741461
750295500.0 -0.9761394229 0.2140584725
800295200.0 -0.9728993899 0.2282108949
850294900.0 -0.9696298966 0.2417971907
900294600.0 -0.9656849782 0.2556834578
950294300.0 -0.9620791142 0.2693674662
1000294000.0 -0.958180935 0.2833836478
1050293700.0 -0.9537357564 0.2970869536
1100293400.0 -0.949311031 0.3115257516
1150293100.0 -0.945406896 0.3234538483
1200292800.0 -0.9401726691 0.3376646905
1250292500.0 -0.9345745116 0.3513084577
1300292200.0 -0.9289559469 0.3642420815
1350291900.0 -0.923349032 0.3784358855
1400291600.0 -0.9179484708 0.391642903
1450291300.0 -0.9125744495 0.4039890574
1500291000.0 -0.9061376591 0.4174283815
1550290700.0 -0.8998174206 0.4309583648
1600290400.0 -0.8935532577 0.4437007482
1650290100.0 -0.8868092896 0.4559135779
1700289800.0 -0.8796942949 0.4693533946
1750289500.0 -0.8729234799 0.4814539737
1800289200.0 -0.8654603468 0.4944892606
1850288900.0 -0.8587095627 0.505748443
1900288600.0 -0.8509939403 0.5188811224
1950288300.0 -0.8430041606 0.5313400231
2000288000.0 -0.835637201 0.5425291763
2050287700.0 -0.8270830979 0.5551166831
2100287400.0 -0.8194593691 0.566577174
2150287100.0 -0.8108928832 0.5785354923
2200286800.0 -0.8030108306 0.5890665587
2250286500.0 -0.7939649003 0.601301482
2300286200.0 -0.7851387706 0.6128351642
2350285900.0 -0.7770289619 0.6234947191
2400285600.0 -0.7678615326 0.6344465804
2450285300.0 -0.7591322903 0.6451642847
2500285000.0 -0.7489894915 0.6567367583
2550284700.0 -0.7402940353 0.666791705
2600284400.0 -0.7310325806 0.6767642527
2650284100.0 -0.7222668886 0.6871602454
2700283800.0 -0.7117616071 0.6974784534
2750283500.0 -0.701549954 0.7081431315
2800283200.0 -0.6916976267 0.7181029602
2850282900.0 -0.6810679138 0.7280969093
2900282600.0 -0.6707063785 0.7377834861
2950282300.0 -0.6603640521 0.7472972892
3000282000.0 -0.6496585177 0.7566388418
3050281700.0 -0.6384290243 0.7657940206
3100281400.0 -0.62697229 0.7750413959
3150281100.0 -0.6156170838 0.7839981338
3200280800.0 -0.6041839997 0.7924234766
3250280500.0 -0.5929842093 0.8002843314
3300280200.0 -0.5814752563 0.8085692288
3350279900.0 -0.5692379703 0.816394475
3400279600.0 -0.5567217776 0.824490295
3450279300.0 -0.5456240367 0.8313818236
3500279000.0 -0.5338436632 0.8383587096
3550278700.0 -0.5218098151 0.8456543525
3600278400.0 -0.509969215 0.8525288737
3650278100.0 -0.4969654742 0.859873702
3700277800.0 -0.4846162248 0.8665591287
3750277500.0 -0.4722576196 0.8731558575
3800277200.0 -0.4599457502 0.8794284887
3850276900.0 -0.4476873207 0.8856430323
3900276600.0 -0.4366851807 0.8910951695
3950276300.0 -0.4245752472 0.897358779
4000276000.0 -0.4130156863 0.903151073
4050275700.0 -0.400383715 0.9090535242
4100275400.0 -0.3892100397 0.9144797421
4150275100.0 -0.3760048557 0.9206386322
4200274800.0 -0.3626343248 0.9261205384
4250274500.0 -0.3499308003 0.9313980246
4300274200.0 -0.3371519042 0.9367438667
4350273900.0 -0.3226749398 0.9420399741
4400273600.0 -0.3079732947 0.9473240994
4450273300.0 -0.2930028855 0.951943379
4500273000.0 -0.2797994196 0.9563495639
4550272700.0 -0.2662058119 0.9603845421
4600272400.0 -0.2509521441 0.9646577566
4650272100.0 -0.2396337775 0.967908333
4700271800.0 -0.2266619239 0.9711700336
4750271500.0 -0.2151563551 0.9740648725
4800271200.0 -0.2028729874 0.9765948871
4850270900.0 -0.1889612004 0.9793785496
4900270600.0 -0.1752527268 0.9818793026
4950270300.0 -0.1606664541 0.9846905223
5000270000.0 -0.1460815149 0.9867159375
5050269700.0 -0.1326690305 0.9882297619
5100269400.0 -0.1184498369 0.9901425803
5150269100.0 -0.1047493444 0.9920354828
5200268800.0 -0.0911471677 0.992664043
5250268500.0 -0.0782840174 0.9937091103
5300268200.0 -0.0646833315 0.994280447
5350267900.0 -0.0518574434 0.9951047933
5400267600.0 -0.0356090616 0.9963335165
5450267300.0 -0.0224064044 0.9966940924
5500267000.0 -0.0069887827 0.9970814562
5550266700.0 0.0079325433 0.9971279997
5600266400.0 0.0235070682 0.997153894
5650266100.0 0.0402532213 0.9966217787
5700265800.0 0.0546872956 0.9962096303
5750265500.0 0.0694316023 0.9950721861
5800265200.0 0.08329571 0.9939600803
5850264900.0 0.0966553262 0.9932223941
5900264600.0 0.1126509541 0.9913214395
5950264300.0 0.1241979959 0.9894468601
6000264000.0 0.1379462653 0.9880022983
6050263700.0 0.1495802293 0.9862364497
6100263400.0 0.1617990632 0.9847584796
6150263100.0 0.1767439801 0.9827583257
6200262800.0 0.1865076892 0.9810708752
6250262500.0 0.1988230003 0.9786361948
6300262200.0 0.2111218048 0.9761943989
6350261900.0 0.2239844593 0.9732083421
6400261600.0 0.2378270146 0.9700514923
6450261300.0 0.2489568418 0.9676082393
6500261000.0 0.2621321627 0.9639282134
6550260700.0 0.2752772782 0.9600266817
6600260400.0 0.2888892303 0.9560875559
6650260100.0 0.3028760665 0.9514313149
6700259800.0 0.3151855578 0.9475875666
6750259500.0 0.3289702576 0.9424504201
6800259200.0 0.3422458882 0.9374265421
6850258900.0 0.3545039291 0.9320280399
6900258600.0 0.3673572031 0.9269895777
6950258300.0 0.3796972028 0.9213543696
7000258000.0 0.39140456 0.9162525994
7050257700.0 0.4032425 0.9105305536
7100257400.0 0.4166934805 0.9038913947
7150257100.0 0.4273491226 0.8985372213
7200256800.0 0.4403930279 0.8919892236
7250256500.0 0.4529517701 0.8854269457
7300256200.0 0.4662372653 0.879029109
7350255900.0 0.4785680179 0.8717557879
7400255600.0 0.4924603656 0.864008804
7450255300.0 0.5083048105 0.8549731014
7500255000.0 0.5204820156 0.8473886791
7550254700.0 0.5352343424 0.8386844845
7600254400.0 0.5475102948 0.8301425711
7650254100.0 0.5588947616 0.8221476
7700253800.0 0.5707310885 0.8141797273
7750253500.0 0.5815530787 0.8067302357
7800253200.0 0.5920992668 0.7989076656
7850252900.0 0.6019499088 0.7916152657
7900252600.0 0.6134617903 0.7828202962
7950252300.0 0.6219360532 0.7765398686
8000252000.0 0.6319092692 0.7688791501
8050251700.0 0.6423142013 0.7607364025
8100251400.0 0.6525266636 0.7528619482
8150251100.0 0.662047498 0.7440783649
8200250800.0 0.671705314 0.7359266947
8250250500.0 0.6804702473 0.7282137339
8300250200.0 0.6896783202 0.7199379233
8350249900.0 0.6989273821 0.7109082747
8400249600.0 0.7069239205 0.7030557134
8450249300.0 0.7156796274 0.6942683579
8500249000.0 0.7243255552 0.6854654031
8550248700.0 0.7328220217 0.6764559502
8600248400.0 0.7410465286 0.666925381
8650248100.0 0.7486320359 0.6575437914
8700247800.0 0.7580036853 0.6464613161
8750247500.0 0.7662096993 0.6364159282
8800247200.0 0.7742721274 0.6260325074
8850246900.0 0.7831694505 0.614338092
8900246600.0 0.7914661125 0.6030520399
8950246300.0 0.8006954158 0.5903478163
9000246000.0 0.8096639479 0.5783734215
9050245700.0 0.8177237675 0.5661753173
9100245400.0 0.8260169518 0.5540440567
9150245100.0 0.834947537 0.5408766156
9200244800.0 0.844302893 0.526528125
9250244500.0 0.8534307705 0.5117738938
9300244200.0 0.8613954975 0.4982782381
9350243900.0 0.8692845793 0.4850352647
9400243600.0 0.8756794954 0.4732478271
9450243300.0 0.8813155162 0.4627393417
9500243000.0 0.8876355607 0.4508977286
9550242700.0 0.89170296 0.4434805141
9600242400.0 0.895956236 0.435898092
9650242100.0 0.9001257019 0.4289901504
9700241800.0 0.9052752189 0.420116427
9750241500.0 0.9091467073 0.4126506452
9800241200.0 0.9141140731 0.4034144929
9850240900.0 0.9202599523 0.3916188939
9900240600.0 0.9261535988 0.3797756316
9950240300.0 0.9332241709 0.3629636462
10000240000.0 0.9380331727 0.3509139512
10050239700.0 0.9439358685 0.3347698904
10100239400.0 0.9495174267 0.3188613575
10150239100.0 0.9538009732 0.3029069631
10200238800.0 0.958267112 0.2877371162
10250238500.0 0.9613009105 0.2742488881
10300238200.0 0.9646777546 0.260181988
10350237900.0 0.9674266435 0.246744536
10400237600.0 0.9700635779 0.2332866969
10450237300.0 0.9725618116 0.2199421155
10500237000.0 0.9747360019 0.2077583411
10550236700.0 0.9771520333 0.1930553573
10600236400.0 0.9796699221 0.1786898985
10650236100.0 0.9815084774 0.1644990521
10700235800.0 0.9836613926 0.1523795637
10750235500.0 0.9857220631 0.1389092432
10800235200.0 0.9880369668 0.124338448
10850234900.0 0.9899519638 0.1095249982
10900234600.0 0.9920882006 0.0947229137
10950234300.0 0.9937295683 0.0812134796
11000234000.0 0.9955376667 0.0656326546
11050233700.0 0.9973044662 0.0488491613
11100233400.0 0.9987836967 0.0314473797
11150233100.0 0.9999048885 0.0148689804
11200232800.0 1.000942285 -0.0018302593
11250232500.0 1.001808362 -0.0190497574
11300232200.0 1.0023765 -0.0377574317
11350231900.0 1.002515649 -0.0543592512
11400231600.0 1.002062214 -0.0694761151
11450231300.0 1.001349027 -0.0852577331
11500231000.0 0.9995222465 -0.1011835885
11550230700.0 0.9987494964 -0.1145093494
11600230400.0 0.9966270283 -0.1271474851
11650230100.0 0.994699881 -0.1395971385
11700229800.0 0.9923702439 -0.1540338618
11750229500.0 0.9901019521 -0.1678805587
11800229200.0 0.9872919792 -0.1816263988
11850228900.0 0.9836353053 -0.1930791059
11900228600.0 0.9799563275 -0.2028847241
11950228300.0 0.9763432734 -0.2130360027
12000228000.0 0.97383911 -0.2220181958
12050227700.0 0.9696494159 -0.2345633922
12100227400.0 0.9662045531 -0.2463456254
12150227100.0 0.9620337492 -0.2628557423
12200226800.0 0.9579717789 -0.2733259627
12250226500.0 0.9541586767 -0.2866045808
12300226200.0 0.9499262863 -0.2989433288
12350225900.0 0.9448846117 -0.3117711893
12400225600.0 0.9400832793 -0.3241065657
12450225300.0 0.93610457 -0.3368352541
12500225000.0 0.9301579606 -0.3511791861
12550224700.0 0.9250283089 -0.3655542199
12600224400.0 0.920095985 -0.3779928343
12650224100.0 0.9142658794 -0.392342236
12700223800.0 0.9088967012 -0.4052737194
12750223500.0 0.9033788126 -0.4183624379
12800223200.0 0.8983126299 -0.430650127
12850222900.0 0.8929337805 -0.4430384427
12900222600.0 0.8870777729 -0.4544076893
12950222300.0 0.8810826795 -0.4680373248
13000222000.0 0.8752208345 -0.4791873674
13050221700.0 0.8682957071 -0.4921623962
13100221400.0 0.8615526002 -0.5045282664
13150221100.0 0.854723614 -0.5166389745
13200220800.0 0.8479178622 -0.5281083179
13250220500.0 0.8403957769 -0.5402595644
13300220200.0 0.8328432662 -0.5509890944
13350219900.0 0.8248844728 -0.5631297666
13400219600.0 0.81645982 -0.5749095306
13450219300.0 0.8069601193 -0.5878937536
13500219000.0 0.7971102168 -0.6011734259
13550218700.0 0.7872708465 -0.6136953549
13600218400.0 0.7772176478 -0.6254453421
13650218100.0 0.7677275288 -0.6362205752
13700217800.0 0.7568525042 -0.6481157407
13750217500.0 0.7475059141 -0.6596939672
13800217200.0 0.7365674851 -0.670527455
13850216900.0 0.7254053773 -0.6815996485
13900216600.0 0.7159389318 -0.6899889438
13950216300.0 0.7053898158 -0.7009962848
14000216000.0 0.6953678282 -0.7092272619
14050215700.0 0.6861052809 -0.7173912727
14100215400.0 0.6769438345 -0.7264581434
14150215100.0 0.6673214024 -0.7349010884
14200214800.0 0.6578755495 -0.7440087028
14250214500.0 0.6473465197 -0.7534891308
14300214200.0 0.6370590019 -0.7629642987
14350213900.0 0.6259351873 -0.7727431901
14400213600.0 0.6138101098 -0.7823637277
14450213300.0 0.6013094279 -0.7929752432
14500213000.0 0.5882006768 -0.8023456136
14550212700.0 0.5755810267 -0.8119445793
14600212400.0 0.5629675055 -0.8204383217
14650212100.0 0.5506079818 -0.829401915
14700211800.0 0.5368922412 -0.8383723233
14750211500.0 0.5248720907 -0.8471689093
14800211200.0 0.5121175088 -0.8554031929
14850210900.0 0.4996879828 -0.863053967
14900210600.0 0.4862954227 -0.8709757
14950210300.0 0.4734452262 -0.8787675197
15000210000.0 0.4606432999 -0.8854160008
15050209700.0 0.4484090059 -0.8913833883
15100209400.0 0.4356967764 -0.8975098003
15150209100.0 0.4234578408 -0.9025549161
15200208800.0 0.4106327813 -0.9082656958
15250208500.0 0.3991764658 -0.912892882
15300208200.0 0.387909836 -0.917650723
15350207900.0 0.374210547 -0.9217477301
15400207600.0 0.3591383329 -0.9275641947
15450207300.0 0.3448188512 -0.9331539264
15500207000.0 0.3297330079 -0.9377135471
15550206700.0 0.3156515566 -0.9421358449
15600206400.0 0.2991478184 -0.9467434633
15650206100.0 0.2837905671 -0.9511241453
15700205800.0 0.2699125169 -0.9545249391
15750205500.0 0.2561919989 -0.9576843792
15800205200.0 0.2421817253 -0.9612691545
15850204900.0 0.2279507811 -0.9646762564
15900204600.0 0.2129824073 -0.9683855619
15950204300.0 0.1986859482 -0.9714599606
16000204000.0 0.184267599 -0.9746120178
16050203700.0 0.1686753584 -0.97786248
16100203400.0 0.1543028618 -0.9793341809
16150203100.0 0.1392544695 -0.9820218253
16200202800.0 0.1252301676 -0.9844515519
16250202500.0 0.1101739455 -0.9859766948
16300202200.0 0.0952980026 -0.987615326
16350201900.0 0.07977139 -0.9889652272
16400201600.0 0.0652946263 -0.9901261856
16450201300.0 0.0498016165 -0.991228796
16500201000.0 0.0325695685 -0.9920896668
16550200700.0 0.0164671342 -0.9925748085
16600200400.0 0.0008699147 -0.9927714477
16650200100.0 -0.01538822 -0.9924874709
16700199800.0 -0.0313321725 -0.9926768055
16750199500.0 -0.050785849 -0.9919130076
16800199200.0 -0.0664530129 -0.9910507031
16850198900.0 -0.081845358 -0.9894069395
16900198600.0 -0.0959837529 -0.988888141
16950198300.0 -0.1091257523 -0.9877090003
17000198000.0 -0.1232354289 -0.9862175097
17050197700.0 -0.1359013929 -0.9844078405
17100197400.0 -0.1487532503 -0.9820445723
17150197100.0 -0.1611495162 -0.9799394175
17200196800.0 -0.1740729673 -0.9777932337
17250196500.0 -0.1872227687 -0.9754875912
17300196200.0 -0.1991168317 -0.9733951936
17350195900.0 -0.2111018946 -0.9706656849
17400195600.0 -0.2231169403 -0.9682716459
17450195300.0 -0.2359874618 -0.9656244719
17500195000.0 -0.2492104995 -0.9625179329
17550194700.0 -0.2627716264 -0.9585533016
17600194400.0 -0.2768184839 -0.9547966403
17650194100.0 -0.2906246905 -0.9503727378
17700193800.0 -0.303114163 -0.9467090741
17750193500.0 -0.3176755247 -0.9417156871
17800193200.0 -0.3311790002 -0.9366986333
17850192900.0 -0.3462754114 -0.9310743151
17900192600.0 -0.3617453839 -0.9251642656
17950192300.0 -0.3773659754 -0.9180306849
18000192000.0 -0.3919171427 -0.9107269039
18050191700.0 -0.4058500784 -0.9028759222
18100191400.0 -0.420012292 -0.8951661348
18150191100.0 -0.434922738 -0.8871156135
18200190800.0 -0.4516874483 -0.8780437422
18250190500.0 -0.4685570453 -0.868572531
18300190200.0 -0.4840367383 -0.85950181
18350189900.0 -0.4991046304 -0.851438005
18400189600.0 -0.5136462444 -0.8430601721
18450189300.0 -0.5273218621 -0.835222442
18500189000.0 -0.5406170274 -0.8268931181
18550188700.0 -0.5533660535 -0.8196750801
18600188400.0 -0.5652178895 -0.8124443446
18650188100.0 -0.5767303373 -0.8058563726
18700187800.0 -0.5875346165 -0.7989206968
18750187500.0 -0.5986196344 -0.7921970415
18800187200.0 -0.6092093436 -0.7851232256
18850186900.0 -0.6194531189 -0.778352826
18900186600.0 -0.6298572934 -0.7711604943
18950186300.0 -0.6398104596 -0.7633475069
19000186000.0 -0.6476980945 -0.7569881226
19050185700.0 -0.6566594744 -0.7498189473
19100185400.0 -0.6666553418 -0.7417873619
19150185100.0 -0.676441428 -0.7335147665
19200184800.0 -0.686120156 -0.7251900413
19250184500.0 -0.6958878115 -0.715744568
19300184200.0 -0.708117431 -0.7070071519
19350183900.0 -0.7180986498 -0.6968358522
19400183600.0 -0.728427636 -0.6869336994
19450183300.0 -0.7374018104 -0.6763219897
19500183000.0 -0.7456642304 -0.6669364635
19550182700.0 -0.7553511628 -0.6557067786
19600182400.0 -0.7655105486 -0.6439535998
19650182100.0 -0.7761606346 -0.6320185404
19700181800.0 -0.7864409777 -0.6185887127
19750181500.0 -0.7969364511 -0.6044727239
19800181200.0 -0.8069674214 -0.5897258581
19850180900.0 -0.8164729107 -0.5742694962
19900180600.0 -0.8242431182 -0.5597447486
19950180300.0 -0.8333096875 -0.5434225184
20000180000.0 -0.8236000714 -0.5475870508
20050179700.0 -0.831114251 -0.5351598804
20100179400.0 -0.8400308339 -0.5213049149
20150179100.0 -0.8481361583 -0.5098258161
20200178800.0 -0.8571039102 -0.4975164412
20250178500.0 -0.8660333141 -0.4851618331
20300178200.0 -0.8754420228 -0.4709718582
20350177900.0 -0.8848728015 -0.4572769677
20400177600.0 -0.8936781288 -0.4434489888
20450177300.0 -0.9020663293 -0.4288213689
20500177000.0 -0.9099849218 -0.4149852464
20550176700.0 -0.9176764522 -0.4015732284
20600176400.0 -0.9248215816 -0.3886927966
20650176100.0 -0.9316572326 -0.3767942678
20700175800.0 -0.9379073805 -0.3645536449
20750175500.0 -0.9452518863 -0.3523762281
20800175200.0 -0.9487746462 -0.3413767226
20850174900.0 -0.9544649971 -0.3311626734
20900174600.0 -0.9581590997 -0.3202138649
20950174300.0 -0.9616340368 -0.3086319211
21000174000.0 -0.964779415 -0.2984104881
21050173700.0 -0.9653010148 -0.2893851004
21100173400.0 -0.9696995695 -0.2776579608
21150173100.0 -0.9733437435 -0.2658384441
21200172800.0 -0.9771131414 -0.2525231144
21250172500.0 -0.9805647975 -0.2388175063
21300172200.0 -0.9843582404 -0.2250603045
21350171900.0 -0.9860138825 -0.2110639852
21400171600.0 -0.9885437135 -0.1965538117
21450171300.0 -0.9887487982 -0.1826163557
21500171000.0 -0.9884911029 -0.1674897844
21550170700.0 -0.9896471613 -0.1518300652
21600170400.0 -0.9904907355 -0.135938582
21650170100.0 -0.9902460611 -0.1210233442
21700169800.0 -0.9898113793 -0.105630272
21750169500.0 -0.9899296368 -0.0897503758
21800169200.0 -0.9913718413 -0.0739180053
21850168900.0 -0.988943303 -0.0570923607
21900168600.0 -0.9891063992 -0.0399518681
21950168300.0 -0.9888348607 -0.0246510126
22000168000.0 -0.9887526587 -0.0096522524
22050167700.0 -0.9892254549 0.0052103697
22100167400.0 -0.9896273958 0.0206551648
22150167100.0 -0.9904076446 0.0368545489
22200166800.0 -0.9912314824 0.0531005805
22250166500.0 -0.9901739277 0.0704340029
22300166200.0 -0.9900240897 0.0873103124
22350165900.0 -0.9890223867 0.1030459117
22400165600.0 -0.9867590942 0.1182532875
22450165300.0 -0.985942723 0.1343396642
22500165000.0 -0.9845887193 0.148124107
22550164700.0 -0.9819752196 0.1645678416
22600164400.0 -0.9802410178 0.1803216763
22650164100.0 -0.9779528744 0.1964267613
22700163800.0 -0.9747826673 0.2124379221
22750163500.0 -0.9722292657 0.2271576759
22800163200.0 -0.9687414652 0.2401128535
22850162900.0 -0.9661519564 0.253155051
22900162600.0 -0.964407253 0.2672660034
22950162300.0 -0.9627326151 0.2806875539
23000162000.0 -0.9610956183 0.2934870796
23050161700.0 -0.9585348049 0.306676439
23100161400.0 -0.955209378 0.3202855629
23150161100.0 -0.9525934127 0.3332256651
23200160800.0 -0.9501525668 0.3454941517
23250160500.0 -0.9473810201 0.3578685402
23300160200.0 -0.9442876416 0.3705682366
23350159900.0 -0.9404506886 0.3849879476
23400159600.0 -0.9354046858 0.3986934096
23450159300.0 -0.9297576533 0.4121258715
23500159000.0 -0.9254739414 0.4251888553
23550158700.0 -0.9199607118 0.4394833279
23600158400.0 -0.9141805222 0.4534262737
23650158100.0 -0.9070201763 0.4679151642
23700157800.0 -0.898863932 0.4823256862
23750157500.0 -0.8895493568 0.4966188135
23800157200.0 -0.8797928055 0.51019865
23850156900.0 -0.8703645925 0.5225232334
23900156600.0 -0.8599498447 0.5353280622
23950156300.0 -0.8509132787 0.5478253075
24000156000.0 -0.8408933864 0.5607106305
24050155700.0 -0.8316374404 0.5726381043
24100155400.0 -0.8205889779 0.5853561645
24150155100.0 -0.809782628 0.5976064318
24200154800.0 -0.7984879087 0.6089310867
24250154500.0 -0.7866338311 0.6207450758
24300154200.0 -0.7758825299 0.6331807074
24350153900.0 -0.7637295236 0.6438857314
24400153600.0 -0.7517121891 0.6546708145
24450153300.0 -0.7392768509 0.6654463754
24500153000.0 -0.7279904934 0.6751529356
24550152700.0 -0.7165648629 0.6848717891
24600152400.0 -0.7047110215 0.6941873941
24650152100.0 -0.6921258946 0.7034267335
