!Created with skrf (http://scikit-rf.org).
# Hz S RI R 50.0 
!freq ReS11 ImS11
300000.0 -0.9745482776 -0.1209564006
50299700.0 -0.9998401533 0.0150722852
100299400.0 -0.9979469677 0.0278890104
150299100.0 -1.002817629 0.0450864531
200298800.0 -0.999654934 0.0584509807
250298500.0 -0.9974622836 0.0718503826
300298200.0 -0.9859043959 0.0878637715
350297900.0 -0.9941054162 0.0984516212
400297600.0 -0.9931958021 0.1151427669
450297300.0 -0.9910103601 0.1290607194
500297000.0 -0.9894829468 0.1434568205
550296700.0 -0.9844631579 0.1558208325
600296400.0 -1.017356658 0.1894587158
650296100.0 -0.9821927384 0.1858577455
700295800.0 -0.9792935184 0.20034985
750295500.0 -0.9763162616 0.2142013481
800295200.0 -0.9729809261 0.2283000102
850294900.0 -0.9696640446 0.2421317299
900294600.0 -0.9658799362 0.2557669978
950294300.0 -0.9621299165 0.2695567091
1000294000.0 -0.9582069205 0.2834606876
1050293700.0 -0.9536190211 0.2973985389
1100293400.0 -0.9495098142 0.3116350858
1150293100.0 -0.9456731049 0.3236453564
1200292800.0 -0.9402730454 0.3380133655
1250292500.0 -0.934688167 0.3514354511
1300292200.0 -0.9290990993 0.3646787168
1350291900.0 -0.9235636973 0.3786884918
1400291600.0 -0.9179190418 0.3919070594
1450291300.0 -0.9125508512 0.4041141518
1500291000.0 -0.9061416586 0.4176814819
1550290700.0 -0.8996335868 0.4308621231
1600290400.0 -0.8934703154 0.4438900441
1650290100.0 -0.8869422751 0.4559607625
1700289800.0 -0.8798847974 0.4695023044
1750289500.0 -0.8727251599 0.481676121
1800289200.0 -0.8655631012 0.4948464485
1850288900.0 -0.8586120146 0.5060547812
1900288600.0 -0.8508483391 0.5188472558
1950288300.0 -0.8428392429 0.5313543702
2000288000.0 -0.8354359881 0.5427862528
2050287700.0 -0.8272099036 0.5551630065
2100287400.0 -0.8194463818 0.5668023232
2150287100.0 -0.8106933129 0.5787260209
2200286800.0 -0.8029803827 0.5892273867
2250286500.0 -0.7941604904 0.6013044224
2300286200.0 -0.7852460918 0.6128295216
2350285900.0 -0.7765910364 0.6238151693
2400285600.0 -0.7675179599 0.6348501374
2450285300.0 -0.7591228567 0.6449981301
2500285000.0 -0.7494763456 0.6565607427
2550284700.0 -0.7402841023 0.6670085794
2600284400.0 -0.731296873 0.6769937442
2650284100.0 -0.7221715843 0.6877185968
2700283800.0 -0.7116365395 0.6979453019
2750283500.0 -0.7013053638 0.7084683663
2800283200.0 -0.6914302376 0.7181970501
2850282900.0 -0.6812904968 0.7284040603
2900282600.0 -0.6708831681 0.7379359369
2950282300.0 -0.6604536433 0.7471899887
3000282000.0 -0.649763026 0.7565031319
3050281700.0 -0.6386754867 0.7657431436
3100281400.0 -0.6269125955 0.7751793323
3150281100.0 -0.6152585799 0.7843077338
3200280800.0 -0.6035709 0.7929956464
3250280500.0 -0.5927040728 0.8006898116
3300280200.0 -0.5815125491 0.8085881504
3350279900.0 -0.5697039579 0.816222996
3400279600.0 -0.5573774864 0.8242617042
3450279300.0 -0.5459438441 0.8310725199
3500279000.0 -0.5343103075 0.8382494433
3550278700.0 -0.5217941049 0.8455687361
3600278400.0 -0.5098301505 0.8525343139
3650278100.0 -0.4965401768 0.8599978934
3700277800.0 -0.4845296673 0.8665412873
3750277500.0 -0.4724269324 0.8732326619
3800277200.0 -0.4599626949 0.8797282514
3850276900.0 -0.4478113415 0.8857464868
3900276600.0 -0.436889875 0.8912062023
3950276300.0 -0.4248657467 0.8973395781
4000276000.0 -0.4128757336 0.903051737
4050275700.0 -0.3999809747 0.9094670883
4100275400.0 -0.3887679761 0.9148485266
4150275100.0 -0.3758977339 0.9202818644
4200274800.0 -0.3628324784 0.9259915732
4250274500.0 -0.3504271195 0.931289696
4300274200.0 -0.3375401225 0.9365949035
4350273900.0 -0.3237704975 0.9417907143
4400273600.0 -0.3090873488 0.9470140395
4450273300.0 -0.2935454671 0.9523172058
4500273000.0 -0.2800095439 0.9565221502
4550272700.0 -0.2660371799 0.9606192867
4600272400.0 -0.2506928459 0.9650847899
4650272100.0 -0.2392204804 0.9680165595
4700271800.0 -0.225879859 0.9714843735
4750271500.0 -0.2142378266 0.9741706666
4800271200.0 -0.2015999993 0.9770073954
4850270900.0 -0.1876598582 0.9798082458
4900270600.0 -0.1739483155 0.9822659982
4950270300.0 -0.1595641798 0.9850271495
5000270000.0 -0.1452080758 0.987078792
5050269700.0 -0.1316588457 0.9886982671
5100269400.0 -0.1179582246 0.9904238046
5150269100.0 -0.1045483397 0.991892177
5200268800.0 -0.0913434669 0.9928698022
5250268500.0 -0.0782952337 0.9942137274
5300268200.0 -0.0650020616 0.9947143972
5350267900.0 -0.0527389246 0.9952438483
5400267600.0 -0.0365241906 0.9962198832
5450267300.0 -0.0231098882 0.9964965189
5500267000.0 -0.0080867173 0.996892372
5550266700.0 0.0067452495 0.9970888817
5600266400.0 0.0225312933 0.9970958925
5650266100.0 0.0391061359 0.9969490283
5700265800.0 0.0536253913 0.9962182807
5750265500.0 0.0685124109 0.9952952936
5800265200.0 0.0823241434 0.9942733076
5850264900.0 0.0957225787 0.9938130977
5900264600.0 0.1122143705 0.9915071543
5950264300.0 0.1244364735 0.9903578636
6000264000.0 0.1380806225 0.9883052907
6050263700.0 0.1502786349 0.987131735
6100263400.0 0.1628843678 0.9848515584
6150263100.0 0.1772470426 0.982827367
6200262800.0 0.1873900173 0.9808359927
6250262500.0 0.2001422337 0.9785317211
6300262200.0 0.2128203355 0.9760305276
6350261900.0 0.2258591633 0.9730448139
6400261600.0 0.2397617002 0.9696734567
6450261300.0 0.2509307997 0.9670379991
6500261000.0 0.2637474137 0.9632846965
6550260700.0 0.2767751088 0.9594399239
6600260400.0 0.290179629 0.9553727212
6650260100.0 0.3042002107 0.9511600625
6700259800.0 0.3160620279 0.9469027382
6750259500.0 0.3300650782 0.9417811588
6800259200.0 0.3431858962 0.9370352949
6850258900.0 0.3552490767 0.9315960491
6900258600.0 0.3675005251 0.9266682939
6950258300.0 0.3801376352 0.9212936842
7000258000.0 0.3923260954 0.916045396
7050257700.0 0.4044811555 0.9099301205
7100257400.0 0.4173500383 0.903766975
7150257100.0 0.4277994321 0.8984135287
7200256800.0 0.4405001946 0.891978195
7250256500.0 0.4525026631 0.8855652866
7300256200.0 0.4653943144 0.8786270937
7350255900.0 0.4782891945 0.8717924743
7400255600.0 0.491258903 0.8644141147
7450255300.0 0.5071706605 0.8556946049
7500255000.0 0.5189240377 0.8482953146
7550254700.0 0.5330467414 0.8398763735
7600254400.0 0.5454849027 0.8314861321
7650254100.0 0.5568376548 0.8238062479
7700253800.0 0.5690049571 0.8158270544
7750253500.0 0.5798593043 0.8080982359
7800253200.0 0.5906243418 0.8003953912
7850252900.0 0.6003080753 0.7932515176
7900252600.0 0.6117997695 0.7844818712
7950252300.0 0.6205676549 0.7779333843
8000252000.0 0.6307031642 0.770444014
8050251700.0 0.6412298769 0.7621457089
8100251400.0 0.6512401868 0.7541294966
8150251100.0 0.6612982857 0.7456869268
8200250800.0 0.6709768485 0.7375408756
8250250500.0 0.6799484072 0.7294801571
8300250200.0 0.6889065137 0.721088298
8350249900.0 0.69809486 0.712377468
8400249600.0 0.706014215 0.7043538977
8450249300.0 0.7152636449 0.6953361834
8500249000.0 0.7238553881 0.6863877863
8550248700.0 0.7319590274 0.6774600668
8600248400.0 0.7405752784 0.6678834834
8650248100.0 0.748131266 0.6584636371
8700247800.0 0.7576639503 0.6472509962
8750247500.0 0.7660612508 0.6370446364
8800247200.0 0.7743768633 0.6265424723
8850246900.0 0.7831674044 0.6153706
8900246600.0 0.791220859 0.6038614058
8950246300.0 0.8006898694 0.5910860563
9000246000.0 0.8100064247 0.5781955491
9050245700.0 0.819070778 0.565777191
9100245400.0 0.8273053218 0.5533846411
9150245100.0 0.8369939073 0.5397377733
9200244800.0 0.8466453599 0.5249170085
9250244500.0 0.8558140668 0.5096361356
9300244200.0 0.8640129299 0.4952097486
9350243900.0 0.8718146271 0.4815923532
9400243600.0 0.8784791542 0.4693440832
9450243300.0 0.8843245365 0.4580031545
9500243000.0 0.8905215662 0.4460122342
9550242700.0 0.8944364527 0.4381354607
9600242400.0 0.8983812928 0.430781897
9650242100.0 0.9022178092 0.4244007349
9700241800.0 0.9069130629 0.4161206142
9750241500.0 0.91096466 0.4085307561
9800241200.0 0.9159234023 0.3990151181
9850240900.0 0.9215972745 0.3873039784
9900240600.0 0.9272408236 0.3757784313
9950240300.0 0.9340001799 0.3595624893
10000240000.0 0.9383962553 0.3477503378
10050239700.0 0.9442465552 0.3325957547
10100239400.0 0.9494865832 0.3166792511
10150239100.0 0.9538503262 0.3018314588
10200238800.0 0.9581456801 0.2868057526
10250238500.0 0.961434697 0.2733879328
10300238200.0 0.9645689939 0.2594378488
10350237900.0 0.9671288928 0.2460564509
10400237600.0 0.9696711287 0.2328304041
10450237300.0 0.9723951517 0.2194634953
10500237000.0 0.9750156221 0.2068710545
10550236700.0 0.9769422192 0.1928936948
10600236400.0 0.9792721897 0.1787151427
10650236100.0 0.9812846439 0.1644791714
10700235800.0 0.9833505746 0.1525567383
10750235500.0 0.9855920537 0.1388562291
10800235200.0 0.9878254935 0.1246780777
10850234900.0 0.989552659 0.1101269798
10900234600.0 0.9915893153 0.095463452
10950234300.0 0.9932183316 0.0820895755
11000234000.0 0.9952811444 0.0668963089
11050233700.0 0.9970289498 0.0506012571
11100233400.0 0.9984152064 0.0328732737
11150233100.0 0.9996349695 0.0164850855
11200232800.0 1.000532186 0.0019223953
11250232500.0 1.001513654 -0.0154882446
11300232200.0 1.002200444 -0.0333213015
11350231900.0 1.001679657 -0.0488777593
11400231600.0 1.001647363 -0.0652907582
11450231300.0 1.00136264 -0.0788340913
11500231000.0 0.9999005549 -0.0965606893
11550230700.0 0.9983944076 -0.1087181689
11600230400.0 0.9969753052 -0.1221843265
11650230100.0 0.9949778324 -0.1335448476
11700229800.0 0.9933129486 -0.1487026565
11750229500.0 0.9906669304 -0.1629004767
11800229200.0 0.9878558964 -0.1759378879
11850228900.0 0.984485227 -0.1883352512
11900228600.0 0.9809617458 -0.1982226154
11950228300.0 0.9777652963 -0.2085482605
12000228000.0 0.9750090145 -0.2175978392
12050227700.0 0.9713687331 -0.2304454784
12100227400.0 0.9681471769 -0.241363138
12150227100.0 0.9636984551 -0.2577423942
12200226800.0 0.9597416906 -0.2688331758
12250226500.0 0.9551896504 -0.282594199
12300226200.0 0.9518703062 -0.2939007228
12350225900.0 0.9458985863 -0.3085191098
12400225600.0 0.9418595974 -0.3212987874
12450225300.0 0.9376176166 -0.3338488156
12500225000.0 0.9322046142 -0.3485167447
12550224700.0 0.9267956523 -0.3626307968
12600224400.0 0.9219508557 -0.3750872809
12650224100.0 0.9159387081 -0.3897358372
12700223800.0 0.9107004684 -0.402606385
12750223500.0 0.9051556013 -0.4155991159
12800223200.0 0.8998601516 -0.4283338924
12850222900.0 0.8945483494 -0.4406702522
12900222600.0 0.8887818424 -0.452626928
12950222300.0 0.8827224247 -0.4651198936
13000222000.0 0.8766416642 -0.4760111334
13050221700.0 0.8695564899 -0.489603575
13100221400.0 0.8632709697 -0.5019537218
13150221100.0 0.8561790134 -0.5137465823
13200220800.0 0.8495877638 -0.5251889378
13250220500.0 0.8421358436 -0.5373260708
13300220200.0 0.8347315814 -0.5480625619
13350219900.0 0.8268164458 -0.5599319542
13400219600.0 0.8185250278 -0.5719662423
13450219300.0 0.8088822489 -0.5852812061
13500219000.0 0.7992659503 -0.5989183153
13550218700.0 0.7888914721 -0.6119985638
13600218400.0 0.7793790197 -0.6238469746
13650218100.0 0.768806305 -0.6349556823
13700217800.0 0.7587742722 -0.6471636743
13750217500.0 0.7484078858 -0.6587699983
13800217200.0 0.7372799442 -0.6697659066
13850216900.0 0.7261726704 -0.6809712293
13900216600.0 0.7167350083 -0.6902363088
13950216300.0 0.7059314532 -0.7008289899
14000216000.0 0.6954560742 -0.7095410814
14050215700.0 0.6864021071 -0.7181364765
14100215400.0 0.6761966357 -0.7271722326
14150215100.0 0.6672546176 -0.735522148
14200214800.0 0.6578579036 -0.7444015582
14250214500.0 0.6477260434 -0.7538354394
14300214200.0 0.637153913 -0.7631802408
14350213900.0 0.6260168801 -0.7728914478
14400213600.0 0.6141152087 -0.7827077276
14450213300.0 0.6013401036 -0.792634277
14500213000.0 0.5879471833 -0.8029744212
14550212700.0 0.5756583792 -0.8123106342
14600212400.0 0.5632537933 -0.820756097
14650212100.0 0.5499387931 -0.830021367
14700211800.0 0.5364226171 -0.8394109933
14750211500.0 0.5241644293 -0.8478148683
14800211200.0 0.5118422184 -0.8556190507
14850210900.0 0.4996459247 -0.8630495202
14900210600.0 0.4863156994 -0.8710705182
14950210300.0 0.4731532813 -0.8785554071
15000210000.0 0.4602039675 -0.8854462906
15050209700.0 0.4481028424 -0.8914747331
15100209400.0 0.4349303423 -0.897636478
15150209100.0 0.4231888619 -0.9025921018
15200208800.0 0.4103493961 -0.9081288578
15250208500.0 0.3996090887 -0.9129503384
15300208200.0 0.3875302837 -0.9171071954
15350207900.0 0.3745606713 -0.9220301873
15400207600.0 0.3590004143 -0.9272646873
15450207300.0 0.3457717144 -0.9327199757
15500207000.0 0.3298373641 -0.9373286602
15550206700.0 0.315311163 -0.9417320026
15600206400.0 0.2995091173 -0.9464884561
15650206100.0 0.2838929988 -0.9507813577
15700205800.0 0.2699155859 -0.9547755714
15750205500.0 0.2555042361 -0.9584628765
15800205200.0 0.2411322513 -0.9617757143
15850204900.0 0.2267235634 -0.9652549687
15900204600.0 0.2117123211 -0.96892504
15950204300.0 0.1976850615 -0.9719107267
16000204000.0 0.1833703596 -0.9747214556
16050203700.0 0.1682565769 -0.9778276767
16100203400.0 0.1538367646 -0.9798876364
16150203100.0 0.1392503925 -0.9815831241
16200202800.0 0.1246736771 -0.9840284185
16250202500.0 0.1102174952 -0.9861116502
16300202200.0 0.0947843802 -0.9878386028
16350201900.0 0.0799499647 -0.9892284877
16400201600.0 0.0650495281 -0.9901148029
16450201300.0 0.0499373111 -0.9912522037
16500201000.0 0.0329265889 -0.9920985019
16550200700.0 0.0172875063 -0.9926126187
16600200400.0 0.0016487177 -0.9927974883
16650200100.0 -0.0144770243 -0.9925671432
16700199800.0 -0.0307483438 -0.9921328967
16750199500.0 -0.0493049148 -0.9917240899
16800199200.0 -0.0652901764 -0.9910661158
16850198900.0 -0.080591761 -0.9898453166
16900198600.0 -0.0938969273 -0.9888422113
16950198300.0 -0.1076349386 -0.9879370257
17000198000.0 -0.1200069141 -0.9857869306
17050197700.0 -0.1326407338 -0.9840545903
17100197400.0 -0.146166781 -0.9822176288
17150197100.0 -0.1587041184 -0.9803222426
17200196800.0 -0.171557466 -0.9779647182
17250196500.0 -0.1842700421 -0.9754936772
17300196200.0 -0.1966489106 -0.9736250036
17350195900.0 -0.2086350388 -0.9710246074
17400195600.0 -0.2206591196 -0.9686755307
17450195300.0 -0.2337583266 -0.9659178439
17500195000.0 -0.247263526 -0.962731117
17550194700.0 -0.2611674023 -0.9588588163
17600194400.0 -0.2751229256 -0.9547865883
17650194100.0 -0.2886055622 -0.950736412
17700193800.0 -0.3019876104 -0.9463620915
17750193500.0 -0.3165276276 -0.9422446406
17800193200.0 -0.3311138131 -0.936888568
17850192900.0 -0.3457860184 -0.9315041206
17900192600.0 -0.3609331645 -0.9256110132
17950192300.0 -0.376315749 -0.9180200554
18000192000.0 -0.3913553076 -0.9113859577
18050191700.0 -0.405004847 -0.9033773069
18100191400.0 -0.419332144 -0.8956752956
18150191100.0 -0.4343759075 -0.8876504375
18200190800.0 -0.4512278905 -0.8788640936
18250190500.0 -0.4681725367 -0.869244604
18300190200.0 -0.4837577515 -0.8603967925
18350189900.0 -0.4986847948 -0.8518155704
18400189600.0 -0.5134379424 -0.8439616893
18450189300.0 -0.5264325189 -0.8356064235
18500189000.0 -0.5394455222 -0.8278609008
18550188700.0 -0.5527097171 -0.820123292
18600188400.0 -0.5641044343 -0.8138413881
18650188100.0 -0.575285316 -0.8074234588
18700187800.0 -0.5858722476 -0.8007051277
18750187500.0 -0.5965578228 -0.7940160262
18800187200.0 -0.6073473101 -0.7870512639
18850186900.0 -0.6174370254 -0.7800155913
18900186600.0 -0.6276152907 -0.7728569579
18950186300.0 -0.6372515643 -0.7652023879
19000186000.0 -0.6449563117 -0.7588830966
19050185700.0 -0.6538676575 -0.7518768197
19100185400.0 -0.6636258337 -0.7434233774
19150185100.0 -0.673781424 -0.7345177371
19200184800.0 -0.6830774139 -0.7270813355
19250184500.0 -0.6933379539 -0.7177272107
19300184200.0 -0.7052670137 -0.7080801146
19350183900.0 -0.7154606701 -0.6978373377
19400183600.0 -0.7257416628 -0.6885114887
19450183300.0 -0.7346304955 -0.678482015
19500183000.0 -0.7428194458 -0.6683483701
19550182700.0 -0.7529078091 -0.6575818509
19600182400.0 -0.7631645613 -0.6458492857
19650182100.0 -0.773863242 -0.6334663994
19700181800.0 -0.7847665713 -0.6200071186
19750181500.0 -0.7950037864 -0.6059284933
19800181200.0 -0.8056761881 -0.5909625349
19850180900.0 -0.815203879 -0.5756319517
19900180600.0 -0.8230863839 -0.5610381204
19950180300.0 -0.8324415318 -0.5448628253
20000180000.0 -0.8250218105 -0.5470761685
20050179700.0 -0.8331608812 -0.5333098091
20100179400.0 -0.8421484617 -0.5204423747
20150179100.0 -0.8493998099 -0.5085885265
20200178800.0 -0.8581736214 -0.4960452496
20250178500.0 -0.8679495989 -0.482201103
20300178200.0 -0.8776177515 -0.467973921
20350177900.0 -0.8870753204 -0.4533948107
20400177600.0 -0.895672204 -0.4396593255
20450177300.0 -0.9038105339 -0.4250799439
20500177000.0 -0.912081692 -0.4113099565
20550176700.0 -0.9199019334 -0.3978131721
20600176400.0 -0.9267223581 -0.3844027311
20650176100.0 -0.9336413207 -0.3728676144
20700175800.0 -0.9403956467 -0.3605040984
20750175500.0 -0.946352091 -0.3489772766
20800175200.0 -0.9515638234 -0.3386422486
20850174900.0 -0.9563380092 -0.3270080041
20900174600.0 -0.9610671398 -0.3158438535
20950174300.0 -0.9640483341 -0.3039517205
21000174000.0 -0.9680452008 -0.2929493059
21050173700.0 -0.9708024027 -0.2826669051
21100173400.0 -0.9740969147 -0.2714219821
21150173100.0 -0.9774548627 -0.2592772653
21200172800.0 -0.9813606548 -0.2453552806
21250172500.0 -0.9846394688 -0.2316202463
21300172200.0 -0.9879025627 -0.2176894206
21350171900.0 -0.9891288715 -0.2033194073
21400171600.0 -0.9910802888 -0.1891693878
21450171300.0 -0.991531857 -0.1750122475
21500171000.0 -0.9912049226 -0.1595798746
21550170700.0 -0.9918003561 -0.1443566585
21600170400.0 -0.9916286755 -0.1282015808
21650170100.0 -0.9911528455 -0.1129013345
21700169800.0 -0.9889980386 -0.0972389382
21750169500.0 -0.9890134877 -0.0802398147
21800169200.0 -0.988569488 -0.0652461699
21850168900.0 -0.9875692242 -0.047338771
21900168600.0 -0.986983957 -0.0317722123
21950168300.0 -0.985428538 -0.0155180238
22000168000.0 -0.9848539471 -0.0009191773
22050167700.0 -0.9850451099 0.0132692885
22100167400.0 -0.9854431335 0.0287257667
22150167100.0 -0.986077013 0.0443265512
22200166800.0 -0.9867996511 0.0606573607
22250166500.0 -0.9863670066 0.0780607668
22300166200.0 -0.9852624003 0.0949263079
22350165900.0 -0.983937187 0.1112975782
22400165600.0 -0.9820233201 0.126652029
22450165300.0 -0.9806765719 0.1421788282
22500165000.0 -0.9776662493 0.1553629706
22550164700.0 -0.9768183017 0.1707419698
22600164400.0 -0.975748585 0.1858134673
22650164100.0 -0.9730699861 0.2010484605
22700163800.0 -0.9701787633 0.2175747505
22750163500.0 -0.9681901984 0.2323704099
22800163200.0 -0.9654904287 0.2455015767
22850162900.0 -0.9626336692 0.2591390391
22900162600.0 -0.9609965363 0.2725286203
22950162300.0 -0.9597103452 0.2853176834
23000162000.0 -0.9587103298 0.2978184152
23050161700.0 -0.9561668009 0.3100391975
23100161400.0 -0.953817272 0.3234817423
23150161100.0 -0.9506938433 0.3360622436
23200160800.0 -0.9481113325 0.3480775039
23250160500.0 -0.9454969217 0.3603244425
23300160200.0 -0.9421245409 0.3723256163
23350159900.0 -0.9387081393 0.3854162261
23400159600.0 -0.9344698223 0.3991156596
23450159300.0 -0.9291244428 0.4131151299
23500159000.0 -0.9249088506 0.4255100219
23550158700.0 -0.9202012488 0.43966145
23600158400.0 -0.9146443744 0.452647736
23650158100.0 -0.9081254843 0.4670391954
23700157800.0 -0.9006205753 0.4805580497
23750157500.0 -0.8918044999 0.495233057
23800157200.0 -0.882752602 0.5082435065
23850156900.0 -0.8736906027 0.5206511654
23900156600.0 -0.8642364606 0.5337053909
23950156300.0 -0.8550367342 0.5458124093
24000156000.0 -0.8466231604 0.5582789864
24050155700.0 -0.8349898611 0.5699516165
24100155400.0 -0.8263235152 0.5818749259
24150155100.0 -0.8149373427 0.5941053545
24200154800.0 -0.8035396018 0.6045907998
24250154500.0 -0.7930502716 0.6172949036
24300154200.0 -0.7817628899 0.6286219435
24350153900.0 -0.7696520181 0.6391906221
24400153600.0 -0.7571899629 0.6495428742
24450153300.0 -0.7453819784 0.6597641225
24500153000.0 -0.7338472592 0.6693259867
24550152700.0 -0.7230235351 0.679599541
24600152400.0 -0.711117751 0.6885452171
24650152100.0 -0.6994881804 0.6966644268
