!Created with skrf (http://scikit-rf.org).
# Hz S RI R 50.0 
!freq ReS11 ImS11
300000.0 -0.992780146 -0.0568857661
50299700.0 -0.9995451336 0.0164774611
100299400.0 -0.9975317588 0.029204932
150299100.0 -1.00237229 0.0458626808
200298800.0 -0.9991384007 0.0591579662
250298500.0 -0.9968924783 0.0727937345
300298200.0 -0.9856171034 0.0883823048
350297900.0 -0.9932588777 0.0993098882
400297600.0 -0.9924232856 0.1159029193
450297300.0 -0.9903471181 0.1293927895
500297000.0 -0.9885055617 0.1442064898
550296700.0 -0.9834289795 0.1566410381
600296400.0 -1.016143165 0.1899124021
650296100.0 -0.9812390407 0.186413226
700295800.0 -0.9780688473 0.200812344
750295500.0 -0.9751458388 0.214606441
800295200.0 -0.9717776877 0.2285366462
850294900.0 -0.9683841931 0.24234228
900294600.0 -0.9645508646 0.2562585432
950294300.0 -0.9611414045 0.2698580464
1000294000.0 -0.9569965639 0.2838219793
1050293700.0 -0.9524781211 0.2973996208
1100293400.0 -0.9482604942 0.3117269767
1150293100.0 -0.9444076622 0.3238331141
1200292800.0 -0.9390226844 0.3380051918
1250292500.0 -0.9336345658 0.3513746839
1300292200.0 -0.927963247 0.3646573315
1350291900.0 -0.9225759394 0.3786249973
1400291600.0 -0.9171979689 0.3915973632
1450291300.0 -0.9118300692 0.4039180913
1500291000.0 -0.9056294404 0.4174334356
1550290700.0 -0.8991925982 0.4304825963
1600290400.0 -0.8928139603 0.4434669532
1650290100.0 -0.8863532125 0.4556348237
1700289800.0 -0.8796922589 0.4689337865
1750289500.0 -0.8726334105 0.4811273596
1800289200.0 -0.8651634372 0.4940735396
1850288900.0 -0.858525022 0.5054152078
1900288600.0 -0.8508153183 0.5184207978
1950288300.0 -0.8427830125 0.5310601807
2000288000.0 -0.8353549433 0.5423555126
2050287700.0 -0.8270386418 0.5547256332
2100287400.0 -0.8191983965 0.5661551967
2150287100.0 -0.8106050477 0.5783540839
2200286800.0 -0.802585455 0.5888504287
2250286500.0 -0.7940494811 0.6008028549
2300286200.0 -0.7850746851 0.6124329764
2350285900.0 -0.7761974663 0.6235417848
2400285600.0 -0.7671306695 0.6346105982
2450285300.0 -0.7585476788 0.6450825394
2500285000.0 -0.7488093244 0.6559367403
2550284700.0 -0.7398965217 0.6665179415
2600284400.0 -0.7303061762 0.6766257835
2650284100.0 -0.7213781133 0.6870392868
2700283800.0 -0.7110391155 0.6975341825
2750283500.0 -0.7008359152 0.7078459187
2800283200.0 -0.6905246715 0.7175872703
2850282900.0 -0.680401014 0.7276488111
2900282600.0 -0.6701816902 0.7371876434
2950282300.0 -0.659937724 0.7462367571
3000282000.0 -0.649426273 0.7559260661
3050281700.0 -0.638352826 0.7649858338
3100281400.0 -0.6271180991 0.7740569617
3150281100.0 -0.615635016 0.7831772762
3200280800.0 -0.6038669454 0.7918490515
3250280500.0 -0.5931502538 0.7997110833
3300280200.0 -0.581813176 0.8078334613
3350279900.0 -0.5705338131 0.8154245339
3400279600.0 -0.5582560317 0.8232797794
3450279300.0 -0.5471324785 0.8305614181
3500279000.0 -0.5352704132 0.837816756
3550278700.0 -0.5231730395 0.8451675965
3600278400.0 -0.5113380518 0.8523133986
3650278100.0 -0.4979929114 0.860062608
3700277800.0 -0.4861073963 0.8663688166
3750277500.0 -0.4739166884 0.8730095587
3800277200.0 -0.4611721078 0.8796656907
3850276900.0 -0.4489570269 0.8855421038
3900276600.0 -0.4378819826 0.8915326584
3950276300.0 -0.425003891 0.8976162043
4000276000.0 -0.4129161775 0.903808069
4050275700.0 -0.3996644058 0.9096539049
4100275400.0 -0.388276713 0.9150875512
4150275100.0 -0.3752286603 0.920898114
4200274800.0 -0.3620075748 0.9262535881
4250274500.0 -0.3496680001 0.9311116603
4300274200.0 -0.3367785742 0.9364453381
4350273900.0 -0.3231294579 0.9415360358
4400273600.0 -0.3090193649 0.9463128867
4450273300.0 -0.2939669814 0.951412229
4500273000.0 -0.2806282498 0.9557857449
4550272700.0 -0.2671275127 0.9599248829
4600272400.0 -0.2515382864 0.9639894837
4650272100.0 -0.2393565042 0.9671081153
4700271800.0 -0.2260327067 0.9704698164
4750271500.0 -0.213920198 0.9734932005
4800271200.0 -0.201088372 0.9761536753
4850270900.0 -0.187145878 0.9790776432
4900270600.0 -0.1735888506 0.9815075048
4950270300.0 -0.159797058 0.9838771634
5000270000.0 -0.1456475705 0.9858263875
5050269700.0 -0.1321626859 0.9877974739
5100269400.0 -0.1184613496 0.9893148998
5150269100.0 -0.1048674043 0.9914637337
5200268800.0 -0.0913239675 0.9920719994
5250268500.0 -0.0785594779 0.9935009555
5300268200.0 -0.0650906125 0.9944049793
5350267900.0 -0.0528084195 0.9949583888
5400267600.0 -0.0370908229 0.9959257913
5450267300.0 -0.0241055095 0.9961552411
5500267000.0 -0.0097114554 0.9967429757
5550266700.0 0.0043970558 0.9967560314
5600266400.0 0.0197372569 0.996713609
5650266100.0 0.035609949 0.9964101968
5700265800.0 0.0498455742 0.9954171345
5750265500.0 0.0646632116 0.9953590438
5800265200.0 0.0786556276 0.9938290108
5850264900.0 0.0917175757 0.9928192701
5900264600.0 0.1084459331 0.9915595621
5950264300.0 0.1207443487 0.9895265253
6000264000.0 0.1344421015 0.9880027326
6050263700.0 0.1470678528 0.9862545443
6100263400.0 0.1603557993 0.984608614
6150263100.0 0.1753963806 0.9817646931
6200262800.0 0.1859812441 0.9800852205
6250262500.0 0.1989731328 0.9774097514
6300262200.0 0.2117724676 0.9746301074
6350261900.0 0.2247502473 0.9719439043
6400261600.0 0.2391021551 0.9685315363
6450261300.0 0.2506233518 0.9657284052
6500261000.0 0.2634932174 0.962175562
6550260700.0 0.2766208267 0.958273127
6600260400.0 0.2898203852 0.9545122712
6650260100.0 0.3036006209 0.9501424625
6700259800.0 0.3153486717 0.946083013
6750259500.0 0.3290898113 0.9412420643
6800259200.0 0.3423865686 0.9364747473
6850258900.0 0.3543002041 0.9313752234
6900258600.0 0.3665066872 0.9263672809
6950258300.0 0.379387718 0.9214409447
7000258000.0 0.3912613916 0.9161355378
7050257700.0 0.4035871799 0.9103544844
7100257400.0 0.4167983981 0.9042226438
7150257100.0 0.4271402602 0.898832847
7200256800.0 0.4401684714 0.8927117267
7250256500.0 0.4515757407 0.8864695594
7300256200.0 0.4645491693 0.879816802
7350255900.0 0.4763836707 0.873155835
7400255600.0 0.4884369958 0.8668341279
7450255300.0 0.503742287 0.8583454892
7500255000.0 0.5145158903 0.8514816358
7550254700.0 0.5279850132 0.8433349583
7600254400.0 0.5403537563 0.8352122798
7650254100.0 0.5516741384 0.8276511236
7700253800.0 0.5637833992 0.8196710835
7750253500.0 0.5750397273 0.8117758187
7800253200.0 0.5863993053 0.8038413312
7850252900.0 0.5957657672 0.796831082
7900252600.0 0.607932923 0.7877325771
7950252300.0 0.6171391549 0.7807854721
8000252000.0 0.6274611893 0.7727875771
8050251700.0 0.6380089777 0.7643392741
8100251400.0 0.6480715248 0.7562340488
8150251100.0 0.6583912073 0.7471297267
8200250800.0 0.6679404592 0.7390793064
8250250500.0 0.6774834584 0.7306119246
8300250200.0 0.6865871275 0.7218240463
8350249900.0 0.6963323574 0.712932183
8400249600.0 0.7049096867 0.7047894567
8450249300.0 0.7142046403 0.6952332043
8500249000.0 0.7231596022 0.6860204162
8550248700.0 0.7320632552 0.6765598637
8600248400.0 0.7407049276 0.6669345405
8650248100.0 0.7486922158 0.657624981
8700247800.0 0.7577764723 0.6466663793
8750247500.0 0.7662746562 0.6366748912
8800247200.0 0.7743022956 0.6266411209
8850246900.0 0.7831786947 0.6154250941
8900246600.0 0.7913958466 0.6043551083
8950246300.0 0.8004916819 0.5922479401
9000246000.0 0.809429825 0.5805363705
9050245700.0 0.8176267704 0.568324929
9100245400.0 0.8259306783 0.5561129427
9150245100.0 0.8346581775 0.5436630058
9200244800.0 0.8435668256 0.529989124
9250244500.0 0.8521685648 0.5159880923
9300244200.0 0.8599614242 0.5027616568
9350243900.0 0.8674407151 0.4892400643
9400243600.0 0.874673993 0.4764907305
9450243300.0 0.8808794481 0.4646533776
9500243000.0 0.8880408123 0.4513543848
9550242700.0 0.8927421484 0.4413793567
9600242400.0 0.8975495932 0.4319703781
9650242100.0 0.9017322518 0.4236049103
9700241800.0 0.9066710492 0.4142150478
9750241500.0 0.9112589523 0.4049782302
9800241200.0 0.9159430551 0.3949185177
9850240900.0 0.9213562301 0.3833512604
9900240600.0 0.9263556529 0.3726662005
9950240300.0 0.9327958176 0.3570569335
10000240000.0 0.9370820498 0.345242702
10050239700.0 0.9423925172 0.3308627099
10100239400.0 0.947518088 0.3161654203
10150239100.0 0.9518163061 0.301898731
10200238800.0 0.9560637891 0.2871023412
10250238500.0 0.9596786475 0.273734313
10300238200.0 0.96314744 0.2599104967
10350237900.0 0.9662064772 0.2469553669
10400237600.0 0.9689348824 0.2336395268
10450237300.0 0.9719568582 0.2200070373
10500237000.0 0.9739955986 0.2080515177
10550236700.0 0.9769612913 0.1940690966
10600236400.0 0.9791581862 0.1810302843
10650236100.0 0.9812253284 0.1662863097
10700235800.0 0.9841667923 0.1531845772
10750235500.0 0.9856872427 0.1403437767
10800235200.0 0.9877203027 0.1266761549
10850234900.0 0.9895039807 0.1123426569
10900234600.0 0.9913985252 0.0981568803
10950234300.0 0.9928911158 0.0850610668
11000234000.0 0.9945637229 0.0706896046
11050233700.0 0.9961065479 0.0556875986
11100233400.0 0.9971491504 0.0393548934
11150233100.0 0.9984575257 0.0235975063
11200232800.0 0.9985298464 0.0094365681
11250232500.0 0.9995940927 -0.0065445928
11300232200.0 0.9996143162 -0.0229934531
11350231900.0 0.9997187863 -0.0381522787
11400231600.0 0.9993999041 -0.0544928603
11450231300.0 0.9992479915 -0.0691695477
11500231000.0 0.9978575899 -0.0844697201
11550230700.0 0.9965549911 -0.099043632
11600230400.0 0.9952998978 -0.1124571425
11650230100.0 0.992913369 -0.1246685691
11700229800.0 0.9914806974 -0.1389539885
11750229500.0 0.9891623552 -0.1538266671
11800229200.0 0.9869956594 -0.1676881869
11850228900.0 0.9835949406 -0.1810229567
11900228600.0 0.9804057926 -0.1923559555
11950228300.0 0.9774054126 -0.2046167418
12000228000.0 0.9745818076 -0.2147968824
12050227700.0 0.9709207747 -0.2277098483
12100227400.0 0.9685634198 -0.2380511697
12150227100.0 0.9639824103 -0.2550106381
12200226800.0 0.9604750238 -0.2670287411
12250226500.0 0.9561072717 -0.2795087255
12300226200.0 0.9529666432 -0.2915086373
12350225900.0 0.9470304637 -0.3061115291
12400225600.0 0.943666502 -0.3183768433
12450225300.0 0.9395503165 -0.3301859522
12500225000.0 0.9342485999 -0.3448860185
12550224700.0 0.9288592801 -0.3585767823
12600224400.0 0.9241834426 -0.3710391932
12650224100.0 0.9183890114 -0.3852144525
12700223800.0 0.9131578103 -0.3977676665
12750223500.0 0.9077065592 -0.410663395
12800223200.0 0.9022921626 -0.4233136807
12850222900.0 0.8965826358 -0.4357707649
12900222600.0 0.891218383 -0.4474998296
12950222300.0 0.884418926 -0.460769734
13000222000.0 0.8784885256 -0.4721857211
13050221700.0 0.8716671074 -0.484638744
13100221400.0 0.8646598757 -0.4971812367
13150221100.0 0.8578663126 -0.5095652374
13200220800.0 0.8508511986 -0.5216050207
13250220500.0 0.8431611112 -0.5336197967
13300220200.0 0.8355326301 -0.544829489
13350219900.0 0.8274434234 -0.5573714864
13400219600.0 0.8194872201 -0.5689517783
13450219300.0 0.8104539991 -0.5820983227
13500219000.0 0.8008923416 -0.5951160802
13550218700.0 0.7909351055 -0.6079120134
13600218400.0 0.7812682923 -0.6197424497
13650218100.0 0.7716896388 -0.6306419952
13700217800.0 0.7612216961 -0.6427682086
13750217500.0 0.7513372529 -0.6549215516
13800217200.0 0.7411178216 -0.6659269039
13850216900.0 0.7305215839 -0.6769608888
13900216600.0 0.7202669671 -0.686743955
13950216300.0 0.7098891045 -0.6970194699
14000216000.0 0.7000388173 -0.7071113994
14050215700.0 0.6905303455 -0.7157250227
14100215400.0 0.680274418 -0.7250751144
14150215100.0 0.6709412389 -0.7340521763
14200214800.0 0.6614926802 -0.7425765542
14250214500.0 0.6512463342 -0.751973936
14300214200.0 0.6407495828 -0.761336893
14350213900.0 0.6299106708 -0.7706448838
14400213600.0 0.618629742 -0.7799438505
14450213300.0 0.6062138303 -0.7897776757
14500213000.0 0.5939470055 -0.799610402
14550212700.0 0.5815708772 -0.8083277809
14600212400.0 0.5698156709 -0.8172041383
14650212100.0 0.5574218075 -0.8252132406
14700211800.0 0.5435524964 -0.8348575583
14750211500.0 0.5313909135 -0.8427615295
14800211200.0 0.5188105998 -0.8511179793
14850210900.0 0.5067186481 -0.8583566584
14900210600.0 0.4933581013 -0.866268367
14950210300.0 0.4800164637 -0.8740871579
15000210000.0 0.4669794188 -0.8810916519
15050209700.0 0.4542967218 -0.8876193301
15100209400.0 0.4411476357 -0.8939914869
15150209100.0 0.4291729985 -0.8999360992
15200208800.0 0.4156799142 -0.9055258355
15250208500.0 0.4032618476 -0.910806842
15300208200.0 0.3897567836 -0.9158521317
15350207900.0 0.3770426968 -0.9215233623
15400207600.0 0.3628247529 -0.926076157
15450207300.0 0.3479679251 -0.9313012343
15500207000.0 0.3336064202 -0.9369137536
15550206700.0 0.3200100739 -0.9416890229
15600206400.0 0.3050735559 -0.9461047303
15650206100.0 0.2891624785 -0.9507347087
15700205800.0 0.2753685145 -0.9545452801
15750205500.0 0.2613696813 -0.9579946981
15800205200.0 0.2473585675 -0.9616044965
15850204900.0 0.2332456516 -0.9650411542
15900204600.0 0.2183274134 -0.968788868
15950204300.0 0.2046716395 -0.9719085747
16000204000.0 0.1903382742 -0.9745017335
16050203700.0 0.1756719154 -0.9777528685
16100203400.0 0.1615365068 -0.9796911289
16150203100.0 0.146946781 -0.9821985144
16200202800.0 0.1327554657 -0.9845630919
16250202500.0 0.1185374127 -0.9860875418
16300202200.0 0.1038222441 -0.9878986081
16350201900.0 0.0883396722 -0.9892142669
16400201600.0 0.0735708216 -0.9906249781
16450201300.0 0.0589476449 -0.9916688656
16500201000.0 0.0428536042 -0.9924755483
16550200700.0 0.0273622927 -0.9930892042
16600200400.0 0.0117098808 -0.9935337099
16650200100.0 -0.004384958 -0.9933594738
16700199800.0 -0.0200487788 -0.9934472011
16750199500.0 -0.0382000007 -0.9931613095
16800199200.0 -0.0539116639 -0.9922644895
16850198900.0 -0.0694012832 -0.9912500806
16900198600.0 -0.0839425479 -0.9899092554
16950198300.0 -0.0976831252 -0.9891431952
17000198000.0 -0.1114460285 -0.9872785594
17050197700.0 -0.1248609559 -0.9857101203
17100197400.0 -0.1387781506 -0.983759748
17150197100.0 -0.1521095348 -0.9819030459
17200196800.0 -0.1655713482 -0.9793626401
17250196500.0 -0.178933423 -0.9769458423
17300196200.0 -0.1921606237 -0.9747490966
17350195900.0 -0.2044522388 -0.9723541601
17400195600.0 -0.2171954474 -0.9694594601
17450195300.0 -0.2303893298 -0.9665189075
17500195000.0 -0.2440650969 -0.963242639
17550194700.0 -0.257905986 -0.9598392916
17600194400.0 -0.2722366463 -0.9559451351
17650194100.0 -0.2859833683 -0.9519886031
17700193800.0 -0.2988772591 -0.9476937025
17750193500.0 -0.31258292 -0.9434857999
17800193200.0 -0.32640217 -0.9384415795
17850192900.0 -0.3409482909 -0.9334481702
17900192600.0 -0.3556904875 -0.9277637008
17950192300.0 -0.3709154667 -0.9209441361
18000192000.0 -0.3854238651 -0.9146175328
18050191700.0 -0.3992766348 -0.9070237246
18100191400.0 -0.413449749 -0.9000058533
18150191100.0 -0.427872062 -0.8925915554
18200190800.0 -0.4436895259 -0.8843648216
18250190500.0 -0.4598706109 -0.8757383146
18300190200.0 -0.4750635654 -0.8673457082
18350189900.0 -0.4900814454 -0.8597665491
18400189600.0 -0.5041833847 -0.8519467147
18450189300.0 -0.5177030398 -0.8437644006
18500189000.0 -0.5311262598 -0.8358087924
18550188700.0 -0.5437669028 -0.8278873667
18600188400.0 -0.5563588829 -0.8200360487
18650188100.0 -0.5681260935 -0.8128047372
18700187800.0 -0.5798174928 -0.8057120805
18750187500.0 -0.5906391068 -0.7983758297
18800187200.0 -0.6019341801 -0.7905634155
18850186900.0 -0.6126348604 -0.78287115
18900186600.0 -0.623496497 -0.7749342371
18950186300.0 -0.6340490852 -0.7665389209
19000186000.0 -0.6426034543 -0.7591655797
19050185700.0 -0.6525586809 -0.7514787246
19100185400.0 -0.6625712548 -0.7427086372
19150185100.0 -0.6729433211 -0.7335524917
19200184800.0 -0.6825527171 -0.7249009236
19250184500.0 -0.6923477365 -0.7153467454
19300184200.0 -0.7035723432 -0.7057334251
19350183900.0 -0.7144172831 -0.6967431329
19400183600.0 -0.7236506118 -0.6866308605
19450183300.0 -0.7331691228 -0.6760334944
19500183000.0 -0.7408320374 -0.6665641923
19550182700.0 -0.7507159064 -0.6553689376
19600182400.0 -0.7603115021 -0.6441407526
19650182100.0 -0.7703076614 -0.6323824738
19700181800.0 -0.7804380078 -0.6201329325
19750181500.0 -0.7903576233 -0.6071492274
19800181200.0 -0.8001989962 -0.5932312474
19850180900.0 -0.8097611848 -0.5790467088
19900180600.0 -0.8177008813 -0.5658792417
19950180300.0 -0.8273043262 -0.5508767967
20000180000.0 -0.826145993 -0.548092883
20050179700.0 -0.8340981064 -0.5349413285
20100179400.0 -0.8429294645 -0.5217270159
20150179100.0 -0.8501501854 -0.5098938092
20200178800.0 -0.8587643707 -0.4972818142
20250178500.0 -0.8676732542 -0.48389515
20300178200.0 -0.8758398523 -0.4697431466
20350177900.0 -0.8844199568 -0.456340454
20400177600.0 -0.8923430072 -0.4423462808
20450177300.0 -0.9002757898 -0.4285798959
20500177000.0 -0.907497785 -0.4148557476
20550176700.0 -0.9148165599 -0.4011329707
20600176400.0 -0.9217042032 -0.3882695941
20650176100.0 -0.9281856553 -0.3750614303
20700175800.0 -0.9337026899 -0.3626554264
20750175500.0 -0.940606972 -0.3511357647
20800175200.0 -0.9449783818 -0.3392305943
20850174900.0 -0.9504058805 -0.3275134884
20900174600.0 -0.9551201622 -0.3151702407
20950174300.0 -0.9587805765 -0.302382361
21000174000.0 -0.9631220453 -0.2911313516
21050173700.0 -0.9654139126 -0.2788735637
21100173400.0 -0.9696084163 -0.2667570043
21150173100.0 -0.9732833154 -0.2532712392
21200172800.0 -0.9772021252 -0.2397858821
21250172500.0 -0.9803739867 -0.2260630829
21300172200.0 -0.9832825262 -0.2117530882
21350171900.0 -0.9855823278 -0.197547129
21400171600.0 -0.9877943364 -0.1830868011
21450171300.0 -0.9880157145 -0.168787742
21500171000.0 -0.9888831454 -0.1541536759
21550170700.0 -0.990018197 -0.139232126
21600170400.0 -0.9917898776 -0.1236248776
21650170100.0 -0.9907097983 -0.108623279
21700169800.0 -0.9906373772 -0.0934083466
21750169500.0 -0.9903707235 -0.0773678522
21800169200.0 -0.9896260027 -0.0626743587
21850168900.0 -0.9899053665 -0.0465842671
21900168600.0 -0.9886310658 -0.0308437753
21950168300.0 -0.9878191141 -0.0151187316
22000168000.0 -0.9867892512 -0.0006774831
22050167700.0 -0.9864165623 0.0136259252
22100167400.0 -0.9863539012 0.0288347191
22150167100.0 -0.9865618273 0.0435326379
22200166800.0 -0.9864459751 0.0590723735
22250166500.0 -0.9853718677 0.0754122642
22300166200.0 -0.9846667924 0.0912981421
22350165900.0 -0.9832579773 0.1070066845
22400165600.0 -0.9815876916 0.1226091895
22450165300.0 -0.9796335213 0.1368748597
22500165000.0 -0.9784366324 0.1505900579
22550164700.0 -0.9760853431 0.1650329364
22600164400.0 -0.9742003818 0.179354938
22650164100.0 -0.9725905872 0.1952168232
22700163800.0 -0.9698513671 0.2100819586
22750163500.0 -0.9676414259 0.2248774374
22800163200.0 -0.9645376846 0.2379483324
22850162900.0 -0.961872172 0.251651186
22900162600.0 -0.9599014434 0.2649462466
22950162300.0 -0.9578644865 0.2782610025
23000162000.0 -0.9561946915 0.2902630447
23050161700.0 -0.9538734361 0.3031002674
23100161400.0 -0.9512833174 0.3160999733
23150161100.0 -0.9478357272 0.328599944
23200160800.0 -0.9446829478 0.3404996768
23250160500.0 -0.941497356 0.3531401252
23300160200.0 -0.9384711951 0.3655791081
23350159900.0 -0.9347148151 0.3778902619
23400159600.0 -0.9301955089 0.3912467059
23450159300.0 -0.9257242878 0.4038751046
23500159000.0 -0.9210540184 0.4166983452
23550158700.0 -0.9168843916 0.4297403349
23600158400.0 -0.9111097945 0.442182183
23650158100.0 -0.9049690489 0.455197589
23700157800.0 -0.8979269775 0.4683993475
23750157500.0 -0.8904867217 0.4821537553
23800157200.0 -0.8818560234 0.494756999
23850156900.0 -0.8738998938 0.506986838
23900156600.0 -0.865476136 0.519176053
23950156300.0 -0.856649282 0.5320794677
24000156000.0 -0.8487482569 0.5440436111
24050155700.0 -0.8388616092 0.5565947067
24100155400.0 -0.830103472 0.5681079866
24150155100.0 -0.8201395848 0.5790126508
24200154800.0 -0.8092976519 0.5911940337
24250154500.0 -0.7992290743 0.6032767542
24300154200.0 -0.7892260597 0.6145662763
24350153900.0 -0.7782776046 0.6255102703
24400153600.0 -0.767118525 0.6363398339
24450153300.0 -0.7559253803 0.6467247064
24500153000.0 -0.7451368184 0.6568741882
24550152700.0 -0.7341491951 0.6670863548
24600152400.0 -0.7233447769 0.6775023995
24650152100.0 -0.7118602205 0.6867285486
