!Created with skrf (http://scikit-rf.org).
# Hz S RI R 50.0 
!freq ReS11 ImS11
300000.0 -0.9815451372 -0.1004734171
50299700.0 -0.9998379792 0.0162108865
100299400.0 -0.9980873341 0.0290917136
150299100.0 -1.002693101 0.0459919823
200298800.0 -0.9997270197 0.0595069115
250298500.0 -0.9973825364 0.0728947191
300298200.0 -0.9859652484 0.0886078937
350297900.0 -0.9940207493 0.0995811757
400297600.0 -0.9931291662 0.1161538822
450297300.0 -0.9909900173 0.1300623211
500297000.0 -0.9895150194 0.1445924934
550296700.0 -0.9841893662 0.1572095085
600296400.0 -1.017023197 0.1905129006
650296100.0 -0.9820281779 0.1870736349
700295800.0 -0.9790422936 0.2015362804
750295500.0 -0.9760759206 0.2155413083
800295200.0 -0.9727593879 0.2296741285
850294900.0 -0.9692222444 0.2435747234
900294600.0 -0.9656371368 0.2571332358
950294300.0 -0.9617233023 0.2707202829
1000294000.0 -0.9579079392 0.2849025241
1050293700.0 -0.9532533005 0.2985774561
1100293400.0 -0.948828479 0.3130130043
1150293100.0 -0.9450845828 0.3249170137
1200292800.0 -0.9396966833 0.3390932224
1250292500.0 -0.9342622138 0.3526021142
1300292200.0 -0.92862083 0.3657895825
1350291900.0 -0.9229807628 0.3798774742
1400291600.0 -0.9176040034 0.3929786292
1450291300.0 -0.9121879199 0.4052578781
1500291000.0 -0.9056982626 0.4186909966
1550290700.0 -0.8994141026 0.4320484905
1600290400.0 -0.8930978044 0.4448084605
1650290100.0 -0.8865535397 0.4570054695
1700289800.0 -0.8795571682 0.4705268188
1750289500.0 -0.8724258458 0.482477063
1800289200.0 -0.8650897467 0.4956099269
1850288900.0 -0.8583245246 0.5069383532
1900288600.0 -0.850483741 0.5197820478
1950288300.0 -0.8424303498 0.5326004348
2000288000.0 -0.8349100418 0.5437753961
2050287700.0 -0.8267945407 0.5559469058
2100287400.0 -0.8187663695 0.5678709705
2150287100.0 -0.8101084569 0.5799060977
2200286800.0 -0.8023685774 0.5903117659
2250286500.0 -0.7934292033 0.6024918721
2300286200.0 -0.7846523725 0.6139565806
2350285900.0 -0.7759215266 0.6250996652
2400285600.0 -0.7667184042 0.6358738076
2450285300.0 -0.7581295262 0.646329932
2500285000.0 -0.7481714722 0.6576243495
2550284700.0 -0.7393172846 0.6678700353
2600284400.0 -0.7300091045 0.6781524334
2650284100.0 -0.7209263855 0.6887916441
2700283800.0 -0.7102071736 0.6992011197
2750283500.0 -0.6999880136 0.7099841098
2800283200.0 -0.6901750437 0.7194956875
2850282900.0 -0.6799825997 0.7291527754
2900282600.0 -0.6696636246 0.7388427751
2950282300.0 -0.6594006521 0.7480752087
3000282000.0 -0.6487915124 0.7574471874
3050281700.0 -0.6376484976 0.7668162178
3100281400.0 -0.6258093848 0.7762260206
3150281100.0 -0.6141254434 0.7854682089
3200280800.0 -0.6023687426 0.7938484844
3250280500.0 -0.5914782636 0.801659686
3300280200.0 -0.5805625676 0.8094266244
3350279900.0 -0.5688517796 0.816846394
3400279600.0 -0.5568611262 0.8246699152
3450279300.0 -0.5458543617 0.8319329794
3500279000.0 -0.5338585092 0.8388911532
3550278700.0 -0.5213278045 0.8460794869
3600278400.0 -0.5091401501 0.8533674642
3650278100.0 -0.4955970873 0.8609323907
3700277800.0 -0.4838375482 0.8675262945
3750277500.0 -0.4715600044 0.8741073761
3800277200.0 -0.4593418842 0.880703526
3850276900.0 -0.4465477832 0.8864706306
3900276600.0 -0.435757026 0.8921511977
3950276300.0 -0.4232742571 0.8981064952
4000276000.0 -0.4110711926 0.903892013
4050275700.0 -0.3980614044 0.9101552682
4100275400.0 -0.3869425583 0.9156176727
4150275100.0 -0.3743872148 0.9211063928
4200274800.0 -0.361176445 0.9267735566
4250274500.0 -0.348959824 0.9316349931
4300274200.0 -0.3358335271 0.9371392061
4350273900.0 -0.3221505184 0.9423208373
4400273600.0 -0.3072626631 0.9476849261
4450273300.0 -0.2917469652 0.9524432774
4500273000.0 -0.2782757895 0.9570351941
4550272700.0 -0.2640732842 0.961243853
4600272400.0 -0.2486851912 0.9652805094
4650272100.0 -0.23690301 0.9685645902
4700271800.0 -0.2235881969 0.971744078
4750271500.0 -0.2118213635 0.9748256825
4800271200.0 -0.1992243055 0.9774207351
4850270900.0 -0.1854965083 0.9802563879
4900270600.0 -0.1716130214 0.9827363262
4950270300.0 -0.1574903029 0.9852322469
5000270000.0 -0.1432340069 0.98734636
5050269700.0 -0.1298386905 0.9888110218
5100269400.0 -0.1162319889 0.990657691
5150269100.0 -0.1031344555 0.9923486937
5200268800.0 -0.0896326272 0.9931069793
5250268500.0 -0.0767129328 0.9937498437
5300268200.0 -0.06357562 0.9948698723
5350267900.0 -0.0513319616 0.9954240825
5400267600.0 -0.0352039706 0.9963866605
5450267300.0 -0.0221200575 0.9967983462
5500267000.0 -0.0070965561 0.9969057304
5550266700.0 0.0078398401 0.9972772137
5600266400.0 0.0232821309 0.9973505475
5650266100.0 0.0397727764 0.9968963811
5700265800.0 0.0543854149 0.9959901179
5750265500.0 0.0698257557 0.995445649
5800265200.0 0.0836473602 0.9946259914
5850264900.0 0.0964517172 0.993493853
5900264600.0 0.1132042737 0.9915127461
5950264300.0 0.125253286 0.9895375843
6000264000.0 0.1393074867 0.9879842667
6050263700.0 0.1521795818 0.9864582077
6100263400.0 0.1647769412 0.9844154959
6150263100.0 0.1792522489 0.9821438686
6200262800.0 0.1897324422 0.9804205644
6250262500.0 0.2024845394 0.9778499707
6300262200.0 0.2153020473 0.9750899181
6350261900.0 0.2283291779 0.9720973787
6400261600.0 0.2423282842 0.9688224047
6450261300.0 0.253455601 0.9658128502
6500261000.0 0.2662383019 0.9623073692
6550260700.0 0.2794655654 0.9586558799
6600260400.0 0.2928305651 0.9544516167
6650260100.0 0.3065043032 0.950083451
6700259800.0 0.3188732435 0.9461526025
6750259500.0 0.3323829725 0.9410221921
6800259200.0 0.3457115338 0.9362727034
6850258900.0 0.3575564454 0.9309925785
6900258600.0 0.369328494 0.9259564849
6950258300.0 0.3821735276 0.9207778489
7000258000.0 0.3940773905 0.9153368216
7050257700.0 0.4064013391 0.909205592
7100257400.0 0.4190685703 0.9031279536
7150257100.0 0.4293555691 0.8980534011
7200256800.0 0.4421457003 0.8915986061
7250256500.0 0.4537695191 0.8852316852
7300256200.0 0.4665467037 0.8783261252
7350255900.0 0.4792721094 0.8714914349
7400255600.0 0.4924875929 0.8644763206
7450255300.0 0.507596137 0.8553679742
7500255000.0 0.5192432893 0.8483851516
7550254700.0 0.5331969724 0.8398490459
7600254400.0 0.545602931 0.8313044634
7650254100.0 0.5568882346 0.8236299755
7700253800.0 0.5689843237 0.8156773129
7750253500.0 0.5802223339 0.8077300883
7800253200.0 0.5907017251 0.7999293005
7850252900.0 0.6005791379 0.792844086
7900252600.0 0.6123355328 0.7842545714
7950252300.0 0.6213686063 0.7774376527
8000252000.0 0.6316901786 0.7695132621
8050251700.0 0.642074589 0.761207881
8100251400.0 0.6522287161 0.7530118846
8150251100.0 0.6623788646 0.7442346587
8200250800.0 0.6717848141 0.7362210097
8250250500.0 0.6804178371 0.7282738644
8300250200.0 0.6900184037 0.719473929
8350249900.0 0.6990540774 0.7109865949
8400249600.0 0.7075193449 0.7028801114
8450249300.0 0.7165143655 0.6936102533
8500249000.0 0.725002943 0.6848815274
8550248700.0 0.7334083505 0.6757279665
8600248400.0 0.7420303165 0.6662115106
8650248100.0 0.7497065301 0.6569231257
8700247800.0 0.7591218922 0.6457512646
8750247500.0 0.767362466 0.6358205788
8800247200.0 0.7754473021 0.6254593717
8850246900.0 0.7841776966 0.6140569361
8900246600.0 0.792450031 0.6029325753
8950246300.0 0.8021764665 0.5898181736
9000246000.0 0.811038946 0.577356738
9050245700.0 0.8201682742 0.564475329
9100245400.0 0.828791328 0.5517817123
9150245100.0 0.8384794571 0.5384596444
9200244800.0 0.8479120252 0.5233790328
9250244500.0 0.857401623 0.507725375
9300244200.0 0.865516554 0.4930093245
9350243900.0 0.873470444 0.4792225854
9400243600.0 0.8802461711 0.4666067474
9450243300.0 0.8861663209 0.4546474668
9500243000.0 0.8924912318 0.4422267168
9550242700.0 0.8965078655 0.4343892186
9600242400.0 0.9003002812 0.4267361197
9650242100.0 0.9039446728 0.4198786755
9700241800.0 0.9086085498 0.4115360833
9750241500.0 0.9126970928 0.4037393794
9800241200.0 0.9169001719 0.3947777893
9850240900.0 0.9224606134 0.3834290846
9900240600.0 0.9279832624 0.3716662675
9950240300.0 0.9346333339 0.3554446744
10000240000.0 0.9395087143 0.3438817032
10050239700.0 0.9451327874 0.3284850729
10100239400.0 0.9500018786 0.3135099422
10150239100.0 0.9542274969 0.2985575849
10200238800.0 0.9584190536 0.2837410773
10250238500.0 0.9619046343 0.2703916281
10300238200.0 0.9649980811 0.2565169048
10350237900.0 0.967753331 0.2433686054
10400237600.0 0.9700916629 0.2300152011
10450237300.0 0.9729446723 0.2163568919
10500237000.0 0.975262065 0.2048866099
10550236700.0 0.9774023543 0.1908432754
10600236400.0 0.9795584341 0.1772597258
10650236100.0 0.9811416434 0.1628376914
10700235800.0 0.9836556052 0.1504940159
10750235500.0 0.9857366333 0.1376236224
10800235200.0 0.9883164318 0.1234931725
10850234900.0 0.9895608968 0.1087781574
10900234600.0 0.9916165856 0.094402066
10950234300.0 0.9934123136 0.0810113469
11000234000.0 0.9951294348 0.0661797202
11050233700.0 0.9968234823 0.0498810562
11100233400.0 0.9982397277 0.0326695109
11150233100.0 0.9993305099 0.0165103299
11200232800.0 0.9998942833 0.0008766927
11250232500.0 1.001185934 -0.0153791304
11300232200.0 1.001397072 -0.0332790291
11350231900.0 1.001920787 -0.0502051893
11400231600.0 1.000815406 -0.0648545172
11450231300.0 1.000397245 -0.0803728512
11500231000.0 0.9990626785 -0.0966069635
11550230700.0 0.9977291853 -0.1099361627
11600230400.0 0.9961220581 -0.1231870367
11650230100.0 0.9938987775 -0.1343933154
11700229800.0 0.9921787245 -0.1491631192
11750229500.0 0.9900630398 -0.1639956234
11800229200.0 0.9873481395 -0.1779704283
11850228900.0 0.9836594773 -0.1904030151
11900228600.0 0.9802367745 -0.2005230589
11950228300.0 0.9771347393 -0.2111360436
12000228000.0 0.9739051124 -0.2201379696
12050227700.0 0.9711248796 -0.2323352535
12100227400.0 0.9673867945 -0.2439827087
12150227100.0 0.9622149954 -0.2603388971
12200226800.0 0.9588393437 -0.2707519488
12250226500.0 0.9547641104 -0.2840591184
12300226200.0 0.950513622 -0.2959599016
12350225900.0 0.946038728 -0.3093732381
12400225600.0 0.9413969134 -0.3229751132
12450225300.0 0.9374455342 -0.335163193
12500225000.0 0.9317914556 -0.3498350671
12550224700.0 0.9267659449 -0.36335258
12600224400.0 0.9217224451 -0.3757914631
12650224100.0 0.915997066 -0.3903018524
12700223800.0 0.9107219864 -0.4029525643
12750223500.0 0.9054954972 -0.4154959768
12800223200.0 0.9001023633 -0.4282512754
12850222900.0 0.8947447673 -0.4407527886
12900222600.0 0.8890756319 -0.451965861
12950222300.0 0.8828182109 -0.4653280095
13000222000.0 0.8763759767 -0.476521021
13050221700.0 0.8698542384 -0.4896542492
13100221400.0 0.8632645524 -0.5014353219
13150221100.0 0.8557229583 -0.5140026668
13200220800.0 0.8491745693 -0.5255342056
13250220500.0 0.8415163302 -0.5378580721
13300220200.0 0.8338683996 -0.5489088078
13350219900.0 0.8259258522 -0.5610598126
13400219600.0 0.8173480912 -0.5732107115
13450219300.0 0.8079233025 -0.5869560947
13500219000.0 0.7975199101 -0.601037118
13550218700.0 0.7872100359 -0.6135867574
13600218400.0 0.7767788727 -0.6258390728
13650218100.0 0.7670090769 -0.6372233888
13700217800.0 0.7564803785 -0.6492235005
13750217500.0 0.7457104458 -0.6611465609
13800217200.0 0.7351292342 -0.6719388352
13850216900.0 0.7237826605 -0.6842784092
13900216600.0 0.7142098341 -0.6930069133
13950216300.0 0.7030841971 -0.7030652584
14000216000.0 0.6929793219 -0.7120355494
14050215700.0 0.6836632242 -0.720863236
14100215400.0 0.6741168345 -0.729610161
14150215100.0 0.6649129628 -0.7382446801
14200214800.0 0.6558985763 -0.7463777404
14250214500.0 0.6457044199 -0.7557422664
14300214200.0 0.6353462671 -0.7649275595
14350213900.0 0.6241824797 -0.7742756425
14400213600.0 0.6121887039 -0.7840990258
14450213300.0 0.5993823807 -0.7943713976
14500213000.0 0.5871303571 -0.8038016312
14550212700.0 0.5734733527 -0.8130468392
14600212400.0 0.5614893599 -0.8216111493
14650212100.0 0.5484856522 -0.830307912
14700211800.0 0.5344341113 -0.8404152309
14750211500.0 0.5227362154 -0.8484466577
14800211200.0 0.510525134 -0.8564272443
14850210900.0 0.498443806 -0.8636590753
14900210600.0 0.4849931006 -0.8718160514
14950210300.0 0.4713531811 -0.8793217934
15000210000.0 0.4584271439 -0.8861682625
15050209700.0 0.4460185446 -0.8925430071
15100209400.0 0.4335649062 -0.8985964616
15150209100.0 0.4204754903 -0.903817757
15200208800.0 0.4072510329 -0.9095033383
15250208500.0 0.3965266748 -0.9137397312
15300208200.0 0.3838404212 -0.9185613812
15350207900.0 0.3694461769 -0.9229452376
15400207600.0 0.3553229122 -0.9290588704
15450207300.0 0.3414879478 -0.9340182573
15500207000.0 0.3264238664 -0.938405871
15550206700.0 0.3114761385 -0.9431100484
15600206400.0 0.2952257302 -0.9483855202
15650206100.0 0.2800449558 -0.9526153477
15700205800.0 0.2661161136 -0.9560226653
15750205500.0 0.2513592738 -0.9597184906
15800205200.0 0.2369062638 -0.9629506335
15850204900.0 0.2226823918 -0.9662818498
15900204600.0 0.2079239471 -0.969828392
15950204300.0 0.1938144591 -0.9727240464
16000204000.0 0.1795950981 -0.9754141736
16050203700.0 0.165478405 -0.9785095066
16100203400.0 0.1508764613 -0.9804593463
16150203100.0 0.1367027336 -0.9832917916
16200202800.0 0.1225373753 -0.9844987214
16250202500.0 0.1083492776 -0.9863963372
16300202200.0 0.0931367458 -0.9873939591
16350201900.0 0.078018669 -0.9895780812
16400201600.0 0.063637913 -0.9904658009
16450201300.0 0.0486196455 -0.9914392405
16500201000.0 0.0319399649 -0.9920626841
16550200700.0 0.0162229914 -0.9925589838
16600200400.0 0.0004262012 -0.9928838721
16650200100.0 -0.0160429278 -0.9927696924
16700199800.0 -0.0322560974 -0.9919757257
16750199500.0 -0.0515221775 -0.9910167216
16800199200.0 -0.0665401359 -0.9909995789
16850198900.0 -0.0825655048 -0.9898384074
16900198600.0 -0.0961137859 -0.9881604622
16950198300.0 -0.1095465414 -0.9873976963
17000198000.0 -0.1225363699 -0.985702979
17050197700.0 -0.1362322411 -0.9839798516
17100197400.0 -0.1487015633 -0.9815399423
17150197100.0 -0.1617015696 -0.9796476933
17200196800.0 -0.1740796404 -0.9773517069
17250196500.0 -0.1874927675 -0.9750415761
17300196200.0 -0.1997499573 -0.9728262964
17350195900.0 -0.2116119366 -0.9704076534
17400195600.0 -0.223880721 -0.9677881884
17450195300.0 -0.2369497339 -0.9651722589
17500195000.0 -0.25050485 -0.9616059735
17550194700.0 -0.2644804761 -0.9584241552
17600194400.0 -0.2781872279 -0.9540056687
17650194100.0 -0.2921907701 -0.9500138183
17700193800.0 -0.3047972028 -0.945842564
17750193500.0 -0.3193682795 -0.9414575028
17800193200.0 -0.3333342227 -0.9362190684
17850192900.0 -0.3486103875 -0.9306907369
17900192600.0 -0.3633630695 -0.9245882418
17950192300.0 -0.3787991932 -0.9172731304
18000192000.0 -0.3934521888 -0.9105153007
18050191700.0 -0.4071004161 -0.9024690857
18100191400.0 -0.4211594565 -0.8949059111
18150191100.0 -0.4360273185 -0.8869081015
18200190800.0 -0.4528964927 -0.8776974938
18250190500.0 -0.4697203493 -0.8684171903
18300190200.0 -0.4849107561 -0.8596033694
18350189900.0 -0.4998310149 -0.8513315331
18400189600.0 -0.5144573343 -0.8427358406
18450189300.0 -0.5278225212 -0.8345055274
18500189000.0 -0.5406007871 -0.8268745739
18550188700.0 -0.5536721745 -0.8190663149
18600188400.0 -0.5650729674 -0.8125418392
18650188100.0 -0.5764502666 -0.8055630513
18700187800.0 -0.587684267 -0.7990479237
18750187500.0 -0.5985434846 -0.792192664
18800187200.0 -0.6094203817 -0.7847229877
18850186900.0 -0.6196337816 -0.7775927022
18900186600.0 -0.6302433375 -0.7701168018
18950186300.0 -0.6404194308 -0.7622656947
19000186000.0 -0.6480962985 -0.7557690209
19050185700.0 -0.6573027682 -0.7487474763
19100185400.0 -0.6677249273 -0.7401002983
19150185100.0 -0.6782284075 -0.7313279079
19200184800.0 -0.6872803415 -0.7231103332
19250184500.0 -0.6972752387 -0.7133616269
19300184200.0 -0.7091241644 -0.7034106301
19350183900.0 -0.7196881431 -0.6946545643
19400183600.0 -0.7294272877 -0.6845730751
19450183300.0 -0.7380876199 -0.6739320723
19500183000.0 -0.746238961 -0.6643093099
19550182700.0 -0.7562449921 -0.6538175311
19600182400.0 -0.7657505579 -0.6417059558
19650182100.0 -0.7768574714 -0.630018705
19700181800.0 -0.787160593 -0.6166249441
19750181500.0 -0.7975675611 -0.6029712951
19800181200.0 -0.807574131 -0.588090672
19850180900.0 -0.8171625492 -0.5731952477
19900180600.0 -0.8248410888 -0.558931861
19950180300.0 -0.8341137849 -0.5426558977
20000180000.0 -0.8272222799 -0.5447234293
20050179700.0 -0.8353064304 -0.5316088663
20100179400.0 -0.8441901579 -0.5182010423
20150179100.0 -0.8522951474 -0.5047901891
20200178800.0 -0.8601457153 -0.4924479811
20250178500.0 -0.8694686403 -0.4792039507
20300178200.0 -0.8793609556 -0.4645357171
20350177900.0 -0.8880261604 -0.4501557456
20400177600.0 -0.8972149855 -0.4355144679
20450177300.0 -0.9052364967 -0.4212471407
20500177000.0 -0.9129661004 -0.4072961094
20550176700.0 -0.9211121332 -0.3934653584
20600176400.0 -0.9276326942 -0.3800213302
20650176100.0 -0.9344817413 -0.3682565702
20700175800.0 -0.9407504985 -0.3552879521
20750175500.0 -0.9482600656 -0.3442917612
20800175200.0 -0.9525688708 -0.3323363887
20850174900.0 -0.957257244 -0.3220665696
20900174600.0 -0.9615955188 -0.3096676504
20950174300.0 -0.9655469261 -0.297690057
21000174000.0 -0.9704162756 -0.2860115197
21050173700.0 -0.9725495109 -0.2749833349
21100173400.0 -0.9771845571 -0.2634724532
21150173100.0 -0.9815923643 -0.2500730277
21200172800.0 -0.9850975553 -0.2364970127
21250172500.0 -0.9877165525 -0.2228369577
21300172200.0 -0.9903524199 -0.208654402
21350171900.0 -0.9920244797 -0.1936414113
21400171600.0 -0.9938308353 -0.1800452057
21450171300.0 -0.994162544 -0.1648549881
21500171000.0 -0.9932555997 -0.1501611852
21550170700.0 -0.9931379327 -0.1345482026
21600170400.0 -0.9923515065 -0.1193267686
21650170100.0 -0.9916160685 -0.1028400634
21700169800.0 -0.9900091288 -0.0884160018
21750169500.0 -0.9890233018 -0.0729925938
21800169200.0 -0.9881332604 -0.0564031101
21850168900.0 -0.9867614229 -0.0404921512
21900168600.0 -0.9847018825 -0.0237346907
21950168300.0 -0.9839773067 -0.0081449211
22000168000.0 -0.9829901501 0.0062094704
22050167700.0 -0.9825806487 0.0205668851
22100167400.0 -0.9825441922 0.0354227866
22150167100.0 -0.9828206833 0.0513037164
22200166800.0 -0.9830220253 0.0672591595
22250166500.0 -0.9822447676 0.0840191372
22300166200.0 -0.9819547678 0.1004320716
22350165900.0 -0.9806443376 0.1170620043
22400165600.0 -0.9789805511 0.1333790747
22450165300.0 -0.9764450767 0.1480608711
22500165000.0 -0.9751185846 0.1617023625
22550164700.0 -0.973393396 0.1763886848
22600164400.0 -0.9720486143 0.1928526547
22650164100.0 -0.9695595094 0.2067455859
22700163800.0 -0.9673579685 0.2230038077
22750163500.0 -0.9646359274 0.2384936639
22800163200.0 -0.9617464249 0.2512954059
22850162900.0 -0.9593418592 0.2652803187
22900162600.0 -0.9580026796 0.2784797605
22950162300.0 -0.9569153788 0.2912747307
23000162000.0 -0.9559294309 0.3030435542
23050161700.0 -0.9537321929 0.3156167415
23100161400.0 -0.9520413721 0.328095569
23150161100.0 -0.9483253672 0.3403471076
23200160800.0 -0.9458129676 0.352908121
23250160500.0 -0.942977434 0.3648306577
23300160200.0 -0.9404995155 0.3765555281
23350159900.0 -0.9368575654 0.3895529048
23400159600.0 -0.9320105195 0.4025172175
23450159300.0 -0.9270507621 0.4153108758
23500159000.0 -0.9227031355 0.4286327914
23550158700.0 -0.9183023764 0.4412451772
23600158400.0 -0.9129028491 0.4544470718
23650158100.0 -0.9066893633 0.4680369913
23700157800.0 -0.8991858775 0.4820262602
23750157500.0 -0.8904109206 0.4957783738
23800157200.0 -0.8814511119 0.5091696391
23850156900.0 -0.8730294185 0.5216402593
23900156600.0 -0.8635223969 0.5337252082
23950156300.0 -0.8547067998 0.5464051335
24000156000.0 -0.8453564486 0.5588421186
24050155700.0 -0.8352446846 0.5700110393
24100155400.0 -0.8255109121 0.5825743868
24150155100.0 -0.8146039785 0.5939773859
24200154800.0 -0.8032581454 0.60504898
24250154500.0 -0.7915833389 0.617090775
24300154200.0 -0.7809153386 0.6283736244
24350153900.0 -0.7689142123 0.6394186853
24400153600.0 -0.7568392765 0.649623611
24450153300.0 -0.7452722052 0.6596632147
24500153000.0 -0.7338919059 0.6690242789
24550152700.0 -0.7224585961 0.6786383736
24600152400.0 -0.7109026589 0.6883097952
