!Created with skrf (http://scikit-rf.org).
# Hz S RI R 50.0 
!freq ReS11 ImS11
300000.0 -0.9763050576 -0.116168676
50299700.0 -1.000200262 0.0154311605
100299400.0 -0.9979980437 0.0285309943
150299100.0 -1.002799611 0.0453115156
200298800.0 -0.9996871085 0.0587317014
250298500.0 -0.9973935033 0.0720788432
300298200.0 -0.9860088814 0.0880681658
350297900.0 -0.9940095917 0.0990071134
400297600.0 -0.993018133 0.1154548751
450297300.0 -0.9910461935 0.129312571
500297000.0 -0.9894723786 0.1439090667
550296700.0 -0.9843666831 0.1564425116
600296400.0 -1.017369482 0.1899277977
650296100.0 -0.9821836423 0.1863370953
700295800.0 -0.9792685199 0.2006142661
750295500.0 -0.9763380791 0.2147771344
800295200.0 -0.9730277964 0.2289184013
850294900.0 -0.9696566625 0.2425441893
900294600.0 -0.9657127477 0.2564680207
950294300.0 -0.9621189004 0.2701238178
1000294000.0 -0.958197855 0.2841395592
1050293700.0 -0.953690529 0.2977844752
1100293400.0 -0.9492147185 0.3122266257
1150293100.0 -0.9453710702 0.3242555539
1200292800.0 -0.9402012967 0.3383999176
1250292500.0 -0.9347297249 0.3520588292
1300292200.0 -0.9288640378 0.3651969091
1350291900.0 -0.9234412267 0.3791503755
1400291600.0 -0.9178760264 0.3923187214
1450291300.0 -0.9125088976 0.4046019508
1500291000.0 -0.9060073504 0.418134052
1550290700.0 -0.8995593695 0.4313929479
1600290400.0 -0.893376332 0.4442838008
1650290100.0 -0.8867106975 0.4565006371
1700289800.0 -0.8795013531 0.4697712383
1750289500.0 -0.8726860465 0.4821443899
1800289200.0 -0.8654468964 0.4948363851
1850288900.0 -0.8585991702 0.5063851049
1900288600.0 -0.8508571693 0.5194102821
1950288300.0 -0.8426995751 0.531905475
2000288000.0 -0.8354825699 0.5433744478
2050287700.0 -0.8271926135 0.5558092478
2100287400.0 -0.8189420787 0.5672278556
2150287100.0 -0.8104159021 0.5795250892
2200286800.0 -0.8025899551 0.5896281531
2250286500.0 -0.793851048 0.6017904809
2300286200.0 -0.785001375 0.6135398853
2350285900.0 -0.7763597693 0.6243890905
2400285600.0 -0.7672608644 0.63522166
2450285300.0 -0.7588724555 0.6456596833
2500285000.0 -0.7491182524 0.6569097554
2550284700.0 -0.7399765053 0.6673131789
2600284400.0 -0.7305981082 0.6774037139
2650284100.0 -0.7215819459 0.6881451574
2700283800.0 -0.7108588878 0.6985270992
2750283500.0 -0.700754647 0.709204772
2800283200.0 -0.6910652654 0.7189235473
2850282900.0 -0.6805989056 0.7286262224
2900282600.0 -0.6705372759 0.7383033923
2950282300.0 -0.6602802374 0.7473635317
3000282000.0 -0.6494097399 0.756976405
3050281700.0 -0.6383292835 0.7662759052
3100281400.0 -0.6264440709 0.7755067497
3150281100.0 -0.6144231637 0.7851276466
3200280800.0 -0.6029066596 0.7933354961
3250280500.0 -0.5922595776 0.8012828864
3300280200.0 -0.5808471016 0.8089928938
3350279900.0 -0.5694569037 0.8166836214
3400279600.0 -0.5571089059 0.824207776
3450279300.0 -0.5460363146 0.8314611261
3500279000.0 -0.5339840189 0.838524501
3550278700.0 -0.5216863074 0.8457990066
3600278400.0 -0.5092148809 0.8527744946
3650278100.0 -0.4961117975 0.8605705338
3700277800.0 -0.4840371329 0.8670071004
3750277500.0 -0.4720231873 0.8736348369
3800277200.0 -0.4592955785 0.8798465626
3850276900.0 -0.4474225935 0.8858465185
3900276600.0 -0.4364513078 0.8914888313
3950276300.0 -0.4240384732 0.8975673776
4000276000.0 -0.4119415749 0.9035198379
4050275700.0 -0.3993095312 0.9097421348
4100275400.0 -0.3879735765 0.9151155239
4150275100.0 -0.3754383054 0.9207013114
4200274800.0 -0.3624340271 0.9264620795
4250274500.0 -0.3500671601 0.9314482803
4300274200.0 -0.3371713014 0.9366605652
4350273900.0 -0.3232256757 0.9422583444
4400273600.0 -0.3084438443 0.9473032146
4450273300.0 -0.2930309539 0.9524389551
4500273000.0 -0.2793649884 0.9568933823
4550272700.0 -0.2652301389 0.9609444836
4600272400.0 -0.2497653539 0.9652401141
4650272100.0 -0.2380072626 0.9685191048
4700271800.0 -0.2247403486 0.9718086726
4750271500.0 -0.213059044 0.9747695556
4800271200.0 -0.2006878523 0.9773601036
4850270900.0 -0.1866972507 0.9802586181
4900270600.0 -0.1728151208 0.9824403177
4950270300.0 -0.1584177748 0.985102006
5000270000.0 -0.1441747201 0.9869592585
5050269700.0 -0.130702953 0.9887584605
5100269400.0 -0.1171979135 0.9904676003
5150269100.0 -0.1039741021 0.9921345715
5200268800.0 -0.0904206465 0.9928441534
5250268500.0 -0.0774913915 0.9936701322
5300268200.0 -0.0645386265 0.9946956985
5350267900.0 -0.0520427151 0.9954226643
5400267600.0 -0.0360765255 0.9965665219
5450267300.0 -0.0230082178 0.9967191154
5500267000.0 -0.0075717224 0.9972147227
5550266700.0 0.0072921176 0.9973362896
5600266400.0 0.0229310521 0.9973278116
5650266100.0 0.0393787496 0.9967285417
5700265800.0 0.0540663237 0.9962314505
5750265500.0 0.0694012058 0.9955451911
5800265200.0 0.0833933953 0.994666238
5850264900.0 0.0960196045 0.9931463335
5900264600.0 0.1128766769 0.9916555691
5950264300.0 0.1247740274 0.9899151149
6000264000.0 0.1390689161 0.9883342279
6050263700.0 0.1515098247 0.9868176575
6100263400.0 0.1640665081 0.9851635735
6150263100.0 0.1781074944 0.9825214084
6200262800.0 0.188856167 0.9809921284
6250262500.0 0.2013718932 0.9782760132
6300262200.0 0.2142769828 0.9756535185
6350261900.0 0.2274147215 0.972673183
6400261600.0 0.2411995318 0.96935433
6450261300.0 0.2526593855 0.9667860949
6500261000.0 0.265408216 0.9630681262
6550260700.0 0.2788246091 0.9592108743
6600260400.0 0.2917215879 0.955141356
6650260100.0 0.3057090947 0.9508512071
6700259800.0 0.3176441461 0.9464156912
6750259500.0 0.3315668898 0.9413590339
6800259200.0 0.34459863 0.9364060057
6850258900.0 0.3563389083 0.9312713243
6900258600.0 0.368586187 0.9263818251
6950258300.0 0.3810544485 0.9210189372
7000258000.0 0.3932414754 0.915675044
7050257700.0 0.4054796497 0.9094142197
7100257400.0 0.4181325716 0.9032384704
7150257100.0 0.4286318242 0.8978869669
7200256800.0 0.4414374744 0.8916743086
7250256500.0 0.4533579505 0.8853494376
7300256200.0 0.4664112271 0.8787153921
7350255900.0 0.478702481 0.8714741503
7400255600.0 0.492231144 0.864402713
7450255300.0 0.5072630595 0.8553648
7500255000.0 0.5192920889 0.8484006601
7550254700.0 0.5329682159 0.8398006135
7600254400.0 0.5455335518 0.8315254163
7650254100.0 0.5570714751 0.8237185915
7700253800.0 0.5690134105 0.8156131623
7750253500.0 0.5799676481 0.8078616682
7800253200.0 0.5907636438 0.8001005611
7850252900.0 0.6004606703 0.7932650549
7900252600.0 0.6122826451 0.7844511399
7950252300.0 0.6208655339 0.7778216982
8000252000.0 0.6309221378 0.7702073292
8050251700.0 0.6415250987 0.7619020186
8100251400.0 0.6515714913 0.7537582989
8150251100.0 0.6616337759 0.7451207683
8200250800.0 0.6711495151 0.7372022092
8250250500.0 0.6799636997 0.7292729025
8300250200.0 0.6892161761 0.720736682
8350249900.0 0.6984973969 0.7119559948
8400249600.0 0.7068724224 0.7039868212
8450249300.0 0.7157260478 0.6947005615
8500249000.0 0.7244010967 0.6858426125
8550248700.0 0.7327871079 0.6768764345
8600248400.0 0.7410648945 0.6673403711
8650248100.0 0.7487816354 0.6577522785
8700247800.0 0.7584008085 0.646718246
8750247500.0 0.7667124381 0.6365720677
8800247200.0 0.7748185939 0.6261674024
8850246900.0 0.7836745081 0.6147136513
8900246600.0 0.791759209 0.6035040498
8950246300.0 0.8016812357 0.5903073892
9000246000.0 0.8111127738 0.5774963166
9050245700.0 0.820189849 0.5646717084
9100245400.0 0.8287400772 0.5519482241
9150245100.0 0.8378880512 0.5382149162
9200244800.0 0.8480103457 0.5229657163
9250244500.0 0.8573210913 0.5074357353
9300244200.0 0.8658101087 0.4929827028
9350243900.0 0.8736447303 0.4790392782
9400243600.0 0.8802106667 0.4666443019
9450243300.0 0.8861538892 0.4551199748
9500243000.0 0.8922187408 0.4428420137
9550242700.0 0.8960803043 0.4352374219
9600242400.0 0.9000546833 0.4279804623
9650242100.0 0.9035736728 0.4214809585
9700241800.0 0.9080891122 0.4133166495
9750241500.0 0.911866367 0.4060846627
9800241200.0 0.9166177735 0.396646236
9850240900.0 0.9219914529 0.3852387705
9900240600.0 0.9278005906 0.3735294634
9950240300.0 0.9346625465 0.3574160567
10000240000.0 0.9391248751 0.3457554429
10050239700.0 0.944692109 0.3305217097
10100239400.0 0.9498218479 0.3150764456
10150239100.0 0.9541201397 0.3002443361
10200238800.0 0.9583846404 0.2853695452
10250238500.0 0.9617730237 0.2718233114
10300238200.0 0.9648220189 0.2579680119
10350237900.0 0.9673763756 0.2447983567
10400237600.0 0.9699821161 0.2317268207
10450237300.0 0.9725565397 0.2178546052
10500237000.0 0.9747500148 0.2058674136
10550236700.0 0.9769840175 0.191512625
10600236400.0 0.9792115355 0.1782020037
10650236100.0 0.9813928719 0.1640175546
10700235800.0 0.9829473209 0.1515448735
10750235500.0 0.9858913908 0.1381483913
10800235200.0 0.9879499794 0.1241541943
10850234900.0 0.9897263514 0.1092697151
10900234600.0 0.9916005908 0.0946974158
10950234300.0 0.9935049811 0.0814867292
11000234000.0 0.9952163115 0.0662974731
11050233700.0 0.9969591664 0.0501179792
11100233400.0 0.9986602727 0.0326270755
11150233100.0 0.9997953027 0.0161050686
11200232800.0 1.000179172 0.0012662226
11250232500.0 1.001226977 -0.0153508898
11300232200.0 1.00178222 -0.0326091815
11350231900.0 1.001707531 -0.0494802156
11400231600.0 1.001384109 -0.0642448799
11450231300.0 1.001005805 -0.0801249573
11500231000.0 0.9998146803 -0.0969004568
11550230700.0 0.9984975961 -0.1103283295
11600230400.0 0.9969288087 -0.1228541948
11650230100.0 0.9948967872 -0.1339650041
11700229800.0 0.9928429236 -0.1487435543
11750229500.0 0.990761443 -0.1630322185
11800229200.0 0.9878989987 -0.1769342784
11850228900.0 0.9841929697 -0.1890681437
11900228600.0 0.9811557767 -0.1987983406
11950228300.0 0.9776832527 -0.2090278964
12000228000.0 0.9750314517 -0.2179389914
12050227700.0 0.9711627564 -0.2311974488
12100227400.0 0.9681484599 -0.2413427873
12150227100.0 0.9633579034 -0.2584215941
12200226800.0 0.9587286146 -0.2703512054
12250226500.0 0.9557915804 -0.2811568284
12300226200.0 0.9508866162 -0.2947112214
12350225900.0 0.9465102261 -0.3088784244
12400225600.0 0.9421078131 -0.3213575468
12450225300.0 0.9376029779 -0.3335275815
12500225000.0 0.9321703343 -0.3489873667
12550224700.0 0.9267778367 -0.3630512915
12600224400.0 0.9219017348 -0.3755876148
12650224100.0 0.91616985 -0.3898459512
12700223800.0 0.910849235 -0.4025538635
12750223500.0 0.9053395346 -0.4155765586
12800223200.0 0.8998433932 -0.4282445079
12850222900.0 0.8947125857 -0.4404158152
12900222600.0 0.8889548871 -0.4523172481
12950222300.0 0.8826855549 -0.4654456737
13000222000.0 0.8763766719 -0.4767280559
13050221700.0 0.8699765315 -0.4891154603
13100221400.0 0.8632662423 -0.5011391723
13150221100.0 0.8566290179 -0.5135050573
13200220800.0 0.8492927142 -0.5251221272
13250220500.0 0.8419383636 -0.5376687708
13300220200.0 0.8348537655 -0.5482203057
13350219900.0 0.8265705448 -0.5600658761
13400219600.0 0.8185977108 -0.5721741216
13450219300.0 0.808970659 -0.5856405467
13500219000.0 0.7988396958 -0.5998174061
13550218700.0 0.7883528738 -0.6128582786
13600218400.0 0.7787215638 -0.6246513432
13650218100.0 0.7687225049 -0.6360896754
13700217800.0 0.7575544765 -0.6483454278
13750217500.0 0.7474132575 -0.6592769487
13800217200.0 0.7370881109 -0.671476256
13850216900.0 0.7254575131 -0.6825234419
13900216600.0 0.7154879354 -0.6920428405
13950216300.0 0.704357664 -0.7022205296
14000216000.0 0.6943323159 -0.7108207865
14050215700.0 0.6852596039 -0.7190464939
14100215400.0 0.6747469502 -0.728008738
14150215100.0 0.6659459189 -0.7371201343
14200214800.0 0.6565855888 -0.7456498634
14250214500.0 0.6464198047 -0.7549179536
14300214200.0 0.6359997554 -0.7642156557
14350213900.0 0.6247521103 -0.7737732527
14400213600.0 0.6130415547 -0.7835866315
14450213300.0 0.5997422897 -0.7940511191
14500213000.0 0.586701202 -0.8032993769
14550212700.0 0.5744034069 -0.8136093893
14600212400.0 0.5614721674 -0.8221313419
14650212100.0 0.549072686 -0.8304175335
14700211800.0 0.5351262475 -0.8401209227
14750211500.0 0.5230155417 -0.8484032798
14800211200.0 0.5104247512 -0.8562498367
14850210900.0 0.4985581321 -0.8638461682
14900210600.0 0.4850696856 -0.8717497137
14950210300.0 0.4718584956 -0.8792976037
15000210000.0 0.4589232637 -0.8863076238
15050209700.0 0.4466552078 -0.8924064854
15100209400.0 0.4337555855 -0.8978464037
15150209100.0 0.4213916668 -0.9034832648
15200208800.0 0.409087429 -0.9091745664
15250208500.0 0.3976187647 -0.9136282024
15300208200.0 0.384888879 -0.9179663251
15350207900.0 0.3720980111 -0.9232545541
15400207600.0 0.3578384328 -0.9278454931
15450207300.0 0.3421964684 -0.932820402
15500207000.0 0.3277425052 -0.9380958248
15550206700.0 0.3131164797 -0.9426189905
15600206400.0 0.2970659008 -0.947184487
15650206100.0 0.2820437234 -0.9519231301
15700205800.0 0.2678057295 -0.9549798946
15750205500.0 0.2533176215 -0.9592616256
15800205200.0 0.238630476 -0.9624172291
15850204900.0 0.2243320325 -0.9657970549
15900204600.0 0.2092565704 -0.9694904426
15950204300.0 0.195072361 -0.972252716
16000204000.0 0.1810573995 -0.9753367644
16050203700.0 0.1660016562 -0.9780523351
16100203400.0 0.1512143546 -0.9802076823
16150203100.0 0.1370927777 -0.9830092735
16200202800.0 0.123372173 -0.984700015
16250202500.0 0.1082405563 -0.9864250144
16300202200.0 0.0930013736 -0.9879643991
16350201900.0 0.0781942202 -0.989247682
16400201600.0 0.0637267934 -0.990165133
16450201300.0 0.0482034523 -0.9913257044
16500201000.0 0.031554861 -0.9920710725
16550200700.0 0.0159726283 -0.9924985904
16600200400.0 0.0002741992 -0.9927466723
16650200100.0 -0.0160736855 -0.9925196639
16700199800.0 -0.0324819959 -0.9921158052
16750199500.0 -0.0509571943 -0.9916073182
16800199200.0 -0.0667661945 -0.9905792421
16850198900.0 -0.0820800265 -0.9894889005
16900198600.0 -0.0960674426 -0.9883073218
16950198300.0 -0.1094362848 -0.9873770282
17000198000.0 -0.1218378106 -0.9865963961
17050197700.0 -0.13472406 -0.9841597754
17100197400.0 -0.1475805432 -0.9819925084
17150197100.0 -0.1606499385 -0.9796131309
17200196800.0 -0.1732148528 -0.97802348
17250196500.0 -0.1859145625 -0.9753543156
17300196200.0 -0.1980214721 -0.9732829239
17350195900.0 -0.2101273009 -0.9709961288
17400195600.0 -0.2220617988 -0.9684904917
17450195300.0 -0.2352283742 -0.9656284651
17500195000.0 -0.2487917974 -0.9624312307
17550194700.0 -0.2625582832 -0.9584553079
17600194400.0 -0.2764956172 -0.9546765976
17650194100.0 -0.2902985522 -0.95091444
17700193800.0 -0.3032444687 -0.9467370122
17750193500.0 -0.3175136415 -0.9417280897
17800193200.0 -0.3317735654 -0.9361638205
17850192900.0 -0.3468472595 -0.9308547937
17900192600.0 -0.361991498 -0.9254135415
17950192300.0 -0.3775694801 -0.9178426177
18000192000.0 -0.3923649488 -0.9109575725
18050191700.0 -0.4063149717 -0.9026912962
18100191400.0 -0.4204828221 -0.8949850703
18150191100.0 -0.4355402644 -0.8870098685
18200190800.0 -0.4524090879 -0.8778738932
18250190500.0 -0.4694725445 -0.8686635428
18300190200.0 -0.48501035 -0.8595734816
18350189900.0 -0.4999933091 -0.8509944001
18400189600.0 -0.5141755172 -0.8427742039
18450189300.0 -0.5274859991 -0.8348020438
18500189000.0 -0.5410653393 -0.8269235252
18550188700.0 -0.5535379928 -0.8193652925
18600188400.0 -0.5651412355 -0.8123389542
18650188100.0 -0.5763347587 -0.8063036802
18700187800.0 -0.5868388785 -0.7997247711
18750187500.0 -0.597573999 -0.792930174
18800187200.0 -0.608080853 -0.7861883343
18850186900.0 -0.6183484672 -0.779134402
18900186600.0 -0.6287353223 -0.7718717492
18950186300.0 -0.6384299486 -0.7641869127
19000186000.0 -0.646147604 -0.7578170138
19050185700.0 -0.655612114 -0.7507203204
19100185400.0 -0.6649829053 -0.7426499682
19150185100.0 -0.6747753867 -0.7336008671
19200184800.0 -0.6845066767 -0.7257466374
19250184500.0 -0.6953523863 -0.7162590919
19300184200.0 -0.7064987959 -0.7064849342
19350183900.0 -0.7176834469 -0.6972618546
19400183600.0 -0.726524328 -0.686525582
19450183300.0 -0.735540603 -0.6769963617
19500183000.0 -0.7440684209 -0.6675928126
19550182700.0 -0.7537744772 -0.656236387
19600182400.0 -0.7638815277 -0.644258036
19650182100.0 -0.7749939186 -0.632310327
19700181800.0 -0.7855761291 -0.6188840757
19750181500.0 -0.796113784 -0.6046891485
19800181200.0 -0.806616976 -0.5898677176
19850180900.0 -0.8163557222 -0.574469824
19900180600.0 -0.823783784 -0.5598803743
19950180300.0 -0.8331236321 -0.5433601171
20000180000.0 -0.8263004855 -0.5462366465
20050179700.0 -0.834527012 -0.5329742399
20100179400.0 -0.8434999963 -0.5194593388
20150179100.0 -0.8526317518 -0.506812861
20200178800.0 -0.8598449749 -0.494262608
20250178500.0 -0.8700032658 -0.4811382461
20300178200.0 -0.8791306448 -0.465942789
20350177900.0 -0.8882695511 -0.4510450196
20400177600.0 -0.8970565915 -0.4366189033
20450177300.0 -0.9055145512 -0.4222746073
20500177000.0 -0.9133612045 -0.4083725647
20550176700.0 -0.9215000993 -0.3949618743
20600176400.0 -0.9282673492 -0.3821381524
20650176100.0 -0.9348043787 -0.3691997958
20700175800.0 -0.9414254552 -0.3577001791
20750175500.0 -0.9479197742 -0.3465764662
20800175200.0 -0.9522764578 -0.3355390456
20850174900.0 -0.9582202016 -0.3240379549
20900174600.0 -0.9625438772 -0.3118764227
20950174300.0 -0.9669942333 -0.3012751196
21000174000.0 -0.9684789045 -0.2896602145
21050173700.0 -0.9725727823 -0.278913642
21100173400.0 -0.9764981704 -0.2659667327
21150173100.0 -0.979901457 -0.2540815257
21200172800.0 -0.9836709726 -0.241052599
21250172500.0 -0.9868831119 -0.2270466572
21300172200.0 -0.9899225143 -0.2129721214
21350171900.0 -0.9915775152 -0.1980539415
21400171600.0 -0.9936764496 -0.1840947741
21450171300.0 -0.9933876269 -0.1691637058
21500171000.0 -0.9936453953 -0.1546954619
21550170700.0 -0.9931072404 -0.1384936342
21600170400.0 -0.9932136517 -0.123035519
21650170100.0 -0.991878267 -0.1067282507
21700169800.0 -0.99066857 -0.0914408149
21750169500.0 -0.9892034967 -0.0762423261
21800169200.0 -0.9878740888 -0.059885587
21850168900.0 -0.9870704706 -0.0426724339
21900168600.0 -0.9858496413 -0.0270798467
21950168300.0 -0.9839017137 -0.0108240805
22000168000.0 -0.9830816637 0.0037004378
22050167700.0 -0.9825979258 0.0184650394
22100167400.0 -0.983137795 0.0336607413
22150167100.0 -0.9835917612 0.0491798751
22200166800.0 -0.9844356232 0.0653441977
22250166500.0 -0.9837294762 0.0832297368
22300166200.0 -0.9833856857 0.0988571473
22350165900.0 -0.9812446573 0.1156198494
22400165600.0 -0.979995135 0.1318094842
22450165300.0 -0.977333228 0.1461511847
22500165000.0 -0.9766072029 0.1601284798
22550164700.0 -0.9754826439 0.1749239496
22600164400.0 -0.9733058819 0.1907516073
22650164100.0 -0.9708651068 0.205437063
22700163800.0 -0.9682174384 0.2217553494
22750163500.0 -0.9657049951 0.2366696301
22800163200.0 -0.9628877439 0.2502358794
22850162900.0 -0.9607045668 0.2633713349
22900162600.0 -0.959243913 0.2769301792
22950162300.0 -0.9581761914 0.2897433627
23000162000.0 -0.9572257465 0.3011406367
23050161700.0 -0.9546622394 0.3139857767
23100161400.0 -0.9527872477 0.3270559178
23150161100.0 -0.9502902439 0.3390712438
23200160800.0 -0.9470139021 0.3517445935
23250160500.0 -0.9444416647 0.3637141013
23300160200.0 -0.9420938824 0.3750341887
23350159900.0 -0.9379127518 0.3887493859
23400159600.0 -0.9326939266 0.4015048589
23450159300.0 -0.9285350476 0.4148167855
23500159000.0 -0.9242426072 0.4276603256
23550158700.0 -0.9194712974 0.4411388191
23600158400.0 -0.9141268692 0.4541288629
23650158100.0 -0.9079767917 0.4682013127
23700157800.0 -0.9004632353 0.4822338999
23750157500.0 -0.8915137146 0.4963231078
23800157200.0 -0.8829113517 0.5096280702
23850156900.0 -0.8745333466 0.5221028074
23900156600.0 -0.8648906769 0.5349576055
23950156300.0 -0.8550558367 0.546987395
24000156000.0 -0.8463293596 0.5589590915
24050155700.0 -0.8365320132 0.5705985749
24100155400.0 -0.8262517639 0.5831541234
24150155100.0 -0.8156703031 0.5942088429
24200154800.0 -0.8046782885 0.6055630182
24250154500.0 -0.7933429118 0.6176462194
24300154200.0 -0.7820019278 0.6288865077
24350153900.0 -0.7704041746 0.6394789411
24400153600.0 -0.7580574728 0.6496782317
24450153300.0 -0.746312318 0.6595028318
24500153000.0 -0.7343833072 0.6692272057
24550152700.0 -0.7229886356 0.6786284302
24600152400.0 -0.711630486 0.6882660245
24650152100.0 -0.6995050686 0.6963892904
