!Created with skrf (http://scikit-rf.org).
# Hz S RI R 50.0 
!freq ReS11 ImS11
300000.0 -0.9726863037 -0.1239995511
50299700.0 -0.999908315 0.0149697264
100299400.0 -0.9978409566 0.02779079
150299100.0 -1.002700331 0.0448416795
200298800.0 -0.9995514439 0.0583220174
250298500.0 -0.9973521053 0.0715394574
300298200.0 -0.9858010071 0.0872976615
350297900.0 -0.993862571 0.0983942151
400297600.0 -0.993074477 0.1147316351
450297300.0 -0.9911298784 0.1286958163
500297000.0 -0.989335783 0.1433164676
550296700.0 -0.9842437611 0.1558215986
600296400.0 -1.017187952 0.1892337811
650296100.0 -0.9821236235 0.1855750209
700295800.0 -0.9791886826 0.1999265796
750295500.0 -0.9762179467 0.2138788194
800295200.0 -0.9728835385 0.2281605217
850294900.0 -0.969667863 0.2417320961
900294600.0 -0.9657951462 0.2555162045
950294300.0 -0.9620990341 0.2693631366
1000294000.0 -0.9581285116 0.2833320844
1050293700.0 -0.9536914757 0.2970111164
1100293400.0 -0.9492857312 0.3115866947
1150293100.0 -0.9454668356 0.3232317608
1200292800.0 -0.9400491249 0.3376024689
1250292500.0 -0.9347286625 0.3510946965
1300292200.0 -0.9289032645 0.3646517182
1350291900.0 -0.9233869215 0.3784867325
1400291600.0 -0.9178787046 0.3916168153
1450291300.0 -0.912420695 0.4038924302
1500291000.0 -0.9062398048 0.4172001141
1550290700.0 -0.899765698 0.4307168103
1600290400.0 -0.8934473551 0.4436924627
1650290100.0 -0.8868417163 0.4556970976
1700289800.0 -0.8799556475 0.4692090272
1750289500.0 -0.8729395462 0.4813497211
1800289200.0 -0.8656278978 0.4943222221
1850288900.0 -0.8587194646 0.505744061
1900288600.0 -0.8510597403 0.518812132
1950288300.0 -0.8429206413 0.5314430811
2000288000.0 -0.8355077351 0.542942788
2050287700.0 -0.8272909563 0.5553191425
2100287400.0 -0.8193687207 0.5666074338
2150287100.0 -0.8107265507 0.5785093073
2200286800.0 -0.8030355315 0.5890862491
2250286500.0 -0.7939622766 0.6015095791
2300286200.0 -0.7852821258 0.6129081962
2350285900.0 -0.776926485 0.6233661903
2400285600.0 -0.7677991756 0.6343893976
2450285300.0 -0.7590499002 0.6448165943
2500285000.0 -0.7491725499 0.6566895689
2550284700.0 -0.7400615551 0.6667770659
2600284400.0 -0.7310468857 0.6769075656
2650284100.0 -0.7223851144 0.6870767128
2700283800.0 -0.711743231 0.6975427859
2750283500.0 -0.701545558 0.7081609847
2800283200.0 -0.6915555819 0.7179529252
2850282900.0 -0.6810835163 0.7280022638
2900282600.0 -0.6705964852 0.7378523598
2950282300.0 -0.6601367926 0.7474258308
3000282000.0 -0.649559071 0.7566442145
3050281700.0 -0.6383827255 0.7657855488
3100281400.0 -0.6267986485 0.774988727
3150281100.0 -0.6155939479 0.7838766614
3200280800.0 -0.6042585468 0.7923534064
3250280500.0 -0.5930277057 0.8002294433
3300280200.0 -0.5813794469 0.8083286622
3350279900.0 -0.5692573238 0.816539168
3400279600.0 -0.5568291215 0.8245366207
3450279300.0 -0.5455592703 0.8317337613
3500279000.0 -0.5336085185 0.8384687225
3550278700.0 -0.5216515647 0.8457082679
3600278400.0 -0.5098669811 0.8521443791
3650278100.0 -0.4967789747 0.8598145639
3700277800.0 -0.4846690911 0.8663451079
3750277500.0 -0.4724565454 0.8733092326
3800277200.0 -0.4598498402 0.8794843587
3850276900.0 -0.4478606344 0.8854890803
3900276600.0 -0.4368905809 0.8909047986
3950276300.0 -0.4248740418 0.8972814278
4000276000.0 -0.4130548619 0.9031195045
4050275700.0 -0.4003932372 0.9091534199
4100275400.0 -0.3893971707 0.9142673573
4150275100.0 -0.3761546977 0.9202939773
4200274800.0 -0.3626963694 0.9258425915
4250274500.0 -0.350137215 0.9314320511
4300274200.0 -0.3366594024 0.9366961995
4350273900.0 -0.3224931993 0.9419215307
4400273600.0 -0.3079824531 0.947219847
4450273300.0 -0.2927751397 0.9522647624
4500273000.0 -0.2796253403 0.9563787045
4550272700.0 -0.2661059504 0.9604758145
4600272400.0 -0.2510186741 0.9645699047
4650272100.0 -0.2397256007 0.9677624527
4700271800.0 -0.2268468053 0.9710939148
4750271500.0 -0.2152057007 0.9739570787
4800271200.0 -0.2030024736 0.976680834
4850270900.0 -0.1892091309 0.9794486673
4900270600.0 -0.1754862059 0.9819545111
4950270300.0 -0.1607450044 0.9845823016
5000270000.0 -0.1462578923 0.9865256264
5050269700.0 -0.1328519201 0.9885249005
5100269400.0 -0.1187215746 0.9899771184
5150269100.0 -0.1046263723 0.9918626153
5200268800.0 -0.0911421564 0.9927735789
5250268500.0 -0.078272392 0.993402858
5300268200.0 -0.0645403044 0.9944809155
5350267900.0 -0.051848821 0.9952138043
5400267600.0 -0.0356100351 0.996010859
5450267300.0 -0.0221747209 0.9966785628
5500267000.0 -0.0067671053 0.9970506153
5550266700.0 0.0079506628 0.9968802704
5600266400.0 0.0239218194 0.9972255217
5650266100.0 0.0405729036 0.9966631212
5700265800.0 0.0547799433 0.995918361
5750265500.0 0.0694412357 0.9951694186
5800265200.0 0.083317724 0.9941305747
5850264900.0 0.0966195191 0.9932108422
5900264600.0 0.1128340206 0.9912040505
5950264300.0 0.124800917 0.9904806227
6000264000.0 0.1379778059 0.9877374017
6050263700.0 0.1496904188 0.9863715348
6100263400.0 0.1619592334 0.9848678273
6150263100.0 0.1765116733 0.9826686456
6200262800.0 0.1859715562 0.9810033958
6250262500.0 0.1987177267 0.9784621949
6300262200.0 0.2111031537 0.9761222496
6350261900.0 0.2237177872 0.9733022171
6400261600.0 0.2375936883 0.970269493
6450261300.0 0.2486316149 0.9676692634
6500261000.0 0.2618816544 0.9639936768
6550260700.0 0.2752206109 0.9600696431
6600260400.0 0.2883086206 0.955695739
6650260100.0 0.3027227308 0.9514804447
6700259800.0 0.3145217118 0.9470850456
6750259500.0 0.3284143223 0.9422526239
6800259200.0 0.3423102601 0.9374871562
6850258900.0 0.3543614667 0.931758158
6900258600.0 0.3669703636 0.9269305356
6950258300.0 0.3797203767 0.9214968927
7000258000.0 0.3914403867 0.9162763693
7050257700.0 0.4030311644 0.910329396
7100257400.0 0.4165394901 0.9038383704
7150257100.0 0.4273671802 0.8987285776
7200256800.0 0.440379263 0.8919743804
7250256500.0 0.4529735793 0.8855542774
7300256200.0 0.4659051312 0.8786556973
7350255900.0 0.478791218 0.8717093735
7400255600.0 0.4927018452 0.8640964983
7450255300.0 0.5084022207 0.8548654614
7500255000.0 0.5209166027 0.8471519128
7550254700.0 0.5348638769 0.8381414881
7600254400.0 0.5474181897 0.8297251981
7650254100.0 0.5592220322 0.8220244568
7700253800.0 0.5709676698 0.814007623
7750253500.0 0.581662167 0.8062753096
7800253200.0 0.5926394615 0.7986812241
7850252900.0 0.6023721187 0.7913347277
7900252600.0 0.6138371824 0.7825889033
7950252300.0 0.6221050107 0.7763858344
8000252000.0 0.6321918564 0.7686785178
8050251700.0 0.6424566828 0.7603766222
8100251400.0 0.6523290401 0.7527253962
8150251100.0 0.6620540638 0.7440441814
8200250800.0 0.6716486868 0.7359313377
8250250500.0 0.6805500386 0.7281167118
8300250200.0 0.6896033728 0.7197821466
8350249900.0 0.6991985295 0.7107002774
8400249600.0 0.7071980506 0.703020985
8450249300.0 0.715506431 0.6941599172
8500249000.0 0.7243069472 0.6854536836
8550248700.0 0.7327152438 0.6765356682
8600248400.0 0.7409197558 0.6669306874
8650248100.0 0.7485788558 0.657395003
8700247800.0 0.7579049005 0.6465232778
8750247500.0 0.7660943376 0.6364143217
8800247200.0 0.774165641 0.6261930245
8850246900.0 0.782977231 0.6145518032
8900246600.0 0.791012059 0.6031189693
8950246300.0 0.8003242999 0.5905896389
9000246000.0 0.8088067596 0.5787960869
9050245700.0 0.817531635 0.5662982656
9100245400.0 0.8259407371 0.5542116718
9150245100.0 0.8348877222 0.5412131007
9200244800.0 0.8439553415 0.5269115466
9250244500.0 0.8531265077 0.5120962369
9300244200.0 0.861165629 0.4986155199
9350243900.0 0.8689304528 0.4854142359
9400243600.0 0.8754877347 0.4737306084
9450243300.0 0.8811204909 0.4631822883
9500243000.0 0.8873689445 0.4516244539
9550242700.0 0.8913665961 0.4440417057
9600242400.0 0.89539158 0.4365657977
9650242100.0 0.8997131508 0.4296197972
9700241800.0 0.9045177282 0.421107352
9750241500.0 0.9087584475 0.4133764886
9800241200.0 0.9136667713 0.4041844556
9850240900.0 0.9197331947 0.3922396751
9900240600.0 0.9256110179 0.3805760845
9950240300.0 0.9329336897 0.3633457777
10000240000.0 0.9379816811 0.3512309771
10050239700.0 0.9440807497 0.3351207543
10100239400.0 0.9490496879 0.3191535957
10150239100.0 0.9539820631 0.3030144821
10200238800.0 0.9583235523 0.2878514606
10250238500.0 0.961379566 0.2743400208
10300238200.0 0.9645920244 0.260185299
10350237900.0 0.9674116366 0.2469976453
10400237600.0 0.9701867173 0.233364201
10450237300.0 0.972862236 0.2199840698
10500237000.0 0.9747271994 0.2074316052
10550236700.0 0.9773436074 0.1934781765
10600236400.0 0.9796383368 0.1786509851
10650236100.0 0.981480402 0.1647085809
10700235800.0 0.9834163549 0.1523955002
10750235500.0 0.985984459 0.138719514
10800235200.0 0.9878014823 0.1245402713
10850234900.0 0.9898597842 0.1096326136
10900234600.0 0.9918737783 0.0947099124
10950234300.0 0.9937490522 0.0811031176
11000234000.0 0.9955272873 0.065600803
11050233700.0 0.9972091522 0.048866364
11100233400.0 0.9987245872 0.0308304964
11150233100.0 1.000152237 0.0144319422
11200232800.0 1.00079403 -0.0017677314
11250232500.0 1.001708514 -0.0189419965
11300232200.0 1.001893137 -0.0380781114
11350231900.0 1.001730738 -0.0552893075
11400231600.0 1.001956747 -0.0699496716
11450231300.0 1.001402055 -0.0856866924
11500231000.0 1.000161436 -0.1021127987
11550230700.0 0.9985869249 -0.1151500861
11600230400.0 0.9970946844 -0.1288679793
11650230100.0 0.9949353277 -0.1398826066
11700229800.0 0.9924826129 -0.1546643182
11750229500.0 0.9901689893 -0.1687286931
11800229200.0 0.987246517 -0.1820830794
11850228900.0 0.9834580522 -0.1937587093
11900228600.0 0.9795191978 -0.2035772444
11950228300.0 0.9764710981 -0.2134456195
12000228000.0 0.9737885766 -0.2224068873
12050227700.0 0.9696230266 -0.2350776425
12100227400.0 0.9667762307 -0.2456114146
12150227100.0 0.9616581216 -0.2623277199
12200226800.0 0.9578532279 -0.2738015909
12250226500.0 0.9538617927 -0.2864076675
12300226200.0 0.9497541717 -0.298479081
12350225900.0 0.9445750479 -0.3122427261
12400225600.0 0.9402422451 -0.3246438905
12450225300.0 0.9358594883 -0.3372866261
12500225000.0 0.9301624209 -0.3523614554
12550224700.0 0.9247313754 -0.3657200812
12600224400.0 0.9197235605 -0.378257103
12650224100.0 0.9139214805 -0.3927496405
12700223800.0 0.9087176881 -0.4056458382
12750223500.0 0.9031842372 -0.4187084682
12800223200.0 0.8975848198 -0.431296773
12850222900.0 0.8926634195 -0.4432925738
12900222600.0 0.8873321152 -0.4552449856
12950222300.0 0.8807978772 -0.4679392278
13000222000.0 0.8748146905 -0.4795380948
13050221700.0 0.867946609 -0.4925016775
13100221400.0 0.8615154347 -0.5044736521
13150221100.0 0.8545181089 -0.5170868829
13200220800.0 0.8474697449 -0.5283781857
13250220500.0 0.840233191 -0.5404844508
13300220200.0 0.8327108955 -0.5517249254
13350219900.0 0.8244756974 -0.5632490847
13400219600.0 0.8160820367 -0.5752371024
13450219300.0 0.8068957977 -0.5884438322
13500219000.0 0.7972149655 -0.6012441887
13550218700.0 0.7870240136 -0.6136728048
13600218400.0 0.7775113742 -0.6256173308
13650218100.0 0.7674420715 -0.6364525299
13700217800.0 0.7565585668 -0.6482159646
13750217500.0 0.7467872992 -0.6588220442
13800217200.0 0.7364953586 -0.6701631076
13850216900.0 0.725351573 -0.6811598253
13900216600.0 0.7159232613 -0.6905724341
13950216300.0 0.7047818449 -0.7006120979
14000216000.0 0.6952735036 -0.7092493428
14050215700.0 0.6860105566 -0.717270282
14100215400.0 0.6767161286 -0.7261741042
14150215100.0 0.6673063173 -0.7351747477
14200214800.0 0.657879631 -0.743959265
14250214500.0 0.6476011054 -0.75348721
14300214200.0 0.6370161938 -0.7629167212
14350213900.0 0.6260195038 -0.7727250891
14400213600.0 0.6142208293 -0.7824203606
14450213300.0 0.6014142503 -0.792786778
14500213000.0 0.5882440047 -0.8021001195
14550212700.0 0.5756471001 -0.8115366116
14600212400.0 0.5632693759 -0.8204669623
14650212100.0 0.5507243522 -0.8289833802
14700211800.0 0.5368643412 -0.8385766413
14750211500.0 0.5246868756 -0.8471244017
14800211200.0 0.5122694195 -0.8551271036
14850210900.0 0.5001053735 -0.8632198266
14900210600.0 0.4865001947 -0.8709398036
14950210300.0 0.473229108 -0.8786486446
15000210000.0 0.4606284945 -0.8854056544
15050209700.0 0.4484303094 -0.8913754995
15100209400.0 0.4356128939 -0.8976576274
15150209100.0 0.422983501 -0.9030836932
15200208800.0 0.4107355681 -0.908392656
15250208500.0 0.3991248723 -0.9128271574
15300208200.0 0.387028643 -0.9173518943
15350207900.0 0.3741902838 -0.9224727096
15400207600.0 0.3594964405 -0.9279424184
15450207300.0 0.3444525399 -0.9326404655
15500207000.0 0.3298982608 -0.9369235344
15550206700.0 0.3154878883 -0.942364148
15600206400.0 0.2996751513 -0.9464530578
15650206100.0 0.2835321458 -0.95099509
15700205800.0 0.2704732078 -0.9541681554
15750205500.0 0.256267307 -0.9577543308
15800205200.0 0.2423083288 -0.9609806526
15850204900.0 0.2281049162 -0.9646753671
15900204600.0 0.2128550457 -0.9682479397
15950204300.0 0.1985432132 -0.9715336336
16000204000.0 0.184087488 -0.9743131305
16050203700.0 0.1692007918 -0.9771362438
16100203400.0 0.1543216987 -0.9795843739
16150203100.0 0.1395317362 -0.9819930449
16200202800.0 0.1254143699 -0.9843962413
16250202500.0 0.1103682974 -0.9856061556
16300202200.0 0.0947346271 -0.9875182895
16350201900.0 0.0800036998 -0.9891218804
16400201600.0 0.064904406 -0.9900025591
16450201300.0 0.0497339522 -0.9911627843
16500201000.0 0.0325602949 -0.9920648159
16550200700.0 0.0164902944 -0.9924419889
16600200400.0 0.0006706865 -0.992696154
16650200100.0 -0.0155268839 -0.9925470575
16700199800.0 -0.0318638111 -0.9920270232
16750199500.0 -0.0505602979 -0.9914725817
16800199200.0 -0.066756062 -0.991001645
16850198900.0 -0.0822820592 -0.9894341062
16900198600.0 -0.0968285664 -0.9880551119
16950198300.0 -0.1102835872 -0.9879553136
17000198000.0 -0.1229210279 -0.9855865717
17050197700.0 -0.1365585267 -0.9833596338
17100197400.0 -0.1485512659 -0.9820968444
17150197100.0 -0.1616371941 -0.9800406704
17200196800.0 -0.1742336496 -0.9782570783
17250196500.0 -0.1873688386 -0.9752446473
17300196200.0 -0.1996144683 -0.9729738942
17350195900.0 -0.2114600801 -0.9705828599
17400195600.0 -0.2231980778 -0.9680317053
17450195300.0 -0.2360895512 -0.9654084486
17500195000.0 -0.2492164853 -0.9618865525
17550194700.0 -0.2631984744 -0.9583141547
17600194400.0 -0.2772649126 -0.9545782004
17650194100.0 -0.2901359173 -0.9503798833
17700193800.0 -0.3034662098 -0.9460902629
17750193500.0 -0.3175401967 -0.9413084815
17800193200.0 -0.3319365395 -0.9363521339
17850192900.0 -0.3465876608 -0.9307892111
17900192600.0 -0.3618509163 -0.9249701169
17950192300.0 -0.3772534903 -0.9178551417
18000192000.0 -0.3923060108 -0.9105973096
18050191700.0 -0.4059107447 -0.9025565417
18100191400.0 -0.4201804636 -0.8949353509
18150191100.0 -0.4350014797 -0.8869405252
18200190800.0 -0.4518866129 -0.8777063495
18250190500.0 -0.4687356807 -0.8680650093
18300190200.0 -0.4841348022 -0.859723161
18350189900.0 -0.499213633 -0.8513412292
18400189600.0 -0.5140699631 -0.8428188156
18450189300.0 -0.5273465276 -0.8345501223
18500189000.0 -0.5407277395 -0.826576768
18550188700.0 -0.5536932844 -0.8189197857
18600188400.0 -0.5656481088 -0.8122753171
18650188100.0 -0.5769044937 -0.8055227231
18700187800.0 -0.5880373872 -0.7988372614
18750187500.0 -0.5986760457 -0.7922221103
18800187200.0 -0.6092898718 -0.7850961977
18850186900.0 -0.6195002766 -0.7784477299
18900186600.0 -0.6299034752 -0.7710164823
18950186300.0 -0.640044831 -0.7633424336
19000186000.0 -0.6477434003 -0.7568773637
19050185700.0 -0.6569468595 -0.7497818587
19100185400.0 -0.6674580424 -0.7412735617
19150185100.0 -0.6767138388 -0.7335561128
19200184800.0 -0.6866720562 -0.7253921076
19250184500.0 -0.6967532475 -0.7156533646
19300184200.0 -0.7079494454 -0.7062480016
19350183900.0 -0.7185181762 -0.6965494173
19400183600.0 -0.7282480248 -0.686018694
19450183300.0 -0.7377022508 -0.6759650197
19500183000.0 -0.7459883406 -0.6661783322
19550182700.0 -0.7553633865 -0.6553816738
19600182400.0 -0.7657824933 -0.6436390787
19650182100.0 -0.7765575786 -0.6314961797
19700181800.0 -0.7869609424 -0.6182899829
19750181500.0 -0.7972153218 -0.6040565192
19800181200.0 -0.8072478089 -0.5893454822
19850180900.0 -0.8170585588 -0.5740532047
19900180600.0 -0.8245290647 -0.5595215915
19950180300.0 -0.8338070863 -0.5432031356
20000180000.0 -0.8228019756 -0.5463441993
20050179700.0 -0.8319957864 -0.5343323668
20100179400.0 -0.8398962115 -0.5213109247
20150179100.0 -0.8478755778 -0.5098079924
20200178800.0 -0.8566235482 -0.4978141766
20250178500.0 -0.8650874181 -0.4851355235
20300178200.0 -0.8754802148 -0.471596714
20350177900.0 -0.8849627339 -0.4577046379
20400177600.0 -0.8936177417 -0.4436358601
20450177300.0 -0.9021193587 -0.4289092495
20500177000.0 -0.9099977462 -0.4152177549
20550176700.0 -0.9180175665 -0.4015207248
20600176400.0 -0.9248471247 -0.3885894945
20650176100.0 -0.9311638791 -0.3767722132
20700175800.0 -0.9380701442 -0.3643014826
20750175500.0 -0.9446763274 -0.3524396111
20800175200.0 -0.9492755022 -0.3423397973
20850174900.0 -0.9543167138 -0.3309871712
20900174600.0 -0.9575201229 -0.3204152999
20950174300.0 -0.9618424625 -0.3095610682
21000174000.0 -0.963908566 -0.2989737419
21050173700.0 -0.9661149543 -0.2891360768
21100173400.0 -0.96984599 -0.2780024528
21150173100.0 -0.9731962818 -0.2666322482
21200172800.0 -0.9773515616 -0.2535170033
21250172500.0 -0.9805140489 -0.2396069756
21300172200.0 -0.9839871093 -0.2254929911
21350171900.0 -0.9865875207 -0.2113216724
21400171600.0 -0.9883608709 -0.1970258095
21450171300.0 -0.9892852096 -0.1826923605
21500171000.0 -0.9893159407 -0.1673226727
21550170700.0 -0.9903942417 -0.1528170207
21600170400.0 -0.9904688229 -0.1365149786
21650170100.0 -0.990970208 -0.121902713
21700169800.0 -0.9899213137 -0.1063823666
21750169500.0 -0.9897895548 -0.0901565873
21800169200.0 -0.9901866388 -0.0735820378
21850168900.0 -0.9903859125 -0.0574554315
21900168600.0 -0.9899971641 -0.04086656
21950168300.0 -0.989154865 -0.0250407966
22000168000.0 -0.9890722337 -0.0102084493
22050167700.0 -0.9892516918 0.0048094363
22100167400.0 -0.9903118735 0.020152359
22150167100.0 -0.9912632167 0.0362144328
22200166800.0 -0.9920736201 0.0522724024
22250166500.0 -0.9908989724 0.0703866765
22300166200.0 -0.9903239429 0.0867690315
22350165900.0 -0.9893750381 0.101976909
22400165600.0 -0.9878361248 0.1186708168
22450165300.0 -0.9866084805 0.1335162619
22500165000.0 -0.9837864752 0.1485690331
22550164700.0 -0.9838860456 0.1645541311
22600164400.0 -0.9818768416 0.1799874091
22650164100.0 -0.9783008213 0.1963704893
22700163800.0 -0.9748260318 0.2111380375
22750163500.0 -0.9721899613 0.2264155672
22800163200.0 -0.9690639486 0.2394569258
22850162900.0 -0.9669056382 0.2531163237
22900162600.0 -0.9648482564 0.2673377626
22950162300.0 -0.9630450695 0.2806831293
23000162000.0 -0.9607699827 0.2934224357
23050161700.0 -0.9586412078 0.3072512515
23100161400.0 -0.9559073731 0.3208231014
23150161100.0 -0.9524683021 0.3334616882
23200160800.0 -0.9497909648 0.346463819
23250160500.0 -0.9469901089 0.358556228
23300160200.0 -0.9442420279 0.3713566082
23350159900.0 -0.9398285486 0.385416718
23400159600.0 -0.9352639012 0.3982225753
23450159300.0 -0.9300181195 0.4128982674
23500159000.0 -0.924492881 0.4258083838
23550158700.0 -0.9201482103 0.4400344749
23600158400.0 -0.9140055822 0.4542592871
23650158100.0 -0.9068498213 0.4686459652
23700157800.0 -0.8983760348 0.4830398164
23750157500.0 -0.888603052 0.497288246
23800157200.0 -0.8793343755 0.5111042826
23850156900.0 -0.869630503 0.5237066084
23900156600.0 -0.8591540103 0.5360523768
23950156300.0 -0.84911341 0.5489430153
24000156000.0 -0.8405891096 0.5615241089
24050155700.0 -0.8294474327 0.5740548735
24100155400.0 -0.8192669143 0.586063908
24150155100.0 -0.8089662055 0.5981389762
24200154800.0 -0.7970726069 0.6100822
24250154500.0 -0.7856537335 0.6224549916
24300154200.0 -0.7739308453 0.6342501549
24350153900.0 -0.7622885964 0.6454852706
24400153600.0 -0.7496622012 0.6560470248
24450153300.0 -0.7379413705 0.6661709056
24500153000.0 -0.7263708539 0.6764839077
24550152700.0 -0.7145391816 0.6867844723
24600152400.0 -0.7034580024 0.6956803388
24650152100.0 -0.690175836 0.7040266004
