!Created with skrf (http://scikit-rf.org).
# Hz S RI R 50.0 
!freq ReS11 ImS11
300000.0 -0.972723192 -0.1229961888
50299700.0 -0.999912796 0.0150638904
100299400.0 -0.9979232136 0.0277622024
150299100.0 -1.00266153 0.0447083993
200298800.0 -0.9994351802 0.0580847145
250298500.0 -0.9975028719 0.0714858209
300298200.0 -0.9858090152 0.0872901496
350297900.0 -0.9941986626 0.098344574
400297600.0 -0.9931657065 0.1148770171
450297300.0 -0.9909325027 0.1284772605
500297000.0 -0.9892961968 0.1432903938
550296700.0 -0.9842326164 0.1558629911
600296400.0 -1.017272989 0.1891951056
650296100.0 -0.9820555557 0.1858591224
700295800.0 -0.9792853034 0.1999153929
750295500.0 -0.9761395155 0.2139643044
800295200.0 -0.9728152805 0.2281384415
850294900.0 -0.9697563395 0.2420608412
900294600.0 -0.9657689745 0.2554562311
950294300.0 -0.9621069518 0.2691431464
1000294000.0 -0.9581131958 0.2832277249
1050293700.0 -0.9535074882 0.2969986828
1100293400.0 -0.9493529725 0.3114045339
1150293100.0 -0.9455573717 0.3231438377
1200292800.0 -0.9402841267 0.3376267661
1250292500.0 -0.934727571 0.3511714075
1300292200.0 -0.9291852128 0.3645125501
1350291900.0 -0.9233539951 0.3785066095
1400291600.0 -0.917764788 0.3915581209
1450291300.0 -0.9126301764 0.4038519725
1500291000.0 -0.9061761991 0.4172272232
1550290700.0 -0.899573455 0.4305731139
1600290400.0 -0.8934175517 0.4435584957
1650290100.0 -0.8867091993 0.4556797529
1700289800.0 -0.8797642886 0.4692984658
1750289500.0 -0.8728677504 0.4814000106
1800289200.0 -0.8656036854 0.4943535741
1850288900.0 -0.8586539161 0.5058034183
1900288600.0 -0.8509432331 0.5187466422
1950288300.0 -0.8427241163 0.5313055115
2000288000.0 -0.8354115325 0.5428418481
2050287700.0 -0.827020139 0.5552951328
2100287400.0 -0.8194955384 0.5665420742
2150287100.0 -0.8108525192 0.5786002026
2200286800.0 -0.8030440309 0.589278338
2250286500.0 -0.7940338921 0.6014001934
2300286200.0 -0.7850940563 0.6128728832
2350285900.0 -0.776709202 0.6235140585
2400285600.0 -0.7680295451 0.6343738396
2450285300.0 -0.7590647187 0.6449938152
2500285000.0 -0.7490538611 0.656713032
2550284700.0 -0.7399621381 0.6669002256
2600284400.0 -0.7311887064 0.6769529282
2650284100.0 -0.7222182664 0.6868639109
2700283800.0 -0.7118666699 0.6976497435
2750283500.0 -0.701682246 0.7080259133
2800283200.0 -0.6915446867 0.7181003308
2850282900.0 -0.6810029365 0.7281712297
2900282600.0 -0.6705858077 0.7375783021
2950282300.0 -0.6602388186 0.7471944565
3000282000.0 -0.6496521214 0.7566261218
3050281700.0 -0.6384266093 0.7659987516
3100281400.0 -0.6269283566 0.7749262484
3150281100.0 -0.615808044 0.7838704311
3200280800.0 -0.6043096842 0.7922407621
3250280500.0 -0.5931305975 0.8001745522
3300280200.0 -0.5814570903 0.8083843629
3350279900.0 -0.5693240288 0.8164625191
3400279600.0 -0.5566859574 0.8246341723
3450279300.0 -0.5453202941 0.8315274401
3500279000.0 -0.5337804872 0.8384881061
3550278700.0 -0.5216566445 0.8455786632
3600278400.0 -0.5099985398 0.8524199112
3650278100.0 -0.4968726887 0.8597876969
3700277800.0 -0.4845810485 0.8666164788
3750277500.0 -0.4721770146 0.873087902
3800277200.0 -0.4599853239 0.8798413312
3850276900.0 -0.4476776087 0.8857434509
3900276600.0 -0.4369593756 0.8913568092
3950276300.0 -0.4247409215 0.8971090355
4000276000.0 -0.4129688782 0.9031974571
4050275700.0 -0.4003950609 0.9090788561
4100275400.0 -0.3895839472 0.9144284691
4150275100.0 -0.3761153762 0.920640621
4200274800.0 -0.3626849377 0.9261458483
4250274500.0 -0.3502214752 0.9312583639
4300274200.0 -0.3368311421 0.9368937396
4350273900.0 -0.3224972364 0.9422925529
4400273600.0 -0.3078737556 0.947184794
4450273300.0 -0.2928300149 0.952201483
4500273000.0 -0.279789808 0.9565906017
4550272700.0 -0.2660403884 0.9604413672
4600272400.0 -0.250998778 0.9646044127
4650272100.0 -0.2398287676 0.9679187375
4700271800.0 -0.2267187619 0.9711215894
4750271500.0 -0.2150488779 0.9740605874
4800271200.0 -0.2029656685 0.9766903876
4850270900.0 -0.1891020245 0.9796927676
4900270600.0 -0.1752831051 0.9820223459
4950270300.0 -0.1609345898 0.9844425033
5000270000.0 -0.146266127 0.986684594
5050269700.0 -0.1326263356 0.9882996215
5100269400.0 -0.1188203808 0.9898559526
5150269100.0 -0.1047702682 0.9917546737
5200268800.0 -0.0913613727 0.9931486681
5250268500.0 -0.0782404134 0.9937997733
5300268200.0 -0.0645537438 0.9947648625
5350267900.0 -0.0518218643 0.9949773021
5400267600.0 -0.035655161 0.9960278389
5450267300.0 -0.0221958762 0.9966973546
5500267000.0 -0.006864839 0.9971372745
5550266700.0 0.0080459095 0.997271485
5600266400.0 0.0238663352 0.9970128717
5650266100.0 0.0404183896 0.9967280683
5700265800.0 0.0548460702 0.9959676468
5750265500.0 0.0700083425 0.995684516
5800265200.0 0.0832958647 0.9939992733
5850264900.0 0.0963359487 0.9928801446
5900264600.0 0.1131693581 0.9916072304
5950264300.0 0.124638045 0.9896234799
6000264000.0 0.1379664627 0.9879622257
6050263700.0 0.1498070586 0.9870684923
6100263400.0 0.1616468642 0.9848131259
6150263100.0 0.176460919 0.982439173
6200262800.0 0.1860339057 0.9813052839
6250262500.0 0.1986225002 0.978699881
6300262200.0 0.2109609222 0.9762586275
6350261900.0 0.2236971014 0.973425928
6400261600.0 0.2378141152 0.9702693855
6450261300.0 0.248807034 0.9677138436
6500261000.0 0.2622104871 0.9641078119
6550260700.0 0.2754013847 0.9601152726
6600260400.0 0.2885082944 0.9561604166
6650260100.0 0.3029208667 0.9516774001
6700259800.0 0.3148338714 0.9472743272
6750259500.0 0.3283331207 0.9421038739
6800259200.0 0.3425434687 0.9374510761
6850258900.0 0.3548056659 0.9321008003
6900258600.0 0.3673569722 0.9269113387
6950258300.0 0.3798341586 0.9216692744
7000258000.0 0.3912117396 0.9161559765
7050257700.0 0.4031249355 0.9104572065
7100257400.0 0.416472368 0.9040675123
7150257100.0 0.4273458439 0.8986815616
7200256800.0 0.4403465014 0.891931681
7250256500.0 0.4529151628 0.8854439378
7300256200.0 0.4660311176 0.8788717862
7350255900.0 0.4787921562 0.8715801979
7400255600.0 0.4928948682 0.8641463735
7450255300.0 0.5089434467 0.8551121276
7500255000.0 0.5211771625 0.8474885387
7550254700.0 0.5354419738 0.8383806427
7600254400.0 0.5476295609 0.8301689039
7650254100.0 0.5594826975 0.8220583191
7700253800.0 0.5710238578 0.814255315
7750253500.0 0.5817606525 0.8064026665
7800253200.0 0.5924069854 0.7985645081
7850252900.0 0.6021147504 0.7913067899
7900252600.0 0.6137510403 0.7826405994
7950252300.0 0.6220590255 0.7763220789
8000252000.0 0.6323069695 0.7686864591
8050251700.0 0.6421193615 0.7605799953
8100251400.0 0.6524319846 0.7527521133
8150251100.0 0.6625153505 0.7441004212
8200250800.0 0.6720556459 0.7359427166
8250250500.0 0.6806064877 0.7281044325
8300250200.0 0.6896225234 0.7198431053
8350249900.0 0.6990607623 0.7109155278
8400249600.0 0.7068957132 0.7028819732
8450249300.0 0.7157985581 0.6940814742
8500249000.0 0.7243786282 0.6853614068
8550248700.0 0.7327945636 0.6763168027
8600248400.0 0.7409060783 0.6668214032
8650248100.0 0.7486326595 0.6574388173
8700247800.0 0.7580056117 0.6463334524
8750247500.0 0.7661438096 0.6362770867
8800247200.0 0.7740708954 0.6260102842
8850246900.0 0.7828287541 0.614440165
8900246600.0 0.7912372235 0.6032137
8950246300.0 0.8005910921 0.5904458914
9000246000.0 0.8091100718 0.5784828315
9050245700.0 0.8178529072 0.5662192554
9100245400.0 0.8263638832 0.5541798056
9150245100.0 0.8350317472 0.5412479255
9200244800.0 0.844065154 0.5268173759
9250244500.0 0.8532628392 0.5120869209
9300244200.0 0.8612304441 0.4986907567
9350243900.0 0.8688711364 0.4854483432
9400243600.0 0.8756333195 0.4737088189
9450243300.0 0.8809939543 0.4632165986
9500243000.0 0.8874358795 0.4516347341
9550242700.0 0.8915100719 0.4440580226
9600242400.0 0.8956256029 0.436600242
9650242100.0 0.8997689434 0.4296463417
9700241800.0 0.904662125 0.4207742789
9750241500.0 0.9089664983 0.4131588953
9800241200.0 0.9142471915 0.4035953649
9850240900.0 0.9199944579 0.3920351377
9900240600.0 0.925918812 0.3801413192
9950240300.0 0.9327845307 0.3634652831
10000240000.0 0.9381202277 0.3512721039
10050239700.0 0.943776481 0.3351966692
10100239400.0 0.9492902961 0.3186853681
10150239100.0 0.9538752166 0.3033940867
10200238800.0 0.9583211552 0.2876581143
10250238500.0 0.9615688239 0.2742811623
10300238200.0 0.964690594 0.2603642317
10350237900.0 0.9676699819 0.2469811033
10400237600.0 0.9699282339 0.2336290057
10450237300.0 0.9728060233 0.2195563065
10500237000.0 0.9750580135 0.2074195945
10550236700.0 0.9774937184 0.1929143513
10600236400.0 0.979530481 0.1789347732
10650236100.0 0.9818204529 0.1645391644
10700235800.0 0.9840816941 0.1520827848
10750235500.0 0.9859719208 0.1389981115
10800235200.0 0.9879777474 0.1245561348
10850234900.0 0.989868716 0.1093845296
10900234600.0 0.991995117 0.094538578
10950234300.0 0.9938698042 0.0811574531
11000234000.0 0.995521408 0.0655255379
11050233700.0 0.9975497133 0.0487735028
11100233400.0 0.9990060885 0.0309117125
11150233100.0 1.000046052 0.0143185507
11200232800.0 1.001110206 -0.0016329025
11250232500.0 1.001963198 -0.0193185639
11300232200.0 1.002077561 -0.0382635819
11350231900.0 1.001966815 -0.0545022712
11400231600.0 1.001456086 -0.0700911708
11450231300.0 1.001103051 -0.0857676577
11500231000.0 1.000015998 -0.1017232403
11550230700.0 0.9986845724 -0.1143110563
11600230400.0 0.9966224838 -0.1278688536
11650230100.0 0.9948380226 -0.1398793095
11700229800.0 0.9923612696 -0.1545021511
11750229500.0 0.9901966028 -0.1689096006
11800229200.0 0.9872198827 -0.1818541728
11850228900.0 0.9835801203 -0.1937564748
11900228600.0 0.9798458318 -0.2032569648
11950228300.0 0.976447606 -0.2131313567
12000228000.0 0.9736678506 -0.222125413
12050227700.0 0.9698071822 -0.2348361168
12100227400.0 0.9667451505 -0.2456462149
12150227100.0 0.9618202585 -0.2626760147
12200226800.0 0.9575430564 -0.2738007285
12250226500.0 0.9543570169 -0.286478271
12300226200.0 0.9499923537 -0.2985368373
12350225900.0 0.9447073345 -0.3123132594
12400225600.0 0.9400221894 -0.3246858849
12450225300.0 0.935496707 -0.336907376
12500225000.0 0.9302329695 -0.3526312632
12550224700.0 0.9248544136 -0.3657476503
12600224400.0 0.9198436885 -0.3784847934
12650224100.0 0.9140823625 -0.3927413933
12700223800.0 0.9087311317 -0.4056314703
12750223500.0 0.9033336143 -0.4186784972
12800223200.0 0.8978311537 -0.431167704
12850222900.0 0.8927834595 -0.4428648193
12900222600.0 0.8872345532 -0.4552215865
12950222300.0 0.8810665464 -0.4681474417
13000222000.0 0.8746984963 -0.4800569139
13050221700.0 0.8679209583 -0.4925965594
13100221400.0 0.8613697845 -0.5049015596
13150221100.0 0.8543586658 -0.5167949863
13200220800.0 0.8473765427 -0.528751565
13250220500.0 0.8400885407 -0.5406162105
13300220200.0 0.8324686766 -0.5516676903
13350219900.0 0.8246139149 -0.5634777199
13400219600.0 0.8163015025 -0.57519625
13450219300.0 0.806751372 -0.5882378735
13500219000.0 0.7971046654 -0.6014025716
13550218700.0 0.7871322234 -0.6133619736
13600218400.0 0.7777078211 -0.6259190221
13650218100.0 0.7681782686 -0.6371167397
13700217800.0 0.7566165901 -0.6479873281
13750217500.0 0.7468947968 -0.6593788537
13800217200.0 0.7364809693 -0.6699298708
13850216900.0 0.7252375873 -0.6818606313
13900216600.0 0.7162370486 -0.6901811373
13950216300.0 0.7046207418 -0.7003866323
14000216000.0 0.6953957232 -0.7088842691
14050215700.0 0.6861163778 -0.7171343102
14100215400.0 0.6764072658 -0.7265924688
14150215100.0 0.6672071078 -0.7354257133
14200214800.0 0.6580081578 -0.7440153513
14250214500.0 0.6476465875 -0.7535002642
14300214200.0 0.6370392143 -0.7629788591
14350213900.0 0.6261524539 -0.7723186121
14400213600.0 0.6141026005 -0.782383393
14450213300.0 0.6015932147 -0.7926562354
14500213000.0 0.5880688797 -0.8020922549
14550212700.0 0.5756139951 -0.8120428845
14600212400.0 0.5635439716 -0.8201999056
14650212100.0 0.5510976343 -0.8292717517
14700211800.0 0.5373040264 -0.8387873302
14750211500.0 0.5250647884 -0.8473446846
14800211200.0 0.5122910352 -0.8554484255
14850210900.0 0.5000198187 -0.8631334712
14900210600.0 0.4866036474 -0.8709642977
14950210300.0 0.4733680348 -0.8785035159
15000210000.0 0.460701103 -0.8853550987
15050209700.0 0.4483639614 -0.8915261004
15100209400.0 0.4354171559 -0.8976722385
15150209100.0 0.4230155801 -0.9025618084
15200208800.0 0.4108124749 -0.9080478869
15250208500.0 0.3996406132 -0.9122456594
15300208200.0 0.3877195535 -0.9173554436
15350207900.0 0.3745997411 -0.9224390248
15400207600.0 0.3590989393 -0.9281545389
15450207300.0 0.3449077501 -0.9322369484
15500207000.0 0.330204337 -0.9371682829
15550206700.0 0.3159263228 -0.9420195993
15600206400.0 0.2992832176 -0.9466787201
15650206100.0 0.2836669042 -0.9510898823
15700205800.0 0.2701683259 -0.9542260014
15750205500.0 0.2562187419 -0.9577876856
15800205200.0 0.2422691937 -0.9612290991
15850204900.0 0.228156916 -0.964607631
15900204600.0 0.2131833748 -0.9684185754
15950204300.0 0.1991112879 -0.9714946726
16000204000.0 0.1843871144 -0.9744098142
16050203700.0 0.169158315 -0.9774252779
16100203400.0 0.1540870354 -0.9794543496
16150203100.0 0.139123771 -0.9819234113
16200202800.0 0.1255608339 -0.9844363112
16250202500.0 0.110415324 -0.9859073738
16300202200.0 0.0952277334 -0.9878162726
16350201900.0 0.0802579755 -0.9889003127
16400201600.0 0.0655798912 -0.9900914995
16450201300.0 0.0499390432 -0.9912121843
16500201000.0 0.0328454702 -0.9919957979
16550200700.0 0.0167164802 -0.99254
16600200400.0 0.0008135944 -0.9927223176
16650200100.0 -0.0152017803 -0.9925357463
16700199800.0 -0.0320406136 -0.9921950714
16750199500.0 -0.0505991102 -0.9916846452
16800199200.0 -0.066768261 -0.9909187272
16850198900.0 -0.0824714843 -0.989013717
16900198600.0 -0.0960472062 -0.9884356186
16950198300.0 -0.1104516812 -0.9873081224
17000198000.0 -0.1233264866 -0.9856342876
17050197700.0 -0.1360357081 -0.983986935
17100197400.0 -0.1496251069 -0.9824771391
17150197100.0 -0.1616517246 -0.9801338044
17200196800.0 -0.1742396983 -0.9778939617
17250196500.0 -0.1871707837 -0.9756444059
17300196200.0 -0.1995058946 -0.9728313353
17350195900.0 -0.211289102 -0.9707172889
17400195600.0 -0.2233079863 -0.968170698
17450195300.0 -0.2360108325 -0.9654425512
17500195000.0 -0.2490507575 -0.9620308561
17550194700.0 -0.2632543867 -0.9584734848
17600194400.0 -0.2769481124 -0.9546335291
17650194100.0 -0.2901166693 -0.9506011472
17700193800.0 -0.3033419487 -0.9460606866
17750193500.0 -0.3174495453 -0.9416581818
17800193200.0 -0.3320714892 -0.9365403975
17850192900.0 -0.3468535167 -0.9306936405
17900192600.0 -0.3617277764 -0.9251978964
17950192300.0 -0.3772761665 -0.9178417322
18000192000.0 -0.3919329944 -0.9106936465
18050191700.0 -0.4059018409 -0.9026929941
18100191400.0 -0.4198495976 -0.8950048265
18150191100.0 -0.4347969201 -0.8870523234
18200190800.0 -0.4515504693 -0.8776885603
18250190500.0 -0.4685536972 -0.8682147126
18300190200.0 -0.4840110611 -0.8593079331
18350189900.0 -0.4995477929 -0.8512060221
18400189600.0 -0.5138859278 -0.8425184945
18450189300.0 -0.5271309404 -0.8352362638
18500189000.0 -0.5405299411 -0.8265843015
18550188700.0 -0.5532270572 -0.818884958
18600188400.0 -0.5654704667 -0.8123931561
18650188100.0 -0.5766352072 -0.8055108069
18700187800.0 -0.5880960086 -0.7988204607
18750187500.0 -0.5987336736 -0.7922118789
18800187200.0 -0.6094185874 -0.7849909515
18850186900.0 -0.6198161695 -0.7783494229
18900186600.0 -0.629918715 -0.7709919312
18950186300.0 -0.6402275879 -0.7632799539
19000186000.0 -0.6476955428 -0.7571602904
19050185700.0 -0.6571098079 -0.7497873725
19100185400.0 -0.6667797352 -0.7418039169
19150185100.0 -0.6770271933 -0.7335882963
19200184800.0 -0.6865259523 -0.7248890078
19250184500.0 -0.6964789136 -0.7159500161
19300184200.0 -0.7071543831 -0.7062802758
19350183900.0 -0.7192315892 -0.6972227972
19400183600.0 -0.7279767608 -0.687148359
19450183300.0 -0.73759097 -0.6769691401
19500183000.0 -0.7455941195 -0.6667030497
19550182700.0 -0.7551571279 -0.6559340071
19600182400.0 -0.7656098876 -0.6441769891
19650182100.0 -0.7756776419 -0.6316911415
19700181800.0 -0.7864361908 -0.6183456864
19750181500.0 -0.7967856083 -0.6044736829
19800181200.0 -0.8070096098 -0.5895187515
19850180900.0 -0.8165468465 -0.5743117382
19900180600.0 -0.8243506782 -0.5597397939
19950180300.0 -0.8335098176 -0.5433083907
20000180000.0 -0.8231266618 -0.5463273186
20050179700.0 -0.831645904 -0.5348846104
20100179400.0 -0.8394047502 -0.5224701177
20150179100.0 -0.8476183135 -0.5097908993
20200178800.0 -0.8565145998 -0.4983739382
20250178500.0 -0.8657653704 -0.4851692778
20300178200.0 -0.8754352658 -0.4717416268
20350177900.0 -0.8843168213 -0.4583995131
20400177600.0 -0.8936149886 -0.4437580208
20450177300.0 -0.9020821071 -0.4294749838
20500177000.0 -0.9100251798 -0.4152915521
20550176700.0 -0.9179419316 -0.4021978275
20600176400.0 -0.9247698403 -0.388979237
20650176100.0 -0.9311211854 -0.3766774903
20700175800.0 -0.938266436 -0.3649508729
20750175500.0 -0.9442215419 -0.3532949855
20800175200.0 -0.9491535745 -0.3430152077
20850174900.0 -0.953800963 -0.3312469028
20900174600.0 -0.9582848849 -0.3207867207
20950174300.0 -0.9607162228 -0.3090908537
21000174000.0 -0.9640165268 -0.2996781074
21050173700.0 -0.9655916065 -0.2895332653
21100173400.0 -0.9689275072 -0.2783893362
21150173100.0 -0.9727687116 -0.2671453506
21200172800.0 -0.9765841522 -0.2530860932
21250172500.0 -0.980766783 -0.2397498259
21300172200.0 -0.9837323792 -0.2257423154
21350171900.0 -0.9858827694 -0.2114086946
21400171600.0 -0.9881245807 -0.1972814664
21450171300.0 -0.9881307032 -0.1833082936
21500171000.0 -0.9886773642 -0.1686427113
21550170700.0 -0.9897837123 -0.1531691404
21600170400.0 -0.9903673926 -0.1373625362
21650170100.0 -0.9909104979 -0.1229099965
21700169800.0 -0.9898871857 -0.1078441864
21750169500.0 -0.9900792743 -0.0906922054
21800169200.0 -0.9911753634 -0.0744338457
21850168900.0 -0.9897469217 -0.0567360828
21900168600.0 -0.9895625923 -0.0413204946
21950168300.0 -0.9889947851 -0.0250691897
22000168000.0 -0.9891317158 -0.0106565768
22050167700.0 -0.9896041111 0.003697458
22100167400.0 -0.9903609041 0.0199392215
22150167100.0 -0.9910965664 0.0356701882
22200166800.0 -0.9916531228 0.0522890978
22250166500.0 -0.9906048172 0.0696924674
22300166200.0 -0.9906957204 0.0856281945
22350165900.0 -0.9895009141 0.1023904547
22400165600.0 -0.9878574632 0.118115427
22450165300.0 -0.9852487339 0.1328281568
22500165000.0 -0.9850666608 0.1475338745
22550164700.0 -0.9839356082 0.1642908441
22600164400.0 -0.9808044931 0.1795931311
22650164100.0 -0.978282172 0.1946593649
22700163800.0 -0.975311158 0.211380921
22750163500.0 -0.9720261232 0.2260542591
22800163200.0 -0.9689204611 0.2389560614
22850162900.0 -0.966470534 0.2524415309
22900162600.0 -0.9646919265 0.2665666581
22950162300.0 -0.9631376963 0.2800120505
23000162000.0 -0.9610414053 0.2926462269
23050161700.0 -0.9583306424 0.3064596476
23100161400.0 -0.9553754478 0.319825595
23150161100.0 -0.952835151 0.3329507819
23200160800.0 -0.94944901 0.345280483
23250160500.0 -0.9473323675 0.3579459982
23300160200.0 -0.9443603907 0.370793395
23350159900.0 -0.9400964278 0.383595908
23400159600.0 -0.9351031233 0.3977810167
23450159300.0 -0.9297742963 0.4116823966
23500159000.0 -0.9249530832 0.4254816388
23550158700.0 -0.9203834843 0.439679511
23600158400.0 -0.9139448397 0.4536700905
23650158100.0 -0.9070207857 0.4683735439
23700157800.0 -0.8987012682 0.4825736041
23750157500.0 -0.8892001865 0.4971508896
23800157200.0 -0.8791447896 0.5106784506
23850156900.0 -0.8697090336 0.5229092915
23900156600.0 -0.8597588761 0.5358291172
23950156300.0 -0.8498721469 0.5482218226
24000156000.0 -0.8408069212 0.5608558743
24050155700.0 -0.8302149435 0.572625879
24100155400.0 -0.8200998488 0.5849613209
24150155100.0 -0.8091695813 0.5980442639
24200154800.0 -0.7980909672 0.6086578096
24250154500.0 -0.7862682473 0.6215054235
24300154200.0 -0.7753702421 0.6334467939
24350153900.0 -0.7631981494 0.6450227442
24400153600.0 -0.750363334 0.6554418038
24450153300.0 -0.738157461 0.6658161661
24500153000.0 -0.7270763816 0.6757359706
24550152700.0 -0.7149033124 0.6855521709
24600152400.0 -0.7033286283 0.6956664362
24650152100.0 -0.6915211489 0.7034466589
