!Created with skrf (http://scikit-rf.org).
# Hz S RI R 50.0 
!freq ReS11 ImS11
300000.0 -0.9724650783 -0.1235736441
50299700.0 -0.9999754249 0.0149673262
100299400.0 -0.997935892 0.0278423576
150299100.0 -1.002573432 0.0447224094
200298800.0 -0.9995792747 0.0581079106
250298500.0 -0.9972811613 0.0714645805
300298200.0 -0.985883905 0.087432339
350297900.0 -0.994042619 0.0983106932
400297600.0 -0.9931951078 0.1148917307
450297300.0 -0.9907704294 0.1286404907
500297000.0 -0.9892732261 0.1434760999
550296700.0 -0.9842289575 0.1556984789
600296400.0 -1.017196529 0.1890172129
650296100.0 -0.9823858082 0.1858197715
700295800.0 -0.9792074252 0.2000146558
750295500.0 -0.9765609613 0.2138739664
800295200.0 -0.9730464248 0.2277679522
850294900.0 -0.9697626087 0.2417799734
900294600.0 -0.9659168526 0.2556772338
950294300.0 -0.9622319981 0.2691920138
1000294000.0 -0.9581512695 0.2831211861
1050293700.0 -0.9536879014 0.2971637902
1100293400.0 -0.9493453721 0.3115324035
1150293100.0 -0.9455330977 0.3233428905
1200292800.0 -0.9402211483 0.33771439
1250292500.0 -0.9345712857 0.3510821799
1300292200.0 -0.9289988735 0.364215946
1350291900.0 -0.9236032516 0.3782386636
1400291600.0 -0.9178941637 0.3914374078
1450291300.0 -0.9125020181 0.4038799888
1500291000.0 -0.9062528382 0.416999715
1550290700.0 -0.8998879598 0.4306460588
1600290400.0 -0.8935225504 0.4434383605
1650290100.0 -0.886861811 0.4556839271
1700289800.0 -0.8798903254 0.4691359794
1750289500.0 -0.8729697474 0.4815769752
1800289200.0 -0.8655475841 0.4943169072
1850288900.0 -0.8587357178 0.5055834907
1900288600.0 -0.851048467 0.5189042897
1950288300.0 -0.8428801407 0.531178858
2000288000.0 -0.8355290236 0.5424801203
2050287700.0 -0.8270413911 0.5552586811
2100287400.0 -0.8194201519 0.5665456727
2150287100.0 -0.8108558623 0.5783608657
2200286800.0 -0.8030267711 0.5891689598
2250286500.0 -0.7940302025 0.6012527531
2300286200.0 -0.7853145367 0.6129066264
2350285900.0 -0.7767913067 0.6235004326
2400285600.0 -0.7681810669 0.6342804598
2450285300.0 -0.7592388257 0.6451332608
2500285000.0 -0.7491845979 0.6565919595
2550284700.0 -0.7400387011 0.6668778568
2600284400.0 -0.7310916617 0.6767926213
2650284100.0 -0.7223815837 0.6870598171
2700283800.0 -0.711787712 0.6975170101
2750283500.0 -0.7018349955 0.7082239665
2800283200.0 -0.6916536809 0.7179133246
2850282900.0 -0.6812336103 0.7281843467
2900282600.0 -0.6709081807 0.7379863381
2950282300.0 -0.66029289 0.7469043843
3000282000.0 -0.649470013 0.7565798172
3050281700.0 -0.6385005036 0.76594938
3100281400.0 -0.6268612118 0.7749402555
3150281100.0 -0.615682027 0.7839061239
3200280800.0 -0.6043345477 0.7921851957
3250280500.0 -0.5930517274 0.8001532259
3300280200.0 -0.5815850912 0.8083794856
3350279900.0 -0.5692844416 0.8163913749
3400279600.0 -0.5565730996 0.8243595615
3450279300.0 -0.5454818224 0.8315642879
3500279000.0 -0.5340287463 0.8385122548
3550278700.0 -0.5215513575 0.8455365448
3600278400.0 -0.5099765613 0.8523497664
3650278100.0 -0.4970454452 0.8597870714
3700277800.0 -0.4846310818 0.866258672
3750277500.0 -0.4723332374 0.8732773253
3800277200.0 -0.4598411575 0.8795501623
3850276900.0 -0.4478449831 0.8854430812
3900276600.0 -0.436850587 0.8911407474
3950276300.0 -0.4248558589 0.8969443935
4000276000.0 -0.4132052938 0.9030398791
4050275700.0 -0.4005379085 0.9087789405
4100275400.0 -0.3894806746 0.9141955523
4150275100.0 -0.3761569745 0.9204049222
4200274800.0 -0.3626306399 0.9260826593
4250274500.0 -0.349953703 0.9313879041
4300274200.0 -0.3367415718 0.9367225154
4350273900.0 -0.3225126232 0.9421798608
4400273600.0 -0.3076435618 0.9471435807
4450273300.0 -0.2929729727 0.9520425405
4500273000.0 -0.2796171888 0.9564918685
4550272700.0 -0.2662387862 0.9604344508
4600272400.0 -0.2510857695 0.9646091031
4650272100.0 -0.2397390004 0.9677542747
4700271800.0 -0.2270122112 0.9710858156
4750271500.0 -0.2154230282 0.9741082954
4800271200.0 -0.2031622805 0.9766472017
4850270900.0 -0.1893441938 0.9793933019
4900270600.0 -0.1755867143 0.98175119
4950270300.0 -0.1608912449 0.9844899379
5000270000.0 -0.1462546536 0.9867215342
5050269700.0 -0.1328872052 0.9884782258
5100269400.0 -0.1187520588 0.9898486546
5150269100.0 -0.1047473778 0.9913777334
5200268800.0 -0.0913010108 0.9927993064
5250268500.0 -0.0783016806 0.9938326787
5300268200.0 -0.0646824709 0.9941783737
5350267900.0 -0.0518027971 0.9953518499
5400267600.0 -0.0357299275 0.9962255122
5450267300.0 -0.0222853492 0.996623985
5500267000.0 -0.0067880287 0.9968951267
5550266700.0 0.0079331058 0.9970982518
5600266400.0 0.0239231223 0.9970625931
5650266100.0 0.0406223875 0.9966821564
5700265800.0 0.054853193 0.995923961
5750265500.0 0.069602926 0.9950299363
5800265200.0 0.0832499798 0.9942409789
5850264900.0 0.0963599904 0.9933315447
5900264600.0 0.1129863307 0.9916337734
5950264300.0 0.1246828179 0.989845205
6000264000.0 0.1381272451 0.9880174978
6050263700.0 0.1494664123 0.9867481413
6100263400.0 0.1615127829 0.9845875522
6150263100.0 0.1760853245 0.982453867
6200262800.0 0.185668037 0.9810196398
6250262500.0 0.1984590452 0.978585222
6300262200.0 0.2106546301 0.9763713916
6350261900.0 0.2234891268 0.9732669866
6400261600.0 0.237370038 0.9702455276
6450261300.0 0.2485658416 0.9679131097
6500261000.0 0.2619095693 0.9644116707
6550260700.0 0.2748185945 0.9602301399
6600260400.0 0.2885328038 0.9565399078
6650260100.0 0.3026718267 0.951723955
6700259800.0 0.31449486 0.9475381722
6750259500.0 0.3283538518 0.9426788282
6800259200.0 0.3418596102 0.937216431
6850258900.0 0.3545452321 0.932037519
6900258600.0 0.3670763518 0.9268528612
6950258300.0 0.3796536313 0.9216254134
7000258000.0 0.3912180084 0.9163265489
7050257700.0 0.4031084885 0.9106330937
7100257400.0 0.4165677748 0.9040665689
7150257100.0 0.4272852519 0.8985800137
7200256800.0 0.4406416157 0.8921882196
7250256500.0 0.4530503686 0.8855988631
7300256200.0 0.4656984706 0.8786647115
7350255900.0 0.4788269514 0.8715546221
7400255600.0 0.4933783267 0.8642269862
7450255300.0 0.5089473183 0.855015091
7500255000.0 0.521261719 0.8473882236
7550254700.0 0.5354500807 0.838102908
7600254400.0 0.5480532652 0.829712941
7650254100.0 0.5592495156 0.8217973361
7700253800.0 0.570781237 0.8138628161
7750253500.0 0.5820894801 0.8062041704
7800253200.0 0.592931824 0.7983692939
7850252900.0 0.6024259832 0.791149884
7900252600.0 0.6138807835 0.782441713
7950252300.0 0.6222875028 0.7760103336
8000252000.0 0.6322305949 0.7686026748
8050251700.0 0.642477223 0.7603936969
8100251400.0 0.652586387 0.7525455715
8150251100.0 0.662395489 0.7440298763
8200250800.0 0.672277767 0.7355930781
8250250500.0 0.6806869654 0.7279642987
8300250200.0 0.6894177122 0.7197370637
8350249900.0 0.6989914198 0.710637904
8400249600.0 0.7068738627 0.7026726383
8450249300.0 0.7158033342 0.6940634862
8500249000.0 0.7243455108 0.6852409482
8550248700.0 0.7326105849 0.6761476556
8600248400.0 0.7409301216 0.6669524369
8650248100.0 0.7486667235 0.6573838013
8700247800.0 0.7580640024 0.646336597
8750247500.0 0.7661454846 0.6361803486
8800247200.0 0.774383172 0.6260001292
8850246900.0 0.7828311103 0.6144442337
8900246600.0 0.7913758504 0.6030644422
8950246300.0 0.8003273721 0.5905275047
9000246000.0 0.8090322654 0.5786364512
9050245700.0 0.8175357962 0.5664628757
9100245400.0 0.8258768205 0.5543826033
9150245100.0 0.8343254906 0.5413902926
9200244800.0 0.8441196079 0.5270200119
9250244500.0 0.8530320173 0.5124623233
9300244200.0 0.8606864775 0.4988804028
9350243900.0 0.8685641686 0.4857417029
9400243600.0 0.8750955222 0.4740635144
9450243300.0 0.8807477764 0.4637387467
9500243000.0 0.8869929198 0.4523580293
9550242700.0 0.8910714779 0.4446311903
9600242400.0 0.8952306331 0.4371892095
9650242100.0 0.8995283274 0.4300488836
9700241800.0 0.9045902506 0.4215610337
9750241500.0 0.9087155944 0.4139196956
9800241200.0 0.9138595109 0.4042261448
9850240900.0 0.9197938312 0.3924895151
9900240600.0 0.9260013451 0.3804081409
9950240300.0 0.9329554107 0.3639546206
10000240000.0 0.9381126846 0.3513311892
10050239700.0 0.9439198998 0.3354485386
10100239400.0 0.9495382441 0.3190867891
10150239100.0 0.9541073232 0.3031619163
10200238800.0 0.9583062975 0.2879582511
10250238500.0 0.9616162168 0.274445431
10300238200.0 0.9646634488 0.26036284
10350237900.0 0.9675634526 0.246830511
10400237600.0 0.9700767067 0.2334979221
10450237300.0 0.9728128161 0.2199814341
10500237000.0 0.9747966066 0.2075514198
10550236700.0 0.9775578248 0.1925176254
10600236400.0 0.9798504221 0.1790321062
10650236100.0 0.9814525396 0.164764217
10700235800.0 0.9839564688 0.1523722729
10750235500.0 0.986013796 0.1386241477
10800235200.0 0.9878994879 0.1244595624
10850234900.0 0.9900733213 0.1096024247
10900234600.0 0.9921491553 0.0946724356
10950234300.0 0.9935970891 0.0811218652
11000234000.0 0.995605505 0.0654095069
11050233700.0 0.9974236586 0.0486069991
11100233400.0 0.998893799 0.0310575641
11150233100.0 0.9998578287 0.0138933146
11200232800.0 1.00073704 -0.0019069782
11250232500.0 1.001742906 -0.0197355835
11300232200.0 1.00203492 -0.0383111829
11350231900.0 1.001962373 -0.0537275247
11400231600.0 1.001395432 -0.0703525512
11450231300.0 1.001142037 -0.0851596187
11500231000.0 1.00002506 -0.1027009741
11550230700.0 0.9981869427 -0.1147380386
11600230400.0 0.9973048078 -0.1275768952
11650230100.0 0.9947213023 -0.1403016796
11700229800.0 0.9924615684 -0.155151028
11750229500.0 0.9900842304 -0.1689326251
11800229200.0 0.9873213589 -0.1822199688
11850228900.0 0.9835737581 -0.1940142374
11900228600.0 0.979753082 -0.2035766703
11950228300.0 0.9762469363 -0.2138367458
12000228000.0 0.9735334516 -0.2221089973
12050227700.0 0.9694792768 -0.235270135
12100227400.0 0.9664871206 -0.2461346183
12150227100.0 0.9615506086 -0.2629490445
12200226800.0 0.957331392 -0.274201004
12250226500.0 0.95386913 -0.2866243151
12300226200.0 0.949748921 -0.2987773212
12350225900.0 0.9448634831 -0.3126220087
12400225600.0 0.9399184979 -0.3251297119
12450225300.0 0.9359314356 -0.3370559103
12500225000.0 0.9300134684 -0.3523219329
12550224700.0 0.9246030451 -0.3657530429
12600224400.0 0.9197207255 -0.3785329461
12650224100.0 0.9138721307 -0.3929925161
12700223800.0 0.9086075819 -0.4057051043
12750223500.0 0.9031245821 -0.418747142
12800223200.0 0.8977362075 -0.4315194916
12850222900.0 0.8926059508 -0.4433476475
12900222600.0 0.8870397418 -0.4555736285
12950222300.0 0.8809555538 -0.4682092513
13000222000.0 0.8749392538 -0.4802010717
13050221700.0 0.8681907625 -0.4929190803
13100221400.0 0.8611401529 -0.5042423548
13150221100.0 0.8544323758 -0.5171508201
13200220800.0 0.8474581757 -0.5282556471
13250220500.0 0.8399083086 -0.5411309556
13300220200.0 0.8327566777 -0.5517116747
13350219900.0 0.8245296 -0.5635611927
13400219600.0 0.8160900809 -0.5754198404
13450219300.0 0.806951079 -0.5883563817
13500219000.0 0.7968531134 -0.601664138
13550218700.0 0.7873972507 -0.6141124389
13600218400.0 0.7767993672 -0.625269696
13650218100.0 0.768509623 -0.6363794101
13700217800.0 0.7567892628 -0.6486381623
13750217500.0 0.7482330124 -0.6593689522
13800217200.0 0.7362563846 -0.6705831313
13850216900.0 0.7256244376 -0.6812863684
13900216600.0 0.7161973881 -0.6903574428
13950216300.0 0.7052487111 -0.7003144216
14000216000.0 0.6955103881 -0.7090426724
14050215700.0 0.6864968334 -0.7171674035
14100215400.0 0.6765316908 -0.7262013424
14150215100.0 0.6678684855 -0.7349525386
14200214800.0 0.6578767042 -0.7439191555
14250214500.0 0.6476709168 -0.7533152316
14300214200.0 0.6371124246 -0.7628432744
14350213900.0 0.626213139 -0.7725159858
14400213600.0 0.6141546611 -0.7823782627
14450213300.0 0.6007214422 -0.7924945426
14500213000.0 0.5880772972 -0.8021275769
14550212700.0 0.5755788647 -0.8123123368
14600212400.0 0.5632785517 -0.8200528013
14650212100.0 0.550838999 -0.829033049
14700211800.0 0.5368502662 -0.8387010069
14750211500.0 0.524841254 -0.8471765589
14800211200.0 0.5121877117 -0.8555802942
14850210900.0 0.4999252491 -0.863108785
14900210600.0 0.4866077067 -0.8709354248
14950210300.0 0.4733837746 -0.878570817
15000210000.0 0.4607164099 -0.8855236064
15050209700.0 0.4486581599 -0.8914633392
15100209400.0 0.4355934475 -0.8973256481
15150209100.0 0.4239526951 -0.902611321
15200208800.0 0.4110225636 -0.9083593484
15250208500.0 0.4003184655 -0.9128059502
15300208200.0 0.387005686 -0.916916098
15350207900.0 0.3740034164 -0.9220915494
15400207600.0 0.3592740716 -0.9270683687
15450207300.0 0.3449104629 -0.9322284961
15500207000.0 0.3309425837 -0.9370584904
15550206700.0 0.3156111946 -0.9423076008
15600206400.0 0.2997963924 -0.9467864689
15650206100.0 0.283961317 -0.9510642486
15700205800.0 0.2704198091 -0.9539958817
15750205500.0 0.2563652464 -0.9576984481
15800205200.0 0.2424110804 -0.9610485832
15850204900.0 0.2282818084 -0.9645655765
15900204600.0 0.2132389973 -0.9681823999
15950204300.0 0.1988240601 -0.9712807255
16000204000.0 0.1845464357 -0.9745224745
16050203700.0 0.1693333731 -0.9772955015
16100203400.0 0.1546901685 -0.979665342
16150203100.0 0.1394493445 -0.9818912538
16200202800.0 0.1250942575 -0.9839554015
16250202500.0 0.1106089462 -0.9856288032
16300202200.0 0.0951700458 -0.9877176166
16350201900.0 0.0798508204 -0.9889157756
16400201600.0 0.0653129859 -0.9902608716
16450201300.0 0.0497713486 -0.9912765393
16500201000.0 0.0327481175 -0.9920150209
16550200700.0 0.0164881193 -0.9924493922
16600200400.0 0.0005407541 -0.9927102259
16650200100.0 -0.0154845506 -0.9928067168
16700199800.0 -0.0322919481 -0.9922492114
16750199500.0 -0.0511995257 -0.9915030147
16800199200.0 -0.0668461106 -0.9904890833
16850198900.0 -0.0823285547 -0.9893726782
16900198600.0 -0.0969013443 -0.988336241
16950198300.0 -0.1108516765 -0.9874511779
17000198000.0 -0.1234830767 -0.9859178678
17050197700.0 -0.1362003919 -0.9841156764
17100197400.0 -0.1493140113 -0.981713219
17150197100.0 -0.1613661649 -0.9801868837
17200196800.0 -0.1747405398 -0.9779847009
17250196500.0 -0.1878625035 -0.9751871033
17300196200.0 -0.1999280965 -0.9728524537
17350195900.0 -0.2116044093 -0.970595412
17400195600.0 -0.2236201738 -0.9680264032
17450195300.0 -0.2362348685 -0.9652748818
17500195000.0 -0.2496220933 -0.9619820248
17550194700.0 -0.2633526818 -0.958290421
17600194400.0 -0.2770336745 -0.9545134691
17650194100.0 -0.2909382153 -0.9504667954
17700193800.0 -0.3039002511 -0.9461469901
17750193500.0 -0.3178836839 -0.9419311497
17800193200.0 -0.3323065344 -0.9365146653
17850192900.0 -0.3464669848 -0.9311993012
17900192600.0 -0.3618163154 -0.9248482119
17950192300.0 -0.377336665 -0.9174959429
18000192000.0 -0.3924082025 -0.9103667057
18050191700.0 -0.4063250772 -0.9027245918
18100191400.0 -0.4202062997 -0.8950110736
18150191100.0 -0.434948095 -0.8869619641
18200190800.0 -0.4517914557 -0.8778282015
18250190500.0 -0.4687251986 -0.8682291878
18300190200.0 -0.4841573325 -0.8594510296
18350189900.0 -0.499847206 -0.8512046902
18400189600.0 -0.5138772913 -0.8424838341
18450189300.0 -0.5274694516 -0.8342492091
18500189000.0 -0.5409508913 -0.8264738828
18550188700.0 -0.5538276589 -0.8192486435
18600188400.0 -0.5654050677 -0.8124017908
18650188100.0 -0.5771818968 -0.8055058211
18700187800.0 -0.5879099463 -0.7986193543
18750187500.0 -0.5988125366 -0.7920706046
18800187200.0 -0.6095174631 -0.7850105022
18850186900.0 -0.6198172682 -0.7781113165
18900186600.0 -0.6299170045 -0.7708780813
18950186300.0 -0.6402838948 -0.7629369231
19000186000.0 -0.6477291799 -0.7564041715
19050185700.0 -0.6572898999 -0.7494977447
19100185400.0 -0.6671894737 -0.7414916947
19150185100.0 -0.677220711 -0.7328195459
19200184800.0 -0.6868078419 -0.7245661006
19250184500.0 -0.6965854331 -0.7161298423
19300184200.0 -0.7084383824 -0.7059837606
19350183900.0 -0.7187227995 -0.6959301631
19400183600.0 -0.7292145624 -0.6866568244
19450183300.0 -0.7378161652 -0.6766597408
19500183000.0 -0.7458428766 -0.6665216078
19550182700.0 -0.7558938992 -0.6552643272
19600182400.0 -0.76609432 -0.6434554215
19650182100.0 -0.7767103181 -0.6312183047
19700181800.0 -0.7870500733 -0.6180520218
19750181500.0 -0.7973691072 -0.6039773944
19800181200.0 -0.8075188369 -0.5892718246
19850180900.0 -0.8169470283 -0.57379951
19900180600.0 -0.8244805203 -0.559313598
19950180300.0 -0.8336351484 -0.5433986302
20000180000.0 -0.8236294868 -0.5470085722
20050179700.0 -0.8310733548 -0.5341398995
20100179400.0 -0.8397054559 -0.5211221643
20150179100.0 -0.8469894248 -0.5093297484
20200178800.0 -0.8558824151 -0.4977926514
20250178500.0 -0.8653398081 -0.4856348635
20300178200.0 -0.8750355144 -0.4723861267
20350177900.0 -0.8845755008 -0.4580644458
20400177600.0 -0.8936058755 -0.4440860179
20450177300.0 -0.9019691612 -0.4294300523
20500177000.0 -0.9098328114 -0.4157974897
20550176700.0 -0.9178485547 -0.4019663214
20600176400.0 -0.924571881 -0.3890041322
20650176100.0 -0.9316299949 -0.3773382657
20700175800.0 -0.9379097455 -0.3652007076
20750175500.0 -0.9442942649 -0.3533294838
20800175200.0 -0.948718929 -0.3425500164
20850174900.0 -0.9530476841 -0.3319041366
20900174600.0 -0.9573842826 -0.321885001
20950174300.0 -0.9613236175 -0.3092963923
21000174000.0 -0.9635699307 -0.2995196455
21050173700.0 -0.96491614 -0.2900568497
21100173400.0 -0.9681863702 -0.2793158428
21150173100.0 -0.9725287911 -0.2672345819
21200172800.0 -0.9768998288 -0.2544040897
21250172500.0 -0.9805754739 -0.2405271853
21300172200.0 -0.9839623938 -0.2264100419
21350171900.0 -0.986086091 -0.2119735099
21400171600.0 -0.9876923959 -0.1978348942
21450171300.0 -0.9889109947 -0.1839754437
21500171000.0 -0.988983774 -0.1685945095
21550170700.0 -0.9899817988 -0.1542820445
21600170400.0 -0.9910310359 -0.1385705504
21650170100.0 -0.9905428841 -0.1225255684
21700169800.0 -0.9910317262 -0.1078779419
21750169500.0 -0.9898961954 -0.0908554691
21800169200.0 -0.9908760922 -0.0744537255
21850168900.0 -0.9897203666 -0.0581373276
21900168600.0 -0.9904625665 -0.0414598042
21950168300.0 -0.9897752184 -0.0265911046
22000168000.0 -0.9894076397 -0.0114076198
22050167700.0 -0.990206398 0.0033673097
22100167400.0 -0.9907337327 0.0190203774
22150167100.0 -0.9913666673 0.0353256439
22200166800.0 -0.9924253795 0.0520519935
22250166500.0 -0.9910175844 0.0688384318
22300166200.0 -0.9907724745 0.0864597754
22350165900.0 -0.9901854608 0.1010558638
22400165600.0 -0.9883377658 0.1168500154
22450165300.0 -0.9860570838 0.132745801
22500165000.0 -0.9852079628 0.1471635886
22550164700.0 -0.9842198107 0.1631162046
22600164400.0 -0.9812569706 0.1796458139
22650164100.0 -0.9777614346 0.1956636202
22700163800.0 -0.9754855123 0.2106217113
22750163500.0 -0.9726062439 0.2258120129
22800163200.0 -0.9693516942 0.2385815433
22850162900.0 -0.9667013548 0.2526197496
22900162600.0 -0.9648955957 0.2665214427
22950162300.0 -0.9632002757 0.2801751898
23000162000.0 -0.9616505436 0.2930553009
23050161700.0 -0.9584663219 0.3064632158
23100161400.0 -0.9555764473 0.3198570766
23150161100.0 -0.9527542955 0.332683576
23200160800.0 -0.9495714117 0.3459625454
23250160500.0 -0.9474269236 0.3571474951
23300160200.0 -0.9442246987 0.3708210062
23350159900.0 -0.9400613202 0.384668382
23400159600.0 -0.935933598 0.39864954
23450159300.0 -0.9304718169 0.4119945946
23500159000.0 -0.9250085471 0.4256890454
23550158700.0 -0.9205477003 0.4400697804
23600158400.0 -0.9141898612 0.4540159284
23650158100.0 -0.9067838346 0.4688307925
23700157800.0 -0.8980949724 0.4832468435
23750157500.0 -0.8882824777 0.4973439406
23800157200.0 -0.8787259992 0.5109376446
23850156900.0 -0.8697200725 0.523869144
23900156600.0 -0.85885634 0.5353338515
23950156300.0 -0.8491926321 0.5487839459
24000156000.0 -0.8400540746 0.5611839096
24050155700.0 -0.8293625755 0.5733030776
24100155400.0 -0.819096312 0.5862198659
24150155100.0 -0.8079630708 0.5989608075
24200154800.0 -0.7969012521 0.6092945069
24250154500.0 -0.7850123079 0.6227008013
24300154200.0 -0.7738425679 0.6346376793
24350153900.0 -0.7615948227 0.6456019238
24400153600.0 -0.7494208895 0.656098744
24450153300.0 -0.7369882925 0.6667446984
24500153000.0 -0.7254192937 0.6768490047
24550152700.0 -0.7143801462 0.6870205754
24600152400.0 -0.7017192177 0.6960501325
24650152100.0 -0.6898752347 0.7043585096
