!Created with skrf (http://scikit-rf.org).
# Hz S RI R 50.0 
!freq ReS11 ImS11
300000.0 -0.9778224717 -0.1126755929
50299700.0 -1.000139982 0.0158023499
100299400.0 -0.9980598535 0.0287817009
150299100.0 -1.002944434 0.0455874515
200298800.0 -0.9995532043 0.0588037302
250298500.0 -0.9974888911 0.0723722605
300298200.0 -0.9860860131 0.0882538791
350297900.0 -0.9941568224 0.099252384
400297600.0 -0.9932223956 0.1158402498
450297300.0 -0.9910716484 0.1295423277
500297000.0 -0.9895236835 0.1443044291
550296700.0 -0.9844681568 0.1566484017
600296400.0 -1.017236141 0.1901304812
650296100.0 -0.9821095337 0.1868188473
700295800.0 -0.9793709469 0.2008183604
750295500.0 -0.9763140822 0.21504017
800295200.0 -0.9728035296 0.2291150712
850294900.0 -0.9697095183 0.2429159689
900294600.0 -0.9658690945 0.2567422421
950294300.0 -0.961979374 0.2704511065
1000294000.0 -0.9580794022 0.2843998007
1050293700.0 -0.9535387257 0.298143485
1100293400.0 -0.9492089088 0.3127199454
1150293100.0 -0.9455327904 0.3245327506
1200292800.0 -0.940117777 0.3388465623
1250292500.0 -0.9346451404 0.3522939797
1300292200.0 -0.9286759536 0.365474028
1350291900.0 -0.9232432596 0.3795909414
1400291600.0 -0.9176472565 0.3925132598
1450291300.0 -0.9122958319 0.4049087802
1500291000.0 -0.9060223606 0.4183422024
1550290700.0 -0.8993842653 0.4316043744
1600290400.0 -0.8933530814 0.4443699176
1650290100.0 -0.8865937503 0.4565262454
1700289800.0 -0.8796096393 0.4700100591
1750289500.0 -0.8726041566 0.4824945441
1800289200.0 -0.8653426163 0.4950028668
1850288900.0 -0.8584491298 0.5065676933
1900288600.0 -0.850705694 0.5196819028
1950288300.0 -0.8426077918 0.5321474718
2000288000.0 -0.8351722365 0.5437306333
2050287700.0 -0.8269785105 0.5559611334
2100287400.0 -0.8187935967 0.5674565643
2150287100.0 -0.8102404428 0.5798527395
2200286800.0 -0.8024784318 0.5897490863
2250286500.0 -0.793702915 0.6019397081
2300286200.0 -0.784980415 0.6136426927
2350285900.0 -0.7760453291 0.6245690179
2400285600.0 -0.7669288456 0.6357539099
2450285300.0 -0.7584060016 0.6459479023
2500285000.0 -0.7488012843 0.6572264425
2550284700.0 -0.7399488605 0.6675913262
2600284400.0 -0.7302164957 0.6778719034
2650284100.0 -0.7214584964 0.6882510851
2700283800.0 -0.7110718808 0.6988980653
2750283500.0 -0.7005538308 0.7096166816
2800283200.0 -0.6904677836 0.719044723
2850282900.0 -0.6805473896 0.729054586
2900282600.0 -0.67016952 0.738702052
2950282300.0 -0.6601026104 0.7478642052
3000282000.0 -0.6490916679 0.7572150353
3050281700.0 -0.6379415444 0.7665765012
3100281400.0 -0.6260553534 0.7760597868
3150281100.0 -0.614301357 0.7852728353
3200280800.0 -0.6028174852 0.7936872971
3250280500.0 -0.5919740626 0.8014170556
3300280200.0 -0.5806058363 0.8093766216
3350279900.0 -0.5691521826 0.8169545321
3400279600.0 -0.5569652153 0.8244137564
3450279300.0 -0.5460383736 0.8315633866
3500279000.0 -0.5338627883 0.838621982
3550278700.0 -0.5214913386 0.8460190727
3600278400.0 -0.50897698 0.853081427
3650278100.0 -0.4960176347 0.8608295939
3700277800.0 -0.483803068 0.8672679681
3750277500.0 -0.4717433883 0.8736994463
3800277200.0 -0.4591638298 0.8804561371
3850276900.0 -0.4469818338 0.8861857958
3900276600.0 -0.436130561 0.8918986821
3950276300.0 -0.4234762759 0.8978649981
4000276000.0 -0.4116390499 0.9036399789
4050275700.0 -0.3986444612 0.909869555
4100275400.0 -0.3876470935 0.9154148267
4150275100.0 -0.3747275322 0.9208135761
4200274800.0 -0.3617882045 0.926336859
4250274500.0 -0.3496561736 0.9316364845
4300274200.0 -0.3366827542 0.9370587052
4350273900.0 -0.3227953788 0.9423235749
4400273600.0 -0.3078710961 0.9474655072
4450273300.0 -0.2923932851 0.9526403818
4500273000.0 -0.2789310417 0.9568666921
4550272700.0 -0.264684729 0.9612442858
4600272400.0 -0.2492851311 0.9653319119
4650272100.0 -0.2374741248 0.9686968976
4700271800.0 -0.2241288966 0.9718283862
4750271500.0 -0.2124875448 0.9748413831
4800271200.0 -0.2000158613 0.9774097307
4850270900.0 -0.1860915099 0.9801821611
4900270600.0 -0.1722220805 0.9826313512
4950270300.0 -0.1580240058 0.9852608517
5000270000.0 -0.143787786 0.9874787015
5050269700.0 -0.1302919908 0.9887643131
5100269400.0 -0.1167763862 0.9902873828
5150269100.0 -0.1034018667 0.9922466229
5200268800.0 -0.0903210358 0.9930000658
5250268500.0 -0.0774045867 0.9937813677
5300268200.0 -0.0640989919 0.9944798152
5350267900.0 -0.0517269532 0.9950984279
5400267600.0 -0.0354904834 0.9964718739
5450267300.0 -0.0224825865 0.9969312668
5500267000.0 -0.0073790376 0.997064945
5550266700.0 0.0078158514 0.9972799665
5600266400.0 0.023298531 0.9973892227
5650266100.0 0.0399208748 0.9969908608
5700265800.0 0.0544492669 0.9962442586
5750265500.0 0.0698403991 0.9956874122
5800265200.0 0.0835105181 0.9943658343
5850264900.0 0.0968552827 0.9933392632
5900264600.0 0.1130195309 0.9914008752
5950264300.0 0.125683887 0.9902856545
6000264000.0 0.1394971167 0.9881179595
6050263700.0 0.1520813605 0.9865809003
6100263400.0 0.1643380425 0.9847183385
6150263100.0 0.1789132869 0.9824803449
6200262800.0 0.1896021485 0.9808795864
6250262500.0 0.2020601406 0.9780325677
6300262200.0 0.2148989607 0.9755342132
6350261900.0 0.2278723808 0.9724982058
6400261600.0 0.2418319882 0.9691486094
6450261300.0 0.2532240561 0.9664291029
6500261000.0 0.2657805239 0.9628420163
6550260700.0 0.2789629151 0.9590454188
6600260400.0 0.2920846457 0.9547899732
6650260100.0 0.3061496755 0.9504558833
6700259800.0 0.3180097991 0.9462841761
6750259500.0 0.3318506982 0.9412051499
6800259200.0 0.3450492092 0.936412429
6850258900.0 0.3570115597 0.9311790658
6900258600.0 0.3692532104 0.9261224637
6950258300.0 0.3816271404 0.9209339122
7000258000.0 0.393644927 0.9154470837
7050257700.0 0.4059599331 0.9093959127
7100257400.0 0.4185104896 0.9031749742
7150257100.0 0.42897284 0.8979151139
7200256800.0 0.4417296087 0.8916037868
7250256500.0 0.4535758209 0.8852782714
7300256200.0 0.4666086996 0.8785627778
7350255900.0 0.4791710467 0.8714593371
7400255600.0 0.4922102251 0.8641009349
7450255300.0 0.5076013159 0.855265579
7500255000.0 0.5194312684 0.8482438685
7550254700.0 0.5333234923 0.8396808762
7600254400.0 0.5457945068 0.8312488315
7650254100.0 0.5574120936 0.8234823962
7700253800.0 0.5691885389 0.8153204924
7750253500.0 0.5801595573 0.8075763999
7800253200.0 0.5911431649 0.7999998446
7850252900.0 0.6008819937 0.7932033929
7900252600.0 0.6124091451 0.7842426935
7950252300.0 0.6212656463 0.7775232472
8000252000.0 0.6314952464 0.7699654184
8050251700.0 0.6419330019 0.7616745599
8100251400.0 0.6518928036 0.7534804766
8150251100.0 0.6621679853 0.7449437156
8200250800.0 0.67148548 0.7367388414
8250250500.0 0.680237089 0.7290493998
8300250200.0 0.6896865615 0.7203146646
8350249900.0 0.699172897 0.7116317904
8400249600.0 0.7072524391 0.7036586173
8450249300.0 0.7161086859 0.694276501
8500249000.0 0.7248418325 0.6854354507
8550248700.0 0.7329823722 0.6764205786
8600248400.0 0.7414162306 0.6669471696
8650248100.0 0.7491554102 0.6577232925
8700247800.0 0.7587136704 0.6464164044
8750247500.0 0.767004917 0.6362749415
8800247200.0 0.775181346 0.6259737063
8850246900.0 0.7838556414 0.6142986547
8900246600.0 0.7923126387 0.6033617572
8950246300.0 0.8020842996 0.5902463511
9000246000.0 0.8116674336 0.5770411287
9050245700.0 0.8206415865 0.5641351846
9100245400.0 0.8290990338 0.5516749358
9150245100.0 0.8384039524 0.5381596423
9200244800.0 0.8485798542 0.5227595652
9250244500.0 0.8579757938 0.5069316718
9300244200.0 0.8660727269 0.4923647087
9350243900.0 0.8740150801 0.4783656617
9400243600.0 0.8806704994 0.4659149771
9450243300.0 0.8863866519 0.45433958
9500243000.0 0.8926284576 0.4421943259
9550242700.0 0.8962850023 0.4345343435
9600242400.0 0.900124792 0.4271976819
9650242100.0 0.9038280593 0.420591547
9700241800.0 0.908436035 0.4121759282
9750241500.0 0.9122084315 0.4049860874
9800241200.0 0.9168119373 0.3960358653
9850240900.0 0.9224316363 0.3841512711
9900240600.0 0.9281874301 0.3725496473
9950240300.0 0.9346935306 0.3564277275
10000240000.0 0.9393357855 0.3447642026
10050239700.0 0.9450146224 0.329742732
10100239400.0 0.9499822872 0.3142436007
10150239100.0 0.9541157912 0.2995880529
10200238800.0 0.9584844032 0.2845831382
10250238500.0 0.961799855 0.2711303427
10300238200.0 0.964875081 0.2571616898
10350237900.0 0.9674991017 0.2443200497
10400237600.0 0.9700115435 0.2310834671
10450237300.0 0.9727662006 0.2174432907
10500237000.0 0.9749784644 0.2051508135
10550236700.0 0.9770202899 0.1913136363
10600236400.0 0.9794524091 0.1778516618
10650236100.0 0.9812881014 0.1629573211
10700235800.0 0.9834189485 0.1510360702
10750235500.0 0.9857324347 0.1375911268
10800235200.0 0.9877245659 0.1240799705
10850234900.0 0.9895087502 0.1092171039
10900234600.0 0.9918607238 0.0944955024
10950234300.0 0.9934509594 0.0810280558
11000234000.0 0.9952076317 0.065984499
11050233700.0 0.9970702163 0.0495879278
11100233400.0 0.9984969063 0.03220195
11150233100.0 0.9994316865 0.0159379177
11200232800.0 1.000337516 0.0007630047
11250232500.0 1.001415718 -0.0152966854
11300232200.0 1.001967716 -0.0336621999
11350231900.0 1.002220317 -0.0490003784
11400231600.0 1.001577179 -0.065341829
11450231300.0 1.001009171 -0.0801852005
11500231000.0 0.999574532 -0.0969819982
11550230700.0 0.9985792026 -0.110724192
11600230400.0 0.996805175 -0.1233202014
11650230100.0 0.9948382091 -0.134696744
11700229800.0 0.992911644 -0.1495481898
11750229500.0 0.9904270725 -0.1636136283
11800229200.0 0.98782987 -0.177874261
11850228900.0 0.9841800528 -0.1900251229
11900228600.0 0.9807068556 -0.1996954738
11950228300.0 0.9775355534 -0.2100442191
12000228000.0 0.9746934512 -0.2196289972
12050227700.0 0.9713359484 -0.2317774544
12100227400.0 0.9673356714 -0.2428547714
12150227100.0 0.9631193281 -0.2591307377
12200226800.0 0.9593299759 -0.2695633814
12250226500.0 0.9551907279 -0.2834622946
12300226200.0 0.9512744233 -0.2949843181
12350225900.0 0.9458357024 -0.3097165505
12400225600.0 0.9419307387 -0.3217909226
12450225300.0 0.9375527562 -0.3346857381
12500225000.0 0.9320092564 -0.3494791942
12550224700.0 0.9264991861 -0.3630074654
12600224400.0 0.9217840482 -0.375761516
12650224100.0 0.9160096458 -0.3901954284
12700223800.0 0.9106081028 -0.4030156527
12750223500.0 0.9051619553 -0.4159295568
12800223200.0 0.8999492751 -0.4281301159
12850222900.0 0.8945343031 -0.4401863228
12900222600.0 0.8889677932 -0.4523726536
12950222300.0 0.8826709007 -0.4656933985
13000222000.0 0.8763194167 -0.4770747605
13050221700.0 0.8695204601 -0.4901900472
13100221400.0 0.8627827055 -0.5017809462
13150221100.0 0.8559482879 -0.5140410555
13200220800.0 0.8493727073 -0.525284161
13250220500.0 0.8419885131 -0.5379572039
13300220200.0 0.8344075602 -0.5485379673
13350219900.0 0.8264322608 -0.5607570052
13400219600.0 0.8180576817 -0.5728170992
13450219300.0 0.8084396837 -0.5864134351
13500219000.0 0.7980676631 -0.600708258
13550218700.0 0.7879316455 -0.6130717563
13600218400.0 0.7782248799 -0.6255006338
13650218100.0 0.7681192114 -0.6365501993
13700217800.0 0.7566658715 -0.6489451539
13750217500.0 0.7473667456 -0.6612220544
13800217200.0 0.7348942716 -0.672743552
13850216900.0 0.7251347907 -0.683828742
13900216600.0 0.714245915 -0.69219848
13950216300.0 0.7038581762 -0.7030123534
14000216000.0 0.6942840073 -0.7122734302
14050215700.0 0.6844882123 -0.7200258592
14100215400.0 0.6748727789 -0.7291304459
14150215100.0 0.6652489642 -0.7376525308
14200214800.0 0.6560883118 -0.7460278233
14250214500.0 0.6458709611 -0.7554114406
14300214200.0 0.6354602003 -0.7645720253
14350213900.0 0.6243753329 -0.7741929599
14400213600.0 0.6126916835 -0.7840609498
14450213300.0 0.5994611121 -0.7940167633
14500213000.0 0.5866144246 -0.8041473213
14550212700.0 0.5739354733 -0.813147967
14600212400.0 0.5611386998 -0.8219453642
14650212100.0 0.5485938926 -0.8309631964
14700211800.0 0.5342809259 -0.8403174442
14750211500.0 0.5222187244 -0.8485645589
14800211200.0 0.5103021599 -0.8565565418
14850210900.0 0.4979300633 -0.8641798159
14900210600.0 0.4847284971 -0.8719579934
14950210300.0 0.4712213453 -0.8797016383
15000210000.0 0.4586107569 -0.8864210561
15050209700.0 0.4461126774 -0.8926435618
15100209400.0 0.4334907727 -0.8987896448
15150209100.0 0.4203817399 -0.903363467
15200208800.0 0.4079535095 -0.9090006591
15250208500.0 0.3968901885 -0.9141082032
15300208200.0 0.3841778088 -0.9185543137
15350207900.0 0.3707449923 -0.9230378787
15400207600.0 0.355623617 -0.9283528767
15450207300.0 0.3413349079 -0.9343186808
15500207000.0 0.32712354 -0.9386618759
15550206700.0 0.3126914654 -0.9429972619
15600206400.0 0.2964180411 -0.9482743358
15650206100.0 0.2807107564 -0.9521444817
15700205800.0 0.2666899564 -0.9559048089
15750205500.0 0.2522801818 -0.9589731697
15800205200.0 0.2376067379 -0.9626224009
15850204900.0 0.2233223155 -0.9658976599
15900204600.0 0.2081447215 -0.9696744381
15950204300.0 0.1942320561 -0.9724031097
16000204000.0 0.1801308716 -0.975348107
16050203700.0 0.165356934 -0.9780974254
16100203400.0 0.1508636659 -0.9802767182
16150203100.0 0.136805933 -0.9827495228
16200202800.0 0.1227110419 -0.9844200166
16250202500.0 0.1080334866 -0.9862117868
16300202200.0 0.092535105 -0.9878681813
16350201900.0 0.0774689204 -0.9890905393
16400201600.0 0.062783439 -0.990087976
16450201300.0 0.0477850295 -0.9911259884
16500201000.0 0.0312112557 -0.9921536268
16550200700.0 0.0155011993 -0.9926012477
16600200400.0 -0.0003125881 -0.9926676817
16650200100.0 -0.0166655102 -0.9924506894
16700199800.0 -0.0332948448 -0.9921019212
16750199500.0 -0.0516529882 -0.9913220248
16800199200.0 -0.0676079574 -0.9907483316
16850198900.0 -0.0828561498 -0.9895515793
16900198600.0 -0.096395647 -0.9887547647
16950198300.0 -0.1105729309 -0.9878887141
17000198000.0 -0.1231675162 -0.9859955202
17050197700.0 -0.1354161856 -0.9835234776
17100197400.0 -0.1484111462 -0.9813892596
17150197100.0 -0.1612515587 -0.9803655849
17200196800.0 -0.173941786 -0.977646718
17250196500.0 -0.1868589299 -0.9755562045
17300196200.0 -0.1988504492 -0.9730547057
17350195900.0 -0.2106227743 -0.9708212907
17400195600.0 -0.2227653599 -0.9683902911
17450195300.0 -0.2360608413 -0.965410665
17500195000.0 -0.249205033 -0.9621537681
17550194700.0 -0.2635185844 -0.9586902862
17600194400.0 -0.2772091499 -0.9543671756
17650194100.0 -0.2913042452 -0.9501131163
17700193800.0 -0.3042304022 -0.9459365661
17750193500.0 -0.3183789805 -0.9411548669
17800193200.0 -0.3328136301 -0.9365334004
17850192900.0 -0.3479208263 -0.931079864
17900192600.0 -0.3628562716 -0.9249653483
17950192300.0 -0.3784076862 -0.9174465158
18000192000.0 -0.3932682722 -0.9104696092
18050191700.0 -0.4071610125 -0.9024858375
18100191400.0 -0.4212557923 -0.8947451979
18150191100.0 -0.4362981276 -0.8867201561
18200190800.0 -0.4531645397 -0.8776472055
18250190500.0 -0.4700840741 -0.8680883814
18300190200.0 -0.4853525813 -0.8593146624
18350189900.0 -0.5005776231 -0.8507073364
18400189600.0 -0.5150453311 -0.8425521812
18450189300.0 -0.528187064 -0.8344852647
18500189000.0 -0.5413778663 -0.8265928164
18550188700.0 -0.5544687118 -0.8190878409
18600188400.0 -0.5657949922 -0.8122709113
18650188100.0 -0.5770978534 -0.8061907532
18700187800.0 -0.5875976834 -0.799235882
18750187500.0 -0.5981623419 -0.7925416805
18800187200.0 -0.6088438314 -0.7856020901
18850186900.0 -0.6189682885 -0.7785542108
18900186600.0 -0.6292985753 -0.7711154583
18950186300.0 -0.6393186035 -0.7633817391
19000186000.0 -0.6465657163 -0.7572856975
19050185700.0 -0.6556325021 -0.7503604658
19100185400.0 -0.6655185192 -0.7414650954
19150185100.0 -0.6757668743 -0.7330222127
19200184800.0 -0.6851491486 -0.7254665157
19250184500.0 -0.6957308276 -0.7151317524
19300184200.0 -0.7070843776 -0.7058264265
19350183900.0 -0.7185898035 -0.6969654488
19400183600.0 -0.7278393066 -0.6859831378
19450183300.0 -0.7365778384 -0.6759050336
19500183000.0 -0.744680761 -0.6660776655
19550182700.0 -0.7542651088 -0.6555698544
19600182400.0 -0.764655109 -0.6438951198
19650182100.0 -0.775816461 -0.6315387651
19700181800.0 -0.7861181405 -0.6182412672
19750181500.0 -0.7969144696 -0.6041937284
19800181200.0 -0.8072211294 -0.5891755996
19850180900.0 -0.816861941 -0.5737315474
19900180600.0 -0.8247000772 -0.559355471
19950180300.0 -0.8338084372 -0.5431133087
20000180000.0 -0.8266722775 -0.5456206641
20050179700.0 -0.8349226092 -0.5323754567
20100179400.0 -0.8441052687 -0.5183916227
20150179100.0 -0.851540305 -0.5063037022
20200178800.0 -0.8593841417 -0.4945248127
20250178500.0 -0.8702048739 -0.4800397174
20300178200.0 -0.8792074601 -0.4654461408
20350177900.0 -0.8883701484 -0.4506053837
20400177600.0 -0.8972183352 -0.436080019
20450177300.0 -0.9055478825 -0.4216483164
20500177000.0 -0.9135753107 -0.4077577502
20550176700.0 -0.9217496299 -0.3943638394
20600176400.0 -0.927781512 -0.3808673382
20650176100.0 -0.9350310754 -0.3684905064
20700175800.0 -0.9421953872 -0.3567601299
20750175500.0 -0.948155808 -0.3447204998
20800175200.0 -0.9538340831 -0.3338177103
20850174900.0 -0.9577273492 -0.3229670647
20900174600.0 -0.9624766652 -0.3116313214
20950174300.0 -0.9669368441 -0.2998801293
21000174000.0 -0.9712326348 -0.2873639324
21050173700.0 -0.9730671043 -0.2769543633
21100173400.0 -0.9774131875 -0.2654362364
21150173100.0 -0.9812940952 -0.2523987115
21200172800.0 -0.9845684114 -0.2388219463
21250172500.0 -0.9879515437 -0.2253548877
21300172200.0 -0.9907224701 -0.2110111406
21350171900.0 -0.9920648502 -0.1965222603
21400171600.0 -0.9935983445 -0.1821628339
21450171300.0 -0.9933712659 -0.1678929446
21500171000.0 -0.9932787089 -0.1526009711
21550170700.0 -0.9941570107 -0.1366670476
21600170400.0 -0.9933593579 -0.121245781
21650170100.0 -0.9921211661 -0.1053992643
21700169800.0 -0.9900611999 -0.0897067497
21750169500.0 -0.9879992831 -0.073923847
21800169200.0 -0.9882641497 -0.0577577642
21850168900.0 -0.9873820216 -0.0420855997
21900168600.0 -0.9861138102 -0.0255260833
21950168300.0 -0.983976141 -0.008996699
22000168000.0 -0.9832591669 0.0050312655
22050167700.0 -0.9828078953 0.0193691299
22100167400.0 -0.9827371347 0.0341896692
22150167100.0 -0.9833040794 0.0501576681
22200166800.0 -0.9830451623 0.0663710371
22250166500.0 -0.9831091785 0.0835086895
22300166200.0 -0.982350722 0.1006329137
22350165900.0 -0.9809091258 0.1163643242
22400165600.0 -0.9788418559 0.132665509
22450165300.0 -0.9773508704 0.1471896501
22500165000.0 -0.9755210222 0.1614598623
22550164700.0 -0.9744031922 0.1765084323
22600164400.0 -0.9729855543 0.1924557761
22650164100.0 -0.9701133651 0.2069708563
22700163800.0 -0.967985333 0.2227910394
22750163500.0 -0.9657015231 0.2380249686
22800163200.0 -0.9626426654 0.2508828924
22850162900.0 -0.9600423873 0.2643988947
22900162600.0 -0.9588019897 0.2781054609
22950162300.0 -0.9575594882 0.291007725
23000162000.0 -0.9566846144 0.3024371141
23050161700.0 -0.9546070446 0.3149820878
23100161400.0 -0.9525294255 0.3276596287
23150161100.0 -0.9493898665 0.3400828897
23200160800.0 -0.9472290187 0.3520220143
23250160500.0 -0.9443982245 0.3640083086
23300160200.0 -0.9418096358 0.3761768842
23350159900.0 -0.938022176 0.3885629124
23400159600.0 -0.9333518414 0.4019392916
23450159300.0 -0.9287699556 0.4155959706
23500159000.0 -0.924052415 0.4276992511
23550158700.0 -0.9196315405 0.4417009369
23600158400.0 -0.9141153393 0.4546818571
23650158100.0 -0.9075235639 0.4685784415
23700157800.0 -0.9000840928 0.4825725934
23750157500.0 -0.8912555 0.496795403
23800157200.0 -0.8828796006 0.509737996
23850156900.0 -0.8738665683 0.5226558032
23900156600.0 -0.8641733559 0.5346599313
23950156300.0 -0.8552181029 0.5473737214
24000156000.0 -0.8464205044 0.5589059736
24050155700.0 -0.8361589148 0.5706545369
24100155400.0 -0.8260716016 0.5829626069
24150155100.0 -0.8158878869 0.5950899746
24200154800.0 -0.8046072198 0.605836469
24250154500.0 -0.7928142308 0.6177421344
24300154200.0 -0.7815108565 0.6294742202
24350153900.0 -0.7697503105 0.6399018378
24400153600.0 -0.7576138682 0.650058341
24450153300.0 -0.7456268135 0.659846299
24500153000.0 -0.7343889866 0.6696339728
24550152700.0 -0.7229948485 0.6795391278
24600152400.0 -0.7109644463 0.6880682526
24650152100.0 -0.6994630979 0.6962891943
