!Created with skrf (http://scikit-rf.org).
# Hz S RI R 50.0 
!freq ReS11 ImS11
300000.0 -0.9796410051 -0.1054691681
50299700.0 -0.9999902983 0.0161941539
100299400.0 -0.9981356706 0.0289418315
150299100.0 -1.002891105 0.0457327348
200298800.0 -0.9997141883 0.0592827469
250298500.0 -0.9974835346 0.0727382565
300298200.0 -0.9860648267 0.088394836
350297900.0 -0.9939841244 0.099455358
400297600.0 -0.993214653 0.1161261666
450297300.0 -0.9910086282 0.1298165422
500297000.0 -0.9894163656 0.1446543089
550296700.0 -0.9842743368 0.1569521765
600296400.0 -1.017425522 0.1905872023
650296100.0 -0.9822267608 0.1871382355
700295800.0 -0.9793896061 0.2011733318
750295500.0 -0.9761543896 0.2155891854
800295200.0 -0.9728549653 0.2295022568
850294900.0 -0.9694754704 0.2433226836
900294600.0 -0.9657348618 0.2570924388
950294300.0 -0.9620596892 0.270804781
1000294000.0 -0.9580107628 0.2847687123
1050293700.0 -0.9532003173 0.2986539313
1100293400.0 -0.9490243633 0.3130254125
1150293100.0 -0.9452806056 0.3248656022
1200292800.0 -0.9399805931 0.3392346742
1250292500.0 -0.934430346 0.3525183578
1300292200.0 -0.928637634 0.3657490378
1350291900.0 -0.9231062628 0.3797914334
1400291600.0 -0.9176075154 0.3928624105
1450291300.0 -0.9122200077 0.4051831557
1500291000.0 -0.9057961556 0.4185345241
1550290700.0 -0.8993148851 0.4317041116
1600290400.0 -0.8930507306 0.4446408407
1650290100.0 -0.8864617755 0.456880301
1700289800.0 -0.8795562065 0.4703558752
1750289500.0 -0.87252449 0.482676625
1800289200.0 -0.865165061 0.4955573076
1850288900.0 -0.8582245964 0.5069269514
1900288600.0 -0.850606491 0.5200303646
1950288300.0 -0.8425901788 0.5323693406
2000288000.0 -0.8350593429 0.5437558906
2050287700.0 -0.8266562909 0.5561568645
2100287400.0 -0.8186631918 0.5677986467
2150287100.0 -0.8099966914 0.5801990758
2200286800.0 -0.8024382188 0.590351053
2250286500.0 -0.7937410264 0.6022034393
2300286200.0 -0.7845066149 0.6140568603
2350285900.0 -0.7757503018 0.6249320635
2400285600.0 -0.7667988191 0.6361677591
2450285300.0 -0.7581641817 0.6464330708
2500285000.0 -0.7484464908 0.6577926884
2550284700.0 -0.7394899858 0.6679443387
2600284400.0 -0.729876028 0.678076112
2650284100.0 -0.7208995235 0.6887023142
2700283800.0 -0.7104080074 0.699274609
2750283500.0 -0.7000035571 0.7096278263
2800283200.0 -0.6901783979 0.719480366
2850282900.0 -0.6800323781 0.7291927789
2900282600.0 -0.6697281612 0.7387471074
2950282300.0 -0.6596851914 0.7479881213
3000282000.0 -0.6489597852 0.7574164539
3050281700.0 -0.6378741806 0.7668267901
3100281400.0 -0.6258465934 0.7761029266
3150281100.0 -0.6139839708 0.7856533451
3200280800.0 -0.6024409481 0.7939439234
3250280500.0 -0.5915774188 0.8016717297
3300280200.0 -0.580472969 0.8096133347
3350279900.0 -0.5688644108 0.8169431177
3400279600.0 -0.5567881517 0.8245030362
3450279300.0 -0.5456952892 0.8317605684
3500279000.0 -0.5335847769 0.8388611553
3550278700.0 -0.5212510156 0.8463147979
3600278400.0 -0.50880993 0.8532053875
3650278100.0 -0.495571353 0.8610724703
3700277800.0 -0.4835293837 0.8676423789
3750277500.0 -0.4714770457 0.873990808
3800277200.0 -0.458607919 0.8803616243
3850276900.0 -0.4467512482 0.8864129859
3900276600.0 -0.435848536 0.8919164948
3950276300.0 -0.4233856796 0.8982054578
4000276000.0 -0.4111964809 0.9040367792
4050275700.0 -0.397994398 0.9101469985
4100275400.0 -0.3869637486 0.9154999949
4150275100.0 -0.3744786072 0.9210932506
4200274800.0 -0.361296599 0.9266202193
4250274500.0 -0.3490607635 0.9319523072
4300274200.0 -0.3361615908 0.9370236845
4350273900.0 -0.3220147105 0.9424778548
4400273600.0 -0.3072154841 0.9473721179
4450273300.0 -0.291961107 0.9527915658
4500273000.0 -0.2782990514 0.9570230973
4550272700.0 -0.264241833 0.9611144879
4600272400.0 -0.2487241232 0.9654578248
4650272100.0 -0.2369266314 0.9687101016
4700271800.0 -0.2235295551 0.9718949444
4750271500.0 -0.2119051156 0.974811464
4800271200.0 -0.1994821587 0.9775378515
4850270900.0 -0.1855901166 0.9803574036
4900270600.0 -0.1715744195 0.9828035284
4950270300.0 -0.1575178899 0.9853924963
5000270000.0 -0.1433039194 0.9870829566
5050269700.0 -0.1298019107 0.9887959819
5100269400.0 -0.116256503 0.9902433918
5150269100.0 -0.1030018833 0.9921257016
5200268800.0 -0.0896588015 0.9931646597
5250268500.0 -0.0768446472 0.9941097707
5300268200.0 -0.0636925606 0.9948404567
5350267900.0 -0.051509693 0.9953793383
5400267600.0 -0.0351027823 0.9967121581
5450267300.0 -0.022158446 0.9968490533
5500267000.0 -0.006994617 0.9971967713
5550266700.0 0.0078843922 0.9973285651
5600266400.0 0.0236143345 0.997397853
5650266100.0 0.0401649404 0.996904951
5700265800.0 0.0547307181 0.9958433406
5750265500.0 0.0698197876 0.9952231323
5800265200.0 0.0838646327 0.99435406
5850264900.0 0.0973999931 0.9937790269
5900264600.0 0.1138827058 0.991673209
5950264300.0 0.1262652312 0.9900415633
6000264000.0 0.1398040062 0.9882415615
6050263700.0 0.1527554551 0.9864423223
6100263400.0 0.1649195613 0.9842965868
6150263100.0 0.1793779125 0.9822323942
6200262800.0 0.189984098 0.9800063946
6250262500.0 0.2025791479 0.9778795081
6300262200.0 0.2155600524 0.975178822
6350261900.0 0.2287136866 0.9721406521
6400261600.0 0.2424262566 0.9689157336
6450261300.0 0.2538036824 0.9662229263
6500261000.0 0.2663551996 0.9623279202
6550260700.0 0.2795197143 0.9588520414
6600260400.0 0.292650332 0.9544645025
6650260100.0 0.30674124 0.9505845427
6700259800.0 0.3189653086 0.9459780735
6750259500.0 0.3326529356 0.9411781235
6800259200.0 0.3455367868 0.9360480858
6850258900.0 0.3577340473 0.9311109726
6900258600.0 0.3695873388 0.9259969824
6950258300.0 0.3821332559 0.9207390977
7000258000.0 0.3940873323 0.9153416834
7050257700.0 0.4064864912 0.9091385084
7100257400.0 0.4190790254 0.9030981762
7150257100.0 0.4296514379 0.8977137809
7200256800.0 0.4422294425 0.8912071528
7250256500.0 0.4540589577 0.8848139601
7300256200.0 0.4669797005 0.8781773215
7350255900.0 0.479659578 0.8713546207
7400255600.0 0.4923659478 0.8637601386
7450255300.0 0.5081589339 0.8550509936
7500255000.0 0.519643693 0.847867983
7550254700.0 0.5335830547 0.8394815289
7600254400.0 0.5462086742 0.830716592
7650254100.0 0.5578206912 0.8232440748
7700253800.0 0.5695540561 0.8149182493
7750253500.0 0.5808688562 0.807285022
7800253200.0 0.5915571787 0.7996921205
7850252900.0 0.6013905508 0.7926076329
7900252600.0 0.6129786336 0.7836158254
7950252300.0 0.6219703741 0.7769431373
8000252000.0 0.6321717909 0.7692499406
8050251700.0 0.6426403812 0.7608235758
8100251400.0 0.652800964 0.7526631244
8150251100.0 0.6627514745 0.7440767136
8200250800.0 0.672325318 0.7360557655
8250250500.0 0.6810778126 0.7282304239
8300250200.0 0.6902981419 0.7195016393
8350249900.0 0.6995721145 0.7109749015
8400249600.0 0.7076507761 0.7027984342
8450249300.0 0.7171154364 0.6935702538
8500249000.0 0.7253225505 0.6847836864
8550248700.0 0.7337016844 0.6757346771
8600248400.0 0.7421136995 0.6662767068
8650248100.0 0.7496914324 0.6569072809
8700247800.0 0.7593223208 0.6456190972
8750247500.0 0.767613606 0.6354719231
8800247200.0 0.7756404811 0.6252996301
8850246900.0 0.7844916337 0.613894358
8900246600.0 0.7924349732 0.6027181219
8950246300.0 0.8021457905 0.5894905651
9000246000.0 0.8116111949 0.576810308
9050245700.0 0.8206808911 0.5639183034
9100245400.0 0.8296117013 0.5512661435
9150245100.0 0.8390521386 0.537712528
9200244800.0 0.8485870296 0.5223462309
9250244500.0 0.8576888649 0.5067222671
9300244200.0 0.8663928688 0.4921419532
9350243900.0 0.8739397602 0.4782249453
9400243600.0 0.8806561741 0.4656852043
9450243300.0 0.8864898042 0.4540962575
9500243000.0 0.8928646791 0.4417067369
9550242700.0 0.8967439975 0.433958804
9600242400.0 0.9004928579 0.4263892606
9650242100.0 0.9042555718 0.4197051135
9700241800.0 0.9088168864 0.4114607426
9750241500.0 0.9125732387 0.4039031072
9800241200.0 0.9172236244 0.3949055271
9850240900.0 0.9229398561 0.3834033818
9900240600.0 0.9285911477 0.3715659331
9950240300.0 0.93512549 0.3555205657
10000240000.0 0.9397832761 0.343572277
10050239700.0 0.9452537053 0.3286209819
10100239400.0 0.9502666632 0.3130432619
10150239100.0 0.954389425 0.2985655245
10200238800.0 0.958870653 0.2834993937
10250238500.0 0.9619708519 0.2701676316
10300238200.0 0.9650926658 0.2563788293
10350237900.0 0.9677228474 0.2431797383
10400237600.0 0.9701533622 0.2303039549
10450237300.0 0.9729257898 0.2163439152
10500237000.0 0.9749420543 0.2044051587
10550236700.0 0.9774442612 0.1906047773
10600236400.0 0.9792859322 0.1774209628
10650236100.0 0.9813427742 0.1628099991
10700235800.0 0.983598976 0.1503749028
10750235500.0 0.9857112869 0.1373394723
10800235200.0 0.9878596381 0.1230892987
10850234900.0 0.9894539481 0.1085782547
10900234600.0 0.9918551139 0.0938364621
10950234300.0 0.9935459349 0.0807083552
11000234000.0 0.9953609186 0.0656439284
11050233700.0 0.9970042987 0.0493771853
11100233400.0 0.9986281798 0.0320545975
11150233100.0 0.9995551965 0.015178151
11200232800.0 1.000400967 0.000360778
11250232500.0 1.000681536 -0.0165439476
11300232200.0 1.001804008 -0.0343211239
11350231900.0 1.001668608 -0.0497561829
11400231600.0 1.001242158 -0.065811361
11450231300.0 1.001277986 -0.0803228785
11500231000.0 0.9995470571 -0.0986966863
11550230700.0 0.9980096483 -0.111782296
11600230400.0 0.9968830624 -0.1234888136
11650230100.0 0.9943381311 -0.1357120013
11700229800.0 0.9926660857 -0.1509943895
11750229500.0 0.9900599949 -0.1650516737
11800229200.0 0.987173564 -0.1786759641
11850228900.0 0.9838149237 -0.1914581803
11900228600.0 0.9802688598 -0.2010822874
11950228300.0 0.9769477774 -0.2114553007
12000228000.0 0.9742626698 -0.2202672344
12050227700.0 0.9705509846 -0.2335534518
12100227400.0 0.967644303 -0.2436285785
12150227100.0 0.9625692218 -0.2603318629
12200226800.0 0.958686925 -0.2721857665
12250226500.0 0.9547000949 -0.2841919644
12300226200.0 0.9507425214 -0.2965429172
12350225900.0 0.9458065541 -0.309989993
12400225600.0 0.9414273842 -0.3233522807
12450225300.0 0.9371271134 -0.3357528456
12500225000.0 0.9316325964 -0.3500831933
12550224700.0 0.9263360041 -0.3637144227
12600224400.0 0.9214625881 -0.3764645531
12650224100.0 0.9157413487 -0.3907102201
12700223800.0 0.9104708903 -0.4034287296
12750223500.0 0.9050326178 -0.4161732505
12800223200.0 0.8996592338 -0.4291046668
12850222900.0 0.8945439099 -0.4409806983
12900222600.0 0.8889048863 -0.4530037929
12950222300.0 0.8824076532 -0.4662347164
13000222000.0 0.8762892621 -0.4773558827
13050221700.0 0.8694565105 -0.4901434448
13100221400.0 0.8626911494 -0.5024066238
13150221100.0 0.8558312255 -0.514764007
13200220800.0 0.8486129209 -0.5262888044
13250220500.0 0.841076418 -0.5387893098
13300220200.0 0.8337963819 -0.549449251
13350219900.0 0.8257714139 -0.5614438156
13400219600.0 0.8170846747 -0.5740072159
13450219300.0 0.8075811344 -0.5874962273
13500219000.0 0.7977680507 -0.6011480694
13550218700.0 0.7870876526 -0.6141689883
13600218400.0 0.7772170148 -0.626726717
13650218100.0 0.7667895548 -0.6378869452
13700217800.0 0.7560091754 -0.6500547935
13750217500.0 0.7457438382 -0.6611512082
13800217200.0 0.7352481281 -0.6731505859
13850216900.0 0.7233459127 -0.6845583028
13900216600.0 0.7137885002 -0.6928653427
13950216300.0 0.7029151494 -0.7042634903
14000216000.0 0.6932149183 -0.7129968119
14050215700.0 0.6835393528 -0.7213793268
14100215400.0 0.6735865355 -0.7295704483
14150215100.0 0.6643629538 -0.7383533164
14200214800.0 0.6552763786 -0.7468308936
14250214500.0 0.6451219711 -0.755978634
14300214200.0 0.6348611495 -0.7651622083
14350213900.0 0.6237949514 -0.7744630572
14400213600.0 0.6119022886 -0.7845557454
14450213300.0 0.5993528491 -0.7945139903
14500213000.0 0.5858736739 -0.8043809336
14550212700.0 0.5732208194 -0.8135685672
14600212400.0 0.5604212229 -0.822564054
14650212100.0 0.5483278493 -0.8312271699
14700211800.0 0.5335964284 -0.8407109928
14750211500.0 0.5220222688 -0.8490868246
14800211200.0 0.5093308272 -0.8569726775
14850210900.0 0.4972950612 -0.8644214466
14900210600.0 0.4838252755 -0.8721554015
14950210300.0 0.4704421594 -0.8799560093
15000210000.0 0.4574120925 -0.8869378307
15050209700.0 0.445082652 -0.8929415204
15100209400.0 0.4323367825 -0.8986302071
15150209100.0 0.4201616191 -0.9045496062
15200208800.0 0.4068256365 -0.9096662878
15250208500.0 0.3957695172 -0.9144079876
15300208200.0 0.382858342 -0.919359681
15350207900.0 0.3700425495 -0.9234693618
15400207600.0 0.3551697806 -0.9290318519
15450207300.0 0.3407942766 -0.9337910612
15500207000.0 0.3254463802 -0.938079647
15550206700.0 0.3107139243 -0.9441592568
15600206400.0 0.2940427367 -0.9484504515
15650206100.0 0.2786410988 -0.9523394105
15700205800.0 0.2651845687 -0.956015949
15750205500.0 0.2505730422 -0.9597224315
15800205200.0 0.2361618096 -0.9629454958
15850204900.0 0.2220395738 -0.9662290173
15900204600.0 0.2069920983 -0.9699225632
15950204300.0 0.1929321561 -0.9727161268
16000204000.0 0.179177976 -0.9753235955
16050203700.0 0.164451559 -0.9785003597
16100203400.0 0.1502450784 -0.9805018391
16150203100.0 0.1355832041 -0.9828287523
16200202800.0 0.1217690266 -0.984898579
16250202500.0 0.1068112002 -0.9862622746
16300202200.0 0.0916631281 -0.987826723
16350201900.0 0.0772218984 -0.9892795729
16400201600.0 0.0623157468 -0.9903915687
16450201300.0 0.04723521 -0.9911609939
16500201000.0 0.0305855405 -0.9920523602
16550200700.0 0.0151157739 -0.9925282565
16600200400.0 -0.0009763634 -0.9925509952
16650200100.0 -0.0171526495 -0.9924894723
16700199800.0 -0.0338718786 -0.9921025655
16750199500.0 -0.0528886116 -0.9912201081
16800199200.0 -0.0684099402 -0.9902104423
16850198900.0 -0.0839351421 -0.9891757813
16900198600.0 -0.0980238662 -0.9880200496
16950198300.0 -0.1114003143 -0.9869268082
17000198000.0 -0.1244599697 -0.9852955102
17050197700.0 -0.1366981376 -0.983613339
17100197400.0 -0.1496808811 -0.9818723543
17150197100.0 -0.1623917238 -0.9794002543
17200196800.0 -0.1749660931 -0.9775684402
17250196500.0 -0.1881685978 -0.9752041695
17300196200.0 -0.200306045 -0.972662971
17350195900.0 -0.2120681165 -0.9705094856
17400195600.0 -0.2242939474 -0.9679559427
17450195300.0 -0.2373960436 -0.9651729033
17500195000.0 -0.2507971799 -0.9618846118
17550194700.0 -0.2646757115 -0.9581190346
17600194400.0 -0.2785059807 -0.9541151441
17650194100.0 -0.2922589203 -0.9500073428
17700193800.0 -0.3053044783 -0.9455276648
17750193500.0 -0.3195121508 -0.9415250096
17800193200.0 -0.3336265667 -0.9361075945
17850192900.0 -0.3487347335 -0.9308751986
17900192600.0 -0.3636961517 -0.9243092332
17950192300.0 -0.3794907776 -0.9173900654
18000192000.0 -0.3936749642 -0.910242602
18050191700.0 -0.4076876318 -0.902253457
18100191400.0 -0.4218744026 -0.8944408408
18150191100.0 -0.4367084185 -0.8865454871
18200190800.0 -0.4534901898 -0.8772100718
18250190500.0 -0.4706389701 -0.8677779171
18300190200.0 -0.4858911263 -0.859275021
18350189900.0 -0.5011158809 -0.8506880057
18400189600.0 -0.515377201 -0.8418641811
18450189300.0 -0.5287949591 -0.8336205857
18500189000.0 -0.5420266895 -0.8258373803
18550188700.0 -0.5545871248 -0.8181841607
18600188400.0 -0.5668134595 -0.8113298712
18650188100.0 -0.5779532571 -0.8045295414
18700187800.0 -0.5886355271 -0.7982533614
18750187500.0 -0.5995703489 -0.7915347159
18800187200.0 -0.6100792788 -0.7845283232
18850186900.0 -0.6204907631 -0.7773249349
18900186600.0 -0.6308951447 -0.7696968471
18950186300.0 -0.6413720439 -0.761834137
19000186000.0 -0.6484340434 -0.7558632731
19050185700.0 -0.6577515713 -0.7484197018
19100185400.0 -0.6678405439 -0.7402257663
19150185100.0 -0.6780292249 -0.7313241876
19200184800.0 -0.687729614 -0.7228533807
19250184500.0 -0.6980884594 -0.7136127723
19300184200.0 -0.7094666243 -0.7041032445
19350183900.0 -0.7201095146 -0.6940666942
19400183600.0 -0.7296350801 -0.6843548352
19450183300.0 -0.7382110908 -0.6747750522
19500183000.0 -0.7462884945 -0.6642328457
19550182700.0 -0.7559831068 -0.6537883224
19600182400.0 -0.7663659981 -0.6421184934
19650182100.0 -0.7774052461 -0.630028677
19700181800.0 -0.7879290322 -0.6165619654
19750181500.0 -0.7980453892 -0.6028221659
19800181200.0 -0.8083559527 -0.5877990257
19850180900.0 -0.8178870124 -0.572466346
19900180600.0 -0.8255990626 -0.558043357
19950180300.0 -0.8346330562 -0.5419760792
20000180000.0 -0.8273730155 -0.5443773503
20050179700.0 -0.8352400765 -0.530996307
20100179400.0 -0.8440203589 -0.5167016384
20150179100.0 -0.8521588574 -0.5050910993
20200178800.0 -0.861061715 -0.4928430426
20250178500.0 -0.8696619124 -0.4794768615
20300178200.0 -0.8796899946 -0.4645936582
20350177900.0 -0.888656486 -0.4499324762
20400177600.0 -0.8975501691 -0.4353955844
20450177300.0 -0.9054396396 -0.4210424873
20500177000.0 -0.9134806824 -0.4068863927
20550176700.0 -0.9213517538 -0.3934523299
20600176400.0 -0.9283802508 -0.3800213365
20650176100.0 -0.9351807421 -0.3678058638
20700175800.0 -0.9419413259 -0.3556639464
20750175500.0 -0.9484504344 -0.3434579182
20800175200.0 -0.9529630199 -0.3338113294
20850174900.0 -0.9576628404 -0.3211811607
20900174600.0 -0.9630922572 -0.3106186968
20950174300.0 -0.9664551491 -0.2986562453
21000174000.0 -0.9698405072 -0.2871777589
21050173700.0 -0.9737281165 -0.2762347016
21100173400.0 -0.9780318954 -0.2631104089
21150173100.0 -0.9823131096 -0.2505700019
21200172800.0 -0.9848901412 -0.2369850144
21250172500.0 -0.9878585762 -0.2235220982
21300172200.0 -0.9907547543 -0.2093805171
21350171900.0 -0.9923546599 -0.1951047027
21400171600.0 -0.9940596894 -0.1808032221
21450171300.0 -0.9938167162 -0.1659726252
21500171000.0 -0.9941391444 -0.1508318905
21550170700.0 -0.9931754175 -0.1359001107
21600170400.0 -0.9925940216 -0.1191987296
21650170100.0 -0.9924270825 -0.1047604593
21700169800.0 -0.9900941963 -0.0895333912
21750169500.0 -0.9893691895 -0.0732143693
21800169200.0 -0.9877001994 -0.0572138664
21850168900.0 -0.9871337512 -0.0401072843
21900168600.0 -0.9850906819 -0.024224819
21950168300.0 -0.9841336262 -0.0090916694
22000168000.0 -0.9823205259 0.0064503017
22050167700.0 -0.9822966113 0.0207808597
22100167400.0 -0.9824943759 0.035610887
22150167100.0 -0.98299388 0.0509406797
22200166800.0 -0.9833266738 0.0672731678
22250166500.0 -0.9827052642 0.0842894662
22300166200.0 -0.9816099205 0.1009931815
22350165900.0 -0.9807748213 0.1179224026
22400165600.0 -0.9786488237 0.1330773927
22450165300.0 -0.9766232111 0.1481539754
22500165000.0 -0.9742958718 0.1614552063
22550164700.0 -0.9744024254 0.1774467491
22600164400.0 -0.9719664277 0.192921939
22650164100.0 -0.9703660486 0.2078692191
22700163800.0 -0.9672734915 0.2239193809
22750163500.0 -0.9654144448 0.2387484927
22800163200.0 -0.9626295298 0.2516743703
22850162900.0 -0.9596717244 0.265631216
22900162600.0 -0.9583905602 0.2789015891
22950162300.0 -0.9570890895 0.2916927432
23000162000.0 -0.9564849566 0.3034109143
23050161700.0 -0.9543832281 0.3155552846
23100161400.0 -0.9519186776 0.3283954876
23150161100.0 -0.9491683199 0.3412374595
23200160800.0 -0.9465668801 0.3534834895
23250160500.0 -0.9435821681 0.3644250819
23300160200.0 -0.9409207276 0.3768968236
23350159900.0 -0.9370172455 0.3897329219
23400159600.0 -0.9322446227 0.4031290722
23450159300.0 -0.927678638 0.4162644894
23500159000.0 -0.9229726332 0.4287553783
23550158700.0 -0.9188121899 0.4420452473
23600158400.0 -0.9132737204 0.4551092167
23650158100.0 -0.9069486252 0.4691814523
23700157800.0 -0.8995491624 0.4829260493
23750157500.0 -0.8907592487 0.4968092389
23800157200.0 -0.8820570411 0.5096597107
23850156900.0 -0.8733418789 0.5230399837
23900156600.0 -0.8640211803 0.5351632756
23950156300.0 -0.8542564225 0.5473460191
24000156000.0 -0.8451713171 0.5591631126
24050155700.0 -0.8356505405 0.5709490295
24100155400.0 -0.8256149421 0.5837820727
24150155100.0 -0.8147608229 0.5946470198
24200154800.0 -0.8035583191 0.6063213216
24250154500.0 -0.7923154705 0.6182621017
24300154200.0 -0.780711711 0.6300044338
24350153900.0 -0.768593659 0.6407843192
24400153600.0 -0.7562140363 0.6507274143
24450153300.0 -0.7447581358 0.6606882754
24500153000.0 -0.7329834028 0.6701628838
24550152700.0 -0.7220028275 0.680135295
24600152400.0 -0.7102790539 0.6885797079
24650152100.0 -0.6980990718 0.6977057407
