!Created with skrf (http://scikit-rf.org).
# Hz S RI R 50.0 
!freq ReS11 ImS11
300000.0 -0.9740602374 -0.1194242668
50299700.0 -0.9998858215 0.0151236297
100299400.0 -0.9981259718 0.0279337783
150299100.0 -1.002744194 0.0448704925
200298800.0 -0.9994369197 0.0581249594
250298500.0 -0.9972726791 0.0715621117
300298200.0 -0.9858955675 0.0874409016
350297900.0 -0.9939047408 0.0983822032
400297600.0 -0.9929819254 0.1148631109
450297300.0 -0.9909655337 0.128791551
500297000.0 -0.9892965803 0.1435241053
550296700.0 -0.9842633613 0.1558463474
600296400.0 -1.017259561 0.189105385
650296100.0 -0.9821373437 0.1858502905
700295800.0 -0.9793021866 0.1999582269
750295500.0 -0.9760690435 0.214041016
800295200.0 -0.9727856942 0.2281929163
850294900.0 -0.9696877548 0.2418560152
900294600.0 -0.9658609903 0.2556363415
950294300.0 -0.9619179702 0.2693348014
1000294000.0 -0.9581828097 0.2833858473
1050293700.0 -0.9537121166 0.29685702
1100293400.0 -0.9494910319 0.311482134
1150293100.0 -0.9454880681 0.3233562141
1200292800.0 -0.9401362355 0.3377240199
1250292500.0 -0.934740857 0.351203819
1300292200.0 -0.9290491674 0.3645133859
1350291900.0 -0.9234863806 0.3785822671
1400291600.0 -0.9180551598 0.391681553
1450291300.0 -0.9124775792 0.4039398598
1500291000.0 -0.9061894842 0.4172674453
1550290700.0 -0.899652656 0.4306524498
1600290400.0 -0.8933929919 0.4434374575
1650290100.0 -0.8866169075 0.4557145212
1700289800.0 -0.8799512034 0.4693327113
1750289500.0 -0.8729338197 0.4817610131
1800289200.0 -0.8656028228 0.4942431912
1850288900.0 -0.8588419746 0.5057123833
1900288600.0 -0.8510284595 0.5187706817
1950288300.0 -0.842757121 0.5311510132
2000288000.0 -0.835408655 0.5428102839
2050287700.0 -0.8271834253 0.5552821209
2100287400.0 -0.8193862329 0.5665553813
2150287100.0 -0.8108074075 0.578463902
2200286800.0 -0.8030343162 0.5892365948
2250286500.0 -0.7940518076 0.6012424419
2300286200.0 -0.7852676476 0.6126374285
2350285900.0 -0.7768152084 0.6233158212
2400285600.0 -0.7679980125 0.6343560757
2450285300.0 -0.7590614858 0.6450002512
2500285000.0 -0.7490224679 0.6568838254
2550284700.0 -0.7400048525 0.6671069343
2600284400.0 -0.7310526335 0.6767860442
2650284100.0 -0.7221788804 0.6873097169
2700283800.0 -0.7117913226 0.69755146
2750283500.0 -0.7017030176 0.7080765462
2800283200.0 -0.6913646413 0.7181517184
2850282900.0 -0.6812238969 0.728338841
2900282600.0 -0.6705788652 0.7377540495
2950282300.0 -0.6602609969 0.7472164306
3000282000.0 -0.6495191388 0.7566979591
3050281700.0 -0.6384098998 0.7658796273
3100281400.0 -0.6268616585 0.7750663567
3150281100.0 -0.6155648497 0.7840240269
3200280800.0 -0.6041635188 0.7921956984
3250280500.0 -0.5931065475 0.8002467383
3300280200.0 -0.5813373153 0.8083779602
3350279900.0 -0.5692965003 0.8164787504
3400279600.0 -0.5567104576 0.8245092825
3450279300.0 -0.5455426019 0.8315762614
3500279000.0 -0.5335680336 0.8383247307
3550278700.0 -0.5218256017 0.8456338152
3600278400.0 -0.5099271448 0.8525117278
3650278100.0 -0.4968399783 0.8599985635
3700277800.0 -0.4845838753 0.8662403791
3750277500.0 -0.4724093965 0.8732640436
3800277200.0 -0.45969299 0.8798561671
3850276900.0 -0.447755505 0.8856203369
3900276600.0 -0.4368655663 0.891359364
3950276300.0 -0.4248395312 0.8971650392
4000276000.0 -0.4131168019 0.9029658549
4050275700.0 -0.4002916762 0.9090607132
4100275400.0 -0.3893005746 0.9145685233
4150275100.0 -0.3759216125 0.9203942151
4200274800.0 -0.3627625797 0.9262750813
4250274500.0 -0.3501089451 0.9312229828
4300274200.0 -0.3368311881 0.9367020271
4350273900.0 -0.3226346493 0.9421362341
4400273600.0 -0.3078867857 0.9471240834
4450273300.0 -0.2929882179 0.9521001278
4500273000.0 -0.2797207655 0.9565307903
4550272700.0 -0.2661420945 0.9605056677
4600272400.0 -0.2509549144 0.9645180508
4650272100.0 -0.2397361087 0.9677459265
4700271800.0 -0.2267424757 0.9711207985
4750271500.0 -0.2150642628 0.9740230843
4800271200.0 -0.2028030464 0.9768057296
4850270900.0 -0.189055812 0.9795193941
4900270600.0 -0.1751267922 0.9819795276
4950270300.0 -0.1605075739 0.9846342011
5000270000.0 -0.1460381714 0.9867434522
5050269700.0 -0.1325994525 0.9880760659
5100269400.0 -0.1186085025 0.9901204406
5150269100.0 -0.1044675372 0.9916749413
5200268800.0 -0.091290282 0.9927320766
5250268500.0 -0.0782879102 0.993859359
5300268200.0 -0.0645834101 0.9943423711
5350267900.0 -0.0517238657 0.9953632392
5400267600.0 -0.0356947599 0.9959552749
5450267300.0 -0.0223881377 0.9964932086
5500267000.0 -0.0071019353 0.9968526007
5550266700.0 0.0078669996 0.9970991348
5600266400.0 0.0236789684 0.9970921859
5650266100.0 0.040458667 0.9968878222
5700265800.0 0.0545231569 0.9958151987
5750265500.0 0.0695879767 0.995332874
5800265200.0 0.0833090021 0.9942893197
5850264900.0 0.0961091828 0.992725355
5900264600.0 0.1128550761 0.9913568123
5950264300.0 0.1246469059 0.9897681122
6000264000.0 0.1382190434 0.9881662547
6050263700.0 0.1496658213 0.9866321769
6100263400.0 0.1621478073 0.9853204695
6150263100.0 0.176504197 0.9824853004
6200262800.0 0.1862380417 0.9812163268
6250262500.0 0.198815563 0.9785599566
6300262200.0 0.2110591758 0.9762473039
6350261900.0 0.2238831483 0.9733659844
6400261600.0 0.237856807 0.9702545546
6450261300.0 0.2490288639 0.9677712326
6500261000.0 0.2624508311 0.9639873241
6550260700.0 0.2751030749 0.9601698884
6600260400.0 0.2887228504 0.9558931754
6650260100.0 0.3027271676 0.9515747073
6700259800.0 0.3149715625 0.9474923725
6750259500.0 0.3290114261 0.9425552411
6800259200.0 0.3422400436 0.9375105141
6850258900.0 0.354691158 0.9321156566
6900258600.0 0.367406724 0.926906538
6950258300.0 0.3796185055 0.921383672
7000258000.0 0.3915329769 0.9161682327
7050257700.0 0.403430673 0.910421596
7100257400.0 0.416615331 0.9039905959
7150257100.0 0.427482055 0.898794035
7200256800.0 0.4405473275 0.8923289819
7250256500.0 0.4529419509 0.88524164
7300256200.0 0.4658910121 0.878883904
7350255900.0 0.4788466825 0.8716512965
7400255600.0 0.4927800412 0.8640832601
7450255300.0 0.5083667087 0.8547989255
7500255000.0 0.5207839814 0.8477992275
7550254700.0 0.5354304513 0.8385253385
7600254400.0 0.5472209296 0.8301552645
7650254100.0 0.5591790613 0.8222772067
7700253800.0 0.5709835601 0.814241334
7750253500.0 0.5818040221 0.8066845513
7800253200.0 0.5924993727 0.7987424927
7850252900.0 0.6020933794 0.7916500356
7900252600.0 0.6136019107 0.7827714955
7950252300.0 0.6220767071 0.7765476789
8000252000.0 0.6320654622 0.7688139313
8050251700.0 0.6423212135 0.7606897567
8100251400.0 0.6525286281 0.7526919728
8150251100.0 0.662298704 0.744220511
8200250800.0 0.6716342448 0.7359129764
8250250500.0 0.680765349 0.7281840597
8300250200.0 0.6897905363 0.7199248659
8350249900.0 0.6990203639 0.7106777465
8400249600.0 0.7071359549 0.7027763117
8450249300.0 0.7157051176 0.6940952692
8500249000.0 0.7244969849 0.6853269251
8550248700.0 0.7327420323 0.676281493
8600248400.0 0.7409655012 0.666775646
8650248100.0 0.7488441417 0.6574055204
8700247800.0 0.7580334288 0.6462480552
8750247500.0 0.766334186 0.6360906678
8800247200.0 0.7742911126 0.625965977
8850246900.0 0.7830194612 0.6145516646
8900246600.0 0.7914576883 0.6032838394
8950246300.0 0.8007291478 0.5904117156
9000246000.0 0.8092290551 0.5785825752
9050245700.0 0.8180912624 0.5659992571
9100245400.0 0.826133183 0.5537611053
9150245100.0 0.8349490309 0.5408999455
9200244800.0 0.8444220878 0.5265491835
9250244500.0 0.8534748485 0.5117557398
9300244200.0 0.8615768895 0.4982129554
9350243900.0 0.8691422312 0.4850494631
9400243600.0 0.8757943064 0.4733011381
9450243300.0 0.8812951623 0.4627130488
9500243000.0 0.8877346022 0.4508901303
9550242700.0 0.8915781071 0.4434910973
9600242400.0 0.8959620175 0.4357584146
9650242100.0 0.8999666489 0.4290850523
9700241800.0 0.9050699007 0.4204057168
9750241500.0 0.9090264783 0.4128345404
9800241200.0 0.9142914564 0.4032848405
9850240900.0 0.9199615526 0.3914518809
9900240600.0 0.9257725399 0.3799363955
9950240300.0 0.9329482168 0.363158775
10000240000.0 0.9379264543 0.3511934199
10050239700.0 0.9440044251 0.334980626
10100239400.0 0.9491888147 0.3188184227
10150239100.0 0.9537815559 0.3029280699
10200238800.0 0.9581382263 0.2876666126
10250238500.0 0.9616706429 0.2741896721
10300238200.0 0.9646596675 0.2602603218
10350237900.0 0.9675279042 0.2466125094
10400237600.0 0.9701348915 0.233720804
10450237300.0 0.9726033195 0.2199134521
10500237000.0 0.9750354458 0.2073160819
10550236700.0 0.9774263724 0.1931311558
10600236400.0 0.9792341563 0.1795137675
10650236100.0 0.9816575704 0.1643701342
10700235800.0 0.9833619057 0.1522838313
10750235500.0 0.9862368858 0.1382850048
10800235200.0 0.987815821 0.1244440526
10850234900.0 0.9898059291 0.1095444647
10900234600.0 0.9922037181 0.0944848399
10950234300.0 0.9938047863 0.0811977874
11000234000.0 0.9956039696 0.0655891255
11050233700.0 0.9972518181 0.0490510565
11100233400.0 0.9989040083 0.0309815488
11150233100.0 0.9999709822 0.0143843154
11200232800.0 1.000921467 -0.0013171748
11250232500.0 1.001741877 -0.0189765387
11300232200.0 1.002309523 -0.0380846897
11350231900.0 1.001817311 -0.0540243083
11400231600.0 1.001363978 -0.0687131138
11450231300.0 1.001238422 -0.0850119843
11500231000.0 0.9997810222 -0.1011201637
11550230700.0 0.9984810479 -0.1138139846
11600230400.0 0.9966500952 -0.1273284801
11650230100.0 0.9947730589 -0.1385887846
11700229800.0 0.9926301852 -0.1538341578
11750229500.0 0.9901648545 -0.1683720912
11800229200.0 0.9874978254 -0.1814376609
11850228900.0 0.9835926178 -0.1933002273
11900228600.0 0.9801820787 -0.202810818
11950228300.0 0.9765675978 -0.212709653
12000228000.0 0.9736857895 -0.2215596868
12050227700.0 0.9701248317 -0.2343506707
12100227400.0 0.9668671346 -0.2455929778
12150227100.0 0.9615930229 -0.2621702154
12200226800.0 0.9578639157 -0.2730098072
12250226500.0 0.9538516198 -0.2859322726
12300226200.0 0.9494463574 -0.298001141
12350225900.0 0.9440697001 -0.3118859449
12400225600.0 0.9401526873 -0.3245266567
12450225300.0 0.9360509579 -0.3371772519
12500225000.0 0.9304782557 -0.351690524
12550224700.0 0.9249471119 -0.3655041008
12600224400.0 0.920055076 -0.3783257031
12650224100.0 0.9142489682 -0.3925326217
12700223800.0 0.9088901975 -0.4053182455
12750223500.0 0.9034297297 -0.4183612267
12800223200.0 0.8980983208 -0.4310210412
12850222900.0 0.8929088853 -0.4431898827
12900222600.0 0.8874240513 -0.4547963379
12950222300.0 0.8808740102 -0.4677067353
13000222000.0 0.8751906632 -0.4790439678
13050221700.0 0.8683838779 -0.4930587595
13100221400.0 0.8617156151 -0.5043198969
13150221100.0 0.8547272208 -0.5164259706
13200220800.0 0.847563663 -0.5278478255
13250220500.0 0.8403833901 -0.540489292
13300220200.0 0.8329496162 -0.5511888791
13350219900.0 0.8248112031 -0.5633914815
13400219600.0 0.8163483273 -0.5751747487
13450219300.0 0.807303866 -0.5879750766
13500219000.0 0.79756312 -0.6013445687
13550218700.0 0.7871201001 -0.6137338104
13600218400.0 0.7778845127 -0.6254721828
13650218100.0 0.7680642902 -0.6357052231
13700217800.0 0.7568705128 -0.6480352579
13750217500.0 0.7470173971 -0.6589253202
13800217200.0 0.7365641166 -0.6699613562
13850216900.0 0.7259760023 -0.6821579056
13900216600.0 0.7157668122 -0.6906632041
13950216300.0 0.7046902625 -0.7005342843
14000216000.0 0.6953190063 -0.7094888639
14050215700.0 0.6863287069 -0.7174481806
14100215400.0 0.6764721828 -0.7265125065
14150215100.0 0.6672854907 -0.7350556086
14200214800.0 0.6579537352 -0.744179421
14250214500.0 0.6475307624 -0.7536204913
14300214200.0 0.6370237505 -0.7629968398
14350213900.0 0.6258122726 -0.7726310934
14400213600.0 0.6142837927 -0.7826687921
14450213300.0 0.601305402 -0.792632195
14500213000.0 0.5881955362 -0.8024725074
14550212700.0 0.5755834288 -0.811978903
14600212400.0 0.5634565882 -0.8204331102
14650212100.0 0.5507455779 -0.8292246598
14700211800.0 0.5372791798 -0.8388038337
14750211500.0 0.5251035042 -0.8471667347
14800211200.0 0.5121385931 -0.8556038356
14850210900.0 0.4997114837 -0.8629730183
14900210600.0 0.4866745079 -0.8708566099
14950210300.0 0.4734326926 -0.8785577979
15000210000.0 0.4607368959 -0.8852763978
15050209700.0 0.4484346924 -0.8914602985
15100209400.0 0.4357005429 -0.8974040339
15150209100.0 0.4234168403 -0.9026289943
15200208800.0 0.4102993938 -0.9084980937
15250208500.0 0.399117434 -0.9122787838
15300208200.0 0.3875980767 -0.9169977497
15350207900.0 0.3745918533 -0.9222054423
15400207600.0 0.3598018102 -0.9272839558
15450207300.0 0.3449378127 -0.9320496848
15500207000.0 0.3296723931 -0.9370783854
15550206700.0 0.3154948241 -0.9417564202
15600206400.0 0.2994204758 -0.9466839253
15650206100.0 0.2837755442 -0.9505361762
15700205800.0 0.2703701028 -0.9543431763
15750205500.0 0.2562076993 -0.9576902376
15800205200.0 0.2422666561 -0.9613436578
15850204900.0 0.2282651975 -0.9647719721
15900204600.0 0.2130981572 -0.9684022353
15950204300.0 0.198519189 -0.9715394291
16000204000.0 0.1842384502 -0.9743485853
16050203700.0 0.1690574081 -0.9776525994
16100203400.0 0.1544832387 -0.9796708472
16150203100.0 0.1394072812 -0.9823093136
16200202800.0 0.1250787665 -0.9842122313
16250202500.0 0.1104933594 -0.9858554905
16300202200.0 0.0951821337 -0.9876267492
16350201900.0 0.0803065495 -0.9891288977
16400201600.0 0.0652339548 -0.9901449825
16450201300.0 0.0499592258 -0.9911584064
16500201000.0 0.0327211522 -0.9920689607
16550200700.0 0.0168712445 -0.992616239
16600200400.0 0.0008539223 -0.9927384832
16650200100.0 -0.0152164526 -0.9926431965
16700199800.0 -0.0315573185 -0.9921338803
16750199500.0 -0.0506967834 -0.9915343381
16800199200.0 -0.0665253697 -0.9909099129
16850198900.0 -0.0822571842 -0.9894729207
16900198600.0 -0.0964792652 -0.9888446193
16950198300.0 -0.1101668011 -0.987203935
17000198000.0 -0.123086731 -0.9858295254
17050197700.0 -0.1358750716 -0.9844214454
17100197400.0 -0.1490234036 -0.9823200757
17150197100.0 -0.1617523617 -0.9796531538
17200196800.0 -0.1743285784 -0.9780339736
17250196500.0 -0.1872378247 -0.9753618298
17300196200.0 -0.1994439933 -0.9730261308
17350195900.0 -0.2113571502 -0.970725316
17400195600.0 -0.2231099604 -0.9681967492
17450195300.0 -0.2358514248 -0.9654927404
17500195000.0 -0.249070864 -0.9622883926
17550194700.0 -0.2629301792 -0.9584785818
17600194400.0 -0.2769832191 -0.954667506
17650194100.0 -0.2905870065 -0.9506289507
17700193800.0 -0.3032954575 -0.9462094549
17750193500.0 -0.3177349201 -0.9419381424
17800193200.0 -0.3315306851 -0.9364930384
17850192900.0 -0.3465063422 -0.9309938941
17900192600.0 -0.3616601222 -0.9250573366
17950192300.0 -0.3772297432 -0.9179054905
18000192000.0 -0.3920142957 -0.9107279585
18050191700.0 -0.4058335145 -0.9029424047
18100191400.0 -0.4199781435 -0.8952286305
18150191100.0 -0.4346639368 -0.8872534522
18200190800.0 -0.451810816 -0.8781508938
18250190500.0 -0.4685695518 -0.8687508447
18300190200.0 -0.4842992346 -0.8597691345
18350189900.0 -0.4991919216 -0.8514976314
18400189600.0 -0.5139715148 -0.8430154526
18450189300.0 -0.5270879405 -0.8348369532
18500189000.0 -0.5404391592 -0.8268390092
18550188700.0 -0.5534872246 -0.8193293464
18600188400.0 -0.565375605 -0.8121516148
18650188100.0 -0.5769072973 -0.8057708384
18700187800.0 -0.5878247451 -0.799180054
18750187500.0 -0.5985310875 -0.7923984543
18800187200.0 -0.6091229514 -0.7853427844
18850186900.0 -0.619456766 -0.7784921267
18900186600.0 -0.6297687942 -0.771209998
18950186300.0 -0.6400321536 -0.763561723
19000186000.0 -0.6474656209 -0.7573168424
19050185700.0 -0.6565830615 -0.7500406236
19100185400.0 -0.6671085468 -0.741941742
19150185100.0 -0.6771277765 -0.7334428013
19200184800.0 -0.6862930003 -0.7255827197
19250184500.0 -0.6965574359 -0.7160200772
19300184200.0 -0.7077587194 -0.7062283023
19350183900.0 -0.7187702602 -0.6966469102
19400183600.0 -0.7273551586 -0.6870665075
19450183300.0 -0.7367355667 -0.6767771776
19500183000.0 -0.745270804 -0.6671311075
19550182700.0 -0.7546427932 -0.6564519941
19600182400.0 -0.7652372158 -0.6442201717
19650182100.0 -0.7754730818 -0.6319605375
19700181800.0 -0.7863622063 -0.6189588315
19750181500.0 -0.7968776615 -0.6047444068
19800181200.0 -0.8068593437 -0.589769288
19850180900.0 -0.8165300577 -0.574515233
19900180600.0 -0.8241660682 -0.5600476191
19950180300.0 -0.833388262 -0.5436162307
20000180000.0 -0.8231220598 -0.5478858408
20050179700.0 -0.8314519012 -0.534529452
20100179400.0 -0.8405977826 -0.5211738449
20150179100.0 -0.8474503369 -0.5095430075
20200178800.0 -0.85672804 -0.4983779389
20250178500.0 -0.8656745846 -0.4849484025
20300178200.0 -0.8754699404 -0.471419515
20350177900.0 -0.884899443 -0.457636577
20400177600.0 -0.8936688219 -0.443630828
20450177300.0 -0.902257888 -0.4288962491
20500177000.0 -0.9100746267 -0.4150950693
20550176700.0 -0.9178749595 -0.4014532916
20600176400.0 -0.9249829517 -0.3887227581
20650176100.0 -0.9315304387 -0.376560731
20700175800.0 -0.9385096433 -0.3648368619
20750175500.0 -0.9450876887 -0.3529512249
20800175200.0 -0.9489920812 -0.3418878529
20850174900.0 -0.953798115 -0.3323001383
20900174600.0 -0.9575124198 -0.3203040856
20950174300.0 -0.9614465558 -0.3089930896
21000174000.0 -0.9640018745 -0.2984672549
21050173700.0 -0.9652549683 -0.2886851918
21100173400.0 -0.9691148351 -0.2781544149
21150173100.0 -0.9737400328 -0.2658042286
21200172800.0 -0.9774361351 -0.2528968231
21250172500.0 -0.9809730836 -0.2389998432
21300172200.0 -0.9841228783 -0.2252508078
21350171900.0 -0.9860791136 -0.2108739997
21400171600.0 -0.9878724207 -0.1972413951
21450171300.0 -0.9894942129 -0.1830644506
21500171000.0 -0.9897101086 -0.1671713086
21550170700.0 -0.9898320514 -0.1525639776
21600170400.0 -0.9903932482 -0.1366323314
21650170100.0 -0.9906762383 -0.1212062359
21700169800.0 -0.9893575202 -0.1055475141
21750169500.0 -0.9892334232 -0.0904176793
21800169200.0 -0.9894348023 -0.0722820856
21850168900.0 -0.9897328283 -0.0560453661
21900168600.0 -0.9890063199 -0.0405210268
21950168300.0 -0.9885442432 -0.0245080843
22000168000.0 -0.9884103445 -0.0092986711
22050167700.0 -0.9894009498 0.0054165899
22100167400.0 -0.9900911296 0.0206635795
22150167100.0 -0.9907551992 0.0364226358
22200166800.0 -0.9908456511 0.0532201172
22250166500.0 -0.9911520836 0.0708682727
22300166200.0 -0.9903198402 0.0866927249
22350165900.0 -0.9895162991 0.1036464565
22400165600.0 -0.9869359315 0.1193253525
22450165300.0 -0.9868181039 0.134147009
22500165000.0 -0.9842487169 0.1484416354
22550164700.0 -0.9828969327 0.1647295459
22600164400.0 -0.9814163138 0.1801446836
22650164100.0 -0.9773602618 0.1965297678
22700163800.0 -0.9739657175 0.2122257523
22750163500.0 -0.9720365339 0.2263548603
22800163200.0 -0.9689923776 0.2395660945
22850162900.0 -0.9665427281 0.2528644206
22900162600.0 -0.9642770421 0.267261377
22950162300.0 -0.9625736126 0.2806218648
23000162000.0 -0.9608002834 0.2933048348
23050161700.0 -0.958674069 0.3066871931
23100161400.0 -0.9559742965 0.3201477107
23150161100.0 -0.9527643591 0.3328264021
23200160800.0 -0.9507767945 0.3461547174
23250160500.0 -0.9470467713 0.3584151301
23300160200.0 -0.9440488899 0.3711502981
23350159900.0 -0.9403475296 0.3845445862
23400159600.0 -0.9344209218 0.3975474497
23450159300.0 -0.9303422816 0.4117638317
23500159000.0 -0.9253836148 0.4256605612
23550158700.0 -0.9201096428 0.4399100543
23600158400.0 -0.9142063705 0.453462347
23650158100.0 -0.9069919477 0.4680016002
23700157800.0 -0.8987906622 0.4822912712
23750157500.0 -0.8894564222 0.4967838219
23800157200.0 -0.8797184079 0.5100892152
23850156900.0 -0.8707429071 0.523073299
23900156600.0 -0.8602013608 0.5354463676
23950156300.0 -0.8505530476 0.5479245182
24000156000.0 -0.8405877551 0.5603989861
24050155700.0 -0.8301831891 0.5732120795
24100155400.0 -0.8209574601 0.5851004669
24150155100.0 -0.80928887 0.5967960148
24200154800.0 -0.798590467 0.6087665936
24250154500.0 -0.7871273239 0.621530641
24300154200.0 -0.7757740917 0.6329268925
24350153900.0 -0.7638056834 0.6443729351
24400153600.0 -0.7515398223 0.6551275699
24450153300.0 -0.7392721395 0.6653262847
24500153000.0 -0.7276854073 0.6752126907
24550152700.0 -0.7167701138 0.6852404627
24600152400.0 -0.7044007563 0.6942667978
24650152100.0 -0.6923122494 0.7035529432
