!Created with skrf (http://scikit-rf.org).
# Hz S RI R 50.0 
!freq ReS11 ImS11
300000.0 -0.9794920557 -0.1068321269
50299700.0 -1.000139175 0.0160595096
100299400.0 -0.9981569081 0.0288945957
150299100.0 -1.002874692 0.0456822329
200298800.0 -0.9995603952 0.0592266433
250298500.0 -0.9975070684 0.0727629379
300298200.0 -0.9860401175 0.0883310739
350297900.0 -0.99397371 0.0992812864
400297600.0 -0.9931703457 0.1160540514
450297300.0 -0.9909936936 0.1298570471
500297000.0 -0.9894812891 0.1446275644
550296700.0 -0.9844329754 0.156776634
600296400.0 -1.017314512 0.1904809394
650296100.0 -0.9820932668 0.1868678252
700295800.0 -0.9792722252 0.2014093972
750295500.0 -0.9762406079 0.2154075739
800295200.0 -0.9729258991 0.2295593256
850294900.0 -0.9693756048 0.2431132601
900294600.0 -0.9656030498 0.2568841743
950294300.0 -0.9618834261 0.2706117148
1000294000.0 -0.9579865774 0.2845905552
1050293700.0 -0.9533098419 0.2984894376
1100293400.0 -0.9492085877 0.3128772749
1150293100.0 -0.9451590674 0.3247241563
1200292800.0 -0.9397383646 0.3390162767
1250292500.0 -0.9343616829 0.352354752
1300292200.0 -0.9288320773 0.36577309
1350291900.0 -0.9232429768 0.3797978968
1400291600.0 -0.9174078351 0.3926831253
1450291300.0 -0.91223513 0.4051188264
1500291000.0 -0.9060058691 0.4185444272
1550290700.0 -0.8992737538 0.4318192996
1600290400.0 -0.8931879821 0.4448311999
1650290100.0 -0.8863563629 0.4569395091
1700289800.0 -0.879519637 0.4702692581
1750289500.0 -0.8724285557 0.482644211
1800289200.0 -0.8651930383 0.4954122081
1850288900.0 -0.8582673814 0.5067267971
1900288600.0 -0.8505573037 0.5198791679
1950288300.0 -0.8424461563 0.5325402313
2000288000.0 -0.8350604668 0.5437460758
2050287700.0 -0.8265991983 0.5562305538
2100287400.0 -0.8187624293 0.5677879747
2150287100.0 -0.8100830618 0.5799476448
2200286800.0 -0.8024594427 0.5902310832
2250286500.0 -0.793483321 0.6022332008
2300286200.0 -0.7846605539 0.6140103469
2350285900.0 -0.7759050075 0.6249248065
2400285600.0 -0.7667117245 0.635818178
2450285300.0 -0.7584339784 0.6463071181
2500285000.0 -0.7484915308 0.657607779
2550284700.0 -0.7395797143 0.6680100461
2600284400.0 -0.7300500938 0.6780283908
2650284100.0 -0.7208854966 0.6885178762
2700283800.0 -0.710662745 0.6992690907
2750283500.0 -0.7001921048 0.7098236474
2800283200.0 -0.6903478925 0.7196110159
2850282900.0 -0.6801766574 0.7291008763
2900282600.0 -0.669706685 0.7386413583
2950282300.0 -0.6597119379 0.7478688977
3000282000.0 -0.6490170201 0.7573736722
3050281700.0 -0.6377432251 0.7666162218
3100281400.0 -0.6258068202 0.7760967561
3150281100.0 -0.61414963 0.7853921864
3200280800.0 -0.6024166076 0.7939441052
3250280500.0 -0.591739417 0.8014993724
3300280200.0 -0.5805204158 0.8095655303
3350279900.0 -0.5689205824 0.816958365
3400279600.0 -0.556798965 0.8245838945
3450279300.0 -0.5458941851 0.8317376443
3500279000.0 -0.5337299376 0.8388067656
3550278700.0 -0.5211176352 0.8459721203
3600278400.0 -0.5089085219 0.853279058
3650278100.0 -0.4957057964 0.860775158
3700277800.0 -0.4837608377 0.8675698131
3750277500.0 -0.4713926929 0.8740195338
3800277200.0 -0.45874411 0.8803823039
3850276900.0 -0.4468599647 0.8863031049
3900276600.0 -0.4359174988 0.8921368964
3950276300.0 -0.4234641673 0.8979531207
4000276000.0 -0.4111587512 0.9041276434
4050275700.0 -0.3984630354 0.9100936814
4100275400.0 -0.3872611559 0.915530089
4150275100.0 -0.3743100937 0.9210716827
4200274800.0 -0.3615219545 0.9264510234
4250274500.0 -0.3492813302 0.9316911358
4300274200.0 -0.3363237226 0.9369497408
4350273900.0 -0.3222818679 0.9423127263
4400273600.0 -0.3075855941 0.9474199792
4450273300.0 -0.2921241931 0.952647133
4500273000.0 -0.2783657906 0.9568739547
4550272700.0 -0.2642894979 0.9612161659
4600272400.0 -0.2488024119 0.9654851736
4650272100.0 -0.2370500186 0.9686070158
4700271800.0 -0.2237849011 0.9718950453
4750271500.0 -0.212220021 0.9747437174
4800271200.0 -0.1997184259 0.9774158833
4850270900.0 -0.1857094524 0.9801643102
4900270600.0 -0.1718526044 0.9826005648
4950270300.0 -0.1574820339 0.9851351765
5000270000.0 -0.1433528266 0.9872872097
5050269700.0 -0.1298002856 0.988991429
5100269400.0 -0.1164615136 0.9904819754
5150269100.0 -0.1030467522 0.991762111
5200268800.0 -0.0897675141 0.9928954669
5250268500.0 -0.0769098553 0.9938594575
5300268200.0 -0.063705372 0.9946760382
5350267900.0 -0.0515491183 0.9955743259
5400267600.0 -0.0352525319 0.9964172188
5450267300.0 -0.0221913056 0.9968662802
5500267000.0 -0.007125611 0.997173982
5550266700.0 0.0079759657 0.9972266744
5600266400.0 0.0234477989 0.9973960525
5650266100.0 0.0401340078 0.9971054518
5700265800.0 0.0544446299 0.9958048948
5750265500.0 0.0696212378 0.995474583
5800265200.0 0.0836805212 0.9941033529
5850264900.0 0.0970829994 0.9930276286
5900264600.0 0.1138042856 0.9913046454
5950264300.0 0.1257575034 0.9896423359
6000264000.0 0.1395987976 0.9881883162
6050263700.0 0.1523933939 0.9866474231
6100263400.0 0.1647559179 0.984664725
6150263100.0 0.1791685137 0.9823555771
6200262800.0 0.1899075595 0.9805846308
6250262500.0 0.2023055791 0.9779355177
6300262200.0 0.2152761375 0.9752796038
6350261900.0 0.2283900517 0.9722699167
6400261600.0 0.2422535912 0.9688927981
6450261300.0 0.253609524 0.9660729291
6500261000.0 0.2661773426 0.9626940777
6550260700.0 0.2793919974 0.9588947025
6600260400.0 0.292677043 0.9545505388
6650260100.0 0.3068647433 0.9503180578
6700259800.0 0.3182269036 0.9459552729
6750259500.0 0.3323131481 0.9411688215
6800259200.0 0.3458122521 0.9363588978
6850258900.0 0.3574689463 0.9312880692
6900258600.0 0.3697700421 0.9261688986
6950258300.0 0.382001631 0.9208348739
7000258000.0 0.3940951408 0.9152761587
7050257700.0 0.4062728672 0.9093249918
7100257400.0 0.419080903 0.9030973053
7150257100.0 0.4295940089 0.8978916462
7200256800.0 0.4421544877 0.8912146474
7250256500.0 0.453938691 0.884869373
7300256200.0 0.4673153099 0.8785550859
7350255900.0 0.4791461292 0.8713322765
7400255600.0 0.4923484004 0.8640255108
7450255300.0 0.5080283866 0.855100384
7500255000.0 0.5191601866 0.8478284129
7550254700.0 0.5331671955 0.8392594854
7600254400.0 0.5459616286 0.8308322794
7650254100.0 0.5577214069 0.8234183576
7700253800.0 0.5696844702 0.8154392852
7750253500.0 0.5809892828 0.8073710424
7800253200.0 0.5916129329 0.7995780455
7850252900.0 0.6009436988 0.7926821722
7900252600.0 0.6128565288 0.7837175958
7950252300.0 0.6216482258 0.7771309823
8000252000.0 0.6316637609 0.7694091979
8050251700.0 0.6422468905 0.7612916011
8100251400.0 0.6524147866 0.7530532813
8150251100.0 0.6627044135 0.7443105196
8200250800.0 0.671950165 0.7361694259
8250250500.0 0.680644387 0.7284325654
8300250200.0 0.690112459 0.7195809597
8350249900.0 0.6991126158 0.7110876449
8400249600.0 0.7075723027 0.7030588284
8450249300.0 0.7166065498 0.6938887468
8500249000.0 0.7254188185 0.6850226163
8550248700.0 0.7333618315 0.6758024416
8600248400.0 0.7418144951 0.6663991928
8650248100.0 0.7497008034 0.6569906449
8700247800.0 0.7591134895 0.6457979959
8750247500.0 0.7673051867 0.6356808689
8800247200.0 0.7753149712 0.6253676396
8850246900.0 0.7845057776 0.6138506966
8900246600.0 0.7928044732 0.6026062017
8950246300.0 0.8025319092 0.5899920696
9000246000.0 0.8115246269 0.5770843172
9050245700.0 0.8205220124 0.5641164233
9100245400.0 0.8290613222 0.5515373278
9150245100.0 0.8383306247 0.5378446945
9200244800.0 0.8484132838 0.5227189748
9250244500.0 0.8574617639 0.507059307
9300244200.0 0.866283653 0.4923754651
9350243900.0 0.8737495905 0.4784973833
9400243600.0 0.8805648088 0.4659541341
9450243300.0 0.8863902584 0.4541684543
9500243000.0 0.8926374025 0.4419117803
9550242700.0 0.8964179368 0.4343979608
9600242400.0 0.9003186028 0.4266473259
9650242100.0 0.9040622321 0.4200953471
9700241800.0 0.9085159443 0.4118352048
9750241500.0 0.9125738136 0.4043340402
9800241200.0 0.9172183639 0.3950190848
9850240900.0 0.9227633785 0.3833684845
9900240600.0 0.9284628212 0.3716434179
9950240300.0 0.9349451163 0.3558092859
10000240000.0 0.939745044 0.3441795158
10050239700.0 0.9449584527 0.329104315
10100239400.0 0.9498912282 0.3134885767
10150239100.0 0.9543786286 0.2988069146
10200238800.0 0.9585590869 0.2838081339
10250238500.0 0.9618522835 0.270517132
10300238200.0 0.9651025465 0.2565792155
10350237900.0 0.9676849239 0.2435189838
10400237600.0 0.970330168 0.230317633
10450237300.0 0.9729679281 0.2167082211
10500237000.0 0.974856065 0.2049862782
10550236700.0 0.9774907466 0.1907061593
10600236400.0 0.9794556462 0.176807875
10650236100.0 0.9813838919 0.162710628
10700235800.0 0.9838449573 0.1507309758
10750235500.0 0.9858596844 0.1371773658
10800235200.0 0.9876266326 0.1230114044
10850234900.0 0.9897186859 0.1085338186
10900234600.0 0.991682141 0.0944112629
10950234300.0 0.9934564136 0.0808474644
11000234000.0 0.9952340248 0.0658143598
11050233700.0 0.9970011416 0.0494742005
11100233400.0 0.9982962059 0.0318050258
11150233100.0 0.9997870655 0.0157847874
11200232800.0 0.9998125292 0.0007642957
11250232500.0 1.001185313 -0.0161804248
11300232200.0 1.002059458 -0.0337154801
11350231900.0 1.001558036 -0.0502885198
11400231600.0 1.001578805 -0.0654312158
11450231300.0 1.000535892 -0.0814818458
11500231000.0 0.9994952831 -0.0988050608
11550230700.0 0.9979127728 -0.1115535821
11600230400.0 0.9966827174 -0.1238830908
11650230100.0 0.9947043614 -0.1358302779
11700229800.0 0.9926139511 -0.1503309206
11750229500.0 0.9899272296 -0.1644215101
11800229200.0 0.9874290745 -0.1789997675
11850228900.0 0.9836664408 -0.191397515
11900228600.0 0.980130828 -0.2012383648
11950228300.0 0.9770967297 -0.211153994
12000228000.0 0.9744504943 -0.2204561644
12050227700.0 0.9704002062 -0.2330608626
12100227400.0 0.967620155 -0.2435110661
12150227100.0 0.9629675885 -0.2609525723
12200226800.0 0.9584096287 -0.2714482777
12250226500.0 0.9552551072 -0.2843633108
12300226200.0 0.9517495036 -0.2955373297
12350225900.0 0.9457818691 -0.3096259797
12400225600.0 0.9418039212 -0.3224805222
12450225300.0 0.9373043108 -0.3354122038
12500225000.0 0.9318331458 -0.3498682408
12550224700.0 0.9265517903 -0.3637522419
12600224400.0 0.9217324561 -0.3762286475
12650224100.0 0.9157811016 -0.3905398014
12700223800.0 0.9106982187 -0.4031014226
12750223500.0 0.9051480755 -0.4161838794
12800223200.0 0.8996900021 -0.4287113765
12850222900.0 0.8945481267 -0.4405899523
12900222600.0 0.8884628452 -0.4532786867
12950222300.0 0.8822295621 -0.4660763228
13000222000.0 0.8764630868 -0.4766564758
13050221700.0 0.8696652678 -0.489846704
13100221400.0 0.8626898571 -0.5019042428
13150221100.0 0.8557741763 -0.5142950605
13200220800.0 0.8491351567 -0.5256113255
13250220500.0 0.8410860538 -0.5386253273
13300220200.0 0.8339198715 -0.5493357047
13350219900.0 0.8259627419 -0.5613721233
13400219600.0 0.8174389485 -0.5732887194
13450219300.0 0.8079618926 -0.5871071199
13500219000.0 0.7974798062 -0.6012036526
13550218700.0 0.7870561972 -0.6141248239
13600218400.0 0.7770903041 -0.6262877457
13650218100.0 0.7669295546 -0.6376855093
13700217800.0 0.7560675617 -0.6502291694
13750217500.0 0.7456480999 -0.6615027638
13800217200.0 0.7353212429 -0.6721834102
13850216900.0 0.7243358826 -0.6839535496
13900216600.0 0.7144710687 -0.693053429
13950216300.0 0.7031064377 -0.7029711933
14000216000.0 0.6936357296 -0.7127063491
14050215700.0 0.6838871966 -0.7204506797
14100215400.0 0.6740351765 -0.7297958717
14150215100.0 0.6647368217 -0.7379108062
14200214800.0 0.6556185207 -0.7466443939
14250214500.0 0.6452849798 -0.7557664595
14300214200.0 0.6350559527 -0.7649572195
14350213900.0 0.6240408071 -0.7743816291
14400213600.0 0.6122278078 -0.7839997961
14450213300.0 0.5990669973 -0.7945235539
14500213000.0 0.5863086098 -0.8042606937
14550212700.0 0.5735995995 -0.8132299451
14600212400.0 0.5607478587 -0.8223458595
14650212100.0 0.5482630948 -0.8311357681
14700211800.0 0.534317246 -0.8404588195
14750211500.0 0.5222799972 -0.84881029
14800211200.0 0.5099773892 -0.8567369831
14850210900.0 0.4977223874 -0.8640640399
14900210600.0 0.4841657649 -0.872045178
14950210300.0 0.4707896315 -0.8797975861
15000210000.0 0.4580427064 -0.8865817513
15050209700.0 0.4455620205 -0.8929814637
15100209400.0 0.4328644095 -0.8986933604
15150209100.0 0.4199985838 -0.9039438758
15200208800.0 0.4067730491 -0.9096735838
15250208500.0 0.3963551454 -0.9141886193
15300208200.0 0.3834421786 -0.9188693539
15350207900.0 0.3708704528 -0.9231064734
15400207600.0 0.3559458849 -0.9288263787
15450207300.0 0.3403701939 -0.9336228203
15500207000.0 0.3267600833 -0.9387579843
15550206700.0 0.3114386449 -0.9439217583
15600206400.0 0.2954778611 -0.948072175
15650206100.0 0.2791350712 -0.9523970947
15700205800.0 0.2658123495 -0.9559298946
15750205500.0 0.2511235713 -0.9594573328
15800205200.0 0.2368946495 -0.9628947847
15850204900.0 0.22247464 -0.9662086587
15900204600.0 0.2076129841 -0.9698249918
15950204300.0 0.1937366966 -0.9726599341
16000204000.0 0.1793175645 -0.9751565482
16050203700.0 0.1649510731 -0.9781743336
16100203400.0 0.1504249707 -0.9805486314
16150203100.0 0.1361628003 -0.9824542775
16200202800.0 0.1221352149 -0.9844988959
16250202500.0 0.107824246 -0.986123982
16300202200.0 0.092085634 -0.9873341533
16350201900.0 0.0776193043 -0.9890655193
16400201600.0 0.0628760887 -0.9901822208
16450201300.0 0.0477308544 -0.9910473463
16500201000.0 0.0311569741 -0.9919472579
16550200700.0 0.0152851231 -0.9924682983
16600200400.0 -0.0004553194 -0.9926421173
16650200100.0 -0.0166803443 -0.9923555619
16700199800.0 -0.0333290251 -0.9918425867
16750199500.0 -0.0520823119 -0.9912057294
16800199200.0 -0.0675649611 -0.9902376591
16850198900.0 -0.0831202903 -0.9891334368
16900198600.0 -0.0973029325 -0.9886147404
16950198300.0 -0.1105845067 -0.9871223016
17000198000.0 -0.1240678145 -0.9855049417
17050197700.0 -0.1364668557 -0.9840677656
17100197400.0 -0.1489350234 -0.981903596
17150197100.0 -0.162063568 -0.9801292708
17200196800.0 -0.1748308913 -0.9773447072
17250196500.0 -0.1875753691 -0.9750650836
17300196200.0 -0.1994487322 -0.9729639328
17350195900.0 -0.2116400417 -0.9705673143
17400195600.0 -0.2236783739 -0.9681526848
17450195300.0 -0.2368019682 -0.9651978256
17500195000.0 -0.2503179555 -0.962073731
17550194700.0 -0.2641136167 -0.9582775641
17600194400.0 -0.2781959151 -0.9544795347
17650194100.0 -0.2916296945 -0.9501061784
17700193800.0 -0.3046660179 -0.9457273309
17750193500.0 -0.3191570184 -0.9415075588
17800193200.0 -0.3334943197 -0.9359087303
17850192900.0 -0.3481201384 -0.9306985888
17900192600.0 -0.3632881693 -0.9246755561
17950192300.0 -0.37867315 -0.917473438
18000192000.0 -0.3934544438 -0.9102678717
18050191700.0 -0.4071064193 -0.902315853
18100191400.0 -0.42135093 -0.8945886775
18150191100.0 -0.4363675327 -0.8867519383
18200190800.0 -0.4531815056 -0.8774721914
18250190500.0 -0.4698358536 -0.8679665781
18300190200.0 -0.4854963493 -0.8591386411
18350189900.0 -0.5004883151 -0.8509075663
18400189600.0 -0.5151108447 -0.842303403
18450189300.0 -0.5283528919 -0.8343208119
18500189000.0 -0.5418183052 -0.8261506736
18550188700.0 -0.5548117286 -0.8184562983
18600188400.0 -0.5662592805 -0.8120260734
18650188100.0 -0.5773014494 -0.8053193652
18700187800.0 -0.5878595946 -0.7988791014
18750187500.0 -0.5991798414 -0.7919652388
18800187200.0 -0.6096229225 -0.7849174989
18850186900.0 -0.6199595366 -0.7777774191
18900186600.0 -0.6302879295 -0.7702266671
18950186300.0 -0.6402708188 -0.7624200899
19000186000.0 -0.6477060885 -0.7561942208
19050185700.0 -0.6572264001 -0.7489833789
19100185400.0 -0.6668939007 -0.7408072359
19150185100.0 -0.6773258317 -0.7317506999
19200184800.0 -0.6866166186 -0.7232512909
19250184500.0 -0.6971508661 -0.7140355556
19300184200.0 -0.7089660734 -0.7046181587
19350183900.0 -0.7191165964 -0.6946305368
19400183600.0 -0.7294704588 -0.6853336928
19450183300.0 -0.73781102 -0.6745801465
19500183000.0 -0.7459235483 -0.6648531972
19550182700.0 -0.7558928899 -0.6538651527
19600182400.0 -0.766113835 -0.6429333124
19650182100.0 -0.7766721959 -0.6299167401
19700181800.0 -0.7873244345 -0.616965936
19750181500.0 -0.7977520753 -0.6030626992
19800181200.0 -0.8079794265 -0.5882078443
19850180900.0 -0.8175594649 -0.5729682914
19900180600.0 -0.8253246463 -0.5585528761
19950180300.0 -0.8344166156 -0.5422148995
20000180000.0 -0.8271709082 -0.5446048264
20050179700.0 -0.8347980619 -0.5311635205
20100179400.0 -0.8433193205 -0.5180179369
20150179100.0 -0.8516080439 -0.505992045
20200178800.0 -0.8609983332 -0.49266867
20250178500.0 -0.8700342594 -0.4788865877
20300178200.0 -0.8792269053 -0.4642755413
20350177900.0 -0.8883592024 -0.4502718109
20400177600.0 -0.8974645794 -0.435799155
20450177300.0 -0.9053994116 -0.4214688778
20500177000.0 -0.9134357584 -0.4073168622
20550176700.0 -0.9212713927 -0.3937942355
20600176400.0 -0.9280681191 -0.3808031891
20650176100.0 -0.9347324746 -0.3681818258
20700175800.0 -0.9413936625 -0.3558969399
20750175500.0 -0.9487016537 -0.3442940252
20800175200.0 -0.9527776547 -0.3335446217
20850174900.0 -0.9580314661 -0.3230715462
20900174600.0 -0.9630032855 -0.3112671137
20950174300.0 -0.9661894941 -0.2989698482
21000174000.0 -0.970136262 -0.2879935204
21050173700.0 -0.973121117 -0.2761400586
21100173400.0 -0.9770381475 -0.2641607543
21150173100.0 -0.9807287649 -0.2515997984
21200172800.0 -0.9848521611 -0.2382669514
21250172500.0 -0.987740352 -0.2240728846
21300172200.0 -0.9905707308 -0.210001034
21350171900.0 -0.9919329221 -0.1959336077
21400171600.0 -0.9936605457 -0.1811094119
21450171300.0 -0.9929870598 -0.1668808449
21500171000.0 -0.9929257063 -0.1512507925
21550170700.0 -0.9938101356 -0.1354935697
21600170400.0 -0.9934160263 -0.1196261759
21650170100.0 -0.9926549261 -0.1037816272
21700169800.0 -0.9904887367 -0.0899462723
21750169500.0 -0.9890057101 -0.0738693425
21800169200.0 -0.9882243423 -0.0582987447
21850168900.0 -0.9874235603 -0.0415906864
21900168600.0 -0.9863846482 -0.0243808227
21950168300.0 -0.9840751674 -0.009043721
22000168000.0 -0.9830728087 0.0057073938
22050167700.0 -0.9827218272 0.0198872612
22100167400.0 -0.9825314533 0.0350250629
22150167100.0 -0.98274269 0.0504272703
22200166800.0 -0.9833364222 0.0670986941
22250166500.0 -0.9827838807 0.0838884304
22300166200.0 -0.9819757926 0.1005046596
22350165900.0 -0.980555988 0.1169194535
22400165600.0 -0.9790174828 0.1331388104
22450165300.0 -0.977458795 0.1472051288
22500165000.0 -0.9746317234 0.160590342
22550164700.0 -0.9740683579 0.1760882526
22600164400.0 -0.9716857117 0.191146146
22650164100.0 -0.9706620185 0.2070079702
22700163800.0 -0.9679301035 0.2226849751
22750163500.0 -0.9651310716 0.2381736596
22800163200.0 -0.961972471 0.2518371882
22850162900.0 -0.9599712966 0.265180531
22900162600.0 -0.9584862804 0.2784048485
22950162300.0 -0.9574383428 0.2910883227
23000162000.0 -0.9562202179 0.3030513307
23050161700.0 -0.9543102955 0.3153666513
23100161400.0 -0.9524802272 0.3284210103
23150161100.0 -0.9486057293 0.340929493
23200160800.0 -0.9465405021 0.3529768386
23250160500.0 -0.9437121663 0.3641219604
23300160200.0 -0.9408530294 0.3764692977
23350159900.0 -0.9373234059 0.3896609487
23400159600.0 -0.9323700386 0.4017961081
23450159300.0 -0.9277944314 0.4149243337
23500159000.0 -0.9232473977 0.4287811321
23550158700.0 -0.918989952 0.4418406337
23600158400.0 -0.9132938668 0.4546233385
23650158100.0 -0.9071240763 0.4686758455
23700157800.0 -0.8996167959 0.4824225289
23750157500.0 -0.8907050362 0.4962887962
23800157200.0 -0.8822842324 0.5101397265
23850156900.0 -0.8730297088 0.5226682583
23900156600.0 -0.8644949441 0.5347790878
23950156300.0 -0.8543792305 0.5464266605
24000156000.0 -0.8457267192 0.5592360285
24050155700.0 -0.8356513478 0.57010719
24100155400.0 -0.8248537857 0.5830443382
24150155100.0 -0.8147916089 0.5950626566
24200154800.0 -0.8036318919 0.6065462385
24250154500.0 -0.7921837657 0.6179055235
24300154200.0 -0.7811066284 0.6298234774
24350153900.0 -0.7691093064 0.640487353
24400153600.0 -0.7569680009 0.6501900082
24450153300.0 -0.7447093897 0.6600791188
24500153000.0 -0.7332527631 0.6699722413
24550152700.0 -0.7220716813 0.6798824359
24600152400.0 -0.7107720746 0.6886701005
24650152100.0 -0.6989349013 0.6978139512
