!Created with skrf (http://scikit-rf.org).
# Hz S RI R 50.0 
!freq ReS11 ImS11
300000.0 -0.9766079192 -0.1181539591
50299700.0 -1.000024394 0.0155776458
100299400.0 -0.9981097686 0.0284045596
150299100.0 -1.002874995 0.0453243517
200298800.0 -0.9997216337 0.0586255227
250298500.0 -0.9975068474 0.0720472857
300298200.0 -0.9859691372 0.0880174225
350297900.0 -0.993972943 0.0988896322
400297600.0 -0.9931577434 0.1152592759
450297300.0 -0.991088786 0.1293743673
500297000.0 -0.9894123288 0.1437642932
550296700.0 -0.9846218713 0.1565550708
600296400.0 -1.017590268 0.1896812393
650296100.0 -0.9822774095 0.1864363229
700295800.0 -0.9793351308 0.2007860551
750295500.0 -0.9763822384 0.2145514744
800295200.0 -0.9730800898 0.2286590935
850294900.0 -0.9696750667 0.2426494045
900294600.0 -0.9657874748 0.256244159
950294300.0 -0.9620560155 0.2700635015
1000294000.0 -0.9581484617 0.2840043301
1050293700.0 -0.9535368623 0.2977767482
1100293400.0 -0.9495091448 0.3121262119
1150293100.0 -0.9454612106 0.3240351882
1200292800.0 -0.9402416428 0.3384865958
1250292500.0 -0.9346836965 0.3517821355
1300292200.0 -0.9289360056 0.3650808309
1350291900.0 -0.9235090231 0.3790981922
1400291600.0 -0.9180650672 0.3922265588
1450291300.0 -0.9124269861 0.4045474991
1500291000.0 -0.9061714859 0.4179734949
1550290700.0 -0.899596462 0.4313130646
1600290400.0 -0.8934057457 0.4443138586
1650290100.0 -0.8867406924 0.4564101838
1700289800.0 -0.8796991634 0.469779097
1750289500.0 -0.8728031706 0.4821792
1800289200.0 -0.8654279886 0.4949719973
1850288900.0 -0.8586518145 0.5062383465
1900288600.0 -0.8509002527 0.5193992555
1950288300.0 -0.8428581646 0.5318466995
2000288000.0 -0.835104052 0.5434254526
2050287700.0 -0.827001035 0.5557697315
2100287400.0 -0.8191049944 0.5672075286
2150287100.0 -0.8106412119 0.5794237096
2200286800.0 -0.8029564384 0.5898034273
2250286500.0 -0.7939008243 0.6016622129
2300286200.0 -0.7849503718 0.6131761217
2350285900.0 -0.7763951646 0.6242565493
2400285600.0 -0.7674369324 0.6352230233
2450285300.0 -0.7589233537 0.6458022944
2500285000.0 -0.7491752158 0.6568938487
2550284700.0 -0.7400545208 0.6671739026
2600284400.0 -0.7305945985 0.6775937665
2650284100.0 -0.721618007 0.6877811569
2700283800.0 -0.7109246689 0.698429978
2750283500.0 -0.70072476 0.7091043734
2800283200.0 -0.6909985023 0.7188329371
2850282900.0 -0.6808128649 0.7286412144
2900282600.0 -0.6704344151 0.7381409029
2950282300.0 -0.6604377672 0.7475586839
3000282000.0 -0.6495978949 0.7570200116
3050281700.0 -0.6384404641 0.766128467
3100281400.0 -0.6265337669 0.7756774644
3150281100.0 -0.6145746041 0.785009412
3200280800.0 -0.6029122016 0.7934793263
3250280500.0 -0.5922438344 0.8012875907
3300280200.0 -0.5810089657 0.8091037302
3350279900.0 -0.5694435784 0.8165865411
3400279600.0 -0.5572386329 0.8242397786
3450279300.0 -0.5460539951 0.8313263807
3500279000.0 -0.5342380754 0.8384888156
3550278700.0 -0.5215093749 0.8458713279
3600278400.0 -0.5094904829 0.8528045866
3650278100.0 -0.4962638135 0.8606461008
3700277800.0 -0.4842479442 0.8671275256
3750277500.0 -0.4720662726 0.8736345068
3800277200.0 -0.4595250518 0.8800155399
3850276900.0 -0.4473540874 0.8860204693
3900276600.0 -0.4365686652 0.8917058686
3950276300.0 -0.4238789113 0.8976304053
4000276000.0 -0.4119131244 0.9037541907
4050275700.0 -0.39909879 0.909806562
4100275400.0 -0.3879595358 0.9151717178
4150275100.0 -0.3752382057 0.9209079117
4200274800.0 -0.3624872192 0.9260930363
4250274500.0 -0.3499984417 0.9315881597
4300274200.0 -0.3371609328 0.9369787127
4350273900.0 -0.3234354108 0.9421735135
4400273600.0 -0.3082778955 0.9472212257
4450273300.0 -0.2930881037 0.9522650917
4500273000.0 -0.2795389618 0.9567400957
4550272700.0 -0.2652901833 0.9610432263
4600272400.0 -0.2498098929 0.9651919242
4650272100.0 -0.2380969639 0.968518546
4700271800.0 -0.224989528 0.9716485786
4750271500.0 -0.2131844891 0.9746226103
4800271200.0 -0.2006276145 0.9774714865
4850270900.0 -0.186690968 0.9800216684
4900270600.0 -0.1727296991 0.9825738292
4950270300.0 -0.1586650714 0.9853321732
5000270000.0 -0.1443272753 0.9872991656
5050269700.0 -0.1309966824 0.9887585739
5100269400.0 -0.1170729095 0.9907644468
5150269100.0 -0.1040321458 0.9921915042
5200268800.0 -0.0906537957 0.992706895
5250268500.0 -0.0777030559 0.9939579196
5300268200.0 -0.0644731871 0.9949227962
5350267900.0 -0.0526017055 0.995260177
5400267600.0 -0.0361062739 0.996246104
5450267300.0 -0.0228195714 0.996694436
5500267000.0 -0.0076827652 0.9970875026
5550266700.0 0.0072406641 0.9970749755
5600266400.0 0.0227856658 0.9973069249
5650266100.0 0.0393370135 0.996982295
5700265800.0 0.0537932762 0.9960887222
5750265500.0 0.069001716 0.9953781854
5800265200.0 0.0830614225 0.9941412812
5850264900.0 0.0963231071 0.9933842393
5900264600.0 0.1128760075 0.9914788602
5950264300.0 0.1250223842 0.9903425256
6000264000.0 0.1390435414 0.9882417296
6050263700.0 0.1514687372 0.9864193503
6100263400.0 0.1636723467 0.9846766345
6150263100.0 0.1783427017 0.9826480793
6200262800.0 0.1887432257 0.9807870502
6250262500.0 0.2012996528 0.978220978
6300262200.0 0.2142583248 0.975571931
6350261900.0 0.2273388873 0.9725723263
6400261600.0 0.2410551405 0.9692949508
6450261300.0 0.2525022973 0.9668366139
6500261000.0 0.2652110071 0.9630597386
6550260700.0 0.2783313714 0.9593739208
6600260400.0 0.291393377 0.9550202634
6650260100.0 0.3058735687 0.9509147286
6700259800.0 0.31762048 0.946558393
6750259500.0 0.3315383221 0.9416406503
6800259200.0 0.3446402933 0.9365380622
6850258900.0 0.3564497385 0.9316407169
6900258600.0 0.3684351071 0.9262089355
6950258300.0 0.3811069096 0.9211645873
7000258000.0 0.3929758342 0.9156191377
7050257700.0 0.40524936 0.9096130519
7100257400.0 0.4180571038 0.9033120046
7150257100.0 0.4283483118 0.8979579125
7200256800.0 0.4415008612 0.8916920031
7250256500.0 0.4529885476 0.8850695178
7300256200.0 0.4661171239 0.878437278
7350255900.0 0.4788612361 0.8716502263
7400255600.0 0.4923687533 0.8643904382
7450255300.0 0.5070902497 0.8553808853
7500255000.0 0.5190034264 0.8484377566
7550254700.0 0.5325496692 0.8396387685
7600254400.0 0.545281307 0.8314952513
7650254100.0 0.5571967434 0.8236506704
7700253800.0 0.568994998 0.8155770326
7750253500.0 0.5796989645 0.8081313728
7800253200.0 0.5907566351 0.800480066
7850252900.0 0.6001938348 0.7932972509
7900252600.0 0.6121194683 0.7845218888
7950252300.0 0.6207978836 0.7780061774
8000252000.0 0.6310384971 0.7704315169
8050251700.0 0.6417183879 0.7621442207
8100251400.0 0.6514789693 0.7540368547
8150251100.0 0.6617346836 0.74534769
8200250800.0 0.6708054397 0.7374045313
8250250500.0 0.6799034045 0.7295003583
8300250200.0 0.6892282991 0.7206445751
8350249900.0 0.6980818406 0.7122856788
8400249600.0 0.7066086125 0.7042244876
8450249300.0 0.7158178729 0.6948540511
8500249000.0 0.7241735635 0.6859391975
8550248700.0 0.732539259 0.6769064729
8600248400.0 0.7409691681 0.6675840674
8650248100.0 0.7487366341 0.6579602614
8700247800.0 0.7583438892 0.6467551427
8750247500.0 0.7665021027 0.6367744063
8800247200.0 0.7744880736 0.6262772928
8850246900.0 0.7835061948 0.61500827
8900246600.0 0.7920853693 0.6033217818
8950246300.0 0.801617483 0.5906333097
9000246000.0 0.8108512724 0.5777387636
9050245700.0 0.8197550633 0.5646722602
9100245400.0 0.8283944097 0.5522687505
9150245100.0 0.8381826741 0.5385330758
9200244800.0 0.8477243297 0.5234354753
9250244500.0 0.8573478112 0.5078182259
9300244200.0 0.8656683638 0.4931170624
9350243900.0 0.8734396951 0.4792321699
9400243600.0 0.8801405926 0.4668377937
9450243300.0 0.885926923 0.4551475871
9500243000.0 0.8922905426 0.4430342519
9550242700.0 0.8958168382 0.435531278
9600242400.0 0.8999989969 0.4281441446
9650242100.0 0.9032685613 0.4218512737
9700241800.0 0.9080140791 0.4136120105
9750241500.0 0.9119775216 0.4061613695
9800241200.0 0.9166363287 0.3969198888
9850240900.0 0.9222518899 0.3853577312
9900240600.0 0.9280472282 0.3735807323
9950240300.0 0.9349437116 0.3573908695
10000240000.0 0.9391053904 0.345831299
10050239700.0 0.944527887 0.3306261609
10100239400.0 0.9497805066 0.3150909947
10150239100.0 0.9539367456 0.3006470851
10200238800.0 0.9582411471 0.2854925424
10250238500.0 0.9618109738 0.2720993916
10300238200.0 0.9647804467 0.2581294771
10350237900.0 0.9672941343 0.2451371636
10400237600.0 0.969909579 0.2319879238
10450237300.0 0.9726009424 0.2182840108
10500237000.0 0.9748545095 0.2059938863
10550236700.0 0.9767696608 0.1919061242
10600236400.0 0.9792766205 0.1786148479
10650236100.0 0.9815362783 0.1634879648
10700235800.0 0.9835558461 0.1511445368
10750235500.0 0.9857318072 0.1382734962
10800235200.0 0.9875115364 0.1241888842
10850234900.0 0.989633395 0.1093556833
10900234600.0 0.9917886152 0.0947238025
10950234300.0 0.993507186 0.0816014539
11000234000.0 0.9951924956 0.0664176752
11050233700.0 0.9970833091 0.0501360982
11100233400.0 0.998456496 0.0326754822
11150233100.0 0.9997490921 0.016354546
11200232800.0 1.000163378 0.0012293145
11250232500.0 1.001107853 -0.0151634981
11300232200.0 1.001567391 -0.033427581
11350231900.0 1.001359136 -0.0484904592
11400231600.0 1.001299488 -0.0649266284
11450231300.0 1.000615346 -0.0800710967
11500231000.0 0.9996869543 -0.0958087973
11550230700.0 0.9982130097 -0.1102774418
11600230400.0 0.9968399462 -0.1215685196
11650230100.0 0.9951627857 -0.1334014553
11700229800.0 0.9932755659 -0.1485458366
11750229500.0 0.9906201346 -0.1631074976
11800229200.0 0.9879766318 -0.1765939525
11850228900.0 0.9844353118 -0.1890833645
11900228600.0 0.9809994115 -0.198746784
11950228300.0 0.9777660747 -0.2096444527
12000228000.0 0.9751009594 -0.2176779063
12050227700.0 0.9707591187 -0.2308068316
12100227400.0 0.9679647122 -0.2423126304
12150227100.0 0.9634607936 -0.258505839
12200226800.0 0.959704971 -0.2695564636
12250226500.0 0.9556747467 -0.2824276666
12300226200.0 0.9514586393 -0.2946944826
12350225900.0 0.9459441691 -0.3089393619
12400225600.0 0.9417699443 -0.3210780037
12450225300.0 0.9373949892 -0.3348728688
12500225000.0 0.9321312533 -0.3491244689
12550224700.0 0.9268581862 -0.3625757363
12600224400.0 0.9217132538 -0.375606768
12650224100.0 0.916089957 -0.3898618742
12700223800.0 0.9107594469 -0.4027163398
12750223500.0 0.9053659869 -0.4157628704
12800223200.0 0.9002082546 -0.4280799146
12850222900.0 0.8946074915 -0.4405735755
12900222600.0 0.8890243325 -0.4520947071
12950222300.0 0.8825100278 -0.4655132096
13000222000.0 0.8767426307 -0.4764997112
13050221700.0 0.8697714114 -0.4896330433
13100221400.0 0.8635440873 -0.5014759288
13150221100.0 0.856702305 -0.5137730944
13200220800.0 0.8494595556 -0.5249833009
13250220500.0 0.8421683652 -0.5372899416
13300220200.0 0.8348499606 -0.5478564195
13350219900.0 0.8269213935 -0.5599373117
13400219600.0 0.8183460548 -0.572138192
13450219300.0 0.809117024 -0.5856189374
13500219000.0 0.7991694249 -0.5993906982
13550218700.0 0.7886497056 -0.6124110013
13600218400.0 0.7782208199 -0.6244638908
13650218100.0 0.769074179 -0.6356951224
13700217800.0 0.7579683087 -0.6477876226
13750217500.0 0.7481507781 -0.6591626442
13800217200.0 0.7369741734 -0.6713413793
13850216900.0 0.725624219 -0.6821205921
13900216600.0 0.7162414041 -0.6917315311
13950216300.0 0.7052145523 -0.7017720916
14000216000.0 0.6949383399 -0.7113658064
14050215700.0 0.6851334104 -0.7190730132
14100215400.0 0.67536372 -0.7285900893
14150215100.0 0.6663560044 -0.7368824686
14200214800.0 0.6568440901 -0.745292669
14250214500.0 0.6465463721 -0.7548885294
14300214200.0 0.6363761883 -0.7642099933
14350213900.0 0.6252329733 -0.7738469616
14400213600.0 0.613130456 -0.7834459301
14450213300.0 0.6004636319 -0.7935793192
14500213000.0 0.5865780702 -0.8034792052
14550212700.0 0.5749228203 -0.8130098129
14600212400.0 0.5618115124 -0.8218168634
14650212100.0 0.5491891254 -0.830673385
14700211800.0 0.5352349446 -0.8399516083
14750211500.0 0.5232828927 -0.848245048
14800211200.0 0.5109904781 -0.8562740993
14850210900.0 0.4986613132 -0.8637531239
14900210600.0 0.485452989 -0.8716319155
14950210300.0 0.4718667494 -0.8792469938
15000210000.0 0.4591885394 -0.8862452122
15050209700.0 0.4469414396 -0.8922231654
15100209400.0 0.4342637694 -0.898089047
15150209100.0 0.4214369219 -0.903685605
15200208800.0 0.4091237618 -0.90894531
15250208500.0 0.3974993636 -0.9135214194
15300208200.0 0.3849075023 -0.9177719691
15350207900.0 0.3724579548 -0.9234820083
15400207600.0 0.3577869455 -0.928976355
15450207300.0 0.3430849004 -0.933517089
15500207000.0 0.3290385259 -0.9379519038
15550206700.0 0.3139611942 -0.942817626
15600206400.0 0.2979206311 -0.9472854179
15650206100.0 0.2823845531 -0.9514172347
15700205800.0 0.2677056002 -0.9558072821
15750205500.0 0.2536473555 -0.9587724752
15800205200.0 0.2390890022 -0.962350813
15850204900.0 0.2245857307 -0.9657948854
15900204600.0 0.2096636906 -0.9693513681
15950204300.0 0.1953132156 -0.9724825
16000204000.0 0.181511653 -0.9751514069
16050203700.0 0.1664734265 -0.9778910867
16100203400.0 0.151959346 -0.9802975293
16150203100.0 0.137517597 -0.982372289
16200202800.0 0.1236242161 -0.9842801062
16250202500.0 0.1088816131 -0.9860213482
16300202200.0 0.0933876613 -0.9876909663
16350201900.0 0.0786025017 -0.9893211603
16400201600.0 0.0638785677 -0.9902276574
16450201300.0 0.0484601717 -0.9913711158
16500201000.0 0.0319533116 -0.992004813
16550200700.0 0.0163483002 -0.992519426
16600200400.0 0.0007085996 -0.9930128544
16650200100.0 -0.0153646419 -0.9928321712
16700199800.0 -0.0323227201 -0.9924728462
16750199500.0 -0.0503679254 -0.9916217059
16800199200.0 -0.0661546994 -0.9906925199
16850198900.0 -0.0822909801 -0.989213863
16900198600.0 -0.0953133146 -0.9881702767
16950198300.0 -0.1093969117 -0.9876094318
17000198000.0 -0.1213259715 -0.9857650159
17050197700.0 -0.1345521756 -0.9837017217
17100197400.0 -0.1473788087 -0.9822736365
17150197100.0 -0.1599068063 -0.9801357945
17200196800.0 -0.17225201 -0.9782581313
17250196500.0 -0.185242557 -0.9758079488
17300196200.0 -0.1976326309 -0.9733176522
17350195900.0 -0.20932605 -0.9712467098
17400195600.0 -0.2216074778 -0.9686913236
17450195300.0 -0.2348927052 -0.9657472569
17500195000.0 -0.2484133575 -0.9625558944
17550194700.0 -0.2620705625 -0.9587514232
17600194400.0 -0.276281008 -0.9551129068
17650194100.0 -0.2900687422 -0.9507396951
17700193800.0 -0.3025214317 -0.9468344192
17750193500.0 -0.3171585692 -0.9417850911
17800193200.0 -0.3314212877 -0.9368037941
17850192900.0 -0.3467545729 -0.9313003414
17900192600.0 -0.3620041815 -0.9251681012
17950192300.0 -0.3773215548 -0.9183818578
18000192000.0 -0.3919520216 -0.9109199967
18050191700.0 -0.4060440567 -0.9029946271
18100191400.0 -0.4201799632 -0.8953572053
18150191100.0 -0.435155776 -0.8873351637
18200190800.0 -0.4522008482 -0.8779982004
18250190500.0 -0.4691504085 -0.8685426941
18300190200.0 -0.4844367191 -0.8599276979
18350189900.0 -0.49959142 -0.8514615018
18400189600.0 -0.5139567819 -0.8432273582
18450189300.0 -0.5271705185 -0.8352338199
18500189000.0 -0.5404307183 -0.8271990105
18550188700.0 -0.5535437764 -0.8194739213
18600188400.0 -0.5649445478 -0.812926592
18650188100.0 -0.5761019758 -0.8064473587
18700187800.0 -0.5867168271 -0.7999450136
18750187500.0 -0.5975033073 -0.7934989934
18800187200.0 -0.6080292939 -0.7864732004
18850186900.0 -0.6182199098 -0.7795454827
18900186600.0 -0.6283157392 -0.7721970378
18950186300.0 -0.6384033793 -0.7644935845
19000186000.0 -0.645869153 -0.7581596612
19050185700.0 -0.6550423272 -0.7514403114
19100185400.0 -0.665067473 -0.7428084091
19150185100.0 -0.6750318994 -0.7341342777
19200184800.0 -0.6845711642 -0.7260425144
19250184500.0 -0.6945111735 -0.7174297709
19300184200.0 -0.706350066 -0.7074114065
19350183900.0 -0.7168773399 -0.6975559572
19400183600.0 -0.7264243461 -0.6869145722
19450183300.0 -0.7354669398 -0.6775606464
19500183000.0 -0.744130381 -0.667510838
19550182700.0 -0.7538162189 -0.6565664025
19600182400.0 -0.7640134649 -0.6448628518
19650182100.0 -0.7749344303 -0.6325845058
19700181800.0 -0.7856770527 -0.6193658647
19750181500.0 -0.7962571394 -0.605156863
19800181200.0 -0.8064167694 -0.59019678
19850180900.0 -0.8162659159 -0.5748284009
19900180600.0 -0.8240766953 -0.5600491989
19950180300.0 -0.8329391043 -0.5437840401
20000180000.0 -0.8268693828 -0.5458120997
20050179700.0 -0.8342774837 -0.5339756932
20100179400.0 -0.8426242562 -0.5186199214
20150179100.0 -0.8505722459 -0.5064812553
20200178800.0 -0.8597363979 -0.4942067981
20250178500.0 -0.8691402278 -0.4806706613
20300178200.0 -0.8785505188 -0.466039722
20350177900.0 -0.8879794008 -0.4512396699
20400177600.0 -0.8969249576 -0.436872334
20450177300.0 -0.9053407647 -0.4226898781
20500177000.0 -0.9130432707 -0.4087448423
20550176700.0 -0.9211323966 -0.3951296241
20600176400.0 -0.9281185656 -0.3821097623
20650176100.0 -0.9348621073 -0.3698476125
20700175800.0 -0.9413523075 -0.3576670318
20750175500.0 -0.9479521785 -0.3461313504
20800175200.0 -0.9534135317 -0.3360924171
20850174900.0 -0.9579441553 -0.3244103965
20900174600.0 -0.9621485233 -0.3124939146
20950174300.0 -0.9651203965 -0.3010626324
21000174000.0 -0.9698112919 -0.289848319
21050173700.0 -0.9728295175 -0.2783921132
21100173400.0 -0.9765433157 -0.2672111532
21150173100.0 -0.9802012038 -0.254797231
21200172800.0 -0.9840706552 -0.2404444463
21250172500.0 -0.9868132386 -0.2272285876
21300172200.0 -0.989768286 -0.2132209229
21350171900.0 -0.9916473483 -0.1989357562
21400171600.0 -0.9924663116 -0.1848703472
21450171300.0 -0.9936742043 -0.1694311989
21500171000.0 -0.9924356883 -0.1548038004
21550170700.0 -0.9921014721 -0.1397648938
21600170400.0 -0.9920516252 -0.1237840008
21650170100.0 -0.9914943356 -0.1068740818
21700169800.0 -0.990267379 -0.0922796268
21750169500.0 -0.9884370481 -0.0765771443
21800169200.0 -0.9886040984 -0.059595353
21850168900.0 -0.9874428064 -0.0423034999
21900168600.0 -0.985395868 -0.0262642065
21950168300.0 -0.9842190467 -0.0110107523
22000168000.0 -0.9833349286 0.0043612039
22050167700.0 -0.9829481299 0.0184478303
22100167400.0 -0.9832405112 0.0335247571
22150167100.0 -0.9837610206 0.0488495975
22200166800.0 -0.9845403856 0.0652504514
22250166500.0 -0.9834454155 0.0826838174
22300166200.0 -0.9828564468 0.0989056702
22350165900.0 -0.9814164049 0.1156696193
22400165600.0 -0.9801122719 0.1308528778
22450165300.0 -0.9781875212 0.1462348568
22500165000.0 -0.976851238 0.1593984293
22550164700.0 -0.9750062045 0.1744746625
22600164400.0 -0.9731145392 0.1907335489
22650164100.0 -0.9711672171 0.2051612803
22700163800.0 -0.9681256175 0.2213747912
22750163500.0 -0.9656196889 0.2366888993
22800163200.0 -0.9632764799 0.2499190785
22850162900.0 -0.9610245359 0.2629553147
22900162600.0 -0.9596068716 0.2761615566
22950162300.0 -0.9583549606 0.2892248274
23000162000.0 -0.9573414943 0.3009157024
23050161700.0 -0.9550080789 0.3135227924
23100161400.0 -0.9530179464 0.3265645078
23150161100.0 -0.9500473357 0.3386645049
23200160800.0 -0.9478898282 0.3504607481
23250160500.0 -0.9454054845 0.3621060961
23300160200.0 -0.9416620685 0.3745423277
23350159900.0 -0.9382467951 0.3874322765
23400159600.0 -0.9339608342 0.4010968981
23450159300.0 -0.9290407494 0.4140176502
23500159000.0 -0.9237987932 0.4274282618
23550158700.0 -0.9198907768 0.4409526531
23600158400.0 -0.9143308455 0.4538609171
23650158100.0 -0.9079790478 0.4678388402
23700157800.0 -0.9005076613 0.481696165
23750157500.0 -0.8916641421 0.4959313851
23800157200.0 -0.8831523551 0.5092446071
23850156900.0 -0.874126365 0.5215907349
23900156600.0 -0.8648242534 0.5343941729
23950156300.0 -0.855532764 0.5466744755
24000156000.0 -0.8468648389 0.5589452527
24050155700.0 -0.8363362522 0.5709420729
24100155400.0 -0.8270152223 0.5824398004
24150155100.0 -0.8158684401 0.5943638725
24200154800.0 -0.8051352294 0.6046123494
24250154500.0 -0.7938738993 0.6168395442
24300154200.0 -0.7820051266 0.6286690025
24350153900.0 -0.7703036895 0.639261035
24400153600.0 -0.7584519518 0.6495321617
24450153300.0 -0.746474434 0.6593368236
24500153000.0 -0.734822765 0.6686439795
24550152700.0 -0.7239041958 0.6780982179
24600152400.0 -0.7123739323 0.6873368296
24650152100.0 -0.7007157666 0.6955593108
