!Created with skrf (http://scikit-rf.org).
# Hz S RI R 50.0 
!freq ReS11 ImS11
300000.0 -0.9758033205 -0.1193215198
50299700.0 -0.9999269103 0.0150160854
100299400.0 -0.9980746749 0.0279654802
150299100.0 -1.002644987 0.0447023251
200298800.0 -0.9996144387 0.0581837818
250298500.0 -0.9972896849 0.07163551
300298200.0 -0.9857132583 0.0874735514
350297900.0 -0.9939392257 0.0983155227
400297600.0 -0.9931523391 0.1148278102
450297300.0 -0.9909638003 0.1289665964
500297000.0 -0.9891892512 0.1432783137
550296700.0 -0.9842174039 0.1559159823
600296400.0 -1.017250996 0.1892926594
650296100.0 -0.9821306773 0.1858010685
700295800.0 -0.9792966209 0.2001082476
750295500.0 -0.9763200821 0.2140137743
800295200.0 -0.9729882971 0.2280567035
850294900.0 -0.9697844179 0.2419957468
900294600.0 -0.9657711766 0.2555841806
950294300.0 -0.9619919593 0.2691497806
1000294000.0 -0.9581428644 0.283051442
1050293700.0 -0.9537157082 0.2969841825
1100293400.0 -0.949416544 0.3113235418
1150293100.0 -0.9455449635 0.3233085863
1200292800.0 -0.940112387 0.3379726965
1250292500.0 -0.9346154032 0.3512526228
1300292200.0 -0.9289797538 0.3643582443
1350291900.0 -0.9236721051 0.3784891427
1400291600.0 -0.918020028 0.3917002901
1450291300.0 -0.912668013 0.4040673354
1500291000.0 -0.9063002509 0.4172746786
1550290700.0 -0.8996804618 0.430736753
1600290400.0 -0.8934975191 0.4435552957
1650290100.0 -0.8867154934 0.45584342
1700289800.0 -0.8799714873 0.4692670548
1750289500.0 -0.8728164002 0.4816220556
1800289200.0 -0.8656608206 0.4945751286
1850288900.0 -0.8586817677 0.505797372
1900288600.0 -0.8511111014 0.5187181733
1950288300.0 -0.8428361698 0.5313862318
2000288000.0 -0.8355302466 0.54289256
2050287700.0 -0.8272560975 0.5551455891
2100287400.0 -0.819327808 0.5665136957
2150287100.0 -0.8107503296 0.5786216469
2200286800.0 -0.803130807 0.5893491924
2250286500.0 -0.7941657869 0.6014797491
2300286200.0 -0.7853099314 0.6128477351
2350285900.0 -0.7767080778 0.6235511248
2400285600.0 -0.7680665478 0.6343458408
2450285300.0 -0.7591714174 0.6450118018
2500285000.0 -0.7490732873 0.6566712694
2550284700.0 -0.7399879944 0.6668435298
2600284400.0 -0.7311124826 0.6770031768
2650284100.0 -0.7221667811 0.6871215153
2700283800.0 -0.7118075763 0.697547365
2750283500.0 -0.7013877511 0.7083123923
2800283200.0 -0.6916517345 0.7181552782
2850282900.0 -0.6811579622 0.7279594814
2900282600.0 -0.6707177657 0.7377788547
2950282300.0 -0.6603489598 0.747145563
3000282000.0 -0.6495141294 0.7565154629
3050281700.0 -0.6385304117 0.7659101771
3100281400.0 -0.6268885605 0.7749786478
3150281100.0 -0.615629285 0.7838033454
3200280800.0 -0.604039588 0.7923164227
3250280500.0 -0.5929631612 0.8004230957
3300280200.0 -0.581601487 0.8083625841
3350279900.0 -0.5693294413 0.8164322336
3400279600.0 -0.5570866888 0.8244044882
3450279300.0 -0.5457945708 0.8314727642
3500279000.0 -0.5340878228 0.8384391271
3550278700.0 -0.5216547324 0.8454109087
3600278400.0 -0.5099622715 0.8526603686
3650278100.0 -0.4967892707 0.8601690183
3700277800.0 -0.4848779684 0.8665571097
3750277500.0 -0.4724199601 0.8732318125
3800277200.0 -0.459873641 0.8797618529
3850276900.0 -0.4478559754 0.8855139518
3900276600.0 -0.437186344 0.8911269296
3950276300.0 -0.4249525517 0.8970384696
4000276000.0 -0.4132034934 0.9031439978
4050275700.0 -0.4005916638 0.9092661327
4100275400.0 -0.3892912359 0.914814195
4150275100.0 -0.3759705887 0.9206129411
4200274800.0 -0.3629047484 0.9262131161
4250274500.0 -0.3503249573 0.9314274322
4300274200.0 -0.3368957305 0.9366371172
4350273900.0 -0.3230911301 0.9418989832
4400273600.0 -0.3081720649 0.9472369065
4450273300.0 -0.2931484844 0.9521573302
4500273000.0 -0.2800505848 0.9564440478
4550272700.0 -0.266243855 0.9606260314
4600272400.0 -0.2510682927 0.9646753482
4650272100.0 -0.2396617136 0.9679219127
4700271800.0 -0.2265978449 0.9713202015
4750271500.0 -0.2149101337 0.9741028848
4800271200.0 -0.2025739647 0.9767263297
4850270900.0 -0.1887778301 0.9794573364
4900270600.0 -0.1749814929 0.9820736199
4950270300.0 -0.1606586451 0.9846685363
5000270000.0 -0.1460531375 0.9865396
5050269700.0 -0.1326078856 0.9882090702
5100269400.0 -0.1183702752 0.9898871575
5150269100.0 -0.1048323445 0.9918739497
5200268800.0 -0.0913165278 0.9929015032
5250268500.0 -0.0783897449 0.9938061803
5300268200.0 -0.0646673171 0.9946798176
5350267900.0 -0.0520772873 0.9951543179
5400267600.0 -0.0358309965 0.9962763714
5450267300.0 -0.0225086727 0.9966812426
5500267000.0 -0.0073228075 0.9971033387
5550266700.0 0.0073875169 0.9972507225
5600266400.0 0.0234901608 0.997102639
5650266100.0 0.0399880495 0.9966133034
5700265800.0 0.0542703476 0.9960690465
5750265500.0 0.0690037418 0.9953532376
5800265200.0 0.0825566554 0.9940230976
5850264900.0 0.0960344241 0.992999338
5900264600.0 0.1123104029 0.9911537771
5950264300.0 0.1243281869 0.9899542311
6000264000.0 0.1375405796 0.9879262588
6050263700.0 0.1500096558 0.9864486772
6100263400.0 0.1620439406 0.9852244079
6150263100.0 0.1765448362 0.9826477632
6200262800.0 0.186383655 0.9810542994
6250262500.0 0.1988464385 0.9787771137
6300262200.0 0.2112756868 0.9759952513
6350261900.0 0.2242663365 0.9732336733
6400261600.0 0.2380657109 0.9700965229
6450261300.0 0.2490884539 0.9673559276
6500261000.0 0.2627039135 0.9640005426
6550260700.0 0.2756278542 0.9597923095
6600260400.0 0.2888158727 0.9558364003
6650260100.0 0.3031404827 0.951642615
6700259800.0 0.3151480531 0.9472025263
6750259500.0 0.3286911724 0.9421923578
6800259200.0 0.3425568105 0.9371795379
6850258900.0 0.3547261826 0.9319618744
6900258600.0 0.3672682205 0.9269602589
6950258300.0 0.3795080071 0.921493406
7000258000.0 0.3914758385 0.9162164929
7050257700.0 0.4034222384 0.9103535166
7100257400.0 0.4168328021 0.9038879709
7150257100.0 0.427395043 0.898711315
7200256800.0 0.4403232637 0.8922000888
7250256500.0 0.4528324411 0.8856717798
7300256200.0 0.4660936935 0.8790288879
7350255900.0 0.478682064 0.8718470033
7400255600.0 0.4925940089 0.8642995718
7450255300.0 0.5076743504 0.8552986249
7500255000.0 0.5203436586 0.8479628142
7550254700.0 0.5338669632 0.8387518618
7600254400.0 0.5469124505 0.8307445833
7650254100.0 0.5585966846 0.8227093043
7700253800.0 0.5701778759 0.8147256039
7750253500.0 0.580945889 0.8072016333
7800253200.0 0.5916543602 0.7992574786
7850252900.0 0.6014704544 0.7921309124
7900252600.0 0.6129701576 0.7833070649
7950252300.0 0.6216018017 0.7770465892
8000252000.0 0.6316878967 0.7692421239
8050251700.0 0.6417724683 0.7612565442
8100251400.0 0.6517698576 0.7532363091
8150251100.0 0.6620931963 0.7446630865
8200250800.0 0.6714729934 0.7363609279
8250250500.0 0.6801873179 0.7285050217
8300250200.0 0.6892015252 0.7201541297
8350249900.0 0.6986256846 0.7112999752
8400249600.0 0.706777516 0.7033982035
8450249300.0 0.7157378092 0.6943964227
8500249000.0 0.723970221 0.6856892679
8550248700.0 0.7324785729 0.6767664965
8600248400.0 0.7407738305 0.6671132002
8650248100.0 0.7485852417 0.657614716
8700247800.0 0.757796484 0.646680509
8750247500.0 0.7659973472 0.6366309829
8800247200.0 0.7741298545 0.6263092778
8850246900.0 0.7832544813 0.6148265363
8900246600.0 0.7915115924 0.6035358436
8950246300.0 0.8007697104 0.5907910645
9000246000.0 0.8095676385 0.5785597323
9050245700.0 0.8181971906 0.5660259199
9100245400.0 0.8264794056 0.5539449618
9150245100.0 0.8350818218 0.5409470173
9200244800.0 0.8449244572 0.5264851212
9250244500.0 0.8538666331 0.5116186453
9300244200.0 0.8619404796 0.497966365
9350243900.0 0.8695507213 0.4845496416
9400243600.0 0.8762720638 0.4726688364
9450243300.0 0.8820137079 0.4620635397
9500243000.0 0.8882643516 0.4501153146
9550242700.0 0.8922065815 0.442625682
9600242400.0 0.8965582039 0.434810437
9650242100.0 0.9004706282 0.428033659
9700241800.0 0.9054120987 0.4196330522
9750241500.0 0.9094193568 0.4121051214
9800241200.0 0.9147957166 0.4023465151
9850240900.0 0.9202580751 0.390684973
9900240600.0 0.926257529 0.3792156029
9950240300.0 0.9330575819 0.3623213979
10000240000.0 0.9377868075 0.3503593733
10050239700.0 0.9439992474 0.3343947608
10100239400.0 0.9496560682 0.3182880382
10150239100.0 0.9539206737 0.3031601678
10200238800.0 0.9581836968 0.2876234325
10250238500.0 0.9614552663 0.2743079236
10300238200.0 0.9648081025 0.2603120466
10350237900.0 0.9672360897 0.247202024
10400237600.0 0.9700099578 0.2333894769
10450237300.0 0.9724670683 0.2200178731
10500237000.0 0.9749540981 0.2077315803
10550236700.0 0.9773434419 0.1934935507
10600236400.0 0.9792635233 0.1796473776
10650236100.0 0.9813642107 0.1648748761
10700235800.0 0.983535789 0.1525691504
10750235500.0 0.9855553132 0.1393406679
10800235200.0 0.9876480085 0.1247755376
10850234900.0 0.9897622444 0.1098126286
10900234600.0 0.9918733607 0.0950772939
10950234300.0 0.9938224447 0.0815738053
11000234000.0 0.9955292686 0.0661890825
11050233700.0 0.9971552983 0.0493921535
11100233400.0 0.998748713 0.0317636642
11150233100.0 1.000044654 0.0153748926
11200232800.0 1.000289987 -0.0003185154
11250232500.0 1.002188847 -0.0181411054
11300232200.0 1.002093229 -0.0357626929
11350231900.0 1.001952441 -0.052483946
11400231600.0 1.001977269 -0.0683790658
11450231300.0 1.000704017 -0.0835959748
11500231000.0 0.9998837459 -0.0994431117
11550230700.0 0.9982421833 -0.1128253718
11600230400.0 0.9972242285 -0.1255878165
11650230100.0 0.9949061561 -0.1373299436
11700229800.0 0.9925990273 -0.1521541463
11750229500.0 0.9904799119 -0.1664827327
11800229200.0 0.9875846788 -0.1800468173
11850228900.0 0.9839250141 -0.191856731
11900228600.0 0.9803388721 -0.2013365717
11950228300.0 0.9765705048 -0.2118588521
12000228000.0 0.9740886936 -0.2197179134
12050227700.0 0.9704950548 -0.2339028599
12100227400.0 0.9675322732 -0.2437722547
12150227100.0 0.9624590217 -0.2611129123
12200226800.0 0.9585298096 -0.2715618398
12250226500.0 0.9546571731 -0.2844807365
12300226200.0 0.9504481049 -0.2968797654
12350225900.0 0.9455301467 -0.3109109743
12400225600.0 0.9408437665 -0.3227519205
12450225300.0 0.9362179079 -0.3364411218
12500225000.0 0.9311440455 -0.3509550126
12550224700.0 0.9254321044 -0.3644751182
12600224400.0 0.9206345613 -0.37706987
12650224100.0 0.9148216581 -0.3915396043
12700223800.0 0.9093239679 -0.4044173372
12750223500.0 0.9040128437 -0.4175272483
12800223200.0 0.8986319843 -0.4300934246
12850222900.0 0.8934293765 -0.4421058939
12900222600.0 0.8874871688 -0.4542032088
12950222300.0 0.8815644402 -0.4672071827
13000222000.0 0.8757141268 -0.4785875923
13050221700.0 0.8688961248 -0.4914593662
13100221400.0 0.8624679221 -0.5031095605
13150221100.0 0.8552803422 -0.5155078302
13200220800.0 0.8483637403 -0.5273063017
13250220500.0 0.8410261535 -0.53923873
13300220200.0 0.8335853045 -0.5504132245
13350219900.0 0.8254366034 -0.5621156561
13400219600.0 0.8172207683 -0.5740404118
13450219300.0 0.8081256871 -0.5869297432
13500219000.0 0.7980952539 -0.60072509
13550218700.0 0.7880879088 -0.6130075668
13600218400.0 0.7784597675 -0.6245004123
13650218100.0 0.7683233946 -0.635635427
13700217800.0 0.7584822509 -0.6475078296
13750217500.0 0.7483596267 -0.6584288767
13800217200.0 0.7375579171 -0.6699892562
13850216900.0 0.7263528578 -0.681350988
13900216600.0 0.7166751371 -0.6896261025
13950216300.0 0.7055568967 -0.7000090447
14000216000.0 0.6961023822 -0.709631911
14050215700.0 0.6863737007 -0.7170793589
14100215400.0 0.6768280927 -0.7261870311
14150215100.0 0.6678944499 -0.7347528764
14200214800.0 0.6583001851 -0.743928084
14250214500.0 0.6478500044 -0.7534270624
14300214200.0 0.6373561946 -0.7628212194
14350213900.0 0.6262567036 -0.7724316599
14400213600.0 0.6147533189 -0.7822283595
14450213300.0 0.6019187005 -0.7925095251
14500213000.0 0.5883246918 -0.802088588
14550212700.0 0.5760123232 -0.8120849785
14600212400.0 0.5635142002 -0.8202426541
14650212100.0 0.5506515825 -0.8295720712
14700211800.0 0.536987134 -0.8389678732
14750211500.0 0.5253317311 -0.8472317403
14800211200.0 0.5125006711 -0.855396172
14850210900.0 0.5003303437 -0.8631916293
14900210600.0 0.4870986964 -0.8708129864
14950210300.0 0.4738234428 -0.8786146223
15000210000.0 0.4611487857 -0.8850768532
15050209700.0 0.4489823971 -0.8913791538
15100209400.0 0.4361512513 -0.897272154
15150209100.0 0.4243152421 -0.9030087284
15200208800.0 0.4102788576 -0.9076794536
15250208500.0 0.3999660211 -0.9118879549
15300208200.0 0.387909484 -0.916873961
15350207900.0 0.3742752925 -0.922298102
15400207600.0 0.3595391769 -0.9279020554
15450207300.0 0.3452916175 -0.9324290047
15500207000.0 0.3301559172 -0.936903584
15550206700.0 0.3157360827 -0.9420008212
15600206400.0 0.3002532752 -0.9464601768
15650206100.0 0.2843499357 -0.9507209768
15700205800.0 0.2705024674 -0.9546422251
15750205500.0 0.2565870364 -0.9577696585
15800205200.0 0.2424215211 -0.9612249867
15850204900.0 0.2280867419 -0.9647215184
15900204600.0 0.2129871716 -0.9685237106
15950204300.0 0.1987180215 -0.9715181031
16000204000.0 0.1843596282 -0.9746635463
16050203700.0 0.1690942823 -0.9775578503
16100203400.0 0.1549112445 -0.9800193313
16150203100.0 0.1402771757 -0.9824105023
16200202800.0 0.1252507617 -0.984104967
16250202500.0 0.1112091505 -0.9857453397
16300202200.0 0.0953600707 -0.987380067
16350201900.0 0.0802461446 -0.9889741649
16400201600.0 0.0654221267 -0.990258591
16450201300.0 0.0499514305 -0.9912701742
16500201000.0 0.0330486803 -0.9920947146
16550200700.0 0.0170571548 -0.9925299062
16600200400.0 0.001297934 -0.9927952295
16650200100.0 -0.0147081525 -0.992649586
16700199800.0 -0.0314746058 -0.9924480446
16750199500.0 -0.0499526131 -0.9915349697
16800199200.0 -0.0662282446 -0.9905190471
16850198900.0 -0.081147729 -0.9893177647
16900198600.0 -0.0953620828 -0.9894971725
16950198300.0 -0.109295743 -0.9876280843
17000198000.0 -0.1221018188 -0.98678351
17050197700.0 -0.1349717921 -0.9845644955
17100197400.0 -0.1481698135 -0.9820005846
17150197100.0 -0.160333559 -0.9800500533
17200196800.0 -0.17302732 -0.9780411165
17250196500.0 -0.186187918 -0.9755503444
17300196200.0 -0.1981938773 -0.9734853875
17350195900.0 -0.2101204066 -0.970756636
17400195600.0 -0.2223882702 -0.9684161955
17450195300.0 -0.2352983454 -0.9655750911
17500195000.0 -0.2483014622 -0.9622865223
17550194700.0 -0.2622317475 -0.9590937416
17600194400.0 -0.2761107302 -0.9547418089
17650194100.0 -0.2897598944 -0.9508426815
17700193800.0 -0.3028989263 -0.9464300843
17750193500.0 -0.3170337138 -0.9419164956
17800193200.0 -0.3310593151 -0.936622564
17850192900.0 -0.3459669216 -0.9319167507
17900192600.0 -0.3610483877 -0.9256120488
17950192300.0 -0.3767344347 -0.9183682063
18000192000.0 -0.3913159974 -0.9109948825
18050191700.0 -0.4053470295 -0.9030671265
18100191400.0 -0.4193908818 -0.8955337568
18150191100.0 -0.4342961328 -0.8874780237
18200190800.0 -0.4511514655 -0.878318136
18250190500.0 -0.4684146782 -0.8690401448
18300190200.0 -0.483535935 -0.8603351507
18350189900.0 -0.4988423199 -0.8515372515
18400189600.0 -0.5128850123 -0.8439277359
18450189300.0 -0.5268469774 -0.8354210756
18500189000.0 -0.5401045686 -0.8275798473
18550188700.0 -0.55279635 -0.8197547061
18600188400.0 -0.5644835776 -0.8129962648
18650188100.0 -0.57593201 -0.8064096273
18700187800.0 -0.5870300876 -0.7998718564
18750187500.0 -0.5977797181 -0.7930066932
18800187200.0 -0.6085121536 -0.786162959
18850186900.0 -0.6184232468 -0.7792085323
18900186600.0 -0.6287654539 -0.7718087153
18950186300.0 -0.6390145338 -0.764134372
19000186000.0 -0.6466045929 -0.7578206317
19050185700.0 -0.6557765666 -0.7507187426
19100185400.0 -0.6657933373 -0.7424283554
19150185100.0 -0.675906053 -0.7334214255
19200184800.0 -0.6849172082 -0.7257161173
19250184500.0 -0.6956362489 -0.7167292842
19300184200.0 -0.7066593364 -0.7070670324
19350183900.0 -0.7178353676 -0.6974297342
19400183600.0 -0.7273742316 -0.6874277818
19450183300.0 -0.7359437087 -0.6772508002
19500183000.0 -0.744368298 -0.6672772289
19550182700.0 -0.7542503696 -0.6564982946
19600182400.0 -0.7648431918 -0.644815675
19650182100.0 -0.7753847046 -0.6323945169
19700181800.0 -0.7858668328 -0.6192884062
19750181500.0 -0.7961883561 -0.6053020447
19800181200.0 -0.8064233787 -0.5902424537
19850180900.0 -0.8159401595 -0.5748926084
19900180600.0 -0.8237580517 -0.5605293024
19950180300.0 -0.8329281389 -0.544257355
20000180000.0 -0.8232075028 -0.5473202687
20050179700.0 -0.8319887184 -0.5347547945
20100179400.0 -0.8405852214 -0.5210670389
20150179100.0 -0.8478227523 -0.5095765214
20200178800.0 -0.8567601806 -0.4969370175
20250178500.0 -0.8659873175 -0.4851916837
20300178200.0 -0.8762519322 -0.4706757137
20350177900.0 -0.8851432416 -0.4574213564
20400177600.0 -0.8939681978 -0.4426720928
20450177300.0 -0.9026165304 -0.428133641
20500177000.0 -0.9103844235 -0.4144855661
20550176700.0 -0.9183353225 -0.4009336147
20600176400.0 -0.9253303215 -0.3875927429
20650176100.0 -0.93193051 -0.3756912197
20700175800.0 -0.938173321 -0.3639045617
20750175500.0 -0.9452455831 -0.3528766441
20800175200.0 -0.9489335627 -0.3416665794
20850174900.0 -0.9543732071 -0.3300907556
20900174600.0 -0.9586935335 -0.3199408581
20950174300.0 -0.9623293854 -0.3081312716
21000174000.0 -0.9650523828 -0.296681277
21050173700.0 -0.966973518 -0.2874399901
21100173400.0 -0.9709027579 -0.2769931444
21150173100.0 -0.9744901904 -0.2646083996
21200172800.0 -0.9784037078 -0.2515972325
21250172500.0 -0.9818440819 -0.2376780053
21300172200.0 -0.9852197836 -0.2236175497
21350171900.0 -0.9872293164 -0.2087671907
21400171600.0 -0.988857924 -0.1952296012
21450171300.0 -0.9891912824 -0.1805618479
21500171000.0 -0.9902046442 -0.1661036085
21550170700.0 -0.9903211334 -0.1505264641
21600170400.0 -0.991925326 -0.1353868011
21650170100.0 -0.9910392455 -0.119211157
21700169800.0 -0.9901908756 -0.1048667889
21750169500.0 -0.9894854601 -0.0880575032
21800169200.0 -0.9897292695 -0.0709272458
21850168900.0 -0.9897377926 -0.054377321
21900168600.0 -0.9890348547 -0.0386653891
21950168300.0 -0.9885556023 -0.0224067674
22000168000.0 -0.987866237 -0.0079460384
22050167700.0 -0.9884633229 0.0067029197
22100167400.0 -0.9889502714 0.0223461446
22150167100.0 -0.9897691957 0.0382992722
22200166800.0 -0.9902324478 0.0547234868
22250166500.0 -0.9899735039 0.0719948885
22300166200.0 -0.9883815457 0.0884381834
22350165900.0 -0.988023608 0.10530647
22400165600.0 -0.9856908395 0.1203834317
22450165300.0 -0.9841001925 0.1357149424
22500165000.0 -0.982941959 0.1490636056
22550164700.0 -0.9812949614 0.1656446083
22600164400.0 -0.9793484313 0.1816789292
22650164100.0 -0.9771610721 0.1970147852
22700163800.0 -0.9735817036 0.2128623304
22750163500.0 -0.9707375504 0.2283252248
22800163200.0 -0.9678788576 0.2411866548
22850162900.0 -0.9657002286 0.254202425
22900162600.0 -0.9637276075 0.2683332271
22950162300.0 -0.9621294769 0.2817554201
23000162000.0 -0.9603767368 0.293775258
23050161700.0 -0.9578288561 0.3068495788
23100161400.0 -0.9559656917 0.3206812861
23150161100.0 -0.952587025 0.3333051013
23200160800.0 -0.9491512387 0.3464852223
23250160500.0 -0.9464933687 0.3582077848
23300160200.0 -0.9432502323 0.3697929489
23350159900.0 -0.9399071206 0.3848022853
23400159600.0 -0.9349776307 0.3979541332
23450159300.0 -0.9299509085 0.41182572
23500159000.0 -0.9249540705 0.4251989461
23550158700.0 -0.9202460315 0.439694636
23600158400.0 -0.9137953515 0.4532563719
23650158100.0 -0.9074007356 0.4678354932
23700157800.0 -0.8991378093 0.4817832379
23750157500.0 -0.8897571441 0.4963446014
23800157200.0 -0.8807496873 0.5096532906
23850156900.0 -0.8709883637 0.5222737857
23900156600.0 -0.861373742 0.5359366328
23950156300.0 -0.8516207916 0.5476976737
24000156000.0 -0.8423666669 0.5591773962
24050155700.0 -0.8316964149 0.5722434047
24100155400.0 -0.822089798 0.584631246
24150155100.0 -0.810724918 0.5966827511
24200154800.0 -0.7999240145 0.6071559083
24250154500.0 -0.7884437845 0.6204252691
24300154200.0 -0.7770316962 0.632092746
24350153900.0 -0.7649135049 0.6432756067
24400153600.0 -0.7530525796 0.6534289558
24450153300.0 -0.7407436889 0.6640218413
24500153000.0 -0.7292150547 0.6739270015
24550152700.0 -0.7180461048 0.6840040358
24600152400.0 -0.7064723347 0.6933919693
24650152100.0 -0.6938611608 0.7026045008
