!Created with skrf (http://scikit-rf.org).
# Hz S RI R 50.0 
!freq ReS11 ImS11
300000.0 -0.978787877 -0.108599869
50299700.0 -1.000106612 0.0160236634
100299400.0 -0.9979899296 0.0288101213
150299100.0 -1.002857679 0.0458547968
200298800.0 -0.9996053823 0.059200586
250298500.0 -0.9976211692 0.0726945546
300298200.0 -0.9861978572 0.0884863686
350297900.0 -0.9942455522 0.0993600939
400297600.0 -0.9933228154 0.1159718607
450297300.0 -0.9911852041 0.1296280748
500297000.0 -0.9895053702 0.1444386916
550296700.0 -0.9845384649 0.1570238644
600296400.0 -1.017376834 0.1904846561
650296100.0 -0.9819612643 0.1870874196
700295800.0 -0.9792946009 0.2012908268
750295500.0 -0.9762345329 0.2154225459
800295200.0 -0.9726637038 0.2293952039
850294900.0 -0.9693387502 0.2432329328
900294600.0 -0.9656473875 0.2568255948
950294300.0 -0.9619964058 0.2705830875
1000294000.0 -0.9579342927 0.2846830303
1050293700.0 -0.9534039767 0.2983482058
1100293400.0 -0.9489524531 0.3128677522
1150293100.0 -0.9453372036 0.3247093073
1200292800.0 -0.940017685 0.3390871003
1250292500.0 -0.9345407147 0.3524859689
1300292200.0 -0.9286957908 0.3655749062
1350291900.0 -0.9232690673 0.3796873851
1400291600.0 -0.9176603149 0.3927264388
1450291300.0 -0.9122160281 0.4051766258
1500291000.0 -0.9059006321 0.4185361706
1550290700.0 -0.8994723676 0.4318291889
1600290400.0 -0.8931012073 0.4446916834
1650290100.0 -0.8865481005 0.4569072999
1700289800.0 -0.8796608695 0.4702173785
1750289500.0 -0.8726151635 0.4824778635
1800289200.0 -0.8650980784 0.49538252
1850288900.0 -0.8583929746 0.5067898218
1900288600.0 -0.8506658341 0.5196432391
1950288300.0 -0.8426479913 0.5322273041
2000288000.0 -0.8350129735 0.5436405323
2050287700.0 -0.8267926823 0.5559454026
2100287400.0 -0.8188501363 0.5678812597
2150287100.0 -0.8102689836 0.5798328082
2200286800.0 -0.8023730741 0.5900607512
2250286500.0 -0.7936697897 0.6021386079
2300286200.0 -0.7846508943 0.6137907093
2350285900.0 -0.7760401873 0.6248468025
2400285600.0 -0.7669211633 0.6358991907
2450285300.0 -0.7584044903 0.6460693876
2500285000.0 -0.7485630059 0.6574816141
2550284700.0 -0.739627515 0.667723918
2600284400.0 -0.7303873967 0.6779612073
2650284100.0 -0.7211270313 0.688463087
2700283800.0 -0.7105459378 0.6990493992
2750283500.0 -0.7002556437 0.7096726832
2800283200.0 -0.6903445143 0.7191521905
2850282900.0 -0.6801579268 0.7289895763
2900282600.0 -0.669911824 0.7386205709
2950282300.0 -0.6595247619 0.7479476893
3000282000.0 -0.6491804341 0.7573831023
3050281700.0 -0.637949413 0.7666658082
3100281400.0 -0.6259715908 0.7761080062
3150281100.0 -0.6141841555 0.7853204848
3200280800.0 -0.6025906565 0.7938502463
3250280500.0 -0.5917937117 0.8014425047
3300280200.0 -0.5805544802 0.809339369
3350279900.0 -0.5691630047 0.8169575105
3400279600.0 -0.5570997782 0.8246441641
3450279300.0 -0.5459594233 0.8318699115
3500279000.0 -0.5338744404 0.8388690059
3550278700.0 -0.5213133846 0.8462007825
3600278400.0 -0.5091440736 0.8531463838
3650278100.0 -0.4958762204 0.8610919097
3700277800.0 -0.4838283499 0.867274453
3750277500.0 -0.4715886958 0.8739762736
3800277200.0 -0.4590055665 0.8803983827
3850276900.0 -0.446708009 0.8863006374
3900276600.0 -0.4359527478 0.8920177093
3950276300.0 -0.4234179005 0.8981079975
4000276000.0 -0.411560533 0.9039427822
4050275700.0 -0.3984904655 0.9100694252
4100275400.0 -0.3872513069 0.9154232416
4150275100.0 -0.3744533864 0.9209768435
4200274800.0 -0.3614148798 0.9267089677
4250274500.0 -0.349448942 0.9318420548
4300274200.0 -0.3363832111 0.9370848995
4350273900.0 -0.322402813 0.9422137101
4400273600.0 -0.3074549083 0.9475943223
4450273300.0 -0.2921970639 0.9526907149
4500273000.0 -0.2785911953 0.9570993674
4550272700.0 -0.2644721464 0.9610773309
4600272400.0 -0.2489211462 0.9651918612
4650272100.0 -0.2371992918 0.9685240593
4700271800.0 -0.2238452133 0.9718196729
4750271500.0 -0.2121055884 0.9746843524
4800271200.0 -0.199742539 0.9774982381
4850270900.0 -0.1857406213 0.9802325169
4900270600.0 -0.1719862802 0.9826569214
4950270300.0 -0.1576820053 0.9852319376
5000270000.0 -0.1435183787 0.9874280148
5050269700.0 -0.130053629 0.9890313582
5100269400.0 -0.1165302896 0.9905168353
5150269100.0 -0.1030096154 0.9920102484
5200268800.0 -0.0900534511 0.9929892635
5250268500.0 -0.0769424912 0.9944295616
5300268200.0 -0.0636739416 0.9948553292
5350267900.0 -0.0517226903 0.9954426215
5400267600.0 -0.0356390525 0.9965717029
5450267300.0 -0.0225248872 0.9966919499
5500267000.0 -0.0073181487 0.9971254537
5550266700.0 0.007796138 0.9973614063
5600266400.0 0.0232086138 0.9973615298
5650266100.0 0.0397987666 0.9969857335
5700265800.0 0.054222661 0.9960319242
5750265500.0 0.0695221658 0.9951981831
5800265200.0 0.0833019971 0.9938486636
5850264900.0 0.0968109077 0.9935217743
5900264600.0 0.1134536128 0.9918610089
5950264300.0 0.1257400908 0.9901813631
6000264000.0 0.1393235462 0.9877907893
6050263700.0 0.1519919308 0.9861411338
6100263400.0 0.1644479198 0.9848384513
6150263100.0 0.1790571236 0.9825169099
6200262800.0 0.1896260239 0.9804893025
6250262500.0 0.2021296852 0.9778843652
6300262200.0 0.2150103183 0.975228048
6350261900.0 0.2282695405 0.9723912565
6400261600.0 0.2419948637 0.9690004563
6450261300.0 0.2533094149 0.9662622797
6500261000.0 0.2662656767 0.9626759128
6550260700.0 0.2792295866 0.9587812451
6600260400.0 0.2925573883 0.9547753772
6650260100.0 0.3063666886 0.9504390561
6700259800.0 0.3183712609 0.9458571416
6750259500.0 0.3319855125 0.9408846243
6800259200.0 0.3448694309 0.936131823
6850258900.0 0.3570462763 0.9311626458
6900258600.0 0.3691774231 0.9261723504
6950258300.0 0.3818616493 0.920739776
7000258000.0 0.3935818152 0.9153685703
7050257700.0 0.4061650259 0.9092479418
7100257400.0 0.4187370413 0.9030495968
7150257100.0 0.4293148454 0.8978197999
7200256800.0 0.441969829 0.8913830808
7250256500.0 0.4535684883 0.8851132232
7300256200.0 0.4671150137 0.878486353
7350255900.0 0.4791052536 0.8715166272
7400255600.0 0.4922966357 0.8644185241
7450255300.0 0.5076100419 0.8551997111
7500255000.0 0.5191368031 0.8482114538
7550254700.0 0.5334230918 0.8398094776
7600254400.0 0.5459012051 0.831160736
7650254100.0 0.5576566081 0.8236584529
7700253800.0 0.5691750025 0.8155000575
7750253500.0 0.5803065957 0.8076668764
7800253200.0 0.5911491801 0.799916069
7850252900.0 0.6006822672 0.7927562405
7900252600.0 0.6125853221 0.7840702815
7950252300.0 0.6214363415 0.7774761342
8000252000.0 0.631628431 0.7695585659
8050251700.0 0.6420905412 0.7613190156
8100251400.0 0.6522848776 0.7533065032
8150251100.0 0.6621076011 0.7446384627
8200250800.0 0.6716871959 0.7367861016
8250250500.0 0.6805416042 0.7286209886
8300250200.0 0.6901822231 0.719785076
8350249900.0 0.6989023523 0.7114050163
8400249600.0 0.7069643314 0.7031269703
8450249300.0 0.7164653318 0.694211492
8500249000.0 0.7249791572 0.6852049155
8550248700.0 0.7332703488 0.6761370428
8600248400.0 0.7417023519 0.6667230224
8650248100.0 0.7494951486 0.6573424525
8700247800.0 0.7589165616 0.6460624669
8750247500.0 0.7672239391 0.6360807689
8800247200.0 0.7752647786 0.6256845903
8850246900.0 0.7840019088 0.6141131965
8900246600.0 0.7925162239 0.6029720877
8950246300.0 0.8022936437 0.5898255494
9000246000.0 0.8112010016 0.5772453685
9050245700.0 0.8203127131 0.5643482812
9100245400.0 0.8291739267 0.5516825886
9150245100.0 0.8383059589 0.5381613645
9200244800.0 0.8480643516 0.5227217194
9250244500.0 0.8576536819 0.5071654269
9300244200.0 0.8661393039 0.4926041234
9350243900.0 0.8740141391 0.4785835417
9400243600.0 0.880550242 0.4661006031
9450243300.0 0.8862673139 0.4544915983
9500243000.0 0.8926800462 0.4421710818
9550242700.0 0.8964371707 0.4342196985
9600242400.0 0.9004964944 0.4269024017
9650242100.0 0.9040056137 0.4203418187
9700241800.0 0.9082269292 0.4122089088
9750241500.0 0.9124581323 0.4045387093
9800241200.0 0.9170688749 0.3951365922
9850240900.0 0.9225725573 0.3838518814
9900240600.0 0.9284330823 0.3721110643
9950240300.0 0.9347319367 0.3562200374
10000240000.0 0.9395004076 0.3444208528
10050239700.0 0.9450234943 0.3289718113
10100239400.0 0.9500492379 0.3138398857
10150239100.0 0.9543159866 0.2993080689
10200238800.0 0.9585140596 0.2841682267
10250238500.0 0.9618157143 0.2708444035
10300238200.0 0.9649886788 0.2567627347
10350237900.0 0.9676064746 0.2438000264
10400237600.0 0.9701043678 0.2307629892
10450237300.0 0.9727131954 0.217317456
10500237000.0 0.975018768 0.2051430619
10550236700.0 0.9770433466 0.1910715157
10600236400.0 0.9790150254 0.1779969703
10650236100.0 0.9814353109 0.1629487716
10700235800.0 0.98394585 0.1505780385
10750235500.0 0.9859502927 0.1376420434
10800235200.0 0.9881585181 0.1231099044
10850234900.0 0.9897089068 0.1087971166
10900234600.0 0.9916572893 0.0945236129
10950234300.0 0.9935350588 0.0811098524
11000234000.0 0.9952674398 0.0660945147
11050233700.0 0.996987452 0.0497608316
11100233400.0 0.9983622208 0.0323066441
11150233100.0 0.9995792542 0.0160220077
11200232800.0 1.000257763 0.0010776564
11250232500.0 1.001205203 -0.0158530363
11300232200.0 1.002028922 -0.0338476698
11350231900.0 1.001380871 -0.049363036
11400231600.0 1.00203701 -0.0650791505
11450231300.0 1.00014914 -0.0807373727
11500231000.0 0.9994855599 -0.0969581456
11550230700.0 0.99783291 -0.1103396056
11600230400.0 0.9968022331 -0.1235593646
11650230100.0 0.9946598158 -0.1342455476
11700229800.0 0.992601085 -0.149014989
11750229500.0 0.9900353112 -0.1638155138
11800229200.0 0.987564106 -0.1779488614
11850228900.0 0.9841620132 -0.1900645275
11900228600.0 0.9804886074 -0.2000776426
11950228300.0 0.977139929 -0.2101253366
12000228000.0 0.9743438788 -0.2194440729
12050227700.0 0.9708997879 -0.2316281599
12100227400.0 0.967963196 -0.243071274
12150227100.0 0.9628666065 -0.2599045981
12200226800.0 0.9592676279 -0.270910789
12250226500.0 0.955086089 -0.2831816376
12300226200.0 0.9512065513 -0.2956437814
12350225900.0 0.9458706182 -0.3095167997
12400225600.0 0.9420369685 -0.3213988065
12450225300.0 0.9372754266 -0.3349574168
12500225000.0 0.9320155376 -0.3500578333
12550224700.0 0.9267332929 -0.3630545764
12600224400.0 0.921766955 -0.3759204126
12650224100.0 0.9159450386 -0.3901722157
12700223800.0 0.9109187389 -0.4028263063
12750223500.0 0.9053712521 -0.4157973458
12800223200.0 0.9002428545 -0.4282465315
12850222900.0 0.8944363146 -0.4408806423
12900222600.0 0.888718461 -0.4529756125
12950222300.0 0.8825224686 -0.4653577027
13000222000.0 0.8766192305 -0.4764243235
13050221700.0 0.869796812 -0.4894637239
13100221400.0 0.8631756313 -0.5016970736
13150221100.0 0.8560362413 -0.514069794
13200220800.0 0.8492160471 -0.5254355285
13250220500.0 0.8417303536 -0.537594919
13300220200.0 0.8343849324 -0.548696343
13350219900.0 0.8263090981 -0.5606362122
13400219600.0 0.8177394532 -0.5729661116
13450219300.0 0.8087494567 -0.5863853458
13500219000.0 0.7981057341 -0.6005594787
13550218700.0 0.7878416744 -0.6132275778
13600218400.0 0.7778791272 -0.6253236787
13650218100.0 0.7678671766 -0.6366729599
13700217800.0 0.7568312529 -0.6484194733
13750217500.0 0.7462522745 -0.6603636607
13800217200.0 0.7349286433 -0.6727303289
13850216900.0 0.7236420847 -0.6833060582
13900216600.0 0.7148631424 -0.6924673831
13950216300.0 0.70377845 -0.7022662015
14000216000.0 0.694129641 -0.7120857521
14050215700.0 0.6841565395 -0.720511442
14100215400.0 0.6740854436 -0.7294582377
14150215100.0 0.6652120768 -0.7375502726
14200214800.0 0.6558191854 -0.7464147024
14250214500.0 0.6455179418 -0.7556588962
14300214200.0 0.6353071101 -0.7647942643
14350213900.0 0.6242223223 -0.7741496623
14400213600.0 0.6126135929 -0.7841217235
14450213300.0 0.599037055 -0.7942116977
14500213000.0 0.5864225963 -0.8040713843
14550212700.0 0.574126946 -0.813929914
14600212400.0 0.5616393004 -0.822110745
14650212100.0 0.5484013212 -0.8310444431
14700211800.0 0.5342405349 -0.8401416643
14750211500.0 0.5222672722 -0.8485182087
14800211200.0 0.5103947346 -0.8568378877
14850210900.0 0.4982665752 -0.8642688377
14900210600.0 0.4846681543 -0.8720970719
14950210300.0 0.4712356169 -0.8794520722
15000210000.0 0.4583535325 -0.8863669272
15050209700.0 0.4460246643 -0.8924717608
15100209400.0 0.4334502656 -0.8982491157
15150209100.0 0.421270578 -0.9039159021
15200208800.0 0.4075806513 -0.9096484297
15250208500.0 0.3960157516 -0.9142827006
15300208200.0 0.3842843668 -0.9186684164
15350207900.0 0.3705088135 -0.923076885
15400207600.0 0.3571903249 -0.9285809435
15450207300.0 0.3410055043 -0.9339068901
15500207000.0 0.327340344 -0.9379576392
15550206700.0 0.3117252846 -0.9434201019
15600206400.0 0.295743402 -0.9480403422
15650206100.0 0.2804644197 -0.9523711384
15700205800.0 0.2660788243 -0.9557183894
15750205500.0 0.251656919 -0.9592743687
15800205200.0 0.2372523024 -0.9628363215
15850204900.0 0.2228866347 -0.9661372335
15900204600.0 0.2077973054 -0.9697566264
15950204300.0 0.1937977235 -0.9727209865
16000204000.0 0.1797678278 -0.9754453656
16050203700.0 0.1651603325 -0.9781447402
16100203400.0 0.1508342245 -0.9804589977
16150203100.0 0.1365729913 -0.982874552
16200202800.0 0.1223512199 -0.9847194978
16250202500.0 0.1080270976 -0.9861245714
16300202200.0 0.0929489958 -0.9879656691
16350201900.0 0.0776287323 -0.9889622179
16400201600.0 0.0632043283 -0.9903685854
16450201300.0 0.0480846056 -0.9912463019
16500201000.0 0.0313149434 -0.9920242378
16550200700.0 0.0157885877 -0.9925398427
16600200400.0 -0.0001959735 -0.992632324
16650200100.0 -0.0163215256 -0.9927197542
16700199800.0 -0.0328114213 -0.9925053766
16750199500.0 -0.0518585946 -0.9915202745
16800199200.0 -0.0668077527 -0.990684342
16850198900.0 -0.0828163045 -0.9891630289
16900198600.0 -0.0967333372 -0.9881168703
16950198300.0 -0.110273297 -0.9872315443
17000198000.0 -0.1227016488 -0.9858761503
17050197700.0 -0.1357021242 -0.9842267034
17100197400.0 -0.1488420168 -0.9812956843
17150197100.0 -0.1611948522 -0.9794563081
17200196800.0 -0.174187595 -0.977600931
17250196500.0 -0.186964234 -0.9753720794
17300196200.0 -0.199457367 -0.9727146631
17350195900.0 -0.2112183651 -0.9705854847
17400195600.0 -0.2236088544 -0.9681823463
17450195300.0 -0.2366402685 -0.9653688862
17500195000.0 -0.2499233994 -0.9620797848
17550194700.0 -0.2639288171 -0.9580901432
17600194400.0 -0.2777977579 -0.9542501462
17650194100.0 -0.2914684738 -0.9503300225
17700193800.0 -0.3045717061 -0.9459473898
17750193500.0 -0.318703953 -0.9413750836
17800193200.0 -0.3333941394 -0.9361202825
17850192900.0 -0.3478378058 -0.9308771441
17900192600.0 -0.3631058482 -0.9245709778
17950192300.0 -0.3783963354 -0.9176386383
18000192000.0 -0.3932748841 -0.9105179227
18050191700.0 -0.4069378552 -0.902543656
18100191400.0 -0.4211114995 -0.894919767
18150191100.0 -0.436113593 -0.8867310352
18200190800.0 -0.453139258 -0.8776778683
18250190500.0 -0.4698219825 -0.8680832055
18300190200.0 -0.4849179104 -0.8591890818
18350189900.0 -0.5004818867 -0.8510955799
18400189600.0 -0.514436121 -0.8424765957
18450189300.0 -0.5280746405 -0.8345416182
18500189000.0 -0.54153362 -0.8263589411
18550188700.0 -0.5537110742 -0.8196182844
18600188400.0 -0.5658518932 -0.8121029354
18650188100.0 -0.5769331412 -0.8053547627
18700187800.0 -0.588105534 -0.7989969725
18750187500.0 -0.5983736543 -0.7923794119
18800187200.0 -0.6092846937 -0.7852588811
18850186900.0 -0.6195981951 -0.7781151175
18900186600.0 -0.6300193712 -0.770652643
18950186300.0 -0.6401534674 -0.762993254
19000186000.0 -0.647649348 -0.7565961461
19050185700.0 -0.65634766 -0.7496061653
19100185400.0 -0.6671985228 -0.740732324
19150185100.0 -0.676963699 -0.7323693125
19200184800.0 -0.6864854795 -0.7241746518
19250184500.0 -0.6964375721 -0.7145390626
19300184200.0 -0.708378101 -0.7047805438
19350183900.0 -0.7189518951 -0.6950851893
19400183600.0 -0.7286875917 -0.6858678753
19450183300.0 -0.7376900634 -0.6751018261
19500183000.0 -0.7454356501 -0.6656390415
19550182700.0 -0.7552067185 -0.6546606962
19600182400.0 -0.7654657361 -0.6427928508
19650182100.0 -0.7759192159 -0.630890681
19700181800.0 -0.7868144006 -0.6178750889
19750181500.0 -0.797158527 -0.6036852694
19800181200.0 -0.8075222907 -0.5886747597
19850180900.0 -0.8170674537 -0.5733817067
19900180600.0 -0.8248519136 -0.5588826833
19950180300.0 -0.8338180165 -0.5426523565
20000180000.0 -0.8274527519 -0.544624489
20050179700.0 -0.8353081583 -0.5325423365
20100179400.0 -0.8441964249 -0.5175627531
20150179100.0 -0.8520799024 -0.5055101949
20200178800.0 -0.8604544533 -0.4930029487
20250178500.0 -0.8692845703 -0.4796993707
20300178200.0 -0.8793942543 -0.4640770889
20350177900.0 -0.8882379849 -0.4499195374
20400177600.0 -0.8968586085 -0.4360281457
20450177300.0 -0.9055403126 -0.4214271512
20500177000.0 -0.9133125397 -0.4074423385
20550176700.0 -0.9211070254 -0.3935296983
20600176400.0 -0.9285771194 -0.3803407317
20650176100.0 -0.9349047174 -0.3684182787
20700175800.0 -0.941353318 -0.3558350761
20750175500.0 -0.9479178984 -0.3442834887
20800175200.0 -0.9526614743 -0.3331597095
20850174900.0 -0.9581988445 -0.3213377502
20900174600.0 -0.9629179358 -0.3112619494
20950174300.0 -0.9668066781 -0.299650496
21000174000.0 -0.9700016785 -0.2873486327
21050173700.0 -0.9731705625 -0.2769385743
21100173400.0 -0.9770118968 -0.2640405492
21150173100.0 -0.9811091522 -0.2512937992
21200172800.0 -0.9845464735 -0.2379116602
21250172500.0 -0.9878095437 -0.2242633342
21300172200.0 -0.9905103942 -0.2099126924
21350171900.0 -0.9921938048 -0.1958983769
21400171600.0 -0.993127214 -0.1814855575
21450171300.0 -0.9935457252 -0.1666684928
21500171000.0 -0.9929371864 -0.1508988269
21550170700.0 -0.9933763537 -0.1365132969
21600170400.0 -0.9937035819 -0.1206688836
21650170100.0 -0.9916136783 -0.1051914869
21700169800.0 -0.9903615289 -0.0892944908
21750169500.0 -0.9883153526 -0.0727344585
21800169200.0 -0.9885132481 -0.0569642068
21850168900.0 -0.9869410486 -0.0408093488
21900168600.0 -0.985887458 -0.0248063543
21950168300.0 -0.9843318608 -0.0089300701
22000168000.0 -0.9829469039 0.0059650931
22050167700.0 -0.9825949707 0.0203572787
22100167400.0 -0.9823747102 0.0349076056
22150167100.0 -0.9831013466 0.0507717082
22200166800.0 -0.9835876413 0.0667610168
22250166500.0 -0.9831338489 0.0838608715
22300166200.0 -0.9818238305 0.1007184301
22350165900.0 -0.9813029036 0.116374696
22400165600.0 -0.9785570026 0.1318722383
22450165300.0 -0.9771582199 0.1476335679
22500165000.0 -0.9758363779 0.1602501929
22550164700.0 -0.9738579288 0.1762366736
22600164400.0 -0.9724230078 0.1924199534
22650164100.0 -0.9705300152 0.206651483
22700163800.0 -0.9671712272 0.2227260731
22750163500.0 -0.9652994484 0.2383082254
22800163200.0 -0.9623046793 0.2512482715
22850162900.0 -0.9599250501 0.2647501031
22900162600.0 -0.9585770305 0.2778562484
22950162300.0 -0.9573535227 0.2906916344
23000162000.0 -0.9560849313 0.3028951641
23050161700.0 -0.9541901475 0.3150802653
23100161400.0 -0.9523534274 0.3276735671
23150161100.0 -0.9496642242 0.3403492827
23200160800.0 -0.9463476405 0.3521308413
23250160500.0 -0.943601108 0.3647337503
23300160200.0 -0.9404028462 0.376045091
23350159900.0 -0.9375006083 0.3890500397
23400159600.0 -0.9323119982 0.4020857787
23450159300.0 -0.927749558 0.4149968272
23500159000.0 -0.9239120079 0.4283084009
23550158700.0 -0.9190020891 0.4414154732
23600158400.0 -0.913546579 0.4545591225
23650158100.0 -0.9071088796 0.4685358454
23700157800.0 -0.8996696438 0.482261972
23750157500.0 -0.8912898526 0.4964386492
23800157200.0 -0.8824595745 0.509587848
23850156900.0 -0.8738488475 0.5216499485
23900156600.0 -0.8647030652 0.5346711651
23950156300.0 -0.8553086507 0.5475262348
24000156000.0 -0.8464349989 0.5592005559
24050155700.0 -0.8355603753 0.571020142
24100155400.0 -0.8254749443 0.5825193594
24150155100.0 -0.8154075932 0.5948562358
24200154800.0 -0.8045811233 0.6053024724
24250154500.0 -0.7926446076 0.616978058
24300154200.0 -0.7813116258 0.6286429041
24350153900.0 -0.7698607307 0.6393238089
24400153600.0 -0.7577670031 0.6492786921
24450153300.0 -0.746089143 0.6593434675
24500153000.0 -0.7343458468 0.66877707
24550152700.0 -0.7223718448 0.6792714567
24600152400.0 -0.7114483365 0.6879697473
24650152100.0 -0.7001197988 0.6964655229
