!Created with skrf (http://scikit-rf.org).
# Hz S RI R 50.0 
!freq ReS11 ImS11
300000.0 -0.9749003329 -0.1190436645
50299700.0 -0.9998583472 0.0152097292
100299400.0 -0.9979382075 0.0282592584
150299100.0 -1.00292807 0.0450588846
200298800.0 -0.9996543343 0.0583600956
250298500.0 -0.9974428606 0.071936589
300298200.0 -0.9859953965 0.0875530244
350297900.0 -0.9940911755 0.0983620687
400297600.0 -0.993259667 0.1151591183
450297300.0 -0.9910941534 0.1286484697
500297000.0 -0.9896109257 0.1437238915
550296700.0 -0.9842695287 0.1560736707
600296400.0 -1.017312924 0.1894104764
650296100.0 -0.9823396184 0.1861123927
700295800.0 -0.9794507385 0.2002187827
750295500.0 -0.9763329394 0.2142090995
800295200.0 -0.9730805707 0.2282133554
850294900.0 -0.9697670256 0.2423271219
900294600.0 -0.9656963851 0.2557642776
950294300.0 -0.9620540446 0.269563959
1000294000.0 -0.9583616273 0.2835597153
1050293700.0 -0.9538435133 0.2973495845
1100293400.0 -0.9493115346 0.3119328226
1150293100.0 -0.9455448982 0.3236487982
1200292800.0 -0.9401173964 0.3379884769
1250292500.0 -0.9347719836 0.3515894551
1300292200.0 -0.9289964649 0.3646748673
1350291900.0 -0.9232409203 0.3788471139
1400291600.0 -0.9180208205 0.3918786586
1450291300.0 -0.912431386 0.4043203441
1500291000.0 -0.9061875775 0.4177032041
1550290700.0 -0.8997091799 0.4310188392
1600290400.0 -0.8934071114 0.443947061
1650290100.0 -0.8868000662 0.4559395042
1700289800.0 -0.8800227176 0.4694538257
1750289500.0 -0.8728381905 0.4817408892
1800289200.0 -0.8655880656 0.4946302727
1850288900.0 -0.8586879571 0.5059469665
1900288600.0 -0.8508652601 0.5190372543
1950288300.0 -0.8431007234 0.531611539
2000288000.0 -0.8354673035 0.5430368838
2050287700.0 -0.8271244064 0.5552435455
2100287400.0 -0.8192709051 0.5668373751
2150287100.0 -0.8108343163 0.5789677586
2200286800.0 -0.8029014214 0.5893636937
2250286500.0 -0.794253293 0.6014508051
2300286200.0 -0.7853234553 0.6129964295
2350285900.0 -0.7765374538 0.6240391861
2400285600.0 -0.7676528099 0.6349166099
2450285300.0 -0.7589983633 0.6452414338
2500285000.0 -0.7491151516 0.6567239295
2550284700.0 -0.7404951114 0.6669455228
2600284400.0 -0.7312289064 0.676974526
2650284100.0 -0.7220741372 0.6875224289
2700283800.0 -0.7115982733 0.6981365874
2750283500.0 -0.7016103999 0.7088223482
2800283200.0 -0.6914181534 0.718277597
2850282900.0 -0.6811981565 0.7283197474
2900282600.0 -0.6708764191 0.7379107196
2950282300.0 -0.6604419698 0.7472160238
3000282000.0 -0.6497089762 0.7567558624
3050281700.0 -0.6385816614 0.766063703
3100281400.0 -0.6268585938 0.7753142108
3150281100.0 -0.615007057 0.7847655102
3200280800.0 -0.6035040526 0.7930699596
3250280500.0 -0.5927108474 0.8008227655
3300280200.0 -0.5811713588 0.8087134058
3350279900.0 -0.5695378329 0.8162406568
3400279600.0 -0.5573512642 0.8241650303
3450279300.0 -0.5462953449 0.831213048
3500279000.0 -0.5342018028 0.8384484874
3550278700.0 -0.5221456149 0.8457087489
3600278400.0 -0.5097118807 0.8527773904
3650278100.0 -0.4964287161 0.8602354522
3700277800.0 -0.484195194 0.8668128744
3750277500.0 -0.4721105862 0.8733558957
3800277200.0 -0.4596627965 0.8798976149
3850276900.0 -0.4474779029 0.8858987447
3900276600.0 -0.4368021159 0.8913913716
3950276300.0 -0.4244958856 0.8972699763
4000276000.0 -0.4125801845 0.9036271646
4050275700.0 -0.3997757316 0.9095945505
4100275400.0 -0.3884727618 0.9150545299
4150275100.0 -0.3759195342 0.9205427017
4200274800.0 -0.3628566267 0.9259584732
4250274500.0 -0.3506106787 0.9313782448
4300274200.0 -0.3374000235 0.9367499842
4350273900.0 -0.3236190742 0.9419720363
4400273600.0 -0.3088758795 0.9472966756
4450273300.0 -0.2935471758 0.9521771768
4500273000.0 -0.2800040965 0.9567619827
4550272700.0 -0.2659948059 0.9607582802
4600272400.0 -0.2505356826 0.9650961616
4650272100.0 -0.2387998023 0.9681377517
4700271800.0 -0.2255670733 0.9715973989
4750271500.0 -0.2138106222 0.9744640535
4800271200.0 -0.2013709781 0.9771468705
4850270900.0 -0.1875256062 0.9798847618
4900270600.0 -0.1735480587 0.9822942631
4950270300.0 -0.1595043849 0.9848157074
5000270000.0 -0.144977101 0.9873260879
5050269700.0 -0.1315917207 0.9884287382
5100269400.0 -0.117860838 0.9904195743
5150269100.0 -0.1043585175 0.9919195447
5200268800.0 -0.0910597197 0.9927536774
5250268500.0 -0.0781399393 0.9939238751
5300268200.0 -0.0647016448 0.9947107648
5350267900.0 -0.0522371952 0.9954049142
5400267600.0 -0.0362219368 0.9965337839
5450267300.0 -0.0231687042 0.9968106598
5500267000.0 -0.0077661216 0.9969545776
5550266700.0 0.0069569006 0.9971362324
5600266400.0 0.0226696006 0.9974000969
5650266100.0 0.0390722438 0.9969249145
5700265800.0 0.0538055766 0.9962878676
5750265500.0 0.0689120826 0.995345464
5800265200.0 0.0825783818 0.9944938804
5850264900.0 0.0957117094 0.9935657176
5900264600.0 0.1124527355 0.9918797247
5950264300.0 0.124249124 0.9899951885
6000264000.0 0.1382461561 0.9882107801
6050263700.0 0.1504736775 0.9872027314
6100263400.0 0.1632813261 0.9851097731
6150263100.0 0.1777891824 0.9826259238
6200262800.0 0.1876555292 0.9807817036
6250262500.0 0.2004755289 0.9786225007
6300262200.0 0.21328434 0.9758590344
6350261900.0 0.2263829826 0.9727993632
6400261600.0 0.2399856515 0.9696719923
6450261300.0 0.2515276591 0.9669418059
6500261000.0 0.2643659741 0.9634545388
6550260700.0 0.2774636163 0.9595987686
6600260400.0 0.2907865448 0.9556986726
6650260100.0 0.3043941917 0.9509539229
6700259800.0 0.3167477991 0.946679761
6750259500.0 0.3307741406 0.9420846048
6800259200.0 0.3438552372 0.936911726
6850258900.0 0.3556096821 0.9316247305
6900258600.0 0.3679924844 0.9266575466
6950258300.0 0.380404564 0.921330503
7000258000.0 0.3925201875 0.9158087193
7050257700.0 0.4047517237 0.9097980929
7100257400.0 0.4174153892 0.9036046656
7150257100.0 0.4279732332 0.8983478457
7200256800.0 0.440661964 0.891918761
7250256500.0 0.4528000668 0.8856176971
7300256200.0 0.4656384334 0.8787320771
7350255900.0 0.478310714 0.8717068674
7400255600.0 0.4918775559 0.864601348
7450255300.0 0.5074787605 0.8558120214
7500255000.0 0.519187683 0.8484064519
7550254700.0 0.5325175817 0.839823548
7600254400.0 0.5452905053 0.8316882059
7650254100.0 0.556935933 0.8237196557
7700253800.0 0.5685390954 0.8158153287
7750253500.0 0.5798907618 0.8080546129
7800253200.0 0.5904756643 0.8004902482
7850252900.0 0.6003033921 0.7933620519
7900252600.0 0.6119361911 0.7846713319
7950252300.0 0.620780232 0.778190352
8000252000.0 0.6307378099 0.770383507
8050251700.0 0.6412904164 0.7621673897
8100251400.0 0.6512051008 0.7540992369
8150251100.0 0.6616002272 0.7455207392
8200250800.0 0.6709309557 0.7374254245
8250250500.0 0.6797680843 0.7296173814
8300250200.0 0.6888105205 0.7208975655
8350249900.0 0.6979674159 0.7123549828
8400249600.0 0.7062257895 0.7041935786
8450249300.0 0.7154353375 0.6950208682
8500249000.0 0.7239699916 0.6861819723
8550248700.0 0.7323737226 0.6772518182
8600248400.0 0.7407535187 0.6677241135
8650248100.0 0.7484080252 0.6579930185
8700247800.0 0.7579389879 0.6470812327
8750247500.0 0.7661912217 0.6368623769
8800247200.0 0.7745638529 0.6266108877
8850246900.0 0.7830681915 0.6149591815
8900246600.0 0.7915438373 0.6038060305
8950246300.0 0.8014423294 0.5909390373
9000246000.0 0.810628662 0.5781493066
9050245700.0 0.8196907323 0.565136419
9100245400.0 0.8276942043 0.5528166245
9150245100.0 0.8374098041 0.539378419
9200244800.0 0.8470237272 0.5241256521
9250244500.0 0.8564072471 0.5088414328
9300244200.0 0.8647305695 0.4944685326
9350243900.0 0.8724372826 0.4807468961
9400243600.0 0.8792592293 0.4685375612
9450243300.0 0.8849223613 0.4570982371
9500243000.0 0.8912484748 0.4448367305
9550242700.0 0.8950080098 0.4372059258
9600242400.0 0.8991284059 0.4297919586
9650242100.0 0.902598534 0.4234598722
9700241800.0 0.9074639525 0.4150970742
9750241500.0 0.9113281994 0.407750827
9800241200.0 0.9160244102 0.3983781398
9850240900.0 0.9218929947 0.3864273622
9900240600.0 0.9274790095 0.3750219861
9950240300.0 0.9338309359 0.3589478217
10000240000.0 0.9385073649 0.347505281
10050239700.0 0.9444465765 0.3316941855
10100239400.0 0.949696176 0.3163415018
10150239100.0 0.9542246 0.3014453603
10200238800.0 0.9582105054 0.2865104849
10250238500.0 0.9615427632 0.2730980944
10300238200.0 0.9644866163 0.2590164658
10350237900.0 0.9672591796 0.2459305592
10400237600.0 0.9699248156 0.2325566541
10450237300.0 0.9726440282 0.2189574305
10500237000.0 0.9749339711 0.2066100078
10550236700.0 0.9768888146 0.1927938918
10600236400.0 0.9791582058 0.1785407333
10650236100.0 0.9812612912 0.1643091711
10700235800.0 0.983489 0.1517254475
10750235500.0 0.9859256376 0.1379802368
10800235200.0 0.9879119564 0.1247120058
10850234900.0 0.9900765165 0.1094014649
10900234600.0 0.9915454193 0.0954452666
10950234300.0 0.9933809426 0.0820033704
11000234000.0 0.9952781601 0.0666952934
11050233700.0 0.9969585755 0.0504848219
11100233400.0 0.9983573853 0.0329985829
11150233100.0 0.999435048 0.0165217343
11200232800.0 1.000299288 0.0012873981
11250232500.0 1.001198397 -0.0147301202
11300232200.0 1.001863521 -0.0327434762
11350231900.0 1.001124773 -0.0486380473
11400231600.0 1.002055542 -0.0645786321
11450231300.0 1.001661945 -0.0801702666
11500231000.0 0.9996143469 -0.095238989
11550230700.0 0.9987917613 -0.1090845069
11600230400.0 0.9976816122 -0.122018371
11650230100.0 0.9953205916 -0.1330421395
11700229800.0 0.9934087826 -0.1485788238
11750229500.0 0.9908622028 -0.1623739024
11800229200.0 0.9882578917 -0.1762282765
11850228900.0 0.9846024658 -0.1887258826
11900228600.0 0.9810192101 -0.1981417235
11950228300.0 0.9779237829 -0.2085372582
12000228000.0 0.9747431704 -0.2185341832
12050227700.0 0.9715282721 -0.2304083365
12100227400.0 0.9681783396 -0.2420578125
12150227100.0 0.9632273771 -0.2589030433
12200226800.0 0.9592536846 -0.2697833136
12250226500.0 0.9555770188 -0.2822060818
12300226200.0 0.9512617531 -0.2941113458
12350225900.0 0.9463287969 -0.3078535516
12400225600.0 0.9418066656 -0.3206313685
12450225300.0 0.9377831364 -0.3332280471
12500225000.0 0.9318196949 -0.3482971892
12550224700.0 0.9268748879 -0.3623482443
12600224400.0 0.9219881031 -0.3752776568
12650224100.0 0.9159961455 -0.3896080892
12700223800.0 0.9108162482 -0.4024917466
12750223500.0 0.9052595891 -0.4156849273
12800223200.0 0.9002518821 -0.4276736252
12850222900.0 0.8948222816 -0.4403893681
12900222600.0 0.8885310631 -0.4525423536
12950222300.0 0.8828103416 -0.4648316939
13000222000.0 0.876699203 -0.4768751351
13050221700.0 0.8703252701 -0.4890268759
13100221400.0 0.8633484377 -0.5013124933
13150221100.0 0.8566736923 -0.5133909764
13200220800.0 0.849543577 -0.5251886108
13250220500.0 0.8423455175 -0.5370449735
13300220200.0 0.8350421793 -0.5483041977
13350219900.0 0.8269074534 -0.5597598697
13400219600.0 0.8186618069 -0.5718968573
13450219300.0 0.809469203 -0.5853719861
13500219000.0 0.7990781502 -0.599242107
13550218700.0 0.7889420977 -0.6117547103
13600218400.0 0.7789533575 -0.6239727901
13650218100.0 0.7692262982 -0.6351332285
13700217800.0 0.7586821131 -0.6473081718
13750217500.0 0.7485414758 -0.6583878885
13800217200.0 0.7377625414 -0.6702987078
13850216900.0 0.7262781576 -0.6818576742
13900216600.0 0.7164189069 -0.6900667073
13950216300.0 0.7062655 -0.7008684803
14000216000.0 0.6960025707 -0.7102441989
14050215700.0 0.6859767817 -0.7183586098
14100215400.0 0.676129669 -0.7274862645
14150215100.0 0.6668750533 -0.7359974991
14200214800.0 0.6576389679 -0.7447688914
14250214500.0 0.6473078417 -0.754203702
14300214200.0 0.6368998638 -0.7634665802
14350213900.0 0.6256544751 -0.7732733516
14400213600.0 0.6140870311 -0.7829699359
14450213300.0 0.6004843552 -0.7932441699
14500213000.0 0.5875891481 -0.8031071723
14550212700.0 0.5750094241 -0.8126147892
14600212400.0 0.5629350721 -0.8210347292
14650212100.0 0.5496829494 -0.8300902054
14700211800.0 0.535528114 -0.8398186776
14750211500.0 0.5242922495 -0.8476592779
14800211200.0 0.511537694 -0.8557543063
14850210900.0 0.4992197071 -0.8635315
14900210600.0 0.4862191163 -0.8713008315
14950210300.0 0.472730127 -0.8788679549
15000210000.0 0.4600153232 -0.8857661241
15050209700.0 0.4476618066 -0.8918020948
15100209400.0 0.4351318669 -0.8978569288
15150209100.0 0.4232174661 -0.9032133543
15200208800.0 0.4098725509 -0.9082409215
15250208500.0 0.398395771 -0.9129349723
15300208200.0 0.3868554348 -0.9182030543
15350207900.0 0.3733622278 -0.922157638
15400207600.0 0.3581004051 -0.9272099542
15450207300.0 0.3442680695 -0.9333612947
15500207000.0 0.3302204561 -0.937326766
15550206700.0 0.3147912915 -0.9427403571
15600206400.0 0.2986634261 -0.9470908192
15650206100.0 0.2834038022 -0.9510971567
15700205800.0 0.2695148388 -0.9546300776
15750205500.0 0.2548745416 -0.9581798135
15800205200.0 0.2406082356 -0.9619609156
15850204900.0 0.2261582532 -0.9653462634
15900204600.0 0.2111321477 -0.9689623813
15950204300.0 0.196889467 -0.9718954027
16000204000.0 0.1826843442 -0.9747756542
16050203700.0 0.1681770603 -0.977956254
16100203400.0 0.1534778063 -0.9796837051
16150203100.0 0.1388918515 -0.9824695633
16200202800.0 0.1245138299 -0.984140676
16250202500.0 0.1098032203 -0.9863836811
16300202200.0 0.094643287 -0.9874096703
16350201900.0 0.0790491029 -0.9892682244
16400201600.0 0.0646947646 -0.9902892548
16450201300.0 0.0492841907 -0.9913855488
16500201000.0 0.032758504 -0.9921496293
16550200700.0 0.0171076123 -0.992599508
16600200400.0 0.0012635848 -0.9928158744
16650200100.0 -0.0148374928 -0.9927044339
16700199800.0 -0.031413839 -0.9926755734
16750199500.0 -0.0499450743 -0.9921410711
16800199200.0 -0.0658092598 -0.9910556852
16850198900.0 -0.0809015514 -0.9901922084
16900198600.0 -0.094621959 -0.9890141886
16950198300.0 -0.1071964632 -0.9878294411
17000198000.0 -0.1203281986 -0.986781626
17050197700.0 -0.1334892802 -0.9843178649
17100197400.0 -0.1463000609 -0.9826309898
17150197100.0 -0.1589809215 -0.9803747577
17200196800.0 -0.1715985096 -0.9784674709
17250196500.0 -0.1850203225 -0.9758469368
17300196200.0 -0.1969547241 -0.9735416263
17350195900.0 -0.2087856988 -0.9713254575
17400195600.0 -0.2210388954 -0.9687373916
17450195300.0 -0.2340780026 -0.9659843019
17500195000.0 -0.2475546412 -0.9627177863
17550194700.0 -0.2611795461 -0.9591790358
17600194400.0 -0.2752331121 -0.9549961353
17650194100.0 -0.2892825283 -0.9509332262
17700193800.0 -0.302113588 -0.9468795469
17750193500.0 -0.3162606097 -0.942546594
17800193200.0 -0.3304811106 -0.9370788995
17850192900.0 -0.3453705777 -0.9314162313
17900192600.0 -0.3610924057 -0.9256990566
17950192300.0 -0.3767675613 -0.9183499346
18000192000.0 -0.3912419149 -0.9110745856
18050191700.0 -0.4053512732 -0.9032553044
18100191400.0 -0.4195817142 -0.8956546183
18150191100.0 -0.434527894 -0.887573499
18200190800.0 -0.4515046722 -0.878470341
18250190500.0 -0.4684011726 -0.8691419974
18300190200.0 -0.4837693008 -0.8604891136
18350189900.0 -0.4989742308 -0.8519426715
18400189600.0 -0.5135727729 -0.8436171429
18450189300.0 -0.5263341165 -0.8356156452
18500189000.0 -0.5398192973 -0.8277844151
18550188700.0 -0.5526880954 -0.820426461
18600188400.0 -0.5641345912 -0.8133307372
18650188100.0 -0.5755525298 -0.8069478462
18700187800.0 -0.5863365963 -0.8005253187
18750187500.0 -0.5967538523 -0.7939036839
18800187200.0 -0.6072868819 -0.7870103155
18850186900.0 -0.6174329238 -0.7801402418
18900186600.0 -0.6278651121 -0.7727321872
18950186300.0 -0.6377944522 -0.7651269711
19000186000.0 -0.6449538943 -0.7589005061
19050185700.0 -0.6542080261 -0.7516284458
19100185400.0 -0.6644233754 -0.7434476144
19150185100.0 -0.6748093288 -0.7355859177
19200184800.0 -0.6839367206 -0.7262778902
19250184500.0 -0.6940814264 -0.7171437541
19300184200.0 -0.7054813048 -0.7077334375
19350183900.0 -0.7163201596 -0.6979498645
19400183600.0 -0.7261096284 -0.6885599828
19450183300.0 -0.7349900685 -0.677993145
19500183000.0 -0.7433735298 -0.667915458
19550182700.0 -0.7530409763 -0.6576606025
19600182400.0 -0.7633743078 -0.6457387825
19650182100.0 -0.7740218267 -0.6334192012
19700181800.0 -0.7849984353 -0.6199616966
19750181500.0 -0.7953621084 -0.6059605143
19800181200.0 -0.8057615324 -0.5908082864
19850180900.0 -0.8155339588 -0.5754924811
19900180600.0 -0.8234794788 -0.5610867665
19950180300.0 -0.8328231427 -0.5445204094
20000180000.0 -0.8256720382 -0.5478758564
20050179700.0 -0.8334369821 -0.5340141742
20100179400.0 -0.8419915529 -0.5200619723
20150179100.0 -0.8496732061 -0.5082682089
20200178800.0 -0.8590255506 -0.4949531149
20250178500.0 -0.8690182936 -0.4817254194
20300178200.0 -0.8778272893 -0.4672535731
20350177900.0 -0.8875690939 -0.4527160221
20400177600.0 -0.8959258558 -0.4387339621
20450177300.0 -0.9043754293 -0.4243694161
20500177000.0 -0.9126499956 -0.4106651233
20550176700.0 -0.9203187912 -0.3969361841
20600176400.0 -0.9273229437 -0.3837708982
20650176100.0 -0.9338367517 -0.3713545709
20700175800.0 -0.9410853977 -0.3598607124
20750175500.0 -0.9467966978 -0.3476560419
20800175200.0 -0.9515063467 -0.3369953984
20850174900.0 -0.9566891573 -0.326339445
20900174600.0 -0.961757035 -0.3143561744
20950174300.0 -0.9645442359 -0.3036279436
21000174000.0 -0.9686496161 -0.2921990818
21050173700.0 -0.9709229738 -0.2813083758
21100173400.0 -0.9749016871 -0.269843151
21150173100.0 -0.9787452304 -0.2570742181
21200172800.0 -0.9824518809 -0.2441472535
21250172500.0 -0.9854873714 -0.230241775
21300172200.0 -0.9886817244 -0.2163710143
21350171900.0 -0.9902136973 -0.2020961441
21400171600.0 -0.9918679696 -0.18769229
21450171300.0 -0.9919721085 -0.1735879495
21500171000.0 -0.9914765867 -0.1576035068
21550170700.0 -0.9914792171 -0.1419520798
21600170400.0 -0.9922928612 -0.1264082844
21650170100.0 -0.9920629003 -0.1114190769
21700169800.0 -0.9898502253 -0.0958129256
21750169500.0 -0.9897842649 -0.0789788853
21800169200.0 -0.9881050534 -0.0633544173
21850168900.0 -0.9874336938 -0.0467693317
21900168600.0 -0.9856195782 -0.0302731258
21950168300.0 -0.9853236768 -0.0140663067
22000168000.0 -0.9844334117 -0.0002041181
22050167700.0 -0.9842442067 0.0148489913
22100167400.0 -0.9846146696 0.0300468781
22150167100.0 -0.9852257312 0.045674961
22200166800.0 -0.9855816764 0.0619878089
22250166500.0 -0.9849129571 0.0786103689
22300166200.0 -0.9841207869 0.0952841283
22350165900.0 -0.983072414 0.1125449664
22400165600.0 -0.9812309748 0.1280798688
22450165300.0 -0.979555112 0.1430414544
22500165000.0 -0.9786243155 0.1571078214
22550164700.0 -0.9764874311 0.1726600579
22600164400.0 -0.9749617976 0.1875073856
22650164100.0 -0.9729926212 0.202897697
22700163800.0 -0.9697715009 0.2188947321
22750163500.0 -0.9670025335 0.23393244
22800163200.0 -0.9643829123 0.2471315964
22850162900.0 -0.9621264839 0.260377018
22900162600.0 -0.9606431414 0.2738782018
22950162300.0 -0.9594207007 0.2865197016
23000162000.0 -0.9581359979 0.2989272327
23050161700.0 -0.9563640201 0.3113469948
23100161400.0 -0.9535263651 0.324448755
23150161100.0 -0.950313941 0.3362852994
23200160800.0 -0.948447199 0.3487406723
23250160500.0 -0.9450498908 0.3604088667
23300160200.0 -0.9423258929 0.3725460075
23350159900.0 -0.9392451484 0.3861005803
23400159600.0 -0.9348299962 0.3994741966
23450159300.0 -0.9291364593 0.4129247973
23500159000.0 -0.924916947 0.4256651446
23550158700.0 -0.9203927915 0.4391108072
23600158400.0 -0.9147978139 0.4525383821
23650158100.0 -0.9084006 0.4666985656
23700157800.0 -0.9005719319 0.4806722558
23750157500.0 -0.8921196855 0.4951090012
23800157200.0 -0.8833645999 0.5076256228
23850156900.0 -0.8737991431 0.5205335178
23900156600.0 -0.8643351164 0.5331043577
23950156300.0 -0.8558607581 0.5458692286
24000156000.0 -0.846807225 0.5579649301
24050155700.0 -0.8369525755 0.5693294913
24100155400.0 -0.8259281439 0.5816519154
24150155100.0 -0.8156478529 0.5942244727
24200154800.0 -0.8043633946 0.605175794
24250154500.0 -0.7938070508 0.6160701721
24300154200.0 -0.7819702791 0.6286243084
24350153900.0 -0.7704654414 0.6392015979
24400153600.0 -0.7582745068 0.6492488461
24450153300.0 -0.7461980097 0.659062655
24500153000.0 -0.734904844 0.6687900249
24550152700.0 -0.7237438255 0.678675063
24600152400.0 -0.712282316 0.6880336318
24650152100.0 -0.7002761871 0.6960668529
