!Created with skrf (http://scikit-rf.org).
# Hz S RI R 50.0 
!freq ReS11 ImS11
300000.0 -0.972475755 -0.1236887597
50299700.0 -0.9998336473 0.0150862663
100299400.0 -0.998050034 0.0277959167
150299100.0 -1.002628288 0.0447216158
200298800.0 -0.9994987337 0.0580955016
250298500.0 -0.9972286353 0.0715066878
300298200.0 -0.9858917082 0.0873771381
350297900.0 -0.9938397819 0.0982337397
400297600.0 -0.9932472243 0.1146909136
450297300.0 -0.9909407199 0.1286828959
500297000.0 -0.9893244267 0.1432763821
550296700.0 -0.9842333477 0.1559523121
600296400.0 -1.01733479 0.1892093552
650296100.0 -0.9820579663 0.1856885048
700295800.0 -0.9793281287 0.2000986468
750295500.0 -0.9762301143 0.2138244678
800295200.0 -0.9728981909 0.2281194175
850294900.0 -0.9693933161 0.2417987092
900294600.0 -0.965800463 0.2555867739
950294300.0 -0.9620865532 0.2693017619
1000294000.0 -0.9583220715 0.2831772787
1050293700.0 -0.9537060907 0.2971339977
1100293400.0 -0.9494539985 0.3114101396
1150293100.0 -0.9455215696 0.3234881851
1200292800.0 -0.9402905608 0.3378519403
1250292500.0 -0.9347740035 0.3512346722
1300292200.0 -0.9289664746 0.3644667217
1350291900.0 -0.9234423465 0.3785183644
1400291600.0 -0.9179747896 0.3915232024
1450291300.0 -0.9125822045 0.4040316566
1500291000.0 -0.9061250665 0.4173223975
1550290700.0 -0.8997650678 0.4305811774
1600290400.0 -0.8934245483 0.4435083016
1650290100.0 -0.8870542698 0.4557522857
1700289800.0 -0.8799077271 0.4692866214
1750289500.0 -0.8727976183 0.4813961819
1800289200.0 -0.8656799696 0.4944970617
1850288900.0 -0.8585845698 0.5055834574
1900288600.0 -0.8510247685 0.5187434482
1950288300.0 -0.8428639284 0.5313763736
2000288000.0 -0.8355649831 0.5427861989
2050287700.0 -0.8270782856 0.5552099555
2100287400.0 -0.8195047411 0.566443509
2150287100.0 -0.810792482 0.5785614849
2200286800.0 -0.8029356088 0.5890250846
2250286500.0 -0.7939066203 0.6014148859
2300286200.0 -0.7852709877 0.6127994107
2350285900.0 -0.7767778161 0.6233800445
2400285600.0 -0.767931604 0.6342575287
2450285300.0 -0.7590629276 0.6450017721
2500285000.0 -0.749041267 0.6566085259
2550284700.0 -0.7401990465 0.6670335026
2600284400.0 -0.7310420155 0.6769262471
2650284100.0 -0.7225256793 0.6870871975
2700283800.0 -0.7118664449 0.6974101069
2750283500.0 -0.7016630093 0.70834776
2800283200.0 -0.6914503659 0.7180068719
2850282900.0 -0.681331153 0.7280386183
2900282600.0 -0.6709626851 0.7378941608
2950282300.0 -0.6602409781 0.7472757744
3000282000.0 -0.6495381148 0.7565059434
3050281700.0 -0.6383702397 0.765848897
3100281400.0 -0.6268624153 0.7749399855
3150281100.0 -0.6156118123 0.7838796939
3200280800.0 -0.6042217871 0.7923409401
3250280500.0 -0.5931356737 0.8001686612
3300280200.0 -0.5812310891 0.8083118355
3350279900.0 -0.5693425249 0.8165365631
3400279600.0 -0.5566795112 0.8245402975
3450279300.0 -0.5456331113 0.831579897
3500279000.0 -0.5338297024 0.8382601114
3550278700.0 -0.5216361268 0.8455448276
3600278400.0 -0.5099121429 0.8525793022
3650278100.0 -0.4969360581 0.8599526482
3700277800.0 -0.4848741603 0.8663320159
3750277500.0 -0.4724924282 0.8732637389
3800277200.0 -0.4597695364 0.8797507507
3850276900.0 -0.4477133493 0.8856700586
3900276600.0 -0.4368224178 0.8912507238
3950276300.0 -0.4248661516 0.8972229765
4000276000.0 -0.4133077324 0.9031114652
4050275700.0 -0.4005811742 0.9090332795
4100275400.0 -0.3894356822 0.9144343464
4150275100.0 -0.3761516049 0.9203376418
4200274800.0 -0.362740099 0.9261786179
4250274500.0 -0.3500761025 0.9314073621
4300274200.0 -0.3367343176 0.9369286498
4350273900.0 -0.322596225 0.9419784671
4400273600.0 -0.3077784698 0.9473130173
4450273300.0 -0.2928031844 0.9523678415
4500273000.0 -0.2797346149 0.956397588
4550272700.0 -0.2661601942 0.9607984749
4600272400.0 -0.2510633674 0.9647643743
4650272100.0 -0.239730223 0.9677328265
4700271800.0 -0.2268072185 0.9710431496
4750271500.0 -0.2152930162 0.9739921451
4800271200.0 -0.2029621442 0.9766698267
4850270900.0 -0.1890816003 0.9794918849
4900270600.0 -0.1753756037 0.9817137081
4950270300.0 -0.1608827944 0.9846046098
5000270000.0 -0.1463047043 0.9866622538
5050269700.0 -0.1329475435 0.9881617142
5100269400.0 -0.1188456299 0.9901257036
5150269100.0 -0.1047419324 0.9918151449
5200268800.0 -0.0913288126 0.9927579514
5250268500.0 -0.0782279912 0.994058564
5300268200.0 -0.0647273634 0.9944868609
5350267900.0 -0.0519370021 0.9950601903
5400267600.0 -0.0356391928 0.9960812325
5450267300.0 -0.0224884135 0.9964685361
5500267000.0 -0.0069304905 0.997106245
5550266700.0 0.0077899133 0.9970285426
5600266400.0 0.0237909621 0.9971770274
5650266100.0 0.0405267857 0.9967403517
5700265800.0 0.05473798 0.9961475699
5750265500.0 0.0696494432 0.9952873337
5800265200.0 0.0834098327 0.994344154
5850264900.0 0.0964088957 0.9932474048
5900264600.0 0.1130439775 0.9915942292
5950264300.0 0.1244156351 0.9895888844
6000264000.0 0.1379169939 0.9876726932
6050263700.0 0.1494540645 0.9863873876
6100263400.0 0.1619861469 0.9849770311
6150263100.0 0.1765578809 0.9825841297
6200262800.0 0.1860006436 0.9810790715
6250262500.0 0.1986538969 0.978826983
6300262200.0 0.2110078333 0.976231375
6350261900.0 0.2237529522 0.9734313178
6400261600.0 0.2376753545 0.9703402753
6450261300.0 0.2487689526 0.9677818278
6500261000.0 0.262129193 0.9640838674
6550260700.0 0.2750776662 0.9602382082
6600260400.0 0.2883309272 0.9560871296
6650260100.0 0.3027926196 0.9518614031
6700259800.0 0.315015356 0.9474303511
6750259500.0 0.3282554781 0.9423843986
6800259200.0 0.3416650485 0.9372035557
6850258900.0 0.3546344263 0.9321070395
6900258600.0 0.367172536 0.9267348953
6950258300.0 0.3796966456 0.9215805811
7000258000.0 0.3912901017 0.9162212803
7050257700.0 0.4031169479 0.9105485611
7100257400.0 0.4165911282 0.9041600709
7150257100.0 0.4273691836 0.8986004779
7200256800.0 0.4403335625 0.8920045232
7250256500.0 0.4530773971 0.8854782806
7300256200.0 0.4661198255 0.8787530628
7350255900.0 0.478616441 0.8716437302
7400255600.0 0.4926843625 0.8641175399
7450255300.0 0.5081513928 0.8548132996
7500255000.0 0.5208351107 0.8470971378
7550254700.0 0.5352780859 0.8382108625
7600254400.0 0.5473937371 0.8300594475
7650254100.0 0.5595059116 0.8223046646
7700253800.0 0.570771016 0.8137649847
7750253500.0 0.58193362 0.806532463
7800253200.0 0.5924956882 0.7986152753
7850252900.0 0.602379463 0.7912777662
7900252600.0 0.6138664376 0.7825960966
7950252300.0 0.6222699663 0.7763036075
8000252000.0 0.6321052729 0.7684981015
8050251700.0 0.6426176451 0.7603711427
8100251400.0 0.6523419542 0.7526939559
8150251100.0 0.6625022902 0.7440070398
8200250800.0 0.6721780721 0.7358358328
8250250500.0 0.6806316975 0.72813225
8300250200.0 0.6896246569 0.7197541283
8350249900.0 0.6990210621 0.7106865053
8400249600.0 0.7070183836 0.702797862
8450249300.0 0.7158966242 0.6944579025
8500249000.0 0.7242723633 0.685248742
8550248700.0 0.732701707 0.6765072661
8600248400.0 0.7409328074 0.66694971
8650248100.0 0.748596344 0.657545344
8700247800.0 0.7579665341 0.6463504925
8750247500.0 0.7662801002 0.6363487461
8800247200.0 0.77420458 0.6260096692
8850246900.0 0.7829686853 0.6146368081
8900246600.0 0.791424093 0.6030619603
8950246300.0 0.8000913862 0.5905108343
9000246000.0 0.8088216472 0.5789084631
9050245700.0 0.8173583036 0.566199143
9100245400.0 0.8258304068 0.5540975754
9150245100.0 0.8343988663 0.5410019293
9200244800.0 0.8439539196 0.5268061775
9250244500.0 0.8534607241 0.5121418251
9300244200.0 0.8613434154 0.4984306279
9350243900.0 0.868972298 0.4852563646
9400243600.0 0.8754402781 0.4735029052
9450243300.0 0.8811267982 0.4630882972
9500243000.0 0.8874307296 0.4515637917
9550242700.0 0.8912498131 0.4440799988
9600242400.0 0.8958088238 0.436423281
9650242100.0 0.8997339978 0.4296278757
9700241800.0 0.9046568072 0.4210271917
9750241500.0 0.9089180301 0.4132088111
9800241200.0 0.9140533257 0.404051728
9850240900.0 0.9198958287 0.3923112295
9900240600.0 0.9258945124 0.3801212065
9950240300.0 0.9329702305 0.3634776196
10000240000.0 0.9376928635 0.3515008073
10050239700.0 0.9439437221 0.3353675293
10100239400.0 0.9494950367 0.3187236438
10150239100.0 0.9541777573 0.3031641828
10200238800.0 0.958168477 0.2876614733
10250238500.0 0.9616966727 0.2743039246
10300238200.0 0.9647840711 0.260427091
10350237900.0 0.9673807398 0.2468849515
10400237600.0 0.970104954 0.233407516
10450237300.0 0.9727812981 0.2196974855
10500237000.0 0.9749915542 0.2075350602
10550236700.0 0.9776578572 0.1925302858
10600236400.0 0.9798435187 0.1790214462
10650236100.0 0.9812582563 0.1647796461
10700235800.0 0.9836887483 0.1520923952
10750235500.0 0.9862343116 0.1387085179
10800235200.0 0.9881916197 0.1242515798
10850234900.0 0.9900548356 0.1093002634
10900234600.0 0.991969241 0.0949585762
10950234300.0 0.9937437915 0.0811221843
11000234000.0 0.9957228448 0.0655164033
11050233700.0 0.9974327791 0.0486842163
11100233400.0 0.9986844376 0.031107478
11150233100.0 1.000053071 0.0141884169
11200232800.0 1.001031732 -0.0015040309
11250232500.0 1.00145161 -0.0193766945
11300232200.0 1.002094814 -0.0387636412
11350231900.0 1.001646739 -0.0544226107
11400231600.0 1.001356828 -0.0705384311
11450231300.0 1.000896448 -0.0853518728
11500231000.0 0.99947458 -0.1023267752
11550230700.0 0.9981941796 -0.1153948892
11600230400.0 0.9966490235 -0.1280167124
11650230100.0 0.9948237994 -0.1392523213
11700229800.0 0.9925295724 -0.1545718408
11750229500.0 0.9899930642 -0.1685266569
11800229200.0 0.9872123209 -0.1819635891
11850228900.0 0.9835096865 -0.1936234489
11900228600.0 0.9799482069 -0.2034087997
11950228300.0 0.9763395166 -0.2132049273
12000228000.0 0.9738547896 -0.2222547199
12050227700.0 0.9701616611 -0.2343456213
12100227400.0 0.9665679757 -0.2461279416
12150227100.0 0.9619339846 -0.2622368152
12200226800.0 0.9585871403 -0.2726823286
12250226500.0 0.9540712929 -0.2857153936
12300226200.0 0.9500119374 -0.2985828006
12350225900.0 0.9442410657 -0.3120859077
12400225600.0 0.9401017333 -0.3248742307
12450225300.0 0.935644285 -0.3372745282
12500225000.0 0.9302529218 -0.3522224557
12550224700.0 0.924757699 -0.3659628532
12600224400.0 0.9201297049 -0.37836667
12650224100.0 0.914164309 -0.3927898885
12700223800.0 0.9088443194 -0.4056162613
12750223500.0 0.9033211469 -0.4185946542
12800223200.0 0.8980165938 -0.4313925103
12850222900.0 0.8928074482 -0.4433731225
12900222600.0 0.8869000546 -0.4551994056
12950222300.0 0.881136516 -0.4676105774
13000222000.0 0.8752643174 -0.479432306
13050221700.0 0.8682796669 -0.4923471761
13100221400.0 0.8610463199 -0.5044712982
13150221100.0 0.8544066787 -0.5167530196
13200220800.0 0.847434862 -0.5282652851
13250220500.0 0.8401085978 -0.5401152738
13300220200.0 0.8327434867 -0.5512766601
13350219900.0 0.8246132038 -0.5631296062
13400219600.0 0.8159538742 -0.5750603922
13450219300.0 0.8066539747 -0.588374933
13500219000.0 0.7973620436 -0.6010980415
13550218700.0 0.7870533291 -0.6140270163
13600218400.0 0.7779340907 -0.6255312496
13650218100.0 0.7672149896 -0.6363237644
13700217800.0 0.7574591332 -0.6477915497
13750217500.0 0.7467559779 -0.6592247145
13800217200.0 0.7363823121 -0.6705034292
13850216900.0 0.7252674151 -0.682000403
13900216600.0 0.7152936324 -0.6901731927
13950216300.0 0.7045636887 -0.7006718354
14000216000.0 0.6957372296 -0.7092530639
14050215700.0 0.6861817215 -0.7176553581
14100215400.0 0.67669098 -0.7263628294
14150215100.0 0.6678893915 -0.7352239244
14200214800.0 0.6580141173 -0.7439721569
14250214500.0 0.6475834139 -0.7535731995
14300214200.0 0.6371024011 -0.7630200972
14350213900.0 0.6260159031 -0.7728719793
14400213600.0 0.6142202036 -0.7822571983
14450213300.0 0.6011430054 -0.79220344
14500213000.0 0.5882169685 -0.8024526923
14550212700.0 0.5759609144 -0.8120362352
14600212400.0 0.5637382041 -0.8207321292
14650212100.0 0.5508162428 -0.8291371479
14700211800.0 0.5372087803 -0.8387950922
14750211500.0 0.5250295392 -0.8469583206
14800211200.0 0.5123670365 -0.855186115
14850210900.0 0.4999589659 -0.8630512123
14900210600.0 0.48657106 -0.8709778092
14950210300.0 0.4733143061 -0.8785535312
15000210000.0 0.4607655211 -0.8852057682
15050209700.0 0.4481397689 -0.8913449802
15100209400.0 0.4357695126 -0.897465058
15150209100.0 0.4234983061 -0.9026492701
15200208800.0 0.4110267231 -0.9080225404
15250208500.0 0.3998789332 -0.9126754217
15300208200.0 0.3873119616 -0.9176839237
15350207900.0 0.3741362955 -0.9221591778
15400207600.0 0.360032567 -0.92810202
15450207300.0 0.3451537628 -0.9327151355
15500207000.0 0.3303203407 -0.9371802182
15550206700.0 0.3157061943 -0.9420269647
15600206400.0 0.3000221735 -0.946845284
15650206100.0 0.2837701477 -0.9506499262
15700205800.0 0.2702063878 -0.9543134846
15750205500.0 0.256366206 -0.9575707711
15800205200.0 0.2422730843 -0.9611351257
15850204900.0 0.2281299369 -0.9647049254
15900204600.0 0.2130935691 -0.9684477641
15950204300.0 0.19855462 -0.9714563873
16000204000.0 0.1843284255 -0.9744691124
16050203700.0 0.1690989836 -0.9772829707
16100203400.0 0.1539995566 -0.9793750228
16150203100.0 0.139647302 -0.9821970373
16200202800.0 0.1251186795 -0.9840711662
16250202500.0 0.1101256046 -0.9852483731
16300202200.0 0.0948719596 -0.9873045735
16350201900.0 0.0798843829 -0.9886350688
16400201600.0 0.0653037314 -0.9901530197
16450201300.0 0.0496877582 -0.9912649627
16500201000.0 0.0325716042 -0.9918568362
16550200700.0 0.0165879393 -0.9925351071
16600200400.0 0.0007326778 -0.9925588603
16650200100.0 -0.0153134758 -0.9924784523
16700199800.0 -0.0316601542 -0.9921082626
16750199500.0 -0.0513819661 -0.9916306443
16800199200.0 -0.0668137637 -0.9906139698
16850198900.0 -0.082497148 -0.9894950531
16900198600.0 -0.0965341433 -0.9887818439
16950198300.0 -0.1101728816 -0.9875747221
17000198000.0 -0.1232648279 -0.985265958
17050197700.0 -0.1357302996 -0.9838418463
17100197400.0 -0.1488097983 -0.9824321906
17150197100.0 -0.1614057212 -0.9798421978
17200196800.0 -0.1741184328 -0.9774735845
17250196500.0 -0.1872057032 -0.9753482949
17300196200.0 -0.1992056023 -0.9729759241
17350195900.0 -0.2111818892 -0.9706309945
17400195600.0 -0.2231090713 -0.9681513973
17450195300.0 -0.2359175496 -0.9654114661
17500195000.0 -0.2493045531 -0.9619000948
17550194700.0 -0.2632670382 -0.9586348836
17600194400.0 -0.2770872406 -0.9546611508
17650194100.0 -0.2904020638 -0.9507125682
17700193800.0 -0.303470086 -0.9458163831
17750193500.0 -0.3177573786 -0.9416159403
17800193200.0 -0.3317980237 -0.9365258051
17850192900.0 -0.3467175689 -0.9313785242
17900192600.0 -0.3616340078 -0.9247974845
17950192300.0 -0.377303375 -0.9178802594
18000192000.0 -0.3919924769 -0.9104244708
18050191700.0 -0.4057617681 -0.9026777509
18100191400.0 -0.4198697716 -0.8949663293
18150191100.0 -0.4348165959 -0.8870148014
18200190800.0 -0.4517516107 -0.8776649095
18250190500.0 -0.4686426318 -0.8683437736
18300190200.0 -0.4839341516 -0.8596598162
18350189900.0 -0.4993836272 -0.8512851569
18400189600.0 -0.5144257888 -0.8424739748
18450189300.0 -0.5272605558 -0.8347746089
18500189000.0 -0.5405917392 -0.8271116251
18550188700.0 -0.5533509746 -0.8191735997
18600188400.0 -0.5652158349 -0.8122752194
18650188100.0 -0.5765843106 -0.8055539484
18700187800.0 -0.5875860555 -0.7989403349
18750187500.0 -0.5985369525 -0.7924592391
18800187200.0 -0.6092785532 -0.7852903904
18850186900.0 -0.619499633 -0.7783817521
18900186600.0 -0.6299700528 -0.770924496
18950186300.0 -0.6399693069 -0.7631326115
19000186000.0 -0.6473822276 -0.7569726539
19050185700.0 -0.6566718674 -0.7498472945
19100185400.0 -0.6663970486 -0.7415577327
19150185100.0 -0.6769390139 -0.7331377104
19200184800.0 -0.6862711828 -0.7247831102
19250184500.0 -0.6963443428 -0.7161655488
19300184200.0 -0.7088298238 -0.7063930714
19350183900.0 -0.7189617386 -0.6964160172
19400183600.0 -0.729209579 -0.68722882
19450183300.0 -0.7372115966 -0.6767985992
19500183000.0 -0.7456487493 -0.6661371704
19550182700.0 -0.7553970444 -0.655620399
19600182400.0 -0.7655920026 -0.643786722
19650182100.0 -0.7765762737 -0.6317384619
19700181800.0 -0.7867440596 -0.6184380659
19750181500.0 -0.7971091207 -0.6042331599
19800181200.0 -0.8073096886 -0.5893632843
19850180900.0 -0.8166978379 -0.5741383861
19900180600.0 -0.8246879292 -0.5595473527
19950180300.0 -0.8336634746 -0.543250525
20000180000.0 -0.8236264209 -0.5467915187
20050179700.0 -0.8310795802 -0.5339065318
20100179400.0 -0.8396552288 -0.5202501208
20150179100.0 -0.8482290676 -0.5096417218
20200178800.0 -0.8562604627 -0.4981177324
20250178500.0 -0.8653688995 -0.4848381298
20300178200.0 -0.8751542368 -0.4714985187
20350177900.0 -0.8845844192 -0.4576343473
20400177600.0 -0.8938109977 -0.4434847944
20450177300.0 -0.9019642738 -0.4289627175
20500177000.0 -0.910177817 -0.414831158
20550176700.0 -0.9179934146 -0.4015031239
20600176400.0 -0.9249242154 -0.3889180146
20650176100.0 -0.9315296716 -0.3765881072
20700175800.0 -0.9390100608 -0.3642402308
20750175500.0 -0.9446729714 -0.3530811458
20800175200.0 -0.9485286198 -0.3415402742
20850174900.0 -0.9542049269 -0.3315599238
20900174600.0 -0.9578282691 -0.3211225021
20950174300.0 -0.9605513841 -0.3088069389
21000174000.0 -0.9643422264 -0.2983567884
21050173700.0 -0.9652294455 -0.2893849619
21100173400.0 -0.9691089083 -0.2780451067
21150173100.0 -0.9734663281 -0.2665420027
21200172800.0 -0.97728658 -0.2532098944
21250172500.0 -0.9810676209 -0.2390172284
21300172200.0 -0.9840109916 -0.2256309172
21350171900.0 -0.986406556 -0.2115735138
21400171600.0 -0.9883420597 -0.1969715261
21450171300.0 -0.9893353987 -0.1823715547
21500171000.0 -0.9896496244 -0.1683420075
21550170700.0 -0.9904751414 -0.1533609049
21600170400.0 -0.9899766784 -0.1370969279
21650170100.0 -0.9902326676 -0.1212950319
21700169800.0 -0.9905763435 -0.1068239858
21750169500.0 -0.9901886256 -0.0905571688
21800169200.0 -0.9900650369 -0.0731636947
21850168900.0 -0.9887604657 -0.056916722
21900168600.0 -0.9900200474 -0.0415737788
21950168300.0 -0.9895221394 -0.0251662331
22000168000.0 -0.9889875639 -0.0097283418
22050167700.0 -0.9896467087 0.0048195489
22100167400.0 -0.9901959062 0.0202235258
22150167100.0 -0.9911069948 0.0362052895
22200166800.0 -0.9917466471 0.0527151074
22250166500.0 -0.9908233321 0.0700705895
22300166200.0 -0.990827719 0.0868804496
22350165900.0 -0.9892254149 0.1029905965
22400165600.0 -0.9877217322 0.1190531837
22450165300.0 -0.9855706432 0.133432256
22500165000.0 -0.9840721364 0.1477657587
22550164700.0 -0.9822611042 0.1646141208
22600164400.0 -0.9811279485 0.1802502092
22650164100.0 -0.9785286868 0.1962369003
22700163800.0 -0.9745904888 0.2121475975
22750163500.0 -0.9724485773 0.2265040644
22800163200.0 -0.9692124641 0.2394673346
22850162900.0 -0.966806692 0.2528534223
22900162600.0 -0.9645261325 0.2672037686
22950162300.0 -0.9628037369 0.280798784
23000162000.0 -0.9608930501 0.2934976356
23050161700.0 -0.9581107774 0.3071042642
23100161400.0 -0.9556245865 0.3201455253
23150161100.0 -0.952796203 0.3336907938
23200160800.0 -0.9491871761 0.34668752
23250160500.0 -0.9465171372 0.3583512704
23300160200.0 -0.943538756 0.3710822369
23350159900.0 -0.9395823706 0.3856427707
23400159600.0 -0.9348793849 0.3986573207
23450159300.0 -0.9303111286 0.4121445094
23500159000.0 -0.9247423365 0.4258726869
23550158700.0 -0.9203730485 0.4403667942
23600158400.0 -0.9141461289 0.4543551147
23650158100.0 -0.9067648634 0.4690687639
23700157800.0 -0.8983952401 0.4832031664
23750157500.0 -0.8887343436 0.4972989863
23800157200.0 -0.879534336 0.5112195336
23850156900.0 -0.8689251983 0.5237417583
23900156600.0 -0.8594312606 0.5365376322
23950156300.0 -0.8497483146 0.5493913775
24000156000.0 -0.8403231853 0.5620470508
24050155700.0 -0.8296026923 0.5730228167
24100155400.0 -0.8189054045 0.585760501
24150155100.0 -0.8079435584 0.5981703486
24200154800.0 -0.7972352463 0.6100226756
24250154500.0 -0.78593035 0.6222901858
24300154200.0 -0.7744268268 0.6342056063
24350153900.0 -0.7621651455 0.6452240658
24400153600.0 -0.750124757 0.6559154897
24450153300.0 -0.7377512261 0.6663860776
24500153000.0 -0.7261831113 0.6764525697
24550152700.0 -0.7152555042 0.6862511951
24600152400.0 -0.7029970888 0.6962014075
24650152100.0 -0.6903206517 0.7040061201
