!Created with skrf (http://scikit-rf.org).
# Hz S RI R 50.0 
!freq ReS11 ImS11
300000.0 -0.97584982 -0.1159010786
50299700.0 -0.9999635628 0.0154834024
100299400.0 -0.9981305528 0.0283071021
150299100.0 -1.002902115 0.0453029779
200298800.0 -0.9995548653 0.0586258871
250298500.0 -0.9972414413 0.0719560627
300298200.0 -0.9859845255 0.0879639014
350297900.0 -0.9940488711 0.0989413077
400297600.0 -0.9931631398 0.1155263919
450297300.0 -0.9911613991 0.1293506999
500297000.0 -0.9893659663 0.143939485
550296700.0 -0.9844672106 0.1566137446
600296400.0 -1.017201063 0.1896825953
650296100.0 -0.9822853597 0.1863403003
700295800.0 -0.9792204052 0.2007613868
750295500.0 -0.9763280918 0.2145321294
800295200.0 -0.9729469103 0.2288029921
850294900.0 -0.9695445908 0.2424466724
900294600.0 -0.9658369408 0.2563609095
950294300.0 -0.9620251188 0.2699397196
1000294000.0 -0.9581380225 0.2839087624
1050293700.0 -0.9537233789 0.2976661706
1100293400.0 -0.9493598913 0.3121169933
1150293100.0 -0.9454688286 0.3242378133
1200292800.0 -0.9401706065 0.3385304298
1250292500.0 -0.9345309925 0.351886042
1300292200.0 -0.9288565467 0.3650003973
1350291900.0 -0.9235231309 0.3790908628
1400291600.0 -0.9180098988 0.3921967274
1450291300.0 -0.9125292238 0.4045609551
1500291000.0 -0.9062055867 0.4179632847
1550290700.0 -0.8997328863 0.4313423395
1600290400.0 -0.8932369478 0.4441052778
1650290100.0 -0.8868826924 0.4562343753
1700289800.0 -0.8798661626 0.4699456028
1750289500.0 -0.8727141542 0.482182398
1800289200.0 -0.8654578261 0.4949652834
1850288900.0 -0.8586040789 0.5062043978
1900288600.0 -0.8509351203 0.5191853718
1950288300.0 -0.8429085672 0.5318451597
2000288000.0 -0.8351827208 0.5432761891
2050287700.0 -0.82699269 0.5556396847
2100287400.0 -0.8191530726 0.5671635176
2150287100.0 -0.8104952541 0.5793881462
2200286800.0 -0.8028352577 0.5894994163
2250286500.0 -0.7939670006 0.6015851488
2300286200.0 -0.7851410223 0.6131700742
2350285900.0 -0.7764005347 0.6242688439
2400285600.0 -0.7674285634 0.6351968861
2450285300.0 -0.7589703331 0.6455273453
2500285000.0 -0.7490795615 0.6568994253
2550284700.0 -0.740116098 0.6673967175
2600284400.0 -0.7309267294 0.6775416249
2650284100.0 -0.7217812224 0.6879174908
2700283800.0 -0.7112957967 0.6986130886
2750283500.0 -0.7006509594 0.7091505675
2800283200.0 -0.691282192 0.7188203134
2850282900.0 -0.6808532523 0.7287518151
2900282600.0 -0.6706805397 0.7383172777
2950282300.0 -0.6604225403 0.7475541678
3000282000.0 -0.6496003491 0.7569283778
3050281700.0 -0.6383595108 0.7662397196
3100281400.0 -0.6264997207 0.7754924856
3150281100.0 -0.6146590165 0.7849600421
3200280800.0 -0.602999024 0.7934308344
3250280500.0 -0.5924277875 0.8011422534
3300280200.0 -0.5808989053 0.8088687835
3350279900.0 -0.5696613158 0.8164513531
3400279600.0 -0.5574610613 0.8242747108
3450279300.0 -0.5462687548 0.831178809
3500279000.0 -0.5342198678 0.8383603365
3550278700.0 -0.5217408309 0.8458172961
3600278400.0 -0.5094211367 0.8526833131
3650278100.0 -0.4964975819 0.8605608259
3700277800.0 -0.484344246 0.8669186601
3750277500.0 -0.4719701776 0.8732123895
3800277200.0 -0.4597199774 0.8799326942
3850276900.0 -0.447418228 0.8859071863
3900276600.0 -0.4366617772 0.8918465256
3950276300.0 -0.4241745483 0.8975394892
4000276000.0 -0.4121298146 0.9036799591
4050275700.0 -0.3996039588 0.9098188571
4100275400.0 -0.3881442467 0.9152833094
4150275100.0 -0.3754444476 0.9208935436
4200274800.0 -0.3622799325 0.9265022307
4250274500.0 -0.3501953923 0.9315732737
4300274200.0 -0.3372134724 0.9366250225
4350273900.0 -0.3235396983 0.9420719321
4400273600.0 -0.3085055272 0.9473083413
4450273300.0 -0.2933486813 0.9523474157
4500273000.0 -0.2797319529 0.9568304403
4550272700.0 -0.2655725337 0.9609080139
4600272400.0 -0.2500895565 0.9651435279
4650272100.0 -0.2382870678 0.9683285413
4700271800.0 -0.2248983941 0.9716748851
4750271500.0 -0.2133320078 0.9746693652
4800271200.0 -0.2008440282 0.9773111281
4850270900.0 -0.1868825152 0.9801468445
4900270600.0 -0.1728121409 0.9824676086
4950270300.0 -0.1586801729 0.9850307263
5000270000.0 -0.1442908647 0.9868768767
5050269700.0 -0.1306983345 0.9887126524
5100269400.0 -0.1173007187 0.9903587863
5150269100.0 -0.1039095055 0.9919731084
5200268800.0 -0.0907479222 0.9928959387
5250268500.0 -0.0776801838 0.9938646203
5300268200.0 -0.0646622589 0.9944264744
5350267900.0 -0.0523954831 0.9951337901
5400267600.0 -0.0360170428 0.9964447676
5450267300.0 -0.0230387102 0.9966450188
5500267000.0 -0.0076688482 0.9971742979
5550266700.0 0.0071925397 0.997210176
5600266400.0 0.0228172217 0.9972718342
5650266100.0 0.0392079259 0.9972146563
5700265800.0 0.0536864876 0.9960685437
5750265500.0 0.0686368646 0.9953854415
5800265200.0 0.0826058967 0.9943328712
5850264900.0 0.0961264526 0.9935248456
5900264600.0 0.1127960655 0.991902971
5950264300.0 0.1249860071 0.9901429178
6000264000.0 0.1386448704 0.9881994484
6050263700.0 0.1512739515 0.9866906333
6100263400.0 0.1633451211 0.9848886477
6150263100.0 0.1781031023 0.9827779217
6200262800.0 0.1887977326 0.9808902605
6250262500.0 0.2011717241 0.9784026427
6300262200.0 0.2141213807 0.9758989357
6350261900.0 0.2271226764 0.9727973426
6400261600.0 0.2410496091 0.9694110673
6450261300.0 0.2522344696 0.9666118605
6500261000.0 0.2650361685 0.963275364
6550260700.0 0.2778810348 0.9591777958
6600260400.0 0.2913454734 0.9552422013
6650260100.0 0.3054149276 0.9509535189
6700259800.0 0.3172601613 0.9464408093
6750259500.0 0.3313798504 0.9416133657
6800259200.0 0.3444001185 0.9368344176
6850258900.0 0.356149575 0.9313805058
6900258600.0 0.3685337513 0.9263890606
6950258300.0 0.3808461648 0.9209644349
7000258000.0 0.3930618042 0.9157383871
7050257700.0 0.4053985171 0.909702953
7100257400.0 0.4180612546 0.9031906547
7150257100.0 0.4284373873 0.8981772336
7200256800.0 0.4410299054 0.8917633584
7250256500.0 0.4526156986 0.8855398007
7300256200.0 0.4662152653 0.8788195305
7350255900.0 0.4783056117 0.87192871
7400255600.0 0.4915517576 0.8644633227
7450255300.0 0.5069998387 0.8556021575
7500255000.0 0.5187290576 0.8483000291
7550254700.0 0.5323233457 0.8400312157
7600254400.0 0.5453278878 0.8316849926
7650254100.0 0.5567256872 0.8239342922
7700253800.0 0.5686711661 0.8158995858
7750253500.0 0.5796671139 0.8080667182
7800253200.0 0.5904441637 0.8006221526
7850252900.0 0.6002448957 0.79343072
7900252600.0 0.6118859263 0.784606136
7950252300.0 0.6206972596 0.7781548878
8000252000.0 0.6308259212 0.7706090963
8050251700.0 0.6411489441 0.7621815633
8100251400.0 0.6514023068 0.7541982788
8150251100.0 0.6618438043 0.7453646491
8200250800.0 0.670873427 0.7374691321
8250250500.0 0.6798260738 0.7297114894
8300250200.0 0.6893263149 0.7209786029
8350249900.0 0.6981915436 0.7121908779
8400249600.0 0.7063394588 0.7041996496
8450249300.0 0.7157792164 0.695166522
8500249000.0 0.7242348975 0.6859483436
8550248700.0 0.7324863564 0.6771021412
8600248400.0 0.7411129383 0.6674606883
8650248100.0 0.748543357 0.6582477652
8700247800.0 0.7581954288 0.6470159151
8750247500.0 0.7664527738 0.636708241
8800247200.0 0.7746085536 0.6264360184
8850246900.0 0.7834456139 0.6150417064
8900246600.0 0.791712664 0.6036249653
8950246300.0 0.8014759272 0.5908988252
9000246000.0 0.8109334051 0.5778303541
9050245700.0 0.819735329 0.564860017
9100245400.0 0.8282119013 0.5523487723
9150245100.0 0.8380250485 0.5387277666
9200244800.0 0.8477776903 0.5233524092
9250244500.0 0.8570557578 0.5078669914
9300244200.0 0.8654769686 0.4933051424
9350243900.0 0.8731681499 0.479562328
9400243600.0 0.8800265081 0.4671031713
9450243300.0 0.885802109 0.4553737577
9500243000.0 0.8921797344 0.443243865
9550242700.0 0.8957620354 0.4355486486
9600242400.0 0.8998162525 0.4280259743
9650242100.0 0.9035528871 0.4216063458
9700241800.0 0.9081639464 0.4133965186
9750241500.0 0.9120355592 0.4058264014
9800241200.0 0.9168057352 0.3965718332
9850240900.0 0.9223259273 0.3854205364
9900240600.0 0.9277935108 0.3736243749
9950240300.0 0.9345679538 0.3574165265
10000240000.0 0.9393994324 0.3458503688
10050239700.0 0.9448017746 0.3303625886
10100239400.0 0.9497356934 0.3153025937
10150239100.0 0.9542156316 0.3004746904
10200238800.0 0.9582757581 0.285539053
10250238500.0 0.9616903215 0.2722797131
10300238200.0 0.9646308825 0.2583796567
10350237900.0 0.9672754237 0.2451859422
10400237600.0 0.9698212539 0.2324005544
10450237300.0 0.9725133287 0.2185790762
10500237000.0 0.9748141353 0.2060034281
10550236700.0 0.9772660988 0.1921667512
10600236400.0 0.9794780099 0.1781786285
10650236100.0 0.9810093402 0.1640584444
10700235800.0 0.9830785063 0.1520055034
10750235500.0 0.9855754897 0.1384626426
10800235200.0 0.9876533939 0.1241015993
10850234900.0 0.9898596433 0.1095583905
10900234600.0 0.9917492214 0.0951110658
10950234300.0 0.9934033678 0.0817918522
11000234000.0 0.9951670695 0.0666727772
11050233700.0 0.9970481017 0.0501342885
11100233400.0 0.9984128559 0.0327020211
11150233100.0 0.9994881734 0.0168198684
11200232800.0 0.9997898727 0.0016084337
11250232500.0 1.001211305 -0.0147374685
11300232200.0 1.001406827 -0.0326151402
11350231900.0 1.001778369 -0.0477117258
11400231600.0 1.001346404 -0.0633950809
11450231300.0 1.001098168 -0.0786484888
11500231000.0 0.9998374522 -0.0952678577
11550230700.0 0.9989150377 -0.1086662885
11600230400.0 0.9972889759 -0.1218575452
11650230100.0 0.9951131121 -0.1328138246
11700229800.0 0.9932614027 -0.1478076377
11750229500.0 0.9907516732 -0.1617637772
11800229200.0 0.9882558757 -0.1759095429
11850228900.0 0.9844265737 -0.1883770196
11900228600.0 0.9809592776 -0.1983343046
11950228300.0 0.9780860406 -0.2083406451
12000228000.0 0.9753308081 -0.2174796144
12050227700.0 0.9717719717 -0.2298053169
12100227400.0 0.9681912771 -0.2414365563
12150227100.0 0.9633801199 -0.2581499685
12200226800.0 0.9599624784 -0.2694382205
12250226500.0 0.955605223 -0.2816579625
12300226200.0 0.9517014397 -0.2940100809
12350225900.0 0.9470753247 -0.3077429564
12400225600.0 0.9426207851 -0.3214141145
12450225300.0 0.9380347799 -0.3333509604
12500225000.0 0.9320215442 -0.3484271987
12550224700.0 0.9270721444 -0.3623576339
12600224400.0 0.9222463587 -0.3749859153
12650224100.0 0.916293796 -0.3893596445
12700223800.0 0.9110203625 -0.4023885652
12750223500.0 0.9055278834 -0.4151778363
12800223200.0 0.9002007684 -0.4278719883
12850222900.0 0.8945820005 -0.4401396002
12900222600.0 0.8888256733 -0.4525394905
12950222300.0 0.8825881695 -0.4651602732
13000222000.0 0.8770963385 -0.4759969049
13050221700.0 0.8705418268 -0.4888821757
13100221400.0 0.8638070866 -0.5005115157
13150221100.0 0.8569803595 -0.5130605208
13200220800.0 0.8496760907 -0.5249460154
13250220500.0 0.8425298206 -0.537033258
13300220200.0 0.835073703 -0.5476780089
13350219900.0 0.8271582971 -0.5596311547
13400219600.0 0.8184357017 -0.5719978629
13450219300.0 0.809472894 -0.5856180174
13500219000.0 0.7992301096 -0.5994409731
13550218700.0 0.7888479737 -0.6121008149
13600218400.0 0.7786140343 -0.6243089134
13650218100.0 0.7690179202 -0.6357185453
13700217800.0 0.7577147358 -0.6477818156
13750217500.0 0.7477732805 -0.659322677
13800217200.0 0.736710548 -0.6708597774
13850216900.0 0.7256523966 -0.6820693575
13900216600.0 0.7160727765 -0.691659144
13950216300.0 0.7052252094 -0.7011274847
14000216000.0 0.6952322006 -0.7101448886
14050215700.0 0.6853657759 -0.7189654377
14100215400.0 0.6754159504 -0.7281051762
14150215100.0 0.6664589393 -0.7367667298
14200214800.0 0.6570759567 -0.7453781461
14250214500.0 0.6466750829 -0.7546001154
14300214200.0 0.6364762534 -0.763941426
14350213900.0 0.6253192548 -0.7733678397
14400213600.0 0.6132725956 -0.7834307059
14450213300.0 0.6003849836 -0.7933628694
14500213000.0 0.5871533949 -0.8033781206
14550212700.0 0.5746557923 -0.8134562727
14600212400.0 0.5620168282 -0.8220760595
14650212100.0 0.5492515817 -0.8305744749
14700211800.0 0.5350496996 -0.8399626164
14750211500.0 0.5235752193 -0.8485519172
14800211200.0 0.5108821727 -0.8560618425
14850210900.0 0.4988370162 -0.8635905974
14900210600.0 0.4857393992 -0.8715520915
14950210300.0 0.47228034 -0.8791866233
15000210000.0 0.4595525144 -0.8861730457
15050209700.0 0.4473222024 -0.8919407129
15100209400.0 0.4347813482 -0.8979923506
15150209100.0 0.4224034518 -0.9030066978
15200208800.0 0.4090333789 -0.9090913738
15250208500.0 0.3989506617 -0.9135651398
15300208200.0 0.3852819466 -0.9177182557
15350207900.0 0.3735228771 -0.922100458
15400207600.0 0.3580348164 -0.9281540795
15450207300.0 0.343356804 -0.9331311378
15500207000.0 0.3289566786 -0.9377195814
15550206700.0 0.3136951501 -0.943124476
15600206400.0 0.2981749551 -0.9476369412
15650206100.0 0.2825209618 -0.952052293
15700205800.0 0.2682787429 -0.9552421795
15750205500.0 0.2538237546 -0.958624916
15800205200.0 0.2392973858 -0.9624090028
15850204900.0 0.2249913136 -0.9656205271
15900204600.0 0.209889504 -0.9690910003
15950204300.0 0.1957205503 -0.9723740196
16000204000.0 0.1817814385 -0.9751358286
16050203700.0 0.1665835213 -0.9778035606
16100203400.0 0.1517060402 -0.9803157414
16150203100.0 0.1372284401 -0.98231247
16200202800.0 0.1237844744 -0.9846586786
16250202500.0 0.1086891437 -0.9862352006
16300202200.0 0.0936329089 -0.9875464275
16350201900.0 0.0786729198 -0.9891461857
16400201600.0 0.064024631 -0.9904599775
16450201300.0 0.0487939074 -0.9915824655
16500201000.0 0.0322568247 -0.9921082676
16550200700.0 0.0164689695 -0.9927424206
16600200400.0 0.0008582788 -0.9927914895
16650200100.0 -0.0153357477 -0.9927232202
16700199800.0 -0.0315486585 -0.9921158473
16750199500.0 -0.0499481032 -0.9916725709
16800199200.0 -0.0657998029 -0.9910926205
16850198900.0 -0.0813108431 -0.9896245152
16900198600.0 -0.0947648026 -0.9879932022
16950198300.0 -0.1081410122 -0.9877972739
17000198000.0 -0.1212261191 -0.9861353244
17050197700.0 -0.1335644998 -0.9841573484
17100197400.0 -0.146630943 -0.9824205883
17150197100.0 -0.1596110398 -0.9802890622
17200196800.0 -0.1720014424 -0.9779132537
17250196500.0 -0.1853078099 -0.9757911375
17300196200.0 -0.197114334 -0.9734202191
17350195900.0 -0.2091380816 -0.9710198488
17400195600.0 -0.2214921287 -0.9685783148
17450195300.0 -0.2345525448 -0.9657483211
17500195000.0 -0.2478146458 -0.9622521782
17550194700.0 -0.2618461657 -0.9586987247
17600194400.0 -0.2756204636 -0.9547636737
17650194100.0 -0.2893531378 -0.950642246
17700193800.0 -0.3026399536 -0.9465982243
17750193500.0 -0.3169877781 -0.9418489023
17800193200.0 -0.3316763972 -0.9371046553
17850192900.0 -0.3462668051 -0.9313446489
17900192600.0 -0.3616461107 -0.9252558464
17950192300.0 -0.3771074092 -0.9183824231
18000192000.0 -0.3920206549 -0.9109850266
18050191700.0 -0.405856266 -0.9031550546
18100191400.0 -0.4201361857 -0.8954126897
18150191100.0 -0.4350925642 -0.8874275097
18200190800.0 -0.4519943492 -0.8782424707
18250190500.0 -0.4690328423 -0.8684882541
18300190200.0 -0.4844674194 -0.8598307139
18350189900.0 -0.4995147885 -0.8512867593
18400189600.0 -0.5138157234 -0.8433836451
18450189300.0 -0.5272809684 -0.8352787068
18500189000.0 -0.5407489653 -0.8269714924
18550188700.0 -0.5533601893 -0.8196314556
18600188400.0 -0.5648041278 -0.8129610096
18650188100.0 -0.5760676762 -0.8066510986
18700187800.0 -0.5867128825 -0.8001261338
18750187500.0 -0.5971716942 -0.7936280979
18800187200.0 -0.6078441446 -0.7863570503
18850186900.0 -0.6180331597 -0.7795517182
18900186600.0 -0.6282546357 -0.7722586779
18950186300.0 -0.6379448807 -0.7646312019
19000186000.0 -0.6454687724 -0.7586176565
19050185700.0 -0.6545576524 -0.7510880371
19100185400.0 -0.664740102 -0.7429579741
19150185100.0 -0.6750367844 -0.7344376577
19200184800.0 -0.6842079206 -0.72611172
19250184500.0 -0.6948520765 -0.7169117365
19300184200.0 -0.7058596585 -0.7072042955
19350183900.0 -0.7172046689 -0.6973646807
19400183600.0 -0.725694343 -0.6886765488
19450183300.0 -0.7350675168 -0.6774452095
19500183000.0 -0.7435936616 -0.6673772915
19550182700.0 -0.7535452647 -0.6567098802
19600182400.0 -0.7638245678 -0.6451449342
19650182100.0 -0.7748531965 -0.6325831104
19700181800.0 -0.7857441966 -0.6195025418
19750181500.0 -0.796010375 -0.6050169893
19800181200.0 -0.8064578705 -0.5899764739
19850180900.0 -0.8161492909 -0.5746162906
19900180600.0 -0.8238752332 -0.5601315839
19950180300.0 -0.8333413198 -0.5438660253
20000180000.0 -0.826370269 -0.5462097033
20050179700.0 -0.834885289 -0.53280088
20100179400.0 -0.8426525688 -0.5199493549
20150179100.0 -0.8499694362 -0.5069754849
20200178800.0 -0.8593846849 -0.4940397869
20250178500.0 -0.8695672287 -0.4803582039
20300178200.0 -0.879130613 -0.4656803761
20350177900.0 -0.8879524133 -0.4514539242
20400177600.0 -0.8972941619 -0.437177753
20450177300.0 -0.905156331 -0.4224806958
20500177000.0 -0.9134767631 -0.408376318
20550176700.0 -0.9208020226 -0.3950471434
20600176400.0 -0.928106279 -0.3820216514
20650176100.0 -0.9344875879 -0.3697090806
20700175800.0 -0.9417929041 -0.3576554529
20750175500.0 -0.9476945138 -0.3464077513
20800175200.0 -0.9525725049 -0.335409654
20850174900.0 -0.9573674047 -0.324897547
20900174600.0 -0.9617391262 -0.3124326535
20950174300.0 -0.9663801205 -0.3007829968
21000174000.0 -0.9689766148 -0.2901185195
21050173700.0 -0.9725838434 -0.2794615972
21100173400.0 -0.977123834 -0.2674549255
21150173100.0 -0.9806740417 -0.2544410974
21200172800.0 -0.9840009916 -0.2406816957
21250172500.0 -0.9872256239 -0.2275202804
21300172200.0 -0.9898997435 -0.2130290356
21350171900.0 -0.9915762748 -0.1988966906
21400171600.0 -0.9928165931 -0.1841507838
21450171300.0 -0.9937898323 -0.169442156
21500171000.0 -0.9933006507 -0.1549619398
21550170700.0 -0.9930124425 -0.1392399456
21600170400.0 -0.992422012 -0.1233895832
21650170100.0 -0.9914875177 -0.108912209
21700169800.0 -0.9902969853 -0.0927003795
21750169500.0 -0.9890551739 -0.077189366
21800169200.0 -0.9876713742 -0.0600016562
21850168900.0 -0.9867230117 -0.0430884646
21900168600.0 -0.9855790143 -0.0271578284
21950168300.0 -0.9839423623 -0.0115352236
22000168000.0 -0.9830955132 0.0035465212
22050167700.0 -0.9827391643 0.0178669652
22100167400.0 -0.983113414 0.0333306413
22150167100.0 -0.9837531703 0.048844754
22200166800.0 -0.9841752611 0.0647632812
22250166500.0 -0.9834083224 0.0817198876
22300166200.0 -0.9833996328 0.0992558816
22350165900.0 -0.9815839409 0.1149190712
22400165600.0 -0.9800127745 0.1311473706
22450165300.0 -0.9769607896 0.14666134
22500165000.0 -0.9757176072 0.1607833178
22550164700.0 -0.975015333 0.1750748537
22600164400.0 -0.9741607307 0.1905121825
22650164100.0 -0.9719085255 0.2058307671
22700163800.0 -0.9678298813 0.221486349
22750163500.0 -0.9661427649 0.236616821
22800163200.0 -0.9632879986 0.2496565951
22850162900.0 -0.9607909194 0.2629517045
22900162600.0 -0.9594098028 0.2762978019
22950162300.0 -0.958524461 0.2891026909
23000162000.0 -0.957404864 0.3009486594
23050161700.0 -0.9551214621 0.313698226
23100161400.0 -0.9526094745 0.3265789845
23150161100.0 -0.9503153976 0.3388060277
23200160800.0 -0.9475753659 0.3508384317
23250160500.0 -0.944498673 0.3625760048
23300160200.0 -0.9419551149 0.3744911778
23350159900.0 -0.9383451276 0.3882514813
23400159600.0 -0.9334467829 0.4012098021
23450159300.0 -0.9288436725 0.4139759356
23500159000.0 -0.9245053243 0.4269202879
23550158700.0 -0.9199148396 0.4401800779
23600158400.0 -0.9144794073 0.4534680143
23650158100.0 -0.9082176866 0.4676957813
23700157800.0 -0.9005034604 0.4814810032
23750157500.0 -0.8921311974 0.4953156071
23800157200.0 -0.8831718158 0.5086837214
23850156900.0 -0.8741048787 0.5213776936
23900156600.0 -0.8652421686 0.5335920222
23950156300.0 -0.8560933141 0.5468328105
24000156000.0 -0.8467228394 0.5585056618
24050155700.0 -0.8373107789 0.5699750014
24100155400.0 -0.8272535861 0.5825957981
24150155100.0 -0.8162732159 0.5940864429
24200154800.0 -0.8051121914 0.6047472289
24250154500.0 -0.7942995302 0.6166873024
24300154200.0 -0.7832854431 0.6281913883
24350153900.0 -0.7709809907 0.6388325501
24400153600.0 -0.7585084863 0.6491082687
24450153300.0 -0.7470238742 0.6589845664
24500153000.0 -0.7353514163 0.6685596001
24550152700.0 -0.7242318667 0.6786388001
24600152400.0 -0.7126550696 0.6876607
