!Created with skrf (http://scikit-rf.org).
# Hz S RI R 50.0 
!freq ReS11 ImS11
300000.0 -0.9749139148 -0.1177278367
50299700.0 -1.0000981 0.0155038377
100299400.0 -0.9982047217 0.028453513
150299100.0 -1.002725828 0.0454497163
200298800.0 -0.9997255211 0.0584805842
250298500.0 -0.99745259 0.0720785119
300298200.0 -0.9860852177 0.0878407326
350297900.0 -0.9941626481 0.0988061317
400297600.0 -0.9930827305 0.1154552151
450297300.0 -0.9912247985 0.129311862
500297000.0 -0.9895983345 0.1439082396
550296700.0 -0.9844700876 0.1563031417
600296400.0 -1.017332089 0.1897785548
650296100.0 -0.9825189809 0.1863036796
700295800.0 -0.9794880632 0.200654255
750295500.0 -0.976302627 0.2146154041
800295200.0 -0.972921647 0.228734472
850294900.0 -0.9696909982 0.2424691304
900294600.0 -0.9660214326 0.2562328117
950294300.0 -0.9622074198 0.2699429501
1000294000.0 -0.9581064479 0.2841782433
1050293700.0 -0.9535744883 0.2976803095
1100293400.0 -0.9492517603 0.3121994569
1150293100.0 -0.9454303862 0.3241828814
1200292800.0 -0.9400750107 0.3384005568
1250292500.0 -0.9346693953 0.3518736284
1300292200.0 -0.9289524388 0.3651481893
1350291900.0 -0.9235273958 0.3791761153
1400291600.0 -0.9180012333 0.3921404065
1450291300.0 -0.9125828634 0.404551293
1500291000.0 -0.9061027366 0.4179147546
1550290700.0 -0.8997411625 0.4313811153
1600290400.0 -0.8932569279 0.4443268386
1650290100.0 -0.8868238686 0.4563294363
1700289800.0 -0.8799261088 0.4697119989
1750289500.0 -0.872698397 0.4821399385
1800289200.0 -0.865481344 0.4949646778
1850288900.0 -0.8586821217 0.5062257871
1900288600.0 -0.8509145863 0.5192659644
1950288300.0 -0.8427536495 0.5318331888
2000288000.0 -0.8353615063 0.5431142318
2050287700.0 -0.8270836846 0.555358312
2100287400.0 -0.8190703116 0.5673497968
2150287100.0 -0.8106333813 0.5792784301
2200286800.0 -0.8028853804 0.5897490276
2250286500.0 -0.7941594982 0.6017594682
2300286200.0 -0.7851277525 0.6132602149
2350285900.0 -0.7764263606 0.6242629205
2400285600.0 -0.7674546923 0.6352249057
2450285300.0 -0.7588945298 0.6456224603
2500285000.0 -0.749227939 0.6569603424
2550284700.0 -0.7402767758 0.6672729635
2600284400.0 -0.7307369999 0.677318406
2650284100.0 -0.7219279591 0.6881006954
2700283800.0 -0.7112927298 0.6985303242
2750283500.0 -0.7007836649 0.708916527
2800283200.0 -0.691228784 0.718719734
2850282900.0 -0.680866564 0.7285354783
2900282600.0 -0.6705531034 0.738133848
2950282300.0 -0.660298604 0.7476173254
3000282000.0 -0.6495854898 0.7569428163
3050281700.0 -0.6386041235 0.7663032815
3100281400.0 -0.626473179 0.7756179286
3150281100.0 -0.6147013364 0.7849678225
3200280800.0 -0.6029755775 0.793546246
3250280500.0 -0.592309431 0.801116608
3300280200.0 -0.5811514214 0.8091080904
3350279900.0 -0.5693791144 0.8164874222
3400279600.0 -0.5573299573 0.8243731287
3450279300.0 -0.5462474852 0.8312702492
3500279000.0 -0.5341338306 0.8383970584
3550278700.0 -0.5216043528 0.8457836391
3600278400.0 -0.5094776532 0.8528103998
3650278100.0 -0.4965688689 0.8607513176
3700277800.0 -0.4842103009 0.8669417156
3750277500.0 -0.4720897483 0.873552063
3800277200.0 -0.4596793167 0.8801622109
3850276900.0 -0.4475454048 0.8858496902
3900276600.0 -0.4367453775 0.8916084182
3950276300.0 -0.4241225995 0.8975410539
4000276000.0 -0.4122959762 0.9038423598
4050275700.0 -0.3993072427 0.9096357833
4100275400.0 -0.3881190293 0.9148861661
4150275100.0 -0.3753842758 0.9208332723
4200274800.0 -0.3625426778 0.9262082342
4250274500.0 -0.3502011178 0.9313556899
4300274200.0 -0.3372524379 0.9368626507
4350273900.0 -0.3232642621 0.9419399475
4400273600.0 -0.3085251246 0.9471037351
4450273300.0 -0.2932978151 0.9524873765
4500273000.0 -0.2794710694 0.9566316143
4550272700.0 -0.2653084026 0.9608162037
4600272400.0 -0.2498366286 0.9652055644
4650272100.0 -0.238249524 0.9684495699
4700271800.0 -0.224922375 0.9717529944
4750271500.0 -0.2131928251 0.9745376419
4800271200.0 -0.2008368349 0.9771905978
4850270900.0 -0.186754368 0.9800788684
4900270600.0 -0.1728249995 0.9826591232
4950270300.0 -0.1586198301 0.9851076105
5000270000.0 -0.1443074704 0.9869920181
5050269700.0 -0.1310531721 0.9883591397
5100269400.0 -0.1171924937 0.9905603107
5150269100.0 -0.1039726586 0.9920566734
5200268800.0 -0.0908039978 0.9928632309
5250268500.0 -0.0774228905 0.9943269499
5300268200.0 -0.0644558084 0.994612608
5350267900.0 -0.0522716676 0.9956086745
5400267600.0 -0.0360348903 0.9963158156
5450267300.0 -0.0230019465 0.9967922029
5500267000.0 -0.0079293523 0.9970674764
5550266700.0 0.0071108708 0.9971885797
5600266400.0 0.0227386229 0.9973463639
5650266100.0 0.0391795627 0.9969339328
5700265800.0 0.0538479979 0.9960199003
5750265500.0 0.068917224 0.9956077315
5800265200.0 0.0826460667 0.9944447501
5850264900.0 0.0958769691 0.9934720762
5900264600.0 0.1126166658 0.9919779148
5950264300.0 0.1247823891 0.9902600385
6000264000.0 0.1386719812 0.9879644981
6050263700.0 0.151342998 0.9867883452
6100263400.0 0.1635995505 0.9848827015
6150263100.0 0.1782909042 0.9824343072
6200262800.0 0.1885056539 0.9808696803
6250262500.0 0.2011942337 0.9783967123
6300262200.0 0.21404314 0.9755644289
6350261900.0 0.2272269795 0.97271503
6400261600.0 0.2409320768 0.9694720279
6450261300.0 0.2524640203 0.9667957621
6500261000.0 0.2652054394 0.9632926233
6550260700.0 0.2782658105 0.9592702828
6600260400.0 0.2915633934 0.9552425708
6650260100.0 0.3054040415 0.9506873943
6700259800.0 0.3172935852 0.9465571744
6750259500.0 0.3311669302 0.9416496773
6800259200.0 0.3443210443 0.9366775579
6850258900.0 0.3559368726 0.9311827511
6900258600.0 0.3684025985 0.9264359452
6950258300.0 0.3808961025 0.9210685649
7000258000.0 0.3931545974 0.9157499192
7050257700.0 0.4051480528 0.9097402843
7100257400.0 0.4179563703 0.9034917059
7150257100.0 0.4283395111 0.898159566
7200256800.0 0.4411722727 0.8917295983
7250256500.0 0.452915277 0.8853733775
7300256200.0 0.4659282533 0.8785464566
7350255900.0 0.4782808312 0.8715577645
7400255600.0 0.4925620307 0.8646322672
7450255300.0 0.5072517019 0.8557670766
7500255000.0 0.5189321874 0.8483835969
7550254700.0 0.5326817575 0.84005203
7600254400.0 0.545659606 0.8315979868
7650254100.0 0.556918621 0.8237010463
7700253800.0 0.5685669258 0.8157976395
7750253500.0 0.5800337173 0.8080098165
7800253200.0 0.5906985138 0.8003770114
7850252900.0 0.6003821491 0.7932893239
7900252600.0 0.6121274011 0.7845284885
7950252300.0 0.620709735 0.7781058101
8000252000.0 0.6309171387 0.7702939416
8050251700.0 0.6413537783 0.7622941347
8100251400.0 0.6514682404 0.7539005535
8150251100.0 0.6613111916 0.7454109021
8200250800.0 0.6712172335 0.7373672046
8250250500.0 0.679888555 0.7293307835
8300250200.0 0.6893032062 0.720997851
8350249900.0 0.6980269255 0.7122588624
8400249600.0 0.7067089911 0.7041456951
8450249300.0 0.7157089466 0.6951169036
8500249000.0 0.7242103588 0.6861854454
8550248700.0 0.7325685395 0.6769515744
8600248400.0 0.740867291 0.6676514016
8650248100.0 0.748614432 0.6581684383
8700247800.0 0.7581341159 0.6470337938
8750247500.0 0.7665494521 0.6368565229
8800247200.0 0.7745767827 0.6264226672
8850246900.0 0.7834605902 0.6150166212
8900246600.0 0.7916630078 0.6037490638
8950246300.0 0.8012744598 0.5907020785
9000246000.0 0.8108134361 0.5780327125
9050245700.0 0.8200150705 0.5651026806
9100245400.0 0.8284093205 0.5523771361
9150245100.0 0.8379525932 0.5388084313
9200244800.0 0.847684811 0.5234350077
9250244500.0 0.856908288 0.5079485693
9300244200.0 0.8653498203 0.4934452611
9350243900.0 0.8733195366 0.47941064
9400243600.0 0.8799579117 0.4670631839
9450243300.0 0.8857263791 0.4554560711
9500243000.0 0.8920115853 0.4433227982
9550242700.0 0.8958658635 0.4355685719
9600242400.0 0.8998448411 0.4283161577
9650242100.0 0.9034235782 0.4220563158
9700241800.0 0.9079268624 0.413767912
9750241500.0 0.9118850314 0.4059899284
9800241200.0 0.9165746642 0.3971335546
9850240900.0 0.9226696821 0.3851479263
9900240600.0 0.9278571213 0.373778439
9950240300.0 0.9343069075 0.3577330667
10000240000.0 0.9394547258 0.3462822019
10050239700.0 0.9449522658 0.3309413952
10100239400.0 0.9498436693 0.315285689
10150239100.0 0.9542787239 0.3004978635
10200238800.0 0.9583691739 0.2855437375
10250238500.0 0.9616744859 0.2722889483
10300238200.0 0.9648014489 0.2582310594
10350237900.0 0.9674036455 0.2450895079
10400237600.0 0.9699200801 0.2318986313
10450237300.0 0.9727256145 0.2182216139
10500237000.0 0.9747904181 0.2056887727
10550236700.0 0.9770097855 0.1923167045
10600236400.0 0.9791673405 0.178458753
10650236100.0 0.9810504051 0.1638359973
10700235800.0 0.9839155768 0.1510478789
10750235500.0 0.9856125324 0.1382566993
10800235200.0 0.9877593868 0.1238260554
10850234900.0 0.9897266224 0.1092511224
10900234600.0 0.9917878709 0.0950984632
10950234300.0 0.9934304574 0.0816668011
11000234000.0 0.9951758024 0.0665920889
11050233700.0 0.9970437768 0.0501067803
11100233400.0 0.9986567187 0.0325507056
11150233100.0 0.9994822906 0.0167807554
11200232800.0 1.00004143 0.0014399854
11250232500.0 1.001474624 -0.0153248906
11300232200.0 1.002028424 -0.0330876281
11350231900.0 1.001936448 -0.048427309
11400231600.0 1.001411399 -0.0645310062
11450231300.0 1.001134914 -0.0798712371
11500231000.0 0.9994942929 -0.0958933877
11550230700.0 0.9989628668 -0.1095624188
11600230400.0 0.9971461318 -0.1229514999
11650230100.0 0.9950426052 -0.1330971915
11700229800.0 0.9929414572 -0.1480813897
11750229500.0 0.9907700311 -0.1626554923
11800229200.0 0.9882064394 -0.1765420201
11850228900.0 0.9847273424 -0.1887859194
11900228600.0 0.9810813535 -0.1985916575
11950228300.0 0.9775422828 -0.2092545384
12000228000.0 0.97495492 -0.2182225974
12050227700.0 0.9716165188 -0.2303167098
12100227400.0 0.9679965918 -0.2422378316
12150227100.0 0.9630252485 -0.2586256419
12200226800.0 0.9591584924 -0.2696023088
12250226500.0 0.9557884011 -0.2827792145
12300226200.0 0.9518411331 -0.2939588457
12350225900.0 0.9464421469 -0.3080207219
12400225600.0 0.9423578336 -0.3206137221
12450225300.0 0.9379822208 -0.3334552546
12500225000.0 0.9324412258 -0.3489536565
12550224700.0 0.9269722118 -0.3625276449
12600224400.0 0.9220058884 -0.3754511128
12650224100.0 0.9161419361 -0.3895754862
12700223800.0 0.911089526 -0.4023734982
12750223500.0 0.9055863787 -0.4153681952
12800223200.0 0.9001224557 -0.4281253365
12850222900.0 0.8947253904 -0.4401529884
12900222600.0 0.8889473132 -0.4525539241
12950222300.0 0.8827542385 -0.4648914056
13000222000.0 0.8772468947 -0.4760966317
13050221700.0 0.8699061996 -0.4894167818
13100221400.0 0.8635625063 -0.5011929215
13150221100.0 0.8565832701 -0.5137500845
13200220800.0 0.8493051754 -0.5249629882
13250220500.0 0.8424756901 -0.53678979
13300220200.0 0.83509388 -0.5478826943
13350219900.0 0.8270876611 -0.5598480193
13400219600.0 0.8186904074 -0.5717993348
13450219300.0 0.8089849949 -0.5857544062
13500219000.0 0.7989035368 -0.5993565032
13550218700.0 0.7889189907 -0.6122215552
13600218400.0 0.7783145284 -0.6245863024
13650218100.0 0.7689899103 -0.6348578948
13700217800.0 0.7576534801 -0.6476443901
13750217500.0 0.7479445031 -0.6592641451
13800217200.0 0.7370476267 -0.6705682072
13850216900.0 0.7257569219 -0.6826736036
13900216600.0 0.7155752409 -0.6914372582
13950216300.0 0.7046932826 -0.7014651943
14000216000.0 0.6951520525 -0.7108770219
14050215700.0 0.6853785571 -0.7192508239
14100215400.0 0.6750513981 -0.728306864
14150215100.0 0.6662849556 -0.7369856789
14200214800.0 0.6568438942 -0.7453404422
14250214500.0 0.6465909735 -0.7547294784
14300214200.0 0.6363559501 -0.7640417937
14350213900.0 0.6252482091 -0.7737511673
14400213600.0 0.6134319792 -0.7835140288
14450213300.0 0.6005911074 -0.7938108056
14500213000.0 0.5869811186 -0.8034111145
14550212700.0 0.5745875376 -0.8130470577
14600212400.0 0.5625361109 -0.8218832301
14650212100.0 0.5491532931 -0.8304603837
14700211800.0 0.5352875358 -0.8399642478
14750211500.0 0.5229344428 -0.8483688941
14800211200.0 0.5109578993 -0.8562305673
14850210900.0 0.4989111818 -0.8639305833
14900210600.0 0.4856004879 -0.8714164745
14950210300.0 0.4721636163 -0.8793451586
15000210000.0 0.4596379268 -0.8860657937
15050209700.0 0.447427517 -0.8921451099
15100209400.0 0.4345282703 -0.8979108256
15150209100.0 0.4214670659 -0.9032025719
15200208800.0 0.4085008752 -0.9089451166
15250208500.0 0.3975327073 -0.9134245151
15300208200.0 0.3852143402 -0.9178579196
15350207900.0 0.3730247471 -0.9229858709
15400207600.0 0.3573876353 -0.9276386383
15450207300.0 0.343430098 -0.9335186588
15500207000.0 0.3288383587 -0.9373178419
15550206700.0 0.3139219132 -0.9425035163
15600206400.0 0.2980651697 -0.9473658685
15650206100.0 0.2821989643 -0.9514526657
15700205800.0 0.2679463116 -0.9552685046
15750205500.0 0.2537892837 -0.9586994631
15800205200.0 0.239187026 -0.9623743746
15850204900.0 0.2248239535 -0.9657092091
15900204600.0 0.2096478962 -0.9693169159
15950204300.0 0.1955226565 -0.9721733793
16000204000.0 0.181551059 -0.9750285224
16050203700.0 0.1666162039 -0.9780705175
16100203400.0 0.1521113372 -0.9800819549
16150203100.0 0.1374043607 -0.9822195861
16200202800.0 0.1231106381 -0.9845778123
16250202500.0 0.1092954414 -0.9864935275
16300202200.0 0.0936550978 -0.9875324349
16350201900.0 0.0786886786 -0.9891398353
16400201600.0 0.0640597427 -0.9903607103
16450201300.0 0.0487577244 -0.9911057146
16500201000.0 0.0321681943 -0.9921278617
16550200700.0 0.0165589863 -0.9927010546
16600200400.0 0.0007433011 -0.9926758448
16650200100.0 -0.0151839258 -0.9927211288
16700199800.0 -0.0315161813 -0.9922485097
16750199500.0 -0.0505787133 -0.9915814389
16800199200.0 -0.0659384759 -0.9908130513
16850198900.0 -0.0817135032 -0.9894614514
16900198600.0 -0.0957599356 -0.9892308131
16950198300.0 -0.1080919866 -0.9877116939
17000198000.0 -0.121218205 -0.9855528094
17050197700.0 -0.1344313841 -0.9843552953
17100197400.0 -0.1469182008 -0.9819298128
17150197100.0 -0.1597683845 -0.9800916843
17200196800.0 -0.1725034401 -0.9780187282
17250196500.0 -0.1851497495 -0.9758451067
17300196200.0 -0.1975121309 -0.9733937029
17350195900.0 -0.2093400263 -0.971034208
17400195600.0 -0.2215418755 -0.9687448466
17450195300.0 -0.2346900723 -0.9657995569
17500195000.0 -0.2481683288 -0.9626096495
17550194700.0 -0.2620913157 -0.959011723
17600194400.0 -0.2757684926 -0.9548343859
17650194100.0 -0.2898346787 -0.9508372744
17700193800.0 -0.3026906768 -0.9465363604
17750193500.0 -0.3172670969 -0.9417388906
17800193200.0 -0.3317447244 -0.937197049
17850192900.0 -0.3466626886 -0.9313850346
17900192600.0 -0.3617436364 -0.9252265976
17950192300.0 -0.3772241997 -0.9180355146
18000192000.0 -0.3921920445 -0.9110782045
18050191700.0 -0.4060731567 -0.9029647905
18100191400.0 -0.4201466231 -0.8953820175
18150191100.0 -0.435234827 -0.8872963789
18200190800.0 -0.4520657826 -0.878131995
18250190500.0 -0.4691865521 -0.8686913299
18300190200.0 -0.4847484558 -0.8598916846
18350189900.0 -0.4996249323 -0.8517896324
18400189600.0 -0.5139838659 -0.8435090734
18450189300.0 -0.5276683075 -0.8349532832
18500189000.0 -0.5408381476 -0.8271798828
18550188700.0 -0.5536044327 -0.8198423919
18600188400.0 -0.565063934 -0.8127463443
18650188100.0 -0.5759461542 -0.8066159495
18700187800.0 -0.5871844699 -0.7998647078
18750187500.0 -0.5974868078 -0.7934100921
18800187200.0 -0.6080293844 -0.7863820333
18850186900.0 -0.618202986 -0.779374236
18900186600.0 -0.6283471625 -0.7720287434
18950186300.0 -0.6383058322 -0.7645002494
19000186000.0 -0.6456110102 -0.7583874717
19050185700.0 -0.6551480548 -0.7511519458
19100185400.0 -0.6647824065 -0.7426205729
19150185100.0 -0.6745796074 -0.7342288592
19200184800.0 -0.6841844271 -0.7259687481
19250184500.0 -0.6953403369 -0.7173803749
19300184200.0 -0.7061634597 -0.7075282883
19350183900.0 -0.7168542874 -0.6975037555
19400183600.0 -0.7260580094 -0.6872165285
19450183300.0 -0.7358403557 -0.6778706991
19500183000.0 -0.7437121106 -0.6673351413
19550182700.0 -0.7535929336 -0.6567269033
19600182400.0 -0.7641592185 -0.6451516025
19650182100.0 -0.774686504 -0.6325707174
19700181800.0 -0.7856473245 -0.6194521924
19750181500.0 -0.7962072322 -0.6052874272
19800181200.0 -0.8064955232 -0.5901305304
19850180900.0 -0.816053953 -0.5748939014
19900180600.0 -0.8239905807 -0.5602947662
19950180300.0 -0.8329425743 -0.5438063817
20000180000.0 -0.8261798304 -0.5467286587
20050179700.0 -0.8347426002 -0.53296699
20100179400.0 -0.8428559735 -0.5194945499
20150179100.0 -0.8508756245 -0.5071938223
20200178800.0 -0.8596742858 -0.4942175479
20250178500.0 -0.8690155534 -0.4795611924
20300178200.0 -0.8787299513 -0.4662851924
20350177900.0 -0.8879691722 -0.4519906678
20400177600.0 -0.896782615 -0.4370682606
20450177300.0 -0.9050909243 -0.4225616606
20500177000.0 -0.9132281019 -0.4087816682
20550176700.0 -0.9212326624 -0.3953555638
20600176400.0 -0.9278846912 -0.3821219279
20650176100.0 -0.9341513133 -0.3700560917
20700175800.0 -0.9418192181 -0.3583176212
20750175500.0 -0.9473868113 -0.3465536231
20800175200.0 -0.9525495267 -0.3352586458
20850174900.0 -0.9578714075 -0.3237151673
20900174600.0 -0.9619659215 -0.3134257055
20950174300.0 -0.9665302109 -0.3013695093
21000174000.0 -0.9697943296 -0.2901693137
21050173700.0 -0.9722878942 -0.2795233973
21100173400.0 -0.9764016487 -0.2675936629
21150173100.0 -0.980463111 -0.2543486537
21200172800.0 -0.9837758072 -0.2410413305
21250172500.0 -0.9870080996 -0.2276776295
21300172200.0 -0.9895002265 -0.2133443229
21350171900.0 -0.9913762357 -0.1991070422
21400171600.0 -0.9931941515 -0.1851153768
21450171300.0 -0.9933161618 -0.1702234137
21500171000.0 -0.9920508864 -0.15466499
21550170700.0 -0.9919450691 -0.1392546453
21600170400.0 -0.9927310487 -0.1239596148
21650170100.0 -0.9918215745 -0.1087192137
21700169800.0 -0.989488732 -0.0933148081
21750169500.0 -0.9883713725 -0.0767950078
21800169200.0 -0.9876051743 -0.0607231449
21850168900.0 -0.9879353808 -0.0442368206
21900168600.0 -0.9855677293 -0.0270851233
21950168300.0 -0.9847924575 -0.0106755059
22000168000.0 -0.9833325025 0.0038271364
22050167700.0 -0.9830543489 0.0180247767
22100167400.0 -0.9833700186 0.0330268884
22150167100.0 -0.9839050682 0.0486637837
22200166800.0 -0.9842478155 0.065163113
22250166500.0 -0.9840271417 0.0823908614
22300166200.0 -0.9834432608 0.098694348
22350165900.0 -0.9814477926 0.1155176808
22400165600.0 -0.9799179001 0.1310600239
22450165300.0 -0.9776977142 0.1457078851
22500165000.0 -0.9750908407 0.159973995
22550164700.0 -0.9753665096 0.1744587903
22600164400.0 -0.9735676217 0.1898079511
22650164100.0 -0.9710124165 0.2050294665
22700163800.0 -0.9682817627 0.2202699751
22750163500.0 -0.9663828775 0.2361636644
22800163200.0 -0.9634268671 0.2496324928
22850162900.0 -0.961205968 0.2630310912
22900162600.0 -0.9597246963 0.2762316597
22950162300.0 -0.9584092148 0.2891551401
23000162000.0 -0.9575899391 0.3003833409
23050161700.0 -0.9556274795 0.3128995612
23100161400.0 -0.9523313312 0.3256432164
23150161100.0 -0.9500452716 0.3388864694
23200160800.0 -0.9476899633 0.3512116298
23250160500.0 -0.9446845115 0.3627486385
23300160200.0 -0.9418797125 0.3749820593
23350159900.0 -0.938159509 0.3873693907
23400159600.0 -0.933568111 0.4005664521
23450159300.0 -0.928681464 0.4145134656
23500159000.0 -0.9246904334 0.4273236378
23550158700.0 -0.9196964665 0.4406276825
23600158400.0 -0.9144446792 0.4537476706
23650158100.0 -0.9079199413 0.4678272105
23700157800.0 -0.9006236316 0.481682544
23750157500.0 -0.891937563 0.4956063034
23800157200.0 -0.8827246426 0.509401363
23850156900.0 -0.874053384 0.5213822734
23900156600.0 -0.8650469808 0.534519835
23950156300.0 -0.8563340894 0.5464839313
24000156000.0 -0.8469580985 0.5587464804
24050155700.0 -0.8370474977 0.5703027691
24100155400.0 -0.8262039643 0.5819867474
24150155100.0 -0.8169023262 0.5941112054
24200154800.0 -0.8048427918 0.6052502113
24250154500.0 -0.7938342933 0.6168424273
24300154200.0 -0.7825457963 0.6287052958
24350153900.0 -0.7707857285 0.6393426248
24400153600.0 -0.7584720466 0.6492070881
24450153300.0 -0.7469653072 0.6591468499
24500153000.0 -0.7348385694 0.6686648977
24550152700.0 -0.724017785 0.6778657816
24600152400.0 -0.7124725307 0.6876973176
24650152100.0 -0.7004864003 0.6963038775
