!Created with skrf (http://scikit-rf.org).
# Hz S RI R 50.0 
!freq ReS11 ImS11
300000.0 -0.9760732907 -0.118119779
50299700.0 -1.000100912 0.0153691597
100299400.0 -0.9980156844 0.0281673142
150299100.0 -1.002870253 0.0451067231
200298800.0 -0.999580011 0.0586012476
250298500.0 -0.9975288661 0.0719865836
300298200.0 -0.9859556969 0.0878303549
350297900.0 -0.9939777547 0.0986560268
400297600.0 -0.9933308539 0.1153587222
450297300.0 -0.9910422642 0.1292539912
500297000.0 -0.9894839337 0.1437808212
550296700.0 -0.9843256319 0.1562801739
600296400.0 -1.017418065 0.1894481213
650296100.0 -0.9823720464 0.1861277956
700295800.0 -0.9794341472 0.2004953915
750295500.0 -0.976167697 0.2145099718
800295200.0 -0.9730240508 0.2285545958
850294900.0 -0.9695460798 0.2424591214
900294600.0 -0.9657640235 0.2561180459
950294300.0 -0.9620429412 0.2699414269
1000294000.0 -0.9581750535 0.283918706
1050293700.0 -0.9535061559 0.2976545058
1100293400.0 -0.9492634152 0.3121405998
1150293100.0 -0.9456168471 0.3238988452
1200292800.0 -0.9400873067 0.3381563777
1250292500.0 -0.9346384376 0.3515558349
1300292200.0 -0.9289901896 0.3650992513
1350291900.0 -0.9235532913 0.3790020933
1400291600.0 -0.9180127625 0.3921077695
1450291300.0 -0.9122854237 0.4043748536
1500291000.0 -0.906180762 0.41771877
1550290700.0 -0.8996939163 0.4311145982
1600290400.0 -0.8934047689 0.4440780231
1650290100.0 -0.8868709456 0.4563307634
1700289800.0 -0.8797578158 0.4695882719
1750289500.0 -0.8726057181 0.481941433
1800289200.0 -0.8655195004 0.4949467612
1850288900.0 -0.8587898013 0.5062332676
1900288600.0 -0.8509540635 0.5193214816
1950288300.0 -0.842872818 0.5318309781
2000288000.0 -0.8354232177 0.5431295326
2050287700.0 -0.8273560358 0.5555798012
2100287400.0 -0.81916872 0.5671344347
2150287100.0 -0.8106198954 0.5790542289
2200286800.0 -0.8029771881 0.5894679962
2250286500.0 -0.7941689845 0.601568451
2300286200.0 -0.7851890426 0.6133135068
2350285900.0 -0.7764341019 0.6242535197
2400285600.0 -0.7676586107 0.6348805814
2450285300.0 -0.7589054015 0.6456286786
2500285000.0 -0.7492621095 0.6570725686
2550284700.0 -0.7404768512 0.6669954867
2600284400.0 -0.7310889616 0.6773501123
2650284100.0 -0.7218615301 0.6876636471
2700283800.0 -0.7113153962 0.6983344996
2750283500.0 -0.7009766605 0.7087347224
2800283200.0 -0.6912527233 0.7185317834
2850282900.0 -0.6811321439 0.7284575981
2900282600.0 -0.6704409012 0.7379114187
2950282300.0 -0.6605645117 0.7475239233
3000282000.0 -0.6496231966 0.7566723867
3050281700.0 -0.6385066073 0.766101835
3100281400.0 -0.6265441329 0.7755106756
3150281100.0 -0.6146921817 0.7848651002
3200280800.0 -0.6032235681 0.7933402027
3250280500.0 -0.592341127 0.8010340587
3300280200.0 -0.5810295878 0.8089413131
3350279900.0 -0.5694915189 0.8165559003
3400279600.0 -0.5573536927 0.824002937
3450279300.0 -0.5462474376 0.8313602748
3500279000.0 -0.5343683293 0.8383917437
3550278700.0 -0.521664588 0.8454445398
3600278400.0 -0.5095875269 0.8527762371
3650278100.0 -0.4962951648 0.8603346943
3700277800.0 -0.4843065506 0.8669379976
3750277500.0 -0.4721187092 0.8735202019
3800277200.0 -0.4596762505 0.8798344038
3850276900.0 -0.4474957039 0.8858516253
3900276600.0 -0.4364645907 0.8913858675
3950276300.0 -0.4243966375 0.8974916163
4000276000.0 -0.4123383806 0.9034705084
4050275700.0 -0.3996384097 0.909425063
4100275400.0 -0.3882554784 0.9148519996
4150275100.0 -0.3756086338 0.9207296429
4200274800.0 -0.3626491083 0.9259847342
4250274500.0 -0.3503312197 0.9316441109
4300274200.0 -0.33740799 0.936754842
4350273900.0 -0.323493977 0.9420819591
4400273600.0 -0.3086291539 0.9473546287
4450273300.0 -0.2933809405 0.9522873657
4500273000.0 -0.279691774 0.9568058674
4550272700.0 -0.2656697028 0.9610719272
4600272400.0 -0.2502377297 0.9650283624
4650272100.0 -0.2385147746 0.968428968
4700271800.0 -0.2252443114 0.9716262989
4750271500.0 -0.213505315 0.9745179973
4800271200.0 -0.2010298591 0.9772424292
4850270900.0 -0.1871514511 0.9800835731
4900270600.0 -0.1731617883 0.982421135
4950270300.0 -0.1589589815 0.98526078
5000270000.0 -0.1445189723 0.9869186811
5050269700.0 -0.1310893415 0.9888489421
5100269400.0 -0.1174551191 0.9903749162
5150269100.0 -0.1040400125 0.9917688614
5200268800.0 -0.0908102194 0.9928835566
5250268500.0 -0.0776491862 0.9939754019
5300268200.0 -0.0644122593 0.9949809489
5350267900.0 -0.0521947714 0.9951896021
5400267600.0 -0.0361414712 0.9964353091
5450267300.0 -0.0229707286 0.9968234287
5500267000.0 -0.0078133065 0.9971760583
5550266700.0 0.0071525151 0.9972466623
5600266400.0 0.0228770303 0.9975419764
5650266100.0 0.0391591433 0.9969234757
5700265800.0 0.0535787541 0.9960541155
5750265500.0 0.068805662 0.9953896103
5800265200.0 0.082560505 0.9943322413
5850264900.0 0.0959434908 0.9935981642
5900264600.0 0.112522644 0.9916173202
5950264300.0 0.1248058321 0.9901599113
6000264000.0 0.1388238429 0.9887127973
6050263700.0 0.1509816088 0.9868298593
6100263400.0 0.1635120347 0.9850254849
6150263100.0 0.1779303267 0.9827149343
6200262800.0 0.1881782376 0.9810149495
6250262500.0 0.2009272807 0.978568084
6300262200.0 0.2136386468 0.9758122448
6350261900.0 0.2267708686 0.9728106674
6400261600.0 0.2407775144 0.9696097298
6450261300.0 0.2519078101 0.9667849906
6500261000.0 0.2648591116 0.9635203712
6550260700.0 0.2779460637 0.95942003
6600260400.0 0.2908740819 0.9551047067
6650260100.0 0.305506027 0.9512647755
6700259800.0 0.3171740157 0.9466512369
6750259500.0 0.3310486606 0.9416233263
6800259200.0 0.3440459381 0.9365601521
6850258900.0 0.3560584246 0.9316745829
6900258600.0 0.3685197722 0.9265343208
6950258300.0 0.3810644428 0.9212719586
7000258000.0 0.392884756 0.915844544
7050257700.0 0.4052536528 0.9096564791
7100257400.0 0.4179979128 0.9034431522
7150257100.0 0.4281660901 0.8981694949
7200256800.0 0.4410210987 0.8917807731
7250256500.0 0.4528998012 0.8855705906
7300256200.0 0.4660311882 0.8786111067
7350255900.0 0.4786020159 0.8718748763
7400255600.0 0.4912764832 0.864352729
7450255300.0 0.5070182094 0.8552334493
7500255000.0 0.5192603792 0.8484124992
7550254700.0 0.5326080525 0.8395383339
7600254400.0 0.5455612797 0.8315108515
7650254100.0 0.5571673309 0.8238019777
7700253800.0 0.5687669259 0.8157312926
7750253500.0 0.5802273223 0.80817921
7800253200.0 0.5906465586 0.800300352
7850252900.0 0.6004036897 0.7931912783
7900252600.0 0.6120074364 0.7844303762
7950252300.0 0.6208756932 0.7779570139
8000252000.0 0.6309594938 0.7701828145
8050251700.0 0.6415627163 0.7620264581
8100251400.0 0.6513136675 0.7539419284
8150251100.0 0.6616961435 0.7453192771
8200250800.0 0.6710016286 0.7372664953
8250250500.0 0.6798353089 0.7294687852
8300250200.0 0.6894402959 0.7209369776
8350249900.0 0.6981127873 0.7123037503
8400249600.0 0.7067608821 0.7040319005
8450249300.0 0.7156397988 0.6948408076
8500249000.0 0.7242688406 0.6860114001
8550248700.0 0.7324782042 0.6769335762
8600248400.0 0.7410203315 0.6673409644
8650248100.0 0.7487042877 0.6579739205
8700247800.0 0.7581664024 0.6466358296
8750247500.0 0.7666952966 0.636522946
8800247200.0 0.774905842 0.6261586017
8850246900.0 0.7834862668 0.6148910431
8900246600.0 0.7920726276 0.6034343719
8950246300.0 0.8015560956 0.590608139
9000246000.0 0.8105299982 0.5778864909
9050245700.0 0.8195708499 0.5648982476
9100245400.0 0.8282812528 0.5523114245
9150245100.0 0.8375888425 0.5389765049
9200244800.0 0.847305713 0.5237795036
9250244500.0 0.8570091337 0.5081291575
9300244200.0 0.8650265991 0.4937312778
9350243900.0 0.872729345 0.4801032694
9400243600.0 0.8795539235 0.4676863749
9450243300.0 0.8854861839 0.4561494966
9500243000.0 0.8916828096 0.4439424484
9550242700.0 0.895466469 0.4362809104
9600242400.0 0.8994169188 0.4291585859
9650242100.0 0.9028966663 0.422425274
9700241800.0 0.9078388894 0.4141928077
9750241500.0 0.9118296962 0.4067107626
9800241200.0 0.916321748 0.3974076904
9850240900.0 0.9222370062 0.3857982559
9900240600.0 0.9276610681 0.3742111831
9950240300.0 0.9343115041 0.3585804341
10000240000.0 0.9385164046 0.3465885327
10050239700.0 0.9444510121 0.3313435886
10100239400.0 0.9496566813 0.315841215
10150239100.0 0.9538278665 0.3007800333
10200238800.0 0.9583270795 0.285759566
10250238500.0 0.9616071546 0.2723946111
10300238200.0 0.9647329454 0.2585639494
10350237900.0 0.9672405773 0.2455572694
10400237600.0 0.9701046451 0.2323082125
10450237300.0 0.9728335526 0.2185122969
10500237000.0 0.974877855 0.2062954958
10550236700.0 0.9770923253 0.1919074034
10600236400.0 0.978773492 0.1785436314
10650236100.0 0.9812766312 0.1634768297
10700235800.0 0.9834528961 0.1512970254
10750235500.0 0.9859262713 0.1383302274
10800235200.0 0.9877634506 0.1242041638
10850234900.0 0.9896158446 0.1095485492
10900234600.0 0.9918218055 0.0950062464
10950234300.0 0.9934191683 0.0815749502
11000234000.0 0.9953583097 0.0664595764
11050233700.0 0.9969507263 0.0500604483
11100233400.0 0.998718924 0.032596879
11150233100.0 0.9993843557 0.0165679991
11200232800.0 1.000508387 0.0013032107
11250232500.0 1.001296905 -0.015461805
11300232200.0 1.001923695 -0.0335465532
11350231900.0 1.002157702 -0.0492970314
11400231600.0 1.001532298 -0.0642788038
11450231300.0 1.001401505 -0.0803861546
11500231000.0 1.000005393 -0.0963679125
11550230700.0 0.9981506885 -0.1099288238
11600230400.0 0.9972084042 -0.1220180805
11650230100.0 0.9950710149 -0.1338016522
11700229800.0 0.9931686036 -0.1480298575
11750229500.0 0.9907291157 -0.1627628736
11800229200.0 0.9884393661 -0.176761636
11850228900.0 0.9844443241 -0.1887323528
11900228600.0 0.9808486547 -0.1985941552
11950228300.0 0.977757627 -0.2085361691
12000228000.0 0.9746211408 -0.21835632
12050227700.0 0.9709511945 -0.2314760875
12100227400.0 0.9680124542 -0.2420653079
12150227100.0 0.9627316468 -0.2592623111
12200226800.0 0.9598512272 -0.2693117586
12250226500.0 0.9555311748 -0.2817878089
12300226200.0 0.9516507716 -0.2943264105
12350225900.0 0.9466435643 -0.3081962715
12400225600.0 0.941999212 -0.3211576031
12450225300.0 0.9374910163 -0.3337415819
12500225000.0 0.9323804279 -0.3489483875
12550224700.0 0.9266823259 -0.3628624275
12600224400.0 0.9217925871 -0.375513176
12650224100.0 0.9160067899 -0.3898806943
12700223800.0 0.9107510469 -0.4026384356
12750223500.0 0.9052393055 -0.4156675409
12800223200.0 0.8999344954 -0.4284647038
12850222900.0 0.8946852716 -0.4403779001
12900222600.0 0.8892308528 -0.4522952235
12950222300.0 0.88249377 -0.4655150726
13000222000.0 0.8765224432 -0.4768502351
13050221700.0 0.8696041698 -0.4898537695
13100221400.0 0.8630165055 -0.5018087496
13150221100.0 0.85651339 -0.5135550202
13200220800.0 0.8494982721 -0.5252191395
13250220500.0 0.8423264603 -0.5373051941
13300220200.0 0.8348401179 -0.5483845177
13350219900.0 0.8267444139 -0.5602192413
13400219600.0 0.8184330353 -0.5721558546
13450219300.0 0.809186189 -0.5857776491
13500219000.0 0.7985964263 -0.5995775415
13550218700.0 0.7882318081 -0.6127373695
13600218400.0 0.7783852758 -0.6245214983
13650218100.0 0.7692865151 -0.6359238758
13700217800.0 0.7580514637 -0.6481736463
13750217500.0 0.7484474166 -0.6590706078
13800217200.0 0.7363797219 -0.6700216198
13850216900.0 0.726051963 -0.6824372588
13900216600.0 0.71551331 -0.6909979657
13950216300.0 0.7054131847 -0.7016763551
14000216000.0 0.6949596948 -0.7106590869
14050215700.0 0.6857272843 -0.7186303277
14100215400.0 0.675707701 -0.7279730237
14150215100.0 0.6665206359 -0.736526323
14200214800.0 0.6572136683 -0.7452413531
14250214500.0 0.6469048963 -0.7545006191
14300214200.0 0.6363012116 -0.7638068894
14350213900.0 0.6255762143 -0.7735421466
14400213600.0 0.6136568424 -0.7832392934
14450213300.0 0.6003892362 -0.7933655432
14500213000.0 0.5873325293 -0.8030513409
14550212700.0 0.5746767051 -0.8127556775
14600212400.0 0.562205585 -0.8217289784
14650212100.0 0.5492143531 -0.8301002431
14700211800.0 0.5357216136 -0.8399247993
14750211500.0 0.5233354666 -0.8483129794
14800211200.0 0.5112310782 -0.8562173927
14850210900.0 0.4989406971 -0.863437163
14900210600.0 0.4856817074 -0.871417039
14950210300.0 0.4723282531 -0.8790809195
15000210000.0 0.4595490138 -0.8857400622
15050209700.0 0.4469265732 -0.8918958716
15100209400.0 0.4345199887 -0.8979616956
15150209100.0 0.4222771422 -0.903394955
15200208800.0 0.4099190559 -0.9089044285
15250208500.0 0.3983386444 -0.9130085277
15300208200.0 0.3859948442 -0.9175889898
15350207900.0 0.3730431197 -0.9227389359
15400207600.0 0.3577517023 -0.9278228967
15450207300.0 0.3441652783 -0.9329177442
15500207000.0 0.3298816296 -0.9373701301
15550206700.0 0.3140316252 -0.9426084585
15600206400.0 0.29780604 -0.947323503
15650206100.0 0.2826505871 -0.9512033287
15700205800.0 0.2684867685 -0.9551835016
15750205500.0 0.2542658291 -0.9586980779
15800205200.0 0.2398844199 -0.9621908584
15850204900.0 0.2255030678 -0.9656660074
15900204600.0 0.2104884428 -0.9693022017
15950204300.0 0.1963010135 -0.9721127789
16000204000.0 0.1820421255 -0.9751426648
16050203700.0 0.1671549815 -0.9780901606
16100203400.0 0.1524921282 -0.9806160406
16150203100.0 0.1381496006 -0.9824665971
16200202800.0 0.1240707963 -0.9842449371
16250202500.0 0.1091763293 -0.9858700861
16300202200.0 0.0936692018 -0.9875481349
16350201900.0 0.0790405147 -0.9890692147
16400201600.0 0.0641554209 -0.9901632118
16450201300.0 0.0488016621 -0.9913475044
16500201000.0 0.0322503172 -0.9921094081
16550200700.0 0.01660224 -0.9926156456
16600200400.0 0.0009722114 -0.9928848196
16650200100.0 -0.0148641734 -0.9930011818
16700199800.0 -0.0313149675 -0.9924209698
16750199500.0 -0.0501451393 -0.991787219
16800199200.0 -0.0659084636 -0.9915119712
16850198900.0 -0.0806369403 -0.9895205655
16900198600.0 -0.0955113994 -0.9886308346
16950198300.0 -0.1087949717 -0.9881133586
17000198000.0 -0.1216291436 -0.9860647599
17050197700.0 -0.1341931883 -0.9841967128
17100197400.0 -0.14705941 -0.9825106744
17150197100.0 -0.1591550083 -0.9799895998
17200196800.0 -0.1725599494 -0.9777204941
17250196500.0 -0.1857081431 -0.9757522244
17300196200.0 -0.1975888217 -0.9735641669
17350195900.0 -0.2094638081 -0.9712456529
17400195600.0 -0.2216023752 -0.9687298325
17450195300.0 -0.23455063 -0.965799536
17500195000.0 -0.248194691 -0.962644025
17550194700.0 -0.2622041507 -0.9587452888
17600194400.0 -0.2759893011 -0.9550722495
17650194100.0 -0.2898864783 -0.951267962
17700193800.0 -0.3025607116 -0.9463801953
17750193500.0 -0.317116116 -0.9420909354
17800193200.0 -0.3313654224 -0.9368305461
17850192900.0 -0.346615075 -0.9315386648
17900192600.0 -0.3616474949 -0.9253072513
17950192300.0 -0.3768518031 -0.9182769167
18000192000.0 -0.3920235102 -0.9110881287
18050191700.0 -0.4056945973 -0.9032381965
18100191400.0 -0.4200076122 -0.8955154475
18150191100.0 -0.4350394038 -0.8875265573
18200190800.0 -0.4520025283 -0.8780855108
18250190500.0 -0.4688702835 -0.8688532792
18300190200.0 -0.4841159667 -0.8600909081
18350189900.0 -0.4993476338 -0.8516542429
18400189600.0 -0.5132136847 -0.8430672941
18450189300.0 -0.5269924396 -0.8354118366
18500189000.0 -0.5405216575 -0.8271977852
18550188700.0 -0.5530777423 -0.8199697949
18600188400.0 -0.5649475602 -0.8129826692
18650188100.0 -0.5759721084 -0.8067096372
18700187800.0 -0.5868066348 -0.7999349259
18750187500.0 -0.5975896351 -0.7935121784
18800187200.0 -0.6080606097 -0.7866212267
18850186900.0 -0.6182691006 -0.7795712064
18900186600.0 -0.6284791489 -0.7722173655
18950186300.0 -0.6384528275 -0.7646335812
19000186000.0 -0.6456428436 -0.7585432903
19050185700.0 -0.6550040632 -0.7511596897
19100185400.0 -0.6647944643 -0.7430001559
19150185100.0 -0.6746087842 -0.7347319606
19200184800.0 -0.6839655653 -0.7262455727
19250184500.0 -0.6947406085 -0.7168569197
19300184200.0 -0.7057667721 -0.7074747277
19350183900.0 -0.7163764664 -0.6977060737
19400183600.0 -0.7263260373 -0.6875974345
19450183300.0 -0.7348315576 -0.6782244066
19500183000.0 -0.743336808 -0.6678218582
19550182700.0 -0.7532549479 -0.6568590465
19600182400.0 -0.7639290614 -0.6451572167
19650182100.0 -0.774669065 -0.633185435
19700181800.0 -0.7850280434 -0.6198992874
19750181500.0 -0.7956741811 -0.6055989728
19800181200.0 -0.8061157929 -0.5905607622
19850180900.0 -0.8157941405 -0.5753701635
19900180600.0 -0.823815556 -0.5607853948
19950180300.0 -0.8328016532 -0.5444784004
20000180000.0 -0.8259245157 -0.5469108036
20050179700.0 -0.833409045 -0.5336637593
20100179400.0 -0.8419974709 -0.520391446
20150179100.0 -0.8504695676 -0.508189427
20200178800.0 -0.858925491 -0.4947751275
20250178500.0 -0.8689335899 -0.4812236608
20300178200.0 -0.878932431 -0.4668957446
20350177900.0 -0.8874879131 -0.4524631716
20400177600.0 -0.8964155257 -0.4380009001
20450177300.0 -0.9047012269 -0.4236268924
20500177000.0 -0.9128999406 -0.4097801785
20550176700.0 -0.9205670496 -0.3963307595
20600176400.0 -0.9276420929 -0.3829927711
20650176100.0 -0.9341197906 -0.3708465521
20700175800.0 -0.941102139 -0.3590720819
20750175500.0 -0.9474546159 -0.3475999103
20800175200.0 -0.9530039368 -0.3361347191
20850174900.0 -0.9569633603 -0.3259046605
20900174600.0 -0.9609541209 -0.3151951718
20950174300.0 -0.9645423294 -0.3020864129
21000174000.0 -0.9685033463 -0.2916702815
21050173700.0 -0.9716024753 -0.2812177908
21100173400.0 -0.9755109077 -0.2691812703
21150173100.0 -0.9799361189 -0.2565657907
21200172800.0 -0.983015119 -0.2435608068
21250172500.0 -0.9863438745 -0.2291829443
21300172200.0 -0.9892267991 -0.2157469082
21350171900.0 -0.9905333303 -0.2013190205
21400171600.0 -0.9921326804 -0.1868008825
21450171300.0 -0.9923135942 -0.1724015736
21500171000.0 -0.9925275908 -0.1568452138
21550170700.0 -0.9917266974 -0.1414554601
21600170400.0 -0.9926789158 -0.126744883
21650170100.0 -0.9911896805 -0.1096153744
21700169800.0 -0.9890448532 -0.0949196094
21750169500.0 -0.9892610821 -0.0784242452
21800169200.0 -0.9885433745 -0.0624157261
21850168900.0 -0.9880447194 -0.0458527087
21900168600.0 -0.9856866472 -0.0293782822
21950168300.0 -0.9845010974 -0.0136778942
22000168000.0 -0.9843928768 0.0014519033
22050167700.0 -0.9842516309 0.0160393763
22100167400.0 -0.9841186159 0.0312945092
22150167100.0 -0.9844546537 0.0469003439
22200166800.0 -0.9852877506 0.0630756501
22250166500.0 -0.984857249 0.07996543
22300166200.0 -0.9848233497 0.0966423031
22350165900.0 -0.9828710317 0.1143098797
22400165600.0 -0.9815211455 0.1288122421
22450165300.0 -0.979599091 0.1441100185
22500165000.0 -0.9770299851 0.1580350227
22550164700.0 -0.9767619178 0.1733588148
22600164400.0 -0.9744526809 0.1877961347
22650164100.0 -0.9718720432 0.2039046641
22700163800.0 -0.9699596239 0.220192372
22750163500.0 -0.9671166809 0.2345667459
22800163200.0 -0.9641201056 0.2476352062
22850162900.0 -0.9615395048 0.2609593722
22900162600.0 -0.9602404303 0.2746764344
22950162300.0 -0.9592560237 0.2875570969
23000162000.0 -0.9577427507 0.299199468
23050161700.0 -0.9557224105 0.3120799081
23100161400.0 -0.9527536615 0.3249094819
23150161100.0 -0.9504219258 0.3373504789
23200160800.0 -0.9471513533 0.3493619877
23250160500.0 -0.9449552605 0.3614912276
23300160200.0 -0.9426281942 0.3736463909
23350159900.0 -0.9383709085 0.3862180222
23400159600.0 -0.9338264368 0.3995328155
23450159300.0 -0.9293183293 0.4138490844
23500159000.0 -0.9244972532 0.4260748046
23550158700.0 -0.9197737234 0.4398000491
23600158400.0 -0.9146303702 0.4526824659
23650158100.0 -0.9082428613 0.4672388854
23700157800.0 -0.9003889306 0.4811085407
23750157500.0 -0.8920029492 0.4951780457
23800157200.0 -0.8832946268 0.5090876312
23850156900.0 -0.8741395316 0.52122302
23900156600.0 -0.8649160479 0.533386391
23950156300.0 -0.8551446839 0.5461248288
24000156000.0 -0.8472309646 0.5583811732
24050155700.0 -0.8364620356 0.5710182087
24100155400.0 -0.8268548907 0.5817379197
24150155100.0 -0.8169698465 0.5937642861
24200154800.0 -0.8050119075 0.6052949339
24250154500.0 -0.7937868202 0.6168934308
24300154200.0 -0.7824900866 0.6283826122
24350153900.0 -0.7709805745 0.6388599567
24400153600.0 -0.7584414121 0.6492484518
24450153300.0 -0.7465908174 0.6589184392
24500153000.0 -0.7349365177 0.6685615629
24550152700.0 -0.7237724314 0.6786503731
24600152400.0 -0.7126806662 0.6878868426
24650152100.0 -0.7001602224 0.6962064695
