!Created with skrf (http://scikit-rf.org).
# Hz S RI R 50.0 
!freq ReS11 ImS11
300000.0 -0.9754247054 -0.1172475398
50299700.0 -1.000010587 0.0155832633
100299400.0 -0.9980989342 0.0284165968
150299100.0 -1.002678411 0.04538481
200298800.0 -0.9997305286 0.058623435
250298500.0 -0.9973962121 0.0721296227
300298200.0 -0.986073039 0.0880907275
350297900.0 -0.9942710528 0.0987764329
400297600.0 -0.9932607957 0.1155569017
450297300.0 -0.9909338635 0.1293695767
500297000.0 -0.9894524553 0.1440648603
550296700.0 -0.9842525093 0.156452562
600296400.0 -1.017358401 0.1899743266
650296100.0 -0.9822275941 0.186446753
700295800.0 -0.9793048101 0.200627468
750295500.0 -0.9764484862 0.2145658469
800295200.0 -0.9730076867 0.2289020294
850294900.0 -0.9695915898 0.2424047888
900294600.0 -0.965793705 0.2564888521
950294300.0 -0.962270107 0.2701767564
1000294000.0 -0.9581659582 0.2841167858
1050293700.0 -0.953707977 0.2978554937
1100293400.0 -0.9493161369 0.3122755334
1150293100.0 -0.9455717283 0.3240249758
1200292800.0 -0.9402103171 0.3383326653
1250292500.0 -0.9345929863 0.351930312
1300292200.0 -0.9289223378 0.3651757444
1350291900.0 -0.9233746921 0.3791929889
1400291600.0 -0.917963052 0.392351085
1450291300.0 -0.9124142346 0.4046700607
1500291000.0 -0.9061658069 0.4179783559
1550290700.0 -0.8995420549 0.4314171579
1600290400.0 -0.893425069 0.4442758645
1650290100.0 -0.8868581522 0.4565633017
1700289800.0 -0.8797359456 0.4699803902
1750289500.0 -0.8727656504 0.4823454184
1800289200.0 -0.8654999124 0.4952686564
1850288900.0 -0.8586675198 0.5062661695
1900288600.0 -0.850826925 0.5193979755
1950288300.0 -0.8427870753 0.5319521769
2000288000.0 -0.8351552067 0.543380862
2050287700.0 -0.827048587 0.55575269
2100287400.0 -0.8190146341 0.5672850078
2150287100.0 -0.8105858308 0.5794750748
2200286800.0 -0.8028945513 0.5897652702
2250286500.0 -0.7940129643 0.6016668685
2300286200.0 -0.7850864109 0.6134909031
2350285900.0 -0.7762526079 0.6243908968
2400285600.0 -0.7673079746 0.6353067288
2450285300.0 -0.7587794675 0.6456024463
2500285000.0 -0.7491778872 0.6571252445
2550284700.0 -0.7400450744 0.6674089039
2600284400.0 -0.7306431076 0.6775784662
2650284100.0 -0.7217172634 0.6879303047
2700283800.0 -0.710953051 0.6986916941
2750283500.0 -0.7007935986 0.7090820885
2800283200.0 -0.6910546358 0.7188459228
2850282900.0 -0.6809269184 0.7288585595
2900282600.0 -0.6703605104 0.7382660041
2950282300.0 -0.6603501399 0.7478683713
3000282000.0 -0.6493169586 0.7569109744
3050281700.0 -0.6382292374 0.7661957519
3100281400.0 -0.6264611898 0.7755774798
3150281100.0 -0.6146135217 0.7850369771
3200280800.0 -0.6030460214 0.7936443943
3250280500.0 -0.5920796419 0.8012369415
3300280200.0 -0.5809927972 0.809090034
3350279900.0 -0.5693877047 0.8165900515
3400279600.0 -0.5572484062 0.8243551815
3450279300.0 -0.5461780456 0.8311338975
3500279000.0 -0.5341761525 0.8386140195
3550278700.0 -0.5217257753 0.8458148155
3600278400.0 -0.5092170195 0.8529297298
3650278100.0 -0.4960231396 0.8606035161
3700277800.0 -0.4836470437 0.8669663258
3750277500.0 -0.4719143281 0.8736615242
3800277200.0 -0.4593290699 0.880102519
3850276900.0 -0.4474981423 0.8859076681
3900276600.0 -0.4363305546 0.8915115813
3950276300.0 -0.4239706187 0.8977290133
4000276000.0 -0.412031042 0.9034856383
4050275700.0 -0.3989935925 0.9099383052
4100275400.0 -0.3879919143 0.9150244231
4150275100.0 -0.3753840457 0.9208578772
4200274800.0 -0.3621547971 0.9262504403
4250274500.0 -0.3500165449 0.931293379
4300274200.0 -0.3370945576 0.9366890643
4350273900.0 -0.3232497259 0.9419699567
4400273600.0 -0.3085263728 0.9474369068
4450273300.0 -0.2931982086 0.952496902
4500273000.0 -0.2794593572 0.9569441609
4550272700.0 -0.2652344585 0.9609246691
4600272400.0 -0.2496485384 0.9652002303
4650272100.0 -0.2381451385 0.9684138593
4700271800.0 -0.2246451935 0.9717712543
4750271500.0 -0.2131401387 0.9745804921
4800271200.0 -0.2005048172 0.9772812372
4850270900.0 -0.1865229616 0.9800266444
4900270600.0 -0.1726926516 0.9824315478
4950270300.0 -0.1583996699 0.9850821912
5000270000.0 -0.1441623427 0.9873516236
5050269700.0 -0.130803446 0.9889520926
5100269400.0 -0.1171196215 0.9905486512
5150269100.0 -0.1036916721 0.9919742411
5200268800.0 -0.0906615095 0.99300755
5250268500.0 -0.0773482838 0.9938060182
5300268200.0 -0.0646283218 0.9947757527
5350267900.0 -0.0522908462 0.9952415102
5400267600.0 -0.0359178575 0.9965397258
5450267300.0 -0.0228618561 0.9967542991
5500267000.0 -0.0073859222 0.997085688
5550266700.0 0.0074182324 0.9974414535
5600266400.0 0.0228662564 0.9972422674
5650266100.0 0.0391954531 0.9969051725
5700265800.0 0.0537612462 0.9962556616
5750265500.0 0.0691549426 0.9953692793
5800265200.0 0.0831799669 0.9939964594
5850264900.0 0.096242839 0.9930382137
5900264600.0 0.1131735561 0.9917676725
5950264300.0 0.125132756 0.9901466551
6000264000.0 0.1391807827 0.98821781
6050263700.0 0.1515447065 0.9864925435
6100263400.0 0.1639163549 0.9852025623
6150263100.0 0.178663427 0.9827391013
6200262800.0 0.1888846134 0.9808321644
6250262500.0 0.2015298286 0.9784522311
6300262200.0 0.2143041535 0.9755583223
6350261900.0 0.227226559 0.9725710911
6400261600.0 0.2411948459 0.969258786
6450261300.0 0.2526341235 0.9666184704
6500261000.0 0.2652356091 0.9634104942
6550260700.0 0.2783215 0.9591885583
6600260400.0 0.2916839518 0.9550482413
6650260100.0 0.3059265884 0.950681805
6700259800.0 0.3177637365 0.9466162224
6750259500.0 0.3313353522 0.9416669023
6800259200.0 0.3446921202 0.9365923831
6850258900.0 0.3563116389 0.9312065326
6900258600.0 0.3684085865 0.926157968
6950258300.0 0.3809117345 0.9209569843
7000258000.0 0.3931526246 0.9154901159
7050257700.0 0.4054520639 0.9095891517
7100257400.0 0.4181162287 0.903346749
7150257100.0 0.4285808092 0.8980171246
7200256800.0 0.441437249 0.8917008979
7250256500.0 0.4531887796 0.8854037027
7300256200.0 0.4659647307 0.8784252363
7350255900.0 0.4788079757 0.8715803442
7400255600.0 0.4917887135 0.8643433811
7450255300.0 0.5072424354 0.8555252674
7500255000.0 0.5191346957 0.8484300037
7550254700.0 0.532533883 0.8395861755
7600254400.0 0.5455086033 0.8312708792
7650254100.0 0.5571343954 0.8237849499
7700253800.0 0.5690365194 0.8156939888
7750253500.0 0.5799976269 0.8080043979
7800253200.0 0.5907842594 0.8003882194
7850252900.0 0.6005329688 0.7932886446
7900252600.0 0.6121578012 0.7844424463
7950252300.0 0.6209804123 0.777858055
8000252000.0 0.6308414917 0.7702144601
8050251700.0 0.64166011 0.7619094573
8100251400.0 0.6516520345 0.7537514544
8150251100.0 0.6618381313 0.7451060843
8200250800.0 0.6709988085 0.7371135945
8250250500.0 0.6801159377 0.7293777757
8300250200.0 0.6892120642 0.7206275649
8350249900.0 0.6983835852 0.7118888974
8400249600.0 0.7068237355 0.7039717338
8450249300.0 0.7157834186 0.6949601796
8500249000.0 0.7242824148 0.6858782066
8550248700.0 0.7328636119 0.6768417408
8600248400.0 0.7412979925 0.6673914115
8650248100.0 0.7489044446 0.6579860786
8700247800.0 0.7583309714 0.6466681609
8750247500.0 0.766574392 0.6365264686
8800247200.0 0.7749018842 0.6262368022
8850246900.0 0.7835446638 0.614783435
8900246600.0 0.7919933855 0.6033851132
8950246300.0 0.8016102293 0.5903080054
9000246000.0 0.8111119912 0.5775149917
9050245700.0 0.8200429811 0.5646816669
9100245400.0 0.8286224243 0.5522618534
9150245100.0 0.8377523967 0.5384169749
9200244800.0 0.8478299317 0.5231114782
9250244500.0 0.8574094699 0.5073508587
9300244200.0 0.8656569281 0.4927961127
9350243900.0 0.8734728746 0.4789150716
9400243600.0 0.8801269314 0.4668688078
9450243300.0 0.886143785 0.455085935
9500243000.0 0.8922733851 0.4427677179
9550242700.0 0.8960393376 0.4349979075
9600242400.0 0.8998266376 0.4277729838
9650242100.0 0.9035652173 0.421429045
9700241800.0 0.9080465091 0.4133117052
9750241500.0 0.9120486295 0.4058556428
9800241200.0 0.9166629192 0.3965494828
9850240900.0 0.9221815043 0.3852343529
9900240600.0 0.9282528337 0.3736536033
9950240300.0 0.9345810957 0.3572820442
10000240000.0 0.9392108836 0.3454589044
10050239700.0 0.9446840265 0.3304737563
10100239400.0 0.9497656447 0.3148426607
10150239100.0 0.9539827088 0.3003421387
10200238800.0 0.9584434763 0.2852568366
10250238500.0 0.9616962473 0.2718503344
10300238200.0 0.9646887996 0.2579583838
10350237900.0 0.9673823394 0.245056065
10400237600.0 0.969935237 0.231931504
10450237300.0 0.9726398651 0.217800168
10500237000.0 0.9748907498 0.2057594492
10550236700.0 0.9766900056 0.1921578281
10600236400.0 0.9792453759 0.1777972913
10650236100.0 0.9811102958 0.1638806903
10700235800.0 0.9837612498 0.1509434439
10750235500.0 0.9858755903 0.1386453841
10800235200.0 0.9880916463 0.1239087805
10850234900.0 0.9895579352 0.1095852708
10900234600.0 0.9918861879 0.0947248736
10950234300.0 0.9934625918 0.0815652388
11000234000.0 0.9952876792 0.066439821
11050233700.0 0.9968936049 0.050117571
11100233400.0 0.9983526875 0.0326057141
11150233100.0 0.9994410697 0.0165872889
11200232800.0 0.9999264373 0.0013647653
11250232500.0 1.001517549 -0.0151013667
11300232200.0 1.001194095 -0.0335723569
11350231900.0 1.001652794 -0.0488866827
11400231600.0 1.001776595 -0.0649523413
11450231300.0 1.001187522 -0.0796657564
11500231000.0 0.9998893615 -0.0965649669
11550230700.0 0.9987979884 -0.1093937996
11600230400.0 0.9968034746 -0.1217970495
11650230100.0 0.9949960504 -0.1336905152
11700229800.0 0.9930989611 -0.1485951341
11750229500.0 0.9907972506 -0.1625455984
11800229200.0 0.9878255335 -0.1763768737
11850228900.0 0.9845321985 -0.1887146848
11900228600.0 0.9810759617 -0.1982988521
11950228300.0 0.9776615721 -0.2088992879
12000228000.0 0.9751661478 -0.2178225118
12050227700.0 0.9713215552 -0.2310920005
12100227400.0 0.9679268988 -0.2422665804
12150227100.0 0.9630140127 -0.2583083766
12200226800.0 0.959526344 -0.2691492986
12250226500.0 0.9556876899 -0.2817058425
12300226200.0 0.951407711 -0.2941375748
12350225900.0 0.9466858023 -0.3078090833
12400225600.0 0.9419016248 -0.3206526905
12450225300.0 0.9376255035 -0.3341148002
12500225000.0 0.9321645646 -0.3487942663
12550224700.0 0.9269160329 -0.3624288089
12600224400.0 0.9219487676 -0.3754893915
12650224100.0 0.9160528901 -0.3896953087
12700223800.0 0.9109076044 -0.4026048384
12750223500.0 0.9054054266 -0.4155758439
12800223200.0 0.9001007235 -0.4280608587
12850222900.0 0.8949090377 -0.4400052869
12900222600.0 0.8889226879 -0.4527519513
12950222300.0 0.8829532924 -0.4651475221
13000222000.0 0.8768887021 -0.4770095508
13050221700.0 0.8697786777 -0.4893458883
13100221400.0 0.8633214987 -0.5013167069
13150221100.0 0.8564080068 -0.5136876903
13200220800.0 0.8495069582 -0.5250902306
13250220500.0 0.8423337187 -0.5372199144
13300220200.0 0.8349551225 -0.5479351704
13350219900.0 0.8269457271 -0.5599067228
13400219600.0 0.8183024692 -0.5723265665
13450219300.0 0.8092571542 -0.5858804677
13500219000.0 0.7989773499 -0.599423121
13550218700.0 0.7886501166 -0.6123905042
13600218400.0 0.7780396265 -0.6247943175
13650218100.0 0.7691318449 -0.6352293703
13700217800.0 0.7578051063 -0.6486430754
13750217500.0 0.748343898 -0.6596856422
13800217200.0 0.7367678916 -0.6716861422
13850216900.0 0.7259073307 -0.6827350366
13900216600.0 0.715459072 -0.6912707012
13950216300.0 0.704801426 -0.7015567026
14000216000.0 0.6941343417 -0.7113175662
14050215700.0 0.6848910482 -0.7197560617
14100215400.0 0.6749961158 -0.7284915306
14150215100.0 0.6661684954 -0.7372779952
14200214800.0 0.6567479528 -0.7456441828
14250214500.0 0.6464495308 -0.7548228591
14300214200.0 0.6361175057 -0.7641954953
14350213900.0 0.6251939062 -0.7737619495
14400213600.0 0.6131297423 -0.7836497559
14450213300.0 0.6000462469 -0.7938640531
14500213000.0 0.5871459389 -0.8033624364
14550212700.0 0.5740652097 -0.8131715794
14600212400.0 0.5619574574 -0.8219145765
14650212100.0 0.5490410663 -0.8306237882
14700211800.0 0.5353055706 -0.840153548
14750211500.0 0.5227521209 -0.8484700838
14800211200.0 0.510718405 -0.8557199658
14850210900.0 0.4985664366 -0.8638130606
14900210600.0 0.4853135275 -0.871658581
14950210300.0 0.4719292754 -0.8792898485
15000210000.0 0.4590117623 -0.8861506843
15050209700.0 0.4465894432 -0.8924726841
15100209400.0 0.4342655333 -0.8981371778
15150209100.0 0.4217640284 -0.9036444372
15200208800.0 0.4091518731 -0.9086779728
15250208500.0 0.3977566196 -0.9134235581
15300208200.0 0.385896481 -0.9179749865
15350207900.0 0.3721977972 -0.9225267766
15400207600.0 0.3577565061 -0.9280212595
15450207300.0 0.3435545902 -0.9332628496
15500207000.0 0.3288040115 -0.9387185315
15550206700.0 0.3135296891 -0.9423577574
15600206400.0 0.2967059321 -0.9469625089
15650206100.0 0.2820662648 -0.9519649069
15700205800.0 0.2677809505 -0.9554241189
15750205500.0 0.2532383791 -0.9588452033
15800205200.0 0.238907712 -0.9621999447
15850204900.0 0.2243348334 -0.9658288515
15900204600.0 0.2094730104 -0.9694179918
15950204300.0 0.1953097565 -0.9723654782
16000204000.0 0.1811479816 -0.9750798308
16050203700.0 0.1662347236 -0.9777877055
16100203400.0 0.1519201997 -0.9805115319
16150203100.0 0.137077939 -0.9821233365
16200202800.0 0.1228190581 -0.9847821303
16250202500.0 0.1083712393 -0.9860759049
16300202200.0 0.0931700733 -0.9879075345
16350201900.0 0.0786503175 -0.9891679805
16400201600.0 0.0634163753 -0.9904656634
16450201300.0 0.0485837995 -0.9912949823
16500201000.0 0.0318500482 -0.9921471047
16550200700.0 0.0161191648 -0.9927050714
16600200400.0 0.0005073653 -0.9929824317
16650200100.0 -0.0157022056 -0.9926483469
16700199800.0 -0.0318645948 -0.9925761265
16750199500.0 -0.0502948799 -0.9919167196
16800199200.0 -0.066438856 -0.9908749586
16850198900.0 -0.0817543254 -0.98963753
16900198600.0 -0.0953126092 -0.9886626512
16950198300.0 -0.1088430985 -0.9880827046
17000198000.0 -0.1212491822 -0.9854956534
17050197700.0 -0.1346743185 -0.9836903802
17100197400.0 -0.1475439718 -0.9817899479
17150197100.0 -0.1600586914 -0.9800041943
17200196800.0 -0.1731400774 -0.9778531702
17250196500.0 -0.1854519709 -0.975769727
17300196200.0 -0.1975921346 -0.973244785
17350195900.0 -0.2097650117 -0.9709672868
17400195600.0 -0.2218671999 -0.968576595
17450195300.0 -0.2349984153 -0.9658815264
17500195000.0 -0.2484940357 -0.9622786831
17550194700.0 -0.2625069778 -0.9586513077
17600194400.0 -0.2761514102 -0.9548228289
17650194100.0 -0.2900039919 -0.9506697299
17700193800.0 -0.3031129456 -0.9468727827
17750193500.0 -0.3175023147 -0.9421650078
17800193200.0 -0.3314334332 -0.9366824013
17850192900.0 -0.3471440566 -0.931588327
17900192600.0 -0.3623257194 -0.9253145377
17950192300.0 -0.3775178972 -0.9181196573
18000192000.0 -0.3923357309 -0.9107261171
18050191700.0 -0.4062216212 -0.9029773736
18100191400.0 -0.4205639529 -0.8952107933
18150191100.0 -0.4354972163 -0.8872002767
18200190800.0 -0.4522416645 -0.8778355578
18250190500.0 -0.4695091235 -0.8683607978
18300190200.0 -0.4846282803 -0.8597315665
18350189900.0 -0.4996743292 -0.8511245618
18400189600.0 -0.5142086647 -0.8429460699
18450189300.0 -0.5271791683 -0.8350537482
18500189000.0 -0.5406503794 -0.8271774939
18550188700.0 -0.5530726886 -0.8191255629
18600188400.0 -0.5650898233 -0.8127631884
18650188100.0 -0.5758767886 -0.8065285909
18700187800.0 -0.5869402099 -0.7999250553
18750187500.0 -0.5975594195 -0.7932244999
18800187200.0 -0.6080817012 -0.7862261854
18850186900.0 -0.6182064175 -0.7792447622
18900186600.0 -0.628390178 -0.7719526507
18950186300.0 -0.6383043293 -0.7643523067
19000186000.0 -0.6454359691 -0.758331953
19050185700.0 -0.6550739991 -0.7509202353
19100185400.0 -0.6648548575 -0.7429097527
19150185100.0 -0.6745936491 -0.734351459
19200184800.0 -0.6842934841 -0.7255419837
19250184500.0 -0.695078892 -0.7169170601
19300184200.0 -0.706047052 -0.7066618606
19350183900.0 -0.7167792988 -0.6974024567
19400183600.0 -0.7269334365 -0.6878514399
19450183300.0 -0.7353025487 -0.6773760945
19500183000.0 -0.7436703257 -0.6673284283
19550182700.0 -0.7537560252 -0.6572610555
19600182400.0 -0.7641040626 -0.6454350267
19650182100.0 -0.7746774028 -0.6328402962
19700181800.0 -0.7855263465 -0.6191999705
19750181500.0 -0.7961178976 -0.6050817805
19800181200.0 -0.8064875527 -0.5899100187
19850180900.0 -0.8161521827 -0.5747659968
19900180600.0 -0.82399849 -0.5601414536
19950180300.0 -0.8331238678 -0.5436132054
20000180000.0 -0.8263697438 -0.546250703
20050179700.0 -0.8344165669 -0.5324178037
20100179400.0 -0.8425681502 -0.5197882127
20150179100.0 -0.8509840749 -0.5073381908
20200178800.0 -0.8609561067 -0.493818338
20250178500.0 -0.8694604039 -0.4808344371
20300178200.0 -0.8787089076 -0.4660297393
20350177900.0 -0.8877951306 -0.4512777814
20400177600.0 -0.8966805439 -0.4366361795
20450177300.0 -0.9053596109 -0.422343014
20500177000.0 -0.9134127138 -0.4084885921
20550176700.0 -0.9211898863 -0.3946730247
20600176400.0 -0.9282877982 -0.3817801221
20650176100.0 -0.9351614758 -0.3695697843
20700175800.0 -0.9414033791 -0.3573259152
20750175500.0 -0.9482750655 -0.3450903676
20800175200.0 -0.9532011111 -0.3355851261
20850174900.0 -0.958497836 -0.3239575929
20900174600.0 -0.9623500585 -0.3126606864
20950174300.0 -0.9666777711 -0.301030389
21000174000.0 -0.9698309272 -0.2893411599
21050173700.0 -0.9729059887 -0.279082669
21100173400.0 -0.9763919184 -0.266792245
21150173100.0 -0.9810269735 -0.2542001755
21200172800.0 -0.9839674058 -0.240606304
21250172500.0 -0.9872070466 -0.2269127926
21300172200.0 -0.9903288012 -0.2125248156
21350171900.0 -0.9913517187 -0.1983851643
21400171600.0 -0.9932225878 -0.1845263419
21450171300.0 -0.9928953854 -0.1696099185
21500171000.0 -0.9923885863 -0.1540292182
21550170700.0 -0.9926661159 -0.139089909
21600170400.0 -0.9933250976 -0.1224250371
21650170100.0 -0.9919431175 -0.1069846102
21700169800.0 -0.9908019802 -0.0925784413
21750169500.0 -0.9887497213 -0.076070401
21800169200.0 -0.9876298172 -0.0587984276
21850168900.0 -0.9868819215 -0.0427463643
21900168600.0 -0.9853499253 -0.026298937
21950168300.0 -0.9840314857 -0.010614585
22000168000.0 -0.98331952 0.0040663171
22050167700.0 -0.9825914856 0.0179523116
22100167400.0 -0.9830000092 0.0337033177
22150167100.0 -0.9833686269 0.0493201977
22200166800.0 -0.9842333462 0.0660207304
22250166500.0 -0.9837988263 0.0828004622
22300166200.0 -0.9830421049 0.0999922652
22350165900.0 -0.9814809376 0.1154798616
22400165600.0 -0.9799488273 0.1317184344
22450165300.0 -0.9783211532 0.1471811371
22500165000.0 -0.9757515466 0.1594997367
22550164700.0 -0.9753536921 0.175324147
22600164400.0 -0.9737856949 0.1910038883
22650164100.0 -0.9712479612 0.2057035681
22700163800.0 -0.9684036507 0.2213282626
22750163500.0 -0.9658261661 0.2362576855
22800163200.0 -0.963148873 0.249853903
22850162900.0 -0.9608519714 0.2634074605
22900162600.0 -0.9594093815 0.2768067692
22950162300.0 -0.958590391 0.2892901088
23000162000.0 -0.9570093711 0.3013660403
23050161700.0 -0.9551493001 0.3137916268
23100161400.0 -0.9530081564 0.326525549
23150161100.0 -0.9497524528 0.3384090321
23200160800.0 -0.9472741944 0.350954902
23250160500.0 -0.9440599978 0.3635162587
23300160200.0 -0.9419706175 0.3746349912
23350159900.0 -0.938158577 0.3889262869
23400159600.0 -0.9334825963 0.4009475231
23450159300.0 -0.92845541 0.4143270787
23500159000.0 -0.9242304784 0.4275682401
23550158700.0 -0.9198860701 0.4408620745
23600158400.0 -0.9143596197 0.4540175932
23650158100.0 -0.9078735904 0.4681473116
23700157800.0 -0.9004263911 0.4819943111
23750157500.0 -0.8920409377 0.4960272738
23800157200.0 -0.8830309575 0.5091193929
23850156900.0 -0.8747082084 0.522507106
23900156600.0 -0.8645324432 0.5347849112
23950156300.0 -0.8554457133 0.546573973
24000156000.0 -0.8472751181 0.558719425
24050155700.0 -0.8366702635 0.5701172561
24100155400.0 -0.8268285644 0.5828099922
24150155100.0 -0.816056864 0.5950365436
24200154800.0 -0.8051627049 0.6056196482
24250154500.0 -0.7938346279 0.6171030228
24300154200.0 -0.7823404847 0.6285798229
24350153900.0 -0.7704680305 0.6395214639
24400153600.0 -0.7581267572 0.6496763729
24450153300.0 -0.7463716667 0.659475806
24500153000.0 -0.7348777396 0.6687323694
24550152700.0 -0.7230337606 0.6790104895
24600152400.0 -0.7112688922 0.6880754724
24650152100.0 -0.7000511449 0.6958830773
