!Created with skrf (http://scikit-rf.org).
# Hz S RI R 50.0 
!freq ReS11 ImS11
300000.0 -0.9773446744 -0.1090524371
50299700.0 -1.000225203 0.0159206017
100299400.0 -0.9980669324 0.0288405339
150299100.0 -1.002934575 0.0457371611
200298800.0 -0.9996413182 0.0590073759
250298500.0 -0.9972825433 0.0724644907
300298200.0 -0.9859966563 0.0882251832
350297900.0 -0.9939347005 0.0992329063
400297600.0 -0.9931701468 0.1157679594
450297300.0 -0.9910866246 0.129795
500297000.0 -0.9896187607 0.1443913343
550296700.0 -0.984616034 0.1569790439
600296400.0 -1.017296539 0.190406952
650296100.0 -0.9821686816 0.1869460649
700295800.0 -0.9794446737 0.2009962978
750295500.0 -0.9761618724 0.2152414084
800295200.0 -0.9729811817 0.2292403771
850294900.0 -0.969624625 0.243316431
900294600.0 -0.9656760337 0.256942978
950294300.0 -0.962000483 0.2707412687
1000294000.0 -0.9581813533 0.2845081241
1050293700.0 -0.9534516315 0.298310219
1100293400.0 -0.9491745148 0.312739523
1150293100.0 -0.9451724926 0.324732148
1200292800.0 -0.9400456121 0.3388967848
1250292500.0 -0.9345018265 0.3524423589
1300292200.0 -0.928819752 0.3654386919
1350291900.0 -0.9233125018 0.379505164
1400291600.0 -0.917798478 0.3925773718
1450291300.0 -0.9121885204 0.4051584695
1500291000.0 -0.9058647759 0.4183839631
1550290700.0 -0.8993952876 0.4318309677
1600290400.0 -0.8931879389 0.4447868784
1650290100.0 -0.88650093 0.4568566429
1700289800.0 -0.8795946084 0.4700413118
1750289500.0 -0.8726901394 0.48251881
1800289200.0 -0.8652070513 0.4952368581
1850288900.0 -0.8583617537 0.5065945321
1900288600.0 -0.8504533513 0.5197339919
1950288300.0 -0.8424933113 0.5321390549
2000288000.0 -0.8351247444 0.5437198141
2050287700.0 -0.8267452467 0.5561148741
2100287400.0 -0.8188801036 0.5676128003
2150287100.0 -0.8101691266 0.5797253035
2200286800.0 -0.8024845567 0.5901533955
2250286500.0 -0.7935801899 0.6020532113
2300286200.0 -0.7847364871 0.6137547941
2350285900.0 -0.7758319363 0.6245643008
2400285600.0 -0.766828249 0.6358074741
2450285300.0 -0.7582576865 0.6460983661
2500285000.0 -0.7487152707 0.6575214769
2550284700.0 -0.7396671493 0.6678312876
2600284400.0 -0.7305001442 0.6778203371
2650284100.0 -0.7211456069 0.688673312
2700283800.0 -0.7106130978 0.6989154617
2750283500.0 -0.7001455184 0.7097343674
2800283200.0 -0.6904264249 0.7193297163
2850282900.0 -0.6804376305 0.7290942021
2900282600.0 -0.6700564208 0.7386269469
2950282300.0 -0.6598695439 0.747944693
3000282000.0 -0.6490302312 0.7572001433
3050281700.0 -0.6379207348 0.7665976441
3100281400.0 -0.6260490688 0.7759442282
3150281100.0 -0.6140089371 0.7853503165
3200280800.0 -0.6026439076 0.7939016182
3250280500.0 -0.5918352146 0.8014971412
3300280200.0 -0.580680443 0.8092597876
3350279900.0 -0.5691296006 0.8169957214
3400279600.0 -0.5568419903 0.8244965764
3450279300.0 -0.5456288378 0.8315938438
3500279000.0 -0.5337494008 0.8385482138
3550278700.0 -0.5213781864 0.8460778904
3600278400.0 -0.5090263844 0.8530586062
3650278100.0 -0.4957927828 0.860778779
3700277800.0 -0.4838101261 0.8672114461
3750277500.0 -0.4715662423 0.8739473569
3800277200.0 -0.4589513783 0.8803146729
3850276900.0 -0.4468219857 0.8862844654
3900276600.0 -0.4358684669 0.8919980472
3950276300.0 -0.4234016856 0.8979935999
4000276000.0 -0.4114142194 0.9038939435
4050275700.0 -0.3982611604 0.9100889624
4100275400.0 -0.3871322872 0.9151890309
4150275100.0 -0.3743780396 0.9209037192
4200274800.0 -0.3618051064 0.9264542931
4250274500.0 -0.3493114493 0.9317442701
4300274200.0 -0.3364478492 0.936903357
4350273900.0 -0.3226823792 0.9424066587
4400273600.0 -0.3077979536 0.9475186283
4450273300.0 -0.2924285259 0.9523890241
4500273000.0 -0.2787531907 0.9569505311
4550272700.0 -0.2645140693 0.9614001383
4600272400.0 -0.2491402994 0.9652847869
4650272100.0 -0.2372848378 0.9686570019
4700271800.0 -0.2240091787 0.971990313
4750271500.0 -0.2123190877 0.9747745449
4800271200.0 -0.1998380503 0.9774407711
4850270900.0 -0.1858367412 0.9802908685
4900270600.0 -0.1719247696 0.982812755
4950270300.0 -0.1578328303 0.9852847429
5000270000.0 -0.1435584905 0.9873472396
5050269700.0 -0.1301000275 0.9889158501
5100269400.0 -0.116698117 0.990120976
5150269100.0 -0.1034373157 0.9924800959
5200268800.0 -0.0898688719 0.9930593071
5250268500.0 -0.0769834618 0.9938201747
5300268200.0 -0.0638375258 0.9948775518
5350267900.0 -0.0516675132 0.9952865342
5400267600.0 -0.0352425358 0.9963327881
5450267300.0 -0.0225682491 0.9966027485
5500267000.0 -0.0071420692 0.9970921279
5550266700.0 0.0077546991 0.9974943123
5600266400.0 0.0235222362 0.9972775843
5650266100.0 0.039962225 0.9968503237
5700265800.0 0.0543491209 0.9960280631
5750265500.0 0.0698087389 0.9954713277
5800265200.0 0.0836976861 0.9945985083
5850264900.0 0.0970092962 0.993617381
5900264600.0 0.1132567407 0.9915970264
5950264300.0 0.1257225519 0.9899209453
6000264000.0 0.1396691885 0.9881544721
6050263700.0 0.1521249956 0.98645338
6100263400.0 0.1643825174 0.9845783108
6150263100.0 0.1792885335 0.9824707075
6200262800.0 0.189830772 0.980639208
6250262500.0 0.2022503115 0.9780584393
6300262200.0 0.2150189699 0.9751102609
6350261900.0 0.228147336 0.9724695209
6400261600.0 0.2419548291 0.9691618574
6450261300.0 0.25335228 0.9663553155
6500261000.0 0.266115302 0.9626111043
6550260700.0 0.2792687121 0.9589934315
6600260400.0 0.2925790566 0.9546669571
6650260100.0 0.3063972298 0.9503564495
6700259800.0 0.3185293818 0.9462211183
6750259500.0 0.332202516 0.9412680615
6800259200.0 0.3451787581 0.9360408855
6850258900.0 0.3572304032 0.9310645303
6900258600.0 0.3694099383 0.9261396306
6950258300.0 0.3819936032 0.9208235601
7000258000.0 0.3938674482 0.9152161319
7050257700.0 0.4062287961 0.9092465144
7100257400.0 0.4189765641 0.9030543442
7150257100.0 0.4292949558 0.897712025
7200256800.0 0.4420216189 0.8915700819
7250256500.0 0.4538646329 0.8852393584
7300256200.0 0.4666352901 0.8780914486
7350255900.0 0.4789498932 0.8712067478
7400255600.0 0.4924557297 0.8641775666
7450255300.0 0.5081282793 0.8553032441
7500255000.0 0.5189715119 0.8478255914
7550254700.0 0.532974333 0.8395338064
7600254400.0 0.5462335167 0.8313702012
7650254100.0 0.5574736455 0.8235324314
7700253800.0 0.5690140882 0.8152735332
7750253500.0 0.5805022682 0.8077083037
7800253200.0 0.5911583685 0.7999370944
7850252900.0 0.6008158457 0.792721606
7900252600.0 0.6125791422 0.7839616002
7950252300.0 0.6213095485 0.7773375821
8000252000.0 0.631502751 0.7696050143
8050251700.0 0.6421860766 0.7613447825
8100251400.0 0.6521787217 0.7530637533
8150251100.0 0.6623508878 0.744559173
8200250800.0 0.6715740235 0.7366703445
8250250500.0 0.680544502 0.7286682399
8300250200.0 0.6898839786 0.7199978203
8350249900.0 0.6987740549 0.7112946023
8400249600.0 0.7071373808 0.7033358919
8450249300.0 0.7164291127 0.6940734692
8500249000.0 0.7249505729 0.6853291608
8550248700.0 0.7330956792 0.6763201761
8600248400.0 0.7414498081 0.6668573852
8650248100.0 0.7492229667 0.6574221637
8700247800.0 0.7587251854 0.646159986
8750247500.0 0.766992294 0.6359724987
8800247200.0 0.7752777342 0.6256309792
8850246900.0 0.7839097201 0.6144417105
8900246600.0 0.7924379995 0.6027865729
8950246300.0 0.8021536907 0.5898891398
9000246000.0 0.8115341561 0.5772364622
9050245700.0 0.8202764034 0.5641743544
9100245400.0 0.8292453793 0.5517770278
9150245100.0 0.8384471842 0.537901803
9200244800.0 0.8484585769 0.5226357389
9250244500.0 0.8577122097 0.5070818786
9300244200.0 0.8661309526 0.4921081601
9350243900.0 0.8739574733 0.478154997
9400243600.0 0.8805154735 0.465895201
9450243300.0 0.8865326122 0.454056496
9500243000.0 0.8927407344 0.4419293403
9550242700.0 0.8965183447 0.4340143291
9600242400.0 0.9002099854 0.4269962971
9650242100.0 0.9038186893 0.420373791
9700241800.0 0.9085342632 0.412037123
9750241500.0 0.9126884176 0.404688527
9800241200.0 0.9171184514 0.3952910741
9850240900.0 0.9226835966 0.3839843037
9900240600.0 0.9283501457 0.37194766
9950240300.0 0.9347114462 0.3559872983
10000240000.0 0.9398085362 0.3444026926
10050239700.0 0.9450075635 0.3291081385
10100239400.0 0.9500514942 0.3135910025
10150239100.0 0.9543131983 0.2990305101
10200238800.0 0.9585799363 0.2842337303
10250238500.0 0.9618119329 0.2707637209
10300238200.0 0.9648455396 0.2568904892
10350237900.0 0.9674521942 0.2441649019
10400237600.0 0.9699119345 0.2305008061
10450237300.0 0.9727929024 0.2170567909
10500237000.0 0.9750153352 0.2047305377
10550236700.0 0.9772258196 0.1908362066
10600236400.0 0.9793915545 0.1774518585
10650236100.0 0.9810941603 0.1630480166
10700235800.0 0.9839971158 0.1503808127
10750235500.0 0.9858930941 0.137655583
10800235200.0 0.9880736917 0.123433693
10850234900.0 0.9899117721 0.1086163297
10900234600.0 0.9914985348 0.0944439591
10950234300.0 0.9934905875 0.0811095047
11000234000.0 0.9952625499 0.0659524676
11050233700.0 0.9969064074 0.0495980387
11100233400.0 0.9986175166 0.0323433751
11150233100.0 0.9993716148 0.0161862959
11200232800.0 1.000217598 0.0011083526
11250232500.0 1.001381374 -0.0160909815
11300232200.0 1.001568566 -0.0338722242
11350231900.0 1.001721278 -0.0500408378
11400231600.0 1.00106791 -0.0652501206
11450231300.0 1.00038703 -0.0805258304
11500231000.0 1.000217257 -0.0976340426
11550230700.0 0.9976002303 -0.1106156619
11600230400.0 0.9965039891 -0.1229866675
11650230100.0 0.9945995603 -0.1342608343
11700229800.0 0.9923454531 -0.1494913215
11750229500.0 0.990380089 -0.1640821126
11800229200.0 0.9875094182 -0.1781167009
11850228900.0 0.9840487713 -0.1904748794
11900228600.0 0.9805393118 -0.2004965833
11950228300.0 0.9772845433 -0.2104043533
12000228000.0 0.9742404107 -0.2201212309
12050227700.0 0.9708819138 -0.2323789772
12100227400.0 0.967732664 -0.2431863896
12150227100.0 0.9626794896 -0.2597938324
12200226800.0 0.9587722342 -0.2707825672
12250226500.0 0.9550133588 -0.2837012632
12300226200.0 0.950502136 -0.2956563065
12350225900.0 0.9457343717 -0.3097591626
12400225600.0 0.9418915656 -0.3222878268
12450225300.0 0.9371367486 -0.3351599571
12500225000.0 0.9321795893 -0.3493820745
12550224700.0 0.9266859247 -0.36317927
12600224400.0 0.9217440273 -0.3759983821
12650224100.0 0.9159836043 -0.3903064401
12700223800.0 0.9107340467 -0.4030774143
12750223500.0 0.9053367609 -0.4159004423
12800223200.0 0.8999432585 -0.4284312626
12850222900.0 0.8946818496 -0.4404132662
12900222600.0 0.8888914935 -0.4524920401
12950222300.0 0.8821955173 -0.4658331495
13000222000.0 0.8761577802 -0.4770765974
13050221700.0 0.8695927047 -0.4897546827
13100221400.0 0.8626891392 -0.5021220399
13150221100.0 0.8562247633 -0.5137456611
13200220800.0 0.8488856893 -0.5256955391
13250220500.0 0.8415983342 -0.5378843555
13300220200.0 0.8340616891 -0.5488878305
13350219900.0 0.8261105914 -0.5608548725
13400219600.0 0.8177379964 -0.5730427486
13450219300.0 0.8079964448 -0.5868489323
13500219000.0 0.7979890445 -0.6005226927
13550218700.0 0.7878945587 -0.6135455171
13600218400.0 0.7774394174 -0.6259517879
13650218100.0 0.7669895621 -0.6370896324
13700217800.0 0.7565569469 -0.6493266598
13750217500.0 0.7474750519 -0.6601390926
13800217200.0 0.735558619 -0.6726471744
13850216900.0 0.7232442163 -0.6839156399
13900216600.0 0.7143191908 -0.693028507
13950216300.0 0.7035373973 -0.702612083
14000216000.0 0.6935199204 -0.7119713269
14050215700.0 0.6841346579 -0.7203199147
14100215400.0 0.6741986004 -0.7294753515
14150215100.0 0.6650556742 -0.7376840797
14200214800.0 0.6559037084 -0.7463852089
14250214500.0 0.6455977206 -0.7556289266
14300214200.0 0.6352700882 -0.7648272044
14350213900.0 0.6241040784 -0.7743898397
14400213600.0 0.6129203242 -0.7838238893
14450213300.0 0.5999077861 -0.7942058328
14500213000.0 0.5863168537 -0.8037033316
14550212700.0 0.573727196 -0.8136423767
14600212400.0 0.5608908263 -0.8217823769
14650212100.0 0.5481351585 -0.8308022692
14700211800.0 0.5342958968 -0.840003181
14750211500.0 0.5225274927 -0.8483027095
14800211200.0 0.5098566058 -0.8566495547
14850210900.0 0.4975660437 -0.8640867486
14900210600.0 0.4843893105 -0.8720304666
14950210300.0 0.4708732297 -0.8796292135
15000210000.0 0.4579640874 -0.886472174
15050209700.0 0.4457062028 -0.8926019158
15100209400.0 0.4332303804 -0.8986356671
15150209100.0 0.4202926461 -0.9037722408
15200208800.0 0.4075568445 -0.9097694008
15250208500.0 0.3958937323 -0.9148306579
15300208200.0 0.3841732509 -0.9187642617
15350207900.0 0.370633921 -0.9231772018
15400207600.0 0.3564955799 -0.9282562379
15450207300.0 0.3413989103 -0.9335728081
15500207000.0 0.3263349121 -0.9391557281
15550206700.0 0.3119119761 -0.9439989961
15600206400.0 0.2956895078 -0.9478678911
15650206100.0 0.2802505996 -0.9521707294
15700205800.0 0.2663282525 -0.9558657558
15750205500.0 0.2517925295 -0.9593227273
15800205200.0 0.2373264728 -0.9628182144
15850204900.0 0.2228981272 -0.9660890314
15900204600.0 0.2078261675 -0.9697173662
15950204300.0 0.1938663858 -0.9727038973
16000204000.0 0.1799631003 -0.9753798149
16050203700.0 0.1651207053 -0.9782315385
16100203400.0 0.1507798251 -0.980038886
16150203100.0 0.136336177 -0.9823827116
16200202800.0 0.1221308803 -0.9846684647
16250202500.0 0.1078969302 -0.9861099602
16300202200.0 0.0924710947 -0.9878964213
16350201900.0 0.0773059738 -0.9891587784
16400201600.0 0.0629989372 -0.9900830849
16450201300.0 0.0477744557 -0.9910306655
16500201000.0 0.0309431278 -0.9919717914
16550200700.0 0.015316863 -0.9922983149
16600200400.0 -0.0004633098 -0.9925289031
16650200100.0 -0.0165768778 -0.9924714889
16700199800.0 -0.0336146403 -0.9920726453
16750199500.0 -0.052194057 -0.9914208241
16800199200.0 -0.0674154973 -0.9903403899
16850198900.0 -0.0833036379 -0.9894717307
16900198600.0 -0.0973263655 -0.9883465848
16950198300.0 -0.1107010354 -0.9874380477
17000198000.0 -0.1232283862 -0.9853979908
17050197700.0 -0.1359434012 -0.9837848798
17100197400.0 -0.1487788223 -0.9818085972
17150197100.0 -0.1617705377 -0.9795790693
17200196800.0 -0.1741595019 -0.9779883255
17250196500.0 -0.1870244012 -0.9751360704
17300196200.0 -0.1994783335 -0.9728233091
17350195900.0 -0.2109945046 -0.9705629429
17400195600.0 -0.2231735204 -0.9681170883
17450195300.0 -0.2363069116 -0.9651716721
17500195000.0 -0.2498461291 -0.9619391426
17550194700.0 -0.2637245995 -0.9584050563
17600194400.0 -0.2776940459 -0.954311143
17650194100.0 -0.2913884169 -0.9501647499
17700193800.0 -0.3044387614 -0.9458404721
17750193500.0 -0.3187395107 -0.9411716312
17800193200.0 -0.3330635933 -0.9362234143
17850192900.0 -0.3480892558 -0.9308591088
17900192600.0 -0.3636591725 -0.9246643278
17950192300.0 -0.3786182779 -0.9176224729
18000192000.0 -0.393428576 -0.9102064192
18050191700.0 -0.4071914478 -0.9022965189
18100191400.0 -0.4213136181 -0.8947410857
18150191100.0 -0.4363487259 -0.8867756004
18200190800.0 -0.4534424291 -0.8774801137
18250190500.0 -0.4703949358 -0.868103025
18300190200.0 -0.4855719742 -0.8587778498
18350189900.0 -0.5004984599 -0.8508017004
18400189600.0 -0.5149713433 -0.8425897194
18450189300.0 -0.5278231093 -0.8344280731
18500189000.0 -0.5413116473 -0.8261437274
18550188700.0 -0.5539997382 -0.8189543248
18600188400.0 -0.5659772523 -0.8119418443
18650188100.0 -0.576879006 -0.8052624087
18700187800.0 -0.5878689951 -0.7989927157
18750187500.0 -0.5985702089 -0.7923071807
18800187200.0 -0.6091403423 -0.7852631345
18850186900.0 -0.6191975831 -0.7782290094
18900186600.0 -0.6298189349 -0.770705913
18950186300.0 -0.6398297584 -0.7630552534
19000186000.0 -0.6467285048 -0.7568157629
19050185700.0 -0.6566122553 -0.7493687613
19100185400.0 -0.6665326235 -0.7409790839
19150185100.0 -0.6766019598 -0.7326799712
19200184800.0 -0.6860224709 -0.7241301081
19250184500.0 -0.6966464393 -0.7146982733
19300184200.0 -0.7079347387 -0.7047232834
19350183900.0 -0.7187390517 -0.6954617985
19400183600.0 -0.7285813545 -0.6854892566
19450183300.0 -0.7374145178 -0.6755058027
19500183000.0 -0.7451794052 -0.6655751753
19550182700.0 -0.7555810985 -0.654526854
19600182400.0 -0.765470762 -0.642525361
19650182100.0 -0.7763899339 -0.6307410341
19700181800.0 -0.786618942 -0.6175142829
19750181500.0 -0.7971949289 -0.6032359987
19800181200.0 -0.807518005 -0.5884719767
19850180900.0 -0.8171127756 -0.573281177
19900180600.0 -0.8247467287 -0.5587270819
19950180300.0 -0.834269861 -0.5425223118
20000180000.0 -0.8266259582 -0.5448209598
20050179700.0 -0.8354143932 -0.5319102783
20100179400.0 -0.8438017907 -0.5184366987
20150179100.0 -0.8517116664 -0.5055560124
20200178800.0 -0.8603863148 -0.4934387667
20250178500.0 -0.8696671755 -0.479322158
20300178200.0 -0.879318264 -0.4650616271
20350177900.0 -0.8881349088 -0.4504802761
20400177600.0 -0.897387555 -0.4356432512
20450177300.0 -0.9055237332 -0.4216056172
20500177000.0 -0.9135699854 -0.4073935579
20550176700.0 -0.9214966753 -0.3937269659
20600176400.0 -0.9281945265 -0.3803791892
20650176100.0 -0.9348128678 -0.3679006426
20700175800.0 -0.9410208959 -0.3559762182
20750175500.0 -0.9481349358 -0.3439533821
20800175200.0 -0.9537187061 -0.3335394023
20850174900.0 -0.957742425 -0.3226917801
20900174600.0 -0.9619853006 -0.310696904
20950174300.0 -0.9671412922 -0.2990403567
21000174000.0 -0.9697240561 -0.2865681646
21050173700.0 -0.9729029543 -0.2759833621
21100173400.0 -0.9774382008 -0.2640618718
21150173100.0 -0.981723677 -0.2516815877
21200172800.0 -0.9848327653 -0.2380914942
21250172500.0 -0.9880400193 -0.224352524
21300172200.0 -0.9910898326 -0.2100108665
21350171900.0 -0.9924601649 -0.1956391264
21400171600.0 -0.994073882 -0.1811228185
21450171300.0 -0.9935073528 -0.1669257303
21500171000.0 -0.9934753865 -0.1519841086
21550170700.0 -0.9928777571 -0.1365517407
21600170400.0 -0.991934333 -0.1205351007
21650170100.0 -0.9927799717 -0.104969103
21700169800.0 -0.9901555356 -0.0911505194
21750169500.0 -0.988506574 -0.0741621761
21800169200.0 -0.9871544765 -0.0581930594
21850168900.0 -0.9869164407 -0.0413853838
21900168600.0 -0.9855335773 -0.0248659283
21950168300.0 -0.9837742626 -0.0089343854
22000168000.0 -0.9830188434 0.0060686718
22050167700.0 -0.9828590829 0.0199865373
22100167400.0 -0.982576364 0.0350261463
22150167100.0 -0.9834896235 0.0507209814
22200166800.0 -0.9833061755 0.0666346056
22250166500.0 -0.9831968243 0.0843407934
22300166200.0 -0.9830086115 0.1012497948
22350165900.0 -0.9810352949 0.1173921013
22400165600.0 -0.978806759 0.1323081761
22450165300.0 -0.9766368089 0.1471803904
22500165000.0 -0.9751200392 0.1615114639
22550164700.0 -0.9739399093 0.1765551331
22600164400.0 -0.9725268312 0.1914584391
22650164100.0 -0.9702495769 0.20712798
22700163800.0 -0.9677689413 0.223521655
22750163500.0 -0.9649088347 0.2382888323
22800163200.0 -0.9624523842 0.2516466288
22850162900.0 -0.9599103037 0.2654876626
22900162600.0 -0.9585907859 0.2784351371
22950162300.0 -0.9574403436 0.2912259279
23000162000.0 -0.9561753059 0.3029005382
23050161700.0 -0.9547266217 0.3157420875
23100161400.0 -0.9525104233 0.3286918021
23150161100.0 -0.9492285041 0.3408565737
23200160800.0 -0.9466028832 0.3528426632
23250160500.0 -0.9440691544 0.3640240049
23300160200.0 -0.9416089644 0.3761693548
23350159900.0 -0.9386399029 0.3899030382
23400159600.0 -0.9331500137 0.4019007535
23450159300.0 -0.9283335207 0.4158110006
23500159000.0 -0.9229580954 0.4283417339
23550158700.0 -0.9194530761 0.4417393173
23600158400.0 -0.9137943267 0.4550242458
23650158100.0 -0.9073799635 0.4687628359
23700157800.0 -0.8999083239 0.4828120458
23750157500.0 -0.891084621 0.4966788704
23800157200.0 -0.882035299 0.5098973125
23850156900.0 -0.8736392842 0.5226018123
23900156600.0 -0.8639821418 0.5349829781
23950156300.0 -0.8552662605 0.547480178
24000156000.0 -0.8464936557 0.5591777874
24050155700.0 -0.8365817114 0.5704904676
24100155400.0 -0.825495884 0.5827396215
24150155100.0 -0.8143391033 0.5947825436
24200154800.0 -0.8041647925 0.6060528922
24250154500.0 -0.7922279321 0.6173622708
24300154200.0 -0.7806600059 0.6291735814
24350153900.0 -0.7688682415 0.6401194229
24400153600.0 -0.7567194767 0.6501795549
24450153300.0 -0.7451556914 0.6600427262
24500153000.0 -0.7338984328 0.669708252
24550152700.0 -0.7218381438 0.6794285371
24600152400.0 -0.7101996744 0.6887219915
24650152100.0 -0.6990647274 0.6966210299
