!Created with skrf (http://scikit-rf.org).
# Hz S RI R 50.0 
!freq ReS11 ImS11
300000.0 -0.9929835665 -0.0545926182
50299700.0 -0.9994803904 0.0165455462
100299400.0 -0.9975002138 0.0291811777
150299100.0 -1.002283138 0.0459015537
200298800.0 -0.9989999175 0.0590522912
250298500.0 -0.9969479711 0.0725675623
300298200.0 -0.9853286187 0.0883382657
350297900.0 -0.9932548527 0.0992653813
400297600.0 -0.9922652565 0.1156462853
450297300.0 -0.9901752667 0.1293812652
500297000.0 -0.9885961897 0.1441940053
550296700.0 -0.9832679565 0.1565693146
600296400.0 -1.01621042 0.1896905058
650296100.0 -0.9810101338 0.186074971
700295800.0 -0.9782082388 0.2005882131
750295500.0 -0.9749174846 0.2143924373
800295200.0 -0.9718328674 0.2285705491
850294900.0 -0.9684816918 0.2423811784
900294600.0 -0.9645852528 0.2562011754
950294300.0 -0.960718427 0.2697471954
1000294000.0 -0.9568216675 0.2836187022
1050293700.0 -0.9524190957 0.2975114336
1100293400.0 -0.9482755398 0.3117684812
1150293100.0 -0.9444561914 0.3237044111
1200292800.0 -0.9390302397 0.3377727541
1250292500.0 -0.9337194033 0.3513034516
1300292200.0 -0.9280483183 0.3644231336
1350291900.0 -0.9227141834 0.3783765578
1400291600.0 -0.9172323103 0.3915471471
1450291300.0 -0.9117219099 0.4036983965
1500291000.0 -0.9056057537 0.4170464165
1550290700.0 -0.8990937028 0.4304139302
1600290400.0 -0.8927893043 0.4431749436
1650290100.0 -0.8863712864 0.4553998076
1700289800.0 -0.8794732885 0.4686789063
1750289500.0 -0.8726871671 0.4812216682
1800289200.0 -0.8652527002 0.4938015289
1850288900.0 -0.8585589332 0.5051212549
1900288600.0 -0.8509021709 0.5182786334
1950288300.0 -0.8429729103 0.5306684873
2000288000.0 -0.8354327499 0.5421317488
2050287700.0 -0.8272945821 0.5545679544
2100287400.0 -0.8192283545 0.5662002549
2150287100.0 -0.8104963156 0.5781566024
2200286800.0 -0.8028313409 0.5887713134
2250286500.0 -0.7939685147 0.6007344406
2300286200.0 -0.7853219022 0.6120889629
2350285900.0 -0.7765310703 0.6232339352
2400285600.0 -0.7673338244 0.634364659
2450285300.0 -0.7585177092 0.644693816
2500285000.0 -0.7488596305 0.6557840244
2550284700.0 -0.7399530689 0.6662147736
2600284400.0 -0.7304165633 0.6764041669
2650284100.0 -0.7215709014 0.686798126
2700283800.0 -0.7110136516 0.6972562833
2750283500.0 -0.7006762068 0.7076198431
2800283200.0 -0.6911266493 0.7175507085
2850282900.0 -0.6805152249 0.7272176911
2900282600.0 -0.6702779108 0.7370779267
2950282300.0 -0.660240115 0.7461036497
3000282000.0 -0.6495468952 0.7556004574
3050281700.0 -0.6386630399 0.7647181418
3100281400.0 -0.6273786109 0.7737547515
3150281100.0 -0.6158846805 0.7828219545
3200280800.0 -0.6040595463 0.7915789179
3250280500.0 -0.5931640948 0.7995455146
3300280200.0 -0.5819727867 0.8075755597
3350279900.0 -0.5706246989 0.8151821059
3400279600.0 -0.5585859221 0.8230006449
3450279300.0 -0.547413553 0.8303832695
3500279000.0 -0.5355205472 0.8377348528
3550278700.0 -0.5234465256 0.8452096256
3600278400.0 -0.5116046809 0.8519751264
3650278100.0 -0.4982551089 0.8598227749
3700277800.0 -0.4864405848 0.866240526
3750277500.0 -0.4742594461 0.8729537472
3800277200.0 -0.461671766 0.8792721542
3850276900.0 -0.4492458965 0.885758655
3900276600.0 -0.4379954232 0.8913418765
3950276300.0 -0.4254844369 0.8977488084
4000276000.0 -0.4132522774 0.9035716435
4050275700.0 -0.3999832908 0.9099206286
4100275400.0 -0.3885850247 0.9151976455
4150275100.0 -0.3756234855 0.9205870988
4200274800.0 -0.3624730582 0.9261792673
4250274500.0 -0.3501443952 0.9310353381
4300274200.0 -0.3371018866 0.9365608363
4350273900.0 -0.3234851526 0.9415733864
4400273600.0 -0.3093588406 0.9461903076
4450273300.0 -0.2944534445 0.95140602
4500273000.0 -0.281214707 0.9555493949
4550272700.0 -0.2675032851 0.9595266901
4600272400.0 -0.2520504347 0.9638475991
4650272100.0 -0.239862763 0.966981979
4700271800.0 -0.2265696048 0.9702959693
4750271500.0 -0.2140709565 0.973428099
4800271200.0 -0.2013960383 0.9761740623
4850270900.0 -0.1875482839 0.9789993691
4900270600.0 -0.1739301483 0.981276099
4950270300.0 -0.1602198067 0.9837612835
5000270000.0 -0.146108208 0.9861490561
5050269700.0 -0.1325784781 0.9879148308
5100269400.0 -0.1186932828 0.9895097434
5150269100.0 -0.1054964444 0.9912521468
5200268800.0 -0.0919830729 0.9924865885
5250268500.0 -0.0787215816 0.9934898426
5300268200.0 -0.0655896084 0.9940534777
5350267900.0 -0.0531593639 0.9950523573
5400267600.0 -0.037258564 0.995881371
5450267300.0 -0.0247802274 0.9962921944
5500267000.0 -0.009998568 0.9964350213
5550266700.0 0.0038876493 0.9968955162
5600266400.0 0.0191841931 0.9966243801
5650266100.0 0.035178573 0.9966793475
5700265800.0 0.0492554396 0.9955793827
5750265500.0 0.064137664 0.9950064072
5800265200.0 0.0776252798 0.9939982381
5850264900.0 0.0909404773 0.9928202198
5900264600.0 0.1074487691 0.9912707896
5950264300.0 0.119567023 0.9898494532
6000264000.0 0.133903034 0.9882042539
6050263700.0 0.1466168363 0.9864010718
6100263400.0 0.1595732477 0.9844287221
6150263100.0 0.1748509279 0.9820749434
6200262800.0 0.1854282953 0.9801540447
6250262500.0 0.1984969593 0.977548481
6300262200.0 0.2113654151 0.974750657
6350261900.0 0.2245339254 0.9719002669
6400261600.0 0.2386614471 0.96842872
6450261300.0 0.250166964 0.9657898349
6500261000.0 0.2628903184 0.9621666178
6550260700.0 0.2760876269 0.9584275226
6600260400.0 0.2888970027 0.9545067247
6650260100.0 0.3029179458 0.9502374836
6700259800.0 0.3148583471 0.94604877
6750259500.0 0.3285286739 0.9413251259
6800259200.0 0.3419729596 0.9366897342
6850258900.0 0.3541419481 0.9319376274
6900258600.0 0.3665510474 0.9267419882
6950258300.0 0.3789989522 0.9215102089
7000258000.0 0.3909398916 0.9162552332
7050257700.0 0.4030681593 0.9105621296
7100257400.0 0.4162712612 0.9043953116
7150257100.0 0.4267228381 0.8991115808
7200256800.0 0.43979254 0.8929955283
7250256500.0 0.4511849279 0.886912857
7300256200.0 0.4642912719 0.8800375879
7350255900.0 0.4758895402 0.8733845221
7400255600.0 0.4880693588 0.8671181218
7450255300.0 0.5024650253 0.8586596025
7500255000.0 0.5139046846 0.8516355711
7550254700.0 0.5272272517 0.844111913
7600254400.0 0.539563253 0.8359251403
7650254100.0 0.5512872437 0.8283216502
7700253800.0 0.5628593826 0.8202686167
7750253500.0 0.5741081121 0.812404142
7800253200.0 0.5852391059 0.8044236884
7850252900.0 0.5950004652 0.7974780911
7900252600.0 0.6070703459 0.7886303181
7950252300.0 0.6163865714 0.7814918128
8000252000.0 0.6267996018 0.773360503
8050251700.0 0.6373707617 0.7649599598
8100251400.0 0.6474871216 0.7565939056
8150251100.0 0.6579446588 0.7476740666
8200250800.0 0.6672502438 0.7397984727
8250250500.0 0.6768293886 0.7312567835
8300250200.0 0.6862610124 0.7223264752
8350249900.0 0.6958062694 0.7135814119
8400249600.0 0.7044299555 0.705030239
8450249300.0 0.7135093287 0.6954787502
8500249000.0 0.7225400492 0.686552399
8550248700.0 0.7314961275 0.6767964404
8600248400.0 0.740358322 0.6672726137
8650248100.0 0.7481641166 0.6580262818
8700247800.0 0.7577417407 0.6471397867
8750247500.0 0.7657616632 0.6372189367
8800247200.0 0.7741832811 0.6269454574
8850246900.0 0.7825473958 0.6158001633
8900246600.0 0.7909069678 0.6050553429
8950246300.0 0.8002901599 0.5927947453
9000246000.0 0.8086815255 0.5811855395
9050245700.0 0.8173081556 0.5690091353
9100245400.0 0.8255454342 0.5568145884
9150245100.0 0.8340024685 0.5442756352
9200244800.0 0.842782004 0.5311559924
9250244500.0 0.8514611194 0.516943709
9300244200.0 0.8596226668 0.5037358328
9350243900.0 0.8670808408 0.4904664522
9400243600.0 0.8740999025 0.4777408397
9450243300.0 0.8803735673 0.4657049956
9500243000.0 0.8874489004 0.452292895
9550242700.0 0.8923524029 0.4423301611
9600242400.0 0.897226304 0.4325541561
9650242100.0 0.9013004879 0.4244176308
9700241800.0 0.9062230358 0.4146436998
9750241500.0 0.9108815257 0.4055196833
9800241200.0 0.9157586802 0.3952054875
9850240900.0 0.9209824332 0.3834706656
9900240600.0 0.9257381308 0.3729785255
9950240300.0 0.9319320473 0.357761395
10000240000.0 0.9372043975 0.3451855778
10050239700.0 0.9424955546 0.3310015906
10100239400.0 0.9469952574 0.3166420425
10150239100.0 0.9515101843 0.3022986483
10200238800.0 0.956068412 0.2876357613
10250238500.0 0.9597602286 0.2744395018
10300238200.0 0.9630500123 0.2604123587
10350237900.0 0.9661322319 0.2473810164
10400237600.0 0.9688089221 0.2343211389
10450237300.0 0.9722762119 0.220067246
10500237000.0 0.9742764451 0.2084394349
10550236700.0 0.9769687231 0.1946687034
10600236400.0 0.9791147764 0.1811709633
10650236100.0 0.9810359564 0.1663351416
10700235800.0 0.9836815595 0.1545783984
10750235500.0 0.9856234456 0.1413482131
10800235200.0 0.9873488165 0.1273428409
10850234900.0 0.989297638 0.1133320676
10900234600.0 0.9913567184 0.098746633
10950234300.0 0.9929299236 0.0856037136
11000234000.0 0.9944193531 0.0712805178
11050233700.0 0.9957920407 0.0563762277
11100233400.0 0.9971360792 0.0399525609
11150233100.0 0.9981707973 0.0248829271
11200232800.0 0.9984565825 0.0102889199
11250232500.0 0.9993585183 -0.0058853916
11300232200.0 0.9997625517 -0.0224668546
11350231900.0 0.9995179862 -0.0376583441
11400231600.0 0.9988991305 -0.0521590626
11450231300.0 0.9988868781 -0.0681785958
11500231000.0 0.9981222185 -0.0835016273
11550230700.0 0.9964271648 -0.0974821772
11600230400.0 0.9952235962 -0.1106094193
11650230100.0 0.9933980109 -0.1219146195
11700229800.0 0.9913743697 -0.1373783367
11750229500.0 0.9891379309 -0.151511168
11800229200.0 0.9867614561 -0.165650409
11850228900.0 0.9837879904 -0.1795273841
11900228600.0 0.9806972319 -0.1910173586
11950228300.0 0.9776499651 -0.2030057187
12000228000.0 0.9748678446 -0.2133348812
12050227700.0 0.9716278045 -0.2259785123
12100227400.0 0.9688551241 -0.2366923386
12150227100.0 0.9634225117 -0.2547219132
12200226800.0 0.9608527087 -0.2645963313
12250226500.0 0.9565864721 -0.2785057255
12300226200.0 0.9528119503 -0.2904521698
12350225900.0 0.9477808909 -0.3047263062
12400225600.0 0.9436660831 -0.3170361818
12450225300.0 0.9398707543 -0.3291480915
12500225000.0 0.9343355276 -0.3440753387
12550224700.0 0.9292434978 -0.3579169
12600224400.0 0.9245908324 -0.3701364577
12650224100.0 0.9187956044 -0.384225177
12700223800.0 0.9136014281 -0.3969512995
12750223500.0 0.908000289 -0.4098295156
12800223200.0 0.9025920189 -0.422347007
12850222900.0 0.8972063026 -0.4345422079
12900222600.0 0.8913957423 -0.446560605
12950222300.0 0.8848852986 -0.4598763804
13000222000.0 0.8786472391 -0.4718350965
13050221700.0 0.871877979 -0.4840543788
13100221400.0 0.86501834 -0.4962425529
13150221100.0 0.8580982238 -0.5087673626
13200220800.0 0.8508453322 -0.5203181154
13250220500.0 0.8436293946 -0.5329754362
13300220200.0 0.8361791938 -0.5440851618
13350219900.0 0.8280418897 -0.556509056
13400219600.0 0.8198919976 -0.5682779417
13450219300.0 0.8111295492 -0.5810665288
13500219000.0 0.8015452499 -0.5941523831
13550218700.0 0.7912390682 -0.60697601
13600218400.0 0.7817755859 -0.6188093099
13650218100.0 0.7731150726 -0.6298776919
13700217800.0 0.7624233227 -0.6416976612
13750217500.0 0.7518587913 -0.6538307965
13800217200.0 0.7412754723 -0.6646890482
13850216900.0 0.730883814 -0.6764299061
13900216600.0 0.721221157 -0.6856344104
13950216300.0 0.7108321418 -0.696105559
14000216000.0 0.7010099366 -0.7057454468
14050215700.0 0.6916764444 -0.7139811048
14100215400.0 0.6812584586 -0.7243476746
14150215100.0 0.6717904745 -0.7335560902
14200214800.0 0.6622612545 -0.7418187947
14250214500.0 0.6520073612 -0.7511887992
14300214200.0 0.641592293 -0.7606705297
14350213900.0 0.6308332253 -0.770175034
14400213600.0 0.6194451877 -0.779287876
14450213300.0 0.6069813713 -0.7889284961
14500213000.0 0.5946985959 -0.7982652043
14550212700.0 0.5830543567 -0.8072014662
14600212400.0 0.5706636684 -0.816163342
14650212100.0 0.5579290202 -0.8242992238
14700211800.0 0.5444848679 -0.8337630607
14750211500.0 0.532032368 -0.8420965639
14800211200.0 0.5198539367 -0.850365703
14850210900.0 0.5075948929 -0.8578014867
14900210600.0 0.4946041525 -0.8656998761
14950210300.0 0.4814402648 -0.8733870837
15000210000.0 0.4684785676 -0.8803818698
15050209700.0 0.4557830669 -0.8869414742
15100209400.0 0.4426663193 -0.8937587247
15150209100.0 0.4303407986 -0.899240147
15200208800.0 0.4170859665 -0.9045304894
15250208500.0 0.4049942007 -0.9106308817
15300208200.0 0.3916906608 -0.9156265148
15350207900.0 0.3786268343 -0.9208771983
15400207600.0 0.3643298091 -0.925432067
15450207300.0 0.3502412557 -0.9316511077
15500207000.0 0.3353978205 -0.9362468084
15550206700.0 0.32148196 -0.9410558697
15600206400.0 0.3062362411 -0.945480664
15650206100.0 0.2908763763 -0.9499665978
15700205800.0 0.2773368354 -0.9537635415
15750205500.0 0.263013927 -0.9577769499
15800205200.0 0.2487856138 -0.9612043642
15850204900.0 0.2348249822 -0.9647729705
15900204600.0 0.2198124897 -0.9686137016
15950204300.0 0.2061337124 -0.9716701786
16000204000.0 0.1918869743 -0.974314859
16050203700.0 0.177232928 -0.9775289978
16100203400.0 0.1630458971 -0.9796151847
16150203100.0 0.1487584493 -0.9819517932
16200202800.0 0.1345749588 -0.9847185376
16250202500.0 0.1205749349 -0.9859286116
16300202200.0 0.1046089466 -0.9878840289
16350201900.0 0.0898759619 -0.9890763513
16400201600.0 0.0753888264 -0.9906704071
16450201300.0 0.0604139333 -0.9914889663
16500201000.0 0.0442572507 -0.9926215127
16550200700.0 0.0288157048 -0.9934661809
16600200400.0 0.0132813466 -0.9936625363
16650200100.0 -0.0027382548 -0.9939102632
16700199800.0 -0.0183045079 -0.993891061
16750199500.0 -0.0361030609 -0.9932715262
16800199200.0 -0.0515533327 -0.9923635037
16850198900.0 -0.0677267797 -0.9914542908
16900198600.0 -0.0820356012 -0.9905128358
16950198300.0 -0.0960169019 -0.9895225203
17000198000.0 -0.1100147143 -0.9877783534
17050197700.0 -0.1227389792 -0.9856446808
17100197400.0 -0.1374935323 -0.9842924505
17150197100.0 -0.1504293155 -0.9822170242
17200196800.0 -0.1638963732 -0.9800797211
17250196500.0 -0.1774743993 -0.9772268027
17300196200.0 -0.1905628598 -0.9750075714
17350195900.0 -0.2032037699 -0.9726081944
17400195600.0 -0.2159888393 -0.9696505594
17450195300.0 -0.2292856229 -0.9669123684
17500195000.0 -0.2429632867 -0.9634708219
17550194700.0 -0.2568228407 -0.9601394575
17600194400.0 -0.270883752 -0.9563179865
17650194100.0 -0.2844958885 -0.9519020234
17700193800.0 -0.2977528606 -0.9481524524
17750193500.0 -0.3111524621 -0.9434044894
17800193200.0 -0.3254639208 -0.9388973357
17850192900.0 -0.3400252451 -0.9337097242
17900192600.0 -0.3545469225 -0.9279118521
17950192300.0 -0.3697885098 -0.9213361638
18000192000.0 -0.3844559549 -0.914738143
18050191700.0 -0.3981693493 -0.9075552923
18100191400.0 -0.4125613695 -0.9006275298
18150191100.0 -0.4267623636 -0.8933930843
18200190800.0 -0.4424299473 -0.885403137
18250190500.0 -0.4587331688 -0.8766546881
18300190200.0 -0.4738801004 -0.8685762624
18350189900.0 -0.4883180745 -0.860469777
18400189600.0 -0.5028917081 -0.8524047585
18450189300.0 -0.5162344951 -0.8447448653
18500189000.0 -0.52952459 -0.8366997407
18550188700.0 -0.5426443599 -0.8289896684
18600188400.0 -0.5547361423 -0.8215096275
18650188100.0 -0.5667511836 -0.8143456454
18700187800.0 -0.578310434 -0.8068751924
18750187500.0 -0.5894741182 -0.7995316486
18800187200.0 -0.6004312184 -0.7917521118
18850186900.0 -0.6113131637 -0.7841210999
18900186600.0 -0.6220270277 -0.7758935203
18950186300.0 -0.6327621408 -0.7673115346
19000186000.0 -0.6412051299 -0.7602515974
19050185700.0 -0.6514277611 -0.7528397657
19100185400.0 -0.6613452961 -0.7436882537
19150185100.0 -0.6718703145 -0.7344041924
19200184800.0 -0.6814227 -0.725685734
19250184500.0 -0.6920511602 -0.716566803
19300184200.0 -0.7028531628 -0.7068245012
19350183900.0 -0.7136765557 -0.6966940097
19400183600.0 -0.72230499 -0.6866386143
19450183300.0 -0.7318938695 -0.6763724921
19500183000.0 -0.7404552587 -0.6661383857
19550182700.0 -0.7498430143 -0.6560704401
19600182400.0 -0.7594687033 -0.6443787222
19650182100.0 -0.7694997447 -0.6330570124
19700181800.0 -0.7797876577 -0.6205253289
19750181500.0 -0.7894803414 -0.6076714789
19800181200.0 -0.799309713 -0.5940916851
19850180900.0 -0.8090021674 -0.5801188615
19900180600.0 -0.8169650496 -0.5670029572
19950180300.0 -0.8265727497 -0.5518503107
20000180000.0 -0.8259578711 -0.5477609882
20050179700.0 -0.8346289457 -0.535748354
20100179400.0 -0.8422285927 -0.5218277729
20150179100.0 -0.8501631261 -0.5105037198
20200178800.0 -0.8581111001 -0.4974203081
20250178500.0 -0.8671487722 -0.4842622197
20300178200.0 -0.8757322926 -0.4703479495
20350177900.0 -0.8838698555 -0.4563669307
20400177600.0 -0.892277886 -0.4429719766
20450177300.0 -0.8996947835 -0.4288031538
20500177000.0 -0.9071035222 -0.4154303312
20550176700.0 -0.914497684 -0.4019565078
20600176400.0 -0.9204272465 -0.388741285
20650176100.0 -0.9274856129 -0.375745224
20700175800.0 -0.9341425031 -0.3636928819
20750175500.0 -0.940345294 -0.3502913078
20800175200.0 -0.9448715765 -0.3393116465
20850174900.0 -0.9489216262 -0.3277340479
20900174600.0 -0.9541302344 -0.3152557497
20950174300.0 -0.958608967 -0.3033611932
21000174000.0 -0.9627632345 -0.2904683456
21050173700.0 -0.9651724819 -0.2790367586
21100173400.0 -0.9694841722 -0.2667357227
21150173100.0 -0.9736462334 -0.2539251152
21200172800.0 -0.9763570318 -0.2399208001
21250172500.0 -0.9801589921 -0.2263801385
21300172200.0 -0.9833080769 -0.2127266239
21350171900.0 -0.9852593982 -0.1986408247
21400171600.0 -0.9870536427 -0.1839826156
21450171300.0 -0.9886686224 -0.1696216077
21500171000.0 -0.989331886 -0.1547271818
21550170700.0 -0.9907658585 -0.1394652822
21600170400.0 -0.9913723894 -0.1241835034
21650170100.0 -0.9915966922 -0.1094949824
21700169800.0 -0.9902613587 -0.0940471777
21750169500.0 -0.9902788276 -0.0785591829
21800169200.0 -0.9901565208 -0.0638913684
21850168900.0 -0.9894373304 -0.046838262
21900168600.0 -0.9887033365 -0.0308105827
21950168300.0 -0.9882522724 -0.0160947639
22000168000.0 -0.9869483481 -0.0017733832
22050167700.0 -0.9870183076 0.0127437322
22100167400.0 -0.9867260868 0.0277663182
22150167100.0 -0.986775767 0.0427300483
22200166800.0 -0.9868705817 0.0582731487
22250166500.0 -0.9860250927 0.0749034708
22300166200.0 -0.9849465331 0.0897237472
22350165900.0 -0.9835357161 0.1060394508
22400165600.0 -0.9825355731 0.120802174
22450165300.0 -0.9798848454 0.1358785213
22500165000.0 -0.9783316162 0.1498302469
22550164700.0 -0.9771461124 0.1650221669
22600164400.0 -0.9744867521 0.1804694384
22650164100.0 -0.9726304058 0.1936146853
22700163800.0 -0.9706678233 0.2089882669
22750163500.0 -0.9680412216 0.2236124279
22800163200.0 -0.9645350834 0.2370799869
22850162900.0 -0.9621099512 0.2500765108
22900162600.0 -0.9598494546 0.2636735762
22950162300.0 -0.9583743511 0.2766671391
23000162000.0 -0.9562008098 0.2888710396
23050161700.0 -0.9537083753 0.3021440187
23100161400.0 -0.9515142412 0.3150573437
23150161100.0 -0.9476741227 0.3276564742
23200160800.0 -0.9445761227 0.3397290867
23250160500.0 -0.9415393678 0.3528936476
23300160200.0 -0.9386967996 0.3641635853
23350159900.0 -0.9355852301 0.3772846806
23400159600.0 -0.930608754 0.3903908693
23450159300.0 -0.9255518186 0.4028057595
23500159000.0 -0.920856431 0.4150990516
23550158700.0 -0.9163477233 0.4281386012
23600158400.0 -0.9108830274 0.4408947622
23650158100.0 -0.9050505091 0.4541059687
23700157800.0 -0.8982472357 0.4670125593
23750157500.0 -0.8903219998 0.4807625724
23800157200.0 -0.8821336692 0.4937015638
23850156900.0 -0.8739742934 0.5058551817
23900156600.0 -0.8656652872 0.5184119314
23950156300.0 -0.8570583092 0.530395391
24000156000.0 -0.8491875596 0.5424375971
24050155700.0 -0.8388314591 0.5550040628
24100155400.0 -0.8297928152 0.5666360307
24150155100.0 -0.8209569807 0.5780051076
24200154800.0 -0.8108724497 0.5890031815
24250154500.0 -0.8002884196 0.6015167712
24300154200.0 -0.7898061547 0.6129897349
24350153900.0 -0.7791379158 0.6240946875
24400153600.0 -0.7678731429 0.6351015245
24450153300.0 -0.7571710059 0.6453555252
24500153000.0 -0.7461391513 0.6558438294
24550152700.0 -0.7353943814 0.6657282632
24600152400.0 -0.7252230291 0.6757087281
24650152100.0 -0.7140457413 0.6850862327
