!Created with skrf (http://scikit-rf.org).
# Hz S RI R 50.0 
!freq ReS11 ImS11
300000.0 -0.9739406011 -0.1213653332
50299700.0 -0.9999207151 0.0151817667
100299400.0 -0.9979236853 0.0280577747
150299100.0 -1.002715486 0.0447967059
200298800.0 -0.999567864 0.0582558636
250298500.0 -0.9974268257 0.0717044291
300298200.0 -0.9861225382 0.0875495607
350297900.0 -0.9940269948 0.0984387081
400297600.0 -0.9931324338 0.115078127
450297300.0 -0.9909954615 0.1288330413
500297000.0 -0.989617201 0.143697813
550296700.0 -0.9841233741 0.1559924698
600296400.0 -1.017273886 0.1892755125
650296100.0 -0.9821812547 0.1860426687
700295800.0 -0.9794616113 0.2003113137
750295500.0 -0.9763133335 0.2142635843
800295200.0 -0.9728500692 0.2283394639
850294900.0 -0.96953271 0.2421223277
900294600.0 -0.96583741 0.2558232514
950294300.0 -0.9621152924 0.2694559944
1000294000.0 -0.9581041269 0.2836873058
1050293700.0 -0.9537217664 0.2973436461
1100293400.0 -0.9493350273 0.3117655944
1150293100.0 -0.9453528311 0.3236387938
1200292800.0 -0.9402321329 0.3378869776
1250292500.0 -0.9346441136 0.3514522511
1300292200.0 -0.9290148847 0.3646366749
1350291900.0 -0.9234525793 0.3788955811
1400291600.0 -0.9179955029 0.3917060879
1450291300.0 -0.912509004 0.4041754332
1500291000.0 -0.9063067896 0.4174942746
1550290700.0 -0.8996565522 0.4309059013
1600290400.0 -0.8936088282 0.4438431683
1650290100.0 -0.886747816 0.4558561285
1700289800.0 -0.879926599 0.4694046187
1750289500.0 -0.872844618 0.481617191
1800289200.0 -0.8656015857 0.4946136774
1850288900.0 -0.8588066227 0.5060258862
1900288600.0 -0.8510853583 0.5189984175
1950288300.0 -0.8430512764 0.5316310299
2000288000.0 -0.8352343812 0.5429213637
2050287700.0 -0.8270837894 0.5553153542
2100287400.0 -0.8194127475 0.5667917197
2150287100.0 -0.8108138321 0.5788624427
2200286800.0 -0.8030783883 0.5893502768
2250286500.0 -0.7942353857 0.6013036674
2300286200.0 -0.7853437332 0.6129423258
2350285900.0 -0.776543903 0.6238540773
2400285600.0 -0.7678424095 0.6347984924
2450285300.0 -0.7588920725 0.6452011272
2500285000.0 -0.7493435383 0.6566527746
2550284700.0 -0.7404870791 0.6667531114
2600284400.0 -0.731125335 0.6768424472
2650284100.0 -0.7220289229 0.6875700116
2700283800.0 -0.7114876716 0.6979122687
2750283500.0 -0.7012555839 0.7085858507
2800283200.0 -0.6914099292 0.7184989061
2850282900.0 -0.6810565637 0.7281531924
2900282600.0 -0.6706098399 0.7378099912
2950282300.0 -0.6604703427 0.7471013298
3000282000.0 -0.6497952752 0.7566289815
3050281700.0 -0.638613167 0.7659668236
3100281400.0 -0.6268902875 0.7752278277
3150281100.0 -0.6150413995 0.7844066081
3200280800.0 -0.6036395847 0.7929428623
3250280500.0 -0.5925408735 0.8005925595
3300280200.0 -0.581432431 0.8085049704
3350279900.0 -0.569470557 0.8162644314
3400279600.0 -0.5572634576 0.8240847645
3450279300.0 -0.5461970341 0.8312066994
3500279000.0 -0.5342957979 0.8381104396
3550278700.0 -0.5221017234 0.8455966124
3600278400.0 -0.5098369951 0.8524386668
3650278100.0 -0.4965867994 0.8600459437
3700277800.0 -0.4845048027 0.8666457673
3750277500.0 -0.472455791 0.8732266753
3800277200.0 -0.4597520973 0.879854601
3850276900.0 -0.4477186861 0.885724422
3900276600.0 -0.4370971525 0.8912553639
3950276300.0 -0.4245666983 0.8974457949
4000276000.0 -0.4126453835 0.9031755302
4050275700.0 -0.3996593659 0.9093811961
4100275400.0 -0.3886248483 0.9147694006
4150275100.0 -0.3758705729 0.9206021324
4200274800.0 -0.3631021059 0.9260693241
4250274500.0 -0.3507126601 0.9313268633
4300274200.0 -0.3374160167 0.9367282262
4350273900.0 -0.3235923628 0.941902417
4400273600.0 -0.3087988756 0.947033285
4450273300.0 -0.2936552176 0.9520412464
4500273000.0 -0.2801322662 0.9563766684
4550272700.0 -0.2660130746 0.9609716599
4600272400.0 -0.2506995746 0.9650359216
4650272100.0 -0.238933211 0.9682597078
4700271800.0 -0.2256903982 0.9716349895
4750271500.0 -0.2141685694 0.9743462045
4800271200.0 -0.2014839469 0.9771322415
4850270900.0 -0.187680498 0.9799902259
4900270600.0 -0.1737917551 0.9823563646
4950270300.0 -0.1594153948 0.9848752216
5000270000.0 -0.1452307775 0.986895561
5050269700.0 -0.1317439412 0.988731553
5100269400.0 -0.1177822039 0.9901570469
5150269100.0 -0.1043610772 0.9922180848
5200268800.0 -0.0911598824 0.992965942
5250268500.0 -0.0779746343 0.9936635142
5300268200.0 -0.0649182183 0.9944730771
5350267900.0 -0.0524261162 0.9951098093
5400267600.0 -0.0360839254 0.9963470884
5450267300.0 -0.0231736416 0.9968339697
5500267000.0 -0.0079738562 0.9968502806
5550266700.0 0.0069646587 0.9972825276
5600266400.0 0.0225679404 0.997311486
5650266100.0 0.0390458667 0.9967205285
5700265800.0 0.0534032515 0.9961126897
5750265500.0 0.0685690474 0.9954088611
5800265200.0 0.0823965528 0.9942191341
5850264900.0 0.0958916206 0.9934251278
5900264600.0 0.1123313046 0.9914772067
5950264300.0 0.1241955913 0.9897381002
6000264000.0 0.1381812705 0.9887459527
6050263700.0 0.1503475384 0.9867256191
6100263400.0 0.1626383692 0.9850016495
6150263100.0 0.1774579031 0.9827110404
6200262800.0 0.1875343375 0.9809945564
6250262500.0 0.2002475561 0.9784188906
6300262200.0 0.2129873386 0.9759742293
6350261900.0 0.2259172903 0.9729940633
6400261600.0 0.2397155165 0.9697068151
6450261300.0 0.2512421233 0.9669104091
6500261000.0 0.264183552 0.9636184345
6550260700.0 0.2772578837 0.959794529
6600260400.0 0.2901186876 0.9554582809
6650260100.0 0.3043180494 0.9509384073
6700259800.0 0.3165603905 0.9467309689
6750259500.0 0.3304664899 0.9418851575
6800259200.0 0.3436684624 0.9368204426
6850258900.0 0.3556303846 0.9317595284
6900258600.0 0.3678602317 0.9264542091
6950258300.0 0.3803783098 0.9213371357
7000258000.0 0.3922768996 0.9157855055
7050257700.0 0.4044517033 0.9098341181
7100257400.0 0.4173364421 0.9036219168
7150257100.0 0.4278439956 0.8982786529
7200256800.0 0.4408520261 0.8919426887
7250256500.0 0.4526189836 0.8854400845
7300256200.0 0.4654367692 0.8786857246
7350255900.0 0.4782221463 0.8718990701
7400255600.0 0.4919468542 0.8644354588
7450255300.0 0.5070014265 0.8555174449
7500255000.0 0.5186485166 0.8482695685
7550254700.0 0.5322767236 0.8397164069
7600254400.0 0.5456847222 0.8317913123
7650254100.0 0.5573070665 0.8238655243
7700253800.0 0.5685982293 0.8156604774
7750253500.0 0.5800721595 0.8079873814
7800253200.0 0.5906898958 0.8004249357
7850252900.0 0.6003921918 0.7932630666
7900252600.0 0.6119390483 0.7845728839
7950252300.0 0.620537645 0.7781794086
8000252000.0 0.6308719884 0.7702111628
8050251700.0 0.6412007015 0.7621189536
8100251400.0 0.65100758 0.7542027022
8150251100.0 0.6612671988 0.7456232741
8200250800.0 0.6707519603 0.7374676107
8250250500.0 0.6794644728 0.729565666
8300250200.0 0.6892564967 0.7209607953
8350249900.0 0.6978344887 0.7122670837
8400249600.0 0.7061014683 0.7041852772
8450249300.0 0.7154632339 0.6950133464
8500249000.0 0.7239966607 0.6861658557
8550248700.0 0.7324143005 0.6771893292
8600248400.0 0.7405012728 0.667567608
8650248100.0 0.7483487723 0.6582263434
8700247800.0 0.7578788815 0.6471732904
8750247500.0 0.7660467823 0.6369590328
8800247200.0 0.7743955346 0.6265840235
8850246900.0 0.7831853932 0.6152028829
8900246600.0 0.7915028452 0.6036251159
8950246300.0 0.8009515013 0.5909396938
9000246000.0 0.8100488691 0.578274919
9050245700.0 0.8193393961 0.5655273551
9100245400.0 0.8277242531 0.5530818637
9150245100.0 0.8370248413 0.5394056091
9200244800.0 0.8467017373 0.5247393005
9250244500.0 0.8560354932 0.5093711612
9300244200.0 0.8642427449 0.4951636269
9350243900.0 0.8720536701 0.4812999144
9400243600.0 0.8786459483 0.4690440314
9450243300.0 0.8846038586 0.4576344097
9500243000.0 0.8908252586 0.4456560993
9550242700.0 0.894740081 0.4378133111
9600242400.0 0.8984812882 0.4304756572
9650242100.0 0.9024141938 0.4239337728
9700241800.0 0.9071776191 0.4156099105
9750241500.0 0.9111061753 0.4081652086
9800241200.0 0.9159356088 0.3988160516
9850240900.0 0.9213681096 0.3872287372
9900240600.0 0.9271440236 0.3755992322
9950240300.0 0.9339349056 0.3592587206
10000240000.0 0.9384716712 0.3477784963
10050239700.0 0.9443551925 0.3321654616
10100239400.0 0.9494581363 0.3166418123
10150239100.0 0.9539358558 0.3015395369
10200238800.0 0.958040424 0.2865742804
10250238500.0 0.9615785572 0.2731959913
10300238200.0 0.9644490619 0.2591287746
10350237900.0 0.9673700539 0.2461135565
10400237600.0 0.9699400081 0.2324627878
10450237300.0 0.9725955652 0.2190531396
10500237000.0 0.9747652101 0.2072936802
10550236700.0 0.9770193352 0.1925202434
10600236400.0 0.9788890646 0.1790818264
10650236100.0 0.9810942981 0.1645996762
10700235800.0 0.9834821825 0.1520345492
10750235500.0 0.9857427492 0.138712117
10800235200.0 0.9879232752 0.1242023877
10850234900.0 0.989531878 0.1098720429
10900234600.0 0.9916857071 0.0951071463
10950234300.0 0.9934425124 0.0820634585
11000234000.0 0.9953335888 0.0667430287
11050233700.0 0.9971077589 0.0502716546
11100233400.0 0.998529013 0.032894517
11150233100.0 0.9993379743 0.0165051375
11200232800.0 1.000204194 0.0015707014
11250232500.0 1.001822536 -0.0153188085
11300232200.0 1.002002778 -0.033940909
11350231900.0 1.001892123 -0.0491860172
11400231600.0 1.001827301 -0.0660171063
11450231300.0 1.001028736 -0.079801493
11500231000.0 0.9997784036 -0.0969541733
11550230700.0 0.9987626109 -0.1094867273
11600230400.0 0.9977166143 -0.1221541847
11650230100.0 0.9948423283 -0.1340935606
11700229800.0 0.9932229973 -0.148234101
11750229500.0 0.9906343564 -0.1625524907
11800229200.0 0.9882683489 -0.1765814213
11850228900.0 0.984508845 -0.1888022493
11900228600.0 0.9811457176 -0.1985485232
11950228300.0 0.9775886332 -0.2091361524
12000228000.0 0.9749951756 -0.21760515
12050227700.0 0.9712862163 -0.2304506143
12100227400.0 0.967702946 -0.2425083593
12150227100.0 0.9635147707 -0.2584031179
12200226800.0 0.9596052772 -0.2690447142
12250226500.0 0.9560982826 -0.2823756683
12300226200.0 0.9513058084 -0.293846116
12350225900.0 0.9467307407 -0.3081822729
12400225600.0 0.9417864447 -0.3210449834
12450225300.0 0.9376636171 -0.3341420228
12500225000.0 0.9319082489 -0.3489558274
12550224700.0 0.9268243682 -0.3624162322
12600224400.0 0.9218519151 -0.3754167122
12650224100.0 0.9160243309 -0.389857021
12700223800.0 0.910721881 -0.4025770535
12750223500.0 0.9051649101 -0.4155891083
12800223200.0 0.8999943324 -0.4281386767
12850222900.0 0.8945927909 -0.440872394
12900222600.0 0.8889379631 -0.4527776775
12950222300.0 0.8829210404 -0.4651758544
13000222000.0 0.8764450741 -0.4770922567
13050221700.0 0.8698255852 -0.4894729801
13100221400.0 0.8628945725 -0.5014301907
13150221100.0 0.856478372 -0.5143310616
13200220800.0 0.8493907048 -0.5251756553
13250220500.0 0.8422567457 -0.5370976875
13300220200.0 0.8348566455 -0.5481037398
13350219900.0 0.826853359 -0.5598986157
13400219600.0 0.8184858897 -0.5721485133
13450219300.0 0.8091151901 -0.5854956707
13500219000.0 0.7994611487 -0.5991945876
13550218700.0 0.7889445319 -0.6117792494
13600218400.0 0.7785102136 -0.6246207008
13650218100.0 0.7693162071 -0.6347384757
13700217800.0 0.758966504 -0.6470583418
13750217500.0 0.7487381195 -0.6583668449
13800217200.0 0.7370951917 -0.6696749963
13850216900.0 0.7260737314 -0.6810114693
13900216600.0 0.7164679342 -0.6904452999
13950216300.0 0.7058532121 -0.7005583196
14000216000.0 0.6956558146 -0.7099294788
14050215700.0 0.6858178795 -0.7181251564
14100215400.0 0.67629571 -0.7272945067
14150215100.0 0.6672055482 -0.7357450066
14200214800.0 0.6578430216 -0.7447284685
14250214500.0 0.647412778 -0.7539888418
14300214200.0 0.6368233301 -0.7633745875
14350213900.0 0.625883378 -0.7729656323
14400213600.0 0.6142805047 -0.7826889947
14450213300.0 0.6011237023 -0.7931572654
14500213000.0 0.5879405897 -0.8029203648
14550212700.0 0.5748325307 -0.8123507635
14600212400.0 0.5628542575 -0.8214436473
14650212100.0 0.5502779242 -0.8301728858
14700211800.0 0.536178517 -0.8396274954
14750211500.0 0.5241505028 -0.8474685223
14800211200.0 0.511573346 -0.8553651733
14850210900.0 0.4997657528 -0.8633242786
14900210600.0 0.4862968007 -0.8709900513
14950210300.0 0.47278021 -0.878702688
15000210000.0 0.4600955006 -0.8855018929
15050209700.0 0.4477456412 -0.8915916058
15100209400.0 0.4352527934 -0.8975180945
15150209100.0 0.4232201925 -0.9032860427
15200208800.0 0.4102123765 -0.9086117868
15250208500.0 0.398716477 -0.9123123075
15300208200.0 0.3866150891 -0.9173132109
15350207900.0 0.3745246045 -0.9230944826
15400207600.0 0.3586268804 -0.9278389709
15450207300.0 0.344395723 -0.9329370625
15500207000.0 0.3299451774 -0.9373021916
15550206700.0 0.3150198407 -0.9426833706
15600206400.0 0.2989651022 -0.9465340981
15650206100.0 0.2835037334 -0.9509203846
15700205800.0 0.2696615916 -0.9549943593
15750205500.0 0.2551383248 -0.9580725576
15800205200.0 0.2407691569 -0.9617024867
15850204900.0 0.226462352 -0.9651782303
15900204600.0 0.2113728312 -0.9689449443
15950204300.0 0.1974141044 -0.9720156215
16000204000.0 0.1832031943 -0.9747404709
16050203700.0 0.1680629662 -0.977758038
16100203400.0 0.1539190527 -0.9799842696
16150203100.0 0.1388208582 -0.9822053338
16200202800.0 0.1245921218 -0.9843425784
16250202500.0 0.1097613683 -0.9855984394
16300202200.0 0.0947413359 -0.9876676365
16350201900.0 0.079508851 -0.9891267604
16400201600.0 0.0648906406 -0.9899912505
16450201300.0 0.0494418248 -0.991361221
16500201000.0 0.0328481913 -0.9919775522
16550200700.0 0.0169618514 -0.9925845438
16600200400.0 0.0015238026 -0.992803771
16650200100.0 -0.0145269203 -0.9924568266
16700199800.0 -0.0310524715 -0.9921598223
16750199500.0 -0.0496622814 -0.9918023795
16800199200.0 -0.0659642576 -0.9910727233
16850198900.0 -0.0802699572 -0.9894952914
16900198600.0 -0.0941566073 -0.9891327555
16950198300.0 -0.1081585767 -0.9865157358
17000198000.0 -0.1210149663 -0.9857960553
17050197700.0 -0.133265324 -0.9847282133
17100197400.0 -0.1458759026 -0.9818346199
17150197100.0 -0.1593389198 -0.98031567
17200196800.0 -0.1722544012 -0.9781351681
17250196500.0 -0.1846795534 -0.9757843908
17300196200.0 -0.1971974023 -0.9735273607
17350195900.0 -0.2089419594 -0.9712545811
17400195600.0 -0.2211929314 -0.9687081128
17450195300.0 -0.2343257098 -0.9659443851
17500195000.0 -0.2477609056 -0.9625338752
17550194700.0 -0.2614928154 -0.9588543347
17600194400.0 -0.2755153927 -0.9547931315
17650194100.0 -0.2892402396 -0.9505124065
17700193800.0 -0.3020381739 -0.9465491749
17750193500.0 -0.3165578753 -0.942424372
17800193200.0 -0.330826016 -0.9370703178
17850192900.0 -0.3457479795 -0.9316864957
17900192600.0 -0.3611433732 -0.9254038843
17950192300.0 -0.3766313596 -0.9184838906
18000192000.0 -0.391289527 -0.911306849
18050191700.0 -0.405209573 -0.9032386141
18100191400.0 -0.4195822957 -0.8956992164
18150191100.0 -0.4344403139 -0.8875720876
18200190800.0 -0.451381874 -0.8784556221
18250190500.0 -0.4684428725 -0.8688995117
18300190200.0 -0.4839424123 -0.8599681567
18350189900.0 -0.4989773361 -0.85214534
18400189600.0 -0.5136887237 -0.8434145842
18450189300.0 -0.5264768871 -0.8357051049
18500189000.0 -0.5398989404 -0.8276459517
18550188700.0 -0.5526986385 -0.8203109444
18600188400.0 -0.5646459226 -0.8132698018
18650188100.0 -0.5755334949 -0.8069498654
18700187800.0 -0.5864748048 -0.8004490977
18750187500.0 -0.5966648955 -0.7938176285
18800187200.0 -0.6074747598 -0.7868175123
18850186900.0 -0.617522061 -0.7802070632
18900186600.0 -0.6278305657 -0.7727556392
18950186300.0 -0.6379134695 -0.7651402325
19000186000.0 -0.6449516028 -0.7590285458
19050185700.0 -0.6542418084 -0.7513965017
19100185400.0 -0.6646571427 -0.7436387468
19150185100.0 -0.6746779824 -0.7351402771
19200184800.0 -0.6838286193 -0.7273967234
19250184500.0 -0.6935842406 -0.7175584366
19300184200.0 -0.7052645533 -0.707686459
19350183900.0 -0.7160401274 -0.6984797255
19400183600.0 -0.7258223097 -0.689208675
19450183300.0 -0.734467837 -0.6787028909
19500183000.0 -0.7435821089 -0.6684013803
19550182700.0 -0.7528752652 -0.6575723873
19600182400.0 -0.7630517023 -0.6457360343
19650182100.0 -0.7743492933 -0.6332653613
19700181800.0 -0.7849227293 -0.619941731
19750181500.0 -0.7952168198 -0.6058966587
19800181200.0 -0.8057182201 -0.5908488714
19850180900.0 -0.8155881736 -0.5752864032
19900180600.0 -0.8232765814 -0.5607452157
19950180300.0 -0.8326623898 -0.544574507
20000180000.0 -0.824923128 -0.5473570191
20050179700.0 -0.8327761427 -0.5336019608
20100179400.0 -0.8420135468 -0.5211157622
20150179100.0 -0.8503589633 -0.5079234868
20200178800.0 -0.8584089821 -0.4958008238
20250178500.0 -0.867809251 -0.4825525582
20300178200.0 -0.8774841474 -0.4683332324
20350177900.0 -0.887211428 -0.4537829023
20400177600.0 -0.8957535534 -0.4392999565
20450177300.0 -0.9042924642 -0.4251997166
20500177000.0 -0.9121568651 -0.4111151506
20550176700.0 -0.9202479635 -0.3977228173
20600176400.0 -0.9267106326 -0.3845680359
20650176100.0 -0.9335691009 -0.3720136044
20700175800.0 -0.9401278712 -0.3602335056
20750175500.0 -0.9474475174 -0.3482484987
20800175200.0 -0.951114292 -0.3386019936
20850174900.0 -0.9567120722 -0.3265300675
20900174600.0 -0.9603474941 -0.3159546801
20950174300.0 -0.965000715 -0.3039929662
21000174000.0 -0.9676365708 -0.2933492556
21050173700.0 -0.9712527781 -0.282719739
21100173400.0 -0.9745137299 -0.2708741976
21150173100.0 -0.9781546027 -0.2589154098
21200172800.0 -0.9820577742 -0.2449896657
21250172500.0 -0.9852863874 -0.2313235388
21300172200.0 -0.988188588 -0.217365461
21350171900.0 -0.9898332844 -0.2029782794
21400171600.0 -0.9916742038 -0.1883917336
21450171300.0 -0.9914283821 -0.1742852951
21500171000.0 -0.9913809958 -0.1591287532
21550170700.0 -0.9920578522 -0.1437342511
21600170400.0 -0.9921699926 -0.1271250027
21650170100.0 -0.9920581866 -0.1137436273
21700169800.0 -0.9906662833 -0.096969421
21750169500.0 -0.9889910078 -0.0816013647
21800169200.0 -0.9882186945 -0.0647460673
21850168900.0 -0.9878763367 -0.0469777753
21900168600.0 -0.9865437482 -0.0311230505
21950168300.0 -0.9856637612 -0.0158276335
22000168000.0 -0.9849245125 -0.0001091921
22050167700.0 -0.9846156144 0.0137531926
22100167400.0 -0.9851575089 0.029066673
22150167100.0 -0.9859662464 0.0447188401
22200166800.0 -0.9860434951 0.0610686344
22250166500.0 -0.986063891 0.0782121049
22300166200.0 -0.9852416987 0.0944398313
22350165900.0 -0.9838643226 0.1112152967
22400165600.0 -0.9825913479 0.1265289749
22450165300.0 -0.9803885633 0.1415974627
22500165000.0 -0.9785368157 0.1551359053
22550164700.0 -0.9785907419 0.1711633374
22600164400.0 -0.9746827025 0.1871911826
22650164100.0 -0.9725648565 0.2023766431
22700163800.0 -0.9700288043 0.2183410004
22750163500.0 -0.9671670122 0.2330360867
22800163200.0 -0.9650325832 0.2464715468
22850162900.0 -0.9623017746 0.2598330363
22900162600.0 -0.9606981931 0.2728612821
22950162300.0 -0.9593831459 0.2859721
23000162000.0 -0.9581762662 0.2980915735
23050161700.0 -0.9563037266 0.3108278511
23100161400.0 -0.9536618179 0.3234192425
23150161100.0 -0.9510998094 0.3357160342
23200160800.0 -0.9477682083 0.3482742237
23250160500.0 -0.9453441453 0.3601963359
23300160200.0 -0.9429528011 0.3726633947
23350159900.0 -0.9389351775 0.3856732999
23400159600.0 -0.9338997035 0.3994744887
23450159300.0 -0.9296527875 0.4129468589
23500159000.0 -0.9247149167 0.4252177838
23550158700.0 -0.9205685236 0.4390446304
23600158400.0 -0.9148106297 0.452799457
23650158100.0 -0.9083946576 0.4666811397
23700157800.0 -0.9003940481 0.4806435527
23750157500.0 -0.8918994902 0.4947462413
23800157200.0 -0.8831480055 0.507869346
23850156900.0 -0.874332244 0.5208158373
23900156600.0 -0.8648345836 0.5326360085
23950156300.0 -0.8553296637 0.5461043533
24000156000.0 -0.8457595643 0.558552738
24050155700.0 -0.8371388317 0.5695429477
24100155400.0 -0.8260637062 0.5818772082
24150155100.0 -0.8153879718 0.5934864576
24200154800.0 -0.8046365283 0.6054617898
24250154500.0 -0.793040375 0.6161829106
24300154200.0 -0.781911368 0.6282489449
24350153900.0 -0.7703143143 0.6388394441
24400153600.0 -0.7579836175 0.6492683153
24450153300.0 -0.7462923285 0.659536832
24500153000.0 -0.7345265738 0.6691206044
24550152700.0 -0.7236558857 0.6790386768
24600152400.0 -0.7113907205 0.6882793589
24650152100.0 -0.6998816977 0.6958682156
