!Created with skrf (http://scikit-rf.org).
# Hz S RI R 50.0 
!freq ReS11 ImS11
300000.0 -0.9751207234 -0.1168026048
50299700.0 -0.9999902204 0.0154349662
100299400.0 -0.9980669478 0.0284717104
150299100.0 -1.002773063 0.045316083
200298800.0 -0.9996953604 0.0588049868
250298500.0 -0.997593604 0.0722513742
300298200.0 -0.9861552859 0.0879231464
350297900.0 -0.9941668737 0.0987991519
400297600.0 -0.9932757312 0.115529594
450297300.0 -0.9909825138 0.1294608547
500297000.0 -0.9895486499 0.143861322
550296700.0 -0.9845228884 0.1564097083
600296400.0 -1.017483861 0.1900254356
650296100.0 -0.9824144369 0.1862862218
700295800.0 -0.9793801232 0.2008669935
750295500.0 -0.976421286 0.2147000945
800295200.0 -0.9729231407 0.2290463149
850294900.0 -0.9696448824 0.2424893556
900294600.0 -0.9658114214 0.2564004444
950294300.0 -0.9620076441 0.2702742226
1000294000.0 -0.958315375 0.2841260323
1050293700.0 -0.9535885728 0.297936296
1100293400.0 -0.9492878235 0.3124310483
1150293100.0 -0.9454391788 0.3242797638
1200292800.0 -0.9400951948 0.3383552199
1250292500.0 -0.934576782 0.3518771328
1300292200.0 -0.9288518059 0.3650767916
1350291900.0 -0.9235592961 0.3792932874
1400291600.0 -0.9179721578 0.3922304564
1450291300.0 -0.9122338989 0.4048283757
1500291000.0 -0.9060844702 0.4179443331
1550290700.0 -0.899671422 0.4313068899
1600290400.0 -0.8933823255 0.4442301281
1650290100.0 -0.8865415722 0.4564998225
1700289800.0 -0.8797973701 0.4697435007
1750289500.0 -0.8727098316 0.4822151718
1800289200.0 -0.8653325304 0.4950280421
1850288900.0 -0.8584788929 0.5063763743
1900288600.0 -0.8506683429 0.519295814
1950288300.0 -0.8426376144 0.5319781021
2000288000.0 -0.8353705617 0.5434770632
2050287700.0 -0.826956389 0.5557273327
2100287400.0 -0.8190669988 0.5673483966
2150287100.0 -0.810510551 0.5794489609
2200286800.0 -0.8028467274 0.5898225397
2250286500.0 -0.7940578585 0.6017482791
2300286200.0 -0.7849933227 0.6134302957
2350285900.0 -0.7763185603 0.6243310842
2400285600.0 -0.7672506505 0.6352958568
2450285300.0 -0.7587294388 0.6457909676
2500285000.0 -0.7490996397 0.6571595809
2550284700.0 -0.7401223471 0.667410719
2600284400.0 -0.7306405478 0.6775439109
2650284100.0 -0.7218065556 0.6880673743
2700283800.0 -0.7110272235 0.6985182787
2750283500.0 -0.7004517947 0.7088371516
2800283200.0 -0.6910378995 0.718781704
2850282900.0 -0.680794273 0.7288044506
2900282600.0 -0.670609865 0.7380960862
2950282300.0 -0.6602786722 0.7475672347
3000282000.0 -0.6495478131 0.7570071513
3050281700.0 -0.6382452073 0.76615789
3100281400.0 -0.6262760152 0.775636321
3150281100.0 -0.6146665944 0.7851065363
3200280800.0 -0.6029573991 0.7936085139
3250280500.0 -0.5921440571 0.8011518803
3300280200.0 -0.5808901796 0.8091029934
3350279900.0 -0.569305018 0.816538068
3400279600.0 -0.5571748311 0.8243207025
3450279300.0 -0.5461043251 0.8313914151
3500279000.0 -0.5342256199 0.8384816022
3550278700.0 -0.5218132211 0.8459696409
3600278400.0 -0.5092316978 0.8528407315
3650278100.0 -0.4962255315 0.8604767104
3700277800.0 -0.4841396159 0.8671274469
3750277500.0 -0.4719979718 0.8735316547
3800277200.0 -0.4594593369 0.8799651678
3850276900.0 -0.4474565213 0.8859207691
3900276600.0 -0.4365614412 0.8914351685
3950276300.0 -0.4241466292 0.8978494529
4000276000.0 -0.4120465554 0.9037868518
4050275700.0 -0.3993101357 0.9097787384
4100275400.0 -0.3879623356 0.9152019631
4150275100.0 -0.3753527968 0.9208423058
4200274800.0 -0.362363601 0.9265090598
4250274500.0 -0.3502684532 0.9315745446
4300274200.0 -0.3371613657 0.9368371892
4350273900.0 -0.3232496752 0.9420070854
4400273600.0 -0.3085172814 0.9472178084
4450273300.0 -0.2930859662 0.9522403331
4500273000.0 -0.2794703014 0.9568389975
4550272700.0 -0.2653382801 0.9609916956
4600272400.0 -0.2497268633 0.9652678459
4650272100.0 -0.2380599031 0.9685997517
4700271800.0 -0.2247771582 0.9716916063
4750271500.0 -0.2130632647 0.9746389562
4800271200.0 -0.2005559465 0.9773023206
4850270900.0 -0.1865752784 0.9802376998
4900270600.0 -0.1726909099 0.9825103242
4950270300.0 -0.15827429 0.9853296449
5000270000.0 -0.1441237429 0.987208467
5050269700.0 -0.1307078223 0.9888835166
5100269400.0 -0.117305864 0.9904246983
5150269100.0 -0.1038810703 0.9923493827
5200268800.0 -0.0907451316 0.9929236567
5250268500.0 -0.0777083857 0.9942185991
5300268200.0 -0.0644042542 0.9948535905
5350267900.0 -0.0521190052 0.9954784423
5400267600.0 -0.0360254993 0.9963186566
5450267300.0 -0.0227838762 0.9966011141
5500267000.0 -0.0077467036 0.9970412152
5550266700.0 0.0072869317 0.997354653
5600266400.0 0.0228141358 0.9974013628
5650266100.0 0.0395262195 0.9971221808
5700265800.0 0.0538089584 0.9960464758
5750265500.0 0.0689727424 0.9954680217
5800265200.0 0.0829391652 0.9945189963
5850264900.0 0.0963270674 0.9934262278
5900264600.0 0.1127736508 0.9917903849
5950264300.0 0.1248539009 0.9898869618
6000264000.0 0.1392117374 0.9885283199
6050263700.0 0.1515198097 0.9868193224
6100263400.0 0.1641766184 0.9851540164
6150263100.0 0.1783132402 0.9823790327
6200262800.0 0.1888680623 0.9807449559
6250262500.0 0.2015358659 0.9781861729
6300262200.0 0.2142997231 0.9756568366
6350261900.0 0.2274353338 0.9727026755
6400261600.0 0.2412820082 0.9693801706
6450261300.0 0.252726272 0.9666593504
6500261000.0 0.2652271894 0.9630391808
6550260700.0 0.2784308828 0.9590307432
6600260400.0 0.2920542561 0.9552394753
6650260100.0 0.3057262713 0.9508102597
6700259800.0 0.3173106174 0.946613097
6750259500.0 0.331509367 0.9414451524
6800259200.0 0.3444602019 0.9365354274
6850258900.0 0.3563738457 0.9313855652
6900258600.0 0.3685960431 0.9263677725
6950258300.0 0.3812469675 0.9210803652
7000258000.0 0.3930610141 0.9156330701
7050257700.0 0.4054500885 0.9097492756
7100257400.0 0.4179960679 0.9034964061
7150257100.0 0.4282301606 0.8982193859
7200256800.0 0.4412197528 0.8917363211
7250256500.0 0.45322943 0.8854171786
7300256200.0 0.4661099634 0.8785837968
7350255900.0 0.4789407049 0.8716731539
7400255600.0 0.4920139139 0.8643044144
7450255300.0 0.5072841937 0.8553746229
7500255000.0 0.5188740891 0.8482822096
7550254700.0 0.5328665826 0.8397021362
7600254400.0 0.5449048988 0.831423035
7650254100.0 0.5570172412 0.8237735362
7700253800.0 0.5683514718 0.8156295776
7750253500.0 0.580115655 0.8079044514
7800253200.0 0.5905121497 0.8002555058
7850252900.0 0.6005284791 0.7932502945
7900252600.0 0.6119169427 0.7845098726
7950252300.0 0.6208307735 0.7779357022
8000252000.0 0.6308087524 0.7703601096
8050251700.0 0.6413142523 0.7620630304
8100251400.0 0.6514822347 0.7539762962
8150251100.0 0.6617823123 0.7452137337
8200250800.0 0.6709240705 0.737335826
8250250500.0 0.6800496124 0.7294958307
8300250200.0 0.6893397096 0.7208247326
8350249900.0 0.6983109757 0.7122181093
8400249600.0 0.706447048 0.7042336308
8450249300.0 0.7160069145 0.6949179411
8500249000.0 0.7244024201 0.6860096071
8550248700.0 0.7325892469 0.6769096367
8600248400.0 0.7409350636 0.6674235066
8650248100.0 0.748752009 0.6580767488
8700247800.0 0.7583900152 0.6469032568
8750247500.0 0.7666674529 0.6366949606
8800247200.0 0.7748599133 0.6263672713
8850246900.0 0.7835625273 0.6149227337
8900246600.0 0.7919037371 0.6034579103
8950246300.0 0.8017883858 0.5904474751
9000246000.0 0.8109685882 0.5775506399
9050245700.0 0.8201051886 0.5646987253
9100245400.0 0.828702446 0.5519317577
9150245100.0 0.8379897173 0.5384217702
9200244800.0 0.8477107901 0.523125791
9250244500.0 0.857116971 0.5073704658
9300244200.0 0.8658329353 0.4927828406
9350243900.0 0.8736464387 0.4788839278
9400243600.0 0.8803055762 0.4666218754
9450243300.0 0.8861158306 0.4548993178
9500243000.0 0.8923698671 0.442678026
9550242700.0 0.8962283894 0.4350045489
9600242400.0 0.9000064789 0.4277742744
9650242100.0 0.9038955738 0.4212468935
9700241800.0 0.9083706923 0.4129161309
9750241500.0 0.9120622803 0.4056130838
9800241200.0 0.9166930301 0.3964810878
9850240900.0 0.9225134816 0.3848121947
9900240600.0 0.9284508568 0.3729485681
9950240300.0 0.934443054 0.3573470499
10000240000.0 0.9393342603 0.3454850701
10050239700.0 0.944562429 0.3305575602
10100239400.0 0.9495278751 0.3149390555
10150239100.0 0.9540786502 0.3003418297
10200238800.0 0.9580962941 0.2852027745
10250238500.0 0.9617233088 0.2719247918
10300238200.0 0.9647961691 0.2579313343
10350237900.0 0.9673110183 0.2449812546
10400237600.0 0.9697533235 0.2319167161
10450237300.0 0.9725076181 0.2183526764
10500237000.0 0.9747351829 0.2058697651
10550236700.0 0.9767883477 0.1923163659
10600236400.0 0.9791838873 0.1779694083
10650236100.0 0.9811411199 0.1639194598
10700235800.0 0.983629832 0.151301156
10750235500.0 0.9859466913 0.1378653008
10800235200.0 0.9877812839 0.1241982278
10850234900.0 0.9897336081 0.1095981657
10900234600.0 0.991857606 0.0947335753
10950234300.0 0.9933645584 0.0818533564
11000234000.0 0.9951494637 0.0665354428
11050233700.0 0.9971160013 0.0500684099
11100233400.0 0.998546801 0.0324882183
11150233100.0 0.9991487897 0.0168512634
11200232800.0 1.000277368 0.0013280002
11250232500.0 1.001361687 -0.0149006799
11300232200.0 1.002125182 -0.0328880651
11350231900.0 1.002220995 -0.048737181
11400231600.0 1.001692044 -0.0641730903
11450231300.0 1.000785995 -0.0799516763
11500231000.0 0.9997862365 -0.0966715648
11550230700.0 0.9979517428 -0.1091446859
11600230400.0 0.9969774151 -0.1218047089
11650230100.0 0.995267467 -0.1335568883
11700229800.0 0.9926224466 -0.1475997821
11750229500.0 0.9908251981 -0.1628437411
11800229200.0 0.988115339 -0.1764784251
11850228900.0 0.9844987208 -0.1886491745
11900228600.0 0.981093994 -0.1984713691
11950228300.0 0.9777291559 -0.2087365684
12000228000.0 0.975328736 -0.2176633999
12050227700.0 0.9714998711 -0.2305129188
12100227400.0 0.9678676105 -0.2419460372
12150227100.0 0.9632667107 -0.2585813781
12200226800.0 0.9599827054 -0.2690223414
12250226500.0 0.9552977732 -0.2822069695
12300226200.0 0.9516055262 -0.2940751225
12350225900.0 0.946625756 -0.3076315214
12400225600.0 0.9424241823 -0.3210413913
12450225300.0 0.9376890231 -0.333928018
12500225000.0 0.9320396864 -0.3485922172
12550224700.0 0.9270515204 -0.3625021042
12600224400.0 0.9219662971 -0.3752045244
12650224100.0 0.9162187079 -0.3896176959
12700223800.0 0.9110118921 -0.4024415343
12750223500.0 0.9055366153 -0.4154490184
12800223200.0 0.9001302174 -0.428175989
12850222900.0 0.8948557878 -0.4403671788
12900222600.0 0.8890496588 -0.4524505691
12950222300.0 0.8826990324 -0.4651669899
13000222000.0 0.8767690752 -0.4766243456
13050221700.0 0.8699709251 -0.4890643632
13100221400.0 0.863444596 -0.5015607259
13150221100.0 0.8566049375 -0.5133620682
13200220800.0 0.8496432156 -0.5249667872
13250220500.0 0.8424581299 -0.5367101767
13300220200.0 0.8350806304 -0.5480028538
13350219900.0 0.827116628 -0.5599940407
13400219600.0 0.8182429263 -0.5722218669
13450219300.0 0.808806073 -0.5856796892
13500219000.0 0.7989676898 -0.599382515
13550218700.0 0.7887191311 -0.6123080821
13600218400.0 0.7786978081 -0.6249237251
13650218100.0 0.7693703082 -0.6359776546
13700217800.0 0.7581653317 -0.6482682796
13750217500.0 0.7479519172 -0.6593866959
13800217200.0 0.7360911268 -0.670851058
13850216900.0 0.7252303106 -0.6824234469
13900216600.0 0.7157431043 -0.6917075102
13950216300.0 0.7046838457 -0.7012812545
14000216000.0 0.6944289036 -0.7111895676
14050215700.0 0.6852561675 -0.7191212467
14100215400.0 0.6752269884 -0.7289143094
14150215100.0 0.6660659586 -0.7372347783
14200214800.0 0.6565907672 -0.745486228
14250214500.0 0.6463846065 -0.7549912473
14300214200.0 0.6360419384 -0.7644300629
14350213900.0 0.6249597243 -0.7740037307
14400213600.0 0.6127246345 -0.7836954892
14450213300.0 0.5999273343 -0.7935145886
14500213000.0 0.5869932669 -0.8035754986
14550212700.0 0.5744676716 -0.8129953161
14600212400.0 0.5622942061 -0.8216864179
14650212100.0 0.5490508334 -0.830431055
14700211800.0 0.5350191275 -0.8404555123
14750211500.0 0.5227967696 -0.8483809071
14800211200.0 0.5109401144 -0.8560882013
14850210900.0 0.4986704206 -0.8636858531
14900210600.0 0.4855259467 -0.871658142
14950210300.0 0.4720302243 -0.8793222289
15000210000.0 0.4591042106 -0.8861813245
15050209700.0 0.4467647572 -0.892337653
15100209400.0 0.4343319096 -0.8977951892
15150209100.0 0.4218178655 -0.9034930611
15200208800.0 0.4084358257 -0.9093524137
15250208500.0 0.3984074412 -0.9137647158
15300208200.0 0.3858879249 -0.918241526
15350207900.0 0.3723075804 -0.9229441481
15400207600.0 0.3583203349 -0.9283171016
15450207300.0 0.3428576387 -0.9328727011
15500207000.0 0.3284074719 -0.9381180564
15550206700.0 0.3136136503 -0.9429979848
15600206400.0 0.2970528667 -0.947529315
15650206100.0 0.2820009099 -0.9519686787
15700205800.0 0.2680168592 -0.9553910317
15750205500.0 0.2532334307 -0.9589040849
15800205200.0 0.238625485 -0.9623180019
15850204900.0 0.2242334571 -0.9658468323
15900204600.0 0.2091549597 -0.9693804913
15950204300.0 0.1952781435 -0.9723389202
16000204000.0 0.1812825079 -0.9751330551
16050203700.0 0.166252843 -0.9782841179
16100203400.0 0.1518915926 -0.9801866219
16150203100.0 0.1373554596 -0.9820844603
16200202800.0 0.1236060319 -0.9847252916
16250202500.0 0.1087071892 -0.9862888619
16300202200.0 0.0928671566 -0.9878084269
16350201900.0 0.0783008967 -0.9890606177
16400201600.0 0.0636844897 -0.9899448944
16450201300.0 0.0485149262 -0.9911834859
16500201000.0 0.0320079803 -0.9920999832
16550200700.0 0.0162456989 -0.9927537522
16600200400.0 0.0006023635 -0.9926379633
16650200100.0 -0.0155645267 -0.9927481437
16700199800.0 -0.0320611515 -0.9920502942
16750199500.0 -0.050748295 -0.9913944674
16800199200.0 -0.0662720768 -0.9906580509
16850198900.0 -0.0816703304 -0.9896726319
16900198600.0 -0.0953026694 -0.9884163277
16950198300.0 -0.108931753 -0.986679967
17000198000.0 -0.1217850082 -0.9858807854
17050197700.0 -0.1345462409 -0.9843028815
17100197400.0 -0.1472997798 -0.9822906092
17150197100.0 -0.159884116 -0.9800461802
17200196800.0 -0.1724258426 -0.9776724194
17250196500.0 -0.1856541542 -0.9758752987
17300196200.0 -0.1977856409 -0.9733601454
17350195900.0 -0.2095401286 -0.9711728131
17400195600.0 -0.2217888601 -0.9685252802
17450195300.0 -0.2350015336 -0.9658433655
17500195000.0 -0.2483760597 -0.962322261
17550194700.0 -0.2625427673 -0.9590183525
17600194400.0 -0.2762078652 -0.9550292246
17650194100.0 -0.2900612458 -0.9506146479
17700193800.0 -0.3027006277 -0.9466999884
17750193500.0 -0.3171711288 -0.9418814658
17800193200.0 -0.331725001 -0.9367276451
17850192900.0 -0.346972251 -0.9314494894
17900192600.0 -0.361930669 -0.9253617889
17950192300.0 -0.3772881706 -0.9180319196
18000192000.0 -0.3922999489 -0.9107678786
18050191700.0 -0.4061698249 -0.9028120475
18100191400.0 -0.4202927705 -0.8952382559
18150191100.0 -0.435308779 -0.8872129229
18200190800.0 -0.4522865531 -0.87800026
18250190500.0 -0.4691355908 -0.8682420518
18300190200.0 -0.4846145133 -0.8597711025
18350189900.0 -0.5000243995 -0.8516025417
18400189600.0 -0.5139241849 -0.8431508188
18450189300.0 -0.5270430755 -0.8350934806
18500189000.0 -0.5407965546 -0.8271374618
18550188700.0 -0.5536802839 -0.8196893258
18600188400.0 -0.5649339061 -0.8131053971
18650188100.0 -0.5760986841 -0.8061382846
18700187800.0 -0.5867192644 -0.7998534844
18750187500.0 -0.59752031 -0.7931742786
18800187200.0 -0.6078762356 -0.7863648698
18850186900.0 -0.6179658274 -0.7793920585
18900186600.0 -0.6284139018 -0.7720952746
18950186300.0 -0.6383944508 -0.7642905535
19000186000.0 -0.6455983171 -0.7583059137
19050185700.0 -0.654802687 -0.7511802158
19100185400.0 -0.6648956225 -0.7427139438
19150185100.0 -0.6742900218 -0.734287384
19200184800.0 -0.6842556845 -0.7252028504
19250184500.0 -0.6943171452 -0.7161916677
19300184200.0 -0.7061792401 -0.7073547746
19350183900.0 -0.7167162983 -0.6974747337
19400183600.0 -0.7265918655 -0.6873663152
19450183300.0 -0.7351508041 -0.6776208394
19500183000.0 -0.7440546825 -0.6674903336
19550182700.0 -0.7533154191 -0.6566532518
19600182400.0 -0.7638128939 -0.6447707869
19650182100.0 -0.7746373558 -0.6326079732
19700181800.0 -0.7856518732 -0.6189632402
19750181500.0 -0.7959750247 -0.6051424621
19800181200.0 -0.8063707106 -0.5900431297
19850180900.0 -0.8160679537 -0.5747673649
19900180600.0 -0.8239870088 -0.5600384334
19950180300.0 -0.8331776983 -0.5435773381
20000180000.0 -0.8260327321 -0.545708714
20050179700.0 -0.834429515 -0.5333644035
20100179400.0 -0.842775699 -0.518852822
20150179100.0 -0.8517261497 -0.5069663748
20200178800.0 -0.860257079 -0.4943391837
20250178500.0 -0.8690437019 -0.4811707902
20300178200.0 -0.8788653032 -0.4654758691
20350177900.0 -0.8883229501 -0.4510871529
20400177600.0 -0.8971837134 -0.4367409492
20450177300.0 -0.9051711553 -0.4224003333
20500177000.0 -0.9135729674 -0.4082500935
20550176700.0 -0.9213689492 -0.3946616577
20600176400.0 -0.9283758968 -0.3814944429
20650176100.0 -0.9348135834 -0.3695321634
20700175800.0 -0.9412976433 -0.3572850308
20750175500.0 -0.9483953912 -0.3456196394
20800175200.0 -0.9524160595 -0.3340522117
20850174900.0 -0.9576360715 -0.3235963241
20900174600.0 -0.9632871303 -0.3123992325
20950174300.0 -0.9661010438 -0.300653768
21000174000.0 -0.9700790101 -0.290167785
21050173700.0 -0.973147615 -0.2785249423
21100173400.0 -0.9769159328 -0.2665793822
21150173100.0 -0.9808119859 -0.2538180887
21200172800.0 -0.9835656882 -0.2408722775
21250172500.0 -0.9874422395 -0.2269139109
21300172200.0 -0.9902399051 -0.2126549745
21350171900.0 -0.9920529677 -0.1981428389
21400171600.0 -0.9931563601 -0.1834892667
21450171300.0 -0.9931704982 -0.1691228508
21500171000.0 -0.992875446 -0.1539006304
21550170700.0 -0.9925771495 -0.1385730894
21600170400.0 -0.9926069482 -0.1225007772
21650170100.0 -0.9916204226 -0.1082392735
21700169800.0 -0.9902884142 -0.0920380443
21750169500.0 -0.9887625565 -0.0748094508
21800169200.0 -0.9892866237 -0.0596571585
21850168900.0 -0.986064203 -0.0426708356
21900168600.0 -0.9851468603 -0.0267905129
21950168300.0 -0.9842230344 -0.011051328
22000168000.0 -0.9832553039 0.0043641119
22050167700.0 -0.9830863993 0.0184065469
22100167400.0 -0.9830072717 0.0337657222
22150167100.0 -0.9837720769 0.04924444
22200166800.0 -0.9837743788 0.0657869667
22250166500.0 -0.9835946359 0.0823212137
22300166200.0 -0.9827372403 0.0983394189
22350165900.0 -0.9813212885 0.1155491646
22400165600.0 -0.9803719851 0.1317698626
22450165300.0 -0.9781490205 0.1470369506
22500165000.0 -0.9772047681 0.1599878532
22550164700.0 -0.9753132024 0.1750740181
22600164400.0 -0.973252777 0.1911513142
22650164100.0 -0.9711189534 0.205838408
22700163800.0 -0.9681049843 0.2209712279
22750163500.0 -0.966275005 0.2364495556
22800163200.0 -0.962750807 0.2502413982
22850162900.0 -0.9609175161 0.2634182783
22900162600.0 -0.959124008 0.2768772295
22950162300.0 -0.9581459551 0.2896586169
23000162000.0 -0.9573042674 0.3011374767
23050161700.0 -0.9554429643 0.3141797168
23100161400.0 -0.9531886574 0.3258661248
23150161100.0 -0.949570363 0.338612377
23200160800.0 -0.9468473343 0.3514140659
23250160500.0 -0.9448234517 0.3632840497
23300160200.0 -0.9420011433 0.3746616802
23350159900.0 -0.9383896534 0.3881946589
23400159600.0 -0.9334681873 0.401319962
23450159300.0 -0.9285640194 0.41429321
23500159000.0 -0.9240520678 0.4272773113
23550158700.0 -0.9196519166 0.4403877985
23600158400.0 -0.9141693324 0.4536906274
23650158100.0 -0.9081004627 0.4680005203
23700157800.0 -0.9005942854 0.4817153168
23750157500.0 -0.8919968373 0.4955529541
23800157200.0 -0.8835007228 0.5092743739
23850156900.0 -0.8747396568 0.5217961751
23900156600.0 -0.8654544611 0.5346745016
23950156300.0 -0.8562785479 0.5463076728
24000156000.0 -0.8474953618 0.5588885022
24050155700.0 -0.8367013929 0.5698977311
24100155400.0 -0.8268732469 0.5821759165
24150155100.0 -0.8160384849 0.5944670531
24200154800.0 -0.8057088058 0.605040447
24250154500.0 -0.7947723955 0.6167740255
24300154200.0 -0.7827650622 0.6283491424
24350153900.0 -0.7709124718 0.6390207446
24400153600.0 -0.7586535067 0.6488317389
24450153300.0 -0.7467467316 0.6587059214
24500153000.0 -0.7352643338 0.6682389104
24550152700.0 -0.7238818868 0.6788408439
24600152400.0 -0.7117553687 0.6872982532
24650152100.0 -0.700680042 0.6962203357
