!Created with skrf (http://scikit-rf.org).
# Hz S RI R 50.0 
!freq ReS11 ImS11
300000.0 -0.9738194801 -0.1208335187
50299700.0 -1.000077495 0.0150876039
100299400.0 -0.997857533 0.0280071152
150299100.0 -1.002709036 0.0448892077
200298800.0 -0.9996579353 0.0582698912
250298500.0 -0.9974755911 0.0717832319
300298200.0 -0.9858605555 0.0874549297
350297900.0 -0.9939882715 0.0985862799
400297600.0 -0.9931478122 0.1150650964
450297300.0 -0.9908555465 0.1286403249
500297000.0 -0.9893503688 0.1435482089
550296700.0 -0.9842100976 0.1556693216
600296400.0 -1.017197204 0.1892781792
650296100.0 -0.9823381002 0.1857737049
700295800.0 -0.979336036 0.2000200958
750295500.0 -0.9761497463 0.2138508018
800295200.0 -0.9731424298 0.228046529
850294900.0 -0.9695901195 0.2418725552
900294600.0 -0.9656600596 0.2557703991
950294300.0 -0.9621337626 0.2692302284
1000294000.0 -0.958128784 0.2833501106
1050293700.0 -0.9535960767 0.2971027694
1100293400.0 -0.9492131849 0.3116440482
1150293100.0 -0.9454120708 0.3234555882
1200292800.0 -0.9402132317 0.3378478269
1250292500.0 -0.9347029174 0.3513400606
1300292200.0 -0.9289520973 0.3644481336
1350291900.0 -0.9235220769 0.3784803347
1400291600.0 -0.9179860641 0.3915183907
1450291300.0 -0.9125836869 0.4040133608
1500291000.0 -0.9062199116 0.4174242512
1550290700.0 -0.8996360314 0.4307285725
1600290400.0 -0.8934447755 0.4437057826
1650290100.0 -0.8867841873 0.4558898468
1700289800.0 -0.8798799198 0.4691199648
1750289500.0 -0.8728978689 0.4814653944
1800289200.0 -0.8654112669 0.4945516995
1850288900.0 -0.8587160408 0.5058428436
1900288600.0 -0.8509579328 0.5186132749
1950288300.0 -0.8430459021 0.5312877376
2000288000.0 -0.8354274277 0.5428086181
2050287700.0 -0.8271413209 0.5552474241
2100287400.0 -0.8193950176 0.5668572925
2150287100.0 -0.8107392355 0.578937474
2200286800.0 -0.8028544324 0.5892745213
2250286500.0 -0.7940261044 0.6014212938
2300286200.0 -0.785004251 0.6127107305
2350285900.0 -0.7767522748 0.623635849
2400285600.0 -0.767909674 0.6345025929
2450285300.0 -0.7590821828 0.6451444578
2500285000.0 -0.7490929979 0.6567908655
2550284700.0 -0.7400902281 0.6668535081
2600284400.0 -0.7309971 0.6770531309
2650284100.0 -0.7221743852 0.6872401072
2700283800.0 -0.711888654 0.6977309207
2750283500.0 -0.701398447 0.7085901609
2800283200.0 -0.6916587205 0.7182732697
2850282900.0 -0.6811494392 0.7281028603
2900282600.0 -0.6708461083 0.7378389431
2950282300.0 -0.6603686556 0.74727856
3000282000.0 -0.6494860289 0.7567682202
3050281700.0 -0.6384459242 0.7658741931
3100281400.0 -0.6267479474 0.7751116721
3150281100.0 -0.6153440296 0.7840594372
3200280800.0 -0.6039528275 0.7924860607
3250280500.0 -0.5928754625 0.8002910867
3300280200.0 -0.581426178 0.8085250572
3350279900.0 -0.5694136359 0.8164642167
3400279600.0 -0.5567740978 0.8244685124
3450279300.0 -0.545602832 0.8315735215
3500279000.0 -0.5338505004 0.8384003937
3550278700.0 -0.5216471006 0.8456136917
3600278400.0 -0.5098370517 0.852433272
3650278100.0 -0.4967346486 0.8599907946
3700277800.0 -0.4845369527 0.8665040229
3750277500.0 -0.4720390276 0.8731028825
3800277200.0 -0.4597387741 0.8796016613
3850276900.0 -0.4476754916 0.8856561346
3900276600.0 -0.4368990389 0.8912089032
3950276300.0 -0.424768291 0.8969771731
4000276000.0 -0.4130283111 0.903144089
4050275700.0 -0.4001439505 0.9092230986
4100275400.0 -0.389188253 0.9148777878
4150275100.0 -0.3758659047 0.9203972851
4200274800.0 -0.3626085256 0.9261771452
4250274500.0 -0.3499966839 0.9315677614
4300274200.0 -0.3367093876 0.9367007608
4350273900.0 -0.3227450219 0.9421934141
4400273600.0 -0.3081863486 0.947222291
4450273300.0 -0.2928437906 0.9522144999
4500273000.0 -0.2798485247 0.9565905745
4550272700.0 -0.2659657261 0.9606366129
4600272400.0 -0.2509685884 0.9649782393
4650272100.0 -0.2395413577 0.9680267954
4700271800.0 -0.2264532077 0.9712469316
4750271500.0 -0.2148152643 0.9740595531
4800271200.0 -0.2026207879 0.9767821297
4850270900.0 -0.1888014107 0.9796676738
4900270600.0 -0.1748914151 0.982016609
4950270300.0 -0.160452659 0.9847208506
5000270000.0 -0.145971189 0.9866679155
5050269700.0 -0.1326715674 0.9882098046
5100269400.0 -0.1182917126 0.9898474273
5150269100.0 -0.1047352448 0.9916629055
5200268800.0 -0.0911994019 0.9927807826
5250268500.0 -0.0780018374 0.9938827411
5300268200.0 -0.0646097834 0.9946185802
5350267900.0 -0.0516214468 0.9953831182
5400267600.0 -0.035653618 0.9965608303
5450267300.0 -0.0222881493 0.9967225476
5500267000.0 -0.0068637341 0.9968991527
5550266700.0 0.0078146334 0.9975512237
5600266400.0 0.0237493809 0.9973208429
5650266100.0 0.0402335035 0.9968223833
5700265800.0 0.0544015833 0.9961764972
5750265500.0 0.0692982961 0.9950054779
5800265200.0 0.0833068229 0.9944555181
5850264900.0 0.0964363017 0.9933081063
5900264600.0 0.1129438406 0.9916160229
5950264300.0 0.1245222686 0.989973711
6000264000.0 0.1380474805 0.9879374623
6050263700.0 0.1501958789 0.986594125
6100263400.0 0.162220085 0.9849790428
6150263100.0 0.1765356083 0.9825273324
6200262800.0 0.1865944503 0.9811922363
6250262500.0 0.1991569081 0.9787263217
6300262200.0 0.2114262936 0.9761619857
6350261900.0 0.2244225518 0.9732105629
6400261600.0 0.2382953198 0.9699853952
6450261300.0 0.2493319818 0.9675148195
6500261000.0 0.2626308975 0.9637282359
6550260700.0 0.2753650475 0.959972161
6600260400.0 0.2890826612 0.9559243743
6650260100.0 0.3033040224 0.9514001306
6700259800.0 0.315179401 0.9472076905
6750259500.0 0.3293945338 0.942399935
6800259200.0 0.3427087196 0.9371470813
6850258900.0 0.3549714231 0.9318593599
6900258600.0 0.3672818293 0.9267674418
6950258300.0 0.3797421293 0.9212836132
7000258000.0 0.3916138555 0.9161565758
7050257700.0 0.4037033363 0.9101467092
7100257400.0 0.4168679076 0.9037563964
7150257100.0 0.4273323837 0.8984936252
7200256800.0 0.4409523082 0.8920980458
7250256500.0 0.4530200923 0.8854360502
7300256200.0 0.4660098858 0.878837666
7350255900.0 0.4789040289 0.8721593519
7400255600.0 0.4923936558 0.8641152704
7450255300.0 0.5085497625 0.8550597391
7500255000.0 0.5204180535 0.8474590183
7550254700.0 0.5349774627 0.838908432
7600254400.0 0.547580927 0.8304596817
7650254100.0 0.5587178323 0.8222850858
7700253800.0 0.5702871831 0.8143807495
7750253500.0 0.5814434493 0.8068299801
7800253200.0 0.5922189213 0.7989009613
7850252900.0 0.6018123367 0.7916895423
7900252600.0 0.6133213276 0.7831148265
7950252300.0 0.6219205953 0.7766119867
8000252000.0 0.6317034226 0.769063857
8050251700.0 0.6423587271 0.7608449459
8100251400.0 0.6521079693 0.7529964186
8150251100.0 0.6620921607 0.7444359255
8200250800.0 0.6717464313 0.7362524436
8250250500.0 0.6804345061 0.7284213541
8300250200.0 0.6897919223 0.7198270301
8350249900.0 0.6987195302 0.7109649292
8400249600.0 0.7070711772 0.7031615572
8450249300.0 0.715707272 0.6941869745
8500249000.0 0.7244188854 0.6854800431
8550248700.0 0.7326406807 0.6763884992
8600248400.0 0.7408853742 0.6668958176
8650248100.0 0.7486852253 0.6576480882
8700247800.0 0.7582217725 0.6465265283
8750247500.0 0.7661339643 0.6365100025
8800247200.0 0.7741921843 0.626075595
8850246900.0 0.7832992366 0.6145951071
8900246600.0 0.791495083 0.6033507522
8950246300.0 0.8008140828 0.5905918259
9000246000.0 0.809631835 0.5784396515
9050245700.0 0.8177221349 0.5660562676
9100245400.0 0.8265536407 0.5534983095
9150245100.0 0.8350194194 0.5407167386
9200244800.0 0.8448064167 0.5262738094
9250244500.0 0.8541088919 0.5114838037
9300244200.0 0.8620906776 0.4978901397
9350243900.0 0.8698048724 0.4843790084
9400243600.0 0.8763193715 0.4725020943
9450243300.0 0.882112163 0.4618279459
9500243000.0 0.8883398061 0.4500691325
9550242700.0 0.8922572828 0.4421953358
9600242400.0 0.8965595786 0.4348533947
9650242100.0 0.9004219526 0.4280398556
9700241800.0 0.9054471777 0.4195096102
9750241500.0 0.9095881872 0.4119706813
9800241200.0 0.9144167887 0.4026511712
9850240900.0 0.9204319485 0.3906423331
9900240600.0 0.9263168639 0.3788922054
9950240300.0 0.9332285899 0.3625104751
10000240000.0 0.9381641174 0.3501655057
10050239700.0 0.9438883936 0.3345111331
10100239400.0 0.9496037317 0.3182463144
10150239100.0 0.9539338331 0.3027771047
10200238800.0 0.9579540185 0.2873355665
10250238500.0 0.9614946671 0.2738732522
10300238200.0 0.9646168774 0.2600943302
10350237900.0 0.9676160062 0.2466264851
10400237600.0 0.9697967499 0.2335440375
10450237300.0 0.9727282356 0.2197666707
10500237000.0 0.9747502308 0.2074957376
10550236700.0 0.9771735135 0.1929751548
10600236400.0 0.9796762815 0.1788309812
10650236100.0 0.9814217396 0.1649461613
10700235800.0 0.9839705182 0.1519364498
10750235500.0 0.9858662247 0.139049128
10800235200.0 0.9881022346 0.1244100676
10850234900.0 0.9896493951 0.109490234
10900234600.0 0.9920313481 0.0947055435
10950234300.0 0.9938031615 0.0812291639
11000234000.0 0.9954387027 0.0658511533
11050233700.0 0.9973810144 0.0493004103
11100233400.0 0.9987424183 0.0317272276
11150233100.0 0.9995996648 0.0148689418
11200232800.0 1.000697394 -0.0011690539
11250232500.0 1.001718227 -0.018258042
11300232200.0 1.0018413 -0.0370508426
11350231900.0 1.001796682 -0.0528270618
11400231600.0 1.001390089 -0.0692775563
11450231300.0 1.000960625 -0.0843995332
11500231000.0 0.9997161146 -0.1015874513
11550230700.0 0.997906566 -0.1137114523
11600230400.0 0.9973044385 -0.1265388492
11650230100.0 0.9948540674 -0.1387434505
11700229800.0 0.9926322857 -0.1537114613
11750229500.0 0.9900598791 -0.1669032006
11800229200.0 0.9874999747 -0.1804989425
11850228900.0 0.9837708488 -0.1928056439
11900228600.0 0.9801992244 -0.202137911
11950228300.0 0.9767569239 -0.2120292297
12000228000.0 0.9740487805 -0.2212337127
12050227700.0 0.9701877517 -0.2338352054
12100227400.0 0.9667676912 -0.2451299125
12150227100.0 0.9624062183 -0.261219189
12200226800.0 0.9583801092 -0.2721941851
12250226500.0 0.9542595889 -0.2849730698
12300226200.0 0.949560603 -0.2976355577
12350225900.0 0.9445874284 -0.3114266254
12400225600.0 0.9406094254 -0.3244866946
12450225300.0 0.9362131354 -0.336188321
12500225000.0 0.9306469882 -0.3512700465
12550224700.0 0.9251410145 -0.3651859041
12600224400.0 0.9203614689 -0.3776367326
12650224100.0 0.9144627157 -0.3920740458
12700223800.0 0.9092029319 -0.4048118518
12750223500.0 0.9034837103 -0.4180795541
12800223200.0 0.8981894682 -0.4306061037
12850222900.0 0.8931644766 -0.4424794521
12900222600.0 0.8873617772 -0.4547914096
12950222300.0 0.8810874174 -0.4674146257
13000222000.0 0.8750669043 -0.4787961673
13050221700.0 0.8689852873 -0.4915136731
13100221400.0 0.8615945947 -0.5042316702
13150221100.0 0.854936812 -0.5163536887
13200220800.0 0.8479491056 -0.5277829027
13250220500.0 0.8407418114 -0.5398370545
13300220200.0 0.8331028077 -0.550786648
13350219900.0 0.8249332193 -0.5625914222
13400219600.0 0.8165570785 -0.5745070353
13450219300.0 0.8074593361 -0.5875879144
13500219000.0 0.797512999 -0.6009835506
13550218700.0 0.787896562 -0.6133202121
13600218400.0 0.777961661 -0.625205497
13650218100.0 0.7683326196 -0.6358296745
13700217800.0 0.7570021023 -0.6484546331
13750217500.0 0.7478724375 -0.6592289119
13800217200.0 0.7361624288 -0.6702534261
13850216900.0 0.7261650624 -0.6815404576
13900216600.0 0.7157410067 -0.6899039228
13950216300.0 0.705253983 -0.7007629509
14000216000.0 0.6954059041 -0.7096295199
14050215700.0 0.686259976 -0.7176236042
14100215400.0 0.6764979102 -0.7267312889
14150215100.0 0.6674155546 -0.7352806416
14200214800.0 0.657942776 -0.744246012
14250214500.0 0.6474999313 -0.7536496716
14300214200.0 0.6370680012 -0.7629880865
14350213900.0 0.6259607268 -0.7727085393
14400213600.0 0.6144205813 -0.7825144084
14450213300.0 0.6010942248 -0.7927935701
14500213000.0 0.588193198 -0.8026700508
14550212700.0 0.5755525428 -0.8120500247
14600212400.0 0.563327597 -0.8205938869
14650212100.0 0.5504365536 -0.829448104
14700211800.0 0.5369499713 -0.8390864182
14750211500.0 0.5243985652 -0.8472516972
14800211200.0 0.5119487965 -0.8555015736
14850210900.0 0.4995625391 -0.8630630617
14900210600.0 0.4865832568 -0.8711217036
14950210300.0 0.4732383053 -0.8787870948
15000210000.0 0.4606808376 -0.885589955
15050209700.0 0.4483355959 -0.8915389857
15100209400.0 0.4358106829 -0.8975298132
15150209100.0 0.4229968113 -0.9024792343
15200208800.0 0.4105928711 -0.9082229062
15250208500.0 0.399541119 -0.9130816329
15300208200.0 0.387763714 -0.9176612971
15350207900.0 0.3743858884 -0.9223011821
15400207600.0 0.3590345301 -0.9279860714
15450207300.0 0.3445410713 -0.9331170598
15500207000.0 0.3297477904 -0.9375241533
15550206700.0 0.3156714565 -0.9426623234
15600206400.0 0.2989605734 -0.9469152616
15650206100.0 0.2831354685 -0.9509658966
15700205800.0 0.2702573049 -0.9546681324
15750205500.0 0.2560893738 -0.957940453
15800205200.0 0.2418225678 -0.9613358749
15850204900.0 0.2276862784 -0.964749396
15900204600.0 0.2128150541 -0.9684648645
15950204300.0 0.1982367239 -0.9715982814
16000204000.0 0.1838557905 -0.9745524913
16050203700.0 0.1683650168 -0.9775090056
16100203400.0 0.1542500698 -0.9796509691
16150203100.0 0.1390365122 -0.9820870693
16200202800.0 0.1249282247 -0.9843061458
16250202500.0 0.1105375265 -0.9854076301
16300202200.0 0.094517962 -0.9874526555
16350201900.0 0.0799600999 -0.9890198084
16400201600.0 0.065019382 -0.9900318949
16450201300.0 0.049680971 -0.9912334225
16500201000.0 0.0326251924 -0.9920363928
16550200700.0 0.0165519345 -0.9927023884
16600200400.0 0.0009830306 -0.9927248934
16650200100.0 -0.0154659129 -0.9927082145
16700199800.0 -0.0317224593 -0.9922601853
16750199500.0 -0.0508024719 -0.9921463386
16800199200.0 -0.0669094368 -0.9907461237
16850198900.0 -0.0818779302 -0.9889727958
16900198600.0 -0.0956251663 -0.9890585788
16950198300.0 -0.109260726 -0.9875492233
17000198000.0 -0.122441418 -0.9866250909
17050197700.0 -0.1358338722 -0.9842600879
17100197400.0 -0.1480721229 -0.9817925055
17150197100.0 -0.1609520056 -0.9801262419
17200196800.0 -0.1738537605 -0.9779682436
17250196500.0 -0.1867853827 -0.9754608397
17300196200.0 -0.1989839096 -0.9732368929
17350195900.0 -0.2108179196 -0.9708120544
17400195600.0 -0.2228286298 -0.9682967873
17450195300.0 -0.2355438233 -0.9654293034
17500195000.0 -0.2489985552 -0.9621893072
17550194700.0 -0.2629100186 -0.9586541408
17600194400.0 -0.2766218377 -0.9547395867
17650194100.0 -0.2902044964 -0.9508470409
17700193800.0 -0.3033686994 -0.9464807094
17750193500.0 -0.3171881924 -0.9416743534
17800193200.0 -0.3315617727 -0.9362206516
17850192900.0 -0.346575512 -0.9311249798
17900192600.0 -0.3617087358 -0.9249172038
17950192300.0 -0.377002841 -0.9179454498
18000192000.0 -0.3916979653 -0.9106783035
18050191700.0 -0.4058324428 -0.9028428715
18100191400.0 -0.4199177663 -0.8952059126
18150191100.0 -0.4349206529 -0.8870370575
18200190800.0 -0.4516205709 -0.8780457396
18250190500.0 -0.4686663291 -0.8686614879
18300190200.0 -0.4842028277 -0.8600016623
18350189900.0 -0.4994347115 -0.8514275476
18400189600.0 -0.513738741 -0.8426822814
18450189300.0 -0.5271482917 -0.8348491126
18500189000.0 -0.5406711139 -0.8272462124
18550188700.0 -0.5533143479 -0.8195300001
18600188400.0 -0.56528804 -0.8124217748
18650188100.0 -0.5765990713 -0.8057246787
18700187800.0 -0.58751907 -0.7988300635
18750187500.0 -0.5982575237 -0.7924297385
18800187200.0 -0.6090824883 -0.7855554486
18850186900.0 -0.6193281721 -0.7785381286
18900186600.0 -0.629576668 -0.7714496439
18950186300.0 -0.6397542583 -0.7635358753
19000186000.0 -0.6470876547 -0.757378894
19050185700.0 -0.6563050359 -0.7504576329
19100185400.0 -0.6663571298 -0.7420170055
19150185100.0 -0.6770632794 -0.7335609463
19200184800.0 -0.6861617016 -0.725339592
19250184500.0 -0.6958862821 -0.7165492217
19300184200.0 -0.7079282445 -0.7065734723
19350183900.0 -0.7181531524 -0.696866747
19400183600.0 -0.7278521271 -0.6876614827
19450183300.0 -0.7369056502 -0.6765920054
19500183000.0 -0.7451835788 -0.6671821494
19550182700.0 -0.7548999495 -0.6557925875
19600182400.0 -0.7652575725 -0.6443605807
19650182100.0 -0.776096854 -0.6319946709
19700181800.0 -0.7861754092 -0.6187012723
19750181500.0 -0.7966183124 -0.6045568006
19800181200.0 -0.8069216477 -0.5896480609
19850180900.0 -0.8165723995 -0.5743487198
19900180600.0 -0.8244247876 -0.5598913255
19950180300.0 -0.8333537143 -0.5434759091
20000180000.0 -0.8238218772 -0.5468788562
20050179700.0 -0.8314764414 -0.5343708599
20100179400.0 -0.840045153 -0.520681236
20150179100.0 -0.847969074 -0.5092783729
20200178800.0 -0.85717928 -0.4972394631
20250178500.0 -0.8664285837 -0.4848184401
20300178200.0 -0.8756037641 -0.4708787758
20350177900.0 -0.885434466 -0.4563185884
20400177600.0 -0.8940427637 -0.4421433144
20450177300.0 -0.902608826 -0.4280008777
20500177000.0 -0.91076858 -0.414220434
20550176700.0 -0.9188198925 -0.4007111913
20600176400.0 -0.9253468529 -0.387738616
20650176100.0 -0.9321813651 -0.3752540021
20700175800.0 -0.9389613528 -0.3633858555
20750175500.0 -0.9449604916 -0.3520278729
20800175200.0 -0.9489090677 -0.341129122
20850174900.0 -0.9550228993 -0.3308484213
20900174600.0 -0.958520992 -0.3192528546
20950174300.0 -0.9617215677 -0.3085783129
21000174000.0 -0.96541194 -0.2975594845
21050173700.0 -0.9677021639 -0.2874886691
21100173400.0 -0.9704242403 -0.2759834593
21150173100.0 -0.9747222614 -0.2644621281
21200172800.0 -0.9782528429 -0.251524975
21250172500.0 -0.9818011751 -0.2375650391
21300172200.0 -0.9851878093 -0.2235835343
21350171900.0 -0.9871208541 -0.2093318832
21400171600.0 -0.9891605383 -0.1954127147
21450171300.0 -0.9892523954 -0.1807333738
21500171000.0 -0.9903604145 -0.1661759959
21550170700.0 -0.9900114725 -0.1503970402
21600170400.0 -0.9918113291 -0.1353154769
21650170100.0 -0.9905795168 -0.1192495309
21700169800.0 -0.9901164975 -0.1046039884
21750169500.0 -0.9893099165 -0.0875843867
21800169200.0 -0.9911674702 -0.0723555691
21850168900.0 -0.9891733354 -0.0545496195
21900168600.0 -0.9887254535 -0.0390542471
21950168300.0 -0.9884265384 -0.0224775624
22000168000.0 -0.9880141307 -0.0079377841
22050167700.0 -0.9884904707 0.0068365112
22100167400.0 -0.988982236 0.0224930866
22150167100.0 -0.989956456 0.0380218385
22200166800.0 -0.9902764607 0.0547175093
22250166500.0 -0.9896163719 0.0721305131
22300166200.0 -0.989617775 0.0882639284
22350165900.0 -0.9880052481 0.1049216684
22400165600.0 -0.9863656145 0.1208590102
22450165300.0 -0.984110045 0.1353734465
22500165000.0 -0.9830888576 0.1502942519
22550164700.0 -0.9820522059 0.1653823017
22600164400.0 -0.9801891355 0.182951997
22650164100.0 -0.9766784905 0.197320524
22700163800.0 -0.9737411139 0.2126758648
22750163500.0 -0.9708365994 0.228113103
22800163200.0 -0.9678747109 0.2409560523
22850162900.0 -0.9654425256 0.2545619759
22900162600.0 -0.9637630714 0.2684697664
22950162300.0 -0.9620513573 0.2823198059
23000162000.0 -0.9603219644 0.2945440493
23050161700.0 -0.9580112695 0.3079464329
23100161400.0 -0.9548823497 0.3208355705
23150161100.0 -0.9518871297 0.3343214231
23200160800.0 -0.9493971678 0.3465113924
23250160500.0 -0.9462271591 0.3585352154
23300160200.0 -0.9444224181 0.3723165111
23350159900.0 -0.9402559804 0.3851095993
23400159600.0 -0.9352130705 0.3987988783
23450159300.0 -0.9298681105 0.4125185853
23500159000.0 -0.9248294191 0.4263654067
23550158700.0 -0.9202682024 0.4400019693
23600158400.0 -0.9144489068 0.4537292524
23650158100.0 -0.9072004605 0.4683505825
23700157800.0 -0.8990647442 0.4823278171
23750157500.0 -0.8896426559 0.4966740447
23800157200.0 -0.8802245217 0.5102569626
23850156900.0 -0.8703930058 0.5230672242
23900156600.0 -0.8608049855 0.5348682678
23950156300.0 -0.8511728841 0.54823231
24000156000.0 -0.8417845602 0.559990503
24050155700.0 -0.8317931425 0.5723018838
24100155400.0 -0.821224612 0.5852497989
24150155100.0 -0.8098780908 0.5968463363
24200154800.0 -0.7996089463 0.608354006
24250154500.0 -0.7883012495 0.620770605
24300154200.0 -0.7766429065 0.6326269032
24350153900.0 -0.7641285891 0.6438579252
24400153600.0 -0.7521917996 0.6543225892
24450153300.0 -0.7400664466 0.6641260918
24500153000.0 -0.7283695687 0.6746132561
24550152700.0 -0.7175612716 0.6844314161
24600152400.0 -0.704789723 0.6940981892
24650152100.0 -0.6933541042 0.7020583006
