!Created with skrf (http://scikit-rf.org).
# Hz S RI R 50.0 
!freq ReS11 ImS11
300000.0 -0.9821163239 -0.1004089439
50299700.0 -1.000051955 0.0161594368
100299400.0 -0.9982046857 0.0291232847
150299100.0 -1.002884127 0.0460860551
200298800.0 -0.99966229 0.0592966243
250298500.0 -0.997451516 0.0727305817
300298200.0 -0.9860908724 0.088548714
350297900.0 -0.9939987611 0.0995141355
400297600.0 -0.9931562031 0.1161617538
450297300.0 -0.9910927139 0.1297927713
500297000.0 -0.9895635042 0.1446041287
550296700.0 -0.9840978668 0.1572992314
600296400.0 -1.017297036 0.1905606831
650296100.0 -0.9821769987 0.187089414
700295800.0 -0.9792171866 0.2014763313
750295500.0 -0.9760403223 0.2154766144
800295200.0 -0.9728004021 0.2294514862
850294900.0 -0.9692512665 0.2431942435
900294600.0 -0.9655218738 0.2570330146
950294300.0 -0.9618451087 0.2707951037
1000294000.0 -0.9580489758 0.2847285854
1050293700.0 -0.9530931912 0.2984861668
1100293400.0 -0.9488827701 0.3130368858
1150293100.0 -0.9451207917 0.3248629797
1200292800.0 -0.939654561 0.339198207
1250292500.0 -0.9341792586 0.3526015942
1300292200.0 -0.9286311824 0.3659816123
1350291900.0 -0.9231640695 0.3798465463
1400291600.0 -0.9175720141 0.3929187406
1450291300.0 -0.9121078648 0.4052376412
1500291000.0 -0.9058662828 0.4185761965
1550290700.0 -0.8992436313 0.4319556272
1600290400.0 -0.8931771388 0.4448676718
1650290100.0 -0.8863409252 0.4569926988
1700289800.0 -0.8795523811 0.4703635545
1750289500.0 -0.8723414531 0.482409597
1800289200.0 -0.8650580854 0.4954361136
1850288900.0 -0.8584757175 0.506860646
1900288600.0 -0.8504784661 0.5200380006
1950288300.0 -0.8424291658 0.5323260976
2000288000.0 -0.834965149 0.5438580486
2050287700.0 -0.8267256736 0.5561168616
2100287400.0 -0.8187989715 0.5678145213
2150287100.0 -0.8102093379 0.5800464828
2200286800.0 -0.8024850792 0.5903302052
2250286500.0 -0.7935797693 0.6022646216
2300286200.0 -0.784500216 0.6140398252
2350285900.0 -0.7757735266 0.6250752146
2400285600.0 -0.7666777954 0.6360789929
2450285300.0 -0.7582543552 0.6464373842
2500285000.0 -0.7485168546 0.6577051418
2550284700.0 -0.7394743852 0.6678241253
2600284400.0 -0.7297754874 0.6782530673
2650284100.0 -0.7209516085 0.6888050157
2700283800.0 -0.7101993771 0.6993776663
2750283500.0 -0.6999767226 0.7097378374
2800283200.0 -0.6900518175 0.7196008174
2850282900.0 -0.6802112358 0.7292908276
2900282600.0 -0.6697446176 0.7389794707
2950282300.0 -0.659429708 0.747966777
3000282000.0 -0.6488081163 0.7573861721
3050281700.0 -0.6376988757 0.7667374857
3100281400.0 -0.6256869887 0.7761155039
3150281100.0 -0.6139824246 0.7855084821
3200280800.0 -0.602281019 0.7941493203
3250280500.0 -0.5916304677 0.8016850117
3300280200.0 -0.580432647 0.8094860556
3350279900.0 -0.5690909546 0.816911982
3400279600.0 -0.5567197429 0.8247343189
3450279300.0 -0.5457473276 0.8318204484
3500279000.0 -0.5339529675 0.8389544479
3550278700.0 -0.5212562849 0.8464286121
3600278400.0 -0.509045873 0.8536014974
3650278100.0 -0.4957123746 0.8611386262
3700277800.0 -0.4836553513 0.8673576289
3750277500.0 -0.4717383353 0.873943169
3800277200.0 -0.4588207947 0.8803396537
3850276900.0 -0.4465702158 0.8863408007
3900276600.0 -0.4358223011 0.8917458337
3950276300.0 -0.4233247174 0.898339375
4000276000.0 -0.4111581842 0.9043341544
4050275700.0 -0.3980701611 0.9101576734
4100275400.0 -0.3871124562 0.9155018421
4150275100.0 -0.3741538005 0.9213242241
4200274800.0 -0.3611871445 0.9270295856
4250274500.0 -0.348979195 0.9319216586
4300274200.0 -0.3361794019 0.937060955
4350273900.0 -0.322163501 0.9423015133
4400273600.0 -0.3071947106 0.9476383475
4450273300.0 -0.2921065526 0.9524880415
4500273000.0 -0.2782742667 0.9571389004
4550272700.0 -0.2640524154 0.9612155
4600272400.0 -0.2486210898 0.9653014079
4650272100.0 -0.2367473618 0.968654908
4700271800.0 -0.2234855666 0.9718516433
4750271500.0 -0.2118970185 0.974834711
4800271200.0 -0.1993606228 0.9775401798
4850270900.0 -0.1854638391 0.9801915659
4900270600.0 -0.171795369 0.9826125558
4950270300.0 -0.1574625987 0.9853667686
5000270000.0 -0.1432693393 0.9872111438
5050269700.0 -0.1299756741 0.9891095834
5100269400.0 -0.1163342703 0.9905368765
5150269100.0 -0.1029409357 0.9921089224
5200268800.0 -0.0897202449 0.9930742008
5250268500.0 -0.0765911758 0.9940719022
5300268200.0 -0.0636361466 0.9949336489
5350267900.0 -0.0513572038 0.9951448169
5400267600.0 -0.0350684753 0.9965580855
5450267300.0 -0.0221831221 0.9966874429
5500267000.0 -0.0071349743 0.997125792
5550266700.0 0.0077814654 0.9974115923
5600266400.0 0.0234496755 0.9972755719
5650266100.0 0.0399628477 0.997122899
5700265800.0 0.0544375136 0.9960506606
5750265500.0 0.0696983211 0.995310686
5800265200.0 0.0837680027 0.9942900732
5850264900.0 0.0967300811 0.9932209176
5900264600.0 0.1135634797 0.9918958998
5950264300.0 0.1258262803 0.9901326683
6000264000.0 0.1394861276 0.987699432
6050263700.0 0.1521431055 0.986246197
6100263400.0 0.1648270875 0.9845860588
6150263100.0 0.1791461343 0.9820016672
6200262800.0 0.1900223232 0.9804258301
6250262500.0 0.2025641889 0.9779130881
6300262200.0 0.21558318 0.9750804985
6350261900.0 0.2286281344 0.9720798296
6400261600.0 0.2424272517 0.9686718909
6450261300.0 0.2539380571 0.9661680425
6500261000.0 0.2663484801 0.9623053917
6550260700.0 0.2796252526 0.9586911269
6600260400.0 0.2924682279 0.9541946272
6650260100.0 0.3069414609 0.9503234143
6700259800.0 0.3189422543 0.9459609136
6750259500.0 0.3323322256 0.9407120097
6800259200.0 0.3454325311 0.9359834618
6850258900.0 0.3576292637 0.9311813853
6900258600.0 0.3698379523 0.9261838255
6950258300.0 0.3825167016 0.9209534723
7000258000.0 0.3943121859 0.9154149952
7050257700.0 0.4064378102 0.9093245974
7100257400.0 0.419134194 0.9029389162
7150257100.0 0.4294670352 0.8977093285
7200256800.0 0.4423337894 0.8915719825
7250256500.0 0.4537852765 0.8850330685
7300256200.0 0.4666489789 0.8783044605
7350255900.0 0.4792117841 0.8713557864
7400255600.0 0.4921035019 0.8642087572
7450255300.0 0.5078668976 0.8555202557
7500255000.0 0.5190873496 0.8483965617
7550254700.0 0.5327988943 0.839517139
7600254400.0 0.5457172537 0.8314521306
7650254100.0 0.5572498801 0.8237975116
7700253800.0 0.5693738949 0.8157180211
7750253500.0 0.5802982425 0.8077500442
7800253200.0 0.5912377979 0.8001867707
7850252900.0 0.6007019964 0.7928974407
7900252600.0 0.6125075757 0.7841454948
7950252300.0 0.6214314682 0.7773958874
8000252000.0 0.6315954784 0.7695581588
8050251700.0 0.6420645595 0.761170204
8100251400.0 0.6525281055 0.7530400359
8150251100.0 0.6623631919 0.7443785308
8200250800.0 0.6720287444 0.7362786262
8250250500.0 0.6807874791 0.7281934135
8300250200.0 0.6903302392 0.7195157257
8350249900.0 0.6995138942 0.7109415384
8400249600.0 0.7073731835 0.7027971103
8450249300.0 0.7167798334 0.693682992
8500249000.0 0.725291005 0.6845668358
8550248700.0 0.7336296938 0.6757225887
8600248400.0 0.7419356362 0.6663385931
8650248100.0 0.7497922063 0.656874224
8700247800.0 0.7592768574 0.6458373154
8750247500.0 0.7676082903 0.6355283877
8800247200.0 0.7756309355 0.6253129845
8850246900.0 0.7842851803 0.6138998283
8900246600.0 0.7926593365 0.6027781682
8950246300.0 0.8022646205 0.5898842431
9000246000.0 0.811693209 0.577092762
9050245700.0 0.8208589891 0.5640747854
9100245400.0 0.8290893211 0.5516481119
9150245100.0 0.8387051259 0.5381828537
9200244800.0 0.8480242569 0.5229911274
9250244500.0 0.8577418027 0.5074747893
9300244200.0 0.8658623692 0.4928261977
9350243900.0 0.8736693278 0.4788226747
9400243600.0 0.8805445813 0.466199247
9450243300.0 0.8863622092 0.454242243
9500243000.0 0.8926864188 0.4418806037
9550242700.0 0.896649667 0.4339235383
9600242400.0 0.9005507537 0.4264056024
9650242100.0 0.904065757 0.4198272987
9700241800.0 0.9087761019 0.4113489702
9750241500.0 0.9128084361 0.4037133047
9800241200.0 0.9170351331 0.3946309561
9850240900.0 0.9228173304 0.3829809342
9900240600.0 0.9283961945 0.3713341946
9950240300.0 0.9349692629 0.3552977751
10000240000.0 0.9395109307 0.3436328322
10050239700.0 0.9449137807 0.3284907021
10100239400.0 0.9497452943 0.3130472283
10150239100.0 0.9544470754 0.2983775827
10200238800.0 0.9586323147 0.2837056141
10250238500.0 0.9617491626 0.2702680065
10300238200.0 0.9649175195 0.256368314
10350237900.0 0.9675938995 0.2433617519
10400237600.0 0.9701881406 0.2299158015
10450237300.0 0.9727999417 0.2164810343
10500237000.0 0.9752342172 0.2041127777
10550236700.0 0.9773195976 0.1907263566
10600236400.0 0.9792842411 0.1778539264
10650236100.0 0.9819139736 0.1623993217
10700235800.0 0.983843724 0.1506672613
10750235500.0 0.9858588258 0.1369770712
10800235200.0 0.9877775779 0.1231272476
10850234900.0 0.9897653705 0.1087766532
10900234600.0 0.9917029251 0.0942964868
10950234300.0 0.9935300873 0.0810603415
11000234000.0 0.9952471727 0.0658808686
11050233700.0 0.9969313355 0.0497300533
11100233400.0 0.9981117018 0.032543216
11150233100.0 0.9995950617 0.0159563092
11200232800.0 1.00025788 0.0009612568
11250232500.0 1.000939326 -0.0157297621
11300232200.0 1.001921102 -0.0331834831
11350231900.0 1.001542708 -0.048638811
11400231600.0 1.000792068 -0.0649549078
11450231300.0 1.001111227 -0.0796397301
11500231000.0 0.9991882 -0.0975837405
11550230700.0 0.9982109214 -0.1110581998
11600230400.0 0.9966796807 -0.122979448
11650230100.0 0.9945378941 -0.1348092425
11700229800.0 0.9925171688 -0.1491782097
11750229500.0 0.9897209518 -0.1639911878
11800229200.0 0.9872020942 -0.178467426
11850228900.0 0.9837427411 -0.1908375681
11900228600.0 0.9803806561 -0.2006630462
11950228300.0 0.9770933828 -0.2111485491
12000228000.0 0.9739332931 -0.2205456098
12050227700.0 0.9706456481 -0.233173281
12100227400.0 0.9672850176 -0.2439115117
12150227100.0 0.9623027282 -0.2611425958
12200226800.0 0.9588319871 -0.2716379248
12250226500.0 0.9549823765 -0.2839854649
12300226200.0 0.9508384347 -0.2959710829
12350225900.0 0.9460904314 -0.3091842171
12400225600.0 0.9416145363 -0.3228027004
12450225300.0 0.9369819825 -0.3353429857
12500225000.0 0.9317899418 -0.3497723132
12550224700.0 0.9268159566 -0.3636072299
12600224400.0 0.9218592105 -0.3760582539
12650224100.0 0.9159556656 -0.3903547154
12700223800.0 0.9108988752 -0.4029458314
12750223500.0 0.9054279809 -0.4157310967
12800223200.0 0.8998713036 -0.4284995542
12850222900.0 0.8946703408 -0.440849709
12900222600.0 0.8890661092 -0.4524175006
12950222300.0 0.8821875706 -0.4653379978
13000222000.0 0.876212712 -0.4774542769
13050221700.0 0.8698421814 -0.4899516242
13100221400.0 0.8631988592 -0.5018406043
13150221100.0 0.8561338512 -0.5141347028
13200220800.0 0.8489824885 -0.5253325341
13250220500.0 0.8415703108 -0.5381534991
13300220200.0 0.834163442 -0.549344149
13350219900.0 0.8259724362 -0.561012278
13400219600.0 0.8175099215 -0.5734076573
13450219300.0 0.8077519851 -0.5870020868
13500219000.0 0.7976191102 -0.6009743562
13550218700.0 0.7874938457 -0.6139799199
13600218400.0 0.7770183046 -0.6260502176
13650218100.0 0.7667280363 -0.6374036386
13700217800.0 0.7567827999 -0.6497249821
13750217500.0 0.747832444 -0.6601780673
13800217200.0 0.7353067322 -0.6731425077
13850216900.0 0.7242301009 -0.6841674096
13900216600.0 0.7140838939 -0.6927542594
13950216300.0 0.7032841829 -0.7035496456
14000216000.0 0.6936746595 -0.7125193899
14050215700.0 0.6836545878 -0.7209708683
14100215400.0 0.6735542079 -0.7296781469
14150215100.0 0.6646661522 -0.7383110185
14200214800.0 0.6555762795 -0.746705875
14250214500.0 0.6454164984 -0.7559624685
14300214200.0 0.6349976688 -0.7650914584
14350213900.0 0.6240384216 -0.7745834137
14400213600.0 0.6123701462 -0.7840369571
14450213300.0 0.5992481004 -0.7942411772
14500213000.0 0.5866059092 -0.803796264
14550212700.0 0.5739676273 -0.8134122506
14600212400.0 0.5615125682 -0.8217277144
14650212100.0 0.5488222916 -0.8309797874
14700211800.0 0.5355606997 -0.840060541
14750211500.0 0.5228244503 -0.8484310273
14800211200.0 0.5101365579 -0.8566313849
14850210900.0 0.4982429502 -0.864074154
14900210600.0 0.484866483 -0.8718590955
14950210300.0 0.4710527119 -0.8795059606
15000210000.0 0.4583252595 -0.8863955684
15050209700.0 0.445714901 -0.8925568714
15100209400.0 0.4327396009 -0.8984218503
15150209100.0 0.420253256 -0.9039089335
15200208800.0 0.4075102237 -0.9097853282
15250208500.0 0.3962188236 -0.9141393907
15300208200.0 0.3831035735 -0.9187675755
15350207900.0 0.3707452201 -0.9238949615
15400207600.0 0.3555923629 -0.929092116
15450207300.0 0.3404363477 -0.9339821426
15500207000.0 0.3261486135 -0.9384218565
15550206700.0 0.3110598915 -0.9433556904
15600206400.0 0.2954496288 -0.9485192513
15650206100.0 0.2794912257 -0.9526464282
15700205800.0 0.2656846192 -0.956081855
15750205500.0 0.2509744676 -0.9597367737
15800205200.0 0.2366270031 -0.9629909134
15850204900.0 0.2225109694 -0.9663543203
15900204600.0 0.2075660285 -0.9698641757
15950204300.0 0.1932650147 -0.9726251079
16000204000.0 0.1794385153 -0.9755234459
16050203700.0 0.1647086138 -0.9782958073
16100203400.0 0.1504702206 -0.9803503566
16150203100.0 0.1363426226 -0.9827111044
16200202800.0 0.1223462567 -0.9847250615
16250202500.0 0.1081677796 -0.986498026
16300202200.0 0.0925646824 -0.9883586467
16350201900.0 0.0774737948 -0.9890221614
16400201600.0 0.0630861936 -0.9902664628
16450201300.0 0.0481219493 -0.9911951129
16500201000.0 0.0315699127 -0.9922348973
16550200700.0 0.0159980743 -0.9925267404
16600200400.0 0.0002808357 -0.9928524394
16650200100.0 -0.0162475061 -0.9926138668
16700199800.0 -0.0329139209 -0.9918220599
16750199500.0 -0.0518051762 -0.9918815019
16800199200.0 -0.0677095006 -0.9905207075
16850198900.0 -0.0820973281 -0.9891680168
16900198600.0 -0.097036885 -0.9882748513
16950198300.0 -0.1098054331 -0.9871748872
17000198000.0 -0.1237292436 -0.9863010831
17050197700.0 -0.1358987378 -0.9842142081
17100197400.0 -0.1493163422 -0.9823512759
17150197100.0 -0.1613341956 -0.9792488412
17200196800.0 -0.1742710899 -0.9772646694
17250196500.0 -0.1874861495 -0.9750513856
17300196200.0 -0.1996567891 -0.9728109887
17350195900.0 -0.2117795977 -0.9704078013
17400195600.0 -0.2239527015 -0.9681397009
17450195300.0 -0.237166345 -0.9653668813
17500195000.0 -0.2506863462 -0.9618553132
17550194700.0 -0.2642221343 -0.9583531273
17600194400.0 -0.2783375408 -0.9541086517
17650194100.0 -0.2922364777 -0.9500355619
17700193800.0 -0.3048993924 -0.9461782046
17750193500.0 -0.3193137 -0.9412971248
17800193200.0 -0.3332589507 -0.9358417221
17850192900.0 -0.3480562716 -0.9306820942
17900192600.0 -0.3631318895 -0.9244383172
17950192300.0 -0.3788720108 -0.9176975809
18000192000.0 -0.3932753455 -0.9102824071
18050191700.0 -0.4070155305 -0.9028538649
18100191400.0 -0.4212644614 -0.8949943217
18150191100.0 -0.4361136272 -0.8870862128
18200190800.0 -0.4529959856 -0.8780097186
18250190500.0 -0.4698067816 -0.8683315854
18300190200.0 -0.4853052326 -0.8595474873
18350189900.0 -0.500011797 -0.851222743
18400189600.0 -0.5142715995 -0.8428378922
18450189300.0 -0.5276206059 -0.8350716998
18500189000.0 -0.541086195 -0.8268154227
18550188700.0 -0.5542178325 -0.819103501
18600188400.0 -0.5660030574 -0.8121540437
18650188100.0 -0.5773063532 -0.8054872076
18700187800.0 -0.5881136109 -0.7986137796
18750187500.0 -0.5989409226 -0.7919014582
18800187200.0 -0.609800955 -0.7847475223
18850186900.0 -0.620152394 -0.7775497755
18900186600.0 -0.6306311991 -0.7698220056
18950186300.0 -0.6406090205 -0.7620203529
19000186000.0 -0.6481078592 -0.7560111524
19050185700.0 -0.6575042719 -0.748398179
19100185400.0 -0.6678281233 -0.7401027653
19150185100.0 -0.6780228513 -0.7309733843
19200184800.0 -0.6875384442 -0.7230889124
19250184500.0 -0.6982886438 -0.713252169
19300184200.0 -0.7088909868 -0.7037207011
19350183900.0 -0.7202760154 -0.6945251117
19400183600.0 -0.7297232899 -0.6840410205
19450183300.0 -0.738359439 -0.6741713028
19500183000.0 -0.7462700188 -0.6648268459
19550182700.0 -0.7559775025 -0.6536099639
19600182400.0 -0.7662630256 -0.6421098542
19650182100.0 -0.777085502 -0.6299635785
19700181800.0 -0.7872875913 -0.6166283999
19750181500.0 -0.7976257413 -0.6029807136
19800181200.0 -0.8078885072 -0.5881575286
19850180900.0 -0.8173611885 -0.5728663336
19900180600.0 -0.8249397401 -0.5586759254
19950180300.0 -0.8340227661 -0.5426239885
20000180000.0 -0.8275811735 -0.5442560968
20050179700.0 -0.8356426047 -0.5317169952
20100179400.0 -0.8441725307 -0.5171699058
20150179100.0 -0.8519262421 -0.5056274048
20200178800.0 -0.8610591046 -0.4926808008
20250178500.0 -0.8698452261 -0.478764808
20300178200.0 -0.8792559291 -0.4647277237
20350177900.0 -0.8890263262 -0.4502915001
20400177600.0 -0.8970445384 -0.4356876775
20450177300.0 -0.9053499436 -0.4211874513
20500177000.0 -0.9129827892 -0.4073985628
20550176700.0 -0.9208739379 -0.3934411954
20600176400.0 -0.9279657942 -0.3804441746
20650176100.0 -0.934535012 -0.3678155316
20700175800.0 -0.9412652621 -0.3556897657
20750175500.0 -0.947954718 -0.3440714139
20800175200.0 -0.9526090049 -0.3334378408
20850174900.0 -0.9581636519 -0.32115765
20900174600.0 -0.9618825906 -0.3098340992
20950174300.0 -0.9666456777 -0.2980112846
21000174000.0 -0.9702482237 -0.2872043063
21050173700.0 -0.9728409615 -0.2757600938
21100173400.0 -0.9773037887 -0.2631365405
21150173100.0 -0.9809175618 -0.2503522636
21200172800.0 -0.984714424 -0.2368412616
21250172500.0 -0.9880216014 -0.2226737486
21300172200.0 -0.9906313997 -0.2086349775
21350171900.0 -0.9919789524 -0.1936273324
21400171600.0 -0.9939258284 -0.1797859205
21450171300.0 -0.9934319778 -0.1652338872
21500171000.0 -0.9933451821 -0.1497941133
21550170700.0 -0.9935612558 -0.1352657395
21600170400.0 -0.9939358193 -0.1192100788
21650170100.0 -0.9926494321 -0.1034007036
21700169800.0 -0.9906600818 -0.0885054663
21750169500.0 -0.9896310344 -0.0729550552
21800169200.0 -0.9886236214 -0.0565088237
21850168900.0 -0.9877811315 -0.0403656205
21900168600.0 -0.9849381084 -0.0239544686
21950168300.0 -0.9840220588 -0.0085411996
22000168000.0 -0.982858825 0.0064172826
22050167700.0 -0.9826183322 0.0207549601
22100167400.0 -0.9828233343 0.0356045386
22150167100.0 -0.9829696682 0.0509233671
22200166800.0 -0.9834516866 0.0672448375
22250166500.0 -0.9822223702 0.0840933492
22300166200.0 -0.9817274601 0.1012990794
22350165900.0 -0.9805224051 0.1167484906
22400165600.0 -0.9794032944 0.1330737547
22450165300.0 -0.9765204972 0.1479252034
22500165000.0 -0.9747602912 0.1615634182
22550164700.0 -0.9744788979 0.1767573215
22600164400.0 -0.9722835602 0.1920463739
22650164100.0 -0.9689776965 0.2061823341
22700163800.0 -0.9674150138 0.2232296986
22750163500.0 -0.9647657346 0.2382734934
22800163200.0 -0.9620773345 0.2513696748
22850162900.0 -0.9596486802 0.2649787772
22900162600.0 -0.9581752161 0.278430161
22950162300.0 -0.9570799937 0.2909501016
23000162000.0 -0.9561898465 0.3030068242
23050161700.0 -0.9536795913 0.3154338762
23100161400.0 -0.9516013495 0.3282903488
23150161100.0 -0.9488799215 0.3404839078
23200160800.0 -0.9462101239 0.3520468628
23250160500.0 -0.9438123972 0.3646209206
23300160200.0 -0.9407867465 0.37615417
23350159900.0 -0.9367425633 0.3894563133
23400159600.0 -0.9322262536 0.4029334595
23450159300.0 -0.9270924071 0.4157588365
23500159000.0 -0.9229083743 0.4284885381
23550158700.0 -0.9184457858 0.4414542548
23600158400.0 -0.9132048408 0.4543886266
23650158100.0 -0.9067424787 0.4685187793
23700157800.0 -0.8992580192 0.4821479104
23750157500.0 -0.8906791442 0.496004364
23800157200.0 -0.8819919253 0.5087140591
23850156900.0 -0.873210615 0.5212675427
23900156600.0 -0.8639598449 0.5339053442
23950156300.0 -0.8552706785 0.5466061456
24000156000.0 -0.8449651585 0.5583706629
24050155700.0 -0.8350685345 0.5699303092
24100155400.0 -0.8253054331 0.5819452265
24150155100.0 -0.8143731246 0.5940443502
24200154800.0 -0.8038396547 0.6047999686
24250154500.0 -0.7928832267 0.6172214851
24300154200.0 -0.7807054804 0.6286074398
24350153900.0 -0.7689308189 0.6392958996
24400153600.0 -0.7569811497 0.6496159786
24450153300.0 -0.7452301386 0.6597141586
24500153000.0 -0.7340208594 0.6691679002
24550152700.0 -0.7226916797 0.6789912667
24600152400.0 -0.7108228946 0.6886195424
24650152100.0 -0.7001519297 0.6966768402
