!Created with skrf (http://scikit-rf.org).
# Hz S RI R 50.0 
!freq ReS11 ImS11
300000.0 -0.9741139557 -0.1200605831
50299700.0 -0.9998946853 0.0151301582
100299400.0 -0.998046597 0.0280505271
150299100.0 -1.002621949 0.0447894106
200298800.0 -0.9994372689 0.0582113191
250298500.0 -0.9971441771 0.0718365167
300298200.0 -0.9858676546 0.0874956338
350297900.0 -0.9938967747 0.0984452108
400297600.0 -0.99334338 0.1149317167
450297300.0 -0.9910866632 0.1284127614
500297000.0 -0.9894626755 0.1435840729
550296700.0 -0.9843244587 0.155954707
600296400.0 -1.017309828 0.1893715751
650296100.0 -0.9821373527 0.1858101399
700295800.0 -0.9794086131 0.2000199089
750295500.0 -0.9761054345 0.2141772283
800295200.0 -0.9730290352 0.2283512445
850294900.0 -0.9696892408 0.2419457715
900294600.0 -0.9658240755 0.2556956906
950294300.0 -0.9621335718 0.2692409045
1000294000.0 -0.9582092263 0.2832157637
1050293700.0 -0.9536694972 0.2970637652
1100293400.0 -0.9491863108 0.3116598133
1150293100.0 -0.9454322907 0.3234580617
1200292800.0 -0.9400975117 0.3379497812
1250292500.0 -0.9346924628 0.3512865617
1300292200.0 -0.9289159695 0.3646585107
1350291900.0 -0.9235530722 0.3785591969
1400291600.0 -0.9180137675 0.391793731
1450291300.0 -0.9124352204 0.4041617201
1500291000.0 -0.9061336001 0.4176031627
1550290700.0 -0.8997928256 0.4307581416
1600290400.0 -0.8933027619 0.4436626344
1650290100.0 -0.886803821 0.4558684399
1700289800.0 -0.8799462662 0.4691122475
1750289500.0 -0.8729193896 0.4815738117
1800289200.0 -0.8655064758 0.4944100448
1850288900.0 -0.8588224989 0.5057201456
1900288600.0 -0.8509590905 0.5186886759
1950288300.0 -0.842965935 0.5312946017
2000288000.0 -0.8354371926 0.5429284495
2050287700.0 -0.8272395426 0.5551557225
2100287400.0 -0.8195125458 0.5666881792
2150287100.0 -0.8108354637 0.578579975
2200286800.0 -0.8030273218 0.5892958043
2250286500.0 -0.7941544322 0.601407088
2300286200.0 -0.7852723545 0.6128768566
2350285900.0 -0.7767401292 0.6234775996
2400285600.0 -0.7677884301 0.6346126666
2450285300.0 -0.7591192766 0.6450155593
2500285000.0 -0.7491351713 0.6566669253
2550284700.0 -0.7402177001 0.6671462799
2600284400.0 -0.731172586 0.6769384384
2650284100.0 -0.7221902503 0.687358327
2700283800.0 -0.7118068798 0.6977112274
2750283500.0 -0.7013622073 0.7084041989
2800283200.0 -0.6916301952 0.718129741
2850282900.0 -0.681080023 0.7281874651
2900282600.0 -0.670602665 0.7377743525
2950282300.0 -0.6602927679 0.7474835312
3000282000.0 -0.6497065053 0.7567233796
3050281700.0 -0.6385863842 0.7658341577
3100281400.0 -0.6268458529 0.7751472887
3150281100.0 -0.6154987387 0.7841231255
3200280800.0 -0.6039598504 0.7924615923
3250280500.0 -0.5929352137 0.8004308561
3300280200.0 -0.5814306076 0.8084268122
3350279900.0 -0.5692398883 0.8165142415
3400279600.0 -0.5568467986 0.8243776564
3450279300.0 -0.5459076986 0.831577099
3500279000.0 -0.5339108634 0.8385217575
3550278700.0 -0.5217749973 0.8456467813
3600278400.0 -0.5096593819 0.8521795006
3650278100.0 -0.4968854519 0.8603840974
3700277800.0 -0.484677359 0.8664638985
3750277500.0 -0.4720566564 0.873106224
3800277200.0 -0.459863343 0.8796930532
3850276900.0 -0.4478240127 0.8857430173
3900276600.0 -0.4368431474 0.89123927
3950276300.0 -0.4245804499 0.897168072
4000276000.0 -0.4130789626 0.9031030104
4050275700.0 -0.4001689667 0.9093123142
4100275400.0 -0.3892523717 0.9147540599
4150275100.0 -0.3759686616 0.9207154468
4200274800.0 -0.3628030307 0.9260861394
4250274500.0 -0.3501603087 0.9314638741
4300274200.0 -0.3368630913 0.9366146653
4350273900.0 -0.322796089 0.9420360043
4400273600.0 -0.3079958366 0.9474408382
4450273300.0 -0.2928864861 0.9520057839
4500273000.0 -0.2798267938 0.9564621375
4550272700.0 -0.2660393122 0.9605624005
4600272400.0 -0.2508906711 0.964697127
4650272100.0 -0.2393868561 0.9679665575
4700271800.0 -0.2263776465 0.9712524448
4750271500.0 -0.214804241 0.9742150199
4800271200.0 -0.2023238761 0.9767363286
4850270900.0 -0.1884710333 0.9795755205
4900270600.0 -0.1746163562 0.9823180925
4950270300.0 -0.1603483232 0.9848132991
5000270000.0 -0.1458287559 0.9868535319
5050269700.0 -0.1324077526 0.9883466463
5100269400.0 -0.118273442 0.9901803858
5150269100.0 -0.1045632603 0.9916530586
5200268800.0 -0.0910976892 0.9928427154
5250268500.0 -0.0781902233 0.9936817861
5300268200.0 -0.0646108473 0.9944111834
5350267900.0 -0.0518771852 0.9955134773
5400267600.0 -0.0357798246 0.9962814099
5450267300.0 -0.0226182316 0.9968520659
5500267000.0 -0.007144277 0.9968923004
5550266700.0 0.0074892631 0.997143235
5600266400.0 0.023525324 0.9973277468
5650266100.0 0.0401118111 0.996553446
5700265800.0 0.05432361 0.9957879114
5750265500.0 0.0693706478 0.9955163608
5800265200.0 0.0829118814 0.9939050959
5850264900.0 0.0963404354 0.9934665345
5900264600.0 0.1126312239 0.9914240567
5950264300.0 0.1244077495 0.9901034419
6000264000.0 0.1377974582 0.9882167188
6050263700.0 0.1498744938 0.9866945559
6100263400.0 0.1621672795 0.9849116211
6150263100.0 0.1768278246 0.9827079275
6200262800.0 0.1865395864 0.9808391446
6250262500.0 0.1992283815 0.9785581317
6300262200.0 0.2116596635 0.97616125
6350261900.0 0.2244288558 0.9732960416
6400261600.0 0.2383779097 0.970002246
6450261300.0 0.2493989759 0.9674988136
6500261000.0 0.2627185657 0.9636947142
6550260700.0 0.2758824062 0.9598663289
6600260400.0 0.2892142164 0.9558959684
6650260100.0 0.3033629675 0.951376804
6700259800.0 0.3152074825 0.9470615497
6750259500.0 0.329348502 0.9422889362
6800259200.0 0.3424812229 0.9369710353
6850258900.0 0.3551714517 0.9319790443
6900258600.0 0.3674870623 0.9268639582
6950258300.0 0.3799562163 0.9215647698
7000258000.0 0.3916717024 0.9160863093
7050257700.0 0.4035352946 0.9103459461
7100257400.0 0.4169243332 0.9038920211
7150257100.0 0.4275625636 0.8984570933
7200256800.0 0.4406098062 0.8920279927
7250256500.0 0.4530289002 0.8853896759
7300256200.0 0.4661105062 0.8785935207
7350255900.0 0.4786789222 0.8719670647
7400255600.0 0.4928185151 0.8643161674
7450255300.0 0.507908716 0.8551621171
7500255000.0 0.5203627154 0.8476675791
7550254700.0 0.5342798581 0.8385322526
7600254400.0 0.5473706217 0.8302816085
7650254100.0 0.5586713083 0.8227709927
7700253800.0 0.570344837 0.8146791285
7750253500.0 0.5811328709 0.8068979822
7800253200.0 0.5920008601 0.799027541
7850252900.0 0.6016548995 0.7918060109
7900252600.0 0.6132276968 0.7830807098
7950252300.0 0.6217753816 0.7768674205
8000252000.0 0.6318104727 0.7692230011
8050251700.0 0.6422865412 0.7610579047
8100251400.0 0.6521541852 0.7529572325
8150251100.0 0.6622145413 0.7443905648
8200250800.0 0.67185129 0.7361584349
8250250500.0 0.6805923326 0.7283043115
8300250200.0 0.6897229628 0.7200023077
8350249900.0 0.6989008091 0.7111515488
8400249600.0 0.706742501 0.7032356754
8450249300.0 0.7158451565 0.6942443186
8500249000.0 0.7244690001 0.6852739619
8550248700.0 0.732622796 0.6765199692
8600248400.0 0.7411104424 0.6669670818
8650248100.0 0.7485696693 0.6575361147
8700247800.0 0.7579290912 0.6464082341
8750247500.0 0.7664089477 0.6363118418
8800247200.0 0.77440628 0.6260685339
8850246900.0 0.7829856018 0.6147508405
8900246600.0 0.7914162622 0.6031682349
8950246300.0 0.8004171871 0.5905879902
9000246000.0 0.8093888725 0.5783996131
9050245700.0 0.8184524072 0.5659802449
9100245400.0 0.82650349 0.5535694872
9150245100.0 0.8356500699 0.5404064992
9200244800.0 0.8452665979 0.5261783087
9250244500.0 0.8542057751 0.5110063072
9300244200.0 0.8623264834 0.4974326662
9350243900.0 0.8700138048 0.4839864066
9400243600.0 0.8765223272 0.4722121528
9450243300.0 0.8820856851 0.461535175
9500243000.0 0.8885618668 0.4497351957
9550242700.0 0.8924878609 0.4420385727
9600242400.0 0.8967169575 0.4344302189
9650242100.0 0.9007697546 0.4276299528
9700241800.0 0.9054280398 0.4191260278
9750241500.0 0.9095821583 0.4115133822
9800241200.0 0.9146741087 0.4022681085
9850240900.0 0.9206481988 0.3904722484
9900240600.0 0.9261168547 0.3790167271
9950240300.0 0.9330991631 0.3621135556
10000240000.0 0.9379522164 0.3501160574
10050239700.0 0.9442291487 0.3344150098
10100239400.0 0.9497792504 0.3177863667
10150239100.0 0.9538780707 0.3026096154
10200238800.0 0.9583384066 0.2872269336
10250238500.0 0.9614223947 0.2739778924
10300238200.0 0.9646534573 0.2598332941
10350237900.0 0.9674290222 0.2465821335
10400237600.0 0.9700470051 0.2329844854
10450237300.0 0.9726094176 0.2196588126
10500237000.0 0.9746799071 0.2075012275
10550236700.0 0.9773049333 0.1927645001
10600236400.0 0.9793634041 0.179083638
10650236100.0 0.9809701547 0.1647251801
10700235800.0 0.9836731228 0.1522649539
10750235500.0 0.9857475121 0.1387943183
10800235200.0 0.9881517199 0.1245130737
10850234900.0 0.9898582201 0.1096260353
10900234600.0 0.9918319446 0.0947521928
10950234300.0 0.9938533779 0.0811984069
11000234000.0 0.9955106624 0.0658503086
11050233700.0 0.9972747891 0.0492932528
11100233400.0 0.9989637224 0.0316677905
11150233100.0 0.9999313881 0.0149831058
11200232800.0 1.001022377 -0.0010916115
11250232500.0 1.001617058 -0.0180046193
11300232200.0 1.002064212 -0.03707654
11350231900.0 1.002238844 -0.0537398997
11400231600.0 1.001221896 -0.067949335
11450231300.0 1.000735247 -0.0836428881
11500231000.0 1.000131861 -0.100193457
11550230700.0 0.9984891195 -0.1129795237
11600230400.0 0.9967381649 -0.1256588836
11650230100.0 0.99448006 -0.138231617
11700229800.0 0.9924628202 -0.1533165426
11750229500.0 0.9902436839 -0.1667199081
11800229200.0 0.987443323 -0.1806349033
11850228900.0 0.9838316518 -0.192674791
11900228600.0 0.9802957477 -0.2019998908
11950228300.0 0.9765807829 -0.2126577267
12000228000.0 0.9737505289 -0.2210151178
12050227700.0 0.9700365824 -0.2343488875
12100227400.0 0.9670574396 -0.244528343
12150227100.0 0.9620104593 -0.2616628534
12200226800.0 0.9592929514 -0.2717851469
12250226500.0 0.9544000133 -0.2854275727
12300226200.0 0.9505480616 -0.2976554819
12350225900.0 0.9449038517 -0.3107088467
12400225600.0 0.9406267619 -0.3240461907
12450225300.0 0.9365907379 -0.3361001959
12500225000.0 0.9304598306 -0.3509160359
12550224700.0 0.9253735045 -0.3649334405
12600224400.0 0.9205394322 -0.37729492
12650224100.0 0.9147219656 -0.3919656642
12700223800.0 0.9093355525 -0.4046773409
12750223500.0 0.9038427052 -0.4176779631
12800223200.0 0.898572033 -0.4302370019
12850222900.0 0.893106259 -0.4423498243
12900222600.0 0.8873469051 -0.4545994745
12950222300.0 0.8813582909 -0.4669262609
13000222000.0 0.8758939208 -0.4782991911
13050221700.0 0.8689471712 -0.4916846859
13100221400.0 0.8622807013 -0.5033972121
13150221100.0 0.8548724326 -0.515999357
13200220800.0 0.8479224051 -0.5275632975
13250220500.0 0.8406653182 -0.5393268523
13300220200.0 0.8333319563 -0.5508159921
13350219900.0 0.8250008422 -0.5625271822
13400219600.0 0.8166812738 -0.5743754971
13450219300.0 0.8078431253 -0.5872834645
13500219000.0 0.797425908 -0.601061761
13550218700.0 0.7877676965 -0.6129630184
13600218400.0 0.7773527442 -0.6251882259
13650218100.0 0.7682461213 -0.6361000724
13700217800.0 0.7578271412 -0.6481579966
13750217500.0 0.7475481018 -0.6591213784
13800217200.0 0.7376948391 -0.6698614659
13850216900.0 0.7250178792 -0.6822677535
13900216600.0 0.7155963352 -0.6908280139
13950216300.0 0.7054742071 -0.7003491387
14000216000.0 0.6954126151 -0.7097509579
14050215700.0 0.6861375348 -0.7177473237
14100215400.0 0.6766572954 -0.7270368926
14150215100.0 0.6672502136 -0.7353324721
14200214800.0 0.6578755321 -0.7441278841
14250214500.0 0.6474716622 -0.7536081633
14300214200.0 0.6369298362 -0.7631478463
14350213900.0 0.6258478914 -0.7728038047
14400213600.0 0.6136980625 -0.7824074481
14450213300.0 0.601582623 -0.792581224
14500213000.0 0.5881289787 -0.8023215259
14550212700.0 0.5757691344 -0.8119378003
14600212400.0 0.5634760642 -0.8208835983
14650212100.0 0.5507829243 -0.828980145
14700211800.0 0.5365082716 -0.8388912968
14750211500.0 0.5246455457 -0.8474489059
14800211200.0 0.5123268523 -0.8555329204
14850210900.0 0.4999030895 -0.8630494119
14900210600.0 0.4865899543 -0.8707837058
14950210300.0 0.4731779391 -0.8786980606
15000210000.0 0.460366869 -0.8853137901
15050209700.0 0.4482932915 -0.8911785948
15100209400.0 0.4354479763 -0.8974386907
15150209100.0 0.4231833453 -0.9028170671
15200208800.0 0.4108701392 -0.9083710804
15250208500.0 0.3997632488 -0.9127995086
15300208200.0 0.3867153557 -0.9175531552
15350207900.0 0.3736084867 -0.9222265182
15400207600.0 0.3588572333 -0.9280632641
15450207300.0 0.3443932097 -0.932059012
15500207000.0 0.3302153715 -0.9376175998
15550206700.0 0.31521239 -0.9421373143
15600206400.0 0.2992352303 -0.9467592174
15650206100.0 0.2838159735 -0.951191011
15700205800.0 0.2700225974 -0.9548100502
15750205500.0 0.2560685039 -0.9581545137
15800205200.0 0.2420071618 -0.9614019765
15850204900.0 0.2278442566 -0.9648292937
15900204600.0 0.2127053768 -0.9685164884
15950204300.0 0.1983698823 -0.9716236126
16000204000.0 0.1842578865 -0.9747659029
16050203700.0 0.1685729046 -0.9776656757
16100203400.0 0.1539779406 -0.9796008491
16150203100.0 0.1397022681 -0.9819619997
16200202800.0 0.1249204923 -0.9839076894
16250202500.0 0.1106281527 -0.985844614
16300202200.0 0.0946389861 -0.9878756507
16350201900.0 0.0797465063 -0.9889028178
16400201600.0 0.0652770457 -0.9901392344
16450201300.0 0.0497735082 -0.9912480451
16500201000.0 0.0328042445 -0.9919808839
16550200700.0 0.016877481 -0.9925466139
16600200400.0 0.0011891173 -0.9927100069
16650200100.0 -0.0148315847 -0.9925857415
16700199800.0 -0.0316854621 -0.9922736582
16750199500.0 -0.0505174422 -0.9913467389
16800199200.0 -0.0664136241 -0.9909611961
16850198900.0 -0.0814309122 -0.9893893811
16900198600.0 -0.0957440807 -0.9887435485
16950198300.0 -0.1095767617 -0.9872278118
17000198000.0 -0.122665402 -0.9863491794
17050197700.0 -0.1354643816 -0.9841961419
17100197400.0 -0.1482454026 -0.9818433897
17150197100.0 -0.1606091304 -0.9799905361
17200196800.0 -0.1738465234 -0.9778348968
17250196500.0 -0.1863273969 -0.9756604317
17300196200.0 -0.1986838687 -0.9733229112
17350195900.0 -0.2105450734 -0.971112772
17400195600.0 -0.2225018123 -0.9682971048
17450195300.0 -0.2356185277 -0.9655662736
17500195000.0 -0.2486491967 -0.9621173357
17550194700.0 -0.2629139212 -0.9586223574
17600194400.0 -0.2765575764 -0.9547065689
17650194100.0 -0.2900640753 -0.9504554699
17700193800.0 -0.3031250105 -0.9465725952
17750193500.0 -0.3174207937 -0.9417896143
17800193200.0 -0.3316314484 -0.9361565103
17850192900.0 -0.3462610988 -0.9315120876
17900192600.0 -0.3613144269 -0.9251619836
17950192300.0 -0.3769191975 -0.9178782406
18000192000.0 -0.391667161 -0.9109710902
18050191700.0 -0.4055160743 -0.9028414079
18100191400.0 -0.41985388 -0.895185239
18150191100.0 -0.4346789104 -0.8872485438
18200190800.0 -0.4514214724 -0.8781453072
18250190500.0 -0.468497223 -0.8686765791
18300190200.0 -0.4840742812 -0.8599311184
18350189900.0 -0.4993512174 -0.8513878602
18400189600.0 -0.5137585624 -0.8432516617
18450189300.0 -0.527099838 -0.8349559259
18500189000.0 -0.5401101404 -0.8274276798
18550188700.0 -0.5533742601 -0.8193131539
18600188400.0 -0.5655173215 -0.8126189894
18650188100.0 -0.5768343706 -0.8059838277
18700187800.0 -0.587669422 -0.7995417283
18750187500.0 -0.5983342517 -0.7926188532
18800187200.0 -0.6092170623 -0.7857266211
18850186900.0 -0.6192033778 -0.7788329793
18900186600.0 -0.6295705547 -0.7715149385
18950186300.0 -0.6396148918 -0.7637999483
19000186000.0 -0.6468806989 -0.7573569602
19050185700.0 -0.6564737923 -0.7504677689
19100185400.0 -0.6662156101 -0.742300695
19150185100.0 -0.676444171 -0.7340296037
19200184800.0 -0.6856721271 -0.7257833224
19250184500.0 -0.6958803144 -0.7163204904
19300184200.0 -0.7065721224 -0.7067948376
19350183900.0 -0.7180693341 -0.6973435211
19400183600.0 -0.7276909918 -0.687491878
19450183300.0 -0.736457679 -0.6772733234
19500183000.0 -0.7451451336 -0.6672191961
19550182700.0 -0.7543271251 -0.6561652509
19600182400.0 -0.7650296112 -0.64447552
19650182100.0 -0.7758703776 -0.6319537365
19700181800.0 -0.7862292883 -0.6188945159
19750181500.0 -0.7963337623 -0.6049054266
19800181200.0 -0.8066609897 -0.5899297159
19850180900.0 -0.8163735079 -0.574475012
19900180600.0 -0.8241242465 -0.5603376815
19950180300.0 -0.8330636018 -0.5439485562
20000180000.0 -0.823999736 -0.5468235552
20050179700.0 -0.8308873299 -0.5344095298
20100179400.0 -0.8399651719 -0.5213165972
20150179100.0 -0.8486666773 -0.5087555303
20200178800.0 -0.8575274966 -0.4966996389
20250178500.0 -0.8665675325 -0.4841793442
20300178200.0 -0.8761365869 -0.470831914
20350177900.0 -0.8853297732 -0.4565288945
20400177600.0 -0.8940190196 -0.4421793108
20450177300.0 -0.9026398021 -0.4279108267
20500177000.0 -0.9107817493 -0.4139810615
20550176700.0 -0.9184320308 -0.4004665474
20600176400.0 -0.9255463985 -0.387893935
20650176100.0 -0.9323464902 -0.3754087363
20700175800.0 -0.9387825309 -0.36383477
20750175500.0 -0.9454080041 -0.3521366066
20800175200.0 -0.9493674379 -0.3408541829
20850174900.0 -0.9545023439 -0.3305112755
20900174600.0 -0.9583570939 -0.3191072356
20950174300.0 -0.9621752715 -0.3074348189
21000174000.0 -0.9651978186 -0.2971076012
21050173700.0 -0.9670005042 -0.2876212352
21100173400.0 -0.9709996561 -0.2766941659
21150173100.0 -0.9746150774 -0.2646778229
21200172800.0 -0.9783354873 -0.2511702782
21250172500.0 -0.9819381391 -0.2374152363
21300172200.0 -0.9851574628 -0.223245884
21350171900.0 -0.9874354266 -0.2089724329
21400171600.0 -0.9893067731 -0.1949084163
21450171300.0 -0.9897453584 -0.1802441807
21500171000.0 -0.9894083736 -0.1648809875
21550170700.0 -0.9901341037 -0.1504112823
21600170400.0 -0.9907067331 -0.1355079007
21650170100.0 -0.9912302751 -0.1190835646
21700169800.0 -0.9904078205 -0.1036673517
21750169500.0 -0.9897582523 -0.0878492699
21800169200.0 -0.9898371951 -0.0710226895
21850168900.0 -0.9899808699 -0.0543856212
21900168600.0 -0.9889711368 -0.0382075676
21950168300.0 -0.9879099219 -0.0224483412
22000168000.0 -0.9882548378 -0.0069556932
22050167700.0 -0.9881551808 0.0072820474
22100167400.0 -0.9888740218 0.0226570724
22150167100.0 -0.9892150256 0.0389828515
22200166800.0 -0.9906473055 0.0552654237
22250166500.0 -0.989290071 0.072395611
22300166200.0 -0.9892303526 0.0888297927
22350165900.0 -0.9868246572 0.105063799
22400165600.0 -0.9860128101 0.1205489175
22450165300.0 -0.9843534682 0.1361512367
22500165000.0 -0.9824755009 0.1508617179
22550164700.0 -0.9821014049 0.1663223695
22600164400.0 -0.9795862805 0.1816031986
22650164100.0 -0.9761189872 0.1975291193
22700163800.0 -0.9737448684 0.2137374085
22750163500.0 -0.9706688663 0.2285403123
22800163200.0 -0.9682324905 0.2410781771
22850162900.0 -0.9651213654 0.2545531683
22900162600.0 -0.9633526863 0.2684721767
22950162300.0 -0.9620551059 0.2818809605
23000162000.0 -0.9601079937 0.2941261877
23050161700.0 -0.9576370504 0.3075696585
23100161400.0 -0.9552239337 0.320893123
23150161100.0 -0.952062943 0.3338190484
23200160800.0 -0.9491800656 0.346934942
23250160500.0 -0.9467640153 0.3593258905
23300160200.0 -0.9439650246 0.371641361
23350159900.0 -0.9404923349 0.3850496566
23400159600.0 -0.9346729131 0.3980427358
23450159300.0 -0.9302987843 0.4119358451
23500159000.0 -0.9253703416 0.425840368
23550158700.0 -0.9204275254 0.4392846773
23600158400.0 -0.9142890282 0.4532281229
23650158100.0 -0.9073145331 0.4678674673
23700157800.0 -0.8990427173 0.4820456395
23750157500.0 -0.8898401171 0.496275876
23800157200.0 -0.8806325959 0.5095058017
23850156900.0 -0.8712971053 0.5227109824
23900156600.0 -0.8610060876 0.5349093105
23950156300.0 -0.8519763354 0.5472661624
24000156000.0 -0.8432926408 0.5596086441
24050155700.0 -0.8317718144 0.5721435241
24100155400.0 -0.8211004994 0.5841021012
24150155100.0 -0.8110019828 0.596144304
24200154800.0 -0.8005004963 0.6082601491
24250154500.0 -0.7887108526 0.6203312826
24300154200.0 -0.7771277259 0.6321706475
24350153900.0 -0.7652861129 0.6430164597
24400153600.0 -0.7529830103 0.6535727551
24450153300.0 -0.7412384369 0.6639909485
24500153000.0 -0.729318618 0.6739593636
24550152700.0 -0.7179841748 0.6834412739
24600152400.0 -0.7062244583 0.6932647886
24650152100.0 -0.693450019 0.70205953
