!Created with skrf (http://scikit-rf.org).
# Hz S RI R 50.0 
!freq ReS11 ImS11
300000.0 -0.9749845648 -0.1201679668
50299700.0 -1.000032869 0.0151190589
100299400.0 -0.9980005059 0.0281754077
150299100.0 -1.002719986 0.0448778967
200298800.0 -0.9996903205 0.0583011104
250298500.0 -0.9975340207 0.0717447109
300298200.0 -0.9858664123 0.0876322362
350297900.0 -0.9938661899 0.0985406549
400297600.0 -0.9933027665 0.1151723053
450297300.0 -0.9910077955 0.1286655467
500297000.0 -0.9891371435 0.1435488606
550296700.0 -0.9842899913 0.1559365388
600296400.0 -1.017250359 0.1893429295
650296100.0 -0.982260256 0.1858482686
700295800.0 -0.9793796753 0.2001041653
750295500.0 -0.9762685349 0.2139883092
800295200.0 -0.972937284 0.228380039
850294900.0 -0.9697186707 0.2421522735
900294600.0 -0.9658810002 0.2556406098
950294300.0 -0.9621724929 0.269576636
1000294000.0 -0.9580915055 0.2834923667
1050293700.0 -0.9536134604 0.2972152717
1100293400.0 -0.9491835456 0.3118613576
1150293100.0 -0.9454890096 0.3234831651
1200292800.0 -0.9402343331 0.3378799109
1250292500.0 -0.9346189431 0.3513563164
1300292200.0 -0.9289828037 0.3646112558
1350291900.0 -0.9235159014 0.3786085845
1400291600.0 -0.9179734001 0.3916610312
1450291300.0 -0.9124219496 0.4042060498
1500291000.0 -0.9061215091 0.4174721563
1550290700.0 -0.8995401436 0.4307181199
1600290400.0 -0.893387194 0.4438786399
1650290100.0 -0.8868512803 0.4560172374
1700289800.0 -0.8798762396 0.4694285205
1750289500.0 -0.8727996191 0.4816036933
1800289200.0 -0.8655710718 0.4945991394
1850288900.0 -0.8585774617 0.5057622077
1900288600.0 -0.8511075528 0.5188417313
1950288300.0 -0.8429330231 0.5315217233
2000288000.0 -0.8354446048 0.5428753696
2050287700.0 -0.8271370854 0.55528985
2100287400.0 -0.8191220822 0.5665214897
2150287100.0 -0.8107657716 0.578943642
2200286800.0 -0.8030581761 0.5891837472
2250286500.0 -0.7939165454 0.601314306
2300286200.0 -0.7851931351 0.6128158285
2350285900.0 -0.7765850957 0.6238709264
2400285600.0 -0.7677051483 0.6348976897
2450285300.0 -0.7590570482 0.6450564575
2500285000.0 -0.7490004282 0.6567068158
2550284700.0 -0.7401690138 0.6671777424
2600284400.0 -0.7309485839 0.6770175613
2650284100.0 -0.7222742496 0.6873728584
2700283800.0 -0.7117050772 0.6979357608
2750283500.0 -0.7014076934 0.7084361376
2800283200.0 -0.6917213624 0.7185071729
2850282900.0 -0.6811923731 0.7283011414
2900282600.0 -0.6706790761 0.7378300429
2950282300.0 -0.6603861704 0.7473633135
3000282000.0 -0.6495569324 0.7569033613
3050281700.0 -0.6383951562 0.7659840327
3100281400.0 -0.6268586108 0.7750567995
3150281100.0 -0.6152799974 0.7841847188
3200280800.0 -0.6038173657 0.792478469
3250280500.0 -0.5929121851 0.8004715536
3300280200.0 -0.5812189075 0.8086563462
3350279900.0 -0.5693829468 0.8164923315
3400279600.0 -0.5568864435 0.8243979988
3450279300.0 -0.5457807741 0.8316714013
3500279000.0 -0.5339954736 0.8384214966
3550278700.0 -0.5217211578 0.845648041
3600278400.0 -0.5097628606 0.8524143636
3650278100.0 -0.4966291606 0.859910552
3700277800.0 -0.4845905331 0.8664307382
3750277500.0 -0.4723452733 0.8732376479
3800277200.0 -0.459677307 0.8796468829
3850276900.0 -0.4477149364 0.8855688587
3900276600.0 -0.4365348712 0.89127391
3950276300.0 -0.4247132969 0.8972321414
4000276000.0 -0.4127032418 0.9033837531
4050275700.0 -0.4001965119 0.9092253535
4100275400.0 -0.3889504277 0.914682844
4150275100.0 -0.3760846304 0.9203138121
4200274800.0 -0.3627190609 0.9260167583
4250274500.0 -0.3502489557 0.931268707
4300274200.0 -0.3369291715 0.9365647537
4350273900.0 -0.3227658448 0.9420059428
4400273600.0 -0.3081264173 0.9472709543
4450273300.0 -0.293095381 0.9520242921
4500273000.0 -0.2797918962 0.9565631993
4550272700.0 -0.2659429983 0.9606804645
4600272400.0 -0.2507299361 0.9649575139
4650272100.0 -0.2393066223 0.9680597391
4700271800.0 -0.2263252071 0.971282011
4750271500.0 -0.214517679 0.9741343019
4800271200.0 -0.2023418342 0.9768450845
4850270900.0 -0.1884738345 0.979575203
4900270600.0 -0.174719797 0.9820303838
4950270300.0 -0.1600555757 0.9847282893
5000270000.0 -0.1457296375 0.9867211609
5050269700.0 -0.1323723662 0.9884285507
5100269400.0 -0.1182537795 0.989933253
5150269100.0 -0.1046860624 0.9917180334
5200268800.0 -0.0911277422 0.9928922328
5250268500.0 -0.0781274099 0.9939280663
5300268200.0 -0.0644636062 0.9941737582
5350267900.0 -0.0518908455 0.995252836
5400267600.0 -0.0357745416 0.9961178637
5450267300.0 -0.0223577868 0.996482911
5500267000.0 -0.0074131582 0.9970459622
5550266700.0 0.0076762234 0.9973101759
5600266400.0 0.0233787733 0.9972520865
5650266100.0 0.0400049511 0.9969383084
5700265800.0 0.0543226965 0.9959724949
5750265500.0 0.0694650402 0.9954990391
5800265200.0 0.0831092332 0.9943007704
5850264900.0 0.0964561162 0.9939616114
5900264600.0 0.1125127422 0.991330469
5950264300.0 0.1246245174 0.9898975238
6000264000.0 0.138053158 0.9880916518
6050263700.0 0.1498733253 0.9865007114
6100263400.0 0.1623123088 0.9849195066
6150263100.0 0.1771014707 0.9823579721
6200262800.0 0.186631659 0.981103079
6250262500.0 0.1993248682 0.9786735281
6300262200.0 0.211925784 0.9761510138
6350261900.0 0.2249786408 0.9732072918
6400261600.0 0.2386924326 0.9699594629
6450261300.0 0.2498753563 0.9673917709
6500261000.0 0.2632380729 0.9638066129
6550260700.0 0.2763427914 0.9599167548
6600260400.0 0.2897235727 0.9557760528
6650260100.0 0.303336707 0.9514108061
6700259800.0 0.3158353172 0.9471545541
6750259500.0 0.3291918101 0.9421370309
6800259200.0 0.3428195318 0.9372127776
6850258900.0 0.3551635665 0.9318862963
6900258600.0 0.3675478376 0.9265471387
6950258300.0 0.3799326514 0.9214523654
7000258000.0 0.3918889406 0.9161522236
7050257700.0 0.4038074663 0.9101957051
7100257400.0 0.4169322821 0.9037277187
7150257100.0 0.4275228144 0.8985864207
7200256800.0 0.4405395648 0.8920882355
7250256500.0 0.4528546045 0.8853219399
7300256200.0 0.465590792 0.8785188187
7350255900.0 0.4785714134 0.8718532272
7400255600.0 0.4919880134 0.8641180452
7450255300.0 0.5076878041 0.8550707286
7500255000.0 0.5202223376 0.8477690234
7550254700.0 0.5342758855 0.8388251856
7600254400.0 0.5465445104 0.8304857847
7650254100.0 0.5579949526 0.8227033009
7700253800.0 0.5700803646 0.8147490708
7750253500.0 0.581439802 0.8070946217
7800253200.0 0.5917314073 0.7994742839
7850252900.0 0.6015145247 0.7922336783
7900252600.0 0.6132578294 0.7833366378
7950252300.0 0.621637179 0.7768977907
8000252000.0 0.6315642504 0.769288528
8050251700.0 0.6420863508 0.7611387142
8100251400.0 0.6518868882 0.7532476708
8150251100.0 0.6621760177 0.7444727396
8200250800.0 0.6715720006 0.7363288917
8250250500.0 0.680067899 0.7285848756
8300250200.0 0.6896356522 0.7202308432
8350249900.0 0.6988171321 0.7112724015
8400249600.0 0.706807558 0.7032682315
8450249300.0 0.7156553618 0.6943810185
8500249000.0 0.7243431401 0.6855850161
8550248700.0 0.7326503675 0.6765907081
8600248400.0 0.7407778707 0.6670616885
8650248100.0 0.7485238278 0.6576684922
8700247800.0 0.7579362188 0.6466433825
8750247500.0 0.7662817895 0.6363669358
8800247200.0 0.7742547504 0.6261606883
8850246900.0 0.7830235492 0.6147198362
8900246600.0 0.7914840252 0.6033120149
8950246300.0 0.8008410269 0.59051584
9000246000.0 0.8098599612 0.5782094659
9050245700.0 0.8184389159 0.565740702
9100245400.0 0.826635027 0.5538674969
9150245100.0 0.8360189095 0.5401505882
9200244800.0 0.845411463 0.5257594904
9250244500.0 0.8544648145 0.5107887509
9300244200.0 0.8628787964 0.4970034247
9350243900.0 0.8702789211 0.4834621792
9400243600.0 0.8769924909 0.4715486794
9450243300.0 0.8827234041 0.4607224072
9500243000.0 0.8887013185 0.4489609809
9550242700.0 0.8928020382 0.4413846101
9600242400.0 0.8969774004 0.4337960405
9650242100.0 0.900948531 0.4269238788
9700241800.0 0.9059320391 0.418365081
9750241500.0 0.909785664 0.4112038525
9800241200.0 0.9145775692 0.4016486632
9850240900.0 0.9202869393 0.3899509558
9900240600.0 0.9261022479 0.3781734448
9950240300.0 0.9332886802 0.3615678277
10000240000.0 0.9384012965 0.3496703622
10050239700.0 0.9441453704 0.3340028824
10100239400.0 0.9493001437 0.3177159085
10150239100.0 0.9537530643 0.3024445894
10200238800.0 0.9581658325 0.2873476599
10250238500.0 0.9616216079 0.2737494048
10300238200.0 0.9647021188 0.2597101975
10350237900.0 0.9673948261 0.2466360001
10400237600.0 0.9700572131 0.2330035897
10450237300.0 0.9726560831 0.2195000789
10500237000.0 0.9749072383 0.2072935948
10550236700.0 0.9771663167 0.1930502852
10600236400.0 0.9792621513 0.1785777071
10650236100.0 0.9813458933 0.1641953597
10700235800.0 0.9834959429 0.1521676752
10750235500.0 0.9864468361 0.1383845491
10800235200.0 0.9878041755 0.1242599249
10850234900.0 0.9895244689 0.1097324045
10900234600.0 0.9919267815 0.0948955959
10950234300.0 0.9936227022 0.0813602746
11000234000.0 0.9955372096 0.0659898474
11050233700.0 0.9973429234 0.049369409
11100233400.0 0.9985691147 0.0319441731
11150233100.0 1.000044296 0.0148978508
11200232800.0 1.000638484 -0.0006774674
11250232500.0 1.001454263 -0.0174760824
11300232200.0 1.002189399 -0.0367575247
11350231900.0 1.001826268 -0.0522040836
11400231600.0 1.00157484 -0.0668040468
11450231300.0 1.00069018 -0.0834069923
11500231000.0 0.9994764546 -0.0996471946
11550230700.0 0.9980083118 -0.1131013893
11600230400.0 0.9971854855 -0.1262898539
11650230100.0 0.9945281671 -0.1371425325
11700229800.0 0.9925120778 -0.152612804
11750229500.0 0.9903649936 -0.1668457064
11800229200.0 0.9875254574 -0.1799050136
11850228900.0 0.9839867688 -0.1917597729
11900228600.0 0.9802022127 -0.2013836813
11950228300.0 0.9769583274 -0.2112501825
12000228000.0 0.9741674523 -0.2203028651
12050227700.0 0.9710026265 -0.2324113825
12100227400.0 0.9671871809 -0.2442813111
12150227100.0 0.9617214798 -0.2610191429
12200226800.0 0.9587233246 -0.271526209
12250226500.0 0.9547684376 -0.2843303016
12300226200.0 0.9501354795 -0.296898587
12350225900.0 0.9449572649 -0.311361118
12400225600.0 0.9411568047 -0.3234917903
12450225300.0 0.9364154587 -0.3362714549
12500225000.0 0.9308672203 -0.3511076996
12550224700.0 0.9256893981 -0.3641391736
12600224400.0 0.9206553908 -0.3770913444
12650224100.0 0.9148414265 -0.3914448723
12700223800.0 0.9095476048 -0.4044258082
12750223500.0 0.9041860744 -0.4172475485
12800223200.0 0.8988979953 -0.4296434159
12850222900.0 0.8934359166 -0.4416210876
12900222600.0 0.8875855231 -0.4541750366
12950222300.0 0.881673633 -0.4669409415
13000222000.0 0.8757297426 -0.4781813626
13050221700.0 0.8687496604 -0.4912171033
13100221400.0 0.8625493074 -0.5030877942
13150221100.0 0.8553007709 -0.5158463559
13200220800.0 0.8484243844 -0.526763718
13250220500.0 0.8410322659 -0.5392915959
13300220200.0 0.833716937 -0.5499610828
13350219900.0 0.8255244057 -0.5620219926
13400219600.0 0.817016166 -0.5740611758
13450219300.0 0.8077301255 -0.5872366988
13500219000.0 0.7974946882 -0.6006952465
13550218700.0 0.7879571418 -0.6127339266
13600218400.0 0.7783749805 -0.6251792516
13650218100.0 0.7685754747 -0.6357322553
13700217800.0 0.7576472432 -0.6481899336
13750217500.0 0.7483835824 -0.6584746255
13800217200.0 0.7373314866 -0.6708266695
13850216900.0 0.7263052001 -0.6815996652
13900216600.0 0.7164089233 -0.6908860869
13950216300.0 0.7053367232 -0.7011642438
14000216000.0 0.695700188 -0.7097631617
14050215700.0 0.686309687 -0.7175441984
14100215400.0 0.6765558605 -0.7270781867
14150215100.0 0.6672709141 -0.735918628
14200214800.0 0.657792757 -0.7443288437
14250214500.0 0.6474765327 -0.7537267402
14300214200.0 0.6371027957 -0.7631071145
14350213900.0 0.625911319 -0.7726937147
14400213600.0 0.6142852674 -0.7830570509
14450213300.0 0.6011556761 -0.7926673219
14500213000.0 0.588027754 -0.8026955887
14550212700.0 0.5752399978 -0.8121389342
14600212400.0 0.563284344 -0.8211544736
14650212100.0 0.5506091974 -0.8297257543
14700211800.0 0.5366919495 -0.8393371724
14750211500.0 0.5241935737 -0.847371049
14800211200.0 0.5116961965 -0.8556947607
14850210900.0 0.4995836973 -0.8633945537
14900210600.0 0.4861541291 -0.8710931362
14950210300.0 0.4731325094 -0.8786373951
15000210000.0 0.4603654933 -0.8855026351
15050209700.0 0.4479894151 -0.8915517256
15100209400.0 0.4354168865 -0.8980425244
15150209100.0 0.4231243522 -0.9032453542
15200208800.0 0.410324711 -0.9086494893
15250208500.0 0.399185749 -0.9129876607
15300208200.0 0.3862863028 -0.9171848533
15350207900.0 0.3744941256 -0.921764438
15400207600.0 0.3586616933 -0.9278811452
15450207300.0 0.3449373099 -0.9324662341
15500207000.0 0.3302933364 -0.9371443813
15550206700.0 0.3153592861 -0.9423789954
15600206400.0 0.2991625964 -0.9470625661
15650206100.0 0.283573485 -0.9508505389
15700205800.0 0.2697739221 -0.9546594866
15750205500.0 0.2556245857 -0.9582136774
15800205200.0 0.2415037624 -0.9614401052
15850204900.0 0.2273787445 -0.964995643
15900204600.0 0.2123106516 -0.9686316422
15950204300.0 0.1979653567 -0.9717302166
16000204000.0 0.1835549716 -0.974690805
16050203700.0 0.1688371452 -0.9774679962
16100203400.0 0.1536654209 -0.9798989168
16150203100.0 0.1390843279 -0.9818931947
16200202800.0 0.1249356041 -0.98425944
16250202500.0 0.1097294227 -0.9862283078
16300202200.0 0.0945008081 -0.9877586464
16350201900.0 0.0794951314 -0.9890723146
16400201600.0 0.0651032658 -0.9901306951
16450201300.0 0.0495189553 -0.9912076059
16500201000.0 0.0324611557 -0.9920791097
16550200700.0 0.0166679077 -0.9925459759
16600200400.0 0.0007862918 -0.9927671023
16650200100.0 -0.0155445013 -0.992410125
16700199800.0 -0.0317772423 -0.9922196497
16750199500.0 -0.0502342014 -0.992095698
16800199200.0 -0.0664134517 -0.9909052289
16850198900.0 -0.0816811058 -0.9895193539
16900198600.0 -0.0953815972 -0.9884992301
16950198300.0 -0.109664372 -0.9876286173
17000198000.0 -0.1230247147 -0.9858774925
17050197700.0 -0.1349801099 -0.9845967878
17100197400.0 -0.1482935243 -0.9821069162
17150197100.0 -0.1604511002 -0.9799695755
17200196800.0 -0.1732810453 -0.9780249199
17250196500.0 -0.186274103 -0.975674123
17300196200.0 -0.198268474 -0.9730725168
17350195900.0 -0.2102856251 -0.9709850061
17400195600.0 -0.2222967964 -0.9682972368
17450195300.0 -0.2352753723 -0.9656723487
17500195000.0 -0.248902189 -0.962115999
17550194700.0 -0.2627769188 -0.9585587285
17600194400.0 -0.2765869108 -0.9544954919
17650194100.0 -0.2898848735 -0.9506984534
17700193800.0 -0.3032089667 -0.9461606464
17750193500.0 -0.3172121671 -0.9417252801
17800193200.0 -0.3313130542 -0.9359623877
17850192900.0 -0.346832414 -0.9312170209
17900192600.0 -0.361856874 -0.9247345851
17950192300.0 -0.3774947183 -0.9181250637
18000192000.0 -0.3919489417 -0.9107886936
18050191700.0 -0.4058535979 -0.9027038631
18100191400.0 -0.4201066059 -0.8952305253
18150191100.0 -0.4349838474 -0.8871032559
18200190800.0 -0.4518509452 -0.8780759073
18250190500.0 -0.4688769741 -0.8685068265
18300190200.0 -0.4843792484 -0.85967169
18350189900.0 -0.4995074428 -0.8517202294
18400189600.0 -0.5138933599 -0.8433001275
18450189300.0 -0.5270963786 -0.834975665
18500189000.0 -0.540971032 -0.8273474307
18550188700.0 -0.5532398845 -0.8194751141
18600188400.0 -0.5655894234 -0.8124036738
18650188100.0 -0.5763103561 -0.8062175192
18700187800.0 -0.587350001 -0.799613598
18750187500.0 -0.5981294008 -0.7927750045
18800187200.0 -0.6086248544 -0.7859181004
18850186900.0 -0.6187571491 -0.7789508588
18900186600.0 -0.6291478622 -0.7715103666
18950186300.0 -0.639183955 -0.7637469279
19000186000.0 -0.6466301734 -0.7575017264
19050185700.0 -0.6559715316 -0.7503207168
19100185400.0 -0.6660030697 -0.7422878963
19150185100.0 -0.6762918808 -0.7341806468
19200184800.0 -0.6852543526 -0.7253472049
19250184500.0 -0.6954902869 -0.7158554812
19300184200.0 -0.7074073397 -0.7066258431
19350183900.0 -0.7184530378 -0.6967219859
19400183600.0 -0.7276149981 -0.6869395706
19450183300.0 -0.7370416952 -0.6766538396
19500183000.0 -0.7443368766 -0.6669927768
19550182700.0 -0.7543401466 -0.6562121754
19600182400.0 -0.7651169406 -0.6442640944
19650182100.0 -0.7754950581 -0.632579394
19700181800.0 -0.7862784513 -0.6186001598
19750181500.0 -0.7967571553 -0.6044739284
19800181200.0 -0.8069817039 -0.589670722
19850180900.0 -0.8165367779 -0.5743322015
19900180600.0 -0.8243348716 -0.5598887676
19950180300.0 -0.8333665881 -0.5434553603
20000180000.0 -0.8248892515 -0.5458825584
20050179700.0 -0.832548993 -0.5349049701
20100179400.0 -0.8404854918 -0.5205715091
20150179100.0 -0.8485544664 -0.5088141556
20200178800.0 -0.8577822812 -0.4965274931
20250178500.0 -0.8676221399 -0.4841032449
20300178200.0 -0.8766008157 -0.4699743551
20350177900.0 -0.8858892222 -0.4558712695
20400177600.0 -0.8946840672 -0.4419285781
20450177300.0 -0.9033640038 -0.4271616455
20500177000.0 -0.9110498708 -0.413203626
20550176700.0 -0.9186915483 -0.3994731223
20600176400.0 -0.9261181287 -0.387102531
20650176100.0 -0.9324874058 -0.3742562847
20700175800.0 -0.9394037404 -0.362774791
20750175500.0 -0.945330734 -0.3508460436
20800175200.0 -0.9502815648 -0.3395314245
20850174900.0 -0.9544203926 -0.3288012049
20900174600.0 -0.9591015773 -0.3191408629
20950174300.0 -0.9630946781 -0.3080620548
21000174000.0 -0.9647956865 -0.2958171216
21050173700.0 -0.9682810595 -0.2862968154
21100173400.0 -0.971449866 -0.2740730381
21150173100.0 -0.9756426557 -0.262678135
21200172800.0 -0.97960014 -0.2497650566
21250172500.0 -0.9827794528 -0.2360517419
21300172200.0 -0.9860363393 -0.2216175519
21350171900.0 -0.9881035227 -0.2073271491
21400171600.0 -0.9896800013 -0.1936540311
21450171300.0 -0.9905088462 -0.179326635
21500171000.0 -0.9901204618 -0.1634752737
21550170700.0 -0.9914028084 -0.1489708653
21600170400.0 -0.9902074103 -0.133035929
21650170100.0 -0.9912946975 -0.117974426
21700169800.0 -0.9900190736 -0.102809867
21750169500.0 -0.9897056527 -0.0857934532
21800169200.0 -0.9888295382 -0.0693931448
21850168900.0 -0.9892465395 -0.0527908082
21900168600.0 -0.9887184111 -0.0367694751
21950168300.0 -0.9883340288 -0.0216507787
22000168000.0 -0.9871036891 -0.0063558407
22050167700.0 -0.9876878959 0.0086980202
22100167400.0 -0.9879625863 0.0240896358
22150167100.0 -0.9888923886 0.0404015252
22200166800.0 -0.9889953866 0.0562257509
22250166500.0 -0.9887718928 0.0738291506
22300166200.0 -0.9886992914 0.0901223242
22350165900.0 -0.9863337466 0.1063491113
22400165600.0 -0.9852818552 0.1218341843
22450165300.0 -0.9839402747 0.1374986659
22500165000.0 -0.9816407506 0.1520559307
22550164700.0 -0.9815068025 0.1674245361
22600164400.0 -0.9787812579 0.1842020525
22650164100.0 -0.9756448935 0.1988878
22700163800.0 -0.9728641522 0.2141592608
22750163500.0 -0.970303854 0.2295348715
22800163200.0 -0.9671873667 0.242812375
22850162900.0 -0.964549278 0.2561721256
22900162600.0 -0.9629019046 0.2698377367
22950162300.0 -0.9618161786 0.2830614292
23000162000.0 -0.9598777447 0.2956264081
23050161700.0 -0.9572752286 0.3091031548
23100161400.0 -0.9549401585 0.3220200089
23150161100.0 -0.9515592481 0.3345386147
23200160800.0 -0.9494694754 0.3477828496
23250160500.0 -0.9455833308 0.3589837273
23300160200.0 -0.9431773145 0.3717370703
23350159900.0 -0.9395128643 0.3860955195
23400159600.0 -0.9351714748 0.3987678614
23450159300.0 -0.9297255621 0.4131278491
23500159000.0 -0.9249155828 0.4259671359
23550158700.0 -0.9201251575 0.4402083033
23600158400.0 -0.9143563762 0.4539764515
23650158100.0 -0.9073113944 0.4681629386
23700157800.0 -0.8991802836 0.4826243057
23750157500.0 -0.8901796539 0.4965447397
23800157200.0 -0.8806935503 0.5098193004
23850156900.0 -0.8710109653 0.5224596389
23900156600.0 -0.8621926804 0.5351029484
23950156300.0 -0.8519002265 0.5477642484
24000156000.0 -0.842402483 0.5601502613
24050155700.0 -0.8312525864 0.5721531498
24100155400.0 -0.8223225543 0.5847549526
24150155100.0 -0.8109007282 0.5964616097
24200154800.0 -0.7994116162 0.6081354212
24250154500.0 -0.7891002836 0.6202318085
24300154200.0 -0.7772514933 0.632012418
24350153900.0 -0.7651627662 0.6434081608
24400153600.0 -0.7528408012 0.6533875576
24450153300.0 -0.7412786123 0.6639596706
24500153000.0 -0.7294861249 0.673920993
24550152700.0 -0.7183664829 0.6834692492
24600152400.0 -0.7059342918 0.6926948991
24650152100.0 -0.6943380239 0.7006296797
