!Created with skrf (http://scikit-rf.org).
# Hz S RI R 50.0 
!freq ReS11 ImS11
300000.0 -0.976403405 -0.1152092718
50299700.0 -1.000172869 0.0155250844
100299400.0 -0.9980886066 0.0283431843
150299100.0 -1.002759072 0.045504307
200298800.0 -0.9996617799 0.0585823455
250298500.0 -0.9973513233 0.0719336858
300298200.0 -0.9858060915 0.0881533602
350297900.0 -0.9940217201 0.0987959719
400297600.0 -0.9932513274 0.1156413879
450297300.0 -0.9913312519 0.1291970151
500297000.0 -0.9895403692 0.1439756558
550296700.0 -0.9844920358 0.1565974271
600296400.0 -1.017316802 0.1898742029
650296100.0 -0.9821634925 0.1862396737
700295800.0 -0.9791414658 0.2008056156
750295500.0 -0.9765004166 0.2147031507
800295200.0 -0.973098645 0.2288897387
850294900.0 -0.9697252684 0.2424923708
900294600.0 -0.9659517508 0.2560931463
950294300.0 -0.9621142656 0.2701344302
1000294000.0 -0.9580741927 0.2840110503
1050293700.0 -0.9536824246 0.2978070995
1100293400.0 -0.9494118346 0.3121379352
1150293100.0 -0.9456036802 0.3241228692
1200292800.0 -0.9401596753 0.3384761628
1250292500.0 -0.934608807 0.3517366218
1300292200.0 -0.9289231913 0.3650497468
1350291900.0 -0.9234854779 0.3791191835
1400291600.0 -0.9179886177 0.3923212106
1450291300.0 -0.9123032356 0.4047034599
1500291000.0 -0.9061013461 0.4180202492
1550290700.0 -0.8993888873 0.4312219552
1600290400.0 -0.893334685 0.4442274715
1650290100.0 -0.8867547873 0.456469584
1700289800.0 -0.8797871403 0.4698778558
1750289500.0 -0.872765591 0.4821695484
1800289200.0 -0.8653373075 0.4949390808
1850288900.0 -0.8585209315 0.5063061058
1900288600.0 -0.8508050959 0.5194364456
1950288300.0 -0.8425764901 0.5318672706
2000288000.0 -0.83511727 0.5434551243
2050287700.0 -0.8271509779 0.5555801054
2100287400.0 -0.8191479414 0.5675101786
2150287100.0 -0.8103655994 0.5793392524
2200286800.0 -0.8026529992 0.5896478428
2250286500.0 -0.7940211043 0.601456356
2300286200.0 -0.7850392219 0.6134514422
2350285900.0 -0.7763291897 0.6242004382
2400285600.0 -0.7672925093 0.6352131602
2450285300.0 -0.758786576 0.6456359761
2500285000.0 -0.7489548314 0.6571144343
2550284700.0 -0.7400859782 0.667329356
2600284400.0 -0.7308606132 0.6776710572
2650284100.0 -0.7218010825 0.687887032
2700283800.0 -0.7112333565 0.6987403264
2750283500.0 -0.7007904169 0.7092432803
2800283200.0 -0.6908722656 0.7188372384
2850282900.0 -0.6806798434 0.7284792288
2900282600.0 -0.6704462486 0.7382044108
2950282300.0 -0.6603148114 0.7476698806
3000282000.0 -0.6494950659 0.7569571605
3050281700.0 -0.6385786514 0.7660890697
3100281400.0 -0.6265152046 0.7757289593
3150281100.0 -0.6145338185 0.7848728231
3200280800.0 -0.60305352 0.7935702478
3250280500.0 -0.5921458505 0.8011400725
3300280200.0 -0.5810111429 0.8089584739
3350279900.0 -0.5693785712 0.8165553065
3400279600.0 -0.5573079152 0.8241470934
3450279300.0 -0.5462010689 0.8312656434
3500279000.0 -0.534091109 0.8383556361
3550278700.0 -0.5217885017 0.8457464539
3600278400.0 -0.5095176555 0.8530051675
3650278100.0 -0.496188489 0.8606371954
3700277800.0 -0.4839790216 0.8668372636
3750277500.0 -0.4720997734 0.8733949969
3800277200.0 -0.4595390247 0.8802521608
3850276900.0 -0.4474540487 0.8858219521
3900276600.0 -0.436497389 0.8914728264
3950276300.0 -0.4241256004 0.8974903358
4000276000.0 -0.4121295611 0.9035986572
4050275700.0 -0.399152175 0.9095535474
4100275400.0 -0.387980984 0.915096182
4150275100.0 -0.3752400501 0.9207879226
4200274800.0 -0.3624364447 0.9263937707
4250274500.0 -0.3501802575 0.9316980286
4300274200.0 -0.3371648181 0.9365406396
4350273900.0 -0.3233924358 0.9421002005
4400273600.0 -0.3086290953 0.9472664638
4450273300.0 -0.2930305373 0.9523976188
4500273000.0 -0.2794122339 0.9566760535
4550272700.0 -0.2652539683 0.9609147409
4600272400.0 -0.2497486861 0.965278883
4650272100.0 -0.2380779787 0.9683560636
4700271800.0 -0.2247149012 0.9717402673
4750271500.0 -0.2131029313 0.9746019963
4800271200.0 -0.2005729754 0.9772100194
4850270900.0 -0.186751944 0.9800110387
4900270600.0 -0.1728200627 0.9824911248
4950270300.0 -0.1583851938 0.9851539344
5000270000.0 -0.1443270789 0.9870727129
5050269700.0 -0.1307630701 0.9887475832
5100269400.0 -0.117249411 0.9904202303
5150269100.0 -0.1037540739 0.9920825528
5200268800.0 -0.0905170072 0.9928180672
5250268500.0 -0.0776779071 0.9940375722
5300268200.0 -0.0645949611 0.99461893
5350267900.0 -0.0522289182 0.9951803788
5400267600.0 -0.0360624087 0.9960500748
5450267300.0 -0.0230082479 0.9966589266
5500267000.0 -0.0077122573 0.9970839876
5550266700.0 0.0072377946 0.9973692473
5600266400.0 0.0226738783 0.9971275769
5650266100.0 0.0394219561 0.9972185941
5700265800.0 0.0537609253 0.9960969386
5750265500.0 0.0689301989 0.9953929385
5800265200.0 0.0828376934 0.9941919536
5850264900.0 0.0961835088 0.9932550953
5900264600.0 0.1126392671 0.9913638109
5950264300.0 0.1250425397 0.9896129933
6000264000.0 0.1389328127 0.9882788999
6050263700.0 0.1515204594 0.986443182
6100263400.0 0.1637597325 0.9849045857
6150263100.0 0.1783122443 0.9824270703
6200262800.0 0.1888865348 0.980781821
6250262500.0 0.2014278569 0.9783224359
6300262200.0 0.2142377703 0.9756614027
6350261900.0 0.227363723 0.9727143002
6400261600.0 0.2409584752 0.9693469827
6450261300.0 0.2524414775 0.9667561861
6500261000.0 0.2653309993 0.9631371147
6550260700.0 0.2784456559 0.9592561311
6600260400.0 0.2916038623 0.954855857
6650260100.0 0.3054699946 0.9508311296
6700259800.0 0.3179484909 0.9467277956
6750259500.0 0.331316056 0.9413331787
6800259200.0 0.3444430596 0.9365336975
6850258900.0 0.3564305948 0.9313884836
6900258600.0 0.3687168672 0.9263380591
6950258300.0 0.3810498198 0.9211514294
7000258000.0 0.3930392325 0.9156349357
7050257700.0 0.4051944193 0.9094868079
7100257400.0 0.4179984887 0.9033478733
7150257100.0 0.4282553917 0.8980855257
7200256800.0 0.4411731224 0.8918411734
7250256500.0 0.4529243574 0.8853791891
7300256200.0 0.4656607389 0.8783631824
7350255900.0 0.4786132757 0.8716777018
7400255600.0 0.4914372262 0.864470903
7450255300.0 0.5068454243 0.8554457683
7500255000.0 0.5187827887 0.8483488306
7550254700.0 0.5327437894 0.8398653025
7600254400.0 0.5452300364 0.8315934966
7650254100.0 0.556983193 0.8237214796
7700253800.0 0.5685604214 0.8157330862
7750253500.0 0.5800296942 0.808030707
7800253200.0 0.5906634452 0.8002140526
7850252900.0 0.6002260294 0.7932434603
7900252600.0 0.6119087486 0.7846213153
7950252300.0 0.620692924 0.7779843079
8000252000.0 0.6308898568 0.7703247058
8050251700.0 0.6415763863 0.7621753102
8100251400.0 0.6513918302 0.754019745
8150251100.0 0.661570682 0.7455180922
8200250800.0 0.6708296159 0.7373342166
8250250500.0 0.6797163962 0.7295220668
8300250200.0 0.6896564132 0.7209041982
8350249900.0 0.6983490069 0.7121283825
8400249600.0 0.7065743309 0.7040556661
8450249300.0 0.7155408109 0.695014457
8500249000.0 0.7239405717 0.6862766063
8550248700.0 0.7324987054 0.676985931
8600248400.0 0.7407822322 0.6675453925
8650248100.0 0.7486980432 0.6581448923
8700247800.0 0.7581719491 0.6469789611
8750247500.0 0.766587633 0.6367424433
8800247200.0 0.774634647 0.6264359414
8850246900.0 0.7835042483 0.6149414853
8900246600.0 0.7918570447 0.6037538076
8950246300.0 0.8017419931 0.5905793704
9000246000.0 0.8109923214 0.57765762
9050245700.0 0.8195690905 0.56508327
9100245400.0 0.828629008 0.5522294697
9150245100.0 0.8380630371 0.5385753476
9200244800.0 0.8478471389 0.5231801554
9250244500.0 0.8572008427 0.5075774212
9300244200.0 0.8658278216 0.4929585925
9350243900.0 0.8735000728 0.4793002717
9400243600.0 0.8801275033 0.4666952577
9450243300.0 0.8859346902 0.4551101067
9500243000.0 0.8921888833 0.4429793673
9550242700.0 0.8958567047 0.4351889148
9600242400.0 0.8999435192 0.427999037
9650242100.0 0.9035150014 0.4214296449
9700241800.0 0.9079276721 0.4134052767
9750241500.0 0.9118955012 0.4060021245
9800241200.0 0.9167503164 0.3966370997
9850240900.0 0.922423128 0.3852045913
9900240600.0 0.9278923407 0.3732864767
9950240300.0 0.9346286413 0.357078512
10000240000.0 0.93906996 0.3457455917
10050239700.0 0.9449059944 0.3305915673
10100239400.0 0.9497791446 0.3151035899
10150239100.0 0.9543149156 0.3003163114
10200238800.0 0.9584019297 0.2856010225
10250238500.0 0.961504923 0.2719299483
10300238200.0 0.9647655377 0.2583345215
10350237900.0 0.9672992862 0.2450750683
10400237600.0 0.9699524738 0.2318606214
10450237300.0 0.9725990169 0.218773829
10500237000.0 0.9748713577 0.2060711673
10550236700.0 0.9768328917 0.1921054315
10600236400.0 0.9791570043 0.1781412479
10650236100.0 0.9810140771 0.1638391708
10700235800.0 0.9834172472 0.1510652389
10750235500.0 0.9853362879 0.1387637144
10800235200.0 0.9878564287 0.1243723046
10850234900.0 0.9892320771 0.1098479407
10900234600.0 0.9915594614 0.0951731976
10950234300.0 0.9933856605 0.0818422828
11000234000.0 0.9951118635 0.066469186
11050233700.0 0.9970128638 0.0502157325
11100233400.0 0.9984631144 0.0328900541
11150233100.0 0.999672481 0.0167244061
11200232800.0 1.000186121 0.0010748817
11250232500.0 1.001125612 -0.0150164913
11300232200.0 1.001573053 -0.0328097125
11350231900.0 1.001911711 -0.0494019932
11400231600.0 1.001062781 -0.0643660062
11450231300.0 1.001519296 -0.0796608953
11500231000.0 0.9998315902 -0.0969160235
11550230700.0 0.9985124357 -0.1086582263
11600230400.0 0.9969382327 -0.1222450732
11650230100.0 0.9951225576 -0.133191944
11700229800.0 0.9932690917 -0.1477719168
11750229500.0 0.9908407471 -0.1627138964
11800229200.0 0.9879676994 -0.1761846888
11850228900.0 0.9842781038 -0.1887434454
11900228600.0 0.9809760168 -0.1984568947
11950228300.0 0.9777208884 -0.208879917
12000228000.0 0.9750044013 -0.2175747379
12050227700.0 0.9717108475 -0.2304660068
12100227400.0 0.9688304707 -0.2410553811
12150227100.0 0.9632708335 -0.2582504752
12200226800.0 0.9594885292 -0.2688365022
12250226500.0 0.9558871818 -0.2816232702
12300226200.0 0.950856059 -0.2944102136
12350225900.0 0.9463548442 -0.3077523172
12400225600.0 0.9420627251 -0.3200401567
12450225300.0 0.9378365086 -0.3339039097
12500225000.0 0.9322244514 -0.3488277633
12550224700.0 0.9269866083 -0.362335497
12600224400.0 0.9221107621 -0.375365123
12650224100.0 0.9162314857 -0.3895788965
12700223800.0 0.9109932764 -0.4024293569
12750223500.0 0.9054357502 -0.4152577453
12800223200.0 0.9000968545 -0.4280197275
12850222900.0 0.8945750927 -0.4400739751
12900222600.0 0.8888657416 -0.4524505829
12950222300.0 0.8827994218 -0.4652235711
13000222000.0 0.8766996149 -0.4768835909
13050221700.0 0.8703840216 -0.4890649468
13100221400.0 0.8634312782 -0.5011817101
13150221100.0 0.8567891952 -0.5133447537
13200220800.0 0.8494835181 -0.5247012447
13250220500.0 0.8424845361 -0.5369296668
13300220200.0 0.8348590756 -0.5478045746
13350219900.0 0.8270755749 -0.5596544901
13400219600.0 0.8185961645 -0.5716917885
13450219300.0 0.8091032744 -0.5854945522
13500219000.0 0.7990667485 -0.5991901259
13550218700.0 0.7884872139 -0.6122438691
13600218400.0 0.7786567285 -0.6247887892
13650218100.0 0.7685597958 -0.635162762
13700217800.0 0.7572708267 -0.6480276716
13750217500.0 0.7475153313 -0.6592980058
13800217200.0 0.7367631571 -0.6708633335
13850216900.0 0.7254565274 -0.6826129986
13900216600.0 0.7150902149 -0.6917144748
13950216300.0 0.7044114366 -0.7022881536
14000216000.0 0.6945442237 -0.7116644534
14050215700.0 0.6851863075 -0.7194411532
14100215400.0 0.6750652029 -0.7282400279
14150215100.0 0.6661073361 -0.736862492
14200214800.0 0.656732562 -0.7454233097
14250214500.0 0.6465220407 -0.7548395564
14300214200.0 0.6361530825 -0.7641702701
14350213900.0 0.6251823518 -0.7736708869
14400213600.0 0.6133873489 -0.7835041196
14450213300.0 0.6003890307 -0.793776808
14500213000.0 0.5874231414 -0.8036800766
14550212700.0 0.574354707 -0.8133557741
14600212400.0 0.5620247592 -0.8220478957
14650212100.0 0.5493232058 -0.8307333731
14700211800.0 0.5351209295 -0.8399922253
14750211500.0 0.5232511684 -0.8482293089
14800211200.0 0.5110130905 -0.8563764342
14850210900.0 0.4986971105 -0.8637012412
14900210600.0 0.485492745 -0.8715383515
14950210300.0 0.4721472997 -0.8792283518
15000210000.0 0.4593810049 -0.885828335
15050209700.0 0.4472102056 -0.8919600243
15100209400.0 0.4342203511 -0.8981875797
15150209100.0 0.4218568688 -0.9032481098
15200208800.0 0.4092201239 -0.9089957748
15250208500.0 0.3974340888 -0.9130728729
15300208200.0 0.3852327778 -0.9182207503
15350207900.0 0.372285525 -0.9226327426
15400207600.0 0.357973039 -0.9287890517
15450207300.0 0.3431175587 -0.9328077171
15500207000.0 0.3285695106 -0.9376101412
15550206700.0 0.3141667233 -0.9426991039
15600206400.0 0.2972341315 -0.9474620286
15650206100.0 0.282152635 -0.9515171556
15700205800.0 0.2679149674 -0.9554069784
15750205500.0 0.2536167854 -0.9588585311
15800205200.0 0.2391689142 -0.962331999
15850204900.0 0.2247381634 -0.965659518
15900204600.0 0.209599985 -0.9693205098
15950204300.0 0.1955937389 -0.972441335
16000204000.0 0.181323238 -0.974981821
16050203700.0 0.1665884175 -0.9780006503
16100203400.0 0.1519192701 -0.9801742523
16150203100.0 0.1371756417 -0.9824567812
16200202800.0 0.1234901996 -0.9844548513
16250202500.0 0.1087409644 -0.986656326
16300202200.0 0.0930324907 -0.9876259696
16350201900.0 0.0785855067 -0.9892446231
16400201600.0 0.0639221285 -0.9901137048
16450201300.0 0.04846195 -0.991035763
16500201000.0 0.0320113836 -0.9921215693
16550200700.0 0.0164518407 -0.9925689262
16600200400.0 0.000684604 -0.9926616129
16650200100.0 -0.0154913896 -0.9922579849
16700199800.0 -0.0318981033 -0.9922522144
16750199500.0 -0.0502556388 -0.9914404253
16800199200.0 -0.0664203953 -0.9911364065
16850198900.0 -0.0814974174 -0.9901778821
16900198600.0 -0.0955639432 -0.9887272564
16950198300.0 -0.1086727578 -0.9872396194
17000198000.0 -0.1218888827 -0.9856396953
17050197700.0 -0.1343605564 -0.9844880715
17100197400.0 -0.1468999285 -0.9817110393
17150197100.0 -0.1597411824 -0.9796819635
17200196800.0 -0.1727165914 -0.9780114634
17250196500.0 -0.1853892836 -0.9754093069
17300196200.0 -0.1974736821 -0.973086028
17350195900.0 -0.2094050677 -0.9710329311
17400195600.0 -0.2217354607 -0.9685905994
17450195300.0 -0.2350060126 -0.9655336524
17500195000.0 -0.2482506842 -0.9623903199
17550194700.0 -0.2620669377 -0.9586728713
17600194400.0 -0.275844909 -0.9548334539
17650194100.0 -0.2896804239 -0.9507774717
17700193800.0 -0.3028083927 -0.9462989275
17750193500.0 -0.3172348163 -0.9418172366
17800193200.0 -0.3317757413 -0.9367677234
17850192900.0 -0.3467787433 -0.9310658427
17900192600.0 -0.3618887552 -0.9250894204
17950192300.0 -0.3775200123 -0.9181137588
18000192000.0 -0.392321296 -0.9104684955
18050191700.0 -0.4060441919 -0.9029094104
18100191400.0 -0.4202536063 -0.8951225495
18150191100.0 -0.4353686326 -0.8871751085
18200190800.0 -0.4522443633 -0.8780043378
18250190500.0 -0.4692176683 -0.8683284036
18300190200.0 -0.4844615379 -0.8597631006
18350189900.0 -0.4999628482 -0.8511635944
18400189600.0 -0.5142194047 -0.8428997123
18450189300.0 -0.5274855578 -0.8346458097
18500189000.0 -0.5409974332 -0.8270096464
18550188700.0 -0.5530286252 -0.8197560807
18600188400.0 -0.565040895 -0.8127255882
18650188100.0 -0.576055714 -0.806483575
18700187800.0 -0.5866082032 -0.7999337628
18750187500.0 -0.5972291871 -0.793225485
18800187200.0 -0.607740226 -0.786355779
18850186900.0 -0.618159617 -0.779353079
18900186600.0 -0.6282414254 -0.772089639
18950186300.0 -0.6383601022 -0.7645985401
19000186000.0 -0.6455350696 -0.7582260376
19050185700.0 -0.654784598 -0.7513493309
19100185400.0 -0.6646720436 -0.7428474089
19150185100.0 -0.6750876399 -0.7341574674
19200184800.0 -0.6835820122 -0.7260470209
19250184500.0 -0.6938182326 -0.7164192476
19300184200.0 -0.7061195585 -0.7067950527
19350183900.0 -0.7170440864 -0.6977137268
19400183600.0 -0.7263189813 -0.6874458846
19450183300.0 -0.7347097948 -0.6775746759
19500183000.0 -0.7430136184 -0.6679864044
19550182700.0 -0.7531003878 -0.6566474876
19600182400.0 -0.7634605163 -0.6450122542
19650182100.0 -0.7743145387 -0.6322730058
19700181800.0 -0.7850871077 -0.619098021
19750181500.0 -0.7956042061 -0.6051877362
19800181200.0 -0.806441074 -0.5900400435
19850180900.0 -0.8159522819 -0.5748823261
19900180600.0 -0.8238544687 -0.5602201158
19950180300.0 -0.8329411539 -0.543725384
20000180000.0 -0.82641169 -0.5456790115
20050179700.0 -0.8341562472 -0.5327195012
20100179400.0 -0.8436958588 -0.5193620147
20150179100.0 -0.8506213134 -0.5069173861
20200178800.0 -0.8598852202 -0.4937459396
20250178500.0 -0.8697560514 -0.4802453833
20300178200.0 -0.8787822272 -0.4658924667
20350177900.0 -0.8881626717 -0.4511866169
20400177600.0 -0.8973441451 -0.4368495857
20450177300.0 -0.9057252408 -0.4224646503
20500177000.0 -0.913338903 -0.4082948102
20550176700.0 -0.9216447933 -0.3946933124
20600176400.0 -0.9280591507 -0.381734314
20650176100.0 -0.9347022865 -0.3690189775
20700175800.0 -0.9417553097 -0.3576865429
20750175500.0 -0.9480120756 -0.3455263085
20800175200.0 -0.9523878708 -0.3349612785
20850174900.0 -0.957297992 -0.3236936644
20900174600.0 -0.9628171148 -0.312147634
20950174300.0 -0.9660229105 -0.3010926391
21000174000.0 -0.9704503564 -0.289616909
21050173700.0 -0.9724275804 -0.2786045517
21100173400.0 -0.9770056614 -0.2662710823
21150173100.0 -0.9806400081 -0.2543104082
21200172800.0 -0.9839669705 -0.240365024
21250172500.0 -0.9872460566 -0.2265462632
21300172200.0 -0.9904274553 -0.212826756
21350171900.0 -0.9914809351 -0.1981926322
21400171600.0 -0.9931500964 -0.1846507735
21450171300.0 -0.9931858489 -0.1697303495
21500171000.0 -0.9933002563 -0.154275124
21550170700.0 -0.9926712213 -0.1385008478
21600170400.0 -0.9920329293 -0.1225226406
21650170100.0 -0.9920415684 -0.1077584458
21700169800.0 -0.9898957951 -0.0909984265
21750169500.0 -0.9879696623 -0.0762402094
21800169200.0 -0.9883397366 -0.0597906538
21850168900.0 -0.9873125837 -0.0432495245
21900168600.0 -0.9854038057 -0.0266531617
21950168300.0 -0.9845466904 -0.0108403225
22000168000.0 -0.9830504199 0.004346093
22050167700.0 -0.9829869551 0.0185965508
22100167400.0 -0.9830013813 0.0339234567
22150167100.0 -0.9833046394 0.0489521184
22200166800.0 -0.984616955 0.0655213212
22250166500.0 -0.9837975371 0.0826293337
22300166200.0 -0.9833097088 0.0989030329
22350165900.0 -0.9820498905 0.1167380349
22400165600.0 -0.9792356401 0.131778406
22450165300.0 -0.9773683705 0.146605301
22500165000.0 -0.9756722119 0.1595970669
22550164700.0 -0.9742636037 0.1752629659
22600164400.0 -0.9733347526 0.190801775
22650164100.0 -0.9710533611 0.2057829111
22700163800.0 -0.9682609732 0.2214604131
22750163500.0 -0.9655621254 0.2365788206
22800163200.0 -0.9630910358 0.250252298
22850162900.0 -0.9606771089 0.2633356592
22900162600.0 -0.9593602954 0.2767096154
22950162300.0 -0.9580200874 0.2895546822
23000162000.0 -0.95710669 0.3011962548
23050161700.0 -0.9547138011 0.313935687
23100161400.0 -0.9525371926 0.3268418604
23150161100.0 -0.9496472328 0.3387837085
23200160800.0 -0.94684098 0.3513715064
23250160500.0 -0.9444455267 0.3633212336
23300160200.0 -0.9417845593 0.3753282969
23350159900.0 -0.9383048013 0.3874570179
23400159600.0 -0.9336619778 0.4008918124
23450159300.0 -0.9284237019 0.4139921812
23500159000.0 -0.923911292 0.4271385348
23550158700.0 -0.9201844281 0.4406168871
23600158400.0 -0.9144120071 0.454004042
23650158100.0 -0.9080625039 0.4680549675
23700157800.0 -0.9007347046 0.4817252372
23750157500.0 -0.8919035584 0.4955734688
23800157200.0 -0.8831741112 0.5088515849
23850156900.0 -0.8740172337 0.5216189434
23900156600.0 -0.8657117935 0.5340458228
23950156300.0 -0.8562295953 0.546132858
24000156000.0 -0.8477174769 0.5587087555
24050155700.0 -0.8371010818 0.5701299081
24100155400.0 -0.8269965907 0.5825232015
24150155100.0 -0.8157652497 0.5936306648
24200154800.0 -0.8050017011 0.6049767385
24250154500.0 -0.7944365505 0.6171831014
24300154200.0 -0.7822839904 0.6287372059
24350153900.0 -0.7707699165 0.6388761836
24400153600.0 -0.7581494316 0.649286689
24450153300.0 -0.7468616926 0.6590825064
24500153000.0 -0.7347956453 0.6684621543
24550152700.0 -0.7239340322 0.6780695955
24600152400.0 -0.7126622342 0.6871832266
24650152100.0 -0.7006350845 0.6957985158
