!Created with skrf (http://scikit-rf.org).
# Hz S RI R 50.0 
!freq ReS11 ImS11
300000.0 -0.9730639775 -0.1211393878
50299700.0 -0.9999703482 0.0152745252
100299400.0 -0.997836658 0.0282250118
150299100.0 -1.002805459 0.0449495447
200298800.0 -0.9995946926 0.0583268871
250298500.0 -0.9972734127 0.0718324181
300298200.0 -0.9859251442 0.08762421
350297900.0 -0.9939766332 0.0984523764
400297600.0 -0.9931468512 0.1151838774
450297300.0 -0.9909296851 0.1287532857
500297000.0 -0.9891995941 0.1434846316
550296700.0 -0.9842889304 0.1558046472
600296400.0 -1.017289919 0.1893750151
650296100.0 -0.9819265292 0.1859854256
700295800.0 -0.9793114329 0.2000941287
750295500.0 -0.9763230623 0.2140918834
800295200.0 -0.9728538469 0.2282289392
850294900.0 -0.9695857815 0.2419029318
900294600.0 -0.9658964752 0.2557209889
950294300.0 -0.9619183717 0.2695247096
1000294000.0 -0.9582116917 0.2834107984
1050293700.0 -0.9533248165 0.2973326709
1100293400.0 -0.9492060261 0.3117673443
1150293100.0 -0.9455023106 0.3236713178
1200292800.0 -0.9402545058 0.3379577495
1250292500.0 -0.9348028318 0.3515301275
1300292200.0 -0.9289968401 0.364690837
1350291900.0 -0.9234137589 0.3787309466
1400291600.0 -0.9180349855 0.3918622011
1450291300.0 -0.9123052085 0.4041966724
1500291000.0 -0.906146577 0.417516415
1550290700.0 -0.899639975 0.4307930844
1600290400.0 -0.8935152195 0.4437679323
1650290100.0 -0.8868909761 0.4560091271
1700289800.0 -0.8799475143 0.4692708392
1750289500.0 -0.8729078913 0.4817518083
1800289200.0 -0.8656169806 0.4945284277
1850288900.0 -0.8588471685 0.5058383479
1900288600.0 -0.8509420671 0.518813569
1950288300.0 -0.8431027322 0.5314298742
2000288000.0 -0.8354453521 0.5427134995
2050287700.0 -0.8273618992 0.5553745489
2100287400.0 -0.8193436605 0.5668936233
2150287100.0 -0.8106495956 0.5788197109
2200286800.0 -0.8030577079 0.5891559309
2250286500.0 -0.794120042 0.6012109609
2300286200.0 -0.7852481156 0.6128722368
2350285900.0 -0.7766508342 0.6236915973
2400285600.0 -0.7677938538 0.6347124572
2450285300.0 -0.7591520192 0.6453319985
2500285000.0 -0.7491888925 0.6565389828
2550284700.0 -0.7405154247 0.6669316054
2600284400.0 -0.7310169935 0.6772086634
2650284100.0 -0.7221139763 0.6874847934
2700283800.0 -0.7118140275 0.6980942503
2750283500.0 -0.7013391388 0.7085465709
2800283200.0 -0.6911865136 0.7182750684
2850282900.0 -0.6810956928 0.728473134
2900282600.0 -0.6707519178 0.7378028771
2950282300.0 -0.660394298 0.7471116513
3000282000.0 -0.6496367689 0.7566195274
3050281700.0 -0.6386234794 0.7657637063
3100281400.0 -0.6266456667 0.7750904644
3150281100.0 -0.6151531085 0.7844610364
3200280800.0 -0.6036780956 0.792800415
3250280500.0 -0.5925627593 0.8007366768
3300280200.0 -0.5813064393 0.8086695
3350279900.0 -0.5694168625 0.8163035252
3400279600.0 -0.5572352354 0.8240792129
3450279300.0 -0.5460316 0.8312741906
3500279000.0 -0.5341376853 0.8384285662
3550278700.0 -0.5219104546 0.8454874311
3600278400.0 -0.510026518 0.8526933959
3650278100.0 -0.496758368 0.8602164369
3700277800.0 -0.4845883319 0.8668113523
3750277500.0 -0.4721310518 0.8730825483
3800277200.0 -0.4598969424 0.8797860545
3850276900.0 -0.4476725019 0.8856153091
3900276600.0 -0.4370446839 0.8914176819
3950276300.0 -0.4245645367 0.8973543334
4000276000.0 -0.4127372255 0.9032441254
4050275700.0 -0.3999891814 0.9094745551
4100275400.0 -0.3889197886 0.9146834972
4150275100.0 -0.375739646 0.9207434102
4200274800.0 -0.3627261105 0.9260544458
4250274500.0 -0.3504080111 0.9311171082
4300274200.0 -0.3373116193 0.9365722162
4350273900.0 -0.323253479 0.9420288379
4400273600.0 -0.3085665563 0.9470574313
4450273300.0 -0.293350696 0.9522685644
4500273000.0 -0.2799530893 0.9564763807
4550272700.0 -0.2660106218 0.960769482
4600272400.0 -0.2507100689 0.964812993
4650272100.0 -0.2391180553 0.9680533178
4700271800.0 -0.2259178766 0.971479388
4750271500.0 -0.2141479489 0.9742776468
4800271200.0 -0.2018867379 0.9769546699
4850270900.0 -0.1878275381 0.979675082
4900270600.0 -0.1741307383 0.9821474857
4950270300.0 -0.1597815303 0.9847980608
5000270000.0 -0.1454158897 0.9868624502
5050269700.0 -0.1317823394 0.9883110741
5100269400.0 -0.1178426136 0.9901562283
5150269100.0 -0.1044202183 0.9921061299
5200268800.0 -0.0912593575 0.9928810267
5250268500.0 -0.0780331496 0.9934813457
5300268200.0 -0.0646602089 0.9946498366
5350267900.0 -0.0522703292 0.9956201254
5400267600.0 -0.0362686556 0.996237644
5450267300.0 -0.0228200414 0.996599701
5500267000.0 -0.0076349961 0.9969780302
5550266700.0 0.0070925001 0.9971736184
5600266400.0 0.0228632144 0.9971816024
5650266100.0 0.0394033502 0.9968390368
5700265800.0 0.0536469643 0.996236139
5750265500.0 0.0686325691 0.9953120694
5800265200.0 0.0825560028 0.994148536
5850264900.0 0.0961602468 0.9937773811
5900264600.0 0.1123090967 0.9914395904
5950264300.0 0.1244741798 0.9900472885
6000264000.0 0.1377988404 0.9880481356
6050263700.0 0.1501567595 0.9867660155
6100263400.0 0.1624367981 0.9849381698
6150263100.0 0.1770663848 0.9829894897
6200262800.0 0.1871190012 0.9810621616
6250262500.0 0.1999722671 0.9786531068
6300262200.0 0.2126015724 0.9759396391
6350261900.0 0.2255488589 0.9731123493
6400261600.0 0.2394474339 0.9698202542
6450261300.0 0.2508160049 0.9670956384
6500261000.0 0.2634547371 0.9634828888
6550260700.0 0.2767855144 0.9596359249
6600260400.0 0.2900692898 0.9555986764
6650260100.0 0.3041990461 0.9511341199
6700259800.0 0.3161845407 0.9470719368
6750259500.0 0.330039269 0.9420382219
6800259200.0 0.3432002999 0.9368780877
6850258900.0 0.3552377178 0.9316403307
6900258600.0 0.3677300717 0.926686513
6950258300.0 0.3802505598 0.9215253915
7000258000.0 0.3921529638 0.9159164594
7050257700.0 0.4041852022 0.9100703442
7100257400.0 0.417348897 0.9036260208
7150257100.0 0.4276907416 0.8983799904
7200256800.0 0.440546116 0.8919310958
7250256500.0 0.4528074913 0.8855382214
7300256200.0 0.4659140594 0.8787311762
7350255900.0 0.4783581325 0.8715797893
7400255600.0 0.4921936164 0.8645552895
7450255300.0 0.5072714354 0.855435812
7500255000.0 0.5192548859 0.8478815147
7550254700.0 0.5333563214 0.8393363755
7600254400.0 0.546176136 0.8311141971
7650254100.0 0.557367609 0.8234340615
7700253800.0 0.5690950269 0.8154842783
7750253500.0 0.5802361548 0.8075137043
7800253200.0 0.591007841 0.799846019
7850252900.0 0.600713217 0.7927207008
7900252600.0 0.6123651757 0.784078955
7950252300.0 0.6210067352 0.7775462949
8000252000.0 0.6310454802 0.7700346816
8050251700.0 0.6415333986 0.7618433371
8100251400.0 0.6514884214 0.7538536741
8150251100.0 0.6616853548 0.7451175353
8200250800.0 0.6707688676 0.7371620933
8250250500.0 0.6798519117 0.7292338824
8300250200.0 0.6892086584 0.7206924617
8350249900.0 0.6982168788 0.711875154
8400249600.0 0.7063831743 0.7039017715
8450249300.0 0.715821873 0.6948340462
8500249000.0 0.7240283939 0.6859321797
8550248700.0 0.7324465597 0.6768002981
8600248400.0 0.7407981418 0.6675014249
8650248100.0 0.7485231492 0.6579832563
8700247800.0 0.7579522105 0.646779662
8750247500.0 0.7659414999 0.6365722721
8800247200.0 0.7742443442 0.6262925207
8850246900.0 0.7831101807 0.6149140964
8900246600.0 0.7916162014 0.6035568633
8950246300.0 0.8008885266 0.5909223684
9000246000.0 0.8102544499 0.578383574
9050245700.0 0.8186312868 0.5656008833
9100245400.0 0.8273921688 0.5532691069
9150245100.0 0.836999715 0.5397420705
9200244800.0 0.8458658928 0.5251000299
9250244500.0 0.8553297888 0.5099845318
9300244200.0 0.8636947619 0.4956992606
9350243900.0 0.8712512595 0.4823329621
9400243600.0 0.8781786673 0.4700637511
9450243300.0 0.8838953463 0.4587985271
9500243000.0 0.890059996 0.4468022701
9550242700.0 0.8940023697 0.4392902337
9600242400.0 0.8980883432 0.4318299323
9650242100.0 0.9020343892 0.4252413336
9700241800.0 0.9068227601 0.4167826701
9750241500.0 0.910871938 0.4091835624
9800241200.0 0.9153905628 0.4000420634
9850240900.0 0.9214609687 0.3881462069
9900240600.0 0.9268583682 0.3767289366
9950240300.0 0.9338670342 0.3602421983
10000240000.0 0.9383618262 0.3485618092
10050239700.0 0.9444482958 0.3328576153
10100239400.0 0.9494369798 0.3172050106
10150239100.0 0.9537835394 0.3021321898
10200238800.0 0.9582910562 0.2868439885
10250238500.0 0.9614368073 0.2734891609
10300238200.0 0.9645997994 0.2596131181
10350237900.0 0.96723967 0.2462913021
10400237600.0 0.9698790863 0.2330396646
10450237300.0 0.9725297303 0.2195230723
10500237000.0 0.974558467 0.2068872774
10550236700.0 0.9771032306 0.1926255718
10600236400.0 0.9791759329 0.1788336492
10650236100.0 0.9814047431 0.1642829228
10700235800.0 0.9835177671 0.1525265485
10750235500.0 0.9857765934 0.1386220426
10800235200.0 0.9878053685 0.124749427
10850234900.0 0.9894203188 0.1100166665
10900234600.0 0.9916151833 0.0951594667
10950234300.0 0.9935375749 0.0818110312
11000234000.0 0.9953095099 0.0664151736
11050233700.0 0.9970921047 0.0500060817
11100233400.0 0.998588085 0.03277169
11150233100.0 0.9993101769 0.0157910496
11200232800.0 1.000551978 0.0004742423
11250232500.0 1.001315156 -0.016344891
11300232200.0 1.001513235 -0.0342502983
11350231900.0 1.001853559 -0.0496243328
11400231600.0 1.001369664 -0.0652000983
11450231300.0 1.000977154 -0.0814530458
11500231000.0 0.9997779745 -0.0977687547
11550230700.0 0.9987262547 -0.1115532546
11600230400.0 0.9973023493 -0.1231801465
11650230100.0 0.9951728978 -0.1351766371
11700229800.0 0.9933758179 -0.1496620474
11750229500.0 0.9905243886 -0.1644176645
11800229200.0 0.9879906865 -0.1778230524
11850228900.0 0.9844120439 -0.189714526
11900228600.0 0.9807345706 -0.1995377851
11950228300.0 0.9772546334 -0.2103407813
12000228000.0 0.9746442443 -0.2190549292
12050227700.0 0.9711394435 -0.2316619366
12100227400.0 0.967899511 -0.2422236244
12150227100.0 0.9633510537 -0.2593561086
12200226800.0 0.9597502993 -0.2698146273
12250226500.0 0.9552695913 -0.2826844691
12300226200.0 0.951026394 -0.2959018817
12350225900.0 0.9456922106 -0.3092043466
12400225600.0 0.9415841908 -0.3216029994
12450225300.0 0.9373949172 -0.3351539437
12500225000.0 0.9318486434 -0.3496240231
12550224700.0 0.9258385222 -0.3632032325
12600224400.0 0.9213278489 -0.3761324245
12650224100.0 0.9154694753 -0.3905682682
12700223800.0 0.9102791444 -0.4034073905
12750223500.0 0.9046770738 -0.4164525337
12800223200.0 0.8993532021 -0.4286895005
12850222900.0 0.8938535213 -0.4412553982
12900222600.0 0.8882448286 -0.4526696654
12950222300.0 0.8827845448 -0.4662410898
13000222000.0 0.8761785643 -0.4775362262
13050221700.0 0.8696036624 -0.4903349718
13100221400.0 0.863073252 -0.5020558971
13150221100.0 0.8560741635 -0.5143868422
13200220800.0 0.8493364627 -0.5257696948
13250220500.0 0.8416434556 -0.538219094
13300220200.0 0.834426476 -0.5488800371
13350219900.0 0.8263561732 -0.5607919631
13400219600.0 0.8179656646 -0.5729804606
13450219300.0 0.8087709224 -0.5859585275
13500219000.0 0.7987736977 -0.5996453047
13550218700.0 0.7882314302 -0.6125193995
13600218400.0 0.7787544981 -0.6247718447
13650218100.0 0.7687957912 -0.6353314866
13700217800.0 0.7575136082 -0.64748226
13750217500.0 0.7482369877 -0.6586156492
13800217200.0 0.7372137571 -0.6701832415
13850216900.0 0.7257548026 -0.6808627005
13900216600.0 0.7164173516 -0.6896304551
13950216300.0 0.7055466846 -0.7001968526
14000216000.0 0.695794515 -0.7100968232
14050215700.0 0.6859885006 -0.7181783657
14100215400.0 0.67681653 -0.7270285666
14150215100.0 0.6672269974 -0.7357880218
14200214800.0 0.657757727 -0.7443848442
14250214500.0 0.6474656904 -0.7537956787
14300214200.0 0.6371226033 -0.7632570803
14350213900.0 0.6256378031 -0.7728642934
14400213600.0 0.6141362749 -0.7825672379
14450213300.0 0.6008982724 -0.7931750577
14500213000.0 0.5881508753 -0.8026628651
14550212700.0 0.5756521503 -0.8122619953
14600212400.0 0.5629887619 -0.8210479196
14650212100.0 0.5501082961 -0.8293093536
14700211800.0 0.5364293873 -0.8395318632
14750211500.0 0.5244601556 -0.8475262006
14800211200.0 0.5120108793 -0.8556313468
14850210900.0 0.4997538404 -0.8633876841
14900210600.0 0.4863663536 -0.871129959
14950210300.0 0.4729885367 -0.878846759
15000210000.0 0.4605178796 -0.8853815567
15050209700.0 0.4484411814 -0.8916112364
15100209400.0 0.4355108487 -0.8978384447
15150209100.0 0.4231975152 -0.9030854423
15200208800.0 0.4100698929 -0.9081666798
15250208500.0 0.3994153514 -0.9129468164
15300208200.0 0.3864679407 -0.9173517985
15350207900.0 0.3737658044 -0.9221892844
15400207600.0 0.358885436 -0.9279526164
15450207300.0 0.3445018795 -0.9322350182
15500207000.0 0.330334176 -0.9371354487
15550206700.0 0.3151527631 -0.9421865906
15600206400.0 0.2986936857 -0.9469833743
15650206100.0 0.2839414999 -0.9509261358
15700205800.0 0.2696905263 -0.9543999731
15750205500.0 0.2555891838 -0.9583690187
15800205200.0 0.2412919384 -0.9617055946
15850204900.0 0.2268004595 -0.9649922331
15900204600.0 0.2117465179 -0.9687346228
15950204300.0 0.1974954694 -0.9717169934
16000204000.0 0.1829499427 -0.9747238994
16050203700.0 0.1679720487 -0.9774114146
16100203400.0 0.1537642139 -0.9800690001
16150203100.0 0.1388536933 -0.982575484
16200202800.0 0.1248769135 -0.984116863
16250202500.0 0.1098456987 -0.9856862838
16300202200.0 0.0943258306 -0.9871583028
16350201900.0 0.0795586529 -0.9890710337
16400201600.0 0.0646812201 -0.9904266979
16450201300.0 0.0495651583 -0.991325618
16500201000.0 0.0328199841 -0.9920326639
16550200700.0 0.0169944208 -0.9923611736
16600200400.0 0.0013162317 -0.9928047736
16650200100.0 -0.0148377601 -0.9930007888
16700199800.0 -0.0311909038 -0.9921516356
16750199500.0 -0.0500795424 -0.9914112864
16800199200.0 -0.0660483693 -0.9910505011
16850198900.0 -0.0810111801 -0.9898671726
16900198600.0 -0.0951688894 -0.9886291686
16950198300.0 -0.1082075734 -0.988082494
17000198000.0 -0.1214397696 -0.9856687203
17050197700.0 -0.1336991835 -0.984226559
17100197400.0 -0.1468096876 -0.982301319
17150197100.0 -0.1594073682 -0.9797683394
17200196800.0 -0.1719192816 -0.9782608712
17250196500.0 -0.1853291742 -0.9758636484
17300196200.0 -0.197402162 -0.9733411928
17350195900.0 -0.2091976145 -0.9712143919
17400195600.0 -0.2214300101 -0.9686108415
17450195300.0 -0.2345698789 -0.9657867742
17500195000.0 -0.2477826095 -0.9624055229
17550194700.0 -0.2619868168 -0.9589559836
17600194400.0 -0.2754880969 -0.9550490882
17650194100.0 -0.2893240498 -0.9510891252
17700193800.0 -0.3021921638 -0.9462998478
17750193500.0 -0.3165320191 -0.9421026978
17800193200.0 -0.3310935648 -0.9365925394
17850192900.0 -0.3457943857 -0.931206439
17900192600.0 -0.361488334 -0.9251646451
17950192300.0 -0.3767337127 -0.9180771694
18000192000.0 -0.3915960136 -0.9111009198
18050191700.0 -0.4054592493 -0.9031489815
18100191400.0 -0.4196133805 -0.8955754727
18150191100.0 -0.4344989411 -0.8876038062
18200190800.0 -0.4513530692 -0.8783926493
18250190500.0 -0.4684318056 -0.868931983
18300190200.0 -0.4837511048 -0.8606111145
18350189900.0 -0.4987220451 -0.8518304789
18400189600.0 -0.5133007163 -0.8435463709
18450189300.0 -0.5268053869 -0.8356420055
18500189000.0 -0.5399432902 -0.8277242026
18550188700.0 -0.552646935 -0.8198377198
18600188400.0 -0.5648004545 -0.8132792416
18650188100.0 -0.5758803653 -0.8066026328
18700187800.0 -0.5864808778 -0.800152812
18750187500.0 -0.5973228134 -0.7935516942
18800187200.0 -0.6079290876 -0.7865991515
18850186900.0 -0.6179677833 -0.7795667673
18900186600.0 -0.6284296071 -0.772423117
18950186300.0 -0.6382947172 -0.7643212463
19000186000.0 -0.6457400309 -0.7587842037
19050185700.0 -0.6549535116 -0.7514267914
19100185400.0 -0.6653622161 -0.7425122565
19150185100.0 -0.6750589522 -0.7341893786
19200184800.0 -0.6841064153 -0.7261048856
19250184500.0 -0.6946934013 -0.7170761093
19300184200.0 -0.7064903543 -0.707476537
19350183900.0 -0.7169698419 -0.6974784419
19400183600.0 -0.7267564587 -0.6880206894
19450183300.0 -0.7351620988 -0.6778933167
19500183000.0 -0.7442232113 -0.6680114467
19550182700.0 -0.7532404172 -0.6571959274
19600182400.0 -0.7641508056 -0.6448223692
19650182100.0 -0.7744283096 -0.6329314445
19700181800.0 -0.7851552871 -0.6198025301
19750181500.0 -0.7957996394 -0.6056227133
19800181200.0 -0.8060306356 -0.5907738422
19850180900.0 -0.8157175571 -0.5753465092
19900180600.0 -0.8235372287 -0.5608169193
19950180300.0 -0.8329408028 -0.5442890659
20000180000.0 -0.8245551943 -0.5479558204
20050179700.0 -0.8326910103 -0.5344877697
20100179400.0 -0.8419019157 -0.521305116
20150179100.0 -0.8491050063 -0.5088821418
20200178800.0 -0.8580069131 -0.4964388122
20250178500.0 -0.8677218881 -0.482829024
20300178200.0 -0.877218281 -0.4682969357
20350177900.0 -0.8863892509 -0.454731455
20400177600.0 -0.8951493569 -0.4403171857
20450177300.0 -0.9038116471 -0.4256532278
20500177000.0 -0.9118266052 -0.4119103427
20550176700.0 -0.9197947257 -0.3984189518
20600176400.0 -0.9267011317 -0.3855271997
20650176100.0 -0.9332824538 -0.3736665829
20700175800.0 -0.9394523972 -0.3615873418
20750175500.0 -0.9460190473 -0.3495637192
20800175200.0 -0.9509795592 -0.3384661261
20850174900.0 -0.9553468568 -0.3273510316
20900174600.0 -0.9600572136 -0.3177514879
20950174300.0 -0.9637410162 -0.304774403
21000174000.0 -0.9674047501 -0.2945571605
21050173700.0 -0.9694619925 -0.2843753684
21100173400.0 -0.9732261897 -0.272893423
21150173100.0 -0.9776806728 -0.2607439521
21200172800.0 -0.98102989 -0.2468399046
21250172500.0 -0.9844401733 -0.2331961646
21300172200.0 -0.9874147471 -0.2191321615
21350171900.0 -0.988845347 -0.2047155948
21400171600.0 -0.9907892174 -0.1903277504
21450171300.0 -0.9910618918 -0.1763721236
21500171000.0 -0.9915511376 -0.1610019163
21550170700.0 -0.9909956944 -0.1462357808
21600170400.0 -0.9917592768 -0.1293371804
21650170100.0 -0.9914215277 -0.1142035522
21700169800.0 -0.9890902752 -0.0998801647
21750169500.0 -0.9894735706 -0.0825798244
21800169200.0 -0.9878768228 -0.0660980911
21850168900.0 -0.9879000368 -0.0501775027
21900168600.0 -0.9874641761 -0.0332375561
21950168300.0 -0.9866196944 -0.0174297542
22000168000.0 -0.9856956943 -0.0023786808
22050167700.0 -0.9856624927 0.0117890795
22100167400.0 -0.9863719959 0.0275007787
22150167100.0 -0.9869761391 0.0429309059
22200166800.0 -0.9870713607 0.0596273898
22250166500.0 -0.9870905849 0.0765863307
22300166200.0 -0.986098496 0.0933529329
22350165900.0 -0.9850719862 0.108520589
22400165600.0 -0.9829433241 0.1254109342
22450165300.0 -0.9822811799 0.1400565375
22500165000.0 -0.9800907133 0.1535491956
22550164700.0 -0.977641136 0.1692069027
22600164400.0 -0.9764277558 0.1860980576
22650164100.0 -0.9752514096 0.2005851951
22700163800.0 -0.9714665106 0.2164084844
22750163500.0 -0.9682314583 0.2310440682
22800163200.0 -0.9661581471 0.2447487142
22850162900.0 -0.9632424193 0.2581830142
22900162600.0 -0.9615410654 0.2716325652
22950162300.0 -0.960365938 0.2845772136
23000162000.0 -0.9589827571 0.2969357424
23050161700.0 -0.9564226587 0.3092842112
23100161400.0 -0.954314626 0.3228875076
23150161100.0 -0.9510702312 0.3351103636
23200160800.0 -0.9476833971 0.3474716002
23250160500.0 -0.9460611536 0.3599247663
23300160200.0 -0.9441142237 0.3719031048
23350159900.0 -0.939085851 0.3857775647
23400159600.0 -0.9336269419 0.3987483457
23450159300.0 -0.9297983173 0.4121543642
23500159000.0 -0.9250110297 0.4255223666
23550158700.0 -0.9204928764 0.4392827159
23600158400.0 -0.9147127542 0.4529691172
23650158100.0 -0.9079946297 0.4672609455
23700157800.0 -0.9000518414 0.4812648557
23750157500.0 -0.8912761416 0.4950939899
23800157200.0 -0.8822808328 0.5087840676
23850156900.0 -0.8728777384 0.5218529664
23900156600.0 -0.8643119769 0.5343631666
23950156300.0 -0.8537250546 0.547091853
24000156000.0 -0.8451481348 0.5590874895
24050155700.0 -0.8344594828 0.5708824214
24100155400.0 -0.8244968342 0.5829362194
24150155100.0 -0.8138710071 0.5951712281
24200154800.0 -0.8032217591 0.6059296488
24250154500.0 -0.7919892395 0.6176161684
24300154200.0 -0.7806294745 0.6298465358
24350153900.0 -0.7686771202 0.6407309063
24400153600.0 -0.7562769956 0.650745767
24450153300.0 -0.7444261006 0.6609394565
24500153000.0 -0.7328683858 0.6710178857
24550152700.0 -0.7215043126 0.6802664126
24600152400.0 -0.7095412235 0.6903647983
24650152100.0 -0.698127032 0.6983083043
