!Created with skrf (http://scikit-rf.org).
# Hz S RI R 50.0 
!freq ReS11 ImS11
300000.0 -0.9747818554 -0.1188959221
50299700.0 -1.000022029 0.0154471937
100299400.0 -0.998011745 0.0281915823
150299100.0 -1.002701378 0.0451774363
200298800.0 -0.9996579053 0.0584871543
250298500.0 -0.997570781 0.0719159975
300298200.0 -0.9860400871 0.0877560069
350297900.0 -0.9940238195 0.0986472074
400297600.0 -0.9932059413 0.1150005024
450297300.0 -0.9911146534 0.1289679232
500297000.0 -0.9894171513 0.1435698196
550296700.0 -0.9845570264 0.1561976744
600296400.0 -1.017370529 0.1894647621
650296100.0 -0.9819696476 0.1861867321
700295800.0 -0.9792393026 0.2003462109
750295500.0 -0.976312713 0.2144533335
800295200.0 -0.9731189524 0.2285884846
850294900.0 -0.9695549114 0.2423318039
900294600.0 -0.965996599 0.2558677526
950294300.0 -0.9619817984 0.2698437887
1000294000.0 -0.9581490821 0.2838393839
1050293700.0 -0.9537227538 0.2977311708
1100293400.0 -0.9492906202 0.3119390039
1150293100.0 -0.9455057058 0.3238818367
1200292800.0 -0.9404148825 0.3380767915
1250292500.0 -0.9344267732 0.35156418
1300292200.0 -0.9288503493 0.3646670848
1350291900.0 -0.9233177502 0.3788226816
1400291600.0 -0.9178738791 0.3918445517
1450291300.0 -0.9123498799 0.4044038201
1500291000.0 -0.906131522 0.4178505669
1550290700.0 -0.8997637577 0.4309865223
1600290400.0 -0.893519042 0.4439446136
1650290100.0 -0.8866829549 0.4560091162
1700289800.0 -0.8799005425 0.4695230792
1750289500.0 -0.8727932813 0.4819387804
1800289200.0 -0.865544764 0.494754797
1850288900.0 -0.8588832154 0.5059778891
1900288600.0 -0.8508877194 0.5190835864
1950288300.0 -0.8428117346 0.5315657929
2000288000.0 -0.8353036833 0.5432692186
2050287700.0 -0.8271144692 0.5555722169
2100287400.0 -0.819123016 0.5670422395
2150287100.0 -0.8107093162 0.5790893368
2200286800.0 -0.803055128 0.5893446025
2250286500.0 -0.794253161 0.6015291928
2300286200.0 -0.7852351583 0.6131636946
2350285900.0 -0.7765922786 0.6238203059
2400285600.0 -0.7674582644 0.6349435016
2450285300.0 -0.7589076741 0.6451482017
2500285000.0 -0.7493635858 0.6566598345
2550284700.0 -0.7404770969 0.667047644
2600284400.0 -0.7310032575 0.6770745564
2650284100.0 -0.7218639952 0.6875095534
2700283800.0 -0.7111316687 0.6980620291
2750283500.0 -0.700984155 0.7087273883
2800283200.0 -0.6914377045 0.7184933164
2850282900.0 -0.6811651424 0.7283547092
2900282600.0 -0.6707172214 0.7379559438
2950282300.0 -0.6605434438 0.7471674547
3000282000.0 -0.6497304639 0.7566932028
3050281700.0 -0.6385697005 0.7659171635
3100281400.0 -0.6266795014 0.7753231055
3150281100.0 -0.6150228027 0.7845881243
3200280800.0 -0.6032969695 0.793066701
3250280500.0 -0.5924466524 0.8007455677
3300280200.0 -0.5811807173 0.8086889063
3350279900.0 -0.5697064187 0.8164234403
3400279600.0 -0.5574181018 0.8241376783
3450279300.0 -0.546197449 0.8310786258
3500279000.0 -0.5343932566 0.8383531359
3550278700.0 -0.5222258378 0.8457669411
3600278400.0 -0.5096732488 0.8525895893
3650278100.0 -0.4964842253 0.8603702128
3700277800.0 -0.4845114681 0.8668700718
3750277500.0 -0.4724351913 0.8734400782
3800277200.0 -0.4597346542 0.879785004
3850276900.0 -0.447809762 0.8855687637
3900276600.0 -0.4371073644 0.8912121346
3950276300.0 -0.4245138348 0.8976371119
4000276000.0 -0.4126493913 0.9033945006
4050275700.0 -0.3995502948 0.9093868649
4100275400.0 -0.3883433956 0.9148581587
4150275100.0 -0.3758639638 0.9206846984
4200274800.0 -0.3626775507 0.9259722992
4250274500.0 -0.3505339691 0.9316859478
4300274200.0 -0.3375325267 0.9367405781
4350273900.0 -0.3236687759 0.9418297821
4400273600.0 -0.308866697 0.9470617283
4450273300.0 -0.2934363575 0.9523307857
4500273000.0 -0.2799982094 0.9565984318
4550272700.0 -0.2657765909 0.960901042
4600272400.0 -0.2503592987 0.9650366774
4650272100.0 -0.2386952614 0.9682363658
4700271800.0 -0.2254344052 0.9716153388
4750271500.0 -0.2138129736 0.9744403211
4800271200.0 -0.2012442874 0.9770790038
4850270900.0 -0.1873012999 0.9800339203
4900270600.0 -0.1734265197 0.9823574311
4950270300.0 -0.1591236091 0.9847721402
5000270000.0 -0.1448558231 0.9869419871
5050269700.0 -0.1313439032 0.9886329351
5100269400.0 -0.1176887235 0.9903402628
5150269100.0 -0.1046277006 0.991871412
5200268800.0 -0.0909419169 0.9932957615
5250268500.0 -0.0780696646 0.9938535597
5300268200.0 -0.0648795765 0.9945013214
5350267900.0 -0.052485953 0.9951252652
5400267600.0 -0.0361499388 0.9965806786
5450267300.0 -0.0233462275 0.9968829636
5500267000.0 -0.0081950185 0.9969467679
5550266700.0 0.0066677273 0.9972524648
5600266400.0 0.0222788182 0.9972491071
5650266100.0 0.0386325819 0.9967765347
5700265800.0 0.0535114495 0.9962817167
5750265500.0 0.0684144264 0.9952983941
5800265200.0 0.0824634761 0.9946725873
5850264900.0 0.0958160138 0.9934762288
5900264600.0 0.1125947885 0.9921671072
5950264300.0 0.1244374491 0.9898191403
6000264000.0 0.1384312749 0.9882444621
6050263700.0 0.1507755084 0.9869885223
6100263400.0 0.1630554766 0.9850539035
6150263100.0 0.1775538889 0.9826236595
6200262800.0 0.1880820958 0.980898516
6250262500.0 0.2007287434 0.9785220639
6300262200.0 0.2136665873 0.9756811838
6350261900.0 0.2264584932 0.9728045014
6400261600.0 0.2403230989 0.9696029851
6450261300.0 0.2517372362 0.9668513898
6500261000.0 0.2643085642 0.9631531568
6550260700.0 0.2776224403 0.9594376984
6600260400.0 0.2906976068 0.9552346539
6650260100.0 0.3048020387 0.9509776673
6700259800.0 0.3168873841 0.9466937533
6750259500.0 0.3307817713 0.9417108747
6800259200.0 0.3436291981 0.9368794394
6850258900.0 0.3556191757 0.9315257614
6900258600.0 0.3680976315 0.9264984866
6950258300.0 0.3804839392 0.9212282222
7000258000.0 0.3925766896 0.9158854425
7050257700.0 0.4048762852 0.9097518912
7100257400.0 0.4176066282 0.9035033132
7150257100.0 0.4280756172 0.8983122578
7200256800.0 0.4407794516 0.8920367937
7250256500.0 0.4527310205 0.8854655635
7300256200.0 0.4657245402 0.8789299035
7350255900.0 0.4779574545 0.8718659126
7400255600.0 0.4913836208 0.8647805691
7450255300.0 0.5067101696 0.8560634745
7500255000.0 0.5183465679 0.8485595748
7550254700.0 0.532273355 0.8401809572
7600254400.0 0.5449476203 0.8318729569
7650254100.0 0.5565049225 0.8240333863
7700253800.0 0.5686788517 0.8161759404
7750253500.0 0.5796520957 0.8083863938
7800253200.0 0.5903835646 0.8006871955
7850252900.0 0.6000330791 0.7934558515
7900252600.0 0.6116542919 0.7847334451
7950252300.0 0.6203196187 0.7783664364
8000252000.0 0.6306088799 0.7706177146
8050251700.0 0.6410648824 0.7623906146
8100251400.0 0.6512004181 0.7543222547
8150251100.0 0.6611930594 0.745703633
8200250800.0 0.6702046275 0.7377895744
8250250500.0 0.6793060509 0.7298424895
8300250200.0 0.6886519478 0.7213297636
8350249900.0 0.6978749249 0.7125089802
8400249600.0 0.7058076758 0.7045249895
8450249300.0 0.7154956976 0.6953770451
8500249000.0 0.7235612495 0.6863997372
8550248700.0 0.7321848886 0.6775305651
8600248400.0 0.7405653899 0.6678177389
8650248100.0 0.7482328175 0.6584387238
8700247800.0 0.7578793321 0.6472428867
8750247500.0 0.7660594822 0.6372750452
8800247200.0 0.77442499 0.6266557983
8850246900.0 0.7830486176 0.6153982653
8900246600.0 0.7915496355 0.6038885196
8950246300.0 0.801267469 0.5909259355
9000246000.0 0.8103803826 0.5784124453
9050245700.0 0.8193809855 0.5654996469
9100245400.0 0.8279837042 0.5529779289
9150245100.0 0.8375144125 0.5392208269
9200244800.0 0.8473018217 0.5239673362
9250244500.0 0.8563303592 0.5087137555
9300244200.0 0.8648257479 0.4940618797
9350243900.0 0.872657988 0.4801466757
9400243600.0 0.8794352911 0.4678680848
9450243300.0 0.8852822079 0.4564251036
9500243000.0 0.8914686012 0.4443828794
9550242700.0 0.8954473206 0.4365978274
9600242400.0 0.8994184178 0.4292524138
9650242100.0 0.9028940629 0.4228037156
9700241800.0 0.9076557707 0.414500803
9750241500.0 0.911578658 0.4070098654
9800241200.0 0.9163998368 0.3976588839
9850240900.0 0.9218830169 0.3861220729
9900240600.0 0.9275652216 0.3747801919
9950240300.0 0.9342166215 0.3585544595
10000240000.0 0.9391214339 0.3468409138
10050239700.0 0.944459147 0.331602734
10100239400.0 0.9497364523 0.3159724414
10150239100.0 0.9535875499 0.30126279
10200238800.0 0.9580694168 0.2862408549
10250238500.0 0.9614629168 0.2729494712
10300238200.0 0.9645302867 0.2590321043
10350237900.0 0.9673201231 0.2458370119
10400237600.0 0.9696113861 0.2327937813
10450237300.0 0.9725075771 0.2190535448
10500237000.0 0.9746646291 0.2066849877
10550236700.0 0.9770580421 0.1925971393
10600236400.0 0.9791243817 0.1789922813
10650236100.0 0.9811926512 0.1642410275
10700235800.0 0.9833526725 0.1516228446
10750235500.0 0.9856799815 0.1385558803
10800235200.0 0.9876806696 0.1245558316
10850234900.0 0.9898689942 0.1098441455
10900234600.0 0.9918507789 0.0952378056
10950234300.0 0.9934082741 0.0819788136
11000234000.0 0.9951857537 0.0669040119
11050233700.0 0.9969070103 0.0505938408
11100233400.0 0.9981482268 0.0332170164
11150233100.0 0.9992797164 0.0174579003
11200232800.0 1.000223713 0.002330774
11250232500.0 1.0014428 -0.015056243
11300232200.0 1.001599152 -0.0325525855
11350231900.0 1.001772345 -0.048185676
11400231600.0 1.001170013 -0.0634484169
11450231300.0 1.002053379 -0.079844416
11500231000.0 0.9996869329 -0.0950721508
11550230700.0 0.998277887 -0.1090155098
11600230400.0 0.9973261587 -0.120916005
11650230100.0 0.9953260439 -0.1331921072
11700229800.0 0.9930617913 -0.147830729
11750229500.0 0.9906379759 -0.1618294498
11800229200.0 0.9881886996 -0.1756522044
11850228900.0 0.9845821659 -0.1879725262
11900228600.0 0.9810378103 -0.1975859192
11950228300.0 0.9779671842 -0.2080937536
12000228000.0 0.9755146898 -0.2164521771
12050227700.0 0.97158214 -0.2298593682
12100227400.0 0.9680790362 -0.2411890564
12150227100.0 0.9634947384 -0.2580067132
12200226800.0 0.9593433368 -0.2692327017
12250226500.0 0.9561532535 -0.2810337559
12300226200.0 0.9514638909 -0.2936440133
12350225900.0 0.9467416475 -0.3072465291
12400225600.0 0.942084238 -0.3209635481
12450225300.0 0.9380805104 -0.3327521178
12500225000.0 0.932522482 -0.3481357215
12550224700.0 0.9269429125 -0.3619213557
12600224400.0 0.9219050478 -0.3749989216
12650224100.0 0.9162697831 -0.3895052108
12700223800.0 0.9109841957 -0.4022497453
12750223500.0 0.9052128265 -0.4156406452
12800223200.0 0.9001837517 -0.4278803941
12850222900.0 0.8947742994 -0.4400220605
12900222600.0 0.8890409742 -0.4520231877
12950222300.0 0.8826591805 -0.4654793789
13000222000.0 0.8773487721 -0.4765432509
13050221700.0 0.870172086 -0.4891599902
13100221400.0 0.8634722289 -0.5007884939
13150221100.0 0.8569475585 -0.513157675
13200220800.0 0.8499267745 -0.5245763795
13250220500.0 0.8424752016 -0.5369643993
13300220200.0 0.8352862513 -0.5475334244
13350219900.0 0.8272687599 -0.5595152068
13400219600.0 0.8188812428 -0.57168096
13450219300.0 0.8093384312 -0.5852393818
13500219000.0 0.7992540886 -0.5989937611
13550218700.0 0.7892060821 -0.6117860782
13600218400.0 0.7792879097 -0.6233096154
13650218100.0 0.7691410133 -0.6344425534
13700217800.0 0.7580701705 -0.6471780125
13750217500.0 0.7490782803 -0.658464018
13800217200.0 0.7376543533 -0.6699970199
13850216900.0 0.7270261712 -0.6812049567
13900216600.0 0.7165903612 -0.6904629567
13950216300.0 0.7054750419 -0.7008854591
14000216000.0 0.6956399035 -0.7102742906
14050215700.0 0.6862881278 -0.7185793315
14100215400.0 0.6761683675 -0.7275646759
14150215100.0 0.6670521249 -0.7360237015
14200214800.0 0.6576708166 -0.7446743162
14250214500.0 0.6473040919 -0.7540034368
14300214200.0 0.6369501278 -0.7634252453
14350213900.0 0.6255643326 -0.7728890863
14400213600.0 0.6136761067 -0.7828524255
14450213300.0 0.6012528411 -0.7931217522
14500213000.0 0.5880714663 -0.8033970047
14550212700.0 0.5755224371 -0.8125049415
14600212400.0 0.5631499932 -0.8214319363
14650212100.0 0.5496330202 -0.8299070398
14700211800.0 0.5359773739 -0.8398759047
14750211500.0 0.5238667941 -0.8477133895
14800211200.0 0.5118581344 -0.855707096
14850210900.0 0.4996403404 -0.8632732143
14900210600.0 0.4862200608 -0.8711605132
14950210300.0 0.4728489552 -0.8788507307
15000210000.0 0.4601470609 -0.8854547691
15050209700.0 0.4483260096 -0.8917398347
15100209400.0 0.4354890732 -0.8977277184
15150209100.0 0.423226549 -0.9030964868
15200208800.0 0.41073981 -0.908279032
15250208500.0 0.3989225795 -0.9126869781
15300208200.0 0.3858236143 -0.9182893244
15350207900.0 0.3738843538 -0.9223100578
15400207600.0 0.358967059 -0.9281014488
15450207300.0 0.344767829 -0.9324705327
15500207000.0 0.3304027617 -0.9370720252
15550206700.0 0.314315061 -0.9423167991
15600206400.0 0.2991767577 -0.9470582242
15650206100.0 0.2830724696 -0.9514435669
15700205800.0 0.2689405981 -0.9550120205
15750205500.0 0.2549724184 -0.9583189456
15800205200.0 0.2404522423 -0.9619323237
15850204900.0 0.2260030543 -0.9653925732
15900204600.0 0.2108729457 -0.9690473885
15950204300.0 0.1966937454 -0.9719776952
16000204000.0 0.1824795414 -0.9750621882
16050203700.0 0.1676459597 -0.9777172248
16100203400.0 0.1532721353 -0.9799449101
16150203100.0 0.1384353497 -0.9823466996
16200202800.0 0.1244838824 -0.9849218827
16250202500.0 0.1098555639 -0.9862366882
16300202200.0 0.0944751373 -0.987610614
16350201900.0 0.0793465993 -0.9893113386
16400201600.0 0.0647070273 -0.9904143419
16450201300.0 0.0496136758 -0.9913427151
16500201000.0 0.0330964773 -0.9922776031
16550200700.0 0.0173529784 -0.9927208073
16600200400.0 0.0015561118 -0.9929866338
16650200100.0 -0.0143972035 -0.9926697637
16700199800.0 -0.031018883 -0.9927423244
16750199500.0 -0.0493122811 -0.9915316123
16800199200.0 -0.0652549254 -0.9908968367
16850198900.0 -0.0802291306 -0.9901019365
16900198600.0 -0.0939232757 -0.9889984564
16950198300.0 -0.1073595614 -0.9875796057
17000198000.0 -0.1198378155 -0.9863263068
17050197700.0 -0.132916216 -0.9838483081
17100197400.0 -0.1454838454 -0.9821338667
17150197100.0 -0.1586180612 -0.9803990443
17200196800.0 -0.1711037464 -0.9779963504
17250196500.0 -0.1845258564 -0.9756920647
17300196200.0 -0.1963345459 -0.9734717057
17350195900.0 -0.2084696541 -0.9712151336
17400195600.0 -0.220668483 -0.9688155919
17450195300.0 -0.2339108821 -0.966102617
17500195000.0 -0.2474769121 -0.9625449816
17550194700.0 -0.2612644734 -0.9591453705
17600194400.0 -0.2749324428 -0.9552975816
17650194100.0 -0.288784328 -0.9510096922
17700193800.0 -0.3015647566 -0.9468286677
17750193500.0 -0.3163495291 -0.9423122123
17800193200.0 -0.3306979997 -0.9370709585
17850192900.0 -0.3459338113 -0.9318807438
17900192600.0 -0.3611210424 -0.925326844
17950192300.0 -0.3769203768 -0.9186807192
18000192000.0 -0.3913998347 -0.9112409086
18050191700.0 -0.4050972449 -0.9033229472
18100191400.0 -0.4195797283 -0.8957699182
18150191100.0 -0.4345389546 -0.8876859363
18200190800.0 -0.4513135572 -0.8786559219
18250190500.0 -0.4686246602 -0.8690956462
18300190200.0 -0.4836295907 -0.8604649466
18350189900.0 -0.4991536555 -0.8522964489
18400189600.0 -0.5131393231 -0.843838855
18450189300.0 -0.5265572607 -0.8356871572
18500189000.0 -0.5400492295 -0.8278836742
18550188700.0 -0.5523235795 -0.8203592239
18600188400.0 -0.5641283855 -0.8135070884
18650188100.0 -0.5752496188 -0.8067270985
18700187800.0 -0.5862598302 -0.8006606441
18750187500.0 -0.5967575878 -0.794055103
18800187200.0 -0.6070501106 -0.7871581108
18850186900.0 -0.6172550036 -0.7802511361
18900186600.0 -0.6276443333 -0.7728898915
18950186300.0 -0.6375744306 -0.7649545338
19000186000.0 -0.6445897733 -0.759059164
19050185700.0 -0.6539014745 -0.7516879771
19100185400.0 -0.6644898203 -0.7438062096
19150185100.0 -0.6740563416 -0.7354605448
19200184800.0 -0.6833514874 -0.7274256034
19250184500.0 -0.6939367812 -0.717474169
19300184200.0 -0.7055340417 -0.707691483
19350183900.0 -0.7158860268 -0.6982757339
19400183600.0 -0.7258890678 -0.6885792803
19450183300.0 -0.7349751307 -0.6783988017
19500183000.0 -0.742900442 -0.6680562448
19550182700.0 -0.7524782914 -0.6570806071
19600182400.0 -0.7634684224 -0.6458915544
19650182100.0 -0.7740044892 -0.6330196503
19700181800.0 -0.7846464045 -0.6202359212
19750181500.0 -0.7954868076 -0.6059603976
19800181200.0 -0.8058944539 -0.5909816571
19850180900.0 -0.8155658413 -0.575653243
19900180600.0 -0.8234084024 -0.5611024703
19950180300.0 -0.8326309966 -0.5447051685
20000180000.0 -0.8254702637 -0.5476871249
20050179700.0 -0.8334580238 -0.5348018433
20100179400.0 -0.8424613859 -0.5198496883
20150179100.0 -0.8502584079 -0.5080490949
20200178800.0 -0.8593194771 -0.4954189761
20250178500.0 -0.8686315443 -0.4816117468
20300178200.0 -0.8782208868 -0.4674905683
20350177900.0 -0.8882163822 -0.4527659553
20400177600.0 -0.8965457658 -0.4382690656
20450177300.0 -0.9046594553 -0.4234381302
20500177000.0 -0.9128164154 -0.410075574
20550176700.0 -0.9209552103 -0.3966323647
20600176400.0 -0.9279823771 -0.3835055183
20650176100.0 -0.9344341435 -0.3707261098
20700175800.0 -0.9405784748 -0.3596230451
20750175500.0 -0.9472345731 -0.3477110802
20800175200.0 -0.9525721429 -0.3372228288
20850174900.0 -0.9566377068 -0.3258706661
20900174600.0 -0.9609423841 -0.3147698842
20950174300.0 -0.9662055879 -0.3030145946
21000174000.0 -0.968300068 -0.2916607285
21050173700.0 -0.9707272854 -0.2808541755
21100173400.0 -0.9752818846 -0.268998603
21150173100.0 -0.9794867294 -0.2568947031
21200172800.0 -0.9828728245 -0.2430438028
21250172500.0 -0.9862644399 -0.2295440808
21300172200.0 -0.9890881522 -0.2151266598
21350171900.0 -0.9902341584 -0.2013043583
21400171600.0 -0.9920087691 -0.1871936754
21450171300.0 -0.9931200944 -0.172667291
21500171000.0 -0.9922199247 -0.1566043964
21550170700.0 -0.992971525 -0.1421497805
21600170400.0 -0.9930960497 -0.1252614186
21650170100.0 -0.9914463546 -0.1096773877
21700169800.0 -0.9897212045 -0.0952566927
21750169500.0 -0.9889424559 -0.0782234202
21800169200.0 -0.9880654927 -0.0632351039
21850168900.0 -0.9882888205 -0.044989088
21900168600.0 -0.9859668182 -0.0293228909
21950168300.0 -0.9852848311 -0.0137329974
22000168000.0 -0.9843959682 0.0015772286
22050167700.0 -0.9840306538 0.016331564
22100167400.0 -0.9836703718 0.0310723663
22150167100.0 -0.9842744897 0.0468119427
22200166800.0 -0.9850079936 0.0634198793
22250166500.0 -0.9846290942 0.0804218582
22300166200.0 -0.9836328684 0.0964018631
22350165900.0 -0.9824709584 0.1127238679
22400165600.0 -0.9806520665 0.1285272815
22450165300.0 -0.9783537239 0.1442955653
22500165000.0 -0.9773581864 0.1577555135
22550164700.0 -0.9757171515 0.173235088
22600164400.0 -0.9741297118 0.1893286341
22650164100.0 -0.9723169377 0.2033294141
22700163800.0 -0.9704863612 0.2191189089
22750163500.0 -0.9670984076 0.2342335444
22800163200.0 -0.9643662858 0.2477014477
22850162900.0 -0.9617911454 0.2611369946
22900162600.0 -0.9599636986 0.2744447429
22950162300.0 -0.9587058091 0.2872551332
23000162000.0 -0.9578743503 0.2990531128
23050161700.0 -0.9560309751 0.3119379685
23100161400.0 -0.9532087759 0.3247093463
23150161100.0 -0.9506574192 0.3368554817
23200160800.0 -0.948367593 0.3490490248
23250160500.0 -0.9451884081 0.3613185534
23300160200.0 -0.9428142478 0.3730545793
23350159900.0 -0.9392583216 0.3862610238
23400159600.0 -0.9337768731 0.3992837147
23450159300.0 -0.9290334234 0.412991627
23500159000.0 -0.9245003496 0.4260291731
23550158700.0 -0.9200821039 0.439198688
23600158400.0 -0.9147148148 0.452340845
23650158100.0 -0.9083286352 0.4664930709
23700157800.0 -0.9007434052 0.4806317201
23750157500.0 -0.8921194891 0.4946678946
23800157200.0 -0.8837345119 0.5082131523
23850156900.0 -0.8751201187 0.5207556801
23900156600.0 -0.8653109468 0.5332237107
23950156300.0 -0.8564961304 0.5460807455
24000156000.0 -0.8475307907 0.5574572388
24050155700.0 -0.8365340199 0.5696302479
24100155400.0 -0.8280805038 0.5812217054
24150155100.0 -0.8164842249 0.5933957778
24200154800.0 -0.8056695 0.6045534667
24250154500.0 -0.7941563118 0.6160735467
24300154200.0 -0.7835047007 0.6276212143
24350153900.0 -0.771616847 0.6380218808
24400153600.0 -0.7593836884 0.6483802054
24450153300.0 -0.7475509652 0.6584294373
24500153000.0 -0.7360857257 0.6678689024
24550152700.0 -0.7245165774 0.678123464
24600152400.0 -0.7127903422 0.6868817102
