!Created with skrf (http://scikit-rf.org).
# Hz S RI R 50.0 
!freq ReS11 ImS11
300000.0 -0.973515623 -0.1249541449
50299700.0 -0.9997645552 0.0150041247
100299400.0 -0.9979157352 0.0278714669
150299100.0 -1.002652696 0.0445679065
200298800.0 -0.9994055285 0.0579471961
250298500.0 -0.9971110673 0.0715236227
300298200.0 -0.985760486 0.0875326087
350297900.0 -0.9939638362 0.0982517855
400297600.0 -0.9930798654 0.1147991627
450297300.0 -0.9907912286 0.128371032
500297000.0 -0.9892732586 0.143310701
550296700.0 -0.9842381014 0.1557814817
600296400.0 -1.017149902 0.1889233881
650296100.0 -0.9822501608 0.1856785055
700295800.0 -0.9792103522 0.1999315007
750295500.0 -0.9763224551 0.2138962479
800295200.0 -0.9728165075 0.2281054676
850294900.0 -0.9694029065 0.241673115
900294600.0 -0.9659524751 0.2553464541
950294300.0 -0.9622444808 0.2691121261
1000294000.0 -0.9582958525 0.2831400936
1050293700.0 -0.9535986691 0.2968888384
1100293400.0 -0.9492088936 0.3114371437
1150293100.0 -0.9454291528 0.3234933823
1200292800.0 -0.9401522328 0.3375338981
1250292500.0 -0.9345166602 0.3511917168
1300292200.0 -0.9289050346 0.3643243993
1350291900.0 -0.9235367253 0.3784149724
1400291600.0 -0.9179295812 0.3913768552
1450291300.0 -0.9125713362 0.4038878975
1500291000.0 -0.9062996683 0.4171731366
1550290700.0 -0.899727265 0.4305419742
1600290400.0 -0.8935214368 0.4435411242
1650290100.0 -0.8867035502 0.4557852301
1700289800.0 -0.8798969562 0.4691856976
1750289500.0 -0.87285182 0.4813303597
1800289200.0 -0.8655077219 0.494293233
1850288900.0 -0.8587761682 0.505727048
1900288600.0 -0.8510274555 0.5187181499
1950288300.0 -0.8430460143 0.5311409735
2000288000.0 -0.8354445337 0.542831638
2050287700.0 -0.82736415 0.5552885104
2100287400.0 -0.8193879205 0.5665186906
2150287100.0 -0.8109017785 0.578415701
2200286800.0 -0.803115792 0.5891597964
2250286500.0 -0.7940302641 0.6012137997
2300286200.0 -0.7852858564 0.612801561
2350285900.0 -0.7768017975 0.623297284
2400285600.0 -0.7681780771 0.6342322534
2450285300.0 -0.7591470018 0.644888298
2500285000.0 -0.7490933997 0.6567404717
2550284700.0 -0.7401889809 0.6671002439
2600284400.0 -0.7309572338 0.6767900179
2650284100.0 -0.7224275432 0.6870218545
2700283800.0 -0.7119568825 0.6973893691
2750283500.0 -0.7015673432 0.7082380234
2800283200.0 -0.6916599642 0.717860427
2850282900.0 -0.6812543563 0.7280459793
2900282600.0 -0.6708226959 0.7376493897
2950282300.0 -0.6602266142 0.7472269156
3000282000.0 -0.649622892 0.7566726272
3050281700.0 -0.6382753533 0.7659792766
3100281400.0 -0.6269910909 0.7749323634
3150281100.0 -0.6156988344 0.7838546684
3200280800.0 -0.604281411 0.7922934789
3250280500.0 -0.5931375199 0.8003008402
3300280200.0 -0.5814180737 0.808181005
3350279900.0 -0.5691952173 0.8164662292
3400279600.0 -0.5565049356 0.8247433476
3450279300.0 -0.5455554405 0.831782581
3500279000.0 -0.533754938 0.8385684167
3550278700.0 -0.5215832237 0.845778147
3600278400.0 -0.5098354292 0.8523934
3650278100.0 -0.4967410424 0.8598964935
3700277800.0 -0.4846049027 0.8664135395
3750277500.0 -0.4722334368 0.8731877213
3800277200.0 -0.459608121 0.8796234946
3850276900.0 -0.4479075261 0.8854842937
3900276600.0 -0.436782678 0.891188374
3950276300.0 -0.4246291937 0.8972337727
4000276000.0 -0.4131313555 0.9029798105
4050275700.0 -0.4005091275 0.9090699939
4100275400.0 -0.3894704058 0.9145904569
4150275100.0 -0.3759901325 0.9202786029
4200274800.0 -0.3626816031 0.9260699286
4250274500.0 -0.3500237568 0.9314849954
4300274200.0 -0.3366159685 0.9365700649
4350273900.0 -0.3223659266 0.9419050627
4400273600.0 -0.3076881178 0.9471815763
4450273300.0 -0.2927608163 0.9521387107
4500273000.0 -0.2796286376 0.956616877
4550272700.0 -0.2661361108 0.9605083308
4600272400.0 -0.2511811078 0.9647072334
4650272100.0 -0.2397487816 0.9677873229
4700271800.0 -0.2270644716 0.9710760003
4750271500.0 -0.2154142465 0.9739972226
4800271200.0 -0.2030617036 0.9766147871
4850270900.0 -0.1894562861 0.9793366447
4900270600.0 -0.1754669477 0.9817818827
4950270300.0 -0.1608620749 0.9845526435
5000270000.0 -0.1463571442 0.98652268
5050269700.0 -0.1327985517 0.9882912215
5100269400.0 -0.1188446954 0.9901037567
5150269100.0 -0.1047325847 0.9915908003
5200268800.0 -0.0911144134 0.9923232393
5250268500.0 -0.0784399193 0.9934713897
5300268200.0 -0.0647030566 0.9944090921
5350267900.0 -0.0517930894 0.9950570003
5400267600.0 -0.0353814163 0.9963019253
5450267300.0 -0.0221175176 0.9965185435
5500267000.0 -0.0068012539 0.9969048047
5550266700.0 0.0081221839 0.9972081821
5600266400.0 0.0239056853 0.9971495539
5650266100.0 0.0407113725 0.9968191007
5700265800.0 0.0549046909 0.9961445356
5750265500.0 0.0696979992 0.9950815395
5800265200.0 0.0833820984 0.9940967892
5850264900.0 0.0964597463 0.9933324352
5900264600.0 0.1132650367 0.9917518863
5950264300.0 0.1242919817 0.9896823555
6000264000.0 0.1378391107 0.9878732756
6050263700.0 0.1496173862 0.9866194326
6100263400.0 0.1618198782 0.9853791214
6150263100.0 0.1766018734 0.9824430934
6200262800.0 0.185803499 0.9810710409
6250262500.0 0.198599005 0.9788939217
6300262200.0 0.2106395113 0.9762386808
6350261900.0 0.2235152022 0.9734834989
6400261600.0 0.2376404328 0.9703123666
6450261300.0 0.2484568343 0.9677464552
6500261000.0 0.2617716136 0.9639839442
6550260700.0 0.2748655925 0.9600912521
6600260400.0 0.2885832903 0.9561578001
6650260100.0 0.3025063728 0.9515362791
6700259800.0 0.3145845864 0.9473131396
6750259500.0 0.3282516009 0.9422552588
6800259200.0 0.3421700125 0.9373612178
6850258900.0 0.3545017258 0.9320335497
6900258600.0 0.3670678477 0.9269430009
6950258300.0 0.3795124211 0.9217080933
7000258000.0 0.3912480068 0.9163857964
7050257700.0 0.4029512309 0.9105868032
7100257400.0 0.4164179746 0.9040887404
7150257100.0 0.4270745438 0.8986871515
7200256800.0 0.4402804854 0.8920790027
7250256500.0 0.4530328033 0.885555342
7300256200.0 0.465952664 0.8788631329
7350255900.0 0.4786207041 0.871670594
7400255600.0 0.4929167539 0.8641516091
7450255300.0 0.5079365365 0.8545933855
7500255000.0 0.5209488712 0.847082515
7550254700.0 0.5356475246 0.8380762937
7600254400.0 0.5478984965 0.8299345451
7650254100.0 0.5592350939 0.822036059
7700253800.0 0.5708969621 0.813914882
7750253500.0 0.5815770903 0.8063894006
7800253200.0 0.5927361147 0.7985937454
7850252900.0 0.6024607876 0.7911625951
7900252600.0 0.6138635682 0.78250192
7950252300.0 0.622324277 0.7760221334
8000252000.0 0.632062956 0.7684882978
8050251700.0 0.6429630365 0.7604706986
8100251400.0 0.6524909916 0.7524866979
8150251100.0 0.6626675235 0.7440275163
8200250800.0 0.6720334588 0.7356462305
8250250500.0 0.6807656819 0.7278640505
8300250200.0 0.6899525248 0.7195709754
8350249900.0 0.6993180646 0.710709769
8400249600.0 0.7070028198 0.7024645996
8450249300.0 0.7159562719 0.6941692942
8500249000.0 0.7242480882 0.6853570906
8550248700.0 0.7326087703 0.6760276489
8600248400.0 0.7408967283 0.6668585088
8650248100.0 0.748682534 0.6573975713
8700247800.0 0.7579374065 0.6462420404
8750247500.0 0.7663081264 0.6362490978
8800247200.0 0.7740627633 0.6261186394
8850246900.0 0.7829807968 0.6145156317
8900246600.0 0.7912463066 0.6030121694
8950246300.0 0.8003053756 0.5905474594
9000246000.0 0.8089600038 0.5786834536
9050245700.0 0.817553208 0.5664938929
9100245400.0 0.8259244879 0.5541867838
9150245100.0 0.8344947828 0.5414074806
9200244800.0 0.8438450203 0.526986799
9250244500.0 0.8529734873 0.5122909986
9300244200.0 0.8609487742 0.4990323467
9350243900.0 0.8686777496 0.4857620788
9400243600.0 0.8751569186 0.4741764805
9450243300.0 0.8807730993 0.4639090029
9500243000.0 0.8870875154 0.4522145009
9550242700.0 0.8910867488 0.4445750952
9600242400.0 0.895391634 0.4369834428
9650242100.0 0.8993655215 0.430138289
9700241800.0 0.904469063 0.4214527038
9750241500.0 0.9086266226 0.4137778354
9800241200.0 0.9138927068 0.4042600277
9850240900.0 0.9197074838 0.3928242402
9900240600.0 0.9255727165 0.3808144181
9950240300.0 0.9326049592 0.3637868851
10000240000.0 0.9383839384 0.3514849926
10050239700.0 0.9438901423 0.3357297103
10100239400.0 0.9491552123 0.3194499942
10150239100.0 0.9540229244 0.3034718546
10200238800.0 0.9583714737 0.2880038393
10250238500.0 0.9614006677 0.2744954573
10300238200.0 0.9646714656 0.2605014009
10350237900.0 0.967432723 0.2471356693
10400237600.0 0.9700844135 0.2336435714
10450237300.0 0.9729133489 0.2198370998
10500237000.0 0.9748220039 0.2079405639
10550236700.0 0.9774343688 0.1931486571
10600236400.0 0.9795250552 0.1796672817
10650236100.0 0.9816277111 0.1650325227
10700235800.0 0.9835560706 0.1524901372
10750235500.0 0.9863856383 0.1384769173
10800235200.0 0.9879785249 0.1243845177
10850234900.0 0.9902995237 0.1094990506
10900234600.0 0.9919062369 0.0947637127
10950234300.0 0.9936364911 0.0811419804
11000234000.0 0.9955789009 0.0654705184
11050233700.0 0.9974399819 0.0487566009
11100233400.0 0.998903274 0.0310554243
11150233100.0 0.9996689409 0.0140978438
11200232800.0 1.000836195 -0.002136833
11250232500.0 1.001719907 -0.0193544414
11300232200.0 1.001845784 -0.03799285
11350231900.0 1.002408891 -0.0537222269
11400231600.0 1.001566353 -0.0695322945
11450231300.0 1.001464751 -0.0853853068
11500231000.0 0.999382968 -0.1016639627
11550230700.0 0.9980297541 -0.1155711277
11600230400.0 0.9974081246 -0.1282988303
11650230100.0 0.9947919953 -0.1405485084
11700229800.0 0.9928996268 -0.1554533054
11750229500.0 0.9900561181 -0.1689702465
11800229200.0 0.9871483972 -0.1823124709
11850228900.0 0.9834918682 -0.1940936807
11900228600.0 0.9798558901 -0.2035608238
11950228300.0 0.9761856751 -0.2136489213
12000228000.0 0.9737518541 -0.2224176706
12050227700.0 0.9700828514 -0.2352630072
12100227400.0 0.9665165426 -0.245638455
12150227100.0 0.9614279887 -0.2630297725
12200226800.0 0.9578871384 -0.2736923583
12250226500.0 0.9542749278 -0.2865336317
12300226200.0 0.9493182163 -0.2985510593
12350225900.0 0.9448320443 -0.3117135701
12400225600.0 0.9397905479 -0.3253029389
12450225300.0 0.935780804 -0.3375132862
12500225000.0 0.9298885623 -0.3520811297
12550224700.0 0.9246301043 -0.3659205634
12600224400.0 0.9196235782 -0.3785228713
12650224100.0 0.9139296667 -0.3929257447
12700223800.0 0.9085742783 -0.4058049555
12750223500.0 0.9030761347 -0.4188010141
12800223200.0 0.897890416 -0.4314677411
12850222900.0 0.8926679797 -0.4429283988
12900222600.0 0.8870730583 -0.4554915828
12950222300.0 0.8807101371 -0.468237902
13000222000.0 0.8751302109 -0.4798293193
13050221700.0 0.8682241145 -0.4927266933
13100221400.0 0.861301682 -0.5048742506
13150221100.0 0.854468421 -0.5171273041
13200220800.0 0.847555119 -0.5286448978
13250220500.0 0.8401768361 -0.5407209101
13300220200.0 0.8326270169 -0.5517431941
13350219900.0 0.824437652 -0.5635834014
13400219600.0 0.8161940639 -0.5753179309
13450219300.0 0.8068038086 -0.588549184
13500219000.0 0.7968886275 -0.6017090477
13550218700.0 0.7872560923 -0.6136864854
13600218400.0 0.7770399667 -0.6257868195
13650218100.0 0.76743413 -0.6364210229
13700217800.0 0.7574849031 -0.6486203637
13750217500.0 0.7484723037 -0.6589447187
13800217200.0 0.7365486929 -0.6705311627
13850216900.0 0.726114796 -0.6811066179
13900216600.0 0.7155521526 -0.6904840536
13950216300.0 0.7055916731 -0.6993835831
14000216000.0 0.6957092177 -0.709298787
14050215700.0 0.6863679611 -0.7171899942
14100215400.0 0.676727271 -0.7259155624
14150215100.0 0.6675096213 -0.7348006383
14200214800.0 0.6580542378 -0.74377703
14250214500.0 0.6476670981 -0.7534031436
14300214200.0 0.6371454509 -0.7627949467
14350213900.0 0.6260056909 -0.77270157
14400213600.0 0.6141206409 -0.782222657
14450213300.0 0.6014515734 -0.7924673644
14500213000.0 0.5886979551 -0.802383985
14550212700.0 0.5756933889 -0.8119445581
14600212400.0 0.5638843175 -0.8203007356
14650212100.0 0.5510622092 -0.829007164
14700211800.0 0.5371596249 -0.838539737
14750211500.0 0.5248636492 -0.8473263519
14800211200.0 0.5124390293 -0.8555025415
14850210900.0 0.5001781998 -0.8629184592
14900210600.0 0.4866828532 -0.8709661533
14950210300.0 0.4734701935 -0.8785730448
15000210000.0 0.4607691599 -0.8853108194
15050209700.0 0.4486216387 -0.8915373836
15100209400.0 0.4360586417 -0.8971258412
15150209100.0 0.4234553435 -0.9026539175
15200208800.0 0.4109042768 -0.9078864611
15250208500.0 0.4000894692 -0.9123495659
15300208200.0 0.388138664 -0.9172529203
15350207900.0 0.3741743757 -0.9220819718
15400207600.0 0.3596394079 -0.9271003057
15450207300.0 0.3452746193 -0.9319504678
15500207000.0 0.3302197526 -0.9367362417
15550206700.0 0.3158251671 -0.9417711094
15600206400.0 0.2999176185 -0.946020967
15650206100.0 0.2834918228 -0.9510052641
15700205800.0 0.2704018286 -0.9539419082
15750205500.0 0.2566080559 -0.9577195616
15800205200.0 0.2426218008 -0.9610431038
15850204900.0 0.2284630073 -0.9644177021
15900204600.0 0.213366242 -0.9682572534
15950204300.0 0.1990797742 -0.9712387064
16000204000.0 0.1844254954 -0.9744411377
16050203700.0 0.1690548309 -0.9771721483
16100203400.0 0.154489807 -0.9797154852
16150203100.0 0.1399246606 -0.9819243641
16200202800.0 0.1259017411 -0.9838677948
16250202500.0 0.1105329842 -0.9857865781
16300202200.0 0.0951675752 -0.9874433762
16350201900.0 0.080058317 -0.9889937881
16400201600.0 0.0652429669 -0.9901631544
16450201300.0 0.0498571741 -0.9909817388
16500201000.0 0.0327038884 -0.9920585607
16550200700.0 0.0167065868 -0.9924787447
16600200400.0 0.000599816 -0.9927898156
16650200100.0 -0.0153849721 -0.9927239896
16700199800.0 -0.0318412607 -0.9924015283
16750199500.0 -0.0509837437 -0.9916076588
16800199200.0 -0.0670712675 -0.9910389014
16850198900.0 -0.082667437 -0.9892398648
16900198600.0 -0.096290467 -0.9888068655
16950198300.0 -0.1104833873 -0.9873603147
17000198000.0 -0.1236990474 -0.986340392
17050197700.0 -0.1358374394 -0.9840589882
17100197400.0 -0.1486838043 -0.981897258
17150197100.0 -0.1612649496 -0.9797274744
17200196800.0 -0.1742434063 -0.977756954
17250196500.0 -0.1874138996 -0.9751337403
17300196200.0 -0.1994992232 -0.9729994466
17350195900.0 -0.2113674514 -0.9705423751
17400195600.0 -0.2232162601 -0.9681617194
17450195300.0 -0.2360718938 -0.9652703759
17500195000.0 -0.2492776235 -0.9619743596
17550194700.0 -0.2631918323 -0.9583848019
17600194400.0 -0.2767656493 -0.9544901407
17650194100.0 -0.2907491961 -0.9506595339
17700193800.0 -0.3032876635 -0.9463460243
17750193500.0 -0.3176218906 -0.9417657985
17800193200.0 -0.3315392168 -0.9369053245
17850192900.0 -0.3465412841 -0.9311896082
17900192600.0 -0.3617438013 -0.9251343443
17950192300.0 -0.3771350403 -0.9178504036
18000192000.0 -0.3919115481 -0.9105979169
18050191700.0 -0.4058066852 -0.9028250779
18100191400.0 -0.4199382601 -0.895031777
18150191100.0 -0.4347605997 -0.8869608669
18200190800.0 -0.4517616794 -0.8778139868
18250190500.0 -0.4683842196 -0.8682276895
18300190200.0 -0.4838771356 -0.8596596085
18350189900.0 -0.4993503049 -0.8512525566
18400189600.0 -0.5139973449 -0.8425616211
18450189300.0 -0.5275117918 -0.834841499
18500189000.0 -0.5407594388 -0.8268253761
18550188700.0 -0.5537140594 -0.8188890772
18600188400.0 -0.5654862837 -0.8120194045
18650188100.0 -0.5768168842 -0.8055438723
18700187800.0 -0.5877972505 -0.7985184263
18750187500.0 -0.5986378111 -0.7919916386
18800187200.0 -0.6093454392 -0.7851078945
18850186900.0 -0.6195722242 -0.7781615315
18900186600.0 -0.6299857607 -0.770733587
18950186300.0 -0.6401227353 -0.7631934438
19000186000.0 -0.6471724562 -0.7566851675
19050185700.0 -0.6569162742 -0.7493892806
19100185400.0 -0.6673114334 -0.7413438045
19150185100.0 -0.6775196884 -0.7330669666
19200184800.0 -0.6866448645 -0.7253571785
19250184500.0 -0.6966075132 -0.7154489403
19300184200.0 -0.7082085062 -0.7054714492
19350183900.0 -0.7188033618 -0.6969048065
19400183600.0 -0.728446144 -0.6868097272
19450183300.0 -0.7372533148 -0.6761272902
19500183000.0 -0.7456864594 -0.6666948245
19550182700.0 -0.7560391486 -0.6556847235
19600182400.0 -0.7659848005 -0.6439094184
19650182100.0 -0.7764446336 -0.6318174253
19700181800.0 -0.7868736877 -0.6182796664
19750181500.0 -0.7972829523 -0.6043798471
19800181200.0 -0.807392691 -0.5894348699
19850180900.0 -0.8168797991 -0.5741771416
19900180600.0 -0.8244681236 -0.5597578907
19950180300.0 -0.8335664542 -0.5431100987
20000180000.0 -0.8229521503 -0.5470015612
20050179700.0 -0.8312304642 -0.5346632063
20100179400.0 -0.8393421212 -0.5212795051
20150179100.0 -0.8477307582 -0.5098542384
20200178800.0 -0.855977975 -0.4978123319
20250178500.0 -0.8649609728 -0.4855589946
20300178200.0 -0.8752029961 -0.4721055061
20350177900.0 -0.8843303128 -0.4583675261
20400177600.0 -0.8933717861 -0.4437696404
20450177300.0 -0.9019225897 -0.4296570816
20500177000.0 -0.9099183965 -0.4155772299
20550176700.0 -0.9175931332 -0.4026196506
20600176400.0 -0.924399268 -0.3889041053
20650176100.0 -0.931120855 -0.3769246036
20700175800.0 -0.9376916815 -0.3653472139
20750175500.0 -0.9442025962 -0.3532795126
20800175200.0 -0.9486662977 -0.3430925601
20850174900.0 -0.9532209771 -0.3317163511
20900174600.0 -0.9573559936 -0.3217923224
20950174300.0 -0.9615124204 -0.3099343247
21000174000.0 -0.9629537119 -0.2984579452
21050173700.0 -0.9654101338 -0.2897409502
21100173400.0 -0.9690826061 -0.2796428494
21150173100.0 -0.9724983466 -0.2673042498
21200172800.0 -0.9769249954 -0.2543010334
21250172500.0 -0.9804035645 -0.2401423646
21300172200.0 -0.9838494586 -0.2263568449
21350171900.0 -0.9856012156 -0.2124839913
21400171600.0 -0.987944289 -0.1974305598
21450171300.0 -0.9879549847 -0.1837303339
21500171000.0 -0.9894926092 -0.1685298922
21550170700.0 -0.9888491868 -0.1538700666
21600170400.0 -0.9903672068 -0.1379291611
21650170100.0 -0.9907580841 -0.1223629054
21700169800.0 -0.9912087183 -0.1074202929
21750169500.0 -0.989888314 -0.0910804162
21800169200.0 -0.9899858842 -0.0747079905
21850168900.0 -0.9898630261 -0.0574981259
21900168600.0 -0.9892545567 -0.0415618207
21950168300.0 -0.9898631687 -0.0253549306
22000168000.0 -0.9888562095 -0.0110804524
22050167700.0 -0.9901131601 0.0034207951
22100167400.0 -0.9906968504 0.0195120909
22150167100.0 -0.9917707861 0.035749585
22200166800.0 -0.9922164743 0.051851119
22250166500.0 -0.9915279771 0.0691001548
22300166200.0 -0.9912935387 0.0860819326
22350165900.0 -0.9897024705 0.1018964174
22400165600.0 -0.9881146591 0.1174976948
22450165300.0 -0.9870233579 0.1330016118
22500165000.0 -0.9847776391 0.1464882838
22550164700.0 -0.983356382 0.1617292988
22600164400.0 -0.981493057 0.1790256892
22650164100.0 -0.9782885181 0.1952415858
22700163800.0 -0.9753778762 0.2111854834
22750163500.0 -0.9725081897 0.2262446571
22800163200.0 -0.9696886391 0.2385777627
22850162900.0 -0.9669165793 0.2525671021
22900162600.0 -0.9651505161 0.2663931503
22950162300.0 -0.9632114123 0.2799470855
23000162000.0 -0.9614661799 0.2928840815
23050161700.0 -0.9584601886 0.3060293525
23100161400.0 -0.9554384392 0.3198391435
23150161100.0 -0.9526837046 0.3325496412
23200160800.0 -0.949622762 0.3457505533
23250160500.0 -0.9469884453 0.3582577704
23300160200.0 -0.9448008059 0.3705375491
23350159900.0 -0.9397502585 0.3841180679
23400159600.0 -0.934928451 0.3982626381
23450159300.0 -0.9300460906 0.4118105569
23500159000.0 -0.9252776234 0.4253746875
23550158700.0 -0.920077464 0.4400915726
23600158400.0 -0.9142815895 0.4542102982
23650158100.0 -0.9067907888 0.4687354207
23700157800.0 -0.8982604768 0.4830974787
23750157500.0 -0.8886451313 0.4974273734
23800157200.0 -0.8786937021 0.5106070804
23850156900.0 -0.8692536526 0.5235329978
23900156600.0 -0.858719297 0.5361520253
23950156300.0 -0.8500645139 0.5483479473
24000156000.0 -0.8402600715 0.5609564881
24050155700.0 -0.8297243494 0.5741689223
24100155400.0 -0.8192630266 0.5854463297
24150155100.0 -0.8087508973 0.5987046204
24200154800.0 -0.7969675818 0.609698181
24250154500.0 -0.7851878536 0.6219756361
24300154200.0 -0.7737205608 0.63434331
24350153900.0 -0.7616832646 0.6453215188
24400153600.0 -0.7497795183 0.6561259684
24450153300.0 -0.7374742107 0.6663800966
24500153000.0 -0.7257877307 0.6764777752
24550152700.0 -0.7145828151 0.6869378666
24600152400.0 -0.702502477 0.6955843701
24650152100.0 -0.6903912924 0.7046474983
