!Created with skrf (http://scikit-rf.org).
# Hz S RI R 50.0 
!freq ReS11 ImS11
300000.0 -0.9736175185 -0.1213290837
50299700.0 -0.9999732684 0.0151865479
100299400.0 -0.9980646609 0.0281830035
150299100.0 -1.002711936 0.0448520996
200298800.0 -0.9995516051 0.0581959693
250298500.0 -0.9972878347 0.07184346
300298200.0 -0.9858846879 0.0876341814
350297900.0 -0.9941818462 0.0983768331
400297600.0 -0.9931985923 0.1150925304
450297300.0 -0.9910770165 0.1290385568
500297000.0 -0.9894016906 0.1436791698
550296700.0 -0.9845630056 0.155993736
600296400.0 -1.017399376 0.1892807104
650296100.0 -0.9821982557 0.1860063049
700295800.0 -0.979380284 0.2000536169
750295500.0 -0.9762274241 0.2140759134
800295200.0 -0.9729994215 0.2282878786
850294900.0 -0.9697789842 0.2421258492
900294600.0 -0.9657505999 0.255803658
950294300.0 -0.9621412703 0.2695890667
1000294000.0 -0.9581623859 0.2834775302
1050293700.0 -0.9536864537 0.2973568053
1100293400.0 -0.9492761591 0.3116770463
1150293100.0 -0.9455415316 0.3234831833
1200292800.0 -0.9403122734 0.3379919146
1250292500.0 -0.9346382351 0.3514593549
1300292200.0 -0.928813326 0.3645176505
1350291900.0 -0.9236730131 0.3786287081
1400291600.0 -0.9181294139 0.3917311741
1450291300.0 -0.9124815266 0.4043347532
1500291000.0 -0.9063665571 0.4173444993
1550290700.0 -0.8996068263 0.4308105972
1600290400.0 -0.8936822361 0.4437712475
1650290100.0 -0.8867156892 0.4559083107
1700289800.0 -0.8797825871 0.4693042192
1750289500.0 -0.8728893987 0.4816798144
1800289200.0 -0.8655818659 0.4947842069
1850288900.0 -0.8586503967 0.5059835455
1900288600.0 -0.8509396051 0.5189738313
1950288300.0 -0.8429548469 0.5315836141
2000288000.0 -0.8356482884 0.5431252215
2050287700.0 -0.8271406322 0.5552523627
2100287400.0 -0.8193406896 0.5668100732
2150287100.0 -0.8107227389 0.5789141925
2200286800.0 -0.8030863671 0.589140232
2250286500.0 -0.7940847024 0.6012719098
2300286200.0 -0.7852587752 0.6128225865
2350285900.0 -0.7766511133 0.6237740329
2400285600.0 -0.7678176264 0.6347919235
2450285300.0 -0.7591163155 0.6454783475
2500285000.0 -0.7492430596 0.6568168708
2550284700.0 -0.7403364015 0.6668251239
2600284400.0 -0.730962308 0.6769694305
2650284100.0 -0.7221638988 0.6874853504
2700283800.0 -0.711554149 0.6976854499
2750283500.0 -0.7014032875 0.7087758496
2800283200.0 -0.6913630425 0.718541336
2850282900.0 -0.6812152931 0.7283885693
2900282600.0 -0.6707279299 0.7377815479
2950282300.0 -0.6605971561 0.7472721896
3000282000.0 -0.6495029784 0.7566360607
3050281700.0 -0.6386371194 0.7659749615
3100281400.0 -0.6269024161 0.7752564538
3150281100.0 -0.615241737 0.7843678558
3200280800.0 -0.60348428 0.7927766179
3250280500.0 -0.5927683864 0.8006832444
3300280200.0 -0.5814125892 0.8086776524
3350279900.0 -0.5695078344 0.8162739174
3400279600.0 -0.557339831 0.8242722946
3450279300.0 -0.5461034175 0.8312369428
3500279000.0 -0.5342108714 0.8384795883
3550278700.0 -0.5217967999 0.8455262117
3600278400.0 -0.5098770193 0.8526181613
3650278100.0 -0.4964551374 0.860010045
3700277800.0 -0.4845996903 0.8666863549
3750277500.0 -0.472258551 0.873222478
3800277200.0 -0.4596522405 0.8799451195
3850276900.0 -0.4479022697 0.8857952214
3900276600.0 -0.4369927507 0.8912626092
3950276300.0 -0.4245528802 0.8972909962
4000276000.0 -0.4127906198 0.9034247882
4050275700.0 -0.399869881 0.9093295729
4100275400.0 -0.3887057149 0.9148118078
4150275100.0 -0.3759706252 0.9205260938
4200274800.0 -0.3627973986 0.9264208673
4250274500.0 -0.350260577 0.9313152078
4300274200.0 -0.3373214395 0.9365832143
4350273900.0 -0.323373711 0.9421673655
4400273600.0 -0.3087242812 0.9473417111
4450273300.0 -0.2933357596 0.9520713821
4500273000.0 -0.280131701 0.9568169113
4550272700.0 -0.2659242811 0.96079848
4600272400.0 -0.2505573683 0.9648842156
4650272100.0 -0.2391350345 0.9681597627
4700271800.0 -0.2258889024 0.9715165284
4750271500.0 -0.2142663546 0.9742659195
4800271200.0 -0.2017519947 0.9769941127
4850270900.0 -0.18803393 0.9798470956
4900270600.0 -0.1741091676 0.9822335894
4950270300.0 -0.1597137939 0.9849749112
5000270000.0 -0.1454137243 0.9866939884
5050269700.0 -0.132006022 0.9884729059
5100269400.0 -0.117941861 0.9900217533
5150269100.0 -0.1044216514 0.9920284489
5200268800.0 -0.0912355104 0.9929151416
5250268500.0 -0.0779026614 0.9939030847
5300268200.0 -0.0647501651 0.9946159718
5350267900.0 -0.0521495771 0.9951223956
5400267600.0 -0.0359929766 0.9962548479
5450267300.0 -0.0228136384 0.9964751857
5500267000.0 -0.0077499988 0.9971644701
5550266700.0 0.0073054866 0.997405801
5600266400.0 0.0227857505 0.997252863
5650266100.0 0.0394341596 0.9970083433
5700265800.0 0.0538756008 0.9960708445
5750265500.0 0.0687636231 0.9952131878
5800265200.0 0.0827971455 0.9943546499
5850264900.0 0.0959173231 0.9931958989
5900264600.0 0.1126966903 0.9916464938
5950264300.0 0.1243731853 0.9902171587
6000264000.0 0.1380827993 0.9878872054
6050263700.0 0.1503252772 0.986833469
6100263400.0 0.162817667 0.9849764745
6150263100.0 0.1774397646 0.9828952726
6200262800.0 0.1873766408 0.9810609315
6250262500.0 0.1998677465 0.9786772527
6300262200.0 0.2125293479 0.9760019401
6350261900.0 0.2255477505 0.9730902695
6400261600.0 0.2393200181 0.9698818154
6450261300.0 0.2505945387 0.9673111175
6500261000.0 0.2636415277 0.9634937311
6550260700.0 0.2767717318 0.9598686411
6600260400.0 0.2899674335 0.955624907
6650260100.0 0.3037441971 0.9510958744
6700259800.0 0.3159244352 0.9469586148
6750259500.0 0.3296708737 0.9419310938
6800259200.0 0.3430089646 0.9367019944
6850258900.0 0.3554177471 0.9316650911
6900258600.0 0.3678932262 0.92661988
6950258300.0 0.3804109324 0.9213972489
7000258000.0 0.3921223754 0.9160796748
7050257700.0 0.4042478785 0.9100081641
7100257400.0 0.4171989401 0.9037705049
7150257100.0 0.4276630335 0.8984964038
7200256800.0 0.4406384487 0.8920132936
7250256500.0 0.452978714 0.8857020594
7300256200.0 0.4658887358 0.8788582744
7350255900.0 0.4785012241 0.871846389
7400255600.0 0.4919699936 0.8644425941
7450255300.0 0.5074616065 0.8555320976
7500255000.0 0.5197667208 0.8484673706
7550254700.0 0.5334029453 0.839595471
7600254400.0 0.5454198283 0.8308565087
7650254100.0 0.5575924338 0.8233250118
7700253800.0 0.5693998644 0.8153585126
7750253500.0 0.5805238628 0.8078250192
7800253200.0 0.5912506672 0.7999812774
7850252900.0 0.6008006824 0.7928844704
7900252600.0 0.6123501293 0.784176091
7950252300.0 0.6209129048 0.7776610998
8000252000.0 0.6310321354 0.7700622674
8050251700.0 0.6414398641 0.7616725745
8100251400.0 0.6514862173 0.7537462982
8150251100.0 0.6620496567 0.745143636
8200250800.0 0.6705505924 0.7370597284
8250250500.0 0.6798520644 0.7291552458
8300250200.0 0.6890869056 0.7205246625
8350249900.0 0.6982980952 0.7117842878
8400249600.0 0.7065616813 0.7037492137
8450249300.0 0.7157270593 0.694671846
8500249000.0 0.7240412184 0.6859426255
8550248700.0 0.7325722346 0.6767860695
8600248400.0 0.7409440722 0.6673605865
8650248100.0 0.7485540229 0.6577648186
8700247800.0 0.757998829 0.646766979
8750247500.0 0.7663627905 0.6364664847
8800247200.0 0.7745502776 0.6262339412
8850246900.0 0.7832465428 0.6148308622
8900246600.0 0.7916781848 0.6037044453
8950246300.0 0.8008291234 0.5906924635
9000246000.0 0.8100147082 0.5783301073
9050245700.0 0.8191264521 0.5657284948
9100245400.0 0.8274798409 0.553265779
9150245100.0 0.8364759986 0.5400530009
9200244800.0 0.8460268052 0.5251292644
9250244500.0 0.8555442196 0.5100535853
9300244200.0 0.8637558458 0.4957843282
9350243900.0 0.8713262027 0.4823046305
9400243600.0 0.8780285172 0.4701451155
9450243300.0 0.8837552983 0.4589656975
9500243000.0 0.8899928527 0.4469550394
9550242700.0 0.8938502463 0.439362489
9600242400.0 0.8980499047 0.431877046
9650242100.0 0.9020405126 0.4249534385
9700241800.0 0.9065080987 0.4170710396
9750241500.0 0.9105396237 0.4094579116
9800241200.0 0.9154465475 0.3998518444
9850240900.0 0.9210774896 0.3882721489
9900240600.0 0.9268670323 0.3768406763
9950240300.0 0.9337222746 0.3602010711
10000240000.0 0.938304775 0.3487392364
10050239700.0 0.9442951178 0.3330595452
10100239400.0 0.9494909912 0.3170801671
10150239100.0 0.9541209585 0.3019746636
10200238800.0 0.9582753528 0.2866904316
10250238500.0 0.9614407223 0.2734200127
10300238200.0 0.9646878425 0.2593908187
10350237900.0 0.9673609165 0.2463240016
10400237600.0 0.9698199491 0.233028015
10450237300.0 0.9726287046 0.219006599
10500237000.0 0.974777816 0.2072123807
10550236700.0 0.9773733097 0.1924119738
10600236400.0 0.9792270997 0.1786299759
10650236100.0 0.9811472215 0.1646654064
10700235800.0 0.9834682594 0.1521251374
10750235500.0 0.9859842918 0.1383059575
10800235200.0 0.9874468846 0.1242390616
10850234900.0 0.9895070374 0.1099211432
10900234600.0 0.9921226821 0.0948908718
10950234300.0 0.9937809283 0.0817544795
11000234000.0 0.9953617377 0.0665298625
11050233700.0 0.9971243924 0.0499480889
11100233400.0 0.998486995 0.0323810772
11150233100.0 0.9997375117 0.0161975009
11200232800.0 1.000343511 0.0005845349
11250232500.0 1.001560915 -0.0161693606
11300232200.0 1.001917494 -0.0349659723
11350231900.0 1.002178157 -0.0506815388
11400231600.0 1.001836988 -0.0658518101
11450231300.0 1.000616679 -0.0811084691
11500231000.0 0.9998122489 -0.0979377909
11550230700.0 0.9984574182 -0.1113750282
11600230400.0 0.996834733 -0.1244250357
11650230100.0 0.9949922331 -0.135753384
11700229800.0 0.9929787088 -0.150284993
11750229500.0 0.9906235648 -0.1648197875
11800229200.0 0.9878355505 -0.1780889729
11850228900.0 0.9843024661 -0.1903732077
11900228600.0 0.9808078825 -0.2002079223
11950228300.0 0.977304483 -0.2101479512
12000228000.0 0.9745357049 -0.2193097144
12050227700.0 0.9709740552 -0.2319843289
12100227400.0 0.9678380453 -0.2430937436
12150227100.0 0.9632244649 -0.259132289
12200226800.0 0.9594631181 -0.2698690586
12250226500.0 0.9548406199 -0.2829166154
12300226200.0 0.9506062171 -0.2959190809
12350225900.0 0.9455719312 -0.3094525119
12400225600.0 0.9416523341 -0.3222267765
12450225300.0 0.9370986928 -0.3348978687
12500225000.0 0.931451587 -0.3495502139
12550224700.0 0.9263354289 -0.3634532493
12600224400.0 0.9214278475 -0.3763097423
12650224100.0 0.915514337 -0.3905189064
12700223800.0 0.9101035108 -0.4033881041
12750223500.0 0.9047046116 -0.4163522432
12800223200.0 0.8993026304 -0.4289841213
12850222900.0 0.8939714912 -0.4413762912
12900222600.0 0.888390332 -0.4532106007
12950222300.0 0.8818185125 -0.4658933731
13000222000.0 0.8758369277 -0.4774721826
13050221700.0 0.8694032943 -0.4904003603
13100221400.0 0.862511269 -0.5021157308
13150221100.0 0.8556949324 -0.5146124654
13200220800.0 0.8489717154 -0.5260875319
13250220500.0 0.8418532019 -0.5380008847
13300220200.0 0.8342538362 -0.5490048659
13350219900.0 0.8261453753 -0.561011115
13400219600.0 0.8178841632 -0.5730660665
13450219300.0 0.8084476145 -0.5861999671
13500219000.0 0.7981073395 -0.5999890823
13550218700.0 0.7886854938 -0.6125608348
13600218400.0 0.7784198169 -0.6248805939
13650218100.0 0.7683649916 -0.6356632086
13700217800.0 0.7578248623 -0.6476401293
13750217500.0 0.7475239627 -0.6588846222
13800217200.0 0.7368710578 -0.6705876811
13850216900.0 0.7262459939 -0.6813627737
13900216600.0 0.7162163335 -0.6909198195
13950216300.0 0.7051617189 -0.7008827923
14000216000.0 0.6959928827 -0.7098009097
14050215700.0 0.6861867973 -0.7177886724
14100215400.0 0.6765569354 -0.7273675435
14150215100.0 0.6671930525 -0.7355451683
14200214800.0 0.6578483149 -0.7446116259
14250214500.0 0.6475476845 -0.7539528042
14300214200.0 0.6369296827 -0.7633318404
14350213900.0 0.6257882455 -0.7728100575
14400213600.0 0.6139886457 -0.7829539915
14450213300.0 0.6009608148 -0.7928443183
14500213000.0 0.5882219796 -0.8029075073
14550212700.0 0.5756871013 -0.8124893902
14600212400.0 0.5628328521 -0.8208901155
14650212100.0 0.5500643578 -0.8300190277
14700211800.0 0.5365628849 -0.8392329059
14750211500.0 0.5248813169 -0.8477325967
14800211200.0 0.5119722837 -0.8556449995
14850210900.0 0.4997993487 -0.8629863718
14900210600.0 0.4864091767 -0.8712156639
14950210300.0 0.4730859949 -0.8787561888
15000210000.0 0.4606279036 -0.8855671521
15050209700.0 0.4478399712 -0.8920472301
15100209400.0 0.4356611941 -0.8975928074
15150209100.0 0.4231817366 -0.9028924572
15200208800.0 0.4101211911 -0.9081728194
15250208500.0 0.3990677483 -0.9131456495
15300208200.0 0.3866061504 -0.9178914351
15350207900.0 0.3733305526 -0.9223205106
15400207600.0 0.359164862 -0.9285647831
15450207300.0 0.3443983133 -0.9324040766
15500207000.0 0.3297232937 -0.9378267708
15550206700.0 0.3156083693 -0.9426324037
15600206400.0 0.2991609742 -0.9471928461
15650206100.0 0.2837561809 -0.9513021959
15700205800.0 0.2700808119 -0.9548328702
15750205500.0 0.2557361164 -0.9581615624
15800205200.0 0.2412218068 -0.9616752352
15850204900.0 0.2270217844 -0.9651819076
15900204600.0 0.2119549833 -0.9688089289
15950204300.0 0.1979719166 -0.9716019987
16000204000.0 0.1836857234 -0.9747050808
16050203700.0 0.1681145542 -0.9776051389
16100203400.0 0.1534603907 -0.9797734481
16150203100.0 0.1391976245 -0.9821141236
16200202800.0 0.1244079281 -0.9841016424
16250202500.0 0.110138054 -0.9856411421
16300202200.0 0.0947439293 -0.9872653699
16350201900.0 0.0797577529 -0.9888898406
16400201600.0 0.0650510475 -0.9900437007
16450201300.0 0.0495543064 -0.9912700236
16500201000.0 0.0327844564 -0.9919550974
16550200700.0 0.0168846004 -0.9925863575
16600200400.0 0.0011394809 -0.9927306289
16650200100.0 -0.0148654893 -0.9929465561
16700199800.0 -0.0315610965 -0.9923253423
16750199500.0 -0.0499656181 -0.9917481577
16800199200.0 -0.0659342071 -0.9906003842
16850198900.0 -0.0806431737 -0.9896175047
16900198600.0 -0.0947609728 -0.9887681831
16950198300.0 -0.1089127392 -0.9879529478
17000198000.0 -0.1215307722 -0.9862752119
17050197700.0 -0.1336124346 -0.9841043161
17100197400.0 -0.1471473524 -0.9822044511
17150197100.0 -0.1596910057 -0.9803143027
17200196800.0 -0.172208952 -0.9781332338
17250196500.0 -0.1852812346 -0.9759911235
17300196200.0 -0.1973235598 -0.9735586797
17350195900.0 -0.20927431 -0.9712087393
17400195600.0 -0.2214656596 -0.9686520313
17450195300.0 -0.2343543916 -0.9659163149
17500195000.0 -0.2477932197 -0.962570181
17550194700.0 -0.2617897221 -0.9587945432
17600194400.0 -0.2756528592 -0.9549993949
17650194100.0 -0.2893479924 -0.9507810073
17700193800.0 -0.3025624039 -0.9463409991
17750193500.0 -0.3164882637 -0.9418909611
17800193200.0 -0.3306914149 -0.9370613413
17850192900.0 -0.3462563233 -0.9313111874
17900192600.0 -0.3610806673 -0.9252545985
17950192300.0 -0.376721569 -0.9180073488
18000192000.0 -0.3913188405 -0.9110633176
18050191700.0 -0.4052840456 -0.9032273569
18100191400.0 -0.4196037028 -0.8956085329
18150191100.0 -0.4346789883 -0.8875042519
18200190800.0 -0.4513076992 -0.8783871028
18250190500.0 -0.468530678 -0.8688462439
18300190200.0 -0.4840760943 -0.8601607564
18350189900.0 -0.4991957093 -0.8524962228
18400189600.0 -0.5133920154 -0.8437696807
18450189300.0 -0.5264465123 -0.8355971225
18500189000.0 -0.539868598 -0.8275437307
18550188700.0 -0.552328682 -0.8200892108
18600188400.0 -0.5647276209 -0.8132951451
18650188100.0 -0.5759963207 -0.8067280325
18700187800.0 -0.5866281287 -0.8002905648
18750187500.0 -0.5974819615 -0.7933692682
18800187200.0 -0.607962013 -0.7867016536
18850186900.0 -0.6181294666 -0.7797549451
18900186600.0 -0.6282223772 -0.7723576019
18950186300.0 -0.6384234851 -0.7646787866
19000186000.0 -0.645366513 -0.7583030794
19050185700.0 -0.6551892947 -0.7511452453
19100185400.0 -0.6646757261 -0.7433278934
19150185100.0 -0.6745046914 -0.734723192
19200184800.0 -0.6841857098 -0.7270859423
19250184500.0 -0.6949357176 -0.7166922002
19300184200.0 -0.7061889712 -0.7074727881
19350183900.0 -0.7169786498 -0.6974214998
19400183600.0 -0.7263219281 -0.6877456803
19450183300.0 -0.7360011046 -0.6778287752
19500183000.0 -0.7437526734 -0.6674805377
19550182700.0 -0.7534519442 -0.6566166123
19600182400.0 -0.7636851096 -0.6451071507
19650182100.0 -0.7748432548 -0.632761102
19700181800.0 -0.7852486418 -0.6193728692
19750181500.0 -0.7957606065 -0.6053928836
19800181200.0 -0.8061685766 -0.5904568824
19850180900.0 -0.815758026 -0.5751527219
19900180600.0 -0.8234816184 -0.5605665275
19950180300.0 -0.8327668032 -0.5446490457
20000180000.0 -0.8248156329 -0.5472245857
20050179700.0 -0.8330564696 -0.5344282071
20100179400.0 -0.8415853901 -0.520608958
20150179100.0 -0.849433054 -0.5084004655
20200178800.0 -0.8585946725 -0.4958597715
20250178500.0 -0.8676715138 -0.4832772546
20300178200.0 -0.8774873591 -0.4684477352
20350177900.0 -0.8865853628 -0.4547694624
20400177600.0 -0.8950712908 -0.4404040283
20450177300.0 -0.9038536055 -0.4259118393
20500177000.0 -0.9117773799 -0.4121564367
20550176700.0 -0.9194506491 -0.3989815368
20600176400.0 -0.9263288774 -0.385791404
20650176100.0 -0.9328677806 -0.3730854343
20700175800.0 -0.9398778776 -0.3619803001
20750175500.0 -0.9458822533 -0.3493109508
20800175200.0 -0.9511870564 -0.3393652182
20850174900.0 -0.9560954769 -0.3283673092
20900174600.0 -0.9592803767 -0.3166641659
20950174300.0 -0.9634919658 -0.306084319
21000174000.0 -0.9661730096 -0.2949778659
21050173700.0 -0.9693479963 -0.2833095457
21100173400.0 -0.9739149487 -0.2720457555
21150173100.0 -0.9773200883 -0.2605325225
21200172800.0 -0.9808699704 -0.2474473648
21250172500.0 -0.984347465 -0.2332585362
21300172200.0 -0.9870326669 -0.2194115201
21350171900.0 -0.9889062879 -0.2053696754
21400171600.0 -0.9907344088 -0.1912830334
21450171300.0 -0.9911259565 -0.1766338677
21500171000.0 -0.9907166773 -0.1616867604
21550170700.0 -0.9911063033 -0.1464330261
21600170400.0 -0.9914391802 -0.1300717584
21650170100.0 -0.9909908615 -0.1148395818
21700169800.0 -0.9895541127 -0.098892387
21750169500.0 -0.9906048665 -0.083796223
21800169200.0 -0.9894095647 -0.0672232645
21850168900.0 -0.9889426426 -0.0498672884
21900168600.0 -0.9879491615 -0.0335189746
21950168300.0 -0.9866294545 -0.018292512
22000168000.0 -0.9860871423 -0.0030770088
22050167700.0 -0.9859149834 0.0112267526
22100167400.0 -0.9862680981 0.0268581767
22150167100.0 -0.9875199684 0.0423092735
22200166800.0 -0.9875975983 0.0587244091
22250166500.0 -0.9866805614 0.0767783709
22300166200.0 -0.9868537454 0.0921564532
22350165900.0 -0.9853861655 0.1090484229
22400165600.0 -0.9838619712 0.1250716646
22450165300.0 -0.9812315557 0.1395102925
22500165000.0 -0.9795871064 0.1526766864
22550164700.0 -0.9783834691 0.1689592022
22600164400.0 -0.9761392947 0.1857733618
22650164100.0 -0.9739297994 0.2006316844
22700163800.0 -0.9707111411 0.216313063
22750163500.0 -0.9687822522 0.2315669742
22800163200.0 -0.9660517121 0.2442968162
22850162900.0 -0.9633392709 0.257967931
22900162600.0 -0.9620593877 0.2713098397
22950162300.0 -0.9602949436 0.2844060805
23000162000.0 -0.9588227865 0.2966970715
23050161700.0 -0.9564009744 0.3094084095
23100161400.0 -0.9547766152 0.3226493393
23150161100.0 -0.9515625203 0.3353247606
23200160800.0 -0.9487614745 0.3474713074
23250160500.0 -0.9462721343 0.3597904553
23300160200.0 -0.942471086 0.3715053163
23350159900.0 -0.9390479448 0.3858934633
23400159600.0 -0.9348513422 0.3985123209
23450159300.0 -0.929824476 0.4118210017
23500159000.0 -0.9248394782 0.4253313544
23550158700.0 -0.9202478416 0.4396104446
23600158400.0 -0.9145805777 0.4527483507
23650158100.0 -0.9080651332 0.4671159961
23700157800.0 -0.9001788001 0.4811122807
23750157500.0 -0.8912490944 0.4953075887
23800157200.0 -0.8826478577 0.5086561366
23850156900.0 -0.8737641959 0.5218712913
23900156600.0 -0.8638549356 0.533809937
23950156300.0 -0.8534801869 0.5467550928
24000156000.0 -0.8449480227 0.558431288
24050155700.0 -0.8348415553 0.570686757
24100155400.0 -0.8244692938 0.5822617883
24150155100.0 -0.813424939 0.5945498967
24200154800.0 -0.8032777105 0.6065076237
24250154500.0 -0.7917561269 0.6180603419
24300154200.0 -0.7805376603 0.6300380442
24350153900.0 -0.7685416983 0.6405757095
24400153600.0 -0.7563747636 0.6510879082
24450153300.0 -0.7442375274 0.661153511
24500153000.0 -0.7328883208 0.6709291285
24550152700.0 -0.7220426248 0.6805458191
24600152400.0 -0.7092999374 0.6900922481
