!Created with skrf (http://scikit-rf.org).
# Hz S RI R 50.0 
!freq ReS11 ImS11
300000.0 -0.9745180538 -0.1184561452
50299700.0 -1.000060619 0.0153014444
100299400.0 -0.9981098605 0.0281609037
150299100.0 -1.002973091 0.045037625
200298800.0 -0.9997139279 0.0585552493
250298500.0 -0.9974690914 0.0717810551
300298200.0 -0.9859080644 0.0878616653
350297900.0 -0.9940454968 0.0986353408
400297600.0 -0.9931254704 0.1153021856
450297300.0 -0.9911139384 0.128873857
500297000.0 -0.9893929161 0.1436774886
550296700.0 -0.9844542407 0.1561486672
600296400.0 -1.017503145 0.1894066599
650296100.0 -0.9822619326 0.1859442277
700295800.0 -0.9794241906 0.2004272565
750295500.0 -0.9763683111 0.2143222069
800295200.0 -0.972943382 0.2284885937
850294900.0 -0.9697355698 0.2423012578
900294600.0 -0.9658290869 0.2558794638
950294300.0 -0.9620851547 0.2697956217
1000294000.0 -0.9582117222 0.2836550074
1050293700.0 -0.9536672545 0.2975588301
1100293400.0 -0.9493908523 0.3119228175
1150293100.0 -0.9455212857 0.3237568562
1200292800.0 -0.9400629666 0.3381508363
1250292500.0 -0.9347433129 0.3516548633
1300292200.0 -0.9291361771 0.3648280201
1350291900.0 -0.9234073582 0.3788002566
1400291600.0 -0.9179499691 0.3919162812
1450291300.0 -0.9127073435 0.4042636116
1500291000.0 -0.9062162981 0.4176916721
1550290700.0 -0.8997399573 0.431141528
1600290400.0 -0.8933264351 0.4439727712
1650290100.0 -0.8868949435 0.4560498697
1700289800.0 -0.8799326725 0.4696183009
1750289500.0 -0.8727918537 0.4819131708
1800289200.0 -0.8654160074 0.4947262426
1850288900.0 -0.8588038307 0.5061565591
1900288600.0 -0.8510176443 0.5190689544
1950288300.0 -0.8429597584 0.5315689899
2000288000.0 -0.8354948063 0.5430650964
2050287700.0 -0.8271234543 0.5552101694
2100287400.0 -0.8193391922 0.5670582288
2150287100.0 -0.8106125831 0.5790325226
2200286800.0 -0.80288783 0.5894149944
2250286500.0 -0.794057569 0.6016668905
2300286200.0 -0.7852489088 0.6131113655
2350285900.0 -0.7765163708 0.6238930724
2400285600.0 -0.7675833358 0.6350667936
2450285300.0 -0.7590838252 0.6452751298
2500285000.0 -0.7494462848 0.65661525
2550284700.0 -0.740402778 0.666919928
2600284400.0 -0.7310546415 0.676882559
2650284100.0 -0.7221380918 0.687535549
2700283800.0 -0.711553353 0.6978895882
2750283500.0 -0.7012146964 0.7087226883
2800283200.0 -0.6912854456 0.7183146428
2850282900.0 -0.681156298 0.7282398897
2900282600.0 -0.6707325069 0.7376654694
2950282300.0 -0.6604011595 0.7471588179
3000282000.0 -0.6500932744 0.7565687619
3050281700.0 -0.6386753982 0.7659512035
3100281400.0 -0.6268540665 0.7754051779
3150281100.0 -0.6149484257 0.7846417047
3200280800.0 -0.6034545825 0.7930920259
3250280500.0 -0.5925733907 0.8008949651
3300280200.0 -0.5813139147 0.8088019566
3350279900.0 -0.5697211784 0.8166348731
3400279600.0 -0.5576163183 0.824141104
3450279300.0 -0.5463124179 0.8310869965
3500279000.0 -0.5345106752 0.8383758563
3550278700.0 -0.5219168702 0.845681357
3600278400.0 -0.5098041326 0.852754499
3650278100.0 -0.4963870618 0.8605413128
3700277800.0 -0.4844998003 0.866993044
3750277500.0 -0.4723991624 0.8733143913
3800277200.0 -0.4599667073 0.8798387971
3850276900.0 -0.447637359 0.8857342723
3900276600.0 -0.4368482482 0.891354702
3950276300.0 -0.4244139159 0.8973865158
4000276000.0 -0.4126466079 0.9034556128
4050275700.0 -0.3996546659 0.9095379808
4100275400.0 -0.3884087149 0.9147228918
4150275100.0 -0.3757936836 0.9205685515
4200274800.0 -0.3628874493 0.9263096747
4250274500.0 -0.3504857877 0.9313063059
4300274200.0 -0.3376735353 0.9365747631
4350273900.0 -0.3236994315 0.9418938947
4400273600.0 -0.3089551136 0.9472214511
4450273300.0 -0.2936737485 0.9522659554
4500273000.0 -0.280006387 0.9564392052
4550272700.0 -0.2659705513 0.9608618398
4600272400.0 -0.2505606529 0.9649767318
4650272100.0 -0.2387326699 0.9682318513
4700271800.0 -0.225455232 0.9716384516
4750271500.0 -0.2138919672 0.9744243288
4800271200.0 -0.2013016435 0.9772262121
4850270900.0 -0.1873182268 0.9798549167
4900270600.0 -0.1735368499 0.9824684889
4950270300.0 -0.1591627888 0.9850522695
5000270000.0 -0.1450633726 0.987138427
5050269700.0 -0.1313536502 0.9884876674
5100269400.0 -0.1177738266 0.9903760234
5150269100.0 -0.104261469 0.9919997539
5200268800.0 -0.0911053862 0.9930769234
5250268500.0 -0.0779218494 0.993792193
5300268200.0 -0.0648437911 0.9943861013
5350267900.0 -0.052715289 0.9950636035
5400267600.0 -0.036412062 0.9964431362
5450267300.0 -0.0234125018 0.9966607119
5500267000.0 -0.0082390737 0.9970099678
5550266700.0 0.0067946662 0.9972199508
5600266400.0 0.0220185423 0.9972695331
5650266100.0 0.0389060803 0.9970852725
5700265800.0 0.0533941041 0.9963867267
5750265500.0 0.0681895249 0.99513219
5800265200.0 0.0824051991 0.9943870341
5850264900.0 0.0956672152 0.9936205509
5900264600.0 0.112297633 0.9917820036
5950264300.0 0.1238465637 0.9901236527
6000264000.0 0.1382818992 0.9882972937
6050263700.0 0.1505184095 0.9868389116
6100263400.0 0.163050333 0.9850839569
6150263100.0 0.177764888 0.982859927
6200262800.0 0.1878958799 0.980907383
6250262500.0 0.2006375644 0.9784332636
6300262200.0 0.2134276231 0.9758912808
6350261900.0 0.226373352 0.9729752009
6400261600.0 0.2403290374 0.9695565769
6450261300.0 0.2515926206 0.9667348928
6500261000.0 0.2642373808 0.9633195695
6550260700.0 0.2774956177 0.9593974424
6600260400.0 0.2910762395 0.9553936418
6650260100.0 0.3047603628 0.9509539099
6700259800.0 0.3165268378 0.9464207858
6750259500.0 0.3305222633 0.9419322026
6800259200.0 0.3435919739 0.9367018072
6850258900.0 0.3556553455 0.9315974349
6900258600.0 0.3680198236 0.9267295427
6950258300.0 0.380444109 0.9214808664
7000258000.0 0.3926333113 0.9159188452
7050257700.0 0.4047308908 0.9099673341
7100257400.0 0.4175679162 0.9036968188
7150257100.0 0.4279144048 0.8984006259
7200256800.0 0.4408836877 0.8919875846
7250256500.0 0.4525505293 0.8855190454
7300256200.0 0.4655975221 0.8789011977
7350255900.0 0.4782841262 0.8721638166
7400255600.0 0.491253426 0.864512095
7450255300.0 0.5068072951 0.8556290637
7500255000.0 0.5188047882 0.8488261099
7550254700.0 0.5327539976 0.8401881675
7600254400.0 0.5450643186 0.8319668483
7650254100.0 0.5564381994 0.8239727318
7700253800.0 0.5685066074 0.8161020592
7750253500.0 0.5794124919 0.8082160929
7800253200.0 0.5902150561 0.8008384257
7850252900.0 0.6000015293 0.7934747467
7900252600.0 0.6116035417 0.7849772425
7950252300.0 0.620443077 0.7784658846
8000252000.0 0.6306410267 0.7706247169
8050251700.0 0.6410702761 0.7625175609
8100251400.0 0.651225749 0.7544978309
8150251100.0 0.6613419102 0.7457092947
8200250800.0 0.6705594125 0.7376139253
8250250500.0 0.6795617232 0.7298472058
8300250200.0 0.6889978517 0.7211927608
8350249900.0 0.697710208 0.7125701951
8400249600.0 0.7061340225 0.7044455293
8450249300.0 0.7152887884 0.6952296306
8500249000.0 0.7238029425 0.6866422246
8550248700.0 0.7321138557 0.6773579345
8600248400.0 0.7405501225 0.6678980316
8650248100.0 0.7485049884 0.6583396127
8700247800.0 0.7579175688 0.6473786753
8750247500.0 0.7662077573 0.636960336
8800247200.0 0.7743310126 0.6265815999
8850246900.0 0.783242108 0.6153128852
8900246600.0 0.7915603089 0.6038835844
8950246300.0 0.8013236266 0.5910444529
9000246000.0 0.8102056481 0.5784246128
9050245700.0 0.8193751083 0.5655193966
9100245400.0 0.8281527986 0.5527927447
9150245100.0 0.8371652733 0.5394039534
9200244800.0 0.8470705708 0.5243980696
9250244500.0 0.8563533258 0.5086909258
9300244200.0 0.8647457495 0.4944197898
9350243900.0 0.8724301433 0.4807759992
9400243600.0 0.8792822519 0.4682782246
9450243300.0 0.885055329 0.4567904857
9500243000.0 0.8914713587 0.4444701894
9550242700.0 0.8953371461 0.4367917964
9600242400.0 0.8992251162 0.4295212445
9650242100.0 0.9027701268 0.4231429538
9700241800.0 0.9074292488 0.4147261939
9750241500.0 0.9117355818 0.4070576342
9800241200.0 0.9160604492 0.3980327863
9850240900.0 0.9219152663 0.3864868668
9900240600.0 0.9274106954 0.374870374
9950240300.0 0.9341028871 0.3587795561
10000240000.0 0.9385832997 0.3473484223
10050239700.0 0.9445024181 0.3317110757
10100239400.0 0.949393192 0.3162607694
10150239100.0 0.9538069379 0.3013875902
10200238800.0 0.9582155626 0.2862356593
10250238500.0 0.9615057351 0.2730734215
10300238200.0 0.9646731977 0.2591697998
10350237900.0 0.967228479 0.2460141198
10400237600.0 0.9696727563 0.2328280032
10450237300.0 0.9724858824 0.2186101088
10500237000.0 0.9744943768 0.2070204337
10550236700.0 0.9768190925 0.1923942226
10600236400.0 0.9792216004 0.1784198252
10650236100.0 0.9813115649 0.1644375328
10700235800.0 0.9833863806 0.1521075915
10750235500.0 0.985741441 0.1387183688
10800235200.0 0.9878315872 0.124573181
10850234900.0 0.9898748487 0.1100417529
10900234600.0 0.991662542 0.0953467413
10950234300.0 0.9935088584 0.0819964569
11000234000.0 0.9953183356 0.0670589743
11050233700.0 0.9970696304 0.0507214579
11100233400.0 0.9983717718 0.0334308822
11150233100.0 0.999637445 0.0169163834
11200232800.0 1.000078806 0.0022596042
11250232500.0 1.001250126 -0.0146052505
11300232200.0 1.001748958 -0.0321729983
11350231900.0 1.001685084 -0.0486085886
11400231600.0 1.001580901 -0.0641806204
11450231300.0 1.001094408 -0.0791209948
11500231000.0 0.9999569202 -0.0950165157
11550230700.0 0.9986001117 -0.1087990863
11600230400.0 0.9974151515 -0.1210496777
11650230100.0 0.9952576007 -0.1328986076
11700229800.0 0.9932989573 -0.146678457
11750229500.0 0.991211593 -0.1619422628
11800229200.0 0.9881435784 -0.1749684738
11850228900.0 0.9847766561 -0.1872786156
11900228600.0 0.9811072148 -0.1974075923
11950228300.0 0.9777185987 -0.2077909428
12000228000.0 0.9751359535 -0.2164378146
12050227700.0 0.9717498309 -0.2295565663
12100227400.0 0.968140047 -0.2414946254
12150227100.0 0.963278254 -0.2576903707
12200226800.0 0.9596612489 -0.2677818117
12250226500.0 0.9552158439 -0.2813910793
12300226200.0 0.9511996937 -0.2936136751
12350225900.0 0.9469320712 -0.3072527259
12400225600.0 0.9421511452 -0.3203209346
12450225300.0 0.9381465708 -0.3331634421
12500225000.0 0.9323837854 -0.3480932001
12550224700.0 0.9271803035 -0.3617913845
12600224400.0 0.922215702 -0.3747145088
12650224100.0 0.9164588645 -0.3891151272
12700223800.0 0.9112297758 -0.4019441786
12750223500.0 0.9056756136 -0.4149251934
12800223200.0 0.900266366 -0.4276082931
12850222900.0 0.8949442654 -0.4398668111
12900222600.0 0.8893303185 -0.4516684828
12950222300.0 0.8827244787 -0.4647360672
13000222000.0 0.8771102486 -0.4760189927
13050221700.0 0.870317448 -0.4888444244
13100221400.0 0.8636108039 -0.5008866853
13150221100.0 0.8568110663 -0.5129272023
13200220800.0 0.849931448 -0.5242516777
13250220500.0 0.8426103407 -0.5366693828
13300220200.0 0.8354214461 -0.5472243
13350219900.0 0.8273585016 -0.5592838254
13400219600.0 0.8189560685 -0.5713880356
13450219300.0 0.8093219655 -0.5849599504
13500219000.0 0.7998206211 -0.5987602584
13550218700.0 0.7893091595 -0.6113551357
13600218400.0 0.779242279 -0.6235351359
13650218100.0 0.7695883759 -0.6344628553
13700217800.0 0.7585984 -0.6474360188
13750217500.0 0.7490743897 -0.6581251323
13800217200.0 0.7375530673 -0.669664129
13850216900.0 0.7267633737 -0.681484758
13900216600.0 0.7174376014 -0.6902088008
13950216300.0 0.7052448596 -0.7014543184
14000216000.0 0.6961345805 -0.7100234582
14050215700.0 0.6864157301 -0.7180443202
14100215400.0 0.676314313 -0.7273115928
14150215100.0 0.6675381345 -0.7359834616
14200214800.0 0.657921525 -0.7446986007
14250214500.0 0.6475871605 -0.7540346529
14300214200.0 0.6371195265 -0.7632032601
14350213900.0 0.6262307606 -0.7732863787
14400213600.0 0.6143046411 -0.7823110363
14450213300.0 0.6009034199 -0.7930826511
14500213000.0 0.5884025577 -0.8030848342
14550212700.0 0.5753211491 -0.8124621097
14600212400.0 0.5627250024 -0.8212613609
14650212100.0 0.5498638433 -0.8299689615
14700211800.0 0.5364583729 -0.8397261558
14750211500.0 0.5240788251 -0.8478586264
14800211200.0 0.5119321615 -0.8558167924
14850210900.0 0.5000556077 -0.8630532125
14900210600.0 0.4866028673 -0.8710321485
14950210300.0 0.47321268 -0.8785174637
15000210000.0 0.4606043563 -0.8855108266
15050209700.0 0.447938605 -0.8914619856
15100209400.0 0.4357023259 -0.8975223365
15150209100.0 0.4227698217 -0.9031154258
15200208800.0 0.4101384702 -0.9082216479
15250208500.0 0.3995923126 -0.9132561742
15300208200.0 0.3872395312 -0.9176340585
15350207900.0 0.3740633772 -0.9223663686
15400207600.0 0.3591579992 -0.9276020821
15450207300.0 0.3452962536 -0.9327625743
15500207000.0 0.3303346877 -0.9373372534
15550206700.0 0.3156163827 -0.9421203713
15600206400.0 0.2997461238 -0.9471827848
15650206100.0 0.2836360456 -0.9515803432
15700205800.0 0.2700385992 -0.9547460788
15750205500.0 0.255137688 -0.958409416
15800205200.0 0.2406949126 -0.9619310923
15850204900.0 0.2264637363 -0.9654179084
15900204600.0 0.2113199571 -0.9689986941
15950204300.0 0.1972764982 -0.9719110885
16000204000.0 0.1829131367 -0.9749170677
16050203700.0 0.1680251089 -0.977914867
16100203400.0 0.1530494431 -0.9799451168
16150203100.0 0.1390116845 -0.9823788374
16200202800.0 0.12450743 -0.9846036842
16250202500.0 0.1099303433 -0.9859398811
16300202200.0 0.0945734552 -0.9878563748
16350201900.0 0.0798204894 -0.9892004426
16400201600.0 0.0649498601 -0.9903064779
16450201300.0 0.0495825857 -0.9913022581
16500201000.0 0.0332960889 -0.9921375923
16550200700.0 0.0175430177 -0.992569863
16600200400.0 0.0016641128 -0.9928677267
16650200100.0 -0.0142846884 -0.9927852864
16700199800.0 -0.0302986894 -0.9921943038
16750199500.0 -0.0495064352 -0.9914673937
16800199200.0 -0.0648034741 -0.9905960948
16850198900.0 -0.0797861463 -0.9897399537
16900198600.0 -0.0940299054 -0.9885590249
16950198300.0 -0.1071286843 -0.9875081709
17000198000.0 -0.1201767222 -0.9864187439
17050197700.0 -0.133146641 -0.9844602597
17100197400.0 -0.1460646304 -0.9821705077
17150197100.0 -0.1588461841 -0.9802756027
17200196800.0 -0.1710965292 -0.9780162667
17250196500.0 -0.1843269147 -0.9760863761
17300196200.0 -0.1963797349 -0.9736786921
17350195900.0 -0.2083009456 -0.9713330419
17400195600.0 -0.2204252593 -0.9689157948
17450195300.0 -0.2337075867 -0.9661426576
17500195000.0 -0.2470376402 -0.9628828507
17550194700.0 -0.2608535641 -0.9589787895
17600194400.0 -0.2749325499 -0.9548680722
17650194100.0 -0.2887956434 -0.9511533639
17700193800.0 -0.3018958203 -0.9468167069
17750193500.0 -0.3161884818 -0.9416968216
17800193200.0 -0.3308169392 -0.9369730526
17850192900.0 -0.3458122273 -0.9318172602
17900192600.0 -0.3608024839 -0.9254042503
17950192300.0 -0.3763960624 -0.9187368471
18000192000.0 -0.3910594834 -0.9112732142
18050191700.0 -0.4050732557 -0.9034059275
18100191400.0 -0.4193359331 -0.8958228688
18150191100.0 -0.4344932236 -0.8878823141
18200190800.0 -0.4512933445 -0.8786737527
18250190500.0 -0.4682019737 -0.8692505123
18300190200.0 -0.4837221327 -0.8605004535
18350189900.0 -0.4987870043 -0.8521795691
18400189600.0 -0.5132610558 -0.8434496462
18450189300.0 -0.5265777269 -0.8358937232
18500189000.0 -0.5398251367 -0.8279283768
18550188700.0 -0.5526548521 -0.8202677146
18600188400.0 -0.5641792352 -0.8134235238
18650188100.0 -0.5754198286 -0.8073071606
18700187800.0 -0.5860067395 -0.8007466457
18750187500.0 -0.5968610754 -0.7940257367
18800187200.0 -0.6073652156 -0.786926064
18850186900.0 -0.617476094 -0.7800404773
18900186600.0 -0.6276291548 -0.7728002816
18950186300.0 -0.6373545552 -0.7651926559
19000186000.0 -0.6447729149 -0.7591865978
19050185700.0 -0.6539302936 -0.7518978194
19100185400.0 -0.663758477 -0.7442402367
19150185100.0 -0.6739697239 -0.7352820069
19200184800.0 -0.6835881607 -0.7270007984
19250184500.0 -0.6938858778 -0.7183943319
19300184200.0 -0.7053360113 -0.7074914317
19350183900.0 -0.7151296645 -0.6984402265
19400183600.0 -0.7246101008 -0.6884957995
19450183300.0 -0.734007998 -0.6788532847
19500183000.0 -0.7426457215 -0.66807063
19550182700.0 -0.7527407702 -0.6571810596
19600182400.0 -0.7631204651 -0.6458277354
19650182100.0 -0.7734579167 -0.6337660289
19700181800.0 -0.7843702343 -0.6202820271
19750181500.0 -0.7950483472 -0.6059080168
19800181200.0 -0.805448315 -0.5911043893
19850180900.0 -0.8151877007 -0.5757137101
19900180600.0 -0.8230521448 -0.5613129854
19950180300.0 -0.8322849533 -0.5449058256
20000180000.0 -0.8253130433 -0.5472648257
20050179700.0 -0.8338824048 -0.5334908035
20100179400.0 -0.8415925052 -0.5200110848
20150179100.0 -0.8509417785 -0.507785227
20200178800.0 -0.8593669403 -0.4954658148
20250178500.0 -0.8685299808 -0.4819504065
20300178200.0 -0.8784977905 -0.4674594706
20350177900.0 -0.8873009613 -0.4526545103
20400177600.0 -0.8964844598 -0.4382151854
20450177300.0 -0.9047500108 -0.4240547614
20500177000.0 -0.9124723593 -0.4101779928
20550176700.0 -0.9202557792 -0.3968741623
20600176400.0 -0.9276994285 -0.3835545201
20650176100.0 -0.9339857486 -0.3714738977
20700175800.0 -0.9407717624 -0.3595105756
20750175500.0 -0.9472301745 -0.3478888341
20800175200.0 -0.9523636776 -0.3374521471
20850174900.0 -0.9561160979 -0.3263853355
20900174600.0 -0.9611620566 -0.3156931483
20950174300.0 -0.9656376299 -0.3031510002
21000174000.0 -0.9686211969 -0.2915615855
21050173700.0 -0.9706129713 -0.2819926904
21100173400.0 -0.9752111066 -0.2694553661
21150173100.0 -0.9789915904 -0.2571781304
21200172800.0 -0.9831838784 -0.2436237909
21250172500.0 -0.9861388936 -0.2299070951
21300172200.0 -0.9887272732 -0.2155978763
21350171900.0 -0.9900836231 -0.2012760499
21400171600.0 -0.9918535588 -0.1867139437
21450171300.0 -0.9916891029 -0.1728290461
21500171000.0 -0.9920850822 -0.1575656066
21550170700.0 -0.9923385008 -0.1420904584
21600170400.0 -0.9929238767 -0.1270139588
21650170100.0 -0.9911026654 -0.110141141
21700169800.0 -0.9897650176 -0.0954705389
21750169500.0 -0.9887440888 -0.0788011437
21800169200.0 -0.9883848405 -0.0629727199
21850168900.0 -0.9878253562 -0.0461061778
21900168600.0 -0.9866038053 -0.0291657366
21950168300.0 -0.9848687947 -0.013495004
22000168000.0 -0.9837744897 0.0014928524
22050167700.0 -0.9841534831 0.0153972124
22100167400.0 -0.9841358908 0.0308828955
22150167100.0 -0.9849315011 0.0463342075
22200166800.0 -0.9859307377 0.0623166273
22250166500.0 -0.9849405392 0.0797078613
22300166200.0 -0.9835371244 0.0965925716
22350165900.0 -0.9826949903 0.1126313917
22400165600.0 -0.9805072828 0.1285083309
22450165300.0 -0.97878831 0.1439117589
22500165000.0 -0.9780385956 0.1571914368
22550164700.0 -0.9766485686 0.1724693265
22600164400.0 -0.9745423063 0.1884500862
22650164100.0 -0.9718903021 0.2028748951
22700163800.0 -0.9686835486 0.2189089105
22750163500.0 -0.9668253401 0.2342247159
22800163200.0 -0.9642407165 0.2475112664
22850162900.0 -0.9615007252 0.2606094824
22900162600.0 -0.9602892782 0.2738691399
22950162300.0 -0.9593359426 0.2868431423
23000162000.0 -0.9577888315 0.2986376956
23050161700.0 -0.9560267612 0.3111300484
23100161400.0 -0.9532028422 0.3242046993
23150161100.0 -0.9505707968 0.3364888128
23200160800.0 -0.9480462592 0.3494095005
23250160500.0 -0.9454915116 0.3607122903
23300160200.0 -0.9428833316 0.3723389416
23350159900.0 -0.9387409405 0.3863539254
23400159600.0 -0.9341612472 0.3990145494
23450159300.0 -0.9293431365 0.4123907557
23500159000.0 -0.924537889 0.4255839247
23550158700.0 -0.9203321947 0.4392519755
23600158400.0 -0.9148687932 0.4524663146
23650158100.0 -0.9084200784 0.4666068864
23700157800.0 -0.900717301 0.4806400769
23750157500.0 -0.8921653547 0.4945311224
23800157200.0 -0.8832022412 0.5078978573
23850156900.0 -0.8743773503 0.5202650412
23900156600.0 -0.8655941992 0.5332523718
23950156300.0 -0.8557212826 0.5453572742
24000156000.0 -0.8474319041 0.5578585055
24050155700.0 -0.8369930352 0.5699503302
24100155400.0 -0.8274602403 0.5815913905
24150155100.0 -0.8167683703 0.5937701653
24200154800.0 -0.8055912478 0.6043413895
24250154500.0 -0.7945248966 0.6164149319
24300154200.0 -0.7827453313 0.6277879278
24350153900.0 -0.7716732891 0.6384211509
24400153600.0 -0.7588038483 0.6485834695
24450153300.0 -0.7475123487 0.6585105
24500153000.0 -0.7359898455 0.6678490467
24550152700.0 -0.7243104466 0.6781023884
24600152400.0 -0.7130377458 0.6874390478
24650152100.0 -0.702072511 0.6950010427
