!Created with skrf (http://scikit-rf.org).
# Hz S RI R 50.0 
!freq ReS11 ImS11
300000.0 -0.9751136436 -0.1209271099
50299700.0 -0.9999475776 0.0151535043
100299400.0 -0.9979174844 0.0280428594
150299100.0 -1.002729996 0.0449888742
200298800.0 -0.9994750053 0.058261254
250298500.0 -0.9974065136 0.0718446281
300298200.0 -0.9859009082 0.0877342349
350297900.0 -0.9938696589 0.0985031132
400297600.0 -0.9931398419 0.1151091543
450297300.0 -0.9909049708 0.1288416961
500297000.0 -0.9894147027 0.1437022476
550296700.0 -0.9843147444 0.1561833646
600296400.0 -1.0172177 0.1895237089
650296100.0 -0.9822107698 0.1861709082
700295800.0 -0.9795597881 0.2002882809
750295500.0 -0.9763451687 0.2143644543
800295200.0 -0.9728974618 0.2284755229
850294900.0 -0.9695681013 0.242332416
900294600.0 -0.9658426407 0.25595159
950294300.0 -0.9619262464 0.2695401224
1000294000.0 -0.9582201663 0.2836917404
1050293700.0 -0.9535492044 0.2973255143
1100293400.0 -0.9494153654 0.3118479179
1150293100.0 -0.9454601969 0.3237318515
1200292800.0 -0.9402344484 0.3381248528
1250292500.0 -0.9347297589 0.351440206
1300292200.0 -0.92908454 0.3647603869
1350291900.0 -0.9236354056 0.3787965653
1400291600.0 -0.9179441924 0.3920161901
1450291300.0 -0.9126309173 0.4042797228
1500291000.0 -0.9062584192 0.417569626
1550290700.0 -0.8996289753 0.4310120056
1600290400.0 -0.8936714478 0.4438307975
1650290100.0 -0.8868380564 0.4560836354
1700289800.0 -0.8798668884 0.46934935
1750289500.0 -0.8728652592 0.4818468065
1800289200.0 -0.865615204 0.4945817267
1850288900.0 -0.8587651565 0.5060128927
1900288600.0 -0.850964591 0.5189029312
1950288300.0 -0.8429554698 0.531575783
2000288000.0 -0.8354358266 0.542949231
2050287700.0 -0.8272440612 0.5551825476
2100287400.0 -0.8193336887 0.5668830714
2150287100.0 -0.8106390857 0.5789947005
2200286800.0 -0.8030718463 0.5893325318
2250286500.0 -0.7943383246 0.6014801488
2300286200.0 -0.7852748654 0.6128678921
2350285900.0 -0.7766477075 0.6239409142
2400285600.0 -0.7677387988 0.635033581
2450285300.0 -0.7592456706 0.6453711432
2500285000.0 -0.7492921326 0.6566919251
2550284700.0 -0.740467092 0.6669433369
2600284400.0 -0.7309003417 0.6768971498
2650284100.0 -0.7221658373 0.6875179479
2700283800.0 -0.7115700605 0.6979804349
2750283500.0 -0.7015610766 0.70872688
2800283200.0 -0.6915670458 0.7183337715
2850282900.0 -0.6811939183 0.7281926567
2900282600.0 -0.6708413391 0.7379317827
2950282300.0 -0.6605711731 0.7469587889
3000282000.0 -0.6498662753 0.7565460788
3050281700.0 -0.6386861475 0.7658672108
3100281400.0 -0.6269506809 0.7752084933
3150281100.0 -0.61498691 0.7844522799
3200280800.0 -0.6034874983 0.7929831719
3250280500.0 -0.5926081101 0.8007611792
3300280200.0 -0.581240874 0.8087724592
3350279900.0 -0.5695737836 0.8162079883
3400279600.0 -0.5574474895 0.8238920719
3450279300.0 -0.5463335799 0.8309665365
3500279000.0 -0.5344640532 0.8383690503
3550278700.0 -0.522043498 0.8455984776
3600278400.0 -0.5097489158 0.8527186691
3650278100.0 -0.4965760852 0.8603295863
3700277800.0 -0.484664816 0.8668158953
3750277500.0 -0.4721752506 0.8732633356
3800277200.0 -0.4598745444 0.8797662242
3850276900.0 -0.4476946998 0.8856301324
3900276600.0 -0.4369543422 0.8913199455
3950276300.0 -0.4247011744 0.8976658194
4000276000.0 -0.4128791212 0.9033948703
4050275700.0 -0.3998605508 0.909222424
4100275400.0 -0.3887604652 0.914707855
4150275100.0 -0.3759265123 0.9204974893
4200274800.0 -0.3630072019 0.9260056828
4250274500.0 -0.3507369237 0.9313531742
4300274200.0 -0.3378219819 0.9365246314
4350273900.0 -0.3236963786 0.9419429911
4400273600.0 -0.3089722381 0.9470582441
4450273300.0 -0.2936554781 0.952086455
4500273000.0 -0.2802186726 0.9566294929
4550272700.0 -0.2660937921 0.9609200291
4600272400.0 -0.2506271918 0.9650310278
4650272100.0 -0.238831559 0.9681796653
4700271800.0 -0.225632068 0.971607484
4750271500.0 -0.2139649262 0.9744492861
4800271200.0 -0.2014305019 0.9770781698
4850270900.0 -0.1875201396 0.9799311697
4900270600.0 -0.173588231 0.9822645511
4950270300.0 -0.1593846454 0.9850014564
5000270000.0 -0.1452001816 0.9871315043
5050269700.0 -0.1315745314 0.9886336829
5100269400.0 -0.1177488254 0.9899960583
5150269100.0 -0.1044272896 0.9919079068
5200268800.0 -0.0911821238 0.9929522148
5250268500.0 -0.0780640859 0.9934720744
5300268200.0 -0.0646962736 0.9945308518
5350267900.0 -0.0526171976 0.9951897904
5400267600.0 -0.0363992991 0.9961531292
5450267300.0 -0.0232504415 0.9967632481
5500267000.0 -0.0079456064 0.9971110479
5550266700.0 0.0068303171 0.9972713623
5600266400.0 0.0223460735 0.9971226145
5650266100.0 0.0390237882 0.9970663676
5700265800.0 0.0531865489 0.9960005923
5750265500.0 0.068438918 0.9950967548
5800265200.0 0.0824054349 0.9939310123
5850264900.0 0.09572597 0.9932314817
5900264600.0 0.1122089123 0.9914719322
5950264300.0 0.1239786645 0.9897823303
6000264000.0 0.1379057169 0.9881251071
6050263700.0 0.1504037086 0.986752622
6100263400.0 0.1628034251 0.9851565674
6150263100.0 0.1772504334 0.9828161709
6200262800.0 0.1877779459 0.980927801
6250262500.0 0.2003145706 0.9785745094
6300262200.0 0.2130746404 0.975745274
6350261900.0 0.2261100014 0.9730329881
6400261600.0 0.2399315619 0.9694394142
6450261300.0 0.2513330956 0.9669242398
6500261000.0 0.2645063062 0.9635323085
6550260700.0 0.2772573182 0.9594777754
6600260400.0 0.2906452418 0.9554591449
6650260100.0 0.3045952148 0.9511523371
6700259800.0 0.3166112811 0.9466309208
6750259500.0 0.3302410448 0.9416138682
6800259200.0 0.3438508499 0.9369631412
6850258900.0 0.355377426 0.9315257384
6900258600.0 0.3679051075 0.9266682192
6950258300.0 0.3802427612 0.9212961757
7000258000.0 0.392335322 0.9158845384
7050257700.0 0.4046383079 0.9097622157
7100257400.0 0.4173369382 0.9036661598
7150257100.0 0.4278419603 0.8983112548
7200256800.0 0.4406377735 0.8918900157
7250256500.0 0.4526650299 0.8855814654
7300256200.0 0.4660138843 0.8788711446
7350255900.0 0.4781961884 0.8720648729
7400255600.0 0.4918002339 0.8646746322
7450255300.0 0.5067487507 0.8558394983
7500255000.0 0.5185674779 0.8484908613
7550254700.0 0.5327040933 0.8399425617
7600254400.0 0.5454105124 0.8318692907
7650254100.0 0.556905628 0.8241086074
7700253800.0 0.568379785 0.8160257554
7750253500.0 0.5796310191 0.8082743713
7800253200.0 0.5902086963 0.800460143
7850252900.0 0.5999350547 0.7934985683
7900252600.0 0.6115635607 0.784911553
7950252300.0 0.6203593147 0.7782078442
8000252000.0 0.6304784642 0.770636147
8050251700.0 0.6409851424 0.7623972839
8100251400.0 0.6509615152 0.7544658564
8150251100.0 0.6611258362 0.7457009341
8200250800.0 0.6704957229 0.7378300963
8250250500.0 0.6793975076 0.7300611873
8300250200.0 0.688591539 0.721146111
8350249900.0 0.6978772143 0.7124253036
8400249600.0 0.7059881137 0.7044309426
8450249300.0 0.7150024126 0.6952672434
8500249000.0 0.7236489516 0.6863800027
8550248700.0 0.7319839584 0.677327137
8600248400.0 0.7404555297 0.6677826758
8650248100.0 0.748383837 0.6584334642
8700247800.0 0.7577628505 0.6473089192
8750247500.0 0.7660914974 0.6371103506
8800247200.0 0.7741449182 0.6268396246
8850246900.0 0.7830905489 0.6152716269
8900246600.0 0.7914861231 0.603861002
8950246300.0 0.8009803283 0.5911817528
9000246000.0 0.8105985852 0.578315099
9050245700.0 0.8194119927 0.5655079724
9100245400.0 0.8278178004 0.5530256069
9150245100.0 0.8371282358 0.539516206
9200244800.0 0.84668863 0.5243414464
9250244500.0 0.8562340614 0.5091361217
9300244200.0 0.864630929 0.494701342
9350243900.0 0.8723488056 0.480909064
9400243600.0 0.8789565081 0.4686525974
9450243300.0 0.8850286557 0.457134594
9500243000.0 0.891134073 0.4449419237
9550242700.0 0.8950089031 0.4374369288
9600242400.0 0.898975328 0.4299452979
9650242100.0 0.9025256149 0.4235877701
9700241800.0 0.9072674785 0.4152926702
9750241500.0 0.9112964085 0.4074038946
9800241200.0 0.9163226855 0.3983656953
9850240900.0 0.9217305097 0.3863564625
9900240600.0 0.9277616436 0.3750273923
9950240300.0 0.9337941003 0.359169013
10000240000.0 0.9385643884 0.3472988275
10050239700.0 0.9445453551 0.3319721154
10100239400.0 0.9493017412 0.3167028497
10150239100.0 0.9537010347 0.3016301258
10200238800.0 0.958042409 0.2864814766
10250238500.0 0.961461998 0.2730965795
10300238200.0 0.9645406813 0.2592480231
10350237900.0 0.9671512067 0.2460199451
10400237600.0 0.9697953529 0.2328906383
10450237300.0 0.9724483203 0.2193667486
10500237000.0 0.9745196517 0.2072574568
10550236700.0 0.9768570764 0.19295269
10600236400.0 0.9791067476 0.1794015313
10650236100.0 0.9809596136 0.1646606077
10700235800.0 0.9835554766 0.1524516845
10750235500.0 0.9857036271 0.1391371482
10800235200.0 0.9873652129 0.1247778117
10850234900.0 0.9895465251 0.1101038955
10900234600.0 0.9916961956 0.0954104602
10950234300.0 0.993287409 0.0821229881
11000234000.0 0.9951632765 0.0670347288
11050233700.0 0.9970844922 0.0507557342
11100233400.0 0.9983778897 0.0332780901
11150233100.0 0.9995517166 0.0169907095
11200232800.0 1.000146393 0.0017477191
11250232500.0 1.001255675 -0.0153852047
11300232200.0 1.001708644 -0.033041253
11350231900.0 1.001717616 -0.0491833383
11400231600.0 1.001121537 -0.0643842058
11450231300.0 1.001201894 -0.0792500926
11500231000.0 1.000179008 -0.0956521194
11550230700.0 0.9984639301 -0.1090582973
11600230400.0 0.997019629 -0.1209023225
11650230100.0 0.994635043 -0.132958175
11700229800.0 0.9934123001 -0.1474805969
11750229500.0 0.9912214266 -0.1619847909
11800229200.0 0.9882619946 -0.1757203494
11850228900.0 0.9848858007 -0.1878621619
11900228600.0 0.981168233 -0.1977177789
11950228300.0 0.9778746507 -0.2083843624
12000228000.0 0.9754261292 -0.2173599199
12050227700.0 0.9715623171 -0.2299239718
12100227400.0 0.9683806692 -0.2411445583
12150227100.0 0.963562447 -0.2576516794
12200226800.0 0.9600318164 -0.2688044025
12250226500.0 0.9550075035 -0.2824988638
12300226200.0 0.9516938794 -0.2932655957
12350225900.0 0.9464801082 -0.3076276583
12400225600.0 0.942629476 -0.3202388055
12450225300.0 0.937851176 -0.3334222899
12500225000.0 0.9324354913 -0.3483763572
12550224700.0 0.9268844886 -0.3622268062
12600224400.0 0.9220061298 -0.3751122844
12650224100.0 0.9162064762 -0.3893393548
12700223800.0 0.9108938762 -0.4022864776
12750223500.0 0.9053934668 -0.4151999766
12800223200.0 0.9003563406 -0.4277020879
12850222900.0 0.8947066443 -0.4402913951
12900222600.0 0.8889794024 -0.4521628126
12950222300.0 0.8831118193 -0.4650583518
13000222000.0 0.8767729764 -0.4760802075
13050221700.0 0.8703632315 -0.4887171394
13100221400.0 0.8635917539 -0.501012281
13150221100.0 0.8566875642 -0.5133481009
13200220800.0 0.8497834187 -0.5244043174
13250220500.0 0.8424560562 -0.5366781142
13300220200.0 0.835083592 -0.54759951
13350219900.0 0.8270520002 -0.5594681517
13400219600.0 0.8190499284 -0.5715287767
13450219300.0 0.8094232595 -0.5849587817
13500219000.0 0.7997432642 -0.5987112778
13550218700.0 0.7894132507 -0.6114783108
13600218400.0 0.779207729 -0.6228834495
13650218100.0 0.7695949809 -0.6349063209
13700217800.0 0.7589843367 -0.6461527451
13750217500.0 0.7487255331 -0.6581998669
13800217200.0 0.7372985134 -0.6695454221
13850216900.0 0.725850826 -0.6814425567
13900216600.0 0.7172602474 -0.6898172269
13950216300.0 0.7060487393 -0.7005912037
14000216000.0 0.6963184207 -0.7100250759
14050215700.0 0.6870919697 -0.7182561999
14100215400.0 0.6765415478 -0.7272050627
14150215100.0 0.6673995433 -0.7356932942
14200214800.0 0.6579395361 -0.744263785
14250214500.0 0.6476413322 -0.7539892888
14300214200.0 0.6370410773 -0.7632988002
14350213900.0 0.6260590788 -0.7728952191
14400213600.0 0.6141759847 -0.7828644774
14450213300.0 0.6008970509 -0.7930903667
14500213000.0 0.5878048656 -0.8030319317
14550212700.0 0.5752195286 -0.8125237561
14600212400.0 0.5630248886 -0.8211045114
14650212100.0 0.550091322 -0.8301455943
14700211800.0 0.5361706399 -0.8393429699
14750211500.0 0.5241032385 -0.8475943023
14800211200.0 0.5118345979 -0.8556698696
14850210900.0 0.4996736908 -0.8631588068
14900210600.0 0.4866935393 -0.8710647856
14950210300.0 0.4732158231 -0.878486263
15000210000.0 0.4607845665 -0.8853501926
15050209700.0 0.4484235052 -0.8913464473
15100209400.0 0.4354771541 -0.8975727173
15150209100.0 0.4233973037 -0.9025336313
15200208800.0 0.4105516819 -0.9079750388
15250208500.0 0.399154272 -0.9127145729
15300208200.0 0.3872945394 -0.9171878325
15350207900.0 0.3739966781 -0.9222533586
15400207600.0 0.3599299101 -0.9270995837
15450207300.0 0.3452566088 -0.9324483492
15500207000.0 0.3301304365 -0.9374027154
15550206700.0 0.3153728339 -0.9424153479
15600206400.0 0.2997142693 -0.9471831021
15650206100.0 0.283694212 -0.9509930111
15700205800.0 0.2701574844 -0.9549892145
15750205500.0 0.2554359866 -0.958437245
15800205200.0 0.2410238404 -0.9618783062
15850204900.0 0.2266094922 -0.9653057093
15900204600.0 0.2115719622 -0.9690002075
15950204300.0 0.1975724222 -0.9718549217
16000204000.0 0.1829660802 -0.9748870659
16050203700.0 0.1682086409 -0.9775178272
16100203400.0 0.1536712042 -0.9801368236
16150203100.0 0.1388805007 -0.9827403152
16200202800.0 0.1247857374 -0.9842400078
16250202500.0 0.1103874299 -0.9854939276
16300202200.0 0.0946340493 -0.987885993
16350201900.0 0.0797328841 -0.989048284
16400201600.0 0.064963315 -0.9901843254
16450201300.0 0.0496557235 -0.9913231762
16500201000.0 0.0330761216 -0.9920816478
16550200700.0 0.0174394635 -0.9925523263
16600200400.0 0.0017501313 -0.9928784348
16650200100.0 -0.0139037366 -0.9929374611
16700199800.0 -0.0308848258 -0.9922153533
16750199500.0 -0.0494672096 -0.9921143525
16800199200.0 -0.0648818045 -0.9906370664
16850198900.0 -0.0799183588 -0.9899760005
16900198600.0 -0.0942104097 -0.9892422642
16950198300.0 -0.1075779013 -0.9872495639
17000198000.0 -0.1200707415 -0.9866249756
17050197700.0 -0.1326811238 -0.9845715312
17100197400.0 -0.1462027436 -0.9821658784
17150197100.0 -0.1585530027 -0.9804171796
17200196800.0 -0.1709127913 -0.9784079165
17250196500.0 -0.1838636253 -0.9757910543
17300196200.0 -0.1964582816 -0.9734734032
17350195900.0 -0.2083556287 -0.971331015
17400195600.0 -0.2204569872 -0.9688150736
17450195300.0 -0.2335606816 -0.96606178
17500195000.0 -0.2470542773 -0.9626517835
17550194700.0 -0.2608465598 -0.9590173805
17600194400.0 -0.2746708097 -0.9549294956
17650194100.0 -0.2888643841 -0.9511887244
17700193800.0 -0.3013739969 -0.9465122524
17750193500.0 -0.3157817786 -0.9420724841
17800193200.0 -0.3304998117 -0.9370658726
17850192900.0 -0.3457679591 -0.9316682884
17900192600.0 -0.3607017739 -0.9257001957
17950192300.0 -0.3764318735 -0.9184223786
18000192000.0 -0.3912176179 -0.9113679309
18050191700.0 -0.4050345067 -0.9031995895
18100191400.0 -0.4193746 -0.8956762176
18150191100.0 -0.4343243508 -0.8878204618
18200190800.0 -0.4511469369 -0.8786449421
18250190500.0 -0.4681857971 -0.8692783127
18300190200.0 -0.4834106776 -0.8605634045
18350189900.0 -0.4987197541 -0.8520390155
18400189600.0 -0.5130443022 -0.8438933704
18450189300.0 -0.5264333531 -0.8359270023
18500189000.0 -0.5395906153 -0.8283923837
18550188700.0 -0.5522837537 -0.8204146676
18600188400.0 -0.5638086268 -0.8134881416
18650188100.0 -0.5752890895 -0.8074966533
18700187800.0 -0.5858643862 -0.8005325833
18750187500.0 -0.5964021879 -0.7942728018
18800187200.0 -0.6070085996 -0.7873017344
18850186900.0 -0.6170682067 -0.7804018218
18900186600.0 -0.6273381005 -0.7731523015
18950186300.0 -0.6371531152 -0.7654018958
19000186000.0 -0.6445804884 -0.7591759656
19050185700.0 -0.6534583814 -0.7522032418
19100185400.0 -0.6636067819 -0.7438470982
19150185100.0 -0.6732420137 -0.7352659621
19200184800.0 -0.6833580072 -0.7276892948
19250184500.0 -0.6931473921 -0.717814353
19300184200.0 -0.7045131583 -0.7085767619
19350183900.0 -0.71586611 -0.6981705746
19400183600.0 -0.7249456949 -0.6887446903
19450183300.0 -0.7339635317 -0.6788758711
19500183000.0 -0.7421450832 -0.6691228371
19550182700.0 -0.7521925672 -0.6573074223
19600182400.0 -0.762372077 -0.6461780606
19650182100.0 -0.7736109908 -0.6334651242
19700181800.0 -0.7842486698 -0.6202913929
19750181500.0 -0.7948471585 -0.6060608097
19800181200.0 -0.8053366725 -0.5911219623
19850180900.0 -0.8151513157 -0.5756103073
19900180600.0 -0.8230730839 -0.5612674323
19950180300.0 -0.8321352514 -0.544947756
20000180000.0 -0.8252134258 -0.5473061705
20050179700.0 -0.8330524203 -0.5337271715
20100179400.0 -0.8416649924 -0.5203578524
20150179100.0 -0.8504773086 -0.5080593022
20200178800.0 -0.8593259402 -0.494948058
20250178500.0 -0.8687156515 -0.4821169186
20300178200.0 -0.877916733 -0.4680639403
20350177900.0 -0.8872774885 -0.4535100208
20400177600.0 -0.8965278232 -0.4389801923
20450177300.0 -0.9042879881 -0.4240158667
20500177000.0 -0.9126190225 -0.4104157698
20550176700.0 -0.9204833879 -0.3968724718
20600176400.0 -0.9274677016 -0.3837384669
20650176100.0 -0.9336770435 -0.3716153714
20700175800.0 -0.9407779723 -0.3596897526
20750175500.0 -0.9468826796 -0.347697353
20800175200.0 -0.9516767712 -0.3372294568
20850174900.0 -0.9567911926 -0.3264063082
20900174600.0 -0.961230153 -0.315001532
20950174300.0 -0.9649605705 -0.3035574668
21000174000.0 -0.9683935795 -0.2918113227
21050173700.0 -0.9706761815 -0.281277482
21100173400.0 -0.9753329367 -0.2693635866
21150173100.0 -0.9784931341 -0.25749363
21200172800.0 -0.9825456861 -0.2440538577
21250172500.0 -0.9854907352 -0.2300913867
21300172200.0 -0.9884247673 -0.2158714427
21350171900.0 -0.9900936651 -0.2021189851
21400171600.0 -0.9916458164 -0.187736161
21450171300.0 -0.992294005 -0.1732084057
21500171000.0 -0.9924952662 -0.1579369231
21550170700.0 -0.9919011255 -0.1424115585
21600170400.0 -0.9917158152 -0.1266350457
21650170100.0 -0.9907509333 -0.1111452218
21700169800.0 -0.9896697683 -0.0961203025
21750169500.0 -0.9888336616 -0.0796776646
21800169200.0 -0.9889390929 -0.0634667197
21850168900.0 -0.9875727735 -0.0465276619
21900168600.0 -0.9865890986 -0.0302095567
21950168300.0 -0.9850657595 -0.0143613805
22000168000.0 -0.9843841389 0.0009218224
22050167700.0 -0.9844015995 0.0148033399
22100167400.0 -0.9843772971 0.0302452682
22150167100.0 -0.9850314366 0.0459457506
22200166800.0 -0.9857029029 0.062440246
22250166500.0 -0.9845514613 0.0792776576
22300166200.0 -0.9847946605 0.0958529906
22350165900.0 -0.9835845531 0.1129090164
22400165600.0 -0.9818141257 0.1278566556
22450165300.0 -0.9794143569 0.143043175
22500165000.0 -0.9783867446 0.1563177788
22550164700.0 -0.9766082041 0.1719015987
22600164400.0 -0.9743270007 0.1879912821
22650164100.0 -0.9726543227 0.2025697272
22700163800.0 -0.969970545 0.2180911998
22750163500.0 -0.9671381134 0.2335047204
22800163200.0 -0.9643223912 0.2468550985
22850162900.0 -0.9620301571 0.2598763393
22900162600.0 -0.9606571825 0.2736924896
22950162300.0 -0.9592555266 0.2864795099
23000162000.0 -0.9577559877 0.2984354634
23050161700.0 -0.9562155179 0.3111183542
23100161400.0 -0.9535459917 0.3241218845
23150161100.0 -0.9510005187 0.336599172
23200160800.0 -0.9477081609 0.3488113228
23250160500.0 -0.9456266532 0.3609254247
23300160200.0 -0.9425032392 0.3729530988
23350159900.0 -0.9390752147 0.386009972
23400159600.0 -0.9338585692 0.3991370217
23450159300.0 -0.9291284944 0.4133493755
23500159000.0 -0.9246684087 0.4258322235
23550158700.0 -0.9203532659 0.4390544764
23600158400.0 -0.9146921754 0.4528421873
23650158100.0 -0.9083731803 0.4665431602
23700157800.0 -0.900759592 0.4806912994
23750157500.0 -0.8921712279 0.4945479983
23800157200.0 -0.8832201759 0.5081454611
23850156900.0 -0.8742952113 0.5209570636
23900156600.0 -0.8653475701 0.5331839061
23950156300.0 -0.8563870472 0.5465170236
24000156000.0 -0.8470029552 0.5577436025
24050155700.0 -0.8364092837 0.5696983605
24100155400.0 -0.8265794975 0.5823343877
24150155100.0 -0.8162021206 0.5940224004
24200154800.0 -0.8051543801 0.6048572593
24250154500.0 -0.7935049149 0.6163196937
24300154200.0 -0.7826936242 0.6278746293
24350153900.0 -0.7710102166 0.6387207333
24400153600.0 -0.7584862498 0.648784206
24450153300.0 -0.7469451233 0.6588105749
24500153000.0 -0.7352948343 0.6686024388
24550152700.0 -0.7241704273 0.6781195738
24600152400.0 -0.7120663057 0.6873123896
24650152100.0 -0.7008369296 0.6957021805
