!Created with skrf (http://scikit-rf.org).
# Hz S RI R 50.0 
!freq ReS11 ImS11
300000.0 -0.9735346303 -0.1225303757
50299700.0 -0.9997982787 0.0149750059
100299400.0 -0.9978760455 0.0279164319
150299100.0 -1.002612058 0.0447095434
200298800.0 -0.9994766416 0.0579527302
250298500.0 -0.997269476 0.0717616857
300298200.0 -0.9858647308 0.0874141462
350297900.0 -0.9938139907 0.0982516286
400297600.0 -0.9931142897 0.1149086192
450297300.0 -0.9908824136 0.1287362748
500297000.0 -0.9893145053 0.1434495575
550296700.0 -0.9842430173 0.1559144387
600296400.0 -1.016930977 0.1890984437
650296100.0 -0.9820872099 0.1856087822
700295800.0 -0.9791206914 0.2000795807
750295500.0 -0.9761628094 0.2139122215
800295200.0 -0.9730897328 0.2279609252
850294900.0 -0.9697232042 0.2417293887
900294600.0 -0.965797454 0.2556062142
950294300.0 -0.9619668095 0.2692711582
1000294000.0 -0.9581673995 0.283100731
1050293700.0 -0.9536914902 0.296981527
1100293400.0 -0.9493492762 0.3115012523
1150293100.0 -0.9455570343 0.3233206054
1200292800.0 -0.9400265584 0.3379718588
1250292500.0 -0.9346742508 0.351171739
1300292200.0 -0.9290747276 0.3644809817
1350291900.0 -0.9234151702 0.3782880196
1400291600.0 -0.9179398748 0.3915133803
1450291300.0 -0.9123976179 0.4039061065
1500291000.0 -0.9062047844 0.4173186032
1550290700.0 -0.8998014216 0.430510772
1600290400.0 -0.8935192387 0.4437048549
1650290100.0 -0.8866546656 0.4557608676
1700289800.0 -0.8798192006 0.4692619341
1750289500.0 -0.8729741521 0.4815125662
1800289200.0 -0.8656946515 0.4942774533
1850288900.0 -0.8588333181 0.5056868793
1900288600.0 -0.85102897 0.5186849552
1950288300.0 -0.8429392763 0.5313169873
2000288000.0 -0.8356608074 0.5428830245
2050287700.0 -0.8269938337 0.5553760333
2100287400.0 -0.819262902 0.5666350074
2150287100.0 -0.8109239468 0.5785906147
2200286800.0 -0.8030661956 0.5892634167
2250286500.0 -0.7939842324 0.6011672542
2300286200.0 -0.7851384244 0.6128947571
2350285900.0 -0.7769703228 0.6235204678
2400285600.0 -0.7677820125 0.6342961991
2450285300.0 -0.7590285138 0.6450440923
2500285000.0 -0.7491551249 0.6566381754
2550284700.0 -0.7401291116 0.6670347537
2600284400.0 -0.7307382332 0.6768662048
2650284100.0 -0.7221352804 0.6868801558
2700283800.0 -0.7114304806 0.6973577816
2750283500.0 -0.7014581186 0.7082120534
2800283200.0 -0.6915443626 0.7179591693
2850282900.0 -0.681158134 0.7283381515
2900282600.0 -0.6706207405 0.7378832507
2950282300.0 -0.6600436512 0.7472768059
3000282000.0 -0.6495662787 0.756617117
3050281700.0 -0.6382888642 0.7658577648
3100281400.0 -0.6267143495 0.7750880084
3150281100.0 -0.6154759355 0.7839340373
3200280800.0 -0.6041042209 0.7923444908
3250280500.0 -0.5930544792 0.8003338135
3300280200.0 -0.5814477794 0.8084233194
3350279900.0 -0.5694831133 0.8166644868
3400279600.0 -0.5564352227 0.8246241164
3450279300.0 -0.5453256601 0.8315351459
3500279000.0 -0.5338109039 0.8385968407
3550278700.0 -0.5214640678 0.8455825737
3600278400.0 -0.5098901434 0.8525255166
3650278100.0 -0.4964519301 0.8598826907
3700277800.0 -0.484297659 0.8663460961
3750277500.0 -0.472224206 0.8731757941
3800277200.0 -0.4595813448 0.8797045713
3850276900.0 -0.447666127 0.8856050273
3900276600.0 -0.436859567 0.8914767902
3950276300.0 -0.424960907 0.8972296162
4000276000.0 -0.4128890872 0.9030791717
4050275700.0 -0.4002424215 0.9092207081
4100275400.0 -0.3891994363 0.9144309123
4150275100.0 -0.3760466334 0.9204651206
4200274800.0 -0.3625798797 0.9259797222
4250274500.0 -0.3501217518 0.9312553194
4300274200.0 -0.3366426362 0.9367632477
4350273900.0 -0.3224656134 0.9420463524
4400273600.0 -0.3077911166 0.9472047823
4450273300.0 -0.2928667775 0.9520725079
4500273000.0 -0.2796915789 0.9562963489
4550272700.0 -0.2657856255 0.9606068566
4600272400.0 -0.2509915496 0.9646531758
4650272100.0 -0.2396446951 0.9678824707
4700271800.0 -0.2265949208 0.9711341906
4750271500.0 -0.2152824979 0.9739245899
4800271200.0 -0.2027463282 0.9765570598
4850270900.0 -0.188971063 0.9795711304
4900270600.0 -0.1752747975 0.9819510181
4950270300.0 -0.1606333277 0.9846348123
5000270000.0 -0.1461714361 0.9865340591
5050269700.0 -0.1325442685 0.9882600799
5100269400.0 -0.1187315671 0.9899084133
5150269100.0 -0.1047754496 0.9915781722
5200268800.0 -0.0910946875 0.9926590297
5250268500.0 -0.0781508422 0.9935982775
5300268200.0 -0.0644249674 0.9944593163
5350267900.0 -0.0518768549 0.9954708877
5400267600.0 -0.0356106588 0.9966030477
5450267300.0 -0.0220354223 0.9966172179
5500267000.0 -0.006840182 0.9968066115
5550266700.0 0.0079933839 0.9972524688
5600266400.0 0.0238885642 0.9971092079
5650266100.0 0.0403195234 0.9965051009
5700265800.0 0.0551187468 0.9961024411
5750265500.0 0.0699498452 0.9951516139
5800265200.0 0.0832767138 0.9939696105
5850264900.0 0.0963817871 0.9928494893
5900264600.0 0.1126202186 0.9912294697
5950264300.0 0.1244257074 0.9896005501
6000264000.0 0.1378912097 0.9878252704
6050263700.0 0.1496487202 0.9866288559
6100263400.0 0.1618682825 0.9846663748
6150263100.0 0.1765290527 0.9825303771
6200262800.0 0.1861824577 0.9808403207
6250262500.0 0.1987542022 0.9786891537
6300262200.0 0.2110860466 0.9761154168
6350261900.0 0.2237860782 0.9733060907
6400261600.0 0.2378516193 0.9701075107
6450261300.0 0.2486028394 0.9675562256
6500261000.0 0.2620851006 0.9640917271
6550260700.0 0.2750704157 0.9600902623
6600260400.0 0.2886633096 0.9561039953
6650260100.0 0.3027703242 0.9516229808
6700259800.0 0.3147514418 0.9471081497
6750259500.0 0.3287261758 0.9427193818
6800259200.0 0.3423117502 0.9373906166
6850258900.0 0.3543274784 0.9318949293
6900258600.0 0.3671866557 0.9268585785
6950258300.0 0.3796528657 0.9215404522
7000258000.0 0.3912624875 0.9162999189
7050257700.0 0.4032459626 0.9105003762
7100257400.0 0.416612956 0.9039533089
7150257100.0 0.4273188215 0.8983979386
7200256800.0 0.4405216975 0.8922185711
7250256500.0 0.4531627848 0.8851157045
7300256200.0 0.4657942367 0.8787474056
7350255900.0 0.4789288004 0.8716491263
7400255600.0 0.4930376919 0.8638902274
7450255300.0 0.5085388755 0.8549939096
7500255000.0 0.5211730577 0.8474758623
7550254700.0 0.5352910055 0.8383267409
7600254400.0 0.5473824298 0.8299173176
7650254100.0 0.5593110379 0.8220104545
7700253800.0 0.5709056472 0.8138341901
7750253500.0 0.5821386762 0.8063783812
7800253200.0 0.5925038993 0.7984041292
7850252900.0 0.6023357962 0.7912340588
7900252600.0 0.6136346471 0.7824537823
7950252300.0 0.6221374474 0.7761506823
8000252000.0 0.6321864841 0.7687415663
8050251700.0 0.642606401 0.7604494083
8100251400.0 0.6527894712 0.7523780925
8150251100.0 0.6626047896 0.7442441275
8200250800.0 0.6721852059 0.735859864
8250250500.0 0.6808291911 0.7279939259
8300250200.0 0.6897677193 0.7198314682
8350249900.0 0.6988854046 0.7106225456
8400249600.0 0.7072848396 0.7028129094
8450249300.0 0.7158124126 0.6940169993
8500249000.0 0.7244252062 0.685234943
8550248700.0 0.7327241273 0.6761266226
8600248400.0 0.7410967006 0.666547117
8650248100.0 0.7487757313 0.6573005803
8700247800.0 0.7577698243 0.6462198765
8750247500.0 0.7662352282 0.6360370133
8800247200.0 0.7741355974 0.6258002265
8850246900.0 0.7831426447 0.6144668468
8900246600.0 0.7913303782 0.602901099
8950246300.0 0.8009111314 0.5901592341
9000246000.0 0.8092670923 0.5784828486
9050245700.0 0.8179183301 0.565937463
9100245400.0 0.8261214338 0.5537756966
9150245100.0 0.8347394664 0.5410564878
9200244800.0 0.8444394841 0.5266268547
9250244500.0 0.853195618 0.5119484993
9300244200.0 0.8615119373 0.4984484445
9350243900.0 0.8691589348 0.4853189345
9400243600.0 0.8755699074 0.473528281
9450243300.0 0.8811843025 0.4630636159
9500243000.0 0.8874406097 0.4513641294
9550242700.0 0.8912373505 0.4440654771
9600242400.0 0.8956228959 0.4364199658
9650242100.0 0.8998908938 0.4291693052
9700241800.0 0.9048385975 0.4205621138
9750241500.0 0.908587902 0.4133432885
9800241200.0 0.9141827799 0.4035372279
9850240900.0 0.9197335029 0.3922714623
9900240600.0 0.9256946334 0.3802479035
9950240300.0 0.9325885446 0.3634569631
10000240000.0 0.9379222599 0.3512511628
10050239700.0 0.9441480885 0.3349289404
10100239400.0 0.9490989486 0.3189272832
10150239100.0 0.9538659694 0.3033617696
10200238800.0 0.9582729357 0.2876727622
10250238500.0 0.9616666252 0.2741043339
10300238200.0 0.9644544929 0.2603616515
10350237900.0 0.9674009427 0.2469290638
10400237600.0 0.9699923728 0.2335166248
10450237300.0 0.972645629 0.2197269173
10500237000.0 0.9748905534 0.2076281372
10550236700.0 0.9775024727 0.19291431
10600236400.0 0.9798391634 0.1787997451
10650236100.0 0.9817328859 0.1645646703
10700235800.0 0.9836703737 0.1522879478
10750235500.0 0.9859733657 0.1386637429
10800235200.0 0.9880535801 0.1238031666
10850234900.0 0.9898917834 0.1094768861
10900234600.0 0.9924072649 0.0945101828
10950234300.0 0.993822323 0.0810568639
11000234000.0 0.9955727041 0.0655391882
11050233700.0 0.9974021261 0.0486868231
11100233400.0 0.9987189949 0.0312224785
11150233100.0 1.000209725 0.0142105716
11200232800.0 1.000603285 -0.001631242
11250232500.0 1.002005099 -0.019154322
11300232200.0 1.001652135 -0.0377800789
11350231900.0 1.002207247 -0.0546172975
11400231600.0 1.001989122 -0.069963589
11450231300.0 1.001440717 -0.0855859494
11500231000.0 0.9998440998 -0.1011355971
11550230700.0 0.9981644609 -0.1149110883
11600230400.0 0.9968271939 -0.1279664361
11650230100.0 0.9949389123 -0.1392540212
11700229800.0 0.9924271392 -0.1546101905
11750229500.0 0.9903420578 -0.1685010414
11800229200.0 0.9875094642 -0.1819121652
11850228900.0 0.9836828522 -0.1935787582
11900228600.0 0.9797681497 -0.2035327599
11950228300.0 0.9764849751 -0.2135754266
12000228000.0 0.9738604062 -0.2217163903
12050227700.0 0.9697727914 -0.2351762969
12100227400.0 0.9669824682 -0.2456037631
12150227100.0 0.9615178049 -0.2622900639
12200226800.0 0.9586856667 -0.2732681469
12250226500.0 0.9540549928 -0.2856656699
12300226200.0 0.9490679889 -0.2981729787
12350225900.0 0.9443567217 -0.3122045084
12400225600.0 0.9399899773 -0.3251906705
12450225300.0 0.9354320224 -0.3373542668
12500225000.0 0.9303502935 -0.3518687647
12550224700.0 0.9247706229 -0.3657670881
12600224400.0 0.9197603805 -0.3783050904
12650224100.0 0.9139904075 -0.392573721
12700223800.0 0.908764825 -0.4054161055
12750223500.0 0.9032387873 -0.4184695396
12800223200.0 0.8978058905 -0.4311875024
12850222900.0 0.8927462152 -0.4432109973
12900222600.0 0.8868393469 -0.4552840572
12950222300.0 0.8805833537 -0.467798221
13000222000.0 0.8750284686 -0.479143012
13050221700.0 0.8685396003 -0.4921651948
13100221400.0 0.8615467608 -0.5042578081
13150221100.0 0.8545579722 -0.5173201703
13200220800.0 0.8477299392 -0.5280363125
13250220500.0 0.8403463922 -0.5404301037
13300220200.0 0.8327836177 -0.5514072453
13350219900.0 0.824743441 -0.5632349224
13400219600.0 0.8162440481 -0.5752122385
13450219300.0 0.8070501757 -0.5881291675
13500219000.0 0.7971247456 -0.6011072586
13550218700.0 0.7870142093 -0.613387481
13600218400.0 0.7769116872 -0.6257276756
13650218100.0 0.7678443575 -0.6363130215
13700217800.0 0.7567111652 -0.64867969
13750217500.0 0.7474541644 -0.6584650682
13800217200.0 0.7362984345 -0.6699810479
13850216900.0 0.7254051947 -0.6813325021
13900216600.0 0.7157093674 -0.6903539508
13950216300.0 0.7052120611 -0.7000531454
14000216000.0 0.6958229355 -0.708890669
14050215700.0 0.6859430098 -0.7168625537
14100215400.0 0.6761711914 -0.7264027957
14150215100.0 0.667255494 -0.7352058178
14200214800.0 0.6579106322 -0.7440522516
14250214500.0 0.6473856329 -0.75349209
14300214200.0 0.637037081 -0.762950894
14350213900.0 0.6257583041 -0.7725519965
14400213600.0 0.6141524067 -0.7823331376
14450213300.0 0.6010256818 -0.7926075323
14500213000.0 0.5881303105 -0.8026339268
14550212700.0 0.5755590078 -0.8122016618
14600212400.0 0.5633882478 -0.8202804476
14650212100.0 0.5507848251 -0.8291855547
14700211800.0 0.5366764268 -0.8392564831
14750211500.0 0.5247876765 -0.847033791
14800211200.0 0.5121478296 -0.8555651915
14850210900.0 0.4998127167 -0.8629695112
14900210600.0 0.4865456949 -0.8709474584
14950210300.0 0.4732261215 -0.8786988346
15000210000.0 0.4605448956 -0.8854741361
15050209700.0 0.4483032175 -0.8915687067
15100209400.0 0.43537666 -0.8972841583
15150209100.0 0.4235187822 -0.9026816211
15200208800.0 0.4105672324 -0.9084116183
15250208500.0 0.3993955902 -0.9125691536
15300208200.0 0.3875266206 -0.9165048205
15350207900.0 0.3745532047 -0.9219818338
15400207600.0 0.3587904568 -0.9272920462
15450207300.0 0.3442007169 -0.9326501692
15500207000.0 0.3300665194 -0.9371646465
15550206700.0 0.3154656025 -0.9421216775
15600206400.0 0.2993089822 -0.9463626187
15650206100.0 0.2838770643 -0.9508910595
15700205800.0 0.2703315845 -0.9544561194
15750205500.0 0.2562285265 -0.9577851773
15800205200.0 0.2419938425 -0.9613026759
15850204900.0 0.2279051109 -0.9646314765
15900204600.0 0.212785639 -0.9683482814
15950204300.0 0.1985949694 -0.9713298194
16000204000.0 0.1840337933 -0.9744149538
16050203700.0 0.1689374031 -0.9774410294
16100203400.0 0.1541290369 -0.9798340423
16150203100.0 0.139263688 -0.9820363828
16200202800.0 0.1249506777 -0.9840168435
16250202500.0 0.1106040207 -0.9860288836
16300202200.0 0.0948325107 -0.9874360304
16350201900.0 0.0798870048 -0.9888092321
16400201600.0 0.0651982066 -0.9903615842
16450201300.0 0.0496054444 -0.9911943937
16500201000.0 0.0326131461 -0.9922509062
16550200700.0 0.0165188397 -0.9925177198
16600200400.0 0.0007665961 -0.9926444246
16650200100.0 -0.0153786613 -0.9931936701
16700199800.0 -0.0317234848 -0.9923961271
16750199500.0 -0.0511204162 -0.9915848413
16800199200.0 -0.0667264812 -0.990639434
16850198900.0 -0.0821705842 -0.9897955351
16900198600.0 -0.097184239 -0.9884339688
16950198300.0 -0.1101481525 -0.987407877
17000198000.0 -0.1233554327 -0.9857538255
17050197700.0 -0.1359294849 -0.9832042984
17100197400.0 -0.1481317333 -0.9819928928
17150197100.0 -0.1612067038 -0.9801123327
17200196800.0 -0.1741087319 -0.977574108
17250196500.0 -0.1871808736 -0.9751506715
17300196200.0 -0.1996089776 -0.9730639065
17350195900.0 -0.2115592238 -0.9706818852
17400195600.0 -0.2233920295 -0.9681382138
17450195300.0 -0.2361132213 -0.9653910324
17500195000.0 -0.24931902 -0.9619426054
17550194700.0 -0.2630904859 -0.9583383994
17600194400.0 -0.2770078153 -0.9543810495
17650194100.0 -0.290168841 -0.9505379866
17700193800.0 -0.3035102466 -0.9463803842
17750193500.0 -0.3174043466 -0.9416858128
17800193200.0 -0.3316615434 -0.9366004477
17850192900.0 -0.3465393357 -0.9312494004
17900192600.0 -0.3619182677 -0.9247636156
17950192300.0 -0.377434134 -0.9179870308
18000192000.0 -0.3919067377 -0.9107604741
18050191700.0 -0.4058426688 -0.9026729693
18100191400.0 -0.4198759514 -0.8951185479
18150191100.0 -0.434859011 -0.887040965
18200190800.0 -0.4516293879 -0.877785604
18250190500.0 -0.4686502824 -0.8685174121
18300190200.0 -0.4840011228 -0.8599702253
18350189900.0 -0.4995179595 -0.8511703314
18400189600.0 -0.5139740774 -0.8426244791
18450189300.0 -0.5272950235 -0.8349015862
18500189000.0 -0.5408499958 -0.8266640733
18550188700.0 -0.5537639656 -0.8187868808
18600188400.0 -0.5657050456 -0.8119894059
18650188100.0 -0.576753799 -0.8051760654
18700187800.0 -0.5879428628 -0.7985269069
18750187500.0 -0.5990167814 -0.7921154195
18800187200.0 -0.6094925012 -0.7851315501
18850186900.0 -0.6197855213 -0.7783344444
18900186600.0 -0.6301894597 -0.7708732918
18950186300.0 -0.6403131453 -0.7630215769
19000186000.0 -0.6477823762 -0.7569468617
19050185700.0 -0.6568689517 -0.750150331
19100185400.0 -0.6672741047 -0.7416036797
19150185100.0 -0.6767475932 -0.7330467012
19200184800.0 -0.6857399831 -0.7246187671
19250184500.0 -0.6968650406 -0.715585994
19300184200.0 -0.7080757312 -0.7062229584
19350183900.0 -0.7186102736 -0.6960749897
19400183600.0 -0.7288620293 -0.6861004294
19450183300.0 -0.7382982281 -0.6766284579
19500183000.0 -0.7459629809 -0.6667484727
19550182700.0 -0.7556192933 -0.6556419987
19600182400.0 -0.7663677637 -0.6439058752
19650182100.0 -0.7762983101 -0.6318470226
19700181800.0 -0.7868484315 -0.6186659773
19750181500.0 -0.7969644862 -0.6042879997
19800181200.0 -0.8071708257 -0.5894531166
19850180900.0 -0.8167663021 -0.5741238255
19900180600.0 -0.8244828121 -0.5596565133
19950180300.0 -0.833623656 -0.5430881507
20000180000.0 -0.823351465 -0.5471655735
20050179700.0 -0.8311042712 -0.5343613723
20100179400.0 -0.8396965159 -0.5217297479
20150179100.0 -0.8475768809 -0.5095812816
20200178800.0 -0.8558722842 -0.498666374
20250178500.0 -0.8656925172 -0.4856253838
20300178200.0 -0.8747782894 -0.471162768
20350177900.0 -0.8843333415 -0.458015232
20400177600.0 -0.8930342885 -0.4436505081
20450177300.0 -0.9017160622 -0.4290793779
20500177000.0 -0.9099705686 -0.4155232268
20550176700.0 -0.9178263102 -0.4018090715
20600176400.0 -0.9249502323 -0.3890150997
20650176100.0 -0.9315012092 -0.3765531859
20700175800.0 -0.9380046726 -0.3651292405
20750175500.0 -0.9446202308 -0.3534595011
20800175200.0 -0.948794084 -0.3420977747
20850174900.0 -0.9537145785 -0.3317976083
20900174600.0 -0.9573679039 -0.320757504
20950174300.0 -0.9602218985 -0.3104338352
21000174000.0 -0.9641943455 -0.2989723437
21050173700.0 -0.9658152212 -0.2895364493
21100173400.0 -0.9691942252 -0.2784988309
21150173100.0 -0.9732013156 -0.2671222438
21200172800.0 -0.9767463741 -0.2537438199
21250172500.0 -0.9806258283 -0.2401224094
21300172200.0 -0.9841850729 -0.2262817142
21350171900.0 -0.9863346039 -0.211816037
21400171600.0 -0.9878150809 -0.1978698388
21450171300.0 -0.9883290565 -0.183868805
21500171000.0 -0.9891422958 -0.1686171702
21550170700.0 -0.9899613332 -0.1536920213
21600170400.0 -0.9900170816 -0.1377749771
21650170100.0 -0.9910152164 -0.1225090913
21700169800.0 -0.9907755934 -0.1073527171
21750169500.0 -0.9899454937 -0.0903981616
21800169200.0 -0.9904649069 -0.0736302353
21850168900.0 -0.9898685323 -0.0574142519
21900168600.0 -0.9890127878 -0.0408003708
21950168300.0 -0.9887011025 -0.0261586133
22000168000.0 -0.9887978822 -0.0105091694
22050167700.0 -0.9895470315 0.0042432413
22100167400.0 -0.9902321244 0.0197172944
22150167100.0 -0.9914058438 0.0360866964
22200166800.0 -0.991667567 0.0526610945
22250166500.0 -0.9907810582 0.0697974703
22300166200.0 -0.9913150764 0.086549354
22350165900.0 -0.9895479674 0.1019846318
22400165600.0 -0.9880997708 0.1186314299
22450165300.0 -0.9865050414 0.1330466251
22500165000.0 -0.9846445507 0.147600859
22550164700.0 -0.9838362789 0.1637938894
22600164400.0 -0.9808080074 0.1795829714
22650164100.0 -0.9785764004 0.1949719821
22700163800.0 -0.9754848965 0.2114029126
22750163500.0 -0.9718075288 0.2261081391
22800163200.0 -0.9687586843 0.2393351654
22850162900.0 -0.9667097566 0.2528323819
22900162600.0 -0.9646874091 0.2667778657
22950162300.0 -0.9628474649 0.2805956474
23000162000.0 -0.960857404 0.2931763558
23050161700.0 -0.9582830477 0.3062617153
23100161400.0 -0.955394276 0.3200962593
23150161100.0 -0.9527791476 0.3327877504
23200160800.0 -0.9495370415 0.3453129888
23250160500.0 -0.9463164068 0.3581116894
23300160200.0 -0.9443590694 0.3710389029
23350159900.0 -0.9396883358 0.3847859205
23400159600.0 -0.9353809839 0.398037214
23450159300.0 -0.929686195 0.4118231418
23500159000.0 -0.9250200562 0.4257282991
23550158700.0 -0.9199631082 0.4398826446
23600158400.0 -0.9138815364 0.4539302987
23650158100.0 -0.9067746045 0.468410405
23700157800.0 -0.8984117488 0.4826257875
23750157500.0 -0.8891090201 0.4969853924
23800157200.0 -0.8796317443 0.510392646
23850156900.0 -0.8697187384 0.5234739063
23900156600.0 -0.8596545895 0.5356182958
23950156300.0 -0.8502190114 0.5483751058
24000156000.0 -0.840010119 0.5612351167
24050155700.0 -0.829539314 0.5736384328
24100155400.0 -0.8190738763 0.5855852939
24150155100.0 -0.8086944089 0.5976307964
24200154800.0 -0.7976589065 0.6095130521
24250154500.0 -0.7867231427 0.6219172712
24300154200.0 -0.7751140398 0.6338330279
24350153900.0 -0.7627861882 0.644823179
24400153600.0 -0.7503040768 0.6554648194
24450153300.0 -0.7385912379 0.6656493127
24500153000.0 -0.7268411957 0.6756613128
24550152700.0 -0.7156841001 0.6859760499
24600152400.0 -0.7030291091 0.6948226223
