!Created with skrf (http://scikit-rf.org).
# Hz S RI R 50.0 
!freq ReS11 ImS11
300000.0 -0.9892350611 -0.0724595678
50299700.0 -0.9997684865 0.0166771939
100299400.0 -0.9976842118 0.0292988192
150299100.0 -1.002411752 0.0461499498
200298800.0 -0.9991013339 0.0594543302
250298500.0 -0.9971289858 0.0728041697
300298200.0 -0.9855451236 0.0886038112
350297900.0 -0.9936763213 0.0996829361
400297600.0 -0.9925015457 0.1162202997
450297300.0 -0.9903705243 0.129952321
500297000.0 -0.9888645805 0.1446947926
550296700.0 -0.9837567627 0.1571615709
600296400.0 -1.016546585 0.1904580539
650296100.0 -0.9815666121 0.1869607789
700295800.0 -0.9783675381 0.2014769053
750295500.0 -0.9755877577 0.2151081291
800295200.0 -0.9721019968 0.2293548068
850294900.0 -0.968741076 0.2431170096
900294600.0 -0.9649591942 0.256890512
950294300.0 -0.9612904874 0.2705351213
1000294000.0 -0.9571943741 0.2845549252
1050293700.0 -0.9526998069 0.2982868715
1100293400.0 -0.9483370016 0.3127155437
1150293100.0 -0.9445705428 0.3246289566
1200292800.0 -0.9393764384 0.3387985733
1250292500.0 -0.9337291339 0.3521667669
1300292200.0 -0.9281868975 0.3652850001
1350291900.0 -0.9229240267 0.3795318871
1400291600.0 -0.917299165 0.392514275
1450291300.0 -0.9117034223 0.4046577128
1500291000.0 -0.9056115689 0.4180323274
1550290700.0 -0.8989995664 0.4312463826
1600290400.0 -0.8929692197 0.4440893944
1650290100.0 -0.8863026759 0.4563706227
1700289800.0 -0.8795562096 0.4698217096
1750289500.0 -0.8725131385 0.4819019319
1800289200.0 -0.8652097026 0.494958001
1850288900.0 -0.858412989 0.5061423014
1900288600.0 -0.8504586236 0.5192431829
1950288300.0 -0.8425697877 0.5316804209
2000288000.0 -0.8349922073 0.5432352194
2050287700.0 -0.8269334059 0.5554572353
2100287400.0 -0.8189407192 0.5672508507
2150287100.0 -0.810276379 0.5793012934
2200286800.0 -0.8024042758 0.5896548159
2250286500.0 -0.79361776 0.6016203375
2300286200.0 -0.7845355573 0.6132516482
2350285900.0 -0.7756859027 0.6243070961
2400285600.0 -0.7667629629 0.635182586
2450285300.0 -0.7580588161 0.645780596
2500285000.0 -0.7484177633 0.6570313105
2550284700.0 -0.7392978787 0.6673347328
2600284400.0 -0.729607572 0.6775305756
2650284100.0 -0.7208550864 0.6879377259
2700283800.0 -0.7104275673 0.6984600041
2750283500.0 -0.7001218609 0.7088203991
2800283200.0 -0.6902288096 0.7187742954
2850282900.0 -0.6799931628 0.72838107
2900282600.0 -0.66993801 0.7380910211
2950282300.0 -0.6595342971 0.7473435412
3000282000.0 -0.6488194871 0.7568135206
3050281700.0 -0.6376164694 0.7658726435
3100281400.0 -0.6261140014 0.7750614893
3150281100.0 -0.6146392347 0.7842561021
3200280800.0 -0.6029374336 0.7929865659
3250280500.0 -0.5922355873 0.8005962356
3300280200.0 -0.5809703437 0.8087224465
3350279900.0 -0.5695127341 0.8162701884
3400279600.0 -0.5574290305 0.8240978356
3450279300.0 -0.5462727261 0.8311768109
3500279000.0 -0.5342230517 0.8382384486
3550278700.0 -0.522140864 0.8455101132
3600278400.0 -0.510092246 0.8527589345
3650278100.0 -0.4967996746 0.8605279035
3700277800.0 -0.4849242581 0.8670577931
3750277500.0 -0.4727334808 0.8734342638
3800277200.0 -0.4600503524 0.8800215074
3850276900.0 -0.4478448951 0.8860828065
3900276600.0 -0.4366149496 0.8919020748
3950276300.0 -0.4239900219 0.8980533383
4000276000.0 -0.4118446771 0.9039682813
4050275700.0 -0.3986759337 0.9103602751
4100275400.0 -0.3871269317 0.9156737188
4150275100.0 -0.3744013107 0.9212026427
4200274800.0 -0.361077972 0.9265956254
4250274500.0 -0.3486949313 0.931579117
4300274200.0 -0.3359628057 0.9369118936
4350273900.0 -0.3223766353 0.9415301887
4400273600.0 -0.3075420179 0.9469802833
4450273300.0 -0.292340442 0.9520149466
4500273000.0 -0.279106742 0.9562514437
4550272700.0 -0.2651502504 0.9604501184
4600272400.0 -0.2497534187 0.9646590017
4650272100.0 -0.2377208621 0.9678232281
4700271800.0 -0.2244490382 0.9711803608
4750271500.0 -0.2123999237 0.974153081
4800271200.0 -0.1996748247 0.9769031262
4850270900.0 -0.1859125258 0.9797523167
4900270600.0 -0.1722289231 0.9822093161
4950270300.0 -0.1583332083 0.9845747192
5000270000.0 -0.1441974794 0.986737762
5050269700.0 -0.1306156648 0.988392193
5100269400.0 -0.116963195 0.9899725054
5150269100.0 -0.1039390599 0.9918479561
5200268800.0 -0.0903087807 0.9928140244
5250268500.0 -0.0774868791 0.9938359898
5300268200.0 -0.0641923176 0.9944217234
5350267900.0 -0.0521226204 0.9951205494
5400267600.0 -0.0361887182 0.9961800215
5450267300.0 -0.0231950539 0.9964235156
5500267000.0 -0.0083709465 0.9967921795
5550266700.0 0.0061102802 0.9970757848
5600266400.0 0.0214879397 0.9969241058
5650266100.0 0.0378661349 0.9964998082
5700265800.0 0.0521121293 0.9957820051
5750265500.0 0.0673133557 0.9954486663
5800265200.0 0.0808477352 0.99375091
5850264900.0 0.0944618617 0.9927752423
5900264600.0 0.1108033968 0.9907277408
5950264300.0 0.123095752 0.9897343866
6000264000.0 0.1372546769 0.9879116286
6050263700.0 0.1501832992 0.9860683638
6100263400.0 0.1626421267 0.9839122872
6150263100.0 0.1777278732 0.9818974237
6200262800.0 0.1883263222 0.9801114148
6250262500.0 0.2011810226 0.9774940433
6300262200.0 0.2141031345 0.9745382056
6350261900.0 0.2271827154 0.9716659646
6400261600.0 0.2412509624 0.968380109
6450261300.0 0.2526009301 0.9655460605
6500261000.0 0.2655718099 0.9621920113
6550260700.0 0.2785371347 0.9583453014
6600260400.0 0.2916358911 0.9542637378
6650260100.0 0.3052897611 0.9496875179
6700259800.0 0.3174599836 0.9458347137
6750259500.0 0.3313862653 0.9410160529
6800259200.0 0.3444323485 0.9360789373
6850258900.0 0.3560902279 0.930857996
6900258600.0 0.3684182626 0.9262793702
6950258300.0 0.3810495503 0.9209766804
7000258000.0 0.3931697806 0.9156633762
7050257700.0 0.4052949501 0.9096583252
7100257400.0 0.4181346141 0.903546177
7150257100.0 0.4285228398 0.898301154
7200256800.0 0.4411639942 0.8921720827
7250256500.0 0.4529183088 0.8857759201
7300256200.0 0.465642783 0.879232946
7350255900.0 0.4779374859 0.8724931332
7400255600.0 0.4902504678 0.8654414892
7450255300.0 0.5053356035 0.8566331992
7500255000.0 0.5171670223 0.8498845694
7550254700.0 0.5303380958 0.8415497748
7600254400.0 0.5434290008 0.833416818
7650254100.0 0.5546913485 0.8256461128
7700253800.0 0.5663988784 0.8175277622
7750253500.0 0.5777203008 0.8097162354
7800253200.0 0.5887443957 0.801691773
7850252900.0 0.5983597707 0.7948065693
7900252600.0 0.6102258754 0.7857729584
7950252300.0 0.6194645779 0.7786912387
8000252000.0 0.6297733766 0.7707516156
8050251700.0 0.6403922735 0.7623675768
8100251400.0 0.6503197392 0.75419045
8150251100.0 0.6607460174 0.745377531
8200250800.0 0.6698333813 0.7369935498
8250250500.0 0.6790697459 0.7288552669
8300250200.0 0.6886446281 0.7203105055
8350249900.0 0.6981740615 0.7112697091
8400249600.0 0.7066723025 0.7030810614
8450249300.0 0.7159169077 0.6937200235
8500249000.0 0.7244757649 0.6847890534
8550248700.0 0.7331778311 0.6755921942
8600248400.0 0.7417954008 0.6660333023
8650248100.0 0.7494889918 0.6565939077
8700247800.0 0.758802406 0.6458191411
8750247500.0 0.7671151815 0.6357352126
8800247200.0 0.7752413855 0.625558223
8850246900.0 0.7836790531 0.6144672458
8900246600.0 0.7920674791 0.603541699
8950246300.0 0.801505159 0.5909280032
9000246000.0 0.8104010519 0.5787521409
9050245700.0 0.8190103846 0.5662023369
9100245400.0 0.8273511109 0.5540267047
9150245100.0 0.8359407929 0.5411578025
9200244800.0 0.8457079488 0.526833378
9250244500.0 0.8546047391 0.512059427
9300244200.0 0.8625332791 0.498381583
9350243900.0 0.8705894175 0.4847169073
9400243600.0 0.8775390663 0.4716053645
9450243300.0 0.8835366965 0.4595819469
9500243000.0 0.8902276691 0.4464397285
9550242700.0 0.8947584226 0.4372813709
9600242400.0 0.8990760714 0.428705267
9650242100.0 0.902747189 0.4209041582
9700241800.0 0.9077314931 0.4120651962
9750241500.0 0.9121210195 0.4035872789
9800241200.0 0.9167566652 0.3939458795
9850240900.0 0.9222607523 0.3820875858
9900240600.0 0.9274611007 0.3709467663
9950240300.0 0.9336428956 0.3553858607
10000240000.0 0.9387067998 0.3433015587
10050239700.0 0.9432512431 0.32913465
10100239400.0 0.9487324542 0.3137848297
10150239100.0 0.9530481736 0.2995245254
10200238800.0 0.957357609 0.2847892212
10250238500.0 0.9607927846 0.2713346946
10300238200.0 0.9641854319 0.2576507052
10350237900.0 0.9670009282 0.2444829183
10400237600.0 0.9696038377 0.2316170077
10450237300.0 0.9725052812 0.2175726394
10500237000.0 0.9750480829 0.2050459883
10550236700.0 0.9772632197 0.1918260978
10600236400.0 0.9792229311 0.1788866751
10650236100.0 0.9812865313 0.1641186046
10700235800.0 0.9838128059 0.1516064798
10750235500.0 0.9859606165 0.1385709288
10800235200.0 0.9881333848 0.1246212338
10850234900.0 0.989877615 0.1106428788
10900234600.0 0.991538789 0.096436868
10950234300.0 0.9931757413 0.0828541128
11000234000.0 0.9947434853 0.0684425468
11050233700.0 0.9964839396 0.0527317541
11100233400.0 0.9975432248 0.0360447458
11150233100.0 0.9988807184 0.0195854456
11200232800.0 0.9988354873 0.0050956366
11250232500.0 0.9999171723 -0.0108342486
11300232200.0 1.000018796 -0.0276794305
11350231900.0 1.000201536 -0.0441604323
11400231600.0 0.9996251753 -0.0585117572
11450231300.0 0.9992851876 -0.0746676853
11500231000.0 0.9986175156 -0.0910119631
11550230700.0 0.9967264694 -0.1049389674
11600230400.0 0.9954537797 -0.1179860287
11650230100.0 0.9928924198 -0.1295590481
11700229800.0 0.9914331463 -0.1449760818
11750229500.0 0.9890593146 -0.1590432209
11800229200.0 0.9866083747 -0.173389975
11850228900.0 0.9833932069 -0.1865357225
11900228600.0 0.979960356 -0.1972091722
11950228300.0 0.9767988346 -0.2082623323
12000228000.0 0.9741220198 -0.2184774654
12050227700.0 0.9702882115 -0.2311797506
12100227400.0 0.9676354419 -0.2425454579
12150227100.0 0.9625845698 -0.2591218411
12200226800.0 0.9587835401 -0.2701436026
12250226500.0 0.9549158963 -0.2829970618
12300226200.0 0.9508283654 -0.2951778003
12350225900.0 0.9466051019 -0.3086612503
12400225600.0 0.9422051472 -0.3213657112
12450225300.0 0.9379988615 -0.3330001573
12500225000.0 0.9327130436 -0.3479538686
12550224700.0 0.9274179729 -0.3614839112
12600224400.0 0.922636049 -0.3738630375
12650224100.0 0.9170639063 -0.3879041782
12700223800.0 0.9118260166 -0.4004970627
12750223500.0 0.9063011692 -0.4135287499
12800223200.0 0.9010901263 -0.4258950713
12850222900.0 0.8955096948 -0.4380399696
12900222600.0 0.8898751893 -0.4504327052
12950222300.0 0.8833010287 -0.4630449984
13000222000.0 0.8772628035 -0.4753486242
13050221700.0 0.8702661183 -0.4873942815
13100221400.0 0.8637350827 -0.4995462502
13150221100.0 0.8563972873 -0.5120043585
13200220800.0 0.8492102251 -0.5241601833
13250220500.0 0.8417168889 -0.5363193421
13300220200.0 0.8341793658 -0.5472878417
13350219900.0 0.8259814683 -0.5595538093
13400219600.0 0.8177154135 -0.5716890681
13450219300.0 0.8083655577 -0.5849743718
13500219000.0 0.798786869 -0.5983443509
13550218700.0 0.7884055865 -0.6109895133
13600218400.0 0.7785394416 -0.623485176
13650218100.0 0.7692019618 -0.6339656736
13700217800.0 0.7582462782 -0.6464503016
13750217500.0 0.7485240755 -0.6581254835
13800217200.0 0.7367979871 -0.6700357337
13850216900.0 0.7259598087 -0.6818011275
13900216600.0 0.7167633311 -0.6900167592
13950216300.0 0.7058805159 -0.7005593308
14000216000.0 0.6959883525 -0.7098807501
14050215700.0 0.6867182527 -0.7185553078
14100215400.0 0.6763516177 -0.7281123406
14150215100.0 0.6674111995 -0.7366223944
14200214800.0 0.6581186555 -0.7451328057
14250214500.0 0.6479384609 -0.7542222121
14300214200.0 0.6376864424 -0.7634730625
14350213900.0 0.6266502162 -0.7729835234
14400213600.0 0.6155046437 -0.7823424951
14450213300.0 0.6025339324 -0.7920404714
14500213000.0 0.5899465019 -0.8017476003
14550212700.0 0.5774298469 -0.810773867
14600212400.0 0.5657269823 -0.81938188
14650212100.0 0.552469821 -0.8280025064
14700211800.0 0.5391657792 -0.8377326387
14750211500.0 0.5268197924 -0.8454289822
14800211200.0 0.5143552946 -0.8533518285
14850210900.0 0.5022478156 -0.8611721628
14900210600.0 0.4889206672 -0.8690545032
14950210300.0 0.4752629941 -0.876785713
15000210000.0 0.4623076447 -0.8839247099
15050209700.0 0.4499130553 -0.890180264
15100209400.0 0.4372319874 -0.8962513422
15150209100.0 0.4239086487 -0.9020427951
15200208800.0 0.4106327764 -0.9079302181
15250208500.0 0.3991756287 -0.9123482047
15300208200.0 0.3864094222 -0.9171773125
15350207900.0 0.3722553202 -0.9223616205
15400207600.0 0.3586041505 -0.9276856765
15450207300.0 0.3437583629 -0.9331695612
15500207000.0 0.3291409978 -0.9382168454
15550206700.0 0.3145536447 -0.9427370496
15600206400.0 0.2985488898 -0.9483165656
15650206100.0 0.2836778232 -0.9516914002
15700205800.0 0.2698036374 -0.9551564165
15750205500.0 0.2555904729 -0.9590739551
15800205200.0 0.2412360628 -0.9626538541
15850204900.0 0.2272774351 -0.9658077205
15900204600.0 0.2123203654 -0.9694976457
15950204300.0 0.1987042759 -0.9724375804
16000204000.0 0.1844954869 -0.9752917061
16050203700.0 0.1700973485 -0.9780088313
16100203400.0 0.1558109114 -0.9802331418
16150203100.0 0.1415796263 -0.9830421715
16200202800.0 0.1272974976 -0.984798246
16250202500.0 0.1129679078 -0.9861321799
16300202200.0 0.0982782666 -0.9876727178
16350201900.0 0.0831637609 -0.9891143722
16400201600.0 0.0685005644 -0.9902637144
16450201300.0 0.0537434962 -0.9914155399
16500201000.0 0.0373809538 -0.992286972
16550200700.0 0.0216789394 -0.9927333456
16600200400.0 0.0060209875 -0.993142965
16650200100.0 -0.0101303932 -0.9931906908
16700199800.0 -0.0265661911 -0.992443635
16750199500.0 -0.0448504272 -0.9919492576
16800199200.0 -0.060821151 -0.9911857111
16850198900.0 -0.0763159007 -0.9899237207
16900198600.0 -0.0910728496 -0.9890755779
16950198300.0 -0.1046802376 -0.9882368185
17000198000.0 -0.1180279425 -0.9863144186
17050197700.0 -0.13083877 -0.9843393189
17100197400.0 -0.1442246465 -0.9823845512
17150197100.0 -0.157267078 -0.9804524888
17200196800.0 -0.1707945689 -0.9782673777
17250196500.0 -0.183688485 -0.9755348047
17300196200.0 -0.1971156048 -0.9734770302
17350195900.0 -0.2091393594 -0.9709244346
17400195600.0 -0.2216363076 -0.9683333034
17450195300.0 -0.2346267485 -0.9657054082
17500195000.0 -0.2480671513 -0.9622622373
17550194700.0 -0.2620759954 -0.9586275594
17600194400.0 -0.2758404803 -0.9546162708
17650194100.0 -0.2898460238 -0.9505630269
17700193800.0 -0.3026956758 -0.9462780806
17750193500.0 -0.3166978056 -0.9419101423
17800193200.0 -0.3310043143 -0.9370615164
17850192900.0 -0.3454540762 -0.9316275004
17900192600.0 -0.3598427132 -0.9258235554
17950192300.0 -0.3751450675 -0.9191575996
18000192000.0 -0.3898064059 -0.9122215685
18050191700.0 -0.4035424082 -0.9044822261
18100191400.0 -0.4177238934 -0.8973073186
18150191100.0 -0.4321088429 -0.8897000124
18200190800.0 -0.4482753374 -0.881135433
18250190500.0 -0.46475109 -0.8722226264
18300190200.0 -0.480058897 -0.863363217
18350189900.0 -0.4949502582 -0.8552966732
18400189600.0 -0.5096294611 -0.8472404482
18450189300.0 -0.5229582718 -0.8390699721
18500189000.0 -0.536352602 -0.8306890458
18550188700.0 -0.5493764404 -0.8231397495
18600188400.0 -0.5614850787 -0.8157257014
18650188100.0 -0.5729931944 -0.8088423482
18700187800.0 -0.5844514244 -0.8017837965
18750187500.0 -0.5954523983 -0.7943851073
18800187200.0 -0.6063995868 -0.7869488718
18850186900.0 -0.6169512942 -0.7793602112
18900186600.0 -0.6276877946 -0.7714839581
18950186300.0 -0.6382215872 -0.7633795094
19000186000.0 -0.6462864763 -0.7565414762
19050185700.0 -0.6563011185 -0.748540845
19100185400.0 -0.666544204 -0.7398467414
19150185100.0 -0.6770542381 -0.7308993801
19200184800.0 -0.6864093826 -0.7221260118
19250184500.0 -0.6960169268 -0.7124723005
19300184200.0 -0.707285492 -0.7035671599
19350183900.0 -0.7177696306 -0.6943596423
19400183600.0 -0.7276792744 -0.6835986805
19450183300.0 -0.7366328338 -0.6737947584
19500183000.0 -0.7445085957 -0.6635826591
19550182700.0 -0.7539849328 -0.6536205991
19600182400.0 -0.7636599289 -0.6417869667
19650182100.0 -0.7738425212 -0.6301010158
19700181800.0 -0.7841078741 -0.6172521626
19750181500.0 -0.7942847663 -0.6039854944
19800181200.0 -0.8041482743 -0.5899372002
19850180900.0 -0.8135957227 -0.5755690825
19900180600.0 -0.8211584878 -0.5619762562
19950180300.0 -0.83077233 -0.5461992518
20000180000.0 -0.8267869721 -0.5444990783
20050179700.0 -0.8353885327 -0.5330381794
20100179400.0 -0.8436510347 -0.5189722775
20150179100.0 -0.8503056618 -0.5064627802
20200178800.0 -0.8595008627 -0.4939458633
20250178500.0 -0.8681907098 -0.4812763279
20300178200.0 -0.8778947928 -0.4668734744
20350177900.0 -0.8860235964 -0.4531613738
20400177600.0 -0.894359826 -0.439157056
20450177300.0 -0.9024743099 -0.4243776268
20500177000.0 -0.9099985371 -0.4104136305
20550176700.0 -0.9176216885 -0.3972238283
20600176400.0 -0.9243789659 -0.3837526443
20650176100.0 -0.9305665573 -0.3714520034
20700175800.0 -0.9375688584 -0.3585080105
20750175500.0 -0.9434193489 -0.3456791932
20800175200.0 -0.948452941 -0.3345271428
20850174900.0 -0.9538050946 -0.3237759517
20900174600.0 -0.9580828777 -0.3123075264
20950174300.0 -0.9619155929 -0.2992862348
21000174000.0 -0.9655661479 -0.2870517809
21050173700.0 -0.9689258207 -0.2760091505
21100173400.0 -0.9738367821 -0.2635655586
21150173100.0 -0.9774968281 -0.2500224401
21200172800.0 -0.9803066794 -0.2368782651
21250172500.0 -0.9836746894 -0.2228846709
21300172200.0 -0.9871574138 -0.2087921605
21350171900.0 -0.9892424722 -0.1940162897
21400171600.0 -0.9907430923 -0.1804813935
21450171300.0 -0.9913515916 -0.1664297415
21500171000.0 -0.9916283041 -0.1512067459
21550170700.0 -0.9920944721 -0.1355224909
21600170400.0 -0.9933330661 -0.1205826166
21650170100.0 -0.9918265503 -0.1046714831
21700169800.0 -0.9901927627 -0.089152587
21750169500.0 -0.989272166 -0.0741813825
21800169200.0 -0.9888827575 -0.0587245428
21850168900.0 -0.9870607109 -0.0431320855
21900168600.0 -0.9868888136 -0.026744686
21950168300.0 -0.9857902916 -0.0106697394
22000168000.0 -0.9849243074 0.0037186346
22050167700.0 -0.9845818746 0.0175873791
22100167400.0 -0.9842992428 0.0324894777
22150167100.0 -0.9842922616 0.0474762565
22200166800.0 -0.9847349295 0.0633027788
22250166500.0 -0.9834247599 0.0799036775
22300166200.0 -0.9833747852 0.09613554
22350165900.0 -0.9822311296 0.1117836165
22400165600.0 -0.9802616928 0.1277344768
22450165300.0 -0.9776578256 0.1414850263
22500165000.0 -0.9762038008 0.1560632371
22550164700.0 -0.9747273701 0.1707955917
22600164400.0 -0.972549878 0.1870743981
22650164100.0 -0.971056538 0.2010235722
22700163800.0 -0.9682898065 0.2169731306
22750163500.0 -0.9654722822 0.2317875225
22800163200.0 -0.962831247 0.2447324189
22850162900.0 -0.9604344613 0.2581833656
22900162600.0 -0.9586272508 0.2716471786
22950162300.0 -0.9570441516 0.2849528547
23000162000.0 -0.9555646185 0.2970381128
23050161700.0 -0.9537488424 0.3097324246
23100161400.0 -0.9503336624 0.3223573606
23150161100.0 -0.9483870624 0.3345561842
23200160800.0 -0.9454210686 0.3472398909
23250160500.0 -0.9419772323 0.3593002741
23300160200.0 -0.9384796995 0.3710541341
23350159900.0 -0.9350644524 0.3845675237
23400159600.0 -0.9306629532 0.396238912
23450159300.0 -0.9252736936 0.4098776428
23500159000.0 -0.9215680949 0.4229660548
23550158700.0 -0.9170472766 0.4359005858
23600158400.0 -0.9113233696 0.4483466082
23650158100.0 -0.9052618509 0.4617542247
23700157800.0 -0.8979980531 0.474994456
23750157500.0 -0.8898621886 0.4887804411
23800157200.0 -0.8813681817 0.5017536579
23850156900.0 -0.8728360585 0.514414818
23900156600.0 -0.8642707118 0.5265120084
23950156300.0 -0.8554128735 0.538586854
24000156000.0 -0.8466558388 0.5511550666
24050155700.0 -0.8364911565 0.562533726
24100155400.0 -0.8267404692 0.5738725468
24150155100.0 -0.8169034923 0.586468165
24200154800.0 -0.8059148219 0.5976599335
24250154500.0 -0.796167084 0.609947816
24300154200.0 -0.78471375 0.6213590032
24350153900.0 -0.7729690678 0.6320171697
24400153600.0 -0.7613731637 0.6427797334
24450153300.0 -0.7498905047 0.6533047838
24500153000.0 -0.7391043789 0.6628348881
24550152700.0 -0.7282666033 0.6728840683
24600152400.0 -0.7169254259 0.6826760519
24650152100.0 -0.7050656201 0.6925197813
