!Created with skrf (http://scikit-rf.org).
# Hz S RI R 50.0 
!freq ReS11 ImS11
300000.0 -1.000726095 0.0386648366
50299700.0 -0.997213701 0.0147838398
100299400.0 -0.9952955661 0.0270213652
150299100.0 -0.999804099 0.0437062169
200298800.0 -0.9966003359 0.0566146958
250298500.0 -0.9940947898 0.0696983041
300298200.0 -0.9822712444 0.0852158967
350297900.0 -0.990107269 0.0959790466
400297600.0 -0.9890749179 0.1118873831
450297300.0 -0.9865647034 0.1252386105
500297000.0 -0.9850909147 0.139415467
550296700.0 -0.9796988265 0.1514488802
600296400.0 -1.012584102 0.1841209645
650296100.0 -0.9774037666 0.1804095404
700295800.0 -0.9744537602 0.1942853751
750295500.0 -0.9715650237 0.2079807723
800295200.0 -0.968364935 0.2217739872
850294900.0 -0.9653383361 0.2348183456
900294600.0 -0.9614683043 0.248520699
950294300.0 -0.9581554004 0.2616490327
1000294000.0 -0.9543330587 0.2755974628
1050293700.0 -0.9499583369 0.2891873355
1100293400.0 -0.9459959994 0.3035583783
1150293100.0 -0.9422398422 0.3151783673
1200292800.0 -0.937307808 0.3293925444
1250292500.0 -0.9323800158 0.3429921848
1300292200.0 -0.9269448428 0.3558284434
1350291900.0 -0.9217442575 0.3700601477
1400291600.0 -0.9165841401 0.3829060317
1450291300.0 -0.9113430212 0.395160767
1500291000.0 -0.9053735375 0.4085348691
1550290700.0 -0.8993936241 0.4216472783
1600290400.0 -0.8934340991 0.4347587891
1650290100.0 -0.8874786807 0.4463612185
1700289800.0 -0.8807029796 0.4602086717
1750289500.0 -0.8743450577 0.4719605882
1800289200.0 -0.8676956201 0.4847464126
1850288900.0 -0.8610344976 0.4957308537
1900288600.0 -0.8537315623 0.5088138115
1950288300.0 -0.8462085966 0.5210857234
2000288000.0 -0.8388877481 0.5327897081
2050287700.0 -0.8309714986 0.5450011428
2100287400.0 -0.8240057277 0.5559905042
2150287100.0 -0.8155137805 0.5684362219
2200286800.0 -0.8078752135 0.5791418911
2250286500.0 -0.7993791512 0.5909121992
2300286200.0 -0.7913127441 0.6016753512
2350285900.0 -0.7832546514 0.6125102128
2400285600.0 -0.7740515668 0.6238068953
2450285300.0 -0.7646025797 0.6349974786
2500285000.0 -0.755857031 0.6449687797
2550284700.0 -0.7468600567 0.6554640234
2600284400.0 -0.7363022982 0.6664553309
2650284100.0 -0.7280917309 0.6761805927
2700283800.0 -0.7181262742 0.6859836114
2750283500.0 -0.708468422 0.6956433579
2800283200.0 -0.6982015942 0.705824691
2850282900.0 -0.6876406457 0.7160355158
2900282600.0 -0.6769542235 0.7255876856
2950282300.0 -0.6669096515 0.7347214137
3000282000.0 -0.6562283489 0.744401835
3050281700.0 -0.6452158364 0.7539811105
3100281400.0 -0.6349875203 0.7625063408
3150281100.0 -0.6254469356 0.7708853786
3200280800.0 -0.6142001988 0.779863141
3250280500.0 -0.6029540914 0.788945042
3300280200.0 -0.5903091967 0.7990826488
3350279900.0 -0.5796232576 0.8070615193
3400279600.0 -0.5675494288 0.8159462986
3450279300.0 -0.5558746205 0.8250550762
3500279000.0 -0.5438390528 0.8331238666
3550278700.0 -0.5319594531 0.841255444
3600278400.0 -0.5219759032 0.8476682809
3650278100.0 -0.5088575508 0.856178307
3700277800.0 -0.4968225566 0.8632043265
3750277500.0 -0.4847004558 0.8700927805
3800277200.0 -0.4723874961 0.8772917333
3850276900.0 -0.4598620984 0.8837697528
3900276600.0 -0.4478431454 0.8899140793
3950276300.0 -0.4343976108 0.8964540129
4000276000.0 -0.4222767185 0.902377616
4050275700.0 -0.408918401 0.9080108407
4100275400.0 -0.3975043105 0.91315794
4150275100.0 -0.3840962395 0.9187739749
4200274800.0 -0.3699236329 0.9240838254
4250274500.0 -0.3583089564 0.9283537573
4300274200.0 -0.3456373092 0.9328439755
4350273900.0 -0.3317421841 0.9375860738
4400273600.0 -0.3197655638 0.9414437302
4450273300.0 -0.3076959783 0.9453382318
4500273000.0 -0.295790289 0.9488725926
4550272700.0 -0.2847733254 0.9523018386
4600272400.0 -0.2707094207 0.9563332721
4650272100.0 -0.2587099502 0.9596513494
4700271800.0 -0.245778433 0.9626511629
4750271500.0 -0.2314324486 0.9660709465
4800271200.0 -0.2163034035 0.9694695311
4850270900.0 -0.2021306934 0.9725899985
4900270600.0 -0.1888550705 0.9749317187
4950270300.0 -0.176432535 0.9773995565
5000270000.0 -0.1630481145 0.9795818325
5050269700.0 -0.1494556014 0.9817709167
5100269400.0 -0.1343855652 0.9838231053
5150269100.0 -0.1199614041 0.9858137276
5200268800.0 -0.1058297989 0.9873223587
5250268500.0 -0.0924920231 0.9884326167
5300268200.0 -0.0776493515 0.990195275
5350267900.0 -0.0640813238 0.9909190825
5400267600.0 -0.0475327351 0.9922938307
5450267300.0 -0.0352100711 0.9922747034
5500267000.0 -0.0208447215 0.9928162785
5550266700.0 -0.0099073945 0.9924903682
5600266400.0 0.0036561312 0.9926664242
5650266100.0 0.0167113759 0.9924339207
5700265800.0 0.02902472 0.9917636476
5750265500.0 0.0414814331 0.9915009921
5800265200.0 0.0536809264 0.990963113
5850264900.0 0.0668988745 0.9903127215
5900264600.0 0.0813901307 0.9890501198
5950264300.0 0.0918259333 0.9882875033
6000264000.0 0.1045328977 0.9872454894
6050263700.0 0.1171902118 0.9861499774
6100263400.0 0.1314607624 0.9844585638
6150263100.0 0.1475001653 0.9821680794
6200262800.0 0.1589463365 0.9803910705
6250262500.0 0.1730707794 0.9780783793
6300262200.0 0.1862859898 0.9756232584
6350261900.0 0.1993900591 0.9732015187
6400261600.0 0.214986498 0.9698247399
6450261300.0 0.2275405936 0.9671061054
6500261000.0 0.2414611439 0.9640939804
6550260700.0 0.2550071655 0.9600118261
6600260400.0 0.2677111796 0.956778588
6650260100.0 0.281168171 0.95318476
6700259800.0 0.2938040304 0.9492806126
6750259500.0 0.306113553 0.9451936983
6800259200.0 0.3194967286 0.9409761883
6850258900.0 0.3322459027 0.9366170422
6900258600.0 0.3456327386 0.9318657434
6950258300.0 0.3596862493 0.9270503845
7000258000.0 0.3720228972 0.9223550185
7050257700.0 0.3827566195 0.9178698325
7100257400.0 0.397335789 0.9119761515
7150257100.0 0.4096817658 0.9067655625
7200256800.0 0.4235780172 0.9010605783
7250256500.0 0.4357754128 0.8952809197
7300256200.0 0.4491559734 0.888986621
7350255900.0 0.4616722882 0.8829212749
7400255600.0 0.4706640051 0.8779714758
7450255300.0 0.4828350152 0.8717652895
7500255000.0 0.4941815524 0.8651673835
7550254700.0 0.5036225257 0.8597448327
7600254400.0 0.5136585654 0.8535353392
7650254100.0 0.5244964758 0.847553293
7700253800.0 0.5353735015 0.8407684692
7750253500.0 0.5462722544 0.8338521696
7800253200.0 0.5584801354 0.8253681613
7850252900.0 0.5675373494 0.8193473003
7900252600.0 0.5790333784 0.8115031595
7950252300.0 0.5898910356 0.8035827346
8000252000.0 0.6012026188 0.7948607128
8050251700.0 0.6126827942 0.7859492903
8100251400.0 0.6220977711 0.7785640244
8150251100.0 0.6333835917 0.7689219666
8200250800.0 0.6429329114 0.760790333
8250250500.0 0.6543500797 0.7509415871
8300250200.0 0.6647859581 0.7413895627
8350249900.0 0.6748267954 0.7325885379
8400249600.0 0.6846163736 0.7226451223
8450249300.0 0.6952624511 0.712059543
8500249000.0 0.7060517362 0.7016578357
8550248700.0 0.7173580641 0.6900865871
8600248400.0 0.728160891 0.6786543431
8650248100.0 0.7362678618 0.669425239
8700247800.0 0.7456279225 0.6594003046
8750247500.0 0.7551324123 0.6486775747
8800247200.0 0.7648675299 0.6373736718
8850246900.0 0.7741449656 0.626204849
8900246600.0 0.7824372842 0.6154332721
8950246300.0 0.7913954555 0.6042176449
9000246000.0 0.797528646 0.5955419234
9050245700.0 0.8041897036 0.5868845012
9100245400.0 0.8123620326 0.5750170431
9150245100.0 0.8197191679 0.5646843847
9200244800.0 0.8241151666 0.5581838867
9250244500.0 0.8298386474 0.5493488792
9300244200.0 0.8347500793 0.5419483888
9350243900.0 0.8404949469 0.5327956694
9400243600.0 0.8471667217 0.5216107081
9450243300.0 0.8516942839 0.5143195759
9500243000.0 0.857474694 0.5050832916
9550242700.0 0.8653874188 0.4927539854
9600242400.0 0.8737337946 0.4783860826
9650242100.0 0.8816484013 0.4634978396
9700241800.0 0.8893429857 0.4489575206
9750241500.0 0.8981938514 0.4317692261
9800241200.0 0.9071188738 0.4115801963
9850240900.0 0.9135860944 0.3955939074
9900240600.0 0.9172122601 0.3858252103
9950240300.0 0.9222333423 0.3729258832
10000240000.0 0.9276145515 0.3586783694
10050239700.0 0.9321859157 0.3467529324
10100239400.0 0.936297347 0.33589111
10150239100.0 0.9398046054 0.3247334064
10200238800.0 0.9444477676 0.3119178826
10250238500.0 0.9487361432 0.2991429514
10300238200.0 0.9529303514 0.2864444555
10350237900.0 0.9566842772 0.2737535053
10400237600.0 0.9606996882 0.2612261923
10450237300.0 0.9651299925 0.2469726231
10500237000.0 0.9688102414 0.2329702879
10550236700.0 0.9722989194 0.2195556356
10600236400.0 0.9755801718 0.2071321099
10650236100.0 0.9784818275 0.1901027426
10700235800.0 0.9816912997 0.1748944117
10750235500.0 0.9842753723 0.1616005149
10800235200.0 0.9863668337 0.1481706099
10850234900.0 0.9880761781 0.1355757275
10900234600.0 0.9899196992 0.1213889828
10950234300.0 0.9910969477 0.1065964505
11000234000.0 0.9920353049 0.0929645183
11050233700.0 0.9924177089 0.0812924328
11100233400.0 0.993105216 0.0686448703
11150233100.0 0.9938197094 0.056467217
11200232800.0 0.9939464427 0.0445566249
11250232500.0 0.9939359064 0.0318388348
11300232200.0 0.9934345779 0.0207137623
11350231900.0 0.9927193171 0.0090166295
11400231600.0 0.9925440241 -0.0033332524
11450231300.0 0.991384477 -0.0135709242
11500231000.0 0.9910865714 -0.0244392675
11550230700.0 0.9907922073 -0.0364867904
11600230400.0 0.9909084019 -0.0524894817
11650230100.0 0.9897442628 -0.0647402199
11700229800.0 0.9890079373 -0.0790594709
11750229500.0 0.9874758831 -0.0914435079
11800229200.0 0.9861465226 -0.1014986459
11850228900.0 0.9852202702 -0.1160267883
11900228600.0 0.984175974 -0.1322373473
11950228300.0 0.9829348014 -0.1497471081
12000228000.0 0.9809215471 -0.1659487038
12050227700.0 0.9787374459 -0.1805776939
12100227400.0 0.9766212685 -0.192974248
12150227100.0 0.9728050593 -0.212806976
12200226800.0 0.9698800629 -0.2253698107
12250226500.0 0.9675401132 -0.2389509657
12300226200.0 0.9649381092 -0.2523144963
12350225900.0 0.9601418815 -0.2692099981
12400225600.0 0.9566344332 -0.2843316981
12450225300.0 0.9526541813 -0.2979077144
12500225000.0 0.9475437148 -0.3124885885
12550224700.0 0.9420067616 -0.3283383835
12600224400.0 0.9380374027 -0.3386650978
12650224100.0 0.9330132078 -0.3525968413
12700223800.0 0.9282279765 -0.3646387531
12750223500.0 0.9228149966 -0.37765138
12800223200.0 0.9166459474 -0.3921290653
12850222900.0 0.9111337523 -0.4051473832
12900222600.0 0.9044216587 -0.4179432776
12950222300.0 0.8977310595 -0.4322221866
13000222000.0 0.8909916386 -0.4453605542
13050221700.0 0.8842490368 -0.4583213236
13100221400.0 0.8780740733 -0.4704456909
13150221100.0 0.8709683426 -0.4834741258
13200220800.0 0.8636471242 -0.495948199
13250220500.0 0.8566668774 -0.5081532772
13300220200.0 0.8495739256 -0.5206352849
13350219900.0 0.8409670807 -0.534904556
13400219600.0 0.8337766199 -0.5463581502
13450219300.0 0.8270854579 -0.5562917928
13500219000.0 0.8206222606 -0.5652362065
13550218700.0 0.8135984077 -0.5758483627
13600218400.0 0.8066521211 -0.5860551815
13650218100.0 0.800316561 -0.5946790855
13700217800.0 0.7919341415 -0.6055676222
13750217500.0 0.784959232 -0.6162803845
13800217200.0 0.776677368 -0.6261408144
13850216900.0 0.7684594861 -0.6368506118
13900216600.0 0.7610211516 -0.6463321802
13950216300.0 0.7516268641 -0.6572968472
14000216000.0 0.7417245189 -0.6685108925
14050215700.0 0.7331758332 -0.678668337
14100215400.0 0.7203528829 -0.6915631266
14150215100.0 0.708044427 -0.7046916958
14200214800.0 0.6965594277 -0.7160834147
14250214500.0 0.6839107245 -0.7279216313
14300214200.0 0.6711701167 -0.7395130996
14350213900.0 0.6594238769 -0.7498986481
14400213600.0 0.648825171 -0.7586510109
14450213300.0 0.6390417704 -0.7669086131
14500213000.0 0.6291489359 -0.7746707139
14550212700.0 0.619255188 -0.7834036862
14600212400.0 0.6075295573 -0.7915859256
14650212100.0 0.5980131086 -0.7984274797
14700211800.0 0.5875547583 -0.8059410363
14750211500.0 0.5764738206 -0.8136310104
14800211200.0 0.564413591 -0.821881284
14850210900.0 0.5532212449 -0.8291023597
14900210600.0 0.5421233689 -0.8365545254
14950210300.0 0.5311053209 -0.8435895463
15000210000.0 0.5195072305 -0.8505335568
15050209700.0 0.5068895933 -0.8582259999
15100209400.0 0.4932513642 -0.8664112515
15150209100.0 0.4816875744 -0.8730384637
15200208800.0 0.4689483586 -0.8808165751
15250208500.0 0.4552534008 -0.8882795145
15300208200.0 0.4392905242 -0.8959880592
15350207900.0 0.4268427772 -0.9023648079
15400207600.0 0.4143097263 -0.9091853285
15450207300.0 0.4015617049 -0.9148535605
15500207000.0 0.3898480264 -0.9204834614
15550206700.0 0.3771128111 -0.9262303762
15600206400.0 0.3648539167 -0.9310932862
15650206100.0 0.3518378091 -0.9362385939
15700205800.0 0.3382881807 -0.9416842181
15750205500.0 0.3230979784 -0.9472167509
15800205200.0 0.3093661846 -0.9520288666
15850204900.0 0.2954804371 -0.9565499438
15900204600.0 0.2789751933 -0.9618237564
15950204300.0 0.2640520446 -0.9658904933
16000204000.0 0.24857179 -0.9700165075
16050203700.0 0.2327852908 -0.9739169731
16100203400.0 0.2186806098 -0.976685111
16150203100.0 0.2031040182 -0.9800696641
16200202800.0 0.1869086263 -0.9830272808
16250202500.0 0.1716853382 -0.9853345273
16300202200.0 0.1571272336 -0.9876541727
16350201900.0 0.1418082806 -0.9896587944
16400201600.0 0.1263879273 -0.9911081765
16450201300.0 0.1133836017 -0.9928611511
16500201000.0 0.0995665529 -0.9942944836
16550200700.0 0.0862995365 -0.9956358647
16600200400.0 0.0721736805 -0.9967744754
16650200100.0 0.0569602398 -0.9976940425
16700199800.0 0.0446943945 -0.9984062419
16750199500.0 0.0335752672 -0.9990735905
16800199200.0 0.0229794638 -0.999634363
16850198900.0 0.0106535532 -1.000101542
16900198600.0 -0.0016520421 -0.9995719149
16950198300.0 -0.0158865277 -0.9991728107
17000198000.0 -0.0312224502 -0.9988141657
17050197700.0 -0.0461535994 -0.9987395779
17100197400.0 -0.0637487431 -0.9978295343
17150197100.0 -0.0814773151 -0.9968518083
17200196800.0 -0.0974665428 -0.9954485999
17250196500.0 -0.1133404761 -0.9934375793
17300196200.0 -0.1310919562 -0.9909781294
17350195900.0 -0.1498509669 -0.9883600273
17400195600.0 -0.1677865028 -0.9852709182
17450195300.0 -0.1843202883 -0.9822986837
17500195000.0 -0.2009559314 -0.9787106173
17550194700.0 -0.2171244551 -0.975634819
17600194400.0 -0.2326014569 -0.9724196829
17650194100.0 -0.2487427572 -0.9681994558
17700193800.0 -0.2635027192 -0.9648147457
17750193500.0 -0.2782475355 -0.960390552
17800193200.0 -0.2920557703 -0.9564983487
17850192900.0 -0.306713388 -0.9518662151
17900192600.0 -0.3194781316 -0.947640864
17950192300.0 -0.333309474 -0.9426132196
18000192000.0 -0.3469093881 -0.9375470311
18050191700.0 -0.3604406183 -0.9327775292
18100191400.0 -0.3741363547 -0.9280172265
18150191100.0 -0.3864197768 -0.9229431432
18200190800.0 -0.3974108258 -0.9183882177
18250190500.0 -0.4082091384 -0.9138235362
18300190200.0 -0.4193203025 -0.9094863947
18350189900.0 -0.4311046049 -0.9046577799
18400189600.0 -0.4421483454 -0.8992061888
18450189300.0 -0.4531414898 -0.8938415825
18500189000.0 -0.4633377782 -0.8883828241
18550188700.0 -0.474114021 -0.88223835
18600188400.0 -0.48624358 -0.874950978
18650188100.0 -0.4988775603 -0.867115611
18700187800.0 -0.5113825578 -0.8587677756
18750187500.0 -0.5237674107 -0.8504128615
18800187200.0 -0.5367194532 -0.841419629
18850186900.0 -0.5497253033 -0.8318925481
18900186600.0 -0.5615852718 -0.8225775189
18950186300.0 -0.5748311253 -0.8124114324
19000186000.0 -0.5893874983 -0.8022908976
19050185700.0 -0.6052406187 -0.7915832941
19100185400.0 -0.6188644018 -0.7811545467
19150185100.0 -0.6327883443 -0.7705650447
19200184800.0 -0.6463547617 -0.7591652191
19250184500.0 -0.6591658396 -0.7483375908
19300184200.0 -0.6716074756 -0.7367879394
19350183900.0 -0.684213982 -0.7255106483
19400183600.0 -0.6970637976 -0.7141691121
19450183300.0 -0.7103088657 -0.7015160421
19500183000.0 -0.7233256914 -0.689174446
19550182700.0 -0.7354498371 -0.676947963
19600182400.0 -0.7465915526 -0.6641369833
19650182100.0 -0.7571716517 -0.6520132731
19700181800.0 -0.7669692466 -0.6394491775
19750181500.0 -0.7758865391 -0.627670839
19800181200.0 -0.7842611429 -0.6164108796
19850180900.0 -0.7924166122 -0.6054595769
19900180600.0 -0.7996076266 -0.5960122649
19950180300.0 -0.8084918594 -0.5850232904
20000180000.0 -0.8239816923 -0.5671983358
20050179700.0 -0.83234184 -0.5566137946
20100179400.0 -0.8403713233 -0.5448938966
20150179100.0 -0.8486407484 -0.5323184848
20200178800.0 -0.855223261 -0.5204925144
20250178500.0 -0.8609857664 -0.5085095482
20300178200.0 -0.8656119763 -0.4964669484
20350177900.0 -0.8700888776 -0.4860254224
20400177600.0 -0.8741341167 -0.4756987977
20450177300.0 -0.878042488 -0.4650204236
20500177000.0 -0.8823348628 -0.4540890088
20550176700.0 -0.8865434718 -0.4426446894
20600176400.0 -0.8906056833 -0.4305254715
20650176100.0 -0.895348371 -0.4176734089
20700175800.0 -0.9005697414 -0.4043425526
20750175500.0 -0.9059720761 -0.390212916
20800175200.0 -0.9091295726 -0.3771203493
20850174900.0 -0.915352425 -0.3626710019
20900174600.0 -0.9195186207 -0.3471452375
20950174300.0 -0.9246591024 -0.3324710054
21000174000.0 -0.9289898451 -0.3175450601
21050173700.0 -0.9344378289 -0.3015467098
21100173400.0 -0.9388577448 -0.2840095282
21150173100.0 -0.9429780839 -0.2675963704
21200172800.0 -0.9463741235 -0.2509326848
21250172500.0 -0.9500298785 -0.234726036
21300172200.0 -0.954044577 -0.2198568079
21350171900.0 -0.9576800121 -0.2050713216
21400171600.0 -0.9617343639 -0.1898296377
21450171300.0 -0.9657344975 -0.1746130518
21500171000.0 -0.9680546147 -0.1596975725
21550170700.0 -0.9729229881 -0.1467632851
21600170400.0 -0.9778909162 -0.134048835
21650170100.0 -0.9821159802 -0.1201821988
21700169800.0 -0.9864170203 -0.1065956054
21750169500.0 -0.9900146076 -0.0915619092
21800169200.0 -0.9941709402 -0.0767951458
21850168900.0 -0.9978635102 -0.065493212
21900168600.0 -1.000596391 -0.0543421102
21950168300.0 -1.004173854 -0.0422977007
22000168000.0 -1.007676076 -0.0288471795
22050167700.0 -1.009821804 -0.0149833992
22100167400.0 -1.010494564 0.000916871
22150167100.0 -1.010656264 0.0153098851
22200166800.0 -1.009683965 0.0280923342
22250166500.0 -1.007822427 0.0405699985
22300166200.0 -1.006996192 0.0512098701
22350165900.0 -1.006974886 0.06253191
22400165600.0 -1.006510345 0.0733855694
22450165300.0 -1.005913103 0.0863502563
22500165000.0 -1.003614364 0.0985175122
22550164700.0 -1.0021854 0.1118911296
22600164400.0 -0.9999607565 0.1249981678
22650164100.0 -0.9968375724 0.1346073943
22700163800.0 -0.9943700604 0.1446697862
22750163500.0 -0.9920397412 0.1570164284
22800163200.0 -0.9884287048 0.1689856614
22850162900.0 -0.9849316328 0.1809138179
22900162600.0 -0.9807108402 0.1944100968
22950162300.0 -0.9749705131 0.2084835325
23000162000.0 -0.9684849195 0.2234616936
23050161700.0 -0.9614671606 0.2386462447
23100161400.0 -0.9547182849 0.253632794
23150161100.0 -0.9482113292 0.2678683963
23200160800.0 -0.9423467635 0.2837132099
23250160500.0 -0.9345923158 0.2996218027
23300160200.0 -0.9276749451 0.3164509856
23350159900.0 -0.9205261441 0.3325669052
23400159600.0 -0.9133383195 0.3454029992
23450159300.0 -0.9074989796 0.357873221
23500159000.0 -0.9012140883 0.3712883023
23550158700.0 -0.8941490288 0.3855766086
23600158400.0 -0.8866297067 0.3978851618
23650158100.0 -0.879922515 0.4096235131
23700157800.0 -0.8731893036 0.4209921502
23750157500.0 -0.867509745 0.4320034629
23800157200.0 -0.8628273917 0.4424440377
23850156900.0 -0.8587095488 0.4525582054
23900156600.0 -0.8543794523 0.4634696255
23950156300.0 -0.8500342784 0.4747622958
24000156000.0 -0.8454403463 0.4857948768
24050155700.0 -0.8406003392 0.4950685758
24100155400.0 -0.8372785831 0.5049835485
24150155100.0 -0.8334552187 0.5151909551
24200154800.0 -0.8286257407 0.5254503096
24250154500.0 -0.825156699 0.5348061012
24300154200.0 -0.8218644743 0.544325916
24350153900.0 -0.8177486491 0.554034961
24400153600.0 -0.8130338483 0.5643151791
24450153300.0 -0.8084549078 0.5741706472
24500153000.0 -0.8036385656 0.5838723279
24550152700.0 -0.798270493 0.5942572414
24600152400.0 -0.7922988095 0.6035605146
24650152100.0 -0.7856747144 0.61425486
