!Created with skrf (http://scikit-rf.org).
# Hz S RI R 50.0 
!freq ReS11 ImS11
300000.0 -0.9793862137 -0.1105958252
50299700.0 -1.000030033 0.0158428489
100299400.0 -0.9980865454 0.0288913845
150299100.0 -1.002867616 0.0454761696
200298800.0 -0.9996352014 0.0588553104
250298500.0 -0.9975223325 0.0723994268
300298200.0 -0.9860348501 0.0881663867
350297900.0 -0.9939575239 0.099304849
400297600.0 -0.993323658 0.115858411
450297300.0 -0.9911652371 0.1295610836
500297000.0 -0.9894970532 0.1442477266
550296700.0 -0.9842597182 0.1568037661
600296400.0 -1.017498635 0.190182576
650296100.0 -0.9821962778 0.1866888805
700295800.0 -0.9793960207 0.2012204854
750295500.0 -0.9761588075 0.2148793023
800295200.0 -0.97299697 0.2292219134
850294900.0 -0.9697617898 0.2431597968
900294600.0 -0.9658067327 0.2569137779
950294300.0 -0.9621325513 0.2705680741
1000294000.0 -0.9579129271 0.2844972754
1050293700.0 -0.9533619393 0.2982338155
1100293400.0 -0.9491077492 0.3126887293
1150293100.0 -0.945305706 0.3245883614
1200292800.0 -0.9400550734 0.3387414902
1250292500.0 -0.9344205915 0.3522473522
1300292200.0 -0.9290448518 0.3655223435
1350291900.0 -0.9232209287 0.3795015076
1400291600.0 -0.9177299545 0.392684606
1450291300.0 -0.9123462401 0.4049735378
1500291000.0 -0.9058994613 0.418345634
1550290700.0 -0.8995027264 0.4318166961
1600290400.0 -0.8933214754 0.444609731
1650290100.0 -0.8866369279 0.4567199134
1700289800.0 -0.8797341816 0.4700321181
1750289500.0 -0.8727271015 0.4825762881
1800289200.0 -0.8653173881 0.495474206
1850288900.0 -0.8585505619 0.506784586
1900288600.0 -0.8508966671 0.5197343958
1950288300.0 -0.842491124 0.5321652427
2000288000.0 -0.8351584054 0.5439157867
2050287700.0 -0.8269018204 0.5559018365
2100287400.0 -0.8190491399 0.567896659
2150287100.0 -0.8103791898 0.5797759749
2200286800.0 -0.8024190141 0.5899692568
2250286500.0 -0.7934765455 0.6020542298
2300286200.0 -0.7847454286 0.6137486075
2350285900.0 -0.776050075 0.624806452
2400285600.0 -0.7670297002 0.6357565546
2450285300.0 -0.7585383278 0.6463651924
2500285000.0 -0.7484993719 0.657530043
2550284700.0 -0.7397990449 0.6677068852
2600284400.0 -0.7304645858 0.6779615729
2650284100.0 -0.7210158046 0.6882154972
2700283800.0 -0.7107461298 0.6989708977
2750283500.0 -0.7002879298 0.7095790064
2800283200.0 -0.6902251428 0.7191259783
2850282900.0 -0.6803962597 0.7290703372
2900282600.0 -0.6701349257 0.738619793
2950282300.0 -0.6598067887 0.7479809628
3000282000.0 -0.6492118003 0.7573397715
3050281700.0 -0.6381021128 0.7667432584
3100281400.0 -0.625814502 0.7761493298
3150281100.0 -0.614300895 0.7853150581
3200280800.0 -0.6026216309 0.7939127201
3250280500.0 -0.591701992 0.8014556114
3300280200.0 -0.5804757175 0.8091394189
3350279900.0 -0.5689700424 0.8168812388
3400279600.0 -0.5569831343 0.8246576701
3450279300.0 -0.5457760588 0.8316320547
3500279000.0 -0.5338145954 0.8387575935
3550278700.0 -0.5214150716 0.8460867277
3600278400.0 -0.5091588972 0.8533192088
3650278100.0 -0.4957094306 0.8606522211
3700277800.0 -0.4836942846 0.867281701
3750277500.0 -0.4715445865 0.8738445102
3800277200.0 -0.4589220659 0.8803749177
3850276900.0 -0.4469150182 0.8862687681
3900276600.0 -0.4358160175 0.8918782255
3950276300.0 -0.4235577017 0.897848051
4000276000.0 -0.411295937 0.903774416
4050275700.0 -0.3984633455 0.9100345969
4100275400.0 -0.3873135264 0.915185913
4150275100.0 -0.3747664622 0.921113347
4200274800.0 -0.3617017445 0.9263573593
4250274500.0 -0.349516524 0.9315469039
4300274200.0 -0.3362873958 0.9371834751
4350273900.0 -0.3226457363 0.9422451134
4400273600.0 -0.3075275444 0.9474214662
4450273300.0 -0.2923337784 0.9525885479
4500273000.0 -0.2787681777 0.957014841
4550272700.0 -0.2644839394 0.9612377738
4600272400.0 -0.2491506965 0.9654400026
4650272100.0 -0.2374887966 0.9686076206
4700271800.0 -0.2240086714 0.9718596089
4750271500.0 -0.2123975277 0.974846703
4800271200.0 -0.1998324836 0.9775620983
4850270900.0 -0.1861906546 0.9803119181
4900270600.0 -0.1721750985 0.9825059575
4950270300.0 -0.1578482331 0.9851618027
5000270000.0 -0.1437010071 0.9871591554
5050269700.0 -0.130058881 0.9887644931
5100269400.0 -0.1165544094 0.9903700748
5150269100.0 -0.1031195039 0.9920023998
5200268800.0 -0.0900326568 0.9933959542
5250268500.0 -0.0771894027 0.99386165
5300268200.0 -0.0638756262 0.9944631579
5350267900.0 -0.0515671055 0.9954563266
5400267600.0 -0.03526189 0.9963242794
5450267300.0 -0.022405084 0.9965466841
5500267000.0 -0.0071060389 0.9971176224
5550266700.0 0.0077952431 0.997239205
5600266400.0 0.0233823055 0.9974867602
5650266100.0 0.0397225144 0.9967655564
5700265800.0 0.0544469105 0.9956368345
5750265500.0 0.0697861553 0.9954323313
5800265200.0 0.0834715952 0.994269085
5850264900.0 0.0967305393 0.9930653047
5900264600.0 0.1133667508 0.9913660573
5950264300.0 0.1258368203 0.9901165876
6000264000.0 0.1396826173 0.987925553
6050263700.0 0.1520970675 0.9866425638
6100263400.0 0.1644344206 0.9846880692
6150263100.0 0.1789794468 0.9823665332
6200262800.0 0.1894408625 0.9804897877
6250262500.0 0.2021468176 0.9782681478
6300262200.0 0.2150039036 0.9754862397
6350261900.0 0.2280887937 0.9722849165
6400261600.0 0.2418501298 0.9693240888
6450261300.0 0.2533775388 0.9664577012
6500261000.0 0.2660090996 0.9629519661
6550260700.0 0.2791015001 0.9589070701
6600260400.0 0.2922606218 0.9547876992
6650260100.0 0.3064889869 0.9507426046
6700259800.0 0.3182403399 0.9460228322
6750259500.0 0.3319500543 0.9409828158
6800259200.0 0.3456215451 0.9364257825
6850258900.0 0.3572067277 0.9312429012
6900258600.0 0.3692345854 0.926078675
6950258300.0 0.3818161771 0.920708619
7000258000.0 0.3939551607 0.9153599591
7050257700.0 0.4061495522 0.9092188435
7100257400.0 0.4188363287 0.9031756685
7150257100.0 0.4290921979 0.8977496859
7200256800.0 0.4419982117 0.8914446337
7250256500.0 0.4540162139 0.885211008
7300256200.0 0.4668170774 0.8784879841
7350255900.0 0.4793165221 0.8713731077
7400255600.0 0.4926763882 0.8641332274
7450255300.0 0.5080095553 0.8554683171
7500255000.0 0.5199544952 0.8482698378
7550254700.0 0.5330276436 0.8395404257
7600254400.0 0.5458272229 0.8311420871
7650254100.0 0.5577217098 0.8232025645
7700253800.0 0.5694740738 0.815176937
7750253500.0 0.5804027726 0.8073796809
7800253200.0 0.5912926038 0.7998184735
7850252900.0 0.6010383159 0.792784004
7900252600.0 0.6127221218 0.7839240377
7950252300.0 0.6215758946 0.7773071331
8000252000.0 0.631757876 0.7694573662
8050251700.0 0.6419116341 0.7613836227
8100251400.0 0.6519924315 0.7531543017
8150251100.0 0.6622806578 0.7446774891
8200250800.0 0.6717659923 0.7365109766
8250250500.0 0.6808332663 0.7285581965
8300250200.0 0.6902591102 0.7200354091
8350249900.0 0.699066956 0.7113076011
8400249600.0 0.7072613296 0.7033375895
8450249300.0 0.7163069357 0.6936836136
8500249000.0 0.7247564537 0.6851047587
8550248700.0 0.7331879043 0.6762426899
8600248400.0 0.7415197965 0.6665698767
8650248100.0 0.7493222514 0.6572188939
8700247800.0 0.7588121179 0.6459670718
8750247500.0 0.7671414274 0.6358957352
8800247200.0 0.7751995842 0.6257549311
8850246900.0 0.7838999182 0.6142829973
8900246600.0 0.7925539434 0.6028165553
8950246300.0 0.8025033885 0.5897632191
9000246000.0 0.8115248683 0.5771255805
9050245700.0 0.8205736944 0.5643582877
9100245400.0 0.8289130635 0.5516238714
9150245100.0 0.8382997428 0.5379233817
9200244800.0 0.8485035844 0.5226711803
9250244500.0 0.8579671172 0.5068500272
9300244200.0 0.8660183078 0.492210362
9350243900.0 0.8738001093 0.4785963137
9400243600.0 0.8804702918 0.4662578297
9450243300.0 0.8865204543 0.4543305622
9500243000.0 0.8926882742 0.4419675433
9550242700.0 0.8963580446 0.4344041919
9600242400.0 0.9000244757 0.427239852
9650242100.0 0.9038336811 0.4206671577
9700241800.0 0.9085828482 0.4123474242
9750241500.0 0.9122480507 0.4049938483
9800241200.0 0.9167431138 0.3959785731
9850240900.0 0.9227135393 0.3843045023
9900240600.0 0.9281618528 0.3724280652
9950240300.0 0.9345290996 0.356698635
10000240000.0 0.9393745898 0.3448018305
10050239700.0 0.9448901927 0.3294522984
10100239400.0 0.9499699135 0.3140153887
10150239100.0 0.9542390845 0.2993531931
10200238800.0 0.9585651657 0.2842917898
10250238500.0 0.9618857587 0.2707443195
10300238200.0 0.9650172043 0.2569161351
10350237900.0 0.9676054509 0.2437706876
10400237600.0 0.970146245 0.2305956197
10450237300.0 0.9729515411 0.2170649187
10500237000.0 0.9747371503 0.205011043
10550236700.0 0.9772215867 0.1911702176
10600236400.0 0.9796414228 0.1772185328
10650236100.0 0.981217251 0.1628630006
10700235800.0 0.9833987268 0.1510603674
10750235500.0 0.9861317505 0.1375014886
10800235200.0 0.9882386934 0.123556271
10850234900.0 0.9896885717 0.1088445684
10900234600.0 0.9917346828 0.0942829872
10950234300.0 0.9937056974 0.0810713797
11000234000.0 0.9951872311 0.0658458516
11050233700.0 0.9969252849 0.0494097339
11100233400.0 0.9985233073 0.0318638884
11150233100.0 0.9992932519 0.0158689822
11200232800.0 0.9998251912 0.0002639227
11250232500.0 1.001649164 -0.0157642271
11300232200.0 1.00166742 -0.0340309224
11350231900.0 1.001800778 -0.0497937405
11400231600.0 1.001684099 -0.0662699354
11450231300.0 1.00112471 -0.0818174722
11500231000.0 0.9991044756 -0.0978090691
11550230700.0 0.9979345086 -0.1113187524
11600230400.0 0.9965727534 -0.1241560544
11650230100.0 0.9945486432 -0.1344714055
11700229800.0 0.9926199806 -0.1496226146
11750229500.0 0.9904146881 -0.1648253701
11800229200.0 0.9877161168 -0.1784859907
11850228900.0 0.9837928217 -0.1908881384
11900228600.0 0.9805298021 -0.2004763231
11950228300.0 0.9769382413 -0.2110906208
12000228000.0 0.9746191713 -0.2194505092
12050227700.0 0.9702219116 -0.2326853726
12100227400.0 0.9674649316 -0.2435709649
12150227100.0 0.9627227037 -0.260036818
12200226800.0 0.9591433838 -0.2702546162
12250226500.0 0.9550779049 -0.2831964232
12300226200.0 0.9509183159 -0.295445901
12350225900.0 0.9465944175 -0.3093926261
12400225600.0 0.9417057611 -0.322429682
12450225300.0 0.9375497297 -0.3350565879
12500225000.0 0.9316073744 -0.3496847696
12550224700.0 0.9268398058 -0.3632591613
12600224400.0 0.9218048846 -0.3761968416
12650224100.0 0.9158699763 -0.3904249585
12700223800.0 0.9105250459 -0.4032495004
12750223500.0 0.9050432109 -0.4160172184
12800223200.0 0.8997292702 -0.4286535885
12850222900.0 0.8944419443 -0.4407400924
12900222600.0 0.8885295507 -0.4528136915
12950222300.0 0.882088599 -0.4658453345
13000222000.0 0.8764342336 -0.4769866891
13050221700.0 0.8699453651 -0.4897457968
13100221400.0 0.863287826 -0.5019823381
13150221100.0 0.8562233583 -0.5142722306
13200220800.0 0.8488154472 -0.5259152457
13250220500.0 0.8416852258 -0.5378192134
13300220200.0 0.8341191736 -0.5486054591
13350219900.0 0.8261871554 -0.5607113618
13400219600.0 0.8177800664 -0.5729520195
13450219300.0 0.8082842647 -0.5864281309
13500219000.0 0.7976895176 -0.6008203362
13550218700.0 0.7874108289 -0.6136157067
13600218400.0 0.777297911 -0.6259239562
13650218100.0 0.766736148 -0.6373210623
13700217800.0 0.7562318009 -0.6494417043
13750217500.0 0.7461198614 -0.6611949147
13800217200.0 0.7355468679 -0.6731335693
13850216900.0 0.7233835414 -0.6841916838
13900216600.0 0.7141673431 -0.693044557
13950216300.0 0.7035491856 -0.703604553
14000216000.0 0.6936574926 -0.7116646133
14050215700.0 0.6844052818 -0.7202106481
14100215400.0 0.6742646211 -0.729301845
14150215100.0 0.6651880083 -0.7380967259
14200214800.0 0.6557859397 -0.7464603908
14250214500.0 0.6455373964 -0.7557015652
14300214200.0 0.6353207334 -0.7648912714
14350213900.0 0.6241168454 -0.7743259162
14400213600.0 0.6123954843 -0.784284641
14450213300.0 0.5992220705 -0.7942434991
14500213000.0 0.5860297893 -0.8038110344
14550212700.0 0.5737900595 -0.8135944133
14600212400.0 0.5613546906 -0.8223322929
14650212100.0 0.5483003984 -0.8311411226
14700211800.0 0.534464015 -0.8402597005
14750211500.0 0.5220127493 -0.8485111866
14800211200.0 0.5099628329 -0.8567396401
14850210900.0 0.4977647463 -0.8643855906
14900210600.0 0.4843455786 -0.8721427111
14950210300.0 0.4707608718 -0.879678672
15000210000.0 0.4580392466 -0.8865673021
15050209700.0 0.4457404565 -0.8927206732
15100209400.0 0.4334635886 -0.8985639749
15150209100.0 0.4203936401 -0.9041645553
15200208800.0 0.407976552 -0.9093258361
15250208500.0 0.3962545213 -0.9140167669
15300208200.0 0.3833327848 -0.9189466684
15350207900.0 0.3712010658 -0.9235130848
15400207600.0 0.3558436618 -0.9285326593
15450207300.0 0.3411347986 -0.9341720198
15500207000.0 0.3267245205 -0.9390610858
15550206700.0 0.3120673256 -0.9437888732
15600206400.0 0.2960683035 -0.9479157295
15650206100.0 0.280045407 -0.9519749066
15700205800.0 0.2662846416 -0.9558588435
15750205500.0 0.2515215307 -0.9593188722
15800205200.0 0.2372676377 -0.9626583106
15850204900.0 0.2227481025 -0.9662752254
15900204600.0 0.2076536765 -0.9695916528
15950204300.0 0.1940024783 -0.9726213108
16000204000.0 0.1798292618 -0.9753491654
16050203700.0 0.1650323833 -0.9781569003
16100203400.0 0.1500905787 -0.9799824388
16150203100.0 0.1359284919 -0.9828486065
16200202800.0 0.1222216319 -0.9850595901
16250202500.0 0.1070748225 -0.9860879892
16300202200.0 0.0922742614 -0.9880092367
16350201900.0 0.0773920618 -0.9890987847
16400201600.0 0.0624680267 -0.990214861
16450201300.0 0.0476173926 -0.9912385297
16500201000.0 0.0309693593 -0.9918888603
16550200700.0 0.0151219615 -0.9923422965
16600200400.0 -0.0004952124 -0.9928053637
16650200100.0 -0.016744583 -0.9928285511
16700199800.0 -0.0331178434 -0.9921426021
16750199500.0 -0.0524996529 -0.9916419587
16800199200.0 -0.0680121533 -0.9905321289
16850198900.0 -0.0830443967 -0.9897064436
16900198600.0 -0.0971926827 -0.9879913677
16950198300.0 -0.1107390864 -0.9872589407
17000198000.0 -0.1226866862 -0.9858601849
17050197700.0 -0.1359811645 -0.9838369511
17100197400.0 -0.1493388749 -0.981400973
17150197100.0 -0.1616979373 -0.9795583627
17200196800.0 -0.1746955495 -0.9776915356
17250196500.0 -0.1872817596 -0.9752699201
17300196200.0 -0.1989729247 -0.9729957462
17350195900.0 -0.211122804 -0.9707046886
17400195600.0 -0.2233867222 -0.9682330573
17450195300.0 -0.2365310379 -0.9653713718
17500195000.0 -0.2499273441 -0.9617673065
17550194700.0 -0.2639216448 -0.9584218996
17600194400.0 -0.2776202117 -0.9541342829
17650194100.0 -0.2911788696 -0.9501341002
17700193800.0 -0.3043811881 -0.9457772454
17750193500.0 -0.3191058097 -0.9412468058
17800193200.0 -0.3327079205 -0.9362030704
17850192900.0 -0.3480826751 -0.9308326825
17900192600.0 -0.3634328772 -0.9243258885
17950192300.0 -0.3788836998 -0.9174945301
18000192000.0 -0.3935508516 -0.9102442956
18050191700.0 -0.4073234011 -0.9023348495
18100191400.0 -0.4215058966 -0.8946549641
18150191100.0 -0.4366101023 -0.8866376803
18200190800.0 -0.4534188581 -0.8772348061
18250190500.0 -0.4704399938 -0.8677544504
18300190200.0 -0.4855085948 -0.85889908
18350189900.0 -0.5009266403 -0.8507227936
18400189600.0 -0.5152037299 -0.8423158808
18450189300.0 -0.5284851297 -0.8342672393
18500189000.0 -0.542165879 -0.8260432022
18550188700.0 -0.5544110309 -0.8189549294
18600188400.0 -0.5661250283 -0.811701322
18650188100.0 -0.5775190474 -0.8055850854
18700187800.0 -0.5883478373 -0.7989143559
18750187500.0 -0.5986574363 -0.7921227487
18800187200.0 -0.6094981567 -0.7852218667
18850186900.0 -0.6195091754 -0.7780441458
18900186600.0 -0.6299162316 -0.7707417558
18950186300.0 -0.6398408755 -0.7630569824
19000186000.0 -0.647312171 -0.7566920293
19050185700.0 -0.6564678811 -0.7494325655
19100185400.0 -0.6670616333 -0.7405988268
19150185100.0 -0.6768255009 -0.7326282006
19200184800.0 -0.6854580365 -0.7243304612
19250184500.0 -0.6963198467 -0.7149981547
19300184200.0 -0.7078374778 -0.7049668078
19350183900.0 -0.718193132 -0.6957548788
19400183600.0 -0.7279896623 -0.6855183771
19450183300.0 -0.7372059854 -0.6757711383
19500183000.0 -0.74484246 -0.6657103628
19550182700.0 -0.754526917 -0.6546110015
19600182400.0 -0.7652289071 -0.6431602827
19650182100.0 -0.7760844059 -0.6309657304
19700181800.0 -0.7869777515 -0.6177337783
19750181500.0 -0.7973426601 -0.6033732948
19800181200.0 -0.8075909586 -0.5885421045
19850180900.0 -0.8172040765 -0.5731951447
19900180600.0 -0.8248408909 -0.5589426849
19950180300.0 -0.8340093598 -0.5424641209
20000180000.0 -0.8266730763 -0.5448874386
20050179700.0 -0.8354427353 -0.5310888454
20100179400.0 -0.842934481 -0.5180692389
20150179100.0 -0.8520731358 -0.5061674818
20200178800.0 -0.8598025505 -0.4939013409
20250178500.0 -0.8701790355 -0.4800612433
20300178200.0 -0.8790589121 -0.4649321939
20350177900.0 -0.8882922713 -0.4507506939
20400177600.0 -0.896978912 -0.4363568612
20450177300.0 -0.9055139068 -0.4216937216
20500177000.0 -0.9136337558 -0.4075350885
20550176700.0 -0.9213698144 -0.3940138157
20600176400.0 -0.9279895057 -0.3806773067
20650176100.0 -0.9354018381 -0.368857055
20700175800.0 -0.9424930989 -0.3570038943
20750175500.0 -0.9484928275 -0.3447540718
20800175200.0 -0.9535646974 -0.334000226
20850174900.0 -0.9575190741 -0.3229293468
20900174600.0 -0.9624867122 -0.3107306023
20950174300.0 -0.9668496253 -0.2997615354
21000174000.0 -0.9702582041 -0.2871663082
21050173700.0 -0.9730499587 -0.2766753597
21100173400.0 -0.9774404463 -0.2648603384
21150173100.0 -0.9808424986 -0.2524410745
21200172800.0 -0.9840339035 -0.2385990205
21250172500.0 -0.9875760632 -0.2252418383
21300172200.0 -0.9908376555 -0.2109275461
21350171900.0 -0.9922528416 -0.1963107018
21400171600.0 -0.9936197706 -0.1821744794
21450171300.0 -0.9939819224 -0.1672487564
21500171000.0 -0.9940236106 -0.1517905369
21550170700.0 -0.9933779808 -0.1367576373
21600170400.0 -0.9931124275 -0.1215831773
21650170100.0 -0.9920645871 -0.1046455891
21700169800.0 -0.9901770908 -0.0897317988
21750169500.0 -0.9886233618 -0.0741609576
21800169200.0 -0.9878836981 -0.0579513827
21850168900.0 -0.987297258 -0.0418530541
21900168600.0 -0.9852147474 -0.0245420168
21950168300.0 -0.9838831742 -0.0090090723
22000168000.0 -0.9832347459 0.0051623763
22050167700.0 -0.9823270735 0.0199318848
22100167400.0 -0.982554314 0.0345449499
22150167100.0 -0.9832042356 0.0496127407
22200166800.0 -0.9839820446 0.0663462318
22250166500.0 -0.9830987477 0.0834022415
22300166200.0 -0.9828905524 0.1008778171
22350165900.0 -0.9806859059 0.1158579444
22400165600.0 -0.9786257818 0.132747101
22450165300.0 -0.9767626387 0.1485451955
22500165000.0 -0.975757868 0.1602758556
22550164700.0 -0.9740079374 0.1761385381
22600164400.0 -0.9725368313 0.1918214033
22650164100.0 -0.9707834926 0.2069203144
22700163800.0 -0.9678407884 0.2229062289
22750163500.0 -0.9651518445 0.2383394747
22800163200.0 -0.9621828796 0.2515467982
22850162900.0 -0.9601126811 0.2647255424
22900162600.0 -0.9586618888 0.2781613317
22950162300.0 -0.9576061908 0.2911468087
23000162000.0 -0.9566518038 0.3024173511
23050161700.0 -0.9546585625 0.3150857654
23100161400.0 -0.952592406 0.3278594914
23150161100.0 -0.9491050768 0.3399728874
23200160800.0 -0.9470859767 0.3534730125
23250160500.0 -0.9440610257 0.3644274766
23300160200.0 -0.9411041869 0.3758991983
23350159900.0 -0.937441631 0.3896916963
23400159600.0 -0.9333413704 0.4024654405
23450159300.0 -0.9283389783 0.4155893219
23500159000.0 -0.9238091658 0.428628188
23550158700.0 -0.9191801809 0.4419077115
23600158400.0 -0.9139330201 0.454983817
23650158100.0 -0.907559205 0.468965337
23700157800.0 -0.899942083 0.4828918943
23750157500.0 -0.8912718385 0.4968730383
23800157200.0 -0.8824222077 0.5098444687
23850156900.0 -0.873901505 0.5221740376
23900156600.0 -0.8640755855 0.5355428479
23950156300.0 -0.854563606 0.5475896214
24000156000.0 -0.8458703064 0.5591565586
24050155700.0 -0.8355951704 0.571151432
24100155400.0 -0.8262046375 0.5829906858
24150155100.0 -0.8148497313 0.5948819845
24200154800.0 -0.8033066252 0.606780437
24250154500.0 -0.7920802276 0.618419174
24300154200.0 -0.7804771199 0.6298223533
24350153900.0 -0.7689871353 0.6405703834
24400153600.0 -0.7567746311 0.6508237701
24450153300.0 -0.7449117345 0.6604852158
24500153000.0 -0.7330581793 0.6702721086
24550152700.0 -0.7222849403 0.6797974518
24600152400.0 -0.7104400007 0.6890270857
24650152100.0 -0.6982190935 0.6972571609
