!Created with skrf (http://scikit-rf.org).
# Hz S RI R 50.0 
!freq ReS11 ImS11
300000.0 -0.9721358042 -0.1222643505
50299700.0 -0.9999297947 0.0147821196
100299400.0 -0.9979866752 0.0279653367
150299100.0 -1.002549988 0.0448672127
200298800.0 -0.9994627298 0.0580442098
250298500.0 -0.9972855145 0.0715167048
300298200.0 -0.9858035348 0.0874454729
350297900.0 -0.9938323442 0.0983519826
400297600.0 -0.9931718958 0.1148517869
450297300.0 -0.9908722437 0.1285986686
500297000.0 -0.9893200902 0.143374508
550296700.0 -0.9841049212 0.1557856407
600296400.0 -1.017274291 0.1890372377
650296100.0 -0.9819290011 0.1855932577
700295800.0 -0.9792879638 0.1999226214
750295500.0 -0.9761704195 0.2137897415
800295200.0 -0.9727521341 0.2279720831
850294900.0 -0.969803973 0.2418711207
900294600.0 -0.965872425 0.2554636266
950294300.0 -0.9621258612 0.2690325544
1000294000.0 -0.958259879 0.283177503
1050293700.0 -0.9534564438 0.2970807928
1100293400.0 -0.949269096 0.3113870555
1150293100.0 -0.9454947006 0.3234066839
1200292800.0 -0.940169554 0.3377764247
1250292500.0 -0.9347239179 0.3511481944
1300292200.0 -0.9292048117 0.3642866072
1350291900.0 -0.9235734637 0.3782674358
1400291600.0 -0.9179335793 0.3914120566
1450291300.0 -0.9124024218 0.4039009621
1500291000.0 -0.9062891182 0.4171670677
1550290700.0 -0.8997147312 0.4304907276
1600290400.0 -0.8935004417 0.4434126385
1650290100.0 -0.8868734065 0.4556474962
1700289800.0 -0.8799382383 0.4689842876
1750289500.0 -0.8729394092 0.4813504869
1800289200.0 -0.865408674 0.4944039018
1850288900.0 -0.8587492126 0.5056873475
1900288600.0 -0.8510014163 0.5187915075
1950288300.0 -0.8430297015 0.5312810102
2000288000.0 -0.8355098605 0.5428499857
2050287700.0 -0.8272844475 0.5551859658
2100287400.0 -0.8194316668 0.5662853459
2150287100.0 -0.8108735852 0.5784505003
2200286800.0 -0.8029286713 0.5890031976
2250286500.0 -0.7940477287 0.6012179282
2300286200.0 -0.7852509411 0.6128163298
2350285900.0 -0.7770228276 0.6233319185
2400285600.0 -0.7680140587 0.6339440143
2450285300.0 -0.759213537 0.6450397239
2500285000.0 -0.7492725449 0.6564538228
2550284700.0 -0.7402101983 0.6668237656
2600284400.0 -0.7310352575 0.6769961529
2650284100.0 -0.7225198517 0.6871392472
2700283800.0 -0.7121657736 0.69744147
2750283500.0 -0.7015741485 0.7081631044
2800283200.0 -0.6917267917 0.7181976902
2850282900.0 -0.6812998836 0.7280284282
2900282600.0 -0.6707373109 0.7375739118
2950282300.0 -0.6603807651 0.7473307565
3000282000.0 -0.6496788092 0.7565599138
3050281700.0 -0.6384977247 0.7658923592
3100281400.0 -0.6268839642 0.7748335445
3150281100.0 -0.6156934752 0.783746763
3200280800.0 -0.6042675736 0.7920790813
3250280500.0 -0.5931888637 0.8001470207
3300280200.0 -0.5814391025 0.8083257319
3350279900.0 -0.5694692271 0.8163375806
3400279600.0 -0.5566544863 0.8244290067
3450279300.0 -0.5457943489 0.8316587187
3500279000.0 -0.5338880073 0.8383627206
3550278700.0 -0.5217503032 0.8454390379
3600278400.0 -0.5100454478 0.8521811652
3650278100.0 -0.4967707542 0.8599082402
3700277800.0 -0.4847407609 0.8660754218
3750277500.0 -0.4723409942 0.8730968431
3800277200.0 -0.4597409223 0.8794865161
3850276900.0 -0.4481416753 0.8855746341
3900276600.0 -0.4370033847 0.8913215433
3950276300.0 -0.4249337903 0.8969654971
4000276000.0 -0.4132533897 0.9028730436
4050275700.0 -0.4006729445 0.9089838267
4100275400.0 -0.389637836 0.9143811832
4150275100.0 -0.3763270487 0.9204273503
4200274800.0 -0.3629150441 0.9259132814
4250274500.0 -0.3502359367 0.9314534957
4300274200.0 -0.3371258867 0.9366007788
4350273900.0 -0.3226478881 0.942061834
4400273600.0 -0.3080316982 0.9472201727
4450273300.0 -0.2930227043 0.9520934635
4500273000.0 -0.2798943182 0.9564978625
4550272700.0 -0.266315345 0.9604667864
4600272400.0 -0.2512167467 0.9646509684
4650272100.0 -0.2399105674 0.9678096249
4700271800.0 -0.2269218866 0.9710209789
4750271500.0 -0.2152284989 0.9739990213
4800271200.0 -0.2030186234 0.9765448593
4850270900.0 -0.1892169632 0.9795566832
4900270600.0 -0.1754585879 0.9819703127
4950270300.0 -0.1608979243 0.9844125031
5000270000.0 -0.1465144928 0.9866069397
5050269700.0 -0.1328176639 0.9882882772
5100269400.0 -0.1186335028 0.990054073
5150269100.0 -0.1049866473 0.9914295577
5200268800.0 -0.0916088598 0.9924806412
5250268500.0 -0.078483898 0.9936771535
5300268200.0 -0.0646646052 0.9943588931
5350267900.0 -0.0519062267 0.9952393683
5400267600.0 -0.0359077881 0.9961272898
5450267300.0 -0.0223747797 0.9965185535
5500267000.0 -0.0071497262 0.9970536666
5550266700.0 0.0077680755 0.997320248
5600266400.0 0.0235399875 0.9971524444
5650266100.0 0.039963063 0.9966949332
5700265800.0 0.054142434 0.9958174278
5750265500.0 0.0693695107 0.9955669022
5800265200.0 0.0826701765 0.9940036946
5850264900.0 0.0960603408 0.9931376662
5900264600.0 0.1126840813 0.9916274486
5950264300.0 0.1239497082 0.9896739815
6000264000.0 0.1377637027 0.9880630354
6050263700.0 0.149387731 0.9869477013
6100263400.0 0.1616950944 0.9851203802
6150263100.0 0.1761315143 0.9824849999
6200262800.0 0.1859220644 0.9811390294
6250262500.0 0.1984084213 0.9786285681
6300262200.0 0.2107853038 0.9762607266
6350261900.0 0.2236362535 0.9734573558
6400261600.0 0.2375404511 0.9703502988
6450261300.0 0.2486568516 0.9678919027
6500261000.0 0.2614407271 0.9640286886
6550260700.0 0.2750140123 0.9602579291
6600260400.0 0.2883267255 0.956167145
6650260100.0 0.302873915 0.9519533433
6700259800.0 0.3146708457 0.9473782987
6750259500.0 0.3285789231 0.9426042132
6800259200.0 0.3424277393 0.937669413
6850258900.0 0.3542750735 0.9321948762
6900258600.0 0.3667140968 0.9270268101
6950258300.0 0.3795378083 0.9216133015
7000258000.0 0.3910643256 0.9162579814
7050257700.0 0.4028504177 0.9106158746
7100257400.0 0.416409582 0.9040822882
7150257100.0 0.4270973699 0.8987570216
7200256800.0 0.4402115151 0.8920608006
7250256500.0 0.4528868953 0.8855473561
7300256200.0 0.4657225054 0.878746571
7350255900.0 0.4785166814 0.8719801989
7400255600.0 0.4924456124 0.8642079409
7450255300.0 0.5081017862 0.8549228139
7500255000.0 0.5215981526 0.8475837867
7550254700.0 0.535190397 0.8383419364
7600254400.0 0.5474974522 0.8302759249
7650254100.0 0.5587983233 0.8221613378
7700253800.0 0.5707444151 0.8143824302
7750253500.0 0.5817398716 0.8067071375
7800253200.0 0.5922572217 0.7987250998
7850252900.0 0.6022468712 0.7915211405
7900252600.0 0.6134358594 0.7827203843
7950252300.0 0.6218323736 0.7765734958
8000252000.0 0.6316903658 0.7688517319
8050251700.0 0.6423416006 0.7607306963
8100251400.0 0.6521725709 0.7529276949
8150251100.0 0.6624688023 0.7443675329
8200250800.0 0.6718117439 0.7360344199
8250250500.0 0.6805161054 0.7283651307
8300250200.0 0.6896465144 0.7199700278
8350249900.0 0.6986511172 0.7111394499
8400249600.0 0.7069964196 0.703206509
8450249300.0 0.7155368345 0.6944873668
8500249000.0 0.724156051 0.6855229163
8550248700.0 0.7324865445 0.6764176425
8600248400.0 0.7408600298 0.6669706033
8650248100.0 0.7484222624 0.6574944924
8700247800.0 0.7577539919 0.6466232198
8750247500.0 0.7659892121 0.6363850216
8800247200.0 0.7739394978 0.626201881
8850246900.0 0.7828151052 0.6147279577
8900246600.0 0.7912302152 0.6031871616
8950246300.0 0.8003255983 0.590615403
9000246000.0 0.8090259229 0.578820755
9050245700.0 0.8173528902 0.5664835872
9100245400.0 0.8259835756 0.5543208738
9150245100.0 0.8345976329 0.5414737176
9200244800.0 0.843904043 0.5270244269
9250244500.0 0.8532385022 0.5124471928
9300244200.0 0.8613324124 0.4987653864
9350243900.0 0.8689042191 0.485726277
9400243600.0 0.875299758 0.4740913826
9450243300.0 0.8808391359 0.4635763637
9500243000.0 0.8871347025 0.4519757179
9550242700.0 0.8912083099 0.4444541102
9600242400.0 0.8954652534 0.4366874157
9650242100.0 0.8996718506 0.4296773112
9700241800.0 0.9047088643 0.4213384261
9750241500.0 0.9088678604 0.4136344699
9800241200.0 0.9137639762 0.4041276484
9850240900.0 0.9197721802 0.3923774086
9900240600.0 0.9257217087 0.3804310331
9950240300.0 0.9326015711 0.363776685
10000240000.0 0.9379749442 0.3513533345
10050239700.0 0.9439197412 0.3354300995
10100239400.0 0.9489320645 0.3196050391
10150239100.0 0.9540382604 0.3035761948
10200238800.0 0.9581513705 0.2880569162
10250238500.0 0.961477505 0.2747001158
10300238200.0 0.9645709434 0.2607630933
10350237900.0 0.9672852911 0.2471747448
10400237600.0 0.9702079 0.2337761494
10450237300.0 0.9723921534 0.2204799223
10500237000.0 0.975283471 0.2076365343
10550236700.0 0.9773991344 0.1932316358
10600236400.0 0.9793394994 0.1798263784
10650236100.0 0.9813756371 0.1646283548
10700235800.0 0.9833378911 0.1528309089
10750235500.0 0.9861034831 0.1389299667
10800235200.0 0.9883261804 0.1245769709
10850234900.0 0.9900924319 0.1093902933
10900234600.0 0.9920100546 0.0949281623
10950234300.0 0.9937632047 0.0812456763
11000234000.0 0.9954862739 0.0658303712
11050233700.0 0.9974256351 0.0491826729
11100233400.0 0.9990245616 0.031492428
11150233100.0 0.9998153499 0.015188496
11200232800.0 1.000778063 -0.0015197511
11250232500.0 1.002005883 -0.018814894
11300232200.0 1.002200519 -0.0367528759
11350231900.0 1.001507568 -0.0529477359
11400231600.0 1.001118655 -0.0693976254
11450231300.0 1.001302773 -0.0851790694
11500231000.0 0.9999561151 -0.1009584985
11550230700.0 0.9987582447 -0.1143554378
11600230400.0 0.9971357679 -0.1273173859
11650230100.0 0.9952834586 -0.1387482377
11700229800.0 0.992584277 -0.153924153
11750229500.0 0.9901835656 -0.1677728402
11800229200.0 0.9876162708 -0.181183934
11850228900.0 0.9836032248 -0.1930455866
11900228600.0 0.9801450016 -0.2023534827
11950228300.0 0.9767237771 -0.21262723
12000228000.0 0.9739056327 -0.2214365194
12050227700.0 0.969862291 -0.2344875573
12100227400.0 0.9673645934 -0.2446484564
12150227100.0 0.9618073046 -0.2619660806
12200226800.0 0.9579350499 -0.2729100954
12250226500.0 0.9539620589 -0.2856374985
12300226200.0 0.9498797109 -0.2973584305
12350225900.0 0.9446791737 -0.3114312724
12400225600.0 0.9403359265 -0.3239313259
12450225300.0 0.9357966494 -0.3368498355
12500225000.0 0.9305333802 -0.3516996242
12550224700.0 0.9249283421 -0.3653128129
12600224400.0 0.9199690963 -0.3779009964
12650224100.0 0.9141903411 -0.3923584433
12700223800.0 0.9090064883 -0.4051464073
12750223500.0 0.9035951749 -0.4183059651
12800223200.0 0.8980702213 -0.4309014273
12850222900.0 0.8925689244 -0.4430389619
12900222600.0 0.8873373936 -0.4548037339
12950222300.0 0.8813164354 -0.467670096
13000222000.0 0.8753912547 -0.4786380684
13050221700.0 0.8682422615 -0.4919640487
13100221400.0 0.8618780268 -0.5041260257
13150221100.0 0.8547077974 -0.5161256686
13200220800.0 0.8479253431 -0.5275069379
13250220500.0 0.8405000461 -0.5398022489
13300220200.0 0.8330254697 -0.5508751575
13350219900.0 0.8249644263 -0.5629256562
13400219600.0 0.8163590909 -0.5746158113
13450219300.0 0.8076920636 -0.5874742087
13500219000.0 0.7976936562 -0.60052502
13550218700.0 0.7884447519 -0.612902663
13600218400.0 0.7771668041 -0.6250541372
13650218100.0 0.7686819107 -0.6356705238
13700217800.0 0.7577160863 -0.6471981505
13750217500.0 0.7481154956 -0.6579826763
13800217200.0 0.7372511943 -0.6697260815
13850216900.0 0.7260098926 -0.6813993091
13900216600.0 0.7167781749 -0.6897331263
13950216300.0 0.7056251666 -0.6997780777
14000216000.0 0.6957388925 -0.7094989044
14050215700.0 0.6861022434 -0.7172903424
14100215400.0 0.6772629015 -0.7259499567
14150215100.0 0.6679388615 -0.7349354708
14200214800.0 0.6583869592 -0.7436967408
14250214500.0 0.6478806285 -0.7531824868
14300214200.0 0.6375566066 -0.7627146805
14350213900.0 0.6262697073 -0.7722920596
14400213600.0 0.614960151 -0.7818426035
14450213300.0 0.6014330643 -0.7923820698
14500213000.0 0.5886454295 -0.8019507716
14550212700.0 0.5761798047 -0.8121134926
14600212400.0 0.5641406981 -0.8206263188
14650212100.0 0.5512893575 -0.82910045
14700211800.0 0.5372288845 -0.8388685684
14750211500.0 0.525267474 -0.8469571615
14800211200.0 0.5131404513 -0.8552928023
14850210900.0 0.500430945 -0.86278515
14900210600.0 0.4873458605 -0.8707949236
14950210300.0 0.4739696005 -0.8784043209
15000210000.0 0.4614620859 -0.8851750501
15050209700.0 0.4491926655 -0.8912382459
15100209400.0 0.4362462749 -0.8968861074
15150209100.0 0.4239101128 -0.9022913015
15200208800.0 0.4111987905 -0.9081789745
15250208500.0 0.4008479549 -0.9126215331
15300208200.0 0.3882488887 -0.9164096902
15350207900.0 0.3754058148 -0.9216939851
15400207600.0 0.3601357233 -0.9272202128
15450207300.0 0.3457235891 -0.9314773647
15500207000.0 0.3311259209 -0.9363433065
15550206700.0 0.3159706942 -0.9417509337
15600206400.0 0.3004434277 -0.9466205589
15650206100.0 0.2849814428 -0.9506249012
15700205800.0 0.2710468472 -0.9540126951
15750205500.0 0.257109081 -0.9573807158
15800205200.0 0.2430177755 -0.9609566951
15850204900.0 0.2289446524 -0.9645493976
15900204600.0 0.213632049 -0.9682459456
15950204300.0 0.1996093344 -0.9713919944
16000204000.0 0.1847765828 -0.9742286072
16050203700.0 0.1696099508 -0.9772271858
16100203400.0 0.1551462581 -0.9793522386
16150203100.0 0.1399598451 -0.9816348532
16200202800.0 0.1260843249 -0.984082268
16250202500.0 0.1108506774 -0.985647191
16300202200.0 0.0954430643 -0.9874062475
16350201900.0 0.0807460096 -0.9893012344
16400201600.0 0.0658916997 -0.9902445132
16450201300.0 0.0502915657 -0.9913309708
16500201000.0 0.0332065379 -0.9920029609
16550200700.0 0.0171570978 -0.9926257372
16600200400.0 0.0013956434 -0.9928658859
16650200100.0 -0.0147395281 -0.9925453579
16700199800.0 -0.0312663161 -0.9922570447
16750199500.0 -0.0503767035 -0.9917984581
16800199200.0 -0.0660454279 -0.9906018818
16850198900.0 -0.0814165295 -0.9900695511
16900198600.0 -0.0956454259 -0.9885128498
16950198300.0 -0.1095908014 -0.9873926283
17000198000.0 -0.1222379918 -0.9855516265
17050197700.0 -0.1352121846 -0.9838695347
17100197400.0 -0.1478652942 -0.9818581998
17150197100.0 -0.1610548391 -0.9801925462
17200196800.0 -0.1737852514 -0.9782424015
17250196500.0 -0.1867993871 -0.9757194917
17300196200.0 -0.1988941459 -0.9730853157
17350195900.0 -0.2104883575 -0.9707702556
17400195600.0 -0.2226204419 -0.9682744308
17450195300.0 -0.2355474133 -0.9655400027
17500195000.0 -0.2485863214 -0.962238703
17550194700.0 -0.2623541213 -0.9585552322
17600194400.0 -0.2761875436 -0.9546659012
17650194100.0 -0.2902372145 -0.9504328484
17700193800.0 -0.3029848187 -0.9466173366
17750193500.0 -0.3171420703 -0.9415513244
17800193200.0 -0.3314286285 -0.9367766131
17850192900.0 -0.3463474846 -0.9312968959
17900192600.0 -0.3612239527 -0.9250467294
17950192300.0 -0.3767429099 -0.9178934837
18000192000.0 -0.3916038342 -0.9108379493
18050191700.0 -0.4054846188 -0.9030739281
18100191400.0 -0.4195253939 -0.8954336236
18150191100.0 -0.4343391522 -0.8874430018
18200190800.0 -0.4510985424 -0.8783011211
18250190500.0 -0.46827245 -0.8687698067
18300190200.0 -0.4836612199 -0.8598789278
18350189900.0 -0.4989199909 -0.8519752638
18400189600.0 -0.5134047416 -0.8429615564
18450189300.0 -0.5268918532 -0.8350617228
18500189000.0 -0.5402056091 -0.8273538987
18550188700.0 -0.5530519788 -0.8195282031
18600188400.0 -0.5648228631 -0.812315514
18650188100.0 -0.5761881043 -0.8057954603
18700187800.0 -0.5876579617 -0.7991390745
18750187500.0 -0.5982256891 -0.7926125772
18800187200.0 -0.609020692 -0.7855691029
18850186900.0 -0.619192659 -0.7786496443
18900186600.0 -0.629516419 -0.7712222249
18950186300.0 -0.6399453348 -0.763578435
19000186000.0 -0.6471871568 -0.7573462342
19050185700.0 -0.6565727408 -0.7501157945
19100185400.0 -0.6666694347 -0.7417415242
19150185100.0 -0.676561071 -0.7336282972
19200184800.0 -0.6866961404 -0.7254207298
19250184500.0 -0.6962327491 -0.7164753359
19300184200.0 -0.7081995179 -0.7060582341
19350183900.0 -0.7183577525 -0.6970490054
19400183600.0 -0.7284839125 -0.6871567128
19450183300.0 -0.736901182 -0.676813103
19500183000.0 -0.7455832727 -0.6670924104
19550182700.0 -0.7555625601 -0.6558523215
19600182400.0 -0.7653654832 -0.6444954078
19650182100.0 -0.7761471437 -0.6320601556
19700181800.0 -0.7862959596 -0.6186495929
19750181500.0 -0.7968407264 -0.6050483831
19800181200.0 -0.8068438839 -0.5898362928
19850180900.0 -0.8163849229 -0.5745553705
19900180600.0 -0.8242053428 -0.5602883149
19950180300.0 -0.8333111713 -0.5437893206
20000180000.0 -0.823251119 -0.5478864065
20050179700.0 -0.8320119283 -0.5343638659
20100179400.0 -0.839640162 -0.521249893
20150179100.0 -0.8468821773 -0.5102512518
20200178800.0 -0.8560041221 -0.4986262889
20250178500.0 -0.864906272 -0.4862734575
20300178200.0 -0.8745070688 -0.4717212204
20350177900.0 -0.884690291 -0.4583208452
20400177600.0 -0.8933285571 -0.4437847848
20450177300.0 -0.901978895 -0.4292913371
20500177000.0 -0.9097312223 -0.4156102363
20550176700.0 -0.9178226748 -0.4022191562
20600176400.0 -0.9250521268 -0.3889655854
20650176100.0 -0.9316982038 -0.3775682846
20700175800.0 -0.9377566879 -0.3646253284
20750175500.0 -0.945052003 -0.3532214105
20800175200.0 -0.9489690838 -0.342820463
20850174900.0 -0.9535315387 -0.3303240281
20900174600.0 -0.9570694962 -0.3215749361
20950174300.0 -0.9601704667 -0.3107539812
21000174000.0 -0.9640092174 -0.2996106896
21050173700.0 -0.9655606755 -0.289026542
21100173400.0 -0.9695494457 -0.27996944
21150173100.0 -0.9729616689 -0.2674083111
21200172800.0 -0.9769125835 -0.253876295
21250172500.0 -0.980538546 -0.2402730503
21300172200.0 -0.9840685654 -0.2263668186
21350171900.0 -0.9861180779 -0.2119846906
21400171600.0 -0.9883479277 -0.1975734208
21450171300.0 -0.9883388793 -0.1831951055
21500171000.0 -0.9894991315 -0.1687071196
21550170700.0 -0.9887141225 -0.153805326
21600170400.0 -0.990565194 -0.1379276371
21650170100.0 -0.9892085417 -0.122983882
21700169800.0 -0.9895518243 -0.1077804008
21750169500.0 -0.9893584829 -0.0911937813
21800169200.0 -0.9902892004 -0.0739146263
21850168900.0 -0.9894145514 -0.0574340712
21900168600.0 -0.9893949671 -0.0410106212
21950168300.0 -0.9890429226 -0.0253478114
22000168000.0 -0.9891872374 -0.0104706831
22050167700.0 -0.9900572787 0.004003813
22100167400.0 -0.9902569503 0.0198525121
22150167100.0 -0.9915125824 0.0358125567
22200166800.0 -0.9919293425 0.0520671573
22250166500.0 -0.9912493143 0.0696760141
22300166200.0 -0.9908238446 0.085632612
22350165900.0 -0.9899740102 0.1025201252
22400165600.0 -0.9885804399 0.1177450034
22450165300.0 -0.9866314434 0.1324158266
22500165000.0 -0.9850087343 0.1465233033
22550164700.0 -0.9826729052 0.1627700805
22600164400.0 -0.9812088076 0.1803475821
22650164100.0 -0.9789319152 0.1947999679
22700163800.0 -0.9747061906 0.2115270684
22750163500.0 -0.972141177 0.2262495092
22800163200.0 -0.9695037834 0.2390989043
22850162900.0 -0.9662910928 0.2521063427
22900162600.0 -0.9648199451 0.2664933729
22950162300.0 -0.9628775727 0.2800248338
23000162000.0 -0.9610605246 0.2923793401
23050161700.0 -0.9585625949 0.3058789176
23100161400.0 -0.9559153011 0.3199145824
23150161100.0 -0.9527543893 0.3317036668
23200160800.0 -0.9496857002 0.345687658
23250160500.0 -0.94686046 0.3574277313
23300160200.0 -0.9439050002 0.3705767809
23350159900.0 -0.9399938549 0.3841716096
23400159600.0 -0.9347967399 0.3980100373
23450159300.0 -0.9303930285 0.4118141195
23500159000.0 -0.9253841176 0.4253189031
23550158700.0 -0.9204332355 0.4393645075
23600158400.0 -0.9140771859 0.4533380308
23650158100.0 -0.9070644708 0.4679031992
23700157800.0 -0.8985824927 0.4824557959
23750157500.0 -0.8890689397 0.4963284274
23800157200.0 -0.8798907873 0.5100347099
23850156900.0 -0.8698125416 0.5231475609
23900156600.0 -0.8601370464 0.5357194185
23950156300.0 -0.8502150089 0.5488096275
24000156000.0 -0.8409704432 0.5599259128
24050155700.0 -0.8300972511 0.5731986163
24100155400.0 -0.8205980267 0.5857651009
24150155100.0 -0.8092987967 0.5973611428
24200154800.0 -0.7979015036 0.6093505687
24250154500.0 -0.7868446746 0.6207705866
24300154200.0 -0.7756487625 0.6332234173
24350153900.0 -0.762970471 0.6445104245
24400153600.0 -0.7509699519 0.6551912514
24450153300.0 -0.7388084846 0.6651671303
24500153000.0 -0.7274000383 0.67512988
24550152700.0 -0.7159861685 0.6854531455
24600152400.0 -0.7035212872 0.6954296721
24650152100.0 -0.6918371442 0.7033479181
