!Created with skrf (http://scikit-rf.org).
# Hz S RI R 50.0 
!freq ReS11 ImS11
300000.0 -0.9799019415 -0.1058813674
50299700.0 -1.000085047 0.0161228061
100299400.0 -0.9980516675 0.0289950782
150299100.0 -1.00280686 0.0459084527
200298800.0 -0.9996103868 0.059127165
250298500.0 -0.9973993315 0.0727122557
300298200.0 -0.9860669892 0.0884498325
350297900.0 -0.9938158822 0.0994615634
400297600.0 -0.9932525741 0.1159866312
450297300.0 -0.9911575865 0.1298764244
500297000.0 -0.9895257641 0.1445325675
550296700.0 -0.9841187319 0.1570613753
600296400.0 -1.017552622 0.1903929252
650296100.0 -0.9820097695 0.1869799535
700295800.0 -0.9792772559 0.201449118
750295500.0 -0.9760753008 0.2151897733
800295200.0 -0.9727888189 0.2296237741
850294900.0 -0.9694243045 0.2433361697
900294600.0 -0.9655891708 0.2567934788
950294300.0 -0.9618082072 0.2707291416
1000294000.0 -0.9578087284 0.2846975449
1050293700.0 -0.9531926737 0.2984988381
1100293400.0 -0.9490595324 0.3128202099
1150293100.0 -0.945107781 0.3247525581
1200292800.0 -0.9400193689 0.339142006
1250292500.0 -0.9344283292 0.3524324357
1300292200.0 -0.9285335449 0.3656946666
1350291900.0 -0.9231981976 0.379889305
1400291600.0 -0.917697645 0.3928468292
1450291300.0 -0.9121984827 0.4052234305
1500291000.0 -0.9060296386 0.418371439
1550290700.0 -0.8993983402 0.4319772062
1600290400.0 -0.8931911537 0.4447107931
1650290100.0 -0.8862522269 0.4569991792
1700289800.0 -0.8795831842 0.4704413283
1750289500.0 -0.8724633772 0.4826032105
1800289200.0 -0.86517384 0.4955299026
1850288900.0 -0.8585370462 0.5068298259
1900288600.0 -0.8505736531 0.5197759711
1950288300.0 -0.8423516166 0.5323644149
2000288000.0 -0.834977395 0.5439250921
2050287700.0 -0.8267961246 0.5559489
2100287400.0 -0.8186453266 0.5677899826
2150287100.0 -0.8101127893 0.5799163538
2200286800.0 -0.8024208712 0.5902875552
2250286500.0 -0.7935642866 0.6022412534
2300286200.0 -0.784583324 0.6138784156
2350285900.0 -0.7756843662 0.6249412885
2400285600.0 -0.7669051799 0.635807902
2450285300.0 -0.7582622352 0.6462347128
2500285000.0 -0.7486001194 0.657499828
2550284700.0 -0.7395435876 0.6679493163
2600284400.0 -0.7301709988 0.6781939846
2650284100.0 -0.7212202732 0.6887902682
2700283800.0 -0.7104811992 0.6991814417
2750283500.0 -0.7002327109 0.7098094178
2800283200.0 -0.6903488655 0.719354809
2850282900.0 -0.6802910245 0.7293986674
2900282600.0 -0.6697451048 0.7385614262
2950282300.0 -0.6595677856 0.7480352365
3000282000.0 -0.6488066086 0.7573114033
3050281700.0 -0.6377227689 0.766625616
3100281400.0 -0.6259295222 0.7760468196
3150281100.0 -0.6140753325 0.7854061023
3200280800.0 -0.6025053721 0.7939720196
3250280500.0 -0.5916022267 0.8015367338
3300280200.0 -0.5804118466 0.8093177089
3350279900.0 -0.5689937558 0.8168724836
3400279600.0 -0.5569018973 0.8246727727
3450279300.0 -0.5458120701 0.8317550321
3500279000.0 -0.5336225419 0.8387340105
3550278700.0 -0.5213825938 0.8461211196
3600278400.0 -0.5091067885 0.8534129908
3650278100.0 -0.4957039317 0.8609223286
3700277800.0 -0.4837751486 0.8672890971
3750277500.0 -0.4714267476 0.873803827
3800277200.0 -0.4589414175 0.8804688757
3850276900.0 -0.446731867 0.8862189633
3900276600.0 -0.4356771581 0.8920081514
3950276300.0 -0.423494385 0.8980681768
4000276000.0 -0.4115280933 0.9042196791
4050275700.0 -0.3984320969 0.9100100784
4100275400.0 -0.3870563894 0.9153328524
4150275100.0 -0.3743129841 0.9210882703
4200274800.0 -0.3615198497 0.9264812067
4250274500.0 -0.349212266 0.9315954195
4300274200.0 -0.3362114852 0.9370715559
4350273900.0 -0.3223263316 0.9422776228
4400273600.0 -0.3076038042 0.9473211278
4450273300.0 -0.2920654872 0.9525583656
4500273000.0 -0.2784862514 0.9570877367
4550272700.0 -0.2643598852 0.9611298801
4600272400.0 -0.2487101145 0.9653193069
4650272100.0 -0.2370363801 0.9685241729
4700271800.0 -0.2237579537 0.971934604
4750271500.0 -0.2119810623 0.9747727219
4800271200.0 -0.1994531283 0.9773580166
4850270900.0 -0.1857670682 0.9802755522
4900270600.0 -0.1717129649 0.9827211041
4950270300.0 -0.1576552526 0.9853321033
5000270000.0 -0.1433350672 0.9872139226
5050269700.0 -0.1298961381 0.9886442749
5100269400.0 -0.1162516376 0.9906400558
5150269100.0 -0.1032882308 0.9922841428
5200268800.0 -0.0896980055 0.9929725054
5250268500.0 -0.076896637 0.9937060492
5300268200.0 -0.063684941 0.9946053842
5350267900.0 -0.0514832514 0.9958420108
5400267600.0 -0.0354269394 0.9965924156
5450267300.0 -0.0223547601 0.9965809593
5500267000.0 -0.0072125978 0.9969699527
5550266700.0 0.0077333987 0.9972568148
5600266400.0 0.0234372385 0.9973864989
5650266100.0 0.0400233059 0.9969494425
5700265800.0 0.0544494074 0.9960205974
5750265500.0 0.06941534 0.9955251369
5800265200.0 0.0839084127 0.994579905
5850264900.0 0.0971734997 0.9935004599
5900264600.0 0.1136372284 0.991651453
5950264300.0 0.1259073433 0.9900678908
6000264000.0 0.1396221831 0.9881436644
6050263700.0 0.1523512463 0.9863496839
6100263400.0 0.1647497559 0.9845554073
6150263100.0 0.1791279722 0.9820979857
6200262800.0 0.189751756 0.9804430034
6250262500.0 0.2024717821 0.9781752303
6300262200.0 0.2154275858 0.9752186445
6350261900.0 0.2284381096 0.9721972659
6400261600.0 0.2423033791 0.9690737979
6450261300.0 0.2536407926 0.9661575185
6500261000.0 0.2662867798 0.962608922
6550260700.0 0.2790200948 0.9586585204
6600260400.0 0.292572663 0.9543850318
6650260100.0 0.3065095469 0.9504358398
6700259800.0 0.3183381916 0.9459181296
6750259500.0 0.3321028604 0.941240025
6800259200.0 0.3453687888 0.9361056728
6850258900.0 0.357471409 0.9313168865
6900258600.0 0.3694748626 0.9260071138
6950258300.0 0.3822113492 0.9207590591
7000258000.0 0.3939943843 0.9154230546
7050257700.0 0.4062795875 0.9092912208
7100257400.0 0.4190001049 0.9029897826
7150257100.0 0.4293915589 0.8976036862
7200256800.0 0.4421276161 0.891402235
7250256500.0 0.4537654747 0.8849119811
7300256200.0 0.4668898272 0.8783583526
7350255900.0 0.4795537153 0.8713672092
7400255600.0 0.4924105953 0.8640467176
7450255300.0 0.5078074301 0.855578809
7500255000.0 0.5196006256 0.848175936
7550254700.0 0.5329809864 0.8396043521
7600254400.0 0.5456790512 0.8311333454
7650254100.0 0.5574898152 0.8234227342
7700253800.0 0.5691974852 0.8154487157
7750253500.0 0.5804929645 0.8076650236
7800253200.0 0.591226487 0.7999013817
7850252900.0 0.6008758739 0.7930332073
7900252600.0 0.6124879189 0.7839284098
7950252300.0 0.6215009035 0.7773097179
8000252000.0 0.6316726544 0.7695744849
8050251700.0 0.6421815579 0.7614142258
8100251400.0 0.6522612703 0.7530332228
8150251100.0 0.6622605679 0.7445925728
8200250800.0 0.6718386355 0.7364999397
8250250500.0 0.6806465936 0.728572418
8300250200.0 0.690101008 0.7197472515
8350249900.0 0.6990876835 0.7112207772
8400249600.0 0.707683308 0.7029070137
8450249300.0 0.7165735633 0.6938191785
8500249000.0 0.7252165373 0.6849957316
8550248700.0 0.7332542496 0.6761155322
8600248400.0 0.7417527193 0.6667930655
8650248100.0 0.7494208004 0.6571997416
8700247800.0 0.759113831 0.6459899908
8750247500.0 0.7672810539 0.6359349865
8800247200.0 0.7754561855 0.6254120994
8850246900.0 0.7842533729 0.6142759262
8900246600.0 0.7926169962 0.6026843398
8950246300.0 0.8024654054 0.5897395093
9000246000.0 0.8115252352 0.577188403
9050245700.0 0.8205046657 0.5640685564
9100245400.0 0.829170845 0.5515393404
9150245100.0 0.8383791061 0.5379228994
9200244800.0 0.8482457623 0.5226100375
9250244500.0 0.8580621671 0.5067636868
9300244200.0 0.8660285537 0.4922454575
9350243900.0 0.8738484394 0.4783479116
9400243600.0 0.8805973068 0.4658923239
9450243300.0 0.8864743806 0.4541297982
9500243000.0 0.8929486459 0.441648163
9550242700.0 0.8964262384 0.434043918
9600242400.0 0.9004182413 0.4265094594
9650242100.0 0.9041072962 0.4198388492
9700241800.0 0.9085059812 0.4116836558
9750241500.0 0.9126537711 0.4040594551
9800241200.0 0.917471993 0.3946990604
9850240900.0 0.9228907407 0.3834136579
9900240600.0 0.9285023001 0.3717842237
9950240300.0 0.9351158872 0.3553545322
10000240000.0 0.9397917242 0.3442368725
10050239700.0 0.9452176851 0.3287695838
10100239400.0 0.9499950499 0.3137320245
10150239100.0 0.9543038449 0.2988187622
10200238800.0 0.9586637118 0.284056724
10250238500.0 0.961745855 0.2706822105
10300238200.0 0.9649127682 0.2565963503
10350237900.0 0.9675538976 0.2435962117
10400237600.0 0.9702086227 0.2301434305
10450237300.0 0.9725367065 0.2172424998
10500237000.0 0.9749040762 0.2048018452
10550236700.0 0.9770127694 0.1909137706
10600236400.0 0.9796592884 0.1769154995
10650236100.0 0.9814570162 0.1629518873
10700235800.0 0.9834742358 0.1511221728
10750235500.0 0.9857193534 0.1374899851
10800235200.0 0.9875779007 0.1238331789
10850234900.0 0.9898052502 0.1088519488
10900234600.0 0.99169644 0.0942476666
10950234300.0 0.9934988776 0.0809914945
11000234000.0 0.995090037 0.065966847
11050233700.0 0.9970941264 0.0495734619
11100233400.0 0.9983870497 0.0322549976
11150233100.0 0.9995032957 0.0163698949
11200232800.0 1.00023949 0.0008723152
11250232500.0 1.001313663 -0.0157507169
11300232200.0 1.001682319 -0.0333253666
11350231900.0 1.001233462 -0.0493399917
11400231600.0 1.000931485 -0.0654095163
11450231300.0 1.00058527 -0.0813979595
11500231000.0 0.999473808 -0.0975736667
11550230700.0 0.997504933 -0.1099496292
11600230400.0 0.9963870964 -0.1235221437
11650230100.0 0.9948019483 -0.1349253344
11700229800.0 0.9924308337 -0.1498572508
11750229500.0 0.9904106579 -0.1641776259
11800229200.0 0.9873857785 -0.1780464511
11850228900.0 0.9838428536 -0.1905057937
11900228600.0 0.9805277393 -0.2000616979
11950228300.0 0.9769513045 -0.211214198
12000228000.0 0.9740097568 -0.2206209475
12050227700.0 0.9706541601 -0.2329042808
12100227400.0 0.967900768 -0.2433881843
12150227100.0 0.9627796508 -0.2605173422
12200226800.0 0.9592304207 -0.271587176
12250226500.0 0.9554601828 -0.2841245414
12300226200.0 0.950818995 -0.2957931521
12350225900.0 0.9462243332 -0.3100704222
12400225600.0 0.9412805881 -0.3224650582
12450225300.0 0.9372050173 -0.3351082705
12500225000.0 0.931900442 -0.349883134
12550224700.0 0.9264761634 -0.3631530618
12600224400.0 0.9217129628 -0.3762513253
12650224100.0 0.9158222118 -0.3905426552
12700223800.0 0.9106119527 -0.4032384543
12750223500.0 0.905135024 -0.4161460372
12800223200.0 0.8998730101 -0.4285621199
12850222900.0 0.8945568268 -0.4404127988
12900222600.0 0.8887742122 -0.4529944773
12950222300.0 0.8822856509 -0.4654279179
13000222000.0 0.8764360263 -0.4772942532
13050221700.0 0.8694739268 -0.4897375274
13100221400.0 0.8628663673 -0.502328089
13150221100.0 0.8560253912 -0.5144283802
13200220800.0 0.8488209978 -0.5258880903
13250220500.0 0.8414680002 -0.5381242391
13300220200.0 0.8341240786 -0.5489020917
13350219900.0 0.8260603506 -0.5611458818
13400219600.0 0.8174057367 -0.5733590886
13450219300.0 0.8080377902 -0.5870507649
13500219000.0 0.7976354787 -0.6007823122
13550218700.0 0.7873247343 -0.6136310439
13600218400.0 0.777044542 -0.6267100735
13650218100.0 0.7671028495 -0.6373530789
13700217800.0 0.7561483774 -0.6492556658
13750217500.0 0.7469784229 -0.6604968549
13800217200.0 0.7350114335 -0.6729474103
13850216900.0 0.72380527 -0.6835449341
13900216600.0 0.7135590153 -0.6925482554
13950216300.0 0.7036222772 -0.7028624691
14000216000.0 0.6931483132 -0.712558313
14050215700.0 0.6840783338 -0.7201783189
14100215400.0 0.6739802946 -0.7298878088
14150215100.0 0.6647537116 -0.7380883138
14200214800.0 0.6555671033 -0.7467834821
14250214500.0 0.6454197554 -0.7559102242
14300214200.0 0.6352280955 -0.7649674805
14350213900.0 0.6240696817 -0.7744180368
14400213600.0 0.6124462848 -0.7843542625
14450213300.0 0.5989884479 -0.7946269415
14500213000.0 0.5862634278 -0.8039669019
14550212700.0 0.5733378797 -0.8136477837
14600212400.0 0.5616029 -0.8219626626
14650212100.0 0.5484240897 -0.8311274298
14700211800.0 0.5345514343 -0.8403417362
14750211500.0 0.5220900645 -0.848685954
14800211200.0 0.510362616 -0.8568379187
14850210900.0 0.4978746586 -0.8642994302
14900210600.0 0.4843909076 -0.8719157499
14950210300.0 0.4709846234 -0.8797434142
15000210000.0 0.4582217583 -0.8865532209
15050209700.0 0.4454440333 -0.8929108377
15100209400.0 0.432651872 -0.8983265536
15150209100.0 0.4200119946 -0.9038141851
15200208800.0 0.4074176855 -0.9090648294
15250208500.0 0.3958857004 -0.9144610287
15300208200.0 0.3838500037 -0.9185167103
15350207900.0 0.370205844 -0.9237006504
15400207600.0 0.3554903008 -0.9291716269
15450207300.0 0.341341816 -0.9341748218
15500207000.0 0.3260137843 -0.9383025184
15550206700.0 0.311440998 -0.9434705503
15600206400.0 0.295467756 -0.9480784662
15650206100.0 0.2799184308 -0.9518987102
15700205800.0 0.2661244164 -0.9560209358
15750205500.0 0.2512571671 -0.9598247753
15800205200.0 0.2368329478 -0.9628937548
15850204900.0 0.2224380155 -0.9662173938
15900204600.0 0.2073375604 -0.9698370091
15950204300.0 0.1933684692 -0.9728349295
16000204000.0 0.1795269409 -0.9755560658
16050203700.0 0.1647834541 -0.9784133032
16100203400.0 0.1507007711 -0.9804224862
16150203100.0 0.1358110779 -0.9826077602
16200202800.0 0.1219122437 -0.9847027143
16250202500.0 0.1071724367 -0.9859093486
16300202200.0 0.0923468171 -0.9880350596
16350201900.0 0.0773471344 -0.9891374739
16400201600.0 0.0630739227 -0.990386976
16450201300.0 0.0475653041 -0.9913868406
16500201000.0 0.0312312347 -0.9921299914
16550200700.0 0.0155553041 -0.9926736557
16600200400.0 -0.0002535056 -0.9925116641
16650200100.0 -0.0164957253 -0.9924069868
16700199800.0 -0.0330071404 -0.9918781918
16750199500.0 -0.0519123314 -0.9914546019
16800199200.0 -0.0677204772 -0.9907105208
16850198900.0 -0.083043858 -0.9891171247
16900198600.0 -0.0972830907 -0.9881158624
16950198300.0 -0.1101342571 -0.9868822323
17000198000.0 -0.1231881869 -0.9853330171
17050197700.0 -0.1364735755 -0.9834869639
17100197400.0 -0.1488506241 -0.9815304399
17150197100.0 -0.161815717 -0.9798471791
17200196800.0 -0.1744486361 -0.9777947299
17250196500.0 -0.1874471093 -0.9751896429
17300196200.0 -0.1995855648 -0.9728429191
17350195900.0 -0.2116798132 -0.9704779673
17400195600.0 -0.2239085402 -0.9680336389
17450195300.0 -0.2370519867 -0.9654596465
17500195000.0 -0.250283534 -0.9618261706
17550194700.0 -0.264367909 -0.9582974585
17600194400.0 -0.2781049089 -0.9539238132
17650194100.0 -0.2917850986 -0.9501593708
17700193800.0 -0.3047835052 -0.9460991659
17750193500.0 -0.3195440367 -0.9412002891
17800193200.0 -0.3336446797 -0.9366084342
17850192900.0 -0.3483317006 -0.9305096193
17900192600.0 -0.3634179253 -0.9244824098
17950192300.0 -0.3792268636 -0.9173368559
18000192000.0 -0.3934389657 -0.91051282
18050191700.0 -0.407235572 -0.9024090425
18100191400.0 -0.4214404374 -0.8947980398
18150191100.0 -0.4363340634 -0.886771313
18200190800.0 -0.4532906649 -0.8773289041
18250190500.0 -0.4700187528 -0.8678963241
18300190200.0 -0.4854992537 -0.8592333584
18350189900.0 -0.5003683891 -0.8511240145
18400189600.0 -0.515193803 -0.8424580358
18450189300.0 -0.5278080548 -0.8344146009
18500189000.0 -0.541489723 -0.8260174022
18550188700.0 -0.5540170663 -0.8187233813
18600188400.0 -0.5661163519 -0.8121910605
18650188100.0 -0.5771738795 -0.8051791599
18700187800.0 -0.5882002251 -0.7985862171
18750187500.0 -0.5987133403 -0.7920539071
18800187200.0 -0.6094650387 -0.7849809284
18850186900.0 -0.6197644459 -0.7777858031
18900186600.0 -0.630365422 -0.7703293432
18950186300.0 -0.6403076293 -0.7624201091
19000186000.0 -0.6475711696 -0.7562738585
19050185700.0 -0.6568445384 -0.7488302243
19100185400.0 -0.6674182484 -0.7406300937
19150185100.0 -0.677194689 -0.732268931
19200184800.0 -0.6866539867 -0.7238166527
19250184500.0 -0.6972542645 -0.7139790956
19300184200.0 -0.708909889 -0.7041977088
19350183900.0 -0.7200342065 -0.695098046
19400183600.0 -0.7296320862 -0.6849954285
19450183300.0 -0.7381314935 -0.6748356677
19500183000.0 -0.7463011578 -0.6651553038
19550182700.0 -0.7554912955 -0.6541021197
19600182400.0 -0.7660274607 -0.6427276173
19650182100.0 -0.776840644 -0.6303460822
19700181800.0 -0.7873105206 -0.6169217487
19750181500.0 -0.7976342862 -0.6033400881
19800181200.0 -0.8077571958 -0.5883494556
19850180900.0 -0.8173984615 -0.5730810236
19900180600.0 -0.8251286217 -0.5588355359
19950180300.0 -0.8342362034 -0.5425464631
20000180000.0 -0.8270919621 -0.5441592647
20050179700.0 -0.8353364202 -0.531490736
20100179400.0 -0.8439635532 -0.5179400219
20150179100.0 -0.8514016055 -0.5058470709
20200178800.0 -0.8609767996 -0.4930051768
20250178500.0 -0.8694205021 -0.4797386045
20300178200.0 -0.8793193156 -0.4646833058
20350177900.0 -0.8887621128 -0.4498498235
20400177600.0 -0.8973765916 -0.4359057673
20450177300.0 -0.905306568 -0.4210418674
20500177000.0 -0.9133462643 -0.4072775841
20550176700.0 -0.9212370261 -0.3935915769
20600176400.0 -0.9282340844 -0.3806880931
20650176100.0 -0.9350997764 -0.3678102412
20700175800.0 -0.9413775883 -0.3563279718
20750175500.0 -0.947866137 -0.3445747304
20800175200.0 -0.9539537296 -0.3337066813
20850174900.0 -0.9575703477 -0.322021422
20900174600.0 -0.9619445352 -0.310413382
20950174300.0 -0.9663580342 -0.2990254734
21000174000.0 -0.9708736391 -0.2870552827
21050173700.0 -0.973144457 -0.2762407422
21100173400.0 -0.9774196525 -0.2643938079
21150173100.0 -0.9814820266 -0.2508587661
21200172800.0 -0.9849020715 -0.2373453955
21250172500.0 -0.9881257692 -0.2241177262
21300172200.0 -0.9904618926 -0.2096532559
21350171900.0 -0.992093756 -0.1954452355
21400171600.0 -0.9932682887 -0.1808622046
21450171300.0 -0.9940377941 -0.1663639046
21500171000.0 -0.9941140862 -0.1514746726
21550170700.0 -0.9932724495 -0.1354756276
21600170400.0 -0.9933267464 -0.1195834554
21650170100.0 -0.9923401222 -0.1045227268
21700169800.0 -0.9915941147 -0.0880318035
21750169500.0 -0.9894426271 -0.0731981399
21800169200.0 -0.9873793956 -0.0572139477
21850168900.0 -0.987269579 -0.0410090257
21900168600.0 -0.9852724883 -0.0245826049
21950168300.0 -0.9843326166 -0.0087980354
22000168000.0 -0.9826194577 0.0060866221
22050167700.0 -0.9828620596 0.0202909091
22100167400.0 -0.9826972416 0.0354156818
22150167100.0 -0.9831906031 0.0506103211
22200166800.0 -0.9833867449 0.0668229203
22250166500.0 -0.9822880766 0.0846451812
22300166200.0 -0.9827926415 0.1006247371
22350165900.0 -0.9813570774 0.1178861923
22400165600.0 -0.9785380438 0.1335731855
22450165300.0 -0.9767877626 0.1481166392
22500165000.0 -0.9750137216 0.1621205807
22550164700.0 -0.9732228466 0.1771542666
22600164400.0 -0.9722181253 0.1926255335
22650164100.0 -0.9697358534 0.2080252186
22700163800.0 -0.9673775068 0.2238024433
22750163500.0 -0.9652286455 0.2383101819
22800163200.0 -0.9625391132 0.2521868899
22850162900.0 -0.9598099347 0.2651830823
22900162600.0 -0.9584807254 0.2784785913
22950162300.0 -0.9574937394 0.2910395241
23000162000.0 -0.9561469358 0.3030670505
23050161700.0 -0.9544044007 0.3156554676
23100161400.0 -0.9521031317 0.3280704699
23150161100.0 -0.949600235 0.3406365857
23200160800.0 -0.9465479231 0.3531423625
23250160500.0 -0.944202022 0.3643794717
23300160200.0 -0.9417250866 0.3763244094
23350159900.0 -0.937377776 0.3889393643
23400159600.0 -0.9327656331 0.4021299669
23450159300.0 -0.9280170338 0.4157888294
23500159000.0 -0.9235634134 0.4282832404
23550158700.0 -0.9189408355 0.441410901
23600158400.0 -0.9134439889 0.4546312981
23650158100.0 -0.9070258804 0.4686233291
23700157800.0 -0.8993338303 0.4825401596
23750157500.0 -0.8909939825 0.4962281588
23800157200.0 -0.8819199548 0.5090433498
23850156900.0 -0.8730724148 0.5221001782
23900156600.0 -0.8642149739 0.5348417733
23950156300.0 -0.8549076361 0.5461826307
24000156000.0 -0.8459951861 0.5585862098
24050155700.0 -0.8357083988 0.5705262209
24100155400.0 -0.8261750386 0.5826077382
24150155100.0 -0.8155734229 0.5936991183
24200154800.0 -0.8040058102 0.6051567155
24250154500.0 -0.7922462731 0.6175286838
24300154200.0 -0.7810772068 0.628915648
24350153900.0 -0.7691386122 0.6396865567
24400153600.0 -0.756882375 0.6499115699
24450153300.0 -0.7455518255 0.6600376406
24500153000.0 -0.7337940063 0.6695031657
24550152700.0 -0.7227063603 0.6794287916
24600152400.0 -0.710845126 0.6882945997
24650152100.0 -0.6992812359 0.6970286211
