!Created with skrf (http://scikit-rf.org).
# Hz S RI R 50.0 
!freq ReS11 ImS11
300000.0 -0.9750192449 -0.1195521781
50299700.0 -0.9999856884 0.0153271031
100299400.0 -0.9980516147 0.0282212975
150299100.0 -1.002846841 0.0449055781
200298800.0 -0.9995743619 0.0584462426
250298500.0 -0.9975210333 0.0718220788
300298200.0 -0.9860617767 0.0877859165
350297900.0 -0.9939401962 0.098659297
400297600.0 -0.9931520057 0.1151804677
450297300.0 -0.9911003563 0.1290721715
500297000.0 -0.9895506862 0.1437854676
550296700.0 -0.9844030355 0.156127579
600296400.0 -1.017400828 0.1894648825
650296100.0 -0.9822628473 0.1862432718
700295800.0 -0.9793824858 0.2003010836
750295500.0 -0.9761988272 0.2143495945
800295200.0 -0.973215346 0.2284174231
850294900.0 -0.9697685763 0.2421283976
900294600.0 -0.9657938673 0.2559482749
950294300.0 -0.9622664778 0.2697688776
1000294000.0 -0.9581342115 0.2835786636
1050293700.0 -0.9536747111 0.2975256494
1100293400.0 -0.9494178958 0.3118642146
1150293100.0 -0.9456653597 0.3236739965
1200292800.0 -0.9402525494 0.338067685
1250292500.0 -0.9347028442 0.351437143
1300292200.0 -0.929008031 0.3646836563
1350291900.0 -0.9234206464 0.3788088527
1400291600.0 -0.9178916965 0.3918775944
1450291300.0 -0.9124337885 0.4043865763
1500291000.0 -0.9061308619 0.4176048333
1550290700.0 -0.8997253144 0.4312033648
1600290400.0 -0.8934149373 0.4439385357
1650290100.0 -0.8867718407 0.4560236009
1700289800.0 -0.8798146507 0.4695830632
1750289500.0 -0.8728175279 0.4819106221
1800289200.0 -0.8654829413 0.4946653667
1850288900.0 -0.8587142561 0.5060240968
1900288600.0 -0.8510605646 0.5190076244
1950288300.0 -0.8427332833 0.5315485579
2000288000.0 -0.8355558697 0.5430573866
2050287700.0 -0.8271887953 0.5552578816
2100287400.0 -0.8192617256 0.5668776758
2150287100.0 -0.8107219893 0.5790286008
2200286800.0 -0.8030098574 0.5892408596
2250286500.0 -0.7940660617 0.601232911
2300286200.0 -0.7852571737 0.6129959072
2350285900.0 -0.7765830414 0.6241140527
2400285600.0 -0.767659006 0.6350178206
2450285300.0 -0.7591395138 0.6453075965
2500285000.0 -0.7492558463 0.656658715
2550284700.0 -0.7403497992 0.6669475404
2600284400.0 -0.731107379 0.6770661323
2650284100.0 -0.7221514778 0.6875946893
2700283800.0 -0.711442695 0.6980763304
2750283500.0 -0.7012662129 0.7086392683
2800283200.0 -0.6913506947 0.7183304761
2850282900.0 -0.6813968838 0.728357714
2900282600.0 -0.6708218228 0.737923774
2950282300.0 -0.6608024393 0.7472970766
3000282000.0 -0.6497976745 0.7567573746
3050281700.0 -0.6385782483 0.7658122017
3100281400.0 -0.6268059369 0.7752880348
3150281100.0 -0.6149277169 0.7846517354
3200280800.0 -0.6032438427 0.7930862457
3250280500.0 -0.5925020337 0.8008729794
3300280200.0 -0.5812259502 0.80877011
3350279900.0 -0.5695917284 0.8163869363
3400279600.0 -0.5575670939 0.8240786851
3450279300.0 -0.5463957339 0.8312463747
3500279000.0 -0.5345332107 0.8381550139
3550278700.0 -0.52193241 0.8456053997
3600278400.0 -0.5097068674 0.8526250241
3650278100.0 -0.4966152088 0.860168559
3700277800.0 -0.4846810907 0.8667202741
3750277500.0 -0.4723289385 0.8732190387
3800277200.0 -0.4600833918 0.8799255936
3850276900.0 -0.4478269959 0.8856240634
3900276600.0 -0.4371286597 0.8913993093
3950276300.0 -0.4245529907 0.8975528307
4000276000.0 -0.4125513212 0.9032765985
4050275700.0 -0.3997156734 0.909460684
4100275400.0 -0.388512288 0.9149125462
4150275100.0 -0.3759540119 0.9204463248
4200274800.0 -0.3626948667 0.9262591321
4250274500.0 -0.350661584 0.9312069104
4300274200.0 -0.3376625169 0.9364766254
4350273900.0 -0.3237841942 0.9418425157
4400273600.0 -0.3088176932 0.9472372886
4450273300.0 -0.2935751688 0.9523483732
4500273000.0 -0.2799178033 0.9565321246
4550272700.0 -0.2659506481 0.9607837382
4600272400.0 -0.2505926456 0.9649704692
4650272100.0 -0.2387515294 0.9682726161
4700271800.0 -0.2255067334 0.9716088807
4750271500.0 -0.2137124696 0.9745473402
4800271200.0 -0.2012437231 0.9771560811
4850270900.0 -0.1874713061 0.9800847315
4900270600.0 -0.1734679154 0.9824480653
4950270300.0 -0.1591526353 0.9849043947
5000270000.0 -0.1448265039 0.9871887159
5050269700.0 -0.1313611426 0.9884125724
5100269400.0 -0.1178141864 0.9902066728
5150269100.0 -0.1044682035 0.9919206041
5200268800.0 -0.0909296136 0.9927912543
5250268500.0 -0.0779050565 0.9935272104
5300268200.0 -0.0649208302 0.9946860595
5350267900.0 -0.0526692422 0.9952418118
5400267600.0 -0.0363609335 0.9965384541
5450267300.0 -0.0232598811 0.9966967536
5500267000.0 -0.0081383532 0.9970879213
5550266700.0 0.0068098625 0.9971335158
5600266400.0 0.0221789305 0.9974324741
5650266100.0 0.0389056124 0.9970714732
5700265800.0 0.053058233 0.9961107328
5750265500.0 0.0683604742 0.9954160413
5800265200.0 0.0822941166 0.9941818852
5850264900.0 0.0955410939 0.9933856986
5900264600.0 0.1122578189 0.9912881635
5950264300.0 0.1240381937 0.9898974686
6000264000.0 0.1383555005 0.9887653016
6050263700.0 0.1505839833 0.9868280856
6100263400.0 0.1630370788 0.9850117104
6150263100.0 0.1775114382 0.9827832631
6200262800.0 0.1879242799 0.9811264882
6250262500.0 0.2005908656 0.978602347
6300262200.0 0.2133611844 0.975736002
6350261900.0 0.2263242579 0.9728288093
6400261600.0 0.2403153201 0.9697190885
6450261300.0 0.2515131165 0.9668665931
6500261000.0 0.2644895937 0.9635091258
6550260700.0 0.2776128286 0.9595975627
6600260400.0 0.2905876471 0.9551159327
6650260100.0 0.3046934341 0.9508259839
6700259800.0 0.3169301056 0.9468788936
6750259500.0 0.3307148273 0.9417522959
6800259200.0 0.3437122768 0.9368064852
6850258900.0 0.3557274472 0.9316281644
6900258600.0 0.3681522508 0.9267289313
6950258300.0 0.380413328 0.9214033686
7000258000.0 0.3924817977 0.915809063
7050257700.0 0.4047073017 0.9098968517
7100257400.0 0.4175195577 0.9036621752
7150257100.0 0.4279354629 0.8983182593
7200256800.0 0.440638122 0.8919234411
7250256500.0 0.4525543829 0.8853447339
7300256200.0 0.4657422283 0.8787696492
7350255900.0 0.4780722291 0.8720372717
7400255600.0 0.4909682733 0.8643234354
7450255300.0 0.506894183 0.8559192571
7500255000.0 0.5181397313 0.8485130604
7550254700.0 0.5322088388 0.8400745509
7600254400.0 0.5451748243 0.8320067423
7650254100.0 0.5565885016 0.8241838773
7700253800.0 0.5682705546 0.8160926577
7750253500.0 0.5793937799 0.8084831844
7800253200.0 0.5901389226 0.8006569417
7850252900.0 0.5999109747 0.7937866724
7900252600.0 0.6116666348 0.7850142744
7950252300.0 0.6202688831 0.7783810435
8000252000.0 0.6306060973 0.7707258093
8050251700.0 0.6410162515 0.7624378511
8100251400.0 0.6508979114 0.7544982494
8150251100.0 0.6610928986 0.7458347096
8200250800.0 0.6705333496 0.7378092192
8250250500.0 0.6792402173 0.7297992546
8300250200.0 0.6888863632 0.7212921972
8350249900.0 0.6977344357 0.712615975
8400249600.0 0.7062034459 0.7045719545
8450249300.0 0.7151129029 0.6951755042
8500249000.0 0.7238913785 0.6865539235
8550248700.0 0.7324557171 0.6775432549
8600248400.0 0.7405925313 0.6677240551
8650248100.0 0.7483111199 0.6585793564
8700247800.0 0.7577737556 0.6472868723
8750247500.0 0.7660284292 0.6372590886
8800247200.0 0.7742500907 0.6266813596
8850246900.0 0.7830137356 0.6153062998
8900246600.0 0.7915099313 0.6038970338
8950246300.0 0.8013575387 0.5908781745
9000246000.0 0.8105956154 0.5782754219
9050245700.0 0.8196851225 0.5653552645
9100245400.0 0.8279246794 0.5528578265
9150245100.0 0.8372295238 0.5392069306
9200244800.0 0.8471494793 0.5242443273
9250244500.0 0.8566086399 0.5087684979
9300244200.0 0.864761532 0.4944611184
9350243900.0 0.8726333604 0.4805001212
9400243600.0 0.879279812 0.4680531818
9450243300.0 0.8852458744 0.4564978189
9500243000.0 0.8915160237 0.4444697758
9550242700.0 0.8950655654 0.4368559171
9600242400.0 0.899214296 0.42944921
9650242100.0 0.9029013138 0.4230102248
9700241800.0 0.907414775 0.4148269064
9750241500.0 0.9115893754 0.4071639659
9800241200.0 0.9160976594 0.3980885114
9850240900.0 0.9219818199 0.3863506435
9900240600.0 0.9275263401 0.3748590314
9950240300.0 0.9341844357 0.3585107982
10000240000.0 0.9384365615 0.3473376384
10050239700.0 0.944564529 0.3316218095
10100239400.0 0.9495452894 0.3162301622
10150239100.0 0.9538987669 0.3015093904
10200238800.0 0.9581450649 0.2862571621
10250238500.0 0.9614075308 0.2728921281
10300238200.0 0.9646864752 0.2590760746
10350237900.0 0.9672751088 0.245880582
10400237600.0 0.9697202793 0.2325839692
10450237300.0 0.9725325455 0.2186964317
10500237000.0 0.9746527237 0.2066587276
10550236700.0 0.9771974677 0.1929586889
10600236400.0 0.9792932601 0.1790549491
10650236100.0 0.981237348 0.1641418354
10700235800.0 0.9839847203 0.1522611402
10750235500.0 0.9857593221 0.1388310202
10800235200.0 0.9877049664 0.1248241099
10850234900.0 0.9893890891 0.1101919631
10900234600.0 0.9915219929 0.0955072997
10950234300.0 0.9932565744 0.0821527524
11000234000.0 0.9951549583 0.067053527
11050233700.0 0.9969193934 0.0506281004
11100233400.0 0.9985236485 0.0333396758
11150233100.0 0.9996089776 0.0170222773
11200232800.0 1.000265757 0.0014622612
11250232500.0 1.001033897 -0.0147074508
11300232200.0 1.001282602 -0.0315695233
11350231900.0 1.001910352 -0.0481427784
11400231600.0 1.001256776 -0.0636575035
11450231300.0 1.001127998 -0.0793944731
11500231000.0 1.000118301 -0.0949200833
11550230700.0 0.9987550275 -0.1086321498
11600230400.0 0.9970345953 -0.1211526832
11650230100.0 0.9950942293 -0.1328052938
11700229800.0 0.9930251517 -0.1470766157
11750229500.0 0.9908716583 -0.1618450822
11800229200.0 0.9879847243 -0.175356776
11850228900.0 0.9846517958 -0.1879317436
11900228600.0 0.9811305621 -0.1975836309
11950228300.0 0.9780176591 -0.2079739452
12000228000.0 0.9752804187 -0.2170654875
12050227700.0 0.9711860778 -0.2301135296
12100227400.0 0.968789996 -0.2409329824
12150227100.0 0.9625526186 -0.2584627507
12200226800.0 0.9601758229 -0.2683269712
12250226500.0 0.9556984432 -0.2817114731
12300226200.0 0.9517012393 -0.2926823126
12350225900.0 0.9468989222 -0.308020319
12400225600.0 0.9425838503 -0.319497648
12450225300.0 0.938052446 -0.3329321965
12500225000.0 0.9325932968 -0.3479703591
12550224700.0 0.9271510465 -0.3620605977
12600224400.0 0.922125601 -0.3746536669
12650224100.0 0.9164942105 -0.389297094
12700223800.0 0.911108739 -0.4020418476
12750223500.0 0.9054932386 -0.4151039486
12800223200.0 0.9004650304 -0.427572259
12850222900.0 0.8949150302 -0.440049775
12900222600.0 0.8890153376 -0.4521399311
12950222300.0 0.8825401592 -0.4648270651
13000222000.0 0.8770883083 -0.4764033742
13050221700.0 0.870029392 -0.4888474737
13100221400.0 0.863832159 -0.5010258063
13150221100.0 0.8567962039 -0.5131670185
13200220800.0 0.8496812707 -0.5244738571
13250220500.0 0.8423595494 -0.5366410952
13300220200.0 0.8351680208 -0.5476460677
13350219900.0 0.8272393863 -0.5594267393
13400219600.0 0.8187616707 -0.5716463865
13450219300.0 0.8093145981 -0.584939096
13500219000.0 0.7991616842 -0.5990112125
13550218700.0 0.7896309815 -0.6112187075
13600218400.0 0.7787397611 -0.6238139381
13650218100.0 0.7696103828 -0.6347383994
13700217800.0 0.758299838 -0.6474414043
13750217500.0 0.7484004216 -0.6587047099
13800217200.0 0.7378652622 -0.6696612601
13850216900.0 0.7261961405 -0.6814291922
13900216600.0 0.7166317548 -0.6905442924
13950216300.0 0.7059601971 -0.7004047737
14000216000.0 0.6954975813 -0.7097215333
14050215700.0 0.6860780298 -0.7177620784
14100215400.0 0.6760919948 -0.7277333265
14150215100.0 0.667254604 -0.7362106219
14200214800.0 0.6576866408 -0.7448247974
14250214500.0 0.6473471026 -0.7540889021
14300214200.0 0.6369257492 -0.7635727737
14350213900.0 0.6257547169 -0.7730131289
14400213600.0 0.614318358 -0.7824954404
14450213300.0 0.6013508205 -0.7930576729
14500213000.0 0.5878753566 -0.8031420676
14550212700.0 0.5751809836 -0.8125810541
14600212400.0 0.5633370177 -0.8211821814
14650212100.0 0.5500824147 -0.8298017347
14700211800.0 0.5362004231 -0.8396218626
14750211500.0 0.5241050151 -0.8476419297
14800211200.0 0.5116894826 -0.8556758424
14850210900.0 0.4997539553 -0.8633144658
14900210600.0 0.4863873209 -0.8711110898
14950210300.0 0.4731146984 -0.8787034443
15000210000.0 0.4603047701 -0.8852977426
15050209700.0 0.4479119553 -0.8912982027
15100209400.0 0.4353389966 -0.8974006736
15150209100.0 0.4229502292 -0.9030521009
15200208800.0 0.4097459437 -0.9082339708
15250208500.0 0.3996585551 -0.9132874333
15300208200.0 0.3865755945 -0.9169944014
15350207900.0 0.3738992478 -0.9223183384
15400207600.0 0.3588056326 -0.9279417163
15450207300.0 0.3441961358 -0.9326181592
15500207000.0 0.3299536605 -0.9369085615
15550206700.0 0.3139404512 -0.9426131291
15600206400.0 0.2986303348 -0.9474054598
15650206100.0 0.2832552058 -0.9514945901
15700205800.0 0.269592763 -0.9548037047
15750205500.0 0.254686174 -0.9584474581
15800205200.0 0.2406085615 -0.962007264
15850204900.0 0.2261294662 -0.9654562698
15900204600.0 0.2110183705 -0.9690852472
15950204300.0 0.1969291695 -0.9722242185
16000204000.0 0.1828588667 -0.9750677984
16050203700.0 0.1677254732 -0.9778313611
16100203400.0 0.153551972 -0.9799986503
16150203100.0 0.1391258734 -0.982446622
16200202800.0 0.1249020765 -0.9848771765
16250202500.0 0.1098961871 -0.9860557145
16300202200.0 0.0945684151 -0.9874664463
16350201900.0 0.0796259337 -0.9891895921
16400201600.0 0.0648529462 -0.9900080233
16450201300.0 0.0495340981 -0.9912949735
16500201000.0 0.0328647466 -0.9921154899
16550200700.0 0.017285122 -0.9926517805
16600200400.0 0.0017402958 -0.9929182128
16650200100.0 -0.0145483915 -0.9927650943
16700199800.0 -0.0308563436 -0.9927682056
16750199500.0 -0.0492934658 -0.9912694689
16800199200.0 -0.0650579894 -0.9906959405
16850198900.0 -0.0802504177 -0.9895578894
16900198600.0 -0.0938639134 -0.9887747261
16950198300.0 -0.1074867805 -0.9884127614
17000198000.0 -0.1202943227 -0.9863806316
17050197700.0 -0.132724357 -0.983916883
17100197400.0 -0.1460848716 -0.9822862537
17150197100.0 -0.1584818273 -0.9802443091
17200196800.0 -0.1720991148 -0.9781681195
17250196500.0 -0.1841162238 -0.975798203
17300196200.0 -0.1965580919 -0.9739437098
17350195900.0 -0.2084143968 -0.9713434598
17400195600.0 -0.2206333106 -0.9688015079
17450195300.0 -0.2337093442 -0.9660261537
17500195000.0 -0.2471634409 -0.962516045
17550194700.0 -0.2614699273 -0.9590406269
17600194400.0 -0.2750255279 -0.9551871022
17650194100.0 -0.2889536483 -0.9507661889
17700193800.0 -0.3017444329 -0.946972233
17750193500.0 -0.3161592991 -0.9423223932
17800193200.0 -0.3312373936 -0.937071856
17850192900.0 -0.3457769416 -0.9314882467
17900192600.0 -0.3605019659 -0.9253450987
17950192300.0 -0.3768839346 -0.9184735071
18000192000.0 -0.391383758 -0.9112918841
18050191700.0 -0.4050831304 -0.9033267168
18100191400.0 -0.4195401177 -0.8957764822
18150191100.0 -0.4345433105 -0.8877880658
18200190800.0 -0.4514086931 -0.878524834
18250190500.0 -0.4682490921 -0.8688801243
18300190200.0 -0.4838094675 -0.8605652798
18350189900.0 -0.4985949575 -0.8523320553
18400189600.0 -0.5134379144 -0.8439069332
18450189300.0 -0.5265510817 -0.8354617834
18500189000.0 -0.5396285824 -0.8283025731
18550188700.0 -0.552298619 -0.8205603519
18600188400.0 -0.563970654 -0.8135199381
18650188100.0 -0.5753163063 -0.8074316687
18700187800.0 -0.5859724737 -0.8007699489
18750187500.0 -0.5965838379 -0.7942067824
18800187200.0 -0.6070898525 -0.7870697965
18850186900.0 -0.6174430747 -0.7804079064
18900186600.0 -0.6275048057 -0.7731289004
18950186300.0 -0.637506099 -0.765147801
19000186000.0 -0.6447892542 -0.7590652978
19050185700.0 -0.6539965432 -0.752166724
19100185400.0 -0.6637561437 -0.7438427061
19150185100.0 -0.6737228474 -0.7349870449
19200184800.0 -0.6825487442 -0.7270500865
19250184500.0 -0.6932439409 -0.7173094405
19300184200.0 -0.7053363227 -0.7078739329
19350183900.0 -0.7159188036 -0.6993496333
19400183600.0 -0.7254438591 -0.6885507783
19450183300.0 -0.7346554413 -0.6781040578
19500183000.0 -0.7429170004 -0.6684330267
19550182700.0 -0.7525997864 -0.6579596609
19600182400.0 -0.7625698353 -0.6456525884
19650182100.0 -0.7735512917 -0.6336994434
19700181800.0 -0.7843685696 -0.620328617
19750181500.0 -0.7949834739 -0.6059301083
19800181200.0 -0.8055110829 -0.5910241676
19850180900.0 -0.815174226 -0.5757445212
19900180600.0 -0.8231790856 -0.5613217909
19950180300.0 -0.8326261752 -0.5447881285
20000180000.0 -0.8247896202 -0.5469656864
20050179700.0 -0.8334149626 -0.5336431718
20100179400.0 -0.8417768399 -0.5201687806
20150179100.0 -0.8508468528 -0.5076939211
20200178800.0 -0.8600098787 -0.4947557525
20250178500.0 -0.8684020395 -0.4816809779
20300178200.0 -0.8778267895 -0.4670345216
20350177900.0 -0.8875241291 -0.4530270382
20400177600.0 -0.8961672156 -0.4383601106
20450177300.0 -0.9045243483 -0.4239730672
20500177000.0 -0.9126639414 -0.4099252828
20550176700.0 -0.920425693 -0.3967746263
20600176400.0 -0.9276556245 -0.3834655614
20650176100.0 -0.9339296778 -0.3714543061
20700175800.0 -0.9409952187 -0.3591535681
20750175500.0 -0.9472454417 -0.3476781423
20800175200.0 -0.9518677932 -0.3364341542
20850174900.0 -0.9570014059 -0.326159235
20900174600.0 -0.961320692 -0.3145540483
20950174300.0 -0.965853217 -0.302943927
21000174000.0 -0.9680434045 -0.2917656083
21050173700.0 -0.9716248186 -0.2811325975
21100173400.0 -0.9748004337 -0.2692885741
21150173100.0 -0.9790417295 -0.2566307745
21200172800.0 -0.9828850557 -0.2429807316
21250172500.0 -0.9861509805 -0.2296300635
21300172200.0 -0.9884453729 -0.2156963943
21350171900.0 -0.9904263395 -0.2012540557
21400171600.0 -0.9913060124 -0.1868685961
21450171300.0 -0.9917892592 -0.1720431651
21500171000.0 -0.9928844686 -0.1567434661
21550170700.0 -0.9918410204 -0.1429741267
21600170400.0 -0.9918871476 -0.1271172538
21650170100.0 -0.9910710635 -0.1093345208
21700169800.0 -0.9900435303 -0.0940069799
21750169500.0 -0.9883109927 -0.0788879531
21800169200.0 -0.9886473015 -0.061728263
21850168900.0 -0.9867443876 -0.0452293684
21900168600.0 -0.986304968 -0.0291246137
21950168300.0 -0.9850859965 -0.0132100846
22000168000.0 -0.9842563755 0.0012669606
22050167700.0 -0.9838723775 0.0159296487
22100167400.0 -0.9840048784 0.0309593327
22150167100.0 -0.9845351042 0.0461896001
22200166800.0 -0.9850830873 0.0627497628
22250166500.0 -0.9847084588 0.0802980776
22300166200.0 -0.9839530423 0.0973045817
22350165900.0 -0.9823299891 0.1133838564
22400165600.0 -0.980833915 0.1290033089
22450165300.0 -0.9789193714 0.1431311383
22500165000.0 -0.9777491421 0.157673825
22550164700.0 -0.976116646 0.1726373041
22600164400.0 -0.9739778158 0.1873021368
22650164100.0 -0.9727235373 0.2036883199
22700163800.0 -0.9691422114 0.2196754799
22750163500.0 -0.9667604807 0.2338289693
22800163200.0 -0.9637370212 0.2473554307
22850162900.0 -0.9616003946 0.261055141
22900162600.0 -0.9600592638 0.2743795814
22950162300.0 -0.9588925764 0.2870344726
23000162000.0 -0.9578280084 0.2989810474
23050161700.0 -0.955858544 0.3115722295
23100161400.0 -0.953689102 0.324117231
23150161100.0 -0.9506091616 0.3361870074
23200160800.0 -0.9481583747 0.3494497807
23250160500.0 -0.9459178597 0.3610546825
23300160200.0 -0.9426281946 0.3730886788
23350159900.0 -0.9387648091 0.3860456336
23400159600.0 -0.934103626 0.3991364508
23450159300.0 -0.9289570111 0.4121945682
23500159000.0 -0.9244684123 0.425485484
23550158700.0 -0.9203485492 0.4387842996
23600158400.0 -0.9150120905 0.4523289644
23650158100.0 -0.9083349662 0.4665330985
23700157800.0 -0.9010198713 0.4802543716
23750157500.0 -0.8924465445 0.4942989541
23800157200.0 -0.8839610655 0.5074987028
23850156900.0 -0.8752324013 0.5205796948
23900156600.0 -0.8654931737 0.5328329025
23950156300.0 -0.8560990048 0.5456415115
24000156000.0 -0.8472313071 0.5573302434
24050155700.0 -0.8373790797 0.5688886531
24100155400.0 -0.8271967679 0.5810530974
24150155100.0 -0.8166586828 0.5930165406
24200154800.0 -0.8062742979 0.6044085876
24250154500.0 -0.7942068429 0.6161601675
24300154200.0 -0.7832332749 0.6277679829
24350153900.0 -0.7713228574 0.6385455037
24400153600.0 -0.7591050672 0.6486137175
24450153300.0 -0.747107626 0.6583436879
24500153000.0 -0.735469207 0.6678047879
24550152700.0 -0.7242184987 0.6780077824
24600152400.0 -0.712681406 0.6870405348
24650152100.0 -0.7014881852 0.6956778679
