!Created with skrf (http://scikit-rf.org).
# Hz S RI R 50.0 
!freq ReS11 ImS11
300000.0 -1.005679565 0.0161101181
50299700.0 -0.9983019314 0.0156339937
100299400.0 -0.9963821734 0.0277152027
150299100.0 -1.000901281 0.0446503359
200298800.0 -0.9976486191 0.0578024699
250298500.0 -0.9953294098 0.0710757408
300298200.0 -0.9837086453 0.0866414802
350297900.0 -0.9915043249 0.0972105661
400297600.0 -0.9907105485 0.113546852
450297300.0 -0.9883979224 0.1271269876
500297000.0 -0.9866439733 0.1417661757
550296700.0 -0.9813627484 0.1535974101
600296400.0 -1.014231931 0.1865895957
650296100.0 -0.9793815988 0.1831325558
700295800.0 -0.9762482241 0.1971746807
750295500.0 -0.9732943755 0.2109541088
800295200.0 -0.9700945474 0.2248855137
850294900.0 -0.9666061145 0.2383524072
900294600.0 -0.9629059325 0.2518352169
950294300.0 -0.9594270696 0.2652448606
1000294000.0 -0.9555920331 0.2792478864
1050293700.0 -0.9512533594 0.2928115056
1100293400.0 -0.9470791099 0.307368291
1150293100.0 -0.9434200999 0.3190505384
1200292800.0 -0.9382037644 0.3330654253
1250292500.0 -0.9330255516 0.3466420336
1300292200.0 -0.9275615877 0.3595512887
1350291900.0 -0.9222547106 0.3738528876
1400291600.0 -0.9168616964 0.3868426836
1450291300.0 -0.911544505 0.3991022174
1500291000.0 -0.9056196306 0.4124352468
1550290700.0 -0.8994252622 0.4257648831
1600290400.0 -0.8933808661 0.4386605689
1650290100.0 -0.8870494209 0.450435075
1700289800.0 -0.880236568 0.4639845778
1750289500.0 -0.8734198656 0.4762714118
1800289200.0 -0.8663204754 0.4888601736
1850288900.0 -0.8599359232 0.4999822815
1900288600.0 -0.8524258249 0.5131040375
1950288300.0 -0.8443264477 0.5255906693
2000288000.0 -0.8371404582 0.5370905747
2050287700.0 -0.8291715878 0.5493185398
2100287400.0 -0.8216208947 0.5605374159
2150287100.0 -0.8130217603 0.5729218425
2200286800.0 -0.8052462638 0.5834457544
2250286500.0 -0.7966480307 0.595069778
2300286200.0 -0.788443294 0.6062712266
2350285900.0 -0.7798979748 0.6170050822
2400285600.0 -0.7706585451 0.6283703553
2450285300.0 -0.7616700881 0.639181472
2500285000.0 -0.7527044058 0.6498634917
2550284700.0 -0.7435874873 0.6602560137
2600284400.0 -0.7335549448 0.6709498939
2650284100.0 -0.7252693511 0.6806772768
2700283800.0 -0.7149061143 0.6910302876
2750283500.0 -0.7051002988 0.7012745267
2800283200.0 -0.695103998 0.7111120701
2850282900.0 -0.6844973997 0.7211287372
2900282600.0 -0.6740275571 0.730704453
2950282300.0 -0.6638857914 0.7399083297
3000282000.0 -0.653331587 0.749612327
3050281700.0 -0.6422639368 0.7587653948
3100281400.0 -0.6316578991 0.767303755
3150281100.0 -0.6212401194 0.7762584242
3200280800.0 -0.6097221788 0.7850405926
3250280500.0 -0.5985877931 0.7937996373
3300280200.0 -0.5868010479 0.8027913697
3350279900.0 -0.5757291124 0.8105767373
3400279600.0 -0.5637632744 0.8190719381
3450279300.0 -0.5522017085 0.8271042402
3500279000.0 -0.5406079351 0.8345399319
3550278700.0 -0.5286700903 0.8420109015
3600278400.0 -0.5180042218 0.848969375
3650278100.0 -0.5048186151 0.8572553401
3700277800.0 -0.4932027884 0.86393061
3750277500.0 -0.4810229946 0.8705761381
3800277200.0 -0.4685291492 0.8774872646
3850276900.0 -0.4560538271 0.8839104889
3900276600.0 -0.4442809044 0.8899191757
3950276300.0 -0.4311360443 0.8965904411
4000276000.0 -0.4191975646 0.9024143509
4050275700.0 -0.4057027306 0.9084899706
4100275400.0 -0.3943028232 0.9137935482
4150275100.0 -0.3811553912 0.9192782562
4200274800.0 -0.3673828206 0.9248509847
4250274500.0 -0.3553292697 0.9295222758
4300274200.0 -0.3424229111 0.934355823
4350273900.0 -0.3290469382 0.9394879134
4400273600.0 -0.3162367681 0.9432910792
4450273300.0 -0.3027923162 0.9478804191
4500273000.0 -0.2902564434 0.95174072
4550272700.0 -0.2779300114 0.9557296047
4600272400.0 -0.2629685576 0.9597469934
4650272100.0 -0.2505323274 0.9629828157
4700271800.0 -0.2371610131 0.9663793153
4750271500.0 -0.2235249313 0.9696107495
4800271200.0 -0.2096776198 0.9725879705
4850270900.0 -0.1956224944 0.975428203
4900270600.0 -0.1822687714 0.9780299691
4950270300.0 -0.1694705737 0.9805562826
5000270000.0 -0.1553333861 0.9827684761
5050269700.0 -0.1417724393 0.9844767533
5100269400.0 -0.1272536742 0.9862457457
5150269100.0 -0.113118081 0.9889015929
5200268800.0 -0.0990742302 0.9898393835
5250268500.0 -0.0862073603 0.9910541895
5300268200.0 -0.0719729728 0.992225593
5350267900.0 -0.0591008822 0.9926686904
5400267600.0 -0.0429380454 0.9943462249
5450267300.0 -0.0310707202 0.994409982
5500267000.0 -0.0166286582 0.9946862865
5550266700.0 -0.0044656139 0.9948751072
5600266400.0 0.009652385 0.9949391805
5650266100.0 0.0241927619 0.9948721768
5700265800.0 0.0373549133 0.9946563395
5750265500.0 0.0508913395 0.9940035788
5800265200.0 0.0640115156 0.9929974375
5850264900.0 0.0772132246 0.9923342939
5900264600.0 0.0927875456 0.9910442273
5950264300.0 0.1042693501 0.9896744588
6000264000.0 0.1178760354 0.9881725628
6050263700.0 0.1305725332 0.9871274266
6100263400.0 0.144253698 0.9849891821
6150263100.0 0.1603764378 0.9829156347
6200262800.0 0.1710652316 0.9806751949
6250262500.0 0.1847651242 0.9781878997
6300262200.0 0.1977590002 0.9757132762
6350261900.0 0.2109927917 0.9730566423
6400261600.0 0.2258402544 0.969616861
6450261300.0 0.2378204529 0.9667152994
6500261000.0 0.2512787223 0.9634518442
6550260700.0 0.2642554619 0.959600273
6600260400.0 0.2769730179 0.9560452653
6650260100.0 0.2908275836 0.9518907839
6700259800.0 0.3030993505 0.948017139
6750259500.0 0.31604632 0.943736134
6800259200.0 0.329708401 0.9390483741
6850258900.0 0.3419818992 0.9344853799
6900258600.0 0.355212731 0.9297829405
6950258300.0 0.3683992801 0.9247138041
7000258000.0 0.3806878771 0.9196139362
7050257700.0 0.3921995871 0.9145479034
7100257400.0 0.4066217875 0.9083816576
7150257100.0 0.4177367464 0.9033094813
7200256800.0 0.4313268954 0.8971848128
7250256500.0 0.4428339207 0.8915972455
7300256200.0 0.4558261036 0.8853806558
7350255900.0 0.4677096142 0.8789256087
7400255600.0 0.4778178152 0.8734492752
7450255300.0 0.4916213917 0.8664386939
7500255000.0 0.5022387386 0.8595440031
7550254700.0 0.5135466832 0.8534124528
7600254400.0 0.5253554843 0.8464876474
7650254100.0 0.5359666645 0.8396473458
7700253800.0 0.5476271534 0.8321916629
7750253500.0 0.5588236924 0.8245486416
7800253200.0 0.5706176365 0.8165632687
7850252900.0 0.5798720604 0.8098927884
7900252600.0 0.591977544 0.8014675158
7950252300.0 0.6020471291 0.7938155444
8000252000.0 0.612928585 0.7854688958
8050251700.0 0.6238814351 0.7768738508
8100251400.0 0.6334929796 0.7690248723
8150251100.0 0.6446472345 0.7596863019
8200250800.0 0.6543959087 0.7513491306
8250250500.0 0.6646978767 0.742102542
8300250200.0 0.6745107033 0.7329547433
8350249900.0 0.6841975777 0.7238601084
8400249600.0 0.6934959177 0.7147634914
8450249300.0 0.7036426576 0.7046944394
8500249000.0 0.7137096415 0.6948719749
8550248700.0 0.7237538368 0.6842301984
8600248400.0 0.7335619242 0.6737994981
8650248100.0 0.7415669101 0.6644155684
8700247800.0 0.7509093243 0.6538210578
8750247500.0 0.7598299798 0.6436999961
8800247200.0 0.7686724598 0.6328863953
8850246900.0 0.7775268825 0.6219756688
8900246600.0 0.7856921282 0.6113986809
8950246300.0 0.7943757428 0.6001508798
9000246000.0 0.8018870556 0.5900493357
9050245700.0 0.8094429197 0.5796340404
9100245400.0 0.8175105807 0.5681230794
9150245100.0 0.8249932639 0.557154328
9200244800.0 0.8314920458 0.5476281857
9250244500.0 0.8391316798 0.5362276129
9300244200.0 0.8456420242 0.5260629225
9350243900.0 0.8526038302 0.5141359821
9400243600.0 0.8597617932 0.5023062795
9450243300.0 0.8653928485 0.4925266156
9500243000.0 0.8723317484 0.4805479369
9550242700.0 0.8791199739 0.4684967603
9600242400.0 0.8862362991 0.4558767514
9650242100.0 0.8919858174 0.4437276087
9700241800.0 0.8981968495 0.4316997737
9750241500.0 0.9048155328 0.4182271218
9800241200.0 0.91124684 0.4031656209
9850240900.0 0.9166703722 0.389792547
9900240600.0 0.9211299496 0.3804632976
9950240300.0 0.9265066871 0.3668857608
10000240000.0 0.9312879694 0.3537301921
10050239700.0 0.9365073287 0.3409117462
10100239400.0 0.9408941741 0.3282037685
10150239100.0 0.9451226518 0.3154701864
10200238800.0 0.9494804494 0.3015445365
10250238500.0 0.9536657557 0.2886219214
10300238200.0 0.9574861406 0.2753117609
10350237900.0 0.9610327493 0.2626839504
10400237600.0 0.9644448 0.2493088207
10450237300.0 0.9684691598 0.2352635745
10500237000.0 0.9713474638 0.2219912759
10550236700.0 0.9745888621 0.208301643
10600236400.0 0.9771589887 0.1952049363
10650236100.0 0.9796732363 0.1795939089
10700235800.0 0.9824241589 0.1651322292
10750235500.0 0.9847675896 0.1525543371
10800235200.0 0.9866181392 0.1392771848
10850234900.0 0.9885017349 0.1256623696
10900234600.0 0.9905009324 0.1112169479
10950234300.0 0.9916785658 0.0973382359
11000234000.0 0.9929974722 0.0836535628
11050233700.0 0.99391239 0.0708650726
11100233400.0 0.9947892537 0.0565443456
11150233100.0 0.9955777588 0.0429449464
11200232800.0 0.9959564667 0.0305094516
11250232500.0 0.9965353915 0.0163809009
11300232200.0 0.9965655895 0.0034167688
11350231900.0 0.9961660275 -0.0108982093
11400231600.0 0.9956515899 -0.0235357457
11450231300.0 0.9955152214 -0.0366100757
11500231000.0 0.994958046 -0.0496479836
11550230700.0 0.9941017853 -0.0627477176
11600230400.0 0.9939208519 -0.077858194
11650230100.0 0.9921215135 -0.0896662746
11700229800.0 0.9913216755 -0.1041470576
11750229500.0 0.9893665595 -0.1178207295
11800229200.0 0.9876485265 -0.130121057
11850228900.0 0.9858693273 -0.1445746532
11900228600.0 0.9837844669 -0.1591581176
11950228300.0 0.9814418934 -0.1738010856
12000228000.0 0.9792014864 -0.1871891079
12050227700.0 0.9763688032 -0.2015418028
12100227400.0 0.973787779 -0.2126041525
12150227100.0 0.9695682199 -0.232132878
12200226800.0 0.9665917881 -0.2432826795
12250226500.0 0.9630847002 -0.2566101222
12300226200.0 0.9595215567 -0.2699251053
12350225900.0 0.9547720855 -0.2860777996
12400225600.0 0.9507095672 -0.3000171336
12450225300.0 0.9468380556 -0.3119347944
12500225000.0 0.9417744776 -0.3263929874
12550224700.0 0.9369065096 -0.3405453841
12600224400.0 0.9324468148 -0.3521678422
12650224100.0 0.9268591698 -0.3665179669
12700223800.0 0.9216391686 -0.3795774681
12750223500.0 0.915951043 -0.392821858
12800223200.0 0.9101881619 -0.4063478188
12850222900.0 0.9043962819 -0.4189943498
12900222600.0 0.898119272 -0.4318695708
12950222300.0 0.8914950371 -0.4456279079
13000222000.0 0.8853676936 -0.4575053108
13050221700.0 0.8785556888 -0.470328974
13100221400.0 0.8719950089 -0.4820755156
13150221100.0 0.8656841553 -0.494384079
13200220800.0 0.8583667255 -0.5067562017
13250220500.0 0.8514066454 -0.5189343934
13300220200.0 0.8438758129 -0.5306370802
13350219900.0 0.8358937405 -0.5437448983
13400219600.0 0.8283838677 -0.554983328
13450219300.0 0.8213090119 -0.5656813214
13500219000.0 0.8136701785 -0.5765554292
13550218700.0 0.8052638464 -0.5878844039
13600218400.0 0.797142207 -0.5989015796
13650218100.0 0.7891053603 -0.608675592
13700217800.0 0.780262838 -0.6209014666
13750217500.0 0.7713591712 -0.6315703591
13800217200.0 0.7619833099 -0.6429510936
13850216900.0 0.7526826442 -0.6548462387
13900216600.0 0.7444544675 -0.6642514599
13950216300.0 0.73347191 -0.6755384262
14000216000.0 0.7244844943 -0.6856391941
14050215700.0 0.7151062704 -0.6951349705
14100215400.0 0.7036443764 -0.7063005296
14150215100.0 0.6924295424 -0.7172076511
14200214800.0 0.6820348102 -0.7274165043
14250214500.0 0.6705460846 -0.738010675
14300214200.0 0.6589065822 -0.7484821872
14350213900.0 0.6474544821 -0.7581460349
14400213600.0 0.6367399401 -0.7671334228
14450213300.0 0.6260528664 -0.7762006917
14500213000.0 0.6150679315 -0.7846640862
14550212700.0 0.6032251801 -0.7936643092
14600212400.0 0.5918805837 -0.8020878204
14650212100.0 0.5806717472 -0.8097760197
14700211800.0 0.5690344455 -0.8184605581
14750211500.0 0.5566766199 -0.8264680755
14800211200.0 0.544319937 -0.8350687892
14850210900.0 0.5326416756 -0.8424912434
14900210600.0 0.5206159554 -0.8501837176
14950210300.0 0.5082640535 -0.8576288174
15000210000.0 0.4957505747 -0.8647423569
15050209700.0 0.4830850569 -0.8720666279
15100209400.0 0.4700079486 -0.8792320609
15150209100.0 0.4583892528 -0.8853778989
15200208800.0 0.4452476849 -0.8924248893
15250208500.0 0.4323819182 -0.8991061577
15300208200.0 0.4177260868 -0.9057513923
15350207900.0 0.4051268563 -0.9115808658
15400207600.0 0.3916168022 -0.9177590919
15450207300.0 0.3784509719 -0.9227745152
15500207000.0 0.3651510667 -0.9280584404
15550206700.0 0.3516702999 -0.9326286459
15600206400.0 0.3388323079 -0.9378684587
15650206100.0 0.3248090821 -0.9430642073
15700205800.0 0.3110261049 -0.9479631101
15750205500.0 0.2964303849 -0.9525269482
15800205200.0 0.2829876266 -0.9563163634
15850204900.0 0.2690742402 -0.9602373221
15900204600.0 0.2534328792 -0.9646558362
15950204300.0 0.2392504778 -0.9684238804
16000204000.0 0.2243022498 -0.9715677421
16050203700.0 0.2093467212 -0.9752626036
16100203400.0 0.1953809281 -0.978084621
16150203100.0 0.1805887114 -0.9808610797
16200202800.0 0.1650121162 -0.9829801666
16250202500.0 0.1501900642 -0.9855711047
16300202200.0 0.1349389788 -0.9875968341
16350201900.0 0.1195754651 -0.9895304627
16400201600.0 0.1043756359 -0.9907008613
16450201300.0 0.0903892511 -0.9925255287
16500201000.0 0.0751128597 -0.9938450637
16550200700.0 0.060677334 -0.9949303386
16600200400.0 0.04563607 -0.9956629375
16650200100.0 0.0303261069 -0.9962403093
16700199800.0 0.0167140814 -0.9968591184
16750199500.0 0.0028776781 -0.9969074856
16800199200.0 -0.010798026 -0.9973433225
16850198900.0 -0.0254328228 -0.9959820054
16900198600.0 -0.0397366188 -0.9959922217
16950198300.0 -0.0549233163 -0.9956403976
17000198000.0 -0.0694463408 -0.9941271181
17050197700.0 -0.0838120528 -0.9934877751
17100197400.0 -0.1004266319 -0.9914509306
17150197100.0 -0.1150160431 -0.9904220753
17200196800.0 -0.1295783329 -0.9880472972
17250196500.0 -0.1445883729 -0.985946964
17300196200.0 -0.159955007 -0.9830506311
17350195900.0 -0.1752908407 -0.9806593316
17400195600.0 -0.1900833072 -0.9779913689
17450195300.0 -0.2044754715 -0.9750012272
17500195000.0 -0.2191145126 -0.9716930121
17550194700.0 -0.2335597951 -0.9683859094
17600194400.0 -0.2482977011 -0.9647555641
17650194100.0 -0.2632944003 -0.9610254848
17700193800.0 -0.2766818289 -0.9569994118
17750193500.0 -0.2907009637 -0.9528488736
17800193200.0 -0.3040007124 -0.9482371763
17850192900.0 -0.3185824881 -0.9436565906
17900192600.0 -0.3321356428 -0.9392521119
17950192300.0 -0.3464986627 -0.9335436967
18000192000.0 -0.3611255198 -0.9278958995
18050191700.0 -0.3751111262 -0.9218929044
18100191400.0 -0.3892927647 -0.9162125557
18150191100.0 -0.4025821678 -0.910231805
18200190800.0 -0.4158117207 -0.9040718196
18250190500.0 -0.4297350686 -0.8977838275
18300190200.0 -0.4435381282 -0.891408483
18350189900.0 -0.4568391889 -0.8850887675
18400189600.0 -0.470297982 -0.878375201
18450189300.0 -0.4830761029 -0.8715255513
18500189000.0 -0.4958363581 -0.8650324503
18550188700.0 -0.5081006146 -0.8571404515
18600188400.0 -0.5213877008 -0.8496201273
18650188100.0 -0.5338087011 -0.8418256659
18700187800.0 -0.5462770389 -0.8333993181
18750187500.0 -0.5581274698 -0.8253887747
18800187200.0 -0.570358165 -0.8166842167
18850186900.0 -0.5821671594 -0.8080660689
18900186600.0 -0.5930351176 -0.7996458758
18950186300.0 -0.6051166322 -0.7902645577
19000186000.0 -0.6167568285 -0.7813629148
19050185700.0 -0.6291129841 -0.7724092293
19100185400.0 -0.6406317987 -0.7633026802
19150185100.0 -0.6512318375 -0.7530379577
19200184800.0 -0.6624633067 -0.7432542589
19250184500.0 -0.6733594311 -0.7332575628
19300184200.0 -0.6841616751 -0.7237446964
19350183900.0 -0.6954800439 -0.713960048
19400183600.0 -0.706119605 -0.7024960007
19450183300.0 -0.7164635731 -0.6917316015
19500183000.0 -0.7268662278 -0.6806127124
19550182700.0 -0.737106025 -0.6691583478
19600182400.0 -0.7467218281 -0.6577515804
19650182100.0 -0.7563080402 -0.6461627318
19700181800.0 -0.7658893954 -0.6340916012
19750181500.0 -0.7748990897 -0.6224438531
19800181200.0 -0.7841872698 -0.6105083836
19850180900.0 -0.793326226 -0.5984271304
19900180600.0 -0.8013058409 -0.5874271297
19950180300.0 -0.811224137 -0.5746094251
20000180000.0 -0.8214628575 -0.5608451026
20050179700.0 -0.8294142245 -0.5498571055
20100179400.0 -0.8378973466 -0.5364529791
20150179100.0 -0.8462845848 -0.5241468507
20200178800.0 -0.8536499114 -0.510940698
20250178500.0 -0.8623218211 -0.4994923453
20300178200.0 -0.8682040665 -0.4867276429
20350177900.0 -0.8749298518 -0.4745612169
20400177600.0 -0.8814115194 -0.4622226416
20450177300.0 -0.8871229484 -0.449969422
20500177000.0 -0.8930154076 -0.4376016231
20550176700.0 -0.8990425245 -0.4254543918
20600176400.0 -0.9046645043 -0.4122986248
20650176100.0 -0.910170599 -0.3999775595
20700175800.0 -0.9161675698 -0.3868260542
20750175500.0 -0.9209626874 -0.3741039045
20800175200.0 -0.9259521581 -0.3615825153
20850174900.0 -0.9305730487 -0.3486676233
20900174600.0 -0.9349924148 -0.3341367305
20950174300.0 -0.9392007991 -0.3214881936
21000174000.0 -0.9444041947 -0.3074753338
21050173700.0 -0.9472165738 -0.294401248
21100173400.0 -0.9512250139 -0.2807461975
21150173100.0 -0.9546494611 -0.2670375597
21200172800.0 -0.957779859 -0.2522553466
21250172500.0 -0.9612616387 -0.2384634224
21300172200.0 -0.9652898721 -0.2244215788
21350171900.0 -0.96849854 -0.2102992165
21400171600.0 -0.9720105471 -0.1962818491
21450171300.0 -0.9741891044 -0.1817559327
21500171000.0 -0.9772128948 -0.1669130565
21550170700.0 -0.9797575277 -0.1531664741
21600170400.0 -0.9830061546 -0.1397893887
21650170100.0 -0.9861998538 -0.1238693861
21700169800.0 -0.9877481093 -0.1094093211
21750169500.0 -0.989977443 -0.0936780215
21800169200.0 -0.9921607603 -0.079500237
21850168900.0 -0.993402453 -0.0646186423
21900168600.0 -0.9953673359 -0.0511588478
21950168300.0 -0.9965878968 -0.036311462
22000168000.0 -0.9981187356 -0.0211533992
22050167700.0 -0.9981697596 -0.0062427875
22100167400.0 -0.9983680603 0.0092180812
22150167100.0 -0.9987820988 0.0232575223
22200166800.0 -0.9976277628 0.0375177935
22250166500.0 -0.9961776639 0.0521749523
22300166200.0 -0.9955011241 0.0652318777
22350165900.0 -0.9958890995 0.0796129693
22400165600.0 -0.9945278761 0.0935685998
22450165300.0 -0.992586851 0.1063794879
22500165000.0 -0.9914590777 0.1193998638
22550164700.0 -0.9896350004 0.1340942023
22600164400.0 -0.9879101063 0.1477548209
22650164100.0 -0.9847194469 0.1600170754
22700163800.0 -0.9824153967 0.1729237589
22750163500.0 -0.9799536418 0.1860727929
22800163200.0 -0.9766033781 0.1985470742
22850162900.0 -0.9737384579 0.211547066
22900162600.0 -0.9704342603 0.224667088
22950162300.0 -0.9662916673 0.2385563691
23000162000.0 -0.962322491 0.2517581777
23050161700.0 -0.9573767462 0.2659573841
23100161400.0 -0.9535532076 0.2791212866
23150161100.0 -0.9494538449 0.2920451632
23200160800.0 -0.9445328967 0.3059850955
23250160500.0 -0.9398163705 0.3201774584
23300160200.0 -0.9356039137 0.3332875014
23350159900.0 -0.9301235366 0.3478980192
23400159600.0 -0.9249271979 0.3601113692
23450159300.0 -0.9199570928 0.3728783453
23500159000.0 -0.9145076377 0.386021571
23550158700.0 -0.9090527681 0.3987784034
23600158400.0 -0.9029359394 0.4109774425
23650158100.0 -0.8970850917 0.4231801135
23700157800.0 -0.8908007822 0.4354144728
23750157500.0 -0.8842674278 0.4478373835
23800157200.0 -0.8785305609 0.4598965364
23850156900.0 -0.8726383535 0.4718189781
23900156600.0 -0.8661895063 0.4831566237
23950156300.0 -0.8595543789 0.4956064317
24000156000.0 -0.8535106461 0.506484888
24050155700.0 -0.8469010771 0.5186867294
24100155400.0 -0.8396030223 0.5304639399
24150155100.0 -0.8326881743 0.5418645951
24200154800.0 -0.8246807181 0.5526741441
24250154500.0 -0.8185256325 0.5629606977
24300154200.0 -0.8113133067 0.5746528457
24350153900.0 -0.8038080358 0.5855272478
24400153600.0 -0.7958800798 0.5961200121
24450153300.0 -0.7878063413 0.6072075069
24500153000.0 -0.7797235976 0.6177066681
24550152700.0 -0.7710771585 0.6281553548
24600152400.0 -0.7631628706 0.6384404557
24650152100.0 -0.7532854067 0.6492809103
