!Created with skrf (http://scikit-rf.org).
# Hz S RI R 50.0 
!freq ReS11 ImS11
300000.0 -0.9823991558 -0.0984426685
50299700.0 -1.000035144 0.0163436331
100299400.0 -0.9980169916 0.0290434914
150299100.0 -1.002851271 0.0460630239
200298800.0 -0.9997010366 0.0593984808
250298500.0 -0.9973751491 0.0729108628
300298200.0 -0.9858681812 0.0887404162
350297900.0 -0.993937371 0.0997226684
400297600.0 -0.9931822416 0.1162503559
450297300.0 -0.9907993254 0.1300670088
500297000.0 -0.9893707938 0.1445154552
550296700.0 -0.9842341069 0.1570610433
600296400.0 -1.017052538 0.1906300482
650296100.0 -0.9819905712 0.1870482331
700295800.0 -0.9791578512 0.201441123
750295500.0 -0.9761038126 0.2156423895
800295200.0 -0.9725349131 0.2296096063
850294900.0 -0.9693271081 0.2433208847
900294600.0 -0.9654572613 0.2573279609
950294300.0 -0.9616140612 0.2709818479
1000294000.0 -0.9575475083 0.2848283135
1050293700.0 -0.9531689289 0.2986371154
1100293400.0 -0.9487996149 0.3128866002
1150293100.0 -0.944987022 0.3248772616
1200292800.0 -0.9396304387 0.3392703283
1250292500.0 -0.9342913724 0.3526921036
1300292200.0 -0.9284267505 0.3657279049
1350291900.0 -0.9228377531 0.3797520482
1400291600.0 -0.9174544048 0.3930032674
1450291300.0 -0.9121367881 0.4051967459
1500291000.0 -0.9056658895 0.4186779833
1550290700.0 -0.8993055602 0.4319614048
1600290400.0 -0.8930696086 0.4449655849
1650290100.0 -0.8862203102 0.4571567985
1700289800.0 -0.879439287 0.4702878913
1750289500.0 -0.8724090301 0.4825913947
1800289200.0 -0.8649447731 0.4957603401
1850288900.0 -0.8582734719 0.5070722058
1900288600.0 -0.850610891 0.519828588
1950288300.0 -0.8424309062 0.532486895
2000288000.0 -0.8348846741 0.5440615752
2050287700.0 -0.8267785211 0.5562701025
2100287400.0 -0.8187286493 0.5680914262
2150287100.0 -0.8101209916 0.5799429635
2200286800.0 -0.8022845316 0.5903454293
2250286500.0 -0.7934160087 0.6023891715
2300286200.0 -0.7845681053 0.6139167797
2350285900.0 -0.775725652 0.6250455656
2400285600.0 -0.7664972911 0.6362962793
2450285300.0 -0.7579243408 0.6466859065
2500285000.0 -0.7483060158 0.6576995624
2550284700.0 -0.7390664096 0.6678579657
2600284400.0 -0.7296483737 0.6782669665
2650284100.0 -0.720661209 0.6888599169
2700283800.0 -0.7103455503 0.6993356551
2750283500.0 -0.6998937952 0.7098827545
2800283200.0 -0.690067877 0.7195082605
2850282900.0 -0.6799439431 0.7295218258
2900282600.0 -0.6695354109 0.7389306104
2950282300.0 -0.659375661 0.7482071317
3000282000.0 -0.6486972497 0.7574885198
3050281700.0 -0.6375678063 0.7669937428
3100281400.0 -0.6256650665 0.776005998
3150281100.0 -0.6139822899 0.7853848878
3200280800.0 -0.6022144383 0.7939944814
3250280500.0 -0.5917491112 0.8015997658
3300280200.0 -0.5804864588 0.8093380005
3350279900.0 -0.5691207626 0.8170534991
3400279600.0 -0.5569932245 0.8247153246
3450279300.0 -0.5457405735 0.8318145782
3500279000.0 -0.5338197384 0.8390842912
3550278700.0 -0.5210640681 0.8460454513
3600278400.0 -0.5090441826 0.8534365188
3650278100.0 -0.4957800703 0.8609713956
3700277800.0 -0.4836696954 0.8674868032
3750277500.0 -0.471557996 0.873901212
3800277200.0 -0.4587800789 0.8805350372
3850276900.0 -0.4467658524 0.8864302124
3900276600.0 -0.4356800277 0.8922475636
3950276300.0 -0.4232789739 0.898358597
4000276000.0 -0.4112081712 0.9041541425
4050275700.0 -0.3979002192 0.9101325125
4100275400.0 -0.3865768135 0.9157026612
4150275100.0 -0.3741198537 0.9214320717
4200274800.0 -0.3610822691 0.9265389106
4250274500.0 -0.3487899085 0.9318583969
4300274200.0 -0.3358356422 0.9372230479
4350273900.0 -0.3218887906 0.9424145625
4400273600.0 -0.3070007499 0.9474366883
4450273300.0 -0.2918090051 0.9526823198
4500273000.0 -0.2783799824 0.9569181824
4550272700.0 -0.2639816493 0.9609942021
4600272400.0 -0.2486277501 0.9653545683
4650272100.0 -0.2368758892 0.9685346916
4700271800.0 -0.2234930501 0.9719239752
4750271500.0 -0.2115714886 0.9746837955
4800271200.0 -0.1992172959 0.9775014203
4850270900.0 -0.1855036827 0.98027783
4900270600.0 -0.1713961385 0.9825547176
4950270300.0 -0.157232329 0.9853065389
5000270000.0 -0.1432276023 0.9872199968
5050269700.0 -0.1298082603 0.9886686184
5100269400.0 -0.1161964863 0.9905500583
5150269100.0 -0.1029285059 0.9923399895
5200268800.0 -0.0896589933 0.9932954999
5250268500.0 -0.0767058214 0.9941072481
5300268200.0 -0.0636747636 0.9944705458
5350267900.0 -0.0513891549 0.9953182762
5400267600.0 -0.0352614479 0.9965155096
5450267300.0 -0.0221675268 0.9968906283
5500267000.0 -0.0070830855 0.997100212
5550266700.0 0.0078094278 0.9972192632
5600266400.0 0.0234177208 0.9972959101
5650266100.0 0.0399012512 0.9968922414
5700265800.0 0.054243206 0.9959789319
5750265500.0 0.0694666612 0.995244956
5800265200.0 0.0835013488 0.9941982131
5850264900.0 0.0968536667 0.9932072244
5900264600.0 0.1136959779 0.9916156025
5950264300.0 0.1252650425 0.9896082102
6000264000.0 0.1395975721 0.987868055
6050263700.0 0.1524636485 0.9866134169
6100263400.0 0.1647523335 0.9845334902
6150263100.0 0.1794634118 0.9819696843
6200262800.0 0.189911183 0.9800207437
6250262500.0 0.2027538138 0.9778528449
6300262200.0 0.2156232249 0.9748676199
6350261900.0 0.2287065038 0.972144592
6400261600.0 0.2426108069 0.9686253832
6450261300.0 0.2540819317 0.9659240103
6500261000.0 0.2667822152 0.9624327121
6550260700.0 0.2796319349 0.9583806419
6600260400.0 0.2927475786 0.9543090906
6650260100.0 0.3068630219 0.9499354533
6700259800.0 0.3187479639 0.9457843763
6750259500.0 0.3331862547 0.9413047495
6800259200.0 0.3455082576 0.9360100344
6850258900.0 0.3576765826 0.9308850625
6900258600.0 0.3696045519 0.9258816083
6950258300.0 0.3822619309 0.9206331156
7000258000.0 0.3941927295 0.9152729276
7050257700.0 0.406476344 0.9093288273
7100257400.0 0.4193017703 0.9028931411
7150257100.0 0.42963065 0.8978663209
7200256800.0 0.4423825727 0.8915772045
7250256500.0 0.4539038525 0.8849067995
7300256200.0 0.4670520266 0.878483029
7350255900.0 0.4791357101 0.8713469013
7400255600.0 0.4924266551 0.8642894517
7450255300.0 0.507746162 0.855427769
7500255000.0 0.5193074845 0.8482364811
7550254700.0 0.532506126 0.8395972356
7600254400.0 0.5454529467 0.8311492622
7650254100.0 0.5571420803 0.823593134
7700253800.0 0.5690165225 0.815607753
7750253500.0 0.5802556575 0.8076819488
7800253200.0 0.5910031053 0.7998539842
7850252900.0 0.6008509565 0.7926705783
7900252600.0 0.6127017177 0.7838004178
7950252300.0 0.6213640473 0.7772629425
8000252000.0 0.6317812829 0.7693361988
8050251700.0 0.6424128431 0.760929233
8100251400.0 0.6525108287 0.7527683647
8150251100.0 0.6625267099 0.7440026039
8200250800.0 0.6720377062 0.7361695805
8250250500.0 0.6807331016 0.7282096018
8300250200.0 0.6902225933 0.7193470988
8350249900.0 0.6995770434 0.7106089711
8400249600.0 0.7076473833 0.7025872863
8450249300.0 0.7167295416 0.6933435662
8500249000.0 0.7253822659 0.6843856425
8550248700.0 0.7338207635 0.6753614427
8600248400.0 0.7421766283 0.6658123866
8650248100.0 0.7498773211 0.6564412969
8700247800.0 0.7593964135 0.64544778
8750247500.0 0.767677849 0.6355031255
8800247200.0 0.7757835363 0.625122941
8850246900.0 0.7845133011 0.6137961631
8900246600.0 0.7927864946 0.6026837977
8950246300.0 0.8024013881 0.5896618578
9000246000.0 0.8115638439 0.5770362422
9050245700.0 0.820446346 0.5640394321
9100245400.0 0.8290369532 0.5515509053
9150245100.0 0.8386057997 0.538212653
9200244800.0 0.8481347384 0.5229822138
9250244500.0 0.8574457848 0.5075603312
9300244200.0 0.8658055385 0.4929495667
9350243900.0 0.8735170319 0.4788945183
9400243600.0 0.8803219823 0.4663321742
9450243300.0 0.8862565777 0.4543783848
9500243000.0 0.8925251008 0.4421702235
9550242700.0 0.8966986453 0.4337091579
9600242400.0 0.9006201149 0.4261846861
9650242100.0 0.9041584152 0.4196125499
9700241800.0 0.9087832851 0.4113301848
9750241500.0 0.9128254093 0.4032063603
9800241200.0 0.9172442411 0.3941137405
9850240900.0 0.9227840727 0.3826961716
9900240600.0 0.9286576573 0.370973743
9950240300.0 0.9350451184 0.3548295038
10000240000.0 0.9391894885 0.3437016833
10050239700.0 0.9451471501 0.3282867179
10100239400.0 0.9500702378 0.3128568013
10150239100.0 0.9545056275 0.2982252663
10200238800.0 0.9585647952 0.2833597006
10250238500.0 0.9619688416 0.2701711678
10300238200.0 0.9651292338 0.2561658995
10350237900.0 0.9676223009 0.2432439845
10400237600.0 0.9700378689 0.2302638398
10450237300.0 0.9728462163 0.216563546
10500237000.0 0.9751126946 0.2042520166
10550236700.0 0.9775142721 0.1904526077
10600236400.0 0.9794046968 0.1771446408
10650236100.0 0.981466599 0.1627215168
10700235800.0 0.9835031229 0.1507498353
10750235500.0 0.985800897 0.137889625
10800235200.0 0.9878915666 0.1233299474
10850234900.0 0.9900054568 0.1084104788
10900234600.0 0.9918250169 0.0943136858
10950234300.0 0.9934475245 0.0809568582
11000234000.0 0.9951521826 0.0661867848
11050233700.0 0.9968466124 0.0498466908
11100233400.0 0.9982948002 0.0319916033
11150233100.0 0.9993217042 0.01621061
11200232800.0 0.9999993761 0.0006572133
11250232500.0 1.000930461 -0.0153264495
11300232200.0 1.002013271 -0.0336957273
11350231900.0 1.000885285 -0.0494123789
11400231600.0 1.000652767 -0.0656241183
11450231300.0 1.000619219 -0.0804959901
11500231000.0 0.9993319376 -0.0962559339
11550230700.0 0.9975649278 -0.1096938226
11600230400.0 0.9964395427 -0.1229978359
11650230100.0 0.9945673229 -0.1346703728
11700229800.0 0.992125365 -0.1497933887
11750229500.0 0.9897744919 -0.1641816007
11800229200.0 0.9870242571 -0.178439523
11850228900.0 0.9838053187 -0.1910507582
11900228600.0 0.9801072077 -0.2012233594
11950228300.0 0.9767737979 -0.2114021295
12000228000.0 0.9742672841 -0.2204847529
12050227700.0 0.9704472991 -0.2333355435
12100227400.0 0.9671428547 -0.2446740014
12150227100.0 0.9624912428 -0.2609651722
12200226800.0 0.9590887714 -0.2705894867
12250226500.0 0.9547342666 -0.284627965
12300226200.0 0.9502989014 -0.2960672056
12350225900.0 0.9462147862 -0.3099806391
12400225600.0 0.9414451436 -0.3233587498
12450225300.0 0.9374467464 -0.3355110418
12500225000.0 0.9319473649 -0.3499614346
12550224700.0 0.9267152352 -0.3637513455
12600224400.0 0.9216790251 -0.3762687208
12650224100.0 0.9159027098 -0.3901881733
12700223800.0 0.9108348647 -0.4029363069
12750223500.0 0.9053515271 -0.4158151349
12800223200.0 0.899860178 -0.4283389872
12850222900.0 0.8945765051 -0.440262133
12900222600.0 0.888740676 -0.4526112018
12950222300.0 0.8821090899 -0.4655866313
13000222000.0 0.8760835261 -0.4773450955
13050221700.0 0.8696275917 -0.4898174605
13100221400.0 0.8629415503 -0.5022225501
13150221100.0 0.8558153175 -0.5140905289
13200220800.0 0.8486837474 -0.5257309613
13250220500.0 0.8411972584 -0.538131903
13300220200.0 0.8338845266 -0.5490752478
13350219900.0 0.8257041969 -0.5612866709
13400219600.0 0.8171482131 -0.5735729809
13450219300.0 0.8078095168 -0.5870123027
13500219000.0 0.7974651168 -0.6012939889
13550218700.0 0.7870169801 -0.6141311077
13600218400.0 0.777419915 -0.6260789507
13650218100.0 0.7669142341 -0.6378422057
13700217800.0 0.7554737853 -0.6503115419
13750217500.0 0.7465788154 -0.661282752
13800217200.0 0.7347637895 -0.6726478913
13850216900.0 0.723860999 -0.684512258
13900216600.0 0.7132227174 -0.6934063109
13950216300.0 0.7030345075 -0.7037226971
14000216000.0 0.6939865884 -0.7127146693
14050215700.0 0.6837652172 -0.7204648187
14100215400.0 0.6741293308 -0.7297595624
14150215100.0 0.6647655285 -0.7381951915
14200214800.0 0.6554284315 -0.7468398295
14250214500.0 0.6453195349 -0.7560520765
14300214200.0 0.6349478264 -0.7651282894
14350213900.0 0.6241137088 -0.7745970571
14400213600.0 0.6125023882 -0.7841851317
14450213300.0 0.5994732517 -0.794268141
14500213000.0 0.5864612014 -0.8036491466
14550212700.0 0.5737817712 -0.8136704341
14600212400.0 0.5616645004 -0.8222546055
14650212100.0 0.5487279593 -0.830947879
14700211800.0 0.5346906015 -0.840329803
14750211500.0 0.5227053271 -0.848399413
14800211200.0 0.5103719287 -0.8562536056
14850210900.0 0.4979593146 -0.8640643374
14900210600.0 0.4847244712 -0.872001589
14950210300.0 0.4712470902 -0.8794350364
15000210000.0 0.458315617 -0.8864248974
15050209700.0 0.4454957088 -0.8926484618
15100209400.0 0.4328663248 -0.8985387513
15150209100.0 0.4203575919 -0.9038764277
15200208800.0 0.4068195521 -0.9098840753
15250208500.0 0.3960472386 -0.9147290809
15300208200.0 0.3835824555 -0.9189182411
15350207900.0 0.3700946334 -0.9234611811
15400207600.0 0.3551367484 -0.9293146149
15450207300.0 0.3410966893 -0.9343792098
15500207000.0 0.3257757137 -0.9386017663
15550206700.0 0.3109240174 -0.943796543
15600206400.0 0.2947043423 -0.9483267683
15650206100.0 0.2791457912 -0.9525554575
15700205800.0 0.2653567206 -0.956084063
15750205500.0 0.2510739785 -0.959659303
15800205200.0 0.236552874 -0.9631064149
15850204900.0 0.2222329959 -0.9664351217
15900204600.0 0.2073171752 -0.9699273955
15950204300.0 0.1934071488 -0.972653442
16000204000.0 0.1794117138 -0.9754930825
16050203700.0 0.1648218345 -0.9784293398
16100203400.0 0.1504595385 -0.9807451728
16150203100.0 0.1365249143 -0.9830731748
16200202800.0 0.1225089527 -0.9851775725
16250202500.0 0.1080490623 -0.9863859729
16300202200.0 0.0928210786 -0.9877132962
16350201900.0 0.0779178714 -0.9891786986
16400201600.0 0.0634726218 -0.9903720884
16450201300.0 0.0481811742 -0.9911597424
16500201000.0 0.0318651021 -0.9920487391
16550200700.0 0.0161530026 -0.9925178795
16600200400.0 0.0003035411 -0.9927518571
16650200100.0 -0.0161355287 -0.9925061194
16700199800.0 -0.032477175 -0.9920899467
16750199500.0 -0.051460974 -0.9916074541
16800199200.0 -0.0667575044 -0.9910760397
16850198900.0 -0.082925163 -0.9891856145
16900198600.0 -0.0970846958 -0.9882652912
16950198300.0 -0.1103021062 -0.9865066806
17000198000.0 -0.1235958775 -0.985951093
17050197700.0 -0.136167461 -0.9840111337
17100197400.0 -0.1491806491 -0.9819475167
17150197100.0 -0.1621799627 -0.9799311241
17200196800.0 -0.1752271714 -0.9773477524
17250196500.0 -0.1876514597 -0.9749472135
17300196200.0 -0.2001588679 -0.9727039764
17350195900.0 -0.21228603 -0.9703731143
17400195600.0 -0.2244133697 -0.9678618195
17450195300.0 -0.2375742726 -0.9651167838
17500195000.0 -0.2507911108 -0.9617066974
17550194700.0 -0.2647230636 -0.9581495089
17600194400.0 -0.2788345997 -0.9539130726
17650194100.0 -0.2921940075 -0.950220934
17700193800.0 -0.3050433539 -0.9457428186
17750193500.0 -0.3196582648 -0.9411198871
17800193200.0 -0.3338398198 -0.9362120199
17850192900.0 -0.3486900152 -0.9305875593
17900192600.0 -0.3633335777 -0.924682856
17950192300.0 -0.378805642 -0.9175530891
18000192000.0 -0.3936841623 -0.9104260615
18050191700.0 -0.4072528197 -0.9026970425
18100191400.0 -0.4213229014 -0.8949605917
18150191100.0 -0.4360808749 -0.8870654832
18200190800.0 -0.4529787873 -0.8778199754
18250190500.0 -0.4694908522 -0.8685186983
18300190200.0 -0.4852488308 -0.8596508277
18350189900.0 -0.5002037199 -0.8514562699
18400189600.0 -0.5146544005 -0.8429464271
18450189300.0 -0.527889897 -0.8344018179
18500189000.0 -0.5413410759 -0.8267180857
18550188700.0 -0.5539124216 -0.8189437702
18600188400.0 -0.5660227908 -0.8120022139
18650188100.0 -0.5770735827 -0.8053895582
18700187800.0 -0.5880737927 -0.7984950774
18750187500.0 -0.5988990107 -0.7918344594
18800187200.0 -0.6095528314 -0.7844918975
18850186900.0 -0.6199888042 -0.7773541777
18900186600.0 -0.6305885165 -0.7698205512
18950186300.0 -0.6410595284 -0.7619345664
19000186000.0 -0.6484465789 -0.7554206026
19050185700.0 -0.6579948343 -0.7481274637
19100185400.0 -0.6682309629 -0.7394200385
19150185100.0 -0.6779901947 -0.7310411458
19200184800.0 -0.6873276349 -0.7224638519
19250184500.0 -0.6984529152 -0.7131141841
19300184200.0 -0.7095426028 -0.7033316496
19350183900.0 -0.7204304556 -0.6938164475
19400183600.0 -0.7295242985 -0.6837513767
19450183300.0 -0.7381331166 -0.6734224803
19500183000.0 -0.746906256 -0.6633245827
19550182700.0 -0.7565122783 -0.6533873732
19600182400.0 -0.7663640448 -0.6415666432
19650182100.0 -0.7771066734 -0.6293605191
19700181800.0 -0.7874063643 -0.616494444
19750181500.0 -0.7976746129 -0.6024328206
19800181200.0 -0.8079966804 -0.5876738432
19850180900.0 -0.817455189 -0.5728205607
19900180600.0 -0.82485392 -0.5585418453
19950180300.0 -0.8338794556 -0.5425804765
20000180000.0 -0.8283266198 -0.5441902209
20050179700.0 -0.8353731971 -0.5312704192
20100179400.0 -0.8438580987 -0.5175573095
20150179100.0 -0.8526277266 -0.5054305027
20200178800.0 -0.8603742719 -0.4923932612
20250178500.0 -0.8697904821 -0.4787886524
20300178200.0 -0.8794605748 -0.4641824443
20350177900.0 -0.8881909476 -0.4504400333
20400177600.0 -0.896592666 -0.4357166495
20450177300.0 -0.905241787 -0.4213634924
20500177000.0 -0.9130077878 -0.4073421899
20550176700.0 -0.9206988772 -0.393607222
20600176400.0 -0.9277397825 -0.3804921748
20650176100.0 -0.9339735813 -0.3680998904
20700175800.0 -0.9408310215 -0.3553236406
20750175500.0 -0.9485449778 -0.3449627628
20800175200.0 -0.9522575214 -0.3328588977
20850174900.0 -0.9570374419 -0.3219487115
20900174600.0 -0.9621691703 -0.3102538374
20950174300.0 -0.9661554796 -0.2981260988
21000174000.0 -0.9693293575 -0.2861467605
21050173700.0 -0.9723211427 -0.2751589406
21100173400.0 -0.9771218807 -0.262696296
21150173100.0 -0.9812511786 -0.250136446
21200172800.0 -0.9839023281 -0.2361470071
21250172500.0 -0.9879285582 -0.2225414968
21300172200.0 -0.9904477572 -0.208424954
21350171900.0 -0.9922851198 -0.1939423226
21400171600.0 -0.9932544484 -0.1797631344
21450171300.0 -0.9931184519 -0.164877206
21500171000.0 -0.9935901343 -0.1498112531
21550170700.0 -0.9930866711 -0.1347812604
21600170400.0 -0.9936945362 -0.1184436834
21650170100.0 -0.9925685497 -0.1033039337
21700169800.0 -0.9901985611 -0.0881532862
21750169500.0 -0.9892458831 -0.0729614186
21800169200.0 -0.9881966751 -0.0572363377
21850168900.0 -0.9872080031 -0.04089521
21900168600.0 -0.9858830763 -0.0242421023
21950168300.0 -0.984203052 -0.008661681
22000168000.0 -0.9829005003 0.0063998735
22050167700.0 -0.9826212107 0.020498427
22100167400.0 -0.9827043881 0.0356337388
22150167100.0 -0.9833024065 0.050426896
22200166800.0 -0.9832743249 0.0666385226
22250166500.0 -0.982699902 0.0837627171
22300166200.0 -0.9820868605 0.1000851736
22350165900.0 -0.9801327641 0.1166329906
22400165600.0 -0.9795166132 0.1318269957
22450165300.0 -0.9764442555 0.1472790052
22500165000.0 -0.9746150646 0.1615400457
22550164700.0 -0.9737446636 0.1762035257
22600164400.0 -0.9714026127 0.1916919618
22650164100.0 -0.9701497897 0.2069188527
22700163800.0 -0.9668035251 0.2220453944
22750163500.0 -0.9648920362 0.2379936652
22800163200.0 -0.9618629781 0.2512603698
22850162900.0 -0.959650656 0.2647239809
22900162600.0 -0.9582716569 0.2782516881
22950162300.0 -0.9570695598 0.2908699272
23000162000.0 -0.9556350716 0.302992913
23050161700.0 -0.9535984676 0.3152269755
23100161400.0 -0.9513040771 0.3281583206
23150161100.0 -0.9487962864 0.3404091558
23200160800.0 -0.9456994679 0.3526812149
23250160500.0 -0.9424355069 0.364362013
23300160200.0 -0.9400423415 0.3759704791
23350159900.0 -0.9372131175 0.3887687308
23400159600.0 -0.9320309487 0.4020912075
23450159300.0 -0.9274084935 0.4153184441
23500159000.0 -0.9224695485 0.4282782305
23550158700.0 -0.9181822954 0.4411150731
23600158400.0 -0.9125927096 0.4543395541
23650158100.0 -0.9065779759 0.4678895544
23700157800.0 -0.8989069547 0.4817342162
23750157500.0 -0.8903814945 0.4953159727
23800157200.0 -0.8815079284 0.5087239747
23850156900.0 -0.8727646561 0.5214552446
23900156600.0 -0.8632472389 0.5342037933
23950156300.0 -0.8547130706 0.5459293328
24000156000.0 -0.8448034439 0.5577242245
24050155700.0 -0.8353770681 0.5700146193
24100155400.0 -0.8257441492 0.5820259169
24150155100.0 -0.8145408642 0.5935562079
24200154800.0 -0.8039497103 0.6046008553
24250154500.0 -0.7924573762 0.617036709
24300154200.0 -0.7811635927 0.6279959563
24350153900.0 -0.769114781 0.6394869292
24400153600.0 -0.7572580211 0.6492640817
24450153300.0 -0.7453870534 0.6592734161
24500153000.0 -0.7336822885 0.669355635
24550152700.0 -0.7221351811 0.6787291889
24600152400.0 -0.711425262 0.6881626067
24650152100.0 -0.6992616392 0.6977085364
