!Created with skrf (http://scikit-rf.org).
# Hz S RI R 50.0 
!freq ReS11 ImS11
300000.0 -0.9783608806 -0.1077366267
50299700.0 -1.000135445 0.0160038283
100299400.0 -0.9980300758 0.02887907
150299100.0 -1.002920739 0.0456885765
200298800.0 -0.9994732735 0.0590824302
250298500.0 -0.9973976401 0.0726027284
300298200.0 -0.9859218564 0.0883148219
350297900.0 -0.9939716094 0.0991474905
400297600.0 -0.9931443238 0.1159135029
450297300.0 -0.9910955814 0.1298368416
500297000.0 -0.9893624348 0.1445078057
550296700.0 -0.9844337128 0.1569972459
600296400.0 -1.01736499 0.1901962163
650296100.0 -0.9821476135 0.1869093798
700295800.0 -0.9792751903 0.2012445958
750295500.0 -0.9761851542 0.2153989423
800295200.0 -0.972858994 0.2294005757
850294900.0 -0.9694026265 0.2430253011
900294600.0 -0.9658050056 0.2568631958
950294300.0 -0.9619183687 0.2705776981
1000294000.0 -0.9579494842 0.2846323987
1050293700.0 -0.9534826595 0.2983036054
1100293400.0 -0.9491460343 0.3126000262
1150293100.0 -0.945339218 0.324694305
1200292800.0 -0.9400108292 0.3387970742
1250292500.0 -0.9344180666 0.3523189992
1300292200.0 -0.9289413503 0.365581614
1350291900.0 -0.9231898461 0.3794816882
1400291600.0 -0.917797915 0.3926417653
1450291300.0 -0.9122258048 0.405153801
1500291000.0 -0.905841712 0.4185833039
1550290700.0 -0.8995158874 0.431861544
1600290400.0 -0.8930687047 0.4446638558
1650290100.0 -0.886611738 0.4566269388
1700289800.0 -0.8796973252 0.470307559
1750289500.0 -0.872712206 0.4824404849
1800289200.0 -0.8651997822 0.4954371131
1850288900.0 -0.8583295897 0.5068329901
1900288600.0 -0.8507037253 0.5196700174
1950288300.0 -0.8423452781 0.5323839148
2000288000.0 -0.8349592466 0.5437258755
2050287700.0 -0.8269668321 0.5561256567
2100287400.0 -0.8187669828 0.5675451137
2150287100.0 -0.8100664341 0.5797724102
2200286800.0 -0.8027267915 0.5901135381
2250286500.0 -0.7936332046 0.6020848548
2300286200.0 -0.7846315614 0.6136151971
2350285900.0 -0.7760635871 0.6246727962
2400285600.0 -0.7669158097 0.6359055335
2450285300.0 -0.7582986478 0.646089297
2500285000.0 -0.7485709965 0.6575502313
2550284700.0 -0.7398143085 0.6676951431
2600284400.0 -0.7300945334 0.6779155069
2650284100.0 -0.7211888413 0.6883006375
2700283800.0 -0.7105788532 0.698890944
2750283500.0 -0.7003044179 0.7096994633
2800283200.0 -0.69048336 0.7191698909
2850282900.0 -0.6801790294 0.729130904
2900282600.0 -0.6697759909 0.7384638563
2950282300.0 -0.659771567 0.7478418368
3000282000.0 -0.6491678286 0.7572291238
3050281700.0 -0.637992756 0.7666358738
3100281400.0 -0.6259095047 0.7759993977
3150281100.0 -0.6141217423 0.7851467429
3200280800.0 -0.6026071805 0.7938035143
3250280500.0 -0.5918529714 0.8015870882
3300280200.0 -0.5806972088 0.8092712713
3350279900.0 -0.569255378 0.8167728533
3400279600.0 -0.5570292308 0.8245180322
3450279300.0 -0.5459055571 0.8317205562
3500279000.0 -0.5340293236 0.8388478492
3550278700.0 -0.521509712 0.8463550434
3600278400.0 -0.5091184933 0.8532056651
3650278100.0 -0.4959233997 0.8608041406
3700277800.0 -0.4836734587 0.8672875235
3750277500.0 -0.4716985431 0.8738760841
3800277200.0 -0.4589828178 0.8803728358
3850276900.0 -0.4465838112 0.8861475544
3900276600.0 -0.4361681094 0.8919273817
3950276300.0 -0.4235518852 0.8978827049
4000276000.0 -0.4116583878 0.9038147409
4050275700.0 -0.3985186793 0.909913684
4100275400.0 -0.3876762699 0.9153817391
4150275100.0 -0.3745110008 0.9209997847
4200274800.0 -0.3617748028 0.9264779839
4250274500.0 -0.3493301205 0.9316063104
4300274200.0 -0.3363819461 0.9369382627
4350273900.0 -0.3225243837 0.9422397204
4400273600.0 -0.3078024903 0.9475789216
4450273300.0 -0.292268646 0.9525446008
4500273000.0 -0.2786139133 0.9566311969
4550272700.0 -0.2646243638 0.9611297977
4600272400.0 -0.248867108 0.9652311732
4650272100.0 -0.2371951209 0.9686128482
4700271800.0 -0.2240178455 0.9719093529
4750271500.0 -0.2121187227 0.9746012335
4800271200.0 -0.1998991494 0.9773898974
4850270900.0 -0.1859324508 0.980150456
4900270600.0 -0.1720772644 0.9825957219
4950270300.0 -0.1577949541 0.9851936656
5000270000.0 -0.1436391356 0.9871409947
5050269700.0 -0.1300445492 0.9890316768
5100269400.0 -0.1165777083 0.9904855265
5150269100.0 -0.1032818425 0.9921150232
5200268800.0 -0.0901833217 0.9927348785
5250268500.0 -0.0768540524 0.9942338829
5300268200.0 -0.0637698982 0.9944742454
5350267900.0 -0.0517073806 0.9955065269
5400267600.0 -0.0353895653 0.9967168397
5450267300.0 -0.0224096123 0.9967972516
5500267000.0 -0.0073622466 0.9970790863
5550266700.0 0.0077363825 0.9973241686
5600266400.0 0.0232851488 0.997166383
5650266100.0 0.0397110035 0.9969303004
5700265800.0 0.0544085519 0.996257076
5750265500.0 0.0697914246 0.9955252334
5800265200.0 0.0834346002 0.9942741891
5850264900.0 0.0968010795 0.9932948962
5900264600.0 0.1133129538 0.9915040871
5950264300.0 0.1256989011 0.9896427889
6000264000.0 0.1392391702 0.9879243421
6050263700.0 0.1522169719 0.986457522
6100263400.0 0.1645394161 0.9847164022
6150263100.0 0.1789123466 0.9821522597
6200262800.0 0.1896175269 0.9804576528
6250262500.0 0.2021665804 0.9782422963
6300262200.0 0.2149860084 0.9753005459
6350261900.0 0.2278255774 0.9724459157
6400261600.0 0.2418839965 0.9691550605
6450261300.0 0.2534647161 0.9665161174
6500261000.0 0.2660072293 0.9627836573
6550260700.0 0.2789256051 0.9588731764
6600260400.0 0.2925446788 0.954756688
6650260100.0 0.3064584475 0.9504543983
6700259800.0 0.3184627071 0.9462361192
6750259500.0 0.331784935 0.940780007
6800259200.0 0.3453693964 0.9363815552
6850258900.0 0.3572355899 0.9310029326
6900258600.0 0.3690410273 0.9258771006
6950258300.0 0.3816934902 0.9209024473
7000258000.0 0.3935542608 0.9153193275
7050257700.0 0.4060409552 0.9092315876
7100257400.0 0.4188075678 0.9032356489
7150257100.0 0.4290369757 0.8978178207
7200256800.0 0.4418501364 0.8915122406
7250256500.0 0.4535550035 0.8852178494
7300256200.0 0.4665508474 0.8782860545
7350255900.0 0.4792848013 0.8716464159
7400255600.0 0.4923661421 0.8643183627
7450255300.0 0.5076437638 0.8551053064
7500255000.0 0.519316203 0.8480286009
7550254700.0 0.53293558 0.839478932
7600254400.0 0.5456216591 0.8310321036
7650254100.0 0.5572835902 0.8232445847
7700253800.0 0.5692321379 0.8153018101
7750253500.0 0.5805889585 0.8073982208
7800253200.0 0.5913317096 0.8000226065
7850252900.0 0.6008906261 0.7927947538
7900252600.0 0.6126044355 0.7838447641
7950252300.0 0.6213176681 0.7775099954
8000252000.0 0.6314153787 0.7697467437
8050251700.0 0.642037573 0.761454547
8100251400.0 0.6523234982 0.7531814805
8150251100.0 0.6623985853 0.744546227
8200250800.0 0.6716994259 0.7366459327
8250250500.0 0.6806853433 0.7284784443
8300250200.0 0.6899638121 0.7199114735
8350249900.0 0.6989866725 0.7113632737
8400249600.0 0.7073057588 0.7032367837
8450249300.0 0.7163949095 0.6939502449
8500249000.0 0.7249463836 0.6851460893
8550248700.0 0.7331026634 0.6760335589
8600248400.0 0.7415846023 0.6668189857
8650248100.0 0.7495125667 0.6574865065
8700247800.0 0.7587079443 0.6461378817
8750247500.0 0.7671739793 0.6360217601
8800247200.0 0.775248326 0.6257365924
8850246900.0 0.7842844577 0.6141880212
8900246600.0 0.7923585044 0.6029439029
8950246300.0 0.8019525333 0.5899122521
9000246000.0 0.8110522535 0.5772944997
9050245700.0 0.8203332866 0.5643003878
9100245400.0 0.8287016658 0.5519643902
9150245100.0 0.8382675925 0.5383473892
9200244800.0 0.8479700484 0.5229326274
9250244500.0 0.8576003942 0.5073150956
9300244200.0 0.8660591653 0.4927324716
9350243900.0 0.8736311785 0.4787079591
9400243600.0 0.8803847895 0.4662173622
9450243300.0 0.8862960213 0.4545086054
9500243000.0 0.8924791759 0.4422438631
9550242700.0 0.8964044304 0.4344330603
9600242400.0 0.9002055641 0.42710704
9650242100.0 0.9036485936 0.4208414653
9700241800.0 0.9086911375 0.412098563
9750241500.0 0.9124525568 0.4048182645
9800241200.0 0.9168021727 0.3957710282
9850240900.0 0.9224238408 0.3837764056
9900240600.0 0.9280827496 0.3723605651
9950240300.0 0.934930099 0.3563221205
10000240000.0 0.9397390259 0.3444488673
10050239700.0 0.9451818881 0.3293060536
10100239400.0 0.9499925952 0.3140420334
10150239100.0 0.9542990394 0.2990883178
10200238800.0 0.9585930891 0.2842617411
10250238500.0 0.9616709209 0.2708041699
10300238200.0 0.9650178244 0.2569430405
10350237900.0 0.9675986416 0.244040471
10400237600.0 0.9700629418 0.2308920492
10450237300.0 0.9727674319 0.2171170932
10500237000.0 0.9750293665 0.2045776707
10550236700.0 0.9771887456 0.1907462052
10600236400.0 0.979242252 0.1774311614
10650236100.0 0.9816571838 0.1629615874
10700235800.0 0.983681959 0.151034277
10750235500.0 0.9856718877 0.1374529604
10800235200.0 0.9878267967 0.1236851103
10850234900.0 0.9897687971 0.1091079598
10900234600.0 0.9918926779 0.094200963
10950234300.0 0.9934876569 0.0809058395
11000234000.0 0.9952112636 0.0660311048
11050233700.0 0.997038551 0.0498044993
11100233400.0 0.9985212369 0.0319837745
11150233100.0 0.9995800432 0.0158354987
11200232800.0 1.000265346 0.0008966948
11250232500.0 1.000790677 -0.0158809102
11300232200.0 1.001271162 -0.03394155
11350231900.0 1.001761377 -0.0499697681
11400231600.0 1.001247302 -0.0652454945
11450231300.0 1.000528864 -0.0808239486
11500231000.0 0.9995371135 -0.0972613793
11550230700.0 0.9981026925 -0.1102697158
11600230400.0 0.996445726 -0.1229668022
11650230100.0 0.9947437026 -0.1353761315
11700229800.0 0.9928468591 -0.1491942344
11750229500.0 0.9901861202 -0.1642802268
11800229200.0 0.9878046338 -0.1780860633
11850228900.0 0.9839321156 -0.1905550264
11900228600.0 0.9804507729 -0.2002132061
11950228300.0 0.9773524356 -0.2101341094
12000228000.0 0.9743500375 -0.2195353195
12050227700.0 0.9705803588 -0.2320281385
12100227400.0 0.9674147487 -0.243757287
12150227100.0 0.9629203078 -0.2601312225
12200226800.0 0.9588869541 -0.2709299618
12250226500.0 0.9549156428 -0.2834498834
12300226200.0 0.9506938849 -0.2957026222
12350225900.0 0.9464543173 -0.3098598191
12400225600.0 0.9414898957 -0.3222341782
12450225300.0 0.9371909114 -0.3349300852
12500225000.0 0.9316923038 -0.3498455907
12550224700.0 0.9265154477 -0.3637047706
12600224400.0 0.9215762568 -0.3761617879
12650224100.0 0.915814811 -0.3904535111
12700223800.0 0.9105467686 -0.4032952896
12750223500.0 0.9050870779 -0.4161427345
12800223200.0 0.9000229228 -0.428629744
12850222900.0 0.894615927 -0.440668312
12900222600.0 0.8887946661 -0.453056911
12950222300.0 0.8824203057 -0.4661146096
13000222000.0 0.8765921971 -0.4770239368
13050221700.0 0.8697012979 -0.4893759818
13100221400.0 0.8629807472 -0.5023065955
13150221100.0 0.855782235 -0.5145597574
13200220800.0 0.8489665602 -0.5256864328
13250220500.0 0.8414597008 -0.5382750176
13300220200.0 0.8342113234 -0.5491379609
13350219900.0 0.8260254844 -0.5609265368
13400219600.0 0.8176860437 -0.5730955697
13450219300.0 0.8081184718 -0.5868447025
13500219000.0 0.7978971786 -0.6006916779
13550218700.0 0.7873857105 -0.613362123
13600218400.0 0.7774138047 -0.6256926172
13650218100.0 0.7683305319 -0.6366281036
13700217800.0 0.7572257691 -0.6490217539
13750217500.0 0.746129303 -0.6607961614
13800217200.0 0.7354470114 -0.6722380713
13850216900.0 0.7239220136 -0.6835378203
13900216600.0 0.7143104642 -0.692399026
13950216300.0 0.7035420331 -0.702981795
14000216000.0 0.693317477 -0.7123231959
14050215700.0 0.6840844319 -0.7203576307
14100215400.0 0.674227775 -0.7295296855
14150215100.0 0.6650501844 -0.7377376601
14200214800.0 0.6559242306 -0.7463540834
14250214500.0 0.6456376523 -0.7556249455
14300214200.0 0.6354897132 -0.7648772607
14350213900.0 0.624372702 -0.7743191144
14400213600.0 0.6126509896 -0.7841327259
14450213300.0 0.5995137163 -0.7942664244
14500213000.0 0.5865734434 -0.8042490983
14550212700.0 0.5737484502 -0.8135973609
14600212400.0 0.5615729172 -0.8221259187
14650212100.0 0.5487452377 -0.8309319908
14700211800.0 0.5341736486 -0.8404132099
14750211500.0 0.5222736594 -0.8489718376
14800211200.0 0.5102764324 -0.8564943545
14850210900.0 0.4981206307 -0.8638968177
14900210600.0 0.4847653484 -0.8719500876
14950210300.0 0.4711799952 -0.8796550299
15000210000.0 0.4581569682 -0.8865344643
15050209700.0 0.4459176111 -0.8925519675
15100209400.0 0.4325125796 -0.8986115614
15150209100.0 0.4207919619 -0.9040383225
15200208800.0 0.4075855443 -0.9102043037
15250208500.0 0.3964964222 -0.9140068936
15300208200.0 0.3829373499 -0.9182898348
15350207900.0 0.370717636 -0.9237265134
15400207600.0 0.3557392226 -0.9285020262
15450207300.0 0.3416539185 -0.9332064844
15500207000.0 0.3268466544 -0.9378468852
15550206700.0 0.3114105992 -0.9431286024
15600206400.0 0.2958492281 -0.9477719145
15650206100.0 0.2799226839 -0.9524968051
15700205800.0 0.266040481 -0.9557858445
15750205500.0 0.2517285837 -0.9591894277
15800205200.0 0.2371732141 -0.962820318
15850204900.0 0.2228319433 -0.9661376009
15900204600.0 0.2078792942 -0.9697926746
15950204300.0 0.1937382631 -0.9726961321
16000204000.0 0.179752836 -0.9757081889
16050203700.0 0.1652451658 -0.9780690172
16100203400.0 0.1504068055 -0.98035341
16150203100.0 0.1361017621 -0.9823976938
16200202800.0 0.121806486 -0.9846044685
16250202500.0 0.1077888765 -0.9862954493
16300202200.0 0.0923846707 -0.9881681454
16350201900.0 0.0777161349 -0.9891453116
16400201600.0 0.0630835184 -0.9903888499
16450201300.0 0.0480458468 -0.9913619036
16500201000.0 0.0313538789 -0.9919898469
16550200700.0 0.0157172029 -0.992521767
16600200400.0 -0.0003146958 -0.9928390415
16650200100.0 -0.0162162319 -0.9928011411
16700199800.0 -0.0327858101 -0.9922452751
16750199500.0 -0.0513299599 -0.991556609
16800199200.0 -0.0675374165 -0.9905225391
16850198900.0 -0.0826913274 -0.9895856356
16900198600.0 -0.0961748977 -0.9881465072
16950198300.0 -0.1102837573 -0.9879016894
17000198000.0 -0.12322805 -0.9850656739
17050197700.0 -0.1358759871 -0.9832588449
17100197400.0 -0.147945253 -0.9814103493
17150197100.0 -0.1614750246 -0.9793031544
17200196800.0 -0.1741841439 -0.9776702151
17250196500.0 -0.1871655864 -0.9749741598
17300196200.0 -0.1990328563 -0.9727652868
17350195900.0 -0.2112201565 -0.9704993295
17400195600.0 -0.2233954214 -0.9680174544
17450195300.0 -0.2364880046 -0.9652714214
17500195000.0 -0.2500680742 -0.962062397
17550194700.0 -0.2639171267 -0.9584008562
17600194400.0 -0.2779088177 -0.9544926029
17650194100.0 -0.2915701779 -0.9500711492
17700193800.0 -0.3044629217 -0.9456967525
17750193500.0 -0.3184653083 -0.9416064233
17800193200.0 -0.3331556741 -0.9363212928
17850192900.0 -0.3485384525 -0.9308650856
17900192600.0 -0.3630534661 -0.924881931
17950192300.0 -0.3785247201 -0.9176906083
18000192000.0 -0.3933058898 -0.9103472618
18050191700.0 -0.4070949109 -0.9027098665
18100191400.0 -0.4212329346 -0.8950143069
18150191100.0 -0.4360899886 -0.8868274518
18200190800.0 -0.4530693973 -0.8774646777
18250190500.0 -0.470019473 -0.8682353768
18300190200.0 -0.4852404823 -0.859303526
18350189900.0 -0.5004685854 -0.8507395507
18400189600.0 -0.5148479389 -0.8425441591
18450189300.0 -0.5278216897 -0.834477612
18500189000.0 -0.540605363 -0.8266183801
18550188700.0 -0.5541454358 -0.8185594019
18600188400.0 -0.5662575464 -0.8118307772
18650188100.0 -0.5773160546 -0.8050419168
18700187800.0 -0.587563044 -0.798922121
18750187500.0 -0.5985741887 -0.7923357281
18800187200.0 -0.60927485 -0.784951932
18850186900.0 -0.619609442 -0.7779106216
18900186600.0 -0.6300697005 -0.7706165514
18950186300.0 -0.6400203567 -0.7626993884
19000186000.0 -0.6472407904 -0.7563291862
19050185700.0 -0.6565762942 -0.7495298713
19100185400.0 -0.6671033911 -0.7411400249
19150185100.0 -0.6773047305 -0.7323680024
19200184800.0 -0.685836338 -0.7236377415
19250184500.0 -0.6965975448 -0.7142747896
19300184200.0 -0.7082520789 -0.7049566043
19350183900.0 -0.7194470704 -0.6954642911
19400183600.0 -0.7285777365 -0.6853812304
19450183300.0 -0.7374714604 -0.675531535
19500183000.0 -0.745631332 -0.6655960939
19550182700.0 -0.7550989147 -0.6546835965
19600182400.0 -0.7658491694 -0.6430060794
19650182100.0 -0.7764860941 -0.6306214722
19700181800.0 -0.7870085546 -0.6176045151
19750181500.0 -0.7974612832 -0.6035983599
19800181200.0 -0.8076723655 -0.588879423
19850180900.0 -0.8173288202 -0.5731536599
19900180600.0 -0.8250662376 -0.5590703226
19950180300.0 -0.8341176803 -0.5425685257
20000180000.0 -0.8266304755 -0.5450719263
20050179700.0 -0.8353048445 -0.5320867395
20100179400.0 -0.8433044141 -0.5183633714
20150179100.0 -0.851111514 -0.5065766248
20200178800.0 -0.8603523332 -0.493401076
20250178500.0 -0.870102389 -0.4792509849
20300178200.0 -0.8790432901 -0.4653054133
20350177900.0 -0.8878096196 -0.4502011268
20400177600.0 -0.8970816291 -0.4363195458
20450177300.0 -0.9053206239 -0.4214252173
20500177000.0 -0.9132299993 -0.4076373252
20550176700.0 -0.9212945952 -0.3939741197
20600176400.0 -0.9282852697 -0.3808368133
20650176100.0 -0.9347519153 -0.368473951
20700175800.0 -0.9418267631 -0.3567156267
20750175500.0 -0.9480713931 -0.3449226511
20800175200.0 -0.9529196737 -0.3339708638
20850174900.0 -0.9575399265 -0.3226044181
20900174600.0 -0.9615372743 -0.3109772662
20950174300.0 -0.9663157113 -0.2991865686
21000174000.0 -0.9703183768 -0.2876453139
21050173700.0 -0.9732321894 -0.2766246501
21100173400.0 -0.9769235629 -0.2654708107
21150173100.0 -0.9808948117 -0.2523573453
21200172800.0 -0.9838391681 -0.2390298351
21250172500.0 -0.9875688098 -0.2250915749
21300172200.0 -0.9906400586 -0.2110716408
21350171900.0 -0.9920409874 -0.1965877556
21400171600.0 -0.9936988582 -0.1823097462
21450171300.0 -0.9935333022 -0.1675952786
21500171000.0 -0.9928813519 -0.1517046686
21550170700.0 -0.9927095375 -0.1366619341
21600170400.0 -0.9930041673 -0.1215630138
21650170100.0 -0.9917262603 -0.1053199572
21700169800.0 -0.9900480456 -0.0891967669
21750169500.0 -0.9885943499 -0.0750376808
21800169200.0 -0.9885438815 -0.0589350898
21850168900.0 -0.987023201 -0.0418185921
21900168600.0 -0.9852765817 -0.0253987785
21950168300.0 -0.9835993387 -0.0097195486
22000168000.0 -0.9834620026 0.0051409958
22050167700.0 -0.9830369838 0.0193005748
22100167400.0 -0.9827885025 0.0345796154
22150167100.0 -0.9833521044 0.0499417742
22200166800.0 -0.9838073312 0.0663548361
22250166500.0 -0.9834850089 0.0830161461
22300166200.0 -0.982549143 0.0995031437
22350165900.0 -0.9811772159 0.1163474443
22400165600.0 -0.9790307442 0.131937672
22450165300.0 -0.9775506538 0.1476944007
22500165000.0 -0.9754061515 0.1617797169
22550164700.0 -0.9745928954 0.1763479465
22600164400.0 -0.9733010761 0.1912185869
22650164100.0 -0.9709593835 0.2062951942
22700163800.0 -0.9681425953 0.2228063869
22750163500.0 -0.9654489468 0.23755009
22800163200.0 -0.9628022953 0.2510905407
22850162900.0 -0.9603557098 0.2646136799
22900162600.0 -0.958737032 0.2780090732
22950162300.0 -0.9575996407 0.2909667367
23000162000.0 -0.9569075493 0.3025318206
23050161700.0 -0.9542240441 0.3153429789
23100161400.0 -0.9520077343 0.3280444675
23150161100.0 -0.9495183337 0.3400798822
23200160800.0 -0.9472781986 0.3526955858
23250160500.0 -0.9436871717 0.3642334592
23300160200.0 -0.9413265581 0.3751255661
23350159900.0 -0.9371176903 0.3894041014
23400159600.0 -0.9327912838 0.4020390473
23450159300.0 -0.9284949294 0.4152690506
23500159000.0 -0.9232708147 0.4281645321
23550158700.0 -0.9190374606 0.4415117876
23600158400.0 -0.9136880448 0.4547993147
23650158100.0 -0.9071306257 0.4688593448
23700157800.0 -0.8995349179 0.4826515799
23750157500.0 -0.890895645 0.4966093927
23800157200.0 -0.8822019755 0.5098655327
23850156900.0 -0.8736712801 0.5226831245
23900156600.0 -0.8643330858 0.5353738601
23950156300.0 -0.8545394534 0.5467679311
24000156000.0 -0.8459392641 0.5591094145
24050155700.0 -0.8352920022 0.5716624347
24100155400.0 -0.8255995737 0.5831975357
24150155100.0 -0.8140614376 0.5949567751
24200154800.0 -0.8032565312 0.6060887999
24250154500.0 -0.7926225478 0.6177526854
24300154200.0 -0.780409544 0.6294936444
24350153900.0 -0.7691548846 0.6401107179
24400153600.0 -0.7566848907 0.6506376339
24450153300.0 -0.7448003666 0.6601308358
24500153000.0 -0.7331512585 0.6699539279
24550152700.0 -0.7220934325 0.6798564784
24600152400.0 -0.710217067 0.6889750314
24650152100.0 -0.6989118623 0.697283386
