!Created with skrf (http://scikit-rf.org).
# Hz S RI R 50.0 
!freq ReS11 ImS11
300000.0 -0.9829148038 -0.0924689753
50299700.0 -0.9999331781 0.0163641391
100299400.0 -0.9979752734 0.0293566842
150299100.0 -1.002634211 0.0462319655
200298800.0 -0.999616806 0.0593351033
250298500.0 -0.9973998291 0.0729700132
300298200.0 -0.9859280911 0.0886711218
350297900.0 -0.9939129088 0.0998428139
400297600.0 -0.9931945976 0.1162549576
450297300.0 -0.990834553 0.1301167094
500297000.0 -0.9892585527 0.1448301437
550296700.0 -0.9840387867 0.1573569076
600296400.0 -1.017064638 0.1904412561
650296100.0 -0.9820228091 0.1873225974
700295800.0 -0.978840316 0.2017112346
750295500.0 -0.9758175472 0.215614478
800295200.0 -0.9727279458 0.2295743517
850294900.0 -0.9693208952 0.2434379308
900294600.0 -0.9653618436 0.2571640412
950294300.0 -0.9615739519 0.2709954795
1000294000.0 -0.9576719657 0.2850605218
1050293700.0 -0.9532435117 0.2988693534
1100293400.0 -0.9487420393 0.3133600186
1150293100.0 -0.9448320006 0.3250982506
1200292800.0 -0.9395454479 0.3391141459
1250292500.0 -0.9341879301 0.3528132704
1300292200.0 -0.9284084636 0.365988819
1350291900.0 -0.9230061845 0.379964423
1400291600.0 -0.9175299334 0.3930336462
1450291300.0 -0.9118190005 0.4053725639
1500291000.0 -0.9057741664 0.418711213
1550290700.0 -0.8993183717 0.4318769323
1600290400.0 -0.8929550245 0.4448196966
1650290100.0 -0.8862439885 0.4571752642
1700289800.0 -0.8794780985 0.4703667166
1750289500.0 -0.8723271562 0.4826287885
1800289200.0 -0.8650158902 0.4957397628
1850288900.0 -0.8581444522 0.5069117407
1900288600.0 -0.850733038 0.5198603295
1950288300.0 -0.842384031 0.532424602
2000288000.0 -0.8348750477 0.543963785
2050287700.0 -0.8265982144 0.5563077544
2100287400.0 -0.8185666809 0.5679873486
2150287100.0 -0.8099502507 0.5800286312
2200286800.0 -0.8024548159 0.5903779127
2250286500.0 -0.7933134459 0.6025273099
2300286200.0 -0.7844204116 0.6140074141
2350285900.0 -0.775522565 0.6250739951
2400285600.0 -0.7664979489 0.6361507301
2450285300.0 -0.757945969 0.6466190909
2500285000.0 -0.7482060819 0.6576433082
2550284700.0 -0.7394155342 0.668117483
2600284400.0 -0.7296388244 0.6782865516
2650284100.0 -0.7208295693 0.6888441176
2700283800.0 -0.7097638373 0.6992982202
2750283500.0 -0.6999117594 0.7098811902
2800283200.0 -0.6899812463 0.7196021057
2850282900.0 -0.6798275507 0.7294068049
2900282600.0 -0.6695816451 0.7388733086
2950282300.0 -0.6593857152 0.7479846739
3000282000.0 -0.6486999035 0.7576631049
3050281700.0 -0.6373525487 0.7667395831
3100281400.0 -0.6256441832 0.7760408196
3150281100.0 -0.6138950883 0.785496046
3200280800.0 -0.602369569 0.7939059737
3250280500.0 -0.5915847222 0.801691409
3300280200.0 -0.5804247328 0.8094014737
3350279900.0 -0.568986763 0.8170167054
3400279600.0 -0.5566519628 0.8247175494
3450279300.0 -0.545867785 0.8316055957
3500279000.0 -0.5337393702 0.838785794
3550278700.0 -0.5214109599 0.8464345208
3600278400.0 -0.5092104893 0.8533382779
3650278100.0 -0.4960007409 0.8612156236
3700277800.0 -0.4837713032 0.8673416376
3750277500.0 -0.471633001 0.8740901177
3800277200.0 -0.4591052234 0.8806698843
3850276900.0 -0.4466526907 0.8864942107
3900276600.0 -0.4358520639 0.8922396911
3950276300.0 -0.4232603234 0.898230227
4000276000.0 -0.410948234 0.9041472775
4050275700.0 -0.3979404445 0.9102958533
4100275400.0 -0.3867614145 0.9158468358
4150275100.0 -0.374213937 0.9215196501
4200274800.0 -0.3609861192 0.926695438
4250274500.0 -0.3484590004 0.9319345085
4300274200.0 -0.3357452782 0.9370272456
4350273900.0 -0.3221334931 0.9422758735
4400273600.0 -0.3069245267 0.9473473826
4450273300.0 -0.2915613476 0.9527750286
4500273000.0 -0.2780399267 0.9569277163
4550272700.0 -0.2639746153 0.9612375276
4600272400.0 -0.248440376 0.9653022502
4650272100.0 -0.236720772 0.9685124617
4700271800.0 -0.2233349989 0.9718744541
4750271500.0 -0.2115197246 0.9746180846
4800271200.0 -0.1991284 0.9774129316
4850270900.0 -0.1850210948 0.9802369632
4900270600.0 -0.1714151656 0.9827210641
4950270300.0 -0.1572404612 0.9851558153
5000270000.0 -0.1430700667 0.9873675548
5050269700.0 -0.1296690447 0.9888660188
5100269400.0 -0.1161850192 0.990504423
5150269100.0 -0.1027776798 0.9925500263
5200268800.0 -0.0896633131 0.9930794972
5250268500.0 -0.0766054907 0.9940036461
5300268200.0 -0.0634966378 0.9949105857
5350267900.0 -0.0513621269 0.9954493296
5400267600.0 -0.0351719139 0.9963677352
5450267300.0 -0.0222125006 0.996882664
5500267000.0 -0.0071746575 0.9972282417
5550266700.0 0.0076795929 0.9973014324
5600266400.0 0.0232881809 0.9972350214
5650266100.0 0.0397077002 0.9968927965
5700265800.0 0.0543798818 0.9963142033
5750265500.0 0.0693774333 0.9952118029
5800265200.0 0.0834147553 0.9942347128
5850264900.0 0.0964407471 0.9930618841
5900264600.0 0.1133310666 0.9914783447
5950264300.0 0.1257311468 0.9899817912
6000264000.0 0.1396221026 0.988296185
6050263700.0 0.1520913609 0.9863516319
6100263400.0 0.1648083727 0.9844971811
6150263100.0 0.1795980888 0.9821349265
6200262800.0 0.1898730669 0.9802096307
6250262500.0 0.2027007521 0.9776483506
6300262200.0 0.2157504792 0.9748241953
6350261900.0 0.2288411695 0.9718891344
6400261600.0 0.2426603583 0.9685940268
6450261300.0 0.2540784813 0.9658184178
6500261000.0 0.266614211 0.9621725444
6550260700.0 0.2795174852 0.9583170092
6600260400.0 0.2933072331 0.9544885011
6650260100.0 0.3069062861 0.9500871436
6700259800.0 0.3187999424 0.9454946809
6750259500.0 0.3327463173 0.9410180361
6800259200.0 0.3456550165 0.9357934659
6850258900.0 0.3575268924 0.9311216754
6900258600.0 0.3698074186 0.9259253827
6950258300.0 0.382215535 0.9208183867
7000258000.0 0.3942069122 0.9150683737
7050257700.0 0.4065484004 0.9094131671
7100257400.0 0.419306061 0.9029167014
7150257100.0 0.4296305293 0.89792719
7200256800.0 0.4423365468 0.8914310122
7250256500.0 0.4538272056 0.8853787506
7300256200.0 0.4671681405 0.8786153058
7350255900.0 0.4791433646 0.8713489918
7400255600.0 0.4923576686 0.8647553607
7450255300.0 0.5079937498 0.8559786771
7500255000.0 0.5190879482 0.8485861069
7550254700.0 0.5326868557 0.8398778641
7600254400.0 0.5456713236 0.8317767582
7650254100.0 0.5573180632 0.8237447379
7700253800.0 0.5689399156 0.8156734612
7750253500.0 0.5802027138 0.8078063639
7800253200.0 0.5910526695 0.7999645569
7850252900.0 0.6007786835 0.7928333126
7900252600.0 0.6124933068 0.7838299807
7950252300.0 0.6214806097 0.7771889868
8000252000.0 0.6318112519 0.7691492174
8050251700.0 0.6423790311 0.7609036058
8100251400.0 0.6523952379 0.7527926806
8150251100.0 0.6622155139 0.7440994986
8200250800.0 0.671880545 0.7359820923
8250250500.0 0.6808703491 0.7277960307
8300250200.0 0.6903931738 0.719284449
8350249900.0 0.6995371955 0.7105902578
8400249600.0 0.7078809813 0.7025415524
8450249300.0 0.7168468465 0.6932600865
8500249000.0 0.7255473454 0.6841585135
8550248700.0 0.733779455 0.6753767154
8600248400.0 0.7423135985 0.6656731797
8650248100.0 0.7499040719 0.6563985709
8700247800.0 0.7595032647 0.6455227681
8750247500.0 0.7678049594 0.6355864143
8800247200.0 0.7757346967 0.6252863927
8850246900.0 0.7844995659 0.6138525712
8900246600.0 0.792778539 0.6028368352
8950246300.0 0.8023142359 0.5898730625
9000246000.0 0.8116725835 0.5772473821
9050245700.0 0.8206867206 0.5643300462
9100245400.0 0.8290713604 0.5519737208
9150245100.0 0.8383880651 0.5385467994
9200244800.0 0.8476112269 0.5236229114
9250244500.0 0.8572501566 0.5082055262
9300244200.0 0.8652718351 0.4938277877
9350243900.0 0.8732966893 0.4797972187
9400243600.0 0.880139438 0.4668875446
9450243300.0 0.8859549662 0.455143309
9500243000.0 0.8924269713 0.4424899565
9550242700.0 0.8961303524 0.4344127487
9600242400.0 0.9002124193 0.4265663874
9650242100.0 0.9042184791 0.4195697052
9700241800.0 0.9085794455 0.4110979151
9750241500.0 0.9122257868 0.4031258051
9800241200.0 0.917163779 0.3939186373
9850240900.0 0.9227394936 0.3825117284
9900240600.0 0.928201989 0.370905924
9950240300.0 0.9348618529 0.3547975365
10000240000.0 0.9393947221 0.3430942385
10050239700.0 0.9450978171 0.3281232674
10100239400.0 0.9496939773 0.3129528539
10150239100.0 0.9541865157 0.2981544891
10200238800.0 0.9584687226 0.2830938216
10250238500.0 0.9617195641 0.2697369761
10300238200.0 0.9651008987 0.2560171386
10350237900.0 0.9676300655 0.2430375557
10400237600.0 0.9702361447 0.2301083246
10450237300.0 0.9729343167 0.2164799986
10500237000.0 0.9749869667 0.2043263225
10550236700.0 0.9772582143 0.1907262545
10600236400.0 0.9794443785 0.1771129914
10650236100.0 0.9812797067 0.1624479539
10700235800.0 0.9838383408 0.150790482
10750235500.0 0.9859495682 0.1371997753
10800235200.0 0.9881492912 0.1235146544
10850234900.0 0.9896710828 0.10884691
10900234600.0 0.9918127594 0.0944970977
10950234300.0 0.9935781816 0.0810993524
11000234000.0 0.9951873874 0.066301979
11050233700.0 0.9967513264 0.0503648327
11100233400.0 0.9982108747 0.0328689331
11150233100.0 0.9989142746 0.0167491561
11200232800.0 0.9999928136 0.0014500275
11250232500.0 1.000825523 -0.0150685074
11300232200.0 1.001000028 -0.0327503715
11350231900.0 1.000745769 -0.0483157894
11400231600.0 1.000818073 -0.0641634227
11450231300.0 1.000058461 -0.0800972126
11500231000.0 0.9990827197 -0.0961054821
11550230700.0 0.9971807616 -0.1096363183
11600230400.0 0.9964758029 -0.123212828
11650230100.0 0.9936871097 -0.1342724682
11700229800.0 0.991677411 -0.1495621904
11750229500.0 0.9894764274 -0.1642375632
11800229200.0 0.9866794045 -0.1781848381
11850228900.0 0.9835564722 -0.1906596346
11900228600.0 0.979785798 -0.2014718914
11950228300.0 0.9765773866 -0.2113402609
12000228000.0 0.9738808639 -0.2207509997
12050227700.0 0.9706358964 -0.233521066
12100227400.0 0.9672546724 -0.2442298841
12150227100.0 0.9623590987 -0.2609454327
12200226800.0 0.9592595919 -0.2712207359
12250226500.0 0.9541364753 -0.2851263451
12300226200.0 0.9507527308 -0.2962717835
12350225900.0 0.9460259037 -0.3104218121
12400225600.0 0.9414048902 -0.3230614418
12450225300.0 0.9372094935 -0.3353460033
12500225000.0 0.9319656494 -0.3503017845
12550224700.0 0.9267042934 -0.3635597105
12600224400.0 0.9220799749 -0.3762662252
12650224100.0 0.9162117386 -0.3902326374
12700223800.0 0.9108671755 -0.4028184012
12750223500.0 0.9053217245 -0.4156869276
12800223200.0 0.8999618182 -0.4281164588
12850222900.0 0.8946670268 -0.4401450788
12900222600.0 0.8889097951 -0.4528394023
12950222300.0 0.8826830935 -0.4654729054
13000222000.0 0.8764281483 -0.4763801558
13050221700.0 0.8700810923 -0.4897035725
13100221400.0 0.8624736216 -0.502090561
13150221100.0 0.8555109304 -0.5141378294
13200220800.0 0.8486785729 -0.5259630766
13250220500.0 0.8410418951 -0.5383067941
13300220200.0 0.8336932489 -0.5493514459
13350219900.0 0.8253563066 -0.5612914533
13400219600.0 0.8170127868 -0.5736795777
13450219300.0 0.8074564424 -0.5872654262
13500219000.0 0.7970871565 -0.6013036109
13550218700.0 0.7866418417 -0.6138279216
13600218400.0 0.7770308285 -0.6264567667
13650218100.0 0.766973586 -0.636922952
13700217800.0 0.7558178863 -0.6497849607
13750217500.0 0.7460224825 -0.6609123646
13800217200.0 0.7345525387 -0.6732595467
13850216900.0 0.7239804573 -0.6845658322
13900216600.0 0.7145282687 -0.6932484228
13950216300.0 0.7030527294 -0.7034882846
14000216000.0 0.6933419883 -0.7121941539
14050215700.0 0.6836841866 -0.7203443971
14100215400.0 0.6741518381 -0.7298844223
14150215100.0 0.6648467139 -0.7383538528
14200214800.0 0.6556761018 -0.7467657226
14250214500.0 0.6455196643 -0.7558509654
14300214200.0 0.6352620591 -0.7652037162
14350213900.0 0.6243724335 -0.7743069987
14400213600.0 0.6128150259 -0.7839583999
14450213300.0 0.5994424948 -0.7938790266
14500213000.0 0.5868155835 -0.8036151329
14550212700.0 0.5743428494 -0.8130857127
14600212400.0 0.5619878037 -0.8216255807
14650212100.0 0.5492102501 -0.8302505943
14700211800.0 0.5351353679 -0.8401300249
14750211500.0 0.52284891 -0.8480236259
14800211200.0 0.5109326708 -0.8560254491
14850210900.0 0.4985873754 -0.8634827265
14900210600.0 0.4851153257 -0.8714618344
14950210300.0 0.4715608403 -0.8792212113
15000210000.0 0.4585076691 -0.8860963574
15050209700.0 0.4459504937 -0.8923483545
15100209400.0 0.4330078323 -0.898611856
15150209100.0 0.4207217606 -0.9039036199
15200208800.0 0.4070850987 -0.9097576848
15250208500.0 0.3952591653 -0.913916341
15300208200.0 0.3838038848 -0.9186616145
15350207900.0 0.3692373878 -0.9238488173
15400207600.0 0.3554966521 -0.9297377457
15450207300.0 0.3405242236 -0.9342422294
15500207000.0 0.3254008226 -0.9382548539
15550206700.0 0.3106393987 -0.9441155647
15600206400.0 0.2947352474 -0.9484734617
15650206100.0 0.2789761254 -0.9526028254
15700205800.0 0.2657725998 -0.9563386938
15750205500.0 0.2509557387 -0.9598845363
15800205200.0 0.2368922895 -0.9630371551
15850204900.0 0.2225841691 -0.9665117711
15900204600.0 0.2077906942 -0.9699462568
15950204300.0 0.1940194265 -0.9728022151
16000204000.0 0.1799473728 -0.9755787457
16050203700.0 0.1653710772 -0.9781897237
16100203400.0 0.1513091297 -0.9804513314
16150203100.0 0.1368763041 -0.9828839762
16200202800.0 0.1227654002 -0.9850766801
16250202500.0 0.1082177545 -0.9866507534
16300202200.0 0.0932922155 -0.988204989
16350201900.0 0.0784855699 -0.9893273205
16400201600.0 0.0639715375 -0.9904993129
16450201300.0 0.0490211585 -0.9913187337
16500201000.0 0.0322110945 -0.9920433089
16550200700.0 0.0166183967 -0.992610111
16600200400.0 0.0008575824 -0.9927698883
16650200100.0 -0.0157039596 -0.9927093879
16700199800.0 -0.0319645459 -0.9921544773
16750199500.0 -0.0515204693 -0.9915335401
16800199200.0 -0.0668064994 -0.9903177954
16850198900.0 -0.0824792415 -0.9893439281
16900198600.0 -0.0964946229 -0.9884268969
16950198300.0 -0.1102549864 -0.9873516716
17000198000.0 -0.1231223012 -0.9861077835
17050197700.0 -0.1357594816 -0.9837228902
17100197400.0 -0.1492567404 -0.982041212
17150197100.0 -0.161455316 -0.9797436232
17200196800.0 -0.1743093673 -0.9774883256
17250196500.0 -0.1877642852 -0.9751568366
17300196200.0 -0.2000316854 -0.9726425234
17350195900.0 -0.2121612901 -0.9703266619
17400195600.0 -0.2243082531 -0.9678517968
17450195300.0 -0.237428107 -0.9651659163
17500195000.0 -0.2508401126 -0.9617618106
17550194700.0 -0.2646159681 -0.9579682782
17600194400.0 -0.2786162897 -0.9538372955
17650194100.0 -0.2921395494 -0.9499005842
17700193800.0 -0.3046395638 -0.9459207485
17750193500.0 -0.3190798276 -0.9409999232
17800193200.0 -0.3337469086 -0.9361887918
17850192900.0 -0.3481981038 -0.9306564589
17900192600.0 -0.3632998453 -0.9245239543
17950192300.0 -0.3784080883 -0.9174891844
18000192000.0 -0.393092012 -0.9105637691
18050191700.0 -0.4069788796 -0.9026709509
18100191400.0 -0.4210666464 -0.8952160692
18150191100.0 -0.435784306 -0.887171205
18200190800.0 -0.4525131263 -0.8783375823
18250190500.0 -0.4691637097 -0.8688422202
18300190200.0 -0.4845026631 -0.8599153116
18350189900.0 -0.4997237807 -0.8517233214
18400189600.0 -0.5139290138 -0.8429133558
18450189300.0 -0.5269968378 -0.8352844269
18500189000.0 -0.5402707175 -0.8277935106
18550188700.0 -0.5535040978 -0.8191221565
18600188400.0 -0.5654472301 -0.8123279046
18650188100.0 -0.5765555742 -0.8056118703
18700187800.0 -0.5877801392 -0.7989986607
18750187500.0 -0.5985990633 -0.7919381247
18800187200.0 -0.6092448867 -0.7848044799
18850186900.0 -0.6198941761 -0.7774155547
18900186600.0 -0.6302667439 -0.7697388775
18950186300.0 -0.640785593 -0.7616033985
19000186000.0 -0.6485839015 -0.7552117128
19050185700.0 -0.6583146864 -0.7477702266
19100185400.0 -0.6681511214 -0.7393361731
19150185100.0 -0.6783111771 -0.7303764497
19200184800.0 -0.6877796748 -0.722008361
19250184500.0 -0.698350277 -0.7124677219
19300184200.0 -0.709635703 -0.7032131885
19350183900.0 -0.7196975075 -0.692618456
19400183600.0 -0.7294499753 -0.6834838912
19450183300.0 -0.7385988563 -0.6732645317
19500183000.0 -0.7464989396 -0.6633737944
19550182700.0 -0.7567557345 -0.6527949123
19600182400.0 -0.7666287015 -0.6407282335
19650182100.0 -0.7767680297 -0.6289382593
19700181800.0 -0.7871766538 -0.6158078858
19750181500.0 -0.7976536291 -0.6023073879
19800181200.0 -0.8076347033 -0.5876803054
19850180900.0 -0.8169181593 -0.5727970841
19900180600.0 -0.824803095 -0.558766458
19950180300.0 -0.8337009736 -0.5431888113
20000180000.0 -0.827776588 -0.543569969
20050179700.0 -0.8362996222 -0.5305042732
20100179400.0 -0.8442650479 -0.5175708666
20150179100.0 -0.8522667384 -0.5046227671
20200178800.0 -0.860958899 -0.4924327758
20250178500.0 -0.8697930658 -0.4785238734
20300178200.0 -0.8799548878 -0.464187285
20350177900.0 -0.8881364036 -0.4504956001
20400177600.0 -0.8967862916 -0.4356875481
20450177300.0 -0.9048082743 -0.4213990572
20500177000.0 -0.9125280822 -0.4077093673
20550176700.0 -0.9206232069 -0.3937911439
20600176400.0 -0.9274273355 -0.3803625284
20650176100.0 -0.9340085239 -0.3678469567
20700175800.0 -0.9404003735 -0.3554350327
20750175500.0 -0.9473283282 -0.3433464425
20800175200.0 -0.9523744221 -0.332342519
20850174900.0 -0.9574175896 -0.321019085
20900174600.0 -0.9617386385 -0.3092027885
20950174300.0 -0.9667052117 -0.2978696875
21000174000.0 -0.9695349981 -0.2862016248
21050173700.0 -0.972425652 -0.2743052215
21100173400.0 -0.9771774563 -0.2619205761
21150173100.0 -0.9805784799 -0.2490309692
21200172800.0 -0.98414732 -0.2349598666
21250172500.0 -0.9870206589 -0.2215352629
21300172200.0 -0.9905269272 -0.2072211716
21350171900.0 -0.9916005448 -0.1925195341
21400171600.0 -0.9933743751 -0.178872884
21450171300.0 -0.9930613807 -0.164338285
21500171000.0 -0.993399922 -0.1488321414
21550170700.0 -0.9924685467 -0.1333335588
21600170400.0 -0.9932655477 -0.1186785854
21650170100.0 -0.9925127264 -0.1015545724
21700169800.0 -0.9903925333 -0.0886825344
21750169500.0 -0.9902446865 -0.0717989042
21800169200.0 -0.9879913526 -0.0557119497
21850168900.0 -0.986788437 -0.0402091909
21900168600.0 -0.9858148257 -0.0242054018
21950168300.0 -0.9845275769 -0.0084169905
22000168000.0 -0.9829485868 0.0065756165
22050167700.0 -0.9827857874 0.020494943
22100167400.0 -0.9825498665 0.0357612555
22150167100.0 -0.9829319022 0.0511138066
22200166800.0 -0.9833961322 0.0668070027
22250166500.0 -0.9821427626 0.0842449907
22300166200.0 -0.9818812969 0.1004533204
22350165900.0 -0.980133466 0.1166577751
22400165600.0 -0.9785464541 0.1325780961
22450165300.0 -0.9759477224 0.1476718527
22500165000.0 -0.9748952233 0.1610329259
22550164700.0 -0.9730796324 0.1759967784
22600164400.0 -0.9723046166 0.1913787839
22650164100.0 -0.9697926348 0.2065332255
22700163800.0 -0.9667431776 0.2224520735
22750163500.0 -0.9643571302 0.2378664662
22800163200.0 -0.9617306703 0.2508121987
22850162900.0 -0.9592787411 0.2648884699
22900162600.0 -0.9578921752 0.278010339
22950162300.0 -0.9566744304 0.2908743305
23000162000.0 -0.9554146046 0.3028689024
23050161700.0 -0.9534893154 0.3156889344
23100161400.0 -0.9511325524 0.328100445
23150161100.0 -0.9485602774 0.3406534152
23200160800.0 -0.9456026508 0.3526000567
23250160500.0 -0.9428673329 0.3642321202
23300160200.0 -0.9401659412 0.3766262745
23350159900.0 -0.936302765 0.3894201546
23400159600.0 -0.93161717 0.4023599308
23450159300.0 -0.9269993485 0.415084427
23500159000.0 -0.9221238641 0.4278844261
23550158700.0 -0.9178398635 0.4410184378
23600158400.0 -0.9125119413 0.4536617649
23650158100.0 -0.9059807945 0.4675041698
23700157800.0 -0.8986962353 0.4807939562
23750157500.0 -0.8902415151 0.4947726158
23800157200.0 -0.8816863392 0.5079157265
23850156900.0 -0.8729779607 0.5202674034
23900156600.0 -0.8640584386 0.5327428587
23950156300.0 -0.8539633241 0.5453434498
24000156000.0 -0.8449244431 0.5566224823
24050155700.0 -0.8354526649 0.5682167585
24100155400.0 -0.8252242472 0.5813295768
24150155100.0 -0.8150898238 0.5927368142
24200154800.0 -0.803658605 0.6039306376
24250154500.0 -0.7926724441 0.615963124
24300154200.0 -0.7810114763 0.6278001811
24350153900.0 -0.7691758766 0.6383380465
24400153600.0 -0.7574410048 0.6488956029
24450153300.0 -0.745769359 0.6586755786
24500153000.0 -0.7344099044 0.668777394
24550152700.0 -0.7233442076 0.6778517189
24600152400.0 -0.7113234659 0.6870796367
24650152100.0 -0.7000602344 0.6966839607
