!Created with skrf (http://scikit-rf.org).
# Hz S RI R 50.0 
!freq ReS11 ImS11
300000.0 -0.9807950425 -0.1016240961
50299700.0 -1.000181035 0.0164134904
100299400.0 -0.9982016302 0.0291656823
150299100.0 -1.002881372 0.0459425644
200298800.0 -0.9996187964 0.0593242268
250298500.0 -0.997571274 0.0729133225
300298200.0 -0.9859893205 0.0886145862
350297900.0 -0.9938941156 0.0996336902
400297600.0 -0.9933146062 0.1160346025
450297300.0 -0.9907808606 0.1298857439
500297000.0 -0.9893250786 0.1446168375
550296700.0 -0.9843553602 0.1572361124
600296400.0 -1.017174511 0.1905133944
650296100.0 -0.9819610427 0.187095743
700295800.0 -0.979452191 0.2014271265
750295500.0 -0.9761898021 0.2154005451
800295200.0 -0.9728445312 0.2294898491
850294900.0 -0.9694521226 0.2433795478
900294600.0 -0.9655725908 0.2571586071
950294300.0 -0.9617775834 0.2708284481
1000294000.0 -0.9578686534 0.2848183381
1050293700.0 -0.9532849886 0.2985766288
1100293400.0 -0.9488437474 0.3130204195
1150293100.0 -0.9453862234 0.3249443208
1200292800.0 -0.939612265 0.3393060177
1250292500.0 -0.9343058066 0.3525336804
1300292200.0 -0.9285371839 0.3658418471
1350291900.0 -0.9231894021 0.3797972923
1400291600.0 -0.9174153158 0.3931157315
1450291300.0 -0.9120423992 0.4052210025
1500291000.0 -0.9058598372 0.4187829139
1550290700.0 -0.8993230228 0.432026247
1600290400.0 -0.8931291399 0.4449893222
1650290100.0 -0.886421034 0.4570637258
1700289800.0 -0.8796082809 0.4703076478
1750289500.0 -0.8725031838 0.4828530511
1800289200.0 -0.8650899567 0.4954365114
1850288900.0 -0.8582228995 0.5068278157
1900288600.0 -0.8508927625 0.5199355822
1950288300.0 -0.8424464476 0.5324701843
2000288000.0 -0.8349227069 0.5439034152
2050287700.0 -0.8266570463 0.556295649
2100287400.0 -0.8187330717 0.5678350738
2150287100.0 -0.81026959 0.5800009779
2200286800.0 -0.8024339704 0.5904451079
2250286500.0 -0.7935484773 0.6022267802
2300286200.0 -0.7846696437 0.6140737576
2350285900.0 -0.7756659922 0.625129643
2400285600.0 -0.7667197726 0.6359730616
2450285300.0 -0.7580096878 0.6466479991
2500285000.0 -0.7483754578 0.6575530471
2550284700.0 -0.7394767008 0.667970371
2600284400.0 -0.7298526554 0.6781503729
2650284100.0 -0.7208173423 0.6889118853
2700283800.0 -0.7101309572 0.6993575698
2750283500.0 -0.7000651026 0.7097823562
2800283200.0 -0.690243543 0.7195415093
2850282900.0 -0.6802598725 0.7292728938
2900282600.0 -0.6696341068 0.7388586995
2950282300.0 -0.6595633556 0.74823976
3000282000.0 -0.6487326123 0.75755331
3050281700.0 -0.6376417747 0.7668694776
3100281400.0 -0.6259062243 0.7760924121
3150281100.0 -0.6139774009 0.7854100538
3200280800.0 -0.6023586926 0.7939437671
3250280500.0 -0.5916588758 0.8016236129
3300280200.0 -0.5804987983 0.8093696989
3350279900.0 -0.5690281781 0.8169866137
3400279600.0 -0.5567581661 0.8246964642
3450279300.0 -0.545739475 0.8318177429
3500279000.0 -0.5335715837 0.8388180164
3550278700.0 -0.5212803863 0.8463115453
3600278400.0 -0.5089467766 0.8534825977
3650278100.0 -0.4955902145 0.8608061964
3700277800.0 -0.4838336909 0.8675638214
3750277500.0 -0.471297529 0.8738113814
3800277200.0 -0.458709128 0.8805195161
3850276900.0 -0.4466341535 0.8865614478
3900276600.0 -0.4359731875 0.8920293383
3950276300.0 -0.4233730672 0.8981316409
4000276000.0 -0.4113004753 0.9042543583
4050275700.0 -0.3983509839 0.9102198014
4100275400.0 -0.3869009684 0.9155108592
4150275100.0 -0.3741700918 0.9212919959
4200274800.0 -0.3612189189 0.9265771294
4250274500.0 -0.349105189 0.9319376557
4300274200.0 -0.3358010948 0.9368880807
4350273900.0 -0.3221623434 0.9423384336
4400273600.0 -0.307288634 0.9475262659
4450273300.0 -0.2918879961 0.9526785119
4500273000.0 -0.2783339218 0.9568498911
4550272700.0 -0.2639231291 0.9611515119
4600272400.0 -0.2486875825 0.965365124
4650272100.0 -0.2368071093 0.9686226712
4700271800.0 -0.2234874086 0.9718916464
4750271500.0 -0.2118769324 0.9747532641
4800271200.0 -0.1992647953 0.9773573433
4850270900.0 -0.1854834758 0.980151771
4900270600.0 -0.1714540419 0.9828429961
4950270300.0 -0.1573985152 0.9851204587
5000270000.0 -0.1432817704 0.9873781788
5050269700.0 -0.1296997825 0.9891694977
5100269400.0 -0.116335815 0.9905835266
5150269100.0 -0.1029870479 0.9922462521
5200268800.0 -0.0897229212 0.9932473735
5250268500.0 -0.0767028376 0.9939369652
5300268200.0 -0.0634336971 0.994756912
5350267900.0 -0.051260085 0.9953577558
5400267600.0 -0.0351369982 0.9965652157
5450267300.0 -0.0222575344 0.9966899758
5500267000.0 -0.0070159248 0.9971993269
5550266700.0 0.0078898169 0.9972458508
5600266400.0 0.0235407449 0.9972597847
5650266100.0 0.0401311171 0.9971868642
5700265800.0 0.0545666598 0.9963802645
5750265500.0 0.0693533727 0.9952538674
5800265200.0 0.0836014066 0.9939786602
5850264900.0 0.0969639543 0.9930314916
5900264600.0 0.1135053964 0.9914239485
5950264300.0 0.1258086174 0.9899695856
6000264000.0 0.1398536977 0.9881322534
6050263700.0 0.1523193431 0.9860039935
6100263400.0 0.1648431976 0.9846383658
6150263100.0 0.1794226143 0.9821081786
6200262800.0 0.1897620662 0.9803961022
6250262500.0 0.2026873915 0.9777679133
6300262200.0 0.2155645266 0.9751653201
6350261900.0 0.2286848495 0.9721129317
6400261600.0 0.2425717397 0.9688315264
6450261300.0 0.254011696 0.9662514007
6500261000.0 0.2665921478 0.9626409115
6550260700.0 0.2795314533 0.9585928539
6600260400.0 0.2927021373 0.9544303847
6650260100.0 0.3068808685 0.9502614896
6700259800.0 0.3187595321 0.9461837794
6750259500.0 0.3329450984 0.9411372295
6800259200.0 0.34556657 0.9360862262
6850258900.0 0.3573960517 0.9310584134
6900258600.0 0.3697149148 0.9259184929
6950258300.0 0.3822725321 0.9207243763
7000258000.0 0.3942159926 0.9152129113
7050257700.0 0.4065370496 0.9093014634
7100257400.0 0.4192612921 0.9029468278
7150257100.0 0.4295074282 0.8977715783
7200256800.0 0.4423669456 0.8911180659
7250256500.0 0.4538584876 0.8850799684
7300256200.0 0.4670615779 0.8783191032
7350255900.0 0.4796396388 0.871607311
7400255600.0 0.4926468402 0.8644395184
7450255300.0 0.5075081374 0.8553752782
7500255000.0 0.5193070231 0.8481523728
7550254700.0 0.5328886551 0.8397798358
7600254400.0 0.545735315 0.8313833425
7650254100.0 0.5570921957 0.8232846195
7700253800.0 0.5692718358 0.8152382573
7750253500.0 0.5805393467 0.8075971672
7800253200.0 0.591125877 0.7997952277
7850252900.0 0.601054015 0.7926077301
7900252600.0 0.6127815016 0.7839627103
7950252300.0 0.6216912237 0.7772104919
8000252000.0 0.6317619086 0.769455236
8050251700.0 0.6424863883 0.761223044
8100251400.0 0.6522679534 0.7528318547
8150251100.0 0.6624499964 0.7441413072
8200250800.0 0.6719145206 0.7361650362
8250250500.0 0.6810463392 0.7282063506
8300250200.0 0.6903411648 0.7194875855
8350249900.0 0.6993449943 0.7107485853
8400249600.0 0.7075144638 0.702559064
8450249300.0 0.7168218932 0.6933464475
8500249000.0 0.7254026298 0.6846787494
8550248700.0 0.7337894491 0.6758037489
8600248400.0 0.7422335165 0.6661643213
8650248100.0 0.7499133471 0.6567276828
8700247800.0 0.7595552686 0.6456598172
8750247500.0 0.7676041947 0.6355831367
8800247200.0 0.7757289348 0.6250754717
8850246900.0 0.7843729904 0.6139254889
8900246600.0 0.7930755677 0.6025733901
8950246300.0 0.8025204708 0.5896670644
9000246000.0 0.8119635696 0.5770580577
9050245700.0 0.8207513986 0.5641437304
9100245400.0 0.8291925084 0.5516278907
9150245100.0 0.8383524313 0.5381157303
9200244800.0 0.8482315162 0.5227551583
9250244500.0 0.8576224367 0.5073333773
9300244200.0 0.8661669846 0.4927579902
9350243900.0 0.8737326258 0.4786694896
9400243600.0 0.8803881937 0.4662494003
9450243300.0 0.8864193631 0.4544462823
9500243000.0 0.8926876473 0.4419704321
9550242700.0 0.8964572659 0.4340424501
9600242400.0 0.9006340822 0.4265281174
9650242100.0 0.9040743777 0.4198916127
9700241800.0 0.908788203 0.4114408096
9750241500.0 0.9125882694 0.4039246239
9800241200.0 0.9172634126 0.3946727316
9850240900.0 0.9230886576 0.3830847776
9900240600.0 0.9282525878 0.3714246799
9950240300.0 0.9345875194 0.3554044803
10000240000.0 0.9396560284 0.3437102786
10050239700.0 0.9450992651 0.3284415639
10100239400.0 0.9500760762 0.3131555289
10150239100.0 0.9545647966 0.2983344209
10200238800.0 0.9586509023 0.2835769969
10250238500.0 0.9619074832 0.2701924202
10300238200.0 0.9649454144 0.2561971377
10350237900.0 0.9676056706 0.2433470539
10400237600.0 0.9703512018 0.2299411077
10450237300.0 0.9729210672 0.2164803611
10500237000.0 0.9750088567 0.2045628441
10550236700.0 0.9775947121 0.190705744
10600236400.0 0.9794853303 0.1770158557
10650236100.0 0.981456487 0.1625842718
10700235800.0 0.9837822497 0.1505384983
10750235500.0 0.9862970379 0.1372020163
10800235200.0 0.9876922692 0.1233861923
10850234900.0 0.9895149195 0.1090533171
10900234600.0 0.9919437939 0.0939956548
10950234300.0 0.9936200508 0.080916173
11000234000.0 0.99532949 0.0659686371
11050233700.0 0.9968601195 0.0496510804
11100233400.0 0.9981703197 0.032297591
11150233100.0 0.9992727614 0.0160653589
11200232800.0 0.9998765102 0.0006290648
11250232500.0 1.000824838 -0.0157807018
11300232200.0 1.001822136 -0.0331104036
11350231900.0 1.001025238 -0.049207216
11400231600.0 1.001077181 -0.0655718772
11450231300.0 1.000106233 -0.0812158075
11500231000.0 0.9992057465 -0.0979904499
11550230700.0 0.9982210995 -0.1102675521
11600230400.0 0.9967032056 -0.1238092599
11650230100.0 0.9944794596 -0.1349356282
11700229800.0 0.992404085 -0.1495554091
11750229500.0 0.9900540326 -0.1646404075
11800229200.0 0.987113006 -0.1786496471
11850228900.0 0.9836810875 -0.1911076785
11900228600.0 0.9799429634 -0.2006925127
11950228300.0 0.976969578 -0.2110174373
12000228000.0 0.9741402812 -0.2203250369
12050227700.0 0.9706299303 -0.2329489126
12100227400.0 0.9674998201 -0.2437457296
12150227100.0 0.9626360813 -0.261330707
12200226800.0 0.9586749431 -0.2723120313
12250226500.0 0.9554910801 -0.2847108352
12300226200.0 0.950815971 -0.2964272782
12350225900.0 0.9458455206 -0.3105435196
12400225600.0 0.9415288315 -0.3230326268
12450225300.0 0.9369397906 -0.3358896715
12500225000.0 0.9316885203 -0.3501808884
12550224700.0 0.9264252362 -0.363661542
12600224400.0 0.9216034827 -0.3762852568
12650224100.0 0.9159724405 -0.3905372811
12700223800.0 0.9106252823 -0.4033091668
12750223500.0 0.905097455 -0.4161580304
12800223200.0 0.8999080565 -0.4285655495
12850222900.0 0.8944350683 -0.440609411
12900222600.0 0.888511087 -0.4530940851
12950222300.0 0.882535644 -0.4655514015
13000222000.0 0.8764985944 -0.4772858
13050221700.0 0.8693239046 -0.4901696079
13100221400.0 0.8625093642 -0.502153112
13150221100.0 0.8559318074 -0.5142127958
13200220800.0 0.8487242168 -0.525870998
13250220500.0 0.8412329171 -0.5384896035
13300220200.0 0.8338958676 -0.54929008
13350219900.0 0.8257266464 -0.5613546228
13400219600.0 0.8173234731 -0.5734055799
13450219300.0 0.8077206194 -0.5872561956
13500219000.0 0.7974915908 -0.6013101581
13550218700.0 0.787047773 -0.6137779824
13600218400.0 0.7762202814 -0.6264687771
13650218100.0 0.7671565253 -0.63722482
13700217800.0 0.755973298 -0.6497304399
13750217500.0 0.7456238339 -0.6617098845
13800217200.0 0.7350382195 -0.6729532942
13850216900.0 0.7233485933 -0.6843670614
13900216600.0 0.7139046766 -0.6935223134
13950216300.0 0.7025601334 -0.7031392155
14000216000.0 0.6927101054 -0.7124674127
14050215700.0 0.6837838277 -0.7208762166
14100215400.0 0.6737663627 -0.7304366506
14150215100.0 0.6648468162 -0.7383871645
14200214800.0 0.6554260592 -0.7469019658
14250214500.0 0.6452984764 -0.7559770115
14300214200.0 0.635098359 -0.7651024532
14350213900.0 0.6242742088 -0.7745025057
14400213600.0 0.6123122201 -0.7844044666
14450213300.0 0.5997428033 -0.7943030994
14500213000.0 0.5864390258 -0.8044541627
14550212700.0 0.5742063333 -0.813430433
14600212400.0 0.5613962796 -0.8222321302
14650212100.0 0.5482852381 -0.8309400903
14700211800.0 0.5342974369 -0.8404179027
14750211500.0 0.5225878804 -0.8485544855
14800211200.0 0.5099789501 -0.8565249153
14850210900.0 0.4978905185 -0.8642948564
14900210600.0 0.4844770992 -0.8719747412
14950210300.0 0.4709945927 -0.8796974922
15000210000.0 0.4581051761 -0.8866339009
15050209700.0 0.4452414174 -0.8929434636
15100209400.0 0.4326328205 -0.8989724798
15150209100.0 0.4203142105 -0.9043022241
15200208800.0 0.4075940147 -0.9095334355
15250208500.0 0.395492753 -0.9141833759
15300208200.0 0.3836049402 -0.9192828341
15350207900.0 0.37008615 -0.9235978455
15400207600.0 0.3547043691 -0.9296314625
15450207300.0 0.3411378476 -0.9342386893
15500207000.0 0.3260489938 -0.9387443093
15550206700.0 0.3109115757 -0.9437143166
15600206400.0 0.2946970625 -0.9478513248
15650206100.0 0.2792376789 -0.9520728542
15700205800.0 0.2654575125 -0.9563610279
15750205500.0 0.25113763 -0.9597130902
15800205200.0 0.2368183699 -0.963036515
15850204900.0 0.2224242682 -0.9664648916
15900204600.0 0.2073519775 -0.969877364
15950204300.0 0.1933698021 -0.9729125216
16000204000.0 0.1795595679 -0.9757593069
16050203700.0 0.1646103757 -0.9784286214
16100203400.0 0.1501776245 -0.9802675172
16150203100.0 0.1364730272 -0.9827964333
16200202800.0 0.1223636065 -0.9850197207
16250202500.0 0.1079871419 -0.9862454767
16300202200.0 0.0924955455 -0.9878834047
16350201900.0 0.0778829017 -0.9895931549
16400201600.0 0.0631752522 -0.9903666968
16450201300.0 0.0479603773 -0.9911293178
16500201000.0 0.0313281934 -0.9921468625
16550200700.0 0.0156596705 -0.992619067
16600200400.0 -0.000116086 -0.9927389246
16650200100.0 -0.0162671628 -0.9926160566
16700199800.0 -0.0329424462 -0.9920238925
16750199500.0 -0.0516842053 -0.9918940171
16800199200.0 -0.0678159929 -0.9905169752
16850198900.0 -0.0833806277 -0.9890266702
16900198600.0 -0.0963794971 -0.9883328611
16950198300.0 -0.1104280803 -0.9874325021
17000198000.0 -0.1235379031 -0.9860365446
17050197700.0 -0.1369403612 -0.9834955033
17100197400.0 -0.1490678021 -0.9817785377
17150197100.0 -0.1622700884 -0.9795892873
17200196800.0 -0.1749973595 -0.9776117914
17250196500.0 -0.1877362583 -0.9750949961
17300196200.0 -0.1999486341 -0.972764352
17350195900.0 -0.2119386569 -0.970567606
17400195600.0 -0.2241412334 -0.9680947637
17450195300.0 -0.2372585735 -0.9651907534
17500195000.0 -0.2506331495 -0.961889812
17550194700.0 -0.2643736636 -0.9584145075
17600194400.0 -0.278433836 -0.954447972
17650194100.0 -0.2920295515 -0.9500329842
17700193800.0 -0.3048612812 -0.9457240099
17750193500.0 -0.3190845338 -0.9412996077
17800193200.0 -0.3332919062 -0.9362154994
17850192900.0 -0.3485295057 -0.9308976452
17900192600.0 -0.363386437 -0.9245074831
17950192300.0 -0.3786939032 -0.9177461752
18000192000.0 -0.3930823501 -0.9105427097
18050191700.0 -0.4072632341 -0.9025831193
18100191400.0 -0.4213672461 -0.8949326288
18150191100.0 -0.436157792 -0.8870858222
18200190800.0 -0.4531095731 -0.8778866196
18250190500.0 -0.4698976518 -0.8684089374
18300190200.0 -0.4851161373 -0.8596729862
18350189900.0 -0.500246366 -0.8510287149
18400189600.0 -0.5148237188 -0.8429464374
18450189300.0 -0.5278177667 -0.8346509899
18500189000.0 -0.5413374539 -0.8267174665
18550188700.0 -0.5541565842 -0.819069283
18600188400.0 -0.5657630302 -0.8122460227
18650188100.0 -0.576983296 -0.8054623479
18700187800.0 -0.5880448759 -0.7986976624
18750187500.0 -0.599137135 -0.7917646764
18800187200.0 -0.6099846115 -0.7845572838
18850186900.0 -0.6201190454 -0.7774014656
18900186600.0 -0.6305942203 -0.7701219237
18950186300.0 -0.6408651519 -0.7621667053
19000186000.0 -0.64820156 -0.7557688766
19050185700.0 -0.6575564615 -0.74846431
19100185400.0 -0.6677165587 -0.7397533921
19150185100.0 -0.6780363475 -0.7311403466
19200184800.0 -0.6872254443 -0.7229414877
19250184500.0 -0.6976634975 -0.7133643613
19300184200.0 -0.7089210736 -0.7036863067
19350183900.0 -0.7202147138 -0.6947789903
19400183600.0 -0.7299344596 -0.6850472066
19450183300.0 -0.7377574878 -0.6743016365
19500183000.0 -0.7468300671 -0.6649858179
19550182700.0 -0.7563336481 -0.6536792814
19600182400.0 -0.7666421661 -0.641900833
19650182100.0 -0.777137781 -0.6298497521
19700181800.0 -0.7875945285 -0.6167298938
19750181500.0 -0.7977369885 -0.6028564672
19800181200.0 -0.8080150793 -0.587986587
19850180900.0 -0.8173726348 -0.5728851777
19900180600.0 -0.825115192 -0.5586773653
19950180300.0 -0.8343918418 -0.5425067073
20000180000.0 -0.8277229441 -0.5443521061
20050179700.0 -0.8356070683 -0.5302964538
20100179400.0 -0.8440819713 -0.5170829168
20150179100.0 -0.8516816572 -0.5056942829
20200178800.0 -0.8606211024 -0.4917456841
20250178500.0 -0.8702437566 -0.4790657403
20300178200.0 -0.8795869838 -0.4647340944
20350177900.0 -0.8882068153 -0.4502653384
20400177600.0 -0.8970690868 -0.435273652
20450177300.0 -0.9054485975 -0.4211857253
20500177000.0 -0.9132845027 -0.4071483706
20550176700.0 -0.9211149774 -0.3938591881
20600176400.0 -0.9280733215 -0.3804959375
20650176100.0 -0.9348672171 -0.368242629
20700175800.0 -0.9416665219 -0.3563055742
20750175500.0 -0.948290946 -0.3442594461
20800175200.0 -0.9534381272 -0.3327389187
20850174900.0 -0.9572074666 -0.3215355553
20900174600.0 -0.9622152445 -0.3100318388
20950174300.0 -0.9660165731 -0.2980560871
21000174000.0 -0.9697131988 -0.2871326213
21050173700.0 -0.9729085563 -0.2756543615
21100173400.0 -0.9772773382 -0.2637140432
21150173100.0 -0.9810228241 -0.2508088293
21200172800.0 -0.9846540383 -0.236835347
21250172500.0 -0.9874920456 -0.223109796
21300172200.0 -0.9907998058 -0.2081852629
21350171900.0 -0.9920847868 -0.1946998825
21400171600.0 -0.9937263311 -0.1798234756
21450171300.0 -0.9941753318 -0.1657009952
21500171000.0 -0.9931581458 -0.149996097
21550170700.0 -0.9941678871 -0.1346413077
21600170400.0 -0.9931844472 -0.1191950819
21650170100.0 -0.9924717925 -0.1035481348
21700169800.0 -0.9904644046 -0.0883791993
21750169500.0 -0.9894154673 -0.0725941897
21800169200.0 -0.9881753308 -0.0569024547
21850168900.0 -0.9872337585 -0.0401448221
21900168600.0 -0.9855970106 -0.0239554791
21950168300.0 -0.9842513101 -0.0089244356
22000168000.0 -0.9830235025 0.0062986471
22050167700.0 -0.9826431969 0.0203445098
22100167400.0 -0.9824297804 0.0353416623
22150167100.0 -0.983038645 0.0509405866
22200166800.0 -0.9832494212 0.0672348242
22250166500.0 -0.9828405339 0.0841481273
22300166200.0 -0.9823712519 0.1001825895
22350165900.0 -0.9803658677 0.1171269858
22400165600.0 -0.9789385656 0.1319903725
22450165300.0 -0.9767732548 0.1478709782
22500165000.0 -0.9740605197 0.1609829841
22550164700.0 -0.9736679606 0.1762420427
22600164400.0 -0.9725622838 0.1921032385
22650164100.0 -0.9699212357 0.206980716
22700163800.0 -0.9676618061 0.2231340668
22750163500.0 -0.9648128875 0.2375093942
22800163200.0 -0.9623519054 0.2516383442
22850162900.0 -0.9594442103 0.2649808158
22900162600.0 -0.9582334676 0.2784228587
22950162300.0 -0.9568970646 0.2912592966
23000162000.0 -0.9562978318 0.3031465116
23050161700.0 -0.9541726755 0.3152494295
23100161400.0 -0.9516865313 0.3281554766
23150161100.0 -0.9489912704 0.3405463962
23200160800.0 -0.9453072335 0.3532990658
23250160500.0 -0.9441853657 0.364483319
23300160200.0 -0.9411537745 0.3769777809
23350159900.0 -0.936832383 0.3896299239
23400159600.0 -0.9321455189 0.4025791929
23450159300.0 -0.9274431827 0.4153163191
23500159000.0 -0.9231783528 0.4282003
23550158700.0 -0.9184568625 0.4415421624
23600158400.0 -0.9129358966 0.4546842181
23650158100.0 -0.9067144002 0.4683139682
23700157800.0 -0.8992459712 0.482110355
23750157500.0 -0.8902485249 0.4961431966
23800157200.0 -0.8815601689 0.5093161226
23850156900.0 -0.8732453811 0.522219363
23900156600.0 -0.8638795766 0.5342216156
23950156300.0 -0.8551165423 0.546658888
24000156000.0 -0.8451527491 0.5583447585
24050155700.0 -0.8352554723 0.5700406103
24100155400.0 -0.8252480262 0.582059825
24150155100.0 -0.8153158245 0.5934756613
24200154800.0 -0.8032233354 0.6046784214
24250154500.0 -0.7923455981 0.6168947464
24300154200.0 -0.7807412743 0.6286976117
24350153900.0 -0.768845196 0.6397735859
24400153600.0 -0.756731731 0.6494404081
24450153300.0 -0.7448852963 0.6597165438
24500153000.0 -0.733794188 0.6696624005
24550152700.0 -0.7223895561 0.6793716506
24600152400.0 -0.7103854478 0.688748874
24650152100.0 -0.699643295 0.6968305925
