!Created with skrf (http://scikit-rf.org).
# Hz S RI R 50.0 
!freq ReS11 ImS11
300000.0 -0.9740697264 -0.1206291422
50299700.0 -0.9999795905 0.0149968046
100299400.0 -0.9979319881 0.0279645015
150299100.0 -1.002681415 0.0449153498
200298800.0 -0.9995869186 0.0579996333
250298500.0 -0.9974680201 0.0715952607
300298200.0 -0.985934255 0.087541071
350297900.0 -0.9940590487 0.098338723
400297600.0 -0.9929579572 0.1148241663
450297300.0 -0.9911516263 0.1286255119
500297000.0 -0.9893819862 0.1433438269
550296700.0 -0.9842362119 0.1557798972
600296400.0 -1.01730522 0.1891093639
650296100.0 -0.9822722147 0.1857884042
700295800.0 -0.979111797 0.2001145484
750295500.0 -0.9761648197 0.2139708136
800295200.0 -0.9730984707 0.2279699984
850294900.0 -0.9696411194 0.2418472752
900294600.0 -0.9656241625 0.2556603512
950294300.0 -0.9622011779 0.2694082715
1000294000.0 -0.9582192958 0.283299782
1050293700.0 -0.9537418721 0.2969296496
1100293400.0 -0.9492744412 0.3115533926
1150293100.0 -0.9455652557 0.323334204
1200292800.0 -0.9401706102 0.3377770844
1250292500.0 -0.9346840531 0.3512605002
1300292200.0 -0.9290261491 0.3644142281
1350291900.0 -0.92332548 0.3784202315
1400291600.0 -0.9178812643 0.39163457
1450291300.0 -0.9125784642 0.4037964581
1500291000.0 -0.9062730556 0.4174479573
1550290700.0 -0.8997186227 0.430704807
1600290400.0 -0.8935090364 0.4436781735
1650290100.0 -0.8868063402 0.4557695118
1700289800.0 -0.8799012733 0.4691687861
1750289500.0 -0.8729757759 0.4814176693
1800289200.0 -0.8656232036 0.494328123
1850288900.0 -0.8586525613 0.5056470451
1900288600.0 -0.8510524295 0.5186222544
1950288300.0 -0.842869717 0.5311938507
2000288000.0 -0.8355077428 0.542796876
2050287700.0 -0.827216785 0.5553268331
2100287400.0 -0.8194526838 0.5666562694
2150287100.0 -0.8110697469 0.5785980961
2200286800.0 -0.8030603 0.5892501235
2250286500.0 -0.7941167008 0.6012830395
2300286200.0 -0.7852890065 0.612838963
2350285900.0 -0.7769030475 0.6236288901
2400285600.0 -0.7678569489 0.6345816607
2450285300.0 -0.7591664968 0.6451099515
2500285000.0 -0.7493445861 0.6565380627
2550284700.0 -0.7401507388 0.6668541358
2600284400.0 -0.731039534 0.6769079217
2650284100.0 -0.7223114581 0.6871287845
2700283800.0 -0.7117221639 0.6975159946
2750283500.0 -0.7018040715 0.708214141
2800283200.0 -0.6917600934 0.7181007814
2850282900.0 -0.6810263603 0.7279861193
2900282600.0 -0.6708296183 0.7380371882
2950282300.0 -0.6602454378 0.747189734
3000282000.0 -0.6495823744 0.7565641179
3050281700.0 -0.6384007424 0.7658783575
3100281400.0 -0.6268605933 0.7750705987
3150281100.0 -0.615494172 0.7838735269
3200280800.0 -0.6041594052 0.7923172234
3250280500.0 -0.5930568033 0.8003136778
3300280200.0 -0.5814181704 0.8084414446
3350279900.0 -0.5693213829 0.8164541502
3400279600.0 -0.5566345559 0.8245598319
3450279300.0 -0.5458027873 0.831840688
3500279000.0 -0.5338271734 0.8384181323
3550278700.0 -0.522003034 0.8456658119
3600278400.0 -0.5098047018 0.8522589483
3650278100.0 -0.4968349303 0.8601349425
3700277800.0 -0.4848038007 0.8667340019
3750277500.0 -0.4723325857 0.8733192304
3800277200.0 -0.4597568742 0.8797237884
3850276900.0 -0.4479457375 0.8855725354
3900276600.0 -0.4368984921 0.8912458092
3950276300.0 -0.4246664824 0.8973185663
4000276000.0 -0.4131661093 0.9030275255
4050275700.0 -0.4003976839 0.9091617214
4100275400.0 -0.3893781807 0.9145103944
4150275100.0 -0.3760755659 0.9205859135
4200274800.0 -0.36288348 0.9261078069
4250274500.0 -0.3500630064 0.9313356872
4300274200.0 -0.3367675726 0.9370412172
4350273900.0 -0.3225971756 0.942000063
4400273600.0 -0.3077885481 0.9471667433
4450273300.0 -0.2931411229 0.9520825794
4500273000.0 -0.2797887101 0.9563465686
4550272700.0 -0.2661505413 0.9606257154
4600272400.0 -0.2510637172 0.964620666
4650272100.0 -0.2395231893 0.9677951254
4700271800.0 -0.2266739081 0.9711221251
4750271500.0 -0.2151673967 0.9740462912
4800271200.0 -0.2028733534 0.9766149977
4850270900.0 -0.1891207917 0.9795366554
4900270600.0 -0.1751881814 0.9819283132
4950270300.0 -0.1607450466 0.9846028878
5000270000.0 -0.1461270132 0.9866046073
5050269700.0 -0.1328777229 0.9882074917
5100269400.0 -0.1186488118 0.9899031485
5150269100.0 -0.104725592 0.9920667217
5200268800.0 -0.091278672 0.9926989831
5250268500.0 -0.0781721372 0.9940390792
5300268200.0 -0.0648528628 0.9945670046
5350267900.0 -0.0517769691 0.9951274875
5400267600.0 -0.0354903482 0.9966003044
5450267300.0 -0.022336831 0.9968867814
5500267000.0 -0.0069705891 0.9969532992
5550266700.0 0.0077514314 0.9971214487
5600266400.0 0.0237991601 0.9972276268
5650266100.0 0.0403016862 0.9968895026
5700265800.0 0.0542054886 0.9958586862
5750265500.0 0.0699226358 0.9954377282
5800265200.0 0.0830189532 0.9938258233
5850264900.0 0.0962950706 0.9933758111
5900264600.0 0.1128196386 0.9911942346
5950264300.0 0.1243945631 0.9895850247
6000264000.0 0.137979967 0.9875837122
6050263700.0 0.149418242 0.986209579
6100263400.0 0.1620454898 0.985021876
6150263100.0 0.1765426887 0.9827866103
6200262800.0 0.186395261 0.981089909
6250262500.0 0.19879241 0.9786861243
6300262200.0 0.2110942791 0.9761491893
6350261900.0 0.2239618847 0.9735344251
6400261600.0 0.2378063722 0.970105806
6450261300.0 0.2489913675 0.9678265783
6500261000.0 0.2624799825 0.9640209329
6550260700.0 0.2751613355 0.9600832462
6600260400.0 0.2885717768 0.9559496063
6650260100.0 0.3029304997 0.9515367421
6700259800.0 0.31506601 0.9475676929
6750259500.0 0.3284133986 0.9423906921
6800259200.0 0.3423937205 0.9373454443
6850258900.0 0.3546367948 0.9320815944
6900258600.0 0.3671407648 0.9270059105
6950258300.0 0.3795397192 0.9215617448
7000258000.0 0.3912034171 0.9163385166
7050257700.0 0.4031258338 0.9103202228
7100257400.0 0.4164935025 0.9040179664
7150257100.0 0.4272771814 0.898611891
7200256800.0 0.4405524101 0.8920651471
7250256500.0 0.452946384 0.8855779211
7300256200.0 0.4659582716 0.8790257292
7350255900.0 0.4786507915 0.8719830654
7400255600.0 0.4930503576 0.8646262376
7450255300.0 0.5083896062 0.8550340366
7500255000.0 0.5205434734 0.8475233132
7550254700.0 0.5345152551 0.8382376934
7600254400.0 0.5475643928 0.830045077
7650254100.0 0.5590259326 0.8224442942
7700253800.0 0.5706589173 0.8144129036
7750253500.0 0.581790655 0.8065024115
7800253200.0 0.5924123811 0.7989014711
7850252900.0 0.6020818953 0.7916545644
7900252600.0 0.6134358342 0.7829263801
7950252300.0 0.622104716 0.7764645801
8000252000.0 0.6321768597 0.7689256017
8050251700.0 0.6425487347 0.7606306474
8100251400.0 0.6523423296 0.7528630256
8150251100.0 0.6623152671 0.7442923596
8200250800.0 0.6718114258 0.7360193364
8250250500.0 0.6807965401 0.7282215911
8300250200.0 0.6897918093 0.7199651002
8350249900.0 0.6989484486 0.710986772
8400249600.0 0.7071461158 0.7031742254
8450249300.0 0.7158207743 0.6942845256
8500249000.0 0.724422045 0.6854268193
8550248700.0 0.7326094302 0.6764489806
8600248400.0 0.7410634664 0.6667964384
8650248100.0 0.7486062556 0.6575830953
8700247800.0 0.7580983188 0.646393772
8750247500.0 0.7663647827 0.6360876553
8800247200.0 0.7740672856 0.626023148
8850246900.0 0.782766122 0.6145357229
8900246600.0 0.7911046578 0.6031947221
8950246300.0 0.8007078545 0.5904531205
9000246000.0 0.8091540269 0.5786419089
9050245700.0 0.8178173807 0.5661794739
9100245400.0 0.8260652253 0.5542368177
9150245100.0 0.834778066 0.5410118473
9200244800.0 0.8445053747 0.5266787211
9250244500.0 0.8535935755 0.5119496757
9300244200.0 0.8614615259 0.4984054729
9350243900.0 0.8692155538 0.4851503162
9400243600.0 0.8757263566 0.4734454812
9450243300.0 0.8813567225 0.4628789221
9500243000.0 0.8876427365 0.4511266386
9550242700.0 0.8916780198 0.4435200754
9600242400.0 0.8960149949 0.4359546463
9650242100.0 0.8998796502 0.4291158382
9700241800.0 0.904898223 0.4207531764
9750241500.0 0.9091529805 0.4127602488
9800241200.0 0.9142140557 0.4035096859
9850240900.0 0.9200568619 0.3916829019
9900240600.0 0.9259654642 0.3797472531
9950240300.0 0.9329206963 0.3630312883
10000240000.0 0.9379079445 0.3511757518
10050239700.0 0.9440405479 0.3351641299
10100239400.0 0.9490372537 0.3188197677
10150239100.0 0.9539380744 0.3032441831
10200238800.0 0.9581935754 0.2878481256
10250238500.0 0.9614275602 0.2743569127
10300238200.0 0.9646599139 0.2603669381
10350237900.0 0.9673516275 0.2471838911
10400237600.0 0.970023513 0.2334709992
10450237300.0 0.9729071807 0.2198943454
10500237000.0 0.9748531144 0.2073322274
10550236700.0 0.9772626662 0.1932207267
10600236400.0 0.9794957488 0.1794471038
10650236100.0 0.98168776 0.1640612293
10700235800.0 0.9837469379 0.1521097299
10750235500.0 0.9859254051 0.1392697844
10800235200.0 0.9878421439 0.1239712664
10850234900.0 0.9898028818 0.1098015789
10900234600.0 0.992025841 0.0948080242
10950234300.0 0.9937985495 0.0813165487
11000234000.0 0.9955784436 0.0655410886
11050233700.0 0.9973825438 0.0489550499
11100233400.0 0.9988035728 0.0314864996
11150233100.0 1.000424553 0.0143611021
11200232800.0 1.000821213 -0.0012631491
11250232500.0 1.001644202 -0.0188652273
11300232200.0 1.002066067 -0.0377327654
11350231900.0 1.002395534 -0.0535129271
11400231600.0 1.001472401 -0.0682890071
11450231300.0 1.000937012 -0.0847141497
11500231000.0 1.000156008 -0.1011271872
11550230700.0 0.9985734814 -0.1144936683
11600230400.0 0.9970089817 -0.127107012
11650230100.0 0.9948482848 -0.1387155085
11700229800.0 0.9923751985 -0.1538780126
11750229500.0 0.9901286219 -0.167653203
11800229200.0 0.987411121 -0.1811081587
11850228900.0 0.9837688813 -0.1929921016
11900228600.0 0.9800402209 -0.2027575296
11950228300.0 0.9765958736 -0.2129770577
12000228000.0 0.9741571816 -0.2215413528
12050227700.0 0.9701315787 -0.2340588226
12100227400.0 0.966503136 -0.2459248062
12150227100.0 0.9620599755 -0.2616950449
12200226800.0 0.958037093 -0.2730178774
12250226500.0 0.9538957737 -0.2856659126
12300226200.0 0.9497300943 -0.2976682591
12350225900.0 0.9449538013 -0.3117442976
12400225600.0 0.9402945937 -0.324265427
12450225300.0 0.9359179351 -0.3369346609
12500225000.0 0.9303078353 -0.3516810316
12550224700.0 0.9251063707 -0.3649143903
12600224400.0 0.9201446451 -0.3779470903
12650224100.0 0.9142807034 -0.3923899811
12700223800.0 0.9090020066 -0.4051086265
12750223500.0 0.9036554887 -0.4180346174
12800223200.0 0.898107092 -0.4308323612
12850222900.0 0.8931804795 -0.4430306413
12900222600.0 0.8873863774 -0.4550025795
12950222300.0 0.8812476933 -0.4675688547
13000222000.0 0.8749173064 -0.4793176973
13050221700.0 0.8683309063 -0.4927838979
13100221400.0 0.861583111 -0.5041551806
13150221100.0 0.8548155379 -0.5163115342
13200220800.0 0.8480043143 -0.528064286
13250220500.0 0.8405030117 -0.5401219744
13300220200.0 0.832969692 -0.551037232
13350219900.0 0.8248589673 -0.5629260565
13400219600.0 0.8164577801 -0.5748899457
13450219300.0 0.8074775471 -0.5877999388
13500219000.0 0.7975095844 -0.6010864945
13550218700.0 0.787454925 -0.613372001
13600218400.0 0.7778271585 -0.6248223515
13650218100.0 0.7678497392 -0.6362950669
13700217800.0 0.7572208163 -0.6480997944
13750217500.0 0.7473307141 -0.6596303333
13800217200.0 0.7369872241 -0.6706743423
13850216900.0 0.7258425676 -0.6816837893
13900216600.0 0.7155441751 -0.6904876286
13950216300.0 0.7052069408 -0.7002624249
14000216000.0 0.6953904869 -0.7091172621
14050215700.0 0.6865901869 -0.7172267788
14100215400.0 0.6767516936 -0.7263700829
14150215100.0 0.6679245885 -0.7350128807
14200214800.0 0.65805805 -0.7439640296
14250214500.0 0.6476848223 -0.7534966862
14300214200.0 0.6372028036 -0.762894435
14350213900.0 0.6262644094 -0.7724280637
14400213600.0 0.6144927606 -0.7824287484
14450213300.0 0.6014260175 -0.7925050883
14500213000.0 0.5884497678 -0.8024272962
14550212700.0 0.5759994716 -0.8119677656
14600212400.0 0.5632587997 -0.8205222131
14650212100.0 0.5508819149 -0.8295209271
14700211800.0 0.5372434381 -0.8391040178
14750211500.0 0.5246574544 -0.8471825029
14800211200.0 0.5123179792 -0.855301475
14850210900.0 0.5001595826 -0.8626921067
14900210600.0 0.486829349 -0.8708227052
14950210300.0 0.4734537454 -0.8785098961
15000210000.0 0.4610022536 -0.885350145
15050209700.0 0.4484893969 -0.8915761081
15100209400.0 0.4350114286 -0.8974967401
15150209100.0 0.4234972021 -0.9028851278
15200208800.0 0.4111536858 -0.9082022848
15250208500.0 0.3998035684 -0.9125323726
15300208200.0 0.3880444042 -0.9172504768
15350207900.0 0.3740088972 -0.9222535047
15400207600.0 0.3590245172 -0.9278465474
15450207300.0 0.3446168351 -0.9327173734
15500207000.0 0.3299634541 -0.937211069
15550206700.0 0.3151558478 -0.9424077374
15600206400.0 0.2993171837 -0.9468425759
15650206100.0 0.2835986275 -0.9509646191
15700205800.0 0.2704405598 -0.9544805318
15750205500.0 0.2563187581 -0.9579786779
15800205200.0 0.2422244722 -0.9612991655
15850204900.0 0.2280684931 -0.964679298
15900204600.0 0.2129663003 -0.9683731155
15950204300.0 0.1986558943 -0.9716081606
16000204000.0 0.1846494594 -0.9746217985
16050203700.0 0.1691419385 -0.9773256703
16100203400.0 0.1548747347 -0.9797321885
16150203100.0 0.1399948138 -0.9822078987
16200202800.0 0.1259822473 -0.9844834421
16250202500.0 0.1104582813 -0.9862445181
16300202200.0 0.0950816209 -0.9873690473
16350201900.0 0.0801368898 -0.9889835156
16400201600.0 0.0651787449 -0.9902135249
16450201300.0 0.0499067376 -0.9912120784
16500201000.0 0.0329534677 -0.9921652754
16550200700.0 0.0167643134 -0.9925650997
16600200400.0 0.0010232373 -0.9926953718
16650200100.0 -0.0150499248 -0.9926465096
16700199800.0 -0.0317253934 -0.9924036238
16750199500.0 -0.0501948572 -0.9918674367
16800199200.0 -0.0665727136 -0.9907971366
16850198900.0 -0.0817799998 -0.9894743101
16900198600.0 -0.0959467201 -0.988171207
16950198300.0 -0.1097775067 -0.9872691328
17000198000.0 -0.1230844149 -0.9859125344
17050197700.0 -0.1355369962 -0.9843228456
17100197400.0 -0.1489246509 -0.9822527503
17150197100.0 -0.1609888128 -0.9800471788
17200196800.0 -0.1742270471 -0.9779662937
17250196500.0 -0.1873096214 -0.9758117738
17300196200.0 -0.1994618719 -0.9733618389
17350195900.0 -0.2109289773 -0.9708737307
17400195600.0 -0.2228527909 -0.9682456209
17450195300.0 -0.2357321623 -0.9654065472
17500195000.0 -0.2490525959 -0.9621728046
17550194700.0 -0.262636632 -0.9585441476
17600194400.0 -0.2768249892 -0.9548465497
17650194100.0 -0.2900858877 -0.9504101737
17700193800.0 -0.3032560751 -0.9467612197
17750193500.0 -0.3171742866 -0.9418581458
17800193200.0 -0.331272907 -0.9370334741
17850192900.0 -0.3459136882 -0.9310212443
17900192600.0 -0.3614930905 -0.9252211947
17950192300.0 -0.376821497 -0.9181698385
18000192000.0 -0.3917639823 -0.9109454565
18050191700.0 -0.4055756897 -0.9028831458
18100191400.0 -0.4198262624 -0.895206885
18150191100.0 -0.4345392997 -0.8872542699
18200190800.0 -0.4515882169 -0.8781847179
18250190500.0 -0.4681205655 -0.8686591681
18300190200.0 -0.4838533961 -0.8602414131
18350189900.0 -0.499126728 -0.8516978969
18400189600.0 -0.5131557413 -0.8427814628
18450189300.0 -0.5276403566 -0.835367972
18500189000.0 -0.5405956208 -0.8273056441
18550188700.0 -0.5534176066 -0.819644833
18600188400.0 -0.565320082 -0.8124592882
18650188100.0 -0.5769753579 -0.805581941
18700187800.0 -0.587525861 -0.7990458284
18750187500.0 -0.5984286276 -0.7926340275
18800187200.0 -0.6093786703 -0.7856124547
18850186900.0 -0.6194183715 -0.7787245666
18900186600.0 -0.6297422125 -0.77136129
18950186300.0 -0.6397797051 -0.7637161325
19000186000.0 -0.646985103 -0.7576647914
19050185700.0 -0.6563440825 -0.7508110967
19100185400.0 -0.6667328612 -0.7419260429
19150185100.0 -0.6770769519 -0.7335774726
19200184800.0 -0.6859682324 -0.7254279854
19250184500.0 -0.6962814419 -0.7163510935
19300184200.0 -0.7071083129 -0.7060786764
19350183900.0 -0.718808041 -0.6966993184
19400183600.0 -0.7280750204 -0.6871605499
19450183300.0 -0.737166916 -0.6769299065
19500183000.0 -0.7454787677 -0.6669180141
19550182700.0 -0.7551585128 -0.6555001889
19600182400.0 -0.7646711719 -0.6443979815
19650182100.0 -0.7756389511 -0.632486542
19700181800.0 -0.7863045527 -0.6188886446
19750181500.0 -0.7965620634 -0.6046974306
19800181200.0 -0.8067232543 -0.5898538928
19850180900.0 -0.816469791 -0.5744560972
19900180600.0 -0.8241966931 -0.5599739787
19950180300.0 -0.8335256757 -0.5438218771
20000180000.0 -0.8237461975 -0.547364126
20050179700.0 -0.8311453047 -0.5348812986
20100179400.0 -0.8391216117 -0.5214447723
20150179100.0 -0.8478495519 -0.5099758889
20200178800.0 -0.856418536 -0.4984650772
20250178500.0 -0.8653984197 -0.4856892927
20300178200.0 -0.8753060111 -0.4715428231
20350177900.0 -0.8849329493 -0.4574214703
20400177600.0 -0.8936162904 -0.4434907752
20450177300.0 -0.9021119411 -0.4293424157
20500177000.0 -0.9101394557 -0.4154850352
20550176700.0 -0.9178367046 -0.401777024
20600176400.0 -0.9252278578 -0.3890047093
20650176100.0 -0.9314885176 -0.3768582446
20700175800.0 -0.9385650333 -0.3647534764
20750175500.0 -0.944910162 -0.3534639443
20800175200.0 -0.9491842465 -0.3420523394
20850174900.0 -0.9530133359 -0.3318003296
20900174600.0 -0.9576182713 -0.3216310042
20950174300.0 -0.9611832426 -0.3095165556
21000174000.0 -0.9635778877 -0.2981301456
21050173700.0 -0.9659137884 -0.2885951686
21100173400.0 -0.9692144575 -0.2782869121
21150173100.0 -0.9728643326 -0.266339965
21200172800.0 -0.9775116925 -0.2529734085
21250172500.0 -0.9808880628 -0.2391737846
21300172200.0 -0.9843322771 -0.2253359975
21350171900.0 -0.9861872534 -0.2111487899
21400171600.0 -0.9880359785 -0.1970142619
21450171300.0 -0.9885489585 -0.1821769372
21500171000.0 -0.9893021321 -0.1672491304
21550170700.0 -0.9891778343 -0.1519656756
21600170400.0 -0.9905069504 -0.1372222474
21650170100.0 -0.9906430721 -0.1209824714
21700169800.0 -0.9908730079 -0.1060387252
21750169500.0 -0.9894398697 -0.0898539653
21800169200.0 -0.9896460532 -0.0739492449
21850168900.0 -0.9896984119 -0.0560849186
21900168600.0 -0.9890433988 -0.0408524
21950168300.0 -0.9882193836 -0.0247076745
22000168000.0 -0.9887086948 -0.0096220144
22050167700.0 -0.9891321171 0.0048258624
22100167400.0 -0.9899827777 0.0205924242
22150167100.0 -0.990636505 0.0366215749
22200166800.0 -0.9914417836 0.053158107
22250166500.0 -0.9908698543 0.0703362565
22300166200.0 -0.9904615082 0.0870969582
22350165900.0 -0.9895177898 0.1029741474
22400165600.0 -0.9871350349 0.1177077199
22450165300.0 -0.9861731305 0.1337373726
22500165000.0 -0.9843300671 0.1470778666
22550164700.0 -0.9823100927 0.1638210891
22600164400.0 -0.9808067354 0.180419209
22650164100.0 -0.9776074787 0.1959284778
22700163800.0 -0.9746541767 0.210968955
22750163500.0 -0.9723056519 0.226538352
22800163200.0 -0.9687491733 0.2391287109
22850162900.0 -0.9663813261 0.2525862597
22900162600.0 -0.9646017222 0.2668745327
22950162300.0 -0.9627365072 0.2806147984
23000162000.0 -0.9610540518 0.2930789714
23050161700.0 -0.9584619997 0.306104576
23100161400.0 -0.9553547154 0.3197413239
23150161100.0 -0.9528425095 0.3329140238
23200160800.0 -0.9494367139 0.3460492969
23250160500.0 -0.946779073 0.357947002
23300160200.0 -0.943885132 0.370877409
23350159900.0 -0.9404929011 0.3843931438
23400159600.0 -0.9351364307 0.3978777741
23450159300.0 -0.930079223 0.4119157115
23500159000.0 -0.9250857763 0.4254032194
23550158700.0 -0.9205273252 0.4396831577
23600158400.0 -0.9145008205 0.4536160076
23650158100.0 -0.9072299005 0.4680648033
23700157800.0 -0.8986890775 0.482304071
23750157500.0 -0.8895546723 0.4967399889
23800157200.0 -0.8797193314 0.5101700603
23850156900.0 -0.8701592456 0.5226830825
23900156600.0 -0.8600512961 0.5349262254
23950156300.0 -0.8505694628 0.5477488858
24000156000.0 -0.8412100719 0.560748212
24050155700.0 -0.830692825 0.5724273616
24100155400.0 -0.8204180621 0.5847406755
24150155100.0 -0.8091864695 0.5974622293
24200154800.0 -0.7984982098 0.6081692326
24250154500.0 -0.7871319259 0.6214743479
24300154200.0 -0.7760154796 0.6331392481
24350153900.0 -0.7640539385 0.6440414696
24400153600.0 -0.7512209938 0.6545294684
24450153300.0 -0.7388521395 0.6649280023
24500153000.0 -0.7277693148 0.6751895748
24550152700.0 -0.7162411197 0.685502885
24600152400.0 -0.7046170255 0.6945747744
24650152100.0 -0.6920788442 0.7028583802
