!Created with skrf (http://scikit-rf.org).
# Hz S RI R 50.0 
!freq ReS11 ImS11
300000.0 -0.9731883851 -0.122223188
50299700.0 -1.000024669 0.0148414454
100299400.0 -0.9980664501 0.0277948667
150299100.0 -1.002770966 0.0447711681
200298800.0 -0.9995464309 0.0580004746
250298500.0 -0.9975491875 0.0715693951
300298200.0 -0.9859440275 0.0873466715
350297900.0 -0.9940438015 0.0982827561
400297600.0 -0.9930297454 0.1149883843
450297300.0 -0.9909581818 0.1285563212
500297000.0 -0.9894282238 0.143416897
550296700.0 -0.9842089812 0.1556694465
600296400.0 -1.017397367 0.189033852
650296100.0 -0.9822634932 0.1856193358
700295800.0 -0.9792040824 0.199870737
750295500.0 -0.9761895874 0.2139045877
800295200.0 -0.972893459 0.2279781759
850294900.0 -0.9696312924 0.2417438211
900294600.0 -0.9659127769 0.255622186
950294300.0 -0.9621511623 0.269330236
1000294000.0 -0.9583381191 0.2831903808
1050293700.0 -0.9535789018 0.2967712085
1100293400.0 -0.9493505146 0.3113054005
1150293100.0 -0.945415926 0.3232474386
1200292800.0 -0.9402480158 0.3374398622
1250292500.0 -0.9346729113 0.3511511105
1300292200.0 -0.9289257696 0.3645707826
1350291900.0 -0.9236041097 0.3783952346
1400291600.0 -0.9179501028 0.391629247
1450291300.0 -0.9124830186 0.4039825017
1500291000.0 -0.9062815218 0.4172011949
1550290700.0 -0.8997465991 0.4304945253
1600290400.0 -0.893385211 0.4434884799
1650290100.0 -0.8868567754 0.4556950825
1700289800.0 -0.8799442898 0.4693332182
1750289500.0 -0.8729905875 0.4813428723
1800289200.0 -0.8656911803 0.4942954575
1850288900.0 -0.8588239175 0.505662648
1900288600.0 -0.8510509807 0.518566079
1950288300.0 -0.8428821814 0.5312319619
2000288000.0 -0.8355741249 0.542795795
2050287700.0 -0.8270837617 0.5549954944
2100287400.0 -0.8193780765 0.5665299629
2150287100.0 -0.8108101303 0.5784238424
2200286800.0 -0.8030702556 0.5890755134
2250286500.0 -0.7941798841 0.6012858179
2300286200.0 -0.7853600355 0.6127499298
2350285900.0 -0.776859618 0.6235074067
2400285600.0 -0.7681480296 0.6342518352
2450285300.0 -0.759129064 0.6449256937
2500285000.0 -0.7493986671 0.6566753166
2550284700.0 -0.740186198 0.6668479756
2600284400.0 -0.7310997329 0.6767909461
2650284100.0 -0.7224314132 0.6869651706
2700283800.0 -0.7119878184 0.6974220396
2750283500.0 -0.7016024987 0.7079954359
2800283200.0 -0.6919711817 0.7180135167
2850282900.0 -0.6812504104 0.7278054007
2900282600.0 -0.6710075137 0.7379035441
2950282300.0 -0.6602702992 0.747421976
3000282000.0 -0.6496323233 0.7567008766
3050281700.0 -0.6384041226 0.7659805394
3100281400.0 -0.6269576394 0.7749133274
3150281100.0 -0.6156929355 0.7839376852
3200280800.0 -0.6043812801 0.7920771833
3250280500.0 -0.59320002 0.8002389088
3300280200.0 -0.5816215225 0.8083948947
3350279900.0 -0.5692805254 0.8165224693
3400279600.0 -0.5567180493 0.8246705635
3450279300.0 -0.5455856871 0.8316326989
3500279000.0 -0.5336697069 0.8384032536
3550278700.0 -0.5216699133 0.8455082977
3600278400.0 -0.5098627786 0.8522722001
3650278100.0 -0.4971748301 0.8598698759
3700277800.0 -0.4848585874 0.8664194876
3750277500.0 -0.4724495453 0.8733846315
3800277200.0 -0.460064575 0.8796632295
3850276900.0 -0.4478381372 0.8854968372
3900276600.0 -0.4371809066 0.8912575778
3950276300.0 -0.4251371293 0.897242634
4000276000.0 -0.4133535774 0.903003528
4050275700.0 -0.400590314 0.90909847
4100275400.0 -0.3896615029 0.9145406905
4150275100.0 -0.376087367 0.9204069607
4200274800.0 -0.3628003366 0.9260029371
4250274500.0 -0.3500080434 0.9313477046
4300274200.0 -0.3368958097 0.9367422331
4350273900.0 -0.3226518756 0.942036993
4400273600.0 -0.3078827726 0.9472652627
4450273300.0 -0.2929751235 0.9522294683
4500273000.0 -0.2798298108 0.9565117147
4550272700.0 -0.2660934325 0.960418056
4600272400.0 -0.2511526806 0.964704469
4650272100.0 -0.2398632265 0.9677584078
4700271800.0 -0.2269516101 0.9710253733
4750271500.0 -0.2153284152 0.9739264218
4800271200.0 -0.2031028404 0.9767540901
4850270900.0 -0.1894542482 0.9795107496
4900270600.0 -0.1755687489 0.9819867474
4950270300.0 -0.1609970357 0.9844915111
5000270000.0 -0.1466625483 0.9864941742
5050269700.0 -0.1330256337 0.988345812
5100269400.0 -0.1188351048 0.9903721761
5150269100.0 -0.1049347773 0.9916595403
5200268800.0 -0.0917737359 0.9928535914
5250268500.0 -0.0783720056 0.9938136665
5300268200.0 -0.0647261636 0.9946837471
5350267900.0 -0.0516381721 0.9955582075
5400267600.0 -0.0358501461 0.996401673
5450267300.0 -0.0223438494 0.9968433189
5500267000.0 -0.0069871543 0.9970250315
5550266700.0 0.0078455475 0.99727968
5600266400.0 0.0234939901 0.9971510733
5650266100.0 0.0404234249 0.9968249977
5700265800.0 0.0545223194 0.9959973024
5750265500.0 0.0697656314 0.9951050427
5800265200.0 0.0827889362 0.994093497
5850264900.0 0.09647638 0.9933308598
5900264600.0 0.1128011752 0.9914344001
5950264300.0 0.1242956444 0.9897294051
6000264000.0 0.1378936353 0.9883162409
6050263700.0 0.1496530013 0.9871492133
6100263400.0 0.1618242116 0.9851355523
6150263100.0 0.1762470311 0.9826196933
6200262800.0 0.1856465563 0.9810185162
6250262500.0 0.1985140918 0.978815072
6300262200.0 0.2106483994 0.9763171315
6350261900.0 0.2235428136 0.9736186734
6400261600.0 0.2375488081 0.9703746761
6450261300.0 0.2485764174 0.9679508159
6500261000.0 0.2619234786 0.9642581411
6550260700.0 0.2748244948 0.9604628433
6600260400.0 0.2883537613 0.9562640688
6650260100.0 0.3026019096 0.952069607
6700259800.0 0.3146076349 0.9474196683
6750259500.0 0.3282179947 0.9425273274
6800259200.0 0.3419693109 0.9374990422
6850258900.0 0.3543317034 0.9321737912
6900258600.0 0.3669812212 0.9270681481
6950258300.0 0.3794666378 0.9217178637
7000258000.0 0.3909167608 0.9165275706
7050257700.0 0.402826818 0.9105621231
7100257400.0 0.4163238337 0.9041414858
7150257100.0 0.4269483347 0.8986434545
7200256800.0 0.4400581854 0.8922076361
7250256500.0 0.4528299447 0.8855146217
7300256200.0 0.4656311505 0.8789366863
7350255900.0 0.4788393187 0.8718486871
7400255600.0 0.4924575162 0.8640175816
7450255300.0 0.508385293 0.8551701172
7500255000.0 0.5209249525 0.8473430585
7550254700.0 0.535118039 0.8381792992
7600254400.0 0.5477119504 0.8300440966
7650254100.0 0.559367225 0.8220365092
7700253800.0 0.5710182563 0.8138680647
7750253500.0 0.5819039736 0.8064706185
7800253200.0 0.5926163378 0.7985449085
7850252900.0 0.602119267 0.7914935802
7900252600.0 0.6137087943 0.7826535962
7950252300.0 0.6220615018 0.7762299279
8000252000.0 0.632170705 0.7688206536
8050251700.0 0.6426030833 0.7607304237
8100251400.0 0.6524112987 0.7527026738
8150251100.0 0.6625435746 0.7440874421
8200250800.0 0.671897552 0.7359467063
8250250500.0 0.6808798964 0.7280910805
8300250200.0 0.6897341438 0.7198269701
8350249900.0 0.6990243441 0.7111107927
8400249600.0 0.7070553156 0.7030837873
8450249300.0 0.7157396378 0.6944164436
8500249000.0 0.7241844442 0.6855174272
8550248700.0 0.7327627072 0.6764519859
8600248400.0 0.7409015887 0.6671942142
8650248100.0 0.7483975916 0.6575648802
8700247800.0 0.7578110166 0.6466024924
8750247500.0 0.7660888739 0.6363832098
8800247200.0 0.7740597419 0.6261167308
8850246900.0 0.7825592666 0.6147175775
8900246600.0 0.7912558802 0.6034570387
8950246300.0 0.8001555117 0.5907428085
9000246000.0 0.8086764814 0.5788703161
9050245700.0 0.8173551407 0.5664943346
9100245400.0 0.8255667315 0.5542027733
9150245100.0 0.834594923 0.5414221602
9200244800.0 0.843902415 0.5273470089
9250244500.0 0.8531048681 0.5124605688
9300244200.0 0.8612275971 0.4988335681
9350243900.0 0.8685518167 0.4858283362
9400243600.0 0.8752820649 0.4741293197
9450243300.0 0.8807496038 0.4636735079
9500243000.0 0.8870438008 0.4521215473
9550242700.0 0.8910054332 0.444662597
9600242400.0 0.8954900218 0.4370461801
9650242100.0 0.8998765986 0.4300659699
9700241800.0 0.9046041811 0.4215324109
9750241500.0 0.9089068449 0.4138961714
9800241200.0 0.9137462988 0.4045179161
9850240900.0 0.9196505216 0.3927458875
9900240600.0 0.9258756912 0.3807120972
9950240300.0 0.9327252618 0.364007821
10000240000.0 0.937569271 0.3520485215
10050239700.0 0.9436268891 0.3359122623
10100239400.0 0.9494406765 0.3193490488
10150239100.0 0.9540041385 0.3035948572
10200238800.0 0.9584172599 0.2881207312
10250238500.0 0.9614576245 0.2744946473
10300238200.0 0.964619716 0.2606742809
10350237900.0 0.9675082173 0.2472050174
10400237600.0 0.9699514389 0.2340592097
10450237300.0 0.9727974234 0.2201260512
10500237000.0 0.9749398142 0.2079760111
10550236700.0 0.9771968448 0.1938200575
10600236400.0 0.9794721405 0.1792355075
10650236100.0 0.9816503391 0.1643945498
10700235800.0 0.9838307982 0.1523602227
10750235500.0 0.9858149111 0.1393813638
10800235200.0 0.9878655743 0.1245160347
10850234900.0 0.9897920968 0.109838319
10900234600.0 0.9920374336 0.0950202126
10950234300.0 0.9939034444 0.0812002126
11000234000.0 0.9955541219 0.0656507485
11050233700.0 0.9973867788 0.0487400004
11100233400.0 0.9987461176 0.0311306527
11150233100.0 1.000253787 0.0144224658
11200232800.0 1.001290668 -0.0017715888
11250232500.0 1.002062366 -0.0193664503
11300232200.0 1.002108496 -0.0386915148
11350231900.0 1.002083118 -0.05423778
11400231600.0 1.002427183 -0.0710502033
11450231300.0 1.000997234 -0.0855026481
11500231000.0 0.9999246524 -0.1020062935
11550230700.0 0.9984398795 -0.1150012161
11600230400.0 0.997304167 -0.1279001439
11650230100.0 0.9951751013 -0.1398119522
11700229800.0 0.9929028987 -0.1548947151
11750229500.0 0.9901259335 -0.1686158789
11800229200.0 0.9873136664 -0.1821479453
11850228900.0 0.9836366467 -0.193691984
11900228600.0 0.9798673631 -0.2033035415
11950228300.0 0.9763698524 -0.2134980337
12000228000.0 0.9735587579 -0.2218359518
12050227700.0 0.9699118844 -0.2346441324
12100227400.0 0.967018898 -0.2450480241
12150227100.0 0.9617438677 -0.2619314614
12200226800.0 0.9582251409 -0.2730081665
12250226500.0 0.9541059448 -0.2858783496
12300226200.0 0.9493300122 -0.2984601176
12350225900.0 0.9444903902 -0.3118584514
12400225600.0 0.9399788039 -0.3245211248
12450225300.0 0.9358639957 -0.3374661829
12500225000.0 0.9303093936 -0.3521124352
12550224700.0 0.9247815476 -0.3656605284
12600224400.0 0.9199266411 -0.3785135731
12650224100.0 0.9140838389 -0.3926328512
12700223800.0 0.9088924274 -0.4054471505
12750223500.0 0.9031751386 -0.4187361607
12800223200.0 0.8978901411 -0.4309759696
12850222900.0 0.8926508272 -0.4436276596
12900222600.0 0.8869899321 -0.4551294984
12950222300.0 0.8809366402 -0.4680162837
13000222000.0 0.875363943 -0.4796123973
13050221700.0 0.8682181252 -0.4927858369
13100221400.0 0.8618121372 -0.504274505
13150221100.0 0.8546405548 -0.5166809914
13200220800.0 0.8478754361 -0.5286032082
13250220500.0 0.840456814 -0.5400573835
13300220200.0 0.8328964558 -0.5511069193
13350219900.0 0.8247509292 -0.5632168823
13400219600.0 0.8164981061 -0.5749655806
13450219300.0 0.8069491455 -0.5880675671
13500219000.0 0.797387269 -0.6012539975
13550218700.0 0.7879033264 -0.6134188637
13600218400.0 0.7770518244 -0.625036164
13650218100.0 0.768796418 -0.6351693513
13700217800.0 0.7571256809 -0.6483527631
13750217500.0 0.7482627861 -0.6588760767
13800217200.0 0.735931857 -0.669844887
13850216900.0 0.7259464782 -0.6813969609
13900216600.0 0.7167556052 -0.6902001349
13950216300.0 0.7055071885 -0.7003826566
14000216000.0 0.6957345114 -0.7097046392
14050215700.0 0.6865399921 -0.7172379479
14100215400.0 0.6768125864 -0.7260848048
14150215100.0 0.6678386649 -0.7349965564
14200214800.0 0.6582070149 -0.743823828
14250214500.0 0.6477780076 -0.753399866
14300214200.0 0.6373736826 -0.7627775696
14350213900.0 0.6263591357 -0.7723873479
14400213600.0 0.6143083464 -0.7822685162
14450213300.0 0.6015715876 -0.7927166299
14500213000.0 0.5884225443 -0.8024618244
14550212700.0 0.5762745945 -0.8123178968
14600212400.0 0.5634796015 -0.8205782431
14650212100.0 0.5512198882 -0.8291752485
14700211800.0 0.5376393623 -0.8388268011
14750211500.0 0.5249428304 -0.8470755828
14800211200.0 0.5128644987 -0.8554876492
14850210900.0 0.5004214994 -0.8629953914
14900210600.0 0.4870445431 -0.8709362806
14950210300.0 0.473864804 -0.8785115829
15000210000.0 0.4610794947 -0.8849811785
15050209700.0 0.4488395224 -0.8912768321
15100209400.0 0.4362463412 -0.8971481001
15150209100.0 0.4238699702 -0.9022426041
15200208800.0 0.4107036775 -0.9080685191
15250208500.0 0.3998910902 -0.9125482477
15300208200.0 0.3881920811 -0.9165498544
15350207900.0 0.3753595401 -0.9222629586
15400207600.0 0.359276868 -0.9271062113
15450207300.0 0.3445394878 -0.9318590027
15500207000.0 0.330279644 -0.9371451353
15550206700.0 0.3160652553 -0.9417339879
15600206400.0 0.2998869793 -0.9462117104
15650206100.0 0.2841049544 -0.9501829901
15700205800.0 0.2707272414 -0.9540278403
15750205500.0 0.2566555939 -0.957695492
15800205200.0 0.2427564338 -0.9609934999
15850204900.0 0.2285514809 -0.9645365823
15900204600.0 0.2134318667 -0.9682251509
15950204300.0 0.1991317869 -0.97144915
16000204000.0 0.184728405 -0.9745122857
16050203700.0 0.1696442464 -0.9774784015
16100203400.0 0.1546792114 -0.9796086873
16150203100.0 0.1399060824 -0.9822604123
16200202800.0 0.1255704095 -0.9843171211
16250202500.0 0.1106907688 -0.9854926029
16300202200.0 0.095141468 -0.9877855076
16350201900.0 0.0803938616 -0.9891058718
16400201600.0 0.0655406147 -0.9900338628
16450201300.0 0.0500810466 -0.9913720818
16500201000.0 0.0329087514 -0.992025133
16550200700.0 0.0167797523 -0.9927509253
16600200400.0 0.0010351672 -0.9927938892
16650200100.0 -0.0152172587 -0.9927991835
16700199800.0 -0.0315812877 -0.9923347981
16750199500.0 -0.0503210504 -0.9913200692
16800199200.0 -0.0666408177 -0.9904282968
16850198900.0 -0.0823617915 -0.989246213
16900198600.0 -0.0963216728 -0.9891416873
16950198300.0 -0.1099810243 -0.9872756271
17000198000.0 -0.1227523419 -0.9858079848
17050197700.0 -0.1355453972 -0.9839365601
17100197400.0 -0.1483712837 -0.9825451779
17150197100.0 -0.1617811102 -0.979796618
17200196800.0 -0.1739351658 -0.9780715118
17250196500.0 -0.1872247951 -0.9754059509
17300196200.0 -0.1994784018 -0.9731721724
17350195900.0 -0.2109903041 -0.9707524775
17400195600.0 -0.2230007888 -0.9681975591
17450195300.0 -0.2358326464 -0.9653239796
17500195000.0 -0.248985312 -0.9621073539
17550194700.0 -0.2632508928 -0.9585305661
17600194400.0 -0.276696025 -0.954675777
17650194100.0 -0.2902438195 -0.9506573487
17700193800.0 -0.303699536 -0.946406186
17750193500.0 -0.3173260227 -0.9415016367
17800193200.0 -0.3318866008 -0.9366301242
17850192900.0 -0.3464317978 -0.9312519436
17900192600.0 -0.3617397586 -0.9250024161
17950192300.0 -0.3772613277 -0.9176321736
18000192000.0 -0.3920228178 -0.9108156711
18050191700.0 -0.4056926894 -0.9027811389
18100191400.0 -0.4198200566 -0.8951448029
18150191100.0 -0.4346971964 -0.8872435122
18200190800.0 -0.4515238859 -0.8779494564
18250190500.0 -0.4683444636 -0.8683765093
18300190200.0 -0.4839873967 -0.8598531097
18350189900.0 -0.4991644027 -0.8513884931
18400189600.0 -0.5134986397 -0.8427723185
18450189300.0 -0.5268854076 -0.8346459703
18500189000.0 -0.5406287008 -0.8266316196
18550188700.0 -0.5532057032 -0.8191734258
18600188400.0 -0.5653208914 -0.8126198931
18650188100.0 -0.5765173022 -0.8055726979
18700187800.0 -0.5878508492 -0.7990009017
18750187500.0 -0.5983343191 -0.7922056766
18800187200.0 -0.6090105148 -0.7853794917
18850186900.0 -0.619413166 -0.7785033852
18900186600.0 -0.6296989356 -0.7712737966
18950186300.0 -0.6399970857 -0.7632814884
19000186000.0 -0.6474028091 -0.7570062826
19050185700.0 -0.6565340243 -0.750017105
19100185400.0 -0.6668709858 -0.7415750307
19150185100.0 -0.6767711256 -0.733677901
19200184800.0 -0.6862757005 -0.7245012687
19250184500.0 -0.6966925954 -0.71627802
19300184200.0 -0.7079041098 -0.7066928919
19350183900.0 -0.7188680168 -0.6973269352
19400183600.0 -0.7283303499 -0.6868288131
19450183300.0 -0.7375073823 -0.6763557444
19500183000.0 -0.7460557708 -0.6665728034
19550182700.0 -0.7554154038 -0.656006615
19600182400.0 -0.7657928928 -0.6443674537
19650182100.0 -0.7764031336 -0.631947074
19700181800.0 -0.7869240998 -0.6185591176
19750181500.0 -0.7971191177 -0.6044810633
19800181200.0 -0.8071954355 -0.5896411266
19850180900.0 -0.8167006392 -0.5741265932
19900180600.0 -0.8243010326 -0.5600296321
19950180300.0 -0.833586648 -0.5434533968
20000180000.0 -0.822965442 -0.5469835675
20050179700.0 -0.8311621559 -0.5349882949
20100179400.0 -0.8399138993 -0.5215459071
20150179100.0 -0.8479495325 -0.5100027182
20200178800.0 -0.8553345455 -0.4983856375
20250178500.0 -0.8651502177 -0.4854453532
20300178200.0 -0.8754526606 -0.4720202957
20350177900.0 -0.8846141454 -0.4576947935
20400177600.0 -0.8930488639 -0.4436330369
20450177300.0 -0.9017324179 -0.4295094349
20500177000.0 -0.9100850203 -0.4154468386
20550176700.0 -0.9180577629 -0.4018301306
20600176400.0 -0.9246865176 -0.3893909136
20650176100.0 -0.9312439705 -0.3770365054
20700175800.0 -0.9385709769 -0.3645610617
20750175500.0 -0.9444324037 -0.3531645198
20800175200.0 -0.9487553124 -0.3422254623
20850174900.0 -0.9536083076 -0.3321193361
20900174600.0 -0.9580986241 -0.3217400053
20950174300.0 -0.9603786482 -0.309761778
21000174000.0 -0.9635227698 -0.2990390118
21050173700.0 -0.965482449 -0.2897078353
21100173400.0 -0.9688751334 -0.2788184415
21150173100.0 -0.9727906845 -0.2669942336
21200172800.0 -0.977257955 -0.2537873174
21250172500.0 -0.9804384243 -0.2404347598
21300172200.0 -0.9838589101 -0.2262343077
21350171900.0 -0.9862338815 -0.2116254025
21400171600.0 -0.9877145446 -0.1977647738
21450171300.0 -0.9882365889 -0.1836468318
21500171000.0 -0.9886235811 -0.1687205073
21550170700.0 -0.9896452244 -0.154883552
21600170400.0 -0.9908094821 -0.1372288139
21650170100.0 -0.9908223248 -0.122656071
21700169800.0 -0.9903509789 -0.107210322
21750169500.0 -0.9901882219 -0.0907642343
21800169200.0 -0.9895179352 -0.0751141999
21850168900.0 -0.9897711594 -0.0577734792
21900168600.0 -0.9896007464 -0.0413664643
21950168300.0 -0.9894097695 -0.0253941789
22000168000.0 -0.9890003527 -0.0113347999
22050167700.0 -0.9900407214 0.0039911971
22100167400.0 -0.9906778711 0.0195467888
22150167100.0 -0.9912846951 0.0355004702
22200166800.0 -0.9922225616 0.0525537885
22250166500.0 -0.9916306994 0.0697599124
22300166200.0 -0.9908950205 0.085923006
22350165900.0 -0.9898552455 0.1016434761
22400165600.0 -0.9883163058 0.1176830896
22450165300.0 -0.9862587155 0.1326225317
22500165000.0 -0.9845359992 0.147863319
22550164700.0 -0.9840218347 0.1626154215
22600164400.0 -0.9813046984 0.1798345625
22650164100.0 -0.9783660551 0.195379232
22700163800.0 -0.9757587537 0.2112360716
22750163500.0 -0.9724044453 0.2263799401
22800163200.0 -0.9694900896 0.2390146718
22850162900.0 -0.9665443341 0.2526639313
22900162600.0 -0.9645846241 0.2668545978
22950162300.0 -0.9632672593 0.2804367241
23000162000.0 -0.9612757768 0.2930617188
23050161700.0 -0.9588262854 0.3064630624
23100161400.0 -0.9560810607 0.3197717256
23150161100.0 -0.9525582556 0.3328355411
23200160800.0 -0.9497156362 0.3461484092
23250160500.0 -0.9467275404 0.3586839392
23300160200.0 -0.9443161421 0.3712836336
23350159900.0 -0.9400306664 0.3846964368
23400159600.0 -0.9352136844 0.398887882
23450159300.0 -0.9291834382 0.4127701217
23500159000.0 -0.9253877396 0.4262258547
23550158700.0 -0.9203869651 0.440143792
23600158400.0 -0.9138422908 0.4541493604
23650158100.0 -0.9067779401 0.4688138886
23700157800.0 -0.8981272795 0.4833206122
23750157500.0 -0.8887772278 0.4974256337
23800157200.0 -0.879150812 0.511162343
23850156900.0 -0.8694403703 0.5239543687
23900156600.0 -0.8589574151 0.536137852
23950156300.0 -0.8495365271 0.5497126337
24000156000.0 -0.8393634584 0.5624035794
24050155700.0 -0.8290545441 0.5735067103
24100155400.0 -0.8186238631 0.5863637862
24150155100.0 -0.8074585218 0.5987133165
24200154800.0 -0.79700972 0.6099425012
24250154500.0 -0.7852623245 0.6226617838
24300154200.0 -0.7741351512 0.6344286733
24350153900.0 -0.7620267654 0.6456116388
24400153600.0 -0.7495267868 0.6565276677
24450153300.0 -0.737516269 0.6667921644
24500153000.0 -0.7255450516 0.6766592186
24550152700.0 -0.7147959799 0.6873847745
24600152400.0 -0.7020882232 0.6961243805
24650152100.0 -0.6898245549 0.7046980348
