!Created with skrf (http://scikit-rf.org).
# Hz S RI R 50.0 
!freq ReS11 ImS11
300000.0 -0.9741013329 -0.1213344673
50299700.0 -0.9997773478 0.0150250696
100299400.0 -0.9980224153 0.0279350868
150299100.0 -1.002599387 0.0448067535
200298800.0 -0.9996224999 0.0580790348
250298500.0 -0.997261444 0.0715693832
300298200.0 -0.9857699203 0.0875208491
350297900.0 -0.9938718954 0.0983720029
400297600.0 -0.9929567857 0.1149187194
450297300.0 -0.9909881671 0.1285582338
500297000.0 -0.9894583734 0.1432726872
550296700.0 -0.9843200319 0.1557700371
600296400.0 -1.017111356 0.1888082536
650296100.0 -0.9822797588 0.1856564029
700295800.0 -0.9792626739 0.1998708113
750295500.0 -0.9762384345 0.2139949348
800295200.0 -0.9729610028 0.2279535884
850294900.0 -0.9696572039 0.2417090785
900294600.0 -0.9658639574 0.2558447593
950294300.0 -0.9620601353 0.2693556737
1000294000.0 -0.9581310763 0.283263625
1050293700.0 -0.9536417305 0.2969878004
1100293400.0 -0.9494405534 0.3115158605
1150293100.0 -0.9456959232 0.3232311534
1200292800.0 -0.9402243814 0.3376625294
1250292500.0 -0.9347385372 0.3510297896
1300292200.0 -0.9291270339 0.3643390061
1350291900.0 -0.9235599053 0.3783027011
1400291600.0 -0.918037087 0.3915786277
1450291300.0 -0.9123768267 0.4038554653
1500291000.0 -0.9062814836 0.4173472813
1550290700.0 -0.8996697917 0.4306182881
1600290400.0 -0.8935153153 0.4435314269
1650290100.0 -0.8868225824 0.4557812724
1700289800.0 -0.8799113109 0.4692327173
1750289500.0 -0.872850957 0.481428255
1800289200.0 -0.8653780199 0.4943633922
1850288900.0 -0.8589224524 0.5057815542
1900288600.0 -0.8508675894 0.5187398868
1950288300.0 -0.8429672525 0.5311326477
2000288000.0 -0.8355057195 0.5428223028
2050287700.0 -0.826968548 0.5553222445
2100287400.0 -0.8194885875 0.5662453511
2150287100.0 -0.8110264805 0.5784971781
2200286800.0 -0.8030525293 0.5890827938
2250286500.0 -0.7940386504 0.6014358885
2300286200.0 -0.7852653204 0.612791194
2350285900.0 -0.7768419571 0.6233673905
2400285600.0 -0.7680078356 0.6342873069
2450285300.0 -0.759191045 0.6451499846
2500285000.0 -0.749148463 0.6565655253
2550284700.0 -0.740057348 0.6670246373
2600284400.0 -0.7309640253 0.6765635918
2650284100.0 -0.7223360759 0.687112439
2700283800.0 -0.7119641983 0.6974963318
2750283500.0 -0.701517077 0.7082146509
2800283200.0 -0.6916717316 0.7179961587
2850282900.0 -0.6811691505 0.7280131287
2900282600.0 -0.6708012075 0.7377141126
2950282300.0 -0.6602797431 0.7472358078
3000282000.0 -0.6495838427 0.7567339312
3050281700.0 -0.6384699761 0.7659154976
3100281400.0 -0.6267906529 0.774798129
3150281100.0 -0.615610018 0.7838913312
3200280800.0 -0.6041086602 0.7923077755
3250280500.0 -0.5931488674 0.800370766
3300280200.0 -0.5814138555 0.8084771022
3350279900.0 -0.5692573285 0.8163774966
3400279600.0 -0.5565992042 0.824545347
3450279300.0 -0.5456920973 0.8314670321
3500279000.0 -0.5339884556 0.838432567
3550278700.0 -0.5218155478 0.845685878
3600278400.0 -0.5100023778 0.8525460212
3650278100.0 -0.4969823909 0.8600116479
3700277800.0 -0.4847785166 0.866619882
3750277500.0 -0.4723765154 0.8731613243
3800277200.0 -0.4600928405 0.8796255944
3850276900.0 -0.4479505417 0.8856448855
3900276600.0 -0.43720711 0.8912928378
3950276300.0 -0.42503668 0.8971294744
4000276000.0 -0.413259718 0.9031926757
4050275700.0 -0.4003891672 0.9091308071
4100275400.0 -0.389265329 0.91420521
4150275100.0 -0.3760798483 0.9202379079
4200274800.0 -0.3626707915 0.9261743797
4250274500.0 -0.3501371777 0.931506921
4300274200.0 -0.3368796397 0.9367413364
4350273900.0 -0.3226048439 0.9421520732
4400273600.0 -0.3078570714 0.9474161305
4450273300.0 -0.2928604741 0.952180896
4500273000.0 -0.2799185031 0.9564228211
4550272700.0 -0.2661746656 0.9605868594
4600272400.0 -0.2510826046 0.9646448705
4650272100.0 -0.2396399748 0.9678746506
4700271800.0 -0.2267186391 0.971127521
4750271500.0 -0.2152749041 0.9739707908
4800271200.0 -0.2030528537 0.9766141254
4850270900.0 -0.1891018007 0.9794618746
4900270600.0 -0.1753746419 0.9817730919
4950270300.0 -0.1610659287 0.9845066489
5000270000.0 -0.1464726861 0.9866814674
5050269700.0 -0.1329025571 0.9882817349
5100269400.0 -0.1185369052 0.9900724814
5150269100.0 -0.1046095481 0.9915787516
5200268800.0 -0.0915330153 0.9926905264
5250268500.0 -0.0779909384 0.9936120974
5300268200.0 -0.0646385404 0.9945002402
5350267900.0 -0.0519125711 0.995035595
5400267600.0 -0.0357139232 0.9961339089
5450267300.0 -0.0225227145 0.9965848258
5500267000.0 -0.006882038 0.9970184993
5550266700.0 0.0078691063 0.9972018977
5600266400.0 0.0235478374 0.9970542379
5650266100.0 0.0403977157 0.9967773271
5700265800.0 0.0544897524 0.9956837358
5750265500.0 0.0694938773 0.9949574699
5800265200.0 0.0831986787 0.9945749269
5850264900.0 0.0960598962 0.9929544569
5900264600.0 0.112819889 0.9914885545
5950264300.0 0.1242109992 0.9896199213
6000264000.0 0.1379160816 0.9880097174
6050263700.0 0.1495893036 0.9865187861
6100263400.0 0.1616742979 0.985123996
6150263100.0 0.1763945355 0.9825885212
6200262800.0 0.1859994353 0.9809780582
6250262500.0 0.1985528845 0.978648693
6300262200.0 0.2108485525 0.9761967924
6350261900.0 0.2236811724 0.9735672023
6400261600.0 0.2374651368 0.9702964225
6450261300.0 0.2485555386 0.9675988665
6500261000.0 0.2620963095 0.9641180054
6550260700.0 0.2749574717 0.9599874455
6600260400.0 0.2885152056 0.9561182782
6650260100.0 0.3026091905 0.9518123549
6700259800.0 0.3147816017 0.9474514315
6750259500.0 0.3287466451 0.9426371936
6800259200.0 0.3420879055 0.9371997769
6850258900.0 0.3544698205 0.9320472771
6900258600.0 0.3672504469 0.9269951702
6950258300.0 0.3796836101 0.9216813923
7000258000.0 0.3910778334 0.9163410393
7050257700.0 0.403108096 0.9105540795
7100257400.0 0.4164968337 0.9041489746
7150257100.0 0.4270811458 0.8987495952
7200256800.0 0.4402643181 0.8922119052
7250256500.0 0.4530377101 0.8856100271
7300256200.0 0.4659413884 0.878738899
7350255900.0 0.4786341391 0.871756899
7400255600.0 0.4930023319 0.8643831779
7450255300.0 0.5083971961 0.8548450815
7500255000.0 0.5209502559 0.8475233806
7550254700.0 0.5350898875 0.8382681566
7600254400.0 0.5473014663 0.8301685203
7650254100.0 0.5591502203 0.8221612873
7700253800.0 0.570457756 0.8141340422
7750253500.0 0.581563112 0.8063762896
7800253200.0 0.5922691456 0.7988253762
7850252900.0 0.602178917 0.7913327147
7900252600.0 0.6135659244 0.7827218711
7950252300.0 0.6221090967 0.7764419464
8000252000.0 0.6318111891 0.7688761042
8050251700.0 0.6421887029 0.760669799
8100251400.0 0.6523334205 0.7528183382
8150251100.0 0.6622520299 0.7441512239
8200250800.0 0.6714206395 0.7362581275
8250250500.0 0.6807230361 0.7281477408
8300250200.0 0.6895947942 0.7200354615
8350249900.0 0.698719176 0.7111374513
8400249600.0 0.7070744441 0.7029149212
8450249300.0 0.7156384372 0.6942914942
8500249000.0 0.7242522667 0.6855202579
8550248700.0 0.7325638263 0.6764370015
8600248400.0 0.7408959703 0.6668999789
8650248100.0 0.7485503428 0.6575071412
8700247800.0 0.7578021068 0.6463670595
8750247500.0 0.7661532575 0.6362254506
8800247200.0 0.774085397 0.6260270007
8850246900.0 0.7827568294 0.6145668296
8900246600.0 0.7909842268 0.6032585926
8950246300.0 0.80041772 0.5905941808
9000246000.0 0.8089975806 0.5786080539
9050245700.0 0.8175829146 0.5662463978
9100245400.0 0.8259484932 0.5541823155
9150245100.0 0.8345492728 0.5412289711
9200244800.0 0.8439474468 0.5270006475
9250244500.0 0.853402688 0.5121281156
9300244200.0 0.8612022601 0.4986738079
9350243900.0 0.8690620909 0.4853776774
9400243600.0 0.8755096127 0.4737250866
9450243300.0 0.8810993217 0.4632172816
9500243000.0 0.8873607619 0.4516040151
9550242700.0 0.8912378322 0.4441779554
9600242400.0 0.8956029781 0.4364704129
9650242100.0 0.8996299905 0.4295039001
9700241800.0 0.9045961284 0.4210960463
9750241500.0 0.9086398296 0.4135600231
9800241200.0 0.9141728656 0.403781318
9850240900.0 0.9197876771 0.3922279802
9900240600.0 0.9256803128 0.380315269
9950240300.0 0.9329422648 0.3632546055
10000240000.0 0.9378257551 0.3513345196
10050239700.0 0.9437871085 0.3353852778
10100239400.0 0.9491976295 0.3190655284
10150239100.0 0.953985239 0.3033946533
10200238800.0 0.9582673655 0.2878965648
10250238500.0 0.9613956531 0.2746758286
10300238200.0 0.9644953587 0.2605568514
10350237900.0 0.9673674743 0.2471475811
10400237600.0 0.9700107057 0.23360466
10450237300.0 0.9724795031 0.219973508
10500237000.0 0.9749091344 0.2073983942
10550236700.0 0.9773706731 0.1933645878
10600236400.0 0.9797054985 0.1786528358
10650236100.0 0.981308115 0.1647710265
10700235800.0 0.9837280211 0.1524078636
10750235500.0 0.9860031599 0.138839622
10800235200.0 0.9878576599 0.1246454763
10850234900.0 0.9897450651 0.1098755426
10900234600.0 0.9917969826 0.0950401607
10950234300.0 0.9937131324 0.0813421917
11000234000.0 0.9955136113 0.065760409
11050233700.0 0.997256152 0.0489621994
11100233400.0 0.9988240625 0.0313225534
11150233100.0 1.000021771 0.0144394385
11200232800.0 1.000619772 -0.0015192526
11250232500.0 1.001476609 -0.0192302204
11300232200.0 1.002518625 -0.0381558513
11350231900.0 1.001950179 -0.053909579
11400231600.0 1.001669547 -0.0689584237
11450231300.0 1.001207967 -0.084958472
11500231000.0 1.000253254 -0.1019730262
11550230700.0 0.9984652138 -0.1142232915
11600230400.0 0.9971259776 -0.127160424
11650230100.0 0.9946846118 -0.1388991416
11700229800.0 0.9926427467 -0.1541695982
11750229500.0 0.9902286293 -0.1685202513
11800229200.0 0.9873284644 -0.1813323987
11850228900.0 0.9835959076 -0.1934854146
11900228600.0 0.9799577523 -0.2029548167
11950228300.0 0.9764904191 -0.2126439955
12000228000.0 0.9740461115 -0.2216020671
12050227700.0 0.9700858027 -0.2343583605
12100227400.0 0.9670364182 -0.2446395171
12150227100.0 0.9621985919 -0.2617669549
12200226800.0 0.9577494155 -0.2731593959
12250226500.0 0.9534315308 -0.2859356683
12300226200.0 0.9494155444 -0.2981141435
12350225900.0 0.9438952122 -0.3117728882
12400225600.0 0.940439755 -0.324455249
12450225300.0 0.9360552977 -0.3371375809
12500225000.0 0.9306053888 -0.3519114339
12550224700.0 0.924991056 -0.3655591703
12600224400.0 0.9200894969 -0.3782809849
12650224100.0 0.91416226 -0.3924580108
12700223800.0 0.9089100266 -0.4052384779
12750223500.0 0.9033924887 -0.4182437922
12800223200.0 0.8980072191 -0.4309290366
12850222900.0 0.8929852726 -0.4430958987
12900222600.0 0.8875906109 -0.4546934485
12950222300.0 0.8809429588 -0.4675674487
13000222000.0 0.875193024 -0.4794387784
13050221700.0 0.8681507394 -0.4926221493
13100221400.0 0.861230731 -0.5041680101
13150221100.0 0.8545184567 -0.5167363429
13200220800.0 0.8472756154 -0.5279650669
13250220500.0 0.8402913154 -0.5401553098
13300220200.0 0.832864237 -0.5511309575
13350219900.0 0.8248158429 -0.5630299439
13400219600.0 0.8163691005 -0.5748969477
13450219300.0 0.8072784115 -0.5880363509
13500219000.0 0.7968445222 -0.601279127
13550218700.0 0.7874385001 -0.613411292
13600218400.0 0.7776256907 -0.6250504315
13650218100.0 0.7682191348 -0.6355081942
13700217800.0 0.7568378899 -0.6475570109
13750217500.0 0.7473776684 -0.6591832614
13800217200.0 0.7367239989 -0.6702597005
13850216900.0 0.7257869534 -0.6816870844
13900216600.0 0.7159459766 -0.6901512694
13950216300.0 0.7046296592 -0.6996822531
14000216000.0 0.6955855619 -0.7091606528
14050215700.0 0.6863495804 -0.7168174766
14100215400.0 0.6766905737 -0.726338292
14150215100.0 0.6674732719 -0.7350430091
14200214800.0 0.657841917 -0.7439720547
14250214500.0 0.6476396724 -0.7532979415
14300214200.0 0.6370208608 -0.7628143688
14350213900.0 0.6258414632 -0.7724746477
14400213600.0 0.6139588076 -0.7822739231
14450213300.0 0.601369278 -0.7929534701
14500213000.0 0.5882373549 -0.8022536446
14550212700.0 0.5764256388 -0.8119330393
14600212400.0 0.5638918945 -0.8204786837
14650212100.0 0.5508725369 -0.8292028768
14700211800.0 0.537181724 -0.8386512631
14750211500.0 0.5252600587 -0.846989505
14800211200.0 0.5128621163 -0.8550816121
14850210900.0 0.5000274034 -0.8629897421
14900210600.0 0.48680007 -0.8709252952
14950210300.0 0.4735006812 -0.8784144619
15000210000.0 0.4611712229 -0.8852941784
15050209700.0 0.4486912749 -0.8913437959
15100209400.0 0.4362516783 -0.8972512677
15150209100.0 0.423959469 -0.902740462
15200208800.0 0.4110982727 -0.9080469182
15250208500.0 0.4001625262 -0.9118596838
15300208200.0 0.3880547268 -0.916574473
15350207900.0 0.3748897663 -0.9218048445
15400207600.0 0.359806291 -0.92784011
15450207300.0 0.3449717794 -0.9326102638
15500207000.0 0.3299082023 -0.9369675487
15550206700.0 0.3158491441 -0.941719127
15600206400.0 0.3000651492 -0.946184507
15650206100.0 0.2840830959 -0.9504034827
15700205800.0 0.2702245383 -0.9542136709
15750205500.0 0.256407788 -0.9575054382
15800205200.0 0.24244503 -0.9610285974
15850204900.0 0.2284091496 -0.9645209557
15900204600.0 0.2131854835 -0.9682643922
15950204300.0 0.1989365283 -0.9714279221
16000204000.0 0.1844351823 -0.9744199972
16050203700.0 0.1695256255 -0.9770555129
16100203400.0 0.1541797332 -0.9796271793
16150203100.0 0.1391502285 -0.9815321482
16200202800.0 0.1254478921 -0.9840348364
16250202500.0 0.110527163 -0.9857299175
16300202200.0 0.0950523594 -0.9872292504
16350201900.0 0.0802071001 -0.9892337726
16400201600.0 0.0657572442 -0.9900294386
16450201300.0 0.0501535424 -0.9913134053
16500201000.0 0.0330907419 -0.9920448312
16550200700.0 0.0168824012 -0.9926033516
16600200400.0 0.0009161139 -0.9928524172
16650200100.0 -0.0151535663 -0.9924903241
16700199800.0 -0.0313712818 -0.9922952394
16750199500.0 -0.0506784444 -0.9916686087
16800199200.0 -0.0667698677 -0.9906790402
16850198900.0 -0.0816566584 -0.9896305902
16900198600.0 -0.0960587696 -0.9886129432
16950198300.0 -0.1096222015 -0.9872058512
17000198000.0 -0.1222294994 -0.985563596
17050197700.0 -0.1355744177 -0.9843550204
17100197400.0 -0.1484874591 -0.9819307045
17150197100.0 -0.1608577206 -0.9800914127
17200196800.0 -0.1738877099 -0.9778774822
17250196500.0 -0.1869531945 -0.9753548765
17300196200.0 -0.1991564647 -0.9731389155
17350195900.0 -0.2111148474 -0.9706546102
17400195600.0 -0.2229287048 -0.9681762289
17450195300.0 -0.235775206 -0.9654252476
17500195000.0 -0.2489958326 -0.9621012929
17550194700.0 -0.2627399295 -0.9585014621
17600194400.0 -0.2762597802 -0.9547272665
17650194100.0 -0.2903877017 -0.9505962959
17700193800.0 -0.3030670466 -0.9466562196
17750193500.0 -0.317330111 -0.9416024553
17800193200.0 -0.3317297178 -0.9368993506
17850192900.0 -0.3464289009 -0.9314832195
17900192600.0 -0.3616121029 -0.9249140616
17950192300.0 -0.3770654534 -0.9179431441
18000192000.0 -0.3918617041 -0.9107491411
18050191700.0 -0.405773102 -0.9028633169
18100191400.0 -0.4198150652 -0.8950862685
18150191100.0 -0.4346269493 -0.8871562353
18200190800.0 -0.4514648454 -0.8781800109
18250190500.0 -0.4682392241 -0.8685514007
18300190200.0 -0.4839080516 -0.8596252268
18350189900.0 -0.4990503454 -0.8511127878
18400189600.0 -0.5137072767 -0.8432527812
18450189300.0 -0.5272793085 -0.8350579509
18500189000.0 -0.5402986462 -0.826744246
18550188700.0 -0.5532876133 -0.819495077
18600188400.0 -0.5655501025 -0.8120330904
18650188100.0 -0.5764334936 -0.8056043435
18700187800.0 -0.5875877381 -0.7988357065
18750187500.0 -0.5984834704 -0.7923739169
18800187200.0 -0.6091598324 -0.7852395141
18850186900.0 -0.6194913118 -0.7785142416
18900186600.0 -0.6296419739 -0.7710698857
18950186300.0 -0.6397224205 -0.7633088486
19000186000.0 -0.6474266245 -0.7572579323
19050185700.0 -0.6566250968 -0.7498228346
19100185400.0 -0.6667563254 -0.7414861467
19150185100.0 -0.6770622606 -0.7330299781
19200184800.0 -0.6868401147 -0.7250349111
19250184500.0 -0.6958093559 -0.716241819
19300184200.0 -0.7080636407 -0.7064597263
19350183900.0 -0.7183924277 -0.6965906035
19400183600.0 -0.7285897593 -0.6868109521
19450183300.0 -0.7373071963 -0.6770442157
19500183000.0 -0.745567342 -0.6665098923
19550182700.0 -0.7553827079 -0.6557266914
19600182400.0 -0.7658280772 -0.6437825224
19650182100.0 -0.776289949 -0.6316353332
19700181800.0 -0.7866754772 -0.6186235519
19750181500.0 -0.7969059131 -0.6046389279
19800181200.0 -0.8069705672 -0.5896856187
19850180900.0 -0.8164414501 -0.5743618074
19900180600.0 -0.8240279121 -0.5597961128
19950180300.0 -0.8332260789 -0.5434455777
20000180000.0 -0.8227641879 -0.5465823335
20050179700.0 -0.8308285909 -0.5348954454
20100179400.0 -0.839436746 -0.5217147459
20150179100.0 -0.8481714776 -0.5100926072
20200178800.0 -0.856328512 -0.4985866163
20250178500.0 -0.865110287 -0.4856256517
20300178200.0 -0.8747732159 -0.4718752107
20350177900.0 -0.8847347677 -0.4579513453
20400177600.0 -0.8932702216 -0.4441046741
20450177300.0 -0.9018154607 -0.4292679894
20500177000.0 -0.9097912035 -0.4156522907
20550176700.0 -0.9179012144 -0.4017505557
20600176400.0 -0.9244017761 -0.3890853206
20650176100.0 -0.9309905093 -0.3766811404
20700175800.0 -0.9382067619 -0.3645179188
20750175500.0 -0.9449254838 -0.3530686288
20800175200.0 -0.9492792399 -0.3417553914
20850174900.0 -0.9533809631 -0.3322211392
20900174600.0 -0.9574989913 -0.3202855329
20950174300.0 -0.9619163369 -0.309183412
21000174000.0 -0.9637851295 -0.2987034934
21050173700.0 -0.9658340431 -0.2893354866
21100173400.0 -0.9695074534 -0.2784002164
21150173100.0 -0.9725542324 -0.267094946
21200172800.0 -0.9768994194 -0.2535847476
21250172500.0 -0.9803852558 -0.2401434982
21300172200.0 -0.9839943411 -0.2262574737
21350171900.0 -0.985898135 -0.2119449302
21400171600.0 -0.9878592555 -0.1977158459
21450171300.0 -0.9888218302 -0.1841432598
21500171000.0 -0.9888864095 -0.1676994097
21550170700.0 -0.9898584967 -0.1531978636
21600170400.0 -0.9907487431 -0.1383088909
21650170100.0 -0.9905832113 -0.1221935914
21700169800.0 -0.9906745604 -0.1071592722
21750169500.0 -0.9901337516 -0.0901836154
21800169200.0 -0.9898909141 -0.0742657939
21850168900.0 -0.9898719574 -0.0575689432
21900168600.0 -0.9899609861 -0.0416936543
21950168300.0 -0.9891227586 -0.0257999604
22000168000.0 -0.9888494086 -0.0101120746
22050167700.0 -0.9896873757 0.0040926433
22100167400.0 -0.9902066351 0.0197302973
22150167100.0 -0.9910548888 0.035529486
22200166800.0 -0.9919758092 0.0525140321
22250166500.0 -0.9915489493 0.0696312119
22300166200.0 -0.9905783403 0.0862816296
22350165900.0 -0.9890446514 0.1023851454
22400165600.0 -0.9877362258 0.1176393305
22450165300.0 -0.9855447083 0.1329975568
22500165000.0 -0.984835544 0.1478781274
22550164700.0 -0.9831533907 0.1632907368
22600164400.0 -0.981147252 0.1791630521
22650164100.0 -0.9777458306 0.1953732342
22700163800.0 -0.974627292 0.21183057
22750163500.0 -0.9721855987 0.2260792259
22800163200.0 -0.9692021868 0.2388724211
22850162900.0 -0.9664325488 0.2525761519
22900162600.0 -0.9644276839 0.266692197
22950162300.0 -0.9631712272 0.280267815
23000162000.0 -0.9610972739 0.2931298886
23050161700.0 -0.9586287876 0.3064865438
23100161400.0 -0.9557764254 0.3198985409
23150161100.0 -0.9526508353 0.3325287726
23200160800.0 -0.9494619022 0.3459778673
23250160500.0 -0.9470811622 0.3580087024
23300160200.0 -0.9441235796 0.3707689584
23350159900.0 -0.9398216177 0.3842504389
23400159600.0 -0.9350256289 0.3980520608
23450159300.0 -0.930233752 0.4124044577
23500159000.0 -0.9254805278 0.425810425
23550158700.0 -0.9202810139 0.4395396394
23600158400.0 -0.9139829409 0.4538476198
23650158100.0 -0.9067816499 0.4681940988
23700157800.0 -0.8984461789 0.4824056627
23750157500.0 -0.8889153794 0.4966080315
23800157200.0 -0.8791930282 0.5105907469
23850156900.0 -0.8693399543 0.5235680077
23900156600.0 -0.8597072584 0.5356790548
23950156300.0 -0.8500095275 0.5484504241
24000156000.0 -0.8402037689 0.5606295443
24050155700.0 -0.830508416 0.5725791477
24100155400.0 -0.8188692032 0.5857952362
24150155100.0 -0.8085220482 0.5981043582
24200154800.0 -0.7979454664 0.6092065597
24250154500.0 -0.786345225 0.6215866182
24300154200.0 -0.7748289084 0.633837849
24350153900.0 -0.7625704738 0.6445213649
24400153600.0 -0.7507818466 0.6552643137
24450153300.0 -0.7382859153 0.6656606534
24500153000.0 -0.7267510152 0.6759132181
24550152700.0 -0.7154956463 0.6859142995
24600152400.0 -0.7033777537 0.6952056597
24650152100.0 -0.6913814453 0.7040760703
