!Created with skrf (http://scikit-rf.org).
# Hz S RI R 50.0 
!freq ReS11 ImS11
300000.0 -0.9856880614 -0.0829179624
50299700.0 -1.000073574 0.0166677318
100299400.0 -0.997888674 0.0292874374
150299100.0 -1.002716974 0.046215365
200298800.0 -0.9995134849 0.0593577907
250298500.0 -0.9973125409 0.0728496958
300298200.0 -0.9858316121 0.0888410052
350297900.0 -0.9936504629 0.0997201168
400297600.0 -0.9928538213 0.1161403176
450297300.0 -0.9907120282 0.1301439782
500297000.0 -0.9889794359 0.1448341335
550296700.0 -0.9840647214 0.1574101969
600296400.0 -1.016874184 0.19068449
650296100.0 -0.981825016 0.187156891
700295800.0 -0.9787732802 0.2013398943
750295500.0 -0.9756504208 0.2155204772
800295200.0 -0.97234495 0.2295757293
850294900.0 -0.9690127234 0.2433467098
900294600.0 -0.9652369818 0.2571732619
950294300.0 -0.9614040034 0.2707909031
1000294000.0 -0.957539677 0.2848900746
1050293700.0 -0.9529299585 0.2985566362
1100293400.0 -0.9484796961 0.3130440969
1150293100.0 -0.9447038172 0.325063371
1200292800.0 -0.9394399898 0.3391305208
1250292500.0 -0.9341520495 0.352482077
1300292200.0 -0.9282186805 0.3658011088
1350291900.0 -0.9228993636 0.3796745474
1400291600.0 -0.9173498389 0.3928380186
1450291300.0 -0.9118416693 0.4050144774
1500291000.0 -0.9057416517 0.4184146882
1550290700.0 -0.8991021036 0.4316683498
1600290400.0 -0.8929012712 0.4445233583
1650290100.0 -0.8863148319 0.456821807
1700289800.0 -0.8794966445 0.4702195661
1750289500.0 -0.8724274182 0.4823019512
1800289200.0 -0.8651967303 0.4954395235
1850288900.0 -0.8582215205 0.5066595696
1900288600.0 -0.8507374958 0.5195610369
1950288300.0 -0.8424461881 0.5321877016
2000288000.0 -0.8349880282 0.543730526
2050287700.0 -0.8266773703 0.5560652108
2100287400.0 -0.8188240424 0.5676249645
2150287100.0 -0.8100448818 0.5798006568
2200286800.0 -0.8022709596 0.5901752401
2250286500.0 -0.7935259063 0.6020063612
2300286200.0 -0.7844316958 0.6138092319
2350285900.0 -0.7756674827 0.6248718715
2400285600.0 -0.7665022516 0.6356852038
2450285300.0 -0.7578023772 0.6462334533
2500285000.0 -0.7482825159 0.6574609866
2550284700.0 -0.7395018879 0.6678106753
2600284400.0 -0.7295281387 0.6778000097
2650284100.0 -0.7208607672 0.6886025725
2700283800.0 -0.7100978668 0.6989927175
2750283500.0 -0.6997979578 0.7092986248
2800283200.0 -0.6901890492 0.7193475841
2850282900.0 -0.6798440665 0.7290327858
2900282600.0 -0.6696471372 0.7386983715
2950282300.0 -0.6594224158 0.7476389331
3000282000.0 -0.6487786729 0.7572156606
3050281700.0 -0.6376103829 0.7666213924
3100281400.0 -0.6258950179 0.7756375428
3150281100.0 -0.6141613795 0.78498827
3200280800.0 -0.6024597386 0.7934938162
3250280500.0 -0.5918602263 0.8012557569
3300280200.0 -0.5805597888 0.8091476971
3350279900.0 -0.5691266742 0.8166984872
3400279600.0 -0.5571273219 0.8243231536
3450279300.0 -0.5460810191 0.8315199838
3500279000.0 -0.5340112565 0.8387668527
3550278700.0 -0.5217143458 0.8460632294
3600278400.0 -0.5097458054 0.8531505109
3650278100.0 -0.4961542546 0.860818415
3700277800.0 -0.484275748 0.8672001079
3750277500.0 -0.4721425865 0.8738107799
3800277200.0 -0.4593703325 0.8803412669
3850276900.0 -0.4471317368 0.8864226297
3900276600.0 -0.4361227083 0.8919717101
3950276300.0 -0.4235059838 0.8978848347
4000276000.0 -0.411472569 0.9040778645
4050275700.0 -0.3983799528 0.9102179157
4100275400.0 -0.3868956379 0.9156470799
4150275100.0 -0.3740505507 0.9211926435
4200274800.0 -0.3610818699 0.926905045
4250274500.0 -0.3487647959 0.931676127
4300274200.0 -0.3356970971 0.9367495359
4350273900.0 -0.3220455094 0.9419118476
4400273600.0 -0.3072993147 0.9472774645
4450273300.0 -0.2920185244 0.9522483562
4500273000.0 -0.2786579982 0.9566439226
4550272700.0 -0.264445427 0.9608797073
4600272400.0 -0.2489964984 0.9651426241
4650272100.0 -0.2371723394 0.968263703
4700271800.0 -0.2238752952 0.9715198612
4750271500.0 -0.2119161259 0.9744685157
4800271200.0 -0.1993269993 0.9771450512
4850270900.0 -0.1852474335 0.9800549291
4900270600.0 -0.1717304854 0.9824854125
4950270300.0 -0.1576244156 0.9848620663
5000270000.0 -0.1435592912 0.9871841709
5050269700.0 -0.1300966045 0.9887203826
5100269400.0 -0.1166007358 0.9902906177
5150269100.0 -0.1033721864 0.9918480547
5200268800.0 -0.0898188774 0.993127286
5250268500.0 -0.0768154659 0.9944376399
5300268200.0 -0.0637795603 0.9949694424
5350267900.0 -0.0517743453 0.9950990649
5400267600.0 -0.035515314 0.9963088532
5450267300.0 -0.0226600928 0.9968139051
5500267000.0 -0.0077263401 0.9968645665
5550266700.0 0.0067340164 0.9971908437
5600266400.0 0.0225706987 0.9971267623
5650266100.0 0.0386234734 0.9968045694
5700265800.0 0.0529535453 0.9958379817
5750265500.0 0.0682114548 0.9949910305
5800265200.0 0.0822899293 0.9937750813
5850264900.0 0.0958790339 0.9936170298
5900264600.0 0.1124862347 0.9916398189
5950264300.0 0.124525658 0.9897367858
6000264000.0 0.1383299165 0.9876421722
6050263700.0 0.1510882557 0.9860906761
6100263400.0 0.1637063926 0.9841931702
6150263100.0 0.1786516963 0.9817844769
6200262800.0 0.1893497632 0.9800671273
6250262500.0 0.2020303601 0.9775749168
6300262200.0 0.2151109052 0.9747065138
6350261900.0 0.2279970171 0.9717546176
6400261600.0 0.2421091942 0.9685035109
6450261300.0 0.2534112227 0.9656397868
6500261000.0 0.2665309712 0.9622368477
6550260700.0 0.2790850725 0.9580222155
6600260400.0 0.2925085763 0.9539538003
6650260100.0 0.3062634906 0.9500869468
6700259800.0 0.3187924632 0.9459429038
6750259500.0 0.3319737715 0.9408624881
6800259200.0 0.3451196955 0.9360019437
6850258900.0 0.3568560565 0.9307640693
6900258600.0 0.3693234463 0.9262866691
6950258300.0 0.381661835 0.9208471286
7000258000.0 0.3937016425 0.9153656763
7050257700.0 0.4059177161 0.9095515379
7100257400.0 0.4187041784 0.9033383727
7150257100.0 0.42913714 0.898158613
7200256800.0 0.4419028153 0.8917796725
7250256500.0 0.4535470484 0.8855357431
7300256200.0 0.4663558543 0.8786123836
7350255900.0 0.4786469801 0.8719633089
7400255600.0 0.4914035594 0.864959545
7450255300.0 0.5063372288 0.8561072966
7500255000.0 0.5181206113 0.8490432653
7550254700.0 0.5308117804 0.8405465946
7600254400.0 0.5438435253 0.8321985514
7650254100.0 0.5554448791 0.8246794383
7700253800.0 0.5678728174 0.8166152495
7750253500.0 0.579153843 0.8086785037
7800253200.0 0.5899548673 0.8010662826
7850252900.0 0.5997978184 0.7935805512
7900252600.0 0.6114740582 0.7847419612
7950252300.0 0.620509607 0.7778453861
8000252000.0 0.6307989353 0.7699026976
8050251700.0 0.6413955077 0.7616601334
8100251400.0 0.6514376064 0.7533746907
8150251100.0 0.6614428445 0.7445550374
8200250800.0 0.6714203876 0.7366189895
8250250500.0 0.6799999668 0.7283519084
8300250200.0 0.6895162156 0.7196131368
8350249900.0 0.6988326076 0.7111463898
8400249600.0 0.7072325779 0.7026962483
8450249300.0 0.7164522978 0.6935447483
8500249000.0 0.7249626889 0.6845176963
8550248700.0 0.7335153471 0.675321759
8600248400.0 0.7421972751 0.6659003036
8650248100.0 0.7498456548 0.6565582839
8700247800.0 0.7592175946 0.6456387325
8750247500.0 0.7674358474 0.6356109225
8800247200.0 0.7752100993 0.6256270665
8850246900.0 0.7843534352 0.6141180753
8900246600.0 0.7926394649 0.6029797495
8950246300.0 0.8022374877 0.5904132065
9000246000.0 0.8108951731 0.5779952571
9050245700.0 0.8198566777 0.5654042747
9100245400.0 0.8281792036 0.5530299193
9150245100.0 0.837221374 0.5395917418
9200244800.0 0.8469099701 0.5249954345
9250244500.0 0.8558076722 0.5098256095
9300244200.0 0.864151663 0.4957549898
9350243900.0 0.8719749323 0.4818210007
9400243600.0 0.8790680287 0.4689353157
9450243300.0 0.8850706597 0.4567740873
9500243000.0 0.89147 0.443949383
9550242700.0 0.8958102123 0.4353704249
9600242400.0 0.8998440415 0.4270338501
9650242100.0 0.90371298 0.4198419883
9700241800.0 0.9084771649 0.4110668697
9750241500.0 0.9122378248 0.4033485157
9800241200.0 0.9170211729 0.3935436558
9850240900.0 0.9224052908 0.3822784581
9900240600.0 0.9278001618 0.3707976593
9950240300.0 0.9342296353 0.3548745395
10000240000.0 0.9388785531 0.3432638004
10050239700.0 0.9443195228 0.328241975
10100239400.0 0.9493236565 0.3133144764
10150239100.0 0.9540171028 0.2985250406
10200238800.0 0.9577575333 0.2839388862
10250238500.0 0.9612654103 0.270588975
10300238200.0 0.9646552799 0.2567060326
10350237900.0 0.9671962728 0.2437646693
10400237600.0 0.9698150931 0.2306720639
10450237300.0 0.9726992791 0.2168796921
10500237000.0 0.9749967361 0.2047425433
10550236700.0 0.9769203999 0.1914428224
10600236400.0 0.9797198689 0.1776636631
10650236100.0 0.9813088032 0.1631243871
10700235800.0 0.98349751 0.1511248406
10750235500.0 0.9859843198 0.1382476491
10800235200.0 0.9881423885 0.1239291735
10850234900.0 0.9896766332 0.1096293683
10900234600.0 0.9917323658 0.0952321657
10950234300.0 0.993124988 0.0820599186
11000234000.0 0.9949198256 0.0672223322
11050233700.0 0.996635721 0.0514188851
11100233400.0 0.9979997754 0.0346934818
11150233100.0 0.9988592183 0.0185813576
11200232800.0 0.9992590166 0.0033807563
11250232500.0 1.00026352 -0.012865575
11300232200.0 1.000765008 -0.0310783007
11350231900.0 1.000622726 -0.0463969225
11400231600.0 1.000650421 -0.0615194746
11450231300.0 0.9996041222 -0.0763337415
11500231000.0 0.9993109445 -0.093195984
11550230700.0 0.9972309705 -0.1072513148
11600230400.0 0.9960365325 -0.1205991216
11650230100.0 0.9936766911 -0.1324749159
11700229800.0 0.9916509341 -0.1466980875
11750229500.0 0.9894102805 -0.1613055602
11800229200.0 0.9869080492 -0.1755960971
11850228900.0 0.9833009838 -0.1886807562
11900228600.0 0.9800009389 -0.1991286003
11950228300.0 0.9765385141 -0.2097996177
12000228000.0 0.973765527 -0.2192976714
12050227700.0 0.9703515051 -0.2322215677
12100227400.0 0.9673969392 -0.2425872732
12150227100.0 0.9625100929 -0.2592528994
12200226800.0 0.9590017305 -0.2710445449
12250226500.0 0.9552499848 -0.2823987872
12300226200.0 0.9511867404 -0.2954581366
12350225900.0 0.9455122893 -0.309119738
12400225600.0 0.9414944581 -0.3220211357
12450225300.0 0.9377516495 -0.3346154434
12500225000.0 0.9322727793 -0.3489082412
12550224700.0 0.9271451374 -0.362222655
12600224400.0 0.9224408156 -0.3750734111
12650224100.0 0.9166686528 -0.3891447013
12700223800.0 0.9114714959 -0.4015350744
12750223500.0 0.9059892826 -0.414357523
12800223200.0 0.9007458705 -0.4270020956
12850222900.0 0.8952865071 -0.4392797584
12900222600.0 0.8894703733 -0.4510667516
12950222300.0 0.8828773495 -0.4645502847
13000222000.0 0.8767134904 -0.4758315686
13050221700.0 0.8703166195 -0.4888409574
13100221400.0 0.8633691842 -0.5005821872
13150221100.0 0.8561953575 -0.5127041991
13200220800.0 0.8488022237 -0.5248892109
13250220500.0 0.8418152068 -0.5367331359
13300220200.0 0.8340551685 -0.5479682874
13350219900.0 0.8260631967 -0.5601497411
13400219600.0 0.8174181999 -0.5723854096
13450219300.0 0.8079730711 -0.585738413
13500219000.0 0.7977157429 -0.5996911894
13550218700.0 0.7874509498 -0.6126010831
13600218400.0 0.7777413571 -0.6246145173
13650218100.0 0.7681704092 -0.6358412864
13700217800.0 0.756540828 -0.6487104041
13750217500.0 0.7469762958 -0.6602857398
13800217200.0 0.7362809289 -0.6712004064
13850216900.0 0.7251156226 -0.6827144966
13900216600.0 0.715329531 -0.6918439534
13950216300.0 0.704514105 -0.7018296723
14000216000.0 0.6946275737 -0.7112049187
14050215700.0 0.6847664963 -0.7196301199
14100215400.0 0.6750498854 -0.7290335533
14150215100.0 0.665820158 -0.7373998963
14200214800.0 0.6569673563 -0.746016933
14250214500.0 0.6466836624 -0.7551768425
14300214200.0 0.6365154943 -0.7643634921
14350213900.0 0.6253303037 -0.7734887109
14400213600.0 0.6140542877 -0.7830748853
14450213300.0 0.6012218431 -0.7930494917
14500213000.0 0.5881574733 -0.803135292
14550212700.0 0.5761508243 -0.8117579329
14600212400.0 0.5639437701 -0.8205124493
14650212100.0 0.5510943732 -0.8288256222
14700211800.0 0.5370159019 -0.839274763
14750211500.0 0.5247130069 -0.8467733225
14800211200.0 0.5125329006 -0.8550610892
14850210900.0 0.5004119699 -0.8624226334
14900210600.0 0.4868261767 -0.8703320416
14950210300.0 0.4733733164 -0.8779051053
15000210000.0 0.4604278703 -0.8848190421
15050209700.0 0.4478886135 -0.8912791615
15100209400.0 0.4347324028 -0.8971699801
15150209100.0 0.4223156684 -0.9028049341
15200208800.0 0.4085476322 -0.9088812462
15250208500.0 0.3970873017 -0.9135643766
15300208200.0 0.3850355806 -0.9185677292
15350207900.0 0.3715760771 -0.9232741492
15400207600.0 0.3565781051 -0.9279803351
15450207300.0 0.3416314415 -0.933675129
15500207000.0 0.3274914847 -0.9383131413
15550206700.0 0.3127019781 -0.943191173
15600206400.0 0.2967678376 -0.9477875952
15650206100.0 0.281622357 -0.9521044697
15700205800.0 0.2674285109 -0.9554581951
15750205500.0 0.2530852676 -0.9595182715
15800205200.0 0.2387520529 -0.9629898979
15850204900.0 0.2245865895 -0.966250191
15900204600.0 0.2097011227 -0.9697649961
15950204300.0 0.1959626987 -0.9727215026
16000204000.0 0.1821752872 -0.9754849046
16050203700.0 0.1671935755 -0.9782488722
16100203400.0 0.1532348602 -0.9802684302
16150203100.0 0.1391535864 -0.9826645451
16200202800.0 0.1255159794 -0.9847795633
16250202500.0 0.1101845009 -0.9866477217
16300202200.0 0.0955019973 -0.9879742811
16350201900.0 0.080860449 -0.9895000432
16400201600.0 0.0664098109 -0.9904124098
16450201300.0 0.0512520865 -0.9914775921
16500201000.0 0.0348979816 -0.9922249961
16550200700.0 0.0194055353 -0.992611338
16600200400.0 0.003545421 -0.9926969702
16650200100.0 -0.0126722158 -0.9928313186
16700199800.0 -0.0292570833 -0.9921752534
16750199500.0 -0.0480674508 -0.9911955344
16800199200.0 -0.0639263953 -0.9907679673
16850198900.0 -0.0792581742 -0.9901341012
16900198600.0 -0.093461202 -0.9887505963
16950198300.0 -0.1068749437 -0.987721566
17000198000.0 -0.1202350481 -0.9861770265
17050197700.0 -0.1336187488 -0.9840815132
17100197400.0 -0.1470634681 -0.9815685293
17150197100.0 -0.1596998226 -0.9799001501
17200196800.0 -0.1726630804 -0.9773662862
17250196500.0 -0.1860010575 -0.9753401711
17300196200.0 -0.1982179731 -0.9729130291
17350195900.0 -0.2106906865 -0.9705471398
17400195600.0 -0.2230375528 -0.9679137272
17450195300.0 -0.236262037 -0.9651682133
17500195000.0 -0.2496443952 -0.9618734884
17550194700.0 -0.2634326706 -0.9579746964
17600194400.0 -0.2773013886 -0.9544097894
17650194100.0 -0.2910313023 -0.9503478108
17700193800.0 -0.3038713708 -0.9459909099
17750193500.0 -0.3180425941 -0.9417688173
17800193200.0 -0.3320886614 -0.9359136074
17850192900.0 -0.3467463631 -0.931177529
17900192600.0 -0.3614317122 -0.9251811964
17950192300.0 -0.376976475 -0.9186444183
18000192000.0 -0.391539041 -0.9113534303
18050191700.0 -0.4052452139 -0.9036644146
18100191400.0 -0.419415348 -0.8961830911
18150191100.0 -0.4339893113 -0.8885014851
18200190800.0 -0.4502919297 -0.8797591301
18250190500.0 -0.4668738049 -0.8704343267
18300190200.0 -0.4821953365 -0.8619257215
18350189900.0 -0.4973465697 -0.8534609781
18400189600.0 -0.5114848431 -0.8444480082
18450189300.0 -0.5250593769 -0.8372829506
18500189000.0 -0.5384701747 -0.8288148954
18550188700.0 -0.5514505681 -0.8213817027
18600188400.0 -0.5632451038 -0.8134277739
18650188100.0 -0.5744265659 -0.8068452035
18700187800.0 -0.5859524062 -0.8000276079
18750187500.0 -0.5967027854 -0.7932957025
18800187200.0 -0.6076172051 -0.7857264831
18850186900.0 -0.6182285847 -0.7782133633
18900186600.0 -0.628852367 -0.7703657008
18950186300.0 -0.6395125623 -0.7622456198
19000186000.0 -0.6471107247 -0.755224727
19050185700.0 -0.6569993788 -0.7479311608
19100185400.0 -0.6668610206 -0.7393246817
19150185100.0 -0.6771862348 -0.7306350041
19200184800.0 -0.6866102122 -0.7221782692
19250184500.0 -0.6973369199 -0.7122072533
19300184200.0 -0.7082057683 -0.7032877941
19350183900.0 -0.7191210604 -0.6934333213
19400183600.0 -0.7286223854 -0.6838367095
19450183300.0 -0.7377715777 -0.673898535
19500183000.0 -0.7454828769 -0.6635229632
19550182700.0 -0.7551537282 -0.6529804845
19600182400.0 -0.7655804488 -0.6412979735
19650182100.0 -0.7755381268 -0.6294745824
19700181800.0 -0.7856004708 -0.6164513862
19750181500.0 -0.7956665769 -0.6032006702
19800181200.0 -0.8058316828 -0.5887578164
19850180900.0 -0.8153507427 -0.5742627561
19900180600.0 -0.8230535017 -0.5603041531
19950180300.0 -0.8323758022 -0.5443320534
20000180000.0 -0.8276835484 -0.544886874
20050179700.0 -0.8356551184 -0.5315628053
20100179400.0 -0.8442101234 -0.5179567249
20150179100.0 -0.8515961563 -0.5053801452
20200178800.0 -0.8605822628 -0.4925338906
20250178500.0 -0.8693748146 -0.479740405
20300178200.0 -0.8782443694 -0.4650087711
20350177900.0 -0.8870907144 -0.4512431372
20400177600.0 -0.8960032945 -0.4372310086
20450177300.0 -0.9037151195 -0.4225814488
20500177000.0 -0.9116031191 -0.4085793964
20550176700.0 -0.9189931258 -0.394994652
20600176400.0 -0.9258249843 -0.3818472466
20650176100.0 -0.932725598 -0.3691609663
20700175800.0 -0.9395715427 -0.3570234573
20750175500.0 -0.9455677458 -0.3444131162
20800175200.0 -0.9501922901 -0.3332498924
20850174900.0 -0.9554399886 -0.3226520327
20900174600.0 -0.9591696994 -0.3100118494
20950174300.0 -0.9643663131 -0.2982204114
21000174000.0 -0.967771226 -0.2863518776
21050173700.0 -0.9708810467 -0.274524781
21100173400.0 -0.975027149 -0.2620265045
21150173100.0 -0.9794396702 -0.2490148973
21200172800.0 -0.9824925474 -0.2356175667
21250172500.0 -0.9860874778 -0.2215633167
21300172200.0 -0.9890427305 -0.2074828636
21350171900.0 -0.9907871322 -0.1938561807
21400171600.0 -0.992207404 -0.1796059706
21450171300.0 -0.9925617754 -0.1646663551
21500171000.0 -0.9924212045 -0.1490029463
21550170700.0 -0.9921751632 -0.135320296
21600170400.0 -0.9941377329 -0.1189868735
21650170100.0 -0.9920994553 -0.1035743491
21700169800.0 -0.9902912305 -0.0880069348
21750169500.0 -0.9885615673 -0.0728396071
21800169200.0 -0.9882078645 -0.0570587209
21850168900.0 -0.9876263871 -0.0409538252
21900168600.0 -0.9863926857 -0.0249136089
21950168300.0 -0.9847402443 -0.0094103837
22000168000.0 -0.9839862596 0.0053345954
22050167700.0 -0.9833673059 0.0194619496
22100167400.0 -0.9832585733 0.0344068469
22150167100.0 -0.9833127192 0.0495491764
22200166800.0 -0.9837314044 0.0653449228
22250166500.0 -0.9834579345 0.082217023
22300166200.0 -0.9820238192 0.0984325266
22350165900.0 -0.9811436227 0.1143753938
22400165600.0 -0.9801690274 0.1302953578
22450165300.0 -0.9771064675 0.1453826572
22500165000.0 -0.9753312273 0.1588825148
22550164700.0 -0.9736703386 0.1740340572
22600164400.0 -0.9720542081 0.1897246904
22650164100.0 -0.9700097795 0.2040260208
22700163800.0 -0.9670351292 0.2198251382
22750163500.0 -0.9648235919 0.2347856731
22800163200.0 -0.9619023902 0.2486795824
22850162900.0 -0.9595880161 0.2617316413
22900162600.0 -0.9578834344 0.2755506413
22950162300.0 -0.956817463 0.2884969568
23000162000.0 -0.9555414192 0.3003532875
23050161700.0 -0.9533752116 0.3129125383
23100161400.0 -0.950349972 0.325981108
23150161100.0 -0.9479642344 0.337490639
23200160800.0 -0.9460225237 0.3503895159
23250160500.0 -0.9416687428 0.3620238215
23300160200.0 -0.9396491709 0.3737805341
23350159900.0 -0.9348588457 0.3874763189
23400159600.0 -0.9307008454 0.4000078674
23450159300.0 -0.9262229379 0.4130028748
23500159000.0 -0.921943855 0.4257071179
23550158700.0 -0.9170936705 0.4386805004
23600158400.0 -0.9117558435 0.4514973866
23650158100.0 -0.9057869824 0.4650277887
23700157800.0 -0.8984540355 0.4785909463
23750157500.0 -0.8897049218 0.4921265096
23800157200.0 -0.8813994504 0.5055764254
23850156900.0 -0.8731690983 0.5176508731
23900156600.0 -0.8629380374 0.5301439212
23950156300.0 -0.8550383159 0.543032925
24000156000.0 -0.8458516837 0.5544735709
24050155700.0 -0.8362613597 0.5661261973
24100155400.0 -0.8265757229 0.5787880644
24150155100.0 -0.8161915047 0.5898015053
24200154800.0 -0.8052646081 0.6010792389
24250154500.0 -0.7939684118 0.6135078649
24300154200.0 -0.782553211 0.6248461041
24350153900.0 -0.7712774816 0.6351032045
24400153600.0 -0.7588855472 0.6459337191
24450153300.0 -0.7471904251 0.6564137544
24500153000.0 -0.7363481628 0.6663307803
24550152700.0 -0.7252908451 0.6761823946
24600152400.0 -0.7137044522 0.6851632351
24650152100.0 -0.7020898415 0.6940620591
