!Created with skrf (http://scikit-rf.org).
# Hz S RI R 50.0 
!freq ReS11 ImS11
300000.0 -0.9777868013 -0.1102876806
50299700.0 -0.999997642 0.0158990823
100299400.0 -0.9981899084 0.0288726507
150299100.0 -1.002916747 0.0455324828
200298800.0 -0.9998244652 0.059027399
250298500.0 -0.9975292161 0.0725692943
300298200.0 -0.986169064 0.0883828917
350297900.0 -0.9940328979 0.0992603387
400297600.0 -0.9933927695 0.1158463217
450297300.0 -0.9910083363 0.1296566903
500297000.0 -0.9895103031 0.1444880401
550296700.0 -0.9841507828 0.1567282466
600296400.0 -1.017201038 0.1902074494
650296100.0 -0.9822138978 0.1868005293
700295800.0 -0.9792338335 0.2012746779
750295500.0 -0.9763320786 0.2149916301
800295200.0 -0.9728318954 0.2292310137
850294900.0 -0.9692566729 0.2433585512
900294600.0 -0.965753065 0.2568383551
950294300.0 -0.9619150137 0.2705901489
1000294000.0 -0.9578778803 0.2845519278
1050293700.0 -0.9535816254 0.2983623179
1100293400.0 -0.9493185319 0.3126782691
1150293100.0 -0.9453128376 0.3245883656
1200292800.0 -0.940053379 0.3389550861
1250292500.0 -0.9346033136 0.3523181693
1300292200.0 -0.928827238 0.3656760836
1350291900.0 -0.9231815184 0.3796089681
1400291600.0 -0.9177792733 0.3926549134
1450291300.0 -0.9122935421 0.4049416126
1500291000.0 -0.9061365457 0.418291798
1550290700.0 -0.8994348155 0.431684928
1600290400.0 -0.8931424019 0.4445365879
1650290100.0 -0.886399366 0.4567522127
1700289800.0 -0.8796203057 0.4702154928
1750289500.0 -0.8722775896 0.4824630036
1800289200.0 -0.8651962624 0.4952845458
1850288900.0 -0.8585123369 0.5066265116
1900288600.0 -0.8508517408 0.5198872558
1950288300.0 -0.8425490341 0.5324193514
2000288000.0 -0.8351027285 0.5435067627
2050287700.0 -0.8270054405 0.5560793635
2100287400.0 -0.8189233849 0.5678026832
2150287100.0 -0.810272692 0.5797972127
2200286800.0 -0.8026395035 0.5900504575
2250286500.0 -0.7936060988 0.6020132131
2300286200.0 -0.7848108662 0.6137068618
2350285900.0 -0.7760112009 0.6249418799
2400285600.0 -0.7669091936 0.6357492987
2450285300.0 -0.7584442773 0.6460720921
2500285000.0 -0.7486780873 0.657193945
2550284700.0 -0.7397002303 0.6675894167
2600284400.0 -0.7302757659 0.6779105752
2650284100.0 -0.721325544 0.6887174872
2700283800.0 -0.7107163584 0.6988838055
2750283500.0 -0.700330269 0.7094762346
2800283200.0 -0.6904569762 0.7192137023
2850282900.0 -0.6802854162 0.729022955
2900282600.0 -0.6701930219 0.7385337131
2950282300.0 -0.6598547599 0.7477874762
3000282000.0 -0.649024432 0.7574361422
3050281700.0 -0.6379222285 0.7666742051
3100281400.0 -0.6260285625 0.7758407581
3150281100.0 -0.6142340881 0.7854267163
3200280800.0 -0.6026744534 0.793735432
3250280500.0 -0.5918661703 0.8014662203
3300280200.0 -0.580571786 0.8093081523
3350279900.0 -0.5690479602 0.8168780702
3400279600.0 -0.5568688719 0.8245206841
3450279300.0 -0.5458149161 0.8316752334
3500279000.0 -0.5337642528 0.8386289982
3550278700.0 -0.5213575482 0.8462107045
3600278400.0 -0.5088274891 0.8531823128
3650278100.0 -0.4957180987 0.8608823755
3700277800.0 -0.4839476604 0.8672370329
3750277500.0 -0.4716280875 0.8738246391
3800277200.0 -0.4589512189 0.8803783845
3850276900.0 -0.4468529081 0.8862182363
3900276600.0 -0.4361559114 0.8918423365
3950276300.0 -0.423468457 0.8978124563
4000276000.0 -0.4113754604 0.9038745543
4050275700.0 -0.3984905083 0.9100619448
4100275400.0 -0.3872608677 0.9154445
4150275100.0 -0.3746394299 0.92116185
4200274800.0 -0.3614359102 0.9265874834
4250274500.0 -0.3496498859 0.9315715832
4300274200.0 -0.3363440435 0.937084664
4350273900.0 -0.3225814586 0.9422712576
4400273600.0 -0.3076451572 0.9474106371
4450273300.0 -0.2924017974 0.9525863773
4500273000.0 -0.2786379016 0.9569318235
4550272700.0 -0.2644818395 0.9609495934
4600272400.0 -0.2490371689 0.9654039101
4650272100.0 -0.2373828439 0.9684059866
4700271800.0 -0.2240737069 0.9718196041
4750271500.0 -0.2123852726 0.9747273329
4800271200.0 -0.1999006192 0.9773861724
4850270900.0 -0.1859103955 0.9803263438
4900270600.0 -0.1721408541 0.9826496025
4950270300.0 -0.1580101347 0.985162817
5000270000.0 -0.1436069768 0.9870604779
5050269700.0 -0.1301290896 0.9885444071
5100269400.0 -0.1165969312 0.9904110552
5150269100.0 -0.1033029891 0.9917222144
5200268800.0 -0.0900555647 0.9929760515
5250268500.0 -0.0768670046 0.9941358163
5300268200.0 -0.0639213663 0.9949254743
5350267900.0 -0.0516866103 0.9953259887
5400267600.0 -0.0353626264 0.9964554479
5450267300.0 -0.0224460638 0.996837101
5500267000.0 -0.0069452801 0.9971203696
5550266700.0 0.0078005907 0.997292709
5600266400.0 0.0236042676 0.9972567973
5650266100.0 0.0399784608 0.9969214342
5700265800.0 0.0542806831 0.9959365927
5750265500.0 0.0697783555 0.9955163671
5800265200.0 0.0834647309 0.994114896
5850264900.0 0.0971877795 0.9935325762
5900264600.0 0.1133605581 0.991314648
5950264300.0 0.1256165615 0.9898652316
6000264000.0 0.1397177423 0.9880689916
6050263700.0 0.1520994751 0.9864531692
6100263400.0 0.1641293348 0.9844550668
6150263100.0 0.1789771366 0.9827015132
6200262800.0 0.1894827428 0.9806684003
6250262500.0 0.2021740226 0.9780405355
6300262200.0 0.2149130957 0.975450129
6350261900.0 0.2280903354 0.97244489
6400261600.0 0.2418439012 0.969197603
6450261300.0 0.2531885152 0.9663471775
6500261000.0 0.2661341299 0.9629925884
6550260700.0 0.2790930793 0.9590107151
6600260400.0 0.2923115876 0.9546052156
6650260100.0 0.3063378912 0.9502034121
6700259800.0 0.3180434582 0.9460891535
6750259500.0 0.3321560651 0.9410690475
6800259200.0 0.3451674475 0.9362283133
6850258900.0 0.357224807 0.9311775029
6900258600.0 0.3690810313 0.9258946237
6950258300.0 0.381658029 0.9208506684
7000258000.0 0.3938616644 0.9154877682
7050257700.0 0.4060829453 0.909272212
7100257400.0 0.4186492561 0.9030683247
7150257100.0 0.4291740762 0.8976534028
7200256800.0 0.4419756346 0.8915745069
7250256500.0 0.453344585 0.8850100831
7300256200.0 0.4668680374 0.8784068871
7350255900.0 0.4790254386 0.8714085383
7400255600.0 0.4924815382 0.864083931
7450255300.0 0.5082434465 0.8556002108
7500255000.0 0.5193549079 0.848367213
7550254700.0 0.5333235627 0.8394511093
7600254400.0 0.5456861225 0.8310063202
7650254100.0 0.5570918205 0.8230820962
7700253800.0 0.5692391023 0.8153901673
7750253500.0 0.5807780079 0.807669934
7800253200.0 0.5911932433 0.7998671551
7850252900.0 0.6008823418 0.7927802923
7900252600.0 0.6126901504 0.7839121622
7950252300.0 0.6213390553 0.7774450351
8000252000.0 0.6315552312 0.7697350379
8050251700.0 0.6421665044 0.7613659048
8100251400.0 0.6520721375 0.7532594801
8150251100.0 0.6621415731 0.7445323406
8200250800.0 0.6715544176 0.736685913
8250250500.0 0.6806675483 0.7286109278
8300250200.0 0.6899259135 0.7201300288
8350249900.0 0.6987147985 0.7114094122
8400249600.0 0.7070146016 0.7033285097
8450249300.0 0.7164210558 0.6940523385
8500249000.0 0.7248809743 0.6852139674
8550248700.0 0.7329941445 0.6762161049
8600248400.0 0.7414238103 0.6666756238
8650248100.0 0.7492386029 0.6572244613
8700247800.0 0.7587981983 0.6461241264
8750247500.0 0.7669524009 0.6360126033
8800247200.0 0.7750647911 0.6257402214
8850246900.0 0.7841857738 0.6143331783
8900246600.0 0.7922889031 0.602831765
8950246300.0 0.801930538 0.5900848901
9000246000.0 0.8114092698 0.5771531775
9050245700.0 0.8203694931 0.5641368346
9100245400.0 0.8291656162 0.5514602658
9150245100.0 0.8383423905 0.5378332064
9200244800.0 0.848046387 0.522604224
9250244500.0 0.8578517651 0.507032328
9300244200.0 0.866190954 0.4923705619
9350243900.0 0.8739734892 0.4784147568
9400243600.0 0.8804667327 0.4660002989
9450243300.0 0.8864144499 0.4542020966
9500243000.0 0.8925128938 0.4420641656
9550242700.0 0.8962063305 0.4344751315
9600242400.0 0.900225057 0.4268851901
9650242100.0 0.9038391031 0.4204584899
9700241800.0 0.9083646753 0.412191254
9750241500.0 0.9120551067 0.4049026094
9800241200.0 0.9168787617 0.395561398
9850240900.0 0.9222986624 0.3840045137
9900240600.0 0.927968223 0.3723145296
9950240300.0 0.9348383984 0.3557990595
10000240000.0 0.9389346063 0.3448666643
10050239700.0 0.9449658083 0.3294638105
10100239400.0 0.9499743289 0.3138933199
10150239100.0 0.9542612885 0.2991812192
10200238800.0 0.9585966662 0.2841140932
10250238500.0 0.9617345275 0.2707752156
10300238200.0 0.9649046244 0.2568188291
10350237900.0 0.9676132687 0.2438882371
10400237600.0 0.9701344926 0.2308510251
10450237300.0 0.9726775033 0.2170698706
10500237000.0 0.9748645893 0.204679817
10550236700.0 0.9773069485 0.1906247825
10600236400.0 0.9796186482 0.1771273008
10650236100.0 0.981347311 0.1626355167
10700235800.0 0.9837940888 0.1506853187
10750235500.0 0.985877817 0.1373191483
10800235200.0 0.9875912755 0.1236769807
10850234900.0 0.9893690592 0.1088719655
10900234600.0 0.9917211306 0.09430019
10950234300.0 0.9935095195 0.0810282419
11000234000.0 0.995311104 0.0658872558
11050233700.0 0.9969640422 0.0494336542
11100233400.0 0.9985979056 0.0320050067
11150233100.0 0.999575604 0.0159108418
11200232800.0 1.000660975 0.0001313485
11250232500.0 1.000767778 -0.0162185678
11300232200.0 1.001461304 -0.0347197992
11350231900.0 1.00170828 -0.0500711913
11400231600.0 1.001047732 -0.0658650814
11450231300.0 1.000895507 -0.0802483786
11500231000.0 0.999501244 -0.0974504264
11550230700.0 0.9980532469 -0.1108686533
11600230400.0 0.9963306058 -0.1231101136
11650230100.0 0.9948087818 -0.1350079063
11700229800.0 0.992481427 -0.1488514043
11750229500.0 0.9902987575 -0.163725509
11800229200.0 0.9874203228 -0.177616319
11850228900.0 0.9840942249 -0.1905435612
11900228600.0 0.9805333036 -0.1998411582
11950228300.0 0.977163533 -0.2104676071
12000228000.0 0.9748109242 -0.2191500239
12050227700.0 0.9704761927 -0.2324697571
12100227400.0 0.9674319609 -0.2428157861
12150227100.0 0.9630250105 -0.2603068812
12200226800.0 0.9589850489 -0.2711876384
12250226500.0 0.9551551669 -0.2835228699
12300226200.0 0.9511112518 -0.2957466291
12350225900.0 0.9466868414 -0.3092236348
12400225600.0 0.9419634244 -0.3224329672
12450225300.0 0.9376798761 -0.3346209468
12500225000.0 0.9317613136 -0.3493753636
12550224700.0 0.9265612409 -0.3630783144
12600224400.0 0.9216843816 -0.3758816719
12650224100.0 0.9159938018 -0.3902319695
12700223800.0 0.9106751071 -0.403042311
12750223500.0 0.9051051255 -0.4159027375
12800223200.0 0.9001857689 -0.4282530502
12850222900.0 0.8947404551 -0.4406408892
12900222600.0 0.8886976893 -0.4526018322
12950222300.0 0.8823186726 -0.4657919515
13000222000.0 0.8765459363 -0.4766686337
13050221700.0 0.8698126704 -0.4894344247
13100221400.0 0.8626103394 -0.5016321878
13150221100.0 0.8559692691 -0.5139393163
13200220800.0 0.8492461884 -0.5254705477
13250220500.0 0.8416438817 -0.5381066054
13300220200.0 0.8343339395 -0.548690549
13350219900.0 0.8261911892 -0.5607225203
13400219600.0 0.817701155 -0.5728990417
13450219300.0 0.8081595045 -0.586860786
13500219000.0 0.7978416591 -0.600371654
13550218700.0 0.7877871859 -0.6133385404
13600218400.0 0.7773474379 -0.6261599008
13650218100.0 0.7677840894 -0.6369807424
13700217800.0 0.7564666495 -0.6494562113
13750217500.0 0.7461397133 -0.6602678905
13800217200.0 0.7349511881 -0.6724684934
13850216900.0 0.7245546455 -0.6840060481
13900216600.0 0.7144597072 -0.6925617476
13950216300.0 0.7041887339 -0.7027024511
14000216000.0 0.6935052901 -0.7122626159
14050215700.0 0.68399126 -0.7201512267
14100215400.0 0.674061283 -0.7292884135
14150215100.0 0.6651462546 -0.7375284089
14200214800.0 0.65583703 -0.7463668516
14250214500.0 0.6456569895 -0.7555987509
14300214200.0 0.6353409373 -0.7648366286
14350213900.0 0.6243448502 -0.7742376315
14400213600.0 0.6123817992 -0.783916186
14450213300.0 0.599295001 -0.7944636996
14500213000.0 0.5859557901 -0.8040082062
14550212700.0 0.5739032562 -0.8133967277
14600212400.0 0.5611806055 -0.8220417145
14650212100.0 0.5481515886 -0.8309258275
14700211800.0 0.5347026276 -0.8401542971
14750211500.0 0.5218590007 -0.84861408
14800211200.0 0.5101615083 -0.8564541478
14850210900.0 0.4980750563 -0.8641671826
14900210600.0 0.484382655 -0.8720437559
14950210300.0 0.4710727595 -0.8796545436
15000210000.0 0.4583746771 -0.8863551416
15050209700.0 0.4456942902 -0.8923407298
15100209400.0 0.4326087345 -0.8983542267
15150209100.0 0.4202344959 -0.9040251547
15200208800.0 0.4073996238 -0.9096993564
15250208500.0 0.396313023 -0.9140576451
15300208200.0 0.3845123936 -0.9184672841
15350207900.0 0.370441437 -0.9232896629
15400207600.0 0.3555233249 -0.9284741366
15450207300.0 0.3415727016 -0.9337350364
15500207000.0 0.3272838238 -0.9381317895
15550206700.0 0.3123082823 -0.9434901039
15600206400.0 0.295762221 -0.9480342868
15650206100.0 0.2802925766 -0.9520718848
15700205800.0 0.2664765913 -0.9557363677
15750205500.0 0.2518652791 -0.9593624529
15800205200.0 0.2371512349 -0.9627764459
15850204900.0 0.2228517709 -0.9660369399
15900204600.0 0.2080674003 -0.9696380407
15950204300.0 0.1939088468 -0.9724375512
16000204000.0 0.1797154104 -0.9752210744
16050203700.0 0.1647550741 -0.9780439305
16100203400.0 0.1503833013 -0.9799426645
16150203100.0 0.136184049 -0.982363647
16200202800.0 0.1223534242 -0.9847546644
16250202500.0 0.1079671625 -0.9861189137
16300202200.0 0.0921889081 -0.9875255303
16350201900.0 0.0778206001 -0.9892679248
16400201600.0 0.0628080859 -0.9901548462
16450201300.0 0.047732796 -0.9910446754
16500201000.0 0.0311494566 -0.9918366588
16550200700.0 0.0152652087 -0.9923805731
16600200400.0 -0.0004855779 -0.9926272479
16650200100.0 -0.0166880284 -0.9925895825
16700199800.0 -0.0333528411 -0.9919806267
16750199500.0 -0.0521226479 -0.9914731564
16800199200.0 -0.0677748673 -0.9906197331
16850198900.0 -0.0834181412 -0.9896537687
16900198600.0 -0.0970119301 -0.988574423
16950198300.0 -0.1103288844 -0.9869859151
17000198000.0 -0.123490785 -0.9857007927
17050197700.0 -0.1361528094 -0.9838283219
17100197400.0 -0.148491357 -0.9817642989
17150197100.0 -0.1609486104 -0.9796418394
17200196800.0 -0.1740418501 -0.9775508901
17250196500.0 -0.1872891958 -0.9753706513
17300196200.0 -0.1992728341 -0.9730531793
17350195900.0 -0.2111169936 -0.9704568537
17400195600.0 -0.2234742089 -0.9681189465
17450195300.0 -0.2364463217 -0.9653580924
17500195000.0 -0.2496750788 -0.9622191001
17550194700.0 -0.2638820593 -0.958296887
17600194400.0 -0.2775420563 -0.9542432594
17650194100.0 -0.2913825591 -0.950399086
17700193800.0 -0.3043638572 -0.9459093725
17750193500.0 -0.3188148645 -0.9412611985
17800193200.0 -0.3330182864 -0.9362710219
17850192900.0 -0.348147834 -0.9304966473
17900192600.0 -0.3632630192 -0.9245854273
17950192300.0 -0.3786118097 -0.9175701489
18000192000.0 -0.3933643511 -0.9100945409
18050191700.0 -0.4071837182 -0.9024844079
18100191400.0 -0.4213609767 -0.8947263758
18150191100.0 -0.4362871725 -0.8866907008
18200190800.0 -0.4531902525 -0.8775388497
18250190500.0 -0.4699910145 -0.8679078358
18300190200.0 -0.4855025668 -0.8589218482
18350189900.0 -0.5002032611 -0.8508884537
18400189600.0 -0.5150182771 -0.8425721947
18450189300.0 -0.5283333483 -0.8342946996
18500189000.0 -0.5412867149 -0.8261238484
18550188700.0 -0.5547715218 -0.8185736722
18600188400.0 -0.5658547176 -0.8123192143
18650188100.0 -0.5770517709 -0.8057000782
18700187800.0 -0.5876208724 -0.7986809045
18750187500.0 -0.5987918974 -0.792449955
18800187200.0 -0.6091890709 -0.7851822223
18850186900.0 -0.6193740644 -0.7781544423
18900186600.0 -0.6297490503 -0.7706034014
18950186300.0 -0.6399102606 -0.7629131657
19000186000.0 -0.6469768758 -0.7568006788
19050185700.0 -0.6566071443 -0.7498241615
19100185400.0 -0.6663960999 -0.7409826485
19150185100.0 -0.6763321768 -0.7324426681
19200184800.0 -0.6859221176 -0.7238098263
19250184500.0 -0.6965418164 -0.7148356523
19300184200.0 -0.7081373267 -0.7045780904
19350183900.0 -0.7189617895 -0.6956468413
19400183600.0 -0.7283846785 -0.6850146919
19450183300.0 -0.736660374 -0.6752349363
19500183000.0 -0.7451592745 -0.6660850178
19550182700.0 -0.7551703782 -0.6549443367
19600182400.0 -0.7654658894 -0.6432512017
19650182100.0 -0.7762010309 -0.6305555259
19700181800.0 -0.7863594095 -0.6177812016
19750181500.0 -0.7970648342 -0.6034169669
19800181200.0 -0.8076770804 -0.5885568909
19850180900.0 -0.8172394166 -0.5732180379
19900180600.0 -0.824853286 -0.5588890104
19950180300.0 -0.8339432228 -0.5425771428
20000180000.0 -0.8275814219 -0.5450417341
20050179700.0 -0.8357205094 -0.5323448342
20100179400.0 -0.8435130059 -0.518326099
20150179100.0 -0.8517343638 -0.506342834
20200178800.0 -0.8603071532 -0.4929895974
20250178500.0 -0.8698407413 -0.4792025379
20300178200.0 -0.8795018405 -0.4645734416
20350177900.0 -0.8883869089 -0.4503470737
20400177600.0 -0.897478113 -0.4360112925
20450177300.0 -0.9055704138 -0.4213824508
20500177000.0 -0.913561116 -0.4075811912
20550176700.0 -0.9213745453 -0.3939356344
20600176400.0 -0.9282088526 -0.3807228242
20650176100.0 -0.9346554419 -0.3683733328
20700175800.0 -0.9417749686 -0.3562855476
20750175500.0 -0.9486211754 -0.3443685727
20800175200.0 -0.9528935512 -0.3335069499
20850174900.0 -0.9577312703 -0.3230376766
20900174600.0 -0.9626663102 -0.3106464482
20950174300.0 -0.965697653 -0.2999116002
21000174000.0 -0.9695636918 -0.2882847355
21050173700.0 -0.9728835977 -0.2769826147
21100173400.0 -0.9773735808 -0.264877799
21150173100.0 -0.9809578572 -0.2519594393
21200172800.0 -0.9845132998 -0.2383276619
21250172500.0 -0.9879520893 -0.2247391042
21300172200.0 -0.9904454236 -0.2104716368
21350171900.0 -0.9917982503 -0.1958133257
21400171600.0 -0.9934388204 -0.1819617398
21450171300.0 -0.9935198546 -0.1676924182
21500171000.0 -0.9932914122 -0.1524149495
21550170700.0 -0.9924779888 -0.1365741079
21600170400.0 -0.993937683 -0.1213984945
21650170100.0 -0.9921684783 -0.10536404
21700169800.0 -0.9896832974 -0.0900018063
21750169500.0 -0.988643072 -0.0750079613
21800169200.0 -0.9888016818 -0.0582463933
21850168900.0 -0.9867298159 -0.0416642198
21900168600.0 -0.9859364778 -0.0259386248
21950168300.0 -0.983829941 -0.0096928817
22000168000.0 -0.9830248381 0.0050658381
22050167700.0 -0.9826644354 0.0192454864
22100167400.0 -0.9822979045 0.0345907302
22150167100.0 -0.9830855972 0.0499832222
22200166800.0 -0.983475525 0.0662626796
22250166500.0 -0.9830132431 0.0831673511
22300166200.0 -0.9819098783 0.100154119
22350165900.0 -0.9808534121 0.1165814681
22400165600.0 -0.9789350528 0.1332692832
22450165300.0 -0.9777758601 0.1478592209
22500165000.0 -0.975673946 0.1609879133
22550164700.0 -0.9742092572 0.1757339116
22600164400.0 -0.9714835043 0.1921112854
22650164100.0 -0.9705638377 0.2071042959
22700163800.0 -0.9674352419 0.2234553113
22750163500.0 -0.9655371962 0.2379469193
22800163200.0 -0.9621523701 0.2517550392
22850162900.0 -0.9603435025 0.2652341025
22900162600.0 -0.9585539135 0.2780805929
22950162300.0 -0.9575358205 0.2909968472
23000162000.0 -0.956542409 0.3026048663
23050161700.0 -0.9543885163 0.3149559988
23100161400.0 -0.9523230288 0.3285362383
23150161100.0 -0.9497369868 0.3407158642
23200160800.0 -0.9470359537 0.3526277754
23250160500.0 -0.9436358619 0.3644919757
23300160200.0 -0.9412850521 0.3760846298
23350159900.0 -0.9373487834 0.3889813638
23400159600.0 -0.9331879864 0.4019196005
23450159300.0 -0.9284470663 0.4158275766
23500159000.0 -0.9233102146 0.4287560873
23550158700.0 -0.9191149134 0.4419941475
23600158400.0 -0.9136079015 0.4550169484
23650158100.0 -0.9073754647 0.4689174201
23700157800.0 -0.8998020745 0.4827152322
23750157500.0 -0.890961514 0.4967751793
23800157200.0 -0.8828516303 0.5098656446
23850156900.0 -0.8731453802 0.5230506488
23900156600.0 -0.8643510103 0.5355777022
23950156300.0 -0.8546855675 0.5474818899
24000156000.0 -0.8456527953 0.5597701753
24050155700.0 -0.8352005071 0.5714503061
24100155400.0 -0.8261777984 0.5827247574
24150155100.0 -0.8156105947 0.5952479129
24200154800.0 -0.8033926428 0.6061912782
24250154500.0 -0.7922570933 0.6180891843
24300154200.0 -0.7805114232 0.6297958633
24350153900.0 -0.7689724184 0.6398318466
24400153600.0 -0.7566800782 0.6503095349
24450153300.0 -0.7446866922 0.6603638183
24500153000.0 -0.733405589 0.6698926839
24550152700.0 -0.722446891 0.6797632125
24600152400.0 -0.7110075029 0.6890350076
24650152100.0 -0.6988212343 0.6975929289
