!Created with skrf (http://scikit-rf.org).
# Hz S RI R 50.0 
!freq ReS11 ImS11
300000.0 -0.9732211863 -0.1232236314
50299700.0 -0.9998280635 0.0149438559
100299400.0 -0.9979980803 0.0279611946
150299100.0 -1.002594021 0.0447436088
200298800.0 -0.9994089464 0.0581874878
250298500.0 -0.9971953005 0.0716631886
300298200.0 -0.9858106606 0.0873449105
350297900.0 -0.9940306276 0.09822976
400297600.0 -0.9931656786 0.1149429772
450297300.0 -0.9909108205 0.1286928889
500297000.0 -0.9893086665 0.1434653126
550296700.0 -0.9842890133 0.1557813774
600296400.0 -1.017198094 0.1891483916
650296100.0 -0.9823264037 0.1857377517
700295800.0 -0.9793769024 0.2000316021
750295500.0 -0.9761907827 0.2141656076
800295200.0 -0.9731285494 0.2282793554
850294900.0 -0.9697754045 0.2418646671
900294600.0 -0.9658285741 0.2555945365
950294300.0 -0.9621557077 0.2691078265
1000294000.0 -0.958257382 0.2831680425
1050293700.0 -0.9536128608 0.2970999884
1100293400.0 -0.9495121575 0.3114136177
1150293100.0 -0.9455064057 0.3234477009
1200292800.0 -0.9400894895 0.3376647206
1250292500.0 -0.9346235442 0.3512814587
1300292200.0 -0.9290419402 0.3643814344
1350291900.0 -0.9236107348 0.3784427923
1400291600.0 -0.9179100937 0.3915370148
1450291300.0 -0.9125202751 0.4040049138
1500291000.0 -0.9061088964 0.4173567766
1550290700.0 -0.8997648625 0.4305340254
1600290400.0 -0.8934307221 0.443657341
1650290100.0 -0.8868391829 0.4557832109
1700289800.0 -0.8798279113 0.4691220088
1750289500.0 -0.8731509652 0.4816608492
1800289200.0 -0.8655005858 0.4942895622
1850288900.0 -0.8587060303 0.5057999519
1900288600.0 -0.8510456945 0.5187242054
1950288300.0 -0.84292122 0.531289403
2000288000.0 -0.8353781866 0.5429727093
2050287700.0 -0.8271644213 0.5552032182
2100287400.0 -0.8195421258 0.5666785596
2150287100.0 -0.8108625262 0.5785364458
2200286800.0 -0.8030248123 0.5892352434
2250286500.0 -0.7939766647 0.6013349527
2300286200.0 -0.785292233 0.6128806872
2350285900.0 -0.7769668721 0.6235154688
2400285600.0 -0.7679665083 0.634461565
2450285300.0 -0.7590448323 0.6450449075
2500285000.0 -0.7492788745 0.6565692192
2550284700.0 -0.7400592285 0.6670206842
2600284400.0 -0.7310521217 0.6769284734
2650284100.0 -0.7223446326 0.6871773819
2700283800.0 -0.7119926522 0.6973250812
2750283500.0 -0.7018466439 0.7082217797
2800283200.0 -0.6914771786 0.7180387795
2850282900.0 -0.6811002613 0.7280604449
2900282600.0 -0.6705824926 0.7377845125
2950282300.0 -0.6600299268 0.7472220415
3000282000.0 -0.6495691277 0.7566107824
3050281700.0 -0.6384715504 0.7659291948
3100281400.0 -0.6267308256 0.7749496617
3150281100.0 -0.6156619719 0.7838524585
3200280800.0 -0.6041264684 0.7922246807
3250280500.0 -0.5930889368 0.8003401363
3300280200.0 -0.5813681778 0.8083161906
3350279900.0 -0.5691967525 0.8166478976
3400279600.0 -0.5565474038 0.8245126469
3450279300.0 -0.5456163964 0.8316472907
3500279000.0 -0.5338284135 0.8385635237
3550278700.0 -0.5215278191 0.8454328987
3600278400.0 -0.5099304072 0.8526004836
3650278100.0 -0.4968324237 0.8600470672
3700277800.0 -0.4848728544 0.8663632244
3750277500.0 -0.4723168792 0.8730988621
3800277200.0 -0.459717458 0.8799320097
3850276900.0 -0.4477215055 0.885511518
3900276600.0 -0.4368307196 0.8911760347
3950276300.0 -0.4247182514 0.8972457122
4000276000.0 -0.4129877704 0.9029775988
4050275700.0 -0.4005572928 0.9090223136
4100275400.0 -0.3894184875 0.9147196999
4150275100.0 -0.3760177729 0.9202949635
4200274800.0 -0.3627590356 0.9262214276
4250274500.0 -0.3500042083 0.9310785995
4300274200.0 -0.3367254397 0.9367680109
4350273900.0 -0.3224691988 0.9421816081
4400273600.0 -0.3076976118 0.9471805972
4450273300.0 -0.2929108305 0.9522698218
4500273000.0 -0.2797774546 0.9566067054
4550272700.0 -0.2660778786 0.9604193494
4600272400.0 -0.2509838842 0.9645863982
4650272100.0 -0.2396410033 0.9676440651
4700271800.0 -0.2266736487 0.9711657434
4750271500.0 -0.2150781245 0.9740159366
4800271200.0 -0.2028212588 0.9766725885
4850270900.0 -0.1890993247 0.9796316756
4900270600.0 -0.1752608598 0.9817811592
4950270300.0 -0.1607675937 0.984642184
5000270000.0 -0.1463145048 0.986551923
5050269700.0 -0.1329180593 0.9880788559
5100269400.0 -0.1185570325 0.9902214642
5150269100.0 -0.1047566671 0.9915736627
5200268800.0 -0.0913936644 0.9927278788
5250268500.0 -0.0782233463 0.9934258129
5300268200.0 -0.0646969967 0.994486045
5350267900.0 -0.0515821636 0.9954512871
5400267600.0 -0.0354788879 0.9962864469
5450267300.0 -0.0222289655 0.9966480199
5500267000.0 -0.0069473807 0.9969650404
5550266700.0 0.0081198194 0.9970347686
5600266400.0 0.0239770728 0.9973259568
5650266100.0 0.0404848758 0.9967396898
5700265800.0 0.0548251209 0.9958108019
5750265500.0 0.069654656 0.9952425763
5800265200.0 0.083319817 0.9942227632
5850264900.0 0.0964190712 0.993078322
5900264600.0 0.1128412989 0.9912660559
5950264300.0 0.1246083759 0.9898422133
6000264000.0 0.1378741255 0.9876869818
6050263700.0 0.1497152301 0.9866857871
6100263400.0 0.1618204107 0.9846450679
6150263100.0 0.1764691025 0.9822965576
6200262800.0 0.1861626232 0.9810356909
6250262500.0 0.198895245 0.9785867788
6300262200.0 0.2110079652 0.976207894
6350261900.0 0.2239856869 0.9734188834
6400261600.0 0.2377692741 0.9702602314
6450261300.0 0.2488062091 0.9675890824
6500261000.0 0.2620870724 0.9640212669
6550260700.0 0.2752021771 0.9601605392
6600260400.0 0.2887383273 0.9560125019
6650260100.0 0.302749091 0.9516466383
6700259800.0 0.3147892986 0.9473344908
6750259500.0 0.3285137916 0.9425223898
6800259200.0 0.3424284574 0.9375283513
6850258900.0 0.3544912282 0.932093758
6900258600.0 0.3671232016 0.9269201641
6950258300.0 0.3797281773 0.9216421476
7000258000.0 0.3912324692 0.9162073448
7050257700.0 0.4031388827 0.9104484119
7100257400.0 0.4164446683 0.9039258266
7150257100.0 0.4273815298 0.8988160517
7200256800.0 0.440485962 0.8922033227
7250256500.0 0.4529026247 0.8856137683
7300256200.0 0.4656493652 0.8786142549
7350255900.0 0.4789746675 0.8718073225
7400255600.0 0.492904454 0.8640466904
7450255300.0 0.5079921718 0.8549869274
7500255000.0 0.5211678623 0.8471472916
7550254700.0 0.5350728583 0.8382342246
7600254400.0 0.5471058894 0.8300264919
7650254100.0 0.5589478327 0.8217203694
7700253800.0 0.570881864 0.8140487463
7750253500.0 0.5817147268 0.8063851666
7800253200.0 0.5925154139 0.7985335921
7850252900.0 0.6020640188 0.7912413791
7900252600.0 0.6137149576 0.7828059456
7950252300.0 0.6222609547 0.7762799669
8000252000.0 0.6321857356 0.7687173162
8050251700.0 0.6427720581 0.7604670201
8100251400.0 0.6524918009 0.7526334756
8150251100.0 0.6627559502 0.7441596446
8200250800.0 0.6718340357 0.7359816301
8250250500.0 0.6804933702 0.7280337221
8300250200.0 0.6893297045 0.7197519932
8350249900.0 0.6990628346 0.7108289035
8400249600.0 0.7072278 0.7028470523
8450249300.0 0.7159277907 0.6940369034
8500249000.0 0.7244501687 0.6854026058
8550248700.0 0.7327546031 0.6764017367
8600248400.0 0.7410354385 0.6668218267
8650248100.0 0.7488254172 0.6572984
8700247800.0 0.758029494 0.646233401
8750247500.0 0.7663142404 0.6363527409
8800247200.0 0.7740487411 0.626019266
8850246900.0 0.7828617024 0.614662779
8900246600.0 0.7913172964 0.6031404746
8950246300.0 0.800596939 0.5904744928
9000246000.0 0.809327187 0.578408109
9050245700.0 0.817660415 0.5661698571
9100245400.0 0.8261526157 0.5540911987
9150245100.0 0.8350768531 0.5411080409
9200244800.0 0.8440277636 0.5267527422
9250244500.0 0.8537550691 0.5120071963
9300244200.0 0.861480533 0.4985058277
9350243900.0 0.869265296 0.4850609051
9400243600.0 0.8757113126 0.4733952345
9450243300.0 0.8813356877 0.4628178163
9500243000.0 0.8876237225 0.4512497395
9550242700.0 0.8915011554 0.443773149
9600242400.0 0.8959628826 0.4362120149
9650242100.0 0.8999369147 0.4293148934
9700241800.0 0.9052407732 0.420732558
9750241500.0 0.9091011568 0.4130641395
9800241200.0 0.9140723821 0.4036237523
9850240900.0 0.9200274157 0.3920120725
9900240600.0 0.9260576935 0.3800459783
9950240300.0 0.932880387 0.3634661291
10000240000.0 0.9380452204 0.3510573266
10050239700.0 0.9439047959 0.3350359077
10100239400.0 0.9494495654 0.3187975716
10150239100.0 0.9538146719 0.3032543387
10200238800.0 0.9584501439 0.2877773104
10250238500.0 0.9616908746 0.2742561462
10300238200.0 0.964760482 0.2602411519
10350237900.0 0.9674570377 0.2468756068
10400237600.0 0.9700071073 0.2335268799
10450237300.0 0.9728567987 0.2198616308
10500237000.0 0.9751694891 0.2069693407
10550236700.0 0.9776374065 0.1921660256
10600236400.0 0.9797360083 0.1787209114
10650236100.0 0.9818161745 0.1644174217
10700235800.0 0.9838408643 0.1522550271
10750235500.0 0.9861651 0.1384211647
10800235200.0 0.9879516933 0.1242858221
10850234900.0 0.990079702 0.1093235184
10900234600.0 0.9920248557 0.0947234286
10950234300.0 0.9937155992 0.0811794301
11000234000.0 0.9955918928 0.0655298929
11050233700.0 0.9973631923 0.0490180796
11100233400.0 0.9987843347 0.0311084647
11150233100.0 1.000107704 0.0142023907
11200232800.0 1.000909674 -0.0021958115
11250232500.0 1.002114194 -0.0197219869
11300232200.0 1.002210676 -0.0381921472
11350231900.0 1.001628759 -0.0537723588
11400231600.0 1.001808125 -0.069626849
11450231300.0 1.001328267 -0.0859174737
11500231000.0 0.9997188571 -0.1014790564
11550230700.0 0.9987532642 -0.114960932
11600230400.0 0.9971042385 -0.1274632265
11650230100.0 0.9948532961 -0.1390425468
11700229800.0 0.9922823783 -0.1541569365
11750229500.0 0.9901189874 -0.1682068924
11800229200.0 0.9872823711 -0.1816948061
11850228900.0 0.9835296456 -0.1934192855
11900228600.0 0.979946102 -0.2030817406
11950228300.0 0.9766585148 -0.2131694791
12000228000.0 0.9738098778 -0.2217154584
12050227700.0 0.9699738636 -0.2349282768
12100227400.0 0.9666746554 -0.2456875536
12150227100.0 0.9622523492 -0.2617326297
12200226800.0 0.9583861015 -0.2732443658
12250226500.0 0.9541224693 -0.2854048017
12300226200.0 0.9496100871 -0.297922705
12350225900.0 0.9443371815 -0.3123256971
12400225600.0 0.9404721672 -0.3243777637
12450225300.0 0.9359862968 -0.3375343186
12500225000.0 0.9303669089 -0.3518184707
12550224700.0 0.9248143896 -0.3657817325
12600224400.0 0.9200058754 -0.3781488031
12650224100.0 0.9141292001 -0.3924416963
12700223800.0 0.9088668468 -0.4053829448
12750223500.0 0.9032982407 -0.4185205313
12800223200.0 0.8982049512 -0.4308251364
12850222900.0 0.8929059102 -0.4433299059
12900222600.0 0.8870580722 -0.4552589272
12950222300.0 0.8809762337 -0.4679819018
13000222000.0 0.87510538 -0.4795957023
13050221700.0 0.8684751349 -0.4921663463
13100221400.0 0.8616801062 -0.503897094
13150221100.0 0.8546408648 -0.5162873547
13200220800.0 0.8478392135 -0.5278687956
13250220500.0 0.8404273693 -0.5404102995
13300220200.0 0.8329021687 -0.5512027913
13350219900.0 0.8245539271 -0.5631158728
13400219600.0 0.8164266704 -0.5750177252
13450219300.0 0.8071919648 -0.5878833858
13500219000.0 0.7972536278 -0.6014611469
13550218700.0 0.7871547839 -0.6137361059
13600218400.0 0.7773253342 -0.6252766683
13650218100.0 0.7682500083 -0.6361082515
13700217800.0 0.757460102 -0.6475402246
13750217500.0 0.7470958882 -0.659548629
13800217200.0 0.7363248084 -0.6708766183
13850216900.0 0.7266583188 -0.681489048
13900216600.0 0.7160634429 -0.6898520683
13950216300.0 0.7046424058 -0.7000394567
14000216000.0 0.6953121494 -0.7090149903
14050215700.0 0.6863944719 -0.7179143279
14100215400.0 0.6766134292 -0.7264501269
14150215100.0 0.6673397249 -0.7352509189
14200214800.0 0.6579199383 -0.7439966123
14250214500.0 0.6475110581 -0.7536021949
14300214200.0 0.6370257394 -0.7630208397
14350213900.0 0.6258016844 -0.7727118251
14400213600.0 0.6141680288 -0.7824311009
14450213300.0 0.6009921027 -0.7926306247
14500213000.0 0.5878283799 -0.8023803338
14550212700.0 0.5760114924 -0.8119264805
14600212400.0 0.5635708021 -0.8205474858
14650212100.0 0.5505239682 -0.8298491134
14700211800.0 0.5373749402 -0.8384757038
14750211500.0 0.5248875549 -0.8474423954
14800211200.0 0.5121994373 -0.8554616912
14850210900.0 0.4999527017 -0.8629804223
14900210600.0 0.4867343259 -0.871002318
14950210300.0 0.473346824 -0.8786481101
15000210000.0 0.4605743261 -0.885307201
15050209700.0 0.448213019 -0.8912903391
15100209400.0 0.4355927184 -0.8973761139
15150209100.0 0.4238659743 -0.9029012993
15200208800.0 0.4102594985 -0.9085816232
15250208500.0 0.3993743089 -0.9123036683
15300208200.0 0.387363639 -0.9171052635
15350207900.0 0.3737767159 -0.9221042933
15400207600.0 0.3591305856 -0.9274758548
15450207300.0 0.3445572812 -0.9320729873
15500207000.0 0.3304532507 -0.9368765505
15550206700.0 0.3157474136 -0.9417366308
15600206400.0 0.2994635575 -0.9467297812
15650206100.0 0.2836541535 -0.9510162799
15700205800.0 0.2700925938 -0.9543337893
15750205500.0 0.2559969124 -0.95781902
15800205200.0 0.2420523484 -0.9612417909
15850204900.0 0.2278570603 -0.9647019054
15900204600.0 0.2126199212 -0.9684456205
15950204300.0 0.1982695843 -0.9714788541
16000204000.0 0.1840820575 -0.9743364614
16050203700.0 0.1688676661 -0.9772127775
16100203400.0 0.1541317203 -0.979383097
16150203100.0 0.1395491367 -0.982445462
16200202800.0 0.1252479764 -0.9840642455
16250202500.0 0.110329158 -0.9857886028
16300202200.0 0.094592043 -0.9875674019
16350201900.0 0.0796773191 -0.9888761943
16400201600.0 0.0649100244 -0.9901254199
16450201300.0 0.0494532922 -0.9908626228
16500201000.0 0.032558319 -0.991887276
16550200700.0 0.0164740512 -0.9923287961
16600200400.0 0.0005114396 -0.9927221187
16650200100.0 -0.0155579776 -0.9924816793
16700199800.0 -0.0322408512 -0.9921094261
16750199500.0 -0.0511148367 -0.9915856634
16800199200.0 -0.0672037773 -0.9900568283
16850198900.0 -0.0823600199 -0.9893935548
16900198600.0 -0.0964097171 -0.9884815136
16950198300.0 -0.1100102968 -0.9874175629
17000198000.0 -0.1234039857 -0.9864833265
17050197700.0 -0.1363045511 -0.983859708
17100197400.0 -0.1488659033 -0.9817620181
17150197100.0 -0.1616638244 -0.9799125623
17200196800.0 -0.1742785929 -0.9778463218
17250196500.0 -0.1874904281 -0.9754588841
17300196200.0 -0.1996386675 -0.9731799246
17350195900.0 -0.2114460659 -0.9705919579
17400195600.0 -0.2232395696 -0.9682257299
17450195300.0 -0.2362129741 -0.9653187848
17500195000.0 -0.2493772134 -0.9621826522
17550194700.0 -0.2630935568 -0.9586009345
17600194400.0 -0.277210558 -0.9547146709
17650194100.0 -0.2905165899 -0.9503506391
17700193800.0 -0.3032920412 -0.9464823877
17750193500.0 -0.3175273245 -0.9417432656
17800193200.0 -0.3321262132 -0.9368427745
17850192900.0 -0.3468326165 -0.9309911325
17900192600.0 -0.3618025528 -0.9248551822
17950192300.0 -0.377160113 -0.917741174
18000192000.0 -0.3921486532 -0.9106624338
18050191700.0 -0.4058781594 -0.9026925154
18100191400.0 -0.4200756715 -0.895031894
18150191100.0 -0.4349502759 -0.8870153758
18200190800.0 -0.4517764 -0.8779862496
18250190500.0 -0.4685995044 -0.868405617
18300190200.0 -0.4840185256 -0.859516605
18350189900.0 -0.4994399028 -0.8509105961
18400189600.0 -0.5138005835 -0.8428970253
18450189300.0 -0.5272393701 -0.8347195536
18500189000.0 -0.5412984995 -0.8268385505
18550188700.0 -0.5540701649 -0.8185576035
18600188400.0 -0.5654536819 -0.8117706915
18650188100.0 -0.5767289432 -0.8055145772
18700187800.0 -0.588148861 -0.7987813964
18750187500.0 -0.5988394478 -0.7922924331
18800187200.0 -0.6095784505 -0.7851829217
18850186900.0 -0.6197913038 -0.7781999833
18900186600.0 -0.6299197145 -0.7709243806
18950186300.0 -0.6402652866 -0.7631374658
19000186000.0 -0.6475311137 -0.7568567572
19050185700.0 -0.6572116111 -0.7497566813
19100185400.0 -0.6671475906 -0.7414350001
19150185100.0 -0.6771654432 -0.7330670791
19200184800.0 -0.68637408 -0.724691618
19250184500.0 -0.697254077 -0.7156732332
19300184200.0 -0.7077301672 -0.7063827267
19350183900.0 -0.7185660991 -0.696568925
19400183600.0 -0.7284653262 -0.6861237261
19450183300.0 -0.7372962753 -0.6765022227
19500183000.0 -0.7457498663 -0.6670902713
19550182700.0 -0.7553695893 -0.6555384379
19600182400.0 -0.7654554914 -0.6441616034
19650182100.0 -0.7763643736 -0.6317566726
19700181800.0 -0.786410551 -0.6185673439
19750181500.0 -0.7969995813 -0.6044404601
19800181200.0 -0.8071719825 -0.5895063444
19850180900.0 -0.8166060115 -0.5741021636
19900180600.0 -0.824389174 -0.5596895273
19950180300.0 -0.8335555497 -0.543039352
20000180000.0 -0.8232211647 -0.5471566169
20050179700.0 -0.8324527986 -0.5343104881
20100179400.0 -0.8394070732 -0.5210326902
20150179100.0 -0.8477871185 -0.5094830544
20200178800.0 -0.8567634354 -0.4980962582
20250178500.0 -0.8656294092 -0.4858134599
20300178200.0 -0.8751922319 -0.4718844907
20350177900.0 -0.8846692334 -0.4575499527
20400177600.0 -0.8937427503 -0.4434881993
20450177300.0 -0.9018377955 -0.4294681707
20500177000.0 -0.9100858052 -0.4152528961
20550176700.0 -0.9180777775 -0.4016246202
20600176400.0 -0.9252139057 -0.3890208839
20650176100.0 -0.9313920865 -0.3767385036
20700175800.0 -0.9383128587 -0.3650003454
20750175500.0 -0.9443234402 -0.3532709918
20800175200.0 -0.9488436517 -0.3423011941
20850174900.0 -0.9534846823 -0.3313237556
20900174600.0 -0.9579689389 -0.3202934042
20950174300.0 -0.9608694579 -0.3108896999
21000174000.0 -0.9635161335 -0.2994891824
21050173700.0 -0.9659984174 -0.2900049886
21100173400.0 -0.9696361699 -0.2781593274
21150173100.0 -0.9736441741 -0.266466889
21200172800.0 -0.9769630722 -0.2533225579
21250172500.0 -0.9806450747 -0.2395106489
21300172200.0 -0.9841672972 -0.2256716287
21350171900.0 -0.9859720528 -0.2111164601
21400171600.0 -0.9880214393 -0.1971372384
21450171300.0 -0.9884329285 -0.1833218509
21500171000.0 -0.989285827 -0.1677113331
21550170700.0 -0.9890705826 -0.1534392738
21600170400.0 -0.9898054516 -0.137379056
21650170100.0 -0.9900734852 -0.1216823936
21700169800.0 -0.9898566818 -0.1071031952
21750169500.0 -0.9889154117 -0.0894231763
21800169200.0 -0.9909063922 -0.0740692341
21850168900.0 -0.9902313482 -0.0569516741
21900168600.0 -0.989649776 -0.0412151984
21950168300.0 -0.9890338242 -0.0250800156
22000168000.0 -0.9885961595 -0.010159447
22050167700.0 -0.9897091236 0.0046986906
22100167400.0 -0.9902177333 0.0201269284
22150167100.0 -0.9911805192 0.0363301503
22200166800.0 -0.9914643759 0.0522496504
22250166500.0 -0.9911289866 0.0700903937
22300166200.0 -0.9903901265 0.0863957037
22350165900.0 -0.9890076977 0.1026779701
22400165600.0 -0.988206386 0.1184287956
22450165300.0 -0.9864917231 0.1326292726
22500165000.0 -0.9845985997 0.1485942963
22550164700.0 -0.9830889246 0.1637181549
22600164400.0 -0.9807589835 0.180248688
22650164100.0 -0.9779259776 0.1957451628
22700163800.0 -0.9746393563 0.2117131196
22750163500.0 -0.9720582419 0.2263335916
22800163200.0 -0.9688688746 0.2393759467
22850162900.0 -0.9661473508 0.2528562126
22900162600.0 -0.9645699309 0.2670201172
22950162300.0 -0.962870329 0.2804566755
23000162000.0 -0.9608833965 0.2931082029
23050161700.0 -0.9584241765 0.3066111462
23100161400.0 -0.9554369688 0.3201525359
23150161100.0 -0.9531099486 0.3324229933
23200160800.0 -0.9502969433 0.3457811538
23250160500.0 -0.9468347873 0.3581779938
23300160200.0 -0.9440220648 0.3706595972
23350159900.0 -0.9399677493 0.3842246636
23400159600.0 -0.9356921828 0.3983877432
23450159300.0 -0.929963486 0.4124568095
23500159000.0 -0.9250368094 0.4258199856
23550158700.0 -0.9199106707 0.4397083473
23600158400.0 -0.9140164566 0.4537174694
23650158100.0 -0.9070918306 0.4683685718
23700157800.0 -0.898507416 0.4825148375
23750157500.0 -0.8892542799 0.4968990591
23800157200.0 -0.879384865 0.5103023921
23850156900.0 -0.8702587463 0.5228487055
23900156600.0 -0.8602128709 0.5358576005
23950156300.0 -0.8504388511 0.5488656768
24000156000.0 -0.8406951524 0.5611551538
24050155700.0 -0.8303902553 0.5729932372
24100155400.0 -0.8197211189 0.5861211294
24150155100.0 -0.809239953 0.5974198204
24200154800.0 -0.7976472575 0.6093324228
24250154500.0 -0.7867542663 0.6213788736
24300154200.0 -0.7746350613 0.6337819982
24350153900.0 -0.7631316016 0.6444384996
24400153600.0 -0.7505749653 0.6553132534
24450153300.0 -0.7386484146 0.665477321
24500153000.0 -0.727156878 0.6756670467
24550152700.0 -0.7155362075 0.6852800243
24600152400.0 -0.7036956428 0.6945961698
24650152100.0 -0.6913625143 0.7042514274
