!Created with skrf (http://scikit-rf.org).
# Hz S RI R 50.0 
!freq ReS11 ImS11
300000.0 -0.9748043426 -0.1211017385
50299700.0 -1.000132653 0.0152463228
100299400.0 -0.9979341739 0.0280898099
150299100.0 -1.002696035 0.0451230403
200298800.0 -0.9995236477 0.0582324666
250298500.0 -0.9973090418 0.07195628
300298200.0 -0.9860517171 0.0875587715
350297900.0 -0.9938741271 0.0984538364
400297600.0 -0.9930340474 0.1150280587
450297300.0 -0.9909684493 0.128774867
500297000.0 -0.9894781562 0.1436798956
550296700.0 -0.9844283158 0.156025255
600296400.0 -1.017216776 0.1891903457
650296100.0 -0.9821698577 0.1859131541
700295800.0 -0.9793578078 0.2001985539
750295500.0 -0.9761737436 0.2141909735
800295200.0 -0.9730056171 0.2282239804
850294900.0 -0.9697446997 0.2421841422
900294600.0 -0.96573259 0.2558467738
950294300.0 -0.9622671872 0.269585973
1000294000.0 -0.9583215376 0.2834509674
1050293700.0 -0.9536067221 0.2971984404
1100293400.0 -0.949361201 0.3117783137
1150293100.0 -0.9454036997 0.3235145848
1200292800.0 -0.9400998745 0.337849242
1250292500.0 -0.9346267619 0.3513966053
1300292200.0 -0.9288827334 0.3644957744
1350291900.0 -0.9233456022 0.378582629
1400291600.0 -0.9180791254 0.3916408582
1450291300.0 -0.9124781214 0.4040804468
1500291000.0 -0.906298577 0.4175032847
1550290700.0 -0.8998395072 0.4309962441
1600290400.0 -0.8934257289 0.4438789266
1650290100.0 -0.8869017687 0.456008603
1700289800.0 -0.8798761771 0.4693289909
1750289500.0 -0.8728061239 0.4817342721
1800289200.0 -0.8656340745 0.4946341896
1850288900.0 -0.8587971097 0.5059793637
1900288600.0 -0.8509676647 0.5189712302
1950288300.0 -0.8427488176 0.5314796727
2000288000.0 -0.8354445536 0.5430361707
2050287700.0 -0.827231587 0.5552001374
2100287400.0 -0.8193950622 0.5668035237
2150287100.0 -0.8108154827 0.5789926688
2200286800.0 -0.8029245974 0.5894202583
2250286500.0 -0.7940588109 0.6015262109
2300286200.0 -0.7852437458 0.6130427333
2350285900.0 -0.7767647871 0.6237419573
2400285600.0 -0.7675994502 0.6346434994
2450285300.0 -0.7591050141 0.6451757337
2500285000.0 -0.7492011257 0.6568775135
2550284700.0 -0.7401679027 0.6669790791
2600284400.0 -0.7310391692 0.6770677196
2650284100.0 -0.7221766298 0.6873953109
2700283800.0 -0.7117917987 0.6980450511
2750283500.0 -0.701425947 0.7087457921
2800283200.0 -0.691344436 0.7184389859
2850282900.0 -0.681054295 0.7282643012
2900282600.0 -0.6710432632 0.7381014724
2950282300.0 -0.6603803808 0.7470890344
3000282000.0 -0.6497402966 0.7568536428
3050281700.0 -0.6387117851 0.7659860619
3100281400.0 -0.626596033 0.7750923103
3150281100.0 -0.6152080534 0.784374182
3200280800.0 -0.6036189017 0.7928111819
3250280500.0 -0.5928010831 0.8006714012
3300280200.0 -0.581237473 0.8085661407
3350279900.0 -0.5695019601 0.8162865332
3400279600.0 -0.5571105322 0.8241672002
3450279300.0 -0.5460134143 0.831326313
3500279000.0 -0.5341819371 0.8383898101
3550278700.0 -0.5217898381 0.8453683402
3600278400.0 -0.5099352284 0.8527017853
3650278100.0 -0.4965960548 0.8602658437
3700277800.0 -0.4844935037 0.8665448748
3750277500.0 -0.472034192 0.8732595588
3800277200.0 -0.4597991234 0.8795950897
3850276900.0 -0.4477171387 0.8856642303
3900276600.0 -0.4370185982 0.891308198
3950276300.0 -0.4246603398 0.8975002258
4000276000.0 -0.4127869238 0.9033258744
4050275700.0 -0.3998287239 0.9094825298
4100275400.0 -0.3887359693 0.9145932038
4150275100.0 -0.3757754747 0.9205517043
4200274800.0 -0.3628210309 0.9262746202
4250274500.0 -0.3501440849 0.9311246293
4300274200.0 -0.3371885231 0.9369274595
4350273900.0 -0.3233264764 0.9419586372
4400273600.0 -0.3086153384 0.9470072905
4450273300.0 -0.2934507228 0.9522165389
4500273000.0 -0.2798740706 0.9565829917
4550272700.0 -0.2660821944 0.9608452486
4600272400.0 -0.2506834217 0.9648565789
4650272100.0 -0.2391203428 0.9681194774
4700271800.0 -0.2258405127 0.9713995565
4750271500.0 -0.2141872201 0.9744144921
4800271200.0 -0.2017801574 0.9769275672
4850270900.0 -0.1879989183 0.9798591487
4900270600.0 -0.1740593096 0.9821862958
4950270300.0 -0.1596299228 0.9848420635
5000270000.0 -0.1452274515 0.9868294222
5050269700.0 -0.1318803689 0.9886095228
5100269400.0 -0.1181012389 0.9901928747
5150269100.0 -0.1045068167 0.9918520013
5200268800.0 -0.0908137579 0.9928611792
5250268500.0 -0.0779692045 0.9938491687
5300268200.0 -0.0646665069 0.9947041386
5350267900.0 -0.0521259574 0.9952884587
5400267600.0 -0.0359386408 0.996151643
5450267300.0 -0.0227398267 0.9965762365
5500267000.0 -0.0074561104 0.9971798413
5550266700.0 0.0074382503 0.9972002858
5600266400.0 0.0228688131 0.9972269004
5650266100.0 0.039405894 0.9967465942
5700265800.0 0.0539534347 0.9960090393
5750265500.0 0.0691925776 0.9958516064
5800265200.0 0.082534885 0.9941467907
5850264900.0 0.0958612649 0.9929418479
5900264600.0 0.1124061624 0.9916070791
5950264300.0 0.1243152089 0.9898250202
6000264000.0 0.138196961 0.9884686156
6050263700.0 0.150376605 0.9868766384
6100263400.0 0.1626310805 0.9848230943
6150263100.0 0.177396943 0.9827758833
6200262800.0 0.1873149301 0.9809507684
6250262500.0 0.1999059557 0.9785955884
6300262200.0 0.2126532377 0.9758821285
6350261900.0 0.2256457744 0.9731577971
6400261600.0 0.2391730449 0.9696647048
6450261300.0 0.250727941 0.9674040795
6500261000.0 0.2635437765 0.9634927638
6550260700.0 0.2767730387 0.9597412526
6600260400.0 0.2898426499 0.9554557948
6650260100.0 0.3041112085 0.9512427957
6700259800.0 0.3160959736 0.9468155063
6750259500.0 0.3301706265 0.9419723378
6800259200.0 0.3430994945 0.9368610752
6850258900.0 0.3555632881 0.9317039896
6900258600.0 0.3677984048 0.9267737332
6950258300.0 0.3803248996 0.9213739105
7000258000.0 0.3921730176 0.9160304963
7050257700.0 0.404078296 0.9100841547
7100257400.0 0.417366067 0.9038111689
7150257100.0 0.4277278277 0.8984687421
7200256800.0 0.4406425465 0.8917534021
7250256500.0 0.4526885716 0.8854386622
7300256200.0 0.4662195576 0.8787844061
7350255900.0 0.4784487108 0.8717204672
7400255600.0 0.4923655964 0.8646370799
7450255300.0 0.5076227023 0.8554863083
7500255000.0 0.5195443594 0.8480829561
7550254700.0 0.5336742112 0.839270182
7600254400.0 0.5460582629 0.8310220003
7650254100.0 0.557739861 0.8233464698
7700253800.0 0.5694101134 0.8153544569
7750253500.0 0.5805734543 0.8074497751
7800253200.0 0.5909983905 0.7999005831
7850252900.0 0.6011015137 0.7926563945
7900252600.0 0.612588477 0.7839428481
7950252300.0 0.6211364163 0.7775876199
8000252000.0 0.6310797792 0.7698518717
8050251700.0 0.6413288045 0.7617101452
8100251400.0 0.6513743974 0.7536937782
8150251100.0 0.6619118925 0.7449777635
8200250800.0 0.6712415133 0.7369355137
8250250500.0 0.6798665932 0.7289435662
8300250200.0 0.689242208 0.720523139
8350249900.0 0.6984865816 0.7119985553
8400249600.0 0.7066109362 0.7036097894
8450249300.0 0.7153749658 0.6945802192
8500249000.0 0.7241493516 0.6858935638
8550248700.0 0.7326034386 0.6769347342
8600248400.0 0.740967814 0.6674204331
8650248100.0 0.748554831 0.6580161252
8700247800.0 0.7579841287 0.6468415299
8750247500.0 0.7662980155 0.636686819
8800247200.0 0.774368138 0.6263982005
8850246900.0 0.7829645976 0.6148557053
8900246600.0 0.791343743 0.6036119936
8950246300.0 0.8011894811 0.590571205
9000246000.0 0.8101496801 0.5781811614
9050245700.0 0.8190373647 0.5655935241
9100245400.0 0.8271601264 0.5533463833
9150245100.0 0.8366181973 0.5398726693
9200244800.0 0.8461727047 0.5249644322
9250244500.0 0.8552246662 0.5100137605
9300244200.0 0.8636834601 0.4959673648
9350243900.0 0.8713222311 0.4822937186
9400243600.0 0.8780166556 0.4702430124
9450243300.0 0.8837511268 0.4589841878
9500243000.0 0.8900920288 0.4470421297
9550242700.0 0.8938560617 0.4393951116
9600242400.0 0.897929355 0.4319977096
9650242100.0 0.9018519336 0.425379923
9700241800.0 0.906685893 0.4169093867
9750241500.0 0.9107416038 0.4093483894
9800241200.0 0.9156265511 0.399850506
9850240900.0 0.9211103161 0.3886051163
9900240600.0 0.9268679494 0.3768445205
9950240300.0 0.9335684688 0.3604446792
10000240000.0 0.938674654 0.348713251
10050239700.0 0.9443418612 0.3326799699
10100239400.0 0.9494759801 0.3170226389
10150239100.0 0.9540990235 0.3020624038
10200238800.0 0.9583703062 0.2867721654
10250238500.0 0.961411208 0.2733572796
10300238200.0 0.9645071257 0.2594146466
10350237900.0 0.9672658073 0.2463354521
10400237600.0 0.9698679167 0.2328016991
10450237300.0 0.9726486068 0.2189215234
10500237000.0 0.9751304998 0.2065829087
10550236700.0 0.9772091639 0.1927315939
10600236400.0 0.9791552865 0.1787204692
10650236100.0 0.9812490752 0.1642761903
10700235800.0 0.9836265321 0.1523388359
10750235500.0 0.9857949597 0.1384733645
10800235200.0 0.9879471504 0.1240696072
10850234900.0 0.9896866016 0.1093680199
10900234600.0 0.9917678086 0.0949294882
10950234300.0 0.9935529324 0.081627054
11000234000.0 0.9952605104 0.0663161131
11050233700.0 0.9970193497 0.0497501359
11100233400.0 0.9984234842 0.0321201595
11150233100.0 0.9999588773 0.016045874
11200232800.0 1.000261761 0.0001092378
11250232500.0 1.00130372 -0.0166321765
11300232200.0 1.001887232 -0.0351414058
11350231900.0 1.001837396 -0.0501914905
11400231600.0 1.001355646 -0.0664818465
11450231300.0 1.001116028 -0.0805732403
11500231000.0 0.9997106655 -0.0977512176
11550230700.0 0.9984422999 -0.1112325153
11600230400.0 0.9969238232 -0.1238478554
11650230100.0 0.994801024 -0.1353653101
11700229800.0 0.992866026 -0.1500618323
11750229500.0 0.9907733391 -0.1644743711
11800229200.0 0.987760998 -0.1780585641
11850228900.0 0.9842252536 -0.1903184478
11900228600.0 0.9806380546 -0.1998508637
11950228300.0 0.9774218187 -0.210606316
12000228000.0 0.9747967196 -0.2190332915
12050227700.0 0.9705701524 -0.2326458138
12100227400.0 0.9680428515 -0.2429402659
12150227100.0 0.9622143501 -0.2603690187
12200226800.0 0.9584899637 -0.2706840457
12250226500.0 0.954397104 -0.2837489412
12300226200.0 0.9507738129 -0.2954841824
12350225900.0 0.9459625753 -0.3092278382
12400225600.0 0.9414580106 -0.3227536507
12450225300.0 0.9372935025 -0.3349557609
12500225000.0 0.9318238327 -0.3495279547
12550224700.0 0.9261407613 -0.3634771462
12600224400.0 0.9212356902 -0.3762908099
12650224100.0 0.915460291 -0.3907469136
12700223800.0 0.9103150931 -0.4033960738
12750223500.0 0.9045523863 -0.4166418879
12800223200.0 0.8990742503 -0.4291641576
12850222900.0 0.8938730112 -0.4412596137
12900222600.0 0.8881383916 -0.4536706284
12950222300.0 0.8817906318 -0.4661060434
13000222000.0 0.8760950472 -0.4779141316
13050221700.0 0.8696003271 -0.4908716828
13100221400.0 0.8627369609 -0.502706272
13150221100.0 0.8560089556 -0.5142639405
13200220800.0 0.8487309974 -0.5261062743
13250220500.0 0.8416646169 -0.5382594592
13300220200.0 0.8342546636 -0.5491907165
13350219900.0 0.8261534708 -0.5610841248
13400219600.0 0.8175022589 -0.5731689058
13450219300.0 0.8083876177 -0.5865541828
13500219000.0 0.7982764174 -0.6001730656
13550218700.0 0.7882378612 -0.6126547724
13600218400.0 0.7786309083 -0.6247718428
13650218100.0 0.7690855403 -0.6353757771
13700217800.0 0.7579102781 -0.6475668466
13750217500.0 0.7485917381 -0.6592000993
13800217200.0 0.7374384074 -0.6703333836
13850216900.0 0.7250233959 -0.681997598
13900216600.0 0.7153818034 -0.6915338863
13950216300.0 0.7056305117 -0.7005147552
14000216000.0 0.6954761737 -0.7094029126
14050215700.0 0.6860949191 -0.7178047764
14100215400.0 0.6763566963 -0.726891087
14150215100.0 0.6672703981 -0.7357678238
14200214800.0 0.657856294 -0.7443872299
14250214500.0 0.6473893805 -0.7540585607
14300214200.0 0.6369187415 -0.7634019619
14350213900.0 0.6257303244 -0.773002758
14400213600.0 0.6141106986 -0.7824477727
14450213300.0 0.6009919734 -0.7930472206
14500213000.0 0.5879987768 -0.8031733826
14550212700.0 0.5752351274 -0.8125060083
14600212400.0 0.5627160146 -0.8212681374
14650212100.0 0.5498288665 -0.8297926506
14700211800.0 0.5362229392 -0.8396478948
14750211500.0 0.5242578999 -0.8477974542
14800211200.0 0.5119005142 -0.8557489903
14850210900.0 0.4997688038 -0.8632618516
14900210600.0 0.4863405879 -0.8711661724
14950210300.0 0.4730535584 -0.8788341857
15000210000.0 0.460287887 -0.8856118915
15050209700.0 0.4483158587 -0.8917463511
15100209400.0 0.4351342519 -0.8976980584
15150209100.0 0.4230233214 -0.9029580051
15200208800.0 0.4105338515 -0.9088841354
15250208500.0 0.3990330153 -0.9127245259
15300208200.0 0.3864466845 -0.9179090094
15350207900.0 0.3739808801 -0.9221117798
15400207600.0 0.3585532062 -0.9277015457
15450207300.0 0.3443965544 -0.9332177756
15500207000.0 0.3302855385 -0.9375312119
15550206700.0 0.3150168458 -0.9432153236
15600206400.0 0.2993459874 -0.9468508963
15650206100.0 0.283319501 -0.9511205139
15700205800.0 0.2701592554 -0.9548064671
15750205500.0 0.2552760977 -0.9580457922
15800205200.0 0.2411027014 -0.9617101011
15850204900.0 0.2270234095 -0.965153098
15900204600.0 0.2120350963 -0.9687757517
15950204300.0 0.1975928679 -0.9720478679
16000204000.0 0.1833346987 -0.9747781874
16050203700.0 0.1681107973 -0.9776437286
16100203400.0 0.153287828 -0.9795772968
16150203100.0 0.1390543182 -0.9821744919
16200202800.0 0.1245775428 -0.9842721006
16250202500.0 0.1101015794 -0.9859986384
16300202200.0 0.0946456969 -0.9872168336
16350201900.0 0.0797294929 -0.9890772979
16400201600.0 0.064692604 -0.9901354706
16450201300.0 0.0494466233 -0.991195497
16500201000.0 0.0327373729 -0.9920588378
16550200700.0 0.0169670581 -0.9926015099
16600200400.0 0.0011492632 -0.9927266659
16650200100.0 -0.0147399119 -0.9928657229
16700199800.0 -0.0315616396 -0.9923258909
16750199500.0 -0.0501620568 -0.9918310759
16800199200.0 -0.0656785992 -0.9909571352
16850198900.0 -0.0812754889 -0.9893418331
16900198600.0 -0.0943544723 -0.9890474475
16950198300.0 -0.1083980886 -0.9884768935
17000198000.0 -0.121590705 -0.9860279111
17050197700.0 -0.1342974834 -0.984130933
17100197400.0 -0.1469305899 -0.9822679493
17150197100.0 -0.1600514105 -0.9800442182
17200196800.0 -0.1723694254 -0.9784349228
17250196500.0 -0.1856547884 -0.975730103
17300196200.0 -0.1980400805 -0.9736080982
17350195900.0 -0.2095186481 -0.9711782162
17400195600.0 -0.2215694032 -0.968720201
17450195300.0 -0.2346630183 -0.9657284981
17500195000.0 -0.2479771447 -0.9626207522
17550194700.0 -0.2616811388 -0.9590716365
17600194400.0 -0.275885314 -0.9550886217
17650194100.0 -0.2896425843 -0.9507605948
17700193800.0 -0.3024036765 -0.9464429285
17750193500.0 -0.3165918065 -0.9420864257
17800193200.0 -0.3310502619 -0.937337226
17850192900.0 -0.3462161493 -0.9316022401
17900192600.0 -0.3614029673 -0.925099552
17950192300.0 -0.3769108135 -0.9182501598
18000192000.0 -0.3915763244 -0.911045971
18050191700.0 -0.4054453513 -0.9032606231
18100191400.0 -0.419557773 -0.8954085406
18150191100.0 -0.4346795175 -0.8874857023
18200190800.0 -0.451515637 -0.8782974218
18250190500.0 -0.4684583425 -0.8689468226
18300190200.0 -0.4841495909 -0.8598245609
18350189900.0 -0.4992528219 -0.8517952464
18400189600.0 -0.5135459963 -0.8430566596
18450189300.0 -0.527093602 -0.8351308705
18500189000.0 -0.5394803845 -0.8278098675
18550188700.0 -0.5524132225 -0.820148102
18600188400.0 -0.5649191137 -0.8130128235
18650188100.0 -0.5759052696 -0.8073174543
18700187800.0 -0.5867809063 -0.7998356814
18750187500.0 -0.5975559303 -0.7935388164
18800187200.0 -0.6079592505 -0.7864630574
18850186900.0 -0.6182931521 -0.7796492233
18900186600.0 -0.6284489176 -0.7722060031
18950186300.0 -0.6383940795 -0.7647713286
19000186000.0 -0.6458243791 -0.7584968234
19050185700.0 -0.6549719665 -0.7508765008
19100185400.0 -0.6650519503 -0.7430046413
19150185100.0 -0.675240969 -0.7346482801
19200184800.0 -0.6843352965 -0.7262789095
19250184500.0 -0.6949981353 -0.7171891932
19300184200.0 -0.7060457554 -0.7072520694
19350183900.0 -0.7170984092 -0.6976357953
19400183600.0 -0.726736559 -0.6883230858
19450183300.0 -0.7360986384 -0.6778249262
19500183000.0 -0.7437208039 -0.6674900577
19550182700.0 -0.7533134564 -0.6568327195
19600182400.0 -0.764058951 -0.6451386128
19650182100.0 -0.7747652357 -0.63276118
19700181800.0 -0.7854788467 -0.6196727234
19750181500.0 -0.7960959721 -0.6051724324
19800181200.0 -0.8063903384 -0.590406682
19850180900.0 -0.8159918557 -0.5750689064
19900180600.0 -0.8239127759 -0.5605024593
19950180300.0 -0.8331153649 -0.5445070359
20000180000.0 -0.8253153342 -0.5473569379
20050179700.0 -0.8329491611 -0.5339035446
20100179400.0 -0.8403680776 -0.5204552537
20150179100.0 -0.849377627 -0.5081210705
20200178800.0 -0.8578177985 -0.4965366008
20250178500.0 -0.8674981257 -0.48279788
20300178200.0 -0.8769839275 -0.4688328187
20350177900.0 -0.8862147014 -0.4549713232
20400177600.0 -0.8954114726 -0.4404955135
20450177300.0 -0.9036879957 -0.4262098224
20500177000.0 -0.9114570216 -0.4122802969
20550176700.0 -0.9196091686 -0.3989064175
20600176400.0 -0.9266789871 -0.3855169157
20650176100.0 -0.9328227294 -0.3734553819
20700175800.0 -0.9401632767 -0.3615511331
20750175500.0 -0.9465555204 -0.3508193902
20800175200.0 -0.951118513 -0.3394580834
20850174900.0 -0.9560629545 -0.3274184661
20900174600.0 -0.9595181948 -0.3170139177
20950174300.0 -0.9640969783 -0.3057055588
21000174000.0 -0.9660112128 -0.2950689702
21050173700.0 -0.9684438365 -0.2847357755
21100173400.0 -0.9730937643 -0.2731143824
21150173100.0 -0.9765623899 -0.2604869173
21200172800.0 -0.9806168293 -0.2474194005
21250172500.0 -0.9840777399 -0.2341446483
21300172200.0 -0.9870212653 -0.2198117846
21350171900.0 -0.9888745382 -0.2054931728
21400171600.0 -0.990700065 -0.1913564419
21450171300.0 -0.9912026014 -0.1768723629
21500171000.0 -0.9904207997 -0.1617710728
21550170700.0 -0.9913610918 -0.1452480917
21600170400.0 -0.9915981632 -0.1308176416
21650170100.0 -0.9921691482 -0.1142975432
21700169800.0 -0.9906202213 -0.0991863113
21750169500.0 -0.9899662398 -0.0825644695
21800169200.0 -0.9897542552 -0.0671223388
21850168900.0 -0.9890477156 -0.0499837282
21900168600.0 -0.9877256111 -0.0336745353
21950168300.0 -0.9866717012 -0.0178308501
22000168000.0 -0.9860227029 -0.0032902562
22050167700.0 -0.9860517156 0.0108456132
22100167400.0 -0.9866362587 0.026584293
22150167100.0 -0.9869990837 0.0423251659
22200166800.0 -0.9877203792 0.0590291368
22250166500.0 -0.9872121425 0.0762456844
22300166200.0 -0.986111059 0.0922425703
22350165900.0 -0.9845412766 0.1087438423
22400165600.0 -0.9842233771 0.1243854852
22450165300.0 -0.9819467639 0.1404361565
22500165000.0 -0.9796182819 0.1540366957
22550164700.0 -0.978440661 0.169365677
22600164400.0 -0.9766452038 0.1847341369
22650164100.0 -0.9740045191 0.1999797832
22700163800.0 -0.9721490234 0.2155129126
22750163500.0 -0.9691837459 0.2316801236
22800163200.0 -0.965722283 0.2439658976
22850162900.0 -0.9633475946 0.2577158035
22900162600.0 -0.9617776993 0.2713579933
22950162300.0 -0.9606169237 0.2844886385
23000162000.0 -0.9589538575 0.2965580739
23050161700.0 -0.9567888114 0.3092646457
23100161400.0 -0.9537976961 0.3229884979
23150161100.0 -0.9514717626 0.334897993
23200160800.0 -0.9483091355 0.3477019648
23250160500.0 -0.9458148548 0.3600914091
23300160200.0 -0.9431136821 0.3719246937
23350159900.0 -0.9395798209 0.3844411516
23400159600.0 -0.9344226607 0.398423149
23450159300.0 -0.9297055567 0.4126009268
23500159000.0 -0.9248458979 0.4254971288
23550158700.0 -0.9203736536 0.4391705493
23600158400.0 -0.9148958858 0.4524907676
23650158100.0 -0.9080500512 0.46691821
23700157800.0 -0.9001914213 0.4808819901
23750157500.0 -0.8913180337 0.4953186768
23800157200.0 -0.8823651851 0.5083565914
23850156900.0 -0.8731519039 0.5214592289
23900156600.0 -0.8637246265 0.5340051586
23950156300.0 -0.8538151476 0.5463797595
24000156000.0 -0.8449393139 0.5580158069
24050155700.0 -0.8345742658 0.5704944672
24100155400.0 -0.8250662288 0.5825091602
24150155100.0 -0.8136837258 0.5948803079
24200154800.0 -0.8026011538 0.6056365755
24250154500.0 -0.7918093732 0.6180874396
24300154200.0 -0.7802955754 0.6298977337
24350153900.0 -0.7691222996 0.6406979213
24400153600.0 -0.7563053001 0.6508598768
24450153300.0 -0.7446142773 0.6609133933
24500153000.0 -0.7330612964 0.6709332039
24550152700.0 -0.7216535866 0.6807533426
24600152400.0 -0.7097937386 0.6900734904
24650152100.0 -0.6977240425 0.6980811151
