!Created with skrf (http://scikit-rf.org).
# Hz S RI R 50.0 
!freq ReS11 ImS11
300000.0 -0.9740617004 -0.1208961232
50299700.0 -0.9998556553 0.0151337995
100299400.0 -0.9979211896 0.0280384876
150299100.0 -1.002626466 0.0449958805
200298800.0 -0.9994487471 0.058129344
250298500.0 -0.9973250173 0.0715838107
300298200.0 -0.98602637 0.0874505205
350297900.0 -0.9938811657 0.0983549594
400297600.0 -0.9930376359 0.1148695834
450297300.0 -0.9909230806 0.1287242176
500297000.0 -0.9894574261 0.1435612546
550296700.0 -0.9843373169 0.1558198555
600296400.0 -1.017305341 0.189046428
650296100.0 -0.9820864412 0.1856167981
700295800.0 -0.9792990691 0.2000982691
750295500.0 -0.9763038202 0.2140516914
800295200.0 -0.9729358159 0.2282116254
850294900.0 -0.969627845 0.2417994817
900294600.0 -0.9657502947 0.2556266424
950294300.0 -0.9620561513 0.2692833386
1000294000.0 -0.9582588903 0.2833102455
1050293700.0 -0.9536216255 0.2970910162
1100293400.0 -0.9493933404 0.3115518221
1150293100.0 -0.9456038976 0.3236247893
1200292800.0 -0.940229145 0.3377215621
1250292500.0 -0.9345933793 0.3513244461
1300292200.0 -0.9290398385 0.3645595922
1350291900.0 -0.9235950939 0.378501661
1400291600.0 -0.9179017105 0.3916354145
1450291300.0 -0.9124142619 0.4040690158
1500291000.0 -0.9063295368 0.4173896747
1550290700.0 -0.8996746577 0.4307162565
1600290400.0 -0.8934122294 0.4436509085
1650290100.0 -0.8869716853 0.4558326975
1700289800.0 -0.87989744 0.4691323144
1750289500.0 -0.8727304299 0.481549392
1800289200.0 -0.865628732 0.4944715764
1850288900.0 -0.8587815069 0.5058884831
1900288600.0 -0.8511255139 0.518721752
1950288300.0 -0.8429844336 0.5312714226
2000288000.0 -0.8354379848 0.5427512805
2050287700.0 -0.8271371782 0.5550732224
2100287400.0 -0.8192416784 0.5668117756
2150287100.0 -0.810859879 0.5788002121
2200286800.0 -0.8028597426 0.5891317079
2250286500.0 -0.7940582911 0.6014451433
2300286200.0 -0.7851286939 0.6128869056
2350285900.0 -0.7766903948 0.6234104274
2400285600.0 -0.7678289098 0.6345117455
2450285300.0 -0.7590368175 0.6450869419
2500285000.0 -0.7492151021 0.6565754451
2550284700.0 -0.7401444025 0.6670141909
2600284400.0 -0.7309868752 0.6770922095
2650284100.0 -0.7220975282 0.6871638305
2700283800.0 -0.7116951584 0.697685801
2750283500.0 -0.7015579557 0.7083680491
2800283200.0 -0.6916820684 0.7180755391
2850282900.0 -0.6814226881 0.7284286476
2900282600.0 -0.6706000849 0.7377715141
2950282300.0 -0.6601468021 0.7472228583
3000282000.0 -0.6496160183 0.7565355038
3050281700.0 -0.6384667733 0.7660152225
3100281400.0 -0.6268353157 0.7751237667
3150281100.0 -0.615534129 0.7840292256
3200280800.0 -0.6040657873 0.7924052875
3250280500.0 -0.5930518981 0.800387581
3300280200.0 -0.5814567522 0.8083618309
3350279900.0 -0.5693229855 0.8164040967
3400279600.0 -0.5568638036 0.8245227
3450279300.0 -0.5456914316 0.8315673458
3500279000.0 -0.5339949506 0.8385949558
3550278700.0 -0.5217580428 0.8455263166
3600278400.0 -0.5098233495 0.8523030203
3650278100.0 -0.4968117232 0.8600201057
3700277800.0 -0.4843642496 0.8664852969
3750277500.0 -0.472131562 0.8731923058
3800277200.0 -0.4598525116 0.8797603619
3850276900.0 -0.4476308295 0.8854287544
3900276600.0 -0.436923278 0.8913526715
3950276300.0 -0.4247345787 0.8974780105
4000276000.0 -0.4129710795 0.9031545093
4050275700.0 -0.4002492462 0.909106658
4100275400.0 -0.3890699965 0.9145006058
4150275100.0 -0.3761707038 0.9205195965
4200274800.0 -0.3627137696 0.9262307368
4250274500.0 -0.3499064246 0.9314123449
4300274200.0 -0.3367741585 0.9366560787
4350273900.0 -0.3226153816 0.9421168671
4400273600.0 -0.3079472196 0.9473627752
4450273300.0 -0.2929963428 0.9524673981
4500273000.0 -0.2798263216 0.9562089671
4550272700.0 -0.2659334835 0.9606549296
4600272400.0 -0.2510050787 0.9646934664
4650272100.0 -0.2396227307 0.9678473193
4700271800.0 -0.2266517403 0.9713204632
4750271500.0 -0.2147712584 0.9741607825
4800271200.0 -0.2027504767 0.9767936618
4850270900.0 -0.1888605323 0.9796562715
4900270600.0 -0.1751207907 0.9818590552
4950270300.0 -0.1605815858 0.9845596204
5000270000.0 -0.1460556997 0.986803455
5050269700.0 -0.1326277378 0.9882287453
5100269400.0 -0.118610292 0.9902134319
5150269100.0 -0.1046494643 0.9916317702
5200268800.0 -0.0914554366 0.9928735737
5250268500.0 -0.0782121559 0.9937921112
5300268200.0 -0.0648172324 0.9943412093
5350267900.0 -0.0515881022 0.9953419325
5400267600.0 -0.0354891418 0.996328632
5450267300.0 -0.0222949088 0.9966522103
5500267000.0 -0.0069859254 0.9970193951
5550266700.0 0.0080497652 0.9972528313
5600266400.0 0.0238957397 0.9972582101
5650266100.0 0.040378931 0.9968252174
5700265800.0 0.0544029475 0.9958681215
5750265500.0 0.069579217 0.9952111315
5800265200.0 0.082861388 0.9938182959
5850264900.0 0.0962050457 0.9930514677
5900264600.0 0.1125177436 0.9914594161
5950264300.0 0.1245656953 0.9897255455
6000264000.0 0.1378159731 0.9877440424
6050263700.0 0.1499262047 0.9866499114
6100263400.0 0.1619266761 0.9847287611
6150263100.0 0.1765084394 0.982576744
6200262800.0 0.1864774866 0.9809657855
6250262500.0 0.1989955669 0.9788342144
6300262200.0 0.2115322807 0.9760822104
6350261900.0 0.2244295594 0.973371236
6400261600.0 0.2380150404 0.9700752038
6450261300.0 0.2491594211 0.9675052649
6500261000.0 0.2624136065 0.9640071859
6550260700.0 0.2753723074 0.9599908768
6600260400.0 0.2887097916 0.9557794023
6650260100.0 0.3032841673 0.9515991739
6700259800.0 0.3153443633 0.9472475359
6750259500.0 0.3287933433 0.9424209384
6800259200.0 0.3427044021 0.9373169223
6850258900.0 0.3551485217 0.9321224141
6900258600.0 0.3673945798 0.926941769
6950258300.0 0.3796427603 0.9214120364
7000258000.0 0.3915219643 0.9160946293
7050257700.0 0.4034362224 0.9102750042
7100257400.0 0.4167240021 0.9040107879
7150257100.0 0.4273682524 0.8984715908
7200256800.0 0.4404714647 0.8922325764
7250256500.0 0.4528245618 0.8854293658
7300256200.0 0.4660962761 0.8786551796
7350255900.0 0.478651286 0.8717580106
7400255600.0 0.4928777448 0.8641337044
7450255300.0 0.5082559086 0.8552002246
7500255000.0 0.5208852155 0.8476253378
7550254700.0 0.5351823486 0.8387028483
7600254400.0 0.5471877641 0.8301051166
7650254100.0 0.5586772688 0.8221710737
7700253800.0 0.5704565674 0.8141480139
7750253500.0 0.581302727 0.8066868581
7800253200.0 0.5921940728 0.7987377477
7850252900.0 0.602075989 0.7915799047
7900252600.0 0.6134345486 0.7829576022
7950252300.0 0.6218804149 0.7764299467
8000252000.0 0.632036955 0.7689863603
8050251700.0 0.642265319 0.7608075607
8100251400.0 0.6524198039 0.7529297674
8150251100.0 0.6626500744 0.7444628309
8200250800.0 0.6719621629 0.7361906006
8250250500.0 0.680331035 0.72809622
8300250200.0 0.6898779016 0.7199411531
8350249900.0 0.6988049302 0.7110898898
8400249600.0 0.706896846 0.7029737757
8450249300.0 0.7156857342 0.6943882303
8500249000.0 0.7245362557 0.6855660721
8550248700.0 0.7326144298 0.6763730871
8600248400.0 0.7410217404 0.6668623105
8650248100.0 0.7486538906 0.6574922892
8700247800.0 0.7579919278 0.6463631038
8750247500.0 0.7662235121 0.6362461286
8800247200.0 0.7743334401 0.6259835217
8850246900.0 0.7829615207 0.6144209834
8900246600.0 0.7916614795 0.6032204637
8950246300.0 0.8008297536 0.5905655539
9000246000.0 0.8092058245 0.5784969219
9050245700.0 0.8180101794 0.5659553622
9100245400.0 0.8263781269 0.5538278266
9150245100.0 0.8354509102 0.5408639748
9200244800.0 0.8447015754 0.5264061566
9250244500.0 0.8538023455 0.5118020458
9300244200.0 0.8617110762 0.4979402851
9350243900.0 0.8694346636 0.4848472551
9400243600.0 0.8760265021 0.4730182776
9450243300.0 0.8816179692 0.4622482642
9500243000.0 0.8880138339 0.4505113467
9550242700.0 0.8920055051 0.4429419906
9600242400.0 0.8962073029 0.4354989441
9650242100.0 0.9002799443 0.4284991121
9700241800.0 0.9052011597 0.419926452
9750241500.0 0.9092167343 0.4127532464
9800241200.0 0.9145603288 0.4030205622
9850240900.0 0.9201727976 0.3912850218
9900240600.0 0.9262014688 0.3792439231
9950240300.0 0.9328708246 0.362897525
10000240000.0 0.9378248636 0.3512463397
10050239700.0 0.9443013888 0.3348088345
10100239400.0 0.9495347694 0.3181602144
10150239100.0 0.9542733708 0.3032121918
10200238800.0 0.9582372687 0.2876790388
10250238500.0 0.9616118323 0.2741436415
10300238200.0 0.964701039 0.260101165
10350237900.0 0.9676099428 0.2465579638
10400237600.0 0.9700841671 0.2333605137
10450237300.0 0.9726692423 0.2193162973
10500237000.0 0.9747823499 0.2073024699
10550236700.0 0.9775810852 0.1923586814
10600236400.0 0.979697769 0.178468858
10650236100.0 0.9819367784 0.1643533337
10700235800.0 0.9839532922 0.1523463923
10750235500.0 0.9858860218 0.1389490661
10800235200.0 0.9878702702 0.1242174241
10850234900.0 0.9896442457 0.1096246597
10900234600.0 0.992032429 0.0946644297
10950234300.0 0.9935818706 0.0812989329
11000234000.0 0.9954551148 0.0656584945
11050233700.0 0.9974104148 0.049035163
11100233400.0 0.998964996 0.0311407783
11150233100.0 0.9998899701 0.0145854141
11200232800.0 1.00022225 -0.001298982
11250232500.0 1.001671509 -0.018653767
11300232200.0 1.002779778 -0.0374746429
11350231900.0 1.002257219 -0.0533642613
11400231600.0 1.001912796 -0.0691863633
11450231300.0 1.001794029 -0.0839930124
11500231000.0 0.9995903082 -0.1005375631
11550230700.0 0.9979424241 -0.1142466339
11600230400.0 0.9972674196 -0.1268956307
11650230100.0 0.9947695703 -0.1389822352
11700229800.0 0.9927706329 -0.1536633007
11750229500.0 0.9903445642 -0.1677009479
11800229200.0 0.9875268878 -0.1808032967
11850228900.0 0.9836753778 -0.1929142362
11900228600.0 0.9803183635 -0.2022451961
11950228300.0 0.9765435432 -0.2127494656
12000228000.0 0.9737586801 -0.221406763
12050227700.0 0.9703216817 -0.2338822159
12100227400.0 0.9669717864 -0.2455255915
12150227100.0 0.9623139757 -0.2621180711
12200226800.0 0.9582539239 -0.2720499748
12250226500.0 0.953993382 -0.2855022329
12300226200.0 0.9496813912 -0.2974772969
12350225900.0 0.9451112477 -0.3118299481
12400225600.0 0.9404765778 -0.3246999511
12450225300.0 0.936273709 -0.3363961611
12500225000.0 0.9309225579 -0.3512970155
12550224700.0 0.925167718 -0.365420182
12600224400.0 0.9201472039 -0.3775768084
12650224100.0 0.9144398689 -0.392292232
12700223800.0 0.9089894937 -0.405082953
12750223500.0 0.9037479446 -0.4179878176
12800223200.0 0.8983772665 -0.4308409285
12850222900.0 0.8931959869 -0.4428513062
12900222600.0 0.8876354615 -0.4547569661
12950222300.0 0.8810019337 -0.4679379483
13000222000.0 0.8757069894 -0.4789609533
13050221700.0 0.8684791944 -0.4922925272
13100221400.0 0.8614125081 -0.5044037575
13150221100.0 0.8545043511 -0.516408955
13200220800.0 0.8478884954 -0.5278495339
13250220500.0 0.8407545907 -0.5401747676
13300220200.0 0.8330421322 -0.5507860167
13350219900.0 0.8250917977 -0.5627581409
13400219600.0 0.8165525925 -0.5746024351
13450219300.0 0.8075151831 -0.5878673046
13500219000.0 0.7972290946 -0.6011751703
13550218700.0 0.7881244636 -0.6130994826
13600218400.0 0.7782977244 -0.6251947767
13650218100.0 0.7679497491 -0.63617268
13700217800.0 0.7572687132 -0.6483869057
13750217500.0 0.7471894158 -0.6587678092
13800217200.0 0.7362646761 -0.670438351
13850216900.0 0.7253387082 -0.6816197812
13900216600.0 0.7158389808 -0.690401876
13950216300.0 0.705361657 -0.7006729111
14000216000.0 0.6951580316 -0.7096200761
14050215700.0 0.6861906754 -0.7179149128
14100215400.0 0.6765697155 -0.7267888889
14150215100.0 0.6675211777 -0.7352623073
14200214800.0 0.6579642161 -0.7442511924
14250214500.0 0.6475112392 -0.7536025645
14300214200.0 0.6371558218 -0.7629596959
14350213900.0 0.6259537334 -0.7728079041
14400213600.0 0.6142356902 -0.7823570856
14450213300.0 0.6012306628 -0.7926646622
14500213000.0 0.5883790911 -0.8023551985
14550212700.0 0.5760882131 -0.8117456958
14600212400.0 0.5632618529 -0.8206164509
14650212100.0 0.5506912464 -0.8296492066
14700211800.0 0.5369338498 -0.8389616547
14750211500.0 0.5245697316 -0.8473449703
14800211200.0 0.5122522556 -0.8551858083
14850210900.0 0.4998580666 -0.8631220026
14900210600.0 0.4866055788 -0.8709599312
14950210300.0 0.4732816651 -0.8787023261
15000210000.0 0.4605221043 -0.885309718
15050209700.0 0.4484488061 -0.8914356487
15100209400.0 0.4354122401 -0.8970634498
15150209100.0 0.4229309713 -0.9026506362
15200208800.0 0.4110110531 -0.908496
15250208500.0 0.4001062861 -0.9126954743
15300208200.0 0.3866122739 -0.9174291487
15350207900.0 0.3744903778 -0.9221853665
15400207600.0 0.3593537404 -0.9273103612
15450207300.0 0.345574456 -0.9328075283
15500207000.0 0.3302686677 -0.9370189393
15550206700.0 0.3156688355 -0.9424458816
15600206400.0 0.2997347509 -0.9470667927
15650206100.0 0.2837960532 -0.9507675733
15700205800.0 0.2701262573 -0.9544671919
15750205500.0 0.2562981713 -0.9578797305
15800205200.0 0.2422788313 -0.9611791211
15850204900.0 0.2280208057 -0.964798691
15900204600.0 0.2129320861 -0.9684427318
15950204300.0 0.1985837181 -0.9714028684
16000204000.0 0.184103992 -0.9743963969
16050203700.0 0.1686338298 -0.9774346131
16100203400.0 0.1542325424 -0.979900622
16150203100.0 0.1394020144 -0.9822207493
16200202800.0 0.1254515275 -0.9844859115
16250202500.0 0.1104991032 -0.9861953832
16300202200.0 0.0947603558 -0.9874824247
16350201900.0 0.0799410834 -0.9891574533
16400201600.0 0.0655963419 -0.9902809462
16450201300.0 0.0498790554 -0.9913288889
16500201000.0 0.0327057473 -0.9920967489
16550200700.0 0.0166719114 -0.9925415942
16600200400.0 0.0008567387 -0.9928878449
16650200100.0 -0.0153559655 -0.9924631579
16700199800.0 -0.0319002984 -0.992565181
16750199500.0 -0.0507902717 -0.9919888991
16800199200.0 -0.0669944637 -0.9905265928
16850198900.0 -0.0821468001 -0.9896373099
16900198600.0 -0.095683037 -0.9884032463
16950198300.0 -0.1104233921 -0.9875065886
17000198000.0 -0.1230024828 -0.9858655577
17050197700.0 -0.1354164579 -0.9841151204
17100197400.0 -0.1483914357 -0.9824147988
17150197100.0 -0.1610285779 -0.9799873066
17200196800.0 -0.1742088013 -0.9779816537
17250196500.0 -0.1868542316 -0.9753878686
17300196200.0 -0.1992708892 -0.9732286456
17350195900.0 -0.210906212 -0.9707296977
17400195600.0 -0.2229428844 -0.9682335906
17450195300.0 -0.2357748745 -0.965404177
17500195000.0 -0.2490602553 -0.9622677948
17550194700.0 -0.2630268991 -0.9589664542
17600194400.0 -0.2766204035 -0.9548022769
17650194100.0 -0.2902078411 -0.9505822385
17700193800.0 -0.3033899858 -0.9462043123
17750193500.0 -0.3172987167 -0.9418384449
17800193200.0 -0.3320028396 -0.9366964154
17850192900.0 -0.3466963016 -0.9315723905
17900192600.0 -0.3616845783 -0.9249126533
17950192300.0 -0.3772819466 -0.9179684517
18000192000.0 -0.3920624 -0.9107032891
18050191700.0 -0.4058211019 -0.9027544749
18100191400.0 -0.4199919763 -0.8951180788
18150191100.0 -0.4348881475 -0.8870539547
18200190800.0 -0.4517329599 -0.8778782235
18250190500.0 -0.4687942704 -0.8684051018
18300190200.0 -0.4840767281 -0.859508152
18350189900.0 -0.4994027281 -0.851424813
18400189600.0 -0.5137923423 -0.8424361684
18450189300.0 -0.5274890669 -0.8349761045
18500189000.0 -0.5407029608 -0.826729934
18550188700.0 -0.5535421369 -0.8193217937
18600188400.0 -0.5655296976 -0.8123760923
18650188100.0 -0.5767894374 -0.8060808729
18700187800.0 -0.5876503347 -0.7988882895
18750187500.0 -0.5984533103 -0.7924052204
18800187200.0 -0.609105875 -0.7854470008
18850186900.0 -0.6194923324 -0.7784541675
18900186600.0 -0.6296401953 -0.7711217799
18950186300.0 -0.6399908819 -0.7633747261
19000186000.0 -0.6472154998 -0.7572701894
19050185700.0 -0.6566065695 -0.7498956461
19100185400.0 -0.6661926999 -0.7418793833
19150185100.0 -0.6771423502 -0.7337468781
19200184800.0 -0.6861217769 -0.7254009382
19250184500.0 -0.6965547392 -0.7158801653
19300184200.0 -0.7075629091 -0.7062796739
19350183900.0 -0.7187871488 -0.6972375217
19400183600.0 -0.7278671938 -0.6866236248
19450183300.0 -0.7372208098 -0.6768243836
19500183000.0 -0.7458219126 -0.6668084349
19550182700.0 -0.7551537204 -0.6557526647
19600182400.0 -0.7653666253 -0.6444526207
19650182100.0 -0.7762945596 -0.6316943465
19700181800.0 -0.786394098 -0.6187934346
19750181500.0 -0.7969090296 -0.6046733831
19800181200.0 -0.8071292409 -0.5897237365
19850180900.0 -0.8165485446 -0.5744237709
19900180600.0 -0.824292472 -0.5596336888
19950180300.0 -0.8334122376 -0.5436993714
20000180000.0 -0.8233561774 -0.5473692665
20050179700.0 -0.8319287936 -0.5340194802
20100179400.0 -0.8407412959 -0.5211072536
20150179100.0 -0.848650571 -0.5093555079
20200178800.0 -0.8565659668 -0.4978137671
20250178500.0 -0.8658787462 -0.4850288211
20300178200.0 -0.8751653236 -0.4705243442
20350177900.0 -0.8851695141 -0.4575697435
20400177600.0 -0.8939428284 -0.4427726351
20450177300.0 -0.9021354852 -0.4284456573
20500177000.0 -0.9104804899 -0.4147180019
20550176700.0 -0.9183161952 -0.4013187214
20600176400.0 -0.925118984 -0.3882560411
20650176100.0 -0.9316535844 -0.375848003
20700175800.0 -0.9384111563 -0.3640190541
20750175500.0 -0.9448973439 -0.3520893948
20800175200.0 -0.9494985513 -0.3419463772
20850174900.0 -0.9534007551 -0.3312761868
20900174600.0 -0.9579257327 -0.3199897538
20950174300.0 -0.9617635565 -0.3092349194
21000174000.0 -0.9645000515 -0.2991786303
21050173700.0 -0.9667874842 -0.2883703796
21100173400.0 -0.9703127023 -0.2775018006
21150173100.0 -0.9738733793 -0.2657257826
21200172800.0 -0.978082423 -0.252390012
21250172500.0 -0.9810765545 -0.2391210702
21300172200.0 -0.9845565033 -0.2245546716
21350171900.0 -0.9865094801 -0.2104314116
21400171600.0 -0.9882329387 -0.1960926889
21450171300.0 -0.9891917574 -0.1816847783
21500171000.0 -0.9888251029 -0.1666438953
21550170700.0 -0.9898959803 -0.1521372784
21600170400.0 -0.9911848907 -0.1355190524
21650170100.0 -0.9907516175 -0.119585183
21700169800.0 -0.9893433822 -0.1044068995
21750169500.0 -0.9898790048 -0.0892897594
21800169200.0 -0.9898914837 -0.0725301458
21850168900.0 -0.9902302318 -0.0553734862
21900168600.0 -0.9890585853 -0.0396306498
21950168300.0 -0.988353978 -0.0233548401
22000168000.0 -0.9885104235 -0.0085009161
22050167700.0 -0.9886360705 0.0060893518
22100167400.0 -0.9891082018 0.0214269386
22150167100.0 -0.9906031169 0.037359525
22200166800.0 -0.9911179053 0.0541354414
22250166500.0 -0.9900720033 0.0708741221
22300166200.0 -0.9894827762 0.0875697526
22350165900.0 -0.9880848761 0.1041331188
22400165600.0 -0.9871728963 0.1194356332
22450165300.0 -0.9855775882 0.134982224
22500165000.0 -0.9842399505 0.148982064
22550164700.0 -0.9821637338 0.1651690779
22600164400.0 -0.9803344489 0.1814449279
22650164100.0 -0.9771026514 0.1963771684
22700163800.0 -0.9741068082 0.2123225894
22750163500.0 -0.9709788819 0.2271511869
22800163200.0 -0.9682914412 0.2407378945
22850162900.0 -0.9657698951 0.254202789
22900162600.0 -0.9642092795 0.2678513974
22950162300.0 -0.962523996 0.2814375072
23000162000.0 -0.9605513027 0.2941580146
23050161700.0 -0.9580489426 0.3072125966
23100161400.0 -0.9550379745 0.3207024278
23150161100.0 -0.9528418829 0.3337291274
23200160800.0 -0.949322564 0.3464398423
23250160500.0 -0.9471181952 0.3583166216
23300160200.0 -0.9438418453 0.3709244003
23350159900.0 -0.940615822 0.3847209345
23400159600.0 -0.9345104403 0.3993521901
23450159300.0 -0.9300408145 0.4124842115
23500159000.0 -0.9247451249 0.4256372613
23550158700.0 -0.9204426988 0.4398254324
23600158400.0 -0.9142048476 0.4540047233
23650158100.0 -0.90701752 0.4682234988
23700157800.0 -0.8988611679 0.4825290953
23750157500.0 -0.8891448839 0.497039623
23800157200.0 -0.8798619168 0.5099402526
23850156900.0 -0.8707640683 0.5228672358
23900156600.0 -0.8600450407 0.5355880965
23950156300.0 -0.8503586275 0.5479654658
24000156000.0 -0.8411416553 0.5613437116
24050155700.0 -0.8308920095 0.5726136506
24100155400.0 -0.8204897916 0.5852804083
24150155100.0 -0.8092831803 0.5966764815
24200154800.0 -0.79811747 0.6088681206
24250154500.0 -0.7878933974 0.6208428315
24300154200.0 -0.7757257664 0.6329006003
24350153900.0 -0.7636544195 0.6443092871
24400153600.0 -0.7513496852 0.655169994
24450153300.0 -0.7398493821 0.6647577499
24500153000.0 -0.7278764236 0.6747613179
24550152700.0 -0.7165260358 0.6847406533
24600152400.0 -0.7043919825 0.6944290128
24650152100.0 -0.6915364083 0.7028057865
