!Created with skrf (http://scikit-rf.org).
# Hz S RI R 50.0 
!freq ReS11 ImS11
300000.0 -0.9739353326 -0.1240242467
50299700.0 -0.9998250291 0.0148624645
100299400.0 -0.9978573246 0.0278355579
150299100.0 -1.002677239 0.0447710136
200298800.0 -0.9995096419 0.0581389912
250298500.0 -0.9972529136 0.071577619
300298200.0 -0.9859485797 0.0874707271
350297900.0 -0.9940215138 0.0982436004
400297600.0 -0.993160225 0.1148341953
450297300.0 -0.9909184669 0.1286980381
500297000.0 -0.9893808305 0.1433830246
550296700.0 -0.9842974983 0.1558598621
600296400.0 -1.017184386 0.1891464911
650296100.0 -0.9822586507 0.1857416574
700295800.0 -0.9792506706 0.1999667097
750295500.0 -0.9762203542 0.2137767094
800295200.0 -0.972771132 0.227902397
850294900.0 -0.9695613704 0.2417458916
900294600.0 -0.9658240103 0.2553503241
950294300.0 -0.9620369059 0.2691760819
1000294000.0 -0.9580047215 0.2830276954
1050293700.0 -0.9535733938 0.2969125569
1100293400.0 -0.9493316015 0.3115039236
1150293100.0 -0.9453841868 0.3231650149
1200292800.0 -0.9401472918 0.3376642382
1250292500.0 -0.9347956046 0.3511273064
1300292200.0 -0.9289799057 0.3643216631
1350291900.0 -0.9234589898 0.3784562588
1400291600.0 -0.9179952743 0.3914113301
1450291300.0 -0.9125982239 0.4039236298
1500291000.0 -0.9063080447 0.4172589178
1550290700.0 -0.8997819331 0.4306956764
1600290400.0 -0.8934689885 0.4435839735
1650290100.0 -0.8867144086 0.4555824224
1700289800.0 -0.8799844823 0.4690559442
1750289500.0 -0.8730351104 0.4813773487
1800289200.0 -0.8657776659 0.4942461473
1850288900.0 -0.8588127514 0.50567045
1900288600.0 -0.851020388 0.5185705675
1950288300.0 -0.8429728823 0.5310792506
2000288000.0 -0.8353375164 0.5426291722
2050287700.0 -0.8272027249 0.5551172496
2100287400.0 -0.8195653489 0.5664019918
2150287100.0 -0.8108712404 0.5784745145
2200286800.0 -0.8030614734 0.5890508663
2250286500.0 -0.7942306112 0.6013662786
2300286200.0 -0.7854062949 0.6127764409
2350285900.0 -0.7769259147 0.6232383853
2400285600.0 -0.7681249287 0.634374554
2450285300.0 -0.7590414765 0.6451323754
2500285000.0 -0.749136475 0.6566315111
2550284700.0 -0.7402699776 0.6670463108
2600284400.0 -0.7311184927 0.6767201278
2650284100.0 -0.7223701593 0.6871590159
2700283800.0 -0.7117751721 0.6974214758
2750283500.0 -0.7015285135 0.7079421948
2800283200.0 -0.691462086 0.7178765064
2850282900.0 -0.6812035723 0.7279005209
2900282600.0 -0.6708014986 0.7379021654
2950282300.0 -0.6601796492 0.7471028676
3000282000.0 -0.6496513726 0.7565490211
3050281700.0 -0.6385177208 0.7658368981
3100281400.0 -0.6268947858 0.774890856
3150281100.0 -0.6155669233 0.7838682995
3200280800.0 -0.604186554 0.7921845119
3250280500.0 -0.5931709588 0.8001038071
3300280200.0 -0.5815743418 0.8083166197
3350279900.0 -0.5693351508 0.8162489478
3400279600.0 -0.556706757 0.8244024713
3450279300.0 -0.5456764735 0.8314729004
3500279000.0 -0.5338475313 0.838337926
3550278700.0 -0.5215523658 0.8453706938
3600278400.0 -0.5099335045 0.8524869639
3650278100.0 -0.4968845315 0.8599698326
3700277800.0 -0.4846191558 0.8665176499
3750277500.0 -0.4724703768 0.8731627448
3800277200.0 -0.4598690181 0.879701684
3850276900.0 -0.4479010501 0.8854686548
3900276600.0 -0.436835873 0.8915640862
3950276300.0 -0.4250627783 0.897158271
4000276000.0 -0.413156534 0.9029250164
4050275700.0 -0.4006664035 0.9090412129
4100275400.0 -0.3896029707 0.9145341512
4150275100.0 -0.3762883321 0.920172945
4200274800.0 -0.362876438 0.9259772891
4250274500.0 -0.350149712 0.9312981696
4300274200.0 -0.3370316155 0.9367755026
4350273900.0 -0.3225500696 0.9420451058
4400273600.0 -0.3079322382 0.947214807
4450273300.0 -0.2930249695 0.952126813
4500273000.0 -0.2798353113 0.9563768357
4550272700.0 -0.2663583389 0.9604292592
4600272400.0 -0.2510922359 0.9646582428
4650272100.0 -0.2397540832 0.9677985063
4700271800.0 -0.2268044163 0.971071217
4750271500.0 -0.2152069273 0.973898425
4800271200.0 -0.202978658 0.9766297128
4850270900.0 -0.1893542744 0.9794491882
4900270600.0 -0.1754292801 0.9820406041
4950270300.0 -0.1607576952 0.9846654617
5000270000.0 -0.1462716539 0.9865685066
5050269700.0 -0.1328482304 0.9884271469
5100269400.0 -0.118821395 0.9900345864
5150269100.0 -0.1047354082 0.9918473719
5200268800.0 -0.0916417702 0.9923513323
5250268500.0 -0.0781534439 0.9940538318
5300268200.0 -0.0645810945 0.9947687712
5350267900.0 -0.0518258515 0.9953772872
5400267600.0 -0.035973342 0.996300483
5450267300.0 -0.022325435 0.9967409113
5500267000.0 -0.0070132153 0.9969046723
5550266700.0 0.0077684574 0.9971484469
5600266400.0 0.0235192499 0.9972419554
5650266100.0 0.0400826032 0.996805704
5700265800.0 0.0547107813 0.996012455
5750265500.0 0.0695384413 0.9951345535
5800265200.0 0.0829177895 0.9938473897
5850264900.0 0.096077859 0.9933527022
5900264600.0 0.1128860814 0.9912711766
5950264300.0 0.1241336602 0.9896761943
6000264000.0 0.1375184775 0.9876386894
6050263700.0 0.1496220971 0.9868763304
6100263400.0 0.1618496708 0.9847359206
6150263100.0 0.1763344599 0.9826465609
6200262800.0 0.1858380278 0.980839338
6250262500.0 0.1984169234 0.978794904
6300262200.0 0.2107183527 0.9763925386
6350261900.0 0.2235768283 0.9733841535
6400261600.0 0.2375956609 0.9702950029
6450261300.0 0.2486762579 0.9677263713
6500261000.0 0.2620194839 0.9639571549
6550260700.0 0.2750812422 0.9600787071
6600260400.0 0.2884464034 0.9559314537
6650260100.0 0.3024999628 0.9516367994
6700259800.0 0.3147712369 0.9474037502
6750259500.0 0.3283766687 0.9425465681
6800259200.0 0.342065748 0.9375319488
6850258900.0 0.3543838063 0.9320957442
6900258600.0 0.3669788628 0.9269254821
6950258300.0 0.3793093519 0.9215253291
7000258000.0 0.3909164057 0.9162479213
7050257700.0 0.4029946263 0.9105207398
7100257400.0 0.4164821432 0.9041478047
7150257100.0 0.4269682421 0.8985768197
7200256800.0 0.4402269744 0.8921686596
7250256500.0 0.4527433361 0.885381707
7300256200.0 0.4655427086 0.8787963876
7350255900.0 0.4786628638 0.8718926071
7400255600.0 0.492564182 0.8639549236
7450255300.0 0.5082687455 0.8550611773
7500255000.0 0.5211545815 0.8475604022
7550254700.0 0.5348926403 0.8382730643
7600254400.0 0.5475752289 0.8302454829
7650254100.0 0.5592992202 0.8224406977
7700253800.0 0.5707402428 0.8142623886
7750253500.0 0.5816998562 0.8064375192
7800253200.0 0.5924716802 0.7988872389
7850252900.0 0.6019966137 0.7915191572
7900252600.0 0.6136187437 0.7826902707
7950252300.0 0.6220997826 0.7764855608
8000252000.0 0.6319662635 0.7688161031
8050251700.0 0.6423648401 0.7607382205
8100251400.0 0.6522683073 0.7528200788
8150251100.0 0.6624148539 0.7441828188
8200250800.0 0.6722745574 0.7359772677
8250250500.0 0.6805361142 0.7283390169
8300250200.0 0.689220635 0.7200502892
8350249900.0 0.6988277386 0.7109370771
8400249600.0 0.7068728225 0.7028467085
8450249300.0 0.7157664115 0.6944889738
8500249000.0 0.7240154855 0.6854120238
8550248700.0 0.7325298999 0.6763155775
8600248400.0 0.7408787525 0.6670784211
8650248100.0 0.7484970666 0.6574461197
8700247800.0 0.7580211475 0.6464293381
8750247500.0 0.7661738464 0.6365261689
8800247200.0 0.7741276082 0.6262012038
8850246900.0 0.7830339538 0.6145169929
8900246600.0 0.7911556101 0.6031277292
8950246300.0 0.800550162 0.590635029
9000246000.0 0.8091922889 0.5787040312
9050245700.0 0.8173231304 0.5661737383
9100245400.0 0.8260561194 0.5540553145
9150245100.0 0.8347349774 0.5414209447
9200244800.0 0.8442249434 0.5270395996
9250244500.0 0.8530470247 0.5123180983
9300244200.0 0.8612558011 0.4989810916
9350243900.0 0.8688735796 0.4854798092
9400243600.0 0.8754618216 0.4738445801
9450243300.0 0.8808649804 0.463449893
9500243000.0 0.8872108918 0.4517298513
9550242700.0 0.8913962843 0.4442530055
9600242400.0 0.8954471521 0.4364893133
9650242100.0 0.8999800899 0.4295398826
9700241800.0 0.9046123737 0.4209669017
9750241500.0 0.9087169495 0.4133712115
9800241200.0 0.9140632928 0.4038628962
9850240900.0 0.9195955548 0.3922505555
9900240600.0 0.9259470134 0.3802751472
9950240300.0 0.9332429956 0.3636975737
10000240000.0 0.9377958 0.3515119758
10050239700.0 0.9439529626 0.3357185769
10100239400.0 0.9494845646 0.3189995865
10150239100.0 0.9538385602 0.3037080578
10200238800.0 0.9581650672 0.2879859458
10250238500.0 0.961551328 0.2743751846
10300238200.0 0.9646139664 0.2607995982
10350237900.0 0.9674605216 0.247154014
10400237600.0 0.970058221 0.2337893895
10450237300.0 0.9726556987 0.2198640213
10500237000.0 0.9749835451 0.2076993181
10550236700.0 0.9773866245 0.1932231464
10600236400.0 0.979371313 0.1794300093
10650236100.0 0.9815688361 0.1646011739
10700235800.0 0.9835206252 0.152364666
10750235500.0 0.9858836737 0.1389903341
10800235200.0 0.9877752598 0.1244649604
10850234900.0 0.9898585216 0.1092932239
10900234600.0 0.9919586678 0.0948155035
10950234300.0 0.9936650282 0.0812832417
11000234000.0 0.9955917615 0.0656883875
11050233700.0 0.9973337175 0.0491085184
11100233400.0 0.9988616434 0.0314819843
11150233100.0 1.000087492 0.0145291817
11200232800.0 1.000335286 -0.0008172646
11250232500.0 1.001548877 -0.0191554935
11300232200.0 1.002516549 -0.0377833494
11350231900.0 1.001750916 -0.0536478217
11400231600.0 1.002347438 -0.0696049086
11450231300.0 1.00126309 -0.0853335496
11500231000.0 0.9997104597 -0.101619198
11550230700.0 0.9988397314 -0.1147525468
11600230400.0 0.9971581562 -0.1276074036
11650230100.0 0.9950707089 -0.1388981897
11700229800.0 0.9926869295 -0.153916623
11750229500.0 0.9903129452 -0.1680268906
11800229200.0 0.9871128023 -0.1812573297
11850228900.0 0.9835378088 -0.1933002308
11900228600.0 0.97992717 -0.202901277
11950228300.0 0.9768755345 -0.2127522769
12000228000.0 0.9739064869 -0.2211404508
12050227700.0 0.9700851154 -0.2346850466
12100227400.0 0.9666393369 -0.2449565486
12150227100.0 0.9617044194 -0.2624419769
12200226800.0 0.958380332 -0.2731829408
12250226500.0 0.9537088688 -0.2859009919
12300226200.0 0.9492825777 -0.2981454589
12350225900.0 0.9447357215 -0.3114002035
12400225600.0 0.9399252972 -0.3241902784
12450225300.0 0.9355309765 -0.3371018206
12500225000.0 0.9303450384 -0.3513777258
12550224700.0 0.9251365111 -0.3656425585
12600224400.0 0.9199685005 -0.3781235815
12650224100.0 0.9142696266 -0.3924583672
12700223800.0 0.9089906429 -0.4052831593
12750223500.0 0.9033275479 -0.4184856545
12800223200.0 0.8981383508 -0.4310576215
12850222900.0 0.892849172 -0.442962659
12900222600.0 0.8871330797 -0.4552445579
12950222300.0 0.8807238435 -0.4683414539
13000222000.0 0.8752234648 -0.4800467392
13050221700.0 0.8685020424 -0.4919446254
13100221400.0 0.861241248 -0.504507608
13150221100.0 0.8548710709 -0.5165450488
13200220800.0 0.8473962761 -0.5279851994
13250220500.0 0.8404701413 -0.5398965678
13300220200.0 0.8328044223 -0.5510400236
13350219900.0 0.8249436675 -0.5630270696
13400219600.0 0.8165790918 -0.5746559988
13450219300.0 0.8075073964 -0.5876951255
13500219000.0 0.7976656736 -0.6011462972
13550218700.0 0.7873767748 -0.6134903287
13600218400.0 0.777745538 -0.6252048988
13650218100.0 0.7680330399 -0.6359617607
13700217800.0 0.7579936506 -0.6473227471
13750217500.0 0.747361452 -0.6585192637
13800217200.0 0.737470834 -0.6696338372
13850216900.0 0.7258337246 -0.6811743416
13900216600.0 0.7163004993 -0.6898583035
13950216300.0 0.7057365098 -0.6996508184
14000216000.0 0.6959643674 -0.7087674699
14050215700.0 0.6862511173 -0.7169986295
14100215400.0 0.6770743108 -0.7263379265
14150215100.0 0.6679189279 -0.7350311444
14200214800.0 0.6582093953 -0.7438032917
14250214500.0 0.6479132002 -0.7531125856
14300214200.0 0.6374238342 -0.7627468569
14350213900.0 0.6263820473 -0.7720889316
14400213600.0 0.6142462893 -0.7821862219
14450213300.0 0.6016650537 -0.7923102489
14500213000.0 0.5885096499 -0.8020539376
14550212700.0 0.5761994944 -0.8117833697
14600212400.0 0.5637825821 -0.8207675653
14650212100.0 0.5508855847 -0.829049252
14700211800.0 0.5375315548 -0.8387021594
14750211500.0 0.5252526703 -0.8468895277
14800211200.0 0.5128579646 -0.8554279945
14850210900.0 0.500030391 -0.8629492465
14900210600.0 0.4871649352 -0.8707776443
14950210300.0 0.4737664083 -0.8785343047
15000210000.0 0.4609871051 -0.8852368945
15050209700.0 0.4492228909 -0.891240893
15100209400.0 0.436212121 -0.897323601
15150209100.0 0.4239549972 -0.9026707011
15200208800.0 0.4113955702 -0.907869652
15250208500.0 0.4009372514 -0.9124026163
15300208200.0 0.387843277 -0.9176769789
15350207900.0 0.374868789 -0.9215370333
15400207600.0 0.3595367364 -0.9270403603
15450207300.0 0.3455917771 -0.9322549121
15500207000.0 0.3305935103 -0.9373887839
15550206700.0 0.315527352 -0.9416685992
15600206400.0 0.2997031066 -0.9467037934
15650206100.0 0.2843170003 -0.9507184199
15700205800.0 0.2710539006 -0.95396268
15750205500.0 0.256989983 -0.9574875128
15800205200.0 0.2427162966 -0.9611875325
15850204900.0 0.2284904531 -0.9645882112
15900204600.0 0.2135984332 -0.9683683291
15950204300.0 0.1993280056 -0.9714644939
16000204000.0 0.184810972 -0.9745235102
16050203700.0 0.1693937089 -0.9772493346
16100203400.0 0.1548192558 -0.9796354351
16150203100.0 0.1399665391 -0.9816625135
16200202800.0 0.1261652431 -0.9841192028
16250202500.0 0.1111169125 -0.9858820106
16300202200.0 0.0954869513 -0.9877424739
16350201900.0 0.0804343935 -0.9890810552
16400201600.0 0.0658623777 -0.9901477782
16450201300.0 0.0502671695 -0.9913102602
16500201000.0 0.0331697386 -0.9920156356
16550200700.0 0.0171324948 -0.992577263
16600200400.0 0.0012167368 -0.9927254265
16650200100.0 -0.0150669792 -0.9924596478
16700199800.0 -0.031738503 -0.9921276122
16750199500.0 -0.0504579894 -0.9914454168
16800199200.0 -0.0658341614 -0.9907069909
16850198900.0 -0.0815244333 -0.9897839
16900198600.0 -0.0958463553 -0.9882353141
16950198300.0 -0.1094903444 -0.987074874
17000198000.0 -0.1221652137 -0.9855704697
17050197700.0 -0.1352677926 -0.9837418621
17100197400.0 -0.1481919584 -0.982173248
17150197100.0 -0.160979555 -0.9800646893
17200196800.0 -0.1742167913 -0.9778611131
17250196500.0 -0.1867781838 -0.9753487744
17300196200.0 -0.1991277277 -0.9730040046
17350195900.0 -0.2108378577 -0.9707112657
17400195600.0 -0.2228014762 -0.9680784469
17450195300.0 -0.2358012395 -0.9654742736
17500195000.0 -0.2490525941 -0.9619884665
17550194700.0 -0.2628287827 -0.9585506908
17600194400.0 -0.2766553973 -0.9548709507
17650194100.0 -0.2900779303 -0.9510263786
17700193800.0 -0.3029702841 -0.9463239459
17750193500.0 -0.317015268 -0.9414191096
17800193200.0 -0.3315371086 -0.9368839014
17850192900.0 -0.3461728116 -0.9315090836
17900192600.0 -0.3612519769 -0.9250736674
17950192300.0 -0.3769785633 -0.9179290569
18000192000.0 -0.3916840401 -0.9107272676
18050191700.0 -0.4055173615 -0.9029198225
18100191400.0 -0.4196493695 -0.8952288355
18150191100.0 -0.4345253758 -0.8873278274
18200190800.0 -0.4513713723 -0.878179177
18250190500.0 -0.4683738456 -0.8686091647
18300190200.0 -0.4838270318 -0.8598694999
18350189900.0 -0.4985603135 -0.8515511076
18400189600.0 -0.5133983528 -0.8434129346
18450189300.0 -0.5269010332 -0.8352263487
18500189000.0 -0.5403968564 -0.8271293268
18550188700.0 -0.5530759158 -0.8194319074
18600188400.0 -0.5653048664 -0.8122475047
18650188100.0 -0.5762418824 -0.8060416581
18700187800.0 -0.5874979765 -0.7990072394
18750187500.0 -0.5984511861 -0.7923869075
18800187200.0 -0.6091890666 -0.7854056606
18850186900.0 -0.6193706202 -0.7786680811
18900186600.0 -0.6295887166 -0.7712978247
18950186300.0 -0.639916737 -0.763547519
19000186000.0 -0.6473421699 -0.757320795
19050185700.0 -0.6568749524 -0.7504180048
19100185400.0 -0.6666306249 -0.7419131426
19150185100.0 -0.6770876059 -0.7333890071
19200184800.0 -0.6859514991 -0.7248347946
19250184500.0 -0.6962388934 -0.7156792902
19300184200.0 -0.7081154054 -0.7063935166
19350183900.0 -0.7188548503 -0.6967067602
19400183600.0 -0.7288236786 -0.6869324819
19450183300.0 -0.7372060437 -0.6766516494
19500183000.0 -0.7455579518 -0.666383832
19550182700.0 -0.7557734867 -0.6557456115
19600182400.0 -0.7653989262 -0.6440630359
19650182100.0 -0.776284231 -0.6315490192
19700181800.0 -0.7865356913 -0.6186462923
19750181500.0 -0.7969450017 -0.6046021196
19800181200.0 -0.8070245894 -0.5895371755
19850180900.0 -0.8166270865 -0.5743205211
19900180600.0 -0.8243319391 -0.5600690262
19950180300.0 -0.8333870872 -0.5435834708
20000180000.0 -0.8224724476 -0.5472818081
20050179700.0 -0.8308510958 -0.5348850732
20100179400.0 -0.8393697237 -0.5220653121
20150179100.0 -0.8472382476 -0.5096514049
20200178800.0 -0.8563883252 -0.4978505242
20250178500.0 -0.8653035144 -0.484993281
20300178200.0 -0.8756942277 -0.4716996554
20350177900.0 -0.8847937101 -0.4581281836
20400177600.0 -0.8937606314 -0.4436235059
20450177300.0 -0.9020246159 -0.4293964357
20500177000.0 -0.9099838767 -0.4154826481
20550176700.0 -0.9178773453 -0.4021424151
20600176400.0 -0.9246921178 -0.389163347
20650176100.0 -0.9311583107 -0.3772686357
20700175800.0 -0.938558618 -0.3648053096
20750175500.0 -0.9447240007 -0.3537172551
20800175200.0 -0.947718466 -0.3431578393
20850174900.0 -0.9529855955 -0.3323844135
20900174600.0 -0.957755979 -0.3212878303
20950174300.0 -0.9610931899 -0.3098566265
21000174000.0 -0.9642107537 -0.2993481535
21050173700.0 -0.965282691 -0.289513569
21100173400.0 -0.9689923916 -0.2791871312
21150173100.0 -0.9729352229 -0.2667250613
21200172800.0 -0.9766942152 -0.2539481983
21250172500.0 -0.9803146086 -0.239738995
21300172200.0 -0.9840137692 -0.2262015596
21350171900.0 -0.9862858303 -0.2120656709
21400171600.0 -0.987029215 -0.1976016338
21450171300.0 -0.9889553968 -0.1833581187
21500171000.0 -0.9890278267 -0.1679915262
21550170700.0 -0.9889592103 -0.1531289866
21600170400.0 -0.99046828 -0.138065537
21650170100.0 -0.9907801671 -0.122605276
21700169800.0 -0.9904398956 -0.1067477296
21750169500.0 -0.9902990269 -0.0895965486
21800169200.0 -0.9899677232 -0.0735064813
21850168900.0 -0.9898409593 -0.0576407241
21900168600.0 -0.9898553924 -0.0408036528
21950168300.0 -0.9896224972 -0.0252355526
22000168000.0 -0.9888327849 -0.0104884307
22050167700.0 -0.9899408572 0.0042345926
22100167400.0 -0.9903564752 0.0196257408
22150167100.0 -0.9913406967 0.0360376073
22200166800.0 -0.991865007 0.0520595672
22250166500.0 -0.9912060324 0.0699860556
22300166200.0 -0.9909206373 0.0863740421
22350165900.0 -0.9889432791 0.1027864474
22400165600.0 -0.9877189282 0.1176259113
22450165300.0 -0.986168791 0.1324213862
22500165000.0 -0.9847507462 0.146895904
22550164700.0 -0.9835027804 0.1630291998
22600164400.0 -0.9807052122 0.1798720112
22650164100.0 -0.9783549447 0.1949187446
22700163800.0 -0.9747741924 0.2109155634
22750163500.0 -0.9715962966 0.2260870069
22800163200.0 -0.9689691138 0.2391912265
22850162900.0 -0.9662479322 0.252376953
22900162600.0 -0.9648550421 0.2664044846
22950162300.0 -0.9628985074 0.2801022646
23000162000.0 -0.961028554 0.2930127273
23050161700.0 -0.9582327751 0.3064364987
23100161400.0 -0.9558083948 0.3201589662
23150161100.0 -0.9530190715 0.3324908472
23200160800.0 -0.9498435972 0.3448444744
23250160500.0 -0.9466189497 0.3577924226
23300160200.0 -0.9447671112 0.3707262313
23350159900.0 -0.9400194966 0.3844300405
23400159600.0 -0.9351455614 0.398027278
23450159300.0 -0.9302458925 0.4120333956
23500159000.0 -0.9249823259 0.4251405759
23550158700.0 -0.9200102117 0.439711713
23600158400.0 -0.914062187 0.4536621911
23650158100.0 -0.9070139138 0.4682193213
23700157800.0 -0.8985070227 0.4823742741
23750157500.0 -0.8891401802 0.4968980688
23800157200.0 -0.8792475686 0.5101404688
23850156900.0 -0.8694528196 0.5234358945
23900156600.0 -0.8603447653 0.536155672
23950156300.0 -0.850260303 0.5476561333
24000156000.0 -0.8409201152 0.561174813
24050155700.0 -0.8297068852 0.5724557217
24100155400.0 -0.8197857354 0.5851106966
24150155100.0 -0.8087589518 0.597759867
24200154800.0 -0.7981070857 0.6090609073
24250154500.0 -0.7865708494 0.621744337
24300154200.0 -0.7752017674 0.633022407
24350153900.0 -0.7629515179 0.6446080653
24400153600.0 -0.750697077 0.6549962923
24450153300.0 -0.7384400251 0.6654832067
24500153000.0 -0.7268289592 0.675420065
24550152700.0 -0.7154602554 0.6858760238
24600152400.0 -0.704226053 0.6950580306
24650152100.0 -0.6915497382 0.7032532284
