!Created with skrf (http://scikit-rf.org).
# Hz S RI R 50.0 
!freq ReS11 ImS11
300000.0 -0.9751708904 -0.1183109422
50299700.0 -1.000070948 0.0154545554
100299400.0 -0.9981206303 0.0283029703
150299100.0 -1.002839941 0.0452217918
200298800.0 -0.9996591774 0.0587360369
250298500.0 -0.9974754506 0.0720671675
300298200.0 -0.9860809121 0.0877949248
350297900.0 -0.9940433796 0.098749398
400297600.0 -0.993175365 0.1152371397
450297300.0 -0.9911525064 0.129134783
500297000.0 -0.9894835472 0.1439246318
550296700.0 -0.9843295559 0.1563676689
600296400.0 -1.017251283 0.1896801466
650296100.0 -0.982244557 0.186351542
700295800.0 -0.9793059561 0.2005312312
750295500.0 -0.9763988477 0.2144714722
800295200.0 -0.9730656046 0.228642065
850294900.0 -0.9697275659 0.2422439847
900294600.0 -0.9659123048 0.2562305585
950294300.0 -0.9620238766 0.2698220021
1000294000.0 -0.9583131181 0.2838380315
1050293700.0 -0.9537611749 0.2977071816
1100293400.0 -0.9494564123 0.3121909459
1150293100.0 -0.9454825873 0.3240799002
1200292800.0 -0.9402296016 0.3383315384
1250292500.0 -0.9347866857 0.3516464696
1300292200.0 -0.9290163077 0.3648324396
1350291900.0 -0.9233438366 0.3789261095
1400291600.0 -0.9179544648 0.3921862632
1450291300.0 -0.9124604453 0.4044476215
1500291000.0 -0.906330676 0.4178510087
1550290700.0 -0.8996736356 0.4310616071
1600290400.0 -0.8933023271 0.4440057133
1650290100.0 -0.8867834618 0.4562157421
1700289800.0 -0.8798128393 0.4696780124
1750289500.0 -0.8728784869 0.4820109019
1800289200.0 -0.8654658277 0.4945477392
1850288900.0 -0.8586381558 0.5061379204
1900288600.0 -0.8510033653 0.5191812076
1950288300.0 -0.8427695006 0.5316768374
2000288000.0 -0.8354681216 0.5431111776
2050287700.0 -0.8271941814 0.5555083732
2100287400.0 -0.8192134008 0.5671684507
2150287100.0 -0.810547992 0.5792507956
2200286800.0 -0.8030426417 0.5894908293
2250286500.0 -0.793980207 0.6014042326
2300286200.0 -0.7853172146 0.6133500696
2350285900.0 -0.7763740899 0.6241491349
2400285600.0 -0.7674171945 0.6350713784
2450285300.0 -0.7589638407 0.6454994487
2500285000.0 -0.749251429 0.6568937222
2550284700.0 -0.7403292681 0.6671177525
2600284400.0 -0.7308106771 0.6773246853
2650284100.0 -0.7220272108 0.68777046
2700283800.0 -0.7113382927 0.6981874231
2750283500.0 -0.7008956882 0.7090289441
2800283200.0 -0.6912182218 0.7186731325
2850282900.0 -0.6810386776 0.7284519141
2900282600.0 -0.6706383611 0.7380452757
2950282300.0 -0.6603618095 0.7473727117
3000282000.0 -0.6497522991 0.7568224272
3050281700.0 -0.6384349006 0.7660379236
3100281400.0 -0.6265163446 0.7753753399
3150281100.0 -0.6148490734 0.784759859
3200280800.0 -0.6031820347 0.7933237159
3250280500.0 -0.5923581408 0.8009709589
3300280200.0 -0.5812892673 0.8089144292
3350279900.0 -0.5696359117 0.8164491293
3400279600.0 -0.5572098359 0.8240065309
3450279300.0 -0.546330301 0.8313310709
3500279000.0 -0.5342044594 0.8383944893
3550278700.0 -0.5218044205 0.8457497604
3600278400.0 -0.5098245528 0.852903089
3650278100.0 -0.4963960215 0.8603245271
3700277800.0 -0.4841250529 0.8669218847
3750277500.0 -0.4720571187 0.8733882546
3800277200.0 -0.4596547793 0.88004878
3850276900.0 -0.4475186039 0.8858712713
3900276600.0 -0.436669918 0.8915934104
3950276300.0 -0.424237286 0.8976915166
4000276000.0 -0.4123384224 0.9034406777
4050275700.0 -0.3994160878 0.9098247388
4100275400.0 -0.388115093 0.9149938675
4150275100.0 -0.375459999 0.9207053206
4200274800.0 -0.3626798015 0.9262435392
4250274500.0 -0.3504209403 0.931402201
4300274200.0 -0.3374126158 0.9366834664
4350273900.0 -0.3235962406 0.9417992278
4400273600.0 -0.3087528125 0.9473572033
4450273300.0 -0.2932705489 0.9523744377
4500273000.0 -0.2798150536 0.956657871
4550272700.0 -0.2656087825 0.9610364549
4600272400.0 -0.2501526432 0.9651634804
4650272100.0 -0.2384282145 0.968319228
4700271800.0 -0.2251291816 0.9716482241
4750271500.0 -0.2134287648 0.9745749632
4800271200.0 -0.2010392904 0.977294657
4850270900.0 -0.1870228605 0.9800046799
4900270600.0 -0.1732377814 0.9824779402
4950270300.0 -0.1590195294 0.9850917282
5000270000.0 -0.1446296507 0.9870732836
5050269700.0 -0.1310321861 0.9884708621
5100269400.0 -0.1175209752 0.9905263898
5150269100.0 -0.104000359 0.9917141698
5200268800.0 -0.0910780799 0.9929382235
5250268500.0 -0.077651879 0.9937849538
5300268200.0 -0.0644846854 0.994813453
5350267900.0 -0.0523842423 0.9950044064
5400267600.0 -0.0361507495 0.9963068645
5450267300.0 -0.0229527361 0.9968141075
5500267000.0 -0.0081107415 0.9971883628
5550266700.0 0.0069750882 0.9972703217
5600266400.0 0.022596528 0.9970946307
5650266100.0 0.0392381046 0.996950519
5700265800.0 0.0534466074 0.9960822587
5750265500.0 0.0686079697 0.9952621376
5800265200.0 0.0828236745 0.9943200744
5850264900.0 0.0960329343 0.9934865818
5900264600.0 0.1122463763 0.9912299324
5950264300.0 0.1245594244 0.9900413756
6000264000.0 0.1385873058 0.9881824759
6050263700.0 0.1508544989 0.9867509732
6100263400.0 0.1634385271 0.9852128845
6150263100.0 0.1777312314 0.9825217759
6200262800.0 0.1882368553 0.9808262794
6250262500.0 0.200966448 0.9784224414
6300262200.0 0.2137974629 0.9757499159
6350261900.0 0.226639736 0.9728589364
6400261600.0 0.2407194233 0.9694778132
6450261300.0 0.2518843849 0.9667905743
6500261000.0 0.2650030536 0.9633399813
6550260700.0 0.2777071152 0.959329515
6600260400.0 0.2912024993 0.9552672563
6650260100.0 0.3046482576 0.9509636459
6700259800.0 0.3170114828 0.9465997949
6750259500.0 0.3312987463 0.9418069641
6800259200.0 0.3440610993 0.9366748704
6850258900.0 0.3561255599 0.9314254213
6900258600.0 0.3681965397 0.9264949033
6950258300.0 0.3806332902 0.9212426448
7000258000.0 0.3927914538 0.9157345385
7050257700.0 0.4051285182 0.9098150709
7100257400.0 0.417894261 0.9035197067
7150257100.0 0.4282304949 0.8981074099
7200256800.0 0.4409539193 0.8918529263
7250256500.0 0.4529185385 0.8856316751
7300256200.0 0.4661025153 0.878802853
7350255900.0 0.4784395097 0.8717486122
7400255600.0 0.4917587116 0.8647836032
7450255300.0 0.5072029874 0.8558603798
7500255000.0 0.5182013314 0.8482895831
7550254700.0 0.5323882896 0.8400073058
7600254400.0 0.5449700078 0.8316478714
7650254100.0 0.5568425619 0.8238230888
7700253800.0 0.5683923271 0.815926311
7750253500.0 0.5798324763 0.8081528935
7800253200.0 0.5905816699 0.8004657014
7850252900.0 0.6000645297 0.7933768747
7900252600.0 0.6116825539 0.784764066
7950252300.0 0.6204918767 0.7782562218
8000252000.0 0.6306143687 0.7704909956
8050251700.0 0.6410759906 0.7622740552
8100251400.0 0.6511908238 0.7540845044
8150251100.0 0.6614468557 0.745625247
8200250800.0 0.6705670207 0.7376876836
8250250500.0 0.6794817588 0.729767816
8300250200.0 0.688939927 0.7207858403
8350249900.0 0.6980612933 0.7123761267
8400249600.0 0.7061411807 0.7043058808
8450249300.0 0.7154501821 0.6949598074
8500249000.0 0.7240376897 0.6861505782
8550248700.0 0.732457446 0.6771403362
8600248400.0 0.7408235636 0.667584786
8650248100.0 0.7485996978 0.6582035825
8700247800.0 0.7580122714 0.6468872224
8750247500.0 0.7662112421 0.6366877064
8800247200.0 0.7744903247 0.6264930167
8850246900.0 0.7834988157 0.6152442329
8900246600.0 0.7915821336 0.6039415127
8950246300.0 0.8016635757 0.5908524038
9000246000.0 0.8104478492 0.5782095597
9050245700.0 0.8198412393 0.5650691269
9100245400.0 0.8282313229 0.5523411187
9150245100.0 0.837959123 0.539039303
9200244800.0 0.8476076139 0.5238263374
9250244500.0 0.8568578238 0.5082990486
9300244200.0 0.8649790501 0.4940023388
9350243900.0 0.8728752569 0.4802043593
9400243600.0 0.8796068557 0.4677294935
9450243300.0 0.8854327131 0.4561431342
9500243000.0 0.8919202175 0.4440445686
9550242700.0 0.8954715916 0.4362547163
9600242400.0 0.8995449802 0.4288239583
9650242100.0 0.9030232713 0.4226055685
9700241800.0 0.9075144556 0.4141812871
9750241500.0 0.9115264314 0.4064920575
9800241200.0 0.9164594881 0.3973089379
9850240900.0 0.9219253196 0.3857673057
9900240600.0 0.9276336398 0.3744265856
9950240300.0 0.9343195098 0.3579595749
10000240000.0 0.9388390528 0.3465644963
10050239700.0 0.9447375538 0.331016624
10100239400.0 0.9496245483 0.3155884341
10150239100.0 0.9540546161 0.3006199524
10200238800.0 0.9583411935 0.2856855716
10250238500.0 0.9614353934 0.2725661999
10300238200.0 0.9646902928 0.2585658281
10350237900.0 0.9672218712 0.2453523372
10400237600.0 0.9699775828 0.2321008019
10450237300.0 0.9724525228 0.2185425925
10500237000.0 0.9747998917 0.2062904896
10550236700.0 0.9769774353 0.1923253863
10600236400.0 0.9793941496 0.1785246477
10650236100.0 0.9811881614 0.1641854926
10700235800.0 0.9832357847 0.1522174275
10750235500.0 0.9860521396 0.1385561194
10800235200.0 0.9877361848 0.1244077896
10850234900.0 0.9896989582 0.1096013352
10900234600.0 0.9916797864 0.0951234383
10950234300.0 0.9933641699 0.0819781317
11000234000.0 0.9951937165 0.0666649595
11050233700.0 0.9970056248 0.0505021026
11100233400.0 0.998411811 0.0329465033
11150233100.0 0.9993785864 0.0164333735
11200232800.0 1.00047267 0.001779975
11250232500.0 1.00140593 -0.0149572498
11300232200.0 1.001267991 -0.0321311934
11350231900.0 1.001901756 -0.0482504491
11400231600.0 1.001436408 -0.0631993266
11450231300.0 1.001245927 -0.0792666643
11500231000.0 1.000114489 -0.0964264701
11550230700.0 0.9984272692 -0.1089791824
11600230400.0 0.9970976515 -0.1223232953
11650230100.0 0.995059645 -0.1331226098
11700229800.0 0.9931659087 -0.1480031146
11750229500.0 0.9906529214 -0.1620269113
11800229200.0 0.9882189659 -0.1761551198
11850228900.0 0.9845689716 -0.1881275953
11900228600.0 0.9807987354 -0.1980919567
11950228300.0 0.9776857961 -0.2088170135
12000228000.0 0.9751038012 -0.2176830943
12050227700.0 0.9716983606 -0.2304141243
12100227400.0 0.9683280038 -0.2415249238
12150227100.0 0.9632255562 -0.2580767619
12200226800.0 0.9593417028 -0.2697207747
12250226500.0 0.9560472619 -0.281627079
12300226200.0 0.951822017 -0.294159027
12350225900.0 0.9468129354 -0.3084246932
12400225600.0 0.9426333031 -0.32035775
12450225300.0 0.9376669073 -0.3337452172
12500225000.0 0.932274786 -0.3480761308
12550224700.0 0.9270194621 -0.3623351165
12600224400.0 0.9219835832 -0.3751562696
12650224100.0 0.9161600865 -0.3895227341
12700223800.0 0.9109804495 -0.4022616882
12750223500.0 0.9055363914 -0.4152773923
12800223200.0 0.9000473814 -0.4277442644
12850222900.0 0.8948795198 -0.4398053835
12900222600.0 0.8888935836 -0.4525855043
12950222300.0 0.8828727675 -0.465109984
13000222000.0 0.8764968088 -0.4768466119
13050221700.0 0.8700577235 -0.4900348967
13100221400.0 0.8635245635 -0.5006798484
13150221100.0 0.85669241 -0.5136253822
13200220800.0 0.8492258481 -0.5250308214
13250220500.0 0.842344719 -0.5370439744
13300220200.0 0.8349714603 -0.5479216638
13350219900.0 0.8268138372 -0.5599144348
13400219600.0 0.8185837441 -0.5719191824
13450219300.0 0.8092277054 -0.5854730062
13500219000.0 0.7996805427 -0.5993172031
13550218700.0 0.7891664517 -0.6117876307
13600218400.0 0.7785752189 -0.624199787
13650218100.0 0.7691268115 -0.6355052955
13700217800.0 0.7591622229 -0.6469553936
13750217500.0 0.7485485521 -0.6587364161
13800217200.0 0.7368201571 -0.6695920677
13850216900.0 0.7259694241 -0.6817087727
13900216600.0 0.7167225212 -0.6907114419
13950216300.0 0.7054853965 -0.7012514871
14000216000.0 0.6955690673 -0.7108906919
14050215700.0 0.6859522285 -0.719141239
14100215400.0 0.6758487271 -0.727847931
14150215100.0 0.6669279445 -0.7364313541
14200214800.0 0.657373653 -0.7450149761
14250214500.0 0.6470416612 -0.7543510096
14300214200.0 0.636815271 -0.7636986703
14350213900.0 0.6253713969 -0.7731863334
14400213600.0 0.6138709974 -0.7826905558
14450213300.0 0.6008236693 -0.7934607702
14500213000.0 0.5876024255 -0.8031329
14550212700.0 0.5753889105 -0.8127315552
14600212400.0 0.5626233983 -0.821550866
14650212100.0 0.5496647658 -0.8299231012
14700211800.0 0.5357616405 -0.8397198954
14750211500.0 0.5238124447 -0.8477605912
14800211200.0 0.5114317932 -0.855722101
14850210900.0 0.4992579838 -0.8635576434
14900210600.0 0.4859187451 -0.8713224563
14950210300.0 0.4726112927 -0.8790881186
15000210000.0 0.4597228477 -0.8857993513
15050209700.0 0.4474473608 -0.8918216707
15100209400.0 0.4352122725 -0.8977600022
15150209100.0 0.4222852439 -0.9037709566
15200208800.0 0.4091206307 -0.9085357311
15250208500.0 0.3982811874 -0.9131178487
15300208200.0 0.3862530226 -0.9178940974
15350207900.0 0.3733424257 -0.9220360084
15400207600.0 0.3582740016 -0.9275437791
15450207300.0 0.3440718755 -0.9330605698
15500207000.0 0.3293425241 -0.9377767861
15550206700.0 0.3147311695 -0.9431728704
15600206400.0 0.2989899545 -0.9477194348
15650206100.0 0.2830754234 -0.9513598341
15700205800.0 0.2687771191 -0.9553954574
15750205500.0 0.2543002538 -0.9583814106
15800205200.0 0.2400290838 -0.9620319155
15850204900.0 0.225527632 -0.9655319251
15900204600.0 0.2106547787 -0.9693195831
15950204300.0 0.1963617374 -0.972149733
16000204000.0 0.1818575941 -0.9748224874
16050203700.0 0.167419754 -0.9777295969
16100203400.0 0.1525035467 -0.9799216152
16150203100.0 0.1381465701 -0.9821705652
16200202800.0 0.1242778331 -0.9840825432
16250202500.0 0.1095356962 -0.986150424
16300202200.0 0.0939256338 -0.9877089668
16350201900.0 0.0789418811 -0.9888164282
16400201600.0 0.0644461359 -0.9904122174
16450201300.0 0.0490164881 -0.9913472175
16500201000.0 0.0324735577 -0.9920965653
16550200700.0 0.016585261 -0.9927081729
16600200400.0 0.000958159 -0.9928550224
16650200100.0 -0.0151727237 -0.9927903293
16700199800.0 -0.0312146389 -0.9923673837
16750199500.0 -0.0502196386 -0.9913422695
16800199200.0 -0.0658745034 -0.9909399805
16850198900.0 -0.0813902644 -0.9894520858
16900198600.0 -0.0949054183 -0.9883682917
16950198300.0 -0.10885418 -0.9878049558
17000198000.0 -0.1210246271 -0.9865437852
17050197700.0 -0.1337394004 -0.9840027361
17100197400.0 -0.146548847 -0.9825583216
17150197100.0 -0.1593252181 -0.9800572344
17200196800.0 -0.1720095878 -0.9783560651
17250196500.0 -0.1850608971 -0.9759836796
17300196200.0 -0.1972086545 -0.973441808
17350195900.0 -0.2089685659 -0.9712978376
17400195600.0 -0.2211017844 -0.9687800839
17450195300.0 -0.2344390987 -0.9659402164
17500195000.0 -0.2475528223 -0.9626828228
17550194700.0 -0.261691138 -0.9588591522
17600194400.0 -0.2756659756 -0.9550355139
17650194100.0 -0.289092238 -0.95074293
17700193800.0 -0.3024309732 -0.9466799233
17750193500.0 -0.3166251341 -0.9419299102
17800193200.0 -0.3310808678 -0.9370990949
17850192900.0 -0.3464244007 -0.9317562141
17900192600.0 -0.3616260849 -0.9253392688
17950192300.0 -0.3771766624 -0.9182748587
18000192000.0 -0.3917846803 -0.9108865332
18050191700.0 -0.4057373508 -0.9029850755
18100191400.0 -0.4199669213 -0.8954774174
18150191100.0 -0.4350297223 -0.8874239857
18200190800.0 -0.4518825321 -0.8783078103
18250190500.0 -0.4688843791 -0.8688613036
18300190200.0 -0.4846665004 -0.8601853115
18350189900.0 -0.4993078522 -0.8518032034
18400189600.0 -0.5135838987 -0.8434017334
18450189300.0 -0.5270691705 -0.8357439724
18500189000.0 -0.5400469378 -0.8273626332
18550188700.0 -0.5525690103 -0.8202626349
18600188400.0 -0.5649209186 -0.8133324614
18650188100.0 -0.5757434207 -0.8068872678
18700187800.0 -0.5866388017 -0.8004439004
18750187500.0 -0.5970813999 -0.7936251416
18800187200.0 -0.6075467285 -0.7868576113
18850186900.0 -0.6177405597 -0.7798156064
18900186600.0 -0.6279218692 -0.7726841991
18950186300.0 -0.6377924292 -0.7648792248
19000186000.0 -0.6452029438 -0.7587208467
19050185700.0 -0.654158848 -0.7514482932
19100185400.0 -0.6644716141 -0.7429671067
19150185100.0 -0.6743666411 -0.7345470939
19200184800.0 -0.6841131129 -0.7267180515
19250184500.0 -0.6936354795 -0.7172072486
19300184200.0 -0.7056981777 -0.7077598844
19350183900.0 -0.7161020049 -0.6978450547
19400183600.0 -0.7256671267 -0.6882034053
19450183300.0 -0.7343507778 -0.6775688207
19500183000.0 -0.743047319 -0.6678819462
19550182700.0 -0.7529624844 -0.6569536032
19600182400.0 -0.7630585207 -0.645149327
19650182100.0 -0.7740675918 -0.6327853572
19700181800.0 -0.7846618488 -0.6193979588
19750181500.0 -0.7954906824 -0.6057277816
19800181200.0 -0.8059914291 -0.5904866981
19850180900.0 -0.815525493 -0.5751649672
19900180600.0 -0.8234356625 -0.5607569384
19950180300.0 -0.8327060091 -0.5443320738
20000180000.0 -0.8258009214 -0.5465605724
20050179700.0 -0.834195564 -0.5331275679
20100179400.0 -0.8429783053 -0.5201533572
20150179100.0 -0.8512219858 -0.5071207211
20200178800.0 -0.8603185513 -0.4950722409
20250178500.0 -0.8697370043 -0.4814187762
20300178200.0 -0.8788597785 -0.4663868402
20350177900.0 -0.8880883157 -0.4519894435
20400177600.0 -0.8968119295 -0.4375930144
20450177300.0 -0.9047206518 -0.4233202692
20500177000.0 -0.9129177606 -0.4096377649
20550176700.0 -0.9208452126 -0.3960254108
20600176400.0 -0.9273257592 -0.3832598372
20650176100.0 -0.9345457719 -0.3702214692
20700175800.0 -0.9407667205 -0.3587634091
20750175500.0 -0.9482185352 -0.3465509768
20800175200.0 -0.9520709334 -0.3359573646
20850174900.0 -0.9576773894 -0.3253131077
20900174600.0 -0.9606449462 -0.3134514916
20950174300.0 -0.9651090436 -0.302487418
21000174000.0 -0.9687590717 -0.2912636716
21050173700.0 -0.9712712094 -0.2801543575
21100173400.0 -0.9757221298 -0.2680825086
21150173100.0 -0.9798197038 -0.2551277736
21200172800.0 -0.9832123005 -0.2422581192
21250172500.0 -0.9865968451 -0.2285254607
21300172200.0 -0.9892866741 -0.2141274609
21350171900.0 -0.9906499786 -0.2001659144
21400171600.0 -0.9923557359 -0.1859071731
21450171300.0 -0.9934082602 -0.1713705373
21500171000.0 -0.9929877604 -0.1560789176
21550170700.0 -0.9931862138 -0.1407223974
21600170400.0 -0.9927231269 -0.1253183313
21650170100.0 -0.9922055529 -0.1081418134
21700169800.0 -0.9904745689 -0.0946015266
21750169500.0 -0.989468775 -0.0781731933
21800169200.0 -0.9886757534 -0.0605901596
21850168900.0 -0.987636833 -0.0454315465
21900168600.0 -0.9859722811 -0.0281169325
21950168300.0 -0.9848079974 -0.0123399429
22000168000.0 -0.983822694 0.0028503652
22050167700.0 -0.9837411566 0.0166650479
22100167400.0 -0.9838738105 0.0319389145
22150167100.0 -0.98409912 0.047578692
22200166800.0 -0.9854479178 0.0637660286
22250166500.0 -0.9841464209 0.0812169941
22300166200.0 -0.9835327903 0.0971729317
22350165900.0 -0.9815473825 0.1142550991
22400165600.0 -0.9804314676 0.1299745552
22450165300.0 -0.9785220607 0.1439644717
22500165000.0 -0.9764598841 0.158487441
22550164700.0 -0.9752187527 0.1738618823
22600164400.0 -0.974550367 0.1888005457
22650164100.0 -0.9724257479 0.2047563422
22700163800.0 -0.9691285831 0.2201746231
22750163500.0 -0.9669094242 0.2352351549
22800163200.0 -0.9640291339 0.2482458959
22850162900.0 -0.9613686387 0.2618818229
22900162600.0 -0.9602508934 0.2751464531
22950162300.0 -0.9588682199 0.2880609029
23000162000.0 -0.957620396 0.2996051386
23050161700.0 -0.9552615568 0.3120882235
23100161400.0 -0.9535725742 0.3251464992
23150161100.0 -0.9505808904 0.3377173873
23200160800.0 -0.9480379933 0.3500780688
23250160500.0 -0.9445910792 0.3616784999
23300160200.0 -0.9418361819 0.3733126542
23350159900.0 -0.938719583 0.3876952933
23400159600.0 -0.9342008189 0.3997096517
23450159300.0 -0.9292653379 0.4133509181
23500159000.0 -0.9244533184 0.4262263717
23550158700.0 -0.9204005594 0.4397474004
23600158400.0 -0.9148455455 0.4528525494
23650158100.0 -0.9084044427 0.467090647
23700157800.0 -0.9005516293 0.4809699104
23750157500.0 -0.8921359194 0.4950845631
23800157200.0 -0.8834510521 0.507943088
23850156900.0 -0.8748022494 0.5207708018
23900156600.0 -0.8647444461 0.5336595703
23950156300.0 -0.8559253221 0.5457915541
24000156000.0 -0.846950697 0.5582696681
24050155700.0 -0.8366038912 0.5691045921
24100155400.0 -0.8263267805 0.5819330535
24150155100.0 -0.8160944496 0.5929679627
24200154800.0 -0.8058648129 0.6048815862
24250154500.0 -0.7944801359 0.6167540618
24300154200.0 -0.7820918174 0.6283228782
24350153900.0 -0.7708095029 0.6386908919
24400153600.0 -0.7586634214 0.6490584534
24450153300.0 -0.7466214337 0.6591619108
24500153000.0 -0.7352673115 0.6683585404
24550152700.0 -0.7242747563 0.6783924871
24600152400.0 -0.7123674525 0.6869490264
24650152100.0 -0.70088479 0.6956961771
