!Created with skrf (http://scikit-rf.org).
# Hz S RI R 50.0 
!freq ReS11 ImS11
300000.0 -0.9735705295 -0.1203083099
50299700.0 -1.0000338 0.0152235194
100299400.0 -0.9979276612 0.0281083162
150299100.0 -1.002727184 0.0450310633
200298800.0 -0.9998745009 0.0583659807
250298500.0 -0.9975631464 0.0718434972
300298200.0 -0.985941115 0.0877203522
350297900.0 -0.9939886992 0.098539281
400297600.0 -0.9930808863 0.1151047745
450297300.0 -0.9911548179 0.1289201317
500297000.0 -0.9894520635 0.1435880813
550296700.0 -0.9844594027 0.1559440976
600296400.0 -1.017364546 0.1894019894
650296100.0 -0.9821111375 0.186071998
700295800.0 -0.9792295423 0.2002962692
750295500.0 -0.9763693577 0.2141351446
800295200.0 -0.9730403964 0.2285426872
850294900.0 -0.9698275812 0.2421081556
900294600.0 -0.9657041081 0.2559376493
950294300.0 -0.9620830361 0.26968926
1000294000.0 -0.9581919349 0.2835138799
1050293700.0 -0.9535851622 0.2973510549
1100293400.0 -0.9493472101 0.3119533183
1150293100.0 -0.9454656982 0.3237510037
1200292800.0 -0.9403020363 0.3380388414
1250292500.0 -0.9346239328 0.3515557326
1300292200.0 -0.9289771032 0.3647845182
1350291900.0 -0.9235328233 0.3787826513
1400291600.0 -0.9179861489 0.3918387429
1450291300.0 -0.9123998415 0.4043242961
1500291000.0 -0.9062743 0.4176516935
1550290700.0 -0.899566589 0.4310173698
1600290400.0 -0.8934318865 0.4439143679
1650290100.0 -0.8867624575 0.4561294423
1700289800.0 -0.8798517562 0.4694159011
1750289500.0 -0.8728426431 0.4817725584
1800289200.0 -0.8655506156 0.494589975
1850288900.0 -0.8586150374 0.5058091667
1900288600.0 -0.8510154984 0.5189801033
1950288300.0 -0.8426099751 0.5314865735
2000288000.0 -0.8353243034 0.5430220289
2050287700.0 -0.8270694723 0.5553916113
2100287400.0 -0.8193170613 0.5670135202
2150287100.0 -0.8106089209 0.5791114094
2200286800.0 -0.8028971516 0.5893802217
2250286500.0 -0.7944058227 0.6015440603
2300286200.0 -0.7853075757 0.6129794368
2350285900.0 -0.7766868915 0.6240017541
2400285600.0 -0.7676703274 0.6348040978
2450285300.0 -0.7588887497 0.6454277483
2500285000.0 -0.7493426565 0.6567109701
2550284700.0 -0.740158772 0.6669245637
2600284400.0 -0.7310506457 0.6769013329
2650284100.0 -0.7220877893 0.687713888
2700283800.0 -0.711476056 0.6980693523
2750283500.0 -0.7013333481 0.7086905992
2800283200.0 -0.6909326812 0.7181123339
2850282900.0 -0.681253492 0.7285753154
2900282600.0 -0.6708671861 0.737938667
2950282300.0 -0.6606464739 0.7473182839
3000282000.0 -0.6496904806 0.7566033876
3050281700.0 -0.6386523862 0.7660141299
3100281400.0 -0.6268541762 0.7751684982
3150281100.0 -0.615038162 0.7845638746
3200280800.0 -0.6033574133 0.7931689612
3250280500.0 -0.5924109407 0.8007601236
3300280200.0 -0.5813278166 0.8086375334
3350279900.0 -0.5695455924 0.8162842769
3400279600.0 -0.5574105675 0.8239429782
3450279300.0 -0.5460844985 0.8310867679
3500279000.0 -0.5341182001 0.8380190755
3550278700.0 -0.5219048714 0.8456398741
3600278400.0 -0.5096570936 0.852535583
3650278100.0 -0.4967632403 0.8604639905
3700277800.0 -0.4843587579 0.8667462055
3750277500.0 -0.4722812368 0.8731999048
3800277200.0 -0.4596289878 0.8796073832
3850276900.0 -0.4477047976 0.8858104804
3900276600.0 -0.4367207697 0.8913742177
3950276300.0 -0.4245483994 0.8975602928
4000276000.0 -0.4123107588 0.9035485207
4050275700.0 -0.3994354154 0.9096090483
4100275400.0 -0.3883319502 0.9148344088
4150275100.0 -0.3757980797 0.9204039026
4200274800.0 -0.3628053181 0.9261693311
4250274500.0 -0.3504898533 0.9314235932
4300274200.0 -0.3376437802 0.9365894731
4350273900.0 -0.3236617029 0.9421089408
4400273600.0 -0.3087068839 0.9471140121
4450273300.0 -0.2936310749 0.9521950908
4500273000.0 -0.280078413 0.9566018537
4550272700.0 -0.2659256895 0.9607745635
4600272400.0 -0.250385545 0.9650194376
4650272100.0 -0.2387346078 0.9681880962
4700271800.0 -0.2256570706 0.9715321443
4750271500.0 -0.2138804118 0.9744939724
4800271200.0 -0.2013496292 0.9770964667
4850270900.0 -0.1874446106 0.9798589673
4900270600.0 -0.1735306331 0.9822745116
4950270300.0 -0.1594071791 0.9849381704
5000270000.0 -0.1449756049 0.987133845
5050269700.0 -0.1313835088 0.9885594432
5100269400.0 -0.1176733187 0.9900098819
5150269100.0 -0.1042162 0.9918082204
5200268800.0 -0.0908632853 0.9927076906
5250268500.0 -0.0780592098 0.9939969677
5300268200.0 -0.0646427884 0.9949332818
5350267900.0 -0.0526717198 0.9951603619
5400267600.0 -0.036330555 0.9962941401
5450267300.0 -0.0233370767 0.9965264727
5500267000.0 -0.0080022892 0.9971280447
5550266700.0 0.0068779221 0.9972153586
5600266400.0 0.0225135594 0.9969725079
5650266100.0 0.0388749749 0.9969162059
5700265800.0 0.0535826001 0.9963566012
5750265500.0 0.0682440609 0.9950950256
5800265200.0 0.0825646803 0.9947264288
5850264900.0 0.095793423 0.9935585829
5900264600.0 0.1121525036 0.9916274842
5950264300.0 0.1244945793 0.9901182809
6000264000.0 0.1383534223 0.9885085253
6050263700.0 0.1507231499 0.9871436526
6100263400.0 0.1633423863 0.9849449352
6150263100.0 0.1774358016 0.9824580771
6200262800.0 0.1879544153 0.9810312918
6250262500.0 0.2003739925 0.9786075276
6300262200.0 0.2132988344 0.9757805722
6350261900.0 0.2263831607 0.9728800581
6400261600.0 0.2400780824 0.9695710004
6450261300.0 0.2514933448 0.9669683555
6500261000.0 0.264477087 0.963423727
6550260700.0 0.2774407789 0.959367267
6600260400.0 0.2905911765 0.9553908221
6650260100.0 0.3045625465 0.9510372252
6700259800.0 0.316517609 0.9466000089
6750259500.0 0.3302509198 0.9417446847
6800259200.0 0.3435630407 0.9367277482
6850258900.0 0.3556949522 0.9317009351
6900258600.0 0.368069794 0.9265883037
6950258300.0 0.3806770977 0.9213622302
7000258000.0 0.3925638344 0.915826957
7050257700.0 0.4047633213 0.9097601354
7100257400.0 0.4174456402 0.9036250519
7150257100.0 0.4279716375 0.8983176716
7200256800.0 0.4405149765 0.8917950986
7250256500.0 0.4527664222 0.8853533495
7300256200.0 0.4654471057 0.8786560246
7350255900.0 0.4784006212 0.8718119477
7400255600.0 0.4912380354 0.8644006434
7450255300.0 0.5072621117 0.8557542504
7500255000.0 0.5183553519 0.848391892
7550254700.0 0.5328815363 0.8401555267
7600254400.0 0.544908362 0.8317007282
7650254100.0 0.5569924666 0.8237899526
7700253800.0 0.5686685709 0.8160312452
7750253500.0 0.5797165546 0.8082309171
7800253200.0 0.5903718479 0.8004505293
7850252900.0 0.6000364933 0.7932235591
7900252600.0 0.6117696903 0.7847166717
7950252300.0 0.6203911401 0.7782320289
8000252000.0 0.6306412899 0.7705236439
8050251700.0 0.6410824962 0.7624748562
8100251400.0 0.6510072062 0.7542227049
8150251100.0 0.6611506296 0.7457532452
8200250800.0 0.6708315502 0.7377379776
8250250500.0 0.6794652932 0.7297328998
8300250200.0 0.6891966828 0.7211192257
8350249900.0 0.6979423761 0.712526983
8400249600.0 0.7062805458 0.7043160256
8450249300.0 0.7152267741 0.6951597896
8500249000.0 0.7237643261 0.6863967978
8550248700.0 0.7323546435 0.67718636
8600248400.0 0.7404684681 0.6676860842
8650248100.0 0.7483723446 0.6581843141
8700247800.0 0.7580117242 0.6470375882
8750247500.0 0.7663130705 0.6369003223
8800247200.0 0.7743550945 0.6266165258
8850246900.0 0.7832289271 0.6151834427
8900246600.0 0.7917183163 0.6037667483
8950246300.0 0.8013560239 0.5908517002
9000246000.0 0.8103967223 0.5782208659
9050245700.0 0.8194005979 0.5653945154
9100245400.0 0.8279267885 0.5528995067
9150245100.0 0.8374120913 0.5391780337
9200244800.0 0.8469125718 0.5244480391
9250244500.0 0.856339192 0.5088145768
9300244200.0 0.8648672912 0.4943509237
9350243900.0 0.8722842287 0.4808511524
9400243600.0 0.879157887 0.4685109307
9450243300.0 0.88503832 0.4568539918
9500243000.0 0.8911561052 0.4446343979
9550242700.0 0.8951167957 0.4370961117
9600242400.0 0.8988949212 0.42966006
9650242100.0 0.9026717436 0.4232082995
9700241800.0 0.9074026385 0.4148800667
9750241500.0 0.9112527373 0.4073737535
9800241200.0 0.9160620634 0.3984199835
9850240900.0 0.921879901 0.3865148405
9900240600.0 0.9274991604 0.3749506521
9950240300.0 0.9343501811 0.3587718594
10000240000.0 0.9387268311 0.3472173029
10050239700.0 0.9444315171 0.3316886133
10100239400.0 0.9493801613 0.3161862906
10150239100.0 0.9539375724 0.3013226268
10200238800.0 0.9580452486 0.2865558848
10250238500.0 0.9613708344 0.2730910167
10300238200.0 0.9645771207 0.2588669975
10350237900.0 0.9672540328 0.2458121392
10400237600.0 0.9699348626 0.2323830511
10450237300.0 0.9723197272 0.2194377482
10500237000.0 0.9746905313 0.2066152306
10550236700.0 0.9768109261 0.1926807958
10600236400.0 0.9788337396 0.1788252298
10650236100.0 0.9810098424 0.1646683977
10700235800.0 0.9832695509 0.1519951166
10750235500.0 0.985739386 0.1384587963
10800235200.0 0.9879938806 0.1242042446
10850234900.0 0.9899094732 0.1096243792
10900234600.0 0.9919420452 0.0950595629
10950234300.0 0.9934325225 0.0820122068
11000234000.0 0.9952549232 0.0667168904
11050233700.0 0.9970592247 0.0503142385
11100233400.0 0.9984984966 0.0329571644
11150233100.0 0.999663383 0.0165659471
11200232800.0 1.00004428 0.0016117061
11250232500.0 1.001191297 -0.0153339379
11300232200.0 1.001605403 -0.0332000843
11350231900.0 1.001930989 -0.0485775088
11400231600.0 1.001663116 -0.0639417825
11450231300.0 1.001212195 -0.0792472031
11500231000.0 0.9996037211 -0.0958161746
11550230700.0 0.998865658 -0.1091413911
11600230400.0 0.9967704633 -0.1216336543
11650230100.0 0.995294728 -0.133093182
11700229800.0 0.9933583839 -0.1474592333
11750229500.0 0.9907045247 -0.1621939051
11800229200.0 0.9880133857 -0.1759595347
11850228900.0 0.9845521647 -0.1883925776
11900228600.0 0.9810872297 -0.1981508814
11950228300.0 0.9776909763 -0.2086496297
12000228000.0 0.9751735724 -0.21742286
12050227700.0 0.9712751982 -0.2303293203
12100227400.0 0.9685494036 -0.2409875694
12150227100.0 0.9641968211 -0.2572244262
12200226800.0 0.9603610321 -0.2676644129
12250226500.0 0.9554518314 -0.2819993839
12300226200.0 0.9515235651 -0.2948807266
12350225900.0 0.9460745203 -0.3087738613
12400225600.0 0.9421047145 -0.3210149163
12450225300.0 0.9378516389 -0.3338088768
12500225000.0 0.9324627512 -0.3481561662
12550224700.0 0.926941936 -0.3620071723
12600224400.0 0.9220679971 -0.3749605191
12650224100.0 0.9161941503 -0.3895709826
12700223800.0 0.9108403738 -0.4023232256
12750223500.0 0.9053271205 -0.4155693576
12800223200.0 0.9002268119 -0.4277854229
12850222900.0 0.8945908768 -0.4402891871
12900222600.0 0.8889516417 -0.4520562018
12950222300.0 0.8822382972 -0.4654657623
13000222000.0 0.8770508271 -0.4766688455
13050221700.0 0.8699509257 -0.4889834878
13100221400.0 0.8636362516 -0.5007512376
13150221100.0 0.8565055943 -0.5136224254
13200220800.0 0.8494649443 -0.5244565833
13250220500.0 0.8425515795 -0.5369106341
13300220200.0 0.8349989091 -0.5478603652
13350219900.0 0.8270243552 -0.5598685304
13400219600.0 0.8186943669 -0.5718441081
13450219300.0 0.8095100735 -0.5850444619
13500219000.0 0.7992726441 -0.5990140456
13550218700.0 0.7893061118 -0.611801461
13600218400.0 0.7790134397 -0.6237594287
13650218100.0 0.7695801793 -0.6349593205
13700217800.0 0.7586573014 -0.6479734918
13750217500.0 0.7484232907 -0.6576256803
13800217200.0 0.7369885456 -0.6701613816
13850216900.0 0.726289709 -0.6818379456
13900216600.0 0.7162010693 -0.6909540118
13950216300.0 0.7056916762 -0.7007264919
14000216000.0 0.6956142923 -0.7099623813
14050215700.0 0.6861162476 -0.7182366717
14100215400.0 0.6764132891 -0.7277526088
14150215100.0 0.6671922077 -0.7360537706
14200214800.0 0.6576863427 -0.7446785828
14250214500.0 0.6473714734 -0.7541887339
14300214200.0 0.6370045318 -0.7635531437
14350213900.0 0.6257135113 -0.7730287523
14400213600.0 0.6138466639 -0.7828993925
14450213300.0 0.600689203 -0.792785476
14500213000.0 0.5873910801 -0.8032919275
14550212700.0 0.5750278492 -0.8117657901
14600212400.0 0.562705406 -0.8212814994
14650212100.0 0.5502113877 -0.8300899836
14700211800.0 0.5356711179 -0.8393844853
14750211500.0 0.5233558927 -0.8481614993
14800211200.0 0.5116204327 -0.8559790106
14850210900.0 0.4993438052 -0.8634444145
14900210600.0 0.4861483679 -0.8711139324
14950210300.0 0.4727706276 -0.8789080035
15000210000.0 0.4599764618 -0.8856732136
15050209700.0 0.447717995 -0.8921111414
15100209400.0 0.435364942 -0.8978735916
15150209100.0 0.4225220908 -0.9032670495
15200208800.0 0.4097676609 -0.9087822016
15250208500.0 0.3987544581 -0.9130615151
15300208200.0 0.386213993 -0.9173965375
15350207900.0 0.372802118 -0.9223684436
15400207600.0 0.3582462014 -0.9279554426
15450207300.0 0.3447587081 -0.9320969935
15500207000.0 0.3294013848 -0.9371617813
15550206700.0 0.315145989 -0.9425395237
15600206400.0 0.2990291383 -0.9468540034
15650206100.0 0.2834885968 -0.9510617915
15700205800.0 0.2695883887 -0.9549766527
15750205500.0 0.2549918485 -0.9586838204
15800205200.0 0.2406098834 -0.9617889809
15850204900.0 0.2261995281 -0.9652248004
15900204600.0 0.2111178905 -0.9689925004
15950204300.0 0.1969024986 -0.9718882439
16000204000.0 0.1824973849 -0.9749735194
16050203700.0 0.1679089376 -0.9779376359
16100203400.0 0.1530527123 -0.9794838179
16150203100.0 0.1390782135 -0.9820996193
16200202800.0 0.1246710229 -0.9844177192
16250202500.0 0.1100102742 -0.9863427156
16300202200.0 0.0942432466 -0.9876191598
16350201900.0 0.0791669353 -0.98917533
16400201600.0 0.0645750455 -0.990282431
16450201300.0 0.0494523972 -0.991386056
16500201000.0 0.0326003546 -0.9919483707
16550200700.0 0.0169466314 -0.9925543766
16600200400.0 0.0013414878 -0.9926059487
16650200100.0 -0.0145770712 -0.9927971784
16700199800.0 -0.0312589274 -0.9924776707
16750199500.0 -0.0496826141 -0.9919193087
16800199200.0 -0.0654082822 -0.9907449483
16850198900.0 -0.0809062441 -0.9898804199
16900198600.0 -0.0949689004 -0.9884444168
16950198300.0 -0.1077680139 -0.9873564629
17000198000.0 -0.1203555705 -0.9856282767
17050197700.0 -0.1330693389 -0.9841140915
17100197400.0 -0.1465566087 -0.982333548
17150197100.0 -0.1588917172 -0.9800804155
17200196800.0 -0.171974705 -0.9781742454
17250196500.0 -0.1844510612 -0.9756718725
17300196200.0 -0.1965226755 -0.9734133942
17350195900.0 -0.2087772494 -0.9712267994
17400195600.0 -0.2207627133 -0.9687426861
17450195300.0 -0.2339482904 -0.9658903521
17500195000.0 -0.247376344 -0.9627412554
17550194700.0 -0.2614046986 -0.9589511411
17600194400.0 -0.2749514006 -0.9549943946
17650194100.0 -0.2887005432 -0.951114593
17700193800.0 -0.3020661192 -0.9467609428
17750193500.0 -0.3161904206 -0.9421684827
17800193200.0 -0.3308259359 -0.9368058633
17850192900.0 -0.345915669 -0.9313729004
17900192600.0 -0.3612094294 -0.9255726662
17950192300.0 -0.3766601082 -0.9185491489
18000192000.0 -0.3913474079 -0.9110626804
18050191700.0 -0.4052388942 -0.9033644111
18100191400.0 -0.4195185875 -0.8956604538
18150191100.0 -0.4343900746 -0.8877213697
18200190800.0 -0.4514666046 -0.8785493019
18250190500.0 -0.4681209739 -0.868905865
18300190200.0 -0.4836448921 -0.860333781
18350189900.0 -0.4988884098 -0.8520185044
18400189600.0 -0.5132447204 -0.8440775897
18450189300.0 -0.5269331809 -0.8357582376
18500189000.0 -0.5398840696 -0.8279647146
18550188700.0 -0.5527936133 -0.8204520518
18600188400.0 -0.5645466803 -0.8134698262
18650188100.0 -0.5757715926 -0.8072660702
18700187800.0 -0.5860044688 -0.800514556
18750187500.0 -0.5965998317 -0.793813751
18800187200.0 -0.6072641085 -0.786982906
18850186900.0 -0.6173176234 -0.7801567952
18900186600.0 -0.6276325051 -0.7729119626
18950186300.0 -0.6375570019 -0.7652013938
19000186000.0 -0.6446656581 -0.759205128
19050185700.0 -0.6544411567 -0.7517433965
19100185400.0 -0.663853194 -0.7440654075
19150185100.0 -0.6740465752 -0.7353533209
19200184800.0 -0.6832549835 -0.7264714719
19250184500.0 -0.6932691156 -0.71707664
19300184200.0 -0.705285868 -0.7078973946
19350183900.0 -0.7165183444 -0.6981955563
19400183600.0 -0.7255694117 -0.6883641911
19450183300.0 -0.7346852638 -0.6784125025
19500183000.0 -0.7432028438 -0.668764958
19550182700.0 -0.7524554598 -0.6578845903
19600182400.0 -0.7630915466 -0.6459769716
19650182100.0 -0.7739797346 -0.6335134643
19700181800.0 -0.7845426912 -0.6201017899
19750181500.0 -0.7951780029 -0.6058658481
19800181200.0 -0.8055995405 -0.5909824127
19850180900.0 -0.8151149687 -0.5757398204
19900180600.0 -0.8234156805 -0.5611755395
19950180300.0 -0.8325602562 -0.5447721087
20000180000.0 -0.8251312481 -0.547182155
20050179700.0 -0.8336393696 -0.5340353399
20100179400.0 -0.8421621436 -0.5203851164
20150179100.0 -0.8505521559 -0.5081967949
20200178800.0 -0.8595163034 -0.4955640168
20250178500.0 -0.8689369897 -0.4820094157
20300178200.0 -0.8782403812 -0.4672300838
20350177900.0 -0.8871799589 -0.4529222427
20400177600.0 -0.8963164827 -0.4386033566
20450177300.0 -0.9047035797 -0.4239568802
20500177000.0 -0.9124133376 -0.4103014544
20550176700.0 -0.9203641514 -0.3966735793
20600176400.0 -0.9268941888 -0.3840003896
20650176100.0 -0.9341087243 -0.3714175924
20700175800.0 -0.9407236115 -0.3591529107
20750175500.0 -0.947515871 -0.3481792418
20800175200.0 -0.9526502323 -0.3370903886
20850174900.0 -0.9565453118 -0.3258317871
20900174600.0 -0.9607975239 -0.3142271467
20950174300.0 -0.9657409735 -0.3026368283
21000174000.0 -0.968518517 -0.2921567815
21050173700.0 -0.9719318457 -0.2805954546
21100173400.0 -0.9753064494 -0.2692636771
21150173100.0 -0.979252489 -0.257101874
21200172800.0 -0.9825123604 -0.2432775969
21250172500.0 -0.9856620209 -0.2298020425
21300172200.0 -0.9887750838 -0.2160839822
21350171900.0 -0.990618395 -0.2018800647
21400171600.0 -0.9918563638 -0.1873775581
21450171300.0 -0.9923517348 -0.1724435387
21500171000.0 -0.9920333391 -0.1577033084
21550170700.0 -0.992162258 -0.1418850438
21600170400.0 -0.9923122697 -0.1270855651
21650170100.0 -0.9922914776 -0.1110578205
21700169800.0 -0.9898088369 -0.0951182072
21750169500.0 -0.9892633503 -0.0789030511
21800169200.0 -0.9885817485 -0.0621724601
21850168900.0 -0.987843643 -0.0464519094
21900168600.0 -0.9863686055 -0.0297212722
21950168300.0 -0.9851149716 -0.0132083142
22000168000.0 -0.9846705942 0.0007575139
22050167700.0 -0.9842629091 0.0151071002
22100167400.0 -0.9844149647 0.0304463534
22150167100.0 -0.9850477868 0.0462924969
22200166800.0 -0.9853517839 0.0619888918
22250166500.0 -0.9845051879 0.0798736283
22300166200.0 -0.9843690818 0.0968627136
22350165900.0 -0.9833960283 0.1126042496
22400165600.0 -0.9813081944 0.1281771506
22450165300.0 -0.9802500769 0.1446577647
22500165000.0 -0.9776662934 0.1577239106
22550164700.0 -0.9765107539 0.1724357099
22600164400.0 -0.9750451588 0.1885920455
22650164100.0 -0.9722318823 0.2023405395
22700163800.0 -0.9690995952 0.2191950832
22750163500.0 -0.9671202444 0.2342648671
22800163200.0 -0.9645410408 0.2476710829
22850162900.0 -0.9618003957 0.2609608065
22900162600.0 -0.960572851 0.2739357826
22950162300.0 -0.9592369698 0.2868456595
23000162000.0 -0.9579588154 0.2984350547
23050161700.0 -0.9558968301 0.3116711863
23100161400.0 -0.953855357 0.3245776098
23150161100.0 -0.9508327922 0.3369613418
23200160800.0 -0.9481246971 0.348484966
23250160500.0 -0.9452501765 0.3605292006
23300160200.0 -0.9425482026 0.3728216159
23350159900.0 -0.938941807 0.3861684095
23400159600.0 -0.9342003521 0.3997663423
23450159300.0 -0.9291148113 0.4127439987
23500159000.0 -0.9248464447 0.4257379436
23550158700.0 -0.9203607484 0.43896507
23600158400.0 -0.9146339834 0.4524898111
23650158100.0 -0.908594691 0.4663999419
23700157800.0 -0.900840765 0.4805971391
23750157500.0 -0.8922495313 0.4946644717
23800157200.0 -0.8835415852 0.5083384981
23850156900.0 -0.8744641552 0.5204575664
23900156600.0 -0.8652849347 0.5330038812
23950156300.0 -0.8558577822 0.5462412997
24000156000.0 -0.8473769763 0.5577036864
24050155700.0 -0.8361832224 0.5696312976
24100155400.0 -0.826796603 0.5814261155
24150155100.0 -0.8164204766 0.5935562963
24200154800.0 -0.8056822216 0.6050633848
24250154500.0 -0.7938647138 0.6169052332
24300154200.0 -0.7828429184 0.6282883699
24350153900.0 -0.7705191857 0.6390517152
24400153600.0 -0.7584257841 0.6493995569
24450153300.0 -0.746714153 0.6589083212
24500153000.0 -0.7349045485 0.6684863435
24550152700.0 -0.7240437714 0.6786481449
24600152400.0 -0.7125551319 0.6873625547
24650152100.0 -0.7001328584 0.6958179719
