!Created with skrf (http://scikit-rf.org).
# Hz S RI R 50.0 
!freq ReS11 ImS11
300000.0 -0.9909242189 -0.0629151831
50299700.0 -0.999592284 0.0166887907
100299400.0 -0.9975723244 0.0292063257
150299100.0 -1.002244054 0.0459746228
200298800.0 -0.9991044156 0.0593960522
250298500.0 -0.9969981718 0.0729373916
300298200.0 -0.9853993054 0.0884842049
350297900.0 -0.9934005918 0.0992964126
400297600.0 -0.9925272642 0.1160093715
450297300.0 -0.9902254626 0.1295618849
500297000.0 -0.9886551394 0.144435999
550296700.0 -0.9837279337 0.1568015598
600296400.0 -1.016383778 0.1901123458
650296100.0 -0.9814047007 0.1866690927
700295800.0 -0.9782942266 0.2010326142
750295500.0 -0.9752958838 0.2148427021
800295200.0 -0.9719058271 0.2290920738
850294900.0 -0.9684178449 0.2426888503
900294600.0 -0.9649169585 0.2566193593
950294300.0 -0.9610885818 0.2699465713
1000294000.0 -0.9572195761 0.2840799518
1050293700.0 -0.9526323157 0.2979983978
1100293400.0 -0.9483365794 0.312202223
1150293100.0 -0.9444345918 0.3240448898
1200292800.0 -0.9393599764 0.3383488591
1250292500.0 -0.9336659909 0.3517984478
1300292200.0 -0.928075127 0.3649578347
1350291900.0 -0.9226235994 0.3789652074
1400291600.0 -0.9171080382 0.391946547
1450291300.0 -0.9116864709 0.4041588682
1500291000.0 -0.9056909168 0.4176212034
1550290700.0 -0.89915511 0.4308314934
1600290400.0 -0.8929398915 0.4438482575
1650290100.0 -0.886465114 0.4557410642
1700289800.0 -0.8794297844 0.4694642428
1750289500.0 -0.8724680522 0.4816283073
1800289200.0 -0.8651125894 0.4944455364
1850288900.0 -0.858556362 0.5057422847
1900288600.0 -0.8508954875 0.518826561
1950288300.0 -0.8426386687 0.5313679843
2000288000.0 -0.8351451982 0.54272651
2050287700.0 -0.8269851803 0.5550275357
2100287400.0 -0.8190653209 0.5666081307
2150287100.0 -0.8103936194 0.5788285692
2200286800.0 -0.8025813893 0.5891690579
2250286500.0 -0.7940360643 0.601300932
2300286200.0 -0.7849593313 0.6126392295
2350285900.0 -0.7761112118 0.6237416427
2400285600.0 -0.7672115879 0.6348880623
2450285300.0 -0.7584935676 0.6451791935
2500285000.0 -0.7487734521 0.6564207816
2550284700.0 -0.7397326287 0.6669210937
2600284400.0 -0.7300279 0.6769496423
2650284100.0 -0.7213137167 0.6875327497
2700283800.0 -0.710713867 0.6979387128
2750283500.0 -0.7004123702 0.7086303679
2800283200.0 -0.6905070628 0.7180493428
2850282900.0 -0.6803259398 0.7278968441
2900282600.0 -0.6701600616 0.737707752
2950282300.0 -0.6598721124 0.7465892207
3000282000.0 -0.649126425 0.7561964655
3050281700.0 -0.6381668604 0.7653078941
3100281400.0 -0.626734171 0.7744452934
3150281100.0 -0.6152475755 0.7836968839
3200280800.0 -0.6037354564 0.792371781
3250280500.0 -0.5926338497 0.8001553969
3300280200.0 -0.5815705208 0.8081790502
3350279900.0 -0.5701971065 0.8156697014
3400279600.0 -0.5580871923 0.8234584501
3450279300.0 -0.5469152522 0.8308625291
3500279000.0 -0.5349267437 0.8380217516
3550278700.0 -0.5225833783 0.8452229309
3600278400.0 -0.5108641899 0.8524212432
3650278100.0 -0.497615086 0.8601391983
3700277800.0 -0.4854681715 0.8667815467
3750277500.0 -0.4731449977 0.8731400724
3800277200.0 -0.4607883293 0.8798473434
3850276900.0 -0.4485801407 0.8859926118
3900276600.0 -0.4371676926 0.8915771649
3950276300.0 -0.4246848337 0.8978925814
4000276000.0 -0.4125164091 0.9037338516
4050275700.0 -0.3991363703 0.9099437584
4100275400.0 -0.388072567 0.9154058069
4150275100.0 -0.3750467063 0.9208972815
4200274800.0 -0.3616178545 0.9264034441
4250274500.0 -0.3495955252 0.931155111
4300274200.0 -0.3363697094 0.9365230887
4350273900.0 -0.32295014 0.9416252147
4400273600.0 -0.3085052327 0.9466121522
4450273300.0 -0.2935322849 0.9515854937
4500273000.0 -0.2800615111 0.9559747256
4550272700.0 -0.2662098682 0.959986446
4600272400.0 -0.2508711498 0.964283287
4650272100.0 -0.2388749492 0.9674672295
4700271800.0 -0.2254737453 0.9707351851
4750271500.0 -0.2132598373 0.973759696
4800271200.0 -0.2005818258 0.9764570055
4850270900.0 -0.1865487079 0.9792027101
4900270600.0 -0.1730666249 0.981678237
4950270300.0 -0.1592534586 0.9841507351
5000270000.0 -0.1450682327 0.9865633479
5050269700.0 -0.1316016897 0.9880122803
5100269400.0 -0.1179725465 0.9895243745
5150269100.0 -0.104683102 0.9914147869
5200268800.0 -0.0909504701 0.9926242054
5250268500.0 -0.0781387378 0.9937212056
5300268200.0 -0.0649217461 0.9945267816
5350267900.0 -0.0527330985 0.9954660959
5400267600.0 -0.0365980921 0.9964569959
5450267300.0 -0.0238799495 0.9962765466
5500267000.0 -0.0091293988 0.9966681588
5550266700.0 0.005109379 0.9969057813
5600266400.0 0.0203188394 0.9968002459
5650266100.0 0.0364059309 0.9964401249
5700265800.0 0.0503693718 0.9960317221
5750265500.0 0.0652643397 0.9949345436
5800265200.0 0.0794228656 0.9939114412
5850264900.0 0.0927450563 0.9928045414
5900264600.0 0.1089614804 0.9911501028
5950264300.0 0.121397812 0.9897010787
6000264000.0 0.1352582592 0.9877823228
6050263700.0 0.1482880141 0.9861839673
6100263400.0 0.1610396077 0.9842662862
6150263100.0 0.1761103194 0.981905736
6200262800.0 0.1868274367 0.9799758404
6250262500.0 0.1998540901 0.9774854684
6300262200.0 0.2128105364 0.9746864334
6350261900.0 0.2256701625 0.9718626037
6400261600.0 0.2399195567 0.9683479618
6450261300.0 0.2514049477 0.9657848377
6500261000.0 0.2642061903 0.9621583231
6550260700.0 0.277197171 0.9581434125
6600260400.0 0.2901698887 0.9544283277
6650260100.0 0.3040471814 0.9501839407
6700259800.0 0.3162329247 0.9457671963
6750259500.0 0.3299002221 0.9410591505
6800259200.0 0.3428353056 0.9362312942
6850258900.0 0.3551676161 0.9314622754
6900258600.0 0.3671729327 0.9264414583
6950258300.0 0.3798186757 0.9212627065
7000258000.0 0.3920053504 0.9159639209
7050257700.0 0.4040717617 0.9102084429
7100257400.0 0.4173686879 0.9038004926
7150257100.0 0.4276211223 0.8988030991
7200256800.0 0.440676189 0.8924302088
7250256500.0 0.452236983 0.8864360089
7300256200.0 0.4650007984 0.8797927751
7350255900.0 0.4768496423 0.8731017093
7400255600.0 0.4895079957 0.8662948664
7450255300.0 0.5044876293 0.857623368
7500255000.0 0.5157315126 0.850786599
7550254700.0 0.5286580551 0.8427511177
7600254400.0 0.5413101904 0.8347173342
7650254100.0 0.5526452685 0.8270140262
7700253800.0 0.5644888347 0.8187884222
7750253500.0 0.5763617003 0.8111454015
7800253200.0 0.5871958052 0.8030657214
7850252900.0 0.5967810945 0.7959812509
7900252600.0 0.6087625577 0.7870137165
7950252300.0 0.6178531006 0.7799244645
8000252000.0 0.6281353833 0.7722009361
8050251700.0 0.6389426435 0.7637817759
8100251400.0 0.6490737135 0.7554244002
8150251100.0 0.659561732 0.7464221177
8200250800.0 0.6690825391 0.738426226
8250250500.0 0.6782403702 0.7302196599
8300250200.0 0.6878240322 0.7211807619
8350249900.0 0.6967230259 0.7124774084
8400249600.0 0.705317349 0.7041882758
8450249300.0 0.71503235 0.6948240635
8500249000.0 0.7236256794 0.6855244275
8550248700.0 0.7324390789 0.6761141471
8600248400.0 0.7409596525 0.6665442207
8650248100.0 0.748923199 0.6572557984
8700247800.0 0.758218792 0.6465062662
8750247500.0 0.7666351577 0.6363969102
8800247200.0 0.7746491835 0.626187632
8850246900.0 0.7833982794 0.615041804
8900246600.0 0.7916079103 0.6040744386
8950246300.0 0.8007761672 0.5916737823
9000246000.0 0.8095475552 0.5800174962
9050245700.0 0.8182074124 0.5673322542
9100245400.0 0.8266913745 0.5554150152
9150245100.0 0.8350495977 0.5426950009
9200244800.0 0.844101434 0.5288975478
9250244500.0 0.8531610197 0.5145497759
9300244200.0 0.8605926196 0.5012487612
9350243900.0 0.8686924927 0.4876442533
9400243600.0 0.8756141184 0.4748685427
9450243300.0 0.8818963073 0.4627393177
9500243000.0 0.8888555403 0.4495504145
9550242700.0 0.8935590185 0.4399052591
9600242400.0 0.8982715505 0.4305023489
9650242100.0 0.9022068313 0.4226745459
9700241800.0 0.9070445764 0.4133794994
9750241500.0 0.911403408 0.4047464966
9800241200.0 0.9163224207 0.3945005677
9850240900.0 0.9215882666 0.3829207171
9900240600.0 0.9265529138 0.3722174615
9950240300.0 0.9329172955 0.3568224113
10000240000.0 0.9378445198 0.3446124437
10050239700.0 0.943581778 0.3297497753
10100239400.0 0.9478991441 0.3153568532
10150239100.0 0.9523095768 0.3011849917
10200238800.0 0.9569016522 0.2863233336
10250238500.0 0.9602792784 0.2729393565
10300238200.0 0.9635796548 0.2590897806
10350237900.0 0.9665846454 0.2459903059
10400237600.0 0.9691368155 0.2329872875
10450237300.0 0.9723211298 0.2189397656
10500237000.0 0.9745096865 0.2071200183
10550236700.0 0.9768200078 0.1930830585
10600236400.0 0.9794725266 0.1800054479
10650236100.0 0.9819218861 0.1651592843
10700235800.0 0.9832754337 0.1533155258
10750235500.0 0.986078807 0.1393974484
10800235200.0 0.9877502987 0.1259294171
10850234900.0 0.9893798603 0.1121791719
10900234600.0 0.9915764276 0.0973396264
10950234300.0 0.9929931322 0.0843726958
11000234000.0 0.9946661427 0.0699525926
11050233700.0 0.996184839 0.0547106933
11100233400.0 0.9974798169 0.0379990823
11150233100.0 0.9983060514 0.021898478
11200232800.0 0.9986827458 0.007606716
11250232500.0 0.999635686 -0.0084195038
11300232200.0 1.000033782 -0.0253762143
11350231900.0 1.000425849 -0.0416249709
11400231600.0 1.00031765 -0.0564539688
11450231300.0 0.9994303154 -0.0705216876
11500231000.0 0.9983987754 -0.0879582224
11550230700.0 0.9968622655 -0.1017553619
11600230400.0 0.995480694 -0.1145283133
11650230100.0 0.9932491565 -0.1261509933
11700229800.0 0.991312564 -0.1414783105
11750229500.0 0.9892174883 -0.1554176019
11800229200.0 0.986871347 -0.169699633
11850228900.0 0.9837197051 -0.1829422667
11900228600.0 0.9803681657 -0.1940819075
11950228300.0 0.9772713206 -0.2056501736
12000228000.0 0.9748633636 -0.2155164897
12050227700.0 0.9707231091 -0.2285799856
12100227400.0 0.9681575924 -0.2397584056
12150227100.0 0.9635866996 -0.256203143
12200226800.0 0.9600483856 -0.2675762068
12250226500.0 0.9559587486 -0.280492684
12300226200.0 0.9518702742 -0.2928121811
12350225900.0 0.9473828201 -0.3061597836
12400225600.0 0.9428804248 -0.3192815102
12450225300.0 0.9388250056 -0.3308988558
12500225000.0 0.9337146808 -0.3460153694
12550224700.0 0.9282294088 -0.35936509
12600224400.0 0.9237644855 -0.3718638227
12650224100.0 0.9180288189 -0.3861687444
12700223800.0 0.9127679761 -0.3986710342
12750223500.0 0.9072751681 -0.4116490257
12800223200.0 0.901659489 -0.4244259792
12850222900.0 0.8964418676 -0.4366829555
12900222600.0 0.8905487841 -0.4482925178
12950222300.0 0.8839916628 -0.4608196871
13000222000.0 0.8782477707 -0.4729706695
13050221700.0 0.8709541671 -0.4861938832
13100221400.0 0.8644578606 -0.4979098047
13150221100.0 0.857693917 -0.5101828728
13200220800.0 0.8502443144 -0.5219415471
13250220500.0 0.8430190889 -0.534327463
13300220200.0 0.8352212391 -0.5457891155
13350219900.0 0.8271486912 -0.5579068314
13400219600.0 0.8186714768 -0.5699716585
13450219300.0 0.8101225082 -0.5828563103
13500219000.0 0.7999151564 -0.5964829391
13550218700.0 0.7901746265 -0.6093204522
13600218400.0 0.7801558703 -0.621164539
13650218100.0 0.7708027252 -0.6319489882
13700217800.0 0.7603822301 -0.644158775
13750217500.0 0.7503902299 -0.655840946
13800217200.0 0.739968119 -0.6672515282
13850216900.0 0.7287559671 -0.6790269074
13900216600.0 0.7190144924 -0.6879239839
13950216300.0 0.7084758465 -0.6983518019
14000216000.0 0.6986241608 -0.7082403367
14050215700.0 0.6894761833 -0.7166045322
14100215400.0 0.6791246307 -0.7257332021
14150215100.0 0.6697225274 -0.7347324581
14200214800.0 0.6602495684 -0.7433355438
14250214500.0 0.6500009129 -0.7527378918
14300214200.0 0.6396130512 -0.7619746875
14350213900.0 0.6286329624 -0.7714228756
14400213600.0 0.6173368059 -0.7806563079
14450213300.0 0.6049418229 -0.7907363152
14500213000.0 0.592076177 -0.7997448067
14550212700.0 0.5802913238 -0.8091423409
14600212400.0 0.5678709093 -0.817971353
14650212100.0 0.5556179978 -0.8261865382
14700211800.0 0.5419145612 -0.8356149085
14750211500.0 0.5292983062 -0.8439364376
14800211200.0 0.5171109172 -0.8521128309
14850210900.0 0.5050170719 -0.8595349151
14900210600.0 0.4917530046 -0.8674568519
14950210300.0 0.4785128485 -0.8751988849
15000210000.0 0.4655089925 -0.8821602779
15050209700.0 0.4524861126 -0.8883884105
15100209400.0 0.4398103001 -0.894867573
15150209100.0 0.4273015883 -0.9004156001
15200208800.0 0.4140715457 -0.9065162646
15250208500.0 0.4017639117 -0.91173006
15300208200.0 0.3890756685 -0.9160162417
15350207900.0 0.3756820635 -0.9215296876
15400207600.0 0.3618996423 -0.9272815585
15450207300.0 0.346818594 -0.9320943981
15500207000.0 0.3328058358 -0.9366034911
15550206700.0 0.3177646647 -0.9421928464
15600206400.0 0.3026800362 -0.9463943706
15650206100.0 0.2872109963 -0.9510903494
15700205800.0 0.2735326207 -0.9546131011
15750205500.0 0.2591950187 -0.9584819017
15800205200.0 0.2451703051 -0.9619095168
15850204900.0 0.2309618625 -0.9653712565
15900204600.0 0.216161255 -0.969000261
15950204300.0 0.202183327 -0.9720569904
16000204000.0 0.1880792274 -0.9746805374
16050203700.0 0.1735374632 -0.977797188
16100203400.0 0.1598200571 -0.9799829771
16150203100.0 0.14495484 -0.9826619498
16200202800.0 0.1312230212 -0.9846963605
16250202500.0 0.1165803072 -0.9860890539
16300202200.0 0.1018972527 -0.9877001715
16350201900.0 0.0866114478 -0.9892254791
16400201600.0 0.0717970021 -0.9904327707
16450201300.0 0.0571856754 -0.9915595742
16500201000.0 0.0408131839 -0.9923935634
16550200700.0 0.0252814236 -0.9930618861
16600200400.0 0.0096104507 -0.993321598
16650200100.0 -0.006705009 -0.9933278309
16700199800.0 -0.0222505371 -0.9934734679
16750199500.0 -0.0410043421 -0.9927916417
16800199200.0 -0.0566824116 -0.9921408278
16850198900.0 -0.0724844881 -0.9908964516
16900198600.0 -0.0861326278 -0.990022195
16950198300.0 -0.1005926628 -0.988751829
17000198000.0 -0.1141672927 -0.9875427069
17050197700.0 -0.1269121915 -0.9852705615
17100197400.0 -0.1413550709 -0.983399783
17150197100.0 -0.1539003589 -0.9815304875
17200196800.0 -0.1673212438 -0.9792371295
17250196500.0 -0.180617282 -0.9771765278
17300196200.0 -0.1935667073 -0.9742621106
17350195900.0 -0.2062894323 -0.9719043002
17400195600.0 -0.2188061943 -0.9690674519
17450195300.0 -0.2319985712 -0.9663048003
17500195000.0 -0.2455283686 -0.9629956573
17550194700.0 -0.2594179377 -0.9594543931
17600194400.0 -0.2733877114 -0.9555013523
17650194100.0 -0.2872474538 -0.9515075659
17700193800.0 -0.3002516538 -0.946922512
17750193500.0 -0.31389499 -0.94256424
17800193200.0 -0.3279999956 -0.937723154
17850192900.0 -0.3428873768 -0.9329929305
17900192600.0 -0.3573811897 -0.9270703676
17950192300.0 -0.3723295063 -0.9203376692
18000192000.0 -0.3870523873 -0.9136257929
18050191700.0 -0.4009276406 -0.9063115071
18100191400.0 -0.4150869503 -0.8989293279
18150191100.0 -0.4294897658 -0.8916418124
18200190800.0 -0.4452451502 -0.8831631466
18250190500.0 -0.4618965075 -0.8741624412
18300190200.0 -0.4769712995 -0.865880671
18350189900.0 -0.4917563062 -0.8581676114
18400189600.0 -0.5058812405 -0.8498359608
18450189300.0 -0.5192766044 -0.8419506563
18500189000.0 -0.5328648214 -0.8339393757
18550188700.0 -0.5460838023 -0.8261851549
18600188400.0 -0.5583269527 -0.8183889669
18650188100.0 -0.570075657 -0.8114327324
18700187800.0 -0.5811344603 -0.8042939351
18750187500.0 -0.5923901302 -0.7969228495
18800187200.0 -0.6034203928 -0.7895260988
18850186900.0 -0.6142973392 -0.7816657991
18900186600.0 -0.6248728488 -0.7738425934
18950186300.0 -0.6355376212 -0.7654513787
19000186000.0 -0.6441711028 -0.7584732522
19050185700.0 -0.6539008038 -0.7501424306
19100185400.0 -0.6638883956 -0.7416445984
19150185100.0 -0.6747996083 -0.7327058279
19200184800.0 -0.6836442666 -0.7237240214
19250184500.0 -0.6938342409 -0.7147380946
19300184200.0 -0.7051208749 -0.704784039
19350183900.0 -0.7154324285 -0.6948175727
19400183600.0 -0.7253878375 -0.6846627205
19450183300.0 -0.7341535581 -0.6749181532
19500183000.0 -0.7426463118 -0.6651337921
19550182700.0 -0.751847622 -0.654422033
19600182400.0 -0.7617832296 -0.643134089
19650182100.0 -0.7721956944 -0.6313389003
19700181800.0 -0.7818919304 -0.6191521197
19750181500.0 -0.791707714 -0.6058903281
19800181200.0 -0.8016919729 -0.5919025189
19850180900.0 -0.8113038855 -0.5778169847
19900180600.0 -0.8192324728 -0.5645450279
19950180300.0 -0.8286828451 -0.5491055218
20000180000.0 -0.8261592003 -0.5467057776
20050179700.0 -0.8338410692 -0.5347043242
20100179400.0 -0.8417085585 -0.5207729201
20150179100.0 -0.8507448426 -0.5081653128
20200178800.0 -0.8585093377 -0.4958610839
20250178500.0 -0.8675741307 -0.482969599
20300178200.0 -0.8766834025 -0.4689263331
20350177900.0 -0.8845873993 -0.454920561
20400177600.0 -0.893316348 -0.4411318462
20450177300.0 -0.9011587702 -0.4268600124
20500177000.0 -0.9084069581 -0.4132458422
20550176700.0 -0.9159471338 -0.3999826901
20600176400.0 -0.9224547581 -0.3863840195
20650176100.0 -0.92815106 -0.3737532025
20700175800.0 -0.9360377389 -0.36147478
20750175500.0 -0.9416800623 -0.3483438286
20800175200.0 -0.9464569868 -0.3368980492
20850174900.0 -0.9515887756 -0.3251160471
20900174600.0 -0.9566135988 -0.3138254244
20950174300.0 -0.960579621 -0.3016198481
21000174000.0 -0.963617781 -0.2896245237
21050173700.0 -0.967266398 -0.2772149761
21100173400.0 -0.9708020524 -0.2655234987
21150173100.0 -0.9750114578 -0.252257677
21200172800.0 -0.9781577127 -0.2388699855
21250172500.0 -0.9820619758 -0.2251244001
21300172200.0 -0.9849381178 -0.2104781926
21350171900.0 -0.9869038268 -0.1964669131
21400171600.0 -0.9889298923 -0.1824515151
21450171300.0 -0.9896864185 -0.1679685827
21500171000.0 -0.9904619339 -0.1523616567
21550170700.0 -0.989949762 -0.1382763721
21600170400.0 -0.9911423108 -0.1231766657
21650170100.0 -0.9911253841 -0.1080310267
21700169800.0 -0.9901025012 -0.092761777
21750169500.0 -0.9900617317 -0.0772014095
21800169200.0 -0.9898491294 -0.0615604961
21850168900.0 -0.98951279 -0.0453682856
21900168600.0 -0.98782171 -0.0301949134
21950168300.0 -0.9870606869 -0.014153622
22000168000.0 -0.9862086611 0.0005442673
22050167700.0 -0.9856361609 0.0151768289
22100167400.0 -0.9856784953 0.0296507802
22150167100.0 -0.9855452666 0.0447413194
22200166800.0 -0.9860158143 0.0605520864
22250166500.0 -0.9842239047 0.0768476367
22300166200.0 -0.9837909678 0.0934847895
22350165900.0 -0.9835207964 0.1090175724
22400165600.0 -0.9810053474 0.1238288387
22450165300.0 -0.9795164775 0.1388353408
22500165000.0 -0.9779185451 0.1526237342
22550164700.0 -0.9762536864 0.1667769175
22600164400.0 -0.9742126189 0.182423116
22650164100.0 -0.9724354879 0.1963290011
22700163800.0 -0.9697759417 0.212169713
22750163500.0 -0.9667993402 0.227813885
22800163200.0 -0.9639656161 0.2405787665
22850162900.0 -0.9612565215 0.2545102777
22900162600.0 -0.9591876286 0.2674292424
22950162300.0 -0.9576825028 0.2806417028
23000162000.0 -0.9558623687 0.2931627517
23050161700.0 -0.9536446008 0.3055340126
23100161400.0 -0.9507793614 0.3186116432
23150161100.0 -0.9482339153 0.3308289664
23200160800.0 -0.9446952824 0.3434780678
23250160500.0 -0.9419517863 0.3555851688
23300160200.0 -0.9390251573 0.3670257298
23350159900.0 -0.9355758203 0.3801800393
23400159600.0 -0.9303136342 0.3938117067
23450159300.0 -0.9256326323 0.4063607885
23500159000.0 -0.9213773266 0.4185155876
23550158700.0 -0.9165036147 0.4319364465
23600158400.0 -0.9111774362 0.4446709281
23650158100.0 -0.9052352564 0.4576858983
23700157800.0 -0.8979076946 0.4709465284
23750157500.0 -0.8898019636 0.4846048442
23800157200.0 -0.8815599202 0.4972752159
23850156900.0 -0.8738826581 0.5100585631
23900156600.0 -0.8646541422 0.5223830064
23950156300.0 -0.8558733319 0.5346609378
24000156000.0 -0.8479085984 0.5467763208
24050155700.0 -0.8375844838 0.5588895083
24100155400.0 -0.8285308965 0.5707556336
24150155100.0 -0.8186453371 0.5821503255
24200154800.0 -0.8086687684 0.5941821265
24250154500.0 -0.7982439007 0.6054840796
24300154200.0 -0.787097228 0.6173041102
24350153900.0 -0.776301799 0.6280566366
24400153600.0 -0.7649146342 0.6387603536
24450153300.0 -0.7537084039 0.6492545054
24500153000.0 -0.7424025011 0.6595028586
24550152700.0 -0.7318980355 0.6692230649
24600152400.0 -0.7208899427 0.6792861346
24650152100.0 -0.7095675861 0.6886750165
