!Created with skrf (http://scikit-rf.org).
# Hz S RI R 50.0 
!freq ReS11 ImS11
300000.0 -0.9732907802 -0.1237861351
50299700.0 -0.9999701315 0.0149411022
100299400.0 -0.9979746429 0.02792588
150299100.0 -1.00271299 0.0447741358
200298800.0 -0.9996422872 0.0581918298
250298500.0 -0.9973266795 0.0715195834
300298200.0 -0.9858752656 0.0874152263
350297900.0 -0.9940086326 0.0981989816
400297600.0 -0.9929940036 0.1147786075
450297300.0 -0.9909728571 0.1286441207
500297000.0 -0.9895329864 0.1433853407
550296700.0 -0.9841441728 0.1559727999
600296400.0 -1.01732141 0.189231461
650296100.0 -0.9820954194 0.1858013516
700295800.0 -0.9792627894 0.1999453033
750295500.0 -0.9763861786 0.2141318388
800295200.0 -0.972913948 0.2279250177
850294900.0 -0.9695958716 0.2417762598
900294600.0 -0.9657298288 0.2555468661
950294300.0 -0.9619578298 0.2692924549
1000294000.0 -0.9582951452 0.2831479868
1050293700.0 -0.953623397 0.2970490429
1100293400.0 -0.9493005215 0.3116762019
1150293100.0 -0.9455576516 0.3233001522
1200292800.0 -0.9402291639 0.337788219
1250292500.0 -0.9347409171 0.35122957
1300292200.0 -0.92910472 0.3643250736
1350291900.0 -0.9234532993 0.3784080632
1400291600.0 -0.9179127172 0.391570688
1450291300.0 -0.9125032635 0.4039799734
1500291000.0 -0.9061928423 0.4169756235
1550290700.0 -0.899949149 0.4305062236
1600290400.0 -0.8932716551 0.4437393206
1650290100.0 -0.8868314567 0.4557675202
1700289800.0 -0.879595077 0.4691471806
1750289500.0 -0.8728202915 0.4814330814
1800289200.0 -0.8654115246 0.4943936366
1850288900.0 -0.8587294665 0.5058942537
1900288600.0 -0.8511286843 0.5186649751
1950288300.0 -0.8430554748 0.5313504819
2000288000.0 -0.8354376969 0.5426643066
2050287700.0 -0.8272341857 0.5552889621
2100287400.0 -0.8194425123 0.5664403554
2150287100.0 -0.811094867 0.5787528563
2200286800.0 -0.8031848103 0.5890996651
2250286500.0 -0.7941230927 0.6013918355
2300286200.0 -0.7852505051 0.6128134398
2350285900.0 -0.7769068764 0.6232697866
2400285600.0 -0.767906334 0.63438224
2450285300.0 -0.7590524593 0.6449505153
2500285000.0 -0.7491200957 0.6565334684
2550284700.0 -0.7400464277 0.6668917573
2600284400.0 -0.7310062064 0.6767831992
2650284100.0 -0.7223775146 0.6870174936
2700283800.0 -0.7117129807 0.6975470309
2750283500.0 -0.701475036 0.7082287228
2800283200.0 -0.6916631677 0.718083669
2850282900.0 -0.681106498 0.7280740101
2900282600.0 -0.6708338868 0.7379031224
2950282300.0 -0.6603085547 0.7472803299
3000282000.0 -0.6494998993 0.7567930998
3050281700.0 -0.638468687 0.7658077725
3100281400.0 -0.6267923042 0.7748827307
3150281100.0 -0.6155094225 0.783872192
3200280800.0 -0.6041945804 0.7921922745
3250280500.0 -0.5929598469 0.8000454419
3300280200.0 -0.5814460898 0.8084002299
3350279900.0 -0.5692466523 0.8165543184
3400279600.0 -0.5567472852 0.8246905828
3450279300.0 -0.5456877821 0.8316901179
3500279000.0 -0.5337588471 0.8384268274
3550278700.0 -0.521336322 0.8454996561
3600278400.0 -0.5097974915 0.8524465288
3650278100.0 -0.4966491323 0.8599173459
3700277800.0 -0.4847962136 0.8664320208
3750277500.0 -0.4721999516 0.8732463999
3800277200.0 -0.4596553391 0.8794988559
3850276900.0 -0.4477138472 0.8855755369
3900276600.0 -0.4368609826 0.8913991708
3950276300.0 -0.4247525137 0.8971961403
4000276000.0 -0.4130888483 0.903065843
4050275700.0 -0.4002922614 0.9089975035
4100275400.0 -0.3892550471 0.9145747054
4150275100.0 -0.3761111141 0.9204058648
4200274800.0 -0.3626575845 0.9261069307
4250274500.0 -0.349854716 0.9314950377
4300274200.0 -0.3366806814 0.9366707759
4350273900.0 -0.3223200023 0.9421003509
4400273600.0 -0.3077358715 0.9470887082
4450273300.0 -0.2928816882 0.9521107577
4500273000.0 -0.2797190839 0.9562879343
4550272700.0 -0.2660167764 0.9606061475
4600272400.0 -0.251008696 0.9647269634
4650272100.0 -0.2397012379 0.9677804662
4700271800.0 -0.226775865 0.9711617608
4750271500.0 -0.2150281574 0.9740445776
4800271200.0 -0.2029558579 0.9765524677
4850270900.0 -0.1891216428 0.9794485933
4900270600.0 -0.1754188926 0.9819831315
4950270300.0 -0.1608112019 0.984533926
5000270000.0 -0.1461628779 0.9866942833
5050269700.0 -0.1327369422 0.988198961
5100269400.0 -0.1185601755 0.9901078347
5150269100.0 -0.1046654935 0.9916670162
5200268800.0 -0.0913647362 0.9927595122
5250268500.0 -0.0782903182 0.9934444686
5300268200.0 -0.0647025454 0.9949479473
5350267900.0 -0.0516120705 0.9952606408
5400267600.0 -0.0354604119 0.9962155498
5450267300.0 -0.0220358214 0.9967461232
5500267000.0 -0.006874252 0.9971881254
5550266700.0 0.0082764666 0.997179032
5600266400.0 0.0237955185 0.9971408427
5650266100.0 0.0404029559 0.9968409872
5700265800.0 0.0547277716 0.995929406
5750265500.0 0.0698205074 0.9951324386
5800265200.0 0.0831842396 0.9941163553
5850264900.0 0.09670783 0.9931545398
5900264600.0 0.1129026897 0.9910708903
5950264300.0 0.1245051172 0.9892053638
6000264000.0 0.1382068953 0.9880137303
6050263700.0 0.1498101539 0.9862190439
6100263400.0 0.1620620603 0.984873032
6150263100.0 0.1762043159 0.9824543114
6200262800.0 0.1859418677 0.9809384605
6250262500.0 0.1986075857 0.9784883786
6300262200.0 0.2110175915 0.9760502455
6350261900.0 0.2237593202 0.9733484404
6400261600.0 0.2377331605 0.9701860182
6450261300.0 0.2487824641 0.96773965
6500261000.0 0.2618465513 0.963927085
6550260700.0 0.2750752088 0.9598321324
6600260400.0 0.2890310942 0.9560596987
6650260100.0 0.3026206491 0.9514898908
6700259800.0 0.3152282331 0.9475065153
6750259500.0 0.328681911 0.9427306851
6800259200.0 0.3422239313 0.9372384968
6850258900.0 0.3543121993 0.9319523243
6900258600.0 0.3671772987 0.9268949584
6950258300.0 0.3796668088 0.9217535995
7000258000.0 0.3913637598 0.9162613194
7050257700.0 0.4031872742 0.9106421866
7100257400.0 0.4166773184 0.9039295459
7150257100.0 0.4273396411 0.8987544847
7200256800.0 0.4405112857 0.8921484379
7250256500.0 0.4532046197 0.8854149893
7300256200.0 0.4663472021 0.8786362694
7350255900.0 0.4788401337 0.8715831241
7400255600.0 0.4931011705 0.8638849364
7450255300.0 0.5087731507 0.8549301169
7500255000.0 0.5211655747 0.8472858628
7550254700.0 0.5354539955 0.838238068
7600254400.0 0.5481676336 0.8298524104
7650254100.0 0.5593288897 0.8218451639
7700253800.0 0.5710286769 0.8139438047
7750253500.0 0.5820129075 0.8063978411
7800253200.0 0.5926437312 0.798542944
7850252900.0 0.6022979918 0.7912117854
7900252600.0 0.613829738 0.7825619214
7950252300.0 0.6223790375 0.776107869
8000252000.0 0.6321388964 0.7685504437
8050251700.0 0.6425890299 0.7603922394
8100251400.0 0.652654041 0.7524519923
8150251100.0 0.6624056 0.7438660288
8200250800.0 0.6719948878 0.7358099651
8250250500.0 0.6806289744 0.727869442
8300250200.0 0.6899362803 0.7195669142
8350249900.0 0.6991490589 0.7108838937
8400249600.0 0.7070936179 0.702893913
8450249300.0 0.7158684397 0.6941139108
8500249000.0 0.7245342227 0.6852855401
8550248700.0 0.7329069926 0.6763104781
8600248400.0 0.7410603929 0.6667867956
8650248100.0 0.748684904 0.6571426895
8700247800.0 0.7581086187 0.6463409903
8750247500.0 0.7661346604 0.6363114997
8800247200.0 0.7741206632 0.6258594354
8850246900.0 0.7830854935 0.614253798
8900246600.0 0.791385266 0.6030536966
8950246300.0 0.8005527197 0.5905040216
9000246000.0 0.8092576917 0.5785143126
9050245700.0 0.8176013819 0.5660687925
9100245400.0 0.8261326563 0.5538841758
9150245100.0 0.8349394348 0.5409328053
9200244800.0 0.8441223803 0.5265972351
9250244500.0 0.8534058996 0.5118097406
9300244200.0 0.8613236221 0.4983276416
9350243900.0 0.8690833276 0.4852075686
9400243600.0 0.8755128012 0.4733926917
9450243300.0 0.8812021661 0.4629798747
9500243000.0 0.8874466187 0.4512890376
9550242700.0 0.8914613066 0.4439441437
9600242400.0 0.8956870675 0.4363332895
9650242100.0 0.8997919898 0.4296182533
9700241800.0 0.9046597474 0.4211369697
9750241500.0 0.909035556 0.4134210612
9800241200.0 0.9141310364 0.4039465326
9850240900.0 0.920039867 0.3923014225
9900240600.0 0.9261495538 0.3799747779
9950240300.0 0.9328551068 0.3633068076
10000240000.0 0.9377916998 0.351465168
10050239700.0 0.9438086615 0.3352947473
10100239400.0 0.9493419135 0.318597059
10150239100.0 0.9540584461 0.3031971673
10200238800.0 0.9583548705 0.287529702
10250238500.0 0.9615413223 0.2742693522
10300238200.0 0.9647966419 0.2603841648
10350237900.0 0.9674919695 0.2470567771
10400237600.0 0.9700090306 0.2337294206
10450237300.0 0.9728767351 0.2195801886
10500237000.0 0.9750412403 0.2072137869
10550236700.0 0.9774708497 0.1927678098
10600236400.0 0.979731957 0.1785342817
10650236100.0 0.9813446977 0.1647650461
10700235800.0 0.9836422863 0.1522468263
10750235500.0 0.9856508445 0.1386444144
10800235200.0 0.9876693906 0.1241318277
10850234900.0 0.9898740106 0.1091787136
10900234600.0 0.9919954844 0.0946193026
10950234300.0 0.9937397336 0.0809993344
11000234000.0 0.9955113027 0.0652623144
11050233700.0 0.997444968 0.0484659296
11100233400.0 0.9988849993 0.0309676282
11150233100.0 0.9999083646 0.0139476121
11200232800.0 1.000789885 -0.0018726904
11250232500.0 1.001970223 -0.0201185584
11300232200.0 1.00230697 -0.0386881889
11350231900.0 1.001872958 -0.0545588507
11400231600.0 1.001409081 -0.0704463522
11450231300.0 1.000794943 -0.086322085
11500231000.0 1.000055565 -0.102725123
11550230700.0 0.9982896399 -0.1149965081
11600230400.0 0.9970840969 -0.1280564782
11650230100.0 0.9947921438 -0.1396928655
11700229800.0 0.9922343973 -0.154710942
11750229500.0 0.9901490548 -0.1689053884
11800229200.0 0.9871306939 -0.1822977247
11850228900.0 0.9836901821 -0.1938110386
11900228600.0 0.9797089059 -0.2035981888
11950228300.0 0.9766008535 -0.2137865345
12000228000.0 0.9735490922 -0.2219438933
12050227700.0 0.9696721238 -0.2352527389
12100227400.0 0.9666081805 -0.2457661561
12150227100.0 0.9610403954 -0.263379179
12200226800.0 0.9577420002 -0.2743383702
12250226500.0 0.9540386567 -0.2863006572
12300226200.0 0.9490417741 -0.2990605962
12350225900.0 0.9444259037 -0.3118688311
12400225600.0 0.9399866374 -0.324943209
12450225300.0 0.9360509289 -0.3371621563
12500225000.0 0.9300981728 -0.3524127783
12550224700.0 0.9248121741 -0.3658461048
12600224400.0 0.9196868756 -0.3785609006
12650224100.0 0.9138813588 -0.3928594285
12700223800.0 0.9086157307 -0.4056668123
12750223500.0 0.9029450662 -0.4188891133
12800223200.0 0.8976498422 -0.4314721949
12850222900.0 0.8925482887 -0.4434936252
12900222600.0 0.8869706027 -0.4553537617
12950222300.0 0.8809519511 -0.4681438972
13000222000.0 0.8750424291 -0.4794777115
13050221700.0 0.8680379468 -0.4927064303
13100221400.0 0.8614072419 -0.5047177745
13150221100.0 0.8549272513 -0.5169553997
13200220800.0 0.8477142908 -0.5280663143
13250220500.0 0.8402637126 -0.5407296699
13300220200.0 0.8327053629 -0.5516380205
13350219900.0 0.8245823608 -0.5634626578
13400219600.0 0.8161106805 -0.5753212321
13450219300.0 0.806727635 -0.588640904
13500219000.0 0.7969961434 -0.6013088691
13550218700.0 0.7867119583 -0.6139930248
13600218400.0 0.7765561237 -0.6255786342
13650218100.0 0.7677073627 -0.6362840358
13700217800.0 0.7567706675 -0.6480705194
13750217500.0 0.7474319733 -0.6592549678
13800217200.0 0.7361018347 -0.6702776696
13850216900.0 0.7249514584 -0.6818787577
13900216600.0 0.7153267235 -0.6907816091
13950216300.0 0.7052489054 -0.7002430538
14000216000.0 0.6951377937 -0.7097087621
14050215700.0 0.6860401843 -0.7177808982
14100215400.0 0.6762283826 -0.7266358554
14150215100.0 0.66727163 -0.7355828629
14200214800.0 0.6576340607 -0.7442077624
14250214500.0 0.6473921406 -0.7536876518
14300214200.0 0.6369427805 -0.7629496174
14350213900.0 0.6256944561 -0.7725258791
14400213600.0 0.6137360011 -0.7827238934
14450213300.0 0.6006740101 -0.7928942335
14500213000.0 0.5881551524 -0.8027171507
14550212700.0 0.5758999523 -0.8121985279
14600212400.0 0.5628642976 -0.8204889148
14650212100.0 0.5502497814 -0.8295524849
14700211800.0 0.5368481764 -0.8392115384
14750211500.0 0.5243532185 -0.8474320619
14800211200.0 0.5123395854 -0.8555109578
14850210900.0 0.4997827341 -0.8631411857
14900210600.0 0.4863427081 -0.8712064193
14950210300.0 0.4731701572 -0.878571372
15000210000.0 0.4606210219 -0.885326066
15050209700.0 0.4481220831 -0.8913593278
15100209400.0 0.4353784035 -0.8973767122
15150209100.0 0.4235733107 -0.9030857289
15200208800.0 0.4108426833 -0.9086324974
15250208500.0 0.3993988921 -0.9123037168
15300208200.0 0.3866745758 -0.9176430272
15350207900.0 0.3732724886 -0.9219460496
15400207600.0 0.3590546916 -0.9279525408
15450207300.0 0.3440777573 -0.9325819915
15500207000.0 0.3302587713 -0.9372114851
15550206700.0 0.3154287823 -0.9416068206
15600206400.0 0.2991012211 -0.9469429078
15650206100.0 0.2837941978 -0.950853899
15700205800.0 0.270028231 -0.9544336993
15750205500.0 0.2559873318 -0.9577944901
15800205200.0 0.2419867114 -0.9612489835
15850204900.0 0.2278834671 -0.9646220567
15900204600.0 0.2128457015 -0.9683579067
15950204300.0 0.1986048156 -0.971486121
16000204000.0 0.1841454823 -0.9743021749
16050203700.0 0.169034407 -0.9771788023
16100203400.0 0.154492938 -0.9797657887
16150203100.0 0.1396365518 -0.9823218624
16200202800.0 0.1254976892 -0.9838625022
16250202500.0 0.1098610014 -0.9857289487
16300202200.0 0.0945028118 -0.9872135806
16350201900.0 0.0795238648 -0.9890756139
16400201600.0 0.0650993505 -0.9900594413
16450201300.0 0.049543507 -0.9913019693
16500201000.0 0.0324707612 -0.992063967
16550200700.0 0.0163500296 -0.9924808923
16600200400.0 0.0006008172 -0.9926673209
16650200100.0 -0.01576061 -0.9922573846
16700199800.0 -0.0325741474 -0.992174309
16750199500.0 -0.0515944271 -0.9913468404
16800199200.0 -0.0672798546 -0.9911897528
16850198900.0 -0.082685478 -0.9889146359
16900198600.0 -0.0965329474 -0.9889617858
16950198300.0 -0.1105497059 -0.9871152257
17000198000.0 -0.1232878113 -0.9852383307
17050197700.0 -0.1359800299 -0.9836496788
17100197400.0 -0.14900043 -0.9816005082
17150197100.0 -0.1615745573 -0.9798063109
17200196800.0 -0.174319007 -0.9780203553
17250196500.0 -0.1874901732 -0.9753252434
17300196200.0 -0.1997378557 -0.9732925661
17350195900.0 -0.2115481021 -0.9704635871
17400195600.0 -0.2234059225 -0.9680017326
17450195300.0 -0.2365283437 -0.9651945763
17500195000.0 -0.2493708602 -0.9620819576
17550194700.0 -0.2634274631 -0.9586925001
17600194400.0 -0.2770261209 -0.9545535424
17650194100.0 -0.2903834121 -0.9501856106
17700193800.0 -0.3035466065 -0.9461000328
17750193500.0 -0.3176057182 -0.941677575
17800193200.0 -0.3322074137 -0.9364571174
17850192900.0 -0.3468689098 -0.9308597581
17900192600.0 -0.3619359576 -0.9246362058
17950192300.0 -0.3775215992 -0.9174981698
18000192000.0 -0.3922332771 -0.9105992314
18050191700.0 -0.4060362189 -0.902655622
18100191400.0 -0.4203247683 -0.8949631508
18150191100.0 -0.4350526946 -0.8868626884
18200190800.0 -0.4517816189 -0.8778623451
18250190500.0 -0.4689775161 -0.8683164157
18300190200.0 -0.4844525606 -0.859447862
18350189900.0 -0.4997952152 -0.8513459449
18400189600.0 -0.5138903303 -0.8428196605
18450189300.0 -0.5274893884 -0.8348258936
18500189000.0 -0.541106743 -0.8263472046
18550188700.0 -0.5538993168 -0.8188623265
18600188400.0 -0.56545653 -0.8119780733
18650188100.0 -0.5770200423 -0.8052664746
18700187800.0 -0.5882225275 -0.7988714994
18750187500.0 -0.5988708904 -0.7921581041
18800187200.0 -0.6093039214 -0.7851091886
18850186900.0 -0.6197525783 -0.7781955508
18900186600.0 -0.6300361892 -0.7708807041
18950186300.0 -0.6401379926 -0.7632714228
19000186000.0 -0.6477668203 -0.7565477456
19050185700.0 -0.6571105639 -0.7497569762
19100185400.0 -0.6668673564 -0.7412940678
19150185100.0 -0.6769317885 -0.7330884409
19200184800.0 -0.6862834935 -0.7245086067
19250184500.0 -0.6969123147 -0.7157484704
19300184200.0 -0.708159391 -0.7059773063
19350183900.0 -0.7185443961 -0.6963264694
19400183600.0 -0.7288445493 -0.6867386453
19450183300.0 -0.737682617 -0.676378502
19500183000.0 -0.7455726902 -0.6658153871
19550182700.0 -0.7555952999 -0.655323228
19600182400.0 -0.7655279873 -0.6438094291
19650182100.0 -0.7763104125 -0.6313594925
19700181800.0 -0.7867533051 -0.6181372059
19750181500.0 -0.7971357065 -0.6039914248
19800181200.0 -0.8075493628 -0.5891437832
19850180900.0 -0.8169836835 -0.5737923421
19900180600.0 -0.8246904448 -0.5593530092
19950180300.0 -0.833894545 -0.5432024569
20000180000.0 -0.8235345477 -0.5467717749
20050179700.0 -0.8310716282 -0.5343852439
20100179400.0 -0.8399511325 -0.5210857191
20150179100.0 -0.848017658 -0.5097220581
20200178800.0 -0.8562095041 -0.4980141789
20250178500.0 -0.865533519 -0.4850884937
20300178200.0 -0.8751022227 -0.4711715949
20350177900.0 -0.8844930054 -0.457379046
20400177600.0 -0.8935523175 -0.4440093098
20450177300.0 -0.9019036368 -0.4291576267
20500177000.0 -0.9101850308 -0.4150875664
20550176700.0 -0.9180257877 -0.4015329701
20600176400.0 -0.9249399712 -0.3886247292
20650176100.0 -0.9320837321 -0.3764258615
20700175800.0 -0.938670298 -0.3645912545
20750175500.0 -0.9454328524 -0.3526031207
20800175200.0 -0.9495551295 -0.3425892237
20850174900.0 -0.9534274866 -0.331069889
20900174600.0 -0.9574968666 -0.3200321336
20950174300.0 -0.9617854544 -0.3098254213
21000174000.0 -0.9636532054 -0.2992435316
21050173700.0 -0.9652798539 -0.2891811221
21100173400.0 -0.9690842586 -0.2782450675
21150173100.0 -0.9728711139 -0.2665320234
21200172800.0 -0.9772794235 -0.2534678972
21250172500.0 -0.980628851 -0.2397501132
21300172200.0 -0.9840145344 -0.2254096104
21350171900.0 -0.9860900308 -0.2115910489
21400171600.0 -0.9880889879 -0.1969836619
21450171300.0 -0.9887729071 -0.1832394379
21500171000.0 -0.9883921251 -0.1676860862
21550170700.0 -0.989903462 -0.1533227368
21600170400.0 -0.9916171598 -0.1372729451
21650170100.0 -0.9900615327 -0.121964443
21700169800.0 -0.9904474581 -0.1070073592
21750169500.0 -0.9895686788 -0.0909434938
21800169200.0 -0.9901624838 -0.0749383056
21850168900.0 -0.9905990667 -0.0566700937
21900168600.0 -0.9897578242 -0.0409439525
21950168300.0 -0.9893665105 -0.025164509
22000168000.0 -0.9890537314 -0.0098540203
22050167700.0 -0.989805893 0.0042119305
22100167400.0 -0.9905444172 0.0200758122
22150167100.0 -0.9912319786 0.0359158189
22200166800.0 -0.9917609854 0.0526738349
22250166500.0 -0.9908791873 0.0696699171
22300166200.0 -0.9911630343 0.0855738755
22350165900.0 -0.9899978622 0.1027136056
22400165600.0 -0.9880203276 0.1181956054
22450165300.0 -0.986230333 0.1332521107
22500165000.0 -0.9847760382 0.1475708025
22550164700.0 -0.982324388 0.1640682703
22600164400.0 -0.9803703038 0.1800826524
22650164100.0 -0.9788521216 0.1953282202
22700163800.0 -0.9756839229 0.2109904876
22750163500.0 -0.971792926 0.2265243046
22800163200.0 -0.9693108369 0.2398900765
22850162900.0 -0.9664779829 0.2534439219
22900162600.0 -0.9647076026 0.2669972821
22950162300.0 -0.9627405614 0.2809289624
23000162000.0 -0.9612616084 0.2935886214
23050161700.0 -0.9583349498 0.3070325101
23100161400.0 -0.9553805393 0.3205444973
23150161100.0 -0.9530651622 0.3337790951
23200160800.0 -0.9493956677 0.3457854102
23250160500.0 -0.9469232378 0.3596217698
23300160200.0 -0.9436399329 0.3713854953
23350159900.0 -0.9393078573 0.3850349414
23400159600.0 -0.9347223105 0.3982612809
23450159300.0 -0.9298596078 0.4130928251
23500159000.0 -0.9251749814 0.4256723619
23550158700.0 -0.9198068403 0.4402354682
23600158400.0 -0.9141071499 0.4544563562
23650158100.0 -0.9068234237 0.4690808011
23700157800.0 -0.8982013333 0.4832773266
23750157500.0 -0.8887901956 0.4974828599
23800157200.0 -0.8792883718 0.5109041638
23850156900.0 -0.8696010903 0.5235930024
23900156600.0 -0.8595938883 0.536146871
23950156300.0 -0.8499444089 0.5490748611
24000156000.0 -0.840240177 0.5612309072
24050155700.0 -0.8293297467 0.5735986171
24100155400.0 -0.8195893995 0.5862727276
24150155100.0 -0.8079273654 0.5981864049
24200154800.0 -0.7976802425 0.609681434
24250154500.0 -0.7859096262 0.6219777305
24300154200.0 -0.7744401175 0.6338617
24350153900.0 -0.7624816536 0.6456108918
24400153600.0 -0.7496777056 0.6560010679
24450153300.0 -0.7376956911 0.6665233868
24500153000.0 -0.7259164249 0.6761622669
24550152700.0 -0.7143573125 0.6859822474
24600152400.0 -0.702525297 0.6961866835
24650152100.0 -0.6906346357 0.7041689486
