!Created with skrf (http://scikit-rf.org).
# Hz S RI R 50.0 
!freq ReS11 ImS11
300000.0 -0.9746486305 -0.1173617727
50299700.0 -0.9999693184 0.0154521808
100299400.0 -0.9979357939 0.028167633
150299100.0 -1.002769761 0.0451614632
200298800.0 -0.9997081342 0.0584640325
250298500.0 -0.9974819647 0.0722747918
300298200.0 -0.9860382803 0.0877045027
350297900.0 -0.9939930298 0.0987470136
400297600.0 -0.9931876784 0.1153395152
450297300.0 -0.9911090925 0.1292115638
500297000.0 -0.9895844974 0.1436955756
550296700.0 -0.9845179668 0.1560830066
600296400.0 -1.017355522 0.1895986471
650296100.0 -0.9821323557 0.1862457289
700295800.0 -0.9794007343 0.2005112791
750295500.0 -0.9763414045 0.2143298097
800295200.0 -0.9730282556 0.228731597
850294900.0 -0.9698313555 0.2424434395
900294600.0 -0.9657327113 0.2561292867
950294300.0 -0.9621220369 0.269927751
1000294000.0 -0.9580769559 0.2837980231
1050293700.0 -0.9536332961 0.2975715272
1100293400.0 -0.9493804732 0.3120017228
1150293100.0 -0.9455636168 0.3239503158
1200292800.0 -0.9401486357 0.3381826248
1250292500.0 -0.9346678297 0.3516479435
1300292200.0 -0.9289474668 0.3649373143
1350291900.0 -0.9234326884 0.3789262891
1400291600.0 -0.9178740815 0.3920797712
1450291300.0 -0.9123915865 0.4045183336
1500291000.0 -0.9061361911 0.417822835
1550290700.0 -0.8996929751 0.431241269
1600290400.0 -0.8934388823 0.444144233
1650290100.0 -0.8868102802 0.4562127181
1700289800.0 -0.8797625345 0.4697111865
1750289500.0 -0.8727743829 0.4819590575
1800289200.0 -0.8655705811 0.494821893
1850288900.0 -0.8584851866 0.5061417186
1900288600.0 -0.8508346701 0.5192356563
1950288300.0 -0.8428384061 0.5316323487
2000288000.0 -0.8355165628 0.5431290145
2050287700.0 -0.8271836634 0.5555427712
2100287400.0 -0.8192964431 0.5671039715
2150287100.0 -0.8105132381 0.5792109062
2200286800.0 -0.8029573871 0.5895103073
2250286500.0 -0.7940953057 0.601313314
2300286200.0 -0.7852221723 0.6131902624
2350285900.0 -0.7764804162 0.6242107168
2400285600.0 -0.7675792757 0.6351496986
2450285300.0 -0.7591820931 0.6454829755
2500285000.0 -0.7492436138 0.6566389646
2550284700.0 -0.7401401548 0.6671025038
2600284400.0 -0.7310719763 0.6772911096
2650284100.0 -0.7219927299 0.6878607205
2700283800.0 -0.7113216214 0.6982141126
2750283500.0 -0.7009582887 0.7089143261
2800283200.0 -0.6913292942 0.7185336518
2850282900.0 -0.6809684486 0.7288210657
2900282600.0 -0.6706656092 0.7379045244
2950282300.0 -0.6605427403 0.7475553441
3000282000.0 -0.6497320272 0.7568462866
3050281700.0 -0.6385770786 0.7660449384
3100281400.0 -0.6266585187 0.7754989341
3150281100.0 -0.6148775797 0.7848594343
3200280800.0 -0.6032401372 0.7933617433
3250280500.0 -0.5923794028 0.800978816
3300280200.0 -0.5810427766 0.8087982759
3350279900.0 -0.5696495963 0.8163461455
3400279600.0 -0.5574617005 0.8241688346
3450279300.0 -0.5461798813 0.8312845888
3500279000.0 -0.534266106 0.8384839927
3550278700.0 -0.5218948032 0.8458666851
3600278400.0 -0.5096406899 0.8526655729
3650278100.0 -0.4963969149 0.8604848439
3700277800.0 -0.4844028531 0.86695891
3750277500.0 -0.472295601 0.873536513
3800277200.0 -0.4592887885 0.8798842727
3850276900.0 -0.4475882662 0.88586856
3900276600.0 -0.4365979494 0.8915600907
3950276300.0 -0.4241093721 0.8976200802
4000276000.0 -0.4124976303 0.9037499568
4050275700.0 -0.3993431463 0.9098063353
4100275400.0 -0.3885632883 0.9151683813
4150275100.0 -0.3755505393 0.9207774873
4200274800.0 -0.3627630752 0.9261110478
4250274500.0 -0.3504358588 0.931398065
4300274200.0 -0.3374119893 0.9367332508
4350273900.0 -0.323488987 0.9422692658
4400273600.0 -0.3087620108 0.947290607
4450273300.0 -0.2932345589 0.9524948506
4500273000.0 -0.2798764479 0.9565344862
4550272700.0 -0.2656276605 0.9609395883
4600272400.0 -0.2500773999 0.9650519692
4650272100.0 -0.2383565608 0.9683184555
4700271800.0 -0.2251268805 0.9715607514
4750271500.0 -0.2135161534 0.9745749164
4800271200.0 -0.201080142 0.9772680176
4850270900.0 -0.1873712985 0.9801412081
4900270600.0 -0.1732685876 0.9824897365
4950270300.0 -0.1588872636 0.9850948976
5000270000.0 -0.1445191556 0.9873318355
5050269700.0 -0.1310845282 0.9884231252
5100269400.0 -0.1173513024 0.9905432705
5150269100.0 -0.104168705 0.9922781254
5200268800.0 -0.0907999186 0.9929634397
5250268500.0 -0.0776730462 0.993884361
5300268200.0 -0.0646011059 0.9945269972
5350267900.0 -0.0524157493 0.9952519157
5400267600.0 -0.0362097639 0.9961629279
5450267300.0 -0.0229593968 0.9968538912
5500267000.0 -0.0077483173 0.997165892
5550266700.0 0.0070663291 0.9973439072
5600266400.0 0.0226627033 0.9974231673
5650266100.0 0.0389854502 0.996973648
5700265800.0 0.053564368 0.9965292139
5750265500.0 0.0686641052 0.9955983208
5800265200.0 0.082697188 0.9941116197
5850264900.0 0.0958109748 0.9935937202
5900264600.0 0.1125564592 0.9916086663
5950264300.0 0.1247854139 0.9902552884
6000264000.0 0.1382148831 0.988239608
6050263700.0 0.1507722965 0.9869004221
6100263400.0 0.1636043167 0.9851871098
6150263100.0 0.1778189298 0.9826579285
6200262800.0 0.1884098984 0.9809838845
6250262500.0 0.2008526419 0.9785499561
6300262200.0 0.2137280002 0.975776215
6350261900.0 0.226832304 0.972825457
6400261600.0 0.2403949494 0.9694384573
6450261300.0 0.251817646 0.9668667442
6500261000.0 0.2647524417 0.9634376537
6550260700.0 0.2778132526 0.9593545326
6600260400.0 0.2910171953 0.955441376
6650260100.0 0.3050683636 0.9508817154
6700259800.0 0.3169073192 0.94651542
6750259500.0 0.331023152 0.9417637457
6800259200.0 0.3438635655 0.9366816961
6850258900.0 0.3560968874 0.9315745438
6900258600.0 0.368409266 0.9267162987
6950258300.0 0.3809646929 0.9213484656
7000258000.0 0.3926844825 0.9159041012
7050257700.0 0.4050591566 0.9098033512
7100257400.0 0.4176471674 0.9034868002
7150257100.0 0.4281556821 0.8983015485
7200256800.0 0.4409348045 0.8917815373
7250256500.0 0.4532298613 0.8853368827
7300256200.0 0.46574301 0.8787591791
7350255900.0 0.4780250806 0.8715336303
7400255600.0 0.4915463529 0.864583191
7450255300.0 0.5073679278 0.8557474191
7500255000.0 0.5189904016 0.8485326898
7550254700.0 0.5327929716 0.8397669654
7600254400.0 0.5451084144 0.8317011164
7650254100.0 0.5569553489 0.8241149781
7700253800.0 0.5687832392 0.8158188573
7750253500.0 0.5800947601 0.8080039657
7800253200.0 0.5904499574 0.8005865913
7850252900.0 0.6003285956 0.7933890537
7900252600.0 0.6117808717 0.7846953194
7950252300.0 0.6206196435 0.7780706327
8000252000.0 0.6308487253 0.7704845591
8050251700.0 0.6414565249 0.7624613184
8100251400.0 0.651652812 0.754138338
8150251100.0 0.6612782931 0.7455458967
8200250800.0 0.6706986143 0.7374120961
8250250500.0 0.6798743185 0.7294849899
8300250200.0 0.6891446261 0.7207778393
8350249900.0 0.6983176853 0.7122036005
8400249600.0 0.7063847167 0.7042320577
8450249300.0 0.7155354609 0.6951112249
8500249000.0 0.7240229663 0.6860785921
8550248700.0 0.7323414261 0.6770971094
8600248400.0 0.7408254734 0.667735795
8650248100.0 0.7485715178 0.6583403084
8700247800.0 0.7582294476 0.6470137324
8750247500.0 0.7664850519 0.6368289025
8800247200.0 0.7745403469 0.6264879174
8850246900.0 0.7834287384 0.6150251316
8900246600.0 0.7916436424 0.6036971298
8950246300.0 0.8015845208 0.5907439726
9000246000.0 0.8104327533 0.5780094309
9050245700.0 0.8196618621 0.5651805309
9100245400.0 0.8283458998 0.5526420378
9150245100.0 0.8375846012 0.5391150864
9200244800.0 0.8474374895 0.5237987914
9250244500.0 0.8565807236 0.5083726106
9300244200.0 0.8651548403 0.4939762006
9350243900.0 0.8729752023 0.4800200357
9400243600.0 0.8796501611 0.4678814477
9450243300.0 0.8853691108 0.4561566671
9500243000.0 0.8916207137 0.4440142607
9550242700.0 0.8953971608 0.4364864677
9600242400.0 0.8993519458 0.4291913174
9650242100.0 0.9029020782 0.42281467
9700241800.0 0.9077148779 0.4142374369
9750241500.0 0.9116950492 0.4068360504
9800241200.0 0.9164219375 0.3974812879
9850240900.0 0.9219811693 0.3857314878
9900240600.0 0.9275740378 0.3742903183
9950240300.0 0.9344996179 0.3580804673
10000240000.0 0.9385360427 0.3469558131
10050239700.0 0.9442894136 0.3314389573
10100239400.0 0.9496717871 0.3156133969
10150239100.0 0.9540448589 0.3009076435
10200238800.0 0.9582694175 0.2859898412
10250238500.0 0.9616592849 0.2725969597
10300238200.0 0.9647678353 0.2587118996
10350237900.0 0.9673989262 0.245525585
10400237600.0 0.9699229072 0.2323113062
10450237300.0 0.97262868 0.2182497078
10500237000.0 0.9745815391 0.2062823475
10550236700.0 0.9770530312 0.1924533403
10600236400.0 0.9792000533 0.1787767409
10650236100.0 0.9814514456 0.1636137009
10700235800.0 0.9834460004 0.1516217481
10750235500.0 0.985590177 0.1386943662
10800235200.0 0.9880565412 0.1237767745
10850234900.0 0.9895459113 0.10968569
10900234600.0 0.9919965024 0.0949628507
10950234300.0 0.9934616218 0.0817092162
11000234000.0 0.995326035 0.0665996351
11050233700.0 0.9970192005 0.05031307
11100233400.0 0.9984238472 0.0328504789
11150233100.0 0.9996896639 0.0166070433
11200232800.0 1.000582398 0.0015132608
11250232500.0 1.00137186 -0.0152276831
11300232200.0 1.002280784 -0.0331690736
11350231900.0 1.002141957 -0.0492409809
11400231600.0 1.001142347 -0.0633477258
11450231300.0 1.001049547 -0.0798384884
11500231000.0 0.9998581711 -0.0956219251
11550230700.0 0.9980953914 -0.1095931529
11600230400.0 0.9971445355 -0.1218742385
11650230100.0 0.994939012 -0.1334679815
11700229800.0 0.993037264 -0.148058358
11750229500.0 0.9907753927 -0.1624967128
11800229200.0 0.9880979329 -0.17592652
11850228900.0 0.9847054554 -0.1886235196
11900228600.0 0.9812197073 -0.1981230504
11950228300.0 0.9777972955 -0.2088367577
12000228000.0 0.9748398129 -0.218146694
12050227700.0 0.9714735411 -0.2302217268
12100227400.0 0.968760919 -0.2413543304
12150227100.0 0.9634444185 -0.257596432
12200226800.0 0.9600446629 -0.2686979063
12250226500.0 0.9558077934 -0.2820369893
12300226200.0 0.9518956416 -0.2940269955
12350225900.0 0.9465108181 -0.3083937826
12400225600.0 0.9419718171 -0.3209780176
12450225300.0 0.9378808244 -0.33379288
12500225000.0 0.9322889545 -0.3485255266
12550224700.0 0.9269206499 -0.3621235443
12600224400.0 0.9220080137 -0.3750425628
12650224100.0 0.9161513837 -0.3895852262
12700223800.0 0.9109889552 -0.4023127659
12750223500.0 0.9054034926 -0.415475562
12800223200.0 0.900094387 -0.4281406994
12850222900.0 0.8947444613 -0.4402225278
12900222600.0 0.889102875 -0.452212601
12950222300.0 0.8824451037 -0.4649545796
13000222000.0 0.8766914714 -0.4767816015
13050221700.0 0.8701095698 -0.4889358012
13100221400.0 0.86360233 -0.5012952205
13150221100.0 0.8567118807 -0.5133859847
13200220800.0 0.8497360843 -0.5247924765
13250220500.0 0.8422738351 -0.5370259042
13300220200.0 0.8349734716 -0.5479085368
13350219900.0 0.8270999075 -0.5596959381
13400219600.0 0.8187856588 -0.5718622878
13450219300.0 0.8091708705 -0.5853439605
13500219000.0 0.7991665134 -0.5992391119
13550218700.0 0.7889849747 -0.6118130552
13600218400.0 0.7783709078 -0.6243789141
13650218100.0 0.769589496 -0.6352338288
13700217800.0 0.7576168525 -0.6476751328
13750217500.0 0.7481291167 -0.6589352233
13800217200.0 0.7369262179 -0.6700746971
13850216900.0 0.7265057858 -0.6824367669
13900216600.0 0.7165511088 -0.6902038173
13950216300.0 0.7055571139 -0.7006505487
14000216000.0 0.6957767652 -0.710215228
14050215700.0 0.6859362558 -0.7190123311
14100215400.0 0.6761705444 -0.7275551095
14150215100.0 0.6666302948 -0.7364753562
14200214800.0 0.6573722709 -0.7449764675
14250214500.0 0.6472073017 -0.7544654691
14300214200.0 0.6367655703 -0.7637068133
14350213900.0 0.6254634237 -0.77320546
14400213600.0 0.6135308264 -0.7829866136
14450213300.0 0.6005529502 -0.7935952671
14500213000.0 0.5871278576 -0.8034890708
14550212700.0 0.5756643383 -0.8127885361
14600212400.0 0.5621269042 -0.8209333348
14650212100.0 0.5496205515 -0.8301827754
14700211800.0 0.5355040943 -0.8401750605
14750211500.0 0.52376901 -0.847886316
14800211200.0 0.5113545558 -0.8558937525
14850210900.0 0.499080963 -0.8634885618
14900210600.0 0.486074926 -0.871380087
14950210300.0 0.472682443 -0.8787776217
15000210000.0 0.4597447905 -0.8857848331
15050209700.0 0.4475182033 -0.8920183831
15100209400.0 0.4348162367 -0.8982116232
15150209100.0 0.4223678504 -0.9033907588
15200208800.0 0.4099749776 -0.9088918233
15250208500.0 0.3976679642 -0.9134393003
15300208200.0 0.3864165643 -0.9182017121
15350207900.0 0.3735308918 -0.9224630609
15400207600.0 0.3586642671 -0.9280108435
15450207300.0 0.3442462982 -0.9331192779
15500207000.0 0.32953701 -0.9374310864
15550206700.0 0.3140552835 -0.9428297265
15600206400.0 0.2985710189 -0.9475989401
15650206100.0 0.2828226421 -0.951111049
15700205800.0 0.2688006753 -0.9550661273
15750205500.0 0.2544330828 -0.9587693347
15800205200.0 0.2399545905 -0.9621347946
15850204900.0 0.2256041929 -0.9656426822
15900204600.0 0.2106288053 -0.9691933106
15950204300.0 0.1964065545 -0.9720588165
16000204000.0 0.1823146751 -0.9748019315
16050203700.0 0.1675598139 -0.9777919156
16100203400.0 0.1530215432 -0.9800131994
16150203100.0 0.1387620155 -0.9824173803
16200202800.0 0.1242222522 -0.9845765864
16250202500.0 0.1097495281 -0.9860993856
16300202200.0 0.0942495981 -0.987518906
16350201900.0 0.0788141079 -0.989591947
16400201600.0 0.0646712469 -0.9902341069
16450201300.0 0.0493885991 -0.9912393721
16500201000.0 0.0325835303 -0.9920937718
16550200700.0 0.017068273 -0.9924815688
16600200400.0 0.0011307855 -0.9927735624
16650200100.0 -0.0146625843 -0.9928360256
16700199800.0 -0.0309572904 -0.9926437491
16750199500.0 -0.0495262172 -0.9915723881
16800199200.0 -0.0655136824 -0.9906497633
16850198900.0 -0.0808893167 -0.9902846257
16900198600.0 -0.0946153351 -0.9890084931
16950198300.0 -0.1086825873 -0.9873873704
17000198000.0 -0.1215543459 -0.9860670915
17050197700.0 -0.1331218565 -0.9847320543
17100197400.0 -0.1468147441 -0.9823769622
17150197100.0 -0.1590077279 -0.9800588345
17200196800.0 -0.1722539417 -0.978053847
17250196500.0 -0.1850013314 -0.976075517
17300196200.0 -0.196882614 -0.9734902234
17350195900.0 -0.2090637138 -0.9712783936
17400195600.0 -0.2212480175 -0.9687438264
17450195300.0 -0.2343285429 -0.9660414138
17500195000.0 -0.2477825523 -0.9625552062
17550194700.0 -0.2615813305 -0.9591634782
17600194400.0 -0.275603386 -0.9548980383
17650194100.0 -0.2892382378 -0.9508454697
17700193800.0 -0.3020190266 -0.9464795139
17750193500.0 -0.3170442313 -0.9419835739
17800193200.0 -0.3314557936 -0.9368439814
17850192900.0 -0.3461208982 -0.9314560672
17900192600.0 -0.3614997743 -0.9255735174
17950192300.0 -0.3769162674 -0.9182024283
18000192000.0 -0.3915781342 -0.9111263709
18050191700.0 -0.4056236963 -0.9032530563
18100191400.0 -0.4198240788 -0.8955276207
18150191100.0 -0.4348610716 -0.8876496667
18200190800.0 -0.4516369848 -0.8784534499
18250190500.0 -0.4688740198 -0.8691031814
18300190200.0 -0.4840030853 -0.8603234863
18350189900.0 -0.4991848928 -0.8515979657
18400189600.0 -0.5138469783 -0.8434463781
18450189300.0 -0.5268287731 -0.8352983047
18500189000.0 -0.5401294814 -0.8275463537
18550188700.0 -0.5529583875 -0.8200031522
18600188400.0 -0.5643972279 -0.8134950799
18650188100.0 -0.5757269188 -0.8067301874
18700187800.0 -0.586307001 -0.8004242746
18750187500.0 -0.5969274881 -0.793839365
18800187200.0 -0.6075248693 -0.7868655314
18850186900.0 -0.6178270256 -0.7797712888
18900186600.0 -0.6279707171 -0.7726198744
18950186300.0 -0.6381433796 -0.7649228898
19000186000.0 -0.6453392264 -0.7585765075
19050185700.0 -0.6543613581 -0.7515587345
19100185400.0 -0.6640143768 -0.742914049
19150185100.0 -0.6750458025 -0.7343897337
19200184800.0 -0.6840321766 -0.726287862
19250184500.0 -0.6942230163 -0.7172031893
19300184200.0 -0.7058019768 -0.7076379184
19350183900.0 -0.7162449058 -0.6982798303
19400183600.0 -0.72607757 -0.6883600194
19450183300.0 -0.7349038182 -0.6781926932
19500183000.0 -0.7440198361 -0.6682961623
19550182700.0 -0.7532467353 -0.6572561242
19600182400.0 -0.7637728943 -0.645202254
19650182100.0 -0.7740941871 -0.6330009972
19700181800.0 -0.7849958557 -0.6198478574
19750181500.0 -0.7955910397 -0.6054115662
19800181200.0 -0.8060326192 -0.5905357828
19850180900.0 -0.8154729744 -0.5751865165
19900180600.0 -0.8235087969 -0.5609267093
19950180300.0 -0.8327488999 -0.54459777
20000180000.0 -0.8262144208 -0.5469265076
20050179700.0 -0.8338558186 -0.5337295222
20100179400.0 -0.8424040875 -0.5200061036
20150179100.0 -0.8504576814 -0.5076229084
20200178800.0 -0.86024611 -0.4957623087
20250178500.0 -0.8689344992 -0.4807108185
20300178200.0 -0.8783229391 -0.4674531149
20350177900.0 -0.8876542556 -0.4522706578
20400177600.0 -0.8966531713 -0.4382247807
20450177300.0 -0.9047639534 -0.4235643368
20500177000.0 -0.912699467 -0.4096472124
20550176700.0 -0.9208070178 -0.3962365198
20600176400.0 -0.9277392537 -0.383025389
20650176100.0 -0.9347156787 -0.3701037347
20700175800.0 -0.9405280588 -0.3588585462
20750175500.0 -0.9477221214 -0.3468475858
20800175200.0 -0.9527400983 -0.3362955966
20850174900.0 -0.9564194042 -0.3251899207
20900174600.0 -0.9620686325 -0.3134610074
20950174300.0 -0.9652571686 -0.3020590209
21000174000.0 -0.9692978335 -0.2913693461
21050173700.0 -0.971840201 -0.2808475361
21100173400.0 -0.9761315679 -0.2684325093
21150173100.0 -0.9793456925 -0.2563387933
21200172800.0 -0.983598593 -0.2426030952
21250172500.0 -0.9862872375 -0.2287790329
21300172200.0 -0.9893676808 -0.2150280038
21350171900.0 -0.9906400953 -0.200203078
21400171600.0 -0.9922566282 -0.1862886391
21450171300.0 -0.9917040383 -0.1717184243
21500171000.0 -0.9923660539 -0.1558541896
21550170700.0 -0.9919102106 -0.1412580048
21600170400.0 -0.9931705824 -0.124692263
21650170100.0 -0.9920287994 -0.1088057641
21700169800.0 -0.9894354948 -0.0933687512
21750169500.0 -0.9895617743 -0.0777206717
21800169200.0 -0.9890763191 -0.0622620728
21850168900.0 -0.9874891088 -0.0445168017
21900168600.0 -0.9855628206 -0.0285468303
21950168300.0 -0.9848984019 -0.0129791339
22000168000.0 -0.9838935739 0.0023064869
22050167700.0 -0.9840057075 0.0162518322
22100167400.0 -0.9840941401 0.0317174807
22150167100.0 -0.9844988623 0.0474221156
22200166800.0 -0.9849558921 0.0631586237
22250166500.0 -0.9840026042 0.0808015857
22300166200.0 -0.9834883277 0.0975542909
22350165900.0 -0.9821871778 0.1140305061
22400165600.0 -0.9802945339 0.1292083524
22450165300.0 -0.9789053565 0.1437887407
22500165000.0 -0.9773260908 0.1582580165
22550164700.0 -0.9755898166 0.1739773353
22600164400.0 -0.9740873717 0.1885844305
22650164100.0 -0.9718480133 0.204376473
22700163800.0 -0.9697516683 0.2199882917
22750163500.0 -0.9667280395 0.2350418949
22800163200.0 -0.9640608868 0.2480135815
22850162900.0 -0.9615024514 0.2615971122
22900162600.0 -0.9601302888 0.2749102807
22950162300.0 -0.9585903945 0.2876396521
23000162000.0 -0.9576143112 0.2995865455
23050161700.0 -0.9558053432 0.3122693716
23100161400.0 -0.953269664 0.3248504596
23150161100.0 -0.9507069642 0.3374410883
23200160800.0 -0.9477680244 0.3493210287
23250160500.0 -0.944640574 0.3619258085
23300160200.0 -0.9421692202 0.3738086625
23350159900.0 -0.9382736122 0.3864835281
23400159600.0 -0.9336451056 0.3995713589
23450159300.0 -0.9290717259 0.412454354
23500159000.0 -0.9246010057 0.4266005576
23550158700.0 -0.920248202 0.4400443422
23600158400.0 -0.914398275 0.4530303885
23650158100.0 -0.9081575951 0.4672234943
23700157800.0 -0.900561124 0.4809017286
23750157500.0 -0.8921641865 0.4949505181
23800157200.0 -0.8832993163 0.5083675562
23850156900.0 -0.8742696728 0.5210307474
23900156600.0 -0.865093668 0.5332677353
23950156300.0 -0.8564150293 0.5458660127
24000156000.0 -0.8463902101 0.5584607664
24050155700.0 -0.8359226368 0.5691188973
24100155400.0 -0.8267820315 0.5814849427
24150155100.0 -0.8161535426 0.5936252506
24200154800.0 -0.8048996605 0.6045031219
24250154500.0 -0.7940826509 0.6165516634
24300154200.0 -0.7827030494 0.6284984093
24350153900.0 -0.7706109814 0.638610461
24400153600.0 -0.7585727589 0.6491025497
24450153300.0 -0.7463792823 0.6588565291
24500153000.0 -0.7351226163 0.6686891407
24550152700.0 -0.7240115481 0.6787626461
24600152400.0 -0.7122522237 0.6870326458
24650152100.0 -0.7007776897 0.6955578897
