!Created with skrf (http://scikit-rf.org).
# Hz S RI R 50.0 
!freq ReS11 ImS11
300000.0 -0.9752132611 -0.1193555534
50299700.0 -1.000008087 0.01511505
100299400.0 -0.9979278001 0.0278721661
150299100.0 -1.002758888 0.0447005369
200298800.0 -0.9995815262 0.0581466411
250298500.0 -0.9973565355 0.0715936534
300298200.0 -0.9860477948 0.0875352896
350297900.0 -0.9939817056 0.0984306306
400297600.0 -0.993145155 0.1149732367
450297300.0 -0.9908974468 0.1286678328
500297000.0 -0.989377315 0.143300675
550296700.0 -0.9841651148 0.1559301976
600296400.0 -1.017178912 0.1892301436
650296100.0 -0.98210875 0.1856186152
700295800.0 -0.9791660029 0.2001781727
750295500.0 -0.9761905249 0.2142895675
800295200.0 -0.9729608359 0.2281464835
850294900.0 -0.9696929522 0.2420521773
900294600.0 -0.9657496096 0.2556226971
950294300.0 -0.9621713658 0.2694143469
1000294000.0 -0.9580089145 0.2834448432
1050293700.0 -0.953830521 0.2972043943
1100293400.0 -0.949210413 0.3115205893
1150293100.0 -0.9455216943 0.3235240639
1200292800.0 -0.940095586 0.3380307346
1250292500.0 -0.9347791843 0.351280618
1300292200.0 -0.9289240399 0.3644375071
1350291900.0 -0.9235346119 0.3785611427
1400291600.0 -0.9180253497 0.3915347389
1450291300.0 -0.9125652852 0.4041008032
1500291000.0 -0.9061667293 0.4173670774
1550290700.0 -0.8996161369 0.4308577706
1600290400.0 -0.8934594307 0.4437111594
1650290100.0 -0.8868870254 0.4558333203
1700289800.0 -0.8799205128 0.4694070615
1750289500.0 -0.8729567363 0.4815648277
1800289200.0 -0.8655749993 0.494522223
1850288900.0 -0.8587516805 0.5057424763
1900288600.0 -0.8509335777 0.5187463064
1950288300.0 -0.8430296561 0.5312937544
2000288000.0 -0.8353804067 0.542854836
2050287700.0 -0.8272740169 0.5551776637
2100287400.0 -0.8193058555 0.5666906601
2150287100.0 -0.8110027063 0.5786300289
2200286800.0 -0.8031688471 0.5891261459
2250286500.0 -0.7942305842 0.6013300521
2300286200.0 -0.7852473537 0.6126793197
2350285900.0 -0.7767884866 0.6234342866
2400285600.0 -0.7678677099 0.6344806917
2450285300.0 -0.7592071463 0.6449824983
2500285000.0 -0.7492738502 0.6565312998
2550284700.0 -0.7402549488 0.6669293645
2600284400.0 -0.7309331169 0.6770084453
2650284100.0 -0.7222157558 0.6869820166
2700283800.0 -0.7117187806 0.6974819815
2750283500.0 -0.7015884025 0.708265397
2800283200.0 -0.6915324392 0.7181675702
2850282900.0 -0.6810622656 0.7279566264
2900282600.0 -0.6707910048 0.7379337272
2950282300.0 -0.6604341026 0.7471189129
3000282000.0 -0.6497143506 0.7567124057
3050281700.0 -0.6383441278 0.7657580624
3100281400.0 -0.6267428934 0.775050288
3150281100.0 -0.6154641533 0.7840365543
3200280800.0 -0.6040265674 0.7925016963
3250280500.0 -0.5929274066 0.8002295463
3300280200.0 -0.5814426879 0.8085223528
3350279900.0 -0.569367633 0.816441
3400279600.0 -0.5569518005 0.8243024412
3450279300.0 -0.5456035904 0.8313739594
3500279000.0 -0.5339724396 0.8384249264
3550278700.0 -0.5217249707 0.8455243968
3600278400.0 -0.5099837801 0.852479268
3650278100.0 -0.4966138488 0.8600537122
3700277800.0 -0.4847642577 0.8665859788
3750277500.0 -0.4722758904 0.8732854553
3800277200.0 -0.4597627395 0.8795550784
3850276900.0 -0.4477670209 0.8855350542
3900276600.0 -0.43689447 0.8912226849
3950276300.0 -0.4248267013 0.8975370699
4000276000.0 -0.4130050967 0.9032618586
4050275700.0 -0.4002203466 0.909177847
4100275400.0 -0.3890905515 0.914666178
4150275100.0 -0.3759821165 0.9208300016
4200274800.0 -0.3627815785 0.926027163
4250274500.0 -0.3501637433 0.9312682257
4300274200.0 -0.3370490565 0.9367148737
4350273900.0 -0.3229397767 0.9420916056
4400273600.0 -0.3081657369 0.9472273909
4450273300.0 -0.2930240378 0.95204227
4500273000.0 -0.2798877281 0.956335061
4550272700.0 -0.2661798097 0.9606098238
4600272400.0 -0.2509585346 0.9647840495
4650272100.0 -0.2396216374 0.9678617765
4700271800.0 -0.2267067315 0.9713332992
4750271500.0 -0.2147989403 0.9740674597
4800271200.0 -0.2026325262 0.9769106996
4850270900.0 -0.188651264 0.9796219205
4900270600.0 -0.1749072831 0.9819578107
4950270300.0 -0.1604966978 0.9847238361
5000270000.0 -0.1458640201 0.9866627544
5050269700.0 -0.1325021291 0.9884108493
5100269400.0 -0.1183238059 0.9900150174
5150269100.0 -0.1046401947 0.9917343527
5200268800.0 -0.0913894952 0.9924346868
5250268500.0 -0.0782017252 0.9936323853
5300268200.0 -0.0646431319 0.9943350701
5350267900.0 -0.0518949755 0.995154607
5400267600.0 -0.0358830872 0.9961966655
5450267300.0 -0.0225425404 0.9964326898
5500267000.0 -0.0071885192 0.9970732752
5550266700.0 0.0076715426 0.9970434924
5600266400.0 0.02348519 0.9973286254
5650266100.0 0.0398964012 0.9967783356
5700265800.0 0.0541365221 0.9958448735
5750265500.0 0.0692681566 0.9953829056
5800265200.0 0.0827200729 0.994126923
5850264900.0 0.096321221 0.9934157642
5900264600.0 0.11284583 0.9912677474
5950264300.0 0.1244575763 0.9899583645
6000264000.0 0.1379614311 0.9881539774
6050263700.0 0.1499706895 0.9867822327
6100263400.0 0.1621499194 0.9851247879
6150263100.0 0.1767494826 0.9827793163
6200262800.0 0.1863602618 0.9811428312
6250262500.0 0.1989573896 0.9788109629
6300262200.0 0.2115336797 0.9761475379
6350261900.0 0.2243742672 0.9732766387
6400261600.0 0.2381461365 0.9700997563
6450261300.0 0.2493870718 0.9675652938
6500261000.0 0.2624648756 0.9636489703
6550260700.0 0.2753917136 0.9599185702
6600260400.0 0.2889964979 0.9557156059
6650260100.0 0.3032268492 0.951486883
6700259800.0 0.3154129201 0.9470888693
6750259500.0 0.328835181 0.9420857324
6800259200.0 0.3428479285 0.9373182183
6850258900.0 0.354645459 0.9317190669
6900258600.0 0.3673332276 0.9266212506
6950258300.0 0.3798591914 0.921453298
7000258000.0 0.3916120072 0.9159826449
7050257700.0 0.4033906691 0.9102387893
7100257400.0 0.4168565483 0.9037874784
7150257100.0 0.4274834328 0.8986385398
7200256800.0 0.4405444915 0.8918789715
7250256500.0 0.4526821495 0.8853844897
7300256200.0 0.4660083221 0.8788784793
7350255900.0 0.4783344063 0.8718180929
7400255600.0 0.4927011713 0.8644036305
7450255300.0 0.507803067 0.8552966795
7500255000.0 0.5202831732 0.8477503094
7550254700.0 0.5342166933 0.8387902188
7600254400.0 0.5468378144 0.8306553201
7650254100.0 0.5579739796 0.8224231687
7700253800.0 0.5703389156 0.8148596768
7750253500.0 0.581186997 0.8071242961
7800253200.0 0.5917298103 0.7992371795
7850252900.0 0.6016241325 0.7920820609
7900252600.0 0.6130729324 0.7833039703
7950252300.0 0.6216654299 0.7770875933
8000252000.0 0.6313924689 0.769456567
8050251700.0 0.6416533834 0.761319974
8100251400.0 0.6519678006 0.7532707238
8150251100.0 0.6616867185 0.7445438049
8200250800.0 0.6711835501 0.7363832013
8250250500.0 0.6801009425 0.7289029597
8300250200.0 0.6891486167 0.7203673045
8350249900.0 0.6986553126 0.7113407548
8400249600.0 0.7069968437 0.7033546104
8450249300.0 0.7154409053 0.6944607464
8500249000.0 0.7240771697 0.6855113744
8550248700.0 0.7325917028 0.6766775463
8600248400.0 0.7408932471 0.6670526608
8650248100.0 0.7485866059 0.6576787008
8700247800.0 0.7578942962 0.6465111659
8750247500.0 0.7662294689 0.6364544977
8800247200.0 0.7741240702 0.626389395
8850246900.0 0.7828009662 0.6148140008
8900246600.0 0.791116907 0.6033245768
8950246300.0 0.8006542614 0.5906348856
9000246000.0 0.809484817 0.5785399348
9050245700.0 0.8181773119 0.5662311299
9100245400.0 0.826519006 0.553850293
9150245100.0 0.8353061121 0.540740074
9200244800.0 0.8448437027 0.5261367527
9250244500.0 0.8540486561 0.5115255644
9300244200.0 0.8623645454 0.4978235457
9350243900.0 0.8699766575 0.4843731124
9400243600.0 0.8763513173 0.4724728709
9450243300.0 0.8821472526 0.4616718472
9500243000.0 0.8884699103 0.4497844409
9550242700.0 0.8923050251 0.4421966831
9600242400.0 0.8965707433 0.4348745764
9650242100.0 0.9005886997 0.4278733029
9700241800.0 0.9054376067 0.4193509478
9750241500.0 0.9094476067 0.4117366501
9800241200.0 0.9143761589 0.4023542059
9850240900.0 0.9202152367 0.3907008049
9900240600.0 0.9260329388 0.3786920883
9950240300.0 0.9331301018 0.3623761983
10000240000.0 0.9377740279 0.350623555
10050239700.0 0.9438310283 0.3344077591
10100239400.0 0.949409615 0.3183942774
10150239100.0 0.9537549599 0.3028875551
10200238800.0 0.9579276111 0.2875164187
10250238500.0 0.9614908622 0.2739460504
10300238200.0 0.9646292343 0.2600815631
10350237900.0 0.9673515167 0.246765343
10400237600.0 0.9699894056 0.2332693397
10450237300.0 0.9724129666 0.2194206945
10500237000.0 0.975085405 0.207156467
10550236700.0 0.9770739474 0.1931488609
10600236400.0 0.9792838557 0.1794798903
10650236100.0 0.9816136276 0.1643388592
10700235800.0 0.9835195449 0.1527939091
10750235500.0 0.9856590375 0.1388755288
10800235200.0 0.9876485706 0.1250081035
10850234900.0 0.9897555303 0.109792606
10900234600.0 0.9919874352 0.0948890395
10950234300.0 0.9936011691 0.0816486643
11000234000.0 0.9954610097 0.0661176009
11050233700.0 0.9972693066 0.0494589446
11100233400.0 0.9986996199 0.0320124362
11150233100.0 0.9997727619 0.0155016761
11200232800.0 1.000900853 -0.0006793306
11250232500.0 1.001604386 -0.0178798651
11300232200.0 1.001946288 -0.0365140393
11350231900.0 1.002278727 -0.0522149196
11400231600.0 1.001396688 -0.0673922163
11450231300.0 1.000558073 -0.0825434384
11500231000.0 0.9997303821 -0.0986566087
11550230700.0 0.9978401896 -0.1127494146
11600230400.0 0.9969027081 -0.1253421787
11650230100.0 0.9950335067 -0.1371280216
11700229800.0 0.9926125313 -0.1526067446
11750229500.0 0.9905783749 -0.1666210083
11800229200.0 0.9874628654 -0.1796610205
11850228900.0 0.9838075286 -0.191646164
11900228600.0 0.980419653 -0.2012160167
11950228300.0 0.9767557125 -0.2121213586
12000228000.0 0.9742607632 -0.2207457401
12050227700.0 0.9702538528 -0.2329137151
12100227400.0 0.9668720156 -0.2449268443
12150227100.0 0.9618706515 -0.2613889594
12200226800.0 0.9585937097 -0.271562587
12250226500.0 0.9540653222 -0.2852226528
12300226200.0 0.9498543775 -0.2979388622
12350225900.0 0.9448564164 -0.3109547215
12400225600.0 0.9411244293 -0.3229914506
12450225300.0 0.9366105213 -0.3362929214
12500225000.0 0.9309219883 -0.3506674451
12550224700.0 0.9256297132 -0.3641335116
12600224400.0 0.9206177613 -0.3772905896
12650224100.0 0.9148181699 -0.3915227821
12700223800.0 0.9094902861 -0.4044392673
12750223500.0 0.9041086401 -0.4174626809
12800223200.0 0.8986669345 -0.4301297052
12850222900.0 0.8931634877 -0.4425675917
12900222600.0 0.8874932757 -0.4540191188
12950222300.0 0.8816751237 -0.4668156696
13000222000.0 0.8755742528 -0.4784221111
13050221700.0 0.868941539 -0.4919838241
13100221400.0 0.8621204233 -0.5030497989
13150221100.0 0.8551305522 -0.5158484416
13200220800.0 0.8483698001 -0.5272044918
13250220500.0 0.8410145843 -0.5392250635
13300220200.0 0.8333857954 -0.5500987326
13350219900.0 0.8252952775 -0.5620377625
13400219600.0 0.8173087218 -0.5738694374
13450219300.0 0.8077612805 -0.5870068599
13500219000.0 0.7977983093 -0.60043101
13550218700.0 0.7882360015 -0.6130870978
13600218400.0 0.778398392 -0.6243854436
13650218100.0 0.7682426106 -0.635649977
13700217800.0 0.7574739902 -0.6475983523
13750217500.0 0.7480741677 -0.6590059014
13800217200.0 0.7365510649 -0.6700570853
13850216900.0 0.7258266172 -0.6811727496
13900216600.0 0.7163963504 -0.6900558523
13950216300.0 0.7051407034 -0.7002291328
14000216000.0 0.6954673305 -0.7097147666
14050215700.0 0.6863028492 -0.7173776359
14100215400.0 0.6767264858 -0.7265877139
14150215100.0 0.6677224568 -0.7352677059
14200214800.0 0.6582651269 -0.7439636882
14250214500.0 0.6477420509 -0.7533854982
14300214200.0 0.6374225589 -0.7629777766
14350213900.0 0.6261492658 -0.7724376028
14400213600.0 0.6144321396 -0.782285975
14450213300.0 0.6011641042 -0.7924042171
14500213000.0 0.5883502763 -0.8020560979
14550212700.0 0.5762014384 -0.8118529227
14600212400.0 0.5637268376 -0.8206369079
14650212100.0 0.5505854467 -0.8292773226
14700211800.0 0.5363723354 -0.8388249197
14750211500.0 0.5248643034 -0.8469608111
14800211200.0 0.5126295814 -0.8551205189
14850210900.0 0.4997466279 -0.8629423262
14900210600.0 0.4868371525 -0.8708826189
14950210300.0 0.4735682502 -0.8783929998
15000210000.0 0.461003513 -0.8852958645
15050209700.0 0.4487394542 -0.8913953148
15100209400.0 0.4359271602 -0.8973843098
15150209100.0 0.4238367853 -0.9029024834
15200208800.0 0.4110272871 -0.9082392614
15250208500.0 0.3999309878 -0.9123576065
15300208200.0 0.3871375438 -0.9171214069
15350207900.0 0.3744581452 -0.9210041813
15400207600.0 0.3600682719 -0.9276212911
15450207300.0 0.3448599404 -0.9324435713
15500207000.0 0.3303698947 -0.9368415395
15550206700.0 0.3158616524 -0.9422893861
15600206400.0 0.3000069775 -0.9466861611
15650206100.0 0.2839676726 -0.9511798588
15700205800.0 0.2704305073 -0.9543255394
15750205500.0 0.2564861363 -0.9578038023
15800205200.0 0.2424253666 -0.9612300543
15850204900.0 0.2280823877 -0.9647129672
15900204600.0 0.2129784107 -0.9684220764
15950204300.0 0.1987533901 -0.9713583513
16000204000.0 0.1842726309 -0.974405608
16050203700.0 0.1689868012 -0.9776524679
16100203400.0 0.1545108417 -0.979734493
16150203100.0 0.1398674142 -0.9824046547
16200202800.0 0.1256220686 -0.9840636162
16250202500.0 0.1106767596 -0.9857227594
16300202200.0 0.0953532573 -0.987704689
16350201900.0 0.0805211398 -0.9887216299
16400201600.0 0.0654732402 -0.9902461891
16450201300.0 0.0501822693 -0.9912830634
16500201000.0 0.0328020704 -0.9919640072
16550200700.0 0.0170733906 -0.9924306514
16600200400.0 0.0013377404 -0.9927034249
16650200100.0 -0.0149688122 -0.9928279088
16700199800.0 -0.031162564 -0.9922513218
16750199500.0 -0.0499599211 -0.991681805
16800199200.0 -0.0663876855 -0.9907846083
16850198900.0 -0.0814672257 -0.9891583454
16900198600.0 -0.0953084678 -0.9882752516
16950198300.0 -0.1086948126 -0.9872813769
17000198000.0 -0.1218557589 -0.9861998664
17050197700.0 -0.1346920934 -0.9840647052
17100197400.0 -0.1474353275 -0.9824696365
17150197100.0 -0.1600949406 -0.9800308832
17200196800.0 -0.1728361481 -0.9777566185
17250196500.0 -0.1865979776 -0.9760593301
17300196200.0 -0.1983806957 -0.9732149566
17350195900.0 -0.2101697393 -0.9709306212
17400195600.0 -0.2220162171 -0.9684412647
17450195300.0 -0.2348968335 -0.965773987
17500195000.0 -0.2486262675 -0.962350028
17550194700.0 -0.2621839742 -0.9589637609
17600194400.0 -0.2759698897 -0.9546931538
17650194100.0 -0.2897553025 -0.9505999783
17700193800.0 -0.3026604416 -0.946576123
17750193500.0 -0.316634303 -0.9421271107
17800193200.0 -0.3311711455 -0.9363448602
17850192900.0 -0.3460278093 -0.9310062012
17900192600.0 -0.3614643319 -0.9251207554
17950192300.0 -0.3767545391 -0.9181215223
18000192000.0 -0.3916841466 -0.9110049007
18050191700.0 -0.4053672132 -0.9029132413
18100191400.0 -0.4195316918 -0.8954122891
18150191100.0 -0.4344939315 -0.8873682265
18200190800.0 -0.4513165355 -0.8782600454
18250190500.0 -0.4681650627 -0.8687876827
18300190200.0 -0.4838870108 -0.8601970602
18350189900.0 -0.4990331152 -0.8513594942
18400189600.0 -0.5136077686 -0.84298921
18450189300.0 -0.5264480786 -0.8354598386
18500189000.0 -0.5400699775 -0.8274958856
18550188700.0 -0.5532043196 -0.8198791283
18600188400.0 -0.5648502887 -0.812734448
18650188100.0 -0.5760220755 -0.8061703233
18700187800.0 -0.5871156746 -0.7996531113
18750187500.0 -0.5978975069 -0.7929661227
18800187200.0 -0.608443076 -0.7860839558
18850186900.0 -0.6186942293 -0.7791471696
18900186600.0 -0.629026603 -0.7717816218
18950186300.0 -0.6392164719 -0.764023428
19000186000.0 -0.646534807 -0.7577625739
19050185700.0 -0.6561752374 -0.7507917324
19100185400.0 -0.6651116664 -0.7422939341
19150185100.0 -0.6753833257 -0.7336962482
19200184800.0 -0.6850403365 -0.7259206936
19250184500.0 -0.6952205828 -0.7164524474
19300184200.0 -0.7072605391 -0.7074587813
19350183900.0 -0.7173782655 -0.6967776604
19400183600.0 -0.7271716947 -0.6874922941
19450183300.0 -0.7361887475 -0.677193558
19500183000.0 -0.7443535607 -0.6671728727
19550182700.0 -0.7545124257 -0.6568199408
19600182400.0 -0.7645054797 -0.644729405
19650182100.0 -0.7748530751 -0.6324034374
19700181800.0 -0.7857297601 -0.6191135724
19750181500.0 -0.7961500011 -0.6049264903
19800181200.0 -0.8063997954 -0.5900723925
19850180900.0 -0.8161692227 -0.5746820162
19900180600.0 -0.8236944099 -0.5602471254
19950180300.0 -0.8329100686 -0.5441950751
20000180000.0 -0.8239338336 -0.5468013982
20050179700.0 -0.8320415787 -0.5343717356
20100179400.0 -0.8397073363 -0.521309873
20150179100.0 -0.8485112294 -0.5088817853
20200178800.0 -0.8565651584 -0.4967872709
20250178500.0 -0.8665794627 -0.4846042519
20300178200.0 -0.8763328832 -0.470257168
20350177900.0 -0.8848047382 -0.4566161424
20400177600.0 -0.8945418216 -0.4424844481
20450177300.0 -0.9028059791 -0.4281389903
20500177000.0 -0.910702362 -0.4139862337
20550176700.0 -0.9184233344 -0.4006177773
20600176400.0 -0.9260179535 -0.3877407794
20650176100.0 -0.9319258891 -0.3754712551
20700175800.0 -0.9381374409 -0.3635169551
20750175500.0 -0.9447717327 -0.3519025867
20800175200.0 -0.9498822354 -0.3410782215
20850174900.0 -0.9535018818 -0.3307676701
20900174600.0 -0.9580197912 -0.3196469278
20950174300.0 -0.9617869549 -0.3076020582
21000174000.0 -0.9648180463 -0.2972840095
21050173700.0 -0.9669839111 -0.2879013257
21100173400.0 -0.9704362119 -0.2760601948
21150173100.0 -0.9740957244 -0.2641415457
21200172800.0 -0.9783072971 -0.2511545718
21250172500.0 -0.981748149 -0.2367437556
21300172200.0 -0.9854156324 -0.2235936225
21350171900.0 -0.9870888239 -0.2087349854
21400171600.0 -0.9889084921 -0.1952461096
21450171300.0 -0.9891967141 -0.1803243722
21500171000.0 -0.9898921475 -0.1646792182
21550170700.0 -0.9904156181 -0.1493409151
21600170400.0 -0.9907320595 -0.1340624514
21650170100.0 -0.9922582391 -0.1191862011
21700169800.0 -0.9902645478 -0.1035531279
21750169500.0 -0.9892404489 -0.0862910761
21800169200.0 -0.9895663873 -0.0704399886
21850168900.0 -0.9898293222 -0.0546543511
21900168600.0 -0.9886182946 -0.0382246038
21950168300.0 -0.9873309175 -0.0219664698
22000168000.0 -0.9877964439 -0.0073896154
22050167700.0 -0.9883530388 0.0067229891
22100167400.0 -0.9888365899 0.0225844391
22150167100.0 -0.9896116605 0.0384584759
22200166800.0 -0.9901845224 0.0552234103
22250166500.0 -0.9893386666 0.0722425384
22300166200.0 -0.9884196379 0.0885035662
22350165900.0 -0.9876874763 0.1050129617
22400165600.0 -0.9860101221 0.1209610943
22450165300.0 -0.9842185654 0.1356447838
22500165000.0 -0.982414422 0.1496574309
22550164700.0 -0.9816449321 0.165685426
22600164400.0 -0.9789808386 0.1812743469
22650164100.0 -0.9769944517 0.1972345579
22700163800.0 -0.9736567558 0.2137357153
22750163500.0 -0.9704250142 0.2284094291
22800163200.0 -0.9682195916 0.2414434256
22850162900.0 -0.9652643786 0.254533366
22900162600.0 -0.9636044159 0.2684266634
22950162300.0 -0.9616626702 0.281930074
23000162000.0 -0.9602779022 0.294059671
23050161700.0 -0.9578218586 0.3073802577
23100161400.0 -0.9551100883 0.3213382144
23150161100.0 -0.9515913266 0.3339657603
23200160800.0 -0.9489849509 0.3462350735
23250160500.0 -0.9463139651 0.359376358
23300160200.0 -0.943552837 0.3715461131
23350159900.0 -0.9398532619 0.3851366401
23400159600.0 -0.9349891 0.3985104985
23450159300.0 -0.9295677188 0.41235627
23500159000.0 -0.9246726754 0.4252864541
23550158700.0 -0.9200710352 0.4395087028
23600158400.0 -0.9143030824 0.4533665339
23650158100.0 -0.9074687219 0.4676876197
23700157800.0 -0.8993437482 0.4816732369
23750157500.0 -0.8900903151 0.496219075
23800157200.0 -0.8803270122 0.5096914645
23850156900.0 -0.8712255837 0.5220637016
23900156600.0 -0.8615122988 0.5350618335
23950156300.0 -0.8513431629 0.5472299955
24000156000.0 -0.8422738502 0.5602531158
24050155700.0 -0.8318685745 0.571793168
24100155400.0 -0.8206354624 0.5842429888
24150155100.0 -0.8107580904 0.5961494921
24200154800.0 -0.7992599162 0.6079358142
24250154500.0 -0.7885838054 0.6200045053
24300154200.0 -0.777100028 0.6320235337
24350153900.0 -0.764948419 0.6431799436
24400153600.0 -0.7526415918 0.6536865416
24450153300.0 -0.741138748 0.6639029611
24500153000.0 -0.7292228871 0.6737567788
24550152700.0 -0.7181929716 0.6846306818
24600152400.0 -0.7063835027 0.6933578299
24650152100.0 -0.693452115 0.7013154377
