!Created with skrf (http://scikit-rf.org).
# Hz S RI R 50.0 
!freq ReS11 ImS11
300000.0 -0.973581036 -0.120104378
50299700.0 -0.9998439378 0.0150660004
100299400.0 -0.997875504 0.0278632392
150299100.0 -1.002742703 0.0450421592
200298800.0 -0.9997056482 0.0581144451
250298500.0 -0.9973157871 0.0716771319
300298200.0 -0.9860153327 0.0874352529
350297900.0 -0.9940377971 0.0985474163
400297600.0 -0.9932912265 0.1150203267
450297300.0 -0.9909870941 0.1285701376
500297000.0 -0.9895080328 0.1435703273
550296700.0 -0.9842591801 0.1559033576
600296400.0 -1.017400636 0.1893637297
650296100.0 -0.9820909795 0.1856551301
700295800.0 -0.979411296 0.2002596678
750295500.0 -0.9762287547 0.2140200692
800295200.0 -0.9730085267 0.2279975422
850294900.0 -0.9696706305 0.2420911188
900294600.0 -0.9658930676 0.2556202346
950294300.0 -0.9620600472 0.2695664226
1000294000.0 -0.9581287829 0.2833890038
1050293700.0 -0.9536625764 0.2972294641
1100293400.0 -0.9493380918 0.3115981659
1150293100.0 -0.9455351706 0.3234629791
1200292800.0 -0.9401660316 0.3377628461
1250292500.0 -0.934722894 0.3513120836
1300292200.0 -0.929000953 0.3644051926
1350291900.0 -0.9235524398 0.3785106454
1400291600.0 -0.9178880666 0.391685397
1450291300.0 -0.9124933005 0.4041122438
1500291000.0 -0.9060306626 0.4173749319
1550290700.0 -0.89990509 0.4307198126
1600290400.0 -0.8935456632 0.4436183886
1650290100.0 -0.8867871439 0.4557491785
1700289800.0 -0.8797163534 0.4691400338
1750289500.0 -0.8728861105 0.4815174579
1800289200.0 -0.8654429991 0.4944489327
1850288900.0 -0.8587405115 0.5055797977
1900288600.0 -0.8512333033 0.5187716309
1950288300.0 -0.8428659055 0.5313208259
2000288000.0 -0.8355115007 0.5427949965
2050287700.0 -0.8273370004 0.5552345954
2100287400.0 -0.8194581184 0.566620379
2150287100.0 -0.8108659865 0.5785658027
2200286800.0 -0.8030133551 0.589198249
2250286500.0 -0.793984293 0.6015446576
2300286200.0 -0.7853861005 0.6127254268
2350285900.0 -0.7767733027 0.6235705316
2400285600.0 -0.7677604794 0.6345621006
2450285300.0 -0.7592800605 0.6453631822
2500285000.0 -0.7491155104 0.6567096151
2550284700.0 -0.7400899625 0.6669889584
2600284400.0 -0.7309486332 0.6770416134
2650284100.0 -0.7223986071 0.6872561245
2700283800.0 -0.7116495053 0.6977166931
2750283500.0 -0.7014664867 0.7084367032
2800283200.0 -0.691653408 0.7180542272
2850282900.0 -0.6810666335 0.7281420504
2900282600.0 -0.6708850628 0.7378478086
2950282300.0 -0.6602313047 0.7472391902
3000282000.0 -0.6494398358 0.7565206019
3050281700.0 -0.6384383783 0.7658038481
3100281400.0 -0.6268436231 0.7750336986
3150281100.0 -0.6154070556 0.7841024697
3200280800.0 -0.6041052939 0.7924422532
3250280500.0 -0.5929538133 0.8003759997
3300280200.0 -0.5813246156 0.8085456697
3350279900.0 -0.5693316732 0.8164466888
3400279600.0 -0.556740394 0.8244165244
3450279300.0 -0.5458529096 0.8315073145
3500279000.0 -0.5339510157 0.8386191021
3550278700.0 -0.5217501452 0.8455955669
3600278400.0 -0.5098225269 0.8525803086
3650278100.0 -0.4968465556 0.8599131043
3700277800.0 -0.4848025317 0.8667236418
3750277500.0 -0.4723182088 0.8731557033
3800277200.0 -0.4598520614 0.8795417083
3850276900.0 -0.4476869777 0.8855158917
3900276600.0 -0.4370223034 0.8912106856
3950276300.0 -0.4248516987 0.8971369078
4000276000.0 -0.4129503335 0.9029967403
4050275700.0 -0.4002324679 0.9093085059
4100275400.0 -0.3893933583 0.9146190632
4150275100.0 -0.3761398384 0.9204936841
4200274800.0 -0.362915088 0.9261486391
4250274500.0 -0.3501634899 0.9312584964
4300274200.0 -0.3370735856 0.9368850196
4350273900.0 -0.3228723262 0.9421337364
4400273600.0 -0.3080732348 0.9471136171
4450273300.0 -0.2930208582 0.9520728042
4500273000.0 -0.2798549889 0.9563088483
4550272700.0 -0.2662117688 0.9606861164
4600272400.0 -0.2508735533 0.9647776995
4650272100.0 -0.2396086575 0.9678280001
4700271800.0 -0.2265165217 0.9712920251
4750271500.0 -0.2148624324 0.9741079942
4800271200.0 -0.2025585475 0.9767749309
4850270900.0 -0.1887295584 0.9795332201
4900270600.0 -0.1748794652 0.9820706831
4950270300.0 -0.1605355233 0.9846756299
5000270000.0 -0.1460364795 0.9868767174
5050269700.0 -0.1324447503 0.9884738583
5100269400.0 -0.1185020542 0.9899599461
5150269100.0 -0.1045591857 0.9914987567
5200268800.0 -0.0912633449 0.9930651504
5250268500.0 -0.0782257706 0.9937306777
5300268200.0 -0.0645264428 0.9947530068
5350267900.0 -0.052041549 0.9951840149
5400267600.0 -0.0358572214 0.9962138488
5450267300.0 -0.0223393681 0.996596896
5500267000.0 -0.0071201091 0.996947677
5550266700.0 0.0078836372 0.9971645864
5600266400.0 0.0233759504 0.9972119351
5650266100.0 0.0402515369 0.9968516528
5700265800.0 0.0544162046 0.9959173888
5750265500.0 0.069384914 0.9952707057
5800265200.0 0.0831769668 0.9943072999
5850264900.0 0.0960321928 0.9931203321
5900264600.0 0.1125806242 0.9914087255
5950264300.0 0.1243798383 0.9901068277
6000264000.0 0.1378595334 0.9879294772
6050263700.0 0.1496903333 0.9866165537
6100263400.0 0.1621428277 0.9850662028
6150263100.0 0.1768127734 0.9828392956
6200262800.0 0.1866425 0.9810725035
6250262500.0 0.1990407215 0.9787103196
6300262200.0 0.2113613098 0.976149838
6350261900.0 0.2244009126 0.9733526948
6400261600.0 0.2382215149 0.9700732851
6450261300.0 0.2494165844 0.9675602818
6500261000.0 0.2625551432 0.9639596584
6550260700.0 0.2755073416 0.9598369881
6600260400.0 0.2888951639 0.9558415327
6650260100.0 0.3031106634 0.9515032604
6700259800.0 0.3150539568 0.9468354201
6750259500.0 0.329394367 0.9424924887
6800259200.0 0.3423766992 0.9371874083
6850258900.0 0.3547826457 0.9318524362
6900258600.0 0.3676101623 0.9267488078
6950258300.0 0.3798088052 0.9214686924
7000258000.0 0.3915271949 0.9162099764
7050257700.0 0.4035073066 0.9103729589
7100257400.0 0.4167316293 0.9039204637
7150257100.0 0.427612564 0.8984087944
7200256800.0 0.4406065168 0.8922450454
7250256500.0 0.4528602677 0.8855269443
7300256200.0 0.4661174011 0.8789629967
7350255900.0 0.4789777523 0.87196124
7400255600.0 0.4923676152 0.8639598194
7450255300.0 0.5082529703 0.8551059387
7500255000.0 0.5203022155 0.8475201128
7550254700.0 0.5344711599 0.8387571235
7600254400.0 0.546820794 0.8305001058
7650254100.0 0.5586611422 0.8224695851
7700253800.0 0.5705281404 0.8145430774
7750253500.0 0.5811871785 0.8069596199
7800253200.0 0.592015119 0.7990715767
7850252900.0 0.6017352887 0.7918350631
7900252600.0 0.6132498969 0.7831941045
7950252300.0 0.6216892098 0.7767519508
8000252000.0 0.6318760567 0.7691757217
8050251700.0 0.6421123265 0.7611379267
8100251400.0 0.6519284818 0.7530655277
8150251100.0 0.6619388058 0.7444772542
8200250800.0 0.6720312165 0.7361004591
8250250500.0 0.6805580769 0.7284162829
8300250200.0 0.6893383079 0.7199505523
8350249900.0 0.6985466468 0.7112682048
8400249600.0 0.7069857098 0.7032279681
8450249300.0 0.7157919649 0.6943194297
8500249000.0 0.7242990942 0.6855316939
8550248700.0 0.7326010695 0.6765272968
8600248400.0 0.7408667014 0.6669555595
8650248100.0 0.7487484709 0.6576069708
8700247800.0 0.7579646987 0.6466911302
8750247500.0 0.7662225203 0.636464383
8800247200.0 0.7742085972 0.6260297972
8850246900.0 0.7831102987 0.614558909
8900246600.0 0.791500829 0.6031259646
8950246300.0 0.8006278013 0.5906330051
9000246000.0 0.8092717803 0.5784633394
9050245700.0 0.8179198769 0.5662025562
9100245400.0 0.8262995065 0.553941413
9150245100.0 0.835544459 0.5407830682
9200244800.0 0.8448911879 0.5263916723
9250244500.0 0.8538222243 0.5115061843
9300244200.0 0.8620345074 0.4977996164
9350243900.0 0.8696659858 0.4843166894
9400243600.0 0.8763765344 0.4725015203
9450243300.0 0.8821023475 0.4617184013
9500243000.0 0.8881554923 0.4500599567
9550242700.0 0.8923641749 0.442457497
9600242400.0 0.8963702313 0.4350074702
9650242100.0 0.9005468294 0.4280731147
9700241800.0 0.9054883377 0.4194085102
9750241500.0 0.909529276 0.4116776277
9800241200.0 0.9145688297 0.4024151181
9850240900.0 0.9203036866 0.3909924745
9900240600.0 0.9260017265 0.3789895551
9950240300.0 0.9330446767 0.3620838717
10000240000.0 0.9377861125 0.3509718587
10050239700.0 0.9440035038 0.3345064378
10100239400.0 0.9491885512 0.3182339875
10150239100.0 0.9540124387 0.302905276
10200238800.0 0.9582211681 0.2873361932
10250238500.0 0.9616201769 0.2741563613
10300238200.0 0.9646678333 0.2602605629
10350237900.0 0.9674948511 0.2465080739
10400237600.0 0.9698788081 0.2333744664
10450237300.0 0.9727691596 0.2196813311
10500237000.0 0.9753033425 0.2070826755
10550236700.0 0.977154004 0.1930570418
10600236400.0 0.9794700446 0.1790524452
10650236100.0 0.9812201914 0.1642742591
10700235800.0 0.9835960797 0.1519336984
10750235500.0 0.9858040016 0.1389297072
10800235200.0 0.9878002681 0.1242704468
10850234900.0 0.989851053 0.1095938837
10900234600.0 0.9920378881 0.0947374387
10950234300.0 0.993541791 0.081539404
11000234000.0 0.9953417603 0.065975824
11050233700.0 0.9972639537 0.0494196241
11100233400.0 0.998699553 0.0317520427
11150233100.0 0.9998435493 0.0149129995
11200232800.0 1.000784118 -0.0004035148
11250232500.0 1.001410624 -0.0174698374
11300232200.0 1.002217361 -0.0369193818
11350231900.0 1.001065405 -0.0527913753
11400231600.0 1.001773815 -0.068603459
11450231300.0 1.001015514 -0.0835315733
11500231000.0 0.9998953632 -0.1000007804
11550230700.0 0.9979884536 -0.1135319799
11600230400.0 0.9968749319 -0.1265804969
11650230100.0 0.9946116809 -0.1382503632
11700229800.0 0.9927563209 -0.1530123511
11750229500.0 0.9901645358 -0.166904154
11800229200.0 0.9875080664 -0.1804419537
11850228900.0 0.9838023215 -0.1921858927
11900228600.0 0.9802632543 -0.2017241846
11950228300.0 0.9768552887 -0.211901474
12000228000.0 0.9737354559 -0.2215744796
12050227700.0 0.9705488859 -0.2335609736
12100227400.0 0.9670666119 -0.2448902961
12150227100.0 0.9625936081 -0.260986909
12200226800.0 0.9582954392 -0.2721761268
12250226500.0 0.9545663673 -0.2850408592
12300226200.0 0.9499441424 -0.2969679036
12350225900.0 0.9455233273 -0.3104359462
12400225600.0 0.9403233714 -0.3236880381
12450225300.0 0.9361179064 -0.3360439389
12500225000.0 0.9308807703 -0.3509028638
12550224700.0 0.9256243251 -0.3648581609
12600224400.0 0.9204596328 -0.3772918775
12650224100.0 0.9147366231 -0.3917543032
12700223800.0 0.9094247435 -0.4045904504
12750223500.0 0.9038119213 -0.4178353159
12800223200.0 0.8983543213 -0.4302071942
12850222900.0 0.893088621 -0.4427199613
12900222600.0 0.8875424562 -0.4544940168
12950222300.0 0.8812196237 -0.4666921069
13000222000.0 0.8754707867 -0.4788304957
13050221700.0 0.8687533487 -0.4914072845
13100221400.0 0.8618521225 -0.5040956131
13150221100.0 0.8548369576 -0.5158355457
13200220800.0 0.8481264537 -0.5271733235
13250220500.0 0.8408518858 -0.539558758
13300220200.0 0.8334468373 -0.5505536556
13350219900.0 0.8252938867 -0.5625378524
13400219600.0 0.8167763888 -0.5742790567
13450219300.0 0.8075551765 -0.5874884321
13500219000.0 0.7975559072 -0.6006104692
13550218700.0 0.7880104021 -0.6133831355
13600218400.0 0.7777321551 -0.625128732
13650218100.0 0.7689053944 -0.6358721633
13700217800.0 0.75741853 -0.6481117243
13750217500.0 0.7465580821 -0.6584126167
13800217200.0 0.7375992817 -0.670088093
13850216900.0 0.7264865171 -0.6813359839
13900216600.0 0.7163793721 -0.690498635
13950216300.0 0.7056931047 -0.7002589501
14000216000.0 0.6958515284 -0.709060081
14050215700.0 0.6864480286 -0.7175547024
14100215400.0 0.6769548653 -0.7268728816
14150215100.0 0.6674921787 -0.7354156447
14200214800.0 0.6579963773 -0.7441726603
14250214500.0 0.6476021904 -0.753452331
14300214200.0 0.6372501894 -0.7630300717
14350213900.0 0.626122397 -0.7725021728
14400213600.0 0.6139740013 -0.7824931461
14450213300.0 0.6013356628 -0.7927974977
14500213000.0 0.5879775452 -0.8025021252
14550212700.0 0.5757051414 -0.811998328
14600212400.0 0.5633915345 -0.8211859073
14650212100.0 0.5504313895 -0.8295477103
14700211800.0 0.5370808696 -0.8389785512
14750211500.0 0.5249628184 -0.8474764002
14800211200.0 0.5121884526 -0.8554719037
14850210900.0 0.4999382322 -0.8630947957
14900210600.0 0.4867378197 -0.8708842027
14950210300.0 0.4734170747 -0.8786913577
15000210000.0 0.4607777215 -0.8854520333
15050209700.0 0.4482092871 -0.8914452168
15100209400.0 0.435684285 -0.897654572
15150209100.0 0.4231056485 -0.9026528317
15200208800.0 0.4104336475 -0.9080676989
15250208500.0 0.3998174924 -0.9129841882
15300208200.0 0.387782749 -0.9172005491
15350207900.0 0.3746502308 -0.9218055571
15400207600.0 0.3597454597 -0.9275202997
15450207300.0 0.3449798926 -0.932863306
15500207000.0 0.3303289672 -0.9367516517
15550206700.0 0.3152683257 -0.9419509818
15600206400.0 0.3001703667 -0.9467776829
15650206100.0 0.2843004002 -0.95100498
15700205800.0 0.2700872162 -0.9543011937
15750205500.0 0.2561681146 -0.9579591301
15800205200.0 0.2421705728 -0.9613466582
15850204900.0 0.2278876082 -0.9648116871
15900204600.0 0.2127546734 -0.9685711706
15950204300.0 0.1987037987 -0.9717397004
16000204000.0 0.1843294464 -0.9745349807
16050203700.0 0.1690203107 -0.9776897323
16100203400.0 0.1539999221 -0.9795473387
16150203100.0 0.1398188518 -0.9819763331
16200202800.0 0.1255527034 -0.9841833224
16250202500.0 0.1103268987 -0.9855680486
16300202200.0 0.0951643603 -0.987578989
16350201900.0 0.0799847376 -0.9889470944
16400201600.0 0.0650506996 -0.9900434275
16450201300.0 0.0497499489 -0.9911309821
16500201000.0 0.0327710347 -0.9919224028
16550200700.0 0.0167340152 -0.9924774795
16600200400.0 0.0009425996 -0.992919348
16650200100.0 -0.0152471243 -0.9926660623
16700199800.0 -0.0314445808 -0.9923284083
16750199500.0 -0.0505069247 -0.9914418406
16800199200.0 -0.0664620596 -0.9908248878
16850198900.0 -0.0820717471 -0.9894055333
16900198600.0 -0.0958911475 -0.9894079289
16950198300.0 -0.1102170119 -0.9877694161
17000198000.0 -0.1226750357 -0.9859718723
17050197700.0 -0.1354763541 -0.9843008489
17100197400.0 -0.1482655307 -0.982096158
17150197100.0 -0.1609875037 -0.9798043988
17200196800.0 -0.1734197662 -0.978287897
17250196500.0 -0.1866505531 -0.9752713297
17300196200.0 -0.1988688907 -0.9733148796
17350195900.0 -0.2105072146 -0.9709969781
17400195600.0 -0.2225707637 -0.968331734
17450195300.0 -0.2354641407 -0.9655966956
17500195000.0 -0.2486544075 -0.9624870942
17550194700.0 -0.2624641453 -0.9588511304
17600194400.0 -0.2763451642 -0.9547143848
17650194100.0 -0.2902329163 -0.9508011209
17700193800.0 -0.3028773052 -0.9465471191
17750193500.0 -0.3168401686 -0.9418111665
17800193200.0 -0.3315213108 -0.936781669
17850192900.0 -0.346307085 -0.9311708872
17900192600.0 -0.3614334999 -0.9250897536
17950192300.0 -0.3767463469 -0.9179761163
18000192000.0 -0.3918215723 -0.9107449924
18050191700.0 -0.4055899347 -0.9028072997
18100191400.0 -0.4198043092 -0.8951729054
18150191100.0 -0.4347239553 -0.8873082766
18200190800.0 -0.451570855 -0.8781739785
18250190500.0 -0.4687212741 -0.8686800521
18300190200.0 -0.4839382821 -0.8597881797
18350189900.0 -0.4993626369 -0.8517266847
18400189600.0 -0.5134555046 -0.8432353164
18450189300.0 -0.5271228716 -0.835015143
18500189000.0 -0.5406143762 -0.8269927663
18550188700.0 -0.5530440739 -0.8195401696
18600188400.0 -0.5653286307 -0.8129800893
18650188100.0 -0.5769275783 -0.805996443
18700187800.0 -0.5877790828 -0.7992496336
18750187500.0 -0.5983510913 -0.7927412043
18800187200.0 -0.6089736358 -0.7856574592
18850186900.0 -0.6191529242 -0.7788660965
18900186600.0 -0.6294136111 -0.7714085253
18950186300.0 -0.6394759759 -0.7638122699
19000186000.0 -0.647089558 -0.7577041864
19050185700.0 -0.6562135179 -0.7504928392
19100185400.0 -0.6661975968 -0.7418240805
19150185100.0 -0.6763295282 -0.7334730709
19200184800.0 -0.6855388529 -0.7257506648
19250184500.0 -0.695775291 -0.7161004035
19300184200.0 -0.7079978347 -0.7069451514
19350183900.0 -0.7181739523 -0.6966138244
19400183600.0 -0.7275637368 -0.6871002265
19450183300.0 -0.7366766498 -0.6775458233
19500183000.0 -0.7445384578 -0.6667020245
19550182700.0 -0.7548346459 -0.6554862294
19600182400.0 -0.7649552035 -0.6444405708
19650182100.0 -0.7757749223 -0.6319063542
19700181800.0 -0.7859052904 -0.6188525311
19750181500.0 -0.7966647372 -0.6046528368
19800181200.0 -0.8067213395 -0.5897569938
19850180900.0 -0.8162335232 -0.5744281548
19900180600.0 -0.8239463684 -0.5601372953
19950180300.0 -0.8333416498 -0.5438652491
20000180000.0 -0.8239298046 -0.5471665906
20050179700.0 -0.8323035987 -0.5344114349
20100179400.0 -0.8408021086 -0.5211075662
20150179100.0 -0.8488183069 -0.509566877
20200178800.0 -0.8563322608 -0.4972098504
20250178500.0 -0.8659184802 -0.4847974398
20300178200.0 -0.8761897675 -0.4702685895
20350177900.0 -0.885676286 -0.4572265358
20400177600.0 -0.8942272321 -0.4424344965
20450177300.0 -0.9024992934 -0.4281811662
20500177000.0 -0.9103718204 -0.4140822293
20550176700.0 -0.9182969013 -0.4007545181
20600176400.0 -0.9255166954 -0.3876333664
20650176100.0 -0.9317357377 -0.3754624545
20700175800.0 -0.9384595071 -0.3636715438
20750175500.0 -0.9448085387 -0.3517715714
20800175200.0 -0.9498534954 -0.3412490413
20850174900.0 -0.9535232822 -0.3307797035
20900174600.0 -0.9589218146 -0.3190324262
20950174300.0 -0.961289371 -0.3079045685
21000174000.0 -0.9650340643 -0.2970410565
21050173700.0 -0.9678571904 -0.2875009893
21100173400.0 -0.9712590679 -0.276098976
21150173100.0 -0.9746486804 -0.2641253627
21200172800.0 -0.978302049 -0.2510130046
21250172500.0 -0.9816592617 -0.237612135
21300172200.0 -0.985335027 -0.2230351942
21350171900.0 -0.9875555179 -0.2085223206
21400171600.0 -0.9891190533 -0.1944296285
21450171300.0 -0.9902764239 -0.1805050742
21500171000.0 -0.9899730245 -0.1652097972
21550170700.0 -0.9905220702 -0.1513579958
21600170400.0 -0.9914362259 -0.1344351388
21650170100.0 -0.9901882711 -0.1194369924
21700169800.0 -0.9895705968 -0.1039452324
21750169500.0 -0.9909611491 -0.0872414975
21800169200.0 -0.9904965976 -0.0717755906
21850168900.0 -0.9903333202 -0.0547298377
21900168600.0 -0.9886983869 -0.0382617531
21950168300.0 -0.988786348 -0.022663786
22000168000.0 -0.9882389101 -0.0078370506
22050167700.0 -0.9884481254 0.0068852375
22100167400.0 -0.9889136043 0.0222554048
22150167100.0 -0.989880211 0.0380173677
22200166800.0 -0.9900761439 0.0547369489
22250166500.0 -0.9887985147 0.0716035939
22300166200.0 -0.9889370914 0.0888842033
22350165900.0 -0.9883715652 0.1044598262
22400165600.0 -0.9858401422 0.1209009957
22450165300.0 -0.9846131871 0.1352891506
22500165000.0 -0.9825256599 0.1496934634
22550164700.0 -0.9806153881 0.1655206439
22600164400.0 -0.9790310567 0.1822246872
22650164100.0 -0.9768908729 0.1965053469
22700163800.0 -0.9739357601 0.213904213
22750163500.0 -0.9707265211 0.2277716785
22800163200.0 -0.9679024311 0.240914081
22850162900.0 -0.9655593622 0.2544146913
22900162600.0 -0.9636790913 0.2681469717
22950162300.0 -0.9618617423 0.2819376197
23000162000.0 -0.9601500606 0.2943572903
23050161700.0 -0.9577236045 0.3076614828
23100161400.0 -0.9553987654 0.3212073441
23150161100.0 -0.9521950015 0.3333025114
23200160800.0 -0.949743315 0.3468638286
23250160500.0 -0.9464752835 0.3585346462
23300160200.0 -0.9449564643 0.3708871556
23350159900.0 -0.9401016162 0.3849043962
23400159600.0 -0.9350424151 0.3987999352
23450159300.0 -0.9297904054 0.41231819
23500159000.0 -0.9252456478 0.4259300185
23550158700.0 -0.9201309514 0.439838074
23600158400.0 -0.9143311047 0.4533393419
23650158100.0 -0.9071709726 0.467808305
23700157800.0 -0.8989571135 0.4821554447
23750157500.0 -0.8897252715 0.4964880278
23800157200.0 -0.8803356186 0.5092897325
23850156900.0 -0.8709690698 0.522575312
23900156600.0 -0.8603664731 0.535326458
23950156300.0 -0.8515143748 0.5476586833
24000156000.0 -0.8423764295 0.5597279963
24050155700.0 -0.8320474208 0.5725563322
24100155400.0 -0.8216483009 0.584202559
24150155100.0 -0.8109373344 0.5972909837
24200154800.0 -0.8000969357 0.6084902656
24250154500.0 -0.7884365868 0.619962974
24300154200.0 -0.7769895773 0.6322463577
24350153900.0 -0.7648030663 0.6434621921
24400153600.0 -0.7525541478 0.6535713099
24450153300.0 -0.740440124 0.6639265632
24500153000.0 -0.728866006 0.6745485102
24550152700.0 -0.717707038 0.6842427793
24600152400.0 -0.7051696413 0.6933657268
24650152100.0 -0.6934998149 0.701487287
