!Created with skrf (http://scikit-rf.org).
# Hz S RI R 50.0 
!freq ReS11 ImS11
300000.0 -0.9739394749 -0.1186021928
50299700.0 -1.000079167 0.0153326202
100299400.0 -0.9979389683 0.0282457481
150299100.0 -1.002805184 0.0451125205
200298800.0 -0.9996731347 0.0582806427
250298500.0 -0.9975087055 0.071995249
300298200.0 -0.9858483276 0.0876938639
350297900.0 -0.9941356617 0.0986434504
400297600.0 -0.9930778933 0.1151320689
450297300.0 -0.9909864188 0.1291045007
500297000.0 -0.9895174055 0.1436270855
550296700.0 -0.9843343287 0.1560793296
600296400.0 -1.017586458 0.1896811111
650296100.0 -0.9822340992 0.1862976291
700295800.0 -0.9794292061 0.2001806498
750295500.0 -0.9762676669 0.2143006162
800295200.0 -0.9730545763 0.228398787
850294900.0 -0.9697555311 0.2423470644
900294600.0 -0.9658973407 0.2559514533
950294300.0 -0.9622393261 0.2696361298
1000294000.0 -0.9580982526 0.2836869736
1050293700.0 -0.9537022995 0.2975915191
1100293400.0 -0.9494217393 0.3119689843
1150293100.0 -0.9457432477 0.3237721889
1200292800.0 -0.9401570444 0.338062991
1250292500.0 -0.9346851191 0.3514422577
1300292200.0 -0.9291157149 0.3646146985
1350291900.0 -0.9234533979 0.3788585329
1400291600.0 -0.9180059447 0.3918669919
1450291300.0 -0.9123506107 0.4042997924
1500291000.0 -0.9061272376 0.4177327883
1550290700.0 -0.8996920602 0.4309842887
1600290400.0 -0.8933314881 0.4440819836
1650290100.0 -0.8867914609 0.4560046174
1700289800.0 -0.8797931667 0.4693413039
1750289500.0 -0.8726812456 0.4819093361
1800289200.0 -0.8654761706 0.4948984656
1850288900.0 -0.8588269341 0.505990032
1900288600.0 -0.8510038379 0.5191160483
1950288300.0 -0.8428675444 0.5317172002
2000288000.0 -0.8352482953 0.542941508
2050287700.0 -0.8270042736 0.5552618434
2100287400.0 -0.8192761919 0.567146163
2150287100.0 -0.8106525775 0.5789544006
2200286800.0 -0.8029730742 0.5895400566
2250286500.0 -0.7941909799 0.601501618
2300286200.0 -0.78514881 0.6130424447
2350285900.0 -0.776535369 0.6240385258
2400285600.0 -0.767671453 0.6349818399
2450285300.0 -0.7591068718 0.6454661288
2500285000.0 -0.7491460893 0.6566301067
2550284700.0 -0.7402984333 0.6670197103
2600284400.0 -0.7310913593 0.6772361498
2650284100.0 -0.7220408528 0.6875714688
2700283800.0 -0.7114600007 0.6981599223
2750283500.0 -0.7010594209 0.7086623908
2800283200.0 -0.6911934085 0.7183165002
2850282900.0 -0.6810698813 0.7285053844
2900282600.0 -0.6707115517 0.7379897523
2950282300.0 -0.6605285565 0.7472720029
3000282000.0 -0.6498216823 0.7567288969
3050281700.0 -0.6384905817 0.7659182801
3100281400.0 -0.626883827 0.7753087121
3150281100.0 -0.6150463037 0.7845843311
3200280800.0 -0.6032359019 0.7931797874
3250280500.0 -0.5924285993 0.8008240308
3300280200.0 -0.5812858752 0.8087292316
3350279900.0 -0.5696049445 0.8161221036
3400279600.0 -0.5572829106 0.8240966801
3450279300.0 -0.5461678285 0.8310982389
3500279000.0 -0.5341751057 0.8382402705
3550278700.0 -0.5220016664 0.8456501126
3600278400.0 -0.5098408824 0.8527995315
3650278100.0 -0.4964056225 0.860387598
3700277800.0 -0.4844157526 0.8668161601
3750277500.0 -0.472249972 0.8732600725
3800277200.0 -0.4598390537 0.8799228599
3850276900.0 -0.4478474107 0.8859240267
3900276600.0 -0.4369327975 0.8911150585
3950276300.0 -0.4244707149 0.8974256869
4000276000.0 -0.4124098637 0.9034705661
4050275700.0 -0.3996321239 0.9095568537
4100275400.0 -0.3883129824 0.9151180407
4150275100.0 -0.3757955921 0.9207903688
4200274800.0 -0.3626662736 0.925989864
4250274500.0 -0.3504005836 0.9313193944
4300274200.0 -0.3377248886 0.9365690539
4350273900.0 -0.3235699737 0.9419326789
4400273600.0 -0.3087282526 0.9473826268
4450273300.0 -0.2935475872 0.9523947542
4500273000.0 -0.2799909214 0.956740615
4550272700.0 -0.2658125818 0.9608167503
4600272400.0 -0.2503882265 0.9650484812
4650272100.0 -0.2386996235 0.9682518164
4700271800.0 -0.2253565876 0.9716647345
4750271500.0 -0.2137244818 0.9744679455
4800271200.0 -0.2012569744 0.9771164051
4850270900.0 -0.1872335117 0.9799427427
4900270600.0 -0.1734746853 0.9823630986
4950270300.0 -0.1591803225 0.9849339899
5000270000.0 -0.144867923 0.9872543242
5050269700.0 -0.1314526042 0.9886040446
5100269400.0 -0.1177597254 0.9903859401
5150269100.0 -0.1044059695 0.9920637087
5200268800.0 -0.0910476347 0.992861824
5250268500.0 -0.0778172992 0.9941714311
5300268200.0 -0.0647413911 0.9947301651
5350267900.0 -0.0525301262 0.9950971252
5400267600.0 -0.035940563 0.9962846644
5450267300.0 -0.0232214676 0.9965810723
5500267000.0 -0.0080784732 0.9971601286
5550266700.0 0.0069239799 0.9971432804
5600266400.0 0.0224367698 0.9973775806
5650266100.0 0.0389294502 0.9969691374
5700265800.0 0.0532235231 0.9961918605
5750265500.0 0.0686328178 0.9956507892
5800265200.0 0.0823909428 0.9942621317
5850264900.0 0.0957319011 0.9934223749
5900264600.0 0.1124228705 0.9916656255
5950264300.0 0.1246634681 0.9901672586
6000264000.0 0.1384971022 0.9882040111
6050263700.0 0.1508031574 0.9869415918
6100263400.0 0.1628824175 0.985038722
6150263100.0 0.1775875744 0.9827689608
6200262800.0 0.1878573995 0.980920498
6250262500.0 0.2005558609 0.978640938
6300262200.0 0.213299234 0.975781378
6350261900.0 0.2263936124 0.9728240744
6400261600.0 0.2402247338 0.9695182828
6450261300.0 0.2516164841 0.9669035509
6500261000.0 0.2645218865 0.9632189105
6550260700.0 0.2777104638 0.9594121457
6600260400.0 0.2907235392 0.9554269142
6650260100.0 0.3049406079 0.9508383718
6700259800.0 0.3164431369 0.9465414928
6750259500.0 0.330779745 0.9419577631
6800259200.0 0.343960809 0.9366962585
6850258900.0 0.3557667189 0.9314469794
6900258600.0 0.367956803 0.9266358837
6950258300.0 0.3805390337 0.9213316008
7000258000.0 0.3925224435 0.9158278433
7050257700.0 0.4047902271 0.9098602415
7100257400.0 0.4176249597 0.9035449408
7150257100.0 0.4280385618 0.8981993252
7200256800.0 0.440570886 0.8919505765
7250256500.0 0.4525829527 0.8852646181
7300256200.0 0.4657439138 0.8787689582
7350255900.0 0.4781923915 0.8718542708
7400255600.0 0.4916563134 0.8646499013
7450255300.0 0.5069881115 0.8556989313
7500255000.0 0.5187180828 0.8484282563
7550254700.0 0.5328167821 0.8402450815
7600254400.0 0.5450520127 0.8315619821
7650254100.0 0.5565058462 0.8240833013
7700253800.0 0.5684324891 0.8158797746
7750253500.0 0.5796871354 0.8082519395
7800253200.0 0.5902622194 0.8004345977
7850252900.0 0.5999705219 0.7936150724
7900252600.0 0.6118989764 0.784623528
7950252300.0 0.62046933 0.778173224
8000252000.0 0.6307366349 0.7706676799
8050251700.0 0.6411847796 0.7624619157
8100251400.0 0.6511362431 0.7542587413
8150251100.0 0.6615163561 0.7456092826
8200250800.0 0.6706250955 0.7376322832
8250250500.0 0.6794630916 0.7297762957
8300250200.0 0.6888735506 0.720960161
8350249900.0 0.6979869895 0.7123506399
8400249600.0 0.7062960908 0.704205751
8450249300.0 0.715592229 0.6951060692
8500249000.0 0.7239039514 0.6861496201
8550248700.0 0.7321130686 0.6772321997
8600248400.0 0.7406855909 0.6677411994
8650248100.0 0.7485135993 0.6583698044
8700247800.0 0.7579389551 0.6470520442
8750247500.0 0.76641132 0.6368293281
8800247200.0 0.7742659673 0.6265754734
8850246900.0 0.7833804232 0.6150420978
8900246600.0 0.7918810238 0.603863403
8950246300.0 0.8014457849 0.5904861818
9000246000.0 0.8106424937 0.5779362059
9050245700.0 0.8194295492 0.5650300864
9100245400.0 0.8281377893 0.552674451
9150245100.0 0.8373958589 0.5390627979
9200244800.0 0.8470883701 0.524103595
9250244500.0 0.8566398127 0.508622965
9300244200.0 0.8650666075 0.494168437
9350243900.0 0.8727297138 0.4802115434
9400243600.0 0.8793089727 0.4679546385
9450243300.0 0.8853240369 0.4565704453
9500243000.0 0.8914695883 0.4445099695
9550242700.0 0.8952770047 0.4365377849
9600242400.0 0.899427994 0.4292345371
9650242100.0 0.9027518885 0.4228555366
9700241800.0 0.9075510969 0.4146527992
9750241500.0 0.9115007677 0.4068751125
9800241200.0 0.9162466161 0.3976992488
9850240900.0 0.9219056101 0.3861078497
9900240600.0 0.9274766016 0.3745674937
9950240300.0 0.9342289941 0.3583506746
10000240000.0 0.9388372999 0.3470556831
10050239700.0 0.9444541082 0.3315477362
10100239400.0 0.949605983 0.3160623025
10150239100.0 0.9540661851 0.3010953429
10200238800.0 0.9579758479 0.2861937545
10250238500.0 0.96146887 0.272765012
10300238200.0 0.9645965307 0.2588794376
10350237900.0 0.9673401611 0.2459294617
10400237600.0 0.9699153788 0.23250888
10450237300.0 0.9726411262 0.2186688898
10500237000.0 0.9749968666 0.2064128028
10550236700.0 0.9771086531 0.1928164827
10600236400.0 0.978894893 0.1794091965
10650236100.0 0.9811487729 0.1641240099
10700235800.0 0.9837623628 0.1515056021
10750235500.0 0.9863294356 0.1382028532
10800235200.0 0.9876598043 0.1243405586
10850234900.0 0.9896088329 0.1095384261
10900234600.0 0.9916534098 0.0950614519
10950234300.0 0.9935479867 0.0818610765
11000234000.0 0.9953624216 0.0667404885
11050233700.0 0.9970277276 0.0503986538
11100233400.0 0.9985640773 0.033236788
11150233100.0 0.9993729233 0.0167618451
11200232800.0 1.000239947 0.0017911876
11250232500.0 1.001194367 -0.0147364918
11300232200.0 1.001800892 -0.03181863
11350231900.0 1.001898011 -0.0490466593
11400231600.0 1.001433001 -0.0639155502
11450231300.0 1.00067603 -0.0790394079
11500231000.0 0.9996619393 -0.0956959796
11550230700.0 0.998277265 -0.1088360021
11600230400.0 0.9971301102 -0.121720121
11650230100.0 0.9948947078 -0.1330182884
11700229800.0 0.9931267722 -0.1477422088
11750229500.0 0.9907896419 -0.1621351102
11800229200.0 0.9880390975 -0.1758164341
11850228900.0 0.9846096053 -0.1884862393
11900228600.0 0.9810281308 -0.1980528699
11950228300.0 0.9776156632 -0.208857304
12000228000.0 0.9748959352 -0.2175582603
12050227700.0 0.9712549249 -0.2305751156
12100227400.0 0.9677341491 -0.2416523144
12150227100.0 0.9638729162 -0.2572107563
12200226800.0 0.9595538132 -0.2682831568
12250226500.0 0.9553281419 -0.2813572089
12300226200.0 0.9516450003 -0.2936013602
12350225900.0 0.9464286159 -0.308006649
12400225600.0 0.942503907 -0.3207546587
12450225300.0 0.9375839065 -0.3335193103
12500225000.0 0.9321109842 -0.3482951847
12550224700.0 0.9269202038 -0.3620370885
12600224400.0 0.9219592891 -0.3750701667
12650224100.0 0.9162143251 -0.3894884533
12700223800.0 0.9109642688 -0.4023478657
12750223500.0 0.9055814859 -0.4152913885
12800223200.0 0.9002637689 -0.4279789235
12850222900.0 0.8948305109 -0.4402012989
12900222600.0 0.8890357379 -0.4521309191
12950222300.0 0.8825736342 -0.4651434233
13000222000.0 0.8767586582 -0.4767580564
13050221700.0 0.8703803143 -0.4892881163
13100221400.0 0.8630699085 -0.5013444565
13150221100.0 0.8568291924 -0.5133703095
13200220800.0 0.8496910374 -0.5248005233
13250220500.0 0.8424870882 -0.5367888747
13300220200.0 0.8352500451 -0.5479594978
13350219900.0 0.8271257972 -0.5597715933
13400219600.0 0.8187451645 -0.5717560996
13450219300.0 0.8095075238 -0.5851438461
13500219000.0 0.7989945691 -0.5989693346
13550218700.0 0.7892643909 -0.611534319
13600218400.0 0.7784910504 -0.6240196046
13650218100.0 0.7692344482 -0.6343473852
13700217800.0 0.7582627011 -0.6473078716
13750217500.0 0.748444359 -0.6587513714
13800217200.0 0.7369231411 -0.6696930487
13850216900.0 0.7269402325 -0.6812664026
13900216600.0 0.7164185427 -0.6902204953
13950216300.0 0.7054849008 -0.7011539044
14000216000.0 0.6948248451 -0.7100778869
14050215700.0 0.6857344087 -0.7180056184
14100215400.0 0.6760764412 -0.7276962285
14150215100.0 0.6669658195 -0.7362068788
14200214800.0 0.6575935198 -0.7448600199
14250214500.0 0.6472122506 -0.7542178347
14300214200.0 0.6368764589 -0.76339948
14350213900.0 0.6255267515 -0.7731246813
14400213600.0 0.6137548572 -0.7829497735
14450213300.0 0.6006330596 -0.7932785543
14500213000.0 0.5878702942 -0.8029938813
14550212700.0 0.5752793106 -0.812784266
14600212400.0 0.5629227917 -0.8215063171
14650212100.0 0.5497253079 -0.8302837898
14700211800.0 0.5361000826 -0.83985339
14750211500.0 0.5236865318 -0.8475087132
14800211200.0 0.511727177 -0.8557263331
14850210900.0 0.4995150717 -0.8631187635
14900210600.0 0.4861162101 -0.8712481668
14950210300.0 0.4729662087 -0.878828251
15000210000.0 0.4601180483 -0.8858164967
15050209700.0 0.4480428153 -0.8918192757
15100209400.0 0.4350492108 -0.8978502863
15150209100.0 0.4233426504 -0.9031714813
15200208800.0 0.4098889329 -0.9087040514
15250208500.0 0.3979233083 -0.9131917405
15300208200.0 0.3863899864 -0.9180729837
15350207900.0 0.3732971523 -0.9223081924
15400207600.0 0.358783477 -0.9278035273
15450207300.0 0.3441435147 -0.9327282432
15500207000.0 0.3294417476 -0.9370891864
15550206700.0 0.3143383725 -0.9424559001
15600206400.0 0.2990252707 -0.9472661351
15650206100.0 0.2831133523 -0.9513402648
15700205800.0 0.2693171367 -0.9548780516
15750205500.0 0.2547023145 -0.9585163813
15800205200.0 0.2404519411 -0.9619249274
15850204900.0 0.2260958896 -0.9653927962
15900204600.0 0.2110157006 -0.9689980334
15950204300.0 0.1966291592 -0.971944082
16000204000.0 0.1827244875 -0.9748794153
16050203700.0 0.1673488267 -0.977808097
16100203400.0 0.1526692771 -0.9798877816
16150203100.0 0.1384321225 -0.9823007101
16200202800.0 0.1243704041 -0.9843159267
16250202500.0 0.1100509052 -0.9863472673
16300202200.0 0.0944721911 -0.9875828062
16350201900.0 0.079134262 -0.9893971768
16400201600.0 0.0643862585 -0.9902632497
16450201300.0 0.0491987933 -0.9914010038
16500201000.0 0.0326699176 -0.9920989006
16550200700.0 0.0170301999 -0.992708053
16600200400.0 0.0013638748 -0.992894969
16650200100.0 -0.0145562088 -0.992680336
16700199800.0 -0.031253453 -0.9920851998
16750199500.0 -0.0500124885 -0.9921175032
16800199200.0 -0.0654172167 -0.991213822
16850198900.0 -0.0803983414 -0.9897228471
16900198600.0 -0.0940731221 -0.9891225166
16950198300.0 -0.1079950996 -0.9874682317
17000198000.0 -0.1207919677 -0.98644721
17050197700.0 -0.1329920772 -0.9846583779
17100197400.0 -0.1462547968 -0.9823421429
17150197100.0 -0.1587591834 -0.9802300812
17200196800.0 -0.1716596 -0.9783084781
17250196500.0 -0.1848766545 -0.976011589
17300196200.0 -0.1967630092 -0.9734725674
17350195900.0 -0.2087281182 -0.9712475097
17400195600.0 -0.2209758847 -0.9685629998
17450195300.0 -0.2340058176 -0.9661097175
17500195000.0 -0.2476139913 -0.9626058741
17550194700.0 -0.2615780695 -0.958878907
17600194400.0 -0.2751448757 -0.9551899513
17650194100.0 -0.2889387724 -0.9510324028
17700193800.0 -0.3020337997 -0.9468715456
17750193500.0 -0.316590916 -0.9420868712
17800193200.0 -0.3310686762 -0.9371302951
17850192900.0 -0.3458014276 -0.9316944368
17900192600.0 -0.3611520059 -0.9255789671
17950192300.0 -0.376777269 -0.9184347348
18000192000.0 -0.3917197532 -0.9111528215
18050191700.0 -0.4053293446 -0.9034144487
18100191400.0 -0.4195985252 -0.8957631854
18150191100.0 -0.4346293655 -0.8877896585
18200190800.0 -0.4514957239 -0.8786971675
18250190500.0 -0.4685975481 -0.8691221576
18300190200.0 -0.4834561592 -0.8601588416
18350189900.0 -0.4991517597 -0.8521189122
18400189600.0 -0.5133430856 -0.8434556789
18450189300.0 -0.5267655635 -0.8357054096
18500189000.0 -0.5397562028 -0.8277006878
18550188700.0 -0.5525432917 -0.8197544507
18600188400.0 -0.5640532777 -0.8136872695
18650188100.0 -0.5754721854 -0.8070347362
18700187800.0 -0.5860866194 -0.8005210578
18750187500.0 -0.5968284276 -0.7940772167
18800187200.0 -0.6072979445 -0.7868258953
18850186900.0 -0.6174054522 -0.7800860143
18900186600.0 -0.6277085154 -0.772745751
18950186300.0 -0.6376649652 -0.7651727563
19000186000.0 -0.6451797426 -0.7588871827
19050185700.0 -0.6541097111 -0.7518297981
19100185400.0 -0.6638436955 -0.7436353638
19150185100.0 -0.6737881537 -0.7350854912
19200184800.0 -0.683574332 -0.7270758531
19250184500.0 -0.6936819312 -0.7177464495
19300184200.0 -0.7053049745 -0.7084858658
19350183900.0 -0.7158835127 -0.698199094
19400183600.0 -0.7258950172 -0.6881687633
19450183300.0 -0.7349146548 -0.6787657229
19500183000.0 -0.7426874352 -0.6683845114
19550182700.0 -0.7525210335 -0.6577173735
19600182400.0 -0.7626008612 -0.645838706
19650182100.0 -0.7740348764 -0.6333703516
19700181800.0 -0.7844567925 -0.6200916804
19750181500.0 -0.7952771204 -0.6059761643
19800181200.0 -0.8054839271 -0.5910227364
19850180900.0 -0.8153604457 -0.5756189298
19900180600.0 -0.8233176745 -0.5609818253
19950180300.0 -0.8326269469 -0.5447127836
20000180000.0 -0.825395779 -0.5469794633
20050179700.0 -0.8332199654 -0.5337356577
20100179400.0 -0.8419948642 -0.5198923456
20150179100.0 -0.8509410977 -0.5075913586
20200178800.0 -0.8596483485 -0.4951098143
20250178500.0 -0.8683068555 -0.4818075808
20300178200.0 -0.8786053054 -0.467504479
20350177900.0 -0.8874559679 -0.452896752
20400177600.0 -0.8965211755 -0.4382254208
20450177300.0 -0.9045880848 -0.4239891264
20500177000.0 -0.9125547087 -0.410022559
20550176700.0 -0.9204334301 -0.3967612552
20600176400.0 -0.9271631029 -0.3834371743
20650176100.0 -0.9340639568 -0.371603642
20700175800.0 -0.9408772325 -0.3600108519
20750175500.0 -0.9471663721 -0.3477680036
20800175200.0 -0.9529541142 -0.3373384103
20850174900.0 -0.9566950891 -0.324950688
20900174600.0 -0.9618609006 -0.3150529937
20950174300.0 -0.9656943641 -0.3029859507
21000174000.0 -0.9690184375 -0.2920126117
21050173700.0 -0.9708205804 -0.2808815864
21100173400.0 -0.9753611438 -0.2688044664
21150173100.0 -0.9792011823 -0.2569084843
21200172800.0 -0.9831061287 -0.2435573692
21250172500.0 -0.9863399565 -0.2297306228
21300172200.0 -0.9887680573 -0.2162099736
21350171900.0 -0.9905299773 -0.2013107105
21400171600.0 -0.9920517171 -0.1871922834
21450171300.0 -0.992472273 -0.1726825476
21500171000.0 -0.9915251738 -0.1571340386
21550170700.0 -0.9934444178 -0.1418334685
21600170400.0 -0.9933537772 -0.1257505287
21650170100.0 -0.9917873491 -0.1113601554
21700169800.0 -0.9894815529 -0.0944191677
21750169500.0 -0.989015189 -0.0795227923
21800169200.0 -0.9884090997 -0.0629937312
21850168900.0 -0.9874723779 -0.0462382532
21900168600.0 -0.9858330798 -0.0298722494
21950168300.0 -0.9850407185 -0.0136920513
22000168000.0 -0.9841831894 0.0011308429
22050167700.0 -0.9842594006 0.0153693932
22100167400.0 -0.9838904751 0.0309327027
22150167100.0 -0.984917529 0.0462912509
22200166800.0 -0.9852307064 0.0623381742
22250166500.0 -0.9847928775 0.0800242143
22300166200.0 -0.9839121346 0.0965333762
22350165900.0 -0.9825287409 0.1130552943
22400165600.0 -0.9805179599 0.1294500959
22450165300.0 -0.9787145539 0.1433806
22500165000.0 -0.9771583562 0.1572978281
22550164700.0 -0.9759972819 0.1720919979
22600164400.0 -0.9739933428 0.1885782018
22650164100.0 -0.9724688947 0.2033237145
22700163800.0 -0.9699017322 0.2191418105
22750163500.0 -0.9666665296 0.234484567
22800163200.0 -0.9643079092 0.2472223127
22850162900.0 -0.9618829494 0.2607811593
22900162600.0 -0.960371165 0.2737480097
22950162300.0 -0.9591807341 0.2867237128
23000162000.0 -0.9580784066 0.2986984584
23050161700.0 -0.9560290518 0.3115293246
23100161400.0 -0.9535706875 0.3236640477
23150161100.0 -0.9500947154 0.3364646856
23200160800.0 -0.9478508389 0.3488123406
23250160500.0 -0.9455620014 0.3603183617
23300160200.0 -0.9426715013 0.3729660237
23350159900.0 -0.9393527785 0.3863206516
23400159600.0 -0.9342157303 0.3996143645
23450159300.0 -0.929182172 0.4124931167
23500159000.0 -0.9247814016 0.425493512
23550158700.0 -0.9204476878 0.4390211271
23600158400.0 -0.9147483142 0.4521919336
23650158100.0 -0.9083869074 0.4663957131
23700157800.0 -0.9007451366 0.4803503775
23750157500.0 -0.8919905377 0.4941936602
23800157200.0 -0.8831724543 0.5079252065
23850156900.0 -0.874267261 0.5207627791
23900156600.0 -0.8649173488 0.5329560592
23950156300.0 -0.8562830838 0.5456347523
24000156000.0 -0.8474221644 0.5558529872
24050155700.0 -0.8364241642 0.5697789435
24100155400.0 -0.8270876403 0.5815298447
24150155100.0 -0.8162631926 0.5932802535
24200154800.0 -0.8060019701 0.6047594353
24250154500.0 -0.7948646962 0.6157889947
24300154200.0 -0.7828885234 0.6277027632
24350153900.0 -0.7710538094 0.6384956678
24400153600.0 -0.7590045849 0.6486603744
24450153300.0 -0.7472747766 0.6586049832
24500153000.0 -0.7357170165 0.6684925168
24550152700.0 -0.724180252 0.67800305
24600152400.0 -0.7130155149 0.6868934022
24650152100.0 -0.7010819167 0.6953911016
