!Created with skrf (http://scikit-rf.org).
# Hz S RI R 50.0 
!freq ReS11 ImS11
300000.0 -0.9754297947 -0.1208392694
50299700.0 -0.9999846681 0.0153783362
100299400.0 -0.9980323494 0.0282623787
150299100.0 -1.002670931 0.0451260741
200298800.0 -0.9996075266 0.0583531496
250298500.0 -0.9975080762 0.0720719467
300298200.0 -0.986017797 0.0878075326
350297900.0 -0.9940025555 0.0986132192
400297600.0 -0.9932454868 0.115303261
450297300.0 -0.9910886837 0.1288380186
500297000.0 -0.9893621332 0.1436939423
550296700.0 -0.9842791772 0.1560642265
600296400.0 -1.017486948 0.1896064616
650296100.0 -0.9820998137 0.1860638914
700295800.0 -0.9792810347 0.2005893841
750295500.0 -0.9761763834 0.214192862
800295200.0 -0.9730975268 0.2283560089
850294900.0 -0.969575898 0.2421820819
900294600.0 -0.9658801255 0.2561177098
950294300.0 -0.9621969646 0.2697130012
1000294000.0 -0.9583376005 0.2836755369
1050293700.0 -0.9535857159 0.2975447868
1100293400.0 -0.9492452152 0.3119030257
1150293100.0 -0.9455298631 0.3235799083
1200292800.0 -0.9401482398 0.3381962319
1250292500.0 -0.9347535212 0.351539062
1300292200.0 -0.9287377371 0.3646162906
1350291900.0 -0.9234787583 0.3788300565
1400291600.0 -0.9178542181 0.3920819405
1450291300.0 -0.9122654788 0.4041326766
1500291000.0 -0.9063698982 0.417692988
1550290700.0 -0.8997979047 0.4309542511
1600290400.0 -0.893491942 0.4440447988
1650290100.0 -0.8868512628 0.4560848295
1700289800.0 -0.8800104623 0.469527166
1750289500.0 -0.8727582701 0.481772728
1800289200.0 -0.8653900235 0.4946512443
1850288900.0 -0.8587674414 0.5060695112
1900288600.0 -0.8508621998 0.5191284291
1950288300.0 -0.8429018099 0.5317881105
2000288000.0 -0.8354617827 0.5429255795
2050287700.0 -0.8271147646 0.5555895344
2100287400.0 -0.8194854578 0.5668790795
2150287100.0 -0.8108613897 0.5789567606
2200286800.0 -0.8030167362 0.589359428
2250286500.0 -0.7942885983 0.6015438038
2300286200.0 -0.785330443 0.6128892238
2350285900.0 -0.7763721521 0.6240861507
2400285600.0 -0.7674892765 0.6349225508
2450285300.0 -0.7592478541 0.6454438121
2500285000.0 -0.7493784956 0.6567367171
2550284700.0 -0.7402626761 0.6670949707
2600284400.0 -0.7311548588 0.6769416306
2650284100.0 -0.7220102402 0.6876972784
2700283800.0 -0.7116053125 0.6980704604
2750283500.0 -0.7013624456 0.7088136574
2800283200.0 -0.6914564355 0.718432565
2850282900.0 -0.681084148 0.7284223973
2900282600.0 -0.6708921033 0.7379350689
2950282300.0 -0.6605219233 0.7472008626
3000282000.0 -0.6498026186 0.7566127586
3050281700.0 -0.6384963192 0.7659543766
3100281400.0 -0.626847786 0.7752985454
3150281100.0 -0.6151201068 0.7846744227
3200280800.0 -0.6034614034 0.7930340911
3250280500.0 -0.5927885306 0.8007955641
3300280200.0 -0.5812954551 0.8087163665
3350279900.0 -0.5697855245 0.8163231633
3400279600.0 -0.5576196019 0.8240185564
3450279300.0 -0.5464538034 0.8311900251
3500279000.0 -0.534405536 0.8382105085
3550278700.0 -0.5222534003 0.8453568909
3600278400.0 -0.5097986199 0.8527794642
3650278100.0 -0.4965310537 0.8602472985
3700277800.0 -0.4844979259 0.8668233543
3750277500.0 -0.472295356 0.8733416441
3800277200.0 -0.4597930026 0.8798355781
3850276900.0 -0.4476283468 0.8859131832
3900276600.0 -0.4369165888 0.891372692
3950276300.0 -0.4245092925 0.8975571652
4000276000.0 -0.4124935497 0.9035198435
4050275700.0 -0.3995001568 0.9095218493
4100275400.0 -0.3885227764 0.914984201
4150275100.0 -0.3756949809 0.9206400767
4200274800.0 -0.3629301984 0.9262858158
4250274500.0 -0.3504737494 0.9314768573
4300274200.0 -0.3375774931 0.9367272228
4350273900.0 -0.3236528707 0.9421094657
4400273600.0 -0.3090286221 0.9470034002
4450273300.0 -0.2935688406 0.9520305516
4500273000.0 -0.2799577541 0.9565456354
4550272700.0 -0.2659026251 0.9608558297
4600272400.0 -0.2505150699 0.9651058144
4650272100.0 -0.2388804203 0.9682199717
4700271800.0 -0.2255852006 0.9716026328
4750271500.0 -0.2139144047 0.9745129281
4800271200.0 -0.2014454034 0.9771923028
4850270900.0 -0.1873790224 0.9800090447
4900270600.0 -0.1734626651 0.982365041
4950270300.0 -0.1592846401 0.9847960491
5000270000.0 -0.1449202856 0.9870074677
5050269700.0 -0.1312901641 0.9884834163
5100269400.0 -0.1178383417 0.9904654375
5150269100.0 -0.1044583122 0.9923562799
5200268800.0 -0.0909826784 0.992809194
5250268500.0 -0.0779733585 0.9936763178
5300268200.0 -0.064713256 0.9946936129
5350267900.0 -0.0527300075 0.9952987896
5400267600.0 -0.0363263902 0.9963555267
5450267300.0 -0.0233469748 0.9965876117
5500267000.0 -0.0081237725 0.9970617102
5550266700.0 0.0068746089 0.9971664639
5600266400.0 0.0222680386 0.9972723561
5650266100.0 0.0389705714 0.9971124906
5700265800.0 0.0532626785 0.9958920751
5750265500.0 0.0682022591 0.9954504088
5800265200.0 0.0822752407 0.9944962348
5850264900.0 0.0955457574 0.9931927821
5900264600.0 0.1121773682 0.9917548235
5950264300.0 0.1242304356 0.9904200387
6000264000.0 0.1382092005 0.988298631
6050263700.0 0.1507374232 0.9872289381
6100263400.0 0.1628493189 0.9849074035
6150263100.0 0.1776517669 0.9826730868
6200262800.0 0.1878010152 0.9813609325
6250262500.0 0.2005705976 0.9786134581
6300262200.0 0.2132977171 0.9757686742
6350261900.0 0.2262427809 0.9728603113
6400261600.0 0.2401781647 0.969761882
6450261300.0 0.2514922442 0.9671250805
6500261000.0 0.2643031914 0.9634704011
6550260700.0 0.2773258296 0.9595132062
6600260400.0 0.2905825285 0.955323686
6650260100.0 0.3047105051 0.9510613624
6700259800.0 0.3166396112 0.946634396
6750259500.0 0.3303296604 0.9417887443
6800259200.0 0.3436334616 0.9366478887
6850258900.0 0.3558624752 0.931821094
6900258600.0 0.3678587195 0.926615137
6950258300.0 0.3805074586 0.921299797
7000258000.0 0.3923691253 0.9159097586
7050257700.0 0.4046988417 0.9099143615
7100257400.0 0.4173664838 0.9038459827
7150257100.0 0.4279118318 0.8982847723
7200256800.0 0.4406143519 0.8919961166
7250256500.0 0.4526909578 0.885477685
7300256200.0 0.4657597111 0.8788058538
7350255900.0 0.4781437422 0.8720731387
7400255600.0 0.4911747136 0.8645758084
7450255300.0 0.5071395972 0.8558999334
7500255000.0 0.5182960602 0.8484629201
7550254700.0 0.5321008026 0.8399881399
7600254400.0 0.5455305862 0.8316627453
7650254100.0 0.5565343287 0.8238980102
7700253800.0 0.5682441766 0.8160304954
7750253500.0 0.5798306794 0.8084312453
7800253200.0 0.5903084075 0.8005463156
7850252900.0 0.5999554945 0.7935291729
7900252600.0 0.6116946115 0.7848470572
7950252300.0 0.6204806004 0.7781535289
8000252000.0 0.6306450807 0.7706419288
8050251700.0 0.64105543 0.7625808336
8100251400.0 0.6514615915 0.7543353738
8150251100.0 0.6612566654 0.7457171513
8200250800.0 0.6704683124 0.7377294078
8250250500.0 0.6793238672 0.7298395174
8300250200.0 0.688972035 0.7211105053
8350249900.0 0.6979329899 0.712687515
8400249600.0 0.7059725989 0.7044027442
8450249300.0 0.7152080943 0.6951793988
8500249000.0 0.7239823283 0.686476143
8550248700.0 0.7323141158 0.6773569897
8600248400.0 0.7406217313 0.6678249765
8650248100.0 0.7483516508 0.6584349755
8700247800.0 0.7579041028 0.6471624885
8750247500.0 0.7662519349 0.6370971145
8800247200.0 0.7744408926 0.6267478288
8850246900.0 0.7833227461 0.6152391923
8900246600.0 0.7915253848 0.6038656349
8950246300.0 0.8012873181 0.5907191157
9000246000.0 0.8107265158 0.5781825913
9050245700.0 0.8194393367 0.565439431
9100245400.0 0.8278663939 0.5529389574
9150245100.0 0.83712879 0.5394873696
9200244800.0 0.8469651395 0.5244347916
9250244500.0 0.8563722885 0.5089781407
9300244200.0 0.8647414935 0.4946988056
9350243900.0 0.8723221114 0.4808342067
9400243600.0 0.879113941 0.4685030201
9450243300.0 0.8849027445 0.4569942445
9500243000.0 0.8912250502 0.4447770366
9550242700.0 0.8950798229 0.4372264284
9600242400.0 0.8989986101 0.4297953179
9650242100.0 0.9026462714 0.423286375
9700241800.0 0.9074525252 0.4151355009
9750241500.0 0.9114727035 0.4075594272
9800241200.0 0.916297164 0.3980049923
9850240900.0 0.9216895097 0.386554387
9900240600.0 0.9270990449 0.3752891068
9950240300.0 0.9340379756 0.3589021613
10000240000.0 0.9388238603 0.3470514509
10050239700.0 0.9446341637 0.3317114362
10100239400.0 0.9495539681 0.3162482239
10150239100.0 0.9538508468 0.3014869942
10200238800.0 0.9581187595 0.286401612
10250238500.0 0.9613537702 0.2732787663
10300238200.0 0.9645897904 0.2592437588
10350237900.0 0.967265638 0.2460275642
10400237600.0 0.9699142489 0.232416482
10450237300.0 0.9725402066 0.2190914537
10500237000.0 0.974500603 0.2071137062
10550236700.0 0.9771797978 0.1922264173
10600236400.0 0.9794166137 0.1791256164
10650236100.0 0.9811821353 0.1640417624
10700235800.0 0.9832012271 0.1523405926
10750235500.0 0.9854995509 0.1392479197
10800235200.0 0.9876299927 0.1246968265
10850234900.0 0.9896670422 0.1101753507
10900234600.0 0.9917463839 0.0954539493
10950234300.0 0.9934436075 0.0821355286
11000234000.0 0.9952141945 0.0669199503
11050233700.0 0.9970569111 0.0505818227
11100233400.0 0.9985930818 0.0331288111
11150233100.0 0.9995966644 0.0169408574
11200232800.0 1.00002023 0.0021770797
11250232500.0 1.001355508 -0.0151168578
11300232200.0 1.00187704 -0.032254134
11350231900.0 1.001612888 -0.048940877
11400231600.0 1.001376753 -0.0642897286
11450231300.0 1.000528526 -0.0794048711
11500231000.0 1.000234545 -0.095672904
11550230700.0 0.9983875258 -0.1088301584
11600230400.0 0.9974028865 -0.1217095724
11650230100.0 0.9951942131 -0.133024764
11700229800.0 0.9933834149 -0.1475343642
11750229500.0 0.9906261793 -0.1620095071
11800229200.0 0.9883726715 -0.1755690176
11850228900.0 0.9847342876 -0.187839623
11900228600.0 0.9810660088 -0.1978906857
11950228300.0 0.9779072777 -0.208400691
12000228000.0 0.9749684513 -0.2168746203
12050227700.0 0.9714167387 -0.2300278381
12100227400.0 0.9679634479 -0.2415786732
12150227100.0 0.9634144509 -0.2577076834
12200226800.0 0.9599789907 -0.2677559215
12250226500.0 0.9561267594 -0.2816123044
12300226200.0 0.9512063828 -0.2935623295
12350225900.0 0.9466406405 -0.3078924804
12400225600.0 0.9420297109 -0.3208426349
12450225300.0 0.9377385792 -0.3338435578
12500225000.0 0.9323787767 -0.3484748042
12550224700.0 0.9270139467 -0.3625289379
12600224400.0 0.9219263708 -0.3749337449
12650224100.0 0.9161972395 -0.3895661582
12700223800.0 0.9109462627 -0.4024346886
12750223500.0 0.9053859313 -0.415306198
12800223200.0 0.900241191 -0.4277670856
12850222900.0 0.8946737388 -0.4401803017
12900222600.0 0.8890896598 -0.4520727183
12950222300.0 0.8828549473 -0.4648374582
13000222000.0 0.876912608 -0.4763878033
13050221700.0 0.8701497928 -0.4892643887
13100221400.0 0.8634755292 -0.5008505563
13150221100.0 0.8565565146 -0.513128751
13200220800.0 0.8498906152 -0.5250571162
13250220500.0 0.8424859459 -0.5370800827
13300220200.0 0.8352039051 -0.5478266703
13350219900.0 0.8271480402 -0.5598290072
13400219600.0 0.8188312724 -0.5716089921
13450219300.0 0.8095166247 -0.5851649451
13500219000.0 0.7993812081 -0.5985196981
13550218700.0 0.7892167492 -0.6115500646
13600218400.0 0.7790565982 -0.6234709775
13650218100.0 0.7699057136 -0.6342541224
13700217800.0 0.7585888134 -0.6471722304
13750217500.0 0.7491900137 -0.658083712
13800217200.0 0.7374877754 -0.6696327875
13850216900.0 0.7269766823 -0.681058755
13900216600.0 0.7164987001 -0.6903029686
13950216300.0 0.7059742034 -0.7009973782
14000216000.0 0.6964430448 -0.7101433038
14050215700.0 0.6860497743 -0.7181900058
14100215400.0 0.6763124363 -0.7276603412
14150215100.0 0.6671175327 -0.736162565
14200214800.0 0.6576310419 -0.7447539925
14250214500.0 0.6474504874 -0.7540761784
14300214200.0 0.6371562042 -0.7634478744
14350213900.0 0.6260602054 -0.7731120948
14400213600.0 0.6142631285 -0.7830379405
14450213300.0 0.6011834587 -0.7930018139
14500213000.0 0.5878744898 -0.8032702565
14550212700.0 0.5755216559 -0.8130134189
14600212400.0 0.5625932162 -0.8213840306
14650212100.0 0.5501884497 -0.8298260821
14700211800.0 0.5362196902 -0.8396654559
14750211500.0 0.5239153015 -0.8475692611
14800211200.0 0.5118544362 -0.8554938652
14850210900.0 0.4998138715 -0.8632777196
14900210600.0 0.486431641 -0.8709614063
14950210300.0 0.4731847309 -0.8786809037
15000210000.0 0.4603092781 -0.8855319114
15050209700.0 0.4482160857 -0.8918064221
15100209400.0 0.4351425624 -0.8978312601
15150209100.0 0.4231339187 -0.9030360772
15200208800.0 0.4102279129 -0.9081900589
15250208500.0 0.3995117776 -0.912963919
15300208200.0 0.3868374439 -0.9175868702
15350207900.0 0.3736102338 -0.9221554255
15400207600.0 0.3594094784 -0.9278039636
15450207300.0 0.3443448608 -0.9326925477
15500207000.0 0.3299868325 -0.9373889504
15550206700.0 0.3147690774 -0.942318341
15600206400.0 0.2989401227 -0.9471773178
15650206100.0 0.283336757 -0.9514182807
15700205800.0 0.2691756408 -0.9549869999
15750205500.0 0.2549603688 -0.95841568
15800205200.0 0.2406161685 -0.9621253561
15850204900.0 0.2262503821 -0.965434315
15900204600.0 0.2111349936 -0.9691845233
15950204300.0 0.1969469243 -0.971898199
16000204000.0 0.1829471586 -0.974821415
16050203700.0 0.1677833352 -0.9778110472
16100203400.0 0.1536483513 -0.9801449313
16150203100.0 0.1387832682 -0.9824490672
16200202800.0 0.1247487231 -0.9842583644
16250202500.0 0.1098644153 -0.9859562932
16300202200.0 0.0947287122 -0.987958859
16350201900.0 0.0795514763 -0.9891855012
16400201600.0 0.0648208385 -0.9905228699
16450201300.0 0.049641922 -0.9913540282
16500201000.0 0.0329738564 -0.9920052163
16550200700.0 0.0174069583 -0.9926805456
16600200400.0 0.001815697 -0.9926446627
16650200100.0 -0.0142579808 -0.9928284758
16700199800.0 -0.0308035293 -0.9927294534
16750199500.0 -0.0495014452 -0.9917494148
16800199200.0 -0.0649742847 -0.9908012645
16850198900.0 -0.0801712365 -0.9892836731
16900198600.0 -0.0937583366 -0.9887868952
16950198300.0 -0.1079949508 -0.9882337328
17000198000.0 -0.1209761485 -0.9861695916
17050197700.0 -0.1334281714 -0.9848498602
17100197400.0 -0.1464630064 -0.9822078675
17150197100.0 -0.1590220352 -0.9803791384
17200196800.0 -0.1715644102 -0.9781942972
17250196500.0 -0.1842762639 -0.975643009
17300196200.0 -0.1964759207 -0.9734969276
17350195900.0 -0.2085971395 -0.9712728725
17400195600.0 -0.2206571355 -0.9688935395
17450195300.0 -0.2338910171 -0.9660180681
17500195000.0 -0.2473206787 -0.962652415
17550194700.0 -0.2610799136 -0.9591760712
17600194400.0 -0.2750380663 -0.955304127
17650194100.0 -0.2888649859 -0.9510216092
17700193800.0 -0.3019024462 -0.9468461782
17750193500.0 -0.3163584424 -0.9421741387
17800193200.0 -0.3307121519 -0.9369378587
17850192900.0 -0.3455651285 -0.9315443575
17900192600.0 -0.3607719927 -0.9257581747
17950192300.0 -0.376235584 -0.9187200195
18000192000.0 -0.3911490491 -0.9113953834
18050191700.0 -0.4051507436 -0.903474892
18100191400.0 -0.4193464033 -0.8956802851
18150191100.0 -0.4342981188 -0.8877262322
18200190800.0 -0.4512523498 -0.8786240661
18250190500.0 -0.4682670428 -0.8686640095
18300190200.0 -0.483563676 -0.8603132082
18350189900.0 -0.4987442345 -0.8518125242
18400189600.0 -0.513339663 -0.8434407597
18450189300.0 -0.5265540092 -0.8361252873
18500189000.0 -0.5396689354 -0.8280552255
18550188700.0 -0.5524548121 -0.8203423298
18600188400.0 -0.564279953 -0.8134501825
18650188100.0 -0.5757054561 -0.8069601544
18700187800.0 -0.5863274134 -0.8004591376
18750187500.0 -0.5967559854 -0.7939360347
18800187200.0 -0.6072906125 -0.7869844042
18850186900.0 -0.6175972294 -0.7800889561
18900186600.0 -0.6277144057 -0.7728321775
18950186300.0 -0.6380020543 -0.7650190475
19000186000.0 -0.6450613364 -0.7590410776
19050185700.0 -0.6543711165 -0.7519169909
19100185400.0 -0.6646587839 -0.7432902816
19150185100.0 -0.6746432081 -0.7348067013
19200184800.0 -0.6840420058 -0.7272093461
19250184500.0 -0.6937840115 -0.7172768608
19300184200.0 -0.7058309143 -0.7077699816
19350183900.0 -0.7158661734 -0.6984786472
19400183600.0 -0.7255823036 -0.6881030328
19450183300.0 -0.7347678026 -0.6786112861
19500183000.0 -0.7426940512 -0.668012483
19550182700.0 -0.7523630948 -0.6576274673
19600182400.0 -0.7628577656 -0.6459722589
19650182100.0 -0.7742078348 -0.6329770334
19700181800.0 -0.7844439703 -0.620254418
19750181500.0 -0.7950917396 -0.606018224
19800181200.0 -0.8055829203 -0.590922493
19850180900.0 -0.8153389237 -0.5755743545
19900180600.0 -0.8230221132 -0.5610721875
19950180300.0 -0.8324971289 -0.5447943899
20000180000.0 -0.8254950492 -0.5468055125
20050179700.0 -0.8332058635 -0.5346393021
20100179400.0 -0.8416579227 -0.5205164126
20150179100.0 -0.8504486159 -0.5082666384
20200178800.0 -0.8583651846 -0.4955524568
20250178500.0 -0.8687806623 -0.482638325
20300178200.0 -0.8780641192 -0.4675951311
20350177900.0 -0.88704301 -0.4531002962
20400177600.0 -0.8958845846 -0.4387989845
20450177300.0 -0.9044566037 -0.4240180164
20500177000.0 -0.9124530303 -0.4103253847
20550176700.0 -0.9203042148 -0.3970750914
20600176400.0 -0.9272627879 -0.3837134559
20650176100.0 -0.9341743434 -0.3717633559
20700175800.0 -0.9404792329 -0.3598832817
20750175500.0 -0.9473429354 -0.348864342
20800175200.0 -0.9522155201 -0.3377092556
20850174900.0 -0.9565837464 -0.3260414128
20900174600.0 -0.9614560359 -0.3147958312
20950174300.0 -0.9657392995 -0.3022561216
21000174000.0 -0.9686351624 -0.2916571171
21050173700.0 -0.9717591996 -0.2813527545
21100173400.0 -0.9749324327 -0.269712582
21150173100.0 -0.9789192899 -0.2572785326
21200172800.0 -0.9826827402 -0.2439169009
21250172500.0 -0.9858022273 -0.23013758
21300172200.0 -0.9883774741 -0.2161860436
21350171900.0 -0.9904092918 -0.2013137513
21400171600.0 -0.9923868717 -0.1875034737
21450171300.0 -0.9922874753 -0.1722281068
21500171000.0 -0.9920784713 -0.1572545888
21550170700.0 -0.9919666844 -0.1425426886
21600170400.0 -0.9930845444 -0.1265395965
21650170100.0 -0.9910699131 -0.1113725718
21700169800.0 -0.9894187493 -0.0953179804
21750169500.0 -0.9884522139 -0.0785970022
21800169200.0 -0.9883293984 -0.0634890945
21850168900.0 -0.9874576875 -0.0466223255
21900168600.0 -0.9860122832 -0.0296536885
21950168300.0 -0.9849187218 -0.0141740426
22000168000.0 -0.9846528501 0.0013269635
22050167700.0 -0.9840703121 0.0154165717
22100167400.0 -0.9841456523 0.03076544
22150167100.0 -0.9852757775 0.0460729139
22200166800.0 -0.9853923146 0.0623627901
22250166500.0 -0.9846786018 0.0796932316
22300166200.0 -0.9839476866 0.0958010744
22350165900.0 -0.9828905486 0.1125950523
22400165600.0 -0.9819449988 0.1285787006
22450165300.0 -0.9787623601 0.1435028352
22500165000.0 -0.9772929094 0.1568542677
22550164700.0 -0.9763658095 0.1718587575
22600164400.0 -0.9746407162 0.1877594456
22650164100.0 -0.9726387616 0.20262683
22700163800.0 -0.9694443275 0.2186308682
22750163500.0 -0.9671488257 0.2336221456
22800163200.0 -0.9645857152 0.2470542909
22850162900.0 -0.9620661921 0.2600262248
22900162600.0 -0.9606011308 0.2735010673
22950162300.0 -0.9591697582 0.2864616975
23000162000.0 -0.9579849757 0.2980288587
23050161700.0 -0.955963725 0.311384084
23100161400.0 -0.9535400437 0.3237697671
23150161100.0 -0.9498465012 0.3362634262
23200160800.0 -0.947489063 0.3490405314
23250160500.0 -0.9451731538 0.3606846808
23300160200.0 -0.9425687143 0.37282056
23350159900.0 -0.9385166758 0.3857068493
23400159600.0 -0.934284572 0.3992098297
23450159300.0 -0.9292304631 0.4132771415
23500159000.0 -0.9246577792 0.4257158272
23550158700.0 -0.9204746181 0.4389262077
23600158400.0 -0.9149674515 0.4525612846
23650158100.0 -0.9085846811 0.4665317585
23700157800.0 -0.9010214779 0.4805668409
23750157500.0 -0.8921142771 0.4947106725
23800157200.0 -0.8834710324 0.5078275444
23850156900.0 -0.8748156478 0.5210802189
23900156600.0 -0.8653830479 0.5332062327
23950156300.0 -0.8565011576 0.5456815749
24000156000.0 -0.8474646951 0.5576878298
24050155700.0 -0.8367495027 0.5693361419
24100155400.0 -0.8265326604 0.5812890468
24150155100.0 -0.8164414496 0.593244137
24200154800.0 -0.8055351156 0.6044658751
24250154500.0 -0.7941437891 0.6161381697
24300154200.0 -0.7830798233 0.6274273129
24350153900.0 -0.7708644203 0.6384842222
24400153600.0 -0.7587932274 0.6487841897
24450153300.0 -0.7472677173 0.6583772185
24500153000.0 -0.7354884795 0.6684470939
24550152700.0 -0.724144755 0.6780962784
24600152400.0 -0.7129254942 0.6874120392
24650152100.0 -0.7007320061 0.6950264461
