!Created with skrf (http://scikit-rf.org).
# Hz S RI R 50.0 
!freq ReS11 ImS11
300000.0 -0.9850773025 -0.0907533246
50299700.0 -1.000146211 0.0164757063
100299400.0 -0.9980299416 0.0293222928
150299100.0 -1.002794144 0.0461387277
200298800.0 -0.9996572323 0.0594256362
250298500.0 -0.9973471635 0.0730408929
300298200.0 -0.9859340765 0.0887048332
350297900.0 -0.9939549898 0.0998314945
400297600.0 -0.993108319 0.1164785928
450297300.0 -0.9906976479 0.1300748331
500297000.0 -0.9892049299 0.144798784
550296700.0 -0.9840465874 0.1574692434
600296400.0 -1.017123348 0.1907494401
650296100.0 -0.9817693009 0.1872348028
700295800.0 -0.9788552999 0.2015435647
750295500.0 -0.9760911558 0.2153991877
800295200.0 -0.9726378067 0.22963983
850294900.0 -0.9693127436 0.2435508809
900294600.0 -0.9652701593 0.2571617234
950294300.0 -0.9615551909 0.2709172111
1000294000.0 -0.9575102853 0.2850811317
1050293700.0 -0.9529765101 0.2988199978
1100293400.0 -0.9488458588 0.3131822819
1150293100.0 -0.9448262405 0.3249417732
1200292800.0 -0.9396719086 0.3392580482
1250292500.0 -0.9342959908 0.3527708836
1300292200.0 -0.9285635224 0.3657988266
1350291900.0 -0.9228522159 0.3799256856
1400291600.0 -0.9173856593 0.3929975239
1450291300.0 -0.911807172 0.4053002453
1500291000.0 -0.9056834644 0.4186443864
1550290700.0 -0.8991587072 0.4320218926
1600290400.0 -0.8928228039 0.4448387902
1650290100.0 -0.8862772653 0.4566680768
1700289800.0 -0.8796467339 0.4702541634
1750289500.0 -0.8723091125 0.4825506582
1800289200.0 -0.8650211589 0.4955482994
1850288900.0 -0.8582680181 0.5069554192
1900288600.0 -0.8504606337 0.519878526
1950288300.0 -0.8425425125 0.5325279257
2000288000.0 -0.8347962723 0.5438835398
2050287700.0 -0.8264375687 0.556003205
2100287400.0 -0.8185514244 0.5679069555
2150287100.0 -0.8099611791 0.5799482518
2200286800.0 -0.8022802511 0.5901731032
2250286500.0 -0.7934208571 0.6023642754
2300286200.0 -0.7845891939 0.6138439795
2350285900.0 -0.7756644577 0.6250970387
2400285600.0 -0.7663481855 0.6359956483
2450285300.0 -0.7577197242 0.6463705559
2500285000.0 -0.7482884596 0.6577555698
2550284700.0 -0.7392647615 0.6681594005
2600284400.0 -0.7294898216 0.6781757308
2650284100.0 -0.7207309083 0.6886551259
2700283800.0 -0.709951118 0.6993308269
2750283500.0 -0.6997081531 0.7097520727
2800283200.0 -0.6899604453 0.7196372691
2850282900.0 -0.6796922103 0.7293761167
2900282600.0 -0.6694178005 0.7389354374
2950282300.0 -0.6592588761 0.7480833086
3000282000.0 -0.6487119264 0.7574160655
3050281700.0 -0.6374849059 0.7667752919
3100281400.0 -0.6258291349 0.7761094184
3150281100.0 -0.6139975025 0.785385561
3200280800.0 -0.602326396 0.7938392731
3250280500.0 -0.5915520016 0.8015068585
3300280200.0 -0.5805589502 0.8093286195
3350279900.0 -0.569105794 0.8167466193
3400279600.0 -0.5569163389 0.8245505894
3450279300.0 -0.5458178267 0.8318827504
3500279000.0 -0.5337804155 0.8388307598
3550278700.0 -0.5213886405 0.8462105218
3600278400.0 -0.509165998 0.8532618615
3650278100.0 -0.4959000906 0.8609510258
3700277800.0 -0.4838273679 0.8675540437
3750277500.0 -0.4716844347 0.873770877
3800277200.0 -0.4589620047 0.8805550171
3850276900.0 -0.4466600291 0.8865964384
3900276600.0 -0.4359046686 0.8922351295
3950276300.0 -0.4229346513 0.8984366943
4000276000.0 -0.4108160648 0.9041115755
4050275700.0 -0.3978370405 0.9101335171
4100275400.0 -0.3866041152 0.9157119709
4150275100.0 -0.3736688234 0.9213068436
4200274800.0 -0.3606204087 0.9267171436
4250274500.0 -0.3482360476 0.9319697711
4300274200.0 -0.3354887228 0.9371400154
4350273900.0 -0.3217631728 0.9423325963
4400273600.0 -0.3069103384 0.947538965
4450273300.0 -0.2917052694 0.9523350259
4500273000.0 -0.2781834543 0.9566839021
4550272700.0 -0.2640461936 0.9611361373
4600272400.0 -0.248568751 0.9652407367
4650272100.0 -0.2366549388 0.9684005234
4700271800.0 -0.2233495966 0.9718577901
4750271500.0 -0.2114172115 0.9746512002
4800271200.0 -0.1989921761 0.9773006818
4850270900.0 -0.1850373587 0.9800861562
4900270600.0 -0.1713708152 0.982494504
4950270300.0 -0.1572901922 0.9852195489
5000270000.0 -0.1429006943 0.9869413291
5050269700.0 -0.1297465161 0.9889035799
5100269400.0 -0.1161750899 0.9904894497
5150269100.0 -0.1028067631 0.9923987154
5200268800.0 -0.0894482999 0.9929907744
5250268500.0 -0.0765501883 0.9938263758
5300268200.0 -0.0635085308 0.9949260045
5350267900.0 -0.0513195747 0.9956213703
5400267600.0 -0.0352275771 0.9962952113
5450267300.0 -0.0222070252 0.9967388922
5500267000.0 -0.0072827538 0.997228571
5550266700.0 0.0076628152 0.9971645285
5600266400.0 0.0229981553 0.9972178109
5650266100.0 0.0394960729 0.9966335656
5700265800.0 0.053921552 0.9957431542
5750265500.0 0.0691848873 0.9954084206
5800265200.0 0.0832362139 0.994277985
5850264900.0 0.0964660755 0.9930189254
5900264600.0 0.1128881993 0.9912249804
5950264300.0 0.1250325832 0.9896227911
6000264000.0 0.1392705955 0.9878175706
6050263700.0 0.1520127246 0.9861052058
6100263400.0 0.1645171889 0.9842515499
6150263100.0 0.1792445561 0.9819700553
6200262800.0 0.1898807024 0.9799594882
6250262500.0 0.2029697344 0.9773992857
6300262200.0 0.2156959233 0.9746992704
6350261900.0 0.2287628159 0.9715827442
6400261600.0 0.2424811565 0.9685671405
6450261300.0 0.2541369615 0.9657454889
6500261000.0 0.2669249282 0.9622873567
6550260700.0 0.2801299751 0.958273462
6600260400.0 0.2929359164 0.9540072282
6650260100.0 0.3069515331 0.9497576157
6700259800.0 0.3185375392 0.945528352
6750259500.0 0.332732889 0.9407069528
6800259200.0 0.3454323652 0.9356599179
6850258900.0 0.3574510491 0.9309252044
6900258600.0 0.3698632296 0.9260393997
6950258300.0 0.3822338065 0.9205578989
7000258000.0 0.3942321745 0.9152633267
7050257700.0 0.4065036484 0.9091644191
7100257400.0 0.4192783023 0.9031888705
7150257100.0 0.4296928611 0.8978850908
7200256800.0 0.4423617951 0.891624779
7250256500.0 0.4538151688 0.8852764295
7300256200.0 0.4668771253 0.878281288
7350255900.0 0.4792238482 0.8718406307
7400255600.0 0.492233715 0.8644437587
7450255300.0 0.5069467997 0.8558669555
7500255000.0 0.5188811405 0.8486401476
7550254700.0 0.5324129734 0.840312676
7600254400.0 0.5451677193 0.8317774956
7650254100.0 0.5566739985 0.8239040111
7700253800.0 0.5685838892 0.8159417528
7750253500.0 0.5798792528 0.8081096941
7800253200.0 0.5908652433 0.8002706567
7850252900.0 0.6004656827 0.7929888717
7900252600.0 0.6123361591 0.784159104
7950252300.0 0.6213673997 0.7773680386
8000252000.0 0.6314430589 0.7695333389
8050251700.0 0.6420294743 0.7611791035
8100251400.0 0.6519723187 0.7528593304
8150251100.0 0.6625195481 0.7441677287
8200250800.0 0.6716336734 0.7360501019
8250250500.0 0.6804077897 0.7280973722
8300250200.0 0.6901916682 0.7191593534
8350249900.0 0.6992645451 0.7106353639
8400249600.0 0.7076483888 0.7022821179
8450249300.0 0.7166539569 0.6930587442
8500249000.0 0.7255645248 0.6843005996
8550248700.0 0.7341237027 0.6752152509
8600248400.0 0.7422513597 0.6656593753
8650248100.0 0.7500981575 0.6563307114
8700247800.0 0.7595881394 0.6453350366
8750247500.0 0.7678409234 0.6352530603
8800247200.0 0.7760593381 0.6247982427
8850246900.0 0.7845370357 0.613830301
8900246600.0 0.7927295051 0.6025669358
8950246300.0 0.8024489668 0.5897486071
9000246000.0 0.8117993153 0.5771932062
9050245700.0 0.8204845689 0.5642612058
9100245400.0 0.829088464 0.5519324087
9150245100.0 0.8380642919 0.5387829552
9200244800.0 0.8476985449 0.523828014
9250244500.0 0.8567349742 0.5084422784
9300244200.0 0.8652005921 0.4942247111
9350243900.0 0.87298372 0.480123374
9400243600.0 0.8797253616 0.4673105484
9450243300.0 0.8858364653 0.4552228874
9500243000.0 0.8922966237 0.4426944347
9550242700.0 0.8963364745 0.4343481986
9600242400.0 0.9006245042 0.4263036983
9650242100.0 0.9041565773 0.4193295829
9700241800.0 0.9087465115 0.4106102067
9750241500.0 0.9126412233 0.4028226479
9800241200.0 0.9171789201 0.3937848522
9850240900.0 0.9227833802 0.3819227831
9900240600.0 0.9281482353 0.3705029366
9950240300.0 0.9347117871 0.3543608207
10000240000.0 0.9396434699 0.3428493402
10050239700.0 0.9446869362 0.3280302056
10100239400.0 0.9499124865 0.3123811898
10150239100.0 0.9540358242 0.2982406681
10200238800.0 0.9583367528 0.2833070231
10250238500.0 0.9617611953 0.2700459278
10300238200.0 0.9647769918 0.2560288319
10350237900.0 0.9674916989 0.2429869313
10400237600.0 0.9701775657 0.2297773361
10450237300.0 0.9728884116 0.2160762719
10500237000.0 0.975161661 0.2044181213
10550236700.0 0.9774811941 0.1903556515
10600236400.0 0.9793938088 0.1770662435
10650236100.0 0.9811683771 0.1626389896
10700235800.0 0.9834728467 0.1510548764
10750235500.0 0.9856343888 0.1377435378
10800235200.0 0.9880574138 0.1234745579
10850234900.0 0.989989421 0.1088389825
10900234600.0 0.9918026587 0.0945772206
10950234300.0 0.9934007416 0.0813350685
11000234000.0 0.9951744303 0.0663476591
11050233700.0 0.9968931613 0.0504708792
11100233400.0 0.9983324097 0.033244855
11150233100.0 0.9987270242 0.0166404574
11200232800.0 0.9997223043 0.0018118126
11250232500.0 1.000895145 -0.0141632885
11300232200.0 1.000804826 -0.0313704515
11350231900.0 1.001139504 -0.0485859553
11400231600.0 1.001342137 -0.0643913793
11450231300.0 1.000298887 -0.0795782405
11500231000.0 0.9989715666 -0.0951295732
11550230700.0 0.9976071702 -0.1093234413
11600230400.0 0.9957912204 -0.1227793405
11650230100.0 0.9938706917 -0.1338833233
11700229800.0 0.9920776559 -0.1489185271
11750229500.0 0.9898898262 -0.1633833526
11800229200.0 0.9869271996 -0.1777024783
11850228900.0 0.9835841771 -0.1902802687
11900228600.0 0.9798245105 -0.2005295697
11950228300.0 0.9767155784 -0.2113049071
12000228000.0 0.9741761214 -0.2201164057
12050227700.0 0.9701335104 -0.2336955329
12100227400.0 0.9668993503 -0.2441186212
12150227100.0 0.9620472448 -0.2609060941
12200226800.0 0.959107056 -0.2719720613
12250226500.0 0.9546861806 -0.2846239076
12300226200.0 0.9509018482 -0.2968058601
12350225900.0 0.9456305953 -0.3110578258
12400225600.0 0.941729307 -0.3221921763
12450225300.0 0.9376091338 -0.3352782545
12500225000.0 0.9318681649 -0.3493023692
12550224700.0 0.926610573 -0.3631276969
12600224400.0 0.9220967204 -0.3756132925
12650224100.0 0.9162885955 -0.3899313473
12700223800.0 0.9109956327 -0.4024674015
12750223500.0 0.9055567904 -0.4152886966
12800223200.0 0.9002405612 -0.4279127232
12850222900.0 0.8949340071 -0.4400700949
12900222600.0 0.888994358 -0.4520486379
12950222300.0 0.8827221433 -0.4650796208
13000222000.0 0.8766019606 -0.4765254309
13050221700.0 0.8695082963 -0.4896656524
13100221400.0 0.8630001572 -0.5011601299
13150221100.0 0.8560668159 -0.5140586793
13200220800.0 0.8489303577 -0.5255016799
13250220500.0 0.8412626137 -0.5378384271
13300220200.0 0.8337068001 -0.5487887209
13350219900.0 0.8257867128 -0.5610379197
13400219600.0 0.8173623875 -0.5732855738
13450219300.0 0.8077736576 -0.5868062703
13500219000.0 0.7972076796 -0.6006351282
13550218700.0 0.7872130689 -0.6133582857
13600218400.0 0.7768951191 -0.6257845484
13650218100.0 0.7672453392 -0.6368521945
13700217800.0 0.756054731 -0.6492203957
13750217500.0 0.7455730027 -0.660548997
13800217200.0 0.7354308556 -0.672327013
13850216900.0 0.7244728195 -0.6838141906
13900216600.0 0.7144499984 -0.6924630704
13950216300.0 0.7031349332 -0.702959886
14000216000.0 0.6936563946 -0.7122982089
14050215700.0 0.6842225553 -0.7200577249
14100215400.0 0.6742131298 -0.7298165821
14150215100.0 0.6650023046 -0.738256432
14200214800.0 0.6558392032 -0.7465851055
14250214500.0 0.6457082591 -0.755773885
14300214200.0 0.635298766 -0.7649056756
14350213900.0 0.6245970607 -0.7745111473
14400213600.0 0.6127890131 -0.783713967
14450213300.0 0.6000618925 -0.7936722571
14500213000.0 0.5872116581 -0.8032696389
14550212700.0 0.5747018455 -0.8129224196
14600212400.0 0.56269313 -0.8213475977
14650212100.0 0.5492094694 -0.8301821936
14700211800.0 0.5357328292 -0.8396922911
14750211500.0 0.523233344 -0.8475385145
14800211200.0 0.5112606493 -0.8557241853
14850210900.0 0.4987989251 -0.8632934121
14900210600.0 0.4853293129 -0.8712024267
14950210300.0 0.4718066761 -0.8789122866
15000210000.0 0.4588416061 -0.8859732263
15050209700.0 0.4460813516 -0.891893133
15100209400.0 0.4331880133 -0.8982212995
15150209100.0 0.4200316287 -0.9037133082
15200208800.0 0.4075260928 -0.9093017511
15250208500.0 0.3954495412 -0.9147428385
15300208200.0 0.3833533114 -0.9192269106
15350207900.0 0.3701711994 -0.9242368033
15400207600.0 0.3545857303 -0.9293111299
15450207300.0 0.3411083505 -0.933874739
15500207000.0 0.3261567872 -0.9387334185
15550206700.0 0.3108877225 -0.9444267893
15600206400.0 0.2951105056 -0.9486634266
15650206100.0 0.2797146801 -0.9521484667
15700205800.0 0.265813367 -0.9564197158
15750205500.0 0.2513687451 -0.959736674
15800205200.0 0.2367961119 -0.9632621367
15850204900.0 0.2227585694 -0.9664903625
15900204600.0 0.2079473712 -0.9698823613
15950204300.0 0.1941172449 -0.9729703716
16000204000.0 0.1802813802 -0.9756067803
16050203700.0 0.1652062297 -0.9784479502
16100203400.0 0.1516957928 -0.9803470833
16150203100.0 0.1373077311 -0.9824416585
16200202800.0 0.1228035406 -0.9849768607
16250202500.0 0.1088515465 -0.9859470012
16300202200.0 0.0934360266 -0.9876845847
16350201900.0 0.0789131065 -0.9892233261
16400201600.0 0.0644558427 -0.9902114155
16450201300.0 0.0493350969 -0.991352938
16500201000.0 0.0328427321 -0.9920807485
16550200700.0 0.0171047066 -0.9925840734
16600200400.0 0.0012386555 -0.9928279269
16650200100.0 -0.0154017193 -0.9927155266
16700199800.0 -0.0314797754 -0.9919519688
16750199500.0 -0.0502136256 -0.9910032098
16800199200.0 -0.0661579458 -0.9905808821
16850198900.0 -0.0814870683 -0.989649129
16900198600.0 -0.0955092837 -0.9882632161
16950198300.0 -0.1088372233 -0.986878639
17000198000.0 -0.1223447724 -0.9858623563
17050197700.0 -0.1357731488 -0.9835875707
17100197400.0 -0.1489003237 -0.9813930746
17150197100.0 -0.1615219667 -0.9793823733
17200196800.0 -0.1746162907 -0.9776002362
17250196500.0 -0.1877965135 -0.9750850306
17300196200.0 -0.199868011 -0.9728960049
17350195900.0 -0.2118968604 -0.9703269741
17400195600.0 -0.224120143 -0.9679606499
17450195300.0 -0.2373621588 -0.9650969597
17500195000.0 -0.2507352724 -0.9617359838
17550194700.0 -0.2646075303 -0.9579447155
17600194400.0 -0.2781836485 -0.954262439
17650194100.0 -0.292003968 -0.9499374856
17700193800.0 -0.3051058196 -0.9456816766
17750193500.0 -0.3193628677 -0.9413539679
17800193200.0 -0.3332199276 -0.9363669554
17850192900.0 -0.348051637 -0.9306963265
17900192600.0 -0.3631471856 -0.9248072964
17950192300.0 -0.3782674282 -0.9177943143
18000192000.0 -0.3928399021 -0.9105933473
18050191700.0 -0.4066617419 -0.9028843013
18100191400.0 -0.4206257846 -0.8953574204
18150191100.0 -0.435454631 -0.8875363466
18200190800.0 -0.4519518311 -0.8786577863
18250190500.0 -0.4687197039 -0.8692377883
18300190200.0 -0.4838502388 -0.8605786221
18350189900.0 -0.498925243 -0.8522370869
18400189600.0 -0.5133289295 -0.8437061199
18450189300.0 -0.5267063887 -0.8356047923
18500189000.0 -0.5397670145 -0.8275904986
18550188700.0 -0.5530065823 -0.8196269503
18600188400.0 -0.5644816221 -0.8128452217
18650188100.0 -0.5763478279 -0.8058664349
18700187800.0 -0.5873338548 -0.799130363
18750187500.0 -0.5983921865 -0.7921393112
18800187200.0 -0.6092045139 -0.7845952989
18850186900.0 -0.6199793851 -0.7773364437
18900186600.0 -0.630356045 -0.7694320873
18950186300.0 -0.6406765035 -0.7617057058
19000186000.0 -0.648531127 -0.7550055998
19050185700.0 -0.6582437372 -0.7477060184
19100185400.0 -0.6683172587 -0.738921402
19150185100.0 -0.6784118486 -0.7306660886
19200184800.0 -0.6876637292 -0.7213511821
19250184500.0 -0.6984465931 -0.7118873188
19300184200.0 -0.7101660986 -0.7025154005
19350183900.0 -0.7208061695 -0.6930488071
19400183600.0 -0.7301651895 -0.6826725449
19450183300.0 -0.7385628642 -0.6734906538
19500183000.0 -0.7470719469 -0.6633882565
19550182700.0 -0.7568220419 -0.6524244722
19600182400.0 -0.7664193645 -0.6409517825
19650182100.0 -0.7767272936 -0.6291756314
19700181800.0 -0.7869330301 -0.6162032398
19750181500.0 -0.7972854277 -0.6024508324
19800181200.0 -0.807233133 -0.5879624838
19850180900.0 -0.8167434683 -0.5731332563
19900180600.0 -0.8242376331 -0.559005045
19950180300.0 -0.8332113402 -0.543115847
20000180000.0 -0.8277185536 -0.5434174007
20050179700.0 -0.83576296 -0.5310915745
20100179400.0 -0.8444952224 -0.517635041
20150179100.0 -0.851895616 -0.5053969628
20200178800.0 -0.860499424 -0.4920837516
20250178500.0 -0.8698603225 -0.4793215109
20300178200.0 -0.8790155675 -0.4652067684
20350177900.0 -0.8876348393 -0.450780754
20400177600.0 -0.8965023513 -0.4360982519
20450177300.0 -0.9044988779 -0.4216238695
20500177000.0 -0.9120845918 -0.4077726424
20550176700.0 -0.9200380454 -0.3941203811
20600176400.0 -0.9271883453 -0.3810116727
20650176100.0 -0.9339801251 -0.3683501015
20700175800.0 -0.9395316206 -0.3560685918
20750175500.0 -0.9467625376 -0.3445922986
20800175200.0 -0.9512959632 -0.3325735421
20850174900.0 -0.9563673939 -0.3209850311
20900174600.0 -0.9606624788 -0.3100330919
20950174300.0 -0.9654479884 -0.2982902174
21000174000.0 -0.9695266842 -0.2856402842
21050173700.0 -0.9720740653 -0.2743668126
21100173400.0 -0.9768309645 -0.2622224645
21150173100.0 -0.9809510247 -0.249220268
21200172800.0 -0.9839450612 -0.2355223363
21250172500.0 -0.9873798307 -0.2214095452
21300172200.0 -0.9896450148 -0.2073608129
21350171900.0 -0.9912015477 -0.1929470789
21400171600.0 -0.9927819011 -0.1787794649
21450171300.0 -0.9932960167 -0.1637660236
21500171000.0 -0.9931613697 -0.1497031642
21550170700.0 -0.9923086894 -0.1340462853
21600170400.0 -0.9937887545 -0.1185537108
21650170100.0 -0.9930481115 -0.1022493097
21700169800.0 -0.9906416951 -0.0876240141
21750169500.0 -0.988981656 -0.0718440869
21800169200.0 -0.9882489491 -0.05636457
21850168900.0 -0.9878989612 -0.0402709571
21900168600.0 -0.986525167 -0.0239529542
21950168300.0 -0.9845668247 -0.0080602591
22000168000.0 -0.9839945431 0.0058215287
22050167700.0 -0.9832031373 0.0202349256
22100167400.0 -0.9829429638 0.0352455294
22150167100.0 -0.9831457601 0.0501276166
22200166800.0 -0.9834970965 0.0664675111
22250166500.0 -0.9826553951 0.0832300813
22300166200.0 -0.9824251389 0.0998590664
22350165900.0 -0.9809731235 0.1161396896
22400165600.0 -0.9790884489 0.1319690291
22450165300.0 -0.9769890574 0.1462837917
22500165000.0 -0.9746074054 0.1606967799
22550164700.0 -0.9741032372 0.1758904652
22600164400.0 -0.9719551638 0.1913184087
22650164100.0 -0.9705282527 0.2060096077
22700163800.0 -0.9673231482 0.2217805742
22750163500.0 -0.964135618 0.2367868517
22800163200.0 -0.9619506668 0.2503793488
22850162900.0 -0.9594072232 0.2637248985
22900162600.0 -0.9577818841 0.2771878218
22950162300.0 -0.9569132505 0.2901163115
23000162000.0 -0.9555267643 0.3018216636
23050161700.0 -0.9533245958 0.3144714343
23100161400.0 -0.9507517102 0.3276388517
23150161100.0 -0.9482267849 0.3391523607
23200160800.0 -0.9449402547 0.3516124005
23250160500.0 -0.9419552102 0.3633938737
23300160200.0 -0.9397112358 0.3758502704
23350159900.0 -0.9357579563 0.388369025
23400159600.0 -0.9313558441 0.4006938529
23450159300.0 -0.9266491987 0.4143813244
23500159000.0 -0.9216847396 0.4270248234
23550158700.0 -0.9175218508 0.4397097551
23600158400.0 -0.9120522387 0.4528720739
23650158100.0 -0.9059889139 0.4664402042
23700157800.0 -0.8983171099 0.4798955415
23750157500.0 -0.8902540768 0.4940526824
23800157200.0 -0.8813945746 0.5064841363
23850156900.0 -0.8729721929 0.5197375285
23900156600.0 -0.8636362311 0.5313142763
23950156300.0 -0.8547769481 0.5444032154
24000156000.0 -0.8452105361 0.5559967718
24050155700.0 -0.8349757446 0.5683157539
24100155400.0 -0.8259790495 0.5803058976
24150155100.0 -0.8154230496 0.5922953851
24200154800.0 -0.8040747625 0.6035927275
24250154500.0 -0.7930663681 0.6149011473
24300154200.0 -0.7815824319 0.6264786193
24350153900.0 -0.7704391192 0.6371076935
24400153600.0 -0.7581422391 0.6476666464
24450153300.0 -0.7461267729 0.6578347176
24500153000.0 -0.7352467977 0.6673413156
24550152700.0 -0.7239230128 0.6779563459
24600152400.0 -0.7119416926 0.687219657
