!Created with skrf (http://scikit-rf.org).
# Hz S RI R 50.0 
!freq ReS11 ImS11
300000.0 -0.9817419252 -0.0981726748
50299700.0 -1.000020336 0.0163116198
100299400.0 -0.9979617028 0.0292586309
150299100.0 -1.002733652 0.0462431957
200298800.0 -0.9995467355 0.0594876779
250298500.0 -0.9974583893 0.0729199175
300298200.0 -0.9859929146 0.088653218
350297900.0 -0.9940314713 0.0996123529
400297600.0 -0.9930696455 0.116112503
450297300.0 -0.9909706946 0.130109464
500297000.0 -0.9893172266 0.1447849191
550296700.0 -0.9843983994 0.1571251841
600296400.0 -1.017225998 0.1904996046
650296100.0 -0.9819092438 0.1871786958
700295800.0 -0.9790579856 0.2015950933
750295500.0 -0.9759419699 0.2153799977
800295200.0 -0.9724599168 0.2295944218
850294900.0 -0.9692691651 0.2434632416
900294600.0 -0.9654351519 0.2573602494
950294300.0 -0.9617874979 0.2708567281
1000294000.0 -0.9577096817 0.2848225064
1050293700.0 -0.9530662416 0.2987988876
1100293400.0 -0.9487871515 0.3130901284
1150293100.0 -0.9449212079 0.3250762675
1200292800.0 -0.9397273076 0.3393020487
1250292500.0 -0.9341948983 0.3528099733
1300292200.0 -0.9285299608 0.3658679008
1350291900.0 -0.9230174438 0.379920616
1400291600.0 -0.9175422528 0.3928674653
1450291300.0 -0.9119682058 0.40515342
1500291000.0 -0.9058569759 0.4185890258
1550290700.0 -0.8992338809 0.4317687884
1600290400.0 -0.8930361713 0.4448494728
1650290100.0 -0.8863189874 0.4569945871
1700289800.0 -0.879522339 0.4703266839
1750289500.0 -0.8724386646 0.4824707628
1800289200.0 -0.86525102 0.4955626755
1850288900.0 -0.858310002 0.5068158899
1900288600.0 -0.8504431661 0.5200826438
1950288300.0 -0.8423568435 0.5324443917
2000288000.0 -0.8350194125 0.5438959105
2050287700.0 -0.8265043399 0.5559175346
2100287400.0 -0.8185532358 0.5678202007
2150287100.0 -0.8101041912 0.5799333382
2200286800.0 -0.8023090071 0.590305196
2250286500.0 -0.793445612 0.6025346916
2300286200.0 -0.7846476593 0.6140790711
2350285900.0 -0.7756863608 0.6249380109
2400285600.0 -0.7666063437 0.6361102191
2450285300.0 -0.7581076772 0.6465216521
2500285000.0 -0.7481813938 0.6575529447
2550284700.0 -0.7391239346 0.6678358169
2600284400.0 -0.7299073652 0.6781455494
2650284100.0 -0.7208736109 0.6887272125
2700283800.0 -0.7103979567 0.6993656108
2750283500.0 -0.6999648536 0.7098280822
2800283200.0 -0.6900898605 0.719525754
2850282900.0 -0.6799916505 0.7292288159
2900282600.0 -0.6694705283 0.7387891879
2950282300.0 -0.6592409284 0.7480560041
3000282000.0 -0.648770986 0.7574154641
3050281700.0 -0.6375712988 0.7667387578
3100281400.0 -0.6257210777 0.7762443691
3150281100.0 -0.6139447666 0.785366917
3200280800.0 -0.6022800444 0.7938763298
3250280500.0 -0.5916935955 0.8017518787
3300280200.0 -0.5803163314 0.8093579729
3350279900.0 -0.5690287958 0.8170740453
3400279600.0 -0.5568994842 0.8246899771
3450279300.0 -0.5459229219 0.8318359733
3500279000.0 -0.5336254366 0.838982647
3550278700.0 -0.5213536577 0.8460566428
3600278400.0 -0.5091173636 0.8531299141
3650278100.0 -0.4956515137 0.8611368862
3700277800.0 -0.4837661586 0.8675367856
3750277500.0 -0.4714518506 0.8740444115
3800277200.0 -0.4588849155 0.880535181
3850276900.0 -0.4468141568 0.8863415616
3900276600.0 -0.4359058062 0.8919948096
3950276300.0 -0.423235658 0.8982282391
4000276000.0 -0.4112967374 0.9041755712
4050275700.0 -0.3979895014 0.9101915512
4100275400.0 -0.3868765849 0.915528729
4150275100.0 -0.3740540301 0.921210266
4200274800.0 -0.3612688186 0.9266607374
4250274500.0 -0.3487724079 0.9317713457
4300274200.0 -0.335817775 0.9373210651
4350273900.0 -0.3219352198 0.9421325727
4400273600.0 -0.3073997058 0.9473536707
4450273300.0 -0.2920096115 0.952748199
4500273000.0 -0.2782760389 0.9571635969
4550272700.0 -0.2639847556 0.9610591976
4600272400.0 -0.2486218613 0.9653744852
4650272100.0 -0.236809087 0.9685143088
4700271800.0 -0.2233647013 0.971817267
4750271500.0 -0.21173201 0.9749107619
4800271200.0 -0.199210544 0.9774717415
4850270900.0 -0.1852580289 0.980349824
4900270600.0 -0.1715513497 0.982742224
4950270300.0 -0.1574071493 0.985058672
5000270000.0 -0.143377519 0.9874246208
5050269700.0 -0.1296269664 0.9888805633
5100269400.0 -0.1162297339 0.9904995084
5150269100.0 -0.1030433093 0.9919260152
5200268800.0 -0.0897761146 0.9933291212
5250268500.0 -0.0765215133 0.9940202004
5300268200.0 -0.063779145 0.9945164608
5350267900.0 -0.051289851 0.9952921509
5400267600.0 -0.0352207515 0.9965266426
5450267300.0 -0.0221977299 0.9966797604
5500267000.0 -0.0073614037 0.996981298
5550266700.0 0.0076455092 0.9973382755
5600266400.0 0.0233520198 0.9972998043
5650266100.0 0.0398761065 0.9971457103
5700265800.0 0.0543024332 0.9959933148
5750265500.0 0.0695609124 0.9950557723
5800265200.0 0.0834323561 0.9939208568
5850264900.0 0.0969582578 0.9931691102
5900264600.0 0.113032723 0.9912736443
5950264300.0 0.125452427 0.989803066
6000264000.0 0.1399887512 0.9878830263
6050263700.0 0.1519141247 0.9863208509
6100263400.0 0.1645051516 0.9843707231
6150263100.0 0.1795562541 0.9822084731
6200262800.0 0.1900779533 0.9803437752
6250262500.0 0.2026653253 0.9778676833
6300262200.0 0.2155886405 0.974943694
6350261900.0 0.2286597057 0.9720194282
6400261600.0 0.2425321129 0.9686273981
6450261300.0 0.2538408675 0.9660736697
6500261000.0 0.2667613092 0.9624262018
6550260700.0 0.279732753 0.9582762859
6600260400.0 0.2933595127 0.9544620766
6650260100.0 0.3067248622 0.9499826192
6700259800.0 0.318409393 0.9457018344
6750259500.0 0.3331251854 0.9410802162
6800259200.0 0.3456065034 0.9358141857
6850258900.0 0.3577408173 0.9310324261
6900258600.0 0.3698743729 0.9260651306
6950258300.0 0.3822724353 0.920611448
7000258000.0 0.3941646688 0.9153278695
7050257700.0 0.406502271 0.9092141667
7100257400.0 0.4192585207 0.90302187
7150257100.0 0.4293562163 0.8977177153
7200256800.0 0.4423354779 0.8916001345
7250256500.0 0.4537497584 0.8850451019
7300256200.0 0.4670090222 0.8783803897
7350255900.0 0.4790117083 0.8715924663
7400255600.0 0.4920286479 0.8642347986
7450255300.0 0.5071879093 0.8552639098
7500255000.0 0.5190549148 0.8481511989
7550254700.0 0.5328983729 0.8397636863
7600254400.0 0.5456828422 0.8315067705
7650254100.0 0.5570093893 0.8237423991
7700253800.0 0.5689315351 0.8154253147
7750253500.0 0.5804392151 0.8076695043
7800253200.0 0.5907593859 0.8001845296
7850252900.0 0.6006504402 0.7928850172
7900252600.0 0.612590837 0.7840150811
7950252300.0 0.6215164572 0.7773669742
8000252000.0 0.6316551664 0.769360388
8050251700.0 0.6421643781 0.7611486776
8100251400.0 0.6521473222 0.7530018242
8150251100.0 0.6626585303 0.7441556635
8200250800.0 0.6718844875 0.7362161869
8250250500.0 0.6809971412 0.728104099
8300250200.0 0.6900558519 0.7196162496
8350249900.0 0.6992828163 0.7110219326
8400249600.0 0.7075091632 0.7027712464
8450249300.0 0.716682952 0.69361245
8500249000.0 0.7252028307 0.6846210768
8550248700.0 0.7335696414 0.6755482844
8600248400.0 0.7421588617 0.6660226947
8650248100.0 0.7498359552 0.6566780694
8700247800.0 0.7593719063 0.6456192273
8750247500.0 0.7674549702 0.635675696
8800247200.0 0.7755512203 0.6252745013
8850246900.0 0.7842047268 0.614060862
8900246600.0 0.7926664805 0.602605177
8950246300.0 0.8022668419 0.589827975
9000246000.0 0.811449203 0.5772245601
9050245700.0 0.8205068825 0.5641165997
9100245400.0 0.8292377441 0.5517649864
9150245100.0 0.8384335245 0.5382171364
9200244800.0 0.8481911505 0.5232135871
9250244500.0 0.8574020125 0.5077505185
9300244200.0 0.8656775016 0.4930291443
9350243900.0 0.8733367581 0.4791299093
9400243600.0 0.8802882381 0.4666690718
9450243300.0 0.8862881927 0.4546708728
9500243000.0 0.8924905413 0.4422417345
9550242700.0 0.896387295 0.4342573089
9600242400.0 0.9002465729 0.4265096975
9650242100.0 0.9039391839 0.4198715068
9700241800.0 0.9087851563 0.4111111814
9750241500.0 0.9127587642 0.4034589017
9800241200.0 0.9169019858 0.3946498588
9850240900.0 0.9227546504 0.3829042888
9900240600.0 0.928374966 0.3712070702
9950240300.0 0.9347286221 0.3549404411
10000240000.0 0.9396380497 0.3430128769
10050239700.0 0.9451010788 0.3279548246
10100239400.0 0.9500706554 0.31310775
10150239100.0 0.9544399857 0.2984931721
10200238800.0 0.9583919613 0.2834832726
10250238500.0 0.9620036411 0.2700788311
10300238200.0 0.9649482278 0.2562796278
10350237900.0 0.967805392 0.2430487249
10400237600.0 0.970043138 0.2300952005
10450237300.0 0.9727140777 0.2166687721
10500237000.0 0.9753257546 0.2040792021
10550236700.0 0.9778012993 0.1905189416
10600236400.0 0.9797526632 0.1770245884
10650236100.0 0.9814485351 0.1624599361
10700235800.0 0.9833646797 0.1509990709
10750235500.0 0.9860908009 0.1374008118
10800235200.0 0.9877266959 0.1237639766
10850234900.0 0.9897428741 0.1085590722
10900234600.0 0.9919476869 0.0942844655
10950234300.0 0.9934886451 0.0810147121
11000234000.0 0.9951212551 0.0660961
11050233700.0 0.9968529559 0.050066635
11100233400.0 0.998251115 0.0322629943
11150233100.0 0.9993254197 0.016417149
11200232800.0 1.000024176 0.0011075031
11250232500.0 1.000913251 -0.0155195524
11300232200.0 1.001303514 -0.032608499
11350231900.0 1.001416397 -0.0489012749
11400231600.0 1.000909088 -0.0649104599
11450231300.0 0.9997094598 -0.0794249638
11500231000.0 0.9993719273 -0.0962728892
11550230700.0 0.9972563059 -0.1105247522
11600230400.0 0.9966942336 -0.1229044375
11650230100.0 0.9940452883 -0.1340274091
11700229800.0 0.9920080911 -0.1493743597
11750229500.0 0.9897277386 -0.1637246504
11800229200.0 0.9870977331 -0.1778593705
11850228900.0 0.9833205228 -0.1906346252
11900228600.0 0.9801662333 -0.200307135
11950228300.0 0.9770719058 -0.2104295331
12000228000.0 0.9742226477 -0.2202171246
12050227700.0 0.9709330101 -0.2327963032
12100227400.0 0.9670859116 -0.2440825123
12150227100.0 0.9622604608 -0.2603610332
12200226800.0 0.959632684 -0.2707699388
12250226500.0 0.9550392391 -0.2845747549
12300226200.0 0.9510072965 -0.2957971231
12350225900.0 0.9462491222 -0.3100748388
12400225600.0 0.941583188 -0.3226804508
12450225300.0 0.937321426 -0.3351764708
12500225000.0 0.9318184567 -0.3501021077
12550224700.0 0.926736047 -0.3632995427
12600224400.0 0.9218152216 -0.3760783601
12650224100.0 0.9160060122 -0.3902263419
12700223800.0 0.9109324658 -0.4027260915
12750223500.0 0.9052264079 -0.415972391
12800223200.0 0.9000230899 -0.4281261536
12850222900.0 0.8943566429 -0.4402963414
12900222600.0 0.8892205234 -0.4523701634
12950222300.0 0.8821213331 -0.4658707402
13000222000.0 0.8764928069 -0.4763537691
13050221700.0 0.8698553769 -0.4891813427
13100221400.0 0.8631092306 -0.5012947394
13150221100.0 0.8560125321 -0.514087356
13200220800.0 0.8488175495 -0.526016267
13250220500.0 0.8415141686 -0.5377371398
13300220200.0 0.8340497642 -0.5488386009
13350219900.0 0.8257567062 -0.5611515026
13400219600.0 0.8173713832 -0.5733539261
13450219300.0 0.8080395555 -0.5869056935
13500219000.0 0.7972573317 -0.6010659067
13550218700.0 0.7867212857 -0.6138631575
13600218400.0 0.7767121891 -0.6259835142
13650218100.0 0.7673995545 -0.6374517227
13700217800.0 0.7565915794 -0.6497577807
13750217500.0 0.7464809078 -0.6608922678
13800217200.0 0.7360551367 -0.6721844572
13850216900.0 0.7235073774 -0.6839047591
13900216600.0 0.7140048265 -0.6932411344
13950216300.0 0.7031522666 -0.7036025081
14000216000.0 0.6932422896 -0.7129647399
14050215700.0 0.6834247868 -0.720213729
14100215400.0 0.6738188799 -0.7298608103
14150215100.0 0.6649088856 -0.7380761637
14200214800.0 0.6556086963 -0.7467303824
14250214500.0 0.6454257999 -0.7558558567
14300214200.0 0.635205569 -0.7649993838
14350213900.0 0.6243969097 -0.7742471445
14400213600.0 0.6124208317 -0.7840543146
14450213300.0 0.5998946176 -0.7943866717
14500213000.0 0.586908439 -0.8038557174
14550212700.0 0.5742071347 -0.8131521591
14600212400.0 0.5618064002 -0.8215306705
14650212100.0 0.5486652521 -0.8305150325
14700211800.0 0.5345596461 -0.8400103141
14750211500.0 0.5227614861 -0.8481170457
14800211200.0 0.5103752778 -0.85627047
14850210900.0 0.4984640809 -0.8637211586
14900210600.0 0.4848884817 -0.8715792216
14950210300.0 0.4711763963 -0.8792428649
15000210000.0 0.4583189675 -0.8860191695
15050209700.0 0.4457450013 -0.8922891286
15100209400.0 0.4332380196 -0.8985549657
15150209100.0 0.4204681104 -0.903712338
15200208800.0 0.4071279763 -0.9093458702
15250208500.0 0.3961030659 -0.914350827
15300208200.0 0.3834626602 -0.9181819944
15350207900.0 0.3698682055 -0.9235075458
15400207600.0 0.3546524604 -0.9290667961
15450207300.0 0.3406080497 -0.9339849709
15500207000.0 0.3262440839 -0.9389714686
15550206700.0 0.3108736349 -0.9443015869
15600206400.0 0.2951562402 -0.9481360118
15650206100.0 0.2795730426 -0.952495831
15700205800.0 0.2657231795 -0.9560170437
15750205500.0 0.2513831467 -0.9593613661
15800205200.0 0.2368076211 -0.963022329
15850204900.0 0.2225055731 -0.9663497926
15900204600.0 0.2074722273 -0.9699838895
15950204300.0 0.1936310015 -0.9725607911
16000204000.0 0.1797385092 -0.975405259
16050203700.0 0.1654380634 -0.9782376554
16100203400.0 0.1510897219 -0.9803714092
16150203100.0 0.1369028667 -0.9827161386
16200202800.0 0.1225601289 -0.9848714163
16250202500.0 0.1081847733 -0.9866147534
16300202200.0 0.0928170935 -0.9876490043
16350201900.0 0.0780497498 -0.9894724516
16400201600.0 0.0638169704 -0.9902404955
16450201300.0 0.0487983546 -0.9911682824
16500201000.0 0.0320913387 -0.9920650264
16550200700.0 0.0165030455 -0.9925974008
16600200400.0 0.000450188 -0.9928916453
16650200100.0 -0.0159153215 -0.9925500992
16700199800.0 -0.0322446895 -0.9919986957
16750199500.0 -0.0511323784 -0.9914964133
16800199200.0 -0.0671035441 -0.9904745034
16850198900.0 -0.0823578587 -0.9889950026
16900198600.0 -0.0961687461 -0.9882738382
16950198300.0 -0.1097926101 -0.9875068363
17000198000.0 -0.1230686061 -0.9857214366
17050197700.0 -0.1352835182 -0.9836479861
17100197400.0 -0.1491431535 -0.981290288
17150197100.0 -0.1615791598 -0.979098598
17200196800.0 -0.1749816329 -0.9774653943
17250196500.0 -0.1874792755 -0.9751807799
17300196200.0 -0.1996008878 -0.9728557954
17350195900.0 -0.2117642974 -0.9705100531
17400195600.0 -0.2240314032 -0.9678131689
17450195300.0 -0.2369847965 -0.9650658138
17500195000.0 -0.2504974633 -0.9618152415
17550194700.0 -0.2641365413 -0.9581040177
17600194400.0 -0.2784135346 -0.9540851835
17650194100.0 -0.2919264182 -0.9496685318
17700193800.0 -0.3047394424 -0.9457970037
17750193500.0 -0.3193645085 -0.9413779463
17800193200.0 -0.3331857686 -0.9364068259
17850192900.0 -0.3484202445 -0.9307044764
17900192600.0 -0.3632074796 -0.9245767886
17950192300.0 -0.3787076676 -0.9177383974
18000192000.0 -0.3932344145 -0.9107335413
18050191700.0 -0.4070432089 -0.9027521016
18100191400.0 -0.4211808249 -0.8950649379
18150191100.0 -0.4358898233 -0.8869440037
18200190800.0 -0.4526721455 -0.8781038748
18250190500.0 -0.4695380257 -0.8685042104
18300190200.0 -0.4846242336 -0.8598856517
18350189900.0 -0.4995134589 -0.8514989329
18400189600.0 -0.514340253 -0.8434958616
18450189300.0 -0.5273956223 -0.8352319002
18500189000.0 -0.5410690549 -0.8268109803
18550188700.0 -0.5540992475 -0.8194682693
18600188400.0 -0.5655751079 -0.8120378983
18650188100.0 -0.5769151453 -0.8059587172
18700187800.0 -0.5874322228 -0.7988603942
18750187500.0 -0.5984393504 -0.7921798016
18800187200.0 -0.6093410312 -0.7845596235
18850186900.0 -0.6196849159 -0.7775430259
18900186600.0 -0.6302757247 -0.7699260711
18950186300.0 -0.6404458671 -0.762008153
19000186000.0 -0.6481077965 -0.7553601517
19050185700.0 -0.6575258823 -0.7476683426
19100185400.0 -0.6673609985 -0.739277817
19150185100.0 -0.6781595178 -0.7313817088
19200184800.0 -0.6871619878 -0.7220520021
19250184500.0 -0.6976197401 -0.7131907723
19300184200.0 -0.7084710241 -0.7037366636
19350183900.0 -0.7194080111 -0.6931717244
19400183600.0 -0.7297001293 -0.683717775
19450183300.0 -0.7380819269 -0.6742914431
19500183000.0 -0.7460534685 -0.6641466212
19550182700.0 -0.7558754564 -0.6529627364
19600182400.0 -0.7661620986 -0.6418017061
19650182100.0 -0.7766886703 -0.6294643515
19700181800.0 -0.7869471923 -0.6167816232
19750181500.0 -0.7974076722 -0.6028292557
19800181200.0 -0.8075162121 -0.5878808063
19850180900.0 -0.8169733349 -0.5728805553
19900180600.0 -0.8247296015 -0.5587251006
19950180300.0 -0.8336086319 -0.5426359063
20000180000.0 -0.8276733681 -0.5438147701
20050179700.0 -0.8362308405 -0.5313209017
20100179400.0 -0.8444378401 -0.517772231
20150179100.0 -0.852026514 -0.5056507305
20200178800.0 -0.8606724253 -0.4920508956
20250178500.0 -0.8699577567 -0.4789633951
20300178200.0 -0.8792365789 -0.4642073481
20350177900.0 -0.8883510073 -0.4506783262
20400177600.0 -0.897242288 -0.4356370663
20450177300.0 -0.9050170308 -0.4213658818
20500177000.0 -0.9128893594 -0.4073051746
20550176700.0 -0.9207592598 -0.3936068106
20600176400.0 -0.9278235163 -0.3807772159
20650176100.0 -0.9341854914 -0.3678245298
20700175800.0 -0.9406401987 -0.3553319123
20750175500.0 -0.9481430685 -0.3443186219
20800175200.0 -0.952521705 -0.3325542915
20850174900.0 -0.9576285803 -0.3216600575
20900174600.0 -0.9621338209 -0.3087058411
20950174300.0 -0.9661653288 -0.2976699545
21000174000.0 -0.969571846 -0.2857078053
21050173700.0 -0.9726045799 -0.274517778
21100173400.0 -0.9770044217 -0.2624399185
21150173100.0 -0.9816738458 -0.2500485583
21200172800.0 -0.9847930524 -0.2362705253
21250172500.0 -0.9879217924 -0.222478179
21300172200.0 -0.9904503644 -0.2083565178
21350171900.0 -0.9918168357 -0.1941786076
21400171600.0 -0.9931959061 -0.1796713388
21450171300.0 -0.9940956376 -0.1653759221
21500171000.0 -0.9925456061 -0.1499880592
21550170700.0 -0.9929528775 -0.1357735912
21600170400.0 -0.9931608658 -0.1183566237
21650170100.0 -0.9916489372 -0.1030161423
21700169800.0 -0.9908267303 -0.0881085594
21750169500.0 -0.9890941348 -0.0724069165
21800169200.0 -0.9882387087 -0.0564874994
21850168900.0 -0.9872492774 -0.0397509992
21900168600.0 -0.9862041941 -0.0243615376
21950168300.0 -0.9844394711 -0.0078501863
22000168000.0 -0.9830776157 0.0063489054
22050167700.0 -0.9826121433 0.0204660793
22100167400.0 -0.982521225 0.0353703545
22150167100.0 -0.9827598225 0.0510815141
22200166800.0 -0.9830934601 0.0669803866
22250166500.0 -0.9822119575 0.0843134836
22300166200.0 -0.9819020493 0.1015298622
22350165900.0 -0.9797988686 0.117581109
22400165600.0 -0.9790354739 0.1324283469
22450165300.0 -0.9767201382 0.1473349788
22500165000.0 -0.9750291431 0.1614789473
22550164700.0 -0.973258767 0.1771191796
22600164400.0 -0.9720424367 0.1917747513
22650164100.0 -0.9699529551 0.2068991859
22700163800.0 -0.9674189619 0.2228281056
22750163500.0 -0.9651396356 0.2388584844
22800163200.0 -0.9615579006 0.2510441599
22850162900.0 -0.9592180239 0.2647573896
22900162600.0 -0.9577672266 0.2786463617
22950162300.0 -0.956834499 0.2908980356
23000162000.0 -0.9554836306 0.3030198199
23050161700.0 -0.9536518724 0.3153581645
23100161400.0 -0.951248683 0.3282126862
23150161100.0 -0.9481133606 0.3404553954
23200160800.0 -0.9459798921 0.3523554829
23250160500.0 -0.9436987106 0.3642979518
23300160200.0 -0.9405362834 0.3763701154
23350159900.0 -0.9371377223 0.389476224
23400159600.0 -0.9321801727 0.4023123004
23450159300.0 -0.9276950114 0.4151257336
23500159000.0 -0.9225735282 0.4281640759
23550158700.0 -0.9182117148 0.4411447195
23600158400.0 -0.9127131271 0.4542602198
23650158100.0 -0.906595348 0.4680418806
23700157800.0 -0.8988868737 0.4815929697
23750157500.0 -0.8906787221 0.4953477306
23800157200.0 -0.8816758672 0.5086510943
23850156900.0 -0.8726861551 0.5210140508
23900156600.0 -0.8637916652 0.533861294
23950156300.0 -0.8540539012 0.5462356244
24000156000.0 -0.8453956104 0.5579517966
24050155700.0 -0.8354115761 0.5693346228
24100155400.0 -0.8254687769 0.5812747146
24150155100.0 -0.8149834551 0.5933997573
24200154800.0 -0.8037812381 0.6045443666
24250154500.0 -0.7927478377 0.6162409804
24300154200.0 -0.7814482287 0.6280737681
24350153900.0 -0.7692597811 0.6389527251
24400153600.0 -0.7574722767 0.649229781
24450153300.0 -0.7454161627 0.6591296026
24500153000.0 -0.7341416524 0.6690560354
24550152700.0 -0.7231339574 0.6783525059
24600152400.0 -0.7122530259 0.6883064528
24650152100.0 -0.7002365864 0.6963361582
