!Created with skrf (http://scikit-rf.org).
# Hz S RI R 50.0 
!freq ReS11 ImS11
300000.0 -0.9775586046 -0.111905296
50299700.0 -0.9999548699 0.015948186
100299400.0 -0.9981549276 0.0287963308
150299100.0 -1.002921207 0.0457018019
200298800.0 -0.9996196745 0.0591541022
250298500.0 -0.9974776955 0.0725372067
300298200.0 -0.9861161957 0.0884637708
350297900.0 -0.9941296329 0.0994237833
400297600.0 -0.99322181 0.1159135223
450297300.0 -0.9910121211 0.1296196237
500297000.0 -0.9895908354 0.1445290858
550296700.0 -0.9845493423 0.1568460953
600296400.0 -1.017419489 0.1904228548
650296100.0 -0.9821374635 0.1867830309
700295800.0 -0.9792393615 0.2010389554
750295500.0 -0.9763155327 0.2151425475
800295200.0 -0.9729315643 0.2290953359
850294900.0 -0.9698970251 0.2430265813
900294600.0 -0.9658084837 0.2568711218
950294300.0 -0.9618932298 0.270472469
1000294000.0 -0.9579436365 0.2844984832
1050293700.0 -0.9534937524 0.2981941035
1100293400.0 -0.9493678173 0.3126184387
1150293100.0 -0.9454333276 0.3246175984
1200292800.0 -0.940117528 0.3387359841
1250292500.0 -0.9345518078 0.3522784954
1300292200.0 -0.9289476224 0.3654452153
1350291900.0 -0.9233115867 0.3796724421
1400291600.0 -0.9176594498 0.3925644601
1450291300.0 -0.9123140752 0.4051160009
1500291000.0 -0.9059245868 0.4184280916
1550290700.0 -0.8996283702 0.4317390851
1600290400.0 -0.8933527854 0.444465615
1650290100.0 -0.8866125104 0.456811896
1700289800.0 -0.8797749505 0.4701759438
1750289500.0 -0.8727016142 0.48242876
1800289200.0 -0.8652684254 0.4953535053
1850288900.0 -0.8587349824 0.5067372075
1900288600.0 -0.8506906744 0.5195903599
1950288300.0 -0.8425555689 0.5323731332
2000288000.0 -0.8352408644 0.5438250454
2050287700.0 -0.8270598152 0.5559990102
2100287400.0 -0.8188250901 0.5676603463
2150287100.0 -0.8102604885 0.5797044216
2200286800.0 -0.8025372884 0.5898910172
2250286500.0 -0.793672338 0.6021430881
2300286200.0 -0.7848950721 0.6139940834
2350285900.0 -0.7759752636 0.6249075355
2400285600.0 -0.7669420953 0.6358611186
2450285300.0 -0.7584819125 0.6460861355
2500285000.0 -0.7484695148 0.6573618919
2550284700.0 -0.7398065579 0.667911168
2600284400.0 -0.7304441401 0.6778957732
2650284100.0 -0.7211877103 0.6885952913
2700283800.0 -0.7107393786 0.6991081848
2750283500.0 -0.700285639 0.7094722417
2800283200.0 -0.690598607 0.7189811471
2850282900.0 -0.6804734475 0.729004369
2900282600.0 -0.669964508 0.7383825779
2950282300.0 -0.6599578076 0.7479011132
3000282000.0 -0.6491057373 0.7572722186
3050281700.0 -0.6379326466 0.7665715271
3100281400.0 -0.6260859784 0.7759574251
3150281100.0 -0.6142835724 0.7853297528
3200280800.0 -0.6026260945 0.7938382658
3250280500.0 -0.5917209028 0.8015140231
3300280200.0 -0.5807217703 0.8093211322
3350279900.0 -0.5690158035 0.8166847754
3400279600.0 -0.5570333622 0.8244392127
3450279300.0 -0.5459136459 0.8316465373
3500279000.0 -0.5339674202 0.8388452177
3550278700.0 -0.5212627595 0.8460966383
3600278400.0 -0.5091621191 0.8533260926
3650278100.0 -0.4959097832 0.860985417
3700277800.0 -0.4835635342 0.8670837037
3750277500.0 -0.4715013057 0.8737867238
3800277200.0 -0.4592374187 0.8805571864
3850276900.0 -0.4468224183 0.8863896736
3900276600.0 -0.4360390482 0.8919039575
3950276300.0 -0.4236493975 0.8979372781
4000276000.0 -0.4114980773 0.9040874331
4050275700.0 -0.3983817755 0.9099744489
4100275400.0 -0.3872547554 0.9152633183
4150275100.0 -0.37473374 0.9211870767
4200274800.0 -0.3617192481 0.9263492865
4250274500.0 -0.34931125 0.9315750669
4300274200.0 -0.3364681161 0.9369252336
4350273900.0 -0.322732994 0.9424232281
4400273600.0 -0.307680718 0.9474070163
4450273300.0 -0.2923748269 0.9524526309
4500273000.0 -0.2786578889 0.9570098703
4550272700.0 -0.2645543261 0.9613075134
4600272400.0 -0.2491404761 0.9654286466
4650272100.0 -0.2373351185 0.9685531319
4700271800.0 -0.2240213109 0.9719487948
4750271500.0 -0.2122746452 0.9748150341
4800271200.0 -0.1998368111 0.9775678613
4850270900.0 -0.185998869 0.9800643303
4900270600.0 -0.1722134127 0.9826424668
4950270300.0 -0.1578632723 0.9853355099
5000270000.0 -0.1438230244 0.9874142262
5050269700.0 -0.1303508148 0.9888110868
5100269400.0 -0.1164063552 0.990535963
5150269100.0 -0.103229989 0.9921557482
5200268800.0 -0.0901471187 0.9929663172
5250268500.0 -0.0771659893 0.9940526324
5300268200.0 -0.0637678233 0.9950352736
5350267900.0 -0.0518145345 0.9957307852
5400267600.0 -0.0355149513 0.9963684187
5450267300.0 -0.0225505483 0.9967745257
5500267000.0 -0.0072958616 0.9972800485
5550266700.0 0.0077013021 0.997329716
5600266400.0 0.0232312653 0.9971152832
5650266100.0 0.0398493482 0.9970432107
5700265800.0 0.054182816 0.9961466645
5750265500.0 0.0694649021 0.9957269359
5800265200.0 0.0834684214 0.994087652
5850264900.0 0.0967888747 0.9928486044
5900264600.0 0.1136322564 0.9913541109
5950264300.0 0.1256405052 0.9901301048
6000264000.0 0.1395250651 0.9884003698
6050263700.0 0.1519854021 0.9864019788
6100263400.0 0.1647236737 0.9850366074
6150263100.0 0.1790439601 0.9824481206
6200262800.0 0.189698039 0.9807661243
6250262500.0 0.2022285799 0.9782380547
6300262200.0 0.2150383027 0.9753099856
6350261900.0 0.2281677285 0.9723440578
6400261600.0 0.242035059 0.9691014364
6450261300.0 0.2534824361 0.9664151141
6500261000.0 0.2662610419 0.9629773962
6550260700.0 0.2791990371 0.9589248951
6600260400.0 0.2924155729 0.9546542704
6650260100.0 0.3068078851 0.9506372809
6700259800.0 0.318553655 0.946522863
6750259500.0 0.3318958136 0.9411735786
6800259200.0 0.3453731163 0.9366107472
6850258900.0 0.3572233923 0.9313418796
6900258600.0 0.3696011295 0.9261465813
6950258300.0 0.3817869058 0.9209757659
7000258000.0 0.3938817787 0.915390354
7050257700.0 0.4061195484 0.9093223561
7100257400.0 0.4187575793 0.9032775059
7150257100.0 0.4290857168 0.897846591
7200256800.0 0.4419676436 0.891582672
7250256500.0 0.4534634242 0.8850275819
7300256200.0 0.4666025546 0.8780713062
7350255900.0 0.4790351813 0.8713720956
7400255600.0 0.4923695721 0.8641620597
7450255300.0 0.5076173503 0.855072696
7500255000.0 0.5194796149 0.8482089929
7550254700.0 0.5334856629 0.839745399
7600254400.0 0.5454940004 0.8312131135
7650254100.0 0.5574756355 0.8234242607
7700253800.0 0.569344008 0.8153238198
7750253500.0 0.5808480466 0.8076254441
7800253200.0 0.5911554612 0.7997741495
7850252900.0 0.6010940997 0.7928220926
7900252600.0 0.6124933724 0.7840980784
7950252300.0 0.621441703 0.7773691921
8000252000.0 0.6315745064 0.7697156129
8050251700.0 0.6419134073 0.7616464954
8100251400.0 0.6519949422 0.7533894211
8150251100.0 0.6622930456 0.7445726672
8200250800.0 0.6715597012 0.7366727515
8250250500.0 0.6805854483 0.7287267535
8300250200.0 0.6899738177 0.7199974897
8350249900.0 0.699158497 0.7114983633
8400249600.0 0.7072265352 0.7032567929
8450249300.0 0.7163521973 0.6942372539
8500249000.0 0.7249243416 0.6852267857
8550248700.0 0.7330083354 0.6763264943
8600248400.0 0.7414565652 0.6669171373
8650248100.0 0.7491517889 0.6574417802
8700247800.0 0.7588672842 0.6462206501
8750247500.0 0.7671991526 0.6361859176
8800247200.0 0.7753174622 0.6257950352
8850246900.0 0.7841018159 0.6143603146
8900246600.0 0.7925146461 0.6030027167
8950246300.0 0.8022800669 0.589964385
9000246000.0 0.8115359964 0.5772225505
9050245700.0 0.8206269557 0.5642221179
9100245400.0 0.8289687055 0.5518818948
9150245100.0 0.8383794578 0.5381027652
9200244800.0 0.848350301 0.5225489669
9250244500.0 0.857749829 0.5068600297
9300244200.0 0.8663532977 0.4922078403
9350243900.0 0.8739173152 0.4782797753
9400243600.0 0.8806375824 0.4659327427
9450243300.0 0.8865092754 0.4542196171
9500243000.0 0.8928797805 0.4416440053
9550242700.0 0.8965401233 0.434075017
9600242400.0 0.9004613452 0.4268839756
9650242100.0 0.9038156776 0.4204091226
9700241800.0 0.908531364 0.4122320252
9750241500.0 0.9122038382 0.4048350732
9800241200.0 0.9168615075 0.3957663248
9850240900.0 0.9226406597 0.3840222175
9900240600.0 0.9284098464 0.3724658758
9950240300.0 0.9345914415 0.3563762435
10000240000.0 0.9392963 0.344738344
10050239700.0 0.945120538 0.3293756152
10100239400.0 0.9498612389 0.31385205
10150239100.0 0.9543799867 0.2992458342
10200238800.0 0.9585439221 0.2841479146
10250238500.0 0.9618964629 0.2709102863
10300238200.0 0.9648792012 0.2569995367
10350237900.0 0.9675538877 0.2440672856
10400237600.0 0.9701894169 0.2305954756
10450237300.0 0.9726411446 0.2175049634
10500237000.0 0.9748832719 0.2052226477
10550236700.0 0.9773127904 0.1912612381
10600236400.0 0.9796094317 0.1773983611
10650236100.0 0.9811949782 0.1633282071
10700235800.0 0.9835051583 0.1507384715
10750235500.0 0.985792091 0.1378261441
10800235200.0 0.9875603004 0.1236607974
10850234900.0 0.989663118 0.1090864705
10900234600.0 0.9916849469 0.0943058049
10950234300.0 0.9935936082 0.0810065095
11000234000.0 0.9953480918 0.0659426279
11050233700.0 0.9970944342 0.0497094648
11100233400.0 0.9984604832 0.0322245265
11150233100.0 0.9997287636 0.0160599547
11200232800.0 1.000498567 0.0007441322
11250232500.0 1.001149958 -0.0156444574
11300232200.0 1.001414624 -0.0334209294
11350231900.0 1.001872162 -0.0497868001
11400231600.0 1.001219783 -0.0653407541
11450231300.0 1.000669574 -0.0803986899
11500231000.0 0.9996089717 -0.097467446
11550230700.0 0.998116133 -0.1106608859
11600230400.0 0.9973235745 -0.1238278806
11650230100.0 0.994716296 -0.134403777
11700229800.0 0.9926389744 -0.1488754983
11750229500.0 0.9902634386 -0.1639171014
11800229200.0 0.9875831448 -0.1778655768
11850228900.0 0.9841815767 -0.1899603781
11900228600.0 0.9806057785 -0.1995800928
11950228300.0 0.9773970752 -0.2101285944
12000228000.0 0.9744518235 -0.2188305935
12050227700.0 0.9709997979 -0.2320725449
12100227400.0 0.967794534 -0.2430313986
12150227100.0 0.9626439333 -0.2598802146
12200226800.0 0.9588405397 -0.2704034178
12250226500.0 0.9555145024 -0.2833484332
12300226200.0 0.9508955632 -0.295077727
12350225900.0 0.9462881378 -0.3087094587
12400225600.0 0.9419669011 -0.3220821623
12450225300.0 0.9373470458 -0.3345606962
12500225000.0 0.9316503122 -0.3493610375
12550224700.0 0.9265371686 -0.3632416964
12600224400.0 0.9217485375 -0.375868054
12650224100.0 0.9160622096 -0.3900582898
12700223800.0 0.9107642757 -0.4029909065
12750223500.0 0.9051482301 -0.4160611415
12800223200.0 0.9001211848 -0.428011857
12850222900.0 0.8946384996 -0.4405885322
12900222600.0 0.8890931731 -0.4525571461
12950222300.0 0.882449272 -0.4649566406
13000222000.0 0.8767243127 -0.4769853125
13050221700.0 0.8700501622 -0.489522694
13100221400.0 0.8635231885 -0.5010122093
13150221100.0 0.8558538462 -0.5139691175
13200220800.0 0.8488471181 -0.5260651943
13250220500.0 0.8418569557 -0.5377484524
13300220200.0 0.834596013 -0.5486670711
13350219900.0 0.826429085 -0.5605513718
13400219600.0 0.8178970502 -0.572741008
13450219300.0 0.8084799684 -0.5865584138
13500219000.0 0.7979079343 -0.6007935769
13550218700.0 0.7879716654 -0.6132613784
13600218400.0 0.7774785063 -0.6258255764
13650218100.0 0.7678520731 -0.637091999
13700217800.0 0.7572894004 -0.6486997337
13750217500.0 0.7473488989 -0.6601224277
13800217200.0 0.7351468741 -0.6724531253
13850216900.0 0.724382014 -0.6838028094
13900216600.0 0.7141524193 -0.6928955768
13950216300.0 0.703702627 -0.7027012366
14000216000.0 0.6933710532 -0.712037365
14050215700.0 0.6841959462 -0.7205448628
14100215400.0 0.6744090126 -0.7288721879
14150215100.0 0.6654215737 -0.7376837399
14200214800.0 0.6561302289 -0.7461679393
14250214500.0 0.6457347972 -0.7554918055
14300214200.0 0.635646454 -0.7646962501
14350213900.0 0.6244837658 -0.7743966234
14400213600.0 0.6122558733 -0.7838876036
14450213300.0 0.5993210355 -0.7942155644
14500213000.0 0.5866465955 -0.8039826772
14550212700.0 0.5738970455 -0.813606531
14600212400.0 0.561207488 -0.8224282315
14650212100.0 0.5484219245 -0.831128652
14700211800.0 0.5342579469 -0.8402257925
14750211500.0 0.5221769983 -0.8488067942
14800211200.0 0.5097181518 -0.8564288053
14850210900.0 0.4977939924 -0.8640678092
14900210600.0 0.4843737802 -0.8720155213
14950210300.0 0.4708449966 -0.8796900947
15000210000.0 0.4581223414 -0.8866656167
15050209700.0 0.446104135 -0.8924413172
15100209400.0 0.4334756181 -0.8986211885
15150209100.0 0.4208954043 -0.9042086837
15200208800.0 0.4074197944 -0.9095033902
15250208500.0 0.3965049376 -0.9146046332
15300208200.0 0.3844917997 -0.9185832728
15350207900.0 0.3709750451 -0.923427674
15400207600.0 0.3561304367 -0.928620287
15450207300.0 0.341724437 -0.9335505823
15500207000.0 0.3272167806 -0.9384617783
15550206700.0 0.3125884662 -0.9436203342
15600206400.0 0.2961402842 -0.9482768112
15650206100.0 0.2805055119 -0.9520623511
15700205800.0 0.2664997474 -0.9558791635
15750205500.0 0.251978566 -0.9590390007
15800205200.0 0.2374790933 -0.9627121709
15850204900.0 0.2229683793 -0.9660851564
15900204600.0 0.208092938 -0.9696777793
15950204300.0 0.193995371 -0.9725634249
16000204000.0 0.1797124555 -0.9752623546
16050203700.0 0.1651267868 -0.9782045513
16100203400.0 0.1505715361 -0.980484221
16150203100.0 0.1364686033 -0.9826436071
16200202800.0 0.1224817274 -0.98473
16250202500.0 0.1076314392 -0.9864533792
16300202200.0 0.0926918582 -0.9877505333
16350201900.0 0.0774359955 -0.9892766969
16400201600.0 0.0629499903 -0.9902632082
16450201300.0 0.0478476328 -0.9912245684
16500201000.0 0.031156031 -0.9919007908
16550200700.0 0.0154229857 -0.9923969672
16600200400.0 -0.0002385503 -0.9925172628
16650200100.0 -0.0165835213 -0.9925146518
16700199800.0 -0.0326054205 -0.992142776
16750199500.0 -0.0521863531 -0.991713731
16800199200.0 -0.0676032989 -0.9907944481
16850198900.0 -0.0823880094 -0.9894224227
16900198600.0 -0.096405736 -0.988950741
16950198300.0 -0.1105131262 -0.9872921499
17000198000.0 -0.1235721757 -0.9856803211
17050197700.0 -0.1358157105 -0.9838295112
17100197400.0 -0.1482197162 -0.9816531885
17150197100.0 -0.1610063284 -0.9798914467
17200196800.0 -0.173940136 -0.977270627
17250196500.0 -0.1869172104 -0.9755529783
17300196200.0 -0.1988125361 -0.9732138524
17350195900.0 -0.211037706 -0.9706958363
17400195600.0 -0.2231540269 -0.9681633326
17450195300.0 -0.2362855175 -0.9654143121
17500195000.0 -0.2496792959 -0.9620966317
17550194700.0 -0.2635948119 -0.9583528907
17600194400.0 -0.2773268265 -0.9543286501
17650194100.0 -0.2913352258 -0.9500887504
17700193800.0 -0.3044185007 -0.9459385514
17750193500.0 -0.318660242 -0.9416418328
17800193200.0 -0.3326898098 -0.9362283103
17850192900.0 -0.3480445591 -0.9308475905
17900192600.0 -0.3632133792 -0.9248911579
17950192300.0 -0.3786773254 -0.9177583594
18000192000.0 -0.3934037967 -0.9105220786
18050191700.0 -0.4070423878 -0.9024239318
18100191400.0 -0.4212175951 -0.8949028886
18150191100.0 -0.4362450614 -0.886814167
18200190800.0 -0.453095439 -0.8776017036
18250190500.0 -0.4700964354 -0.8680032748
18300190200.0 -0.4857670778 -0.8595013029
18350189900.0 -0.500669959 -0.8510131956
18400189600.0 -0.5148149641 -0.8424054925
18450189300.0 -0.528225818 -0.8340756273
18500189000.0 -0.5418485413 -0.8266456085
18550188700.0 -0.5541497119 -0.818820013
18600188400.0 -0.5659248077 -0.8121538293
18650188100.0 -0.5769115521 -0.8056136949
18700187800.0 -0.5880183787 -0.799310909
18750187500.0 -0.5983235765 -0.7923708555
18800187200.0 -0.608995291 -0.785422462
18850186900.0 -0.6191198522 -0.7784290145
18900186600.0 -0.6294178961 -0.7708759441
18950186300.0 -0.6396073687 -0.7632551581
19000186000.0 -0.6464806229 -0.7569979207
19050185700.0 -0.6564914034 -0.7498391161
19100185400.0 -0.6657057028 -0.7413215991
19150185100.0 -0.6762400222 -0.7329270923
19200184800.0 -0.6861214334 -0.7242886061
19250184500.0 -0.6960888507 -0.7148295172
19300184200.0 -0.7074676843 -0.7058489015
19350183900.0 -0.7186302809 -0.6958882287
19400183600.0 -0.7274666996 -0.6860501921
19450183300.0 -0.7365063291 -0.6754181282
19500183000.0 -0.7450800851 -0.6663697901
19550182700.0 -0.7549989262 -0.654703486
19600182400.0 -0.7650629153 -0.6432772085
19650182100.0 -0.7760573081 -0.6308991486
19700181800.0 -0.7865034224 -0.6179328373
19750181500.0 -0.7971959047 -0.603718552
19800181200.0 -0.8073935767 -0.5889022961
19850180900.0 -0.8170159719 -0.5737114322
19900180600.0 -0.8246637374 -0.5593022159
19950180300.0 -0.8337744682 -0.5428086135
20000180000.0 -0.8270215923 -0.5455956708
20050179700.0 -0.8345633954 -0.5324058618
20100179400.0 -0.8432086802 -0.5185276347
20150179100.0 -0.8515449724 -0.5060360433
20200178800.0 -0.8605019027 -0.4934553489
20250178500.0 -0.8697745957 -0.4797788061
20300178200.0 -0.8793278322 -0.4649943338
20350177900.0 -0.8888162001 -0.4502856076
20400177600.0 -0.8975131168 -0.4359352479
20450177300.0 -0.905615571 -0.4213061664
20500177000.0 -0.9136440726 -0.4074000631
20550176700.0 -0.921557477 -0.3938732411
20600176400.0 -0.9285708811 -0.3808575784
20650176100.0 -0.9344255329 -0.3678599866
20700175800.0 -0.9416005302 -0.3555888556
20750175500.0 -0.9486433575 -0.3444616763
20800175200.0 -0.952779 -0.3334389993
20850174900.0 -0.9583549902 -0.3222336947
20900174600.0 -0.9631073437 -0.3113600526
20950174300.0 -0.9669595796 -0.298241601
21000174000.0 -0.9702560062 -0.2879575464
21050173700.0 -0.9738866133 -0.2770529344
21100173400.0 -0.9776609951 -0.2646342603
21150173100.0 -0.9813239502 -0.2521359146
21200172800.0 -0.984728752 -0.2385295493
21250172500.0 -0.9878063277 -0.2243296502
21300172200.0 -0.9904103842 -0.2108559485
21350171900.0 -0.9923856879 -0.1961190858
21400171600.0 -0.9943019415 -0.1818008332
21450171300.0 -0.9943737585 -0.1674158677
21500171000.0 -0.9933224197 -0.1525826539
21550170700.0 -0.9929965822 -0.1365538272
21600170400.0 -0.992878109 -0.1205084383
21650170100.0 -0.9921650372 -0.1060881347
21700169800.0 -0.991114701 -0.0902540125
21750169500.0 -0.9892591638 -0.0742535447
21800169200.0 -0.9883035249 -0.0581084502
21850168900.0 -0.9873481696 -0.0421554665
21900168600.0 -0.9849860732 -0.0247666181
21950168300.0 -0.9846333898 -0.0096687802
22000168000.0 -0.9827337037 0.0052481019
22050167700.0 -0.9826318002 0.0196807293
22100167400.0 -0.9828341357 0.0347766473
22150167100.0 -0.9831407079 0.0504260098
22200166800.0 -0.9833133578 0.0665474156
22250166500.0 -0.9826547489 0.0837535891
22300166200.0 -0.9821526487 0.1005600662
22350165900.0 -0.9811792509 0.1166356786
22400165600.0 -0.9790084935 0.1322846007
22450165300.0 -0.9765323874 0.1467135817
22500165000.0 -0.975461459 0.1623445236
22550164700.0 -0.9746129506 0.1760658083
22600164400.0 -0.9721048304 0.1918082009
22650164100.0 -0.9704885251 0.2071614107
22700163800.0 -0.967846588 0.22296977
22750163500.0 -0.9652586436 0.2380558198
22800163200.0 -0.9631138661 0.2513465417
22850162900.0 -0.9604917495 0.264869035
22900162600.0 -0.9587982731 0.2781596167
22950162300.0 -0.9577071378 0.291194032
23000162000.0 -0.9568429474 0.302592718
23050161700.0 -0.9551494376 0.3153157075
23100161400.0 -0.952265838 0.3284240389
23150161100.0 -0.9498888266 0.3401078954
23200160800.0 -0.9466978306 0.3523870996
23250160500.0 -0.9447738093 0.3640207846
23300160200.0 -0.9414835147 0.3756919873
23350159900.0 -0.9374308413 0.3891012621
23400159600.0 -0.9333916045 0.4022701819
23450159300.0 -0.9287490183 0.4153544199
23500159000.0 -0.9234085073 0.4280197164
23550158700.0 -0.9194334171 0.4418811401
23600158400.0 -0.9138792757 0.4548175544
23650158100.0 -0.9077054483 0.4689378232
23700157800.0 -0.8998110203 0.4826662307
23750157500.0 -0.8912276657 0.4966869893
23800157200.0 -0.8822464635 0.509782546
23850156900.0 -0.8738714388 0.5228499137
23900156600.0 -0.8644674892 0.5348735014
23950156300.0 -0.8553950714 0.5468626435
24000156000.0 -0.8459903461 0.5594131913
24050155700.0 -0.8353443168 0.5710756894
24100155400.0 -0.825416143 0.5832199309
24150155100.0 -0.8154916996 0.5948949944
24200154800.0 -0.8039698334 0.6060985807
24250154500.0 -0.7928109246 0.6177930557
24300154200.0 -0.78137903 0.6296890684
24350153900.0 -0.7695906916 0.6400738147
24400153600.0 -0.7572583116 0.6503956816
24450153300.0 -0.7455392383 0.660075045
24500153000.0 -0.733619789 0.6695948137
24550152700.0 -0.7223484181 0.6793971327
24600152400.0 -0.7111864017 0.6880839536
24650152100.0 -0.700083281 0.6967506788
