!Created with skrf (http://scikit-rf.org).
# Hz S RI R 50.0 
!freq ReS11 ImS11
300000.0 -0.9746736254 -0.1174758422
50299700.0 -1.000029429 0.0153956047
100299400.0 -0.9980754192 0.0284901046
150299100.0 -1.002738175 0.0453027758
200298800.0 -0.9996748471 0.0585181097
250298500.0 -0.9972839209 0.0721718216
300298200.0 -0.9860606099 0.0879729568
350297900.0 -0.9941390451 0.098865366
400297600.0 -0.9932274785 0.11528863
450297300.0 -0.9911036329 0.1292789739
500297000.0 -0.9893479872 0.1439256703
550296700.0 -0.9844493176 0.1562939527
600296400.0 -1.017107843 0.1900000926
650296100.0 -0.9823338692 0.186355267
700295800.0 -0.9794147459 0.2005160598
750295500.0 -0.976254452 0.2148274982
800295200.0 -0.9730217221 0.2285002009
850294900.0 -0.96963731 0.2426234422
900294600.0 -0.9658035337 0.2562967659
950294300.0 -0.9622268651 0.2699679416
1000294000.0 -0.958124963 0.2839730845
1050293700.0 -0.9536478432 0.2976262171
1100293400.0 -0.949317565 0.3120825983
1150293100.0 -0.9453807239 0.324017784
1200292800.0 -0.9399966814 0.338443921
1250292500.0 -0.9346291811 0.3517488388
1300292200.0 -0.9288950851 0.3651616366
1350291900.0 -0.9234730957 0.3791076817
1400291600.0 -0.91784533 0.3921245723
1450291300.0 -0.9125418802 0.4045030359
1500291000.0 -0.9060959105 0.4179732596
1550290700.0 -0.8996538561 0.4312066028
1600290400.0 -0.8933523601 0.4442201443
1650290100.0 -0.8866524491 0.4562419611
1700289800.0 -0.8799286771 0.4695212741
1750289500.0 -0.8727754921 0.4820782342
1800289200.0 -0.8654100465 0.4948121636
1850288900.0 -0.8585953528 0.5060561956
1900288600.0 -0.8509054172 0.5193286775
1950288300.0 -0.8427717167 0.5318866821
2000288000.0 -0.8354265288 0.5430912672
2050287700.0 -0.8270431592 0.5556477135
2100287400.0 -0.8191308664 0.5670164521
2150287100.0 -0.810605855 0.5793608109
2200286800.0 -0.8030340357 0.5894050104
2250286500.0 -0.7940422029 0.6016209083
2300286200.0 -0.7852311408 0.6132159993
2350285900.0 -0.7762155096 0.6242731128
2400285600.0 -0.7674198306 0.6352327378
2450285300.0 -0.758972401 0.6458451508
2500285000.0 -0.7490948302 0.6568171266
2550284700.0 -0.7401939386 0.6670352889
2600284400.0 -0.7307002558 0.6771706608
2650284100.0 -0.7216837418 0.6875086146
2700283800.0 -0.7112910693 0.6984715119
2750283500.0 -0.7008214852 0.7087684435
2800283200.0 -0.6911360028 0.7185518007
2850282900.0 -0.680841686 0.7282849398
2900282600.0 -0.6705351045 0.7382607474
2950282300.0 -0.6605994202 0.7474418352
3000282000.0 -0.6497088476 0.7568200241
3050281700.0 -0.638412662 0.7662274909
3100281400.0 -0.6266947733 0.7754305718
3150281100.0 -0.6146277791 0.7848884706
3200280800.0 -0.6031002311 0.7932067445
3250280500.0 -0.5922935684 0.801064659
3300280200.0 -0.5810234118 0.8089309966
3350279900.0 -0.5693585031 0.8165538282
3400279600.0 -0.5575941387 0.8240782219
3450279300.0 -0.5462551287 0.8313677655
3500279000.0 -0.5339897154 0.8383839449
3550278700.0 -0.5217119221 0.8455969293
3600278400.0 -0.5095023866 0.8527010089
3650278100.0 -0.4964702406 0.8604872029
3700277800.0 -0.4841201513 0.8668885479
3750277500.0 -0.4723102112 0.8734333367
3800277200.0 -0.459557881 0.8800347865
3850276900.0 -0.447387769 0.8860285027
3900276600.0 -0.4369125933 0.8915240493
3950276300.0 -0.4243431038 0.8975534182
4000276000.0 -0.4123005293 0.9037084069
4050275700.0 -0.3991506505 0.9095784974
4100275400.0 -0.3882449413 0.9151350347
4150275100.0 -0.3753230094 0.9210043118
4200274800.0 -0.3626671092 0.9263868012
4250274500.0 -0.3503492012 0.9313668516
4300274200.0 -0.3372369403 0.9365303544
4350273900.0 -0.3234288201 0.9420285705
4400273600.0 -0.3085358706 0.9472916921
4450273300.0 -0.2931504044 0.9523156059
4500273000.0 -0.2796665627 0.9567397807
4550272700.0 -0.2654557039 0.96106217
4600272400.0 -0.2499117734 0.9651487519
4650272100.0 -0.2382379894 0.9683964587
4700271800.0 -0.2249930366 0.9717561471
4750271500.0 -0.2134636101 0.9745810692
4800271200.0 -0.2008881301 0.977320528
4850270900.0 -0.1869492321 0.9800840166
4900270600.0 -0.1729760821 0.9823862199
4950270300.0 -0.1586110009 0.9850280123
5000270000.0 -0.1445276292 0.9872559297
5050269700.0 -0.131133247 0.9889861616
5100269400.0 -0.1173120735 0.9903202327
5150269100.0 -0.1041455998 0.9921146373
5200268800.0 -0.0906799132 0.9928270015
5250268500.0 -0.0777734608 0.993880986
5300268200.0 -0.0645782487 0.9948621333
5350267900.0 -0.0525152252 0.9954269565
5400267600.0 -0.0361434784 0.9965416714
5450267300.0 -0.0232344192 0.996669855
5500267000.0 -0.0079571801 0.9970548406
5550266700.0 0.0071445046 0.9973148405
5600266400.0 0.0225330088 0.9973667511
5650266100.0 0.0390973411 0.9967799652
5700265800.0 0.0534523708 0.9960820687
5750265500.0 0.0688147696 0.9952808108
5800265200.0 0.0828668292 0.9945115091
5850264900.0 0.0960817441 0.9933601026
5900264600.0 0.1127084598 0.9916479482
5950264300.0 0.1249222312 0.9901140402
6000264000.0 0.1384819447 0.9883230305
6050263700.0 0.1512476113 0.9866901164
6100263400.0 0.163591248 0.9849063583
6150263100.0 0.1779282016 0.9826276565
6200262800.0 0.1885240396 0.9807591573
6250262500.0 0.2012204155 0.9785268991
6300262200.0 0.2140389813 0.9756418848
6350261900.0 0.2271880921 0.972744125
6400261600.0 0.2409491561 0.9693640856
6450261300.0 0.2523520248 0.9666458729
6500261000.0 0.2652461532 0.9631526999
6550260700.0 0.2781519047 0.9593277636
6600260400.0 0.2913070528 0.9553691527
6650260100.0 0.3055045839 0.9507547231
6700259800.0 0.3174195208 0.9466260221
6750259500.0 0.3310841069 0.9415062164
6800259200.0 0.3442104798 0.936757216
6850258900.0 0.3562722143 0.9314311031
6900258600.0 0.3685466457 0.9265731163
6950258300.0 0.3808668657 0.9211449752
7000258000.0 0.393075636 0.9157606301
7050257700.0 0.4052190396 0.9096972904
7100257400.0 0.4177978694 0.9034964322
7150257100.0 0.4282945368 0.898185475
7200256800.0 0.4409054983 0.8917511466
7250256500.0 0.4529259893 0.8853593
7300256200.0 0.4659947801 0.8787278652
7350255900.0 0.4786836134 0.8718109831
7400255600.0 0.4918073157 0.8645499479
7450255300.0 0.5070233886 0.8555591923
7500255000.0 0.5183679335 0.848192765
7550254700.0 0.5320191594 0.8397377101
7600254400.0 0.5447658859 0.8314690252
7650254100.0 0.5566207613 0.8238938357
7700253800.0 0.5688047662 0.8159571808
7750253500.0 0.580032205 0.8080686561
7800253200.0 0.5904377778 0.800441081
7850252900.0 0.6002516908 0.7933366886
7900252600.0 0.6118570289 0.7846518681
7950252300.0 0.6207290071 0.778253901
8000252000.0 0.6309255754 0.7703226562
8050251700.0 0.6412755597 0.7622873285
8100251400.0 0.6514904285 0.7541428565
8150251100.0 0.6616114155 0.745703723
8200250800.0 0.6708682204 0.7375645596
8250250500.0 0.6794380435 0.7297306703
8300250200.0 0.6895484483 0.7209264027
8350249900.0 0.6981006188 0.7124339004
8400249600.0 0.706451644 0.7044214225
8450249300.0 0.7155585901 0.6948989957
8500249000.0 0.7241999093 0.6863222889
8550248700.0 0.7323731225 0.6772139725
8600248400.0 0.7407501447 0.6675996749
8650248100.0 0.7486621743 0.6583040313
8700247800.0 0.758080524 0.6469734428
8750247500.0 0.7664559254 0.6368194464
8800247200.0 0.77425975 0.6265251827
8850246900.0 0.7833582551 0.6150619734
8900246600.0 0.7919876086 0.6036319357
8950246300.0 0.8013218929 0.5908189982
9000246000.0 0.8109229873 0.5778239015
9050245700.0 0.8196451549 0.5649236942
9100245400.0 0.8283243001 0.552391525
9150245100.0 0.8377892546 0.5388055294
9200244800.0 0.8479315205 0.5234964787
9250244500.0 0.8571972003 0.5079893863
9300244200.0 0.8654754604 0.4933709759
9350243900.0 0.8732634132 0.4796510979
9400243600.0 0.8800459926 0.4671542174
9450243300.0 0.8857412286 0.4555484604
9500243000.0 0.8920554533 0.4433010667
9550242700.0 0.8957730582 0.4355965498
9600242400.0 0.8997106127 0.4283101652
9650242100.0 0.9033423481 0.4220117309
9700241800.0 0.9079562131 0.4137337704
9750241500.0 0.9117936744 0.4063461903
9800241200.0 0.9166374757 0.3970226863
9850240900.0 0.9221892477 0.3853779882
9900240600.0 0.92778115 0.374105369
9950240300.0 0.934542682 0.3575693412
10000240000.0 0.9390991597 0.3459110826
10050239700.0 0.9446344766 0.330716567
10100239400.0 0.9496451095 0.3155743846
10150239100.0 0.9540594304 0.3006618616
10200238800.0 0.9583034022 0.2857851732
10250238500.0 0.9615535311 0.2723169693
10300238200.0 0.9646136441 0.2584533386
10350237900.0 0.9673024997 0.2453182226
10400237600.0 0.9699132461 0.2320789096
10450237300.0 0.9725685302 0.2181798562
10500237000.0 0.9750248266 0.205982401
10550236700.0 0.977156633 0.1918593149
10600236400.0 0.9790667771 0.1785038207
10650236100.0 0.9809312143 0.1639470931
10700235800.0 0.9836291038 0.1513238228
10750235500.0 0.9856019739 0.1385237892
10800235200.0 0.9877273625 0.1240297607
10850234900.0 0.9895373768 0.1093467515
10900234600.0 0.9917687233 0.0949430011
10950234300.0 0.9933623597 0.0817066038
11000234000.0 0.9952391075 0.066562647
11050233700.0 0.9970486793 0.0502507909
11100233400.0 0.99840326 0.0330533501
11150233100.0 0.9994155166 0.0167694983
11200232800.0 1.000258982 0.0011031313
11250232500.0 1.001480078 -0.0148549595
11300232200.0 1.002260669 -0.0317092275
11350231900.0 1.001728186 -0.0485204376
11400231600.0 1.001756194 -0.0637992599
11450231300.0 1.001381398 -0.0786261605
11500231000.0 0.9998233356 -0.0956393059
11550230700.0 0.9983643602 -0.1092080433
11600230400.0 0.9971138115 -0.1225620959
11650230100.0 0.9951770587 -0.1329940841
11700229800.0 0.9927600492 -0.1475207612
11750229500.0 0.990854265 -0.162337686
11800229200.0 0.9879469105 -0.1760938728
11850228900.0 0.9847538926 -0.1883700863
11900228600.0 0.9811468068 -0.1978936637
11950228300.0 0.9776622036 -0.2089002435
12000228000.0 0.9751269136 -0.2175799593
12050227700.0 0.9717593072 -0.2302644451
12100227400.0 0.9683242357 -0.2414370092
12150227100.0 0.963271675 -0.2581837992
12200226800.0 0.9597691992 -0.2685970925
12250226500.0 0.955682062 -0.281889885
12300226200.0 0.9517069285 -0.2938849408
12350225900.0 0.9467923406 -0.308252418
12400225600.0 0.9423653516 -0.3207651839
12450225300.0 0.9377005038 -0.3337296255
12500225000.0 0.9322038666 -0.3487714024
12550224700.0 0.9268611756 -0.3624243222
12600224400.0 0.9220641071 -0.3751277304
12650224100.0 0.9162692774 -0.3894630037
12700223800.0 0.9109719358 -0.4022896372
12750223500.0 0.9055371606 -0.4151789907
12800223200.0 0.9001206276 -0.4278240234
12850222900.0 0.8946717948 -0.4403521108
12900222600.0 0.8890111321 -0.4522910903
12950222300.0 0.8823707661 -0.4658750464
13000222000.0 0.8762663547 -0.4771626897
13050221700.0 0.8704262554 -0.4888696325
13100221400.0 0.8636674601 -0.5011198963
13150221100.0 0.8566799595 -0.5132033024
13200220800.0 0.8496961545 -0.5246702249
13250220500.0 0.8424589437 -0.5366683736
13300220200.0 0.8350941002 -0.5474302695
13350219900.0 0.8271964544 -0.5595081399
13400219600.0 0.8185295695 -0.5716990065
13450219300.0 0.809160032 -0.5852418515
13500219000.0 0.7989912986 -0.5991904156
13550218700.0 0.7891132584 -0.6118719245
13600218400.0 0.7786226033 -0.6241285711
13650218100.0 0.7689329972 -0.635373133
13700217800.0 0.7579541105 -0.6479281543
13750217500.0 0.7485386287 -0.6583275732
13800217200.0 0.7370949347 -0.6703096069
13850216900.0 0.7257566018 -0.681793371
13900216600.0 0.7154113822 -0.6906967048
13950216300.0 0.7051292671 -0.7014433825
14000216000.0 0.695054713 -0.710866396
14050215700.0 0.6851244334 -0.7190873642
14100215400.0 0.6753612659 -0.7281489018
14150215100.0 0.6664945693 -0.7367213664
14200214800.0 0.657099189 -0.7453305689
14250214500.0 0.6468821785 -0.7547132658
14300214200.0 0.6366923074 -0.7639556441
14350213900.0 0.6253610351 -0.7734735764
14400213600.0 0.6134030117 -0.7832575899
14450213300.0 0.6004378048 -0.793723254
14500213000.0 0.5872936373 -0.8033724763
14550212700.0 0.5742947597 -0.8127214399
14600212400.0 0.5625682207 -0.8217686506
14650212100.0 0.5493885627 -0.8306576165
14700211800.0 0.5357041437 -0.8404128993
14750211500.0 0.5232613397 -0.8479416871
14800211200.0 0.5113094738 -0.8561742471
14850210900.0 0.4991301507 -0.8637438353
14900210600.0 0.4857744882 -0.8713587981
14950210300.0 0.4723627664 -0.8790977732
15000210000.0 0.4595576303 -0.8859252091
15050209700.0 0.4473496972 -0.8922260588
15100209400.0 0.4346323983 -0.8978325621
15150209100.0 0.4226478739 -0.9034301332
15200208800.0 0.4089225486 -0.9087250093
15250208500.0 0.3977748313 -0.9130776599
15300208200.0 0.3852342291 -0.917901475
15350207900.0 0.3725168459 -0.9222249402
15400207600.0 0.3585387105 -0.9287852814
15450207300.0 0.3433839946 -0.9330899222
15500207000.0 0.3287774013 -0.9382839619
15550206700.0 0.3139758428 -0.9422189659
15600206400.0 0.2985341093 -0.9476717669
15650206100.0 0.282389617 -0.9521159093
15700205800.0 0.2684450918 -0.9551592594
15750205500.0 0.2538336162 -0.9587692379
15800205200.0 0.2394286154 -0.9622924667
15850204900.0 0.2250106882 -0.9657373061
15900204600.0 0.2100739287 -0.9693061822
15950204300.0 0.1957273262 -0.9722347516
16000204000.0 0.1818488651 -0.9751593121
16050203700.0 0.1672306836 -0.9780085852
16100203400.0 0.1522844983 -0.9805821841
16150203100.0 0.1381522418 -0.9825764883
16200202800.0 0.1240546666 -0.9844941021
16250202500.0 0.1087910835 -0.9859406774
16300202200.0 0.0934485678 -0.9877633311
16350201900.0 0.0787232262 -0.989144708
16400201600.0 0.0640365943 -0.990256131
16450201300.0 0.0487548917 -0.991247672
16500201000.0 0.0322402866 -0.9921991747
16550200700.0 0.0166634275 -0.9926650821
16600200400.0 0.000780226 -0.9925141911
16650200100.0 -0.0151840316 -0.9927727285
16700199800.0 -0.0312071176 -0.9927117259
16750199500.0 -0.0504452535 -0.9918703944
16800199200.0 -0.0655650446 -0.9908069402
16850198900.0 -0.0809668548 -0.9893912666
16900198600.0 -0.0948045081 -0.9882721226
16950198300.0 -0.1086625624 -0.9873728264
17000198000.0 -0.1212801764 -0.985705386
17050197700.0 -0.1340345122 -0.9846659081
17100197400.0 -0.1468290665 -0.9817645208
17150197100.0 -0.1591435045 -0.9804200764
17200196800.0 -0.1724602675 -0.9778624536
17250196500.0 -0.1854993056 -0.9759964048
17300196200.0 -0.1974215472 -0.9734136482
17350195900.0 -0.2091234775 -0.9710786706
17400195600.0 -0.2213356653 -0.968636511
17450195300.0 -0.2345310226 -0.965796553
17500195000.0 -0.2477667462 -0.9625377247
17550194700.0 -0.2622340898 -0.9589064224
17600194400.0 -0.2757104939 -0.9548931505
17650194100.0 -0.2897203374 -0.9507495851
17700193800.0 -0.3022345452 -0.9465874888
17750193500.0 -0.3168747889 -0.9418666898
17800193200.0 -0.3313244953 -0.9366629987
17850192900.0 -0.3461928857 -0.931495455
17900192600.0 -0.3615169794 -0.9253795525
17950192300.0 -0.3770402741 -0.9180542751
18000192000.0 -0.3919213818 -0.9109339189
18050191700.0 -0.4057820826 -0.9030535293
18100191400.0 -0.4199124365 -0.8955199004
18150191100.0 -0.4349885874 -0.8874054412
18200190800.0 -0.4518730894 -0.8780547631
18250190500.0 -0.4691397816 -0.8686294469
18300190200.0 -0.4842934891 -0.8598801171
18350189900.0 -0.4992517865 -0.851658673
18400189600.0 -0.5132653047 -0.8429605914
18450189300.0 -0.5270838216 -0.835095356
18500189000.0 -0.5406661638 -0.8273604577
18550188700.0 -0.5527206214 -0.8198127922
18600188400.0 -0.5646250908 -0.8130112648
18650188100.0 -0.5754381209 -0.8068762576
18700187800.0 -0.586037765 -0.8001028609
18750187500.0 -0.5972208478 -0.7935606475
18800187200.0 -0.6075846779 -0.7865475064
18850186900.0 -0.6178466532 -0.7797218792
18900186600.0 -0.6280021854 -0.7722119265
18950186300.0 -0.6380325603 -0.7647276587
19000186000.0 -0.645211451 -0.7588351087
19050185700.0 -0.6543201424 -0.7511670435
19100185400.0 -0.6646796149 -0.7430126489
19150185100.0 -0.6749801896 -0.7340764587
19200184800.0 -0.6840965185 -0.7258480318
19250184500.0 -0.6935516351 -0.7174216194
19300184200.0 -0.7057274265 -0.7071507772
19350183900.0 -0.7160529701 -0.6974941093
19400183600.0 -0.7261344391 -0.6878623003
19450183300.0 -0.7346845136 -0.677332339
19500183000.0 -0.7434751345 -0.6676477686
19550182700.0 -0.7528385626 -0.6568437878
19600182400.0 -0.7635306251 -0.6451163701
19650182100.0 -0.7742347565 -0.6327838812
19700181800.0 -0.7851794501 -0.6193827606
19750181500.0 -0.7956168138 -0.6052085579
19800181200.0 -0.806103594 -0.5901958492
19850180900.0 -0.8157480919 -0.5749257176
19900180600.0 -0.8237159801 -0.5603297313
19950180300.0 -0.8329593318 -0.5441379023
20000180000.0 -0.8260346323 -0.5465886631
20050179700.0 -0.834290048 -0.533592373
20100179400.0 -0.8429341658 -0.5189882841
20150179100.0 -0.8513399871 -0.5066958089
20200178800.0 -0.8602845748 -0.4934801178
20250178500.0 -0.8685338332 -0.4804166111
20300178200.0 -0.8787148567 -0.4652557442
20350177900.0 -0.8878931691 -0.4516517861
20400177600.0 -0.8965114173 -0.4369949151
20450177300.0 -0.9054599233 -0.4226315137
20500177000.0 -0.9133734262 -0.4086653125
20550176700.0 -0.9210072744 -0.3950723041
20600176400.0 -0.9280549355 -0.3817950108
20650176100.0 -0.9341054807 -0.3698298839
20700175800.0 -0.9409802267 -0.3584647124
20750175500.0 -0.9478666938 -0.3460108029
20800175200.0 -0.9527512999 -0.3357569221
20850174900.0 -0.9573715727 -0.3242193457
20900174600.0 -0.9625371484 -0.3128526585
20950174300.0 -0.9656944336 -0.3018542314
21000174000.0 -0.9695177362 -0.2888074029
21050173700.0 -0.9722504697 -0.2789885856
21100173400.0 -0.976773258 -0.2670405975
21150173100.0 -0.9806446194 -0.2545244401
21200172800.0 -0.9843818076 -0.2410131361
21250172500.0 -0.9871414408 -0.2264557398
21300172200.0 -0.989706226 -0.213127957
21350171900.0 -0.9912067689 -0.1988265207
21400171600.0 -0.9928445536 -0.1844431961
21450171300.0 -0.9926704824 -0.1693983873
21500171000.0 -0.9933292273 -0.1540527074
21550170700.0 -0.9936131757 -0.139824218
21600170400.0 -0.9926344679 -0.1232569559
21650170100.0 -0.9914047905 -0.1065034437
21700169800.0 -0.9900686242 -0.0925388598
21750169500.0 -0.9890399431 -0.0751452309
21800169200.0 -0.9884413735 -0.0599483617
21850168900.0 -0.9867224774 -0.0427883648
21900168600.0 -0.9850550782 -0.0280636328
21950168300.0 -0.9839973637 -0.0111068376
22000168000.0 -0.9831201235 0.0038597265
22050167700.0 -0.9831132515 0.0182752894
22100167400.0 -0.9832890108 0.0332044347
22150167100.0 -0.9836616917 0.0483556075
22200166800.0 -0.98382212 0.0655929234
22250166500.0 -0.983327861 0.0819536865
22300166200.0 -0.9828013813 0.0988455518
22350165900.0 -0.9810726239 0.1156059316
22400165600.0 -0.9802493657 0.1311626022
22450165300.0 -0.9779925705 0.1459091544
22500165000.0 -0.9762810633 0.1591773717
22550164700.0 -0.9750174643 0.1750032654
22600164400.0 -0.9737669035 0.1899618291
22650164100.0 -0.9713557772 0.2055294033
22700163800.0 -0.9684747614 0.2209465749
22750163500.0 -0.966137275 0.2363592953
22800163200.0 -0.9632984139 0.2496500471
22850162900.0 -0.9608541562 0.263299967
22900162600.0 -0.9592933897 0.2764145072
22950162300.0 -0.9584898703 0.2888773265
23000162000.0 -0.9571668471 0.3006944804
23050161700.0 -0.9549897729 0.3135459275
23100161400.0 -0.9530672421 0.3260157381
23150161100.0 -0.9498312282 0.3384498183
23200160800.0 -0.9470482413 0.3498790147
23250160500.0 -0.9448916677 0.3624422606
23300160200.0 -0.9414398457 0.3748243797
23350159900.0 -0.9381317008 0.3876490663
23400159600.0 -0.9330945535 0.4008067802
23450159300.0 -0.9288226934 0.4139180423
23500159000.0 -0.9236772582 0.4268403454
23550158700.0 -0.9197653506 0.4398991694
23600158400.0 -0.9145144725 0.4534930997
23650158100.0 -0.9081273825 0.4673187977
23700157800.0 -0.9005631465 0.4813257829
23750157500.0 -0.8918207662 0.4953486119
23800157200.0 -0.8834258805 0.508657059
23850156900.0 -0.8745774224 0.5206493154
23900156600.0 -0.8654383269 0.5338797827
23950156300.0 -0.8566011478 0.5462778273
24000156000.0 -0.847225331 0.5585599411
24050155700.0 -0.8373128465 0.5704534919
24100155400.0 -0.8273224036 0.5818372088
24150155100.0 -0.8171710628 0.5930701217
24200154800.0 -0.8057171258 0.6042002419
24250154500.0 -0.7948241694 0.6163087222
24300154200.0 -0.7831514402 0.6280729574
24350153900.0 -0.7714012123 0.6385082992
24400153600.0 -0.7587623591 0.6488499196
24450153300.0 -0.7470888158 0.6590176172
24500153000.0 -0.7358918961 0.6681108681
24550152700.0 -0.7240288839 0.6777594308
24600152400.0 -0.7127313506 0.6872353997
24650152100.0 -0.7013655575 0.6962717895
