!Created with skrf (http://scikit-rf.org).
# Hz S RI R 50.0 
!freq ReS11 ImS11
300000.0 -0.9753045205 -0.118647531
50299700.0 -1.000041438 0.0152863025
100299400.0 -0.9980493565 0.0282225382
150299100.0 -1.002754593 0.045281245
200298800.0 -0.9997143324 0.0583274614
250298500.0 -0.9972788896 0.0719317751
300298200.0 -0.9860380795 0.087854023
350297900.0 -0.9940746072 0.0987570754
400297600.0 -0.9931642458 0.1150540079
450297300.0 -0.9910494606 0.1288463861
500297000.0 -0.9894821791 0.1437445668
550296700.0 -0.9843661145 0.1561826415
600296400.0 -1.017602747 0.1895844562
650296100.0 -0.9822752075 0.1861332193
700295800.0 -0.9790557856 0.200499335
750295500.0 -0.9762788193 0.2144184797
800295200.0 -0.9728614052 0.2285776632
850294900.0 -0.9698814987 0.242510046
900294600.0 -0.9658516396 0.2559934002
950294300.0 -0.9621427172 0.2697474123
1000294000.0 -0.9582186747 0.2837863698
1050293700.0 -0.9535492257 0.2974712092
1100293400.0 -0.9495269041 0.3119135633
1150293100.0 -0.9456747059 0.3239276868
1200292800.0 -0.9400164723 0.3383655942
1250292500.0 -0.9347103003 0.3516210352
1300292200.0 -0.9290940844 0.3647655468
1350291900.0 -0.9234634556 0.3789499144
1400291600.0 -0.9180194261 0.3919667386
1450291300.0 -0.9125926005 0.4045509537
1500291000.0 -0.9062723269 0.4178030368
1550290700.0 -0.8997182995 0.431062355
1600290400.0 -0.8932731576 0.4439412042
1650290100.0 -0.8867030584 0.4563150843
1700289800.0 -0.8797899406 0.4696178412
1750289500.0 -0.8726377831 0.4819464404
1800289200.0 -0.8652857675 0.4948607808
1850288900.0 -0.8586700333 0.5061002476
1900288600.0 -0.8506721316 0.5191369741
1950288300.0 -0.8426526637 0.5316330576
2000288000.0 -0.8353804664 0.5431361699
2050287700.0 -0.8271252974 0.5554411154
2100287400.0 -0.8193018981 0.5671301322
2150287100.0 -0.8105622049 0.5789507746
2200286800.0 -0.8029974055 0.5895842193
2250286500.0 -0.794212285 0.6015497472
2300286200.0 -0.7851631469 0.6132751591
2350285900.0 -0.7766244569 0.6240822561
2400285600.0 -0.7674299455 0.6351038757
2450285300.0 -0.7589774079 0.6454428542
2500285000.0 -0.7493209835 0.6567647815
2550284700.0 -0.7402847369 0.6669250679
2600284400.0 -0.7307802723 0.6771311121
2650284100.0 -0.7219368691 0.6878818774
2700283800.0 -0.7111739107 0.6982635835
2750283500.0 -0.7011919472 0.7089500728
2800283200.0 -0.6912524188 0.7187441842
2850282900.0 -0.6810429892 0.7286797924
2900282600.0 -0.670699604 0.7380762997
2950282300.0 -0.6604712849 0.7475427492
3000282000.0 -0.6495326199 0.7567506443
3050281700.0 -0.6385029464 0.765997682
3100281400.0 -0.6265859224 0.7752904822
3150281100.0 -0.6149330998 0.7847370857
3200280800.0 -0.6032350233 0.7934289604
3250280500.0 -0.5923490495 0.8010191226
3300280200.0 -0.5810940998 0.8087791447
3350279900.0 -0.5695295102 0.8163988451
3400279600.0 -0.5575102095 0.8242564191
3450279300.0 -0.5462420176 0.831387378
3500279000.0 -0.5340714371 0.8383493148
3550278700.0 -0.5217280183 0.8455826691
3600278400.0 -0.5094980321 0.8527326514
3650278100.0 -0.4965884542 0.86041931
3700277800.0 -0.4844867913 0.8666879419
3750277500.0 -0.4721134112 0.8735630707
3800277200.0 -0.4595993751 0.8798021595
3850276900.0 -0.4474572248 0.885760845
3900276600.0 -0.4367833701 0.8915628105
3950276300.0 -0.424287502 0.8978137831
4000276000.0 -0.4123458576 0.9035817618
4050275700.0 -0.3995144754 0.9096590101
4100275400.0 -0.3883251507 0.9148531072
4150275100.0 -0.3754178147 0.9206463933
4200274800.0 -0.3623960732 0.9262784916
4250274500.0 -0.3504695967 0.9314258642
4300274200.0 -0.3373465801 0.9367135149
4350273900.0 -0.3235422554 0.9419627617
4400273600.0 -0.3086024261 0.9471415431
4450273300.0 -0.293361071 0.952285222
4500273000.0 -0.2798082886 0.9565800696
4550272700.0 -0.2656943298 0.9608584462
4600272400.0 -0.2501940424 0.9649420583
4650272100.0 -0.2384920006 0.9681907932
4700271800.0 -0.2252071672 0.9717702099
4750271500.0 -0.2135790284 0.9747029853
4800271200.0 -0.2010870555 0.9771182151
4850270900.0 -0.1871439723 0.9801034628
4900270600.0 -0.1733151316 0.982399003
4950270300.0 -0.1589972811 0.9850319031
5000270000.0 -0.1448294979 0.9874061213
5050269700.0 -0.131097233 0.9886445597
5100269400.0 -0.1175165322 0.9903498801
5150269100.0 -0.1043647711 0.9920174709
5200268800.0 -0.0908952139 0.9928691254
5250268500.0 -0.0777168241 0.9938062474
5300268200.0 -0.0647413748 0.9944003341
5350267900.0 -0.0522822123 0.9953767595
5400267600.0 -0.0360959101 0.996478793
5450267300.0 -0.0230225262 0.9966990404
5500267000.0 -0.0076803068 0.9970704373
5550266700.0 0.0070013044 0.9972039203
5600266400.0 0.0226942388 0.997525453
5650266100.0 0.0390751717 0.997000756
5700265800.0 0.0533481836 0.9958320455
5750265500.0 0.0690584441 0.9957482547
5800265200.0 0.0824990693 0.9942348918
5850264900.0 0.095983931 0.9934104735
5900264600.0 0.1124509983 0.991763072
5950264300.0 0.1247122104 0.989979566
6000264000.0 0.138452797 0.9886242765
6050263700.0 0.150890254 0.9870795259
6100263400.0 0.1633653035 0.9849464783
6150263100.0 0.1777173261 0.9825647434
6200262800.0 0.1883438725 0.9807972948
6250262500.0 0.2007373868 0.9785439287
6300262200.0 0.2135479994 0.9757839214
6350261900.0 0.2266706882 0.9729208511
6400261600.0 0.2405146277 0.9695174193
6450261300.0 0.2516940724 0.9669289418
6500261000.0 0.2644519486 0.9632501802
6550260700.0 0.2776822505 0.9594476539
6600260400.0 0.2909609632 0.9554114912
6650260100.0 0.3051246223 0.9511029256
6700259800.0 0.316891008 0.9465600168
6750259500.0 0.3305785537 0.9416344457
6800259200.0 0.3439790654 0.9366921807
6850258900.0 0.3559920465 0.9315959466
6900258600.0 0.3681896614 0.9264637151
6950258300.0 0.3807039384 0.9211174465
7000258000.0 0.3926285274 0.9158533916
7050257700.0 0.405040207 0.9096817217
7100257400.0 0.4177532767 0.9033638615
7150257100.0 0.4281563004 0.8983190497
7200256800.0 0.4412319895 0.8918198197
7250256500.0 0.45289644 0.8855383733
7300256200.0 0.4660216418 0.8785322036
7350255900.0 0.4781095328 0.8717282259
7400255600.0 0.4913680143 0.8644942331
7450255300.0 0.5070990191 0.8554919041
7500255000.0 0.5189415383 0.8482522169
7550254700.0 0.5325282158 0.8398378526
7600254400.0 0.5454409801 0.8317239775
7650254100.0 0.5569954823 0.8239081663
7700253800.0 0.5685928133 0.8159121261
7750253500.0 0.5798593183 0.8080489605
7800253200.0 0.5904720513 0.800407224
7850252900.0 0.6000613999 0.7933051057
7900252600.0 0.6119989529 0.7846052416
7950252300.0 0.6205801486 0.7781929852
8000252000.0 0.6308162765 0.7704951594
8050251700.0 0.6413135132 0.7623000873
8100251400.0 0.6512755125 0.7541962053
8150251100.0 0.6614248883 0.7454947207
8200250800.0 0.6707762713 0.7374920135
8250250500.0 0.6795879964 0.7297368942
8300250200.0 0.6892193354 0.7211175422
8350249900.0 0.6981498026 0.7122772104
8400249600.0 0.7063591129 0.7042443817
8450249300.0 0.7152137008 0.6951020835
8500249000.0 0.7239656833 0.6861304475
8550248700.0 0.7324341299 0.6770618018
8600248400.0 0.7407899804 0.6674873826
8650248100.0 0.7486803888 0.6581574062
8700247800.0 0.7580546008 0.6468226905
8750247500.0 0.7665197974 0.6367717799
8800247200.0 0.7745346191 0.6263167205
8850246900.0 0.783399272 0.6149788204
8900246600.0 0.7919058854 0.6034243706
8950246300.0 0.8015947486 0.5905005815
9000246000.0 0.8105583279 0.5780661512
9050245700.0 0.8196433319 0.5651132671
9100245400.0 0.8284474172 0.5525588259
9150245100.0 0.8376305867 0.538899378
9200244800.0 0.8474797782 0.5237278657
9250244500.0 0.8567802024 0.5084651432
9300244200.0 0.8648854122 0.4939957886
9350243900.0 0.8727805082 0.4802011221
9400243600.0 0.8793249548 0.467912815
9450243300.0 0.8851847718 0.4562693305
9500243000.0 0.8915028286 0.4442540799
9550242700.0 0.8954436223 0.4366226248
9600242400.0 0.8992394524 0.4291315669
9650242100.0 0.9030053879 0.4227527495
9700241800.0 0.9077987567 0.4146014056
9750241500.0 0.9115053448 0.4072235179
9800241200.0 0.9162066027 0.3979841522
9850240900.0 0.9220080327 0.3860526942
9900240600.0 0.9275614668 0.3744902792
9950240300.0 0.9340991363 0.3581912322
10000240000.0 0.9385586139 0.3469248119
10050239700.0 0.9441797548 0.3317441627
10100239400.0 0.9494519831 0.316263483
10150239100.0 0.9541275102 0.3010024545
10200238800.0 0.9581444755 0.286054403
10250238500.0 0.961654847 0.2725059319
10300238200.0 0.9644882684 0.2587257951
10350237900.0 0.9673374656 0.2456000357
10400237600.0 0.9698419349 0.2323636006
10450237300.0 0.9726132799 0.21862242
10500237000.0 0.9746941467 0.2066016694
10550236700.0 0.977200091 0.1921429623
10600236400.0 0.9793125793 0.1783032441
10650236100.0 0.9811190313 0.1640843814
10700235800.0 0.9835930834 0.1516521056
10750235500.0 0.985644623 0.1387112843
10800235200.0 0.9873465191 0.1246185007
10850234900.0 0.9896875921 0.1098005321
10900234600.0 0.9917351163 0.0951118613
10950234300.0 0.9934443965 0.0817974821
11000234000.0 0.9951666748 0.0666172438
11050233700.0 0.9969647918 0.050254059
11100233400.0 0.9986648687 0.0327572605
11150233100.0 0.9993171266 0.0162420792
11200232800.0 1.000189378 0.0012892064
11250232500.0 1.001345515 -0.0149378679
11300232200.0 1.002602613 -0.03290189
11350231900.0 1.002039112 -0.0490166636
11400231600.0 1.00153915 -0.0646644544
11450231300.0 1.001280709 -0.0794881852
11500231000.0 1.000394231 -0.0959855758
11550230700.0 0.9987291036 -0.1092335648
11600230400.0 0.9972312939 -0.1221873662
11650230100.0 0.9950812126 -0.1335387613
11700229800.0 0.9931628325 -0.1481806597
11750229500.0 0.9906088216 -0.1627991344
11800229200.0 0.9880140075 -0.176523031
11850228900.0 0.9844429516 -0.1888539442
11900228600.0 0.9810910608 -0.1984126276
11950228300.0 0.9777701608 -0.20897993
12000228000.0 0.9750532441 -0.2178578434
12050227700.0 0.9711745904 -0.2310978689
12100227400.0 0.9680961362 -0.2422310704
12150227100.0 0.963097763 -0.2582910916
12200226800.0 0.9601892404 -0.269478593
12250226500.0 0.9555512056 -0.2820925818
12300226200.0 0.951593991 -0.294288641
12350225900.0 0.9464182442 -0.3093372244
12400225600.0 0.9422350406 -0.3216926575
12450225300.0 0.9373461686 -0.3341018489
12500225000.0 0.9317259558 -0.3487828251
12550224700.0 0.9266866258 -0.3622276757
12600224400.0 0.9217960966 -0.3752700489
12650224100.0 0.9159909979 -0.3896920067
12700223800.0 0.9107855681 -0.4025877186
12750223500.0 0.9053619067 -0.4153200743
12800223200.0 0.9001427987 -0.4280946932
12850222900.0 0.8948683619 -0.4400232332
12900222600.0 0.8888299309 -0.4521692335
12950222300.0 0.8828000167 -0.4651129569
13000222000.0 0.8763638659 -0.4771804875
13050221700.0 0.8703208439 -0.4893561912
13100221400.0 0.8634604867 -0.5005415559
13150221100.0 0.8563422249 -0.5136023353
13200220800.0 0.8496450296 -0.5252104522
13250220500.0 0.8423018566 -0.5373248193
13300220200.0 0.8350140863 -0.5479557145
13350219900.0 0.8269926434 -0.5598220171
13400219600.0 0.8184259363 -0.5718761099
13450219300.0 0.8093436693 -0.5853323419
13500219000.0 0.7989842315 -0.59939693
13550218700.0 0.7887179136 -0.6121210656
13600218400.0 0.7790120808 -0.6241455423
13650218100.0 0.769227524 -0.6354165133
13700217800.0 0.7585671721 -0.64743531
13750217500.0 0.7474281554 -0.6585239369
13800217200.0 0.7369011721 -0.6702248792
13850216900.0 0.7261151258 -0.6821739736
13900216600.0 0.7163920055 -0.6904291156
13950216300.0 0.705453637 -0.700766296
14000216000.0 0.6953959233 -0.7100856228
14050215700.0 0.6861769174 -0.7187673498
14100215400.0 0.6760469404 -0.727846233
14150215100.0 0.6668334698 -0.7365191075
14200214800.0 0.657313512 -0.7450057283
14250214500.0 0.646997283 -0.7544131016
14300214200.0 0.6367834755 -0.7637593234
14350213900.0 0.6256033985 -0.7732178588
14400213600.0 0.6136281958 -0.7830106998
14450213300.0 0.6001898832 -0.7932724358
14500213000.0 0.5872906035 -0.8032091887
14550212700.0 0.5751606349 -0.8129364365
14600212400.0 0.5624548283 -0.8215011759
14650212100.0 0.5496747498 -0.8299755547
14700211800.0 0.5357332291 -0.8396977687
14750211500.0 0.5234848267 -0.8481134189
14800211200.0 0.5113790745 -0.8561162216
14850210900.0 0.4991872129 -0.8634774564
14900210600.0 0.4859756866 -0.8714397354
14950210300.0 0.4723190095 -0.8790799512
15000210000.0 0.4598901128 -0.8858162643
15050209700.0 0.4473548819 -0.8919510226
15100209400.0 0.435059808 -0.8977513777
15150209100.0 0.4227351055 -0.9035676649
15200208800.0 0.4098907236 -0.9088884995
15250208500.0 0.3981662169 -0.9134139104
15300208200.0 0.3858089433 -0.9182931393
15350207900.0 0.3729853826 -0.9228904668
15400207600.0 0.3580596893 -0.927632134
15450207300.0 0.3439655855 -0.9328725611
15500207000.0 0.3294669173 -0.9382583983
15550206700.0 0.3147000791 -0.9427475077
15600206400.0 0.2981566444 -0.9470606931
15650206100.0 0.2825406784 -0.9513310749
15700205800.0 0.2689719169 -0.9552088379
15750205500.0 0.25412652 -0.9588157844
15800205200.0 0.2401082367 -0.9619870944
15850204900.0 0.2255990994 -0.9655875144
15900204600.0 0.210635077 -0.9692148998
15950204300.0 0.1965729322 -0.9722388486
16000204000.0 0.1824093912 -0.9750954641
16050203700.0 0.1669999075 -0.9782124299
16100203400.0 0.1527613189 -0.9800528992
16150203100.0 0.1383000242 -0.9823851289
16200202800.0 0.1235175153 -0.9843746731
16250202500.0 0.1097130438 -0.986251006
16300202200.0 0.0938307236 -0.9878383172
16350201900.0 0.0791995744 -0.9892282862
16400201600.0 0.0643724921 -0.9901995519
16450201300.0 0.0491523666 -0.9912851212
16500201000.0 0.0324348241 -0.9922152973
16550200700.0 0.0168306762 -0.9927410802
16600200400.0 0.0010723234 -0.9928879115
16650200100.0 -0.0151307607 -0.9928366211
16700199800.0 -0.0315418763 -0.9923016212
16750199500.0 -0.0499889714 -0.9914310358
16800199200.0 -0.065360783 -0.9909279916
16850198900.0 -0.0805144915 -0.9895943478
16900198600.0 -0.0945651919 -0.9890523374
16950198300.0 -0.1078823657 -0.9871176298
17000198000.0 -0.1212132554 -0.9860071567
17050197700.0 -0.13430332 -0.9840293752
17100197400.0 -0.1466811539 -0.9819557332
17150197100.0 -0.1592857894 -0.980128134
17200196800.0 -0.1721760453 -0.9778070992
17250196500.0 -0.1853140522 -0.9756159264
17300196200.0 -0.1970491409 -0.9732663714
17350195900.0 -0.2091427518 -0.9711764049
17400195600.0 -0.2213611655 -0.9686350299
17450195300.0 -0.2344302782 -0.965821586
17500195000.0 -0.2477999817 -0.9626417628
17550194700.0 -0.2619740988 -0.9590797242
17600194400.0 -0.27541121 -0.9548197623
17650194100.0 -0.2890764448 -0.9510207525
17700193800.0 -0.3024367705 -0.9468169033
17750193500.0 -0.3163483785 -0.9425780195
17800193200.0 -0.331312255 -0.9369150514
17850192900.0 -0.3461731861 -0.9317261027
17900192600.0 -0.3610384868 -0.925265677
17950192300.0 -0.376982798 -0.9181490973
18000192000.0 -0.3915083439 -0.9111587843
18050191700.0 -0.4055206993 -0.9031120311
18100191400.0 -0.419829885 -0.8956897509
18150191100.0 -0.4348256589 -0.8874561523
18200190800.0 -0.4516851314 -0.878616974
18250190500.0 -0.4685577556 -0.8687644606
18300190200.0 -0.4841451982 -0.8600355475
18350189900.0 -0.4988463991 -0.8520016558
18400189600.0 -0.5135876123 -0.8435758151
18450189300.0 -0.5266368331 -0.8354289884
18500189000.0 -0.5404273538 -0.8276800192
18550188700.0 -0.5526062842 -0.82003221
18600188400.0 -0.5646837919 -0.8132805081
18650188100.0 -0.5755341119 -0.806624653
18700187800.0 -0.586432881 -0.800066128
18750187500.0 -0.5973698308 -0.7936043032
18800187200.0 -0.6076717215 -0.7865812592
18850186900.0 -0.6180229814 -0.7798768934
18900186600.0 -0.6281753397 -0.772314315
18950186300.0 -0.6382751317 -0.7646718024
19000186000.0 -0.645344957 -0.7587060198
19050185700.0 -0.6545328656 -0.7515717617
19100185400.0 -0.6645906423 -0.7432590343
19150185100.0 -0.6746081814 -0.7346218618
19200184800.0 -0.6843549214 -0.7264561731
19250184500.0 -0.6940807094 -0.7169793845
19300184200.0 -0.7059267669 -0.7072782756
19350183900.0 -0.7162827627 -0.6983222128
19400183600.0 -0.7256396678 -0.688334609
19450183300.0 -0.7350271463 -0.6773826769
19500183000.0 -0.743611557 -0.6679343176
19550182700.0 -0.753496028 -0.6566920648
19600182400.0 -0.7631718788 -0.6454100909
19650182100.0 -0.7741666563 -0.6328858994
19700181800.0 -0.7850172158 -0.6196525661
19750181500.0 -0.7955330851 -0.6056059877
19800181200.0 -0.8058424924 -0.590592689
19850180900.0 -0.8155188785 -0.575266198
19900180600.0 -0.8234907739 -0.5605863909
19950180300.0 -0.8326431247 -0.5446447139
20000180000.0 -0.8253715675 -0.5463182043
20050179700.0 -0.8339213125 -0.5337289218
20100179400.0 -0.8424106832 -0.5198068069
20150179100.0 -0.8502595773 -0.5074009591
20200178800.0 -0.859553979 -0.494508576
20250178500.0 -0.8688360509 -0.4820358835
20300178200.0 -0.8785415414 -0.4669939472
20350177900.0 -0.8875257122 -0.4527815586
20400177600.0 -0.8961167726 -0.4380904407
20450177300.0 -0.9047232975 -0.4236578169
20500177000.0 -0.912704642 -0.4100627883
20550176700.0 -0.9207080706 -0.396210165
20600176400.0 -0.9279130941 -0.3835891051
20650176100.0 -0.9344149226 -0.3710429172
20700175800.0 -0.9408202161 -0.3587419822
20750175500.0 -0.9472176205 -0.3471987104
20800175200.0 -0.9526722745 -0.335925027
20850174900.0 -0.9574981758 -0.3255492923
20900174600.0 -0.9618710546 -0.314793128
20950174300.0 -0.9651243329 -0.3025078329
21000174000.0 -0.9692137141 -0.2911747883
21050173700.0 -0.971327438 -0.2810490664
21100173400.0 -0.9752159088 -0.2694592263
21150173100.0 -0.9798923984 -0.2564608442
21200172800.0 -0.9826966284 -0.2431013885
21250172500.0 -0.9861297313 -0.2298469633
21300172200.0 -0.9891105982 -0.2149645093
21350171900.0 -0.9905700435 -0.2009937628
21400171600.0 -0.992025581 -0.1868747441
21450171300.0 -0.9928426454 -0.1723554709
21500171000.0 -0.9925275858 -0.1565902212
21550170700.0 -0.9924871806 -0.141703965
21600170400.0 -0.9932958383 -0.1248123651
21650170100.0 -0.9911869494 -0.1103790378
21700169800.0 -0.9893834604 -0.0937845756
21750169500.0 -0.9891349872 -0.0785625856
21800169200.0 -0.9887733723 -0.0621171926
21850168900.0 -0.9871295772 -0.0459267825
21900168600.0 -0.9860564805 -0.0289518203
21950168300.0 -0.9846406494 -0.0131637058
22000168000.0 -0.983781681 0.0018454769
22050167700.0 -0.9839675891 0.0159380566
22100167400.0 -0.9837858396 0.03126476
22150167100.0 -0.9846996666 0.0464991286
22200166800.0 -0.9852545056 0.0632951708
22250166500.0 -0.9842893595 0.0805782369
22300166200.0 -0.9839355995 0.0973435527
22350165900.0 -0.9829123232 0.1135282347
22400165600.0 -0.9804440388 0.1289363858
22450165300.0 -0.9792123973 0.1438687506
22500165000.0 -0.9768040363 0.1575707327
22550164700.0 -0.9771330485 0.1736043744
22600164400.0 -0.9741646006 0.1890710644
22650164100.0 -0.9727916976 0.2040981865
22700163800.0 -0.9694433586 0.219903729
22750163500.0 -0.9666035293 0.2343761269
22800163200.0 -0.9635003054 0.2481826674
22850162900.0 -0.9615101035 0.261157094
22900162600.0 -0.9601574069 0.2743592417
22950162300.0 -0.9589968393 0.2872568069
23000162000.0 -0.9577046359 0.2991677024
23050161700.0 -0.9555687488 0.3117763852
23100161400.0 -0.9535812479 0.3248052228
23150161100.0 -0.9502470074 0.3371712883
23200160800.0 -0.9473872876 0.3495023996
23250160500.0 -0.9451124963 0.3615348887
23300160200.0 -0.942468095 0.373110924
23350159900.0 -0.9385231207 0.3872612426
23400159600.0 -0.9341143858 0.3999472348
23450159300.0 -0.9285560357 0.4129491659
23500159000.0 -0.9247169243 0.4263087675
23550158700.0 -0.9200342394 0.4395963328
23600158400.0 -0.9144551943 0.4528789321
23650158100.0 -0.9082456901 0.4669436211
23700157800.0 -0.9005582723 0.4809911189
23750157500.0 -0.8921423246 0.4948415451
23800157200.0 -0.8833879877 0.5085645269
23850156900.0 -0.874206712 0.5207593463
23900156600.0 -0.8647518165 0.5338084969
23950156300.0 -0.8561295079 0.545513976
24000156000.0 -0.8470204083 0.5581586462
24050155700.0 -0.8364247544 0.5702971334
24100155400.0 -0.8263203741 0.5816873838
24150155100.0 -0.8166700241 0.5935880513
24200154800.0 -0.8055101528 0.6046164103
24250154500.0 -0.7941749742 0.6163424896
24300154200.0 -0.7828342502 0.6275893383
24350153900.0 -0.7711826787 0.6388293904
24400153600.0 -0.7588777314 0.6486403481
24450153300.0 -0.7470631406 0.6587373972
24500153000.0 -0.7351688435 0.6685703825
24550152700.0 -0.7242049967 0.6782661896
24600152400.0 -0.7129108703 0.6871934769
24650152100.0 -0.7009527226 0.6960315012
