!Created with skrf (http://scikit-rf.org).
# Hz S RI R 50.0 
!freq ReS11 ImS11
300000.0 -0.9708146498 -0.1215258457
50299700.0 -0.9999041533 0.0149344098
100299400.0 -0.9979833871 0.0280065475
150299100.0 -1.002701411 0.044850824
200298800.0 -0.9995812284 0.0580934138
250298500.0 -0.9973149013 0.0717910543
300298200.0 -0.9859484528 0.0874501769
350297900.0 -0.9939996494 0.0981584257
400297600.0 -0.9932079145 0.114814487
450297300.0 -0.990900918 0.1285944634
500297000.0 -0.9893426033 0.1433176024
550296700.0 -0.9844717904 0.1557272824
600296400.0 -1.017439551 0.1892490469
650296100.0 -0.9822677916 0.1856601724
700295800.0 -0.9793325623 0.1999288474
750295500.0 -0.9760976372 0.2138784597
800295200.0 -0.9729858409 0.2280077809
850294900.0 -0.9696416416 0.2419746446
900294600.0 -0.9657976036 0.25572217
950294300.0 -0.9621807814 0.2691290119
1000294000.0 -0.9581335515 0.2833641818
1050293700.0 -0.9537408142 0.2968903798
1100293400.0 -0.9492933284 0.3114782537
1150293100.0 -0.945624724 0.3234103583
1200292800.0 -0.9401002047 0.3376939893
1250292500.0 -0.9346441951 0.3514129345
1300292200.0 -0.9290656945 0.3644528833
1350291900.0 -0.9234578357 0.3783818215
1400291600.0 -0.9180393958 0.3916352662
1450291300.0 -0.9124906491 0.4040510966
1500291000.0 -0.9062557625 0.4173791811
1550290700.0 -0.8997738171 0.4307237991
1600290400.0 -0.8935733511 0.4436979416
1650290100.0 -0.886736013 0.4557854654
1700289800.0 -0.879770443 0.4691715567
1750289500.0 -0.8727624851 0.4815413676
1800289200.0 -0.8656171396 0.4944210968
1850288900.0 -0.8587221613 0.5059148342
1900288600.0 -0.850996571 0.5187342258
1950288300.0 -0.8429854082 0.5312976142
2000288000.0 -0.8355704376 0.5429187767
2050287700.0 -0.8273037792 0.5551173316
2100287400.0 -0.8192659479 0.5665971098
2150287100.0 -0.8111219878 0.5788880037
2200286800.0 -0.8030260305 0.5890958892
2250286500.0 -0.7941642874 0.6012725101
2300286200.0 -0.7852191681 0.6127583014
2350285900.0 -0.7767943986 0.6235236139
2400285600.0 -0.768070936 0.6344720445
2450285300.0 -0.759099332 0.6449256234
2500285000.0 -0.7492584561 0.6566650855
2550284700.0 -0.7400633666 0.6671490411
2600284400.0 -0.7309331993 0.6769602003
2650284100.0 -0.722285459 0.6870489511
2700283800.0 -0.7115620136 0.6976518727
2750283500.0 -0.7016438604 0.7083016717
2800283200.0 -0.6917487502 0.7181224896
2850282900.0 -0.6810809227 0.7283253171
2900282600.0 -0.670591065 0.7374231541
2950282300.0 -0.6600742874 0.7473628847
3000282000.0 -0.6494144132 0.7567803829
3050281700.0 -0.6382507189 0.7660125247
3100281400.0 -0.6268488553 0.7750692134
3150281100.0 -0.615496937 0.7840060823
3200280800.0 -0.6040038903 0.7924411213
3250280500.0 -0.5931118716 0.8002399563
3300280200.0 -0.58146234 0.8086476825
3350279900.0 -0.5693523691 0.8165448228
3400279600.0 -0.5568410796 0.8246561401
3450279300.0 -0.5454372101 0.8315832054
3500279000.0 -0.5336675726 0.8384031481
3550278700.0 -0.5216880457 0.8458224966
3600278400.0 -0.5096664871 0.8522632448
3650278100.0 -0.4967156244 0.8598773424
3700277800.0 -0.4846719038 0.8665939221
3750277500.0 -0.4722666501 0.8732574547
3800277200.0 -0.4596338414 0.8797408053
3850276900.0 -0.4477267442 0.8855884023
3900276600.0 -0.4370472074 0.8914615896
3950276300.0 -0.4247466559 0.897393981
4000276000.0 -0.4133386944 0.9030255677
4050275700.0 -0.4002932451 0.9090321787
4100275400.0 -0.3893344322 0.9145557387
4150275100.0 -0.3759757346 0.9205346395
4200274800.0 -0.3626722427 0.9261846464
4250274500.0 -0.3499799024 0.9313064925
4300274200.0 -0.3365831129 0.9367685199
4350273900.0 -0.3224159911 0.9420617571
4400273600.0 -0.3076911442 0.9472402127
4450273300.0 -0.2926978435 0.9520643492
4500273000.0 -0.2795844143 0.9563106576
4550272700.0 -0.2660622218 0.9606931873
4600272400.0 -0.2510252899 0.9646008109
4650272100.0 -0.2395629892 0.9677667187
4700271800.0 -0.2266344812 0.9710795847
4750271500.0 -0.2150347366 0.9740189823
4800271200.0 -0.2028315775 0.9766064861
4850270900.0 -0.1888830107 0.9796224401
4900270600.0 -0.1753208529 0.9820872637
4950270300.0 -0.1606994963 0.9846327472
5000270000.0 -0.1461485994 0.9867098786
5050269700.0 -0.1327412066 0.9883475652
5100269400.0 -0.1187741195 0.9897311238
5150269100.0 -0.104647161 0.9916967345
5200268800.0 -0.0911743673 0.9927761815
5250268500.0 -0.0783386528 0.9939912332
5300268200.0 -0.0644637354 0.9942659943
5350267900.0 -0.0518205585 0.9951963376
5400267600.0 -0.0355312661 0.9960889966
5450267300.0 -0.0222242205 0.99649318
5500267000.0 -0.0069137307 0.9971435573
5550266700.0 0.0082795793 0.9971256515
5600266400.0 0.0240000345 0.9971220603
5650266100.0 0.0406697268 0.9969042229
5700265800.0 0.0547081162 0.9957660345
5750265500.0 0.0696763607 0.9950013571
5800265200.0 0.0830999106 0.9939953052
5850264900.0 0.0964113982 0.9930905594
5900264600.0 0.1127513915 0.9914025736
5950264300.0 0.1245809528 0.9893796382
6000264000.0 0.1383199487 0.9878545564
6050263700.0 0.1498184798 0.9866379062
6100263400.0 0.1617759992 0.9849776583
6150263100.0 0.1767407726 0.9824980638
6200262800.0 0.1863078745 0.9811803173
6250262500.0 0.1986944426 0.9788749808
6300262200.0 0.211182735 0.9760156885
6350261900.0 0.2239441045 0.9734477926
6400261600.0 0.237885784 0.9701049479
6450261300.0 0.2488389934 0.9676522022
6500261000.0 0.2621256705 0.9639869803
6550260700.0 0.2754582157 0.9602689334
6600260400.0 0.2887487572 0.9560918032
6650260100.0 0.3028790131 0.9514060635
6700259800.0 0.3150473378 0.9475109583
6750259500.0 0.3284781265 0.9423778859
6800259200.0 0.3419820682 0.9370839472
6850258900.0 0.3546757434 0.9319466521
6900258600.0 0.3673084762 0.9270430439
6950258300.0 0.3795209187 0.9216890939
7000258000.0 0.3914192709 0.9162484745
7050257700.0 0.4032582566 0.9105079806
7100257400.0 0.4166334367 0.9039847418
7150257100.0 0.4271949062 0.8986954716
7200256800.0 0.4402757198 0.8922366881
7250256500.0 0.4527939648 0.8853237001
7300256200.0 0.4660083599 0.8788861056
7350255900.0 0.4789703583 0.871948304
7400255600.0 0.4929080296 0.8639248481
7450255300.0 0.5088643158 0.8549706262
7500255000.0 0.5209942733 0.8474938766
7550254700.0 0.5348974311 0.8381172869
7600254400.0 0.5477256073 0.8302968688
7650254100.0 0.5594396504 0.8220165354
7700253800.0 0.5709104446 0.8138908667
7750253500.0 0.5819950681 0.8063795516
7800253200.0 0.5923368209 0.7986668126
7850252900.0 0.6022935441 0.7913571819
7900252600.0 0.6138000641 0.7826433812
7950252300.0 0.6222060748 0.7763054594
8000252000.0 0.6318401704 0.7688042231
8050251700.0 0.6424477996 0.7604270847
8100251400.0 0.6522321223 0.7525288355
8150251100.0 0.6623439181 0.7440972624
8200250800.0 0.6718387129 0.7358548165
8250250500.0 0.6805153191 0.7280017888
8300250200.0 0.6898676196 0.7196806642
8350249900.0 0.699217481 0.7108491132
8400249600.0 0.70695778 0.7028329868
8450249300.0 0.7157895017 0.6943002826
8500249000.0 0.7243002617 0.6852503819
8550248700.0 0.7328248318 0.6762883825
8600248400.0 0.7410957981 0.6668161487
8650248100.0 0.7485063504 0.6574504643
8700247800.0 0.7579692488 0.6463320018
8750247500.0 0.7663474884 0.6362297804
8800247200.0 0.7741481931 0.6258411781
8850246900.0 0.7830613882 0.6145879887
8900246600.0 0.7915489265 0.6032608555
8950246300.0 0.800750348 0.5906016771
9000246000.0 0.8094905496 0.5785308498
9050245700.0 0.8180599792 0.5660270075
9100245400.0 0.8261611242 0.5537884725
9150245100.0 0.8353894833 0.5407626574
9200244800.0 0.8444646087 0.5266839273
9250244500.0 0.8531209603 0.5118208955
9300244200.0 0.8617177275 0.4982132945
9350243900.0 0.8692317417 0.485114728
9400243600.0 0.8758733752 0.4733361734
9450243300.0 0.8812416621 0.4628821675
9500243000.0 0.8875657321 0.4513152676
9550242700.0 0.8915769676 0.443692232
9600242400.0 0.8956913379 0.4361137407
9650242100.0 0.8999962006 0.4291820343
9700241800.0 0.904915106 0.4206142459
9750241500.0 0.9090209825 0.4131013137
9800241200.0 0.9143304928 0.4034729139
9850240900.0 0.9199165777 0.3918789466
9900240600.0 0.9255759086 0.3802221161
9950240300.0 0.9329228716 0.3633770762
10000240000.0 0.9380306971 0.3508953548
10050239700.0 0.9440229274 0.3350586955
10100239400.0 0.9493797874 0.31875408
10150239100.0 0.9541114871 0.303254637
10200238800.0 0.958565427 0.2876392905
10250238500.0 0.9616992341 0.2742001078
10300238200.0 0.9647732654 0.2602552525
10350237900.0 0.9674522205 0.247024391
10400237600.0 0.9701374725 0.2336083224
10450237300.0 0.9726786875 0.219829067
10500237000.0 0.9749540582 0.2073659196
10550236700.0 0.9772896887 0.1929321926
10600236400.0 0.9791336446 0.1792545583
10650236100.0 0.9814152284 0.1644559998
10700235800.0 0.9838741301 0.152390538
10750235500.0 0.9860380184 0.1386569573
10800235200.0 0.9878813517 0.124689499
10850234900.0 0.9900673792 0.1096920598
10900234600.0 0.9918772771 0.0946827477
10950234300.0 0.9938194477 0.081090549
11000234000.0 0.9956921581 0.0654623793
11050233700.0 0.9974198162 0.0486067914
11100233400.0 0.9990653406 0.0307636421
11150233100.0 0.9999439553 0.0139537412
11200232800.0 1.000825062 -0.0019035506
11250232500.0 1.00142226 -0.0197439086
11300232200.0 1.00159522 -0.0383264974
11350231900.0 1.002355603 -0.0548866486
11400231600.0 1.001300965 -0.069875166
11450231300.0 1.001187702 -0.0860989043
11500231000.0 0.9996854859 -0.1018592106
11550230700.0 0.9985817529 -0.1144701426
11600230400.0 0.9970697216 -0.127961288
11650230100.0 0.994887933 -0.1396282407
11700229800.0 0.9925709685 -0.1545023254
11750229500.0 0.9902801733 -0.168360482
11800229200.0 0.9873846375 -0.1816885723
11850228900.0 0.9837973906 -0.193666472
11900228600.0 0.9801016981 -0.2029218438
11950228300.0 0.976555003 -0.213562178
12000228000.0 0.9735506701 -0.2227873868
12050227700.0 0.9697744425 -0.234540623
12100227400.0 0.9667451695 -0.2454945324
12150227100.0 0.9621909088 -0.2626017941
12200226800.0 0.9578579073 -0.2735733485
12250226500.0 0.9536269429 -0.2865380207
12300226200.0 0.949901136 -0.2981690612
12350225900.0 0.9445957707 -0.3126268255
12400225600.0 0.9403080801 -0.3246656771
12450225300.0 0.9354160388 -0.3372058258
12500225000.0 0.9301436778 -0.3521391537
12550224700.0 0.9248770584 -0.3660101528
12600224400.0 0.9198734446 -0.3784135224
12650224100.0 0.9141424972 -0.3927329055
12700223800.0 0.9088291986 -0.4056609539
12750223500.0 0.9034888038 -0.4182575592
12800223200.0 0.8978778394 -0.4310960547
12850222900.0 0.8926548181 -0.4433571472
12900222600.0 0.8872485424 -0.4556832747
12950222300.0 0.8810779876 -0.4678476296
13000222000.0 0.8750182797 -0.4795986111
13050221700.0 0.8683687355 -0.4924384522
13100221400.0 0.8614243628 -0.5046609255
13150221100.0 0.8544282714 -0.5168084687
13200220800.0 0.8479352086 -0.5280963658
13250220500.0 0.8403633868 -0.5403638773
13300220200.0 0.8328659735 -0.5512986449
13350219900.0 0.8245473581 -0.5633243545
13400219600.0 0.8161051104 -0.5752097997
13450219300.0 0.8069697595 -0.588396564
13500219000.0 0.7971695323 -0.6016730357
13550218700.0 0.7873932025 -0.6138184657
13600218400.0 0.7771167124 -0.6259237019
13650218100.0 0.7674250169 -0.6362186734
13700217800.0 0.7574988923 -0.6482735492
13750217500.0 0.7481092063 -0.6593573179
13800217200.0 0.735907025 -0.6703186229
13850216900.0 0.7259306916 -0.6818218405
13900216600.0 0.7160146594 -0.6906736148
13950216300.0 0.7050025503 -0.7011672944
14000216000.0 0.6950720731 -0.7097412824
14050215700.0 0.6857264482 -0.7174177613
14100215400.0 0.6762216111 -0.7265053077
14150215100.0 0.6676030044 -0.7352027953
14200214800.0 0.6577496351 -0.7442358796
14250214500.0 0.6475317872 -0.7536199693
14300214200.0 0.6370420562 -0.7630816543
14350213900.0 0.6258538601 -0.7727790603
14400213600.0 0.6139404617 -0.7826285811
14450213300.0 0.6011130289 -0.7928733312
14500213000.0 0.5880376645 -0.8025613104
14550212700.0 0.5757430353 -0.8117608032
14600212400.0 0.5630960674 -0.8208922341
14650212100.0 0.550699735 -0.8295454467
14700211800.0 0.5370955346 -0.8389155095
14750211500.0 0.5245605645 -0.8471385301
14800211200.0 0.5122331824 -0.8554626499
14850210900.0 0.4998879378 -0.8631342655
14900210600.0 0.4866313176 -0.8712267901
14950210300.0 0.4733589922 -0.8787516861
15000210000.0 0.4608393611 -0.8856489652
15050209700.0 0.4486058959 -0.891605067
15100209400.0 0.4353376912 -0.8975137449
15150209100.0 0.4234517254 -0.9031828524
15200208800.0 0.4106408751 -0.9078171935
15250208500.0 0.4001217993 -0.9123288364
15300208200.0 0.3872079759 -0.9170736975
15350207900.0 0.3739510153 -0.922428257
15400207600.0 0.3589207829 -0.9275946833
15450207300.0 0.3450458274 -0.9322369367
15500207000.0 0.3298998296 -0.9371246192
15550206700.0 0.3146540229 -0.9424863688
15600206400.0 0.2990802726 -0.946493238
15650206100.0 0.2836735955 -0.9509972528
15700205800.0 0.2702128662 -0.9546505383
15750205500.0 0.2561518591 -0.9578436619
15800205200.0 0.2420827593 -0.9612113533
15850204900.0 0.2278793402 -0.9647463946
15900204600.0 0.2128606675 -0.9685276342
15950204300.0 0.1984378896 -0.9715844599
16000204000.0 0.1840290182 -0.9743065696
16050203700.0 0.1686519834 -0.9775074514
16100203400.0 0.1543949993 -0.9796889086
16150203100.0 0.1395327767 -0.9821260446
16200202800.0 0.1252723032 -0.9844404675
16250202500.0 0.1105864217 -0.9859915279
16300202200.0 0.0946974847 -0.9876343335
16350201900.0 0.0799746403 -0.9891682436
16400201600.0 0.0648778694 -0.9899861122
16450201300.0 0.04971089 -0.9912223863
16500201000.0 0.0326163174 -0.9921116084
16550200700.0 0.016596524 -0.9923930739
16600200400.0 0.0005451533 -0.9930089633
16650200100.0 -0.015381687 -0.9927937356
16700199800.0 -0.0318460521 -0.992044394
16750199500.0 -0.0512904464 -0.9915099088
16800199200.0 -0.0665697362 -0.9903774107
16850198900.0 -0.0823563069 -0.9891704096
16900198600.0 -0.0967735719 -0.9886621137
16950198300.0 -0.11033776 -0.987331643
17000198000.0 -0.1232292544 -0.9863023083
17050197700.0 -0.1355587316 -0.9840984087
17100197400.0 -0.149311054 -0.9820690802
17150197100.0 -0.1617258292 -0.9801160699
17200196800.0 -0.1746013437 -0.9780343857
17250196500.0 -0.1875980088 -0.9753559239
17300196200.0 -0.1995900231 -0.9729656695
17350195900.0 -0.2113540358 -0.9706635042
17400195600.0 -0.2233274265 -0.9681594188
17450195300.0 -0.236154048 -0.9653936449
17500195000.0 -0.2494962994 -0.9618449708
17550194700.0 -0.262970749 -0.9584719874
17600194400.0 -0.277370008 -0.9547419918
17650194100.0 -0.2906922148 -0.9500788651
17700193800.0 -0.3038290077 -0.9461676396
17750193500.0 -0.3179363439 -0.9418438939
17800193200.0 -0.3319674471 -0.9365175378
17850192900.0 -0.3470825923 -0.9311767425
17900192600.0 -0.3616904044 -0.9249905838
17950192300.0 -0.3773796685 -0.9178420129
18000192000.0 -0.3924277294 -0.9106474883
18050191700.0 -0.4058583666 -0.9026936595
18100191400.0 -0.4201989496 -0.8948986206
18150191100.0 -0.4349925421 -0.8869676945
18200190800.0 -0.4517644072 -0.8777892696
18250190500.0 -0.4689290864 -0.8680253098
18300190200.0 -0.4843074972 -0.8594818386
18350189900.0 -0.4997420121 -0.851538454
18400189600.0 -0.5143230688 -0.8426535115
18450189300.0 -0.5274678972 -0.8350687675
18500189000.0 -0.5407537467 -0.8263704809
18550188700.0 -0.5540439755 -0.8187349903
18600188400.0 -0.5658273275 -0.8119253184
18650188100.0 -0.5769123018 -0.8055693043
18700187800.0 -0.5884513177 -0.7985610448
18750187500.0 -0.5989173166 -0.7919878084
18800187200.0 -0.6094877745 -0.7851946943
18850186900.0 -0.6196709826 -0.7783671843
18900186600.0 -0.6300226891 -0.7708236794
18950186300.0 -0.6401219631 -0.7631416946
19000186000.0 -0.6477296749 -0.7570488233
19050185700.0 -0.6568599416 -0.749622119
19100185400.0 -0.6671951962 -0.7413930503
19150185100.0 -0.677502585 -0.7337040212
19200184800.0 -0.6862591586 -0.7248253492
19250184500.0 -0.6967541876 -0.7155125159
19300184200.0 -0.7077869927 -0.7065277686
19350183900.0 -0.7187636935 -0.6969029966
19400183600.0 -0.7283871236 -0.6867587479
19450183300.0 -0.7374227166 -0.6768944603
19500183000.0 -0.74523451 -0.6664963319
19550182700.0 -0.7559490375 -0.6559171135
19600182400.0 -0.7658241204 -0.6442656681
19650182100.0 -0.7764041404 -0.6318026916
19700181800.0 -0.7866631813 -0.6184624421
19750181500.0 -0.7970421966 -0.6045591511
19800181200.0 -0.8071287397 -0.5895865443
19850180900.0 -0.8167816572 -0.5743190686
19900180600.0 -0.8246975258 -0.5596598949
19950180300.0 -0.8336543425 -0.5435398973
20000180000.0 -0.8230914518 -0.5468752496
20050179700.0 -0.8311797611 -0.534446261
20100179400.0 -0.8395316949 -0.5218613295
20150179100.0 -0.8478727333 -0.510364081
20200178800.0 -0.8559583733 -0.4974185309
20250178500.0 -0.8657452072 -0.4858888768
20300178200.0 -0.8757582377 -0.471558396
20350177900.0 -0.8845478714 -0.4573169339
20400177600.0 -0.8934728293 -0.4430388947
20450177300.0 -0.9021645369 -0.4289731991
20500177000.0 -0.9102108167 -0.414959994
20550176700.0 -0.9180772392 -0.4017385561
20600176400.0 -0.9248248097 -0.3889219102
20650176100.0 -0.9316864905 -0.3766932737
20700175800.0 -0.9380362207 -0.3646643642
20750175500.0 -0.9442816724 -0.3524479123
20800175200.0 -0.9489911168 -0.3420370879
20850174900.0 -0.953929784 -0.3316046491
20900174600.0 -0.9578673316 -0.3206956332
20950174300.0 -0.9612460664 -0.310011863
21000174000.0 -0.963941551 -0.2993325
21050173700.0 -0.9657561751 -0.2893575078
21100173400.0 -0.969551411 -0.2777329248
21150173100.0 -0.973508859 -0.2664495633
21200172800.0 -0.9770085615 -0.2538678143
21250172500.0 -0.9804016503 -0.2395893365
21300172200.0 -0.9844077972 -0.2259382645
21350171900.0 -0.9861899985 -0.2113302392
21400171600.0 -0.9879151799 -0.1971692867
21450171300.0 -0.9883282429 -0.1820886709
21500171000.0 -0.9891965412 -0.1675790256
21550170700.0 -0.9892836509 -0.1521758586
21600170400.0 -0.9911328332 -0.1374463848
21650170100.0 -0.991177401 -0.122339793
21700169800.0 -0.9891903312 -0.1068390948
21750169500.0 -0.9897064184 -0.0902394598
21800169200.0 -0.9905784343 -0.0743960004
21850168900.0 -0.9891910747 -0.0570565758
21900168600.0 -0.9889609025 -0.0405187036
21950168300.0 -0.9887513648 -0.0254455108
22000168000.0 -0.9889528443 -0.0100148903
22050167700.0 -0.9894659535 0.0044923669
22100167400.0 -0.9901783658 0.0204233041
22150167100.0 -0.9911435009 0.0362492694
22200166800.0 -0.991726208 0.0529255676
22250166500.0 -0.9908946912 0.0705658377
22300166200.0 -0.9899826202 0.0870193067
22350165900.0 -0.9889922396 0.1026123479
22400165600.0 -0.9880516242 0.1191823557
22450165300.0 -0.9860822228 0.1332751163
22500165000.0 -0.9840556191 0.1475131844
22550164700.0 -0.9830755661 0.1633957196
22600164400.0 -0.9811198757 0.1802139637
22650164100.0 -0.9781356913 0.196167
22700163800.0 -0.974463893 0.2117238745
22750163500.0 -0.9716001948 0.2266211317
22800163200.0 -0.968985878 0.2396002754
22850162900.0 -0.9663627282 0.2527872953
22900162600.0 -0.9648214308 0.2665380274
22950162300.0 -0.9628036356 0.280801157
23000162000.0 -0.9609017989 0.2930940876
23050161700.0 -0.9581279899 0.3067410084
23100161400.0 -0.9556546357 0.3200144501
23150161100.0 -0.9525185547 0.3330992471
23200160800.0 -0.9494891194 0.3458382873
23250160500.0 -0.9468233147 0.3581776016
23300160200.0 -0.9440073644 0.3714177003
23350159900.0 -0.9400346439 0.3840660417
23400159600.0 -0.935695026 0.3979023109
23450159300.0 -0.9295961732 0.4123999196
23500159000.0 -0.9252612842 0.4259290388
23550158700.0 -0.9200467496 0.4400375928
23600158400.0 -0.9141255176 0.4539300982
23650158100.0 -0.9069933163 0.4685966197
23700157800.0 -0.8984378765 0.4827771581
23750157500.0 -0.8890925259 0.4968516979
23800157200.0 -0.8793603181 0.5107456392
23850156900.0 -0.8698820191 0.5231891941
23900156600.0 -0.8597087839 0.5361528542
23950156300.0 -0.8507130125 0.5485965339
24000156000.0 -0.8404530329 0.560819755
24050155700.0 -0.8296856428 0.5724363924
24100155400.0 -0.8196096394 0.5858696183
24150155100.0 -0.8091216009 0.5980190602
24200154800.0 -0.7980475377 0.6087681575
24250154500.0 -0.786991386 0.621593162
24300154200.0 -0.7754479709 0.6340855166
24350153900.0 -0.7630658722 0.6446004701
24400153600.0 -0.7508341338 0.6554491432
24450153300.0 -0.7385278432 0.6654591099
24500153000.0 -0.7269708959 0.6757079869
24550152700.0 -0.715520924 0.6857410849
24600152400.0 -0.7035780082 0.694821424
24650152100.0 -0.6914368224 0.703870062
