!Created with skrf (http://scikit-rf.org).
# Hz S RI R 50.0 
!freq ReS11 ImS11
300000.0 -0.9747137655 -0.1211833072
50299700.0 -1.00008061 0.0151801143
100299400.0 -0.9980738684 0.0281898895
150299100.0 -1.002713475 0.0452768891
200298800.0 -0.999632047 0.058505494
250298500.0 -0.9975644535 0.0720574557
300298200.0 -0.9861449253 0.0878212739
350297900.0 -0.9940978713 0.0985563042
400297600.0 -0.9931568274 0.115210748
450297300.0 -0.991046533 0.1289692802
500297000.0 -0.9894781141 0.1437460489
550296700.0 -0.9844624456 0.1560466919
600296400.0 -1.017403019 0.1892842897
650296100.0 -0.9822241224 0.1860293042
700295800.0 -0.9792158652 0.2004414058
750295500.0 -0.9765909668 0.2142877567
800295200.0 -0.973164869 0.2282444587
850294900.0 -0.9696788883 0.2420299653
900294600.0 -0.9658615883 0.2559933309
950294300.0 -0.9623170303 0.2697411436
1000294000.0 -0.9581541917 0.2837540647
1050293700.0 -0.9536416279 0.297568581
1100293400.0 -0.9492437181 0.3120483809
1150293100.0 -0.9456047896 0.3237325491
1200292800.0 -0.9402160044 0.3380467629
1250292500.0 -0.9344705529 0.3516702238
1300292200.0 -0.9289947768 0.3647794938
1350291900.0 -0.9232562917 0.3788566767
1400291600.0 -0.9177785358 0.3918862598
1450291300.0 -0.9124185503 0.4042624093
1500291000.0 -0.9061491584 0.417729114
1550290700.0 -0.8996172623 0.4312132512
1600290400.0 -0.8935282615 0.4441353182
1650290100.0 -0.8867361064 0.4559142052
1700289800.0 -0.8799557032 0.4695836289
1750289500.0 -0.8728675797 0.4818384167
1800289200.0 -0.8656519012 0.4948217577
1850288900.0 -0.8586546295 0.506049482
1900288600.0 -0.8508639692 0.5190266263
1950288300.0 -0.8429507055 0.531747683
2000288000.0 -0.8352670165 0.5432825789
2050287700.0 -0.8272345644 0.5553861809
2100287400.0 -0.819357603 0.5670381258
2150287100.0 -0.8106932992 0.5790854017
2200286800.0 -0.8032220373 0.5893503137
2250286500.0 -0.7941178007 0.6015417233
2300286200.0 -0.7853760838 0.6130792054
2350285900.0 -0.7764533418 0.6239584471
2400285600.0 -0.7676670812 0.6349714013
2450285300.0 -0.7591665955 0.6453373676
2500285000.0 -0.7493450603 0.6566843187
2550284700.0 -0.7402953318 0.6671077146
2600284400.0 -0.7309514407 0.6770488018
2650284100.0 -0.722061028 0.687436569
2700283800.0 -0.7114569715 0.6983243411
2750283500.0 -0.7014710861 0.7089856124
2800283200.0 -0.6913162842 0.7185554624
2850282900.0 -0.6810912449 0.7284662323
2900282600.0 -0.6706239487 0.7379326949
2950282300.0 -0.6604005095 0.7470487596
3000282000.0 -0.6498742109 0.7567883203
3050281700.0 -0.638584844 0.7659339296
3100281400.0 -0.6269096775 0.7753821598
3150281100.0 -0.6151737646 0.7847286875
3200280800.0 -0.6035475835 0.7930936056
3250280500.0 -0.5925058373 0.8009769386
3300280200.0 -0.5813277912 0.8087731485
3350279900.0 -0.5696943684 0.8164229231
3400279600.0 -0.5573813377 0.8241128775
3450279300.0 -0.5462658756 0.8312426389
3500279000.0 -0.5343682519 0.8382879318
3550278700.0 -0.5217776968 0.8454853174
3600278400.0 -0.5096774565 0.8527808153
3650278100.0 -0.4966534168 0.8603250186
3700277800.0 -0.4845139299 0.8668219611
3750277500.0 -0.4723266049 0.8734912348
3800277200.0 -0.4599766163 0.8800324941
3850276900.0 -0.4474927349 0.8856302708
3900276600.0 -0.4368249022 0.8912614815
3950276300.0 -0.4244496474 0.8974470441
4000276000.0 -0.4127693303 0.9034049759
4050275700.0 -0.3995844713 0.9094955583
4100275400.0 -0.388604274 0.9148627355
4150275100.0 -0.3758778588 0.9204214096
4200274800.0 -0.3628741932 0.9262039364
4250274500.0 -0.3504133245 0.9311643112
4300274200.0 -0.3374187864 0.9365667332
4350273900.0 -0.3238557455 0.941948732
4400273600.0 -0.3089896366 0.9472213772
4450273300.0 -0.2935466287 0.9522337903
4500273000.0 -0.2799786958 0.9565784511
4550272700.0 -0.2658601568 0.9607140634
4600272400.0 -0.2504265827 0.9649158182
4650272100.0 -0.2387339995 0.9682273405
4700271800.0 -0.2256472953 0.9714967791
4750271500.0 -0.2137017579 0.9743336016
4800271200.0 -0.2012846748 0.9770932884
4850270900.0 -0.1875016569 0.9801062252
4900270600.0 -0.173466525 0.9825734139
4950270300.0 -0.1591416188 0.9848455333
5000270000.0 -0.1450682871 0.9868967909
5050269700.0 -0.1314820678 0.9886990652
5100269400.0 -0.1178757133 0.9902280274
5150269100.0 -0.1043139426 0.9918865081
5200268800.0 -0.0912101256 0.9930786905
5250268500.0 -0.0778721431 0.9939506443
5300268200.0 -0.0648285377 0.9944096597
5350267900.0 -0.0526934269 0.9956283128
5400267600.0 -0.03625437 0.9966173084
5450267300.0 -0.0232045494 0.9964672348
5500267000.0 -0.0079227829 0.9970171483
5550266700.0 0.0067705576 0.9973363504
5600266400.0 0.0223817928 0.997386633
5650266100.0 0.0386289785 0.997044439
5700265800.0 0.0535498191 0.9965420148
5750265500.0 0.068329083 0.9955949361
5800265200.0 0.082624744 0.9944641086
5850264900.0 0.0955928653 0.9934684859
5900264600.0 0.1123672561 0.9917212856
5950264300.0 0.1241713416 0.9896149555
6000264000.0 0.138090373 0.9881015734
6050263700.0 0.1508532037 0.9867576615
6100263400.0 0.1630800214 0.9851648387
6150263100.0 0.1774071555 0.9824828123
6200262800.0 0.1879277613 0.9807794472
6250262500.0 0.2004770735 0.9783556098
6300262200.0 0.2134473616 0.9758855618
6350261900.0 0.2263083268 0.9729940493
6400261600.0 0.2401417604 0.9695877369
6450261300.0 0.2517141496 0.9669324053
6500261000.0 0.2645756231 0.9633454258
6550260700.0 0.2774705361 0.9593712638
6600260400.0 0.2907423783 0.9554309647
6650260100.0 0.3049039984 0.9510566903
6700259800.0 0.3167670859 0.9468737535
6750259500.0 0.3304971314 0.9417405098
6800259200.0 0.3436406896 0.9368952488
6850258900.0 0.3554987215 0.9314513355
6900258600.0 0.368118715 0.9267627985
6950258300.0 0.3802156043 0.921320951
7000258000.0 0.3924353963 0.9158804267
7050257700.0 0.4045716182 0.9099532609
7100257400.0 0.4175628672 0.9036489413
7150257100.0 0.4278921268 0.8983685963
7200256800.0 0.4407965452 0.89202543
7250256500.0 0.4525828516 0.8855225648
7300256200.0 0.4657906041 0.8788780244
7350255900.0 0.477976526 0.8721564006
7400255600.0 0.4915914727 0.8646580648
7450255300.0 0.5070020649 0.8555412995
7500255000.0 0.5186150329 0.8485672715
7550254700.0 0.5323280356 0.8398727122
7600254400.0 0.545403582 0.8314841389
7650254100.0 0.5569764781 0.8238636267
7700253800.0 0.5688632114 0.8159079912
7750253500.0 0.5799231808 0.8081831291
7800253200.0 0.5905135949 0.8005802378
7850252900.0 0.6001037926 0.7935411068
7900252600.0 0.6117834351 0.7846892363
7950252300.0 0.6204996291 0.7782160759
8000252000.0 0.6307476997 0.7704330659
8050251700.0 0.6411442694 0.7624563796
8100251400.0 0.65142525 0.7541594876
8150251100.0 0.6613808028 0.7457171953
8200250800.0 0.6708940981 0.7378056376
8250250500.0 0.6798231749 0.7297418917
8300250200.0 0.6887976576 0.7210620994
8350249900.0 0.6980566205 0.7125417158
8400249600.0 0.7064159685 0.7042246269
8450249300.0 0.7151613005 0.6949958084
8500249000.0 0.7242055802 0.6862892713
8550248700.0 0.7323054178 0.6772872293
8600248400.0 0.7407250155 0.6678641617
8650248100.0 0.7485359061 0.6582612217
8700247800.0 0.7579986481 0.647084271
8750247500.0 0.7662720228 0.6369742124
8800247200.0 0.7744801308 0.626537701
8850246900.0 0.7831906029 0.6151658098
8900246600.0 0.7915326893 0.6037631057
8950246300.0 0.8010903636 0.590827505
9000246000.0 0.8103991904 0.5783623888
9050245700.0 0.8194823925 0.5655375707
9100245400.0 0.8278242952 0.5526830963
9150245100.0 0.8371720913 0.539370082
9200244800.0 0.8468535021 0.5242018059
9250244500.0 0.8562786832 0.5090447842
9300244200.0 0.8646656044 0.4945092915
9350243900.0 0.8727219671 0.4807509836
9400243600.0 0.879244048 0.4683544549
9450243300.0 0.8850389436 0.4568598557
9500243000.0 0.8913865934 0.4446426508
9550242700.0 0.8951293964 0.4371481214
9600242400.0 0.8990199227 0.4298422044
9650242100.0 0.9029470753 0.4230787031
9700241800.0 0.9074500363 0.4146586759
9750241500.0 0.9114937634 0.4072668006
9800241200.0 0.9162278551 0.3980839787
9850240900.0 0.92186148 0.3865443828
9900240600.0 0.9275155422 0.3749739263
9950240300.0 0.9343799265 0.3586672676
10000240000.0 0.9391992516 0.3467811121
10050239700.0 0.9446547013 0.331911633
10100239400.0 0.9494461284 0.3160637366
10150239100.0 0.9535882788 0.3016970681
10200238800.0 0.9581780033 0.2864488161
10250238500.0 0.9613726663 0.2728377855
10300238200.0 0.9647787479 0.2591257222
10350237900.0 0.9671942668 0.2460404669
10400237600.0 0.9697463061 0.2331284285
10450237300.0 0.972399933 0.2192403639
10500237000.0 0.9746093193 0.206663946
10550236700.0 0.976860112 0.1930517449
10600236400.0 0.9794742648 0.1785141779
10650236100.0 0.9811161258 0.1648210693
10700235800.0 0.9833228286 0.152325372
10750235500.0 0.9859227597 0.1388488525
10800235200.0 0.9874577657 0.1246965067
10850234900.0 0.989655034 0.1097755343
10900234600.0 0.9916377501 0.0953408651
10950234300.0 0.9934893594 0.0820129518
11000234000.0 0.9951088387 0.0669881781
11050233700.0 0.9970686337 0.0506322789
11100233400.0 0.9983365545 0.0331773955
11150233100.0 0.999506028 0.0167767331
11200232800.0 1.000406112 0.0022386326
11250232500.0 1.001184289 -0.014952463
11300232200.0 1.001827622 -0.0317873246
11350231900.0 1.001650839 -0.0484057234
11400231600.0 1.001686211 -0.0645274914
11450231300.0 1.000646719 -0.0792373082
11500231000.0 0.9998197103 -0.0963474032
11550230700.0 0.9988255716 -0.1088582297
11600230400.0 0.9972431667 -0.1215540167
11650230100.0 0.9950421666 -0.1324919527
11700229800.0 0.9931413161 -0.1471755437
11750229500.0 0.9907993623 -0.1616614328
11800229200.0 0.9881859667 -0.1758329126
11850228900.0 0.9846284863 -0.1881443723
11900228600.0 0.9810652398 -0.1980347693
11950228300.0 0.9781484102 -0.2082133928
12000228000.0 0.9750835021 -0.217442779
12050227700.0 0.9713450294 -0.2301537136
12100227400.0 0.9678122613 -0.2412044283
12150227100.0 0.9633459247 -0.2580092407
12200226800.0 0.9593805819 -0.2693325277
12250226500.0 0.9557351893 -0.2822994442
12300226200.0 0.9510979636 -0.2935787589
12350225900.0 0.9466036565 -0.3084428506
12400225600.0 0.9419489276 -0.3206915439
12450225300.0 0.9374375667 -0.3335396803
12500225000.0 0.9322954561 -0.3483572372
12550224700.0 0.926954622 -0.3624366935
12600224400.0 0.9219100246 -0.3750226572
12650224100.0 0.9162802844 -0.3895680285
12700223800.0 0.9110237852 -0.4023014762
12750223500.0 0.9054013058 -0.4153736095
12800223200.0 0.9002120462 -0.4280261957
12850222900.0 0.8949702559 -0.4398374052
12900222600.0 0.8886563351 -0.4524704405
12950222300.0 0.8826516212 -0.4650468856
13000222000.0 0.8767345553 -0.4761375602
13050221700.0 0.8702293246 -0.4894733151
13100221400.0 0.8639602365 -0.500887361
13150221100.0 0.8564385445 -0.5135572882
13200220800.0 0.8497530102 -0.5246709522
13250220500.0 0.8424036683 -0.5368541726
13300220200.0 0.8352067691 -0.5475853241
13350219900.0 0.8273244665 -0.5595876022
13400219600.0 0.8186092375 -0.5716476859
13450219300.0 0.8096273594 -0.5849885381
13500219000.0 0.7992953836 -0.5988878714
13550218700.0 0.789437797 -0.6114100881
13600218400.0 0.7791258493 -0.6234702145
13650218100.0 0.7691442276 -0.6345589089
13700217800.0 0.7582742445 -0.6478078423
13750217500.0 0.7484902343 -0.6584469018
13800217200.0 0.737268383 -0.6704177672
13850216900.0 0.7267122692 -0.681441391
13900216600.0 0.717504817 -0.6903420573
13950216300.0 0.7055916959 -0.7002774252
14000216000.0 0.6956011557 -0.7099105275
14050215700.0 0.686108406 -0.7185183917
14100215400.0 0.6762754428 -0.7274922374
14150215100.0 0.6669423455 -0.7359895573
14200214800.0 0.6575134368 -0.7448428936
14250214500.0 0.6473180752 -0.7542003094
14300214200.0 0.6369062621 -0.76354977
14350213900.0 0.626000235 -0.7731549232
14400213600.0 0.6139817003 -0.7827626126
14450213300.0 0.6010047347 -0.7931270786
14500213000.0 0.5877528295 -0.8030217481
14550212700.0 0.5750263877 -0.8125988129
14600212400.0 0.562766687 -0.8215032245
14650212100.0 0.549876255 -0.8298891657
14700211800.0 0.5361930915 -0.8396099192
14750211500.0 0.5240654244 -0.8477791992
14800211200.0 0.5118486366 -0.8558918591
14850210900.0 0.4996380653 -0.8631086282
14900210600.0 0.4864975907 -0.8712027662
14950210300.0 0.4730244386 -0.878704266
15000210000.0 0.460468981 -0.8854148632
15050209700.0 0.448345677 -0.8918154816
15100209400.0 0.4357616594 -0.8975224129
15150209100.0 0.422780555 -0.9029441758
15200208800.0 0.410534169 -0.9086528213
15250208500.0 0.3986535117 -0.9132302237
15300208200.0 0.3869743823 -0.9176637528
15350207900.0 0.3741079191 -0.9226220871
15400207600.0 0.3588027248 -0.9275621421
15450207300.0 0.3447621403 -0.9327932405
15500207000.0 0.3295639604 -0.9373020386
15550206700.0 0.3148768704 -0.9430464513
15600206400.0 0.2992751013 -0.9474802308
15650206100.0 0.2839856932 -0.9514713371
15700205800.0 0.2695073323 -0.9549658613
15750205500.0 0.2550366312 -0.9586272412
15800205200.0 0.2406082684 -0.9619837481
15850204900.0 0.226182097 -0.9654368869
15900204600.0 0.2112460661 -0.9690673306
15950204300.0 0.1971363244 -0.9718787913
16000204000.0 0.1827976219 -0.9751202836
16050203700.0 0.1677684586 -0.9780951975
16100203400.0 0.1530557059 -0.9799880147
16150203100.0 0.1388514441 -0.9826005348
16200202800.0 0.1247808058 -0.9846540024
16250202500.0 0.1096860396 -0.9863075821
16300202200.0 0.0943114696 -0.9880541716
16350201900.0 0.0793018743 -0.9895963511
16400201600.0 0.0645833465 -0.9905813646
16450201300.0 0.049599527 -0.9913569218
16500201000.0 0.0328036099 -0.9922586769
16550200700.0 0.0173233483 -0.9928141784
16600200400.0 0.0016099082 -0.9927876251
16650200100.0 -0.014744076 -0.9930017391
16700199800.0 -0.0307339686 -0.9922912497
16750199500.0 -0.0497827033 -0.9918595747
16800199200.0 -0.0654071774 -0.9912762564
16850198900.0 -0.0807505695 -0.989165034
16900198600.0 -0.0945423331 -0.9887793336
16950198300.0 -0.1071657833 -0.9877086845
17000198000.0 -0.1203528641 -0.9855143865
17050197700.0 -0.1332226905 -0.9844365592
17100197400.0 -0.1459633314 -0.9821697043
17150197100.0 -0.158723053 -0.9801339431
17200196800.0 -0.1716031942 -0.9783572759
17250196500.0 -0.1848812319 -0.9758772638
17300196200.0 -0.1968101574 -0.9734399293
17350195900.0 -0.2089595711 -0.9713466838
17400195600.0 -0.221231703 -0.9688609385
17450195300.0 -0.2341559974 -0.966142188
17500195000.0 -0.2476040122 -0.9625353233
17550194700.0 -0.261569039 -0.958876792
17600194400.0 -0.2752679834 -0.9549631504
17650194100.0 -0.2891839104 -0.9508188384
17700193800.0 -0.3021620305 -0.9469790068
17750193500.0 -0.3164583231 -0.9419807085
17800193200.0 -0.3311003069 -0.9370649997
17850192900.0 -0.3456461663 -0.9315725279
17900192600.0 -0.3612140202 -0.9255786241
17950192300.0 -0.3766759569 -0.9186679385
18000192000.0 -0.39143821 -0.9114220159
18050191700.0 -0.4054183872 -0.9034657539
18100191400.0 -0.4197684756 -0.8957619215
18150191100.0 -0.4344751652 -0.8877390943
18200190800.0 -0.4514963392 -0.8785016957
18250190500.0 -0.4682140707 -0.8689896684
18300190200.0 -0.4835936818 -0.8606327094
18350189900.0 -0.4988854633 -0.8521227495
18400189600.0 -0.5132421992 -0.8436296379
18450189300.0 -0.526708128 -0.8357335873
18500189000.0 -0.5404881349 -0.8281179552
18550188700.0 -0.5527327206 -0.8199457653
18600188400.0 -0.5644125206 -0.8133882982
18650188100.0 -0.575331951 -0.8069330313
18700187800.0 -0.5862607834 -0.8005291704
18750187500.0 -0.5968115527 -0.7938759467
18800187200.0 -0.607538804 -0.7868481127
18850186900.0 -0.6175949267 -0.780036172
18900186600.0 -0.6278188265 -0.7728347376
18950186300.0 -0.6378683275 -0.7649064215
19000186000.0 -0.645319859 -0.7586574744
19050185700.0 -0.654735041 -0.7516043536
19100185400.0 -0.6640903651 -0.7433579519
19150185100.0 -0.674411188 -0.7350208456
19200184800.0 -0.6840022423 -0.7269491581
19250184500.0 -0.6941079811 -0.7175283598
19300184200.0 -0.7049172912 -0.7078610671
19350183900.0 -0.7162249586 -0.6990287039
19400183600.0 -0.7256886145 -0.6878718887
19450183300.0 -0.7346641261 -0.678484678
19500183000.0 -0.7427813101 -0.6679081919
19550182700.0 -0.7527191557 -0.6574831509
19600182400.0 -0.7626921423 -0.6460347164
19650182100.0 -0.7737545625 -0.6337047937
19700181800.0 -0.7845764522 -0.6202880085
19750181500.0 -0.7949488743 -0.6063688421
19800181200.0 -0.8054168616 -0.5912419404
19850180900.0 -0.8152640599 -0.5761321339
19900180600.0 -0.823036571 -0.5613634805
19950180300.0 -0.8326621257 -0.544821491
20000180000.0 -0.8248422242 -0.5466909426
20050179700.0 -0.8340394625 -0.5343923288
20100179400.0 -0.8423958597 -0.5207525881
20150179100.0 -0.8499368751 -0.5084247913
20200178800.0 -0.85870429 -0.4957744357
20250178500.0 -0.8687879444 -0.4824286518
20300178200.0 -0.8780759323 -0.4676797025
20350177900.0 -0.8869903708 -0.4532995906
20400177600.0 -0.8959302663 -0.4383304763
20450177300.0 -0.9046324847 -0.4244037154
20500177000.0 -0.9124684864 -0.4103750344
20550176700.0 -0.9202023819 -0.3969170628
20600176400.0 -0.9273025666 -0.3839235585
20650176100.0 -0.9340570051 -0.3717527848
20700175800.0 -0.9412346802 -0.3604325859
20750175500.0 -0.9472765678 -0.3483010842
20800175200.0 -0.9515702353 -0.3371107172
20850174900.0 -0.9563464223 -0.3261213972
20900174600.0 -0.9615254129 -0.3147840574
20950174300.0 -0.9651619211 -0.3041931825
21000174000.0 -0.9680947311 -0.2920556328
21050173700.0 -0.9713103813 -0.2813834163
21100173400.0 -0.9750311915 -0.2696848051
21150173100.0 -0.9786152867 -0.2579444832
21200172800.0 -0.9826675605 -0.2441518821
21250172500.0 -0.9854784887 -0.2306260612
21300172200.0 -0.9889393485 -0.2164134775
21350171900.0 -0.9903337924 -0.201892328
21400171600.0 -0.9918572871 -0.1882255746
21450171300.0 -0.9920550528 -0.1732909616
21500171000.0 -0.9917408012 -0.1581286147
21550170700.0 -0.9919433817 -0.1426287217
21600170400.0 -0.9927741353 -0.126265749
21650170100.0 -0.9912984524 -0.1117559473
21700169800.0 -0.9901491023 -0.0952639364
21750169500.0 -0.9888525218 -0.0796903999
21800169200.0 -0.9882555122 -0.0634155364
21850168900.0 -0.9870054057 -0.0465170108
21900168600.0 -0.9860396191 -0.0298930276
21950168300.0 -0.9849749456 -0.0144684914
22000168000.0 -0.9838659071 0.0007381099
22050167700.0 -0.9840835746 0.0151293268
22100167400.0 -0.9843193628 0.0304282059
22150167100.0 -0.9848244739 0.0460980428
22200166800.0 -0.9853918959 0.0618214017
22250166500.0 -0.9851994933 0.0793453508
22300166200.0 -0.984180895 0.0962853275
22350165900.0 -0.9828721517 0.1122084424
22400165600.0 -0.9809632373 0.12797785
22450165300.0 -0.9811322499 0.1426624761
22500165000.0 -0.9784353063 0.1564413786
22550164700.0 -0.9765296355 0.1729031159
22600164400.0 -0.9747248054 0.1877691755
22650164100.0 -0.9725946715 0.2031544278
22700163800.0 -0.9695462479 0.21873715
22750163500.0 -0.9673503296 0.2336792472
22800163200.0 -0.9646735878 0.2470924401
22850162900.0 -0.9618338024 0.2602874215
22900162600.0 -0.9609730352 0.2738349093
22950162300.0 -0.9592861341 0.2866898983
23000162000.0 -0.957992937 0.2984828069
23050161700.0 -0.956141123 0.3110987057
23100161400.0 -0.9537367377 0.3240097859
23150161100.0 -0.950984503 0.3361099432
23200160800.0 -0.9476723479 0.3488938774
23250160500.0 -0.9456564206 0.3603674011
23300160200.0 -0.9417819797 0.3731937322
23350159900.0 -0.9381956903 0.3862918616
23400159600.0 -0.9337614863 0.3991537304
23450159300.0 -0.9287667809 0.4121144264
23500159000.0 -0.9245394257 0.4255492553
23550158700.0 -0.9202421372 0.4393674592
23600158400.0 -0.9148308331 0.4527561129
23650158100.0 -0.9082737384 0.4665405896
23700157800.0 -0.9006817038 0.480420725
23750157500.0 -0.8922696089 0.4945838481
23800157200.0 -0.8833690595 0.5082062336
23850156900.0 -0.8740449227 0.5202846319
23900156600.0 -0.8652577837 0.5329793369
23950156300.0 -0.8558892222 0.545874993
24000156000.0 -0.8463228917 0.5579223089
24050155700.0 -0.8369936835 0.5691161702
24100155400.0 -0.8277085438 0.5824972818
24150155100.0 -0.8166446774 0.5938286569
24200154800.0 -0.8053395832 0.6043763978
24250154500.0 -0.7943684585 0.6154913977
24300154200.0 -0.7829282297 0.62804299
24350153900.0 -0.7709024803 0.6386989481
24400153600.0 -0.7589042098 0.6487043358
24450153300.0 -0.7472019972 0.6585479765
24500153000.0 -0.7354471644 0.6682944497
24550152700.0 -0.7244019058 0.6779940995
24600152400.0 -0.7125841056 0.6867153939
24650152100.0 -0.7011379742 0.6960160879
