!Created with skrf (http://scikit-rf.org).
# Hz S RI R 50.0 
!freq ReS11 ImS11
300000.0 -0.9754104335 -0.1177074881
50299700.0 -1.000130443 0.015739096
100299400.0 -0.9981157609 0.0285283053
150299100.0 -1.002799056 0.0455268885
200298800.0 -0.9997077554 0.058676951
250298500.0 -0.9975705137 0.0725030834
300298200.0 -0.985854085 0.087958939
350297900.0 -0.9940565446 0.0988275367
400297600.0 -0.9931605324 0.1156184124
450297300.0 -0.9911246022 0.1293918033
500297000.0 -0.9896053838 0.1442485754
550296700.0 -0.9843056632 0.1564949985
600296400.0 -1.017378275 0.1898786182
650296100.0 -0.9822708043 0.1864698907
700295800.0 -0.9794411677 0.200950084
750295500.0 -0.9761803637 0.2149287535
800295200.0 -0.9730896066 0.2286900465
850294900.0 -0.9696170194 0.2426109311
900294600.0 -0.9657452544 0.2563857816
950294300.0 -0.962177738 0.2701261594
1000294000.0 -0.9581827403 0.2841968877
1050293700.0 -0.9534140528 0.2980661962
1100293400.0 -0.9493082762 0.3124061228
1150293100.0 -0.9455200697 0.3243882132
1200292800.0 -0.9401392762 0.3385189913
1250292500.0 -0.9346120217 0.3521760445
1300292200.0 -0.9288854049 0.365285521
1350291900.0 -0.923384531 0.3792813953
1400291600.0 -0.917849894 0.3922865979
1450291300.0 -0.9125710333 0.4048692122
1500291000.0 -0.9060226584 0.418248108
1550290700.0 -0.8996337832 0.4314319808
1600290400.0 -0.8934023255 0.4444175383
1650290100.0 -0.8866481036 0.4564502813
1700289800.0 -0.8797958658 0.4700390084
1750289500.0 -0.8727585341 0.4822659531
1800289200.0 -0.8652749025 0.4950599498
1850288900.0 -0.8588149049 0.5065521052
1900288600.0 -0.8509113809 0.5196363301
1950288300.0 -0.8427649571 0.5319920515
2000288000.0 -0.835413267 0.5434146002
2050287700.0 -0.827013349 0.5555928044
2100287400.0 -0.8190403549 0.5674494624
2150287100.0 -0.8105376166 0.5796338856
2200286800.0 -0.802838857 0.5899601896
2250286500.0 -0.7938904552 0.6018750929
2300286200.0 -0.7849635028 0.6134040623
2350285900.0 -0.7760933765 0.624548435
2400285600.0 -0.7673438157 0.6356047764
2450285300.0 -0.7585386276 0.6458516267
2500285000.0 -0.7486306021 0.6570769442
2550284700.0 -0.7399864571 0.6673717582
2600284400.0 -0.7305789485 0.6776422229
2650284100.0 -0.7215502158 0.6879663528
2700283800.0 -0.7110930852 0.6986026168
2750283500.0 -0.7007611987 0.7092868042
2800283200.0 -0.6908666336 0.7188891811
2850282900.0 -0.6806073538 0.7287680682
2900282600.0 -0.6703968755 0.7382276468
2950282300.0 -0.6600399893 0.7473845799
3000282000.0 -0.6494222197 0.7569959035
3050281700.0 -0.6380521552 0.7663698273
3100281400.0 -0.626320591 0.7757781741
3150281100.0 -0.6146352243 0.7851084987
3200280800.0 -0.6029035402 0.7937200151
3250280500.0 -0.5920036675 0.8012964709
3300280200.0 -0.580822287 0.8090081172
3350279900.0 -0.5692532129 0.8165113369
3400279600.0 -0.5570134555 0.8242077555
3450279300.0 -0.546088623 0.8313614624
3500279000.0 -0.5340081428 0.8385488564
3550278700.0 -0.5216259046 0.8457797844
3600278400.0 -0.5092471495 0.8529157993
3650278100.0 -0.4961916951 0.8607364762
3700277800.0 -0.4841698204 0.86719839
3750277500.0 -0.4717467998 0.8735300323
3800277200.0 -0.4591661774 0.8800910776
3850276900.0 -0.4473831224 0.8860670392
3900276600.0 -0.4362871147 0.8915954305
3950276300.0 -0.4238559411 0.8978940685
4000276000.0 -0.4119646592 0.9037970191
4050275700.0 -0.3989123651 0.9097377483
4100275400.0 -0.3876977375 0.9152794215
4150275100.0 -0.3752683002 0.921001508
4200274800.0 -0.3623100467 0.9263488556
4250274500.0 -0.3498318259 0.9313630441
4300274200.0 -0.336803315 0.936734857
4350273900.0 -0.3232333788 0.9421748895
4400273600.0 -0.3083111725 0.947222354
4450273300.0 -0.2928731351 0.9524339514
4500273000.0 -0.2792315739 0.9570070657
4550272700.0 -0.2650248063 0.9610976078
4600272400.0 -0.2495789708 0.9654388467
4650272100.0 -0.2378388746 0.9685297794
4700271800.0 -0.2246197967 0.9717154853
4750271500.0 -0.2129636709 0.9746372864
4800271200.0 -0.200373993 0.9774136606
4850270900.0 -0.1863980048 0.9802373106
4900270600.0 -0.1726945794 0.9826932867
4950270300.0 -0.1584576792 0.9850020951
5000270000.0 -0.1442183232 0.9873325755
5050269700.0 -0.130658223 0.9890353769
5100269400.0 -0.1169929634 0.9905717232
5150269100.0 -0.1039008538 0.9923985028
5200268800.0 -0.0906541888 0.9928076446
5250268500.0 -0.0773599463 0.9940037366
5300268200.0 -0.0641842525 0.9949869007
5350267900.0 -0.0521919773 0.9954340979
5400267600.0 -0.0359651962 0.9962362041
5450267300.0 -0.0226940535 0.996473241
5500267000.0 -0.0074758875 0.997223116
5550266700.0 0.0074113603 0.9972989486
5600266400.0 0.0228521524 0.9971464928
5650266100.0 0.0395013535 0.996966008
5700265800.0 0.0539844781 0.9964646893
5750265500.0 0.0691692911 0.9954174641
5800265200.0 0.0831982094 0.9943240629
5850264900.0 0.0962495475 0.993426887
5900264600.0 0.1128322022 0.9914968677
5950264300.0 0.1251194582 0.9902050323
6000264000.0 0.1387636787 0.9879939557
6050263700.0 0.1517329499 0.9867921288
6100263400.0 0.1638635309 0.9847951269
6150263100.0 0.1783077417 0.9825745723
6200262800.0 0.1892097573 0.980931835
6250262500.0 0.2016844269 0.9783986561
6300262200.0 0.214569126 0.9755400194
6350261900.0 0.2277197094 0.9726922561
6400261600.0 0.2413855404 0.9693112651
6450261300.0 0.2529886228 0.9666856285
6500261000.0 0.2657665105 0.9630491458
6550260700.0 0.2784534491 0.959085115
6600260400.0 0.2919536687 0.9551009113
6650260100.0 0.3058913687 0.9509467133
6700259800.0 0.3177001872 0.9462261159
6750259500.0 0.3314684222 0.9412902393
6800259200.0 0.3447013005 0.936558476
6850258900.0 0.3564389709 0.9313110476
6900258600.0 0.3688118815 0.9261635708
6950258300.0 0.381134886 0.9209669362
7000258000.0 0.3931685044 0.9155750485
7050257700.0 0.4055208476 0.909501473
7100257400.0 0.4182033019 0.9031369126
7150257100.0 0.4285689987 0.8980141563
7200256800.0 0.4413618037 0.8917869244
7250256500.0 0.4533627956 0.8851377537
7300256200.0 0.4663165285 0.8783125075
7350255900.0 0.4789374565 0.871465514
7400255600.0 0.4921044163 0.8644360742
7450255300.0 0.5068347722 0.8550336789
7500255000.0 0.5186328081 0.848264434
7550254700.0 0.5328542768 0.840004954
7600254400.0 0.5457897915 0.8314470739
7650254100.0 0.5569122261 0.8236025548
7700253800.0 0.5690766825 0.815780164
7750253500.0 0.5801883329 0.807890557
7800253200.0 0.5906518132 0.8002737811
7850252900.0 0.6005999538 0.793081291
7900252600.0 0.612202136 0.7845071978
7950252300.0 0.6209646384 0.777960179
8000252000.0 0.6308924183 0.7702179599
8050251700.0 0.6415987372 0.7620115117
8100251400.0 0.6518465556 0.7537296222
8150251100.0 0.6620482439 0.7451187493
8200250800.0 0.6711944566 0.7370622278
8250250500.0 0.6800121522 0.7292783349
8300250200.0 0.689485309 0.7205834292
8350249900.0 0.6985134212 0.7118966466
8400249600.0 0.7063825284 0.7039782485
8450249300.0 0.7157731607 0.6947961654
8500249000.0 0.7243506027 0.6857416691
8550248700.0 0.7328619826 0.6766890424
8600248400.0 0.7410420418 0.6671424427
8650248100.0 0.748803331 0.6578127454
8700247800.0 0.7583849459 0.6465313386
8750247500.0 0.766757607 0.6365551713
8800247200.0 0.7747568496 0.6260899909
8850246900.0 0.7836775734 0.6146522552
8900246600.0 0.7922483637 0.6033996624
8950246300.0 0.8016683608 0.5903323421
9000246000.0 0.8110003035 0.5774655994
9050245700.0 0.8200365558 0.5644314462
9100245400.0 0.8289939794 0.5519519308
9150245100.0 0.8379528331 0.5384584855
9200244800.0 0.8482339916 0.5230341343
9250244500.0 0.8575488081 0.5074049688
9300244200.0 0.8659266674 0.4928088781
9350243900.0 0.8733613481 0.4789328911
9400243600.0 0.8802598593 0.4666985109
9450243300.0 0.8860135946 0.4550225493
9500243000.0 0.8923805856 0.4426556631
9550242700.0 0.8960947838 0.4352957676
9600242400.0 0.8997243563 0.4278706521
9650242100.0 0.9034074858 0.4215717942
9700241800.0 0.9079834064 0.4135060308
9750241500.0 0.9119102126 0.4057481243
9800241200.0 0.9169677059 0.3963293485
9850240900.0 0.9225194879 0.3850184953
9900240600.0 0.9277932798 0.3735275315
9950240300.0 0.9343366543 0.357123898
10000240000.0 0.9393092717 0.3455767155
10050239700.0 0.9446614118 0.330376799
10100239400.0 0.9500349547 0.3147326812
10150239100.0 0.9540649045 0.3003694983
10200238800.0 0.9585145704 0.2849675346
10250238500.0 0.9616687583 0.2715896168
10300238200.0 0.9647522156 0.2578318533
10350237900.0 0.9673214452 0.244584863
10400237600.0 0.9700108466 0.2313639499
10450237300.0 0.9726103956 0.217908462
10500237000.0 0.9751451848 0.2049799382
10550236700.0 0.9769302273 0.1923606751
10600236400.0 0.9790970295 0.1784163265
10650236100.0 0.9811757292 0.1638878057
10700235800.0 0.9833097831 0.151175822
10750235500.0 0.9857068518 0.1379434025
10800235200.0 0.9879212433 0.1238078023
10850234900.0 0.9896159343 0.109043961
10900234600.0 0.991644669 0.0947384422
10950234300.0 0.9936690776 0.0812609019
11000234000.0 0.9952114337 0.0662202188
11050233700.0 0.9970487809 0.0497665578
11100233400.0 0.9984695921 0.0324351036
11150233100.0 0.9994793804 0.0155876107
11200232800.0 1.000446154 0.0006818324
11250232500.0 1.000675188 -0.015580975
11300232200.0 1.001524029 -0.0341726227
11350231900.0 1.001102191 -0.0502822835
11400231600.0 1.002108889 -0.0657403896
11450231300.0 1.00079079 -0.0807182656
11500231000.0 0.9996832512 -0.0977733767
11550230700.0 0.9981541631 -0.1096307958
11600230400.0 0.9969936824 -0.1232012825
11650230100.0 0.9948119537 -0.1345217862
11700229800.0 0.9930820423 -0.1487509067
11750229500.0 0.9904754245 -0.1632831962
11800229200.0 0.9877732153 -0.1773856513
11850228900.0 0.9841980833 -0.189515675
11900228600.0 0.9806353961 -0.1991312697
11950228300.0 0.9775014516 -0.2098768035
12000228000.0 0.9745674207 -0.2191602965
12050227700.0 0.9708606759 -0.2315268811
12100227400.0 0.9681500311 -0.2425063515
12150227100.0 0.9627578395 -0.2586194809
12200226800.0 0.9594126342 -0.2695115222
12250226500.0 0.955081193 -0.2833521646
12300226200.0 0.9511521113 -0.2948375485
12350225900.0 0.9465401101 -0.3085853469
12400225600.0 0.9417486954 -0.3216964629
12450225300.0 0.9373570498 -0.3350178975
12500225000.0 0.932090899 -0.3491695917
12550224700.0 0.9269403224 -0.3630606068
12600224400.0 0.9217303042 -0.3756112001
12650224100.0 0.9160538015 -0.3901671666
12700223800.0 0.9107070947 -0.4028767992
12750223500.0 0.9053174579 -0.4158704282
12800223200.0 0.9000603588 -0.4282225634
12850222900.0 0.8945221248 -0.4406141456
12900222600.0 0.888983021 -0.4523903964
12950222300.0 0.8826008116 -0.4648375682
13000222000.0 0.8766325578 -0.4770027036
13050221700.0 0.8698227493 -0.4901515134
13100221400.0 0.8631548936 -0.5017596873
13150221100.0 0.8560272757 -0.5139978974
13200220800.0 0.8491702828 -0.5250135759
13250220500.0 0.8421027381 -0.5372421597
13300220200.0 0.8346216629 -0.5484629189
13350219900.0 0.8264598665 -0.5601929866
13400219600.0 0.817992512 -0.5723343942
13450219300.0 0.8085414737 -0.5859875674
13500219000.0 0.798225405 -0.6000569464
13550218700.0 0.7883580905 -0.6127662655
13600218400.0 0.7782211668 -0.6248236007
13650218100.0 0.7685033778 -0.636425063
13700217800.0 0.7574258893 -0.6487069605
13750217500.0 0.7477309758 -0.6593107521
13800217200.0 0.7363514995 -0.6713978516
13850216900.0 0.7251117973 -0.6824915945
13900216600.0 0.7150879287 -0.6919421112
13950216300.0 0.7044499507 -0.7018934092
14000216000.0 0.6944257064 -0.7111943836
14050215700.0 0.6847918284 -0.7201954175
14100215400.0 0.6749876869 -0.7287254499
14150215100.0 0.6658010794 -0.7372424565
14200214800.0 0.6566712087 -0.7456412652
14250214500.0 0.6463650153 -0.7550884997
14300214200.0 0.6360072984 -0.7643495324
14350213900.0 0.6248457705 -0.7738584217
14400213600.0 0.6127664904 -0.7839803414
14450213300.0 0.6001013645 -0.7940456293
14500213000.0 0.5862476633 -0.8035731939
14550212700.0 0.5741247355 -0.8130482187
14600212400.0 0.5619604418 -0.8223735682
14650212100.0 0.5483581939 -0.8305604172
14700211800.0 0.5349976952 -0.8404446199
14750211500.0 0.523006949 -0.8485510486
14800211200.0 0.5104788075 -0.8562193062
14850210900.0 0.498332218 -0.8640312324
14900210600.0 0.4851802894 -0.871739331
14950210300.0 0.4714229549 -0.8793349766
15000210000.0 0.4587635901 -0.8860547369
15050209700.0 0.4460291072 -0.8923184905
15100209400.0 0.4334172015 -0.8985072439
15150209100.0 0.4211234273 -0.9034144135
15200208800.0 0.4084945484 -0.9092593834
15250208500.0 0.3970159839 -0.9133664565
15300208200.0 0.3844622406 -0.9186670934
15350207900.0 0.3715720131 -0.9232248855
15400207600.0 0.3569133124 -0.9289877615
15450207300.0 0.342791183 -0.9331608443
15500207000.0 0.3279306454 -0.9385005465
15550206700.0 0.31328678 -0.9435149975
15600206400.0 0.2969843809 -0.9475450797
15650206100.0 0.2816563693 -0.9516687681
15700205800.0 0.2675632824 -0.9556350047
15750205500.0 0.2527803101 -0.9587961132
15800205200.0 0.2382921154 -0.9624278162
15850204900.0 0.2240806321 -0.9657899851
15900204600.0 0.2090436538 -0.9693793904
15950204300.0 0.1948802466 -0.9723621438
16000204000.0 0.1805643205 -0.9750550536
16050203700.0 0.1658720117 -0.9780560569
16100203400.0 0.1515551879 -0.9797328532
16150203100.0 0.1366257155 -0.9825817579
16200202800.0 0.123079444 -0.9843411836
16250202500.0 0.1085148153 -0.9861797005
16300202200.0 0.092745957 -0.9875139952
16350201900.0 0.0781415095 -0.9892162878
16400201600.0 0.0635007619 -0.9901357923
16450201300.0 0.0481041228 -0.9912327979
16500201000.0 0.0314704514 -0.9919514491
16550200700.0 0.0159213744 -0.9924340365
16600200400.0 6.3698e-05 -0.9927068409
16650200100.0 -0.0160755023 -0.9923215645
16700199800.0 -0.0325910928 -0.9919804621
16750199500.0 -0.051448041 -0.991308224
16800199200.0 -0.0667843309 -0.9905639322
16850198900.0 -0.0820419361 -0.9889997518
16900198600.0 -0.0960392585 -0.9883727693
16950198300.0 -0.1091368191 -0.9873052872
17000198000.0 -0.1222680981 -0.9859025582
17050197700.0 -0.1349052545 -0.983877984
17100197400.0 -0.1477873606 -0.9816134837
17150197100.0 -0.1606329763 -0.97987282
17200196800.0 -0.1732465648 -0.9774979278
17250196500.0 -0.1862363301 -0.9752276847
17300196200.0 -0.1981168419 -0.9731743157
17350195900.0 -0.2100867806 -0.9709386651
17400195600.0 -0.2222904652 -0.968524919
17450195300.0 -0.2353510299 -0.9655612166
17500195000.0 -0.2489670929 -0.9623282848
17550194700.0 -0.2627842155 -0.9587212597
17600194400.0 -0.2763748097 -0.9546737902
17650194100.0 -0.2902915299 -0.9504267548
17700193800.0 -0.3031687706 -0.9461577789
17750193500.0 -0.3177076856 -0.9419842997
17800193200.0 -0.3319755833 -0.9367517887
17850192900.0 -0.3476962588 -0.9309774481
17900192600.0 -0.3623757858 -0.9248809116
17950192300.0 -0.3778131514 -0.9179716773
18000192000.0 -0.3926434492 -0.9105541239
18050191700.0 -0.4064633227 -0.902666503
18100191400.0 -0.4206012448 -0.8950486091
18150191100.0 -0.4355373701 -0.8869158852
18200190800.0 -0.4526645228 -0.8776289898
18250190500.0 -0.4693796125 -0.8681592218
18300190200.0 -0.4850913636 -0.8594109159
18350189900.0 -0.5000277293 -0.8509566939
18400189600.0 -0.5148109629 -0.8427897934
18450189300.0 -0.5280216708 -0.8345905651
18500189000.0 -0.5410367951 -0.8268314002
18550188700.0 -0.5532659151 -0.8191119517
18600188400.0 -0.565491997 -0.812304374
18650188100.0 -0.5765775341 -0.8064027239
18700187800.0 -0.5871185512 -0.7996647386
18750187500.0 -0.5979814887 -0.7931144874
18800187200.0 -0.6084235772 -0.7860628243
18850186900.0 -0.6184289809 -0.7789795461
18900186600.0 -0.6290345453 -0.7716845435
18950186300.0 -0.63896804 -0.7639737625
19000186000.0 -0.6463111466 -0.7580569637
19050185700.0 -0.6552226609 -0.7510110824
19100185400.0 -0.6651071308 -0.7424197134
19150185100.0 -0.6751263774 -0.7334803424
19200184800.0 -0.6846040517 -0.725337383
19250184500.0 -0.6947777732 -0.7171314932
19300184200.0 -0.7065788894 -0.7065697712
19350183900.0 -0.7177711843 -0.6969078028
19400183600.0 -0.7271007177 -0.6865707776
19450183300.0 -0.7356096631 -0.6770777109
19500183000.0 -0.7437498251 -0.6673723422
19550182700.0 -0.7539956686 -0.6561894954
19600182400.0 -0.7643181949 -0.6444212083
19650182100.0 -0.7751568232 -0.6321753691
19700181800.0 -0.7856680193 -0.6189116864
19750181500.0 -0.7963846367 -0.6046596141
19800181200.0 -0.8065241156 -0.589624344
19850180900.0 -0.8162507078 -0.5742051472
19900180600.0 -0.8242695479 -0.5596131755
19950180300.0 -0.8334717449 -0.543438401
20000180000.0 -0.8259967256 -0.5467607677
20050179700.0 -0.8342257629 -0.5324661468
20100179400.0 -0.8435715423 -0.5186050416
20150179100.0 -0.8515872034 -0.5063536121
20200178800.0 -0.8601321544 -0.4946018033
20250178500.0 -0.8696916654 -0.4803237305
20300178200.0 -0.8787597674 -0.4650799691
20350177900.0 -0.8888630341 -0.451889032
20400177600.0 -0.8970996745 -0.4367294605
20450177300.0 -0.9054918108 -0.422357329
20500177000.0 -0.9132980658 -0.4082138402
20550176700.0 -0.9212777335 -0.3946528011
20600176400.0 -0.9279550083 -0.3818459446
20650176100.0 -0.9346264958 -0.3694341588
20700175800.0 -0.941294916 -0.3576881598
20750175500.0 -0.9484851249 -0.345971394
20800175200.0 -0.9527350908 -0.3348401905
20850174900.0 -0.957617224 -0.3227375992
20900174600.0 -0.9627323409 -0.3127108081
20950174300.0 -0.9659380691 -0.3009695745
21000174000.0 -0.9696822734 -0.2888692593
21050173700.0 -0.9722525298 -0.2784134995
21100173400.0 -0.9762341197 -0.2667350948
21150173100.0 -0.9804879479 -0.2538848204
21200172800.0 -0.9839314474 -0.2405491769
21250172500.0 -0.9871321461 -0.2266760836
21300172200.0 -0.9901659503 -0.2128778894
21350171900.0 -0.9917235811 -0.1983708311
21400171600.0 -0.9932164524 -0.1835172985
21450171300.0 -0.9937208366 -0.1696080228
21500171000.0 -0.9925892441 -0.1542383993
21550170700.0 -0.9934263925 -0.1389426388
21600170400.0 -0.9939576276 -0.122918109
21650170100.0 -0.9921826964 -0.1067666564
21700169800.0 -0.9908904003 -0.0923715289
21750169500.0 -0.989082046 -0.0758303844
21800169200.0 -0.9881305258 -0.0594611361
21850168900.0 -0.9869583994 -0.0429994143
21900168600.0 -0.9863239428 -0.0267287183
21950168300.0 -0.9842913558 -0.0109868121
22000168000.0 -0.9829742074 0.0041778302
22050167700.0 -0.9828505469 0.0182730673
22100167400.0 -0.9831328583 0.0337567595
22150167100.0 -0.983933337 0.0488825358
22200166800.0 -0.9841058446 0.0653964199
22250166500.0 -0.9831470015 0.0823701546
22300166200.0 -0.9822007148 0.099681414
22350165900.0 -0.9812079616 0.1154600701
22400165600.0 -0.9799685381 0.1317504869
22450165300.0 -0.9773541887 0.145729384
22500165000.0 -0.976428277 0.1605408329
22550164700.0 -0.9738539876 0.1746682559
22600164400.0 -0.9738323592 0.190594348
22650164100.0 -0.9706366096 0.2052238304
22700163800.0 -0.9684805235 0.2214760416
22750163500.0 -0.9656037002 0.2370982845
22800163200.0 -0.9630980464 0.2498743381
22850162900.0 -0.9605223222 0.2637142025
22900162600.0 -0.9589816332 0.2766267375
22950162300.0 -0.9579813841 0.2895913073
23000162000.0 -0.9570854077 0.3018312592
23050161700.0 -0.9549537765 0.3139446582
23100161400.0 -0.9524452696 0.3268055716
23150161100.0 -0.9500402348 0.3387691265
23200160800.0 -0.9475980595 0.3515442366
23250160500.0 -0.9441070972 0.3635068461
23300160200.0 -0.9412913371 0.3747378962
23350159900.0 -0.9380497606 0.3888185482
23400159600.0 -0.9334909085 0.4005608401
23450159300.0 -0.9285779395 0.4148979972
23500159000.0 -0.9239849219 0.4277310007
23550158700.0 -0.9199143485 0.4410267709
23600158400.0 -0.9142943578 0.4545731152
23650158100.0 -0.9077523321 0.4685807898
23700157800.0 -0.9003001215 0.4822402275
23750157500.0 -0.8915464488 0.4961921819
23800157200.0 -0.8829784769 0.5099555404
23850156900.0 -0.8744568417 0.5219682302
23900156600.0 -0.8651335152 0.5345724315
23950156300.0 -0.8558754999 0.5468993938
24000156000.0 -0.8466833406 0.5593995934
24050155700.0 -0.8364768154 0.5708655904
24100155400.0 -0.8271054513 0.5825403713
24150155100.0 -0.8161138144 0.5945482741
24200154800.0 -0.8044593883 0.6055698236
24250154500.0 -0.7931499339 0.6174405743
24300154200.0 -0.7818411634 0.6289793317
24350153900.0 -0.7700023684 0.639069336
24400153600.0 -0.7578884185 0.6496954596
24450153300.0 -0.7458975168 0.6593275815
24500153000.0 -0.7342624268 0.6686971463
24550152700.0 -0.7231328541 0.6788179798
24600152400.0 -0.7115782808 0.6882071507
24650152100.0 -0.6995195162 0.6973023758
