!Created with skrf (http://scikit-rf.org).
# Hz S RI R 50.0 
!freq ReS11 ImS11
300000.0 -0.9903403254 -0.0621130022
50299700.0 -0.9996337887 0.0164970378
100299400.0 -0.9976393387 0.0291278096
150299100.0 -1.002520139 0.0460746701
200298800.0 -0.9992762832 0.0592375333
250298500.0 -0.9968685887 0.0727760723
300298200.0 -0.9854120299 0.0885651679
350297900.0 -0.99328281 0.0994999483
400297600.0 -0.9925001968 0.1158737053
450297300.0 -0.990275574 0.1298262434
500297000.0 -0.9886199451 0.1444614847
550296700.0 -0.9834686864 0.1567378667
600296400.0 -1.016304662 0.1901047434
650296100.0 -0.9812730463 0.1868214601
700295800.0 -0.9782906132 0.2009443859
750295500.0 -0.9752541969 0.2149302093
800295200.0 -0.9720219235 0.2289446216
850294900.0 -0.9686170687 0.2426997307
900294600.0 -0.9647795661 0.2564314563
950294300.0 -0.9613035777 0.2699362098
1000294000.0 -0.9571966082 0.2839305255
1050293700.0 -0.9524652308 0.2976218023
1100293400.0 -0.9484009474 0.3120306851
1150293100.0 -0.9444571846 0.323886778
1200292800.0 -0.9392193793 0.3383734392
1250292500.0 -0.933747551 0.3516814502
1300292200.0 -0.92807291 0.3649192573
1350291900.0 -0.9226394964 0.3788559296
1400291600.0 -0.9171350458 0.3920528122
1450291300.0 -0.9118633115 0.4043615455
1500291000.0 -0.9055417214 0.4177940239
1550290700.0 -0.8991378124 0.4308043098
1600290400.0 -0.8930437679 0.443824873
1650290100.0 -0.8862686006 0.4560105646
1700289800.0 -0.8794786461 0.4693852135
1750289500.0 -0.8724677649 0.4816482095
1800289200.0 -0.8652196579 0.4944027726
1850288900.0 -0.8585485717 0.5059037284
1900288600.0 -0.85067832 0.5187008437
1950288300.0 -0.8425343212 0.5312490837
2000288000.0 -0.8351112438 0.54257133
2050287700.0 -0.827031904 0.5549175724
2100287400.0 -0.8191034283 0.5667154222
2150287100.0 -0.8102885246 0.5787496233
2200286800.0 -0.8024954289 0.5889563762
2250286500.0 -0.7936945839 0.6012422783
2300286200.0 -0.7849435967 0.6126323369
2350285900.0 -0.7760936332 0.6238295322
2400285600.0 -0.7670971086 0.6349008298
2450285300.0 -0.7582425001 0.6454087594
2500285000.0 -0.7487772817 0.656216672
2550284700.0 -0.7398138525 0.6666988966
2600284400.0 -0.730176772 0.6771463577
2650284100.0 -0.7212037075 0.6873006888
2700283800.0 -0.7105939141 0.6977158542
2750283500.0 -0.7004190257 0.7084387969
2800283200.0 -0.6904604595 0.7178033885
2850282900.0 -0.6800181384 0.7279784759
2900282600.0 -0.6701062073 0.7376710834
2950282300.0 -0.6599426376 0.7466744512
3000282000.0 -0.6490115927 0.7559951079
3050281700.0 -0.6379932902 0.7653529944
3100281400.0 -0.626782952 0.774464337
3150281100.0 -0.6153874937 0.7837261377
3200280800.0 -0.6036275242 0.7923377314
3250280500.0 -0.5927362338 0.8002497633
3300280200.0 -0.5816040115 0.8082365514
3350279900.0 -0.5701049674 0.81571267
3400279600.0 -0.5578869161 0.8235724468
3450279300.0 -0.5468554437 0.8310000489
3500279000.0 -0.535016743 0.8381046809
3550278700.0 -0.5228020083 0.8454850029
3600278400.0 -0.510761261 0.8524196812
3650278100.0 -0.4974422947 0.8601989582
3700277800.0 -0.4855569617 0.866709922
3750277500.0 -0.4735199681 0.8732111676
3800277200.0 -0.4607589903 0.8796908274
3850276900.0 -0.448523882 0.885760855
3900276600.0 -0.4374610722 0.89179619
3950276300.0 -0.4245897787 0.8977338203
4000276000.0 -0.4125621736 0.9035138232
4050275700.0 -0.3992501757 0.9098726904
4100275400.0 -0.3878880398 0.9153820812
4150275100.0 -0.375094139 0.9209100831
4200274800.0 -0.3615901543 0.9263038303
4250274500.0 -0.3494945121 0.9316897106
4300274200.0 -0.3366958441 0.9365275334
4350273900.0 -0.3227458693 0.9418306954
4400273600.0 -0.3085352863 0.9466754386
4450273300.0 -0.2934472123 0.9516457819
4500273000.0 -0.2801916475 0.9560192789
4550272700.0 -0.2662932723 0.9598648505
4600272400.0 -0.2507147994 0.9642781077
4650272100.0 -0.2390311842 0.9673921866
4700271800.0 -0.2255195893 0.9708130434
4750271500.0 -0.2133610965 0.9737952144
4800271200.0 -0.2005452206 0.9765136149
4850270900.0 -0.1867944448 0.9792421261
4900270600.0 -0.1731797541 0.9816675166
4950270300.0 -0.1592405985 0.9842773674
5000270000.0 -0.1452364986 0.9864269969
5050269700.0 -0.1315737892 0.9878278573
5100269400.0 -0.1180836598 0.9896305349
5150269100.0 -0.1046293112 0.9913701887
5200268800.0 -0.0913119143 0.9926405992
5250268500.0 -0.0779962064 0.9934884082
5300268200.0 -0.0647505459 0.9944533153
5350267900.0 -0.0525461715 0.9951620445
5400267600.0 -0.0364600525 0.9961252393
5450267300.0 -0.0237715342 0.9962720311
5500267000.0 -0.009152428 0.9966184665
5550266700.0 0.0049752657 0.9968374928
5600266400.0 0.020390704 0.996772205
5650266100.0 0.0366010324 0.9966134208
5700265800.0 0.0506665764 0.9958909771
5750265500.0 0.0655188176 0.9949869444
5800265200.0 0.0795105742 0.9940155974
5850264900.0 0.0925791791 0.9927826173
5900264600.0 0.1092067625 0.9912832623
5950264300.0 0.1215756836 0.989921978
6000264000.0 0.1353515606 0.9877281203
6050263700.0 0.1481438334 0.9859980777
6100263400.0 0.1610451135 0.9840747058
6150263100.0 0.1762183606 0.9819573656
6200262800.0 0.1868424253 0.9798403239
6250262500.0 0.1997500095 0.9776091278
6300262200.0 0.2125118314 0.9747482727
6350261900.0 0.225606833 0.9716862144
6400261600.0 0.2397178551 0.9685173136
6450261300.0 0.2514055551 0.9656201799
6500261000.0 0.2644006579 0.962287845
6550260700.0 0.2770752984 0.9582512268
6600260400.0 0.2901415299 0.9542307508
6650260100.0 0.3041508057 0.9500800823
6700259800.0 0.3163082983 0.9458929617
6750259500.0 0.3296196017 0.9410943007
6800259200.0 0.3431709135 0.9362466759
6850258900.0 0.3549371555 0.9313787581
6900258600.0 0.3672887363 0.92631452
6950258300.0 0.3800730564 0.9211646599
7000258000.0 0.3919922608 0.9161036858
7050257700.0 0.404025338 0.910138538
7100257400.0 0.4173120217 0.9038764288
7150257100.0 0.4278512881 0.8987422115
7200256800.0 0.4406085887 0.8924283028
7250256500.0 0.4520244494 0.886246063
7300256200.0 0.4645554437 0.8796880421
7350255900.0 0.4773914463 0.8730943052
7400255600.0 0.4889704593 0.8662584512
7450255300.0 0.5040468146 0.8575679806
7500255000.0 0.5154558245 0.8504542436
7550254700.0 0.5288253249 0.8426780568
7600254400.0 0.5413458432 0.834299463
7650254100.0 0.5526901438 0.8268827901
7700253800.0 0.5648759743 0.8187354061
7750253500.0 0.576063035 0.8110345929
7800253200.0 0.5871897572 0.803162325
7850252900.0 0.5968966556 0.7959343217
7900252600.0 0.60869434 0.7870154083
7950252300.0 0.6180897116 0.7799574674
8000252000.0 0.628258504 0.7719820742
8050251700.0 0.6388544029 0.7635434878
8100251400.0 0.6489190617 0.7554760747
8150251100.0 0.6593100977 0.7464976559
8200250800.0 0.6688830165 0.7383762311
8250250500.0 0.6785357395 0.7297276385
8300250200.0 0.687989651 0.7210442493
8350249900.0 0.6972920242 0.7122035192
8400249600.0 0.7056403445 0.7040088163
8450249300.0 0.7150278815 0.6945602926
8500249000.0 0.7236316126 0.6854335618
8550248700.0 0.7324456296 0.676129654
8600248400.0 0.7411893496 0.6664659347
8650248100.0 0.7488763811 0.6572490416
8700247800.0 0.7582611855 0.6463066673
8750247500.0 0.7665817827 0.6363801794
8800247200.0 0.7747198963 0.6261461238
8850246900.0 0.7832523769 0.615210474
8900246600.0 0.7917576424 0.6038234238
8950246300.0 0.8009279535 0.5917983398
9000246000.0 0.8095517265 0.5797473884
9050245700.0 0.8182495946 0.5675767669
9100245400.0 0.8264465583 0.5552279002
9150245100.0 0.8351112645 0.5427030438
9200244800.0 0.844138492 0.5289803824
9250244500.0 0.8530265191 0.514678375
9300244200.0 0.8608158742 0.5011341699
9350243900.0 0.8686529344 0.4877897055
9400243600.0 0.875603268 0.4749482114
9450243300.0 0.8817715592 0.4628977427
9500243000.0 0.8886549426 0.4495497059
9550242700.0 0.8936917833 0.4400058127
9600242400.0 0.8981694741 0.4307248224
9650242100.0 0.902318275 0.4225669994
9700241800.0 0.9071985303 0.4134060983
9750241500.0 0.9114901101 0.4046899118
9800241200.0 0.9163796193 0.3944906982
9850240900.0 0.9214120945 0.3827844792
9900240600.0 0.9264700916 0.3720068663
9950240300.0 0.9326280889 0.3567013122
10000240000.0 0.9374911066 0.3450301713
10050239700.0 0.9430731647 0.3299724859
10100239400.0 0.9478516017 0.3152166963
10150239100.0 0.9524096716 0.3009024055
10200238800.0 0.9565229261 0.2864574983
10250238500.0 0.9601801689 0.2729359763
10300238200.0 0.9635018578 0.2589443499
10350237900.0 0.96649052 0.2458977368
10400237600.0 0.9692419665 0.2327720451
10450237300.0 0.9720221224 0.2194481079
10500237000.0 0.9745008439 0.2069188897
10550236700.0 0.9771932438 0.1928229498
10600236400.0 0.9787612419 0.180186105
10650236100.0 0.9812732564 0.1652555171
10700235800.0 0.9836868034 0.1533813319
10750235500.0 0.9856505625 0.1401705411
10800235200.0 0.9877766104 0.1261171754
10850234900.0 0.9894792733 0.1117795017
10900234600.0 0.9914937912 0.0974234852
10950234300.0 0.9930659601 0.0841479806
11000234000.0 0.9946029229 0.0698783657
11050233700.0 0.995986333 0.0547613228
11100233400.0 0.9975435897 0.0378892774
11150233100.0 0.9986276878 0.0222629983
11200232800.0 0.9988542154 0.0078054658
11250232500.0 0.9998516295 -0.0085213137
11300232200.0 0.9994321678 -0.0247707512
11350231900.0 0.9997780208 -0.0409380385
11400231600.0 0.9993783253 -0.0556905808
11450231300.0 0.9991585138 -0.07113489
11500231000.0 0.9978918727 -0.0873953205
11550230700.0 0.9964602713 -0.1009964167
11600230400.0 0.9953237516 -0.114733805
11650230100.0 0.9935158911 -0.1259272426
11700229800.0 0.9916061568 -0.1419916096
11750229500.0 0.9892497769 -0.1559356908
11800229200.0 0.9866883573 -0.1696924904
11850228900.0 0.9835737158 -0.1831934972
11900228600.0 0.9802565394 -0.1944891827
11950228300.0 0.9771732597 -0.2058443105
12000228000.0 0.9747910475 -0.2158148518
12050227700.0 0.9707472253 -0.2292071513
12100227400.0 0.9678041196 -0.2397802666
12150227100.0 0.9629951912 -0.2566041941
12200226800.0 0.9589369081 -0.2681180699
12250226500.0 0.9559498475 -0.2802045278
12300226200.0 0.9518982626 -0.2924296097
12350225900.0 0.9474672119 -0.3068566971
12400225600.0 0.9434071719 -0.3197718069
12450225300.0 0.9386492953 -0.3318713838
12500225000.0 0.9333115839 -0.3458737556
12550224700.0 0.9284442498 -0.3600092689
12600224400.0 0.9236809908 -0.3721981165
12650224100.0 0.9178501926 -0.3862797208
12700223800.0 0.9127559087 -0.3988145823
12750223500.0 0.9071570961 -0.4117673442
12800223200.0 0.9019527904 -0.4242994143
12850222900.0 0.8962651721 -0.4364997896
12900222600.0 0.8903378761 -0.4483024247
12950222300.0 0.8841548015 -0.4615723752
13000222000.0 0.8780477032 -0.4731563446
13050221700.0 0.8709618006 -0.4863775696
13100221400.0 0.8646258531 -0.497747449
13150221100.0 0.8576993231 -0.5100306174
13200220800.0 0.8502326744 -0.5223483231
13250220500.0 0.8427556316 -0.5347619087
13300220200.0 0.8352188345 -0.5459248759
13350219900.0 0.8271507316 -0.558151729
13400219600.0 0.8187911588 -0.5703473859
13450219300.0 0.8098809152 -0.582971679
13500219000.0 0.799645809 -0.5964946237
13550218700.0 0.7902602438 -0.6090150291
13600218400.0 0.7804155369 -0.6211574961
13650218100.0 0.7706228952 -0.6319953618
13700217800.0 0.7601004595 -0.6443866228
13750217500.0 0.7499608878 -0.6555845325
13800217200.0 0.7396618549 -0.6672753788
13850216900.0 0.7296734985 -0.6786004012
13900216600.0 0.7191203141 -0.6884748989
13950216300.0 0.7087855941 -0.6983227521
14000216000.0 0.6981931865 -0.7082408412
14050215700.0 0.6889175318 -0.7168435426
14100215400.0 0.67892988 -0.7259814359
14150215100.0 0.6696693976 -0.7347338009
14200214800.0 0.6602266445 -0.7435046739
14250214500.0 0.6498968719 -0.7528061953
14300214200.0 0.6393686134 -0.7622038554
14350213900.0 0.6287378425 -0.7714747244
14400213600.0 0.6173989698 -0.7806643186
14450213300.0 0.6047253869 -0.7908423949
14500213000.0 0.5926132919 -0.8000925242
14550212700.0 0.5807156343 -0.8089353772
14600212400.0 0.5678418922 -0.8176927907
14650212100.0 0.5554846594 -0.8265224265
14700211800.0 0.5416792624 -0.8356267668
14750211500.0 0.5293754331 -0.8437390037
14800211200.0 0.5170392586 -0.8520979711
14850210900.0 0.5050781801 -0.8593979936
14900210600.0 0.4918445061 -0.8672068223
14950210300.0 0.4784097279 -0.8750109391
15000210000.0 0.465476287 -0.8818693431
15050209700.0 0.4529965465 -0.8884144742
15100209400.0 0.4400273982 -0.8947710709
15150209100.0 0.4270770631 -0.9007720863
15200208800.0 0.4131881967 -0.9063921722
15250208500.0 0.402495046 -0.911171408
15300208200.0 0.389091178 -0.9164571138
15350207900.0 0.3757697222 -0.9222068386
15400207600.0 0.3612017397 -0.9268990413
15450207300.0 0.3464490091 -0.9323428264
15500207000.0 0.3321298745 -0.9366015139
15550206700.0 0.3181635885 -0.9418298135
15600206400.0 0.3030194486 -0.9469263106
15650206100.0 0.2875274434 -0.9509690248
15700205800.0 0.2737637751 -0.9546911145
15750205500.0 0.259520069 -0.9584107715
15800205200.0 0.2453174617 -0.9618740123
15850204900.0 0.2311919297 -0.965340021
15900204600.0 0.2162155254 -0.9691744373
15950204300.0 0.2023712241 -0.9719519192
16000204000.0 0.1884633056 -0.9752586745
16050203700.0 0.1734640632 -0.9777485807
16100203400.0 0.1599817895 -0.979899941
16150203100.0 0.1450240787 -0.9824836736
16200202800.0 0.1310587885 -0.9845127295
16250202500.0 0.1165295605 -0.9861827933
16300202200.0 0.1016973886 -0.987944314
16350201900.0 0.0865887052 -0.9895009381
16400201600.0 0.0718598111 -0.9903574483
16450201300.0 0.057029237 -0.9918056701
16500201000.0 0.0409167232 -0.9925461621
16550200700.0 0.0255022599 -0.9932117689
16600200400.0 0.0099760887 -0.9933677992
16650200100.0 -0.00640409 -0.9936311514
16700199800.0 -0.022404536 -0.9934552692
16750199500.0 -0.0406372445 -0.9927692015
16800199200.0 -0.0566385944 -0.992230859
16850198900.0 -0.0719015148 -0.9908285746
16900198600.0 -0.0859464196 -0.9899226107
16950198300.0 -0.1001314202 -0.9884393157
17000198000.0 -0.1137394711 -0.9875885436
17050197700.0 -0.1265677071 -0.9853667115
17100197400.0 -0.1407926015 -0.9831215045
17150197100.0 -0.1544734877 -0.9812304403
17200196800.0 -0.1673196759 -0.9790760167
17250196500.0 -0.1809534877 -0.9764572523
17300196200.0 -0.1936348856 -0.9742550589
17350195900.0 -0.2062999596 -0.9718210226
17400195600.0 -0.218916461 -0.9691903222
17450195300.0 -0.2323648632 -0.9662790292
17500195000.0 -0.2457664806 -0.9630591371
17550194700.0 -0.2594892883 -0.9595265321
17600194400.0 -0.2734645925 -0.9552080504
17650194100.0 -0.2870930814 -0.9516072608
17700193800.0 -0.30062177 -0.9476540012
17750193500.0 -0.3143503284 -0.9429248322
17800193200.0 -0.3281276275 -0.937989081
17850192900.0 -0.3426913266 -0.9326781837
17900192600.0 -0.3572910859 -0.9271696237
17950192300.0 -0.3723724338 -0.9204630612
18000192000.0 -0.3867463545 -0.91379694
18050191700.0 -0.4008276558 -0.9064512233
18100191400.0 -0.4149461546 -0.8992208293
18150191100.0 -0.4292782099 -0.8916694944
18200190800.0 -0.4451064021 -0.8832425327
18250190500.0 -0.4615615564 -0.8747421364
18300190200.0 -0.476763807 -0.8661126507
18350189900.0 -0.4914709841 -0.858060407
18400189600.0 -0.5057848224 -0.8504284171
18450189300.0 -0.5196650523 -0.8420117737
18500189000.0 -0.5326189135 -0.8338491067
18550188700.0 -0.5458517379 -0.8263129249
18600188400.0 -0.5587746957 -0.8184279212
18650188100.0 -0.5700173072 -0.8114827573
18700187800.0 -0.5811328304 -0.8043338033
18750187500.0 -0.5925894859 -0.7971591923
18800187200.0 -0.6037752098 -0.7893043534
18850186900.0 -0.6143698997 -0.7817488964
18900186600.0 -0.624951067 -0.7737154853
18950186300.0 -0.6356924238 -0.7652533509
19000186000.0 -0.6440033765 -0.7580388383
19050185700.0 -0.6543239716 -0.7503056543
19100185400.0 -0.6642853342 -0.741831223
19150185100.0 -0.6743751387 -0.7329407851
19200184800.0 -0.683826453 -0.7242305578
19250184500.0 -0.6937893151 -0.7147854327
19300184200.0 -0.7049112582 -0.7045732287
19350183900.0 -0.7155387763 -0.6949917883
19400183600.0 -0.7254709114 -0.6856018179
19450183300.0 -0.734765684 -0.6748710428
19500183000.0 -0.7429407978 -0.664902301
19550182700.0 -0.7519834051 -0.6545466754
19600182400.0 -0.7619819291 -0.6429998245
19650182100.0 -0.7718621119 -0.6313191458
19700181800.0 -0.7816475863 -0.6191562237
19750181500.0 -0.7915999443 -0.6059336534
19800181200.0 -0.8017446633 -0.5919685316
19850180900.0 -0.8111148763 -0.5779587718
19900180600.0 -0.8189546044 -0.5647204257
19950180300.0 -0.8283155765 -0.5494167265
20000180000.0 -0.826917533 -0.5471102476
20050179700.0 -0.8340159206 -0.5349941132
20100179400.0 -0.8428862568 -0.5203144803
20150179100.0 -0.8498957335 -0.5083718184
20200178800.0 -0.8587771949 -0.4959961895
20250178500.0 -0.867756404 -0.4832842964
20300178200.0 -0.8763677408 -0.46846136
20350177900.0 -0.8850725169 -0.4555220691
20400177600.0 -0.8928880423 -0.4413393004
20450177300.0 -0.9009176487 -0.4270324031
20500177000.0 -0.9083027546 -0.4132318112
20550176700.0 -0.9155957048 -0.4000632994
20600176400.0 -0.9221716927 -0.3863444009
20650176100.0 -0.9291281904 -0.3735389415
20700175800.0 -0.9353457594 -0.3610726685
20750175500.0 -0.9418494178 -0.348980082
20800175200.0 -0.9462943993 -0.3373697341
20850174900.0 -0.951876439 -0.3257956365
20900174600.0 -0.9561800905 -0.3136247301
20950174300.0 -0.9598272723 -0.3019527429
21000174000.0 -0.9645042152 -0.288905094
21050173700.0 -0.9664380347 -0.2784672561
21100173400.0 -0.9706526855 -0.2651683371
21150173100.0 -0.9751738136 -0.2525847694
21200172800.0 -0.9781399501 -0.239040026
21250172500.0 -0.9815620965 -0.2248988166
21300172200.0 -0.9846251631 -0.2112036511
21350171900.0 -0.9865421306 -0.1966389851
21400171600.0 -0.9884691108 -0.1826548162
21450171300.0 -0.9898205728 -0.168388576
21500171000.0 -0.9902867443 -0.1534042954
21550170700.0 -0.9901320418 -0.1382601478
21600170400.0 -0.9906912467 -0.1239860133
21650170100.0 -0.991956638 -0.1073371719
21700169800.0 -0.9904278359 -0.0924334687
21750169500.0 -0.9903440951 -0.0775665094
21800169200.0 -0.9900260362 -0.0613864285
21850168900.0 -0.9892066143 -0.0458766413
21900168600.0 -0.989083098 -0.030179831
21950168300.0 -0.98693751 -0.0141065078
22000168000.0 -0.9859467893 0.0006564337
22050167700.0 -0.9859924927 0.0144969843
22100167400.0 -0.9857828566 0.0296852201
22150167100.0 -0.9862411829 0.0451499821
22200166800.0 -0.9860908477 0.0601608482
22250166500.0 -0.9849448614 0.0766565755
22300166200.0 -0.9845045978 0.092426934
22350165900.0 -0.9829849179 0.1088354601
22400165600.0 -0.9817706393 0.1240270808
22450165300.0 -0.9796303349 0.1392360227
22500165000.0 -0.9771115244 0.1523923324
22550164700.0 -0.977043099 0.1671914731
22600164400.0 -0.9738659023 0.1831527638
22650164100.0 -0.9721432184 0.1967424696
22700163800.0 -0.9694095446 0.2120812824
22750163500.0 -0.9667986918 0.2275420083
22800163200.0 -0.9641422644 0.2403747222
22850162900.0 -0.9615804434 0.2535406104
22900162600.0 -0.9593532679 0.2670392299
22950162300.0 -0.957851776 0.2802408168
23000162000.0 -0.9562962309 0.2923801124
23050161700.0 -0.9534318122 0.3051484658
23100161400.0 -0.9513124295 0.3180031033
23150161100.0 -0.9483327303 0.3305082828
23200160800.0 -0.94524681 0.34281385
23250160500.0 -0.9415476586 0.3551254277
23300160200.0 -0.9391078882 0.3668586644
23350159900.0 -0.9352752665 0.380888874
23400159600.0 -0.9306549211 0.3927812311
23450159300.0 -0.9256536315 0.4058515251
23500159000.0 -0.921287896 0.4183262051
23550158700.0 -0.9167265969 0.4314594903
23600158400.0 -0.9111126836 0.443913196
23650158100.0 -0.9051095088 0.4572960189
23700157800.0 -0.897994285 0.4707281353
23750157500.0 -0.8901593806 0.4842647461
23800157200.0 -0.8820061915 0.4971542514
23850156900.0 -0.8739452335 0.5094480128
23900156600.0 -0.8648230045 0.5221107044
23950156300.0 -0.8569637136 0.5346063541
24000156000.0 -0.848242248 0.5460683839
24050155700.0 -0.8378862297 0.5583937731
24100155400.0 -0.8283708072 0.5703692359
24150155100.0 -0.819154434 0.5817960763
24200154800.0 -0.8080450419 0.5931433098
24250154500.0 -0.7983374721 0.6052555065
24300154200.0 -0.7877787499 0.6167237706
24350153900.0 -0.7764976542 0.6279584116
24400153600.0 -0.7650539508 0.6385077622
24450153300.0 -0.7538237758 0.6488889176
24500153000.0 -0.742669876 0.659063592
24550152700.0 -0.7322783859 0.6693509937
24600152400.0 -0.7210236493 0.6791570162
24650152100.0 -0.7101011093 0.6883655433
