!Created with skrf (http://scikit-rf.org).
# Hz S RI R 50.0 
!freq ReS11 ImS11
300000.0 -0.9738517831 -0.1203450351
50299700.0 -1.000030865 0.0152144047
100299400.0 -0.9980596427 0.0281729744
150299100.0 -1.002728447 0.044968266
200298800.0 -0.9994811257 0.0582816941
250298500.0 -0.9974267206 0.072005834
300298200.0 -0.9859800725 0.0876483948
350297900.0 -0.9939861626 0.0984600412
400297600.0 -0.9931773043 0.1150852026
450297300.0 -0.991039825 0.1289283131
500297000.0 -0.9895167172 0.1435998577
550296700.0 -0.9842889483 0.1559642078
600296400.0 -1.017424963 0.1892881609
650296100.0 -0.9824555536 0.1861106831
700295800.0 -0.9794735343 0.2003671381
750295500.0 -0.976334926 0.2142622199
800295200.0 -0.9731563972 0.2282439479
850294900.0 -0.9698795114 0.2421158136
900294600.0 -0.9658319282 0.2559643266
950294300.0 -0.9621239012 0.2695935563
1000294000.0 -0.9582745107 0.2835208834
1050293700.0 -0.9537162857 0.2973994456
1100293400.0 -0.9494529128 0.3116435986
1150293100.0 -0.9455368984 0.3235618805
1200292800.0 -0.9401099196 0.3380109855
1250292500.0 -0.9347864065 0.3514981759
1300292200.0 -0.9291157625 0.364610113
1350291900.0 -0.9235197874 0.3788674818
1400291600.0 -0.917829206 0.3918463292
1450291300.0 -0.9124590403 0.4042121828
1500291000.0 -0.9064033915 0.4176363334
1550290700.0 -0.8997144835 0.430859391
1600290400.0 -0.8934956705 0.443784307
1650290100.0 -0.8868198206 0.4560502822
1700289800.0 -0.8797617278 0.4693816427
1750289500.0 -0.8727836305 0.481990431
1800289200.0 -0.865458259 0.4946388788
1850288900.0 -0.8588412738 0.505992776
1900288600.0 -0.8510500802 0.5190000765
1950288300.0 -0.8430401166 0.5316448648
2000288000.0 -0.8354832768 0.5429596742
2050287700.0 -0.8270950076 0.5553150647
2100287400.0 -0.8193436183 0.5669853466
2150287100.0 -0.8105935931 0.5789265031
2200286800.0 -0.8031061829 0.5892191839
2250286500.0 -0.794166864 0.6015390408
2300286200.0 -0.7854001717 0.6128524744
2350285900.0 -0.7765762032 0.6238964047
2400285600.0 -0.7677753944 0.6350491132
2450285300.0 -0.7591462536 0.645291182
2500285000.0 -0.7492352348 0.6565578761
2550284700.0 -0.7404983578 0.6669466185
2600284400.0 -0.731055985 0.6770844197
2650284100.0 -0.7221483829 0.6876327842
2700283800.0 -0.7116398384 0.6978342721
2750283500.0 -0.7013108738 0.7087373023
2800283200.0 -0.6914455835 0.7185611003
2850282900.0 -0.6809729236 0.7280721581
2900282600.0 -0.6708890343 0.7379209399
2950282300.0 -0.6604659435 0.7472905201
3000282000.0 -0.6497958362 0.756546794
3050281700.0 -0.6387194736 0.7657540376
3100281400.0 -0.6267153725 0.7752957029
3150281100.0 -0.6150038355 0.7845971381
3200280800.0 -0.6033763974 0.7930306442
3250280500.0 -0.5924325206 0.8007693521
3300280200.0 -0.5811943861 0.8088168046
3350279900.0 -0.569584883 0.8163173987
3400279600.0 -0.5574210794 0.8239395255
3450279300.0 -0.5463867892 0.831221444
3500279000.0 -0.5341799957 0.8384347766
3550278700.0 -0.5219243953 0.8454735417
3600278400.0 -0.509829799 0.8522558056
3650278100.0 -0.4965275217 0.8601666249
3700277800.0 -0.4843786167 0.8668896248
3750277500.0 -0.4724986667 0.8733408528
3800277200.0 -0.4598573576 0.8798599007
3850276900.0 -0.4477998847 0.8855331576
3900276600.0 -0.4370644984 0.8913484655
3950276300.0 -0.4244441393 0.8975306473
4000276000.0 -0.4126897694 0.9032297726
4050275700.0 -0.3999279936 0.9094660248
4100275400.0 -0.3887372088 0.9148859496
4150275100.0 -0.3758834717 0.9205948873
4200274800.0 -0.3628690009 0.9263295736
4250274500.0 -0.3505165101 0.9314024854
4300274200.0 -0.3375854289 0.9366677828
4350273900.0 -0.3237204961 0.9418464723
4400273600.0 -0.3089455493 0.947230278
4450273300.0 -0.2936577574 0.9522212581
4500273000.0 -0.2800860212 0.9565781392
4550272700.0 -0.2660196013 0.9609718508
4600272400.0 -0.2505249587 0.9650130795
4650272100.0 -0.2388509675 0.9683760567
4700271800.0 -0.225551035 0.9714168946
4750271500.0 -0.2139921657 0.9745019875
4800271200.0 -0.2014597133 0.9770927824
4850270900.0 -0.1876672193 0.9798189455
4900270600.0 -0.1738264738 0.982356432
4950270300.0 -0.1592905505 0.9847732349
5000270000.0 -0.1450198831 0.9869838678
5050269700.0 -0.1314415894 0.9886908293
5100269400.0 -0.1177389272 0.9904189042
5150269100.0 -0.104382385 0.9917065829
5200268800.0 -0.0909373217 0.9931366576
5250268500.0 -0.0780426227 0.9935993438
5300268200.0 -0.0647236588 0.994812261
5350267900.0 -0.0523402078 0.9953632482
5400267600.0 -0.0363108094 0.996230745
5450267300.0 -0.0230715236 0.9967009121
5500267000.0 -0.0080444271 0.996974938
5550266700.0 0.0068848551 0.9970445318
5600266400.0 0.0224919915 0.9971693237
5650266100.0 0.038867208 0.9969911734
5700265800.0 0.0534868693 0.9964434316
5750265500.0 0.0684091145 0.9955668033
5800265200.0 0.0823379558 0.9943089434
5850264900.0 0.0955466259 0.9934980217
5900264600.0 0.1122865632 0.9918716298
5950264300.0 0.1246030578 0.9904495474
6000264000.0 0.137997875 0.9883823913
6050263700.0 0.1505014393 0.9869971472
6100263400.0 0.162584724 0.9852515542
6150263100.0 0.1774978017 0.9826746306
6200262800.0 0.1877658937 0.9808975783
6250262500.0 0.2003645161 0.9784428615
6300262200.0 0.2131169736 0.975890513
6350261900.0 0.2261093399 0.9729095686
6400261600.0 0.2399234105 0.9696755266
6450261300.0 0.2514476977 0.9669606936
6500261000.0 0.2641839236 0.9635338875
6550260700.0 0.2772017282 0.9596489076
6600260400.0 0.2905737223 0.9556351331
6650260100.0 0.3043895464 0.9509481737
6700259800.0 0.3165207315 0.9469085212
6750259500.0 0.3302878464 0.9416913309
6800259200.0 0.3437475661 0.9369148413
6850258900.0 0.355536729 0.9317714639
6900258600.0 0.3678308009 0.9267414791
6950258300.0 0.3804060672 0.9212660083
7000258000.0 0.3924804296 0.9159155485
7050257700.0 0.4047059775 0.9098470901
7100257400.0 0.4175500869 0.9037540741
7150257100.0 0.4279758292 0.8982142731
7200256800.0 0.440631274 0.8920443709
7250256500.0 0.4528699038 0.8856191225
7300256200.0 0.4655334124 0.8788553938
7350255900.0 0.4780757365 0.8719974604
7400255600.0 0.4917411772 0.8646562405
7450255300.0 0.5073335089 0.8557774557
7500255000.0 0.5188056893 0.8486768094
7550254700.0 0.532575979 0.8397236879
7600254400.0 0.5453235979 0.8316451691
7650254100.0 0.557138759 0.823894099
7700253800.0 0.5686550145 0.8159161422
7750253500.0 0.5800899028 0.8081136976
7800253200.0 0.5903733281 0.8005605745
7850252900.0 0.6002589466 0.7932159334
7900252600.0 0.6117745232 0.7845007025
7950252300.0 0.6206751695 0.7781154792
8000252000.0 0.6305651669 0.7704253143
8050251700.0 0.6410645126 0.7623704566
8100251400.0 0.6511904517 0.7542185098
8150251100.0 0.6613587992 0.745780103
8200250800.0 0.6706495682 0.7375388808
8250250500.0 0.6797160691 0.729661984
8300250200.0 0.6888362293 0.7210989249
8350249900.0 0.6980065035 0.7123192528
8400249600.0 0.7061908762 0.7044063026
8450249300.0 0.7151481236 0.6951383751
8500249000.0 0.7238858662 0.6863404909
8550248700.0 0.7321200099 0.6773034874
8600248400.0 0.7407740896 0.6677428348
8650248100.0 0.7483656592 0.6582436783
8700247800.0 0.7580982182 0.64693212
8750247500.0 0.7662450203 0.636950938
8800247200.0 0.7744565872 0.6265664803
8850246900.0 0.7831808881 0.6149726658
8900246600.0 0.7916503951 0.6037970115
8950246300.0 0.8012323247 0.5909082387
9000246000.0 0.8104690198 0.5781012812
9050245700.0 0.8191010478 0.5653905873
9100245400.0 0.8281218464 0.5529475429
9150245100.0 0.837192542 0.5394451705
9200244800.0 0.8469615145 0.5244099711
9250244500.0 0.8564233882 0.5089731378
9300244200.0 0.8646233016 0.494635323
9350243900.0 0.8724298636 0.4809038596
9400243600.0 0.8790068308 0.4684991264
9450243300.0 0.8848488557 0.4571930042
9500243000.0 0.890999107 0.44516684
9550242700.0 0.8950025062 0.4372512357
9600242400.0 0.8987736516 0.4298928962
9650242100.0 0.9027326081 0.4234045186
9700241800.0 0.9073107045 0.4152360358
9750241500.0 0.9112061634 0.4075942112
9800241200.0 0.915973422 0.3983471554
9850240900.0 0.9214809146 0.3869730608
9900240600.0 0.92753189 0.3749799388
9950240300.0 0.9338118007 0.3590766512
10000240000.0 0.9386124307 0.3475521134
10050239700.0 0.9443753639 0.3324625001
10100239400.0 0.9495131581 0.3163291794
10150239100.0 0.9537353674 0.3016247586
10200238800.0 0.9581135977 0.2865256584
10250238500.0 0.9614411473 0.272918686
10300238200.0 0.9647045689 0.2590285987
10350237900.0 0.9671160401 0.2461299518
10400237600.0 0.9697590955 0.2327915297
10450237300.0 0.9725938989 0.2191238745
10500237000.0 0.9748505121 0.2067403093
10550236700.0 0.9771250132 0.192630743
10600236400.0 0.9791270391 0.1792058262
10650236100.0 0.9814343015 0.1644726971
10700235800.0 0.9830677438 0.1525398732
10750235500.0 0.9854716957 0.1388427177
10800235200.0 0.9875366124 0.1247343427
10850234900.0 0.989437439 0.1098438716
10900234600.0 0.9916764574 0.0951635402
10950234300.0 0.9933965975 0.081934749
11000234000.0 0.9951682961 0.0667271172
11050233700.0 0.9970725436 0.0504744267
11100233400.0 0.9983172242 0.0329125653
11150233100.0 0.9996502522 0.0164763873
11200232800.0 1.00027447 0.0012916947
11250232500.0 1.001348316 -0.0150315808
11300232200.0 1.001835364 -0.0331565488
11350231900.0 1.002082433 -0.0488735612
11400231600.0 1.001514167 -0.0639996866
11450231300.0 1.001531049 -0.0799222337
11500231000.0 1.000090155 -0.0967085053
11550230700.0 0.9987151258 -0.1093537196
11600230400.0 0.997265364 -0.1224945866
11650230100.0 0.9950088192 -0.133807235
11700229800.0 0.9932571179 -0.1481756463
11750229500.0 0.9908185173 -0.1625027542
11800229200.0 0.9884426021 -0.1762872057
11850228900.0 0.9845649634 -0.1883219461
11900228600.0 0.981209451 -0.198172349
11950228300.0 0.9778912604 -0.2086940291
12000228000.0 0.9754468206 -0.2175486761
12050227700.0 0.9712375404 -0.2302468445
12100227400.0 0.968637484 -0.2416867377
12150227100.0 0.9632881825 -0.2581914775
12200226800.0 0.9592492388 -0.2689191282
12250226500.0 0.9558082411 -0.2820519973
12300226200.0 0.9508157541 -0.2949482867
12350225900.0 0.9467049523 -0.3083338247
12400225600.0 0.9420429644 -0.3207827013
12450225300.0 0.9374963709 -0.3334808762
12500225000.0 0.932332173 -0.3487286278
12550224700.0 0.9267974146 -0.3625821058
12600224400.0 0.9218423832 -0.3751744934
12650224100.0 0.9160092449 -0.389636417
12700223800.0 0.9108729053 -0.4023627971
12750223500.0 0.9053938399 -0.4154147806
12800223200.0 0.8999384967 -0.4278921864
12850222900.0 0.8945945558 -0.4403013838
12900222600.0 0.8891009657 -0.4527343076
12950222300.0 0.8824135284 -0.4655464014
13000222000.0 0.8765565176 -0.4768840947
13050221700.0 0.8698664709 -0.4897534545
13100221400.0 0.863368937 -0.5014775925
13150221100.0 0.8565526968 -0.5134153979
13200220800.0 0.8494733605 -0.5251510695
13250220500.0 0.8420061008 -0.5373297008
13300220200.0 0.8346949286 -0.5480969321
13350219900.0 0.8267684845 -0.5599202747
13400219600.0 0.8188061619 -0.5718144219
13450219300.0 0.8090826877 -0.5853376649
13500219000.0 0.7990760637 -0.5990258044
13550218700.0 0.7891721729 -0.6116517967
13600218400.0 0.7790275974 -0.624201107
13650218100.0 0.769606613 -0.6347602902
13700217800.0 0.7584554812 -0.647382459
13750217500.0 0.7481903257 -0.6590042314
13800217200.0 0.7369771644 -0.6705256701
13850216900.0 0.7265469066 -0.6819085684
13900216600.0 0.716747003 -0.6902724431
13950216300.0 0.705467728 -0.7013635282
14000216000.0 0.6956811354 -0.7097256517
14050215700.0 0.6858867738 -0.718743844
14100215400.0 0.6763668611 -0.7271963587
14150215100.0 0.6669924016 -0.7359367912
14200214800.0 0.6577245765 -0.7445202078
14250214500.0 0.6473254175 -0.7539500325
14300214200.0 0.6367815298 -0.7634943012
14350213900.0 0.6257927242 -0.7728902422
14400213600.0 0.6141849566 -0.7828672673
14450213300.0 0.6009648476 -0.7931547845
14500213000.0 0.5878844723 -0.8024588187
14550212700.0 0.575254506 -0.812358483
14600212400.0 0.5628007256 -0.8210212743
14650212100.0 0.5499021539 -0.8299180768
14700211800.0 0.5364269904 -0.8395804061
14750211500.0 0.5240286192 -0.8477778525
14800211200.0 0.5117623882 -0.8558305813
14850210900.0 0.4995144275 -0.8631755752
14900210600.0 0.4862430327 -0.8710922098
14950210300.0 0.4728671185 -0.8787981769
15000210000.0 0.4602777126 -0.8855789946
15050209700.0 0.4477589572 -0.8916311004
15100209400.0 0.4350675262 -0.8974463934
15150209100.0 0.4233332457 -0.9030926848
15200208800.0 0.4097846558 -0.9089592502
15250208500.0 0.3988108904 -0.9132028397
15300208200.0 0.3863165187 -0.9174201231
15350207900.0 0.3732512564 -0.9216273984
15400207600.0 0.3580578053 -0.9277420906
15450207300.0 0.3440063848 -0.9335338956
15500207000.0 0.3297985539 -0.9372387918
15550206700.0 0.3154256839 -0.942715571
15600206400.0 0.2991711599 -0.9468183053
15650206100.0 0.2835275853 -0.9512189513
15700205800.0 0.2697512888 -0.9548315964
15750205500.0 0.2553069069 -0.9584326735
15800205200.0 0.2408622311 -0.9617942448
15850204900.0 0.2263477879 -0.9652500917
15900204600.0 0.2112001391 -0.9688151827
15950204300.0 0.1968771826 -0.9719005329
16000204000.0 0.182722187 -0.9748255919
16050203700.0 0.1679362404 -0.9779033574
16100203400.0 0.1530001554 -0.97998112
16150203100.0 0.1387516591 -0.9825224909
16200202800.0 0.124558525 -0.9841610202
16250202500.0 0.109988822 -0.9862269251
16300202200.0 0.0943166091 -0.9873200954
16350201900.0 0.0792561446 -0.9893230662
16400201600.0 0.0650569927 -0.99016213
16450201300.0 0.0495774168 -0.9912314076
16500201000.0 0.0328082578 -0.9920918404
16550200700.0 0.0170843831 -0.992708374
16600200400.0 0.0013908618 -0.992789491
16650200100.0 -0.0148753075 -0.992964967
16700199800.0 -0.0314120363 -0.992154333
16750199500.0 -0.0495750204 -0.9914764305
16800199200.0 -0.065228391 -0.9913411448
16850198900.0 -0.0808503413 -0.9898211217
16900198600.0 -0.094467273 -0.9887238233
16950198300.0 -0.1077719502 -0.9882251544
17000198000.0 -0.1209226706 -0.986374893
17050197700.0 -0.1339221108 -0.9837719587
17100197400.0 -0.1468808237 -0.9826314327
17150197100.0 -0.158604868 -0.9799057067
17200196800.0 -0.1718667637 -0.9781433704
17250196500.0 -0.1849516309 -0.9761037349
17300196200.0 -0.1968215555 -0.9734749264
17350195900.0 -0.2088319142 -0.9712146276
17400195600.0 -0.2210277832 -0.9687751912
17450195300.0 -0.2341276961 -0.9659386125
17500195000.0 -0.2476486211 -0.9625000773
17550194700.0 -0.2613069641 -0.9592350999
17600194400.0 -0.2753290815 -0.9549482814
17650194100.0 -0.2891756974 -0.9507490425
17700193800.0 -0.30220686 -0.9465904821
17750193500.0 -0.3164352324 -0.9421813146
17800193200.0 -0.3309371536 -0.9371177149
17850192900.0 -0.3456299494 -0.9316799647
17900192600.0 -0.3606681572 -0.9257306708
17950192300.0 -0.3764470217 -0.9180369643
18000192000.0 -0.3914217794 -0.9110632266
18050191700.0 -0.4052919865 -0.9032421664
18100191400.0 -0.4194915208 -0.8955234344
18150191100.0 -0.4345891286 -0.8876115797
18200190800.0 -0.4515225323 -0.8783819856
18250190500.0 -0.4684272272 -0.8689724025
18300190200.0 -0.4836941513 -0.860284434
18350189900.0 -0.4987475449 -0.8520423358
18400189600.0 -0.5133692192 -0.843956111
18450189300.0 -0.5265698902 -0.8355422413
18500189000.0 -0.5398957524 -0.8277804512
18550188700.0 -0.5523479623 -0.8204033454
18600188400.0 -0.5643803196 -0.8140202985
18650188100.0 -0.575310977 -0.8069000424
18700187800.0 -0.5861275105 -0.8004099006
18750187500.0 -0.5968590478 -0.793887267
18800187200.0 -0.6073298697 -0.7870112398
18850186900.0 -0.6173327752 -0.7801698534
18900186600.0 -0.6276805262 -0.7727829183
18950186300.0 -0.6374151232 -0.7650719183
19000186000.0 -0.6448910827 -0.7589301808
19050185700.0 -0.6543375524 -0.7519641493
19100185400.0 -0.6639882371 -0.7436627048
19150185100.0 -0.6739805838 -0.7352531085
19200184800.0 -0.6837985578 -0.7267296428
19250184500.0 -0.6941858988 -0.7173796476
19300184200.0 -0.7056745031 -0.7081203248
19350183900.0 -0.7162244077 -0.698462157
19400183600.0 -0.7254386006 -0.6881605225
19450183300.0 -0.7343197863 -0.6780076369
19500183000.0 -0.7433956604 -0.6687033579
19550182700.0 -0.7527531486 -0.6570535102
19600182400.0 -0.7632795162 -0.645609979
19650182100.0 -0.7740528355 -0.6331618782
19700181800.0 -0.7847947395 -0.6199062075
19750181500.0 -0.795495581 -0.6059957514
19800181200.0 -0.8057192375 -0.5910213211
19850180900.0 -0.8154228071 -0.5755695784
19900180600.0 -0.8232106989 -0.5609355075
19950180300.0 -0.8327984141 -0.5445686721
20000180000.0 -0.8255217798 -0.5473048357
20050179700.0 -0.8336463052 -0.5343574644
20100179400.0 -0.8425681255 -0.5205729489
20150179100.0 -0.8507352669 -0.5074343539
20200178800.0 -0.8600843936 -0.4956156773
20250178500.0 -0.8674404567 -0.4817968406
20300178200.0 -0.8779615559 -0.4675415008
20350177900.0 -0.8873007479 -0.4533576032
20400177600.0 -0.8958595949 -0.4387690983
20450177300.0 -0.9044831639 -0.4244510143
20500177000.0 -0.9123598762 -0.4104950345
20550176700.0 -0.9205023814 -0.3970720081
20600176400.0 -0.927225012 -0.3840779785
20650176100.0 -0.9335856125 -0.3720620214
20700175800.0 -0.9405483574 -0.3602102047
20750175500.0 -0.9467830579 -0.3486376249
20800175200.0 -0.952479987 -0.337904279
20850174900.0 -0.9580100667 -0.3259827088
20900174600.0 -0.9612521607 -0.3155419731
20950174300.0 -0.9653537779 -0.3040431083
21000174000.0 -0.9679782364 -0.2923591139
21050173700.0 -0.9709627018 -0.2817192945
21100173400.0 -0.9746139615 -0.2693690693
21150173100.0 -0.9795614301 -0.2581295131
21200172800.0 -0.9821892612 -0.2444134181
21250172500.0 -0.9854316137 -0.2307039506
21300172200.0 -0.9886386872 -0.2162821441
21350171900.0 -0.9900814777 -0.2019524099
21400171600.0 -0.9916257296 -0.1873986582
21450171300.0 -0.9921013539 -0.1733250591
21500171000.0 -0.9916096477 -0.1581276782
21550170700.0 -0.9922258254 -0.1425262032
21600170400.0 -0.9919830365 -0.1269574451
21650170100.0 -0.9917605968 -0.1111983479
21700169800.0 -0.9895407828 -0.095933804
21750169500.0 -0.9891047259 -0.0795160443
21800169200.0 -0.988307725 -0.0632324185
21850168900.0 -0.9876766831 -0.0468736993
21900168600.0 -0.9860900518 -0.0303247891
21950168300.0 -0.9852510603 -0.0141520302
22000168000.0 -0.9842923559 0.0003457795
22050167700.0 -0.9844801038 0.014650643
22100167400.0 -0.9843751011 0.0299937878
22150167100.0 -0.9850804315 0.0455611521
22200166800.0 -0.985470261 0.0619969001
22250166500.0 -0.9849737317 0.0798822658
22300166200.0 -0.9845438025 0.0959439552
22350165900.0 -0.9827094536 0.1124138023
22400165600.0 -0.981467469 0.128484804
22450165300.0 -0.9788384505 0.1423100209
22500165000.0 -0.977942008 0.1572829211
22550164700.0 -0.9764164429 0.1721563655
22600164400.0 -0.9751023365 0.1882288808
22650164100.0 -0.973027236 0.2035865919
22700163800.0 -0.9692479972 0.2186559501
22750163500.0 -0.9678369128 0.234412877
22800163200.0 -0.9647152479 0.2465513154
22850162900.0 -0.962070725 0.2602147213
22900162600.0 -0.9605095566 0.2738120189
22950162300.0 -0.959238056 0.2863940993
23000162000.0 -0.9577643974 0.2984383963
23050161700.0 -0.9556786069 0.311003971
23100161400.0 -0.9537552348 0.3238900655
23150161100.0 -0.951003958 0.3364392073
23200160800.0 -0.9480645037 0.3487229062
23250160500.0 -0.9455787918 0.3619096321
23300160200.0 -0.9432921261 0.3729904421
23350159900.0 -0.9389421451 0.3857726942
23400159600.0 -0.9343768327 0.3991449711
23450159300.0 -0.9295550216 0.4126300995
23500159000.0 -0.9245562143 0.4258466633
23550158700.0 -0.9200724348 0.4389496295
23600158400.0 -0.9147515013 0.4521971424
23650158100.0 -0.908472854 0.4664817251
23700157800.0 -0.9006140867 0.4805567824
23750157500.0 -0.8921531958 0.4942803649
23800157200.0 -0.8831579964 0.5079440187
23850156900.0 -0.8745076261 0.5215201224
23900156600.0 -0.8644705051 0.5328847056
23950156300.0 -0.8561904435 0.5458614907
24000156000.0 -0.846408128 0.5576559514
24050155700.0 -0.8365600029 0.5702207242
24100155400.0 -0.8263303683 0.5819349686
24150155100.0 -0.8163588628 0.5936004902
24200154800.0 -0.8053178833 0.6042495779
24250154500.0 -0.793196187 0.6168534941
24300154200.0 -0.7816124211 0.628172411
24350153900.0 -0.7702230133 0.6390816656
24400153600.0 -0.7585431191 0.649276658
24450153300.0 -0.7464877834 0.65912035
24500153000.0 -0.7348761288 0.669071183
24550152700.0 -0.7235941195 0.6785539183
24600152400.0 -0.711650398 0.6880845852
24650152100.0 -0.6999335878 0.6962336439
