!Created with skrf (http://scikit-rf.org).
# Hz S RI R 50.0 
!freq ReS11 ImS11
300000.0 -0.9764680439 -0.1182784939
50299700.0 -0.9999741139 0.0153871566
100299400.0 -0.998047642 0.0282340327
150299100.0 -1.002700587 0.0452895273
200298800.0 -0.9996237674 0.0585871646
250298500.0 -0.9973986247 0.0720028178
300298200.0 -0.9859406065 0.0878287207
350297900.0 -0.9941713918 0.0987350341
400297600.0 -0.993333928 0.1154152078
450297300.0 -0.9908824816 0.1291010161
500297000.0 -0.9894039315 0.1437403188
550296700.0 -0.9844626388 0.1562367126
600296400.0 -1.017518677 0.1894090004
650296100.0 -0.9823890606 0.1861403258
700295800.0 -0.9791810386 0.2005393235
750295500.0 -0.9763105743 0.2144745413
800295200.0 -0.9731235814 0.2285409292
850294900.0 -0.9696841518 0.2424426694
900294600.0 -0.9657976154 0.2560444987
950294300.0 -0.9621770373 0.2698315062
1000294000.0 -0.95810693 0.2838945722
1050293700.0 -0.9536380619 0.297712443
1100293400.0 -0.9491347496 0.3120473552
1150293100.0 -0.9454857504 0.3241117126
1200292800.0 -0.9402013073 0.3381767671
1250292500.0 -0.9346383217 0.3516564823
1300292200.0 -0.9289668317 0.3647358812
1350291900.0 -0.9234230139 0.3789552782
1400291600.0 -0.9179964014 0.3918206157
1450291300.0 -0.9124427847 0.404376577
1500291000.0 -0.9062022408 0.4178700949
1550290700.0 -0.8997573131 0.4310874414
1600290400.0 -0.8934794959 0.4439247832
1650290100.0 -0.8868329927 0.4561330702
1700289800.0 -0.8797678276 0.4696037241
1750289500.0 -0.8727442024 0.482015144
1800289200.0 -0.8656261786 0.4950152098
1850288900.0 -0.8587187044 0.505808307
1900288600.0 -0.8510441183 0.5191498843
1950288300.0 -0.8427015344 0.5316739592
2000288000.0 -0.8353882642 0.5431698569
2050287700.0 -0.8270503458 0.555376404
2100287400.0 -0.8191962129 0.5672019551
2150287100.0 -0.8107555654 0.5793912309
2200286800.0 -0.8028809417 0.5895852621
2250286500.0 -0.7941879686 0.6016146021
2300286200.0 -0.7853787551 0.6131895896
2350285900.0 -0.7765961136 0.6241519706
2400285600.0 -0.7677336657 0.6352032739
2450285300.0 -0.7592301368 0.6454865431
2500285000.0 -0.7492341872 0.6566699165
2550284700.0 -0.7403472354 0.6671517842
2600284400.0 -0.7308592332 0.6773761442
2650284100.0 -0.7220998808 0.6875791956
2700283800.0 -0.7114306006 0.6984375898
2750283500.0 -0.7009268576 0.7088968627
2800283200.0 -0.6912547759 0.7185769515
2850282900.0 -0.6809744494 0.7283685271
2900282600.0 -0.6707935814 0.7380593822
2950282300.0 -0.6605914102 0.7474141609
3000282000.0 -0.6497463243 0.7568317406
3050281700.0 -0.6385084385 0.7660347783
3100281400.0 -0.626794585 0.7754399183
3150281100.0 -0.6150154961 0.7847550024
3200280800.0 -0.6032422588 0.7931933619
3250280500.0 -0.5924353347 0.8009811494
3300280200.0 -0.5812512041 0.8088037577
3350279900.0 -0.5695906909 0.8164302825
3400279600.0 -0.5573742178 0.8240115396
3450279300.0 -0.5461233956 0.8313048724
3500279000.0 -0.5343441733 0.8382237345
3550278700.0 -0.5218715315 0.8456934432
3600278400.0 -0.509536658 0.8527794371
3650278100.0 -0.4964903308 0.8604307981
3700277800.0 -0.4843223302 0.8668603089
3750277500.0 -0.4721492325 0.8735207201
3800277200.0 -0.45966444 0.8800439067
3850276900.0 -0.4474357159 0.885719877
3900276600.0 -0.436815259 0.8914921889
3950276300.0 -0.4244197612 0.8976615548
4000276000.0 -0.4124610089 0.9037798068
4050275700.0 -0.3995628744 0.9095178073
4100275400.0 -0.3884674599 0.9148910723
4150275100.0 -0.375730915 0.9208167311
4200274800.0 -0.3626896792 0.9262166924
4250274500.0 -0.3505041395 0.9311771903
4300274200.0 -0.3374277705 0.9367223776
4350273900.0 -0.3236629385 0.9421253358
4400273600.0 -0.3086299794 0.9473955354
4450273300.0 -0.2934396625 0.9521501851
4500273000.0 -0.2798549772 0.9567010841
4550272700.0 -0.2657254476 0.9609892319
4600272400.0 -0.250245156 0.9650903873
4650272100.0 -0.2385295937 0.9683163542
4700271800.0 -0.2252651165 0.971676368
4750271500.0 -0.2136777564 0.9745128411
4800271200.0 -0.2011703213 0.97725058
4850270900.0 -0.1871936331 0.980101569
4900270600.0 -0.1731773503 0.9822984698
4950270300.0 -0.1589650269 0.984921314
5000270000.0 -0.1448218568 0.9871838804
5050269700.0 -0.131235941 0.9887320168
5100269400.0 -0.1175404055 0.9904149403
5150269100.0 -0.1039312849 0.9919585673
5200268800.0 -0.0909896693 0.9930449533
5250268500.0 -0.0778173164 0.9939219307
5300268200.0 -0.0645999438 0.9947798492
5350267900.0 -0.0523274212 0.9952549672
5400267600.0 -0.0361861427 0.9964231412
5450267300.0 -0.0231853785 0.996768367
5500267000.0 -0.0078198573 0.997075558
5550266700.0 0.0069731163 0.9972620002
5600266400.0 0.02244096 0.9973888962
5650266100.0 0.0390358035 0.9969583542
5700265800.0 0.0534995997 0.995943746
5750265500.0 0.0683539185 0.9954307939
5800265200.0 0.0824251927 0.9943489512
5850264900.0 0.0959924616 0.992896737
5900264600.0 0.1124004431 0.9913562057
5950264300.0 0.12453732 0.9903865815
6000264000.0 0.1384056585 0.9883808719
6050263700.0 0.1509158876 0.9869970338
6100263400.0 0.1631484832 0.9851869505
6150263100.0 0.1776091572 0.9825576935
6200262800.0 0.1881050538 0.9809364088
6250262500.0 0.2007373116 0.9784253769
6300262200.0 0.2135404676 0.9758236236
6350261900.0 0.2265776227 0.9729257234
6400261600.0 0.2405133879 0.9694594413
6450261300.0 0.2516590246 0.9668427021
6500261000.0 0.2647201099 0.9635348944
6550260700.0 0.2777297471 0.9594408792
6600260400.0 0.2909576217 0.9552289958
6650260100.0 0.3049794559 0.95100379
6700259800.0 0.3171913639 0.9468659283
6750259500.0 0.3308509256 0.941694217
6800259200.0 0.3439869011 0.9368438993
6850258900.0 0.3559475496 0.9316460972
6900258600.0 0.3681074081 0.9265699616
6950258300.0 0.3807646142 0.9212974494
7000258000.0 0.3926542404 0.9159864521
7050257700.0 0.4049758988 0.9098759897
7100257400.0 0.4176927641 0.9036176269
7150257100.0 0.4280258556 0.8981192871
7200256800.0 0.4407524421 0.8919010094
7250256500.0 0.4529475064 0.8854301215
7300256200.0 0.4657410763 0.8786254686
7350255900.0 0.4785263453 0.8717124234
7400255600.0 0.491547968 0.8646693961
7450255300.0 0.5071918388 0.8554914105
7500255000.0 0.5189701282 0.8485468254
7550254700.0 0.5325897714 0.8399121905
7600254400.0 0.545192424 0.8316154614
7650254100.0 0.5568003585 0.8239852571
7700253800.0 0.5688901464 0.8160180011
7750253500.0 0.5801494575 0.8080752894
7800253200.0 0.5906595823 0.8003935079
7850252900.0 0.6003641606 0.7934889761
7900252600.0 0.611874173 0.7846542875
7950252300.0 0.6205887676 0.7780599925
8000252000.0 0.630948583 0.7705472107
8050251700.0 0.6412797479 0.762352586
8100251400.0 0.6514143738 0.7540429066
8150251100.0 0.66164111 0.7455150717
8200250800.0 0.6710663786 0.7374604712
8250250500.0 0.6796635756 0.729509231
8300250200.0 0.6892901112 0.7210495291
8350249900.0 0.6980616085 0.712391487
8400249600.0 0.706591397 0.7042192937
8450249300.0 0.7153748954 0.6950946709
8500249000.0 0.7239973456 0.6862109333
8550248700.0 0.7324122418 0.6771212584
8600248400.0 0.7407435486 0.6675001356
8650248100.0 0.7484825086 0.6581327002
8700247800.0 0.7580663196 0.6470384512
8750247500.0 0.7662864004 0.6368169355
8800247200.0 0.7744574195 0.6264257183
8850246900.0 0.783076666 0.6150209434
8900246600.0 0.7917540322 0.603636828
8950246300.0 0.8013165111 0.5907125016
9000246000.0 0.8106962562 0.5780217524
9050245700.0 0.8197453652 0.5651686451
9100245400.0 0.8281778658 0.5527770397
9150245100.0 0.837528956 0.5392230523
9200244800.0 0.8471851199 0.5239849791
9250244500.0 0.8567214036 0.5086332973
9300244200.0 0.8648459403 0.4942412134
9350243900.0 0.872458525 0.4804176603
9400243600.0 0.8794112313 0.4681149706
9450243300.0 0.8851508628 0.4567141215
9500243000.0 0.8914244127 0.4444327509
9550242700.0 0.8952176267 0.4368121529
9600242400.0 0.899219742 0.4295286033
9650242100.0 0.9029942303 0.4228566458
9700241800.0 0.9074176078 0.4146934638
9750241500.0 0.9115501103 0.4070436592
9800241200.0 0.9162781172 0.3979487837
9850240900.0 0.9219568728 0.386185638
9900240600.0 0.9275178122 0.3748641837
9950240300.0 0.9340597917 0.3586023509
10000240000.0 0.9389763448 0.3467135757
10050239700.0 0.9447151493 0.3314233365
10100239400.0 0.9495401057 0.316067003
10150239100.0 0.9539596541 0.3009864716
10200238800.0 0.9581679854 0.2861725451
10250238500.0 0.9614585825 0.272681272
10300238200.0 0.9646559163 0.2587076073
10350237900.0 0.9673173929 0.2454977054
10400237600.0 0.969949512 0.2322564413
10450237300.0 0.9727973599 0.2186918203
10500237000.0 0.9745251165 0.2065902352
10550236700.0 0.9774706215 0.192105847
10600236400.0 0.9793123321 0.1787014268
10650236100.0 0.9811911095 0.163952207
10700235800.0 0.9834543431 0.1516861902
10750235500.0 0.9857511328 0.1387181107
10800235200.0 0.9878236059 0.124769728
10850234900.0 0.9895026841 0.110015311
10900234600.0 0.9917136916 0.0952336614
10950234300.0 0.9933772801 0.0818771072
11000234000.0 0.9952075062 0.0667676605
11050233700.0 0.9971084259 0.0503377307
11100233400.0 0.9985752915 0.0330549688
11150233100.0 0.999320619 0.0168366756
11200232800.0 1.000087117 0.0018075335
11250232500.0 1.001134928 -0.0151804333
11300232200.0 1.001484541 -0.0330921443
11350231900.0 1.002119387 -0.0485527868
11400231600.0 1.001885329 -0.0635681215
11450231300.0 1.001552425 -0.0802867579
11500231000.0 0.9996882105 -0.0956438269
11550230700.0 0.9983468501 -0.1092470724
11600230400.0 0.9976703981 -0.1225504401
11650230100.0 0.9956107962 -0.133476666
11700229800.0 0.9930887699 -0.1478718482
11750229500.0 0.9910462992 -0.1621986949
11800229200.0 0.988086384 -0.1764174845
11850228900.0 0.984647763 -0.1887187645
11900228600.0 0.9810020551 -0.1981781896
11950228300.0 0.977856448 -0.2087338208
12000228000.0 0.9751269388 -0.2177978866
12050227700.0 0.9714875366 -0.2304183232
12100227400.0 0.9682582023 -0.2419563396
12150227100.0 0.962936614 -0.2584068344
12200226800.0 0.9596183437 -0.2694304913
12250226500.0 0.9550473117 -0.2827896519
12300226200.0 0.9518885199 -0.2941414278
12350225900.0 0.9463735114 -0.3083146124
12400225600.0 0.9422118376 -0.3208033539
12450225300.0 0.9373475051 -0.3337297694
12500225000.0 0.9322746167 -0.3487104666
12550224700.0 0.9268645229 -0.3627102825
12600224400.0 0.9219391875 -0.375100742
12650224100.0 0.9160377555 -0.389663845
12700223800.0 0.9108679334 -0.4024874272
12750223500.0 0.9053664804 -0.4155282956
12800223200.0 0.9001553299 -0.4282018366
12850222900.0 0.8947572941 -0.4402073957
12900222600.0 0.8887698381 -0.4525698049
12950222300.0 0.8825774367 -0.4653952111
13000222000.0 0.87677224 -0.4769023293
13050221700.0 0.8701917031 -0.4894238179
13100221400.0 0.8635166516 -0.501428699
13150221100.0 0.8567514925 -0.5129611813
13200220800.0 0.8496440046 -0.5251899536
13250220500.0 0.8422234687 -0.5370524543
13300220200.0 0.8347155844 -0.5477882202
13350219900.0 0.8268299483 -0.559842988
13400219600.0 0.8185689994 -0.5720670335
13450219300.0 0.809341742 -0.5854006485
13500219000.0 0.7991750111 -0.5991753652
13550218700.0 0.7890807596 -0.6119474412
13600218400.0 0.7789112921 -0.6242804979
13650218100.0 0.7696540647 -0.6344898496
13700217800.0 0.7586198673 -0.6471671232
13750217500.0 0.7484082155 -0.6587744779
13800217200.0 0.7370937819 -0.6702558299
13850216900.0 0.7261350372 -0.6816485355
13900216600.0 0.7164546844 -0.6900979105
13950216300.0 0.7059240292 -0.7009300684
14000216000.0 0.6957551824 -0.7100371031
14050215700.0 0.6858800627 -0.7185240701
14100215400.0 0.6761544925 -0.7280311625
14150215100.0 0.6666173184 -0.7362399275
14200214800.0 0.6574060514 -0.7450802522
14250214500.0 0.6471454556 -0.7543036489
14300214200.0 0.6367880623 -0.7637751228
14350213900.0 0.6257452358 -0.7733009166
14400213600.0 0.6137235753 -0.7830056527
14450213300.0 0.6009803983 -0.7932441936
14500213000.0 0.5874952274 -0.8030648144
14550212700.0 0.5750445498 -0.812577172
14600212400.0 0.5627282988 -0.82101694
14650212100.0 0.5496648598 -0.830215184
14700211800.0 0.5357406622 -0.8398148267
14750211500.0 0.5234547844 -0.8481432714
14800211200.0 0.5115484745 -0.8559526978
14850210900.0 0.4992973827 -0.8633669284
14900210600.0 0.4861290654 -0.8713524886
14950210300.0 0.472561084 -0.8789505024
15000210000.0 0.4599650799 -0.885763106
15050209700.0 0.4477105058 -0.8919105455
15100209400.0 0.4351954227 -0.898154749
15150209100.0 0.4219714323 -0.9029273994
15200208800.0 0.4095329453 -0.9091774308
15250208500.0 0.3986940394 -0.913482215
15300208200.0 0.3864579323 -0.9180944793
15350207900.0 0.3729551529 -0.9226692858
15400207600.0 0.3588824262 -0.9273862691
15450207300.0 0.3445878488 -0.932415442
15500207000.0 0.3291294394 -0.9376336639
15550206700.0 0.3147034441 -0.942699622
15600206400.0 0.2986108888 -0.9468385875
15650206100.0 0.28321942 -0.9512318864
15700205800.0 0.2691059881 -0.9547825869
15750205500.0 0.2547098711 -0.9587357018
15800205200.0 0.2403115742 -0.9619639959
15850204900.0 0.2258062661 -0.96547348
15900204600.0 0.2107726937 -0.9691602807
15950204300.0 0.1966719373 -0.9721644389
16000204000.0 0.1823255525 -0.9749592619
16050203700.0 0.1677015436 -0.9780292237
16100203400.0 0.1530883028 -0.9802098153
16150203100.0 0.1385281773 -0.9825110145
16200202800.0 0.1242338141 -0.9847604989
16250202500.0 0.1090073098 -0.986269384
16300202200.0 0.0939387425 -0.9878226224
16350201900.0 0.0790694201 -0.9892847498
16400201600.0 0.0645246225 -0.9904443631
16450201300.0 0.0492878803 -0.9914635184
16500201000.0 0.0327332083 -0.9921328263
16550200700.0 0.0170328185 -0.9925509335
16600200400.0 0.0012087746 -0.9927842234
16650200100.0 -0.0149565007 -0.9930383143
16700199800.0 -0.0314308083 -0.9923787976
16750199500.0 -0.049841638 -0.9923563381
16800199200.0 -0.0656102991 -0.991296885
16850198900.0 -0.0804814281 -0.9898278247
16900198600.0 -0.0943676622 -0.9887391844
16950198300.0 -0.1088258892 -0.9872694552
17000198000.0 -0.1213297148 -0.9862462202
17050197700.0 -0.1340542774 -0.9842884969
17100197400.0 -0.1465630496 -0.9823090863
17150197100.0 -0.1599167614 -0.9801179982
17200196800.0 -0.171955168 -0.9778879751
17250196500.0 -0.1852136484 -0.9757372011
17300196200.0 -0.1971988471 -0.9734956307
17350195900.0 -0.209064292 -0.9710617163
17400195600.0 -0.2212508733 -0.9687216294
17450195300.0 -0.2344253266 -0.965854222
17500195000.0 -0.2477322717 -0.9626750929
17550194700.0 -0.2618828935 -0.9590553601
17600194400.0 -0.2759482986 -0.955198708
17650194100.0 -0.2890674418 -0.9512102952
17700193800.0 -0.3023874133 -0.9467741428
17750193500.0 -0.3166833692 -0.9421588266
17800193200.0 -0.331319013 -0.9368810555
17850192900.0 -0.3461462794 -0.9315236709
17900192600.0 -0.3615254531 -0.9254791294
17950192300.0 -0.3767252362 -0.9183022621
18000192000.0 -0.3916432611 -0.9110575114
18050191700.0 -0.4055877217 -0.9031961185
18100191400.0 -0.4198048283 -0.8955865684
18150191100.0 -0.4347914677 -0.8875999755
18200190800.0 -0.451761692 -0.8784444905
18250190500.0 -0.4686689406 -0.8688743033
18300190200.0 -0.4840561415 -0.8605352693
18350189900.0 -0.4990112769 -0.8520850807
18400189600.0 -0.5132462818 -0.8434413278
18450189300.0 -0.5269410892 -0.8355143568
18500189000.0 -0.5399990539 -0.8273061346
18550188700.0 -0.5527674797 -0.8199170284
18600188400.0 -0.5645658479 -0.8132555633
18650188100.0 -0.5757510814 -0.8069996816
18700187800.0 -0.5867206182 -0.7999419466
18750187500.0 -0.5970462919 -0.7935656453
18800187200.0 -0.6075372404 -0.7868684887
18850186900.0 -0.6177887226 -0.7797100138
18900186600.0 -0.6279703707 -0.7724582375
18950186300.0 -0.6378908399 -0.7648352853
19000186000.0 -0.6453203028 -0.7587040613
19050185700.0 -0.6546764883 -0.7510907472
19100185400.0 -0.6638961154 -0.7428563126
19150185100.0 -0.6742330535 -0.7345003234
19200184800.0 -0.6840031122 -0.7262640567
19250184500.0 -0.6943030982 -0.7172089663
19300184200.0 -0.7055387251 -0.7078218507
19350183900.0 -0.7170205406 -0.6983215143
19400183600.0 -0.7260489522 -0.6879649713
19450183300.0 -0.735425379 -0.6782437976
19500183000.0 -0.7434837443 -0.6681367866
19550182700.0 -0.7527047741 -0.6567858092
19600182400.0 -0.7637502841 -0.645356496
19650182100.0 -0.774277186 -0.6333250505
19700181800.0 -0.7850378538 -0.6197135893
19750181500.0 -0.795681675 -0.6056039441
19800181200.0 -0.806144903 -0.5905463616
19850180900.0 -0.8157522163 -0.5751441827
19900180600.0 -0.8235624018 -0.5607316853
19950180300.0 -0.8332090292 -0.5441201339
20000180000.0 -0.8253084157 -0.5472751744
20050179700.0 -0.8342272201 -0.5336987283
20100179400.0 -0.8420166967 -0.5197838037
20150179100.0 -0.8510301531 -0.5076761999
20200178800.0 -0.8589016466 -0.4950533685
20250178500.0 -0.8687424134 -0.4816225368
20300178200.0 -0.8780927409 -0.4669917742
20350177900.0 -0.8872712659 -0.4530230974
20400177600.0 -0.8963275579 -0.4384687232
20450177300.0 -0.9045829981 -0.424145147
20500177000.0 -0.9126535373 -0.4100827677
20550176700.0 -0.920701316 -0.3964179313
20600176400.0 -0.9275639567 -0.3834085289
20650176100.0 -0.9341134484 -0.3712367638
20700175800.0 -0.9406062163 -0.3589490572
20750175500.0 -0.9471043291 -0.3480519386
20800175200.0 -0.9521617277 -0.3367323682
20850174900.0 -0.956729296 -0.3255930975
20900174600.0 -0.9617920202 -0.3140710842
20950174300.0 -0.9653423677 -0.302730011
21000174000.0 -0.9690948968 -0.2911810413
21050173700.0 -0.972065715 -0.281137425
21100173400.0 -0.9757549096 -0.2691459754
21150173100.0 -0.9794235449 -0.2570379264
21200172800.0 -0.9828586927 -0.243147239
21250172500.0 -0.9862292738 -0.229164959
21300172200.0 -0.9890829737 -0.2155209633
21350171900.0 -0.9906516791 -0.2012640743
21400171600.0 -0.9918460595 -0.1868006266
21450171300.0 -0.9923573483 -0.1723888215
21500171000.0 -0.9928931582 -0.1571449935
21550170700.0 -0.9927958661 -0.1425297701
21600170400.0 -0.9920537961 -0.1255543091
21650170100.0 -0.9918101877 -0.110667374
21700169800.0 -0.9899870508 -0.0945569884
21750169500.0 -0.9881587418 -0.0783256573
21800169200.0 -0.9880534911 -0.0632577114
21850168900.0 -0.9872546643 -0.0457652144
21900168600.0 -0.9863424384 -0.0297187367
21950168300.0 -0.985118782 -0.0137390157
22000168000.0 -0.9838629168 0.0016997607
22050167700.0 -0.9843193058 0.0154376773
22100167400.0 -0.9844089438 0.0309860385
22150167100.0 -0.9848901129 0.0469223192
22200166800.0 -0.9849555363 0.0630239864
22250166500.0 -0.9847399168 0.080187919
22300166200.0 -0.984088224 0.0972501619
22350165900.0 -0.9825019432 0.1130992634
22400165600.0 -0.9814405835 0.128646537
22450165300.0 -0.9785656006 0.1443443429
22500165000.0 -0.9769985605 0.1577230413
22550164700.0 -0.976332069 0.1726999469
22600164400.0 -0.9746843258 0.1885549289
22650164100.0 -0.9723393832 0.2034682802
22700163800.0 -0.9692368014 0.2198286752
22750163500.0 -0.967477968 0.2349041015
22800163200.0 -0.9639580881 0.2479470428
22850162900.0 -0.9616656583 0.2610798071
22900162600.0 -0.9602718718 0.2745651082
22950162300.0 -0.9590067065 0.2873844575
23000162000.0 -0.9576917476 0.2994889981
23050161700.0 -0.9560460334 0.3120161589
23100161400.0 -0.9532638177 0.3249331584
23150161100.0 -0.9505330922 0.3366446946
23200160800.0 -0.9473702027 0.3495560764
23250160500.0 -0.945319735 0.3614660873
23300160200.0 -0.9423393005 0.3738075832
23350159900.0 -0.9389135567 0.3869449081
23400159600.0 -0.9338890068 0.399882593
23450159300.0 -0.928943379 0.4128799667
23500159000.0 -0.9246424915 0.4255142444
23550158700.0 -0.9202849524 0.4396403675
23600158400.0 -0.9147241688 0.4529364448
23650158100.0 -0.9083144801 0.4671663857
23700157800.0 -0.9007533296 0.4808778508
23750157500.0 -0.8919801746 0.4949808184
23800157200.0 -0.8834546377 0.50812795
23850156900.0 -0.8743987546 0.5206868731
23900156600.0 -0.8651859026 0.5336104113
23950156300.0 -0.8555720946 0.5463075383
24000156000.0 -0.8467262565 0.5577331118
24050155700.0 -0.8369033289 0.5699312564
24100155400.0 -0.8266368066 0.5817640664
24150155100.0 -0.8158241253 0.5934622688
24200154800.0 -0.8051268351 0.6049581323
24250154500.0 -0.7939340517 0.6165388202
24300154200.0 -0.7824949809 0.6283990715
24350153900.0 -0.7708594202 0.6388146522
24400153600.0 -0.7586577115 0.6487780868
24450153300.0 -0.746780504 0.6587444735
24500153000.0 -0.7350230156 0.6685502761
24550152700.0 -0.7236322538 0.6788701221
24600152400.0 -0.7122914944 0.6871772887
24650152100.0 -0.7009265442 0.6962492687
