!Created with skrf (http://scikit-rf.org).
# Hz S RI R 50.0 
!freq ReS11 ImS11
300000.0 -0.9798740066 -0.1078602646
50299700.0 -1.000096652 0.0160862746
100299400.0 -0.9979251123 0.0289924136
150299100.0 -1.002821194 0.0458621586
200298800.0 -0.9996294352 0.0591712408
250298500.0 -0.9974353601 0.072608697
300298200.0 -0.986032402 0.0884317235
350297900.0 -0.9938570407 0.0992002866
400297600.0 -0.9929920989 0.1159399149
450297300.0 -0.9911544003 0.1298575322
500297000.0 -0.9894095407 0.1444911918
550296700.0 -0.9842163644 0.1568751274
600296400.0 -1.01720538 0.1903603651
650296100.0 -0.982329621 0.1868700153
700295800.0 -0.9790648132 0.2011657708
750295500.0 -0.976290663 0.2151074184
800295200.0 -0.972740559 0.2292655586
850294900.0 -0.9695394941 0.2431708224
900294600.0 -0.9653712868 0.2568409652
950294300.0 -0.9619212985 0.2706292455
1000294000.0 -0.9578508836 0.2847952618
1050293700.0 -0.953478159 0.2984326064
1100293400.0 -0.9490316309 0.3128546593
1150293100.0 -0.9451706338 0.3246343153
1200292800.0 -0.9398871941 0.3390145826
1250292500.0 -0.9342476131 0.3524782284
1300292200.0 -0.9287309799 0.3654948234
1350291900.0 -0.9231290642 0.3795258926
1400291600.0 -0.9177250255 0.3927754777
1450291300.0 -0.9121272765 0.4051154172
1500291000.0 -0.9059124501 0.4184206252
1550290700.0 -0.8994185657 0.4316261802
1600290400.0 -0.8930380576 0.4446519687
1650290100.0 -0.8865169694 0.456744908
1700289800.0 -0.8796965637 0.4702793301
1750289500.0 -0.8723921459 0.4825670857
1800289200.0 -0.8652120573 0.4954896112
1850288900.0 -0.8583857121 0.5068131392
1900288600.0 -0.8506810238 0.5198503962
1950288300.0 -0.842498812 0.5323779618
2000288000.0 -0.8347761491 0.5438075755
2050287700.0 -0.8266396313 0.5561567901
2100287400.0 -0.8188315401 0.5679104407
2150287100.0 -0.8099629419 0.5798057045
2200286800.0 -0.8023530989 0.590147222
2250286500.0 -0.7937287906 0.6021398603
2300286200.0 -0.7845547419 0.6136690447
2350285900.0 -0.7759357653 0.6248816408
2400285600.0 -0.7667391938 0.6359946622
2450285300.0 -0.7580945891 0.6462284069
2500285000.0 -0.7484577183 0.6574580971
2550284700.0 -0.7394303137 0.6676900997
2600284400.0 -0.7301137157 0.6778657599
2650284100.0 -0.7210647505 0.68851143
2700283800.0 -0.7104529424 0.6991429965
2750283500.0 -0.6998800866 0.7094779718
2800283200.0 -0.6903536836 0.7192159658
2850282900.0 -0.6803199902 0.7292945977
2900282600.0 -0.6696542832 0.7384996523
2950282300.0 -0.6596659688 0.7479253592
3000282000.0 -0.6489349595 0.7574490905
3050281700.0 -0.6377072421 0.7666733396
3100281400.0 -0.6260485469 0.7760775645
3150281100.0 -0.6140696224 0.7853213185
3200280800.0 -0.6025836914 0.7939295828
3250280500.0 -0.5917105767 0.8014626757
3300280200.0 -0.5805460985 0.8092774861
3350279900.0 -0.5688665018 0.8170015858
3400279600.0 -0.5569523885 0.8244719001
3450279300.0 -0.5457865424 0.8316389023
3500279000.0 -0.5335478652 0.8388800886
3550278700.0 -0.5211888985 0.8463011194
3600278400.0 -0.5088096808 0.8531687441
3650278100.0 -0.4959460106 0.8609718554
3700277800.0 -0.4838486561 0.8672971508
3750277500.0 -0.4714726799 0.8737135292
3800277200.0 -0.4590188451 0.880189593
3850276900.0 -0.4467458646 0.886445115
3900276600.0 -0.4359365187 0.892016321
3950276300.0 -0.4233793854 0.898092528
4000276000.0 -0.4112911754 0.9039609604
4050275700.0 -0.3982380747 0.9101046181
4100275400.0 -0.3870685085 0.9155615336
4150275100.0 -0.3745380787 0.9212039959
4200274800.0 -0.3613974318 0.9264771768
4250274500.0 -0.3491257726 0.9317978639
4300274200.0 -0.3363363043 0.936991271
4350273900.0 -0.3222708538 0.9424420832
4400273600.0 -0.3078095525 0.9473706795
4450273300.0 -0.2922380114 0.9525089465
4500273000.0 -0.2786298654 0.9568647849
4550272700.0 -0.2642068904 0.9612448226
4600272400.0 -0.2489533273 0.9655794373
4650272100.0 -0.2371656465 0.9685137211
4700271800.0 -0.2237479304 0.97188072
4750271500.0 -0.2121096281 0.9746947349
4800271200.0 -0.199536848 0.9774750931
4850270900.0 -0.1857493073 0.9802486852
4900270600.0 -0.1719229092 0.9825785091
4950270300.0 -0.1577147973 0.985178439
5000270000.0 -0.1435001244 0.9871409647
5050269700.0 -0.1298896233 0.988823953
5100269400.0 -0.1164141623 0.9906976104
5150269100.0 -0.1031556975 0.9921422114
5200268800.0 -0.0897789708 0.9934051805
5250268500.0 -0.0767586993 0.9941134899
5300268200.0 -0.0639315596 0.9948755038
5350267900.0 -0.0515895879 0.9953263364
5400267600.0 -0.0353679162 0.9967941024
5450267300.0 -0.0223161266 0.9967186425
5500267000.0 -0.0072405189 0.9970427277
5550266700.0 0.0079359768 0.997389755
5600266400.0 0.023208848 0.9973066858
5650266100.0 0.0398612224 0.9968855215
5700265800.0 0.0544533362 0.9960323009
5750265500.0 0.069506178 0.995178852
5800265200.0 0.0838622827 0.9941007951
5850264900.0 0.0967994809 0.9935835827
5900264600.0 0.1135056459 0.9913698348
5950264300.0 0.1256798969 0.9900838897
6000264000.0 0.1396323146 0.9881780892
6050263700.0 0.1521136209 0.9862329423
6100263400.0 0.164464099 0.9845748494
6150263100.0 0.1791688596 0.9823891956
6200262800.0 0.1895752858 0.9804541047
6250262500.0 0.2025459814 0.9779731765
6300262200.0 0.2151340171 0.9751541102
6350261900.0 0.2282160486 0.9724180958
6400261600.0 0.2420667746 0.9688360679
6450261300.0 0.2534810273 0.9662892283
6500261000.0 0.2666190068 0.9628725634
6550260700.0 0.279346078 0.958709284
6600260400.0 0.2926816717 0.9547459545
6650260100.0 0.3061572235 0.950237763
6700259800.0 0.3183121007 0.9458809166
6750259500.0 0.3323073661 0.9410432546
6800259200.0 0.3455269806 0.9362398724
6850258900.0 0.3572121174 0.9308175265
6900258600.0 0.3693514563 0.9262265493
6950258300.0 0.3822384225 0.9207469459
7000258000.0 0.3938589031 0.9153795209
7050257700.0 0.4062794915 0.9092680949
7100257400.0 0.4188091365 0.9030103709
7150257100.0 0.4293714889 0.897696496
7200256800.0 0.4421843573 0.8912367799
7250256500.0 0.4536229734 0.8851146598
7300256200.0 0.4668454028 0.8782875424
7350255900.0 0.4792608782 0.8712881556
7400255600.0 0.4926828283 0.8642924909
7450255300.0 0.5077410075 0.8551955206
7500255000.0 0.5192237647 0.8483630102
7550254700.0 0.5333519912 0.8394496229
7600254400.0 0.5459505245 0.830941288
7650254100.0 0.5575745323 0.8232425445
7700253800.0 0.5692105001 0.8153156046
7750253500.0 0.5805747599 0.8074391632
7800253200.0 0.5910230901 0.7998358215
7850252900.0 0.600988614 0.7927352258
7900252600.0 0.612695184 0.7840160167
7950252300.0 0.6215488156 0.7773074778
8000252000.0 0.6318510396 0.7694112249
8050251700.0 0.6422177033 0.7611974662
8100251400.0 0.6526886835 0.7529711557
8150251100.0 0.6624390553 0.744327899
8200250800.0 0.6717652192 0.7363765592
8250250500.0 0.6807121025 0.7286053835
8300250200.0 0.6903410031 0.719757866
8350249900.0 0.6990140277 0.7110279443
8400249600.0 0.7073405659 0.7033169006
8450249300.0 0.7164300933 0.6939053348
8500249000.0 0.7249860947 0.6850090617
8550248700.0 0.7334360609 0.6760961727
8600248400.0 0.7417832916 0.6665090099
8650248100.0 0.7495293636 0.6572353437
8700247800.0 0.7590199841 0.6459592987
8750247500.0 0.7672514199 0.6358555086
8800247200.0 0.7752982897 0.6255315037
8850246900.0 0.7842668988 0.614237699
8900246600.0 0.7927451811 0.6028156773
8950246300.0 0.8021161835 0.589869953
9000246000.0 0.811429517 0.5769735308
9050245700.0 0.8205049055 0.5641793809
9100245400.0 0.8292116458 0.5516815912
9150245100.0 0.8381865589 0.5381395421
9200244800.0 0.8482946828 0.5226877962
9250244500.0 0.8576831917 0.5069075853
9300244200.0 0.8660271163 0.4924929893
9350243900.0 0.8735301079 0.4786412238
9400243600.0 0.8804269157 0.4660309824
9450243300.0 0.8863045683 0.454305428
9500243000.0 0.8926319756 0.4420870803
9550242700.0 0.8965536942 0.4343021615
9600242400.0 0.9002842943 0.4266799112
9650242100.0 0.9038685152 0.4203081095
9700241800.0 0.9085675334 0.4118934657
9750241500.0 0.9123993478 0.404566452
9800241200.0 0.9168596081 0.395600675
9850240900.0 0.9226546051 0.3836989063
9900240600.0 0.9282570023 0.3722561959
9950240300.0 0.934611923 0.3561189262
10000240000.0 0.9397003385 0.3442899143
10050239700.0 0.9454503557 0.3288188667
10100239400.0 0.950034987 0.3136596926
10150239100.0 0.9540950431 0.2988326179
10200238800.0 0.9584948976 0.2841818527
10250238500.0 0.9617409649 0.2705691881
10300238200.0 0.9650045517 0.2566905785
10350237900.0 0.9677190964 0.2435568193
10400237600.0 0.9700613056 0.230393026
10450237300.0 0.972631323 0.2173212337
10500237000.0 0.9750268237 0.2049212792
10550236700.0 0.9772687423 0.1909287317
10600236400.0 0.9792942078 0.1772563895
10650236100.0 0.9811249475 0.1630993506
10700235800.0 0.9841830057 0.1502291364
10750235500.0 0.9859046313 0.1377243653
10800235200.0 0.9878127429 0.1231987513
10850234900.0 0.9897894048 0.1088279229
10900234600.0 0.9918899312 0.0941741029
10950234300.0 0.9934638122 0.0811392055
11000234000.0 0.9953335888 0.0658568898
11050233700.0 0.9969493927 0.0494978215
11100233400.0 0.9983573236 0.0322962871
11150233100.0 0.9992571982 0.0157216332
11200232800.0 0.9997820619 0.0005792333
11250232500.0 1.000994238 -0.0161090064
11300232200.0 1.001217632 -0.0333943315
11350231900.0 1.001542504 -0.0488610681
11400231600.0 1.001010694 -0.064774178
11450231300.0 1.000384481 -0.0816182795
11500231000.0 0.9996799457 -0.0969974941
11550230700.0 0.9977840302 -0.1109165163
11600230400.0 0.9967350442 -0.1236256682
11650230100.0 0.9948586173 -0.135486405
11700229800.0 0.9923654692 -0.1500346139
11750229500.0 0.990086531 -0.1644536024
11800229200.0 0.9874516341 -0.1784099105
11850228900.0 0.9837324586 -0.1904127726
11900228600.0 0.980322175 -0.200336844
11950228300.0 0.9770653961 -0.2104792845
12000228000.0 0.9743773974 -0.2193592614
12050227700.0 0.9706507221 -0.2329320626
12100227400.0 0.9678451953 -0.2438150755
12150227100.0 0.9633513478 -0.2600143358
12200226800.0 0.9595312255 -0.2709961917
12250226500.0 0.9559648786 -0.2834588927
12300226200.0 0.9505294336 -0.296940193
12350225900.0 0.9458398466 -0.310039747
12400225600.0 0.9417152976 -0.3222230346
12450225300.0 0.9367410981 -0.3351079861
12500225000.0 0.931441991 -0.3496341886
12550224700.0 0.9265247883 -0.3639390052
12600224400.0 0.9215179024 -0.3760336952
12650224100.0 0.9158746572 -0.3904459062
12700223800.0 0.9105985303 -0.4032059536
12750223500.0 0.904972281 -0.4161858991
12800223200.0 0.8997576128 -0.4289129386
12850222900.0 0.8944149569 -0.4407467258
12900222600.0 0.8887312241 -0.4526600758
12950222300.0 0.8825676858 -0.4654466406
13000222000.0 0.8763541826 -0.4769900391
13050221700.0 0.8697458749 -0.4896234879
13100221400.0 0.8628188278 -0.5021379127
13150221100.0 0.8559143621 -0.5144555571
13200220800.0 0.8486218026 -0.5261093159
13250220500.0 0.8416222094 -0.5384140774
13300220200.0 0.8340347446 -0.548936245
13350219900.0 0.8260179018 -0.5609265923
13400219600.0 0.8177496373 -0.5731711979
13450219300.0 0.8080724925 -0.5868288312
13500219000.0 0.7979843528 -0.6012247865
13550218700.0 0.7870831515 -0.613896739
13600218400.0 0.7774159593 -0.6261215249
13650218100.0 0.7673957434 -0.6372672727
13700217800.0 0.7563676698 -0.6493263346
13750217500.0 0.746166993 -0.6611355152
13800217200.0 0.7356240784 -0.6726748285
13850216900.0 0.7239583347 -0.6839773522
13900216600.0 0.7145377846 -0.6930051875
13950216300.0 0.7035408811 -0.7031256375
14000216000.0 0.6933646056 -0.7121451698
14050215700.0 0.6838353072 -0.7205118994
14100215400.0 0.6742608564 -0.7293615548
14150215100.0 0.6648731265 -0.7379394313
14200214800.0 0.6556409568 -0.7462772514
14250214500.0 0.6454953459 -0.7556155936
14300214200.0 0.6352528305 -0.7647821519
14350213900.0 0.6239098406 -0.7743809785
14400213600.0 0.6123277607 -0.7842851145
14450213300.0 0.5992056631 -0.7947224862
14500213000.0 0.5866830738 -0.8042160945
14550212700.0 0.573778763 -0.8133407925
14600212400.0 0.5616389108 -0.8223681248
14650212100.0 0.5483037335 -0.8306600109
14700211800.0 0.5342454251 -0.8401235577
14750211500.0 0.5220034749 -0.8487092562
14800211200.0 0.5097642632 -0.8566661022
14850210900.0 0.497580672 -0.864146438
14900210600.0 0.4845831802 -0.872016489
14950210300.0 0.4708399951 -0.879624224
15000210000.0 0.4580394401 -0.8865918509
15050209700.0 0.4454324423 -0.8927421925
15100209400.0 0.4328369264 -0.8985436819
15150209100.0 0.4204029366 -0.9038411883
15200208800.0 0.4073280809 -0.9094716127
15250208500.0 0.3953377866 -0.9138757954
15300208200.0 0.3841178155 -0.9188019072
15350207900.0 0.370834186 -0.9238103066
15400207600.0 0.3561828896 -0.9285550118
15450207300.0 0.3412408827 -0.9333201415
15500207000.0 0.3263644307 -0.9388275432
15550206700.0 0.3113964363 -0.9436429258
15600206400.0 0.2958927257 -0.947773774
15650206100.0 0.2799188072 -0.9522773929
15700205800.0 0.2655933573 -0.9558984659
15750205500.0 0.2512563177 -0.9593628465
15800205200.0 0.2368779423 -0.9630989317
15850204900.0 0.2224161646 -0.9662395448
15900204600.0 0.2076356366 -0.9697880272
15950204300.0 0.1935744693 -0.972662236
16000204000.0 0.1792958475 -0.9754336028
16050203700.0 0.1649854471 -0.9782771055
16100203400.0 0.1502229945 -0.979931525
16150203100.0 0.1362556585 -0.9827002877
16200202800.0 0.1221061524 -0.9848957738
16250202500.0 0.1073302503 -0.986263043
16300202200.0 0.092485238 -0.9878123421
16350201900.0 0.0773760364 -0.9893025945
16400201600.0 0.0629538576 -0.9902277576
16450201300.0 0.0478269354 -0.9913239324
16500201000.0 0.0312165973 -0.9919319088
16550200700.0 0.0154163326 -0.9924365072
16600200400.0 -0.0004259104 -0.9924728456
16650200100.0 -0.0166709953 -0.9926512495
16700199800.0 -0.0334152307 -0.9919909981
16750199500.0 -0.0523936988 -0.9914313466
16800199200.0 -0.0685197149 -0.9902152474
16850198900.0 -0.083268653 -0.9896097071
16900198600.0 -0.0968274041 -0.9883478287
16950198300.0 -0.1100613538 -0.9875647116
17000198000.0 -0.1232328027 -0.9859856425
17050197700.0 -0.136242758 -0.9838427002
17100197400.0 -0.1487269451 -0.9818739939
17150197100.0 -0.1619932527 -0.9796893411
17200196800.0 -0.1742802619 -0.977327304
17250196500.0 -0.1873685029 -0.9754809907
17300196200.0 -0.1995687061 -0.9730783299
17350195900.0 -0.2113423228 -0.9705248655
17400195600.0 -0.2236697151 -0.9680685499
17450195300.0 -0.2368126109 -0.9653666578
17500195000.0 -0.2501417014 -0.9619382818
17550194700.0 -0.2642057091 -0.9582230844
17600194400.0 -0.2781503052 -0.9543840459
17650194100.0 -0.2917237455 -0.9500363575
17700193800.0 -0.3045621354 -0.9460388059
17750193500.0 -0.3192352704 -0.941354795
17800193200.0 -0.3332482131 -0.9361316142
17850192900.0 -0.3481212053 -0.9306792172
17900192600.0 -0.3634518308 -0.92447948
17950192300.0 -0.3784924777 -0.9176158004
18000192000.0 -0.3931577542 -0.9104103975
18050191700.0 -0.4071671752 -0.9025413833
18100191400.0 -0.4212272495 -0.8947900631
18150191100.0 -0.4361060842 -0.8867246436
18200190800.0 -0.4530212048 -0.877358746
18250190500.0 -0.4699937786 -0.868248049
18300190200.0 -0.4853572919 -0.8592967664
18350189900.0 -0.5004988276 -0.8509350219
18400189600.0 -0.51472994 -0.8421973418
18450189300.0 -0.5278548891 -0.834341308
18500189000.0 -0.5414460263 -0.8264601632
18550188700.0 -0.5538323637 -0.8191841841
18600188400.0 -0.565901438 -0.8119538509
18650188100.0 -0.5769179601 -0.8053065865
18700187800.0 -0.5880773985 -0.7989649741
18750187500.0 -0.5986299021 -0.7923908457
18800187200.0 -0.6092818321 -0.7852015489
18850186900.0 -0.6194781752 -0.778046442
18900186600.0 -0.6301237238 -0.7703192874
18950186300.0 -0.6400176254 -0.762706782
19000186000.0 -0.6473553583 -0.7562822117
19050185700.0 -0.6571265642 -0.7491839245
19100185400.0 -0.6668645641 -0.7406752777
19150185100.0 -0.6770054846 -0.7316662159
19200184800.0 -0.6867801655 -0.7235948206
19250184500.0 -0.6969124277 -0.7138389604
19300184200.0 -0.7083047772 -0.7048818592
19350183900.0 -0.7189438186 -0.6948096199
19400183600.0 -0.7291185391 -0.6854609765
19450183300.0 -0.7375562881 -0.6749623677
19500183000.0 -0.7457529007 -0.6650908178
19550182700.0 -0.7555578459 -0.6545497756
19600182400.0 -0.7659190267 -0.6426919379
19650182100.0 -0.7765986296 -0.630572663
19700181800.0 -0.7872128375 -0.617103434
19750181500.0 -0.7975390829 -0.6034677397
19800181200.0 -0.8076439359 -0.5883024364
19850180900.0 -0.8172234373 -0.5731807051
19900180600.0 -0.8249982336 -0.5585546242
19950180300.0 -0.8339369895 -0.5424460838
20000180000.0 -0.8268185564 -0.5447239382
20050179700.0 -0.8355494496 -0.5321293875
20100179400.0 -0.8438838137 -0.5179386096
20150179100.0 -0.852304809 -0.5056202813
20200178800.0 -0.8608334652 -0.4922452203
20250178500.0 -0.8696033002 -0.4796239203
20300178200.0 -0.8787982932 -0.4648882662
20350177900.0 -0.888362025 -0.4499065784
20400177600.0 -0.897369122 -0.4354466795
20450177300.0 -0.905270797 -0.4212790554
20500177000.0 -0.9130546461 -0.4074749579
20550176700.0 -0.9214796964 -0.3934651895
20600176400.0 -0.9282077268 -0.3804118821
20650176100.0 -0.9347120891 -0.3683103117
20700175800.0 -0.9417245915 -0.3558016289
20750175500.0 -0.9475700191 -0.344167674
20800175200.0 -0.9528795415 -0.3330015177
20850174900.0 -0.9586537627 -0.3225135713
20900174600.0 -0.9631140051 -0.3106305828
20950174300.0 -0.9658356668 -0.2995940657
21000174000.0 -0.9697810703 -0.2870682976
21050173700.0 -0.9729570748 -0.2757037837
21100173400.0 -0.9773153987 -0.2643022791
21150173100.0 -0.9813221309 -0.2512377535
21200172800.0 -0.9847439438 -0.2378211928
21250172500.0 -0.9877602842 -0.2237884939
21300172200.0 -0.9907229938 -0.2098059895
21350171900.0 -0.9923030834 -0.1950604192
21400171600.0 -0.9929046294 -0.1810288521
21450171300.0 -0.9941712209 -0.1666420304
21500171000.0 -0.9929634501 -0.1511413017
21550170700.0 -0.9924479894 -0.1354300947
21600170400.0 -0.9922744453 -0.1212212573
21650170100.0 -0.9915626948 -0.104634438
21700169800.0 -0.9897252515 -0.0888885301
21750169500.0 -0.9891605218 -0.07387289
21800169200.0 -0.9892010522 -0.0580668414
21850168900.0 -0.98666486 -0.0413584313
21900168600.0 -0.9860443316 -0.0246902559
21950168300.0 -0.9840837073 -0.009372652
22000168000.0 -0.9828106297 0.0054717755
22050167700.0 -0.9827187131 0.0200783673
22100167400.0 -0.9824712882 0.035178623
22150167100.0 -0.983179118 0.0504272244
22200166800.0 -0.9834720974 0.0670628475
22250166500.0 -0.9833966302 0.0836216147
22300166200.0 -0.9824776715 0.1007762656
22350165900.0 -0.9807028901 0.1170780524
22400165600.0 -0.9783735946 0.1330909695
22450165300.0 -0.9772033546 0.1477983312
22500165000.0 -0.974394791 0.1604103238
22550164700.0 -0.9745026339 0.1767369556
22600164400.0 -0.9724900742 0.1917192615
22650164100.0 -0.9701302554 0.207054571
22700163800.0 -0.9671258589 0.2224362719
22750163500.0 -0.9650076084 0.2379488133
22800163200.0 -0.9623879755 0.2515527587
22850162900.0 -0.9597330409 0.2649464597
22900162600.0 -0.9585064898 0.278429687
22950162300.0 -0.9573371565 0.2909077221
23000162000.0 -0.9562298075 0.3026925306
23050161700.0 -0.9541443447 0.3149795546
23100161400.0 -0.9523028397 0.3283200579
23150161100.0 -0.9489723501 0.3403811174
23200160800.0 -0.946348813 0.3528132103
23250160500.0 -0.9432248246 0.3643849129
23300160200.0 -0.9414637035 0.3766041149
23350159900.0 -0.9371413598 0.389779568
23400159600.0 -0.9323223993 0.4021990633
23450159300.0 -0.9277444624 0.4158027537
23500159000.0 -0.9238876394 0.4284617877
23550158700.0 -0.918960728 0.4416178813
23600158400.0 -0.9134746985 0.4547956798
23650158100.0 -0.9070503429 0.4686683593
23700157800.0 -0.899521197 0.4825354629
23750157500.0 -0.8910515371 0.4963319879
23800157200.0 -0.8819460881 0.5099703251
23850156900.0 -0.8734911745 0.5220613792
23900156600.0 -0.8642491908 0.5349623063
23950156300.0 -0.8546434197 0.5467516132
24000156000.0 -0.8454038294 0.5587337887
24050155700.0 -0.8357999668 0.5706296425
24100155400.0 -0.8256908719 0.5827944861
24150155100.0 -0.814058551 0.5944144512
24200154800.0 -0.8040593451 0.6061799442
24250154500.0 -0.792165047 0.6181770516
24300154200.0 -0.7810728146 0.6293596943
24350153900.0 -0.76883925 0.6396926145
24400153600.0 -0.7569522704 0.6499417114
24450153300.0 -0.7453317766 0.659917681
24500153000.0 -0.733943261 0.6696664961
24550152700.0 -0.7227863341 0.6794512031
24600152400.0 -0.7105814786 0.6879709467
24650152100.0 -0.6989290354 0.6962886848
