!Created with skrf (http://scikit-rf.org).
# Hz S RI R 50.0 
!freq ReS11 ImS11
300000.0 -0.9745734952 -0.1195524668
50299700.0 -0.9998433817 0.0153246373
100299400.0 -0.9981219305 0.028182944
150299100.0 -1.002917159 0.0449847514
200298800.0 -0.9995305642 0.0582394015
250298500.0 -0.9973268882 0.0716942356
300298200.0 -0.9859304351 0.0876911016
350297900.0 -0.99390067 0.0986410386
400297600.0 -0.9931150004 0.115317944
450297300.0 -0.9911165389 0.1289324146
500297000.0 -0.989411076 0.1437964929
550296700.0 -0.9843949585 0.1563255078
600296400.0 -1.017335168 0.189569289
650296100.0 -0.9821481769 0.1861126905
700295800.0 -0.9792042376 0.2002386781
750295500.0 -0.9762893074 0.2142390308
800295200.0 -0.9728312813 0.2283930826
850294900.0 -0.9695802873 0.2423694756
900294600.0 -0.9657941585 0.2560073474
950294300.0 -0.9622734288 0.2696072169
1000294000.0 -0.9581593749 0.2837242575
1050293700.0 -0.953731099 0.2973933594
1100293400.0 -0.9492686866 0.3119952958
1150293100.0 -0.9454183357 0.3237233381
1200292800.0 -0.9402129312 0.3381146649
1250292500.0 -0.9346854309 0.3515392641
1300292200.0 -0.9290619526 0.3648062706
1350291900.0 -0.923440399 0.3787412433
1400291600.0 -0.9178177619 0.3917894941
1450291300.0 -0.9126165705 0.4042646306
1500291000.0 -0.9062083399 0.4176338347
1550290700.0 -0.8996845267 0.4311697076
1600290400.0 -0.8935441777 0.4440176888
1650290100.0 -0.8867689411 0.4560038762
1700289800.0 -0.8798801017 0.4695026658
1750289500.0 -0.8726578116 0.4819353106
1800289200.0 -0.865474357 0.4947484023
1850288900.0 -0.8587018149 0.5058958251
1900288600.0 -0.8508316722 0.5189857876
1950288300.0 -0.8427767867 0.5316364154
2000288000.0 -0.8353533439 0.5430709836
2050287700.0 -0.8271339881 0.5551558637
2100287400.0 -0.819320473 0.5668783041
2150287100.0 -0.8106698461 0.5790190068
2200286800.0 -0.8028459737 0.5893969747
2250286500.0 -0.7942055131 0.6012804975
2300286200.0 -0.7852842709 0.613088353
2350285900.0 -0.77678469 0.6241434423
2400285600.0 -0.7676144779 0.6350883722
2450285300.0 -0.7591371375 0.6454888627
2500285000.0 -0.7492866938 0.6566510334
2550284700.0 -0.7404606425 0.6670810886
2600284400.0 -0.7310181786 0.6769608757
2650284100.0 -0.7220528697 0.6873562383
2700283800.0 -0.7115697336 0.6981087603
2750283500.0 -0.7013798728 0.7087396183
2800283200.0 -0.6913307287 0.7185699562
2850282900.0 -0.6810560536 0.7284391469
2900282600.0 -0.6707887519 0.7378810447
2950282300.0 -0.66063661 0.7471785335
3000282000.0 -0.6497833029 0.7567752858
3050281700.0 -0.6386201389 0.7658020792
3100281400.0 -0.6266496901 0.7753075927
3150281100.0 -0.6148783887 0.7844888913
3200280800.0 -0.6033164903 0.7932184224
3250280500.0 -0.5925760511 0.8007037851
3300280200.0 -0.5812006923 0.8088913046
3350279900.0 -0.5694956789 0.8162549043
3400279600.0 -0.5574303657 0.8240505682
3450279300.0 -0.5463180937 0.8310454968
3500279000.0 -0.5344532661 0.8382712625
3550278700.0 -0.5218473821 0.8456397298
3600278400.0 -0.5094958375 0.8526006655
3650278100.0 -0.496323633 0.8604052998
3700277800.0 -0.4844174549 0.8665756385
3750277500.0 -0.4722538266 0.8731083792
3800277200.0 -0.4598903759 0.8798349742
3850276900.0 -0.447877067 0.8856536759
3900276600.0 -0.4368145375 0.8913490446
3950276300.0 -0.4242826411 0.8973433559
4000276000.0 -0.4125055838 0.9035021356
4050275700.0 -0.3998821944 0.909348274
4100275400.0 -0.3884426036 0.9146780096
4150275100.0 -0.3756641224 0.9203924067
4200274800.0 -0.3627650523 0.9260172004
4250274500.0 -0.3506329774 0.9311730974
4300274200.0 -0.3375001584 0.9367029849
4350273900.0 -0.3238883021 0.9420941477
4400273600.0 -0.3089948371 0.947018291
4450273300.0 -0.2936114791 0.9523205968
4500273000.0 -0.2800358029 0.9566712588
4550272700.0 -0.2659416964 0.9608930777
4600272400.0 -0.2503343665 0.9649643352
4650272100.0 -0.238675446 0.9681370848
4700271800.0 -0.2254078767 0.9714726618
4750271500.0 -0.2137213286 0.9744516293
4800271200.0 -0.2011899715 0.9770889524
4850270900.0 -0.1872908816 0.9799222424
4900270600.0 -0.1735767357 0.9824731334
4950270300.0 -0.1592166852 0.9849940312
5000270000.0 -0.144905656 0.9872715901
5050269700.0 -0.131343965 0.988863382
5100269400.0 -0.1178204666 0.9901378573
5150269100.0 -0.1042088107 0.9919143726
5200268800.0 -0.0911027671 0.9927420477
5250268500.0 -0.077718395 0.9941435169
5300268200.0 -0.0649126702 0.9946030323
5350267900.0 -0.0524247882 0.9950579715
5400267600.0 -0.0361918923 0.9963124008
5450267300.0 -0.0233280183 0.9964900196
5500267000.0 -0.0079863529 0.996989647
5550266700.0 0.0066835583 0.9973178711
5600266400.0 0.0223520522 0.9974049195
5650266100.0 0.0387173251 0.997005275
5700265800.0 0.0534989736 0.9963662663
5750265500.0 0.0685175248 0.9957767925
5800265200.0 0.0825207468 0.9944802361
5850264900.0 0.0958577367 0.9932795367
5900264600.0 0.1126167784 0.9919607248
5950264300.0 0.1246201377 0.9905689327
6000264000.0 0.1383987687 0.98853249
6050263700.0 0.1504832131 0.9868288287
6100263400.0 0.1629364857 0.9848563643
6150263100.0 0.1776765671 0.9827733386
6200262800.0 0.1880311821 0.9810889881
6250262500.0 0.2005934418 0.9785422465
6300262200.0 0.2134409979 0.9758532445
6350261900.0 0.226599503 0.9727886035
6400261600.0 0.2401862339 0.9694101026
6450261300.0 0.2520178013 0.9669693814
6500261000.0 0.2645686076 0.9631402752
6550260700.0 0.2775393293 0.9594354966
6600260400.0 0.2909434234 0.9555065174
6650260100.0 0.3052140502 0.9512927608
6700259800.0 0.3169637572 0.9466957828
6750259500.0 0.3309116207 0.9417152548
6800259200.0 0.3437656713 0.9367783403
6850258900.0 0.3558979319 0.9314986188
6900258600.0 0.3678337037 0.9265205171
6950258300.0 0.3805763363 0.9212058672
7000258000.0 0.3925663945 0.9156984965
7050257700.0 0.4046828679 0.9099301289
7100257400.0 0.4174489527 0.9035355816
7150257100.0 0.4279206584 0.8982661178
7200256800.0 0.4407864103 0.891921246
7250256500.0 0.4528672779 0.8855025213
7300256200.0 0.4656973196 0.8787663411
7350255900.0 0.4783935827 0.8719627931
7400255600.0 0.4912202847 0.8645545589
7450255300.0 0.5064993088 0.8555878675
7500255000.0 0.5184723265 0.8484102117
7550254700.0 0.532646597 0.840218013
7600254400.0 0.54492255 0.8317531999
7650254100.0 0.5567501974 0.8240789235
7700253800.0 0.5684236245 0.8159095713
7750253500.0 0.5794846788 0.8082591106
7800253200.0 0.5901963506 0.8006101533
7850252900.0 0.5998959721 0.7936573356
7900252600.0 0.6114965317 0.7847794097
7950252300.0 0.6203036828 0.7783704264
8000252000.0 0.6303481844 0.7707949028
8050251700.0 0.640915052 0.7624854329
8100251400.0 0.6509386672 0.7543288873
8150251100.0 0.6612375848 0.7457121579
8200250800.0 0.6701041883 0.7376384422
8250250500.0 0.679419925 0.7297305428
8300250200.0 0.6888081095 0.7211493515
8350249900.0 0.6977378275 0.7124188214
8400249600.0 0.7062732507 0.7044250683
8450249300.0 0.715160136 0.6953568463
8500249000.0 0.7238847275 0.6863245987
8550248700.0 0.7321310033 0.6772395123
8600248400.0 0.7404691074 0.6676553734
8650248100.0 0.7482894261 0.6584691481
8700247800.0 0.7579295956 0.6471726394
8750247500.0 0.7663076176 0.6371200479
8800247200.0 0.7741976843 0.626650831
8850246900.0 0.7831441249 0.6154246901
8900246600.0 0.7916474002 0.6037994669
8950246300.0 0.8012868307 0.5908438868
9000246000.0 0.8103448962 0.5781911691
9050245700.0 0.8192811586 0.5652165082
9100245400.0 0.8280823381 0.552760651
9150245100.0 0.8371048742 0.5390773436
9200244800.0 0.847200244 0.5241058666
9250244500.0 0.8567219274 0.5086078181
9300244200.0 0.8648387649 0.4944164063
9350243900.0 0.8727420465 0.4806238228
9400243600.0 0.8793370906 0.4680419751
9450243300.0 0.8851527384 0.4567000368
9500243000.0 0.8913616418 0.4445502488
9550242700.0 0.895333712 0.4367506848
9600242400.0 0.8991727221 0.4292097614
9650242100.0 0.9027609165 0.4228913846
9700241800.0 0.9077319659 0.4145017189
9750241500.0 0.9115130104 0.4070462599
9800241200.0 0.9164019068 0.3978841619
9850240900.0 0.9217350318 0.3864258791
9900240600.0 0.9275091935 0.3746247805
9950240300.0 0.9340087711 0.3587132495
10000240000.0 0.9384497546 0.3468569349
10050239700.0 0.9445511485 0.3318156051
10100239400.0 0.9494028725 0.3160425075
10150239100.0 0.9538182093 0.301249251
10200238800.0 0.9579527612 0.2863428982
10250238500.0 0.9613355394 0.2728879753
10300238200.0 0.9645680788 0.2590061193
10350237900.0 0.9672232587 0.2459841237
10400237600.0 0.9696441268 0.2326500032
10450237300.0 0.9724554298 0.2190523094
10500237000.0 0.9745940815 0.2065801997
10550236700.0 0.9769945909 0.1929091299
10600236400.0 0.9793033126 0.1785565035
10650236100.0 0.9811762024 0.1647961912
10700235800.0 0.9837254341 0.1522724046
10750235500.0 0.9857698426 0.1386417842
10800235200.0 0.9875707625 0.1250307965
10850234900.0 0.9894127052 0.1100062737
10900234600.0 0.9917397361 0.0952772507
10950234300.0 0.9934932147 0.0820939343
11000234000.0 0.9951885682 0.0669347408
11050233700.0 0.9969246998 0.0507059753
11100233400.0 0.9984139822 0.0334518104
11150233100.0 0.9992900724 0.0168453424
11200232800.0 1.000041231 0.0019313414
11250232500.0 1.001330807 -0.0145311493
11300232200.0 1.001252636 -0.0321856038
11350231900.0 1.001786445 -0.048548505
11400231600.0 1.001347399 -0.0629266632
11450231300.0 1.001115181 -0.0780630359
11500231000.0 0.9996416803 -0.0956537147
11550230700.0 0.9986776348 -0.1082494694
11600230400.0 0.9969409566 -0.121211865
11650230100.0 0.9952769967 -0.1333919552
11700229800.0 0.9934038744 -0.1468082224
11750229500.0 0.9907854477 -0.1619682465
11800229200.0 0.9881580253 -0.1755369009
11850228900.0 0.9848728707 -0.1878447931
11900228600.0 0.9811527918 -0.197848235
11950228300.0 0.9777844608 -0.2080276861
12000228000.0 0.9752392971 -0.2172100427
12050227700.0 0.9717087139 -0.230146069
12100227400.0 0.9684101495 -0.2410368628
12150227100.0 0.9628553304 -0.2581453766
12200226800.0 0.9598018891 -0.2684760956
12250226500.0 0.9555858444 -0.2817834718
12300226200.0 0.9513774379 -0.2940321749
12350225900.0 0.9469577329 -0.3083433097
12400225600.0 0.9423267308 -0.320253227
12450225300.0 0.9376647177 -0.3330418124
12500225000.0 0.9324688484 -0.3486260019
12550224700.0 0.9270175694 -0.3619833175
12600224400.0 0.9221165124 -0.3748433734
12650224100.0 0.9162298128 -0.3892370741
12700223800.0 0.9109290387 -0.402204653
12750223500.0 0.9054317072 -0.4151914813
12800223200.0 0.9002035656 -0.4280444022
12850222900.0 0.8947245776 -0.439973156
12900222600.0 0.8891003888 -0.4521854578
12950222300.0 0.8829103675 -0.4645357934
13000222000.0 0.8768933707 -0.4765896682
13050221700.0 0.87001569 -0.4888353572
13100221400.0 0.8633363165 -0.5012477498
13150221100.0 0.8564996754 -0.5131246807
13200220800.0 0.8496400789 -0.52470545
13250220500.0 0.8425379877 -0.5368671736
13300220200.0 0.8350860893 -0.5477594604
13350219900.0 0.8273102536 -0.5594983652
13400219600.0 0.8190387474 -0.5717240077
13450219300.0 0.8095164773 -0.5850994026
13500219000.0 0.7993088727 -0.5989361975
13550218700.0 0.7891882772 -0.6114665442
13600218400.0 0.7788495441 -0.6237799097
13650218100.0 0.7698861863 -0.6345521678
13700217800.0 0.7580572148 -0.6476420972
13750217500.0 0.749086618 -0.6579968754
13800217200.0 0.7372603818 -0.6702129426
13850216900.0 0.726399124 -0.6812059214
13900216600.0 0.7167776937 -0.689855228
13950216300.0 0.7058267466 -0.7002553043
14000216000.0 0.6958896621 -0.7100159023
14050215700.0 0.6863333507 -0.7185484404
14100215400.0 0.6761172336 -0.7276843149
14150215100.0 0.667022348 -0.7359889066
14200214800.0 0.6575609911 -0.7447184396
14250214500.0 0.6472621241 -0.7540746179
14300214200.0 0.6369590012 -0.7635114345
14350213900.0 0.6256099995 -0.7731340808
14400213600.0 0.613921052 -0.7828817276
14450213300.0 0.6009765045 -0.7930125446
14500213000.0 0.5881220257 -0.8028715653
14550212700.0 0.5753555157 -0.8126353483
14600212400.0 0.5626982044 -0.8209382473
14650212100.0 0.5500974544 -0.8298367959
14700211800.0 0.5360524124 -0.8395502925
14750211500.0 0.5234436955 -0.8477890869
14800211200.0 0.5118750537 -0.8559216615
14850210900.0 0.4996712984 -0.8633528068
14900210600.0 0.4862384079 -0.8713083629
14950210300.0 0.4730649119 -0.8788554714
15000210000.0 0.4602809922 -0.8856057735
15050209700.0 0.4479705338 -0.8917599796
15100209400.0 0.4351076772 -0.8973875697
15150209100.0 0.4229757438 -0.9031475515
15200208800.0 0.4099464571 -0.908792297
15250208500.0 0.3988516659 -0.913375139
15300208200.0 0.3862667802 -0.9178420693
15350207900.0 0.3728169608 -0.9222994464
15400207600.0 0.358794094 -0.927590177
15450207300.0 0.3453431335 -0.9333692569
15500207000.0 0.3298106003 -0.9369724312
15550206700.0 0.3150675974 -0.9422328935
15600206400.0 0.2993638541 -0.9468262431
15650206100.0 0.2831441459 -0.9514588561
15700205800.0 0.2694493024 -0.9549009078
15750205500.0 0.2549019892 -0.9583913842
15800205200.0 0.2405385889 -0.9618965223
15850204900.0 0.226134289 -0.9655078361
15900204600.0 0.2108974377 -0.9689557817
15950204300.0 0.1971824849 -0.9719504559
16000204000.0 0.1829330338 -0.9751391795
16050203700.0 0.1677927699 -0.977879604
16100203400.0 0.1531388797 -0.9798929964
16150203100.0 0.1387824818 -0.9823904792
16200202800.0 0.1247452091 -0.9847626375
16250202500.0 0.1094433408 -0.9860027427
16300202200.0 0.0941818144 -0.987993155
16350201900.0 0.0794188263 -0.9891324866
16400201600.0 0.0646127056 -0.9899990803
16450201300.0 0.0495173729 -0.9912772933
16500201000.0 0.0327558618 -0.9921124315
16550200700.0 0.0172877742 -0.9925261603
16600200400.0 0.0016136778 -0.9927609151
16650200100.0 -0.0143280269 -0.9928219588
16700199800.0 -0.030647678 -0.9926121554
16750199500.0 -0.0495648389 -0.9917778479
16800199200.0 -0.0655141623 -0.9911215698
16850198900.0 -0.0801566645 -0.9897299943
16900198600.0 -0.0947633515 -0.9887726812
16950198300.0 -0.1076637782 -0.9875394562
17000198000.0 -0.1205508062 -0.9863952568
17050197700.0 -0.1332278332 -0.9846235117
17100197400.0 -0.1463876331 -0.982528815
17150197100.0 -0.159237775 -0.9802254077
17200196800.0 -0.1717416782 -0.9781221117
17250196500.0 -0.1846890597 -0.9756537603
17300196200.0 -0.1969838425 -0.9735717727
17350195900.0 -0.2088141819 -0.9712346225
17400195600.0 -0.2209430099 -0.9689487015
17450195300.0 -0.2340413851 -0.9660036524
17500195000.0 -0.2474763689 -0.9626909183
17550194700.0 -0.2612229903 -0.9588808135
17600194400.0 -0.2750808734 -0.9552962322
17650194100.0 -0.2890419516 -0.9510868084
17700193800.0 -0.3019503929 -0.9466356462
17750193500.0 -0.3164491794 -0.9420399455
17800193200.0 -0.3308329768 -0.9370730887
17850192900.0 -0.3457819726 -0.9319297925
17900192600.0 -0.3611217421 -0.9254011914
17950192300.0 -0.3767403598 -0.9182540771
18000192000.0 -0.3912922548 -0.9112023469
18050191700.0 -0.4052105911 -0.9035576515
18100191400.0 -0.419495722 -0.8957049546
18150191100.0 -0.4345614919 -0.8876677829
18200190800.0 -0.4513464663 -0.8786742606
18250190500.0 -0.468379841 -0.8687373007
18300190200.0 -0.483955704 -0.8603648639
18350189900.0 -0.4989165143 -0.8520889594
18400189600.0 -0.5131084281 -0.8437254387
18450189300.0 -0.5267621441 -0.8357931064
18500189000.0 -0.5400285061 -0.8277722789
18550188700.0 -0.5527782402 -0.8206574199
18600188400.0 -0.564104445 -0.8134781217
18650188100.0 -0.575168265 -0.807233437
18700187800.0 -0.5864247855 -0.8006635249
18750187500.0 -0.5968562013 -0.794187142
18800187200.0 -0.6073757637 -0.7870618049
18850186900.0 -0.6175530524 -0.780036219
18900186600.0 -0.6276216805 -0.7729662825
18950186300.0 -0.637729474 -0.7652074729
19000186000.0 -0.6448805406 -0.7590632154
19050185700.0 -0.6539289501 -0.7519236101
19100185400.0 -0.6638121718 -0.7434754866
19150185100.0 -0.6741792897 -0.7349791104
19200184800.0 -0.6840133368 -0.726262868
19250184500.0 -0.6936191815 -0.7176461356
19300184200.0 -0.7053867609 -0.7076559701
19350183900.0 -0.7153406317 -0.6981837268
19400183600.0 -0.7257135607 -0.6884624409
19450183300.0 -0.7340530499 -0.6784809841
19500183000.0 -0.7427843646 -0.6682116024
19550182700.0 -0.7524098714 -0.6574699439
19600182400.0 -0.7627056035 -0.645917075
19650182100.0 -0.7739032245 -0.6334423967
19700181800.0 -0.7846626557 -0.6199193015
19750181500.0 -0.7953005995 -0.6058412994
19800181200.0 -0.8055798782 -0.5910240338
19850180900.0 -0.8154161841 -0.575772592
19900180600.0 -0.8231753877 -0.5609969325
19950180300.0 -0.8323213021 -0.5446148324
20000180000.0 -0.8250796728 -0.5470186636
20050179700.0 -0.8338905761 -0.5344246084
20100179400.0 -0.842226842 -0.5204901271
20150179100.0 -0.8498199791 -0.5078139639
20200178800.0 -0.8585433725 -0.4958991259
20250178500.0 -0.8683689467 -0.481912677
20300178200.0 -0.8785069495 -0.4676718208
20350177900.0 -0.8874311163 -0.4528378615
20400177600.0 -0.8962797906 -0.4388447561
20450177300.0 -0.9047338818 -0.4242143961
20500177000.0 -0.9125119037 -0.4102338223
20550176700.0 -0.9203674512 -0.3964624431
20600176400.0 -0.9274136877 -0.3835297778
20650176100.0 -0.9338711388 -0.3710677233
20700175800.0 -0.9400724274 -0.3592948345
20750175500.0 -0.9476918967 -0.3480786319
20800175200.0 -0.9517156779 -0.3371020695
20850174900.0 -0.956729568 -0.3259804162
20900174600.0 -0.9611211371 -0.3151840627
20950174300.0 -0.964213174 -0.303441869
21000174000.0 -0.968571568 -0.2918509873
21050173700.0 -0.9712681444 -0.281088156
21100173400.0 -0.9754595944 -0.2697168709
21150173100.0 -0.9793008659 -0.2574041294
21200172800.0 -0.9827838844 -0.243327481
21250172500.0 -0.9860451894 -0.2297207639
21300172200.0 -0.9887299958 -0.2156596352
21350171900.0 -0.9901855098 -0.2010895395
21400171600.0 -0.9918943297 -0.1873868702
21450171300.0 -0.992377916 -0.1729528792
21500171000.0 -0.9921819141 -0.1568218986
21550170700.0 -0.9927512347 -0.1412820476
21600170400.0 -0.9924812572 -0.1262550484
21650170100.0 -0.9904438898 -0.1097338648
21700169800.0 -0.9898361228 -0.0955020541
21750169500.0 -0.9892060912 -0.0786561915
21800169200.0 -0.9883087869 -0.0616109507
21850168900.0 -0.9874774295 -0.0456299073
21900168600.0 -0.9862706521 -0.029164013
21950168300.0 -0.985011458 -0.0139713571
22000168000.0 -0.9840070972 0.0011851221
22050167700.0 -0.9838346518 0.0154253958
22100167400.0 -0.9841394687 0.0306539047
22150167100.0 -0.9849221018 0.046095075
22200166800.0 -0.9848821896 0.062832126
22250166500.0 -0.9848980227 0.0806248119
22300166200.0 -0.9838900246 0.096581757
22350165900.0 -0.9825032095 0.1126483324
22400165600.0 -0.9804544629 0.1286420758
22450165300.0 -0.9788822166 0.1438532295
22500165000.0 -0.9771751146 0.15670147
22550164700.0 -0.9758550489 0.1727397728
22600164400.0 -0.9740634067 0.1887318727
22650164100.0 -0.9720186421 0.2029164472
22700163800.0 -0.9697443081 0.2185477318
22750163500.0 -0.9668999865 0.2341351596
22800163200.0 -0.9644348546 0.2475106758
22850162900.0 -0.9621653173 0.2605356234
22900162600.0 -0.9601707452 0.2740355748
22950162300.0 -0.9592304072 0.2870331259
23000162000.0 -0.9579826195 0.2986149435
23050161700.0 -0.955696611 0.3112684943
23100161400.0 -0.9529404613 0.3240577366
23150161100.0 -0.9506262056 0.3360552958
23200160800.0 -0.9477520092 0.3481932435
23250160500.0 -0.945245917 0.3605413979
23300160200.0 -0.9427355668 0.3730376719
23350159900.0 -0.9388009074 0.385688981
23400159600.0 -0.934366129 0.3995671219
23450159300.0 -0.929298595 0.413177556
23500159000.0 -0.9245680181 0.425704312
23550158700.0 -0.9203799877 0.4393113982
23600158400.0 -0.9146762536 0.4524595964
23650158100.0 -0.9085105818 0.4663748753
23700157800.0 -0.9008799147 0.480269938
23750157500.0 -0.8923805114 0.4943943651
23800157200.0 -0.8837150688 0.5076029051
23850156900.0 -0.8746377178 0.5201793313
23900156600.0 -0.8659935031 0.5330378882
23950156300.0 -0.8564700211 0.5452216283
24000156000.0 -0.8469732386 0.5579044964
24050155700.0 -0.8369911802 0.5689565929
24100155400.0 -0.8269038445 0.5819195082
24150155100.0 -0.8165274311 0.5932962953
24200154800.0 -0.8052528401 0.6039289276
24250154500.0 -0.7943033807 0.6165664072
24300154200.0 -0.7829271764 0.6276241318
24350153900.0 -0.771344971 0.6382202657
24400153600.0 -0.7588695746 0.6488265022
24450153300.0 -0.7469769369 0.6586023791
24500153000.0 -0.7353849864 0.6683319827
24550152700.0 -0.7243611541 0.6775893173
24600152400.0 -0.7137604017 0.6872357811
24650152100.0 -0.7012977231 0.6954786479
