!Created with skrf (http://scikit-rf.org).
# Hz S RI R 50.0 
!freq ReS11 ImS11
300000.0 -0.9748507553 -0.1215904353
50299700.0 -1.000042895 0.0151758096
100299400.0 -0.9980274512 0.0280505695
150299100.0 -1.002733118 0.0450189332
200298800.0 -0.9994908556 0.0582059073
250298500.0 -0.9975697021 0.07185696
300298200.0 -0.9859368502 0.0876589472
350297900.0 -0.9939352412 0.0983433072
400297600.0 -0.9932128221 0.1150350994
450297300.0 -0.9910217581 0.1289210602
500297000.0 -0.9895824741 0.1434205598
550296700.0 -0.9842776091 0.156035052
600296400.0 -1.017326455 0.1892476291
650296100.0 -0.982189736 0.1858615015
700295800.0 -0.9792454641 0.2001203505
750295500.0 -0.9762042106 0.2140220924
800295200.0 -0.9731110277 0.2281676888
850294900.0 -0.9696165293 0.2423210832
900294600.0 -0.9656344905 0.255677539
950294300.0 -0.9621484611 0.2693016378
1000294000.0 -0.9580550001 0.283410954
1050293700.0 -0.9535706875 0.2974544148
1100293400.0 -0.949519593 0.3117139964
1150293100.0 -0.945596048 0.3236297153
1200292800.0 -0.9401187841 0.3379720664
1250292500.0 -0.9347592353 0.3513642545
1300292200.0 -0.9288719662 0.3645513009
1350291900.0 -0.923569048 0.3787096007
1400291600.0 -0.9180521091 0.3918171726
1450291300.0 -0.9125011316 0.4040131517
1500291000.0 -0.906116004 0.4173500026
1550290700.0 -0.8996944713 0.4308147427
1600290400.0 -0.8934327827 0.4437144637
1650290100.0 -0.886750379 0.4559465743
1700289800.0 -0.8797578232 0.4694903028
1750289500.0 -0.8728877131 0.4817252296
1800289200.0 -0.8654505091 0.4946584384
1850288900.0 -0.8587061804 0.5059148146
1900288600.0 -0.851024922 0.5190139598
1950288300.0 -0.8427713127 0.5314125435
2000288000.0 -0.8355905727 0.5428808482
2050287700.0 -0.8271027089 0.555343003
2100287400.0 -0.8193187573 0.5666994265
2150287100.0 -0.8109228294 0.5787909808
2200286800.0 -0.8031137047 0.5892920713
2250286500.0 -0.794034039 0.6015103974
2300286200.0 -0.7852681155 0.6128412036
2350285900.0 -0.7767859684 0.6236264613
2400285600.0 -0.767905843 0.6346384116
2450285300.0 -0.7589054403 0.6450386568
2500285000.0 -0.7490255044 0.6566399732
2550284700.0 -0.7402695074 0.666931717
2600284400.0 -0.7311178209 0.6769440985
2650284100.0 -0.7222116898 0.6873118411
2700283800.0 -0.7117134801 0.6978762723
2750283500.0 -0.7012638539 0.708496896
2800283200.0 -0.6916105905 0.7182302476
2850282900.0 -0.6812068866 0.728129121
2900282600.0 -0.6708244428 0.7379544565
2950282300.0 -0.6605177071 0.7473689216
3000282000.0 -0.6496989123 0.7567379564
3050281700.0 -0.6387093513 0.7658790646
3100281400.0 -0.6268511965 0.7752249044
3150281100.0 -0.6151818551 0.784248428
3200280800.0 -0.6037615668 0.7927158727
3250280500.0 -0.5927385252 0.8005237541
3300280200.0 -0.5814237546 0.8086234738
3350279900.0 -0.5695860121 0.8164343952
3400279600.0 -0.5570373437 0.8241243669
3450279300.0 -0.5460572899 0.831387223
3500279000.0 -0.534042116 0.8384044236
3550278700.0 -0.5218793771 0.845575156
3600278400.0 -0.5098286217 0.8523994703
3650278100.0 -0.4967629702 0.860089162
3700277800.0 -0.4845894688 0.8664537496
3750277500.0 -0.4723255202 0.873262463
3800277200.0 -0.4600801616 0.8798430462
3850276900.0 -0.4476667669 0.8858683211
3900276600.0 -0.4368343861 0.891261757
3950276300.0 -0.4248665509 0.8974942928
4000276000.0 -0.4129594919 0.9032247724
4050275700.0 -0.400145798 0.9093502649
4100275400.0 -0.3890465966 0.9146316672
4150275100.0 -0.3759845604 0.9202420459
4200274800.0 -0.362648567 0.9261507522
4250274500.0 -0.3502326143 0.9312158209
4300274200.0 -0.3372894781 0.9369964611
4350273900.0 -0.3231401224 0.9421832371
4400273600.0 -0.3084126532 0.9471084879
4450273300.0 -0.2932928661 0.9523782875
4500273000.0 -0.2797262338 0.9565426517
4550272700.0 -0.266115549 0.9604287602
4600272400.0 -0.2508064346 0.9647977645
4650272100.0 -0.2394187149 0.9679856969
4700271800.0 -0.226271398 0.9712173899
4750271500.0 -0.2144221667 0.9741899197
4800271200.0 -0.2021096266 0.976851733
4850270900.0 -0.1883159887 0.9796905441
4900270600.0 -0.1745182148 0.9821506728
4950270300.0 -0.1599682142 0.984951417
5000270000.0 -0.1457020099 0.9866730088
5050269700.0 -0.1321952194 0.9885534414
5100269400.0 -0.1182605463 0.9897302602
5150269100.0 -0.1047340289 0.9915737696
5200268800.0 -0.0911303263 0.9926625294
5250268500.0 -0.0780322195 0.993853503
5300268200.0 -0.064697111 0.9947724529
5350267900.0 -0.0520550557 0.9952136399
5400267600.0 -0.036169165 0.9961810107
5450267300.0 -0.0226644299 0.9965988941
5500267000.0 -0.0076432224 0.996946314
5550266700.0 0.0073277147 0.9970215425
5600266400.0 0.0230648328 0.9970741759
5650266100.0 0.0399148097 0.9970491837
5700265800.0 0.0538778177 0.9958750129
5750265500.0 0.0690375072 0.995333061
5800265200.0 0.0826113848 0.9937963851
5850264900.0 0.0958086948 0.9929883608
5900264600.0 0.1124054862 0.9916775556
5950264300.0 0.1246052508 0.9899373561
6000264000.0 0.1378620158 0.9878050799
6050263700.0 0.1501831409 0.9870278456
6100263400.0 0.1622167915 0.9849641326
6150263100.0 0.1771836963 0.9825156659
6200262800.0 0.1869694383 0.9811886984
6250262500.0 0.1996439013 0.9782541425
6300262200.0 0.2122113427 0.9758742177
6350261900.0 0.2251352416 0.9730944315
6400261600.0 0.2389416844 0.9699138978
6450261300.0 0.2503167397 0.9671745585
6500261000.0 0.2634120722 0.9634523617
6550260700.0 0.2763421659 0.9598525493
6600260400.0 0.2898871139 0.956015507
6650260100.0 0.303881891 0.9513243377
6700259800.0 0.3155131412 0.9469703896
6750259500.0 0.3295208412 0.9419989284
6800259200.0 0.3430559122 0.9370817008
6850258900.0 0.3549950294 0.9315934286
6900258600.0 0.3677694648 0.9267846342
6950258300.0 0.3802762767 0.9213365406
7000258000.0 0.3921331863 0.9158486686
7050257700.0 0.4039498811 0.9101799378
7100257400.0 0.4171722054 0.9037098492
7150257100.0 0.4276409367 0.8985412772
7200256800.0 0.4407379453 0.8918989499
7250256500.0 0.4528690785 0.8855320131
7300256200.0 0.4660202673 0.8788098311
7350255900.0 0.4785171296 0.8719538244
7400255600.0 0.4923330053 0.864574486
7450255300.0 0.5076062462 0.8554056689
7500255000.0 0.5199958904 0.8478703591
7550254700.0 0.5338606399 0.8394346532
7600254400.0 0.5464435918 0.8308882719
7650254100.0 0.5578763326 0.8231423645
7700253800.0 0.5697060029 0.8150482138
7750253500.0 0.5808079525 0.8073246757
7800253200.0 0.5913195902 0.7996406542
7850252900.0 0.6009907507 0.7924380279
7900252600.0 0.6126445383 0.7837833493
7950252300.0 0.6212890662 0.7773560192
8000252000.0 0.631370127 0.7697839653
8050251700.0 0.6417539668 0.7614975548
8100251400.0 0.6518663268 0.7534719361
8150251100.0 0.6619359614 0.7449383807
8200250800.0 0.6710627933 0.7367310055
8250250500.0 0.6799817624 0.7289387106
8300250200.0 0.6896006246 0.7205779986
8350249900.0 0.698672459 0.7116983445
8400249600.0 0.7065770978 0.7035069961
8450249300.0 0.7153709703 0.6946340227
8500249000.0 0.7239062436 0.6858122546
8550248700.0 0.732608812 0.6768292947
8600248400.0 0.7409744095 0.66721715
8650248100.0 0.7484231348 0.6578652789
8700247800.0 0.758113866 0.646695635
8750247500.0 0.7662145702 0.6367286461
8800247200.0 0.7739986365 0.6263588321
8850246900.0 0.7831485069 0.6147713631
8900246600.0 0.7912983842 0.6035241063
8950246300.0 0.8006214091 0.5906864095
9000246000.0 0.8100925457 0.5784768083
9050245700.0 0.8187348704 0.5657464906
9100245400.0 0.8271770519 0.5533208928
9150245100.0 0.836052796 0.5403469674
9200244800.0 0.8455153754 0.5255258945
9250244500.0 0.855033276 0.5102887082
9300244200.0 0.8631644307 0.4963725048
9350243900.0 0.8710469779 0.4827329916
9400243600.0 0.8775160041 0.4708864275
9450243300.0 0.8832341207 0.4597573128
9500243000.0 0.8893541882 0.4478788974
9550242700.0 0.8933896926 0.440192369
9600242400.0 0.8976479365 0.4326787023
9650242100.0 0.901479882 0.4260818368
9700241800.0 0.9060903815 0.4175893466
9750241500.0 0.9102628147 0.4099775147
9800241200.0 0.9150389661 0.4009055222
9850240900.0 0.9208521529 0.3890619761
9900240600.0 0.9263801366 0.3775093776
9950240300.0 0.9336799325 0.3608593064
10000240000.0 0.9385829296 0.3492523267
10050239700.0 0.9442083558 0.3334533326
10100239400.0 0.9493650026 0.3174584064
10150239100.0 0.9539148834 0.302319056
10200238800.0 0.9583114372 0.2871473106
10250238500.0 0.96146452 0.2737258502
10300238200.0 0.9645399795 0.2596852789
10350237900.0 0.967370732 0.2464909441
10400237600.0 0.9699669712 0.2331188916
10450237300.0 0.9724453377 0.2193301677
10500237000.0 0.9745554341 0.2075517196
10550236700.0 0.9772732997 0.1929869365
10600236400.0 0.9795112234 0.1792253334
10650236100.0 0.9811188236 0.1645644779
10700235800.0 0.9834640651 0.1523072487
10750235500.0 0.9860663984 0.138693103
10800235200.0 0.9879638086 0.124255442
10850234900.0 0.9895320422 0.1097427415
10900234600.0 0.9918348516 0.0949764782
10950234300.0 0.9934993761 0.0817056504
11000234000.0 0.9953959486 0.0663026145
11050233700.0 0.9972211434 0.049726649
11100233400.0 0.9985750489 0.0321937213
11150233100.0 1.000237533 0.0156316646
11200232800.0 1.000487722 -0.0001967336
11250232500.0 1.001774278 -0.0174431306
11300232200.0 1.001805522 -0.0348891586
11350231900.0 1.002070575 -0.0510018703
11400231600.0 1.001571372 -0.0670264528
11450231300.0 1.001202454 -0.0813017097
11500231000.0 0.9993861298 -0.0978320417
11550230700.0 0.9985304367 -0.1113337063
11600230400.0 0.9969579478 -0.1251917331
11650230100.0 0.9947173147 -0.1355059796
11700229800.0 0.9927678065 -0.150581832
11750229500.0 0.9906499624 -0.1653773776
11800229200.0 0.9878191252 -0.1785910662
11850228900.0 0.9841838342 -0.19064481
11900228600.0 0.9806297736 -0.2003632212
11950228300.0 0.9772626488 -0.2107961415
12000228000.0 0.9744386347 -0.2191491606
12050227700.0 0.9705404509 -0.2328457291
12100227400.0 0.9676368448 -0.2436055585
12150227100.0 0.9627151853 -0.259863809
12200226800.0 0.9590613797 -0.2707711055
12250226500.0 0.9543282541 -0.2840858988
12300226200.0 0.950875663 -0.2967333676
12350225900.0 0.9453554281 -0.3102333747
12400225600.0 0.9410375354 -0.323596404
12450225300.0 0.9365306014 -0.3356963867
12500225000.0 0.9312138268 -0.3497813109
12550224700.0 0.9260126721 -0.3636922315
12600224400.0 0.9209820847 -0.3764918016
12650224100.0 0.9152553594 -0.3910845857
12700223800.0 0.9100333839 -0.4037872265
12750223500.0 0.9045147825 -0.4166739377
12800223200.0 0.8991637224 -0.4292847038
12850222900.0 0.8937004208 -0.4418117473
12900222600.0 0.8878321004 -0.4537522118
12950222300.0 0.88197714 -0.4668292945
13000222000.0 0.8757365614 -0.4784188589
13050221700.0 0.8688920907 -0.4907487903
13100221400.0 0.8623093391 -0.502791956
13150221100.0 0.8553908361 -0.515274565
13200220800.0 0.8487437421 -0.5262675865
13250220500.0 0.8413910837 -0.5386251034
13300220200.0 0.8336829131 -0.5493849279
13350219900.0 0.8257759674 -0.5613132213
13400219600.0 0.817634151 -0.5734026537
13450219300.0 0.8083102198 -0.5865902362
13500219000.0 0.7981652333 -0.6002591011
13550218700.0 0.7884910005 -0.6123891223
13600218400.0 0.7790812798 -0.6248424067
13650218100.0 0.7683992028 -0.6356925353
13700217800.0 0.7573877302 -0.6477089056
13750217500.0 0.7479102668 -0.658953341
13800217200.0 0.7376846577 -0.6700666683
13850216900.0 0.7258895264 -0.6814031921
13900216600.0 0.7160234302 -0.6911078778
13950216300.0 0.7055208317 -0.7005251775
14000216000.0 0.6953887739 -0.7096320006
14050215700.0 0.6866047701 -0.7176447292
14100215400.0 0.6764767472 -0.727090858
14150215100.0 0.6673336676 -0.7355270106
14200214800.0 0.6580114405 -0.744241157
14250214500.0 0.6476675855 -0.7537023
14300214200.0 0.6370863017 -0.7631224039
14350213900.0 0.6258764955 -0.7727984935
14400213600.0 0.614086113 -0.7826220714
14450213300.0 0.6012910068 -0.792853351
14500213000.0 0.5879529198 -0.803152411
14550212700.0 0.5755548173 -0.8120112389
14600212400.0 0.5629503606 -0.8210195049
14650212100.0 0.5505648298 -0.829525685
14700211800.0 0.5364699277 -0.8391805293
14750211500.0 0.5242411904 -0.8473126113
14800211200.0 0.511950163 -0.855572186
14850210900.0 0.5000208261 -0.8630596046
14900210600.0 0.4865815674 -0.8709914877
14950210300.0 0.473199296 -0.8787444118
15000210000.0 0.4604510775 -0.8855709678
15050209700.0 0.4482512547 -0.8916984242
15100209400.0 0.4353987668 -0.8976617933
15150209100.0 0.4235454044 -0.9033655438
15200208800.0 0.4104688041 -0.9077775253
15250208500.0 0.3995441544 -0.9131168078
15300208200.0 0.3879893646 -0.9168386037
15350207900.0 0.3745341224 -0.9221968317
15400207600.0 0.3597394698 -0.9266820232
15450207300.0 0.3452323384 -0.932437666
15500207000.0 0.3304426551 -0.9367231272
15550206700.0 0.315387124 -0.9415846021
15600206400.0 0.29979191 -0.9466416271
15650206100.0 0.2839676083 -0.9510557422
15700205800.0 0.2697933573 -0.9547008396
15750205500.0 0.2557540123 -0.9580263103
15800205200.0 0.2415888969 -0.9616152948
15850204900.0 0.2273815297 -0.964943426
15900204600.0 0.2122994069 -0.9686589119
15950204300.0 0.1977508026 -0.9716222105
16000204000.0 0.1836887288 -0.9744722121
16050203700.0 0.1685582649 -0.9772770395
16100203400.0 0.153972743 -0.9794836617
16150203100.0 0.1390861013 -0.9820360716
16200202800.0 0.1250647382 -0.9841928614
16250202500.0 0.1101074379 -0.9852319904
16300202200.0 0.0947022319 -0.9875539068
16350201900.0 0.079793211 -0.9890906551
16400201600.0 0.0650841918 -0.9900539744
16450201300.0 0.0496314194 -0.9913777002
16500201000.0 0.0326516218 -0.9921227197
16550200700.0 0.0170039609 -0.9924706577
16600200400.0 0.0010295125 -0.9927712306
16650200100.0 -0.0152504596 -0.9925212181
16700199800.0 -0.0314705601 -0.9923612817
16750199500.0 -0.0503367488 -0.991448015
16800199200.0 -0.065598189 -0.9910750085
16850198900.0 -0.0817190702 -0.9892318175
16900198600.0 -0.0950135009 -0.989163395
16950198300.0 -0.1089194057 -0.9873650227
17000198000.0 -0.1213345746 -0.9862731341
17050197700.0 -0.1343182828 -0.9846709114
17100197400.0 -0.1479040362 -0.9819749816
17150197100.0 -0.1601980885 -0.9797625034
17200196800.0 -0.1729863609 -0.978286488
17250196500.0 -0.1856338849 -0.9754352671
17300196200.0 -0.1978107979 -0.973417288
17350195900.0 -0.2095661843 -0.9709859887
17400195600.0 -0.221702352 -0.9685093199
17450195300.0 -0.2348535846 -0.9657448328
17500195000.0 -0.2481413562 -0.9624866991
17550194700.0 -0.2617298159 -0.9587635435
17600194400.0 -0.2756100702 -0.9548610467
17650194100.0 -0.2897327304 -0.9508776822
17700193800.0 -0.3023002377 -0.9467459036
17750193500.0 -0.3167393074 -0.9420232632
17800193200.0 -0.3310135317 -0.9368495566
17850192900.0 -0.3462481513 -0.9313099638
17900192600.0 -0.3612564308 -0.9250995098
17950192300.0 -0.3765902127 -0.9182218274
18000192000.0 -0.3916409318 -0.9111806333
18050191700.0 -0.4053934768 -0.9029061678
18100191400.0 -0.4196331512 -0.8952687055
18150191100.0 -0.4346841718 -0.8874239171
18200190800.0 -0.4515396851 -0.8782980062
18250190500.0 -0.4685841569 -0.8686946971
18300190200.0 -0.4839004299 -0.8604206706
18350189900.0 -0.4990410116 -0.8519236124
18400189600.0 -0.5134701605 -0.8436798323
18450189300.0 -0.5271336529 -0.8352264667
18500189000.0 -0.5402358983 -0.8276236796
18550188700.0 -0.5528671156 -0.8194319998
18600188400.0 -0.5650271375 -0.8131971104
18650188100.0 -0.5765100721 -0.8062197099
18700187800.0 -0.5871627774 -0.8000484025
18750187500.0 -0.597368017 -0.7932877558
18800187200.0 -0.608142197 -0.7863618291
18850186900.0 -0.618181001 -0.7794772903
18900186600.0 -0.6285236528 -0.7720721257
18950186300.0 -0.6386005297 -0.7644630537
19000186000.0 -0.6458583988 -0.7581116848
19050185700.0 -0.6554848799 -0.7508409606
19100185400.0 -0.6654072856 -0.7423302494
19150185100.0 -0.6755123024 -0.7340710017
19200184800.0 -0.6851428126 -0.726176596
19250184500.0 -0.6956083335 -0.7164989527
19300184200.0 -0.7069119029 -0.7070082313
19350183900.0 -0.7176345815 -0.6974660512
19400183600.0 -0.7268977727 -0.6876305959
19450183300.0 -0.7356995983 -0.6768732327
19500183000.0 -0.7444668174 -0.667093752
19550182700.0 -0.7540074988 -0.6566521877
19600182400.0 -0.7645152777 -0.6450686952
19650182100.0 -0.7750110692 -0.6322470775
19700181800.0 -0.7856482088 -0.6192345409
19750181500.0 -0.7962539604 -0.6051844862
19800181200.0 -0.8065689247 -0.5901622371
19850180900.0 -0.8161595982 -0.5748411736
19900180600.0 -0.8238874972 -0.5603404145
19950180300.0 -0.8331084075 -0.544145487
20000180000.0 -0.8245728968 -0.5466263983
20050179700.0 -0.8322031108 -0.5340230244
20100179400.0 -0.8413995344 -0.5206715723
20150179100.0 -0.8492039829 -0.5092283026
20200178800.0 -0.8582178391 -0.496189267
20250178500.0 -0.8677488578 -0.4830697371
20300178200.0 -0.8772013976 -0.4695533754
20350177900.0 -0.885816671 -0.4550914375
20400177600.0 -0.8948449534 -0.4411987239
20450177300.0 -0.9034397033 -0.4267089837
20500177000.0 -0.9112877953 -0.4126840446
20550176700.0 -0.919052873 -0.3991405466
20600176400.0 -0.9263875534 -0.3861949379
20650176100.0 -0.9326180012 -0.3739747882
20700175800.0 -0.9403954779 -0.3617696066
20750175500.0 -0.9461546373 -0.3502991646
20800175200.0 -0.9506977792 -0.339560128
20850174900.0 -0.9558008686 -0.3288473969
20900174600.0 -0.9598225709 -0.3172671948
20950174300.0 -0.9634444465 -0.3062274462
21000174000.0 -0.9659831413 -0.2949327193
21050173700.0 -0.9679953876 -0.2852587908
21100173400.0 -0.9721697478 -0.2737863798
21150173100.0 -0.9764703924 -0.2611548264
21200172800.0 -0.9794900669 -0.2481315003
21250172500.0 -0.98329535 -0.2342635847
21300172200.0 -0.9869942688 -0.2200706458
21350171900.0 -0.9882646486 -0.206002567
21400171600.0 -0.9902964496 -0.1915261861
21450171300.0 -0.9908123073 -0.1773902728
21500171000.0 -0.9910565241 -0.1621755778
21550170700.0 -0.9907578678 -0.1481043866
21600170400.0 -0.991452454 -0.1324455222
21650170100.0 -0.991552719 -0.1157423359
21700169800.0 -0.989598748 -0.099830842
21750169500.0 -0.9902894043 -0.0841030299
21800169200.0 -0.9892918883 -0.0672814696
21850168900.0 -0.9885324349 -0.051321084
21900168600.0 -0.9873113078 -0.0343854482
21950168300.0 -0.986866349 -0.0194308853
22000168000.0 -0.9864830133 -0.00443534
22050167700.0 -0.9864029348 0.0101440823
22100167400.0 -0.9870743975 0.025375216
22150167100.0 -0.9881266475 0.0413190637
22200166800.0 -0.9884807203 0.0580280442
22250166500.0 -0.9876746213 0.0755044449
22300166200.0 -0.9879518578 0.091991957
22350165900.0 -0.9857857348 0.1079694859
22400165600.0 -0.9840222021 0.1244119881
22450165300.0 -0.9826896385 0.1392210503
22500165000.0 -0.9811178748 0.1525950484
22550164700.0 -0.9787840774 0.1684022978
22600164400.0 -0.9772688418 0.1848904014
22650164100.0 -0.9753390682 0.1994605238
22700163800.0 -0.9722197441 0.2157154469
22750163500.0 -0.9693313811 0.2300592678
22800163200.0 -0.9664575519 0.2440971887
22850162900.0 -0.9637771682 0.2570255633
22900162600.0 -0.9624758061 0.2707785888
22950162300.0 -0.9607223447 0.2842835152
23000162000.0 -0.9590739758 0.2964231122
23050161700.0 -0.9570646151 0.3092981334
23100161400.0 -0.9546008559 0.3231294408
23150161100.0 -0.9517109353 0.3351799753
23200160800.0 -0.9489522485 0.3478382864
23250160500.0 -0.9460060951 0.3598930589
23300160200.0 -0.9433439954 0.3719223821
23350159900.0 -0.9388031782 0.3856949136
23400159600.0 -0.9346897897 0.3989870038
23450159300.0 -0.9290891335 0.4121274925
23500159000.0 -0.9251435642 0.4253970076
23550158700.0 -0.9206817573 0.4393093722
23600158400.0 -0.9145654624 0.4532385714
23650158100.0 -0.9076672768 0.4674794228
23700157800.0 -0.8997060216 0.4818314592
23750157500.0 -0.8906265777 0.4956256547
23800157200.0 -0.8815253472 0.5094107556
23850156900.0 -0.8715085237 0.5223385996
23900156600.0 -0.8623277418 0.5350350135
23950156300.0 -0.8534601612 0.5469508349
24000156000.0 -0.8434044177 0.5592066473
24050155700.0 -0.8333793585 0.5718953409
24100155400.0 -0.8232495327 0.5845497981
24150155100.0 -0.8124557811 0.5954941019
24200154800.0 -0.8017364216 0.6068663658
24250154500.0 -0.7907280774 0.6190510441
24300154200.0 -0.7787264034 0.6306305009
24350153900.0 -0.7670236126 0.6415404668
24400153600.0 -0.7550970665 0.6523397494
24450153300.0 -0.7428826014 0.6622728867
24500153000.0 -0.7310862092 0.67216804
24550152700.0 -0.72016373 0.6817632306
24600152400.0 -0.7088591739 0.6915776217
24650152100.0 -0.6967368006 0.6991033323
