!Created with skrf (http://scikit-rf.org).
# Hz S RI R 50.0 
!freq ReS11 ImS11
300000.0 -0.9806042239 -0.101322486
50299700.0 -1.000040602 0.0162713468
100299400.0 -0.9981718264 0.0292441506
150299100.0 -1.002689985 0.0460175415
200298800.0 -0.9997005215 0.0592371773
250298500.0 -0.9974248162 0.0727703977
300298200.0 -0.9860173599 0.0886032227
350297900.0 -0.9940340914 0.099572231
400297600.0 -0.9931991927 0.1160788576
450297300.0 -0.9909370644 0.1299366811
500297000.0 -0.9895153303 0.1446185542
550296700.0 -0.984462996 0.1571766283
600296400.0 -1.017319554 0.1907080267
650296100.0 -0.9820427802 0.1870775826
700295800.0 -0.9791424526 0.2014369169
750295500.0 -0.9761945925 0.215317616
800295200.0 -0.9727813306 0.2294750853
850294900.0 -0.9695239718 0.2432606448
900294600.0 -0.9655584795 0.2572674503
950294300.0 -0.9616246499 0.2709386509
1000294000.0 -0.9578437784 0.2848111366
1050293700.0 -0.9533541879 0.2986807071
1100293400.0 -0.9490493879 0.312863945
1150293100.0 -0.945179213 0.3250613619
1200292800.0 -0.9396735785 0.3392553275
1250292500.0 -0.934231077 0.3526498573
1300292200.0 -0.928540654 0.3659124175
1350291900.0 -0.9230297921 0.3798314475
1400291600.0 -0.9175747467 0.3929116839
1450291300.0 -0.9122423825 0.4051653532
1500291000.0 -0.9058279674 0.4186481469
1550290700.0 -0.8992509687 0.4320324389
1600290400.0 -0.8930635558 0.4447962311
1650290100.0 -0.8863888007 0.4570934531
1700289800.0 -0.8796112915 0.4703772591
1750289500.0 -0.8725770701 0.4827233705
1800289200.0 -0.8651208575 0.4956630998
1850288900.0 -0.8584847134 0.5070140172
1900288600.0 -0.8507540837 0.5197956722
1950288300.0 -0.8425876702 0.5325299215
2000288000.0 -0.8350320617 0.5438230049
2050287700.0 -0.826869526 0.5560512728
2100287400.0 -0.8186256374 0.5680343692
2150287100.0 -0.8101452361 0.5799829089
2200286800.0 -0.8022795038 0.5904298362
2250286500.0 -0.7935391349 0.6023503961
2300286200.0 -0.7844922571 0.6141112499
2350285900.0 -0.7757629484 0.6249711093
2400285600.0 -0.7668894005 0.6359958669
2450285300.0 -0.758178806 0.6464541606
2500285000.0 -0.7482516041 0.6578618962
2550284700.0 -0.7395101918 0.6678443402
2600284400.0 -0.7299750459 0.6780959902
2650284100.0 -0.7210756795 0.6887591495
2700283800.0 -0.7101890222 0.6990647095
2750283500.0 -0.6998791736 0.7096885247
2800283200.0 -0.690273015 0.7193014124
2850282900.0 -0.6800820981 0.7291551854
2900282600.0 -0.6697504849 0.7386182675
2950282300.0 -0.6595748174 0.7479889848
3000282000.0 -0.6489502149 0.757497145
3050281700.0 -0.6376988672 0.7666444113
3100281400.0 -0.6257942615 0.776212582
3150281100.0 -0.614023757 0.78546141
3200280800.0 -0.6023020474 0.7938951078
3250280500.0 -0.591638855 0.8016159733
3300280200.0 -0.5805002155 0.8096523026
3350279900.0 -0.5689566868 0.8170809568
3400279600.0 -0.5567942721 0.8245181078
3450279300.0 -0.5459101437 0.8316713656
3500279000.0 -0.5337143629 0.8388985759
3550278700.0 -0.521266928 0.8461578617
3600278400.0 -0.5089301554 0.8534692189
3650278100.0 -0.4957897251 0.8611754033
3700277800.0 -0.4836781152 0.8675522515
3750277500.0 -0.4714767683 0.8741056999
3800277200.0 -0.4587954285 0.8803929249
3850276900.0 -0.4467550916 0.8864665345
3900276600.0 -0.4358590987 0.8917812503
3950276300.0 -0.4232892852 0.8981410311
4000276000.0 -0.4114586348 0.9043323747
4050275700.0 -0.3981387372 0.9102768317
4100275400.0 -0.3870034201 0.9154386392
4150275100.0 -0.3742345127 0.921341634
4200274800.0 -0.3610284215 0.926882079
4250274500.0 -0.3490111769 0.9319051516
4300274200.0 -0.3360514496 0.9370172252
4350273900.0 -0.3223063228 0.9421157539
4400273600.0 -0.3074804911 0.9474825666
4450273300.0 -0.2919512068 0.9525169845
4500273000.0 -0.2783940889 0.9570853004
4550272700.0 -0.2641666115 0.961185273
4600272400.0 -0.2486754211 0.9653749966
4650272100.0 -0.2368721582 0.9684183189
4700271800.0 -0.2234983133 0.9718613964
4750271500.0 -0.2117994208 0.9747772316
4800271200.0 -0.1992583383 0.9775164635
4850270900.0 -0.1854489368 0.9803347921
4900270600.0 -0.1715846554 0.9826104916
4950270300.0 -0.1574503441 0.985286882
5000270000.0 -0.143220824 0.9872534664
5050269700.0 -0.1297353198 0.9889852166
5100269400.0 -0.116406874 0.9905881956
5150269100.0 -0.1029699726 0.9919252891
5200268800.0 -0.0899129294 0.9935551541
5250268500.0 -0.076746862 0.9943997145
5300268200.0 -0.0635940162 0.9949945744
5350267900.0 -0.051347231 0.9954254774
5400267600.0 -0.0352109299 0.9965343367
5450267300.0 -0.0223593872 0.9966832759
5500267000.0 -0.0069850603 0.9971144066
5550266700.0 0.0078126867 0.9972131566
5600266400.0 0.0233241341 0.9972911107
5650266100.0 0.0398407013 0.9969688301
5700265800.0 0.0545402799 0.9962026869
5750265500.0 0.0694745832 0.9952883389
5800265200.0 0.0838650476 0.9943771168
5850264900.0 0.0973238538 0.9934655876
5900264600.0 0.1135141899 0.9912157977
5950264300.0 0.1256752629 0.9899679582
6000264000.0 0.1397513506 0.9881042376
6050263700.0 0.1521717167 0.9865499548
6100263400.0 0.1648165077 0.9846369857
6150263100.0 0.1791856896 0.9823076383
6200262800.0 0.1898437056 0.9805489041
6250262500.0 0.2026571149 0.977957619
6300262200.0 0.2155729374 0.9751582945
6350261900.0 0.2285052511 0.9721831154
6400261600.0 0.2423433885 0.968830862
6450261300.0 0.2538897973 0.9660445462
6500261000.0 0.2663846072 0.9625672899
6550260700.0 0.2795504557 0.958563794
6600260400.0 0.2927354248 0.9545801522
6650260100.0 0.3069125816 0.9501486447
6700259800.0 0.3189191768 0.9460974573
6750259500.0 0.332592603 0.9409462554
6800259200.0 0.3455631971 0.9361585841
6850258900.0 0.3572792794 0.9310677134
6900258600.0 0.3698173747 0.9259572634
6950258300.0 0.3820176976 0.9206922311
7000258000.0 0.3940882024 0.9152499731
7050257700.0 0.4064451177 0.9093034986
7100257400.0 0.4192183535 0.903153972
7150257100.0 0.4292255084 0.8978690234
7200256800.0 0.4419909025 0.8913609056
7250256500.0 0.4539067203 0.8850266519
7300256200.0 0.4670706435 0.8781695412
7350255900.0 0.4794465601 0.8713015326
7400255600.0 0.4924584535 0.8643576216
7450255300.0 0.5077211744 0.8552926228
7500255000.0 0.5192539254 0.8481335956
7550254700.0 0.5327462618 0.8396696607
7600254400.0 0.5457731075 0.8314324006
7650254100.0 0.5575474932 0.8233078829
7700253800.0 0.569309557 0.815419483
7750253500.0 0.5806686816 0.8076870341
7800253200.0 0.5910723832 0.7998346057
7850252900.0 0.600911444 0.7927915224
7900252600.0 0.6126177562 0.7839984232
7950252300.0 0.6214227366 0.7772976061
8000252000.0 0.6317892065 0.7695049736
8050251700.0 0.6422141148 0.7612188298
8100251400.0 0.6523800329 0.7529361935
8150251100.0 0.6623056136 0.7442985448
8200250800.0 0.6716823762 0.7365018048
8250250500.0 0.6809461695 0.7282048216
8300250200.0 0.6901552154 0.719531426
8350249900.0 0.6994310113 0.7109158142
8400249600.0 0.7074487372 0.7027540789
8450249300.0 0.7167722218 0.6935553155
8500249000.0 0.725411644 0.6847072675
8550248700.0 0.7336569927 0.6757954333
8600248400.0 0.7419213351 0.6662181322
8650248100.0 0.7497776261 0.6568047832
8700247800.0 0.7592546853 0.6455384701
8750247500.0 0.7675203496 0.6356524578
8800247200.0 0.7757370658 0.6251489133
8850246900.0 0.7843179153 0.6140523093
8900246600.0 0.7925734631 0.6027908652
8950246300.0 0.8022092503 0.5901110262
9000246000.0 0.8113767278 0.5771436813
9050245700.0 0.8204737792 0.564213457
9100245400.0 0.8290908874 0.5516219279
9150245100.0 0.8383192834 0.5380740156
9200244800.0 0.8481063874 0.5230363225
9250244500.0 0.8573856325 0.5073465416
9300244200.0 0.8658598172 0.4929124304
9350243900.0 0.8737343367 0.4788751009
9400243600.0 0.8805813142 0.4662511506
9450243300.0 0.8863958693 0.4543430006
9500243000.0 0.8926487597 0.4420781227
9550242700.0 0.896331984 0.4341395393
9600242400.0 0.9003276618 0.426517237
9650242100.0 0.9039897298 0.4201414012
9700241800.0 0.908821773 0.4115310475
9750241500.0 0.9125479227 0.4039220772
9800241200.0 0.9171239696 0.3946426198
9850240900.0 0.9229852323 0.3829192607
9900240600.0 0.92858008 0.3713032147
9950240300.0 0.9349334863 0.3551393562
10000240000.0 0.9395156703 0.3440413954
10050239700.0 0.9450521201 0.3286384899
10100239400.0 0.9499648264 0.3131901477
10150239100.0 0.9542577163 0.2983976587
10200238800.0 0.9585757162 0.2834885721
10250238500.0 0.9617711176 0.270186632
10300238200.0 0.9649933543 0.256244914
10350237900.0 0.9676312653 0.2433430171
10400237600.0 0.9701065484 0.2302163434
10450237300.0 0.9728293675 0.2167256762
10500237000.0 0.9748428993 0.204654506
10550236700.0 0.9774974478 0.1904593049
10600236400.0 0.9793538317 0.1774442126
10650236100.0 0.9812970172 0.1629263243
10700235800.0 0.9836258966 0.1507313949
10750235500.0 0.9864168786 0.1370701907
10800235200.0 0.9879837094 0.123387451
10850234900.0 0.9897205419 0.1088685434
10900234600.0 0.9918393471 0.0941329585
10950234300.0 0.9934734322 0.0810537609
11000234000.0 0.995209931 0.0660001731
11050233700.0 0.9969297858 0.0496326157
11100233400.0 0.9982846355 0.0324329769
11150233100.0 0.9993570123 0.0164911802
11200232800.0 1.000323853 0.000904495
11250232500.0 1.000913221 -0.0155336683
11300232200.0 1.001262742 -0.0337556208
11350231900.0 1.001178032 -0.0494507796
11400231600.0 1.001292359 -0.0656042323
11450231300.0 1.000764227 -0.0811496095
11500231000.0 0.9993253549 -0.0975162715
11550230700.0 0.9976633602 -0.1095578662
11600230400.0 0.9966285119 -0.1228207399
11650230100.0 0.9944792929 -0.1349239972
11700229800.0 0.9924775116 -0.1494066348
11750229500.0 0.9900610741 -0.1643722228
11800229200.0 0.98752334 -0.1779367838
11850228900.0 0.9837587872 -0.190618172
11900228600.0 0.9803781808 -0.2002649756
11950228300.0 0.976979644 -0.211009796
12000228000.0 0.9743127805 -0.220175219
12050227700.0 0.9710031332 -0.2322967774
12100227400.0 0.9676937866 -0.2438405372
12150227100.0 0.9627770797 -0.2596777735
12200226800.0 0.9590504923 -0.271339511
12250226500.0 0.955132744 -0.2836853982
12300226200.0 0.9506377359 -0.2961831459
12350225900.0 0.9463513227 -0.3100200012
12400225600.0 0.9415979574 -0.3224396369
12450225300.0 0.9372989189 -0.3357297919
12500225000.0 0.9316879086 -0.3502512499
12550224700.0 0.9266512922 -0.3632104142
12600224400.0 0.9216594468 -0.3763350627
12650224100.0 0.9159216473 -0.3903080569
12700223800.0 0.9107267408 -0.4029055825
12750223500.0 0.905135501 -0.4160123592
12800223200.0 0.899973154 -0.428326132
12850222900.0 0.8946678807 -0.4407052629
12900222600.0 0.8889400718 -0.4528769422
12950222300.0 0.8824793844 -0.4655276586
13000222000.0 0.8764690129 -0.4772269976
13050221700.0 0.869636086 -0.4900967363
13100221400.0 0.8628635248 -0.5021346178
13150221100.0 0.8561817357 -0.5141255063
13200220800.0 0.8488460865 -0.525601328
13250220500.0 0.8415239699 -0.5380464553
13300220200.0 0.8340356744 -0.5488500834
13350219900.0 0.8257746036 -0.5611673901
13400219600.0 0.8173708966 -0.5732885034
13450219300.0 0.8077709382 -0.5870289115
13500219000.0 0.7976778108 -0.6011013277
13550218700.0 0.7874810826 -0.6137593852
13600218400.0 0.7771842845 -0.6262102855
13650218100.0 0.7670099489 -0.6373727227
13700217800.0 0.7564167336 -0.6494136351
13750217500.0 0.7463194678 -0.661620421
13800217200.0 0.7343997008 -0.6725209344
13850216900.0 0.7235606749 -0.683521943
13900216600.0 0.7138766414 -0.6928414305
13950216300.0 0.7039531236 -0.7031668356
14000216000.0 0.6926388079 -0.7129877836
14050215700.0 0.6837859411 -0.7206906805
14100215400.0 0.6740086138 -0.729501239
14150215100.0 0.664846276 -0.7379126142
14200214800.0 0.6556691741 -0.7465391642
14250214500.0 0.6455130689 -0.7558223606
14300214200.0 0.6352903836 -0.764921744
14350213900.0 0.6242519351 -0.77417588
14400213600.0 0.6125957286 -0.783962212
14450213300.0 0.6000135902 -0.794283626
14500213000.0 0.586452052 -0.803831173
14550212700.0 0.5740033466 -0.8132654254
14600212400.0 0.5615320979 -0.822000304
14650212100.0 0.5482665502 -0.8307149518
14700211800.0 0.5348791796 -0.8405117733
14750211500.0 0.5223630537 -0.8484801955
14800211200.0 0.5103820724 -0.8565708932
14850210900.0 0.4978460998 -0.8640807495
14900210600.0 0.4846739 -0.8718442462
14950210300.0 0.4711291519 -0.8795114956
15000210000.0 0.4580892931 -0.8863466541
15050209700.0 0.4463906956 -0.8926805063
15100209400.0 0.4331207565 -0.8987883741
15150209100.0 0.4202944967 -0.9033791748
15200208800.0 0.4069975453 -0.9092521939
15250208500.0 0.3954444059 -0.9145047224
15300208200.0 0.3833053672 -0.9190310487
15350207900.0 0.3703306451 -0.9238039084
15400207600.0 0.3550821399 -0.9293454987
15450207300.0 0.3404586584 -0.9338194864
15500207000.0 0.3257646346 -0.9387521678
15550206700.0 0.3108170156 -0.9439759028
15600206400.0 0.2953197167 -0.9482062976
15650206100.0 0.2795223594 -0.9525135112
15700205800.0 0.2657771099 -0.9561953594
15750205500.0 0.2513134746 -0.9594826369
15800205200.0 0.2369316609 -0.9629290737
15850204900.0 0.2225199034 -0.9663032279
15900204600.0 0.2077730157 -0.9699979046
15950204300.0 0.193706273 -0.972766155
16000204000.0 0.1794648689 -0.9757430473
16050203700.0 0.1649538907 -0.9783903899
16100203400.0 0.1504467964 -0.980332088
16150203100.0 0.1362869579 -0.9824294771
16200202800.0 0.1224727548 -0.9844638803
16250202500.0 0.1077312131 -0.9862149426
16300202200.0 0.0928753515 -0.9878261565
16350201900.0 0.077736729 -0.9891927319
16400201600.0 0.0631039892 -0.9903691297
16450201300.0 0.0481127926 -0.9912480883
16500201000.0 0.0317028703 -0.9921477708
16550200700.0 0.0159590845 -0.9927605815
16600200400.0 0.0002230432 -0.9927595189
16650200100.0 -0.0163543133 -0.9926370726
16700199800.0 -0.0327123277 -0.9921911975
16750199500.0 -0.0518086172 -0.9909115636
16800199200.0 -0.0671000271 -0.9902599485
16850198900.0 -0.0822849086 -0.989182172
16900198600.0 -0.0964048965 -0.9881262143
16950198300.0 -0.1109355669 -0.9876507834
17000198000.0 -0.1231986354 -0.9852913813
17050197700.0 -0.1362094237 -0.983533273
17100197400.0 -0.1486918854 -0.981855295
17150197100.0 -0.1620868312 -0.9797547261
17200196800.0 -0.1745418476 -0.9775128234
17250196500.0 -0.1872151854 -0.9755138686
17300196200.0 -0.1995236248 -0.9728224708
17350195900.0 -0.2117132683 -0.9704046055
17400195600.0 -0.2238714997 -0.9679522215
17450195300.0 -0.2370066223 -0.9653007782
17500195000.0 -0.250521519 -0.9617525565
17550194700.0 -0.2642712414 -0.9580977544
17600194400.0 -0.2778787457 -0.9542203143
17650194100.0 -0.2916203968 -0.9500943456
17700193800.0 -0.3047325706 -0.9456151548
17750193500.0 -0.3193992783 -0.9413895218
17800193200.0 -0.3331633996 -0.9362132403
17850192900.0 -0.3479619837 -0.9305714884
17900192600.0 -0.3633285873 -0.9247038171
17950192300.0 -0.3785040229 -0.9175553051
18000192000.0 -0.3934886733 -0.9104308918
18050191700.0 -0.4068580493 -0.9025146758
18100191400.0 -0.4213204059 -0.8949059449
18150191100.0 -0.4361167153 -0.8869300429
18200190800.0 -0.4528488479 -0.877944056
18250190500.0 -0.4698580016 -0.8684410863
18300190200.0 -0.4851589422 -0.8595286335
18350189900.0 -0.5000918468 -0.8507361492
18400189600.0 -0.5145019352 -0.8429100087
18450189300.0 -0.5281305433 -0.834642888
18500189000.0 -0.5414933033 -0.8265797609
18550188700.0 -0.5542317498 -0.8188597183
18600188400.0 -0.5659650761 -0.8122514383
18650188100.0 -0.5768806905 -0.805364688
18700187800.0 -0.5877686546 -0.7988365727
18750187500.0 -0.5985733027 -0.7921033407
18800187200.0 -0.6093477207 -0.7848364129
18850186900.0 -0.6199081056 -0.7775811252
18900186600.0 -0.6302639655 -0.7698471505
18950186300.0 -0.6405751595 -0.7622621383
19000186000.0 -0.64787052 -0.7555922805
19050185700.0 -0.6575074345 -0.7486543808
19100185400.0 -0.6676614409 -0.7400188395
19150185100.0 -0.6774577993 -0.7314062134
19200184800.0 -0.6872293094 -0.7225157123
19250184500.0 -0.6972417316 -0.7137760025
19300184200.0 -0.7089608835 -0.7036005072
19350183900.0 -0.7195904655 -0.6941085435
19400183600.0 -0.7296922948 -0.6843799478
19450183300.0 -0.7385277316 -0.6749434134
19500183000.0 -0.7464445476 -0.6637980702
19550182700.0 -0.7559801595 -0.6532551218
19600182400.0 -0.7663489864 -0.6417950456
19650182100.0 -0.7767293533 -0.6296812721
19700181800.0 -0.7872796121 -0.6167653084
19750181500.0 -0.7977152138 -0.6029801923
19800181200.0 -0.8080376672 -0.5881722236
19850180900.0 -0.8174593386 -0.573003103
19900180600.0 -0.8251022881 -0.5587503772
19950180300.0 -0.8342176012 -0.5425357397
20000180000.0 -0.8274857887 -0.544285303
20050179700.0 -0.835266524 -0.5311673104
20100179400.0 -0.8440045193 -0.5182842352
20150179100.0 -0.8520107585 -0.5054827968
20200178800.0 -0.8607307488 -0.4925431852
20250178500.0 -0.8696924112 -0.4793358654
20300178200.0 -0.8793469617 -0.4647121702
20350177900.0 -0.8877711814 -0.4502656032
20400177600.0 -0.8972809939 -0.4358222726
20450177300.0 -0.9049936664 -0.4211694157
20500177000.0 -0.9130237973 -0.4071321981
20550176700.0 -0.9208613208 -0.3933509516
20600176400.0 -0.9278764298 -0.3805742066
20650176100.0 -0.9346844382 -0.3671384388
20700175800.0 -0.9412600836 -0.3560515196
20750175500.0 -0.9480237224 -0.3438519362
20800175200.0 -0.9527094058 -0.3323815208
20850174900.0 -0.9580864706 -0.3218676254
20900174600.0 -0.9619772052 -0.3104919578
20950174300.0 -0.9659304763 -0.2973281083
21000174000.0 -0.969785367 -0.2870031008
21050173700.0 -0.9729337538 -0.2761423487
21100173400.0 -0.9770604034 -0.2634026563
21150173100.0 -0.9816604669 -0.2504096609
21200172800.0 -0.9846540668 -0.2372526538
21250172500.0 -0.9876088584 -0.2229614152
21300172200.0 -0.9907109061 -0.2089008638
21350171900.0 -0.9920353181 -0.194467518
21400171600.0 -0.9929732211 -0.1804789642
21450171300.0 -0.9937300508 -0.1655239789
21500171000.0 -0.9932220193 -0.1505430168
21550170700.0 -0.9935715077 -0.1348184179
21600170400.0 -0.9933019977 -0.1199450307
21650170100.0 -0.9928948433 -0.1034165689
21700169800.0 -0.9901762588 -0.0886430254
21750169500.0 -0.9896865908 -0.0728938579
21800169200.0 -0.9884703716 -0.0576311069
21850168900.0 -0.9867296711 -0.0406960273
21900168600.0 -0.9858306497 -0.0239445892
21950168300.0 -0.9846447056 -0.0081923994
22000168000.0 -0.9827543194 0.0065701946
22050167700.0 -0.9824392371 0.020716994
22100167400.0 -0.9823586663 0.0358725178
22150167100.0 -0.983035716 0.0511103873
22200166800.0 -0.9831534998 0.0675513016
22250166500.0 -0.9821250365 0.0836288587
22300166200.0 -0.9821498881 0.1002906185
22350165900.0 -0.9806509257 0.1174171666
22400165600.0 -0.9784791978 0.1327617418
22450165300.0 -0.9778023805 0.1466936
22500165000.0 -0.9746067101 0.1607780078
22550164700.0 -0.9742003575 0.1767707299
22600164400.0 -0.9721786672 0.1925580981
22650164100.0 -0.9697955147 0.2074308762
22700163800.0 -0.9676207212 0.2236877703
22750163500.0 -0.9645894388 0.2384094489
22800163200.0 -0.9617793036 0.2513845223
22850162900.0 -0.9596820713 0.2651043299
22900162600.0 -0.9583640729 0.2784757208
22950162300.0 -0.9572381355 0.2911960593
23000162000.0 -0.9559084066 0.3031406491
23050161700.0 -0.9540876036 0.3159981607
23100161400.0 -0.9516056742 0.3284940367
23150161100.0 -0.9488857354 0.340275599
23200160800.0 -0.9461754842 0.353098362
23250160500.0 -0.9436719273 0.36435497
23300160200.0 -0.9405245545 0.3769575636
23350159900.0 -0.9373592387 0.3894598387
23400159600.0 -0.9323134719 0.402665168
23450159300.0 -0.9272663876 0.4154380879
23500159000.0 -0.9228076943 0.4283069022
23550158700.0 -0.9181238729 0.4413224527
23600158400.0 -0.9131954564 0.4546086608
23650158100.0 -0.9067421411 0.4684586791
23700157800.0 -0.8991859752 0.4823356316
23750157500.0 -0.8909554516 0.4958331271
23800157200.0 -0.8819421424 0.5092879128
23850156900.0 -0.8733650303 0.5213231367
23900156600.0 -0.8629980992 0.5346581054
23950156300.0 -0.8544601342 0.5465893658
24000156000.0 -0.845886749 0.5587715146
24050155700.0 -0.8353639204 0.5698180901
24100155400.0 -0.8250690826 0.5825387771
24150155100.0 -0.8151878521 0.594383096
24200154800.0 -0.8039942817 0.6058960062
24250154500.0 -0.7918813492 0.6164286463
24300154200.0 -0.780663338 0.6288656639
24350153900.0 -0.7697968724 0.6393501271
24400153600.0 -0.7571334357 0.6494349321
24450153300.0 -0.7453820339 0.6597254464
24500153000.0 -0.7338991926 0.6693157035
24550152700.0 -0.7226008216 0.6793120988
24600152400.0 -0.7110168247 0.6885656344
24650152100.0 -0.6990869028 0.6972209882
