!Created with skrf (http://scikit-rf.org).
# Hz S RI R 50.0 
!freq ReS11 ImS11
300000.0 -0.9763783382 -0.1213653038
50299700.0 -0.9999276153 0.0153241517
100299400.0 -0.9977434739 0.0281716944
150299100.0 -1.002806416 0.0450687105
200298800.0 -0.9995173631 0.0582588256
250298500.0 -0.9976282254 0.0718975955
300298200.0 -0.9860609366 0.0876678501
350297900.0 -0.9939273789 0.0985227997
400297600.0 -0.9931452391 0.1151045778
450297300.0 -0.9910513724 0.1289519342
500297000.0 -0.9894250778 0.1436746513
550296700.0 -0.9843024073 0.1559653525
600296400.0 -1.017308329 0.1893331265
650296100.0 -0.9821894693 0.1859090664
700295800.0 -0.979348377 0.200420406
750295500.0 -0.9763291387 0.2144385079
800295200.0 -0.9730029525 0.2284374449
850294900.0 -0.9696837162 0.242130274
900294600.0 -0.9660373358 0.2558359124
950294300.0 -0.9620828742 0.2695474063
1000294000.0 -0.9581566447 0.2836213658
1050293700.0 -0.9537726274 0.2974375854
1100293400.0 -0.9493242628 0.3118694382
1150293100.0 -0.9455160457 0.3236260067
1200292800.0 -0.9401935713 0.3380521274
1250292500.0 -0.9347579885 0.3514327593
1300292200.0 -0.9289984195 0.3645001614
1350291900.0 -0.9236009643 0.3787190451
1400291600.0 -0.9180748919 0.3917932936
1450291300.0 -0.9126666178 0.4042259868
1500291000.0 -0.906430839 0.4176425725
1550290700.0 -0.8997676704 0.430878182
1600290400.0 -0.8934934489 0.4438037231
1650290100.0 -0.8868095623 0.4558981752
1700289800.0 -0.879966291 0.4696888714
1750289500.0 -0.8728012137 0.4818342065
1800289200.0 -0.8655370856 0.4945648517
1850288900.0 -0.8588148429 0.5058686151
1900288600.0 -0.8512178601 0.5190236727
1950288300.0 -0.8432259992 0.5316517816
2000288000.0 -0.8354754355 0.54300352
2050287700.0 -0.8272995636 0.5553078086
2100287400.0 -0.8192048295 0.5668979564
2150287100.0 -0.8108436665 0.5790676423
2200286800.0 -0.8031349924 0.5894048488
2250286500.0 -0.7943434 0.6014747909
2300286200.0 -0.7853529366 0.6128735318
2350285900.0 -0.7767860697 0.6239049369
2400285600.0 -0.7678014121 0.6348869529
2450285300.0 -0.7590793409 0.6454294282
2500285000.0 -0.7491548129 0.6566869705
2550284700.0 -0.7405958331 0.6667144123
2600284400.0 -0.7308203704 0.6767679154
2650284100.0 -0.7221872688 0.687618282
2700283800.0 -0.7113977343 0.698012434
2750283500.0 -0.7014267177 0.7085848909
2800283200.0 -0.6913224574 0.7181661706
2850282900.0 -0.6812237863 0.7284418301
2900282600.0 -0.6707914879 0.7376358736
2950282300.0 -0.6605798443 0.7470457966
3000282000.0 -0.6498524819 0.7566587196
3050281700.0 -0.6387322846 0.7657722163
3100281400.0 -0.626844068 0.775102419
3150281100.0 -0.6151246772 0.7846032166
3200280800.0 -0.6035184804 0.7930546669
3250280500.0 -0.5926503962 0.8007292244
3300280200.0 -0.5811786298 0.808681206
3350279900.0 -0.5695174132 0.8161993322
3400279600.0 -0.5574977707 0.8242446558
3450279300.0 -0.5463106288 0.8309758583
3500279000.0 -0.5344007051 0.8380844052
3550278700.0 -0.5221384281 0.8456378125
3600278400.0 -0.5097866767 0.8524821742
3650278100.0 -0.4964687205 0.8601751852
3700277800.0 -0.4845906161 0.8666773277
3750277500.0 -0.4723797686 0.8731149658
3800277200.0 -0.4599446426 0.8798098268
3850276900.0 -0.4478042836 0.8854305293
3900276600.0 -0.4370808453 0.8912145985
3950276300.0 -0.424792903 0.8973242069
4000276000.0 -0.4127016206 0.9032873909
4050275700.0 -0.3998152951 0.9092080066
4100275400.0 -0.3887198622 0.9148332959
4150275100.0 -0.3759887032 0.9203644424
4200274800.0 -0.3627793006 0.9261593304
4250274500.0 -0.3507616983 0.931574142
4300274200.0 -0.3376470963 0.9366398159
4350273900.0 -0.3238066217 0.9419899516
4400273600.0 -0.3089835697 0.947166447
4450273300.0 -0.2937377135 0.952298529
4500273000.0 -0.2800829404 0.9564586274
4550272700.0 -0.2661122 0.9609873048
4600272400.0 -0.2507896762 0.9650737545
4650272100.0 -0.2390526571 0.9680172413
4700271800.0 -0.2258389865 0.9715396387
4750271500.0 -0.2141099458 0.9744925804
4800271200.0 -0.2015088503 0.9770236379
4850270900.0 -0.18774502 0.9799375526
4900270600.0 -0.1737874514 0.9824506922
4950270300.0 -0.1594504863 0.9850489678
5000270000.0 -0.1452067382 0.9870201002
5050269700.0 -0.1317073944 0.9886216356
5100269400.0 -0.1178409022 0.9905900152
5150269100.0 -0.1047375942 0.9920104855
5200268800.0 -0.0912850661 0.9927565521
5250268500.0 -0.0780798845 0.9934386331
5300268200.0 -0.065014495 0.9945313776
5350267900.0 -0.0528477184 0.9949375132
5400267600.0 -0.0364482649 0.9961271848
5450267300.0 -0.023347172 0.9967663555
5500267000.0 -0.008255843 0.9971744059
5550266700.0 0.0065687479 0.997327921
5600266400.0 0.0221722297 0.9970078558
5650266100.0 0.0388808116 0.9970590434
5700265800.0 0.0533607886 0.9963194697
5750265500.0 0.0684855949 0.9954191537
5800265200.0 0.0823259183 0.9941616328
5850264900.0 0.0954670709 0.9933751513
5900264600.0 0.1121471654 0.9919559533
5950264300.0 0.1242125434 0.9900155773
6000264000.0 0.1382415823 0.988643886
6050263700.0 0.1502756547 0.9867779483
6100263400.0 0.1628040715 0.9850916944
6150263100.0 0.1773236168 0.9827524156
6200262800.0 0.1876840912 0.9810673367
6250262500.0 0.20022389 0.9785906265
6300262200.0 0.2130265853 0.9760400411
6350261900.0 0.2259136056 0.9730457488
6400261600.0 0.2398731139 0.9696303952
6450261300.0 0.2512747002 0.9670559458
6500261000.0 0.2639741433 0.9633297947
6550260700.0 0.2772910605 0.9595186232
6600260400.0 0.2904712226 0.9554532783
6650260100.0 0.3044861638 0.9511757837
6700259800.0 0.3167235226 0.9471176315
6750259500.0 0.330288849 0.9416754877
6800259200.0 0.3433789542 0.9365533214
6850258900.0 0.355529586 0.9317085891
6900258600.0 0.3677149874 0.9266640256
6950258300.0 0.3802377508 0.9211946775
7000258000.0 0.3924373154 0.9160913569
7050257700.0 0.4044888159 0.9100081131
7100257400.0 0.4173028547 0.9037495049
7150257100.0 0.4277078645 0.8985085704
7200256800.0 0.4405794476 0.8917988353
7250256500.0 0.4524567405 0.8857246508
7300256200.0 0.4656556526 0.8790615864
7350255900.0 0.4778786544 0.8718161546
7400255600.0 0.4912944586 0.8649901344
7450255300.0 0.5067653916 0.8555025673
7500255000.0 0.518295053 0.8486566326
7550254700.0 0.5324038503 0.8399832313
7600254400.0 0.5453153041 0.8318583543
7650254100.0 0.5568135223 0.8240333181
7700253800.0 0.5687482662 0.8160152493
7750253500.0 0.5795757743 0.8084961624
7800253200.0 0.5901851869 0.8005157255
7850252900.0 0.6000998858 0.7935469851
7900252600.0 0.6116162926 0.7849573883
7950252300.0 0.6202495912 0.778326752
8000252000.0 0.630354949 0.7707012334
8050251700.0 0.6407708789 0.7625730193
8100251400.0 0.6510932641 0.7543958846
8150251100.0 0.6614141438 0.7456098062
8200250800.0 0.6706203732 0.7379255539
8250250500.0 0.6792727951 0.7299438821
8300250200.0 0.6888033971 0.7213020912
8350249900.0 0.69782323 0.7127167695
8400249600.0 0.7059468999 0.7045428795
8450249300.0 0.7151727453 0.6954482333
8500249000.0 0.7235387492 0.6866514662
8550248700.0 0.7320559761 0.6774360872
8600248400.0 0.740517416 0.6680005894
8650248100.0 0.7483438778 0.6585743772
8700247800.0 0.7577097409 0.6473033576
8750247500.0 0.7662318387 0.6370907362
8800247200.0 0.7742675192 0.6266944294
8850246900.0 0.7828834218 0.6152336919
8900246600.0 0.7913640221 0.6039743338
8950246300.0 0.8012956156 0.5908599366
9000246000.0 0.8102909787 0.5785172913
9050245700.0 0.8194000156 0.565624906
9100245400.0 0.8276874762 0.5529765309
9150245100.0 0.8371911299 0.5395743125
9200244800.0 0.8468149421 0.5246506493
9250244500.0 0.8563188773 0.5091439986
9300244200.0 0.864383143 0.4949462868
9350243900.0 0.8721449476 0.4811608372
9400243600.0 0.8788831312 0.4688517096
9450243300.0 0.8846757183 0.4575145968
9500243000.0 0.890967206 0.4454035802
9550242700.0 0.8947708965 0.4376741415
9600242400.0 0.8987023636 0.4304534746
9650242100.0 0.902513219 0.4237610978
9700241800.0 0.9070564356 0.415734954
9750241500.0 0.9113245574 0.4079007695
9800241200.0 0.9160457266 0.3987594569
9850240900.0 0.9217794124 0.3869480605
9900240600.0 0.9275188873 0.3754345993
9950240300.0 0.9342142613 0.359010189
10000240000.0 0.9388872571 0.3473191908
10050239700.0 0.9443332268 0.3320413571
10100239400.0 0.9495861024 0.3164427315
10150239100.0 0.954015045 0.3020709647
10200238800.0 0.9579714029 0.2868288683
10250238500.0 0.9613130901 0.2732813477
10300238200.0 0.9644453108 0.2592052505
10350237900.0 0.9671367988 0.2462033853
10400237600.0 0.9697948867 0.2329072303
10450237300.0 0.972496532 0.2192707815
10500237000.0 0.9748575063 0.2071643759
10550236700.0 0.9769828609 0.1930406866
10600236400.0 0.9792523045 0.1791312892
10650236100.0 0.9810374837 0.1643914717
10700235800.0 0.9835016479 0.152285518
10750235500.0 0.9854314844 0.1385918528
10800235200.0 0.9877216497 0.1248825771
10850234900.0 0.9895874111 0.1101241581
10900234600.0 0.9919450049 0.0954727963
10950234300.0 0.9933730782 0.0823722292
11000234000.0 0.9951585625 0.0671707263
11050233700.0 0.9969136378 0.0510089238
11100233400.0 0.9985251731 0.0332880929
11150233100.0 0.9995835606 0.0172049032
11200232800.0 1.000275945 0.0016991133
11250232500.0 1.001230253 -0.0152844648
11300232200.0 1.001845891 -0.0329090554
11350231900.0 1.002014413 -0.0489349999
11400231600.0 1.00168827 -0.0643926839
11450231300.0 1.001996313 -0.080459113
11500231000.0 1.000191443 -0.0955484844
11550230700.0 0.9986598294 -0.1088838367
11600230400.0 0.997633286 -0.1218134084
11650230100.0 0.9955830306 -0.1327772264
11700229800.0 0.9933823663 -0.1485392209
11750229500.0 0.9910437683 -0.1620038009
11800229200.0 0.9884278377 -0.1756103242
11850228900.0 0.9846281875 -0.1879173896
11900228600.0 0.9810223 -0.1976402651
11950228300.0 0.9778367299 -0.2080966169
12000228000.0 0.9755411121 -0.2164616552
12050227700.0 0.9715124688 -0.2301093717
12100227400.0 0.9679412788 -0.2407250468
12150227100.0 0.9632336711 -0.2580997724
12200226800.0 0.9592967629 -0.2691760838
12250226500.0 0.9555347377 -0.2815171254
12300226200.0 0.951944545 -0.2932187458
12350225900.0 0.9463779023 -0.3075786713
12400225600.0 0.9424647768 -0.3207452523
12450225300.0 0.9378810228 -0.3334292392
12500225000.0 0.9325371773 -0.3478460357
12550224700.0 0.926959867 -0.3620232408
12600224400.0 0.922051535 -0.3747874939
12650224100.0 0.9161483224 -0.3894058317
12700223800.0 0.9108858374 -0.4022532613
12750223500.0 0.905581955 -0.4150605684
12800223200.0 0.9001212471 -0.4278517752
12850222900.0 0.8950059372 -0.4397267021
12900222600.0 0.8890541574 -0.4522991035
12950222300.0 0.8830398672 -0.4646017107
13000222000.0 0.8771487763 -0.4759998636
13050221700.0 0.8699960211 -0.4887148204
13100221400.0 0.8638022496 -0.5008878466
13150221100.0 0.8565862133 -0.5136352499
13200220800.0 0.8496428924 -0.5243944403
13250220500.0 0.8426592687 -0.5368687128
13300220200.0 0.8352615597 -0.5477997237
13350219900.0 0.8270878517 -0.5594690527
13400219600.0 0.8188443568 -0.5714120519
13450219300.0 0.8096294626 -0.5849329609
13500219000.0 0.7990960704 -0.5987715754
13550218700.0 0.7894635268 -0.611057218
13600218400.0 0.7793200841 -0.6236229914
13650218100.0 0.7694484335 -0.6348329558
13700217800.0 0.7586852653 -0.6469310757
13750217500.0 0.7490150932 -0.6581023863
13800217200.0 0.7379437036 -0.6697431821
13850216900.0 0.7265200744 -0.6808380947
13900216600.0 0.7173332314 -0.690251454
13950216300.0 0.7051613946 -0.700168298
14000216000.0 0.6960459221 -0.709478484
14050215700.0 0.6864472355 -0.7177718899
14100215400.0 0.6765939091 -0.7270238489
14150215100.0 0.6673931342 -0.7355532139
14200214800.0 0.6579742463 -0.7444739155
14250214500.0 0.6476848496 -0.7539718457
14300214200.0 0.6373239215 -0.7632726618
14350213900.0 0.6259625083 -0.7728302394
14400213600.0 0.6143620844 -0.7827601555
14450213300.0 0.6012252997 -0.7928962578
14500213000.0 0.5883245762 -0.8028649121
14550212700.0 0.575820916 -0.8123482929
14600212400.0 0.5630099227 -0.8204985306
14650212100.0 0.5505074231 -0.8300002539
14700211800.0 0.5364913649 -0.8395916757
14750211500.0 0.5245144886 -0.8477325127
14800211200.0 0.5124597191 -0.8556878136
14850210900.0 0.4999673474 -0.8631228677
14900210600.0 0.4866581509 -0.8710277273
14950210300.0 0.4734056641 -0.8786045917
15000210000.0 0.4605269447 -0.8852008877
15050209700.0 0.4486633427 -0.8912742323
15100209400.0 0.4356448211 -0.8976115275
15150209100.0 0.423228882 -0.9027510866
15200208800.0 0.4107741963 -0.9081327186
15250208500.0 0.3992243213 -0.912697928
15300208200.0 0.3877608979 -0.9176123785
15350207900.0 0.3737408278 -0.9216144071
15400207600.0 0.3600832281 -0.9278807909
15450207300.0 0.3445216433 -0.9323115273
15500207000.0 0.3305823986 -0.9373432585
15550206700.0 0.3158460847 -0.9420115838
15600206400.0 0.2996287098 -0.9466622489
15650206100.0 0.2840716824 -0.9512985049
15700205800.0 0.2699943117 -0.954664224
15750205500.0 0.2555912385 -0.9579335465
15800205200.0 0.2412858882 -0.9616929654
15850204900.0 0.2268314477 -0.9652075046
15900204600.0 0.2118055025 -0.9688557836
15950204300.0 0.1974858666 -0.9716597725
16000204000.0 0.183093329 -0.9747125056
16050203700.0 0.1681862139 -0.9773882357
16100203400.0 0.1538487788 -0.9798345956
16150203100.0 0.1390317293 -0.9825798205
16200202800.0 0.1245626907 -0.984604693
16250202500.0 0.1100089011 -0.9864168277
16300202200.0 0.0950105672 -0.9879416783
16350201900.0 0.0798396869 -0.9891211341
16400201600.0 0.065022283 -0.990285251
16450201300.0 0.0498485642 -0.9913317142
16500201000.0 0.0331198571 -0.9920867
16550200700.0 0.0175855392 -0.9926523677
16600200400.0 0.0018535763 -0.99296647
16650200100.0 -0.0141577404 -0.992979884
16700199800.0 -0.0303458552 -0.9928965878
16750199500.0 -0.0489042082 -0.9920515985
16800199200.0 -0.0649741943 -0.9916910964
16850198900.0 -0.0795929892 -0.9893144257
16900198600.0 -0.0935234355 -0.9890423836
16950198300.0 -0.1071519521 -0.9880819897
17000198000.0 -0.1197415203 -0.9862489339
17050197700.0 -0.1331471146 -0.9839747726
17100197400.0 -0.1457828829 -0.9823508308
17150197100.0 -0.1585536471 -0.9805214602
17200196800.0 -0.1714820253 -0.9783051782
17250196500.0 -0.1842550632 -0.975782998
17300196200.0 -0.1965294043 -0.9734766465
17350195900.0 -0.2083123387 -0.9711128804
17400195600.0 -0.2204623807 -0.9686699784
17450195300.0 -0.2335773232 -0.96598928
17500195000.0 -0.2471072127 -0.9626380501
17550194700.0 -0.2606786322 -0.9589626125
17600194400.0 -0.2748398555 -0.9550998459
17650194100.0 -0.2886882926 -0.9511749086
17700193800.0 -0.3018174148 -0.9469780789
17750193500.0 -0.3158774239 -0.9421992131
17800193200.0 -0.3307104754 -0.9370664631
17850192900.0 -0.3454361818 -0.9317617373
17900192600.0 -0.3606016591 -0.9255906252
17950192300.0 -0.3763244505 -0.9185251908
18000192000.0 -0.3910702299 -0.9113705177
18050191700.0 -0.4049706445 -0.9034618694
18100191400.0 -0.4191340386 -0.8958756556
18150191100.0 -0.4341568886 -0.8877910832
18200190800.0 -0.4511194426 -0.8788262921
18250190500.0 -0.468103357 -0.8693625202
18300190200.0 -0.4837155771 -0.860464225
18350189900.0 -0.4984922008 -0.8521705931
18400189600.0 -0.5129550209 -0.8433901947
18450189300.0 -0.5261764779 -0.8363352834
18500189000.0 -0.5392202228 -0.8284845209
18550188700.0 -0.5525572576 -0.8205899979
18600188400.0 -0.5640263675 -0.8140386796
18650188100.0 -0.5750338271 -0.8072744645
18700187800.0 -0.5856508834 -0.8010822935
18750187500.0 -0.5962096671 -0.7941678058
18800187200.0 -0.6068705046 -0.7874054441
18850186900.0 -0.6170403668 -0.7803197595
18900186600.0 -0.6272251357 -0.7729757063
18950186300.0 -0.6372538537 -0.7654295825
19000186000.0 -0.6441475748 -0.7593661278
19050185700.0 -0.6540060239 -0.7523249228
19100185400.0 -0.6638877534 -0.7437542845
19150185100.0 -0.6738060787 -0.7355653427
19200184800.0 -0.6830960817 -0.727178502
19250184500.0 -0.6931201977 -0.7183198515
19300184200.0 -0.7052143015 -0.7084634447
19350183900.0 -0.7150018367 -0.6986014225
19400183600.0 -0.7259393434 -0.6889128192
19450183300.0 -0.7340712596 -0.6781567385
19500183000.0 -0.7420999255 -0.6687477215
19550182700.0 -0.7525409223 -0.6572690162
19600182400.0 -0.763055138 -0.6458886004
19650182100.0 -0.7734653706 -0.6337353992
19700181800.0 -0.7842742565 -0.6201554381
19750181500.0 -0.7949608677 -0.60611355
19800181200.0 -0.8055144094 -0.591116692
19850180900.0 -0.8150498407 -0.5758394948
19900180600.0 -0.823160115 -0.5612692215
19950180300.0 -0.8325347434 -0.5448415767
20000180000.0 -0.8256238599 -0.5470316961
20050179700.0 -0.8334552967 -0.5345899728
20100179400.0 -0.8424736018 -0.5205971519
20150179100.0 -0.8503424441 -0.5076924616
20200178800.0 -0.8590677286 -0.4953539704
20250178500.0 -0.8687478904 -0.4819473647
20300178200.0 -0.8776616549 -0.4675536807
20350177900.0 -0.8875212036 -0.4531550199
20400177600.0 -0.8961719827 -0.4391676948
20450177300.0 -0.9043675148 -0.4244059671
20500177000.0 -0.912452748 -0.4104397683
20550176700.0 -0.9203142102 -0.3972864676
20600176400.0 -0.9271727576 -0.3843244413
20650176100.0 -0.933703583 -0.3713020555
20700175800.0 -0.9407322702 -0.359834472
20750175500.0 -0.9468245274 -0.3482218046
20800175200.0 -0.9511206637 -0.3371919362
20850174900.0 -0.9553856419 -0.3262183067
20900174600.0 -0.9616356767 -0.3153012699
20950174300.0 -0.9648648428 -0.3039637054
21000174000.0 -0.9669434264 -0.293003708
21050173700.0 -0.9711558106 -0.2822647366
21100173400.0 -0.9745580174 -0.270398642
21150173100.0 -0.9794081528 -0.2575687143
21200172800.0 -0.9825472208 -0.2440104929
21250172500.0 -0.9857537278 -0.2309021482
21300172200.0 -0.9883263595 -0.2164534883
21350171900.0 -0.9899069614 -0.2023870905
21400171600.0 -0.9912697757 -0.1874854346
21450171300.0 -0.9926856448 -0.1738108719
21500171000.0 -0.991550942 -0.1576968947
21550170700.0 -0.9916308373 -0.1436294565
21600170400.0 -0.9923822981 -0.1267870992
21650170100.0 -0.9917964061 -0.1107935217
21700169800.0 -0.989773047 -0.0960319964
21750169500.0 -0.9888664643 -0.0804702613
21800169200.0 -0.9886362423 -0.0638588917
21850168900.0 -0.9876343766 -0.0463679711
21900168600.0 -0.9859797368 -0.0302296532
21950168300.0 -0.9853309164 -0.0144479022
22000168000.0 -0.9842545982 0.0001751211
22050167700.0 -0.9845518982 0.0145282134
22100167400.0 -0.9845478943 0.0300280053
22150167100.0 -0.9850206248 0.0457595338
22200166800.0 -0.9854748813 0.0615875218
22250166500.0 -0.9846782059 0.079600705
22300166200.0 -0.9848358465 0.0963412578
22350165900.0 -0.9827424209 0.1116733296
22400165600.0 -0.9818027845 0.1281783194
22450165300.0 -0.9793510035 0.1433292915
22500165000.0 -0.9774481482 0.1568618448
22550164700.0 -0.975975547 0.1723735088
22600164400.0 -0.9750748562 0.187951274
22650164100.0 -0.9719933572 0.2022587427
22700163800.0 -0.9702149751 0.2187496405
22750163500.0 -0.9669109544 0.2336741174
22800163200.0 -0.9647557709 0.2470214317
22850162900.0 -0.9624448402 0.2599226363
22900162600.0 -0.9607332846 0.2736766113
22950162300.0 -0.9593267376 0.2865065926
23000162000.0 -0.9581713803 0.298591139
23050161700.0 -0.9558440776 0.3109302372
23100161400.0 -0.9542967694 0.3238741682
23150161100.0 -0.950766499 0.3365992139
23200160800.0 -0.9480031823 0.3483930689
23250160500.0 -0.9453787849 0.3600036172
23300160200.0 -0.9429442238 0.3722803804
23350159900.0 -0.9386712753 0.3862877683
23400159600.0 -0.9335881721 0.3990588372
23450159300.0 -0.9292773461 0.4127032452
23500159000.0 -0.9246307833 0.4261643801
23550158700.0 -0.9206970581 0.4390152668
23600158400.0 -0.9147581427 0.4527940865
23650158100.0 -0.9085723549 0.4666751611
23700157800.0 -0.9006866192 0.4807937292
23750157500.0 -0.891964526 0.4947788027
23800157200.0 -0.8833095172 0.5081223964
23850156900.0 -0.8742510924 0.520736558
23900156600.0 -0.8646064744 0.5336652805
23950156300.0 -0.8562826942 0.5458989776
24000156000.0 -0.8465956994 0.5576132533
24050155700.0 -0.8362942502 0.5696171354
24100155400.0 -0.8267334891 0.5817008619
24150155100.0 -0.815903322 0.5932069999
24200154800.0 -0.8049033411 0.604188975
24250154500.0 -0.7942607164 0.6166866245
24300154200.0 -0.782449665 0.6282213018
24350153900.0 -0.7707603575 0.6387512012
24400153600.0 -0.7584990479 0.6489954722
24450153300.0 -0.7464671138 0.6591864035
24500153000.0 -0.7351683214 0.6686711986
24550152700.0 -0.7238928208 0.6782705711
24600152400.0 -0.71215751 0.687664161
24650152100.0 -0.7007481381 0.6964840983
