!Created with skrf (http://scikit-rf.org).
# Hz S RI R 50.0 
!freq ReS11 ImS11
300000.0 -0.9948662559 -0.0512125911
50299700.0 -0.9995016188 0.0163766744
100299400.0 -0.9974301518 0.0290208807
150299100.0 -1.002143616 0.0458164037
200298800.0 -0.9991034744 0.0590050767
250298500.0 -0.9967776163 0.0724781238
300298200.0 -0.9851759133 0.0884721674
350297900.0 -0.9933193236 0.0992098055
400297600.0 -0.9923438643 0.1154914718
450297300.0 -0.9900945215 0.1293591797
500297000.0 -0.9883376831 0.1440294061
550296700.0 -0.9833794903 0.156249366
600296400.0 -1.016091776 0.1896298225
650296100.0 -0.9810694615 0.1861958474
700295800.0 -0.9782721931 0.2005480435
750295500.0 -0.9752319951 0.2144893229
800295200.0 -0.9718979101 0.2285293403
850294900.0 -0.9681442325 0.24215081
900294600.0 -0.9645720934 0.2558879109
950294300.0 -0.9608826279 0.2694946856
1000294000.0 -0.9567836423 0.2834685808
1050293700.0 -0.9525244802 0.297163969
1100293400.0 -0.9481526088 0.3115771224
1150293100.0 -0.9443427749 0.3234272794
1200292800.0 -0.9391357868 0.3377822457
1250292500.0 -0.9336876194 0.3510213036
1300292200.0 -0.9281146474 0.3641284777
1350291900.0 -0.9225458061 0.3783749921
1400291600.0 -0.917228794 0.3912673434
1450291300.0 -0.911853836 0.4035501875
1500291000.0 -0.905348697 0.4168907039
1550290700.0 -0.8991847937 0.4303417028
1600290400.0 -0.8929046061 0.4431780329
1650290100.0 -0.886393158 0.4551027048
1700289800.0 -0.879575974 0.4685705924
1750289500.0 -0.8727249568 0.4810776718
1800289200.0 -0.8652415262 0.4935885967
1850288900.0 -0.858657526 0.5049494276
1900288600.0 -0.8509777408 0.5180097307
1950288300.0 -0.8428941664 0.530593133
2000288000.0 -0.8354827495 0.5417532822
2050287700.0 -0.8271173428 0.5542959521
2100287400.0 -0.8191798648 0.5658295321
2150287100.0 -0.8106617299 0.5781683071
2200286800.0 -0.8028996521 0.5882343769
2250286500.0 -0.7942786546 0.6004715996
2300286200.0 -0.785157433 0.6117882213
2350285900.0 -0.7765329987 0.6230640116
2400285600.0 -0.767546142 0.6341633309
2450285300.0 -0.7587556898 0.6445171115
2500285000.0 -0.7491427526 0.6554959745
2550284700.0 -0.7401193438 0.6658666677
2600284400.0 -0.7304562869 0.6760614698
2650284100.0 -0.7217753569 0.6863386786
2700283800.0 -0.7112284361 0.6970434525
2750283500.0 -0.7007642231 0.7072058055
2800283200.0 -0.6908530918 0.7171430006
2850282900.0 -0.680995641 0.7271453706
2900282600.0 -0.6702359551 0.7363984458
2950282300.0 -0.660383303 0.7457484847
3000282000.0 -0.6498272309 0.755297051
3050281700.0 -0.6386410749 0.7645327605
3100281400.0 -0.6273669859 0.7734364072
3150281100.0 -0.6160022414 0.7825629033
3200280800.0 -0.6042247856 0.7913221251
3250280500.0 -0.5935237987 0.7992954049
3300280200.0 -0.58217009 0.8076593921
3350279900.0 -0.5710164832 0.8149907983
3400279600.0 -0.5587325213 0.8228601422
3450279300.0 -0.5474803173 0.8303974372
3500279000.0 -0.5356741048 0.8372847218
3550278700.0 -0.5234660143 0.8448388326
3600278400.0 -0.5118556926 0.851876497
3650278100.0 -0.4987084568 0.859557613
3700277800.0 -0.4867470106 0.8660288695
3750277500.0 -0.4744107539 0.872757654
3800277200.0 -0.4619259862 0.8793530668
3850276900.0 -0.4496725789 0.8853225499
3900276600.0 -0.4384227091 0.8913407193
3950276300.0 -0.4255632694 0.8974611063
4000276000.0 -0.4136014702 0.9034900643
4050275700.0 -0.4001250846 0.9096694024
4100275400.0 -0.388761237 0.9151257413
4150275100.0 -0.3758487732 0.9208570545
4200274800.0 -0.362315317 0.9263485572
4250274500.0 -0.3502350107 0.9312960824
4300274200.0 -0.3370781624 0.9360889952
4350273900.0 -0.3237289528 0.9413747124
4400273600.0 -0.3096046919 0.9463950383
4450273300.0 -0.2948180149 0.9511602577
4500273000.0 -0.281491401 0.9553379753
4550272700.0 -0.2679292167 0.959389667
4600272400.0 -0.2525389422 0.9635171889
4650272100.0 -0.240481505 0.9668672328
4700271800.0 -0.2270096953 0.9702821951
4750271500.0 -0.2145623001 0.9731105537
4800271200.0 -0.2015787436 0.9759748412
4850270900.0 -0.187836545 0.9787303358
4900270600.0 -0.1743228812 0.9810814827
4950270300.0 -0.160718118 0.983699735
5000270000.0 -0.1464989517 0.9855568177
5050269700.0 -0.1329361294 0.9874738967
5100269400.0 -0.1191158193 0.9894042428
5150269100.0 -0.1056551205 0.9908653984
5200268800.0 -0.0923209533 0.9923094284
5250268500.0 -0.0788591108 0.9932576861
5300268200.0 -0.0658723417 0.9938366567
5350267900.0 -0.0535321802 0.994556112
5400267600.0 -0.0374750768 0.9958501908
5450267300.0 -0.0249914104 0.9961087353
5500267000.0 -0.0102043313 0.9965101806
5550266700.0 0.003849348 0.9966804845
5600266400.0 0.0186745625 0.9965544815
5650266100.0 0.0346613444 0.9963106155
5700265800.0 0.0487152418 0.9955013741
5750265500.0 0.0635908967 0.9951207999
5800265200.0 0.0775358782 0.9943330968
5850264900.0 0.090603395 0.9929956312
5900264600.0 0.1069285764 0.9912606988
5950264300.0 0.1192855753 0.9895670738
6000264000.0 0.1334535537 0.9882068985
6050263700.0 0.14591543 0.9862672881
6100263400.0 0.1590058748 0.9844972467
6150263100.0 0.1740848756 0.9820817716
6200262800.0 0.1848848921 0.9800223548
6250262500.0 0.1979076995 0.9773953925
6300262200.0 0.2106974188 0.9748935013
6350261900.0 0.2236018023 0.9719490704
6400261600.0 0.2378387272 0.9686138123
6450261300.0 0.2498456905 0.9659092861
6500261000.0 0.2625274086 0.9623904547
6550260700.0 0.2753078877 0.9583525295
6600260400.0 0.2885759827 0.9547077496
6650260100.0 0.3022391203 0.9502468656
6700259800.0 0.3146456063 0.9460528049
6750259500.0 0.328256169 0.9415764615
6800259200.0 0.3414089202 0.9366657903
6850258900.0 0.3536553333 0.9319032492
6900258600.0 0.3659769405 0.9270052696
6950258300.0 0.378376534 0.9215589266
7000258000.0 0.3905710862 0.9164846324
7050257700.0 0.4026583789 0.9105631234
7100257400.0 0.4162136198 0.9044134978
7150257100.0 0.4265971819 0.8993702919
7200256800.0 0.4394133726 0.8930710584
7250256500.0 0.4508465615 0.8869096156
7300256200.0 0.4635614746 0.8806020046
7350255900.0 0.4759706617 0.8739574867
7400255600.0 0.487826353 0.8675064012
7450255300.0 0.501940858 0.8587283921
7500255000.0 0.5138645011 0.8521978659
7550254700.0 0.5267172226 0.8442499373
7600254400.0 0.5390700867 0.8365467155
7650254100.0 0.5506033206 0.8286376474
7700253800.0 0.5623136432 0.8205802569
7750253500.0 0.5737518021 0.8130224221
7800253200.0 0.5849431081 0.8048279653
7850252900.0 0.5946062871 0.7977300774
7900252600.0 0.6064942981 0.7889629084
7950252300.0 0.6158709461 0.7817998786
8000252000.0 0.6264204753 0.7738225296
8050251700.0 0.6370594821 0.7652905164
8100251400.0 0.6469497805 0.7570008683
8150251100.0 0.6574283088 0.7480285911
8200250800.0 0.6669372642 0.7400250249
8250250500.0 0.676180067 0.7314772097
8300250200.0 0.686161725 0.7225867353
8350249900.0 0.6953602775 0.7138328748
8400249600.0 0.7039087158 0.7053074372
8450249300.0 0.7134801907 0.6959487958
8500249000.0 0.7222415154 0.6867552809
8550248700.0 0.7313775488 0.6772687715
8600248400.0 0.7400711193 0.6673542803
8650248100.0 0.7478536304 0.6581526474
8700247800.0 0.757366479 0.6472627845
8750247500.0 0.7656584832 0.6372570832
8800247200.0 0.7739073012 0.6271165383
8850246900.0 0.7825302908 0.6162199662
8900246600.0 0.7907896197 0.605194765
8950246300.0 0.7997589881 0.592963762
9000246000.0 0.8085014028 0.5815174591
9050245700.0 0.8170570512 0.5693421304
9100245400.0 0.8251631023 0.557339656
9150245100.0 0.8336778399 0.5448097731
9200244800.0 0.8422251909 0.5317147982
9250244500.0 0.8512940153 0.5178925426
9300244200.0 0.8584933873 0.5048378293
9350243900.0 0.866423579 0.4914425136
9400243600.0 0.8733580263 0.478912043
9450243300.0 0.8795543921 0.4671429032
9500243000.0 0.8866645442 0.4537947145
9550242700.0 0.8918046385 0.4433313981
9600242400.0 0.8966975027 0.4335256646
9650242100.0 0.9012652291 0.4249580086
9700241800.0 0.9060833312 0.4154021331
9750241500.0 0.9105642091 0.4058671022
9800241200.0 0.9157101112 0.3953379253
9850240900.0 0.9207378582 0.3837046546
9900240600.0 0.9258529833 0.3733200383
9950240300.0 0.9320622316 0.3579911874
10000240000.0 0.9369082509 0.3460436543
10050239700.0 0.9423287808 0.3312927842
10100239400.0 0.9471987795 0.3168963997
10150239100.0 0.9512676314 0.3030560719
10200238800.0 0.9556538449 0.2884833353
10250238500.0 0.9594093638 0.2750908056
10300238200.0 0.9628382675 0.2611948397
10350237900.0 0.9658002799 0.2481436456
10400237600.0 0.9688080506 0.2345118114
10450237300.0 0.9716410307 0.221288696
10500237000.0 0.9741188327 0.2089881134
10550236700.0 0.9765174 0.195239744
10600236400.0 0.9791225303 0.181389709
10650236100.0 0.9812333809 0.1672828301
10700235800.0 0.9837771113 0.1545858907
10750235500.0 0.9853979351 0.1416344417
10800235200.0 0.9879266691 0.1275916071
10850234900.0 0.9893318348 0.1136733235
10900234600.0 0.9913246009 0.0993194105
10950234300.0 0.9928899387 0.086077458
11000234000.0 0.9943732562 0.0719088845
11050233700.0 0.9958487053 0.0570141424
11100233400.0 0.9970882241 0.0407654398
11150233100.0 0.9982005744 0.0249063942
11200232800.0 0.9985796186 0.011295951
11250232500.0 0.9992057885 -0.0045122912
11300232200.0 0.9998162246 -0.0215938849
11350231900.0 0.9992270185 -0.0370571083
11400231600.0 0.9992265349 -0.0526060664
11450231300.0 0.9979134419 -0.0663828104
11500231000.0 0.9974144539 -0.0823854431
11550230700.0 0.9961528388 -0.0960843979
11600230400.0 0.9950924299 -0.1101923264
11650230100.0 0.9931709225 -0.1213530075
11700229800.0 0.9914916529 -0.136582271
11750229500.0 0.989298972 -0.1503698748
11800229200.0 0.9869551521 -0.164653014
11850228900.0 0.9839586611 -0.1783153481
11900228600.0 0.9806657277 -0.1900083171
11950228300.0 0.9776921542 -0.2021586391
12000228000.0 0.9748467193 -0.2125788487
12050227700.0 0.9711937861 -0.2260694832
12100227400.0 0.9685650138 -0.236561713
12150227100.0 0.9639069796 -0.2545856999
12200226800.0 0.9603345558 -0.2650270985
12250226500.0 0.9568676685 -0.2776691454
12300226200.0 0.9527070621 -0.2900842195
12350225900.0 0.9482847908 -0.3038936917
12400225600.0 0.9442640204 -0.3168891928
12450225300.0 0.9399593542 -0.3288331299
12500225000.0 0.9345665776 -0.3425601415
12550224700.0 0.9296589138 -0.3574617867
12600224400.0 0.9246435887 -0.3695838056
12650224100.0 0.9190823441 -0.3837428119
12700223800.0 0.913948379 -0.3962833488
12750223500.0 0.9083862713 -0.4093082609
12800223200.0 0.9027023771 -0.4220698005
12850222900.0 0.8973622483 -0.4340621086
12900222600.0 0.8916273847 -0.4459113851
12950222300.0 0.8850438019 -0.4590636524
13000222000.0 0.8789099959 -0.4711655554
13050221700.0 0.8720052312 -0.4839986548
13100221400.0 0.8652944302 -0.4959148484
13150221100.0 0.8582606878 -0.5085273117
13200220800.0 0.8513647555 -0.5200335653
13250220500.0 0.8439487233 -0.5322625855
13300220200.0 0.8365897042 -0.5436489086
13350219900.0 0.8282369191 -0.5560108024
13400219600.0 0.8201575829 -0.5678054343
13450219300.0 0.8112260013 -0.580714261
13500219000.0 0.8018532775 -0.5937865133
13550218700.0 0.7923253409 -0.6057778631
13600218400.0 0.7829338717 -0.6176903244
13650218100.0 0.7740365835 -0.6284757375
13700217800.0 0.7631715859 -0.6408683696
13750217500.0 0.7535116483 -0.6524640673
13800217200.0 0.742311319 -0.6640046696
13850216900.0 0.7317356533 -0.6759520501
13900216600.0 0.7221346167 -0.6849536233
13950216300.0 0.7114752047 -0.6962617599
14000216000.0 0.7020297656 -0.7051123696
14050215700.0 0.6927435629 -0.7137524106
14100215400.0 0.6819127362 -0.7234839762
14150215100.0 0.6727055914 -0.7325089388
14200214800.0 0.6633211209 -0.7413521215
14250214500.0 0.6529180196 -0.7507382742
14300214200.0 0.6422985159 -0.7600637381
14350213900.0 0.6314660743 -0.7695982236
14400213600.0 0.6201073099 -0.7790559015
14450213300.0 0.6078127301 -0.7885416173
14500213000.0 0.595516999 -0.7974922744
14550212700.0 0.5837041183 -0.8071628603
14600212400.0 0.5714884058 -0.8154606134
14650212100.0 0.5588752659 -0.8242034699
14700211800.0 0.5457013831 -0.8334252784
14750211500.0 0.5330433006 -0.8416613213
14800211200.0 0.5207584792 -0.8493852118
14850210900.0 0.5087931807 -0.8572139298
14900210600.0 0.4954777273 -0.8650372435
14950210300.0 0.4822855777 -0.8727277136
15000210000.0 0.4695449125 -0.8797817205
15050209700.0 0.4566378612 -0.8864065733
15100209400.0 0.4435855927 -0.8929362743
15150209100.0 0.4316977283 -0.8985793387
15200208800.0 0.4176954236 -0.9044436603
15250208500.0 0.4056686144 -0.9098992369
15300208200.0 0.3931114034 -0.9145963022
15350207900.0 0.3795975545 -0.9198627292
15400207600.0 0.3653080645 -0.9262067181
15450207300.0 0.3512972391 -0.9311304229
15500207000.0 0.3368475785 -0.9361143513
15550206700.0 0.322703119 -0.9414611931
15600206400.0 0.3074044552 -0.9454346427
15650206100.0 0.2920698826 -0.9495265186
15700205800.0 0.2787800357 -0.953837353
15750205500.0 0.2640888723 -0.9575479783
15800205200.0 0.2501443786 -0.9611838434
15850204900.0 0.2361713897 -0.9646102783
15900204600.0 0.2212716914 -0.9684044862
15950204300.0 0.2072044912 -0.9713325304
16000204000.0 0.1933755317 -0.974321578
16050203700.0 0.1785493808 -0.9772510336
16100203400.0 0.1642953639 -0.9797492264
16150203100.0 0.1496540261 -0.9822232244
16200202800.0 0.1357593223 -0.9842238904
16250202500.0 0.1214332706 -0.9861129481
16300202200.0 0.1062932772 -0.9875297938
16350201900.0 0.0907791052 -0.9889144186
16400201600.0 0.076205888 -0.990424952
16450201300.0 0.0614842503 -0.9915575899
16500201000.0 0.0454348244 -0.9926589498
16550200700.0 0.0301216493 -0.9933960515
16600200400.0 0.0144499449 -0.9937142386
16650200100.0 -0.0014169614 -0.993905586
16700199800.0 -0.0172232254 -0.9938038915
16750199500.0 -0.0346943115 -0.9934563613
16800199200.0 -0.0504489459 -0.9927095212
16850198900.0 -0.0664152375 -0.9914458316
16900198600.0 -0.0805017317 -0.9905013193
16950198300.0 -0.0946500006 -0.9893414208
17000198000.0 -0.1080388673 -0.9877842445
17050197700.0 -0.1221106558 -0.986329108
17100197400.0 -0.1361632517 -0.984063836
17150197100.0 -0.1495129164 -0.9822737952
17200196800.0 -0.1627271293 -0.9801302782
17250196500.0 -0.1765549253 -0.9777622195
17300196200.0 -0.1893392937 -0.9752703433
17350195900.0 -0.2023405705 -0.9728018191
17400195600.0 -0.215055345 -0.9701540681
17450195300.0 -0.2284422078 -0.9673541738
17500195000.0 -0.2419807569 -0.9640553474
17550194700.0 -0.2559661571 -0.9602627761
17600194400.0 -0.2700201947 -0.9565002047
17650194100.0 -0.2840875383 -0.9522139942
17700193800.0 -0.2967231648 -0.948565545
17750193500.0 -0.3107403279 -0.9441975727
17800193200.0 -0.3245005854 -0.93909636
17850192900.0 -0.3388974414 -0.9340783738
17900192600.0 -0.3537670739 -0.9285162434
17950192300.0 -0.3688528964 -0.9221353204
18000192000.0 -0.3833901392 -0.9153228739
18050191700.0 -0.3973507982 -0.9082101861
18100191400.0 -0.4114220289 -0.9012870837
18150191100.0 -0.4257233547 -0.8939320672
18200190800.0 -0.4412864658 -0.8860378498
18250190500.0 -0.4574579851 -0.8777193549
18300190200.0 -0.4725674472 -0.869821592
18350189900.0 -0.4874743548 -0.8616921975
18400189600.0 -0.5017063123 -0.8539068351
18450189300.0 -0.5149979272 -0.8458381295
18500189000.0 -0.5286946204 -0.8379217571
18550188700.0 -0.5410775659 -0.8302421295
18600188400.0 -0.5539258621 -0.8224002272
18650188100.0 -0.5659339055 -0.8152323432
18700187800.0 -0.5776356796 -0.8077647953
18750187500.0 -0.5883765741 -0.8003813666
18800187200.0 -0.5998756226 -0.7925599369
18850186900.0 -0.6106380411 -0.7846458025
18900186600.0 -0.6214167282 -0.7767640401
18950186300.0 -0.6323920453 -0.768080986
19000186000.0 -0.6408229064 -0.7608930859
19050185700.0 -0.6507898234 -0.7529087921
19100185400.0 -0.6613584464 -0.7443709599
19150185100.0 -0.6715527613 -0.7354680095
19200184800.0 -0.6809506154 -0.7259458901
19250184500.0 -0.6913535396 -0.7166204712
19300184200.0 -0.7017375727 -0.706663123
19350183900.0 -0.7125637399 -0.6978428613
19400183600.0 -0.7216982215 -0.6871100112
19450183300.0 -0.7313619052 -0.6775356896
19500183000.0 -0.7401919853 -0.6665511645
19550182700.0 -0.7491876377 -0.6562591141
19600182400.0 -0.7586967948 -0.6451295127
19650182100.0 -0.7687391786 -0.633449121
19700181800.0 -0.7787534969 -0.6214449693
19750181500.0 -0.7885241385 -0.6086278735
19800181200.0 -0.7983932362 -0.5948930192
19850180900.0 -0.8079303378 -0.5811693199
19900180600.0 -0.8158680529 -0.5680327797
19950180300.0 -0.825511603 -0.5531614026
20000180000.0 -0.8260407992 -0.548562343
20050179700.0 -0.8331589656 -0.5361863528
20100179400.0 -0.8414215018 -0.5225984961
20150179100.0 -0.8501960591 -0.5106858287
20200178800.0 -0.8582991359 -0.4989251875
20250178500.0 -0.8666605556 -0.4847466575
20300178200.0 -0.8755270863 -0.471134199
20350177900.0 -0.8834928504 -0.4581014084
20400177600.0 -0.8916892013 -0.443919175
20450177300.0 -0.8989870327 -0.4303149278
20500177000.0 -0.9062330449 -0.4166709428
20550176700.0 -0.9135747232 -0.4031311047
20600176400.0 -0.9199899744 -0.3899360643
20650176100.0 -0.9262882638 -0.3775453618
20700175800.0 -0.9326070797 -0.3645436355
20750175500.0 -0.9394990862 -0.3528688155
20800175200.0 -0.9441266147 -0.339849728
20850174900.0 -0.9486220635 -0.3290526224
20900174600.0 -0.9534430438 -0.3169690531
20950174300.0 -0.9577493573 -0.3042443066
21000174000.0 -0.9615697847 -0.2920272649
21050173700.0 -0.9639811318 -0.2801864894
21100173400.0 -0.96839793 -0.2673879444
21150173100.0 -0.9719519998 -0.2548380093
21200172800.0 -0.9754517665 -0.2412744797
21250172500.0 -0.9785580021 -0.2273451228
21300172200.0 -0.9823637501 -0.2132428998
21350171900.0 -0.9842210841 -0.1994535027
21400171600.0 -0.9869710652 -0.1851498711
21450171300.0 -0.9878724518 -0.1706902865
21500171000.0 -0.9887224844 -0.1553412702
21550170700.0 -0.9890748765 -0.1417366767
21600170400.0 -0.9924612272 -0.1252319877
21650170100.0 -0.9913636622 -0.1115385566
21700169800.0 -0.9903929426 -0.0956379492
21750169500.0 -0.990254534 -0.0804398486
21800169200.0 -0.9896713056 -0.0641554357
21850168900.0 -0.9903523011 -0.0494583543
21900168600.0 -0.9894625079 -0.0333876021
21950168300.0 -0.9885894121 -0.0174221906
22000168000.0 -0.987937617 -0.0030764269
22050167700.0 -0.9875516048 0.0114915833
22100167400.0 -0.9871878375 0.026505975
22150167100.0 -0.9876523408 0.0411326419
22200166800.0 -0.9873537738 0.0568015718
22250166500.0 -0.9864524998 0.0730201315
22300166200.0 -0.986229976 0.0883762681
22350165900.0 -0.9845576527 0.1037679355
22400165600.0 -0.9826570518 0.1197287625
22450165300.0 -0.9808385446 0.1339126078
22500165000.0 -0.9790422926 0.1477479452
22550164700.0 -0.9775169388 0.1623391942
22600164400.0 -0.9758059163 0.1781774801
22650164100.0 -0.9737268775 0.1914938177
22700163800.0 -0.9716814224 0.2062391181
22750163500.0 -0.9687578138 0.2220533027
22800163200.0 -0.9653611014 0.2346154211
22850162900.0 -0.9628884986 0.2483282881
22900162600.0 -0.9607155757 0.2613490696
22950162300.0 -0.9586012769 0.2746276444
23000162000.0 -0.9568247687 0.2871363872
23050161700.0 -0.9538729817 0.2999431015
23100161400.0 -0.9515805812 0.3131068227
23150161100.0 -0.9480703358 0.325504206
23200160800.0 -0.9451663078 0.3377023919
23250160500.0 -0.9419974005 0.3503607203
23300160200.0 -0.9384972539 0.3627111121
23350159900.0 -0.9346226853 0.3757522801
23400159600.0 -0.9314975315 0.3884280465
23450159300.0 -0.925754524 0.4013800627
23500159000.0 -0.9208009327 0.4137467176
23550158700.0 -0.9161381929 0.4269673779
23600158400.0 -0.9108686925 0.4395755812
23650158100.0 -0.9048797061 0.4526302106
23700157800.0 -0.8977432039 0.465742973
23750157500.0 -0.8902076493 0.4792590461
23800157200.0 -0.8824372281 0.491709127
23850156900.0 -0.8739952771 0.503980802
23900156600.0 -0.8657905447 0.5165028681
23950156300.0 -0.8572401052 0.5288860645
24000156000.0 -0.849208149 0.5407673264
24050155700.0 -0.8399808569 0.5526997075
24100155400.0 -0.8296801097 0.5651073978
24150155100.0 -0.8211786309 0.5763373656
24200154800.0 -0.8106178332 0.5875664135
24250154500.0 -0.800959829 0.599919466
24300154200.0 -0.7906398732 0.6114353219
24350153900.0 -0.7801397462 0.622381909
24400153600.0 -0.7690181621 0.6332559938
24450153300.0 -0.7581287268 0.6437191245
24500153000.0 -0.7476283545 0.65436915
24550152700.0 -0.7375337712 0.6648560517
24600152400.0 -0.7265914565 0.6744503962
