!Created with skrf (http://scikit-rf.org).
# Hz S RI R 50.0 
!freq ReS11 ImS11
300000.0 -0.9736738509 -0.120140626
50299700.0 -1.000054323 0.0152494476
100299400.0 -0.9980698786 0.0283290246
150299100.0 -1.002848957 0.0449310263
200298800.0 -0.9995947882 0.0584003408
250298500.0 -0.9974026978 0.071846012
300298200.0 -0.9859397161 0.0875626655
350297900.0 -0.9938593032 0.0986279926
400297600.0 -0.9932882216 0.1153294685
450297300.0 -0.9910538593 0.1289693565
500297000.0 -0.9894212376 0.1437800428
550296700.0 -0.9842930109 0.1560134766
600296400.0 -1.017386918 0.1895416272
650296100.0 -0.982326929 0.185997371
700295800.0 -0.9794105552 0.2003206617
750295500.0 -0.9763833196 0.2143586737
800295200.0 -0.9730904055 0.2285823065
850294900.0 -0.9694876211 0.2423168433
900294600.0 -0.9658225623 0.2560675566
950294300.0 -0.9621902233 0.2697179636
1000294000.0 -0.9582658459 0.2836586069
1050293700.0 -0.9537015017 0.2974286721
1100293400.0 -0.9492247768 0.3118940822
1150293100.0 -0.945481209 0.3236686341
1200292800.0 -0.9402289176 0.3379355795
1250292500.0 -0.9347090856 0.3516273862
1300292200.0 -0.9289326839 0.3647570893
1350291900.0 -0.9234911314 0.3787267902
1400291600.0 -0.9178892881 0.3918250951
1450291300.0 -0.9125911804 0.4043537525
1500291000.0 -0.9060691353 0.4176726283
1550290700.0 -0.8996615501 0.43119852
1600290400.0 -0.8935368648 0.4437593294
1650290100.0 -0.886743756 0.4559998361
1700289800.0 -0.8797886051 0.4694915548
1750289500.0 -0.87269076 0.4817651847
1800289200.0 -0.8654269963 0.4946405365
1850288900.0 -0.8586954015 0.5057761896
1900288600.0 -0.8510475487 0.5189559839
1950288300.0 -0.8428179084 0.5315267071
2000288000.0 -0.8352209333 0.5430903039
2050287700.0 -0.827211007 0.5552476946
2100287400.0 -0.819253097 0.5669854275
2150287100.0 -0.8106608638 0.5789021115
2200286800.0 -0.8030354401 0.589188327
2250286500.0 -0.7940860927 0.6012947187
2300286200.0 -0.7853642051 0.6130181946
2350285900.0 -0.7764985302 0.6238770459
2400285600.0 -0.7677025012 0.6348154693
2450285300.0 -0.7589937055 0.6452902696
2500285000.0 -0.7491846908 0.6566403228
2550284700.0 -0.7403202604 0.6669425344
2600284400.0 -0.7311314047 0.6771409842
2650284100.0 -0.7223833673 0.687688723
2700283800.0 -0.711428692 0.6980567092
2750283500.0 -0.7012880906 0.7086431275
2800283200.0 -0.6913378158 0.7182598355
2850282900.0 -0.6813373083 0.7282840193
2900282600.0 -0.6706875952 0.7377515998
2950282300.0 -0.6604245298 0.747036995
3000282000.0 -0.6497887618 0.7565355855
3050281700.0 -0.6385090117 0.7659456231
3100281400.0 -0.6267358844 0.7753538378
3150281100.0 -0.6150757775 0.7844862114
3200280800.0 -0.6033051712 0.7929914909
3250280500.0 -0.5925485171 0.8008723027
3300280200.0 -0.5813559702 0.8086758457
3350279900.0 -0.569828547 0.8164370706
3400279600.0 -0.5575347921 0.8239387522
3450279300.0 -0.546286809 0.8310318983
3500279000.0 -0.534514302 0.8381827892
3550278700.0 -0.5219368288 0.845575524
3600278400.0 -0.5098226863 0.8527594514
3650278100.0 -0.4964240828 0.8602186672
3700277800.0 -0.4845592709 0.8669287746
3750277500.0 -0.4723983748 0.8733941699
3800277200.0 -0.4599662442 0.8799923521
3850276900.0 -0.4479462983 0.8855986724
3900276600.0 -0.4371780551 0.8914951637
3950276300.0 -0.42476725 0.8974149012
4000276000.0 -0.4126963608 0.9033496342
4050275700.0 -0.3997524619 0.9094518022
4100275400.0 -0.3884422276 0.914793396
4150275100.0 -0.3759785175 0.920626676
4200274800.0 -0.3626869252 0.9262255354
4250274500.0 -0.3507294204 0.9313720631
4300274200.0 -0.3376159758 0.936656686
4350273900.0 -0.3238826961 0.9417642827
4400273600.0 -0.3088300602 0.9473527518
4450273300.0 -0.2937619391 0.9521711817
4500273000.0 -0.2800554388 0.9564868846
4550272700.0 -0.2661000016 0.9607634582
4600272400.0 -0.2504811051 0.9651135182
4650272100.0 -0.2388090749 0.9682677304
4700271800.0 -0.2256662071 0.9717362819
4750271500.0 -0.2137736221 0.9744997372
4800271200.0 -0.2013221056 0.9772106661
4850270900.0 -0.1874710613 0.9798885555
4900270600.0 -0.1735329954 0.9824182432
4950270300.0 -0.1591631786 0.9849339304
5000270000.0 -0.1449375718 0.9871397591
5050269700.0 -0.1314336146 0.9889575252
5100269400.0 -0.1178635869 0.9903712481
5150269100.0 -0.1044567433 0.9920482087
5200268800.0 -0.0911144871 0.9930663589
5250268500.0 -0.0780525747 0.9940190282
5300268200.0 -0.0649181809 0.9945579741
5350267900.0 -0.0525888695 0.9949290782
5400267600.0 -0.0364278785 0.9964636507
5450267300.0 -0.0234215846 0.99643796
5500267000.0 -0.0081366637 0.9972724424
5550266700.0 0.0068542356 0.9971484322
5600266400.0 0.0223902578 0.9973810923
5650266100.0 0.0387383539 0.9970425575
5700265800.0 0.0532359188 0.9962374311
5750265500.0 0.0684469145 0.9952719919
5800265200.0 0.0821628696 0.9939219016
5850264900.0 0.0954166175 0.9935548514
5900264600.0 0.112305541 0.9917168384
5950264300.0 0.1240659681 0.989986019
6000264000.0 0.1383266154 0.9885595031
6050263700.0 0.1504267922 0.9868728222
6100263400.0 0.1629224296 0.9852643285
6150263100.0 0.1775428708 0.9827926009
6200262800.0 0.1880701093 0.9808728229
6250262500.0 0.2004437854 0.9786563178
6300262200.0 0.2132039258 0.9758726675
6350261900.0 0.2264187381 0.9729109776
6400261600.0 0.2400624736 0.9696095953
6450261300.0 0.2516120988 0.9668636321
6500261000.0 0.264297311 0.9633342196
6550260700.0 0.277420929 0.9594292153
6600260400.0 0.2910453781 0.9556115378
6650260100.0 0.3045988763 0.9508954391
6700259800.0 0.3168467604 0.9468142592
6750259500.0 0.3303594214 0.9418825232
6800259200.0 0.3435907367 0.936983533
6850258900.0 0.3557188029 0.9317523454
6900258600.0 0.3677957263 0.9265269817
6950258300.0 0.3803473448 0.9213529756
7000258000.0 0.392381514 0.9157981811
7050257700.0 0.4047338261 0.9100379607
7100257400.0 0.4175959477 0.9037369232
7150257100.0 0.4278966383 0.898459933
7200256800.0 0.4408370732 0.891925139
7250256500.0 0.4523168144 0.8856088439
7300256200.0 0.4655598897 0.8788693354
7350255900.0 0.4779408349 0.8718419468
7400255600.0 0.4914418445 0.8645586586
7450255300.0 0.5063088384 0.8555122722
7500255000.0 0.5185122224 0.848641002
7550254700.0 0.5324616667 0.8399666679
7600254400.0 0.5447773074 0.8316293054
7650254100.0 0.5567640732 0.8242316287
7700253800.0 0.5685751696 0.815910605
7750253500.0 0.5795923996 0.8083675334
7800253200.0 0.5902684226 0.8006383429
7850252900.0 0.5998168841 0.7937076894
7900252600.0 0.611638952 0.7848261343
7950252300.0 0.6203286724 0.7783316048
8000252000.0 0.6305074758 0.7707345931
8050251700.0 0.6408727915 0.762607781
8100251400.0 0.6508864538 0.754428836
8150251100.0 0.6612855262 0.7458583866
8200250800.0 0.670637969 0.7378913841
8250250500.0 0.6793170592 0.7300771601
8300250200.0 0.6888336726 0.7214028579
8350249900.0 0.6978656893 0.7126762609
8400249600.0 0.7061553193 0.7046070649
8450249300.0 0.7153058887 0.6954004026
8500249000.0 0.7238012462 0.6865954561
8550248700.0 0.7322377834 0.677654078
8600248400.0 0.7404635575 0.6679502001
8650248100.0 0.748217845 0.6585007224
8700247800.0 0.7577713836 0.6473656609
8750247500.0 0.7660516296 0.6372801076
8800247200.0 0.7742037943 0.6268612681
8850246900.0 0.7830372906 0.6155418313
8900246600.0 0.7917918451 0.6039471069
8950246300.0 0.8007998146 0.5912335866
9000246000.0 0.8102174612 0.5784217239
9050245700.0 0.8193119849 0.5653337554
9100245400.0 0.8277891982 0.5527925572
9150245100.0 0.8373339367 0.5397115886
9200244800.0 0.8467879346 0.5244004732
9250244500.0 0.8565077001 0.5089772918
9300244200.0 0.8648093257 0.4944848753
9350243900.0 0.8723707031 0.4806815318
9400243600.0 0.8792403075 0.4683000685
9450243300.0 0.8852049843 0.4568294719
9500243000.0 0.891286546 0.4448196946
9550242700.0 0.8950981179 0.4370020162
9600242400.0 0.8991184684 0.4297098031
9650242100.0 0.9027213015 0.4231094829
9700241800.0 0.9073197538 0.4148714962
9750241500.0 0.9114563592 0.4075398296
9800241200.0 0.9160393237 0.3981228448
9850240900.0 0.9218444051 0.3865580511
9900240600.0 0.927361281 0.3750492596
9950240300.0 0.9340896676 0.3588195696
10000240000.0 0.9384973574 0.3471064599
10050239700.0 0.9441300575 0.3320960703
10100239400.0 0.9495899048 0.3164573464
10150239100.0 0.953925075 0.3015124268
10200238800.0 0.958027124 0.2865431609
10250238500.0 0.961351964 0.2732694983
10300238200.0 0.9644895482 0.2590888724
10350237900.0 0.9672763459 0.2461140519
10400237600.0 0.9697259227 0.2330164249
10450237300.0 0.9723430643 0.2195067547
10500237000.0 0.9743915068 0.2071829144
10550236700.0 0.9768626605 0.1933091004
10600236400.0 0.9789678556 0.1793260332
10650236100.0 0.98095093 0.1645585444
10700235800.0 0.9832954681 0.1528818088
10750235500.0 0.9855770304 0.1386838015
10800235200.0 0.9875535221 0.1247234401
10850234900.0 0.9895559418 0.1100496358
10900234600.0 0.9917529237 0.0955356208
10950234300.0 0.9934032705 0.0821718682
11000234000.0 0.9952115448 0.0670337974
11050233700.0 0.996896696 0.0507584928
11100233400.0 0.9984474999 0.0332782842
11150233100.0 0.9996130578 0.0170227535
11200232800.0 1.000083251 0.0021627556
11250232500.0 1.000708157 -0.0135618665
11300232200.0 1.001437792 -0.0319152927
11350231900.0 1.001982904 -0.0483173277
11400231600.0 1.001761618 -0.0637416015
11450231300.0 1.000935317 -0.0786260641
11500231000.0 0.999524478 -0.0955923794
11550230700.0 0.9989475363 -0.1080555806
11600230400.0 0.9970473254 -0.1214028585
11650230100.0 0.9951009026 -0.1323884169
11700229800.0 0.993102228 -0.1468850925
11750229500.0 0.990974841 -0.1614203668
11800229200.0 0.9883607185 -0.175228888
11850228900.0 0.9848427923 -0.1875388858
11900228600.0 0.9812778915 -0.1974682342
11950228300.0 0.9782228138 -0.2078791384
12000228000.0 0.9751698524 -0.2167959843
12050227700.0 0.97167096 -0.2294035159
12100227400.0 0.968244118 -0.2410466826
12150227100.0 0.9638512723 -0.2569682304
12200226800.0 0.9596398628 -0.2683182492
12250226500.0 0.9563504152 -0.2809084215
12300226200.0 0.9513382882 -0.2935839737
12350225900.0 0.9464861441 -0.307604432
12400225600.0 0.9427616402 -0.3200806564
12450225300.0 0.9380537794 -0.3334565561
12500225000.0 0.9323960373 -0.3478110295
12550224700.0 0.9271262824 -0.3619124298
12600224400.0 0.9220732692 -0.3747008026
12650224100.0 0.9163309109 -0.3891660239
12700223800.0 0.9112554779 -0.4019678651
12750223500.0 0.9055875836 -0.4150297717
12800223200.0 0.9004934627 -0.4275780289
12850222900.0 0.8948105526 -0.4396528402
12900222600.0 0.8891559725 -0.4518480639
12950222300.0 0.882835205 -0.4648520252
13000222000.0 0.8771930034 -0.4758626667
13050221700.0 0.8700756226 -0.4888668108
13100221400.0 0.8636989419 -0.5011093136
13150221100.0 0.8567557486 -0.5132263197
13200220800.0 0.850089622 -0.5240895435
13250220500.0 0.8429175019 -0.5365214698
13300220200.0 0.8353317654 -0.5472907294
13350219900.0 0.8274087276 -0.5592223018
13400219600.0 0.818912346 -0.5713126564
13450219300.0 0.8094964209 -0.5847268343
13500219000.0 0.7999119192 -0.5983200291
13550218700.0 0.7898112045 -0.6107763167
13600218400.0 0.7792975379 -0.6234789438
13650218100.0 0.7692466944 -0.6353422632
13700217800.0 0.7587046154 -0.6465693694
13750217500.0 0.7488985598 -0.6585327534
13800217200.0 0.737894704 -0.669133677
13850216900.0 0.7272268476 -0.681298152
13900216600.0 0.7174011783 -0.6900689448
13950216300.0 0.7062776021 -0.7003446242
14000216000.0 0.6961879971 -0.7097520472
14050215700.0 0.68646856 -0.7186979717
14100215400.0 0.6763392416 -0.7274550465
14150215100.0 0.6672317947 -0.7358948775
14200214800.0 0.657897623 -0.7444527977
14250214500.0 0.6475379739 -0.7538499573
14300214200.0 0.6373229258 -0.7633536228
14350213900.0 0.6261117752 -0.7729916832
14400213600.0 0.6142047849 -0.7827401055
14450213300.0 0.6008051629 -0.7928935558
14500213000.0 0.5882230728 -0.8032126296
14550212700.0 0.5755666383 -0.8123349958
14600212400.0 0.5630911354 -0.8213322237
14650212100.0 0.5502551497 -0.830012289
14700211800.0 0.5366897827 -0.8393042455
14750211500.0 0.5240560667 -0.8475198513
14800211200.0 0.5118856286 -0.8557778952
14850210900.0 0.4998427314 -0.8631035278
14900210600.0 0.4865577014 -0.8711389328
14950210300.0 0.4731246594 -0.8787535354
15000210000.0 0.460334619 -0.8855736729
15050209700.0 0.4478724463 -0.891714248
15100209400.0 0.4353821458 -0.8974512594
15150209100.0 0.423412666 -0.902498121
15200208800.0 0.4107110552 -0.9085601538
15250208500.0 0.3992228512 -0.9127721259
15300208200.0 0.387242021 -0.9166790557
15350207900.0 0.3738907482 -0.9223730253
15400207600.0 0.3587580067 -0.9270254876
15450207300.0 0.3456990995 -0.9323257335
15500207000.0 0.3302093288 -0.9376196254
15550206700.0 0.3151738642 -0.9426793695
15600206400.0 0.2991462869 -0.9469115805
15650206100.0 0.2839787163 -0.9507611613
15700205800.0 0.2698618194 -0.9547912087
15750205500.0 0.255078091 -0.9584887774
15800205200.0 0.2408136191 -0.9619430636
15850204900.0 0.2264191229 -0.9653565209
15900204600.0 0.2113309408 -0.9689655991
15950204300.0 0.1971696633 -0.9718642215
16000204000.0 0.1829814782 -0.9747632282
16050203700.0 0.167595736 -0.9777460234
16100203400.0 0.1532512985 -0.9800611693
16150203100.0 0.139036305 -0.9825949726
16200202800.0 0.124830157 -0.9844466067
16250202500.0 0.1102222921 -0.9860283344
16300202200.0 0.0944195617 -0.987713954
16350201900.0 0.0794298801 -0.9893271298
16400201600.0 0.0650054192 -0.9903229593
16450201300.0 0.0498095543 -0.991336405
16500201000.0 0.0332002427 -0.9920809443
16550200700.0 0.0174896549 -0.9926391241
16600200400.0 0.0017884397 -0.9928454341
16650200100.0 -0.0144039662 -0.9925942702
16700199800.0 -0.0303800018 -0.9925400631
16750199500.0 -0.0491413503 -0.9917892712
16800199200.0 -0.0645861803 -0.9905227517
16850198900.0 -0.0798907307 -0.9897627222
16900198600.0 -0.094604785 -0.9887046794
16950198300.0 -0.10749964 -0.9877548496
17000198000.0 -0.1199141352 -0.9863000993
17050197700.0 -0.1329171037 -0.9842359654
17100197400.0 -0.1455512438 -0.9824656832
17150197100.0 -0.1586414285 -0.980693339
17200196800.0 -0.1708982322 -0.9783472868
17250196500.0 -0.1842300053 -0.9760815939
17300196200.0 -0.1962685009 -0.9736864262
17350195900.0 -0.2081852708 -0.9712687058
17400195600.0 -0.2202681511 -0.9688907806
17450195300.0 -0.2334855513 -0.9660646735
17500195000.0 -0.2467596883 -0.9626757728
17550194700.0 -0.2608657601 -0.9592987444
17600194400.0 -0.2747130397 -0.9547453208
17650194100.0 -0.2886404999 -0.950968412
17700193800.0 -0.3016794465 -0.9466699853
17750193500.0 -0.3163541028 -0.942466449
17800193200.0 -0.3306241311 -0.9372401728
17850192900.0 -0.3454048347 -0.931697183
17900192600.0 -0.360853266 -0.9256449397
17950192300.0 -0.3761971029 -0.9186621667
18000192000.0 -0.3909973727 -0.9113854046
18050191700.0 -0.4051437102 -0.9034902348
18100191400.0 -0.4192517373 -0.895921169
18150191100.0 -0.4342394977 -0.8878286864
18200190800.0 -0.4511683253 -0.8785580405
18250190500.0 -0.4682905898 -0.8692731758
18300190200.0 -0.4835021143 -0.8605475645
18350189900.0 -0.4985616798 -0.8522710166
18400189600.0 -0.51299218 -0.8441082291
18450189300.0 -0.5264555608 -0.8361405268
18500189000.0 -0.5398529747 -0.8281175384
18550188700.0 -0.5522619152 -0.8200604057
18600188400.0 -0.5640291182 -0.8136286813
18650188100.0 -0.5750064147 -0.8075238427
18700187800.0 -0.5854099106 -0.8010605542
18750187500.0 -0.5960387215 -0.7944524629
18800187200.0 -0.6066422782 -0.7873862665
18850186900.0 -0.6168127977 -0.7805001997
18900186600.0 -0.6270835126 -0.7732276189
18950186300.0 -0.6371501091 -0.7653940574
19000186000.0 -0.6442705104 -0.7594749727
19050185700.0 -0.6535635812 -0.7522869024
19100185400.0 -0.6631541773 -0.7437706257
19150185100.0 -0.6737183858 -0.7353141571
19200184800.0 -0.6831366915 -0.727063263
19250184500.0 -0.6933113855 -0.7181562376
19300184200.0 -0.7052208922 -0.7084814493
19350183900.0 -0.7153828654 -0.6987994754
19400183600.0 -0.7252867258 -0.6886930235
19450183300.0 -0.7339763711 -0.6788667175
19500183000.0 -0.7425792584 -0.6689069202
19550182700.0 -0.7520307466 -0.6576827372
19600182400.0 -0.7628261831 -0.6460060405
19650182100.0 -0.7730029459 -0.6335361758
19700181800.0 -0.7840640975 -0.6203426066
19750181500.0 -0.7948991218 -0.6062601803
19800181200.0 -0.8052737295 -0.5910425832
19850180900.0 -0.815071776 -0.5758547513
19900180600.0 -0.8228144306 -0.5614556092
19950180300.0 -0.832389446 -0.5449162888
20000180000.0 -0.8256732606 -0.5468598257
20050179700.0 -0.8339619176 -0.5334671444
20100179400.0 -0.8430691888 -0.5199990127
20150179100.0 -0.8508642183 -0.5077326467
20200178800.0 -0.859540601 -0.4945658894
20250178500.0 -0.8686762739 -0.4818151439
20300178200.0 -0.8784379686 -0.467386052
20350177900.0 -0.8873154968 -0.4530176518
20400177600.0 -0.8962459267 -0.4387228097
20450177300.0 -0.9044958481 -0.4240037691
20500177000.0 -0.9125018663 -0.410100567
20550176700.0 -0.920427292 -0.3966517394
20600176400.0 -0.9272964049 -0.3837406936
20650176100.0 -0.9333110411 -0.3708395797
20700175800.0 -0.9410288011 -0.359121446
20750175500.0 -0.9474544413 -0.3474520766
20800175200.0 -0.9530960502 -0.3367621389
20850174900.0 -0.9562765948 -0.3254990609
20900174600.0 -0.9617668511 -0.3151866624
20950174300.0 -0.9657131947 -0.3027268765
21000174000.0 -0.9686556542 -0.2917981737
21050173700.0 -0.97092681 -0.2808205896
21100173400.0 -0.9757013488 -0.2688159831
21150173100.0 -0.9797554377 -0.2565818462
21200172800.0 -0.9826516432 -0.2438598725
21250172500.0 -0.9860226578 -0.2301823654
21300172200.0 -0.989017959 -0.2157948784
21350171900.0 -0.9907649019 -0.2014506316
21400171600.0 -0.9926020891 -0.1873937072
21450171300.0 -0.9921572275 -0.1730145178
21500171000.0 -0.99319693 -0.1572672631
21550170700.0 -0.9927773101 -0.1413100892
21600170400.0 -0.9925671323 -0.1257060143
21650170100.0 -0.9916545529 -0.1106987691
21700169800.0 -0.9903407763 -0.0945064554
21750169500.0 -0.9889948698 -0.0788436416
21800169200.0 -0.9882830162 -0.0631101454
21850168900.0 -0.9879446395 -0.0455642752
21900168600.0 -0.9858618478 -0.0299341078
21950168300.0 -0.985153099 -0.0134669844
22000168000.0 -0.9841107287 0.0010842291
22050167700.0 -0.983912678 0.0157141294
22100167400.0 -0.9840736399 0.0305365566
22150167100.0 -0.9846794675 0.0464774149
22200166800.0 -0.9848045887 0.0626720201
22250166500.0 -0.9842882077 0.0799442207
22300166200.0 -0.9842370452 0.096232519
22350165900.0 -0.9824327784 0.1123986255
22400165600.0 -0.9806852488 0.1291507715
22450165300.0 -0.9788991369 0.144325248
22500165000.0 -0.977466556 0.1575822061
22550164700.0 -0.9757143977 0.1726076078
22600164400.0 -0.9743447606 0.1880367833
22650164100.0 -0.9722881825 0.2029889625
22700163800.0 -0.9696178905 0.2189934617
22750163500.0 -0.9672112365 0.2342841052
22800163200.0 -0.9640702368 0.2471017897
22850162900.0 -0.9621054715 0.2607733543
22900162600.0 -0.9605138272 0.2738707419
22950162300.0 -0.959236703 0.2866960052
23000162000.0 -0.9581639229 0.298873686
23050161700.0 -0.9558863931 0.3113122989
23100161400.0 -0.9536911526 0.3245211325
23150161100.0 -0.950568658 0.3368459585
23200160800.0 -0.9479131588 0.3484246806
23250160500.0 -0.9452036481 0.36125905
23300160200.0 -0.9426605448 0.3729647237
23350159900.0 -0.9388886655 0.3859142914
23400159600.0 -0.9341167772 0.3994142658
23450159300.0 -0.9297409572 0.4128783474
23500159000.0 -0.9247278303 0.425956593
23550158700.0 -0.9201196482 0.4389942903
23600158400.0 -0.9148272672 0.4524529854
23650158100.0 -0.9083864435 0.4666021451
23700157800.0 -0.9007402041 0.4804699169
23750157500.0 -0.8922607424 0.4943304466
23800157200.0 -0.8836174903 0.5076222994
23850156900.0 -0.8747521658 0.520003468
23900156600.0 -0.865284775 0.5324107147
23950156300.0 -0.8562996748 0.5459726406
24000156000.0 -0.846949996 0.5573409742
24050155700.0 -0.8375796814 0.5700738637
24100155400.0 -0.8272518106 0.5816656167
24150155100.0 -0.8171137085 0.5933578766
24200154800.0 -0.8055623589 0.6041412865
24250154500.0 -0.7947826784 0.615890693
24300154200.0 -0.7833941966 0.627728536
24350153900.0 -0.7709494735 0.6385835582
24400153600.0 -0.7591732101 0.6485822058
24450153300.0 -0.7473628202 0.6586039567
24500153000.0 -0.7360730761 0.6681268428
24550152700.0 -0.7248044514 0.6777318159
24600152400.0 -0.7127804884 0.6873663305
24650152100.0 -0.7011864546 0.6959943183
