!Created with skrf (http://scikit-rf.org).
# Hz S RI R 50.0 
!freq ReS11 ImS11
300000.0 -0.9743837156 -0.120022885
50299700.0 -1.000060409 0.0151836884
100299400.0 -0.997985929 0.0279930822
150299100.0 -1.002644654 0.0449895706
200298800.0 -0.9995372985 0.0582136204
250298500.0 -0.9972663279 0.0717425504
300298200.0 -0.98603293 0.0874817356
350297900.0 -0.9940882092 0.09860776
400297600.0 -0.993104974 0.1150164655
450297300.0 -0.9911809254 0.1289950284
500297000.0 -0.9895610284 0.1436230884
550296700.0 -0.9842787526 0.156256528
600296400.0 -1.017414865 0.1891268399
650296100.0 -0.9821064697 0.1859502037
700295800.0 -0.9794800007 0.2003963813
750295500.0 -0.9763224166 0.2141177683
800295200.0 -0.9728004115 0.2282934647
850294900.0 -0.9695899956 0.2422677153
900294600.0 -0.9659131886 0.255777611
950294300.0 -0.9618946944 0.2696884265
1000294000.0 -0.9581376573 0.2834011835
1050293700.0 -0.9536446072 0.2971872603
1100293400.0 -0.9493073185 0.3116505141
1150293100.0 -0.9455531442 0.3236347272
1200292800.0 -0.94012756 0.3379236492
1250292500.0 -0.9346293438 0.3514931663
1300292200.0 -0.9287737768 0.3645733066
1350291900.0 -0.9235353728 0.3787109711
1400291600.0 -0.9179950483 0.3917884516
1450291300.0 -0.9126243474 0.4041369304
1500291000.0 -0.9061854864 0.4175331554
1550290700.0 -0.8994562262 0.4308268473
1600290400.0 -0.893400894 0.4437659204
1650290100.0 -0.8867717225 0.4560236637
1700289800.0 -0.8801249577 0.4692274545
1750289500.0 -0.8728439316 0.4818403783
1800289200.0 -0.8655281876 0.4946588465
1850288900.0 -0.8585689816 0.5057535822
1900288600.0 -0.8509784548 0.5190385013
1950288300.0 -0.842990667 0.5314378555
2000288000.0 -0.8354023228 0.5428670186
2050287700.0 -0.8272634754 0.5551245587
2100287400.0 -0.8194917201 0.5668605223
2150287100.0 -0.810759645 0.5789901117
2200286800.0 -0.8031485684 0.5891740777
2250286500.0 -0.7941904319 0.6014679799
2300286200.0 -0.7851515336 0.6128987705
2350285900.0 -0.7767850335 0.6239306612
2400285600.0 -0.7677222912 0.6346977158
2450285300.0 -0.7590790246 0.6452229665
2500285000.0 -0.7491557224 0.6566599579
2550284700.0 -0.7403452432 0.6670071613
2600284400.0 -0.7310039018 0.6771571835
2650284100.0 -0.7223284962 0.6875181854
2700283800.0 -0.7116741581 0.6978156826
2750283500.0 -0.7011505307 0.7086849805
2800283200.0 -0.6915200126 0.7182908463
2850282900.0 -0.6811078213 0.728335607
2900282600.0 -0.670878582 0.7381438324
2950282300.0 -0.6605727404 0.7473304894
3000282000.0 -0.6497157943 0.7569120887
3050281700.0 -0.6385777848 0.7660247284
3100281400.0 -0.6269429672 0.7751310314
3150281100.0 -0.6151696131 0.7844137594
3200280800.0 -0.603560767 0.7928292632
3250280500.0 -0.5925522234 0.800657699
3300280200.0 -0.5812270277 0.8086313623
3350279900.0 -0.5694206206 0.8163367734
3400279600.0 -0.5571818901 0.8241258075
3450279300.0 -0.546126199 0.8312248788
3500279000.0 -0.5341903866 0.8382625281
3550278700.0 -0.5220066665 0.8455645817
3600278400.0 -0.50962367 0.8524229711
3650278100.0 -0.4968210385 0.86022326
3700277800.0 -0.4843211563 0.8666170684
3750277500.0 -0.4722026842 0.8732827752
3800277200.0 -0.4596685681 0.879977623
3850276900.0 -0.4476986507 0.8856443597
3900276600.0 -0.4367888148 0.8912866075
3950276300.0 -0.4246890936 0.8973927061
4000276000.0 -0.4125329541 0.9032892274
4050275700.0 -0.399773537 0.9093831012
4100275400.0 -0.3884988881 0.9147378815
4150275100.0 -0.3759347811 0.9206476222
4200274800.0 -0.3627656548 0.9263270181
4250274500.0 -0.3504111065 0.9313259222
4300274200.0 -0.3372682126 0.936461898
4350273900.0 -0.3234231721 0.9419327074
4400273600.0 -0.3087498545 0.9468756637
4450273300.0 -0.2932340649 0.9522437186
4500273000.0 -0.2798816208 0.9565334902
4550272700.0 -0.2659659821 0.9606802145
4600272400.0 -0.250555111 0.9649081445
4650272100.0 -0.2390331751 0.9681968138
4700271800.0 -0.2257820823 0.9714820254
4750271500.0 -0.2142854136 0.9742838223
4800271200.0 -0.2016980051 0.9771358468
4850270900.0 -0.1877885715 0.9797296131
4900270600.0 -0.1740925485 0.9823384334
4950270300.0 -0.1596513941 0.9847909345
5000270000.0 -0.145196298 0.9869343575
5050269700.0 -0.1318025175 0.9885276616
5100269400.0 -0.1178127211 0.9903478765
5150269100.0 -0.1043707068 0.9918148952
5200268800.0 -0.0910833169 0.992807096
5250268500.0 -0.0780453524 0.9937357661
5300268200.0 -0.0646193723 0.9943454359
5350267900.0 -0.0523164232 0.9949123208
5400267600.0 -0.0361247928 0.9960664668
5450267300.0 -0.0227706157 0.9966215805
5500267000.0 -0.0077599871 0.997166563
5550266700.0 0.0071934398 0.99727249
5600266400.0 0.0229107845 0.9969913015
5650266100.0 0.0394415747 0.9968579464
5700265800.0 0.0537220974 0.995821788
5750265500.0 0.0690752195 0.9956782786
5800265200.0 0.0828849671 0.9943229735
5850264900.0 0.0961840585 0.9936383535
5900264600.0 0.1122073559 0.9911225855
5950264300.0 0.1243285503 0.9899956845
6000264000.0 0.1378780237 0.9880563263
6050263700.0 0.1504261587 0.9867297156
6100263400.0 0.1627327357 0.9851970609
6150263100.0 0.1772108503 0.9828536669
6200262800.0 0.1872862811 0.9810108106
6250262500.0 0.2001414576 0.9784671099
6300262200.0 0.2126886829 0.975879728
6350261900.0 0.2255336821 0.9730488277
6400261600.0 0.239652955 0.9697767639
6450261300.0 0.2510255707 0.9671143132
6500261000.0 0.2640381835 0.9635887802
6550260700.0 0.2769481722 0.9598314933
6600260400.0 0.2901361983 0.9554748682
6650260100.0 0.3043049067 0.95131799
6700259800.0 0.3162722756 0.9469946238
6750259500.0 0.3302255387 0.9418952175
6800259200.0 0.3434590106 0.9370387241
6850258900.0 0.3554355869 0.9318257968
6900258600.0 0.3675857335 0.9266275249
6950258300.0 0.3803270011 0.9213641906
7000258000.0 0.392345481 0.9159506806
7050257700.0 0.4043505804 0.9099593081
7100257400.0 0.4174478393 0.9036158743
7150257100.0 0.4276137383 0.8983194191
7200256800.0 0.4405474486 0.8918991687
7250256500.0 0.4530420046 0.8854746677
7300256200.0 0.4655568714 0.87869538
7350255900.0 0.4782896935 0.8719610355
7400255600.0 0.491797594 0.8642844631
7450255300.0 0.5070032582 0.8552445519
7500255000.0 0.5192813302 0.8480925189
7550254700.0 0.5331807402 0.8395795041
7600254400.0 0.5457709334 0.8313093386
7650254100.0 0.5573926569 0.8235161154
7700253800.0 0.5690774594 0.8153456245
7750253500.0 0.5804295774 0.8078450263
7800253200.0 0.5909985858 0.8000642158
7850252900.0 0.600695933 0.7927695678
7900252600.0 0.6122417356 0.7842709511
7950252300.0 0.6210111348 0.7776698908
8000252000.0 0.6309603429 0.7700566342
8050251700.0 0.6413891545 0.7619331426
8100251400.0 0.6514735628 0.7538448698
8150251100.0 0.6616215262 0.7451076266
8200250800.0 0.6710636328 0.7370890466
8250250500.0 0.6802123788 0.7292487988
8300250200.0 0.6890886152 0.7208884338
8350249900.0 0.6980470763 0.7119553673
8400249600.0 0.7063836703 0.7037884549
8450249300.0 0.7153432815 0.6948305449
8500249000.0 0.7242675932 0.6860430349
8550248700.0 0.7322724212 0.6770553359
8600248400.0 0.7408250955 0.6673949989
8650248100.0 0.7485498121 0.6578739285
8700247800.0 0.7580068928 0.6467749403
8750247500.0 0.766252294 0.6367170961
8800247200.0 0.774308016 0.6263071546
8850246900.0 0.783113471 0.6147637993
8900246600.0 0.7917377422 0.6036565048
8950246300.0 0.8011149686 0.5906534169
9000246000.0 0.810201016 0.5781279944
9050245700.0 0.8193220405 0.5654141462
9100245400.0 0.8274567935 0.5530704461
9150245100.0 0.8366421063 0.5397344572
9200244800.0 0.8461612637 0.5250356011
9250244500.0 0.8555817987 0.5097802059
9300244200.0 0.8637344584 0.4956109591
9350243900.0 0.8714093759 0.4818754538
9400243600.0 0.8782744264 0.4696784634
9450243300.0 0.8840442903 0.4585481
9500243000.0 0.8904867277 0.4464783209
9550242700.0 0.8941992381 0.4387719054
9600242400.0 0.8982757497 0.4313594574
9650242100.0 0.9018810984 0.4247705915
9700241800.0 0.9065701344 0.4165922992
9750241500.0 0.9110423979 0.4087841392
9800241200.0 0.9155479728 0.3996228917
9850240900.0 0.9213391879 0.3879586973
9900240600.0 0.9267633777 0.3765276977
9950240300.0 0.9336614882 0.3601433996
10000240000.0 0.9383635266 0.3482348832
10050239700.0 0.9444797246 0.332522337
10100239400.0 0.9495264089 0.3168684846
10150239100.0 0.9535287893 0.301965597
10200238800.0 0.9581099986 0.2866713197
10250238500.0 0.9614636661 0.273308236
10300238200.0 0.9646480381 0.2593243279
10350237900.0 0.9672658014 0.2463888394
10400237600.0 0.9699397981 0.2328302291
10450237300.0 0.9724622061 0.2192053021
10500237000.0 0.9751500257 0.2066583174
10550236700.0 0.9772425812 0.1926748292
10600236400.0 0.9788915148 0.1790325373
10650236100.0 0.9809440901 0.1645896295
10700235800.0 0.9833993307 0.1519011247
10750235500.0 0.9858628015 0.1384798969
10800235200.0 0.9876849159 0.1243350097
10850234900.0 0.9896490086 0.1100290282
10900234600.0 0.9918715533 0.0948071252
10950234300.0 0.9935071913 0.081605723
11000234000.0 0.9952914018 0.0664148779
11050233700.0 0.99706039 0.0499068082
11100233400.0 0.9983731177 0.0323446612
11150233100.0 0.9995004704 0.0160970005
11200232800.0 1.000449159 0.0003358157
11250232500.0 1.001335213 -0.0157618034
11300232200.0 1.001938895 -0.0335067308
11350231900.0 1.001392695 -0.0498245949
11400231600.0 1.002049765 -0.0661789817
11450231300.0 1.001515702 -0.0802966888
11500231000.0 0.9995487905 -0.0970776185
11550230700.0 0.998623933 -0.1107307944
11600230400.0 0.9967587034 -0.1233280419
11650230100.0 0.9951864071 -0.1350118882
11700229800.0 0.9927932929 -0.1496390522
11750229500.0 0.9907616416 -0.1641240425
11800229200.0 0.9881489777 -0.1776859781
11850228900.0 0.984274792 -0.1897111748
11900228600.0 0.9807518084 -0.1995091011
11950228300.0 0.9773607456 -0.2097785648
12000228000.0 0.974652454 -0.2185845381
12050227700.0 0.9710640291 -0.2309738921
12100227400.0 0.9680409688 -0.2423975328
12150227100.0 0.9624496857 -0.2595739807
12200226800.0 0.9582752764 -0.2700567026
12250226500.0 0.9549562525 -0.2833095616
12300226200.0 0.95055942 -0.2959091916
12350225900.0 0.9456232064 -0.309203797
12400225600.0 0.9417127968 -0.3219285884
12450225300.0 0.9375078761 -0.3344060184
12500225000.0 0.9319929473 -0.3492710169
12550224700.0 0.926309232 -0.3631038532
12600224400.0 0.9213867163 -0.3759769882
12650224100.0 0.9156090182 -0.3903927295
12700223800.0 0.9102568618 -0.4031622891
12750223500.0 0.9046649351 -0.416314593
12800223200.0 0.8996384733 -0.4286949726
12850222900.0 0.8943722147 -0.4410938573
12900222600.0 0.8884456006 -0.4529738512
12950222300.0 0.8820899348 -0.4660598214
13000222000.0 0.8760780177 -0.4775206161
13050221700.0 0.8696304325 -0.489934071
13100221400.0 0.8628452135 -0.5020416954
13150221100.0 0.8561809881 -0.5141025878
13200220800.0 0.848988137 -0.5258663861
13250220500.0 0.8419948964 -0.5377500205
13300220200.0 0.8345222798 -0.5486194272
13350219900.0 0.8262083533 -0.5605997428
13400219600.0 0.8179808354 -0.5727384431
13450219300.0 0.8086030368 -0.5861871833
13500219000.0 0.7988458572 -0.5995365339
13550218700.0 0.7885260503 -0.6121723828
13600218400.0 0.7783977962 -0.6245220824
13650218100.0 0.7693145691 -0.6347818516
13700217800.0 0.758081356 -0.6470701388
13750217500.0 0.7482452107 -0.6585518744
13800217200.0 0.7377422447 -0.6698368962
13850216900.0 0.7263836603 -0.6809491761
13900216600.0 0.7166471961 -0.6901323274
13950216300.0 0.7055692456 -0.7000039494
14000216000.0 0.6960124967 -0.7100618709
14050215700.0 0.6859363435 -0.7185710524
14100215400.0 0.6764979055 -0.7269628158
14150215100.0 0.6671582658 -0.7357477834
14200214800.0 0.6577851874 -0.7445601946
14250214500.0 0.647309057 -0.753942358
14300214200.0 0.6369675667 -0.7633708119
14350213900.0 0.6259265656 -0.7732648962
14400213600.0 0.6142456104 -0.7828250076
14450213300.0 0.6008936548 -0.79327189
14500213000.0 0.5879077967 -0.8026128907
14550212700.0 0.5753660203 -0.8124582471
14600212400.0 0.5634206512 -0.8210380092
14650212100.0 0.5500548453 -0.8295143768
14700211800.0 0.5362487225 -0.8391923342
14750211500.0 0.5241082715 -0.8477287835
14800211200.0 0.5116968585 -0.8555728646
14850210900.0 0.4995783053 -0.8633938047
14900210600.0 0.4863973739 -0.8709720523
14950210300.0 0.4730176314 -0.8786468044
15000210000.0 0.460309501 -0.8855886472
15050209700.0 0.4477868938 -0.8915467077
15100209400.0 0.4355669858 -0.8976200173
15150209100.0 0.4227528364 -0.9031427405
15200208800.0 0.4104202475 -0.9082954292
15250208500.0 0.3988514826 -0.9131030505
15300208200.0 0.3865643555 -0.918222932
15350207900.0 0.3735736183 -0.9230205022
15400207600.0 0.3590377094 -0.9284492092
15450207300.0 0.3438918368 -0.9323076692
15500207000.0 0.3299619696 -0.9375031255
15550206700.0 0.3147702769 -0.9425951624
15600206400.0 0.2986223137 -0.9470000167
15650206100.0 0.2834389242 -0.9509467817
15700205800.0 0.2696250403 -0.9549349786
15750205500.0 0.2551775429 -0.9583759252
15800205200.0 0.2410415606 -0.9617677681
15850204900.0 0.2267619666 -0.9652084123
15900204600.0 0.2116978395 -0.9689838611
15950204300.0 0.197519215 -0.9721126142
16000204000.0 0.1831520411 -0.9747301769
16050203700.0 0.1679995136 -0.9775998869
16100203400.0 0.1532588465 -0.9797424886
16150203100.0 0.1387459367 -0.9826532826
16200202800.0 0.1248967318 -0.9841024948
16250202500.0 0.1100957263 -0.9858320114
16300202200.0 0.0946527626 -0.9877529768
16350201900.0 0.0795532705 -0.9887750815
16400201600.0 0.0647756981 -0.9901106462
16450201300.0 0.0494518997 -0.99140093
16500201000.0 0.0327091022 -0.9920868594
16550200700.0 0.0171002405 -0.992610595
16600200400.0 0.0010219723 -0.992897751
16650200100.0 -0.0148607077 -0.9928614559
16700199800.0 -0.0314118282 -0.9919886731
16750199500.0 -0.0496763007 -0.9914492293
16800199200.0 -0.0658640833 -0.990917431
16850198900.0 -0.081470478 -0.9893428054
16900198600.0 -0.0949112325 -0.9884866826
16950198300.0 -0.1083485328 -0.9879006177
17000198000.0 -0.1217965259 -0.9856910753
17050197700.0 -0.1340956335 -0.9841838785
17100197400.0 -0.1474031154 -0.982527743
17150197100.0 -0.1599559601 -0.980260367
17200196800.0 -0.1726239478 -0.9785144279
17250196500.0 -0.1853185142 -0.9755719436
17300196200.0 -0.1975559736 -0.9735464799
17350195900.0 -0.209351781 -0.9712262028
17400195600.0 -0.2215358801 -0.9685932343
17450195300.0 -0.2346711859 -0.9657778087
17500195000.0 -0.2479499679 -0.9623719108
17550194700.0 -0.261890986 -0.9589505074
17600194400.0 -0.2758612158 -0.9551710524
17650194100.0 -0.2891134764 -0.9507769302
17700193800.0 -0.3022445654 -0.9463956157
17750193500.0 -0.31657555 -0.9422423772
17800193200.0 -0.330929727 -0.936850196
17850192900.0 -0.346223104 -0.9317479007
17900192600.0 -0.3613070622 -0.9254269991
17950192300.0 -0.376854113 -0.9182469963
18000192000.0 -0.3914888237 -0.9112641331
18050191700.0 -0.4053275997 -0.9032352945
18100191400.0 -0.4196769669 -0.8954759876
18150191100.0 -0.4346151618 -0.8875018248
18200190800.0 -0.4515750535 -0.8783414556
18250190500.0 -0.4685320012 -0.8688272421
18300190200.0 -0.4836925294 -0.8599893154
18350189900.0 -0.4987520557 -0.8519712531
18400189600.0 -0.5134989135 -0.8434495547
18450189300.0 -0.526602779 -0.8358389
18500189000.0 -0.5401769743 -0.8273736357
18550188700.0 -0.5528691926 -0.8197369905
18600188400.0 -0.5646793665 -0.8131539236
18650188100.0 -0.575985992 -0.8066501676
18700187800.0 -0.5866943046 -0.8000939164
18750187500.0 -0.5974426586 -0.7934898208
18800187200.0 -0.6080764463 -0.7864801768
18850186900.0 -0.6181313979 -0.7797531268
18900186600.0 -0.6280734702 -0.7724914799
18950186300.0 -0.6384458025 -0.7647298971
19000186000.0 -0.6454529809 -0.7586532145
19050185700.0 -0.6550572289 -0.7513834004
19100185400.0 -0.6649854081 -0.7429961313
19150185100.0 -0.6747952409 -0.734620372
19200184800.0 -0.6845388724 -0.7267308395
19250184500.0 -0.6948682331 -0.7174572008
19300184200.0 -0.7063014249 -0.7074439532
19350183900.0 -0.7172381746 -0.6979749029
19400183600.0 -0.7257676405 -0.6882173099
19450183300.0 -0.7354509964 -0.6782535046
19500183000.0 -0.7441539846 -0.6685488523
19550182700.0 -0.7533254337 -0.6569802496
19600182400.0 -0.7638509718 -0.6452133527
19650182100.0 -0.774225161 -0.633325159
19700181800.0 -0.7851986673 -0.6197210694
19750181500.0 -0.7957291197 -0.6056820906
19800181200.0 -0.8060711524 -0.590689076
19850180900.0 -0.8157740807 -0.5753329821
19900180600.0 -0.823589084 -0.5607007899
19950180300.0 -0.8327391504 -0.5444998172
20000180000.0 -0.8248141359 -0.5474620265
20050179700.0 -0.8328059932 -0.5342849875
20100179400.0 -0.8413106255 -0.5207246236
20150179100.0 -0.8488185963 -0.5085511695
20200178800.0 -0.8583054875 -0.4960144447
20250178500.0 -0.8674954649 -0.4823586266
20300178200.0 -0.8775618601 -0.4688882416
20350177900.0 -0.8865248381 -0.4540114316
20400177600.0 -0.895650154 -0.4399409898
20450177300.0 -0.9039250339 -0.4256781895
20500177000.0 -0.9119510443 -0.4117465332
20550176700.0 -0.9196488926 -0.3982131852
20600176400.0 -0.9268565513 -0.3850766681
20650176100.0 -0.9325654309 -0.3731806723
20700175800.0 -0.9401842536 -0.3611271943
20750175500.0 -0.9473414895 -0.3497581158
20800175200.0 -0.9511779415 -0.3393791025
20850174900.0 -0.9553676231 -0.3276016308
20900174600.0 -0.9607542301 -0.3168424806
20950174300.0 -0.9649319526 -0.3048832586
21000174000.0 -0.9675009291 -0.2937124846
21050173700.0 -0.9694605341 -0.2836779935
21100173400.0 -0.9733445478 -0.2730264653
21150173100.0 -0.9769827179 -0.2601756746
21200172800.0 -0.9810304595 -0.246526908
21250172500.0 -0.9845178982 -0.2327064806
21300172200.0 -0.9872523678 -0.2188272742
21350171900.0 -0.9891456956 -0.2044336579
21400171600.0 -0.9908964306 -0.1902628379
21450171300.0 -0.9912931906 -0.1755551288
21500171000.0 -0.9905839895 -0.1611720716
21550170700.0 -0.9913194636 -0.1458358019
21600170400.0 -0.9911647212 -0.1293909323
21650170100.0 -0.9919378685 -0.1131454785
21700169800.0 -0.9896173163 -0.0989361972
21750169500.0 -0.9896445165 -0.083216685
21800169200.0 -0.988615974 -0.0665514154
21850168900.0 -0.9885062124 -0.049760762
21900168600.0 -0.9872389767 -0.0322164804
21950168300.0 -0.9864885857 -0.0171095974
22000168000.0 -0.9857801497 -0.0018988114
22050167700.0 -0.9855745042 0.0121900461
22100167400.0 -0.986106983 0.0279551226
22150167100.0 -0.9866542735 0.0434858942
22200166800.0 -0.987728238 0.0598278102
22250166500.0 -0.9864924328 0.0771115646
22300166200.0 -0.986743096 0.0930651505
22350165900.0 -0.9851565984 0.1098400496
22400165600.0 -0.9835637637 0.1259124316
22450165300.0 -0.9809406655 0.1402038907
22500165000.0 -0.9790867172 0.1537449457
22550164700.0 -0.9788706846 0.1699731557
22600164400.0 -0.9764685369 0.1868714858
22650164100.0 -0.9740417052 0.2004113129
22700163800.0 -0.9711487897 0.2166768452
22750163500.0 -0.9684392621 0.2318003992
22800163200.0 -0.9657095473 0.2448514086
22850162900.0 -0.9630765568 0.2584180183
22900162600.0 -0.9616762421 0.2718647585
22950162300.0 -0.9604926268 0.2848012688
23000162000.0 -0.9590226646 0.2971882759
23050161700.0 -0.9565240208 0.3099716027
23100161400.0 -0.9548219172 0.3229053558
23150161100.0 -0.9517618624 0.3356428072
23200160800.0 -0.9480627668 0.3478600387
23250160500.0 -0.94553484 0.3604424932
23300160200.0 -0.9425408437 0.3722687413
23350159900.0 -0.9392336775 0.3864927343
23400159600.0 -0.9339180559 0.3991276928
23450159300.0 -0.9291115884 0.4125802523
23500159000.0 -0.9247206118 0.4260930785
23550158700.0 -0.9202937463 0.4394302125
23600158400.0 -0.9147896066 0.4531386882
23650158100.0 -0.9079221645 0.4671905544
23700157800.0 -0.9002595275 0.4812938815
23750157500.0 -0.8912284245 0.4953166528
23800157200.0 -0.8822130665 0.5088809057
23850156900.0 -0.8731003348 0.521470183
23900156600.0 -0.8638230288 0.5341397907
23950156300.0 -0.8537971888 0.5465935095
24000156000.0 -0.84538153 0.5594031355
24050155700.0 -0.8350316366 0.5706717693
24100155400.0 -0.8245652963 0.5827488004
24150155100.0 -0.8139606564 0.5951324783
24200154800.0 -0.8034836769 0.6059953056
24250154500.0 -0.7916776578 0.6184221434
24300154200.0 -0.7809629484 0.6297310157
24350153900.0 -0.7689511599 0.6409282887
24400153600.0 -0.7563079186 0.6508944946
24450153300.0 -0.7445521342 0.6609133986
24500153000.0 -0.7331577617 0.6707923199
24550152700.0 -0.7220996272 0.6805966066
24600152400.0 -0.7100499746 0.6901887589
24650152100.0 -0.6975251404 0.6982623432
