!Created with skrf (http://scikit-rf.org).
# Hz S RI R 50.0 
!freq ReS11 ImS11
300000.0 -0.9738113774 -0.1214578259
50299700.0 -1.000044747 0.015192916
100299400.0 -0.9980261385 0.0282299305
150299100.0 -1.002901612 0.0448202646
200298800.0 -0.9995563452 0.0583114394
250298500.0 -0.9974963058 0.0719504887
300298200.0 -0.9859668441 0.0876867043
350297900.0 -0.9940689156 0.09841538
400297600.0 -0.993105494 0.115000165
450297300.0 -0.9911626797 0.1290990798
500297000.0 -0.9893179721 0.1437896329
550296700.0 -0.9842656094 0.1560914482
600296400.0 -1.017291929 0.1894321193
650296100.0 -0.9824099971 0.1861252987
700295800.0 -0.9795898625 0.2003981098
750295500.0 -0.9761007674 0.2142291869
800295200.0 -0.9731241121 0.2284892526
850294900.0 -0.9696921268 0.2423063179
900294600.0 -0.9657175284 0.255829725
950294300.0 -0.9621611393 0.2695677912
1000294000.0 -0.9582502917 0.2836773216
1050293700.0 -0.953642512 0.2972978847
1100293400.0 -0.9493128155 0.3118998012
1150293100.0 -0.9456475701 0.323669957
1200292800.0 -0.9401413182 0.3380771396
1250292500.0 -0.9348789635 0.3515051047
1300292200.0 -0.9291223502 0.3648297833
1350291900.0 -0.9235313853 0.3788624854
1400291600.0 -0.9179542931 0.3918305165
1450291300.0 -0.9125341413 0.4042661198
1500291000.0 -0.9063484286 0.4175094782
1550290700.0 -0.8996146497 0.4309298879
1600290400.0 -0.8934074362 0.4437881786
1650290100.0 -0.8866643259 0.4560040988
1700289800.0 -0.8802024619 0.4693600894
1750289500.0 -0.8727817171 0.4816633559
1800289200.0 -0.8656199087 0.4947737705
1850288900.0 -0.8589362953 0.5061487076
1900288600.0 -0.8507837769 0.5190585549
1950288300.0 -0.8431369682 0.5316062081
2000288000.0 -0.8356029063 0.5430017238
2050287700.0 -0.8272288893 0.5553090283
2100287400.0 -0.8193304793 0.5669752666
2150287100.0 -0.8106872558 0.5790263806
2200286800.0 -0.8028792437 0.5893641569
2250286500.0 -0.7942197814 0.6015058095
2300286200.0 -0.7852420797 0.613130754
2350285900.0 -0.7766500082 0.6238594077
2400285600.0 -0.767480604 0.6349682623
2450285300.0 -0.7591562442 0.6453939263
2500285000.0 -0.7493110975 0.6566388734
2550284700.0 -0.7405358535 0.6670702759
2600284400.0 -0.730900555 0.6771599228
2650284100.0 -0.7222357427 0.6876119133
2700283800.0 -0.711451581 0.6979086126
2750283500.0 -0.701387427 0.7089076742
2800283200.0 -0.6913576931 0.7182606705
2850282900.0 -0.6813137404 0.7283104039
2900282600.0 -0.6708190057 0.7380160975
2950282300.0 -0.6605672 0.747197884
3000282000.0 -0.6498502075 0.7566117696
3050281700.0 -0.6385079186 0.7657381059
3100281400.0 -0.6268089382 0.7752374126
3150281100.0 -0.6150637565 0.7844947217
3200280800.0 -0.6035854836 0.7931135067
3250280500.0 -0.5926101856 0.8008043372
3300280200.0 -0.5812972555 0.8088501599
3350279900.0 -0.5698323874 0.81619447
3400279600.0 -0.5574926634 0.8239734242
3450279300.0 -0.5461474087 0.8312440367
3500279000.0 -0.5342314227 0.8383064692
3550278700.0 -0.5219616881 0.8454842044
3600278400.0 -0.5096615346 0.8524601185
3650278100.0 -0.4965394737 0.8601410979
3700277800.0 -0.4845474806 0.8667310741
3750277500.0 -0.4722936339 0.8731047847
3800277200.0 -0.4598227704 0.8796653745
3850276900.0 -0.4477805271 0.8856309777
3900276600.0 -0.4369914719 0.8912837061
3950276300.0 -0.4246886768 0.8975956698
4000276000.0 -0.4127137956 0.9034826812
4050275700.0 -0.3998940935 0.9095844832
4100275400.0 -0.3886267787 0.9149062421
4150275100.0 -0.3759382593 0.9204053762
4200274800.0 -0.3629936347 0.9262285958
4250274500.0 -0.3504856723 0.9310693048
4300274200.0 -0.3376723487 0.9367118312
4350273900.0 -0.3235838405 0.9418274276
4400273600.0 -0.3088669903 0.9470935464
4450273300.0 -0.2937111779 0.9520006024
4500273000.0 -0.2802449855 0.9567384418
4550272700.0 -0.2659001606 0.960942504
4600272400.0 -0.250541141 0.9651043061
4650272100.0 -0.2388621296 0.9681308597
4700271800.0 -0.2255556714 0.9716614208
4750271500.0 -0.2138550364 0.9744295895
4800271200.0 -0.2014884777 0.977130214
4850270900.0 -0.187486342 0.9798608773
4900270600.0 -0.173651788 0.9822412176
4950270300.0 -0.1593762611 0.9850859335
5000270000.0 -0.1450999442 0.9868747763
5050269700.0 -0.1316645936 0.988359868
5100269400.0 -0.117774775 0.9902341669
5150269100.0 -0.1044020313 0.9918726256
5200268800.0 -0.0910595164 0.992996969
5250268500.0 -0.0781008052 0.9935299059
5300268200.0 -0.06497657 0.9942224857
5350267900.0 -0.0524894478 0.9952203677
5400267600.0 -0.0365570803 0.9963742385
5450267300.0 -0.0232706812 0.996671974
5500267000.0 -0.0080031123 0.9970620284
5550266700.0 0.0068362177 0.9972176705
5600266400.0 0.0224557822 0.99724535
5650266100.0 0.0389860432 0.9970379356
5700265800.0 0.0533279396 0.9964822824
5750265500.0 0.0683651225 0.9952191379
5800265200.0 0.082331893 0.9941288499
5850264900.0 0.0954154449 0.9933104536
5900264600.0 0.1121043374 0.9915815178
5950264300.0 0.1240359442 0.9905068176
6000264000.0 0.1385017819 0.988335111
6050263700.0 0.1505260006 0.9869733727
6100263400.0 0.1626493031 0.9850253568
6150263100.0 0.1775101575 0.9826099849
6200262800.0 0.187622431 0.9809423183
6250262500.0 0.200446148 0.9786866277
6300262200.0 0.2132076809 0.9757385939
6350261900.0 0.2261582274 0.9730180691
6400261600.0 0.2402784293 0.9697413367
6450261300.0 0.2515030028 0.9670566856
6500261000.0 0.2643885988 0.9635298858
6550260700.0 0.2769209925 0.959203466
6600260400.0 0.2905989509 0.955505248
6650260100.0 0.3044628367 0.9508802813
6700259800.0 0.3165519388 0.9467925116
6750259500.0 0.3307485339 0.9419815761
6800259200.0 0.3435734312 0.9368784179
6850258900.0 0.3556694205 0.9314872658
6900258600.0 0.367896908 0.9263559681
6950258300.0 0.380414352 0.9211962177
7000258000.0 0.3926016158 0.9158885465
7050257700.0 0.4044470667 0.9100094987
7100257400.0 0.4174191588 0.9034617273
7150257100.0 0.4278583169 0.8984062635
7200256800.0 0.440680394 0.8919275445
7250256500.0 0.4526626955 0.885440444
7300256200.0 0.4655606292 0.8786642888
7350255900.0 0.4781709064 0.871642775
7400255600.0 0.4915410947 0.8645690341
7450255300.0 0.5072296924 0.8554920499
7500255000.0 0.5189392939 0.8487326262
7550254700.0 0.5329038226 0.84007802
7600254400.0 0.5452142689 0.8316205788
7650254100.0 0.5561748091 0.8238035106
7700253800.0 0.5681313537 0.8158387309
7750253500.0 0.5795282879 0.8081479646
7800253200.0 0.5904899463 0.8006058836
7850252900.0 0.6001929098 0.7934483529
7900252600.0 0.6117189424 0.7846376162
7950252300.0 0.6204806907 0.7781436044
8000252000.0 0.630552093 0.7705406886
8050251700.0 0.6410379356 0.7624148532
8100251400.0 0.6513422164 0.7542327709
8150251100.0 0.6611559016 0.7456197752
8200250800.0 0.6702845042 0.7376676049
8250250500.0 0.6795093704 0.7298121054
8300250200.0 0.6889037054 0.7210914704
8350249900.0 0.6978570855 0.7124674644
8400249600.0 0.7060262843 0.7044183007
8450249300.0 0.7151786457 0.6952906258
8500249000.0 0.7237168884 0.6862324852
8550248700.0 0.7320171418 0.6774043409
8600248400.0 0.7405218561 0.6676995327
8650248100.0 0.7484406497 0.6583592998
8700247800.0 0.7577872391 0.6470482136
8750247500.0 0.7662767124 0.6369931395
8800247200.0 0.7742056756 0.626721815
8850246900.0 0.7833444728 0.6151083454
8900246600.0 0.7915149947 0.6037604364
8950246300.0 0.8008854608 0.5909986783
9000246000.0 0.8104682644 0.5783467924
9050245700.0 0.8193915286 0.5655881322
9100245400.0 0.827583386 0.5532569046
9150245100.0 0.8372106495 0.5395483553
9200244800.0 0.8469490641 0.5243276284
9250244500.0 0.8562525477 0.5090454564
9300244200.0 0.8646644532 0.4946788364
9350243900.0 0.8722381927 0.4808937847
9400243600.0 0.8790126599 0.4686143427
9450243300.0 0.8849111215 0.4571333622
9500243000.0 0.8910679487 0.4450978602
9550242700.0 0.8949030301 0.4374338811
9600242400.0 0.8988588 0.4300128035
9650242100.0 0.902462189 0.4235446492
9700241800.0 0.9072803695 0.4153360152
9750241500.0 0.9112302823 0.4075552251
9800241200.0 0.9159533019 0.3984810774
9850240900.0 0.9215751497 0.386694677
9900240600.0 0.9273598958 0.3753482355
9950240300.0 0.9339193519 0.3590743487
10000240000.0 0.9385676388 0.3473437943
10050239700.0 0.9443210216 0.3321242273
10100239400.0 0.9496323055 0.3160160614
10150239100.0 0.9539425955 0.3013222761
10200238800.0 0.9580485964 0.2865627287
10250238500.0 0.9613672101 0.2730982571
10300238200.0 0.9645968977 0.2592464556
10350237900.0 0.967172777 0.2460257039
10400237600.0 0.9697644292 0.2327651477
10450237300.0 0.9724434072 0.2191219903
10500237000.0 0.9747555118 0.2066398533
10550236700.0 0.9769040826 0.1925310023
10600236400.0 0.9794153178 0.178826887
10650236100.0 0.9808132 0.164449301
10700235800.0 0.9828363768 0.1528442069
10750235500.0 0.9857257484 0.1387127663
10800235200.0 0.9876384514 0.1252062024
10850234900.0 0.9894801268 0.1101559394
10900234600.0 0.9917131288 0.0953183242
10950234300.0 0.9934534137 0.0819104408
11000234000.0 0.9952653603 0.0669385968
11050233700.0 0.9969986133 0.0506127203
11100233400.0 0.9982259976 0.0332953206
11150233100.0 0.9994444009 0.0173869628
11200232800.0 1.000734932 0.0011434515
11250232500.0 1.001511409 -0.0151216941
11300232200.0 1.001756536 -0.0330980719
11350231900.0 1.001319587 -0.0494970993
11400231600.0 1.001301315 -0.0647878329
11450231300.0 1.00049571 -0.0795512634
11500231000.0 0.9999121909 -0.0967984475
11550230700.0 0.9988133883 -0.1095088286
11600230400.0 0.9973428889 -0.1220541346
11650230100.0 0.9952324374 -0.1337476958
11700229800.0 0.9930127494 -0.1479115301
11750229500.0 0.9904059072 -0.1619046901
11800229200.0 0.9877837477 -0.1759458873
11850228900.0 0.9845516159 -0.18861208
11900228600.0 0.9809063707 -0.1985444919
11950228300.0 0.9776479692 -0.20865457
12000228000.0 0.9748806379 -0.2176195605
12050227700.0 0.9717923612 -0.2297484493
12100227400.0 0.9685609016 -0.2405431121
12150227100.0 0.9631726636 -0.2584238309
12200226800.0 0.9597136342 -0.2686640204
12250226500.0 0.956009572 -0.281435059
12300226200.0 0.9518665298 -0.2938737622
12350225900.0 0.9461589765 -0.3078552296
12400225600.0 0.9424636901 -0.3208674602
12450225300.0 0.9376705726 -0.3333825987
12500225000.0 0.9322495088 -0.3483473378
12550224700.0 0.9266728079 -0.3623536835
12600224400.0 0.922154216 -0.375111776
12650224100.0 0.9162222102 -0.389546809
12700223800.0 0.9108519435 -0.4022958415
12750223500.0 0.9054293331 -0.4154713715
12800223200.0 0.9002853475 -0.4279295088
12850222900.0 0.8946132503 -0.4407700218
12900222600.0 0.8887303105 -0.4519615619
12950222300.0 0.8828724877 -0.4655454636
13000222000.0 0.8765611811 -0.4766000602
13050221700.0 0.8700368219 -0.4890982694
13100221400.0 0.8636307852 -0.500964558
13150221100.0 0.856418798 -0.513187208
13200220800.0 0.8496255878 -0.5249719287
13250220500.0 0.8424348736 -0.5368327634
13300220200.0 0.8348868166 -0.5478838554
13350219900.0 0.8269903113 -0.5596933985
13400219600.0 0.8185335795 -0.5720172848
13450219300.0 0.8092258719 -0.5853440331
13500219000.0 0.7989739166 -0.598873931
13550218700.0 0.7886109492 -0.6118722314
13600218400.0 0.7785638173 -0.6238475199
13650218100.0 0.7694149819 -0.6352535672
13700217800.0 0.7590761439 -0.6473239736
13750217500.0 0.7486199325 -0.6580644769
13800217200.0 0.7371939008 -0.6701432034
13850216900.0 0.7264248206 -0.6817719207
13900216600.0 0.7169237149 -0.6899084099
13950216300.0 0.7058163516 -0.7008666514
14000216000.0 0.6957400257 -0.7104842713
14050215700.0 0.6862473411 -0.7180449246
14100215400.0 0.6763996413 -0.7274686643
14150215100.0 0.6672361117 -0.7361110089
14200214800.0 0.6579996229 -0.744630852
14250214500.0 0.6474249692 -0.7540646423
14300214200.0 0.6372319871 -0.7632993741
14350213900.0 0.6258847009 -0.7729809438
14400213600.0 0.6144200735 -0.782648336
14450213300.0 0.6011679438 -0.7929057994
14500213000.0 0.5881028202 -0.8028555563
14550212700.0 0.5755894086 -0.8121885665
14600212400.0 0.5630909393 -0.8211922495
14650212100.0 0.5499283241 -0.8298346487
14700211800.0 0.5362059493 -0.8391939833
14750211500.0 0.5241655938 -0.8475836504
14800211200.0 0.5115781464 -0.8559738008
14850210900.0 0.4994852238 -0.8632200537
14900210600.0 0.4862752282 -0.8709348416
14950210300.0 0.4729696932 -0.8784863612
15000210000.0 0.4602347339 -0.8854795615
15050209700.0 0.448123352 -0.8914940686
15100209400.0 0.4353188238 -0.8975136381
15150209100.0 0.4233510106 -0.9027868099
15200208800.0 0.4104828292 -0.9089366138
15250208500.0 0.3990744172 -0.9123944661
15300208200.0 0.3875248815 -0.9175164706
15350207900.0 0.3744442727 -0.9220351467
15400207600.0 0.3590992258 -0.9281797296
15450207300.0 0.345524257 -0.9329165853
15500207000.0 0.3303250541 -0.9375758567
15550206700.0 0.3147127537 -0.9422837081
15600206400.0 0.2991812196 -0.94633773
15650206100.0 0.2836963898 -0.9509345077
15700205800.0 0.2700812397 -0.9546554762
15750205500.0 0.2554205523 -0.9583854319
15800205200.0 0.2409487876 -0.96192412
15850204900.0 0.2266936674 -0.965206844
15900204600.0 0.2114598864 -0.9688639595
15950204300.0 0.1975174529 -0.9718689345
16000204000.0 0.1831681306 -0.9747364037
16050203700.0 0.1680235412 -0.9775888931
16100203400.0 0.1537072617 -0.9798536449
16150203100.0 0.1394054784 -0.9821044246
16200202800.0 0.124839686 -0.9843223309
16250202500.0 0.1102535538 -0.9861819518
16300202200.0 0.0943699693 -0.9875470413
16350201900.0 0.0798218882 -0.9890767745
16400201600.0 0.0648359609 -0.9902488943
16450201300.0 0.0496496144 -0.9915195133
16500201000.0 0.0329731856 -0.9921897999
16550200700.0 0.0172599951 -0.9926709914
16600200400.0 0.0014834608 -0.992919603
16650200100.0 -0.0145225852 -0.9929275032
16700199800.0 -0.0308152773 -0.9925075288
16750199500.0 -0.0492480124 -0.9915091706
16800199200.0 -0.0651337786 -0.9912845416
16850198900.0 -0.0805985404 -0.9897091792
16900198600.0 -0.0943519016 -0.9892898861
16950198300.0 -0.1079898512 -0.9876233748
17000198000.0 -0.1199795169 -0.9864358303
17050197700.0 -0.1333834642 -0.9843959295
17100197400.0 -0.1462821578 -0.9825905888
17150197100.0 -0.1587676929 -0.9807229242
17200196800.0 -0.1716121397 -0.9778989092
17250196500.0 -0.1843480117 -0.9760871749
17300196200.0 -0.1967951328 -0.973681007
17350195900.0 -0.2084757704 -0.9713004368
17400195600.0 -0.2206275188 -0.968781542
17450195300.0 -0.2338021053 -0.9660858241
17500195000.0 -0.247160512 -0.9627499931
17550194700.0 -0.2611618728 -0.9591473015
17600194400.0 -0.2752979434 -0.9550446826
17650194100.0 -0.2889685737 -0.9512946814
17700193800.0 -0.3017343256 -0.9469902024
17750193500.0 -0.3160817856 -0.9421403349
17800193200.0 -0.3307348794 -0.9368470574
17850192900.0 -0.3458022914 -0.9316912963
17900192600.0 -0.3608766242 -0.9256996616
17950192300.0 -0.3764745392 -0.91821244
18000192000.0 -0.3913619572 -0.9110232949
18050191700.0 -0.405077228 -0.9033022501
18100191400.0 -0.4194781153 -0.8956762258
18150191100.0 -0.4343199168 -0.8876479629
18200190800.0 -0.451344854 -0.8784119204
18250190500.0 -0.4683498652 -0.8689143231
18300190200.0 -0.4837549463 -0.8599213652
18350189900.0 -0.4987523035 -0.851994251
18400189600.0 -0.51337308 -0.8440776108
18450189300.0 -0.5265424071 -0.8356591491
18500189000.0 -0.5397470107 -0.8279414341
18550188700.0 -0.5523979592 -0.8202507218
18600188400.0 -0.5636186011 -0.8139028644
18650188100.0 -0.5755092107 -0.8067656803
18700187800.0 -0.585869249 -0.8006788237
18750187500.0 -0.5965378737 -0.7943257651
18800187200.0 -0.6070091428 -0.7872085223
18850186900.0 -0.6170406509 -0.7803766264
18900186600.0 -0.6273707965 -0.7728830266
18950186300.0 -0.6373213503 -0.7654014079
19000186000.0 -0.6445265401 -0.7591686772
19050185700.0 -0.6537475544 -0.7520495296
19100185400.0 -0.6637707149 -0.744150528
19150185100.0 -0.6738344604 -0.7354973803
19200184800.0 -0.68313231 -0.7274212344
19250184500.0 -0.6937013937 -0.7183188615
19300184200.0 -0.7049220027 -0.708328023
19350183900.0 -0.7152458041 -0.6985916023
19400183600.0 -0.7246842266 -0.6882620078
19450183300.0 -0.7340728753 -0.6787921521
19500183000.0 -0.7426476863 -0.6688660435
19550182700.0 -0.7521636405 -0.6577482205
19600182400.0 -0.7629462749 -0.6455350589
19650182100.0 -0.7735702396 -0.63348332
19700181800.0 -0.7842846688 -0.6201162389
19750181500.0 -0.7949806991 -0.606011094
19800181200.0 -0.805259971 -0.5910394718
19850180900.0 -0.8150686667 -0.575706203
19900180600.0 -0.8229708727 -0.561180789
19950180300.0 -0.832283823 -0.5448334162
20000180000.0 -0.825064037 -0.5472400393
20050179700.0 -0.8332768128 -0.533378738
20100179400.0 -0.8419475324 -0.5196385925
20150179100.0 -0.8503592987 -0.5081987513
20200178800.0 -0.8591800353 -0.4948687779
20250178500.0 -0.8684045476 -0.4817904436
20300178200.0 -0.8782072145 -0.4673356163
20350177900.0 -0.8871500293 -0.4529199908
20400177600.0 -0.8959438626 -0.4389211196
20450177300.0 -0.904663404 -0.4245170551
20500177000.0 -0.912308689 -0.4104601841
20550176700.0 -0.920457237 -0.3970718558
20600176400.0 -0.9272406864 -0.3841180158
20650176100.0 -0.933637561 -0.3717016357
20700175800.0 -0.9404889871 -0.3601802416
20750175500.0 -0.9465211953 -0.3480294432
20800175200.0 -0.9509267203 -0.3373285609
20850174900.0 -0.9564045454 -0.3266048898
20900174600.0 -0.9611674543 -0.3153356198
20950174300.0 -0.9650332478 -0.3036638325
21000174000.0 -0.9683434799 -0.2925220006
21050173700.0 -0.9705443993 -0.2817641536
21100173400.0 -0.9754656078 -0.2701173821
21150173100.0 -0.9788838978 -0.2575465289
21200172800.0 -0.9824022084 -0.243844776
21250172500.0 -0.9855076099 -0.2303249209
21300172200.0 -0.9884741618 -0.2165348565
21350171900.0 -0.9898662437 -0.2018732346
21400171600.0 -0.9915299908 -0.1873672558
21450171300.0 -0.992348894 -0.1725325301
21500171000.0 -0.9916854985 -0.1584350145
21550170700.0 -0.9915638895 -0.1417415894
21600170400.0 -0.9926696349 -0.1262574996
21650170100.0 -0.9918668076 -0.1105716458
21700169800.0 -0.9895902494 -0.0956262721
21750169500.0 -0.9892389975 -0.0795931723
21800169200.0 -0.9883656137 -0.0626372993
21850168900.0 -0.9871870702 -0.0462408113
21900168600.0 -0.9868528049 -0.0303025304
21950168300.0 -0.9851725976 -0.0142245366
22000168000.0 -0.9844190636 0.0002615406
22050167700.0 -0.9845453381 0.0146183678
22100167400.0 -0.9845072754 0.030334747
22150167100.0 -0.9854789733 0.0462456548
22200166800.0 -0.9858003493 0.0622858725
22250166500.0 -0.9857664835 0.0792948069
22300166200.0 -0.9845933589 0.0960656702
22350165900.0 -0.9827777194 0.1121256043
22400165600.0 -0.9822297178 0.1278929301
22450165300.0 -0.9796445415 0.1427786679
22500165000.0 -0.9774547327 0.1570949144
22550164700.0 -0.9764868002 0.1728790854
22600164400.0 -0.9759233914 0.1874306506
22650164100.0 -0.9722590912 0.2034455726
22700163800.0 -0.969679726 0.2185076561
22750163500.0 -0.9666261143 0.2339962916
22800163200.0 -0.9644402799 0.2473248557
22850162900.0 -0.9621671755 0.2598509827
22900162600.0 -0.9602188896 0.2736948254
22950162300.0 -0.9588801057 0.2864638387
23000162000.0 -0.9577870792 0.2985247951
23050161700.0 -0.9558442519 0.3109334844
23100161400.0 -0.9533144365 0.3239311516
23150161100.0 -0.9510712933 0.336421546
23200160800.0 -0.9475390823 0.3489590628
23250160500.0 -0.9450445838 0.3607586346
23300160200.0 -0.9421979361 0.3725628579
23350159900.0 -0.9389232436 0.3862162615
23400159600.0 -0.9342858082 0.3992358555
23450159300.0 -0.9291281426 0.4129430256
23500159000.0 -0.9249766663 0.4258803813
23550158700.0 -0.9198247764 0.439439345
23600158400.0 -0.9146520907 0.4525286407
23650158100.0 -0.9084472504 0.4669147138
23700157800.0 -0.9011821394 0.4807868568
23750157500.0 -0.8920732871 0.4948770726
23800157200.0 -0.8833696947 0.5076962069
23850156900.0 -0.8748263314 0.5208228827
23900156600.0 -0.8647802974 0.5333045729
23950156300.0 -0.8561422761 0.5459751505
24000156000.0 -0.8466947192 0.557923789
24050155700.0 -0.8366769827 0.5694757529
24100155400.0 -0.8272474269 0.5814347165
24150155100.0 -0.8157925628 0.5938553394
24200154800.0 -0.8044494286 0.6049714938
24250154500.0 -0.7941042935 0.6167048925
24300154200.0 -0.7826446411 0.6280654987
24350153900.0 -0.7706471026 0.6389569081
24400153600.0 -0.7584761866 0.6487218203
24450153300.0 -0.7465634138 0.6589239769
24500153000.0 -0.7349712511 0.6686629003
24550152700.0 -0.7242198626 0.6788294966
24600152400.0 -0.7116900949 0.6875598982
24650152100.0 -0.7009345469 0.6959077094
