!Created with skrf (http://scikit-rf.org).
# Hz S RI R 50.0 
!freq ReS11 ImS11
300000.0 -0.9762253138 -0.1185427374
50299700.0 -1.000074343 0.015275861
100299400.0 -0.9978643493 0.0282819949
150299100.0 -1.002735195 0.0452406229
200298800.0 -0.999579044 0.0585150195
250298500.0 -0.9973895529 0.0720754669
300298200.0 -0.9860263093 0.0877585775
350297900.0 -0.9940465977 0.0987004415
400297600.0 -0.9931715722 0.115184123
450297300.0 -0.9909026285 0.1291544261
500297000.0 -0.9895379341 0.1438064637
550296700.0 -0.9843497529 0.1561349407
600296400.0 -1.017321946 0.1894557206
650296100.0 -0.9820902035 0.1862771369
700295800.0 -0.9792680886 0.200580463
750295500.0 -0.9765410642 0.214396047
800295200.0 -0.9730981644 0.2287757704
850294900.0 -0.969417688 0.2422515086
900294600.0 -0.9658764567 0.2560657985
950294300.0 -0.9620236275 0.2696974808
1000294000.0 -0.9582491987 0.2838161301
1050293700.0 -0.9535658273 0.2975343038
1100293400.0 -0.9492768074 0.3119770042
1150293100.0 -0.945534655 0.3238908153
1200292800.0 -0.9401502871 0.3381834964
1250292500.0 -0.9347507908 0.3516128981
1300292200.0 -0.9289046419 0.3650661856
1350291900.0 -0.9234703951 0.3790658578
1400291600.0 -0.9181217986 0.3920312437
1450291300.0 -0.9124912646 0.4046459291
1500291000.0 -0.9060179058 0.4177126198
1550290700.0 -0.8996026532 0.4312024388
1600290400.0 -0.8934379234 0.4441029592
1650290100.0 -0.8867366754 0.4562091992
1700289800.0 -0.8800089633 0.4695273006
1750289500.0 -0.8728104102 0.4818273806
1800289200.0 -0.8654536194 0.4948890016
1850288900.0 -0.8587212647 0.5059973072
1900288600.0 -0.850965173 0.5190827049
1950288300.0 -0.8427982172 0.5315788396
2000288000.0 -0.8352491704 0.5429404518
2050287700.0 -0.8271177299 0.555380873
2100287400.0 -0.8194227593 0.566991393
2150287100.0 -0.810828744 0.5790812927
2200286800.0 -0.8030264672 0.5894482084
2250286500.0 -0.7940919509 0.6016534307
2300286200.0 -0.785098736 0.6132636153
2350285900.0 -0.7765257805 0.6240286657
2400285600.0 -0.7675371463 0.6352156136
2450285300.0 -0.7589788641 0.6454444033
2500285000.0 -0.7492670486 0.656865609
2550284700.0 -0.7402042118 0.6669835651
2600284400.0 -0.7309474 0.6771488844
2650284100.0 -0.7218170229 0.687739625
2700283800.0 -0.7112732812 0.6980834963
2750283500.0 -0.7011436159 0.7085718349
2800283200.0 -0.6913182977 0.7185201012
2850282900.0 -0.6808477015 0.7284344601
2900282600.0 -0.6706304573 0.7377507862
2950282300.0 -0.6604857911 0.7471350917
3000282000.0 -0.6496423461 0.756680605
3050281700.0 -0.638737729 0.7661066973
3100281400.0 -0.6265992252 0.7754853671
3150281100.0 -0.6149815857 0.7848677597
3200280800.0 -0.6033733423 0.7932476816
3250280500.0 -0.592476386 0.8010829294
3300280200.0 -0.5811811265 0.8088917111
3350279900.0 -0.5694793648 0.8164745278
3400279600.0 -0.557398292 0.8243350924
3450279300.0 -0.5460355683 0.8313812578
3500279000.0 -0.5343295182 0.8383395316
3550278700.0 -0.5220163251 0.8459437498
3600278400.0 -0.5097156149 0.852911943
3650278100.0 -0.4967177452 0.8603918546
3700277800.0 -0.4844698586 0.8670449199
3750277500.0 -0.4723028141 0.8734158375
3800277200.0 -0.4596486404 0.8799886695
3850276900.0 -0.4476257154 0.8857618935
3900276600.0 -0.436864502 0.8915293863
3950276300.0 -0.4243346426 0.8975073495
4000276000.0 -0.4122448115 0.9034291053
4050275700.0 -0.3995063138 0.9096677594
4100275400.0 -0.3884119267 0.9148198936
4150275100.0 -0.3756037707 0.9204664241
4200274800.0 -0.3626500763 0.9263257005
4250274500.0 -0.350657314 0.9315639529
4300274200.0 -0.337330635 0.9367228663
4350273900.0 -0.3236420459 0.9420035946
4400273600.0 -0.3086633331 0.9474063138
4450273300.0 -0.2932790943 0.9522635595
4500273000.0 -0.2797518812 0.9567464032
4550272700.0 -0.2658622365 0.960970562
4600272400.0 -0.2503286077 0.9651030272
4650272100.0 -0.2384525104 0.9682553093
4700271800.0 -0.2253029448 0.971598942
4750271500.0 -0.2134274157 0.9745035667
4800271200.0 -0.201080059 0.9773235799
4850270900.0 -0.1871577475 0.9800439486
4900270600.0 -0.1732527054 0.9822409485
4950270300.0 -0.1588712777 0.9848661052
5000270000.0 -0.1445169359 0.9873453707
5050269700.0 -0.1313104555 0.9888247272
5100269400.0 -0.1176069322 0.9903806729
5150269100.0 -0.1042523388 0.9919963969
5200268800.0 -0.0909641928 0.9926519698
5250268500.0 -0.0780795216 0.9941286246
5300268200.0 -0.0646121728 0.9947812239
5350267900.0 -0.0524846967 0.995247955
5400267600.0 -0.0361279873 0.996394835
5450267300.0 -0.0231379934 0.9967913751
5500267000.0 -0.0078877539 0.9970836974
5550266700.0 0.0072140329 0.9974644517
5600266400.0 0.0226143479 0.9974469382
5650266100.0 0.039253273 0.9971874601
5700265800.0 0.0533600052 0.9962790693
5750265500.0 0.0687559603 0.9953902163
5800265200.0 0.0826936745 0.9944927256
5850264900.0 0.0960443198 0.9938572989
5900264600.0 0.1124298862 0.991758894
5950264300.0 0.1246586872 0.9901384346
6000264000.0 0.1384512687 0.9884627297
6050263700.0 0.1510016474 0.9869326835
6100263400.0 0.1633359142 0.9851376211
6150263100.0 0.1777609178 0.9825731715
6200262800.0 0.1881966586 0.9809470158
6250262500.0 0.2008649409 0.978496644
6300262200.0 0.2137416317 0.9757706531
6350261900.0 0.2265873257 0.9728885736
6400261600.0 0.2404716152 0.969497765
6450261300.0 0.2518788294 0.9667957006
6500261000.0 0.2648529507 0.9631512655
6550260700.0 0.2777136029 0.9593827244
6600260400.0 0.2910791985 0.9553258948
6650260100.0 0.3048841 0.9509500604
6700259800.0 0.3167665127 0.9464939849
6750259500.0 0.3309516466 0.9414715171
6800259200.0 0.3438685037 0.9365433046
6850258900.0 0.3561112726 0.9317203681
6900258600.0 0.3682386773 0.9266497031
6950258300.0 0.3808394603 0.9212570125
7000258000.0 0.3927740354 0.9157884475
7050257700.0 0.4049844646 0.9098928529
7100257400.0 0.4178100143 0.9034775462
7150257100.0 0.4282328062 0.8981953372
7200256800.0 0.4408963872 0.8915647179
7250256500.0 0.4528856734 0.8855575308
7300256200.0 0.4660654669 0.878781036
7350255900.0 0.478601549 0.8720077225
7400255600.0 0.4916688695 0.8645534504
7450255300.0 0.5068207343 0.8555228309
7500255000.0 0.5187669945 0.848591742
7550254700.0 0.5326746445 0.8399468548
7600254400.0 0.5452392976 0.8316280057
7650254100.0 0.5568956301 0.8237367517
7700253800.0 0.5688538813 0.8159044473
7750253500.0 0.5799429307 0.8080880034
7800253200.0 0.5904972343 0.8002954162
7850252900.0 0.6002187509 0.7932872571
7900252600.0 0.6119610923 0.784561118
7950252300.0 0.6205877388 0.7779499316
8000252000.0 0.6310109637 0.7703905961
8050251700.0 0.6412853694 0.7622012906
8100251400.0 0.6517053164 0.7540073286
8150251100.0 0.6614922685 0.7454683924
8200250800.0 0.6710459264 0.737497389
8250250500.0 0.6794964959 0.7297220876
8300250200.0 0.6893358732 0.7209516976
8350249900.0 0.6980641316 0.7122597986
8400249600.0 0.7062558546 0.7042916654
8450249300.0 0.7155212869 0.6951543445
8500249000.0 0.7239692492 0.6862089395
8550248700.0 0.7323440551 0.6771745678
8600248400.0 0.7407577205 0.6676948562
8650248100.0 0.7485026084 0.6582539368
8700247800.0 0.7580649317 0.6470359594
8750247500.0 0.7663039193 0.6368806091
8800247200.0 0.7745924341 0.6265689386
8850246900.0 0.7834629954 0.6150829273
8900246600.0 0.7920436371 0.6035703492
8950246300.0 0.8009494622 0.5908297321
9000246000.0 0.810485926 0.5780794292
9050245700.0 0.8193361645 0.5650956253
9100245400.0 0.8284285447 0.5526272149
9150245100.0 0.8376407097 0.5388772002
9200244800.0 0.8475673832 0.5238344436
9250244500.0 0.8566774341 0.5085349002
9300244200.0 0.8652155306 0.4937198429
9350243900.0 0.8727876088 0.4801345573
9400243600.0 0.8794728527 0.4678123189
9450243300.0 0.8853387528 0.4562520986
9500243000.0 0.8915465565 0.4441335512
9550242700.0 0.8953855803 0.4366344773
9600242400.0 0.8994784631 0.4290388789
9650242100.0 0.9033417712 0.422475858
9700241800.0 0.9079047981 0.4142195217
9750241500.0 0.9118501036 0.4068605195
9800241200.0 0.9164066509 0.3976240379
9850240900.0 0.9219265047 0.3859349516
9900240600.0 0.9278129834 0.3744525904
9950240300.0 0.9343380844 0.3582584414
10000240000.0 0.9393883475 0.3463344896
10050239700.0 0.9448673736 0.3312946855
10100239400.0 0.9496802679 0.3156631007
10150239100.0 0.9541616087 0.3010319043
10200238800.0 0.9583308044 0.2860721725
10250238500.0 0.9615377772 0.2726855442
10300238200.0 0.9647152946 0.2586210019
10350237900.0 0.9674176584 0.2456458672
10400237600.0 0.9697343052 0.2325974554
10450237300.0 0.9726864015 0.2183989716
10500237000.0 0.9747006664 0.2064947656
10550236700.0 0.9770445439 0.1924725432
10600236400.0 0.9795269055 0.178264176
10650236100.0 0.9810882756 0.163820895
10700235800.0 0.9835167698 0.1518116841
10750235500.0 0.9855733175 0.1387076914
10800235200.0 0.9877912098 0.1241594047
10850234900.0 0.9895066129 0.1097162024
10900234600.0 0.9919577177 0.0951249884
10950234300.0 0.9934390392 0.0818185856
11000234000.0 0.995246505 0.0666458409
11050233700.0 0.9970012251 0.0502520064
11100233400.0 0.9985180583 0.0328764312
11150233100.0 0.9996061913 0.016778761
11200232800.0 1.000385028 0.0014560307
11250232500.0 1.00180005 -0.0156220479
11300232200.0 1.00137579 -0.0323049888
11350231900.0 1.001689614 -0.047977595
11400231600.0 1.001180799 -0.0640473291
11450231300.0 1.001250021 -0.0800800458
11500231000.0 0.9999009437 -0.0965236882
11550230700.0 0.9982222588 -0.1093354751
11600230400.0 0.9967501251 -0.1218528045
11650230100.0 0.9953403875 -0.1334485192
11700229800.0 0.9929866016 -0.1482886862
11750229500.0 0.991088647 -0.1625454641
11800229200.0 0.9885480785 -0.176351968
11850228900.0 0.9847077895 -0.1883868114
11900228600.0 0.9811779705 -0.198465383
11950228300.0 0.9781446196 -0.2087760708
12000228000.0 0.9752654948 -0.2174890801
12050227700.0 0.9713557546 -0.2304972714
12100227400.0 0.9683250093 -0.2409241553
12150227100.0 0.9631682619 -0.2582790996
12200226800.0 0.9598381092 -0.2687370883
12250226500.0 0.9553800713 -0.2813290588
12300226200.0 0.9511342104 -0.2941213367
12350225900.0 0.9468195372 -0.308058865
12400225600.0 0.9424986406 -0.3202720501
12450225300.0 0.937711015 -0.3337937831
12500225000.0 0.9322647624 -0.3487827102
12550224700.0 0.9266714722 -0.3623258713
12600224400.0 0.9218657617 -0.3751085728
12650224100.0 0.9160952544 -0.3896027477
12700223800.0 0.9108856463 -0.4024213243
12750223500.0 0.9053014909 -0.4156205007
12800223200.0 0.8999822053 -0.4280037192
12850222900.0 0.8944712492 -0.4404046352
12900222600.0 0.8886793072 -0.4523252866
12950222300.0 0.8827923008 -0.4652338618
13000222000.0 0.8770572788 -0.4761711696
13050221700.0 0.8704145719 -0.4890011324
13100221400.0 0.8636132587 -0.5015599536
13150221100.0 0.8567433276 -0.5133381457
13200220800.0 0.8499188401 -0.5246522706
13250220500.0 0.8424870005 -0.5370359206
13300220200.0 0.8350878477 -0.5479876365
13350219900.0 0.8270767285 -0.559898717
13400219600.0 0.8190553285 -0.5717500117
13450219300.0 0.8092588745 -0.5854122303
13500219000.0 0.7992582609 -0.5995334868
13550218700.0 0.7893020904 -0.6114835593
13600218400.0 0.7788151978 -0.6239723914
13650218100.0 0.7687872298 -0.6353378166
13700217800.0 0.7585848513 -0.6475786126
13750217500.0 0.7486640451 -0.6582607532
13800217200.0 0.7367846141 -0.6694346304
13850216900.0 0.7258934529 -0.6820474797
13900216600.0 0.7161218136 -0.6910640813
13950216300.0 0.7053786185 -0.7006355795
14000216000.0 0.6954395621 -0.7099744692
14050215700.0 0.6861104059 -0.7191242103
14100215400.0 0.6757654286 -0.7280038763
14150215100.0 0.6667106963 -0.7365531958
14200214800.0 0.6573502824 -0.7449011832
14250214500.0 0.6470716179 -0.7543724831
14300214200.0 0.6366494565 -0.7637992277
14350213900.0 0.6255956111 -0.7732656498
14400213600.0 0.613718702 -0.7832005013
14450213300.0 0.6006931826 -0.7934944353
14500213000.0 0.5879289202 -0.8032233826
14550212700.0 0.575199199 -0.8130011616
14600212400.0 0.5624496938 -0.8214264414
14650212100.0 0.5498195883 -0.8305856933
14700211800.0 0.5357063857 -0.8399176044
14750211500.0 0.5237119436 -0.8476895966
14800211200.0 0.5114177921 -0.8560749124
14850210900.0 0.499518627 -0.8633937111
14900210600.0 0.4860998895 -0.8713389387
14950210300.0 0.4726892853 -0.8789105405
15000210000.0 0.4600412364 -0.8859209298
15050209700.0 0.4477777845 -0.8920335097
15100209400.0 0.4349065971 -0.8978872793
15150209100.0 0.4230197152 -0.9031670768
15200208800.0 0.4099928914 -0.9085662932
15250208500.0 0.3990375778 -0.9135441937
15300208200.0 0.3868405155 -0.9177321548
15350207900.0 0.3732311371 -0.9227166768
15400207600.0 0.3583780649 -0.9284701673
15450207300.0 0.3439106662 -0.9326375289
15500207000.0 0.3292587079 -0.9380167296
15550206700.0 0.3148121753 -0.942816375
15600206400.0 0.2987378639 -0.9469944474
15650206100.0 0.2830306387 -0.9517840005
15700205800.0 0.2691288682 -0.955183819
15750205500.0 0.2543892285 -0.9587893272
15800205200.0 0.2400636581 -0.9619681648
15850204900.0 0.2255899284 -0.9654740438
15900204600.0 0.2105836648 -0.9691191129
15950204300.0 0.1963205588 -0.9722611525
16000204000.0 0.1826079927 -0.9749792418
16050203700.0 0.1670271575 -0.9779298284
16100203400.0 0.1529913818 -0.9802191961
16150203100.0 0.1379480375 -0.9826102817
16200202800.0 0.1240558038 -0.9846209943
16250202500.0 0.1095423123 -0.9861946345
16300202200.0 0.0941718987 -0.9872529777
16350201900.0 0.0789753669 -0.989191642
16400201600.0 0.0645127222 -0.9903520562
16450201300.0 0.0492243957 -0.9914675238
16500201000.0 0.0326779873 -0.9922344083
16550200700.0 0.0168890142 -0.9927975465
16600200400.0 0.0011719856 -0.9928281168
16650200100.0 -0.0148055583 -0.9930326797
16700199800.0 -0.0313280193 -0.9924650664
16750199500.0 -0.0494434691 -0.9921567659
16800199200.0 -0.0653528601 -0.991132354
16850198900.0 -0.0807305086 -0.9897607332
16900198600.0 -0.0941179161 -0.9891038472
16950198300.0 -0.1079903942 -0.9880095727
17000198000.0 -0.1209692317 -0.9860206088
17050197700.0 -0.1336832942 -0.9844028543
17100197400.0 -0.1464777134 -0.9821888725
17150197100.0 -0.1590345187 -0.9799656618
17200196800.0 -0.1719461081 -0.9781672281
17250196500.0 -0.1850050751 -0.9758326048
17300196200.0 -0.1971493572 -0.9733781579
17350195900.0 -0.2089276272 -0.9712220118
17400195600.0 -0.2211358481 -0.9686892854
17450195300.0 -0.2341498718 -0.9658486218
17500195000.0 -0.2478511184 -0.9624957887
17550194700.0 -0.2615374789 -0.9588108737
17600194400.0 -0.2755397247 -0.9549606291
17650194100.0 -0.2893873091 -0.9508525225
17700193800.0 -0.3019455994 -0.946784904
17750193500.0 -0.3166665067 -0.9419403323
17800193200.0 -0.3313509906 -0.9366001652
17850192900.0 -0.3464507252 -0.9314289062
17900192600.0 -0.3611216562 -0.9255725822
17950192300.0 -0.3767317848 -0.9182738228
18000192000.0 -0.3918015791 -0.9114589134
18050191700.0 -0.4054806773 -0.9032497058
18100191400.0 -0.4198033646 -0.8955682985
18150191100.0 -0.4346732124 -0.887683432
18200190800.0 -0.4517705596 -0.8784474019
18250190500.0 -0.4683791839 -0.8693135464
18300190200.0 -0.4841840448 -0.8600845424
18350189900.0 -0.4987685353 -0.8518822315
18400189600.0 -0.5132693111 -0.843626206
18450189300.0 -0.5268703131 -0.8355041797
18500189000.0 -0.5403384981 -0.8279528807
18550188700.0 -0.5529819354 -0.8199320224
18600188400.0 -0.5640865 -0.8135554246
18650188100.0 -0.5755308815 -0.8070345081
18700187800.0 -0.5862354246 -0.8004031498
18750187500.0 -0.5968586283 -0.7938581408
18800187200.0 -0.6074893318 -0.7867475523
18850186900.0 -0.6175833754 -0.7797900681
18900186600.0 -0.6278501653 -0.7725248522
18950186300.0 -0.6378828787 -0.7648255486
19000186000.0 -0.6453474367 -0.7587759064
19050185700.0 -0.6546358004 -0.7518218057
19100185400.0 -0.6646157237 -0.742746895
19150185100.0 -0.6744270449 -0.7350426317
19200184800.0 -0.6840092935 -0.7265320805
19250184500.0 -0.6942578181 -0.7174910174
19300184200.0 -0.7054913802 -0.707701083
19350183900.0 -0.7166261029 -0.6983528059
19400183600.0 -0.7260601082 -0.688446389
19450183300.0 -0.7346422405 -0.6784474975
19500183000.0 -0.7430170151 -0.6679980944
19550182700.0 -0.7527751701 -0.6576721125
19600182400.0 -0.7635202152 -0.6458218101
19650182100.0 -0.7740735748 -0.6333603423
19700181800.0 -0.7851203381 -0.6199283298
19750181500.0 -0.7955149165 -0.6059716699
19800181200.0 -0.8059226046 -0.5906717273
19850180900.0 -0.8156738605 -0.5754068128
19900180600.0 -0.8233712933 -0.5609693581
19950180300.0 -0.832698143 -0.5445108789
20000180000.0 -0.8254614454 -0.5467453304
20050179700.0 -0.8339548664 -0.5334781842
20100179400.0 -0.8422625954 -0.5200154499
20150179100.0 -0.8504002031 -0.5081721264
20200178800.0 -0.8597834305 -0.4953739625
20250178500.0 -0.8691545692 -0.4819874646
20300178200.0 -0.8785259174 -0.4669510326
20350177900.0 -0.8871878804 -0.4527367956
20400177600.0 -0.8964212423 -0.4379916161
20450177300.0 -0.9049297109 -0.4236632775
20500177000.0 -0.9126419186 -0.409703802
20550176700.0 -0.9204065037 -0.3962823406
20600176400.0 -0.9275620249 -0.3833111401
20650176100.0 -0.9338676881 -0.3710897414
20700175800.0 -0.940882157 -0.3591127168
20750175500.0 -0.946358935 -0.3475174435
20800175200.0 -0.951986308 -0.3362230357
20850174900.0 -0.9571387455 -0.325516131
20900174600.0 -0.961407682 -0.3151172035
20950174300.0 -0.9656100577 -0.3027227311
21000174000.0 -0.9683705876 -0.2912113546
21050173700.0 -0.9715385771 -0.2811719994
21100173400.0 -0.9757716345 -0.2691540197
21150173100.0 -0.9796995646 -0.2564527376
21200172800.0 -0.9831439329 -0.2425892175
21250172500.0 -0.9861768597 -0.2288168279
21300172200.0 -0.989544731 -0.2149591704
21350171900.0 -0.9905358547 -0.2003564065
21400171600.0 -0.9927912165 -0.1864569019
21450171300.0 -0.9915583635 -0.1723437709
21500171000.0 -0.9931820674 -0.1564747519
21550170700.0 -0.9919741354 -0.1409073737
21600170400.0 -0.9916247037 -0.1258794628
21650170100.0 -0.9917087589 -0.1095631754
21700169800.0 -0.9902606826 -0.0941680742
21750169500.0 -0.9893276391 -0.0789067337
21800169200.0 -0.9884052842 -0.0629263922
21850168900.0 -0.9881234208 -0.0457726871
21900168600.0 -0.9860407654 -0.0285847769
21950168300.0 -0.9841928539 -0.0127795233
22000168000.0 -0.9838395058 0.0016034078
22050167700.0 -0.9837831982 0.0159489773
22100167400.0 -0.9838366074 0.0316471719
22150167100.0 -0.9846091054 0.0471973438
22200166800.0 -0.985156744 0.0632347819
22250166500.0 -0.9841873405 0.0807312294
22300166200.0 -0.9836333888 0.0965646179
22350165900.0 -0.982954858 0.1139216326
22400165600.0 -0.980292438 0.1297423997
22450165300.0 -0.9790271838 0.1446547763
22500165000.0 -0.9772789866 0.1579814337
22550164700.0 -0.9756747315 0.173453007
22600164400.0 -0.9748195094 0.1889139108
22650164100.0 -0.972302259 0.2034466566
22700163800.0 -0.9689735336 0.2192573073
22750163500.0 -0.9671112423 0.2347614988
22800163200.0 -0.9638202057 0.247892582
22850162900.0 -0.9615606055 0.2613899099
22900162600.0 -0.960208184 0.2746183744
22950162300.0 -0.9591078817 0.2876033706
23000162000.0 -0.9581084168 0.2995095783
23050161700.0 -0.9558087063 0.3117211018
23100161400.0 -0.9534576306 0.3244098961
23150161100.0 -0.9512182026 0.3372245303
23200160800.0 -0.9475606231 0.349593777
23250160500.0 -0.945113915 0.3611933178
23300160200.0 -0.9423298957 0.3727756266
23350159900.0 -0.9387606796 0.3864195958
23400159600.0 -0.9333411164 0.399843345
23450159300.0 -0.9291297899 0.4136348133
23500159000.0 -0.9250822128 0.4264477392
23550158700.0 -0.9203019377 0.4397523051
23600158400.0 -0.9146747417 0.4529566421
23650158100.0 -0.9082713408 0.4669422849
23700157800.0 -0.9004377465 0.481049765
23750157500.0 -0.8922667693 0.4949688598
23800157200.0 -0.8835742332 0.5084021451
23850156900.0 -0.8742159777 0.5210518306
23900156600.0 -0.8652721232 0.5337173526
23950156300.0 -0.855978644 0.5458639191
24000156000.0 -0.8474348261 0.5584111412
24050155700.0 -0.8371958341 0.5698883307
24100155400.0 -0.826898318 0.5819367312
24150155100.0 -0.8161525124 0.5939151941
24200154800.0 -0.805292736 0.6051573167
24250154500.0 -0.7943415207 0.6172683037
24300154200.0 -0.7825928618 0.6287007787
24350153900.0 -0.7710414977 0.638672802
24400153600.0 -0.7585230877 0.6492922152
24450153300.0 -0.7468099293 0.6589086248
24500153000.0 -0.7352195861 0.6683412422
24550152700.0 -0.7243564961 0.6779292705
24600152400.0 -0.7128854 0.6873933437
24650152100.0 -0.7011331826 0.6961511944
