!Created with skrf (http://scikit-rf.org).
# Hz S RI R 50.0 
!freq ReS11 ImS11
300000.0 -0.9780398158 -0.1101078871
50299700.0 -1.000212947 0.0158089997
100299400.0 -0.9980759353 0.0287988441
150299100.0 -1.002717509 0.0456501788
200298800.0 -0.9996185507 0.0590132648
250298500.0 -0.9975680574 0.0726668803
300298200.0 -0.9860797723 0.0881354384
350297900.0 -0.9943184004 0.0992650761
400297600.0 -0.9933640458 0.1159535875
450297300.0 -0.9911885759 0.1295192367
500297000.0 -0.9893628138 0.1442507831
550296700.0 -0.9844535717 0.1569659006
600296400.0 -1.017310571 0.1901931238
650296100.0 -0.9821995331 0.1866923095
700295800.0 -0.9794090086 0.2013293144
750295500.0 -0.9762382818 0.2151997303
800295200.0 -0.9729057635 0.2292543414
850294900.0 -0.9695607858 0.2428061829
900294600.0 -0.9657514109 0.2569443105
950294300.0 -0.962113049 0.2704975475
1000294000.0 -0.9581044909 0.2845658367
1050293700.0 -0.9535018074 0.2983808052
1100293400.0 -0.9492025872 0.3126768946
1150293100.0 -0.9455538245 0.3245489346
1200292800.0 -0.9400892008 0.3389054945
1250292500.0 -0.9345819522 0.352176957
1300292200.0 -0.9287328488 0.3655322864
1350291900.0 -0.9231637698 0.3794845076
1400291600.0 -0.9177518765 0.3927559001
1450291300.0 -0.9122537087 0.4051624932
1500291000.0 -0.9061502639 0.418398701
1550290700.0 -0.8994681199 0.4316918982
1600290400.0 -0.8931893034 0.4446081794
1650290100.0 -0.8866684472 0.4567270088
1700289800.0 -0.8796324784 0.4702622358
1750289500.0 -0.8726160018 0.4825279118
1800289200.0 -0.8652795543 0.4953614541
1850288900.0 -0.8585608279 0.5066243573
1900288600.0 -0.8507824829 0.5196586344
1950288300.0 -0.8425717634 0.5324480033
2000288000.0 -0.835089116 0.5434939969
2050287700.0 -0.8268628657 0.5559952004
2100287400.0 -0.8189736816 0.5675840253
2150287100.0 -0.810457553 0.5798222291
2200286800.0 -0.8024333071 0.5900754877
2250286500.0 -0.7935424401 0.6021700456
2300286200.0 -0.7847794295 0.6136377324
2350285900.0 -0.7759219262 0.6248622114
2400285600.0 -0.7669747863 0.6357992613
2450285300.0 -0.7584687632 0.6462275984
2500285000.0 -0.7485143491 0.6575865884
2550284700.0 -0.7397146712 0.667921744
2600284400.0 -0.7299845213 0.6777690484
2650284100.0 -0.7211770269 0.6885136628
2700283800.0 -0.7107828746 0.6989097965
2750283500.0 -0.7004238059 0.7097332162
2800283200.0 -0.6903924343 0.7192049623
2850282900.0 -0.6802552166 0.7291317308
2900282600.0 -0.669949932 0.7386095369
2950282300.0 -0.6598589824 0.7478383008
3000282000.0 -0.6492076698 0.7573502323
3050281700.0 -0.637997578 0.7666698481
3100281400.0 -0.6260396243 0.7761113045
3150281100.0 -0.6142857929 0.7853858107
3200280800.0 -0.6026290465 0.7937484625
3250280500.0 -0.591876242 0.8016727564
3300280200.0 -0.5807283616 0.8092583411
3350279900.0 -0.5689737394 0.8168293171
3400279600.0 -0.5570532385 0.8245643253
3450279300.0 -0.5458113606 0.8317216245
3500279000.0 -0.5337576227 0.8388053831
3550278700.0 -0.5216091453 0.8461312041
3600278400.0 -0.5092229751 0.853395102
3650278100.0 -0.4958335551 0.8609747827
3700277800.0 -0.4835560455 0.8671263219
3750277500.0 -0.4715695687 0.8741374216
3800277200.0 -0.4591225803 0.8803594219
3850276900.0 -0.4470600915 0.8862880627
3900276600.0 -0.4360128622 0.8916600822
3950276300.0 -0.4234520381 0.8978266612
4000276000.0 -0.4113722319 0.903905655
4050275700.0 -0.3985566556 0.9099014432
4100275400.0 -0.3873230032 0.9153143554
4150275100.0 -0.3748504661 0.9210394743
4200274800.0 -0.3617969266 0.9265044301
4250274500.0 -0.3494113878 0.9314481848
4300274200.0 -0.3363171758 0.9368495263
4350273900.0 -0.3227713294 0.9419394097
4400273600.0 -0.3077759961 0.9472884015
4450273300.0 -0.2922865852 0.9527425523
4500273000.0 -0.2786403919 0.9569711281
4550272700.0 -0.2644964314 0.9613704206
4600272400.0 -0.2491273709 0.9652591113
4650272100.0 -0.2373822399 0.9686514384
4700271800.0 -0.2240859734 0.9719410628
4750271500.0 -0.2124152475 0.9746830155
4800271200.0 -0.1998373261 0.9774847641
4850270900.0 -0.1859878854 0.9801857225
4900270600.0 -0.1721152823 0.9826139634
4950270300.0 -0.1579201244 0.9852635946
5000270000.0 -0.1436841182 0.9872073184
5050269700.0 -0.1301276651 0.988617635
5100269400.0 -0.116554198 0.9905103916
5150269100.0 -0.1032625464 0.9922192205
5200268800.0 -0.0900724699 0.9929275597
5250268500.0 -0.0770334375 0.9943940974
5300268200.0 -0.0639780195 0.9947921064
5350267900.0 -0.0517196152 0.995605733
5400267600.0 -0.0355767148 0.9964167683
5450267300.0 -0.0224707443 0.9967896853
5500267000.0 -0.0072092349 0.9970627079
5550266700.0 0.0077011136 0.9973912955
5600266400.0 0.0233740447 0.9971062808
5650266100.0 0.0397966335 0.9969133481
5700265800.0 0.0545753437 0.99641671
5750265500.0 0.0694457537 0.9951691785
5800265200.0 0.0836635774 0.9944072925
5850264900.0 0.0967729615 0.9932850323
5900264600.0 0.113562573 0.991602762
5950264300.0 0.1256489099 0.9901219383
6000264000.0 0.1395949927 0.9880991169
6050263700.0 0.1521401311 0.9865657042
6100263400.0 0.1645489142 0.9848933858
6150263100.0 0.1790963045 0.9822006513
6200262800.0 0.1895782836 0.9805892239
6250262500.0 0.2020769071 0.9780416429
6300262200.0 0.2151190141 0.9754456316
6350261900.0 0.2281488182 0.9724266255
6400261600.0 0.2419427439 0.9688775563
6450261300.0 0.2533865882 0.9662514571
6500261000.0 0.2658228457 0.9626572553
6550260700.0 0.2789373786 0.9587884121
6600260400.0 0.2926772089 0.954589066
6650260100.0 0.3066362304 0.9506073893
6700259800.0 0.3182646455 0.9461331306
6750259500.0 0.3322296126 0.9413640629
6800259200.0 0.3450031585 0.9361265578
6850258900.0 0.3571377094 0.9311280677
6900258600.0 0.3692952963 0.9259706615
6950258300.0 0.381753749 0.9207336628
7000258000.0 0.3938546389 0.9155194494
7050257700.0 0.4063490125 0.9094256748
7100257400.0 0.4189521688 0.9029273188
7150257100.0 0.4291717469 0.8979286233
7200256800.0 0.4418825524 0.8916145871
7250256500.0 0.4538844981 0.8851152433
7300256200.0 0.4665454666 0.8783927743
7350255900.0 0.4790914466 0.8715080757
7400255600.0 0.4927510281 0.8643144282
7450255300.0 0.5071907088 0.8551419948
7500255000.0 0.5192793991 0.8478544302
7550254700.0 0.5332069079 0.839561472
7600254400.0 0.5458674649 0.8311720547
7650254100.0 0.5576224996 0.8235257581
7700253800.0 0.569184097 0.815273321
7750253500.0 0.5804686314 0.8074491259
7800253200.0 0.5912262349 0.7998633509
7850252900.0 0.6009759221 0.7926204233
7900252600.0 0.6127369419 0.7839620252
7950252300.0 0.6214318805 0.7774459481
8000252000.0 0.6315683684 0.7695679579
8050251700.0 0.6420262576 0.7614036352
8100251400.0 0.6521074023 0.7530488548
8150251100.0 0.6621171071 0.7445939229
8200250800.0 0.6717706067 0.7366564461
8250250500.0 0.6809232728 0.7285762686
8300250200.0 0.6899614878 0.7198619566
8350249900.0 0.6989335263 0.7112915822
8400249600.0 0.7075598367 0.7032942299
8450249300.0 0.7165099669 0.6939413926
8500249000.0 0.7246012827 0.6852408032
8550248700.0 0.7331871229 0.6761351158
8600248400.0 0.7416067998 0.6668295583
8650248100.0 0.7494055691 0.6572650045
8700247800.0 0.7589567209 0.6460575938
8750247500.0 0.7670808875 0.636140519
8800247200.0 0.7751057064 0.6255842256
8850246900.0 0.7842457011 0.6141874649
8900246600.0 0.7924035032 0.602932202
8950246300.0 0.8019870108 0.5899571422
9000246000.0 0.811427876 0.5771836008
9050245700.0 0.8201635817 0.5642389504
9100245400.0 0.8292759106 0.5516935558
9150245100.0 0.8385569234 0.5380922881
9200244800.0 0.8483083602 0.522602476
9250244500.0 0.8577744863 0.5068256718
9300244200.0 0.866021474 0.4922060029
9350243900.0 0.8738094929 0.4784095115
9400243600.0 0.880567897 0.4660964355
9450243300.0 0.886385457 0.4541654271
9500243000.0 0.8924717081 0.4420898931
9550242700.0 0.8964460327 0.4343453217
9600242400.0 0.9000348514 0.4270501029
9650242100.0 0.9037350742 0.4206940387
9700241800.0 0.9081952772 0.4125121455
9750241500.0 0.9124141954 0.4046569498
9800241200.0 0.9168961493 0.3958969665
9850240900.0 0.9224831529 0.3839753537
9900240600.0 0.9281098855 0.372324307
9950240300.0 0.9348065689 0.3562547791
10000240000.0 0.9396580704 0.3445300385
10050239700.0 0.9451099965 0.3295645314
10100239400.0 0.9501053217 0.3138641888
10150239100.0 0.9544158212 0.2990464633
10200238800.0 0.958613583 0.2842418303
10250238500.0 0.9616313702 0.2707573386
10300238200.0 0.9648930111 0.2570067819
10350237900.0 0.9677008978 0.2437853442
10400237600.0 0.970063175 0.2309185348
10450237300.0 0.972847269 0.2171582971
10500237000.0 0.9751247028 0.2046829015
10550236700.0 0.9772872547 0.1911428007
10600236400.0 0.9793898467 0.1773933689
10650236100.0 0.9810612818 0.1635275573
10700235800.0 0.9836273021 0.1507727639
10750235500.0 0.9863035009 0.1374642408
10800235200.0 0.9878692326 0.1232244948
10850234900.0 0.9898986557 0.1090215365
10900234600.0 0.9917457904 0.0944247166
10950234300.0 0.9934953698 0.0809109052
11000234000.0 0.9951869722 0.0658653194
11050233700.0 0.9970185088 0.0495809461
11100233400.0 0.998347619 0.0322542087
11150233100.0 0.999449055 0.0157409302
11200232800.0 0.999808447 0.0009290368
11250232500.0 1.001113978 -0.0155484752
11300232200.0 1.00199112 -0.0338182185
11350231900.0 1.001568696 -0.04957131
11400231600.0 1.001366596 -0.0651024504
11450231300.0 1.000455817 -0.0807061427
11500231000.0 0.9993770836 -0.0971955122
11550230700.0 0.9983264755 -0.1105351208
11600230400.0 0.9966788762 -0.1237042054
11650230100.0 0.9943427137 -0.1348441584
11700229800.0 0.9927454367 -0.1500427932
11750229500.0 0.9903105193 -0.1644407122
11800229200.0 0.9875633614 -0.1779585946
11850228900.0 0.983982838 -0.19035373
11900228600.0 0.9806263765 -0.2001579154
11950228300.0 0.9772865698 -0.2105242995
12000228000.0 0.9749103241 -0.2195951337
12050227700.0 0.9707296982 -0.2325451168
12100227400.0 0.9679396557 -0.2435031639
12150227100.0 0.9629334611 -0.2597687532
12200226800.0 0.9591401465 -0.2701827643
12250226500.0 0.9549767526 -0.2828222555
12300226200.0 0.9516039277 -0.2956336659
12350225900.0 0.9464370751 -0.3093613624
12400225600.0 0.9416824803 -0.3230241594
12450225300.0 0.9369791053 -0.3352429792
12500225000.0 0.9316537987 -0.3499121559
12550224700.0 0.9266684598 -0.3635107558
12600224400.0 0.9217034221 -0.3759425922
12650224100.0 0.9158724105 -0.3904495459
12700223800.0 0.9105509866 -0.4031698235
12750223500.0 0.9049423961 -0.4161744724
12800223200.0 0.8996658195 -0.4286561765
12850222900.0 0.8946927909 -0.4405860474
12900222600.0 0.8889376741 -0.4523837007
12950222300.0 0.8822312201 -0.466249962
13000222000.0 0.8766611425 -0.4770646729
13050221700.0 0.8695521447 -0.489757302
13100221400.0 0.8630762628 -0.502155588
13150221100.0 0.8560984826 -0.5140346554
13200220800.0 0.8491078015 -0.5260169052
13250220500.0 0.8413805762 -0.5381462363
13300220200.0 0.8343346113 -0.5488840801
13350219900.0 0.8261521662 -0.5609263792
13400219600.0 0.8177039813 -0.5731953252
13450219300.0 0.8082580154 -0.5868478777
13500219000.0 0.7975701504 -0.6009009263
13550218700.0 0.7875338861 -0.6132506624
13600218400.0 0.7773754632 -0.6257977666
13650218100.0 0.7677438605 -0.6371452887
13700217800.0 0.7566079836 -0.6497027668
13750217500.0 0.746817773 -0.660387996
13800217200.0 0.7355843548 -0.6719120224
13850216900.0 0.724069844 -0.6838284399
13900216600.0 0.7142248202 -0.6929642579
13950216300.0 0.7037390077 -0.7028158372
14000216000.0 0.6935481123 -0.7124472498
14050215700.0 0.6841157479 -0.7203151092
14100215400.0 0.6739674125 -0.7294895643
14150215100.0 0.6652089428 -0.7379099581
14200214800.0 0.6558247704 -0.7463853462
14250214500.0 0.6456955091 -0.7555743143
14300214200.0 0.6352197339 -0.7648507278
14350213900.0 0.6244015835 -0.7742591997
14400213600.0 0.6124560341 -0.7840394405
14450213300.0 0.5993482858 -0.7942311178
14500213000.0 0.5863837449 -0.804302819
14550212700.0 0.5735414559 -0.81395722
14600212400.0 0.5613948257 -0.8222554326
14650212100.0 0.5483126477 -0.8307275784
14700211800.0 0.5345861347 -0.840673169
14750211500.0 0.522025085 -0.8487804299
14800211200.0 0.5098333435 -0.856859334
14850210900.0 0.4976736952 -0.8640857231
14900210600.0 0.4843311546 -0.8721565342
14950210300.0 0.4707295805 -0.8797342275
15000210000.0 0.4581744966 -0.8865090187
15050209700.0 0.4458390267 -0.8925478195
15100209400.0 0.4329737313 -0.89839144
15150209100.0 0.4205138754 -0.9037925286
15200208800.0 0.4075778097 -0.9100880342
15250208500.0 0.3955583988 -0.9141104073
15300208200.0 0.3837692526 -0.9183430509
15350207900.0 0.3700768361 -0.9234119569
15400207600.0 0.3563818558 -0.9290106528
15450207300.0 0.3420575585 -0.9330462531
15500207000.0 0.3270417592 -0.9385307939
15550206700.0 0.3116631782 -0.9434567136
15600206400.0 0.2958042876 -0.9479499591
15650206100.0 0.2800927222 -0.952484595
15700205800.0 0.2661684789 -0.9555741258
15750205500.0 0.2516090544 -0.9594898726
15800205200.0 0.2372529571 -0.9626320507
15850204900.0 0.2227855272 -0.9659572273
15900204600.0 0.2079215958 -0.969608406
15950204300.0 0.1938278084 -0.972551166
16000204000.0 0.1795001519 -0.9754355742
16050203700.0 0.164568811 -0.978311204
16100203400.0 0.1504109745 -0.9804603077
16150203100.0 0.1359188338 -0.9825507916
16200202800.0 0.1222314814 -0.984622458
16250202500.0 0.1071181607 -0.9861573328
16300202200.0 0.0922044169 -0.9879207114
16350201900.0 0.0773565306 -0.988904804
16400201600.0 0.0628202071 -0.9905624883
16450201300.0 0.0476666446 -0.9913751526
16500201000.0 0.0309153989 -0.9921302448
16550200700.0 0.0152785043 -0.9925263523
16600200400.0 -0.0004522126 -0.9926375525
16650200100.0 -0.0167818382 -0.9924998858
16700199800.0 -0.0332124941 -0.9921478581
16750199500.0 -0.0517457893 -0.9910411855
16800199200.0 -0.0679905084 -0.9902608574
16850198900.0 -0.0827815172 -0.9891444107
16900198600.0 -0.0969940467 -0.9885502512
16950198300.0 -0.1098504239 -0.9876492678
17000198000.0 -0.1223391544 -0.9856317169
17050197700.0 -0.1353162434 -0.9836358028
17100197400.0 -0.1490110853 -0.9814361904
17150197100.0 -0.1612060431 -0.9799325758
17200196800.0 -0.1738416571 -0.9778659083
17250196500.0 -0.1873301401 -0.9752407803
17300196200.0 -0.199011674 -0.973031223
17350195900.0 -0.211212636 -0.9706040387
17400195600.0 -0.2232313913 -0.9681851862
17450195300.0 -0.2364402344 -0.9653659841
17500195000.0 -0.2497482694 -0.9619567068
17550194700.0 -0.2637051639 -0.9583654185
17600194400.0 -0.2782654405 -0.9545050345
17650194100.0 -0.291232634 -0.9503431739
17700193800.0 -0.3044003908 -0.9455350185
17750193500.0 -0.3189479124 -0.9413856332
17800193200.0 -0.3333097878 -0.9356833256
17850192900.0 -0.3478955486 -0.9306427936
17900192600.0 -0.3634576496 -0.9245890268
17950192300.0 -0.3787724917 -0.9178222671
18000192000.0 -0.3935544266 -0.9101838447
18050191700.0 -0.4073551836 -0.9022830381
18100191400.0 -0.4214917298 -0.8946604492
18150191100.0 -0.4363953122 -0.8865412204
18200190800.0 -0.4531539734 -0.8774121949
18250190500.0 -0.4702010978 -0.8677765893
18300190200.0 -0.4852391754 -0.8588759987
18350189900.0 -0.5005669485 -0.8502483902
18400189600.0 -0.5156261929 -0.8420440011
18450189300.0 -0.5284779598 -0.8346270634
18500189000.0 -0.5417285252 -0.8261816449
18550188700.0 -0.5543001292 -0.8186863971
18600188400.0 -0.5658430771 -0.8120433945
18650188100.0 -0.5771928009 -0.8054693803
18700187800.0 -0.5878093809 -0.7985734886
18750187500.0 -0.5986042981 -0.7921978232
18800187200.0 -0.6091722161 -0.7851946502
18850186900.0 -0.6194782395 -0.7782955646
18900186600.0 -0.6298826003 -0.7705906369
18950186300.0 -0.6400970574 -0.7629562909
19000186000.0 -0.6471593202 -0.756615907
19050185700.0 -0.6564927863 -0.7490302342
19100185400.0 -0.6669183167 -0.7410501103
19150185100.0 -0.6768270972 -0.7325777902
19200184800.0 -0.6864102857 -0.7238735281
19250184500.0 -0.6967191996 -0.7151930782
19300184200.0 -0.7080540058 -0.7051804016
19350183900.0 -0.7190450767 -0.6951769643
19400183600.0 -0.728217928 -0.6859254858
19450183300.0 -0.7375958514 -0.675588395
19500183000.0 -0.7454375713 -0.6653314474
19550182700.0 -0.7554040044 -0.6546126031
19600182400.0 -0.7656464664 -0.6429692892
19650182100.0 -0.77626983 -0.6306743084
19700181800.0 -0.787001438 -0.6176442254
19750181500.0 -0.7975415004 -0.6033860211
19800181200.0 -0.8079499112 -0.5885535343
19850180900.0 -0.8175452849 -0.5730054401
19900180600.0 -0.825119605 -0.5586761525
19950180300.0 -0.8343842751 -0.5425093942
20000180000.0 -0.8270580916 -0.5447923487
20050179700.0 -0.8350809261 -0.5324052726
20100179400.0 -0.844030519 -0.5187520439
20150179100.0 -0.8516557981 -0.5057164249
20200178800.0 -0.8599693334 -0.4935016827
20250178500.0 -0.8701655188 -0.4798101805
20300178200.0 -0.8796560604 -0.465072673
20350177900.0 -0.8886220661 -0.4500652206
20400177600.0 -0.8976902331 -0.4358751234
20450177300.0 -0.9053519246 -0.421517171
20500177000.0 -0.9133866628 -0.4073750148
20550176700.0 -0.9214523393 -0.3939350997
20600176400.0 -0.9287788467 -0.3807579043
20650176100.0 -0.9348217202 -0.3686241238
20700175800.0 -0.9412427637 -0.3562175112
20750175500.0 -0.9481720305 -0.3444029194
20800175200.0 -0.9530419094 -0.3334013648
20850174900.0 -0.9582489801 -0.3235137409
20900174600.0 -0.9620785505 -0.311336078
20950174300.0 -0.9669143767 -0.2992617087
21000174000.0 -0.9706936766 -0.2879019824
21050173700.0 -0.9732188272 -0.2771376128
21100173400.0 -0.9775338165 -0.264983997
21150173100.0 -0.9818213747 -0.2526826254
21200172800.0 -0.984561862 -0.2382594228
21250172500.0 -0.9882153661 -0.2248965558
21300172200.0 -0.9907104479 -0.2108572313
21350171900.0 -0.9919282774 -0.1960347195
21400171600.0 -0.9938460971 -0.1814154798
21450171300.0 -0.9938804173 -0.1671260699
21500171000.0 -0.9926545439 -0.1522592514
21550170700.0 -0.9941199711 -0.1371245965
21600170400.0 -0.9933007493 -0.1203353076
21650170100.0 -0.992682359 -0.1048200913
21700169800.0 -0.9902924224 -0.0902332784
21750169500.0 -0.9887596196 -0.0743553238
21800169200.0 -0.9873526806 -0.0574350044
21850168900.0 -0.9869942648 -0.0412608984
21900168600.0 -0.9856234952 -0.0259627295
21950168300.0 -0.9844955572 -0.0094142234
22000168000.0 -0.9828415413 0.0055858921
22050167700.0 -0.9828046336 0.0198168785
22100167400.0 -0.9829282788 0.0346220733
22150167100.0 -0.9832922901 0.0507014982
22200166800.0 -0.9841729911 0.0661274622
22250166500.0 -0.9829501227 0.0833808929
22300166200.0 -0.9825031427 0.1010073666
22350165900.0 -0.9806586895 0.1171936458
22400165600.0 -0.9790505691 0.1327172902
22450165300.0 -0.9764859122 0.1482875088
22500165000.0 -0.9751929379 0.1609704879
22550164700.0 -0.974861701 0.1769696482
22600164400.0 -0.9719705343 0.1924760763
22650164100.0 -0.970364222 0.2071049811
22700163800.0 -0.9678966339 0.2235904083
22750163500.0 -0.965017175 0.2385313747
22800163200.0 -0.9624447421 0.251375624
22850162900.0 -0.959969497 0.264861577
22900162600.0 -0.9585875712 0.2783844129
22950162300.0 -0.957670765 0.2910746489
23000162000.0 -0.9567298263 0.302738773
23050161700.0 -0.9547279404 0.3156078065
23100161400.0 -0.9528420183 0.3287661248
23150161100.0 -0.9489285495 0.340600664
23200160800.0 -0.9466421626 0.3527028543
23250160500.0 -0.9439251395 0.3646063621
23300160200.0 -0.9414499338 0.3760557238
23350159900.0 -0.9378717841 0.3893933032
23400159600.0 -0.9323055083 0.4029478398
23450159300.0 -0.9283139862 0.4155670354
23500159000.0 -0.9236714442 0.4288247702
23550158700.0 -0.9191278254 0.4420459212
23600158400.0 -0.9138824156 0.4550099555
23650158100.0 -0.9074260262 0.4690398376
23700157800.0 -0.8996558273 0.4829193235
23750157500.0 -0.8911944317 0.4968893279
23800157200.0 -0.8821517543 0.5103844407
23850156900.0 -0.8734699594 0.5224693572
23900156600.0 -0.8632969831 0.5353993817
23950156300.0 -0.8543175206 0.5476137102
24000156000.0 -0.8456552419 0.5601020564
24050155700.0 -0.8345571045 0.5718238436
24100155400.0 -0.8253365513 0.5831284861
24150155100.0 -0.8145740233 0.5957475724
24200154800.0 -0.8034519933 0.6067615978
24250154500.0 -0.7923317116 0.6187832245
24300154200.0 -0.7809289366 0.6298823581
24350153900.0 -0.7689448209 0.6405254908
24400153600.0 -0.7569600213 0.6507004649
24450153300.0 -0.7450135995 0.6604207936
24500153000.0 -0.7334962224 0.670774968
24550152700.0 -0.7218907355 0.6800009921
24600152400.0 -0.7109584838 0.6890340086
