!Created with skrf (http://scikit-rf.org).
# Hz S RI R 50.0 
!freq ReS11 ImS11
300000.0 -0.9838461342 -0.0929389063
50299700.0 -1.000028208 0.0164844046
100299400.0 -0.9979038704 0.0294057882
150299100.0 -1.002873862 0.0462350931
200298800.0 -0.9994974868 0.0595018617
250298500.0 -0.9974215827 0.0728937883
300298200.0 -0.9860130985 0.0887233722
350297900.0 -0.9940342736 0.0996843524
400297600.0 -0.9931390547 0.1163808079
450297300.0 -0.9909651018 0.1302352368
500297000.0 -0.9891902554 0.14468348
550296700.0 -0.9841450561 0.1572854718
600296400.0 -1.016980023 0.1908748726
650296100.0 -0.9818773738 0.187423423
700295800.0 -0.9789919533 0.201484973
750295500.0 -0.9759550299 0.2154348937
800295200.0 -0.9726982476 0.2295323492
850294900.0 -0.9691956548 0.2434190388
900294600.0 -0.9653197808 0.2572240228
950294300.0 -0.9616698994 0.271020722
1000294000.0 -0.9575147314 0.2849910284
1050293700.0 -0.9531576399 0.2988378621
1100293400.0 -0.9488930415 0.313139378
1150293100.0 -0.9449250634 0.3250899684
1200292800.0 -0.9397670694 0.3393211079
1250292500.0 -0.9342412219 0.3527098224
1300292200.0 -0.9285399881 0.3660018437
1350291900.0 -0.9229171383 0.3799394948
1400291600.0 -0.9175448111 0.3931570896
1450291300.0 -0.9120329538 0.4052643666
1500291000.0 -0.9057695902 0.41868244
1550290700.0 -0.8992029907 0.4320216336
1600290400.0 -0.8930495739 0.4449312752
1650290100.0 -0.8863087091 0.4569868739
1700289800.0 -0.8794181697 0.4705178874
1750289500.0 -0.8725005166 0.4828203062
1800289200.0 -0.8652004775 0.4954618923
1850288900.0 -0.8584195842 0.5069058635
1900288600.0 -0.8506316645 0.5199726083
1950288300.0 -0.842360201 0.5324608794
2000288000.0 -0.8348871817 0.5437506428
2050287700.0 -0.8266561209 0.5563755168
2100287400.0 -0.8188038108 0.5679699562
2150287100.0 -0.8098148926 0.5799924638
2200286800.0 -0.8022761632 0.5902919036
2250286500.0 -0.7934105625 0.6023980321
2300286200.0 -0.7842605606 0.614189974
2350285900.0 -0.7755306769 0.6250386534
2400285600.0 -0.7665552232 0.6362758361
2450285300.0 -0.7579169768 0.6468796505
2500285000.0 -0.7479879718 0.657667355
2550284700.0 -0.7393004395 0.6679978026
2600284400.0 -0.7296552547 0.6783065203
2650284100.0 -0.7206006695 0.6887342508
2700283800.0 -0.7099479398 0.6991385509
2750283500.0 -0.6996643997 0.7095031076
2800283200.0 -0.689754209 0.719509085
2850282900.0 -0.6797537405 0.729514307
2900282600.0 -0.6693136386 0.7388228576
2950282300.0 -0.6594663115 0.7480735661
3000282000.0 -0.6486192077 0.7576587332
3050281700.0 -0.637434692 0.7667276985
3100281400.0 -0.6258536471 0.7761493651
3150281100.0 -0.6138851269 0.7853928542
3200280800.0 -0.6023359521 0.7938774948
3250280500.0 -0.5914918422 0.8015987664
3300280200.0 -0.5803319978 0.8094083572
3350279900.0 -0.5689499594 0.8169954767
3400279600.0 -0.5568464578 0.8245447432
3450279300.0 -0.5455997383 0.8318572822
3500279000.0 -0.5338458825 0.838965402
3550278700.0 -0.5214753192 0.8463349422
3600278400.0 -0.5090783705 0.8533366293
3650278100.0 -0.4957937696 0.8608692393
3700277800.0 -0.4837861684 0.8675070382
3750277500.0 -0.4715161084 0.8741237521
3800277200.0 -0.4589489999 0.8805102441
3850276900.0 -0.4467411276 0.8865417517
3900276600.0 -0.4357964272 0.8920109058
3950276300.0 -0.4232262987 0.8982127996
4000276000.0 -0.4112554747 0.9042812904
4050275700.0 -0.3980011044 0.9103165318
4100275400.0 -0.3865317195 0.9156615444
4150275100.0 -0.3738237624 0.9215431282
4200274800.0 -0.3610227249 0.9270001362
4250274500.0 -0.3486376136 0.9319616564
4300274200.0 -0.3357958413 0.9371420217
4350273900.0 -0.3217821902 0.9422862993
4400273600.0 -0.3072386795 0.9475085
4450273300.0 -0.2915775381 0.9525415726
4500273000.0 -0.2779719729 0.9570580133
4550272700.0 -0.2638902607 0.9612976577
4600272400.0 -0.2483870667 0.9652487919
4650272100.0 -0.2366050438 0.9685526181
4700271800.0 -0.223463188 0.9717701124
4750271500.0 -0.2116920483 0.9747648991
4800271200.0 -0.1990183045 0.977524681
4850270900.0 -0.1852252254 0.9802660644
4900270600.0 -0.1714296572 0.9826641134
4950270300.0 -0.1573612855 0.9852180264
5000270000.0 -0.1431943635 0.9874838281
5050269700.0 -0.1296601729 0.9889451982
5100269400.0 -0.1160776083 0.9906971902
5150269100.0 -0.1028801886 0.9922883285
5200268800.0 -0.089657915 0.9928373365
5250268500.0 -0.0767163593 0.9939593645
5300268200.0 -0.063601893 0.994779474
5350267900.0 -0.0515016563 0.9952888674
5400267600.0 -0.0350646223 0.9963765573
5450267300.0 -0.0221563603 0.9967268331
5500267000.0 -0.0072359109 0.9970574474
5550266700.0 0.0078398565 0.9970474338
5600266400.0 0.0233915329 0.9973549292
5650266100.0 0.0397710109 0.9968364046
5700265800.0 0.0541398386 0.9957841694
5750265500.0 0.0695156679 0.9956206851
5800265200.0 0.0834866391 0.9941866433
5850264900.0 0.0966453138 0.9933179933
5900264600.0 0.1136645782 0.991667098
5950264300.0 0.125547911 0.9898034658
6000264000.0 0.1397182738 0.9877367499
6050263700.0 0.1523211866 0.9860476308
6100263400.0 0.1647290052 0.984277312
6150263100.0 0.1795743136 0.982076679
6200262800.0 0.1899841062 0.9800189902
6250262500.0 0.2026352358 0.9777930836
6300262200.0 0.2156031208 0.9747716468
6350261900.0 0.2287771183 0.9719032223
6400261600.0 0.2426056954 0.9687106108
6450261300.0 0.253912387 0.9657983981
6500261000.0 0.2667473303 0.9622926447
6550260700.0 0.2795589975 0.9582301289
6600260400.0 0.2931076368 0.9542554783
6650260100.0 0.3068918058 0.9498064203
6700259800.0 0.319145999 0.9457936056
6750259500.0 0.3327410288 0.9407257983
6800259200.0 0.3458879178 0.9361144797
6850258900.0 0.3575741638 0.9311186896
6900258600.0 0.3695739678 0.9257872978
6950258300.0 0.3822194717 0.9206924963
7000258000.0 0.3942302057 0.9152526251
7050257700.0 0.4064572707 0.9093619586
7100257400.0 0.4191678535 0.9030108338
7150257100.0 0.4297422625 0.8978474744
7200256800.0 0.4424876678 0.8914783887
7250256500.0 0.4540190338 0.8851123743
7300256200.0 0.4671287258 0.8782116814
7350255900.0 0.4795333951 0.8716599602
7400255600.0 0.4927242428 0.8645784874
7450255300.0 0.5074682155 0.8556416461
7500255000.0 0.5191657762 0.8483929467
7550254700.0 0.5326985067 0.8400382269
7600254400.0 0.5457493629 0.8316319851
7650254100.0 0.5568627537 0.8241038442
7700253800.0 0.5691910902 0.8159086503
7750253500.0 0.5801667961 0.8078480451
7800253200.0 0.5908631556 0.8001549169
7850252900.0 0.6005726014 0.7928990368
7900252600.0 0.6123699994 0.7839919478
7950252300.0 0.6214416057 0.7772183011
8000252000.0 0.6315721733 0.7694614293
8050251700.0 0.6422758356 0.7610498803
8100251400.0 0.6523257765 0.7528590039
8150251100.0 0.6624559675 0.7439938217
8200250800.0 0.6717562046 0.7361299711
8250250500.0 0.6806189776 0.728094434
8300250200.0 0.6900867787 0.719353376
8350249900.0 0.6996336629 0.7105524938
8400249600.0 0.70751277 0.7026890842
8450249300.0 0.7167406697 0.6931231361
8500249000.0 0.7252810091 0.6843516642
8550248700.0 0.733818925 0.6753513713
8600248400.0 0.7422757354 0.6657903262
8650248100.0 0.7500307565 0.6563919282
8700247800.0 0.7593189181 0.6453801919
8750247500.0 0.767641563 0.6352676313
8800247200.0 0.7756000546 0.6251143507
8850246900.0 0.7845936311 0.6138288994
8900246600.0 0.7930363307 0.6027210024
8950246300.0 0.8024371517 0.5897527068
9000246000.0 0.8113761366 0.5771912833
9050245700.0 0.8208613442 0.5644305648
9100245400.0 0.8289783831 0.5517097298
9150245100.0 0.838557464 0.5385334819
9200244800.0 0.8479250924 0.5235003586
9250244500.0 0.8571762475 0.5081576832
9300244200.0 0.8657026822 0.4938416874
9350243900.0 0.8733757479 0.4796085818
9400243600.0 0.8801256766 0.4670709242
9450243300.0 0.8859756783 0.4551404934
9500243000.0 0.8923553339 0.4425070366
9550242700.0 0.8962099955 0.4342550918
9600242400.0 0.9002529865 0.4264219387
9650242100.0 0.9041584543 0.4195748619
9700241800.0 0.9086190146 0.4110076271
9750241500.0 0.9126127921 0.4034698915
9800241200.0 0.9171942599 0.3940167044
9850240900.0 0.9225682929 0.3824266514
9900240600.0 0.9280560979 0.3710284527
9950240300.0 0.9345906889 0.3547744815
10000240000.0 0.9388234076 0.3433201395
10050239700.0 0.9445760328 0.3283166659
10100239400.0 0.9499232424 0.3125792774
10150239100.0 0.9540624261 0.2981225793
10200238800.0 0.958368535 0.283244456
10250238500.0 0.9617898889 0.2700376055
10300238200.0 0.9649643692 0.2560559011
10350237900.0 0.9676789298 0.2430350364
10400237600.0 0.9701971711 0.2301275322
10450237300.0 0.9731971259 0.2162846134
10500237000.0 0.9751619558 0.2045584246
10550236700.0 0.9775503309 0.1906019183
10600236400.0 0.9796883381 0.177260504
10650236100.0 0.9815422805 0.1629122457
10700235800.0 0.9839909348 0.1506662955
10750235500.0 0.9861933406 0.1373263588
10800235200.0 0.9882740488 0.1233537098
10850234900.0 0.9896782668 0.1086828737
10900234600.0 0.991968929 0.0944948867
10950234300.0 0.9933812566 0.0811720411
11000234000.0 0.9952245397 0.066323135
11050233700.0 0.9969715172 0.0501433981
11100233400.0 0.9982429312 0.033107835
11150233100.0 0.9993036546 0.0164801211
11200232800.0 0.9996839822 0.00158883
11250232500.0 1.000912864 -0.0145533847
11300232200.0 1.000544369 -0.0321544352
11350231900.0 1.001196024 -0.0495924586
11400231600.0 1.001068262 -0.0640882866
11450231300.0 1.000166764 -0.0793689767
11500231000.0 0.9991529397 -0.0964956315
11550230700.0 0.9976041355 -0.1102092057
11600230400.0 0.9961034677 -0.1224273899
11650230100.0 0.9939185429 -0.1345115385
11700229800.0 0.9920586984 -0.1503830027
11750229500.0 0.9895811028 -0.1645494487
11800229200.0 0.9869385197 -0.1781623352
11850228900.0 0.9835109367 -0.1909433364
11900228600.0 0.9800187005 -0.2009278621
11950228300.0 0.9766868815 -0.211492847
12000228000.0 0.9739475258 -0.2208504324
12050227700.0 0.9699690481 -0.2338496399
12100227400.0 0.9671586663 -0.2450382935
12150227100.0 0.9621832916 -0.2609659677
12200226800.0 0.9584348133 -0.2725668177
12250226500.0 0.954815366 -0.2850701618
12300226200.0 0.9509807544 -0.2959911376
12350225900.0 0.9457639351 -0.310041375
12400225600.0 0.9419867519 -0.3229728565
12450225300.0 0.9372174973 -0.335564213
12500225000.0 0.9318262723 -0.3502471308
12550224700.0 0.9265635995 -0.3635755282
12600224400.0 0.921754613 -0.3762070482
12650224100.0 0.916023231 -0.3903171913
12700223800.0 0.9106686415 -0.4029923254
12750223500.0 0.9053511797 -0.4158995164
12800223200.0 0.9001565573 -0.4281324244
12850222900.0 0.8947077874 -0.4402298718
12900222600.0 0.8887031809 -0.4522550024
12950222300.0 0.8820830274 -0.4653294532
13000222000.0 0.8764190398 -0.4767042926
13050221700.0 0.8691332045 -0.4901295554
13100221400.0 0.8631472254 -0.5017741414
13150221100.0 0.8558097086 -0.5143464793
13200220800.0 0.8483339576 -0.5261271558
13250220500.0 0.8411391405 -0.5381217848
13300220200.0 0.8336401655 -0.5493007784
13350219900.0 0.8252886248 -0.5614444208
13400219600.0 0.8167735478 -0.5738187696
13450219300.0 0.8075878875 -0.5872449303
13500219000.0 0.7971004689 -0.6009913427
13550218700.0 0.7867123686 -0.6138861463
13600218400.0 0.7764355953 -0.6262288367
13650218100.0 0.7661220673 -0.6373576993
13700217800.0 0.755704862 -0.6498541554
13750217500.0 0.746289635 -0.6612733266
13800217200.0 0.7345126833 -0.6734933157
13850216900.0 0.723192818 -0.6841380867
13900216600.0 0.7143563785 -0.6932701912
13950216300.0 0.7031048327 -0.7036994119
14000216000.0 0.6936096147 -0.7129091796
14050215700.0 0.6837764215 -0.7204139925
14100215400.0 0.6740284219 -0.7298047286
14150215100.0 0.6649514093 -0.7385454565
14200214800.0 0.6556608722 -0.7466989404
14250214500.0 0.6454504379 -0.7559160916
14300214200.0 0.6351358143 -0.7649709394
14350213900.0 0.6244970789 -0.7743370165
14400213600.0 0.612668 -0.7839889537
14450213300.0 0.5997763131 -0.7940040188
14500213000.0 0.5866821933 -0.803639662
14550212700.0 0.5743207419 -0.8127090291
14600212400.0 0.5611558524 -0.8218659018
14650212100.0 0.5491789661 -0.8302656018
14700211800.0 0.5351691879 -0.8401054406
14750211500.0 0.5228394496 -0.8478126373
14800211200.0 0.5105984145 -0.856027447
14850210900.0 0.4983719037 -0.8634748002
14900210600.0 0.4850170057 -0.8714507691
14950210300.0 0.4715445025 -0.8791511399
15000210000.0 0.4584648941 -0.886087272
15050209700.0 0.4457447783 -0.8922481635
15100209400.0 0.4330807679 -0.8981152855
15150209100.0 0.4202281238 -0.9041515434
15200208800.0 0.4068420635 -0.9095348782
15250208500.0 0.3964404589 -0.9147084514
15300208200.0 0.3830502626 -0.9188273103
15350207900.0 0.3700331647 -0.9230270532
15400207600.0 0.3552141342 -0.9287742779
15450207300.0 0.3404467945 -0.934029592
15500207000.0 0.3262935233 -0.9395353487
15550206700.0 0.3109083554 -0.9440798144
15600206400.0 0.2952896238 -0.9480642108
15650206100.0 0.2794658456 -0.9526028925
15700205800.0 0.2657133126 -0.9561957221
15750205500.0 0.2510011907 -0.9598559393
15800205200.0 0.2369258974 -0.96311868
15850204900.0 0.2226077185 -0.9665223093
15900204600.0 0.2077494947 -0.9698252822
15950204300.0 0.1938081008 -0.9728035795
16000204000.0 0.1799091253 -0.9757194597
16050203700.0 0.1652766154 -0.978300197
16100203400.0 0.151458121 -0.9800307321
16150203100.0 0.1368351929 -0.9826337291
16200202800.0 0.1227340414 -0.9843059405
16250202500.0 0.1081472797 -0.9862225301
16300202200.0 0.0933195879 -0.9878004416
16350201900.0 0.0782226117 -0.9892182569
16400201600.0 0.0637977758 -0.9900949417
16450201300.0 0.0487810941 -0.9910717183
16500201000.0 0.0324209046 -0.9920513067
16550200700.0 0.0165532402 -0.9925375119
16600200400.0 0.0008907418 -0.9927556111
16650200100.0 -0.0155928461 -0.9926439644
16700199800.0 -0.0323731694 -0.9920084435
16750199500.0 -0.0509698069 -0.991727665
16800199200.0 -0.0665924135 -0.9904048598
16850198900.0 -0.0828092659 -0.9897801834
16900198600.0 -0.0958249762 -0.9886781565
16950198300.0 -0.1094457042 -0.9874302551
17000198000.0 -0.1229906199 -0.9855805677
17050197700.0 -0.1355900498 -0.9842566693
17100197400.0 -0.1491907126 -0.9816618534
17150197100.0 -0.161518285 -0.9795843601
17200196800.0 -0.1748472259 -0.9775395136
17250196500.0 -0.1875953507 -0.975191285
17300196200.0 -0.1999255917 -0.9728208504
17350195900.0 -0.211877134 -0.9704907849
17400195600.0 -0.2241569411 -0.9678837279
17450195300.0 -0.2373026349 -0.9650143493
17500195000.0 -0.2507984092 -0.9616884194
17550194700.0 -0.2645617353 -0.9580900176
17600194400.0 -0.2786386866 -0.9539857986
17650194100.0 -0.2922937636 -0.9499950133
17700193800.0 -0.3050528737 -0.9454480645
17750193500.0 -0.3192335365 -0.9413456499
17800193200.0 -0.3335706151 -0.9361532764
17850192900.0 -0.3483484538 -0.9309472252
17900192600.0 -0.3634007849 -0.9247092669
17950192300.0 -0.3786567696 -0.917731784
18000192000.0 -0.39328384 -0.9106812178
18050191700.0 -0.4069871295 -0.9025858711
18100191400.0 -0.421042081 -0.8950251275
18150191100.0 -0.4358391558 -0.8872734223
18200190800.0 -0.4526362608 -0.8779531699
18250190500.0 -0.4690703723 -0.8687958859
18300190200.0 -0.4848456776 -0.8603201908
18350189900.0 -0.4997230771 -0.8515466333
18400189600.0 -0.5143148547 -0.8429846252
18450189300.0 -0.5271787861 -0.835567315
18500189000.0 -0.5406023644 -0.8271680798
18550188700.0 -0.5533317796 -0.8193012853
18600188400.0 -0.5652879265 -0.812817573
18650188100.0 -0.5764198391 -0.8057888702
18700187800.0 -0.58790679 -0.7991566109
18750187500.0 -0.5986807562 -0.7921591697
18800187200.0 -0.609402252 -0.7846271605
18850186900.0 -0.6196489341 -0.7774912827
18900186600.0 -0.630237594 -0.7699175244
18950186300.0 -0.6405268572 -0.7616197778
19000186000.0 -0.6481331992 -0.7551029649
19050185700.0 -0.6576485864 -0.7479434861
19100185400.0 -0.6681228387 -0.7390015194
19150185100.0 -0.6780817319 -0.7301087143
19200184800.0 -0.6879783771 -0.7215562629
19250184500.0 -0.6986553849 -0.7122754017
19300184200.0 -0.7095180072 -0.7023561691
19350183900.0 -0.7198241272 -0.6928098691
19400183600.0 -0.7295401367 -0.6832184683
19450183300.0 -0.7387360004 -0.6735442317
19500183000.0 -0.7461596315 -0.6630643831
19550182700.0 -0.7561969073 -0.6526738028
19600182400.0 -0.7668070129 -0.6408292558
19650182100.0 -0.7771412958 -0.6285687181
19700181800.0 -0.7871969476 -0.616101534
19750181500.0 -0.797659325 -0.6022652258
19800181200.0 -0.8076394417 -0.5875274854
19850180900.0 -0.8170601507 -0.5726041487
19900180600.0 -0.8247966823 -0.5585513934
19950180300.0 -0.8336312212 -0.5425572515
20000180000.0 -0.8283862859 -0.5436795851
20050179700.0 -0.835904091 -0.5313315026
20100179400.0 -0.8439214687 -0.5176876774
20150179100.0 -0.8524358938 -0.5053697481
20200178800.0 -0.8608343878 -0.4921100153
20250178500.0 -0.8703275394 -0.479354811
20300178200.0 -0.8787925948 -0.464082029
20350177900.0 -0.8877764574 -0.4501106358
20400177600.0 -0.8966540139 -0.4355391725
20450177300.0 -0.9050215591 -0.421620117
20500177000.0 -0.912532108 -0.4072771782
20550176700.0 -0.9205274768 -0.3936432295
20600176400.0 -0.9274662844 -0.3803593644
20650176100.0 -0.9340729954 -0.3679613772
20700175800.0 -0.9402624007 -0.3557786144
20750175500.0 -0.9464804155 -0.3437380897
20800175200.0 -0.9522406622 -0.3323756232
20850174900.0 -0.9571896256 -0.3207112633
20900174600.0 -0.9621668019 -0.3091710177
20950174300.0 -0.9656128581 -0.2977160346
21000174000.0 -0.9695463567 -0.2860257055
21050173700.0 -0.972342438 -0.2737236616
21100173400.0 -0.9761925301 -0.2626594337
21150173100.0 -0.9803291236 -0.2487984574
21200172800.0 -0.9842568071 -0.2354929619
21250172500.0 -0.9870909681 -0.2215953153
21300172200.0 -0.9899675764 -0.2075481102
21350171900.0 -0.9914231637 -0.1927359148
21400171600.0 -0.9938165073 -0.1784959394
21450171300.0 -0.9938014602 -0.1641053629
21500171000.0 -0.9930459805 -0.149273701
21550170700.0 -0.9928100901 -0.1340860421
21600170400.0 -0.9937630346 -0.118123754
21650170100.0 -0.9921210886 -0.1017250963
21700169800.0 -0.9905188408 -0.0875501957
21750169500.0 -0.9895272075 -0.0715547801
21800169200.0 -0.989189405 -0.0556606746
21850168900.0 -0.9874515049 -0.039520904
21900168600.0 -0.9852788802 -0.0241699586
21950168300.0 -0.9845937708 -0.0082377409
22000168000.0 -0.9833910055 0.0066523288
22050167700.0 -0.9828067402 0.0205957776
22100167400.0 -0.9825557098 0.0355195737
22150167100.0 -0.9831222132 0.0507362274
22200166800.0 -0.9835825857 0.0671049392
22250166500.0 -0.9831581395 0.0836205223
22300166200.0 -0.982052411 0.1006751925
22350165900.0 -0.9810120851 0.1159638187
22400165600.0 -0.9788992657 0.1320551566
22450165300.0 -0.9764639621 0.1470260467
22500165000.0 -0.9738452301 0.1620764149
22550164700.0 -0.9739741862 0.1763578146
22600164400.0 -0.9725141126 0.1916539751
22650164100.0 -0.9699018216 0.2066794665
22700163800.0 -0.9669087159 0.2227270649
22750163500.0 -0.9643390732 0.2375102942
22800163200.0 -0.9615441833 0.2510915246
22850162900.0 -0.9592723312 0.2645858281
22900162600.0 -0.9579144521 0.2781598936
22950162300.0 -0.9567118452 0.290983
23000162000.0 -0.9553240913 0.3027757294
23050161700.0 -0.9531589612 0.3149598955
23100161400.0 -0.9513941563 0.3286064022
23150161100.0 -0.9482356891 0.3408692155
23200160800.0 -0.9451219796 0.3524122643
23250160500.0 -0.9438350938 0.364599829
23300160200.0 -0.9402675096 0.3761821568
23350159900.0 -0.9367495893 0.3893606001
23400159600.0 -0.931586732 0.4019677627
23450159300.0 -0.9268085717 0.4154933954
23500159000.0 -0.9220169016 0.428476339
23550158700.0 -0.9177070589 0.4409676137
23600158400.0 -0.9126042017 0.4538165554
23650158100.0 -0.9060472158 0.4675782484
23700157800.0 -0.8987315788 0.4812607266
23750157500.0 -0.8899968345 0.4951964578
23800157200.0 -0.8814390001 0.5082420259
23850156900.0 -0.8725287327 0.5209802134
23900156600.0 -0.8632362365 0.5328161442
23950156300.0 -0.8540997271 0.5453239948
24000156000.0 -0.8446379902 0.5574731751
24050155700.0 -0.8352196954 0.5683483206
24100155400.0 -0.8248465193 0.5807320364
24150155100.0 -0.814687699 0.5930205469
24200154800.0 -0.8043135168 0.6041157753
24250154500.0 -0.7925808812 0.6163039485
24300154200.0 -0.7808464412 0.6272592878
24350153900.0 -0.7693132073 0.638354173
24400153600.0 -0.7570071246 0.6486140899
24450153300.0 -0.745443146 0.6590361357
24500153000.0 -0.7338643563 0.6689208961
24550152700.0 -0.7231694327 0.6782380299
24600152400.0 -0.711749604 0.6874446452
24650152100.0 -0.6997237364 0.6955580512
