!Created with skrf (http://scikit-rf.org).
# Hz S RI R 50.0 
!freq ReS11 ImS11
300000.0 -0.9747970103 -0.1212169792
50299700.0 -0.999888435 0.0151719651
100299400.0 -0.9979846394 0.0279281928
150299100.0 -1.002748857 0.0449495388
200298800.0 -0.9994859967 0.0581531607
250298500.0 -0.9973110254 0.0718206586
300298200.0 -0.9859732791 0.087625651
350297900.0 -0.9939448612 0.0984202035
400297600.0 -0.9933425771 0.1149708992
450297300.0 -0.9909981137 0.1289901713
500297000.0 -0.9893430101 0.1436136837
550296700.0 -0.9842432553 0.1559581849
600296400.0 -1.017253965 0.1893512631
650296100.0 -0.9821252608 0.1858389555
700295800.0 -0.9791839775 0.2001634618
750295500.0 -0.9761463569 0.2141808488
800295200.0 -0.9729551361 0.2281230434
850294900.0 -0.9695497715 0.2421951818
900294600.0 -0.9658984976 0.2557662926
950294300.0 -0.9619809124 0.2696559291
1000294000.0 -0.9582186667 0.2834188237
1050293700.0 -0.953735418 0.2973805786
1100293400.0 -0.9494115989 0.3117094723
1150293100.0 -0.9455851912 0.3236725749
1200292800.0 -0.9402012304 0.3379741317
1250292500.0 -0.9345912027 0.3514789766
1300292200.0 -0.9291284132 0.3645255119
1350291900.0 -0.9235517168 0.3785593693
1400291600.0 -0.9178069951 0.3916887561
1450291300.0 -0.9124053887 0.4041939074
1500291000.0 -0.9060688472 0.417404437
1550290700.0 -0.8995543652 0.4308123251
1600290400.0 -0.8934093419 0.4437031087
1650290100.0 -0.8868316045 0.4559438132
1700289800.0 -0.8798937519 0.4694035967
1750289500.0 -0.8727335359 0.4818766404
1800289200.0 -0.8655822259 0.4945153649
1850288900.0 -0.8588343918 0.5058704832
1900288600.0 -0.8510152682 0.5189832089
1950288300.0 -0.8429846335 0.5313898536
2000288000.0 -0.8354624808 0.542950063
2050287700.0 -0.8272851905 0.5553565101
2100287400.0 -0.8193257367 0.566739212
2150287100.0 -0.8107980467 0.5786432409
2200286800.0 -0.8030281764 0.5893753605
2250286500.0 -0.7940070821 0.6012940655
2300286200.0 -0.7851818566 0.6128948512
2350285900.0 -0.776813342 0.6238365294
2400285600.0 -0.767652381 0.6348761829
2450285300.0 -0.7591763432 0.645231994
2500285000.0 -0.7492471443 0.656511336
2550284700.0 -0.7404414544 0.6669130856
2600284400.0 -0.7311069588 0.6770774823
2650284100.0 -0.7221929773 0.6872841924
2700283800.0 -0.7118823948 0.6980872724
2750283500.0 -0.7015885247 0.7087918401
2800283200.0 -0.6912201049 0.7179904936
2850282900.0 -0.6813410482 0.7283576095
2900282600.0 -0.6709695729 0.737863721
2950282300.0 -0.6604848805 0.747255499
3000282000.0 -0.649537262 0.7566012489
3050281700.0 -0.638530348 0.7657875582
3100281400.0 -0.6269991243 0.7749549043
3150281100.0 -0.6152220769 0.7842614632
3200280800.0 -0.6036306508 0.7927856761
3250280500.0 -0.5926626757 0.8005898367
3300280200.0 -0.5812579271 0.8085963094
3350279900.0 -0.5695250075 0.8162685517
3400279600.0 -0.5572848466 0.8241039093
3450279300.0 -0.5461025879 0.8314046632
3500279000.0 -0.534153031 0.8382153619
3550278700.0 -0.5218092211 0.8453750852
3600278400.0 -0.5097793835 0.8525521185
3650278100.0 -0.4964993112 0.8601618833
3700277800.0 -0.4845370731 0.8666665354
3750277500.0 -0.4723725806 0.8732079875
3800277200.0 -0.4599817266 0.8797473223
3850276900.0 -0.4477773192 0.8856778449
3900276600.0 -0.4368817913 0.8912885934
3950276300.0 -0.4245836227 0.8973453322
4000276000.0 -0.412818334 0.9033677798
4050275700.0 -0.3997829839 0.909046169
4100275400.0 -0.3888491793 0.9146770027
4150275100.0 -0.3759797415 0.9206753146
4200274800.0 -0.3627094249 0.9260612585
4250274500.0 -0.3504177086 0.931313775
4300274200.0 -0.3372702617 0.9365798734
4350273900.0 -0.3232919372 0.9417876406
4400273600.0 -0.3085507395 0.947282374
4450273300.0 -0.293329022 0.9522784084
4500273000.0 -0.2799062589 0.9565739406
4550272700.0 -0.2659284002 0.9606696275
4600272400.0 -0.2507393243 0.9649381433
4650272100.0 -0.2389067891 0.968265231
4700271800.0 -0.2259825804 0.9714512759
4750271500.0 -0.2141929663 0.9742809983
4800271200.0 -0.2018790745 0.9769189457
4850270900.0 -0.1880476443 0.9798944677
4900270600.0 -0.1739769913 0.9822273383
4950270300.0 -0.1597713627 0.9848117086
5000270000.0 -0.1452446067 0.9870700518
5050269700.0 -0.1318779383 0.9882007747
5100269400.0 -0.1178545924 0.9904060286
5150269100.0 -0.1045948889 0.9918604137
5200268800.0 -0.0911532689 0.9925606273
5250268500.0 -0.0781145556 0.993769153
5300268200.0 -0.0647022675 0.9945069704
5350267900.0 -0.0523303917 0.9953502553
5400267600.0 -0.0360755967 0.996129255
5450267300.0 -0.0228803172 0.9966406898
5500267000.0 -0.0076094426 0.9969416581
5550266700.0 0.0071985635 0.9970896155
5600266400.0 0.0228606156 0.9973535225
5650266100.0 0.0391334613 0.9968315742
5700265800.0 0.0537335176 0.9961351416
5750265500.0 0.0688839497 0.9954338031
5800265200.0 0.0827161815 0.9944003446
5850264900.0 0.0960726212 0.9935867124
5900264600.0 0.1124200942 0.9917372391
5950264300.0 0.1245672048 0.9903868606
6000264000.0 0.1380801486 0.9883928084
6050263700.0 0.1505314464 0.9870674167
6100263400.0 0.1624917407 0.9847739117
6150263100.0 0.1770659353 0.9824592188
6200262800.0 0.1871570463 0.9808350315
6250262500.0 0.1998978624 0.9785993371
6300262200.0 0.2125780404 0.9758870546
6350261900.0 0.2254293773 0.9731162814
6400261600.0 0.2393000647 0.9697661876
6450261300.0 0.2505694834 0.9673359144
6500261000.0 0.2637100328 0.9634232187
6550260700.0 0.2767139659 0.9595361846
6600260400.0 0.2899590193 0.9555548771
6650260100.0 0.3042533777 0.9513170277
6700259800.0 0.3161149679 0.9472265137
6750259500.0 0.3298350337 0.94186081
6800259200.0 0.343311005 0.9370393455
6850258900.0 0.3554504429 0.9317850256
6900258600.0 0.3676420335 0.9265673343
6950258300.0 0.3803707472 0.9213684908
7000258000.0 0.3920480186 0.9159923848
7050257700.0 0.4041732869 0.9100023743
7100257400.0 0.4170550202 0.9038605434
7150257100.0 0.4276964432 0.8982809451
7200256800.0 0.4404713238 0.8919677302
7250256500.0 0.452874399 0.8854008579
7300256200.0 0.4658205317 0.8787598996
7350255900.0 0.4784068172 0.8719171795
7400255600.0 0.492212334 0.8646122217
7450255300.0 0.5074753266 0.8557427357
7500255000.0 0.5191602986 0.8481881758
7550254700.0 0.5334418795 0.8395097531
7600254400.0 0.5461148725 0.831003457
7650254100.0 0.5577751527 0.8234223152
7700253800.0 0.5690468498 0.8153142059
7750253500.0 0.580339723 0.8076677479
7800253200.0 0.5910860895 0.7998845805
7850252900.0 0.6006237471 0.7929483226
7900252600.0 0.612350975 0.7841363257
7950252300.0 0.6207773172 0.7777401927
8000252000.0 0.6310141052 0.7700552956
8050251700.0 0.6415377332 0.761903145
8100251400.0 0.6516195222 0.7538204574
8150251100.0 0.6616592139 0.7450890632
8200250800.0 0.6709190156 0.7372183405
8250250500.0 0.6799770918 0.7291594464
8300250200.0 0.6889509378 0.7208796022
8350249900.0 0.6981489198 0.7118504519
8400249600.0 0.7066376386 0.7038802724
8450249300.0 0.7154961688 0.694715054
8500249000.0 0.723709659 0.6861080232
8550248700.0 0.73230188 0.6769701491
8600248400.0 0.7407400336 0.6673638038
8650248100.0 0.7484907746 0.6579508136
8700247800.0 0.7578206265 0.6468319791
8750247500.0 0.766024238 0.6367462478
8800247200.0 0.7744584923 0.6261113712
8850246900.0 0.783056866 0.6149273551
8900246600.0 0.7912972999 0.6036598565
8950246300.0 0.8009504717 0.5907459501
9000246000.0 0.8100575412 0.578276564
9050245700.0 0.8188323235 0.5653814946
9100245400.0 0.8272944722 0.5531626947
9150245100.0 0.8362847942 0.5398686858
9200244800.0 0.8463121999 0.5248437721
9250244500.0 0.8556669906 0.5098773901
9300244200.0 0.8637790303 0.4958890312
9350243900.0 0.8713865665 0.4820772227
9400243600.0 0.8781174572 0.4699992654
9450243300.0 0.8838376128 0.4588530483
9500243000.0 0.8899868871 0.4467320576
9550242700.0 0.894139502 0.4391919222
9600242400.0 0.8980651924 0.4317620185
9650242100.0 0.9016880979 0.4250714759
9700241800.0 0.9065062971 0.4167828243
9750241500.0 0.9106849238 0.4091669177
9800241200.0 0.9153227135 0.3999256979
9850240900.0 0.9212600397 0.3880391673
9900240600.0 0.9271096421 0.376277941
9950240300.0 0.9337048619 0.3601091642
10000240000.0 0.9383305247 0.3487409736
10050239700.0 0.9442750948 0.332757436
10100239400.0 0.9494539602 0.3168250138
10150239100.0 0.9542738665 0.301955352
10200238800.0 0.9581796088 0.2869397036
10250238500.0 0.9615360359 0.273449406
10300238200.0 0.9645722209 0.2595228208
10350237900.0 0.9672629053 0.2462610472
10400237600.0 0.9698682686 0.2331104982
10450237300.0 0.9725160754 0.2192918969
10500237000.0 0.9749293041 0.2068081967
10550236700.0 0.9771120311 0.1924478694
10600236400.0 0.9791753035 0.1793117997
10650236100.0 0.9810414153 0.1646400089
10700235800.0 0.9833581898 0.1514116971
10750235500.0 0.9857949251 0.1382442692
10800235200.0 0.9877787192 0.1246776839
10850234900.0 0.9897797242 0.1099318688
10900234600.0 0.992010439 0.0950871811
10950234300.0 0.9935210343 0.0817866396
11000234000.0 0.995333696 0.0665029519
11050233700.0 0.9971468754 0.0499889275
11100233400.0 0.9985306814 0.032645659
11150233100.0 0.9995082047 0.0162698278
11200232800.0 1.000524464 0.0009348408
11250232500.0 1.001687151 -0.0167889184
11300232200.0 1.001793711 -0.0346537411
11350231900.0 1.002261351 -0.0511933666
11400231600.0 1.001964865 -0.0657865341
11450231300.0 1.001241037 -0.0814116919
11500231000.0 0.9996933586 -0.097666029
11550230700.0 0.998159966 -0.1107433682
11600230400.0 0.9974104342 -0.1232867896
11650230100.0 0.9950956587 -0.1354714715
11700229800.0 0.993011198 -0.1500042562
11750229500.0 0.9906067175 -0.1639599838
11800229200.0 0.9878283243 -0.1778277318
11850228900.0 0.984193067 -0.1899661692
11900228600.0 0.9808233864 -0.1994574534
11950228300.0 0.9774617135 -0.2100168119
12000228000.0 0.9746178089 -0.2188420157
12050227700.0 0.9707290467 -0.2319884917
12100227400.0 0.9676291646 -0.2428430303
12150227100.0 0.9630586487 -0.2591571884
12200226800.0 0.959076869 -0.2704489304
12250226500.0 0.9549101921 -0.2833198437
12300226200.0 0.9510900595 -0.2951173989
12350225900.0 0.9461055598 -0.3081184548
12400225600.0 0.9413780445 -0.3221496776
12450225300.0 0.9373725673 -0.3351525706
12500225000.0 0.9315758352 -0.3491571464
12550224700.0 0.9261201011 -0.3632624832
12600224400.0 0.9212575548 -0.3761067151
12650224100.0 0.9155116385 -0.390444003
12700223800.0 0.9102418302 -0.4033323428
12750223500.0 0.9047133356 -0.4161309141
12800223200.0 0.8993269176 -0.4291780635
12850222900.0 0.8940733777 -0.4410310213
12900222600.0 0.8885171529 -0.452899773
12950222300.0 0.8820484114 -0.4661651742
13000222000.0 0.8762772647 -0.4773816316
13050221700.0 0.869538096 -0.4903173645
13100221400.0 0.8625650455 -0.5022247187
13150221100.0 0.8558287357 -0.5142176564
13200220800.0 0.8489307136 -0.525944182
13250220500.0 0.8417119119 -0.5381589304
13300220200.0 0.8341265589 -0.5489260428
13350219900.0 0.8263048811 -0.5609108122
13400219600.0 0.8179067224 -0.5727781609
13450219300.0 0.808536443 -0.5861341118
13500219000.0 0.798695823 -0.599368723
13550218700.0 0.7888943692 -0.6122230999
13600218400.0 0.7782712662 -0.6244240218
13650218100.0 0.7690939983 -0.6348573431
13700217800.0 0.7586596367 -0.6471332502
13750217500.0 0.7487805644 -0.658570437
13800217200.0 0.7363934618 -0.6700411594
13850216900.0 0.7261883057 -0.6809684259
13900216600.0 0.7163224414 -0.6899991739
13950216300.0 0.7052475175 -0.7001701628
14000216000.0 0.6953026999 -0.7099076201
14050215700.0 0.6860853332 -0.7176865031
14100215400.0 0.6764575639 -0.7269458208
14150215100.0 0.6675493641 -0.7358477403
14200214800.0 0.6578215611 -0.744319741
14250214500.0 0.6473812065 -0.7538460727
14300214200.0 0.6368433296 -0.7633018438
14350213900.0 0.6259801896 -0.772718002
14400213600.0 0.614296064 -0.7827157424
14450213300.0 0.6008207229 -0.7927792426
14500213000.0 0.587648278 -0.8030090678
14550212700.0 0.5755818735 -0.8123391786
14600212400.0 0.563074499 -0.8203626108
14650212100.0 0.5504224511 -0.8300024497
14700211800.0 0.535986079 -0.8395877609
14750211500.0 0.5248080395 -0.8477791031
14800211200.0 0.5119043572 -0.8557319521
14850210900.0 0.4997326385 -0.8633483637
14900210600.0 0.4864097003 -0.8711621538
14950210300.0 0.4730333009 -0.8786271911
15000210000.0 0.4602840862 -0.8854790172
15050209700.0 0.4479578744 -0.8916103051
15100209400.0 0.4354372889 -0.8976323415
15150209100.0 0.4234379343 -0.902760481
15200208800.0 0.410248639 -0.9083285857
15250208500.0 0.3994636933 -0.9127265805
15300208200.0 0.3869034244 -0.91718662
15350207900.0 0.3732330885 -0.9219502492
15400207600.0 0.3590058949 -0.9269669079
15450207300.0 0.3448249871 -0.9322988822
15500207000.0 0.3296079188 -0.938015528
15550206700.0 0.3147321076 -0.9424663558
15600206400.0 0.2994037928 -0.9466218386
15650206100.0 0.2834301705 -0.9511236065
15700205800.0 0.2698813356 -0.9548690696
15750205500.0 0.2554201327 -0.9580326457
15800205200.0 0.2411768791 -0.9615302284
15850204900.0 0.2268493117 -0.9650655518
15900204600.0 0.2116317192 -0.9688534975
15950204300.0 0.1974476877 -0.9717093916
16000204000.0 0.1832374459 -0.9746448632
16050203700.0 0.1685104721 -0.9774734218
16100203400.0 0.1537552254 -0.9797457489
16150203100.0 0.1390008239 -0.982024906
16200202800.0 0.1246902546 -0.984444098
16250202500.0 0.1095924126 -0.985980582
16300202200.0 0.09423057 -0.9875807344
16350201900.0 0.0795878999 -0.9889623763
16400201600.0 0.0650332292 -0.9901515965
16450201300.0 0.0496475218 -0.991077525
16500201000.0 0.0327196321 -0.9920335008
16550200700.0 0.0170005096 -0.9926235697
16600200400.0 0.0012471613 -0.9926451959
16650200100.0 -0.0148650176 -0.9926807263
16700199800.0 -0.0308153804 -0.9927287243
16750199500.0 -0.0502456863 -0.9918185256
16800199200.0 -0.0657243485 -0.9905643385
16850198900.0 -0.0807760729 -0.9897585766
16900198600.0 -0.0947204177 -0.989581976
16950198300.0 -0.1086140706 -0.9877474026
17000198000.0 -0.1217491868 -0.9858856485
17050197700.0 -0.133435619 -0.983929604
17100197400.0 -0.1473114554 -0.9822270472
17150197100.0 -0.159277085 -0.9802573194
17200196800.0 -0.1721425447 -0.9778359649
17250196500.0 -0.1850773344 -0.9757613604
17300196200.0 -0.1972352434 -0.9734051331
17350195900.0 -0.2090875024 -0.9711515272
17400195600.0 -0.2213017632 -0.9683890736
17450195300.0 -0.2345336005 -0.9658180527
17500195000.0 -0.2478365043 -0.962321133
17550194700.0 -0.2617227524 -0.9588763311
17600194400.0 -0.275904879 -0.954809472
17650194100.0 -0.2893542443 -0.9505137883
17700193800.0 -0.3025086935 -0.9466689108
17750193500.0 -0.316859007 -0.9418011936
17800193200.0 -0.3311033231 -0.9367097686
17850192900.0 -0.3461133841 -0.9318550481
17900192600.0 -0.3613181928 -0.9253672464
17950192300.0 -0.3767027986 -0.9181829933
18000192000.0 -0.391529196 -0.9110483818
18050191700.0 -0.4054758776 -0.9030229142
18100191400.0 -0.4197886132 -0.8954901863
18150191100.0 -0.4346751895 -0.8875961887
18200190800.0 -0.4516986243 -0.8783417986
18250190500.0 -0.4687370173 -0.8689142803
18300190200.0 -0.4840280723 -0.8600738946
18350189900.0 -0.4993439184 -0.8517798419
18400189600.0 -0.5137617106 -0.8433682961
18450189300.0 -0.5268581303 -0.8355445595
18500189000.0 -0.5402360594 -0.8275623185
18550188700.0 -0.5529529651 -0.820133492
18600188400.0 -0.5648497841 -0.8129905666
18650188100.0 -0.5760078311 -0.8066433553
18700187800.0 -0.586842094 -0.799872092
18750187500.0 -0.5972797334 -0.7933886505
18800187200.0 -0.6078581916 -0.7864247453
18850186900.0 -0.6178552299 -0.7796154063
18900186600.0 -0.6281259024 -0.7722983352
18950186300.0 -0.6382346547 -0.7645979783
19000186000.0 -0.64547378 -0.7583147641
19050185700.0 -0.6547836198 -0.7510800006
19100185400.0 -0.6646928315 -0.7429541837
19150185100.0 -0.6749835862 -0.7347829732
19200184800.0 -0.684492622 -0.7262962348
19250184500.0 -0.6936324617 -0.7170151845
19300184200.0 -0.706054876 -0.7074723737
19350183900.0 -0.7166063051 -0.6974164267
19400183600.0 -0.7259993918 -0.6876842753
19450183300.0 -0.7356512755 -0.6775958906
19500183000.0 -0.7437877294 -0.6676907489
19550182700.0 -0.7532370618 -0.6565398245
19600182400.0 -0.7637867909 -0.6449740794
19650182100.0 -0.7745587529 -0.6330485542
19700181800.0 -0.7851649686 -0.6198929698
19750181500.0 -0.7955069083 -0.6055754989
19800181200.0 -0.805848978 -0.5905567986
19850180900.0 -0.8155989201 -0.5753823441
19900180600.0 -0.8235977713 -0.5608301928
19950180300.0 -0.832751859 -0.544408101
20000180000.0 -0.8242080562 -0.5478220809
20050179700.0 -0.8329740518 -0.5341811797
20100179400.0 -0.8410900733 -0.5207285769
20150179100.0 -0.8492587051 -0.5082150003
20200178800.0 -0.8580957417 -0.4954471958
20250178500.0 -0.8682114715 -0.4835566045
20300178200.0 -0.8770445105 -0.4684009098
20350177900.0 -0.8866041715 -0.4546747882
20400177600.0 -0.8958943026 -0.4403053099
20450177300.0 -0.9036432121 -0.4256467749
20500177000.0 -0.9117411803 -0.4118279519
20550176700.0 -0.9198541247 -0.3983178218
20600176400.0 -0.9264774987 -0.3852467785
20650176100.0 -0.932943815 -0.372743739
20700175800.0 -0.9399124851 -0.3616702158
20750175500.0 -0.9464736857 -0.3499470045
20800175200.0 -0.9508375663 -0.3387985383
20850174900.0 -0.9564014182 -0.3273725938
20900174600.0 -0.9599241132 -0.3168639603
20950174300.0 -0.9632155236 -0.3055949879
21000174000.0 -0.9669153162 -0.2945820977
21050173700.0 -0.9687828705 -0.284257557
21100173400.0 -0.9733692794 -0.2727218831
21150173100.0 -0.9767214029 -0.2599962521
21200172800.0 -0.9806907116 -0.2467006906
21250172500.0 -0.9838475675 -0.2330133598
21300172200.0 -0.9874724458 -0.2192812016
21350171900.0 -0.9889521526 -0.2043279961
21400171600.0 -0.9904737241 -0.1906506341
21450171300.0 -0.9914417422 -0.1761904102
21500171000.0 -0.9912765274 -0.161247754
21550170700.0 -0.9916706091 -0.1448184995
21600170400.0 -0.9924083969 -0.1297599711
21650170100.0 -0.9915477182 -0.114066094
21700169800.0 -0.9901305011 -0.0977579725
21750169500.0 -0.9891987773 -0.0819560631
21800169200.0 -0.9888666797 -0.0669559845
21850168900.0 -0.9881541266 -0.0496008974
21900168600.0 -0.9872982445 -0.0333717694
21950168300.0 -0.9863208969 -0.0179409476
22000168000.0 -0.9859168518 -0.0024368618
22050167700.0 -0.9855429871 0.0117431336
22100167400.0 -0.9860270085 0.0271208173
22150167100.0 -0.9864908948 0.0430188012
22200166800.0 -0.9873473391 0.0590525004
22250166500.0 -0.9864764192 0.0761502927
22300166200.0 -0.9861174074 0.0931331574
22350165900.0 -0.9850900716 0.1100471524
22400165600.0 -0.983045974 0.1251285574
22450165300.0 -0.9814253143 0.1394545061
22500165000.0 -0.9798337434 0.1544032525
22550164700.0 -0.9780250689 0.1698512085
22600164400.0 -0.9761400512 0.1854055338
22650164100.0 -0.9740348116 0.2009111128
22700163800.0 -0.9708810745 0.2164125771
22750163500.0 -0.9685838353 0.2314866232
22800163200.0 -0.9657612461 0.244792858
22850162900.0 -0.9633211383 0.2581636551
22900162600.0 -0.9615631821 0.2717323672
22950162300.0 -0.9603206579 0.2848708336
23000162000.0 -0.9587298572 0.2969057677
23050161700.0 -0.9561115476 0.3098481918
23100161400.0 -0.9545105348 0.3227792531
23150161100.0 -0.9514889721 0.3355883527
23200160800.0 -0.9486861112 0.348257131
23250160500.0 -0.9460152106 0.3599823544
23300160200.0 -0.9430884281 0.3722638404
23350159900.0 -0.9393608335 0.3853177085
23400159600.0 -0.9345964911 0.3991088566
23450159300.0 -0.9295186014 0.412909053
23500159000.0 -0.9248419421 0.4257815268
23550158700.0 -0.920356309 0.4393088908
23600158400.0 -0.9147783697 0.4530206626
23650158100.0 -0.9078128689 0.4671884192
23700157800.0 -0.9002293677 0.4812259307
23750157500.0 -0.8913954716 0.4955329941
23800157200.0 -0.8822323908 0.5085895562
23850156900.0 -0.8731033552 0.5218160475
23900156600.0 -0.8632716579 0.5338429907
23950156300.0 -0.8539210619 0.5463708522
24000156000.0 -0.8449303606 0.5583130316
24050155700.0 -0.8348366926 0.5714069374
24100155400.0 -0.8248601199 0.5825375364
24150155100.0 -0.8135725054 0.594615841
24200154800.0 -0.8030770945 0.6060184825
24250154500.0 -0.791598022 0.6178780888
24300154200.0 -0.7807522911 0.6298482208
24350153900.0 -0.7686621418 0.6406317566
24400153600.0 -0.7561689995 0.6508212984
24450153300.0 -0.7447334255 0.6608157905
24500153000.0 -0.732815191 0.6704157305
24550152700.0 -0.7217105727 0.6805111408
24600152400.0 -0.7097433701 0.6890055564
24650152100.0 -0.6977319678 0.6982394797
