!Created with skrf (http://scikit-rf.org).
# Hz S RI R 50.0 
!freq ReS11 ImS11
300000.0 -0.9820613 -0.0974092913
50299700.0 -0.9998899488 0.0162995397
100299400.0 -0.9980019418 0.0291787219
150299100.0 -1.002818034 0.0460480897
200298800.0 -0.9995556867 0.0593974312
250298500.0 -0.9973690065 0.0728782329
300298200.0 -0.9859999316 0.0888277819
350297900.0 -0.9940892744 0.0996108658
400297600.0 -0.9929255295 0.1163524529
450297300.0 -0.9910252446 0.130215869
500297000.0 -0.9891800876 0.1449353087
550296700.0 -0.9842069191 0.1572651192
600296400.0 -1.01714224 0.1905696775
650296100.0 -0.9821895972 0.187107248
700295800.0 -0.9792203708 0.2016270258
750295500.0 -0.9761917198 0.2154699452
800295200.0 -0.972627407 0.229601446
850294900.0 -0.9693070482 0.2435017511
900294600.0 -0.9655623812 0.2571968558
950294300.0 -0.9616923616 0.2709553522
1000294000.0 -0.9576667307 0.2848637037
1050293700.0 -0.9530202521 0.2986180286
1100293400.0 -0.948797376 0.3129688756
1150293100.0 -0.9450900881 0.3250238034
1200292800.0 -0.9395921771 0.3392747567
1250292500.0 -0.9340673103 0.3526115711
1300292200.0 -0.9285264673 0.3656703057
1350291900.0 -0.9229041868 0.3799348821
1400291600.0 -0.9174458791 0.3930790157
1450291300.0 -0.912093413 0.4053891068
1500291000.0 -0.9057330964 0.4185178425
1550290700.0 -0.8992565193 0.4320778374
1600290400.0 -0.8928919385 0.4447972528
1650290100.0 -0.8862948187 0.45694782
1700289800.0 -0.8795060625 0.4705815981
1750289500.0 -0.8725114039 0.4825942864
1800289200.0 -0.8651089801 0.4957232197
1850288900.0 -0.8583982142 0.5069349012
1900288600.0 -0.850516964 0.5199278529
1950288300.0 -0.8425343846 0.5324494098
2000288000.0 -0.8349150626 0.5439124955
2050287700.0 -0.8267793879 0.5559379921
2100287400.0 -0.8186766898 0.5678058453
2150287100.0 -0.8099683006 0.5800283319
2200286800.0 -0.8023282455 0.5904748238
2250286500.0 -0.7934572753 0.6024322564
2300286200.0 -0.7844314441 0.6139023879
2350285900.0 -0.7756283057 0.6250040352
2400285600.0 -0.766579422 0.6361396395
2450285300.0 -0.7578824112 0.6465443489
2500285000.0 -0.7482589845 0.6577822081
2550284700.0 -0.7391640031 0.6681933621
2600284400.0 -0.7298364119 0.6781818392
2650284100.0 -0.7208011232 0.6887298053
2700283800.0 -0.7101311673 0.6991468431
2750283500.0 -0.6999677633 0.7097646824
2800283200.0 -0.6899993438 0.7193575413
2850282900.0 -0.6799288734 0.7295820873
2900282600.0 -0.6695063605 0.7387110107
2950282300.0 -0.6593895156 0.7480457264
3000282000.0 -0.6486936219 0.7575767937
3050281700.0 -0.6373875564 0.7667295133
3100281400.0 -0.6257905247 0.7759826691
3150281100.0 -0.6140001472 0.7854217388
3200280800.0 -0.6023917506 0.7939977163
3250280500.0 -0.5915740629 0.8017332106
3300280200.0 -0.5804449136 0.8095361247
3350279900.0 -0.5689285713 0.8169494697
3400279600.0 -0.5569005184 0.8248340861
3450279300.0 -0.5458202374 0.8318648957
3500279000.0 -0.5338589213 0.8391123625
3550278700.0 -0.5213518597 0.8463572098
3600278400.0 -0.509258258 0.8534197508
3650278100.0 -0.4957802542 0.8612481582
3700277800.0 -0.4838490095 0.8673791997
3750277500.0 -0.4714790304 0.873950212
3800277200.0 -0.4588845516 0.8805773488
3850276900.0 -0.4467223915 0.8863230817
3900276600.0 -0.4357170139 0.892125844
3950276300.0 -0.4231777141 0.8981163329
4000276000.0 -0.4112652342 0.9041961772
4050275700.0 -0.3980580249 0.9102694142
4100275400.0 -0.3867028254 0.9156142828
4150275100.0 -0.3738756609 0.9213366322
4200274800.0 -0.3609352089 0.9268122957
4250274500.0 -0.3485572195 0.9318553933
4300274200.0 -0.3356709996 0.9371876044
4350273900.0 -0.3219568328 0.942562404
4400273600.0 -0.3071712356 0.9471536351
4450273300.0 -0.2917094017 0.9525625866
4500273000.0 -0.2781296549 0.9569587401
4550272700.0 -0.2639782884 0.9612743347
4600272400.0 -0.2484314939 0.9651580888
4650272100.0 -0.2366767479 0.9683942992
4700271800.0 -0.2233939985 0.971807381
4750271500.0 -0.2116127569 0.9747360317
4800271200.0 -0.19908298 0.9774667782
4850270900.0 -0.1853500335 0.9802442853
4900270600.0 -0.1714353652 0.9825541364
4950270300.0 -0.1573761248 0.985356837
5000270000.0 -0.1433671494 0.987487464
5050269700.0 -0.1299056752 0.9884795037
5100269400.0 -0.1161636812 0.9904551725
5150269100.0 -0.1029882969 0.9921592966
5200268800.0 -0.0896797681 0.9932945311
5250268500.0 -0.0767963989 0.9940488768
5300268200.0 -0.0634573689 0.9945105551
5350267900.0 -0.0513144047 0.9952911991
5400267600.0 -0.034998052 0.9968278779
5450267300.0 -0.0222888181 0.9966995285
5500267000.0 -0.0072090626 0.9970462329
5550266700.0 0.0077909377 0.9973492034
5600266400.0 0.0233747883 0.997378362
5650266100.0 0.0398965774 0.9970338877
5700265800.0 0.0544382119 0.9961591723
5750265500.0 0.0693900997 0.9953995614
5800265200.0 0.0835081437 0.9943777053
5850264900.0 0.0969701886 0.9934042847
5900264600.0 0.1133456613 0.9914581124
5950264300.0 0.1256883068 0.9900465005
6000264000.0 0.1400189931 0.9882463838
6050263700.0 0.1520685162 0.9863158058
6100263400.0 0.1648631417 0.9844580663
6150263100.0 0.1793085152 0.9819944767
6200262800.0 0.1898599099 0.9801498329
6250262500.0 0.2026197118 0.9779133968
6300262200.0 0.2155201439 0.9749651611
6350261900.0 0.228595335 0.9719523339
6400261600.0 0.2426760245 0.968753343
6450261300.0 0.2536904434 0.9658741962
6500261000.0 0.2667056046 0.9624045176
6550260700.0 0.2794668946 0.958295895
6600260400.0 0.2928467921 0.9541108377
6650260100.0 0.3066992438 0.9500237621
6700259800.0 0.3184725416 0.9458335399
6750259500.0 0.3324488566 0.9407977713
6800259200.0 0.3455781761 0.9358163652
6850258900.0 0.3575644718 0.9311454312
6900258600.0 0.3695787179 0.9258835207
6950258300.0 0.3820515422 0.9205679853
7000258000.0 0.3940519752 0.9153777046
7050257700.0 0.40638472 0.9092486641
7100257400.0 0.4192009493 0.9032134682
7150257100.0 0.4295161338 0.8977427174
7200256800.0 0.4420991536 0.8914797826
7250256500.0 0.4541069186 0.8852001839
7300256200.0 0.4668628306 0.8784650633
7350255900.0 0.4792782523 0.8713524597
7400255600.0 0.4919818225 0.8645667055
7450255300.0 0.5075247466 0.8553992081
7500255000.0 0.5191448861 0.84835301
7550254700.0 0.5326935635 0.8397110481
7600254400.0 0.5455893273 0.8314970659
7650254100.0 0.557248085 0.8236471289
7700253800.0 0.5689736682 0.8155259553
7750253500.0 0.5802310566 0.8077815811
7800253200.0 0.5911790914 0.7999253476
7850252900.0 0.6007197053 0.7928458792
7900252600.0 0.6126754636 0.7838854855
7950252300.0 0.6214918239 0.7772467317
8000252000.0 0.6316982658 0.7695322942
8050251700.0 0.6420785477 0.7611519786
8100251400.0 0.652584819 0.7529194673
8150251100.0 0.6626178818 0.7441506761
8200250800.0 0.6719298839 0.7361039533
8250250500.0 0.6808344158 0.7280024503
8300250200.0 0.6901300338 0.7193387781
8350249900.0 0.6991943654 0.7108547355
8400249600.0 0.7078353519 0.7027149875
8450249300.0 0.7167986949 0.6933858895
8500249000.0 0.7255465168 0.6844156711
8550248700.0 0.7335958899 0.6755440997
8600248400.0 0.7422743787 0.6659931046
8650248100.0 0.7498490534 0.6567159348
8700247800.0 0.7593149983 0.645538634
8750247500.0 0.7676933548 0.635533899
8800247200.0 0.775742998 0.6252556114
8850246900.0 0.7846637417 0.6139597754
8900246600.0 0.7930102979 0.6027358967
8950246300.0 0.8024345793 0.5895907774
9000246000.0 0.8114060039 0.5772321279
9050245700.0 0.8204534667 0.5642423422
9100245400.0 0.8288540927 0.5519107593
9150245100.0 0.8382292907 0.5383651525
9200244800.0 0.8477383773 0.5232533623
9250244500.0 0.8573066353 0.5077862641
9300244200.0 0.8655756339 0.493252762
9350243900.0 0.8734652784 0.4792957884
9400243600.0 0.8801204577 0.4667399341
9450243300.0 0.8861518131 0.4548907939
9500243000.0 0.8923875756 0.4424228573
9550242700.0 0.8962417311 0.4343022348
9600242400.0 0.9004517136 0.4265170339
9650242100.0 0.9039012633 0.4197951862
9700241800.0 0.9082628002 0.4115685074
9750241500.0 0.9126194502 0.4037574247
9800241200.0 0.9172367693 0.3941893443
9850240900.0 0.92243605 0.3828141638
9900240600.0 0.9284455421 0.3709230285
9950240300.0 0.9350371921 0.3552745351
10000240000.0 0.9394156682 0.3435185235
10050239700.0 0.9450103998 0.3284715926
10100239400.0 0.9498576272 0.313132305
10150239100.0 0.9544294492 0.2984942217
10200238800.0 0.9586934706 0.2834067693
10250238500.0 0.9617320126 0.2701854793
10300238200.0 0.9648272613 0.256122502
10350237900.0 0.9677453415 0.2431949412
10400237600.0 0.9700920266 0.2301601366
10450237300.0 0.9729209442 0.2164654328
10500237000.0 0.9751961417 0.2045517982
10550236700.0 0.9772360774 0.1905675464
10600236400.0 0.9795868578 0.1772763818
10650236100.0 0.9815942426 0.1629177121
10700235800.0 0.983928979 0.1505957294
10750235500.0 0.9856843157 0.1373758186
10800235200.0 0.9881606094 0.1231895772
10850234900.0 0.9898716244 0.1087583082
10900234600.0 0.9917686618 0.0944079955
10950234300.0 0.9935011071 0.0811261864
11000234000.0 0.9952041872 0.0660916825
11050233700.0 0.9969693202 0.0501014556
11100233400.0 0.9983053927 0.0326520285
11150233100.0 0.9990462401 0.0163414583
11200232800.0 1.000077966 0.0014311786
11250232500.0 1.000999644 -0.0153540171
11300232200.0 1.00092348 -0.032340891
11350231900.0 1.001527661 -0.0488166279
11400231600.0 1.00078088 -0.0643897985
11450231300.0 1.000336779 -0.0803920517
11500231000.0 0.9988932692 -0.0964889039
11550230700.0 0.9975696259 -0.1096357188
11600230400.0 0.9957785839 -0.1233231161
11650230100.0 0.9940954702 -0.1345274029
11700229800.0 0.992458948 -0.1492310386
11750229500.0 0.9900190269 -0.1643116233
11800229200.0 0.9871444883 -0.177758041
11850228900.0 0.983834481 -0.1906145351
11900228600.0 0.9799755528 -0.2006452098
11950228300.0 0.9767411682 -0.2116351537
12000228000.0 0.97410205 -0.2205687356
12050227700.0 0.9703818923 -0.2329593079
12100227400.0 0.9676383481 -0.2433054704
12150227100.0 0.9626679901 -0.260856751
12200226800.0 0.9587709069 -0.2715291698
12250226500.0 0.9554745454 -0.2843415218
12300226200.0 0.9506602089 -0.2963549184
12350225900.0 0.9453463064 -0.3107086153
12400225600.0 0.9417840361 -0.3230597771
12450225300.0 0.9367208651 -0.3353280496
12500225000.0 0.9319627522 -0.3500643379
12550224700.0 0.9264951176 -0.3635734135
12600224400.0 0.9218230746 -0.3760322783
12650224100.0 0.9160618702 -0.390242385
12700223800.0 0.9109347888 -0.4028356373
12750223500.0 0.9052639418 -0.4158179809
12800223200.0 0.8998549968 -0.4284471065
12850222900.0 0.8948591033 -0.4405792973
12900222600.0 0.8891068993 -0.452545018
12950222300.0 0.8825160662 -0.4651039972
13000222000.0 0.8764534028 -0.4771385289
13050221700.0 0.8695558157 -0.4898190082
13100221400.0 0.8631642218 -0.5012150324
13150221100.0 0.8558590958 -0.514381619
13200220800.0 0.8488391322 -0.5259045171
13250220500.0 0.8414585979 -0.5379985833
13300220200.0 0.8337899656 -0.5491487003
13350219900.0 0.825504624 -0.5613059814
13400219600.0 0.8171843604 -0.5733131439
13450219300.0 0.8077262976 -0.5873028787
13500219000.0 0.7976878858 -0.6008661226
13550218700.0 0.7867742587 -0.6142214224
13600218400.0 0.776763448 -0.6260864045
13650218100.0 0.7678928604 -0.6370812155
13700217800.0 0.7561495332 -0.6500719408
13750217500.0 0.7455408009 -0.6615179182
13800217200.0 0.735901391 -0.6727019879
13850216900.0 0.7240228713 -0.6839354643
13900216600.0 0.7141877926 -0.693456528
13950216300.0 0.7029922082 -0.7031454287
14000216000.0 0.6937229213 -0.7117977858
14050215700.0 0.684045488 -0.7204960445
14100215400.0 0.6740722447 -0.73018304
14150215100.0 0.6650184282 -0.7380054187
14200214800.0 0.6555837844 -0.7467893387
14250214500.0 0.6455159833 -0.7558398564
14300214200.0 0.6353410016 -0.7649173308
14350213900.0 0.6243438988 -0.7745144587
14400213600.0 0.6126359976 -0.7840604845
14450213300.0 0.5996773384 -0.7941050473
14500213000.0 0.586782484 -0.8035975002
14550212700.0 0.5743352685 -0.8135716519
14600212400.0 0.5617840251 -0.8216034399
14650212100.0 0.5494137658 -0.8307363935
14700211800.0 0.5346903953 -0.8402399248
14750211500.0 0.5227844315 -0.8481491299
14800211200.0 0.5104538144 -0.8562530349
14850210900.0 0.4982770079 -0.8637354887
14900210600.0 0.4849415325 -0.8715464147
14950210300.0 0.4713826234 -0.8792584231
15000210000.0 0.4586525424 -0.8860355737
15050209700.0 0.445934058 -0.8924645682
15100209400.0 0.4331755071 -0.8982601636
15150209100.0 0.4208000611 -0.9038233023
15200208800.0 0.4074094009 -0.9091969765
15250208500.0 0.3963731647 -0.9139914141
15300208200.0 0.3831724658 -0.9184840568
15350207900.0 0.3703125639 -0.923441514
15400207600.0 0.3550449732 -0.9289270655
15450207300.0 0.3412352274 -0.9346029282
15500207000.0 0.3263933218 -0.9386176631
15550206700.0 0.311587207 -0.9433551046
15600206400.0 0.2948301648 -0.947969463
15650206100.0 0.2794568623 -0.9524132591
15700205800.0 0.2657907618 -0.9557069783
15750205500.0 0.2510856138 -0.9594410622
15800205200.0 0.2367596127 -0.9630345173
15850204900.0 0.2225281643 -0.9663906436
15900204600.0 0.2077552104 -0.9699800527
15950204300.0 0.1935893362 -0.9727767661
16000204000.0 0.1797618274 -0.9758059404
16050203700.0 0.1655092142 -0.9782291149
16100203400.0 0.1508758716 -0.9802928863
16150203100.0 0.1364814018 -0.9826071571
16200202800.0 0.122955464 -0.9847307221
16250202500.0 0.1081305987 -0.9863673844
16300202200.0 0.0931493327 -0.988063772
16350201900.0 0.0782562573 -0.9891856225
16400201600.0 0.0636743194 -0.9903952318
16450201300.0 0.0486053357 -0.9912529782
16500201000.0 0.0320185488 -0.9920113422
16550200700.0 0.0163771325 -0.9926727815
16600200400.0 0.0006253211 -0.9927374649
16650200100.0 -0.015962279 -0.9926643316
16700199800.0 -0.0323075922 -0.9924466096
16750199500.0 -0.0509863728 -0.9919181457
16800199200.0 -0.0670789329 -0.9905851499
16850198900.0 -0.0826057591 -0.9893306292
16900198600.0 -0.0965037478 -0.9887360901
16950198300.0 -0.1098599581 -0.9873847664
17000198000.0 -0.1227903345 -0.9859107217
17050197700.0 -0.1363694283 -0.9837330323
17100197400.0 -0.1488005137 -0.9818083303
17150197100.0 -0.1618106499 -0.9794821132
17200196800.0 -0.1741913105 -0.9777250965
17250196500.0 -0.1877845555 -0.9753023506
17300196200.0 -0.1999587813 -0.9729196075
17350195900.0 -0.2120364624 -0.9704368618
17400195600.0 -0.2243165674 -0.9678869201
17450195300.0 -0.2373708724 -0.9651120039
17500195000.0 -0.2507932379 -0.9615213345
17550194700.0 -0.2647638158 -0.9581645164
17600194400.0 -0.2783664331 -0.9540488247
17650194100.0 -0.2921680119 -0.9501221295
17700193800.0 -0.3049091052 -0.945814767
17750193500.0 -0.3192160455 -0.9411431692
17800193200.0 -0.3337332649 -0.9361151808
17850192900.0 -0.3486811085 -0.9308718147
17900192600.0 -0.3632150316 -0.9246770702
17950192300.0 -0.3784794381 -0.9176646408
18000192000.0 -0.3930678541 -0.9105872546
18050191700.0 -0.4071014566 -0.9027255941
18100191400.0 -0.4210868481 -0.8952005073
18150191100.0 -0.435967597 -0.8872479637
18200190800.0 -0.4527181166 -0.8779413775
18250190500.0 -0.4693774577 -0.8685030379
18300190200.0 -0.4849507916 -0.8597342513
18350189900.0 -0.4996336536 -0.8514806214
18400189600.0 -0.5141419813 -0.8430574459
18450189300.0 -0.5274006095 -0.8351125567
18500189000.0 -0.5408667162 -0.8275672634
18550188700.0 -0.553470953 -0.8196712667
18600188400.0 -0.565645401 -0.8120891045
18650188100.0 -0.5767801057 -0.8056118335
18700187800.0 -0.5882313617 -0.7989323944
18750187500.0 -0.5985902454 -0.7919450101
18800187200.0 -0.6094786852 -0.7845340657
18850186900.0 -0.6200084429 -0.7774235769
18900186600.0 -0.6305757531 -0.7698183626
18950186300.0 -0.6406920205 -0.762114361
19000186000.0 -0.6480713935 -0.755739584
19050185700.0 -0.6574813246 -0.7482298497
19100185400.0 -0.6680331585 -0.7397669985
19150185100.0 -0.6780869696 -0.7305204712
19200184800.0 -0.6875572241 -0.722174449
19250184500.0 -0.6977723746 -0.7133330634
19300184200.0 -0.709609017 -0.7036377502
19350183900.0 -0.7203842721 -0.694220085
19400183600.0 -0.729234236 -0.6841342125
19450183300.0 -0.7379114526 -0.6735974471
19500183000.0 -0.7463935728 -0.6637576336
19550182700.0 -0.7560891729 -0.6529673532
19600182400.0 -0.7662047079 -0.6412950894
19650182100.0 -0.7770988727 -0.6296031197
19700181800.0 -0.7872852615 -0.6162544527
19750181500.0 -0.7975762283 -0.602794652
19800181200.0 -0.8076470852 -0.5881051169
19850180900.0 -0.8173191769 -0.572983243
19900180600.0 -0.8247600807 -0.5587111571
19950180300.0 -0.8338573946 -0.5424213712
20000180000.0 -0.8272770301 -0.544318297
20050179700.0 -0.8358791418 -0.5315517744
20100179400.0 -0.8444685617 -0.5178029381
20150179100.0 -0.8523397004 -0.5051252829
20200178800.0 -0.8608462995 -0.492753676
20250178500.0 -0.8698868624 -0.4789690208
20300178200.0 -0.8790320721 -0.4642199667
20350177900.0 -0.8880634518 -0.4501534715
20400177600.0 -0.8972346944 -0.4360647666
20450177300.0 -0.9051706194 -0.4214558179
20500177000.0 -0.9129499397 -0.4074780652
20550176700.0 -0.9208356009 -0.3939099234
20600176400.0 -0.927395488 -0.3805168652
20650176100.0 -0.9339859635 -0.3680888067
20700175800.0 -0.9410061853 -0.3554699319
20750175500.0 -0.947687351 -0.3441107049
20800175200.0 -0.9519621065 -0.3325364735
20850174900.0 -0.9576979853 -0.3208359606
20900174600.0 -0.9624643696 -0.3099042771
20950174300.0 -0.965879319 -0.2983676197
21000174000.0 -0.970212159 -0.2867011803
21050173700.0 -0.972237327 -0.2751180616
21100173400.0 -0.9765279354 -0.2629037438
21150173100.0 -0.9810333876 -0.2503972377
21200172800.0 -0.9842158775 -0.236618134
21250172500.0 -0.9875014696 -0.2222673814
21300172200.0 -0.9903036256 -0.2085301936
21350171900.0 -0.9919909582 -0.194399649
21400171600.0 -0.9932738168 -0.1800052174
21450171300.0 -0.9941775372 -0.1653055168
21500171000.0 -0.9934884107 -0.1502546039
21550170700.0 -0.9935710959 -0.1345869526
21600170400.0 -0.9933272896 -0.118986825
21650170100.0 -0.9926178278 -0.1042096026
21700169800.0 -0.9904940928 -0.0884761138
21750169500.0 -0.9891846102 -0.0726837814
21800169200.0 -0.9889636637 -0.0567791655
21850168900.0 -0.9872996684 -0.0401127654
21900168600.0 -0.9858903144 -0.0237003613
21950168300.0 -0.9847597633 -0.0091450646
22000168000.0 -0.9830107425 0.0064254173
22050167700.0 -0.9828391611 0.0205459341
22100167400.0 -0.9827629438 0.0356537002
22150167100.0 -0.9832056981 0.05053557
22200166800.0 -0.9836996444 0.0667072322
22250166500.0 -0.9827405909 0.0836038011
22300166200.0 -0.9820191505 0.1006218915
22350165900.0 -0.9812332784 0.1162642041
22400165600.0 -0.978932227 0.1324563966
22450165300.0 -0.9764703425 0.1476721879
22500165000.0 -0.9751533051 0.1615280473
22550164700.0 -0.9740005184 0.1770296209
22600164400.0 -0.9714866031 0.1909433189
22650164100.0 -0.9696486375 0.2062124469
22700163800.0 -0.9669798106 0.2226767405
22750163500.0 -0.9643953462 0.2379030612
22800163200.0 -0.9619249931 0.2514422861
22850162900.0 -0.9595374246 0.2645556152
22900162600.0 -0.9581377552 0.2780069421
22950162300.0 -0.9571160244 0.2906778555
23000162000.0 -0.9560868987 0.3023000686
23050161700.0 -0.9539896288 0.3152920349
23100161400.0 -0.9511896343 0.3275981974
23150161100.0 -0.94856542 0.3404538518
23200160800.0 -0.9457594012 0.3523793312
23250160500.0 -0.943217897 0.3642012896
23300160200.0 -0.9412424973 0.3768651428
23350159900.0 -0.9367212714 0.3893022371
23400159600.0 -0.9321408237 0.4022833591
23450159300.0 -0.9270277715 0.4153080389
23500159000.0 -0.9225950115 0.4277847351
23550158700.0 -0.9178686918 0.4414472661
23600158400.0 -0.9128220846 0.4542372961
23650158100.0 -0.9064499582 0.4678745472
23700157800.0 -0.8988837015 0.4816783989
23750157500.0 -0.8904441589 0.4954100992
23800157200.0 -0.8815993421 0.5085025187
23850156900.0 -0.8724027806 0.5211884557
23900156600.0 -0.8633277211 0.5338810769
23950156300.0 -0.8544775304 0.5459063343
24000156000.0 -0.845057551 0.5576155241
24050155700.0 -0.8347511891 0.5700963923
24100155400.0 -0.8248308961 0.5813910512
24150155100.0 -0.8144184242 0.5937015877
24200154800.0 -0.8030537018 0.6046760196
24250154500.0 -0.7920733657 0.6162787665
24300154200.0 -0.7812829722 0.6277124869
24350153900.0 -0.7689605279 0.6391309833
24400153600.0 -0.7569306146 0.6495274806
24450153300.0 -0.74509196 0.659538243
24500153000.0 -0.7335661548 0.6694835926
24550152700.0 -0.7221603585 0.6789350702
24600152400.0 -0.7114675173 0.6884798735
24650152100.0 -0.7000743835 0.6961922747
