!Created with skrf (http://scikit-rf.org).
# Hz S RI R 50.0 
!freq ReS11 ImS11
300000.0 -1.004522708 0.0361277845
50299700.0 -0.9976339586 0.0151281982
100299400.0 -0.9956305069 0.0274196717
150299100.0 -1.000404764 0.04408215
200298800.0 -0.99713994 0.0571643409
250298500.0 -0.9946157041 0.070345483
300298200.0 -0.9830023762 0.0859532689
350297900.0 -0.9907272245 0.0963846386
400297600.0 -0.9897295538 0.1126788161
450297300.0 -0.9875134629 0.1260217272
500297000.0 -0.9856124155 0.1404263959
550296700.0 -0.9804716477 0.1524262107
600296400.0 -1.013026424 0.1850964684
650296100.0 -0.9779439597 0.181496244
700295800.0 -0.975168724 0.1954988487
750295500.0 -0.972255313 0.2091887028
800295200.0 -0.9688750776 0.2227599111
850294900.0 -0.9659951773 0.2361340165
900294600.0 -0.9619785413 0.2500074355
950294300.0 -0.9585172433 0.2630802792
1000294000.0 -0.9547756012 0.2771415638
1050293700.0 -0.9504011738 0.2904238027
1100293400.0 -0.9463178738 0.3051391791
1150293100.0 -0.942623876 0.3167708275
1200292800.0 -0.9375578267 0.3308994044
1250292500.0 -0.9325965184 0.344524837
1300292200.0 -0.9274397281 0.3574786532
1350291900.0 -0.9218170598 0.3718096253
1400291600.0 -0.916879481 0.3843873637
1450291300.0 -0.9115117401 0.3966990361
1500291000.0 -0.9054595957 0.4101980441
1550290700.0 -0.8995051986 0.4232450405
1600290400.0 -0.8935443391 0.4363076887
1650290100.0 -0.8873463608 0.4479768656
1700289800.0 -0.8805529767 0.4616128912
1750289500.0 -0.8739310362 0.4736167248
1800289200.0 -0.8670538685 0.486320107
1850288900.0 -0.8606535067 0.4976407643
1900288600.0 -0.8533616816 0.510330284
1950288300.0 -0.8455624031 0.5227424089
2000288000.0 -0.8383323519 0.5343945833
2050287700.0 -0.8302803567 0.5467700415
2100287400.0 -0.8231754152 0.5579014783
2150287100.0 -0.8144835445 0.5699422893
2200286800.0 -0.8068945896 0.5807021352
2250286500.0 -0.7983365918 0.5924978222
2300286200.0 -0.7902473561 0.6032835092
2350285900.0 -0.781809107 0.6143364665
2400285600.0 -0.7724636155 0.6255434333
2450285300.0 -0.7635664159 0.6366019821
2500285000.0 -0.7546185907 0.6468607543
2550284700.0 -0.7455890654 0.6573749252
2600284400.0 -0.7351170969 0.6682884585
2650284100.0 -0.7268743616 0.6778626204
2700283800.0 -0.7169476545 0.6879076521
2750283500.0 -0.7071368242 0.6980073895
2800283200.0 -0.6971697042 0.7080840573
2850282900.0 -0.6862866381 0.7179794086
2900282600.0 -0.675954132 0.7278471726
2950282300.0 -0.6657826019 0.7368486173
3000282000.0 -0.6550922008 0.7467217767
3050281700.0 -0.6439680012 0.7559167682
3100281400.0 -0.6337355335 0.764717501
3150281100.0 -0.6239179666 0.7730203223
3200280800.0 -0.6125766356 0.7818656412
3250280500.0 -0.6012408325 0.7908508929
3300280200.0 -0.5889487644 0.8004345735
3350279900.0 -0.5782281194 0.8085158283
3400279600.0 -0.5659834429 0.8169793285
3450279300.0 -0.5544194807 0.8257478275
3500279000.0 -0.5426496036 0.8338564146
3550278700.0 -0.5307531977 0.8415769284
3600278400.0 -0.5203043974 0.8480707803
3650278100.0 -0.507366853 0.8564969547
3700277800.0 -0.4956622137 0.8634386337
3750277500.0 -0.4833495794 0.8702983035
3800277200.0 -0.4712415052 0.8770875328
3850276900.0 -0.4585444512 0.8836002429
3900276600.0 -0.4468089164 0.890120327
3950276300.0 -0.433237247 0.8964934071
4000276000.0 -0.4211385446 0.9023473516
4050275700.0 -0.4078046406 0.9084325513
4100275400.0 -0.396332267 0.9134850039
4150275100.0 -0.3830855641 0.918703619
4200274800.0 -0.3691217824 0.9242563782
4250274500.0 -0.3571367236 0.9288221016
4300274200.0 -0.3444122427 0.9338322828
4350273900.0 -0.3305354195 0.9382575869
4400273600.0 -0.3184834871 0.9423688184
4450273300.0 -0.305702525 0.9463065489
4500273000.0 -0.2937855464 0.9502327337
4550272700.0 -0.2821612138 0.9537358362
4600272400.0 -0.2678064841 0.9575485018
4650272100.0 -0.2553516865 0.9608758555
4700271800.0 -0.2422335728 0.9641920702
4750271500.0 -0.2280721853 0.9675672308
4800271200.0 -0.2134233233 0.9707905032
4850270900.0 -0.1993011639 0.9737369991
4900270600.0 -0.1859579746 0.9761170349
4950270300.0 -0.1733671735 0.9785505846
5000270000.0 -0.1599791265 0.9809058644
5050269700.0 -0.1462948979 0.982958561
5100269400.0 -0.131428054 0.9850304694
5150269100.0 -0.1170304166 0.9870752461
5200268800.0 -0.1028971435 0.9881258986
5250268500.0 -0.0897513585 0.9897424028
5300268200.0 -0.0751385084 0.9906201146
5350267900.0 -0.0617604047 0.991781024
5400267600.0 -0.0456980493 0.9930518459
5450267300.0 -0.0332821563 0.9932366451
5500267000.0 -0.0193023976 0.9934792246
5550266700.0 -0.008084699 0.9935780185
5600266400.0 0.0054813039 0.9935512112
5650266100.0 0.0193831901 0.9936315888
5700265800.0 0.0319776197 0.9929060908
5750265500.0 0.0447129442 0.9925693309
5800265200.0 0.0574111518 0.9922955419
5850264900.0 0.0708693305 0.991326325
5900264600.0 0.0857772616 0.9898792546
5950264300.0 0.0967170115 0.988853465
6000264000.0 0.10978739 0.9876253393
6050263700.0 0.1223595774 0.9863411784
6100263400.0 0.1364802912 0.9846400526
6150263100.0 0.152501685 0.9823042364
6200262800.0 0.1637621624 0.9805411697
6250262500.0 0.1778223028 0.978040974
6300262200.0 0.1908581838 0.9755679402
6350261900.0 0.2040266391 0.973079558
6400261600.0 0.2191397867 0.9697377499
6450261300.0 0.2317132153 0.9670367676
6500261000.0 0.2452062835 0.9636648454
6550260700.0 0.258842104 0.9597852681
6600260400.0 0.2713735561 0.9564181494
6650260100.0 0.2847524761 0.9525238046
6700259800.0 0.2977633229 0.9488396341
6750259500.0 0.3103205613 0.9446793512
6800259200.0 0.3237536278 0.9401601698
6850258900.0 0.3361447474 0.9356110608
6900258600.0 0.3494796792 0.9307655248
6950258300.0 0.3631895953 0.926002357
7000258000.0 0.3757139407 0.9211801829
7050257700.0 0.3865351799 0.9164722605
7100257400.0 0.4012531773 0.9105946505
7150257100.0 0.4126700607 0.9055764206
7200256800.0 0.4266443613 0.8994462496
7250256500.0 0.438801307 0.8936669187
7300256200.0 0.4522040217 0.8876319592
7350255900.0 0.464182081 0.8812049241
7400255600.0 0.4734397532 0.8762397055
7450255300.0 0.4854731318 0.8695840746
7500255000.0 0.4970253595 0.8629793323
7550254700.0 0.507570455 0.8577582474
7600254400.0 0.5182562766 0.851065948
7650254100.0 0.5285072785 0.8444416416
7700253800.0 0.5403717755 0.8375458732
7750253500.0 0.5511696168 0.830751374
7800253200.0 0.5633879255 0.8220331397
7850252900.0 0.572234747 0.8158306812
7900252600.0 0.5841706599 0.8076266046
7950252300.0 0.594844554 0.7997097422
8000252000.0 0.6058349337 0.7911143278
8050251700.0 0.6171315576 0.7825842023
8100251400.0 0.626575015 0.7750168176
8150251100.0 0.6379453453 0.7653553599
8200250800.0 0.6478021603 0.7570175903
8250250500.0 0.6582349017 0.7472080923
8300250200.0 0.6685675159 0.7379260091
8350249900.0 0.6786075088 0.7288472934
8400249600.0 0.688165977 0.7194364401
8450249300.0 0.698996949 0.7088783987
8500249000.0 0.7092382992 0.698934328
8550248700.0 0.7200063716 0.6876122899
8600248400.0 0.7304992938 0.6765489274
8650248100.0 0.7386196602 0.6673226243
8700247800.0 0.747874019 0.6570301456
8750247500.0 0.7571295019 0.6463924723
8800247200.0 0.7665675978 0.6354150455
8850246900.0 0.7755669525 0.6246102389
8900246600.0 0.7840141183 0.6138046046
8950246300.0 0.7924237691 0.6025242475
9000246000.0 0.7991545015 0.5934437784
9050245700.0 0.8063463689 0.583992642
9100245400.0 0.8143013914 0.5724497822
9150245100.0 0.8214476251 0.5620287704
9200244800.0 0.8268384785 0.5543133201
9250244500.0 0.8333940829 0.5446462536
9300244200.0 0.838443602 0.5359833873
9350243900.0 0.845108891 0.5260428288
9400243600.0 0.85213213 0.5144840293
9450243300.0 0.8569942074 0.5061163634
9500243000.0 0.8634560804 0.4957062303
9550242700.0 0.871025199 0.4832111384
9600242400.0 0.8787716805 0.4692798223
9650242100.0 0.8859041331 0.4552590954
9700241800.0 0.8930479634 0.4418009371
9750241500.0 0.9010104734 0.4259028279
9800241200.0 0.9087970866 0.4079304531
9850240900.0 0.9143865054 0.3935721399
9900240600.0 0.9185613336 0.3837199266
9950240300.0 0.9236100949 0.3707611891
10000240000.0 0.9293841638 0.3565878861
10050239700.0 0.9339467174 0.3444675614
10100239400.0 0.9378828634 0.3331392425
10150239100.0 0.9419345388 0.3210416557
10200238800.0 0.9465537149 0.3076215209
10250238500.0 0.9506365018 0.2946656851
10300238200.0 0.9549320968 0.2818613735
10350237900.0 0.9584467241 0.2692088787
10400237600.0 0.9624728803 0.2559392017
10450237300.0 0.9665515208 0.2417774104
10500237000.0 0.9700212381 0.2281039229
10550236700.0 0.9728531117 0.2146726995
10600236400.0 0.9766048504 0.2015091616
10650236100.0 0.9791533426 0.1856691737
10700235800.0 0.982461823 0.1706957304
10750235500.0 0.9846308654 0.1576014383
10800235200.0 0.9868016798 0.1440430443
10850234900.0 0.98826162 0.1311477687
10900234600.0 0.9900379411 0.1172215402
10950234300.0 0.9912875691 0.102979117
11000234000.0 0.9923414415 0.0894975222
11050233700.0 0.9931477911 0.0772859788
11100233400.0 0.9936669513 0.063924388
11150233100.0 0.9945429986 0.0511846993
11200232800.0 0.9947786575 0.0396401563
11250232500.0 0.994761619 0.0261384898
11300232200.0 0.9948537141 0.0142313994
11350231900.0 0.994716412 0.0018374452
11400231600.0 0.9941644297 -0.0115847923
11450231300.0 0.9932110929 -0.0221772703
11500231000.0 0.9927420342 -0.0338122513
11550230700.0 0.9925384113 -0.0467129872
11600230400.0 0.9921638027 -0.0624487895
11650230100.0 0.991035189 -0.0739558539
11700229800.0 0.9902845157 -0.0889528868
11750229500.0 0.9884611471 -0.1016825745
11800229200.0 0.9870272822 -0.1129091297
11850228900.0 0.9858609367 -0.1272670785
11900228600.0 0.9843229603 -0.1428408455
11950228300.0 0.9822430221 -0.1592307216
12000228000.0 0.9803177102 -0.1746321158
12050227700.0 0.9779833563 -0.1891257251
12100227400.0 0.9759533435 -0.2008201231
12150227100.0 0.9718706415 -0.2204971583
12200226800.0 0.9691672757 -0.232120759
12250226500.0 0.9661507116 -0.246738469
12300226200.0 0.9623806003 -0.2595742359
12350225900.0 0.9580142817 -0.27632075
12400225600.0 0.9538158861 -0.2908869803
12450225300.0 0.950086555 -0.3040077172
12500225000.0 0.9448596135 -0.3184670816
12550224700.0 0.9399674893 -0.3333591754
12600224400.0 0.9357087016 -0.34420443
12650224100.0 0.9306109408 -0.3580442844
12700223800.0 0.9255928432 -0.3706347647
12750223500.0 0.9198683818 -0.3841434586
12800223200.0 0.9138982169 -0.3981280927
12850222900.0 0.9081867574 -0.4112388178
12900222600.0 0.9018731621 -0.4241056048
12950222300.0 0.8950193089 -0.437487696
13000222000.0 0.8887328706 -0.4508422799
13050221700.0 0.881955114 -0.4634326402
13100221400.0 0.8754754226 -0.4752050695
13150221100.0 0.8689382781 -0.48772687
13200220800.0 0.8615990709 -0.4999996797
13250220500.0 0.8549815893 -0.5124079802
13300220200.0 0.8474322936 -0.5245528759
13350219900.0 0.8391232137 -0.5383901903
13400219600.0 0.8317388681 -0.5495500721
13450219300.0 0.8249100976 -0.55978707
13500219000.0 0.817838449 -0.5694114962
13550218700.0 0.8100723744 -0.5807087199
13600218400.0 0.8025616142 -0.5910283656
13650218100.0 0.796389569 -0.6000862422
13700217800.0 0.7874412647 -0.6111911862
13750217500.0 0.7799903414 -0.6213979196
13800217200.0 0.7710107027 -0.6332818938
13850216900.0 0.7620942624 -0.6446002198
13900216600.0 0.7544054782 -0.6527705296
13950216300.0 0.743517967 -0.6650889948
14000216000.0 0.7345975965 -0.6754422004
14050215700.0 0.7252108408 -0.6855870109
14100215400.0 0.7132720341 -0.6978355081
14150215100.0 0.7014350084 -0.7101692789
14200214800.0 0.6904464041 -0.7207989209
14250214500.0 0.6783836786 -0.7322146626
14300214200.0 0.6660152584 -0.7434646293
14350213900.0 0.6545256366 -0.7531493862
14400213600.0 0.6439175138 -0.7623221979
14450213300.0 0.6340135959 -0.7705009228
14500213000.0 0.6238595255 -0.7788864693
14550212700.0 0.6130766454 -0.7874956163
14600212400.0 0.6014315004 -0.7960709152
14650212100.0 0.5913480032 -0.8025185539
14700211800.0 0.5801342375 -0.81115437
14750211500.0 0.5691511496 -0.8184954325
14800211200.0 0.5566316001 -0.8271707281
14850210900.0 0.5453304834 -0.8342658764
14900210600.0 0.5336599912 -0.8421131198
14950210300.0 0.5220458078 -0.8493420569
15000210000.0 0.5102756251 -0.8560740135
15050209700.0 0.4974491953 -0.8635177443
15100209400.0 0.4842181884 -0.871393685
15150209100.0 0.4726921457 -0.8779578719
15200208800.0 0.4596762636 -0.8851771132
15250208500.0 0.4462329131 -0.8924222704
15300208200.0 0.4309416043 -0.9001740086
15350207900.0 0.4181689154 -0.9064341389
15400207600.0 0.4054820968 -0.9120997884
15450207300.0 0.3930115599 -0.9175676877
15500207000.0 0.3793758807 -0.9230486327
15550206700.0 0.3672692108 -0.928784185
15600206400.0 0.3544770666 -0.9333649472
15650206100.0 0.341190778 -0.9387190324
15700205800.0 0.3275664619 -0.9444704816
15750205500.0 0.31261658 -0.9493984937
15800205200.0 0.2988623971 -0.9538669176
15850204900.0 0.2847931883 -0.9582945227
15900204600.0 0.2685429812 -0.963084573
15950204300.0 0.2538277658 -0.9671777505
16000204000.0 0.2387976159 -0.9709339193
16050203700.0 0.2233187098 -0.974585522
16100203400.0 0.2093598094 -0.9771425882
16150203100.0 0.1933414515 -0.9806791258
16200202800.0 0.178016785 -0.9837966623
16250202500.0 0.1627509657 -0.9850585889
16300202200.0 0.1482513653 -0.9878251586
16350201900.0 0.132901581 -0.9898913108
16400201600.0 0.1176926211 -0.9914696491
16450201300.0 0.1041007328 -0.9927490388
16500201000.0 0.0898371974 -0.9941618075
16550200700.0 0.0761001814 -0.9955221482
16600200400.0 0.0617140542 -0.9964387628
16650200100.0 0.0464962952 -0.9973133064
16700199800.0 0.0341467325 -0.9983925862
16750199500.0 0.0219015036 -0.9987720837
16800199200.0 0.0100809959 -0.9987716585
16850198900.0 -0.0032943513 -0.9988545605
16900198600.0 -0.0166603912 -0.998703915
16950198300.0 -0.0319618002 -0.998241044
17000198000.0 -0.0463463848 -0.9977423537
17050197700.0 -0.061397328 -0.9961537316
17100197400.0 -0.0787625129 -0.9955690676
17150197100.0 -0.0954023595 -0.9936823042
17200196800.0 -0.1105752541 -0.9921616907
17250196500.0 -0.1260678731 -0.9906138428
17300196200.0 -0.1426702173 -0.9879782159
17350195900.0 -0.1602260054 -0.9852408064
17400195600.0 -0.1766907875 -0.9823744804
17450195300.0 -0.1926728383 -0.9792593193
17500195000.0 -0.2084704896 -0.9761358764
17550194700.0 -0.2240458274 -0.9727201319
17600194400.0 -0.2391519128 -0.9690083258
17650194100.0 -0.2545182324 -0.9653293136
17700193800.0 -0.2689404183 -0.9616810645
17750193500.0 -0.2832023057 -0.9576293693
17800193200.0 -0.2970884699 -0.9530495627
17850192900.0 -0.3112222612 -0.9485380087
17900192600.0 -0.3248470309 -0.9440655724
17950192300.0 -0.3383843767 -0.938969207
18000192000.0 -0.3526416893 -0.9338297058
18050191700.0 -0.3665364987 -0.9283868423
18100191400.0 -0.3803147678 -0.9232642486
18150191100.0 -0.3928919454 -0.9181297186
18200190800.0 -0.4048102065 -0.9129422152
18250190500.0 -0.4165977279 -0.9077817573
18300190200.0 -0.4289575435 -0.902655401
18350189900.0 -0.4412361967 -0.8971158434
18400189600.0 -0.4531327422 -0.891348938
18450189300.0 -0.4645738656 -0.8854621551
18500189000.0 -0.4762430593 -0.8793672339
18550188700.0 -0.4880926262 -0.8724873787
18600188400.0 -0.5002570833 -0.8658351306
18650188100.0 -0.5128461261 -0.8572356165
18700187800.0 -0.5251379157 -0.8492037622
18750187500.0 -0.5376288957 -0.840610773
18800187200.0 -0.5503700753 -0.8317304825
18850186900.0 -0.5630292105 -0.8225256924
18900186600.0 -0.5746179839 -0.8136881653
18950186300.0 -0.5872506401 -0.8038823855
19000186000.0 -0.6010818921 -0.7937344836
19050185700.0 -0.6152633809 -0.7834281733
19100185400.0 -0.6276152479 -0.7734013308
19150185100.0 -0.6405178731 -0.7636633963
19200184800.0 -0.6525111112 -0.7527980044
19250184500.0 -0.6651893126 -0.7417955089
19300184200.0 -0.6772874589 -0.7313564247
19350183900.0 -0.6891765459 -0.7203971691
19400183600.0 -0.7008617322 -0.7091986127
19450183300.0 -0.7125286783 -0.6970731472
19500183000.0 -0.7244563046 -0.6848652692
19550182700.0 -0.7364817172 -0.6725013241
19600182400.0 -0.7466973932 -0.6606471055
19650182100.0 -0.7567549271 -0.6489059152
19700181800.0 -0.7661577064 -0.6369223705
19750181500.0 -0.7754707605 -0.6250111848
19800181200.0 -0.7841380895 -0.6135314813
19850180900.0 -0.792592206 -0.6023628786
19900180600.0 -0.8002833131 -0.5920789154
19950180300.0 -0.8096634644 -0.5806111067
20000180000.0 -0.8230364161 -0.5645494414
20050179700.0 -0.8317236494 -0.5530226852
20100179400.0 -0.8406452274 -0.5408540606
20150179100.0 -0.8482914461 -0.5286469389
20200178800.0 -0.8548804368 -0.5164746771
20250178500.0 -0.86139472 -0.5038988661
20300178200.0 -0.8666052843 -0.4926069455
20350177900.0 -0.8722987966 -0.4820043011
20400177600.0 -0.8768276606 -0.4707480938
20450177300.0 -0.8820613722 -0.4595462672
20500177000.0 -0.8865112478 -0.4479895839
20550176700.0 -0.8913293245 -0.4359437335
20600176400.0 -0.8959991343 -0.4236062648
20650176100.0 -0.9008638987 -0.4112735613
20700175800.0 -0.906674548 -0.3977863243
20750175500.0 -0.9126753301 -0.3845353692
20800175200.0 -0.9161864702 -0.3714171291
20850174900.0 -0.9207304422 -0.3571613838
20900174600.0 -0.9253665332 -0.3429264414
20950174300.0 -0.930032657 -0.3288184421
21000174000.0 -0.9349154534 -0.313343038
21050173700.0 -0.9387661487 -0.2987023717
21100173400.0 -0.9431538101 -0.2832758256
21150173100.0 -0.9465808494 -0.2677386585
21200172800.0 -0.9508799129 -0.2517200297
21250172500.0 -0.9538471199 -0.2369245861
21300172200.0 -0.9581085209 -0.2219559683
21350171900.0 -0.9616079255 -0.2072342364
21400171600.0 -0.965223025 -0.192196525
21450171300.0 -0.9688003119 -0.1777645857
21500171000.0 -0.9709932707 -0.1622194073
21550170700.0 -0.9737152264 -0.1493700617
21600170400.0 -0.9794053397 -0.1356912376
21650170100.0 -0.9827995985 -0.1207032875
21700169800.0 -0.9864980587 -0.1068823678
21750169500.0 -0.9905020247 -0.0920474512
21800169200.0 -0.9942697799 -0.0773043764
21850168900.0 -0.9961306197 -0.0643376317
21900168600.0 -0.999024774 -0.0522529822
21950168300.0 -1.001425017 -0.0388101831
22000168000.0 -1.003486962 -0.0249373882
22050167700.0 -1.005317359 -0.0101917982
22100167400.0 -1.005557904 0.0051822806
22150167100.0 -1.005634795 0.0195144479
22200166800.0 -1.004149496 0.0323878349
22250166500.0 -1.003127736 0.0456726491
22300166200.0 -1.002887964 0.0572832336
22350165900.0 -1.002310207 0.0695855847
22400165600.0 -1.002744452 0.0820116879
22450165300.0 -0.9997780889 0.0945022303
22500165000.0 -0.9998916145 0.105876184
22550164700.0 -0.997142677 0.1203009517
22600164400.0 -0.9954209674 0.1324840931
22650164100.0 -0.9921832821 0.1439218967
22700163800.0 -0.9902764693 0.1551212613
22750163500.0 -0.9872238748 0.1676683714
22800163200.0 -0.9837288753 0.1796702618
22850162900.0 -0.9807199609 0.1918086842
22900162600.0 -0.9766559397 0.2055490515
22950162300.0 -0.9715442284 0.219317971
23000162000.0 -0.9657453664 0.2341696031
23050161700.0 -0.9596513241 0.2490517734
23100161400.0 -0.9540185709 0.2635209479
23150161100.0 -0.9481737584 0.2765832531
23200160800.0 -0.9427674824 0.2925446313
23250160500.0 -0.9366986455 0.3073578144
23300160200.0 -0.9300607578 0.3229558914
23350159900.0 -0.9231144294 0.3377721708
23400159600.0 -0.9171182272 0.3510568515
23450159300.0 -0.9120568169 0.363355603
23500159000.0 -0.906023053 0.3768096291
23550158700.0 -0.8995377285 0.3903828117
23600158400.0 -0.8926963292 0.4027710339
23650158100.0 -0.8863276039 0.4149145405
23700157800.0 -0.8802076035 0.4265428698
23750157500.0 -0.8742490387 0.4381427315
23800157200.0 -0.8686764573 0.4493688508
23850156900.0 -0.8641795665 0.459896744
23900156600.0 -0.8586784189 0.4711661714
23950156300.0 -0.8533728308 0.4832220252
24000156000.0 -0.8482896246 0.4933543354
24050155700.0 -0.8430099593 0.5047263018
24100155400.0 -0.8391872072 0.5149872782
24150155100.0 -0.8332732101 0.5260536869
24200154800.0 -0.8284381564 0.5354350566
24250154500.0 -0.8230076704 0.545858467
24300154200.0 -0.8182171119 0.5568213611
24350153900.0 -0.8129718583 0.5664782506
24400153600.0 -0.8069096008 0.5770244202
24450153300.0 -0.8009217504 0.5869834254
24500153000.0 -0.7944840032 0.597695828
24550152700.0 -0.7884025856 0.6079868361
24600152400.0 -0.7810466433 0.6174231719
24650152100.0 -0.7727331078 0.6285523918
