!Created with skrf (http://scikit-rf.org).
# Hz S RI R 50.0 
!freq ReS11 ImS11
300000.0 -0.9809208343 -0.101057901
50299700.0 -1.000086589 0.0163128376
100299400.0 -0.9980084482 0.0290938387
150299100.0 -1.002861514 0.0459580769
200298800.0 -0.9997193247 0.0592714151
250298500.0 -0.9973208307 0.0727690924
300298200.0 -0.9861148163 0.088675358
350297900.0 -0.993922766 0.0994412024
400297600.0 -0.9932165472 0.1161258147
450297300.0 -0.9909744179 0.1299706511
500297000.0 -0.989278268 0.1446903239
550296700.0 -0.9844311887 0.1572146351
600296400.0 -1.017213397 0.1904003065
650296100.0 -0.9821346667 0.1872134247
700295800.0 -0.979153932 0.2015661737
750295500.0 -0.9758756566 0.2153771916
800295200.0 -0.972797516 0.2295633742
850294900.0 -0.9693841923 0.243426106
900294600.0 -0.9655084671 0.2571136754
950294300.0 -0.9617939518 0.2709151438
1000294000.0 -0.9577591402 0.2847406312
1050293700.0 -0.9532628437 0.2986904943
1100293400.0 -0.9489939568 0.3130026371
1150293100.0 -0.9450996601 0.3249064375
1200292800.0 -0.9398872168 0.3392145872
1250292500.0 -0.9342602989 0.3526443601
1300292200.0 -0.9285708223 0.3660518844
1350291900.0 -0.9232172114 0.3797501495
1400291600.0 -0.9176217881 0.3929897963
1450291300.0 -0.9121163184 0.405200584
1500291000.0 -0.9058687674 0.4185991347
1550290700.0 -0.8993742682 0.432062382
1600290400.0 -0.893031594 0.4448993975
1650290100.0 -0.8864367272 0.457015995
1700289800.0 -0.8795380479 0.4704651545
1750289500.0 -0.8724165011 0.482617718
1800289200.0 -0.8653242524 0.4954710976
1850288900.0 -0.8584615888 0.5069178231
1900288600.0 -0.8504468287 0.5198545663
1950288300.0 -0.8425185233 0.5324730582
2000288000.0 -0.8348751777 0.5438580778
2050287700.0 -0.8268124487 0.5561841325
2100287400.0 -0.818626617 0.5677764806
2150287100.0 -0.8101714899 0.5800092753
2200286800.0 -0.8024920904 0.5902317365
2250286500.0 -0.7934575156 0.6023394126
2300286200.0 -0.7843267319 0.6140065394
2350285900.0 -0.7755572366 0.6249673164
2400285600.0 -0.7666360596 0.6360300092
2450285300.0 -0.7580055759 0.6464386474
2500285000.0 -0.7483113066 0.6575745294
2550284700.0 -0.7394698365 0.6679227617
2600284400.0 -0.7298926149 0.6781968234
2650284100.0 -0.7209625038 0.688642148
2700283800.0 -0.7103168564 0.6993155238
2750283500.0 -0.6999755817 0.7097384891
2800283200.0 -0.6903112523 0.7195948816
2850282900.0 -0.6801699201 0.7292489987
2900282600.0 -0.6698549989 0.7387926263
2950282300.0 -0.6594079742 0.748033544
3000282000.0 -0.6486897777 0.757632854
3050281700.0 -0.6376191327 0.7665750277
3100281400.0 -0.6258308614 0.7762073067
3150281100.0 -0.6139582276 0.7854312788
3200280800.0 -0.6025333129 0.7940012475
3250280500.0 -0.5915905661 0.8016056816
3300280200.0 -0.5804985875 0.8093081647
3350279900.0 -0.5689452059 0.817064821
3400279600.0 -0.5567550888 0.8246268231
3450279300.0 -0.5458730642 0.8318263046
3500279000.0 -0.5337409424 0.8389945571
3550278700.0 -0.5213405953 0.8462484514
3600278400.0 -0.5088692897 0.8533614384
3650278100.0 -0.4956500346 0.860875247
3700277800.0 -0.4836756693 0.8674539985
3750277500.0 -0.4714018544 0.874157996
3800277200.0 -0.4590437763 0.8804591839
3850276900.0 -0.4468372114 0.8864822
3900276600.0 -0.4357537978 0.8919396574
3950276300.0 -0.4233947033 0.8981892148
4000276000.0 -0.4112799815 0.904155883
4050275700.0 -0.3984697686 0.9102637966
4100275400.0 -0.3868140416 0.915334855
4150275100.0 -0.374055655 0.921342491
4200274800.0 -0.3611768865 0.9266434216
4250274500.0 -0.3489816029 0.9319108336
4300274200.0 -0.336082215 0.9369085249
4350273900.0 -0.3223065347 0.9422715738
4400273600.0 -0.3073772831 0.9475795079
4450273300.0 -0.2919514176 0.9525525391
4500273000.0 -0.278356538 0.9570904079
4550272700.0 -0.2641067745 0.9610844963
4600272400.0 -0.2486852136 0.9653396042
4650272100.0 -0.2369688575 0.9685059501
4700271800.0 -0.2236588611 0.9718348341
4750271500.0 -0.2119292606 0.9748111636
4800271200.0 -0.1993247793 0.9775160978
4850270900.0 -0.1855399394 0.9803619426
4900270600.0 -0.1715358168 0.9826118698
4950270300.0 -0.1573976687 0.9851321374
5000270000.0 -0.1433395363 0.9873160396
5050269700.0 -0.1299746782 0.9890656785
5100269400.0 -0.116336061 0.9907810902
5150269100.0 -0.1031523067 0.9924923148
5200268800.0 -0.0898827677 0.9932227272
5250268500.0 -0.0768595997 0.9941245072
5300268200.0 -0.0636385699 0.9950716302
5350267900.0 -0.05153715 0.9952718547
5400267600.0 -0.0350954313 0.9965749161
5450267300.0 -0.0222769376 0.9966676946
5500267000.0 -0.0070730435 0.9971676271
5550266700.0 0.0079551545 0.9973091069
5600266400.0 0.0232825239 0.997287834
5650266100.0 0.0398696603 0.9969319374
5700265800.0 0.0544603214 0.9962407003
5750265500.0 0.0692672103 0.9951468328
5800265200.0 0.0835309722 0.9942202872
5850264900.0 0.0968423201 0.9932773259
5900264600.0 0.113595091 0.9914271982
5950264300.0 0.1259797728 0.9900554186
6000264000.0 0.1394345693 0.9878326926
6050263700.0 0.1523664015 0.9864186181
6100263400.0 0.1647888328 0.9842327481
6150263100.0 0.1793486078 0.9824974387
6200262800.0 0.1897464673 0.9802620904
6250262500.0 0.2024519406 0.9778412134
6300262200.0 0.2154751835 0.9749381333
6350261900.0 0.2286074882 0.9722092694
6400261600.0 0.2423266144 0.9686883336
6450261300.0 0.2536224143 0.9661443369
6500261000.0 0.2664959246 0.9626921267
6550260700.0 0.2793547617 0.9585619084
6600260400.0 0.2930223722 0.9547200791
6650260100.0 0.3066804046 0.9502234606
6700259800.0 0.3185625785 0.9459609321
6750259500.0 0.3322134726 0.9408414519
6800259200.0 0.3456475201 0.9361391855
6850258900.0 0.3576674207 0.9310199118
6900258600.0 0.3696027067 0.9259066816
6950258300.0 0.3821576713 0.920781854
7000258000.0 0.3939354159 0.9152719008
7050257700.0 0.4064640801 0.9093420455
7100257400.0 0.419105743 0.9030564156
7150257100.0 0.429395658 0.8978291789
7200256800.0 0.442155314 0.8913642177
7250256500.0 0.4538328942 0.8850302236
7300256200.0 0.4665594148 0.8781769485
7350255900.0 0.4792566102 0.8714370238
7400255600.0 0.4921284328 0.8640636598
7450255300.0 0.5078590779 0.8554292653
7500255000.0 0.5191449961 0.8482068636
7550254700.0 0.5332380024 0.8398308621
7600254400.0 0.5456960556 0.8312169162
7650254100.0 0.5570417713 0.8234044644
7700253800.0 0.5690249783 0.8154484219
7750253500.0 0.5803684606 0.8075568583
7800253200.0 0.5909663347 0.7998278618
7850252900.0 0.6010459095 0.7928291266
7900252600.0 0.6126250195 0.7839174427
7950252300.0 0.6213614628 0.7772856169
8000252000.0 0.6316034048 0.7695148854
8050251700.0 0.6421822984 0.7612654355
8100251400.0 0.6524227885 0.7529606834
8150251100.0 0.6625054369 0.74433816
8200250800.0 0.67186111 0.7363130458
8250250500.0 0.680774838 0.728156244
8300250200.0 0.6901075331 0.7196446015
8350249900.0 0.6994173226 0.7108619769
8400249600.0 0.7075850665 0.7030376859
8450249300.0 0.7166400876 0.6936940036
8500249000.0 0.7253474242 0.6848670747
8550248700.0 0.7335527355 0.6758257775
8600248400.0 0.7420965894 0.6661279562
8650248100.0 0.7497745159 0.6569559633
8700247800.0 0.7590677583 0.6457508876
8750247500.0 0.767589205 0.6356614488
8800247200.0 0.7754995015 0.6255322438
8850246900.0 0.7843425818 0.614194375
8900246600.0 0.7924846197 0.6029372962
8950246300.0 0.8023803267 0.5898367006
9000246000.0 0.8116096707 0.5773239176
9050245700.0 0.8205920585 0.5642362726
9100245400.0 0.8294169362 0.5516375191
9150245100.0 0.8386514031 0.5380427583
9200244800.0 0.8481803802 0.5228170834
9250244500.0 0.8573252738 0.5071333767
9300244200.0 0.8659246196 0.4928703335
9350243900.0 0.8736763878 0.4787047451
9400243600.0 0.8803774884 0.4661904265
9450243300.0 0.8862947496 0.4543354666
9500243000.0 0.8926360878 0.4419454135
9550242700.0 0.8963274025 0.4341056248
9600242400.0 0.9004341862 0.4264629844
9650242100.0 0.9041483746 0.4197821516
9700241800.0 0.9085610784 0.4115441525
9750241500.0 0.9126664736 0.4038423001
9800241200.0 0.9172587215 0.3945886268
9850240900.0 0.9228491044 0.3827560424
9900240600.0 0.9281832418 0.37164028
9950240300.0 0.9349577856 0.3553129017
10000240000.0 0.9397623343 0.343424165
10050239700.0 0.944830105 0.328627785
10100239400.0 0.950257793 0.3131750028
10150239100.0 0.9544634336 0.2985908419
10200238800.0 0.958483668 0.2834828008
10250238500.0 0.9618768653 0.2703507133
10300238200.0 0.9648206633 0.2564092999
10350237900.0 0.9677614617 0.2433655704
10400237600.0 0.9702399367 0.2301437233
10450237300.0 0.9730265709 0.2165115764
10500237000.0 0.9750665629 0.2046201305
10550236700.0 0.9774115344 0.1909108027
10600236400.0 0.9797082873 0.1771132005
10650236100.0 0.9811887965 0.1630939554
10700235800.0 0.9837093284 0.1504936248
10750235500.0 0.9858491499 0.1373640516
10800235200.0 0.9879282869 0.123569472
10850234900.0 0.9897106004 0.1089916099
10900234600.0 0.9919309938 0.0943061396
10950234300.0 0.9933695534 0.0808994141
11000234000.0 0.9952044684 0.0658692861
11050233700.0 0.9969691089 0.0497288243
11100233400.0 0.9981065892 0.0321961081
11150233100.0 0.999210084 0.0160452104
11200232800.0 1.000014449 0.001232978
11250232500.0 1.000688863 -0.0151695922
11300232200.0 1.001619448 -0.0327298473
11350231900.0 1.001593841 -0.0492624485
11400231600.0 1.001065692 -0.0646623805
11450231300.0 1.00031187 -0.0797475638
11500231000.0 0.9985149061 -0.0961956874
11550230700.0 0.9979935069 -0.1105492102
11600230400.0 0.9962595132 -0.1227965121
11650230100.0 0.994530716 -0.1346427611
11700229800.0 0.9924525889 -0.1492540846
11750229500.0 0.9900356172 -0.1640213428
11800229200.0 0.9872663094 -0.1780355306
11850228900.0 0.9837991364 -0.1904868265
11900228600.0 0.9805374863 -0.2000494676
11950228300.0 0.9769702673 -0.2106177764
12000228000.0 0.9743915331 -0.2199665239
12050227700.0 0.9704790602 -0.2325263788
12100227400.0 0.9677990485 -0.2438847954
12150227100.0 0.9633133865 -0.2594833224
12200226800.0 0.9593287343 -0.2710096511
12250226500.0 0.9547957904 -0.2841774931
12300226200.0 0.9509571171 -0.2957596285
12350225900.0 0.9458606663 -0.3099174908
12400225600.0 0.9412636503 -0.3227967981
12450225300.0 0.9375113098 -0.3352172008
12500225000.0 0.9317952201 -0.3494615086
12550224700.0 0.9265350544 -0.3633002414
12600224400.0 0.9217391251 -0.3761118034
12650224100.0 0.9160596414 -0.3904054339
12700223800.0 0.9107806975 -0.4029693604
12750223500.0 0.9053859261 -0.4158354372
12800223200.0 0.9001655088 -0.4284441024
12850222900.0 0.8945313156 -0.4403314671
12900222600.0 0.8889232314 -0.4522675472
12950222300.0 0.8825879181 -0.4654522722
13000222000.0 0.8765639144 -0.4767435981
13050221700.0 0.8696677056 -0.4897693872
13100221400.0 0.8631914828 -0.5016607596
13150221100.0 0.8558697511 -0.5140112768
13200220800.0 0.8488390704 -0.5253859301
13250220500.0 0.8415021805 -0.5380674969
13300220200.0 0.8339772067 -0.5486929332
13350219900.0 0.8258845158 -0.5609802535
13400219600.0 0.8174721122 -0.5732105162
13450219300.0 0.8079579436 -0.5866821643
13500219000.0 0.7977785971 -0.6008970999
13550218700.0 0.787817301 -0.6132309375
13600218400.0 0.7772046615 -0.6258866555
13650218100.0 0.7673439809 -0.637208873
13700217800.0 0.7565551816 -0.6492066281
13750217500.0 0.7457736775 -0.6612349026
13800217200.0 0.7351164317 -0.6731742024
13850216900.0 0.7239405482 -0.6838043907
13900216600.0 0.7143681443 -0.6929439011
13950216300.0 0.7038460927 -0.7032125797
14000216000.0 0.6932851992 -0.712335556
14050215700.0 0.6842573468 -0.7209008204
14100215400.0 0.6743074392 -0.7299147125
14150215100.0 0.6651597148 -0.7382208103
14200214800.0 0.6556510351 -0.7466763275
14250214500.0 0.6455501228 -0.7556128998
14300214200.0 0.6351430884 -0.7648329535
14350213900.0 0.6242827092 -0.7742218879
14400213600.0 0.6123140445 -0.7842522911
14450213300.0 0.5995163568 -0.794207579
14500213000.0 0.5864432147 -0.8041243638
14550212700.0 0.5739260762 -0.8131199045
14600212400.0 0.5617425304 -0.8219662861
14650212100.0 0.5486896815 -0.8309480743
14700211800.0 0.5343699861 -0.8402536733
14750211500.0 0.5222972741 -0.8486093965
14800211200.0 0.5102817375 -0.856336463
14850210900.0 0.4980067025 -0.8640549322
14900210600.0 0.4848101583 -0.8717913503
14950210300.0 0.4712835601 -0.8795857224
15000210000.0 0.4580889037 -0.8863131418
15050209700.0 0.4458937616 -0.8927840483
15100209400.0 0.4328414844 -0.8984695853
15150209100.0 0.4206588979 -0.9038220921
15200208800.0 0.4076790519 -0.9098598719
15250208500.0 0.3956699241 -0.9136678393
15300208200.0 0.3836823288 -0.9188254484
15350207900.0 0.3707608363 -0.9233094472
15400207600.0 0.3559967619 -0.9287775592
15450207300.0 0.3408690956 -0.9345344549
15500207000.0 0.3266286649 -0.9389770103
15550206700.0 0.311719263 -0.9438716092
15600206400.0 0.2956483171 -0.948313053
15650206100.0 0.279719584 -0.9523708286
15700205800.0 0.2659012327 -0.9561429808
15750205500.0 0.2513868016 -0.9595029787
15800205200.0 0.2369693114 -0.9628797797
15850204900.0 0.2225776917 -0.9662867326
15900204600.0 0.2075276604 -0.9698038216
15950204300.0 0.1936484648 -0.9727488027
16000204000.0 0.1798277783 -0.9754691057
16050203700.0 0.1648910508 -0.9784123905
16100203400.0 0.1507052547 -0.9807635697
16150203100.0 0.1362336026 -0.9825550672
16200202800.0 0.1223068341 -0.9846404534
16250202500.0 0.1080443681 -0.9864272989
16300202200.0 0.0926570317 -0.9880523116
16350201900.0 0.0780990374 -0.9893603302
16400201600.0 0.0630958471 -0.9899230074
16450201300.0 0.0482753452 -0.9913161099
16500201000.0 0.031481566 -0.9921551744
16550200700.0 0.0161361749 -0.9924325526
16600200400.0 0.0003505663 -0.9925454574
16650200100.0 -0.0163324229 -0.9925395748
16700199800.0 -0.0326429495 -0.9921786451
16750199500.0 -0.0514913517 -0.9913584746
16800199200.0 -0.0671141572 -0.9905804835
16850198900.0 -0.0822172227 -0.9889956928
16900198600.0 -0.0963531132 -0.9886685633
16950198300.0 -0.1091880632 -0.9872529171
17000198000.0 -0.1227003087 -0.9861902574
17050197700.0 -0.1364013182 -0.9833974265
17100197400.0 -0.1486843395 -0.9816492158
17150197100.0 -0.1612511551 -0.9794253508
17200196800.0 -0.1743168258 -0.9775150127
17250196500.0 -0.1871835501 -0.9750613201
17300196200.0 -0.1994322234 -0.9729339242
17350195900.0 -0.2114258584 -0.9704852177
17400195600.0 -0.2235308011 -0.9681253256
17450195300.0 -0.2367151495 -0.965237084
17500195000.0 -0.2502887754 -0.9618299184
17550194700.0 -0.2644503394 -0.9581686892
17600194400.0 -0.2784810751 -0.9540461619
17650194100.0 -0.2917627239 -0.9497796507
17700193800.0 -0.304460948 -0.9460501565
17750193500.0 -0.3190739997 -0.9409801621
17800193200.0 -0.3332692757 -0.9360907994
17850192900.0 -0.3483848559 -0.9307438373
17900192600.0 -0.3634815582 -0.9244955289
17950192300.0 -0.3787994667 -0.9176121783
18000192000.0 -0.3934075424 -0.9104785272
18050191700.0 -0.4070673588 -0.9024905925
18100191400.0 -0.4210652225 -0.8950238752
18150191100.0 -0.4361519614 -0.8869121573
18200190800.0 -0.4530749944 -0.8776527721
18250190500.0 -0.4698891672 -0.8683861122
18300190200.0 -0.4852101865 -0.8596035208
18350189900.0 -0.5002216284 -0.851343011
18400189600.0 -0.5143793781 -0.8429112998
18450189300.0 -0.5281448747 -0.8344557734
18500189000.0 -0.5412596489 -0.8270054129
18550188700.0 -0.5539694465 -0.819113567
18600188400.0 -0.5661538913 -0.8122499116
18650188100.0 -0.5768444272 -0.8057221835
18700187800.0 -0.5873965028 -0.7987403478
18750187500.0 -0.5986115125 -0.7920961678
18800187200.0 -0.6093299963 -0.7848435661
18850186900.0 -0.6196574321 -0.7776947269
18900186600.0 -0.6300402377 -0.7703232923
18950186300.0 -0.6402056113 -0.762099189
19000186000.0 -0.6476702852 -0.7559825385
19050185700.0 -0.6571161864 -0.7486706261
19100185400.0 -0.6671151125 -0.7400970493
19150185100.0 -0.6774634516 -0.7317705136
19200184800.0 -0.6871229139 -0.7230732344
19250184500.0 -0.6975388522 -0.7138639379
19300184200.0 -0.7089129951 -0.7040810475
19350183900.0 -0.7192908768 -0.6941954338
19400183600.0 -0.7291634791 -0.6844506521
19450183300.0 -0.7377194734 -0.674059015
19500183000.0 -0.7457827047 -0.664346008
19550182700.0 -0.7552858582 -0.653592411
19600182400.0 -0.7658822811 -0.6420814941
19650182100.0 -0.7767573927 -0.6298435641
19700181800.0 -0.7871074985 -0.616781728
19750181500.0 -0.7974772124 -0.603055421
19800181200.0 -0.8077312731 -0.58809976
19850180900.0 -0.817360103 -0.5728946739
19900180600.0 -0.8248953531 -0.5585591353
19950180300.0 -0.8342100778 -0.5426381917
20000180000.0 -0.8278260701 -0.5444276727
20050179700.0 -0.8353486453 -0.5320752559
20100179400.0 -0.8441693725 -0.5174366216
20150179100.0 -0.8520613881 -0.5054783028
20200178800.0 -0.8612183531 -0.4925273125
20250178500.0 -0.8702483752 -0.4790155451
20300178200.0 -0.8794402334 -0.4641183982
20350177900.0 -0.8884142848 -0.4500854752
20400177600.0 -0.8973558788 -0.4353432756
20450177300.0 -0.9055281516 -0.4208168316
20500177000.0 -0.9133187895 -0.4070976023
20550176700.0 -0.9209897886 -0.3934734756
20600176400.0 -0.927918757 -0.3804870182
20650176100.0 -0.9344578496 -0.3676300159
20700175800.0 -0.9410724752 -0.3562990099
20750175500.0 -0.9472936692 -0.3443041772
20800175200.0 -0.9528376957 -0.3331797598
20850174900.0 -0.9582938349 -0.3208664644
20900174600.0 -0.9628904286 -0.3100880383
20950174300.0 -0.9665544088 -0.2981465148
21000174000.0 -0.9705253166 -0.2863734564
21050173700.0 -0.9723722643 -0.275027108
21100173400.0 -0.9771964187 -0.2627844
21150173100.0 -0.9815404644 -0.249759586
21200172800.0 -0.9847649644 -0.2361660493
21250172500.0 -0.9883069425 -0.2228014789
21300172200.0 -0.9904432215 -0.2086174076
21350171900.0 -0.9922611861 -0.1938905103
21400171600.0 -0.9940687673 -0.1800017217
21450171300.0 -0.9942891051 -0.1653379429
21500171000.0 -0.9940352411 -0.1504944569
21550170700.0 -0.9925822698 -0.1351961198
21600170400.0 -0.9940169964 -0.1198327598
21650170100.0 -0.9927695494 -0.1043624325
21700169800.0 -0.9902131836 -0.0884095136
21750169500.0 -0.9891523832 -0.0733317214
21800169200.0 -0.9884155032 -0.0551093023
21850168900.0 -0.9879215192 -0.0404057963
21900168600.0 -0.9854214686 -0.0245876519
21950168300.0 -0.9843927295 -0.0079429027
22000168000.0 -0.9825568882 0.0067095812
22050167700.0 -0.9829001323 0.0207747613
22100167400.0 -0.9824917982 0.0357799393
22150167100.0 -0.9832164712 0.0509844102
22200166800.0 -0.9829824087 0.0675019984
22250166500.0 -0.9820583646 0.0846059461
22300166200.0 -0.9814575852 0.1010211587
22350165900.0 -0.9801701885 0.1171066473
22400165600.0 -0.9785685228 0.1333710441
22450165300.0 -0.9769515672 0.1477365587
22500165000.0 -0.9751829791 0.1609180077
22550164700.0 -0.9742256347 0.1768762106
22600164400.0 -0.9715245125 0.192686558
22650164100.0 -0.9698225929 0.2076348855
22700163800.0 -0.9667738158 0.2234574988
22750163500.0 -0.96426009 0.2385526916
22800163200.0 -0.9619086804 0.2523434255
22850162900.0 -0.9596216054 0.2652418231
22900162600.0 -0.9583340444 0.2787098357
22950162300.0 -0.9568983518 0.291475641
23000162000.0 -0.9560686639 0.3032997938
23050161700.0 -0.9542570818 0.3156362312
23100161400.0 -0.9514082194 0.3281523654
23150161100.0 -0.9494368199 0.3405807818
23200160800.0 -0.9465019106 0.353025339
23250160500.0 -0.9439374098 0.3647978736
23300160200.0 -0.9409185505 0.3758812713
23350159900.0 -0.937156817 0.3891979518
23400159600.0 -0.932516255 0.4024109515
23450159300.0 -0.927746764 0.4149623789
23500159000.0 -0.9225993621 0.4281060369
23550158700.0 -0.9186555461 0.4417456421
23600158400.0 -0.9131571652 0.4546376516
23650158100.0 -0.9067867091 0.4686558817
23700157800.0 -0.8994607777 0.4824524708
23750157500.0 -0.8905186916 0.4962932755
23800157200.0 -0.8822228708 0.5090865494
23850156900.0 -0.8735067467 0.5219958154
23900156600.0 -0.8642434811 0.5349309315
23950156300.0 -0.8547654518 0.5472388088
24000156000.0 -0.8460637677 0.5593637299
24050155700.0 -0.8355275105 0.5699954959
24100155400.0 -0.8256638279 0.5821123497
24150155100.0 -0.8144734622 0.5943045778
24200154800.0 -0.8049499367 0.605621809
24250154500.0 -0.7927881692 0.6175593013
24300154200.0 -0.7817076082 0.6282881668
24350153900.0 -0.7695589076 0.6390017673
24400153600.0 -0.7572167218 0.6498137576
24450153300.0 -0.7454983947 0.6594609849
24500153000.0 -0.7338435298 0.6695892877
24550152700.0 -0.7229230078 0.6789555693
24600152400.0 -0.711226181 0.6878365148
24650152100.0 -0.7000528932 0.6968569185
