!Created with skrf (http://scikit-rf.org).
# Hz S RI R 50.0 
!freq ReS11 ImS11
300000.0 -0.9743859625 -0.121373819
50299700.0 -0.9999661784 0.0151736529
100299400.0 -0.9980697355 0.0279538498
150299100.0 -1.00261278 0.0449091873
200298800.0 -0.9995666269 0.0582495871
250298500.0 -0.9974843259 0.0716149925
300298200.0 -0.9858354486 0.0874924684
350297900.0 -0.9939906989 0.098427071
400297600.0 -0.9930418285 0.115002526
450297300.0 -0.9909050093 0.1289860737
500297000.0 -0.9893590182 0.1435747712
550296700.0 -0.9841805342 0.1559416008
600296400.0 -1.017271048 0.1892568901
650296100.0 -0.9821453016 0.1858281426
700295800.0 -0.9793140474 0.2001793518
750295500.0 -0.9763092225 0.214008836
800295200.0 -0.9730653398 0.2281542614
850294900.0 -0.9696674625 0.242163505
900294600.0 -0.9657675571 0.2557285351
950294300.0 -0.9620811101 0.2696157724
1000294000.0 -0.9582258529 0.2835804028
1050293700.0 -0.9536882255 0.297260852
1100293400.0 -0.9492669273 0.3119352219
1150293100.0 -0.9455100366 0.3235177633
1200292800.0 -0.9401241144 0.3379126761
1250292500.0 -0.9347162634 0.3513850885
1300292200.0 -0.9289605805 0.3645306299
1350291900.0 -0.9234417974 0.3785297234
1400291600.0 -0.9179665187 0.3917852707
1450291300.0 -0.912260451 0.4041906221
1500291000.0 -0.9062461917 0.4174947665
1550290700.0 -0.8997557324 0.4311510364
1600290400.0 -0.8933982486 0.4436121419
1650290100.0 -0.8868395058 0.4559777498
1700289800.0 -0.8799111225 0.4692620503
1750289500.0 -0.8728832818 0.4817277684
1800289200.0 -0.8655895321 0.4946635436
1850288900.0 -0.8586679107 0.505886736
1900288600.0 -0.8509495811 0.5188638748
1950288300.0 -0.8428118466 0.5315794765
2000288000.0 -0.8355875287 0.5429263497
2050287700.0 -0.8270359933 0.5553177446
2100287400.0 -0.8194327386 0.566800596
2150287100.0 -0.8107816187 0.5789324225
2200286800.0 -0.802891631 0.5891950231
2250286500.0 -0.7942087459 0.6015040337
2300286200.0 -0.7852001348 0.6130295851
2350285900.0 -0.7765842436 0.6238090069
2400285600.0 -0.7677840926 0.6347636425
2450285300.0 -0.7590467794 0.6451471891
2500285000.0 -0.7492118906 0.656779935
2550284700.0 -0.7402720776 0.6668076588
2600284400.0 -0.7310404396 0.6770266247
2650284100.0 -0.7219784948 0.6874146901
2700283800.0 -0.7116452858 0.6978547085
2750283500.0 -0.7012770272 0.7084330791
2800283200.0 -0.6914885948 0.7183250337
2850282900.0 -0.6812235446 0.7284318217
2900282600.0 -0.6706558166 0.7378312106
2950282300.0 -0.6604461713 0.747175907
3000282000.0 -0.6497158576 0.7566352538
3050281700.0 -0.638455294 0.7659159434
3100281400.0 -0.626862139 0.7752229836
3150281100.0 -0.6152018342 0.7844171163
3200280800.0 -0.6036594238 0.7928876616
3250280500.0 -0.592724094 0.8004539964
3300280200.0 -0.5813704177 0.8085965709
3350279900.0 -0.5696111787 0.8164813239
3400279600.0 -0.5571606017 0.8243401812
3450279300.0 -0.5460727367 0.8313144992
3500279000.0 -0.5341128911 0.8382885309
3550278700.0 -0.5219091753 0.845752725
3600278400.0 -0.5097678346 0.8525195306
3650278100.0 -0.4966055438 0.8601580712
3700277800.0 -0.4846199287 0.8667593511
3750277500.0 -0.4721774201 0.873368183
3800277200.0 -0.4598450248 0.8797586178
3850276900.0 -0.4475015386 0.885748853
3900276600.0 -0.4369009456 0.8914966734
3950276300.0 -0.4245134127 0.8972525104
4000276000.0 -0.412769887 0.9033370194
4050275700.0 -0.3997729945 0.9094151408
4100275400.0 -0.3887043728 0.9147866385
4150275100.0 -0.3758961066 0.9205714371
4200274800.0 -0.3626602906 0.9261757303
4250274500.0 -0.3503404451 0.9314722649
4300274200.0 -0.3372362517 0.9366219076
4350273900.0 -0.3234129584 0.9419856661
4400273600.0 -0.3086643396 0.9471943034
4450273300.0 -0.2932669657 0.9519862022
4500273000.0 -0.279995638 0.9565185252
4550272700.0 -0.2660101183 0.9606863301
4600272400.0 -0.2507190401 0.9649520033
4650272100.0 -0.2390486945 0.9682498103
4700271800.0 -0.2258313691 0.9714502139
4750271500.0 -0.214149215 0.9741411873
4800271200.0 -0.2018354814 0.9767529011
4850270900.0 -0.1879657706 0.9797583902
4900270600.0 -0.1742262912 0.9821655482
4950270300.0 -0.1596650241 0.9847068489
5000270000.0 -0.1455271107 0.9866164393
5050269700.0 -0.1318693037 0.9883876831
5100269400.0 -0.1179910793 0.9901319209
5150269100.0 -0.1042678572 0.9919712405
5200268800.0 -0.0909243729 0.9928703394
5250268500.0 -0.078006966 0.9935855013
5300268200.0 -0.0646348629 0.9946365487
5350267900.0 -0.0518359794 0.9952782815
5400267600.0 -0.035901917 0.9964380164
5450267300.0 -0.022911557 0.9966270949
5500267000.0 -0.0076297964 0.9968631848
5550266700.0 0.0073392195 0.9973175966
5600266400.0 0.0228627838 0.9972375201
5650266100.0 0.0396118955 0.9970201982
5700265800.0 0.0539664579 0.9960084768
5750265500.0 0.0692018018 0.9953702254
5800265200.0 0.0823677519 0.9944147006
5850264900.0 0.0961653589 0.9932835443
5900264600.0 0.1127494007 0.9913154636
5950264300.0 0.1245747562 0.9899334583
6000264000.0 0.1383538292 0.9882389617
6050263700.0 0.1501464194 0.9865889074
6100263400.0 0.1627790543 0.9851594997
6150263100.0 0.1774610555 0.9828179771
6200262800.0 0.1874871378 0.9810192875
6250262500.0 0.1998557508 0.9784739371
6300262200.0 0.2125234968 0.9759224099
6350261900.0 0.2255628225 0.9731106659
6400261600.0 0.2394173787 0.9698382601
6450261300.0 0.2506446775 0.9672293191
6500261000.0 0.2634163496 0.9635961856
6550260700.0 0.2766308621 0.9595939371
6600260400.0 0.2898517326 0.9554901849
6650260100.0 0.3039048406 0.9510701885
6700259800.0 0.3161689513 0.9468885483
6750259500.0 0.3296618083 0.9417053397
6800259200.0 0.3431813164 0.9369232132
6850258900.0 0.3552965761 0.9316711523
6900258600.0 0.3677994053 0.9267070616
6950258300.0 0.3802350278 0.9211324784
7000258000.0 0.3921010728 0.916029077
7050257700.0 0.4043784781 0.9099351967
7100257400.0 0.4171582512 0.9037906159
7150257100.0 0.4279338774 0.8983352096
7200256800.0 0.4410250891 0.8918298225
7250256500.0 0.452905693 0.8854110665
7300256200.0 0.4656914882 0.8785479071
7350255900.0 0.478341297 0.8717789024
7400255600.0 0.4918360324 0.8644278439
7450255300.0 0.5074363372 0.8555021768
7500255000.0 0.5197725607 0.848068074
7550254700.0 0.53333769 0.8393179624
7600254400.0 0.5461881664 0.8309735163
7650254100.0 0.5577274685 0.823351914
7700253800.0 0.5695179086 0.8153909819
7750253500.0 0.58050382 0.8076438339
7800253200.0 0.5912115975 0.7998190579
7850252900.0 0.6009345695 0.7926596695
7900252600.0 0.6126110446 0.7839086307
7950252300.0 0.6211209981 0.77753437
8000252000.0 0.6312429755 0.7698946013
8050251700.0 0.6415562021 0.761721787
8100251400.0 0.6515893121 0.7536654964
8150251100.0 0.6616185037 0.7450978745
8200250800.0 0.6708441786 0.7369455728
8250250500.0 0.6801938633 0.7291431841
8300250200.0 0.6892451039 0.7204441503
8350249900.0 0.6983441148 0.7118040741
8400249600.0 0.7067268934 0.7038146616
8450249300.0 0.7156077536 0.6947160331
8500249000.0 0.7242675651 0.685882463
8550248700.0 0.7325236841 0.6768144387
8600248400.0 0.7407789077 0.6673302741
8650248100.0 0.748516198 0.6578981345
8700247800.0 0.7579744016 0.6468173549
8750247500.0 0.7663014384 0.6367164483
8800247200.0 0.7741403722 0.626363305
8850246900.0 0.7831172411 0.6149459751
8900246600.0 0.7913286008 0.6035326415
8950246300.0 0.8010603428 0.5906473641
9000246000.0 0.8098852083 0.5783992911
9050245700.0 0.8188597744 0.565511229
9100245400.0 0.8275387094 0.5531893078
9150245100.0 0.8366652079 0.5398472596
9200244800.0 0.8460907065 0.5251123565
9250244500.0 0.8552552137 0.5097984075
9300244200.0 0.8635317166 0.4957225677
9350243900.0 0.8711655931 0.4822716956
9400243600.0 0.877972634 0.4699942386
9450243300.0 0.8837168658 0.458937933
9500243000.0 0.8900121236 0.4467855626
9550242700.0 0.8939365545 0.4393048484
9600242400.0 0.898043477 0.4316975687
9650242100.0 0.9019380948 0.425109754
9700241800.0 0.9064854455 0.4168643221
9750241500.0 0.9106237336 0.4091023051
9800241200.0 0.9153353298 0.3998915847
9850240900.0 0.9210800794 0.3883729829
9900240600.0 0.926923441 0.3765356438
9950240300.0 0.9337447286 0.3600566757
10000240000.0 0.9381716448 0.3485495214
10050239700.0 0.9440441835 0.3327794899
10100239400.0 0.9494353285 0.3168657096
10150239100.0 0.9540885151 0.3018867853
10200238800.0 0.9580386622 0.2866566876
10250238500.0 0.9615069567 0.2733467904
10300238200.0 0.9646703953 0.2595606575
10350237900.0 0.9674384072 0.2458720907
10400237600.0 0.9699051454 0.232639251
10450237300.0 0.9726825926 0.2190555402
10500237000.0 0.9747638829 0.2071257225
10550236700.0 0.977292113 0.1930319695
10600236400.0 0.979064887 0.1789899461
10650236100.0 0.9811596567 0.164186685
10700235800.0 0.9834606708 0.1521718168
10750235500.0 0.9859571411 0.1384453482
10800235200.0 0.9876053649 0.1248141955
10850234900.0 0.9895686668 0.1095392286
10900234600.0 0.9918167031 0.0949509987
10950234300.0 0.9934224747 0.0816762723
11000234000.0 0.9953688883 0.0662414075
11050233700.0 0.9970028176 0.0498559329
11100233400.0 0.9984664308 0.0321959262
11150233100.0 0.9997114201 0.0154001576
11200232800.0 1.000242232 0.0003384944
11250232500.0 1.001416076 -0.0166154419
11300232200.0 1.001410121 -0.0343832951
11350231900.0 1.001710226 -0.0505947214
11400231600.0 1.001141758 -0.0655941848
11450231300.0 1.001917346 -0.082115505
11500231000.0 1.000143218 -0.0975581844
11550230700.0 0.9985905832 -0.1105196237
11600230400.0 0.9971559027 -0.1242269735
11650230100.0 0.9953143737 -0.1358390786
11700229800.0 0.9928574852 -0.1504052718
11750229500.0 0.9906866043 -0.164407997
11800229200.0 0.9879229471 -0.1783130387
11850228900.0 0.9842943216 -0.1903958887
11900228600.0 0.9806896179 -0.1999418918
11950228300.0 0.9774574784 -0.2100992625
12000228000.0 0.9745024761 -0.2194920422
12050227700.0 0.9707577534 -0.2324345125
12100227400.0 0.967669239 -0.2430739158
12150227100.0 0.9630936774 -0.2596146389
12200226800.0 0.9588071353 -0.2707258092
12250226500.0 0.9537745469 -0.2846255543
12300226200.0 0.9508645385 -0.2960646874
12350225900.0 0.9460902164 -0.3107117017
12400225600.0 0.9413970641 -0.3220997018
12450225300.0 0.9370183414 -0.3353409703
12500225000.0 0.9314373759 -0.349501897
12550224700.0 0.9261434185 -0.3635008273
12600224400.0 0.9211924952 -0.3762300658
12650224100.0 0.9154324744 -0.3907373685
12700223800.0 0.910099596 -0.4035807882
12750223500.0 0.9045796383 -0.4166823917
12800223200.0 0.8992265887 -0.4293421796
12850222900.0 0.8935589375 -0.4415115434
12900222600.0 0.8882145216 -0.4530395534
12950222300.0 0.8815430384 -0.466440488
13000222000.0 0.8761629783 -0.477389442
13050221700.0 0.8694959449 -0.4900276015
13100221400.0 0.8624871513 -0.5029547416
13150221100.0 0.8558570484 -0.514914181
13200220800.0 0.8486862095 -0.5261438946
13250220500.0 0.841703201 -0.5381492184
13300220200.0 0.8342594717 -0.5493854846
13350219900.0 0.8261005105 -0.5610388909
13400219600.0 0.8179643203 -0.573067311
13450219300.0 0.8084811037 -0.5865174563
13500219000.0 0.7979916435 -0.6004032571
13550218700.0 0.7886678466 -0.6124260011
13600218400.0 0.778204382 -0.6242695386
13650218100.0 0.7686418184 -0.6353994171
13700217800.0 0.7581626882 -0.6481330946
13750217500.0 0.7480574024 -0.65872324
13800217200.0 0.7365708763 -0.6705854845
13850216900.0 0.7263489061 -0.6823586869
13900216600.0 0.7165165592 -0.6901956718
13950216300.0 0.7052401371 -0.7011288144
14000216000.0 0.6954839815 -0.7094461892
14050215700.0 0.6861009 -0.7181492226
14100215400.0 0.6763932458 -0.7274962991
14150215100.0 0.6669350616 -0.7358120701
14200214800.0 0.6577257558 -0.7444888627
14250214500.0 0.6472190757 -0.7540045102
14300214200.0 0.6368636986 -0.7633915964
14350213900.0 0.625512132 -0.7731129929
14400213600.0 0.6137794477 -0.7827624446
14450213300.0 0.60101583 -0.792826513
14500213000.0 0.5874380041 -0.8029334783
14550212700.0 0.5758008502 -0.8122761721
14600212400.0 0.5632797474 -0.8213290944
14650212100.0 0.5498137856 -0.8302561033
14700211800.0 0.5363644798 -0.8393515052
14750211500.0 0.5242146542 -0.8476494782
14800211200.0 0.5113936872 -0.8558764448
14850210900.0 0.4995815466 -0.863297486
14900210600.0 0.4860935313 -0.8712653777
14950210300.0 0.472839726 -0.8788398972
15000210000.0 0.4600081991 -0.8856348482
15050209700.0 0.4477160029 -0.8917543387
15100209400.0 0.4348631499 -0.8976881344
15150209100.0 0.4227878187 -0.9030902075
15200208800.0 0.4103120528 -0.9086178069
15250208500.0 0.3992620584 -0.9125916813
15300208200.0 0.3867284031 -0.9179902891
15350207900.0 0.3732071259 -0.9228116384
15400207600.0 0.3586356794 -0.9275988876
15450207300.0 0.3441959888 -0.9328215654
15500207000.0 0.3299171757 -0.9372245547
15550206700.0 0.3142427058 -0.9429140191
15600206400.0 0.2996417095 -0.946359782
15650206100.0 0.2836331265 -0.951154856
15700205800.0 0.2695236436 -0.9549721911
15750205500.0 0.2552629573 -0.9580880108
15800205200.0 0.2409839713 -0.9618624651
15850204900.0 0.226744968 -0.9652107246
15900204600.0 0.2116560348 -0.9687661254
15950204300.0 0.1975200758 -0.9719336637
16000204000.0 0.1829332922 -0.9750565313
16050203700.0 0.1682637149 -0.9776712699
16100203400.0 0.1536781869 -0.9796820841
16150203100.0 0.1391143815 -0.982161944
16200202800.0 0.125028663 -0.9844327405
16250202500.0 0.1101679726 -0.986204582
16300202200.0 0.0944964256 -0.9874906029
16350201900.0 0.0795252641 -0.9889448062
16400201600.0 0.0648179328 -0.9900666513
16450201300.0 0.0495570996 -0.9912057781
16500201000.0 0.0326602966 -0.9921634054
16550200700.0 0.0168577273 -0.9926343859
16600200400.0 0.0009062237 -0.9927946075
16650200100.0 -0.0150714371 -0.9925839516
16700199800.0 -0.0315074189 -0.9922968033
16750199500.0 -0.0495638596 -0.9918650217
16800199200.0 -0.0659853449 -0.9909902831
16850198900.0 -0.0811445672 -0.9895905645
16900198600.0 -0.0956225 -0.9888287859
16950198300.0 -0.1091702709 -0.9875807217
17000198000.0 -0.1212496271 -0.9860345064
17050197700.0 -0.1341539767 -0.9842867862
17100197400.0 -0.1469201801 -0.9820814347
17150197100.0 -0.1595399701 -0.9805532156
17200196800.0 -0.172406728 -0.978155339
17250196500.0 -0.1856930623 -0.9757256466
17300196200.0 -0.1977508325 -0.9733277403
17350195900.0 -0.2095322322 -0.9710828655
17400195600.0 -0.2215860143 -0.9685818665
17450195300.0 -0.2346856789 -0.9657822599
17500195000.0 -0.2480438782 -0.9624711119
17550194700.0 -0.2619992211 -0.9590750758
17600194400.0 -0.2756581222 -0.9549362026
17650194100.0 -0.2890394145 -0.9506318988
17700193800.0 -0.3024288523 -0.9466789825
17750193500.0 -0.3169650854 -0.9421010496
17800193200.0 -0.3309497843 -0.9366515733
17850192900.0 -0.3462978519 -0.9313975274
17900192600.0 -0.3611890405 -0.9254336703
17950192300.0 -0.3771077765 -0.9179961913
18000192000.0 -0.3913928404 -0.9109529316
18050191700.0 -0.4055056555 -0.90322651
18100191400.0 -0.4196213862 -0.8955680593
18150191100.0 -0.4346238779 -0.8875876987
18200190800.0 -0.4515820057 -0.8782610991
18250190500.0 -0.4684206214 -0.8691262482
18300190200.0 -0.4840504636 -0.8604700067
18350189900.0 -0.4990569707 -0.8519336334
18400189600.0 -0.5137264445 -0.8435225781
18450189300.0 -0.5267513631 -0.835711553
18500189000.0 -0.5402215462 -0.8277212102
18550188700.0 -0.5530577366 -0.8196207273
18600188400.0 -0.5648044286 -0.8132035401
18650188100.0 -0.575733607 -0.8065006587
18700187800.0 -0.5864924397 -0.7998006752
18750187500.0 -0.5975722865 -0.7933834437
18800187200.0 -0.6082410601 -0.7863967511
18850186900.0 -0.6183844195 -0.7795114135
18900186600.0 -0.6287598143 -0.772274047
18950186300.0 -0.6386591598 -0.7644358519
19000186000.0 -0.6459302519 -0.7581555451
19050185700.0 -0.6556324734 -0.7510118994
19100185400.0 -0.6652382256 -0.7429096493
19150185100.0 -0.6751013415 -0.7350088562
19200184800.0 -0.6845371109 -0.7262924915
19250184500.0 -0.6952539308 -0.7173997798
19300184200.0 -0.7065348408 -0.7075417227
19350183900.0 -0.7174019298 -0.6974948391
19400183600.0 -0.7265120426 -0.6878098884
19450183300.0 -0.7356119931 -0.6774665797
19500183000.0 -0.743760379 -0.6678728444
19550182700.0 -0.7538886754 -0.6563063184
19600182400.0 -0.764221766 -0.6451763343
19650182100.0 -0.7748764517 -0.6327170092
19700181800.0 -0.7854483923 -0.6193766058
19750181500.0 -0.7961643964 -0.6052291538
19800181200.0 -0.806455071 -0.5904016287
19850180900.0 -0.8160086366 -0.5751659812
19900180600.0 -0.8237330155 -0.5607915166
19950180300.0 -0.8331091119 -0.5441650061
20000180000.0 -0.8247848897 -0.5476227647
20050179700.0 -0.8328883631 -0.5350462345
20100179400.0 -0.8413767323 -0.5208656587
20150179100.0 -0.8496389712 -0.509312383
20200178800.0 -0.8583346172 -0.4961207542
20250178500.0 -0.8688014131 -0.4833484524
20300178200.0 -0.8768539954 -0.4694510432
20350177900.0 -0.8862410013 -0.4549435725
20400177600.0 -0.8951884458 -0.4402720801
20450177300.0 -0.903605952 -0.4260833952
20500177000.0 -0.9116656355 -0.4121487098
20550176700.0 -0.9195701094 -0.3984894379
20600176400.0 -0.9265864979 -0.3853693053
20650176100.0 -0.9333301933 -0.3730414332
20700175800.0 -0.9397639491 -0.3613574849
20750175500.0 -0.9466949398 -0.3506633812
20800175200.0 -0.9507918479 -0.3391962977
20850174900.0 -0.9552170797 -0.3282617032
20900174600.0 -0.960328556 -0.3167999831
20950174300.0 -0.9640472734 -0.3057186144
21000174000.0 -0.9667569729 -0.2941915015
21050173700.0 -0.9691125127 -0.2848136441
21100173400.0 -0.9726309865 -0.2723076681
21150173100.0 -0.9766559917 -0.2609723043
21200172800.0 -0.9805196126 -0.2475627404
21250172500.0 -0.9840298232 -0.2334906573
21300172200.0 -0.9869816284 -0.2193329407
21350171900.0 -0.9885931908 -0.2048582032
21400171600.0 -0.9906953927 -0.1910513459
21450171300.0 -0.991359618 -0.1766163779
21500171000.0 -0.9910389203 -0.1612954508
21550170700.0 -0.9908780985 -0.1462097492
21600170400.0 -0.992433205 -0.130370142
21650170100.0 -0.9910955884 -0.1144053633
21700169800.0 -0.9903463205 -0.0987753896
21750169500.0 -0.9901858876 -0.0829567787
21800169200.0 -0.9894624672 -0.0667366083
21850168900.0 -0.9881955261 -0.0502297585
21900168600.0 -0.9878371673 -0.0338561263
21950168300.0 -0.9865304983 -0.0182088951
22000168000.0 -0.9861374504 -0.0032909568
22050167700.0 -0.9862736964 0.0115112214
22100167400.0 -0.9863112465 0.0266084698
22150167100.0 -0.9872135395 0.0428115234
22200166800.0 -0.9883034521 0.0585967053
22250166500.0 -0.987030118 0.0769241832
22300166200.0 -0.9863299635 0.0927697356
22350165900.0 -0.985712715 0.1086327543
22400165600.0 -0.983145371 0.124499209
22450165300.0 -0.9815922341 0.139655282
22500165000.0 -0.9799980915 0.1543782728
22550164700.0 -0.978173753 0.1690722528
22600164400.0 -0.9759353174 0.1855304808
22650164100.0 -0.9747886813 0.2002626763
22700163800.0 -0.9718135819 0.2163648063
22750163500.0 -0.9690108818 0.2313126059
22800163200.0 -0.966218146 0.2441977654
22850162900.0 -0.9632155512 0.2580115878
22900162600.0 -0.9617663382 0.2713403719
22950162300.0 -0.9601727101 0.2845835376
23000162000.0 -0.9590522071 0.2968552541
23050161700.0 -0.9569190712 0.3100474293
23100161400.0 -0.9546006777 0.3223761148
23150161100.0 -0.9511572223 0.3357577477
23200160800.0 -0.948637271 0.3474598831
23250160500.0 -0.9454602391 0.3597386032
23300160200.0 -0.9428292841 0.3722990022
23350159900.0 -0.9396858161 0.3855834716
23400159600.0 -0.9346225553 0.398761783
23450159300.0 -0.929675486 0.4130254046
23500159000.0 -0.9246978123 0.4255602751
23550158700.0 -0.9202197124 0.4393580208
23600158400.0 -0.914913904 0.4526173423
23650158100.0 -0.9079256051 0.4673443991
23700157800.0 -0.9000192634 0.481293909
23750157500.0 -0.8908880532 0.495298799
23800157200.0 -0.8818845803 0.5087883566
23850156900.0 -0.8728751164 0.521157244
23900156600.0 -0.8631585405 0.5343661194
23950156300.0 -0.8544769945 0.5464430038
24000156000.0 -0.8442532272 0.5587454351
24050155700.0 -0.834514198 0.5709657642
24100155400.0 -0.8241250599 0.5828975582
24150155100.0 -0.8134641126 0.594617649
24200154800.0 -0.8026432595 0.6059874094
24250154500.0 -0.7911256864 0.6181709746
24300154200.0 -0.7800331115 0.6298678678
24350153900.0 -0.7681571278 0.6405192471
24400153600.0 -0.7560037582 0.6510045943
24450153300.0 -0.7440566708 0.6608101785
24500153000.0 -0.732542274 0.670938779
24550152700.0 -0.7214356421 0.6806783256
24600152400.0 -0.708696161 0.6902765368
24650152100.0 -0.6977772214 0.6987868002
