!Created with skrf (http://scikit-rf.org).
# Hz S RI R 50.0 
!freq ReS11 ImS11
300000.0 -0.975278102 -0.1216742959
50299700.0 -0.9998589544 0.0151266967
100299400.0 -0.9979129359 0.0279712392
150299100.0 -1.002741974 0.0449437053
200298800.0 -0.9995908432 0.0581862162
250298500.0 -0.9973499898 0.0718768683
300298200.0 -0.9859044839 0.0874034201
350297900.0 -0.9940819845 0.0983332876
400297600.0 -0.9931308544 0.1149499254
450297300.0 -0.9909788712 0.1288402764
500297000.0 -0.9893651113 0.1434658147
550296700.0 -0.9842970457 0.1560125343
600296400.0 -1.017338373 0.1893220103
650296100.0 -0.9821148077 0.1858793295
700295800.0 -0.9790595135 0.200186076
750295500.0 -0.9763436072 0.2144015014
800295200.0 -0.9729053516 0.2280163733
850294900.0 -0.9695916723 0.2419348683
900294600.0 -0.9657082897 0.2558530112
950294300.0 -0.9622380965 0.2693431085
1000294000.0 -0.9581799184 0.2834570057
1050293700.0 -0.9536758204 0.2971758662
1100293400.0 -0.9491946851 0.3117082648
1150293100.0 -0.9455629096 0.3232736072
1200292800.0 -0.9402145038 0.3378084228
1250292500.0 -0.9347521922 0.3513774278
1300292200.0 -0.9289888289 0.3645184638
1350291900.0 -0.9234904194 0.3787003127
1400291600.0 -0.9179087854 0.391861453
1450291300.0 -0.9124406071 0.4040832314
1500291000.0 -0.9061332639 0.4175158247
1550290700.0 -0.8996896877 0.4307682547
1600290400.0 -0.8933928787 0.4436882337
1650290100.0 -0.8866935847 0.4557241736
1700289800.0 -0.8799648373 0.4693442333
1750289500.0 -0.8728198645 0.4815547993
1800289200.0 -0.8655108345 0.4945520101
1850288900.0 -0.8587358857 0.5059845584
1900288600.0 -0.8510122126 0.5189988686
1950288300.0 -0.842868779 0.5314191094
2000288000.0 -0.835357479 0.5429169332
2050287700.0 -0.8271564234 0.5552109801
2100287400.0 -0.8195255008 0.566834823
2150287100.0 -0.8105794629 0.578790723
2200286800.0 -0.803103003 0.5892245256
2250286500.0 -0.7939432959 0.601581626
2300286200.0 -0.784965503 0.6128926667
2350285900.0 -0.7767686868 0.6235750484
2400285600.0 -0.7679666106 0.634556245
2450285300.0 -0.7591574258 0.6453631066
2500285000.0 -0.7489988154 0.6566004142
2550284700.0 -0.7403297661 0.6669761345
2600284400.0 -0.7306979983 0.6768848587
2650284100.0 -0.7221181997 0.6872822628
2700283800.0 -0.7113962892 0.6976881488
2750283500.0 -0.7014224554 0.7084515327
2800283200.0 -0.6913876077 0.7182589339
2850282900.0 -0.6811277195 0.7284045562
2900282600.0 -0.670701087 0.7379481874
2950282300.0 -0.6604269501 0.747140872
3000282000.0 -0.6494989315 0.7567141532
3050281700.0 -0.6383791942 0.7659268726
3100281400.0 -0.6269437237 0.7751396488
3150281100.0 -0.6152791148 0.784136353
3200280800.0 -0.6038956814 0.7925632136
3250280500.0 -0.5928337337 0.800449705
3300280200.0 -0.5812263437 0.8086245514
3350279900.0 -0.5692658514 0.8164346174
3400279600.0 -0.5568551035 0.8243892769
3450279300.0 -0.5459962983 0.8315194404
3500279000.0 -0.5340518902 0.8383399069
3550278700.0 -0.5218178347 0.8456248813
3600278400.0 -0.5098109105 0.8524666639
3650278100.0 -0.4966950956 0.8602137743
3700277800.0 -0.4846154206 0.8666060567
3750277500.0 -0.4722589136 0.8731499976
3800277200.0 -0.4598695078 0.8796986054
3850276900.0 -0.4479966963 0.8856455308
3900276600.0 -0.4368494325 0.891281295
3950276300.0 -0.4246535779 0.8974095268
4000276000.0 -0.4129118834 0.9034375113
4050275700.0 -0.4000753886 0.9094931228
4100275400.0 -0.3891913493 0.914750047
4150275100.0 -0.3760726471 0.9204548684
4200274800.0 -0.362754766 0.9262212096
4250274500.0 -0.3500973715 0.9312740973
4300274200.0 -0.336984742 0.9368188127
4350273900.0 -0.322942176 0.9421105413
4400273600.0 -0.3080215485 0.947201118
4450273300.0 -0.2929537113 0.9522834704
4500273000.0 -0.2797814523 0.956602355
4550272700.0 -0.265954353 0.9605746626
4600272400.0 -0.2507917001 0.9648131158
4650272100.0 -0.2394446179 0.9681797356
4700271800.0 -0.2263185742 0.9712495872
4750271500.0 -0.2145941869 0.9742167195
4800271200.0 -0.2023284243 0.9768062385
4850270900.0 -0.1884355604 0.979708876
4900270600.0 -0.1745241852 0.9821583274
4950270300.0 -0.1600976186 0.9848763872
5000270000.0 -0.1460000677 0.9869581404
5050269700.0 -0.132249718 0.9884241693
5100269400.0 -0.1183375257 0.9903210314
5150269100.0 -0.1043695372 0.9921960288
5200268800.0 -0.0909871474 0.9930037625
5250268500.0 -0.0780810962 0.9938883645
5300268200.0 -0.0648243747 0.9944320351
5350267900.0 -0.0520179021 0.9949726126
5400267600.0 -0.0358984466 0.9962282547
5450267300.0 -0.0226535764 0.996795567
5500267000.0 -0.0072605538 0.996903637
5550266700.0 0.0076954061 0.9971986654
5600266400.0 0.0232302336 0.9970970531
5650266100.0 0.0397942901 0.9969085041
5700265800.0 0.0543895568 0.9959564016
5750265500.0 0.0692877943 0.995481365
5800265200.0 0.0830778946 0.9942860761
5850264900.0 0.0959548661 0.9930956412
5900264600.0 0.1129742821 0.9917108993
5950264300.0 0.1245266594 0.9899646123
6000264000.0 0.1380359709 0.9878510927
6050263700.0 0.1500220227 0.9866710619
6100263400.0 0.1622874341 0.9850550657
6150263100.0 0.1767139039 0.9825635697
6200262800.0 0.1868054368 0.9808593796
6250262500.0 0.1995421182 0.9786351763
6300262200.0 0.2120996107 0.9758834429
6350261900.0 0.2247743069 0.9730236804
6400261600.0 0.2385960135 0.9699121219
6450261300.0 0.2502554192 0.9674810714
6500261000.0 0.2629790891 0.9636308873
6550260700.0 0.2760034245 0.9598833564
6600260400.0 0.2893889545 0.9558586535
6650260100.0 0.3035462053 0.9513504455
6700259800.0 0.315627117 0.947474109
6750259500.0 0.3293073215 0.9422559847
6800259200.0 0.3428034194 0.9372060179
6850258900.0 0.3551108184 0.9320713918
6900258600.0 0.3676883464 0.9267141459
6950258300.0 0.3799965185 0.9214301248
7000258000.0 0.3917935643 0.9161700091
7050257700.0 0.4037358605 0.9102842112
7100257400.0 0.4169614546 0.9039253699
7150257100.0 0.4275462799 0.8985987262
7200256800.0 0.4404391322 0.8918944206
7250256500.0 0.4527913078 0.8853929742
7300256200.0 0.4660778483 0.8787662304
7350255900.0 0.4787289143 0.8716911979
7400255600.0 0.4927585513 0.8643929659
7450255300.0 0.5079117362 0.8550805838
7500255000.0 0.5203509355 0.8478606859
7550254700.0 0.5341409495 0.8388855212
7600254400.0 0.5467673666 0.8304291368
7650254100.0 0.5582840226 0.822695565
7700253800.0 0.5700581603 0.8146682385
7750253500.0 0.5810025117 0.807234752
7800253200.0 0.5917285433 0.7991666708
7850252900.0 0.6016167806 0.7923015615
7900252600.0 0.6131097789 0.7833923864
7950252300.0 0.6213789309 0.7769510912
8000252000.0 0.6315737345 0.7692740162
8050251700.0 0.6421613954 0.7611848594
8100251400.0 0.6520334736 0.7530478016
8150251100.0 0.6618758636 0.7446338128
8200250800.0 0.6715873164 0.7363168477
8250250500.0 0.6801553096 0.7287697678
8300250200.0 0.6895728252 0.7202338973
8350249900.0 0.6988462239 0.7114083832
8400249600.0 0.7065739447 0.7035047422
8450249300.0 0.7155082847 0.6945225481
8500249000.0 0.7242201483 0.6857516171
8550248700.0 0.7324499025 0.6766306879
8600248400.0 0.7407913594 0.6671181856
8650248100.0 0.7487123909 0.6577219621
8700247800.0 0.7582444972 0.6466165461
8750247500.0 0.7661553625 0.6365364471
8800247200.0 0.7739546137 0.6261790372
8850246900.0 0.7829540761 0.6148960881
8900246600.0 0.7916109922 0.6035286906
8950246300.0 0.8006865456 0.590756151
9000246000.0 0.8097456733 0.5783188289
9050245700.0 0.818190956 0.5657902506
9100245400.0 0.826965211 0.5535909298
9150245100.0 0.8359597251 0.5403345753
9200244800.0 0.8451176599 0.5256504065
9250244500.0 0.8544881197 0.5109397763
9300244200.0 0.8627146452 0.4969816389
9350243900.0 0.8705030208 0.4836427079
9400243600.0 0.8769818469 0.4715031945
9450243300.0 0.8825673637 0.4606984996
9500243000.0 0.8888782382 0.448918903
9550242700.0 0.8929995077 0.4411959382
9600242400.0 0.8968598557 0.4337571426
9650242100.0 0.9010511268 0.4267793219
9700241800.0 0.9057814298 0.4187283822
9750241500.0 0.9097186887 0.4109922929
9800241200.0 0.9147995037 0.4016079104
9850240900.0 0.9207552448 0.3900205459
9900240600.0 0.9265396897 0.3779742124
9950240300.0 0.9332672876 0.361667738
10000240000.0 0.9385045656 0.3496747871
10050239700.0 0.9443647734 0.3336166686
10100239400.0 0.9492834373 0.3178719824
10150239100.0 0.9542887161 0.3022841273
10200238800.0 0.9584128741 0.286924148
10250238500.0 0.9613918383 0.2735979226
10300238200.0 0.9645854064 0.2599009237
10350237900.0 0.9675007937 0.2464739066
10400237600.0 0.9700743856 0.2329395978
10450237300.0 0.9727098605 0.2195468916
10500237000.0 0.9744993404 0.2076303842
10550236700.0 0.9770103887 0.1928951748
10600236400.0 0.9793433836 0.1792406504
10650236100.0 0.9813288761 0.1644117462
10700235800.0 0.9838463061 0.1516190153
10750235500.0 0.9857325126 0.1390047882
10800235200.0 0.9882553804 0.1239585554
10850234900.0 0.9896217705 0.1094909532
10900234600.0 0.991839781 0.0949467639
10950234300.0 0.9936864159 0.0814094663
11000234000.0 0.9954848926 0.0660421718
11050233700.0 0.9971828306 0.0494041546
11100233400.0 0.9985547555 0.0319658583
11150233100.0 0.9997356253 0.0153225752
11200232800.0 1.00064996 -0.0007494596
11250232500.0 1.001403276 -0.0175995178
11300232200.0 1.001968762 -0.0358410903
11350231900.0 1.001687734 -0.0522965828
11400231600.0 1.001090135 -0.0664267758
11450231300.0 1.001171279 -0.0827469876
11500231000.0 1.000147899 -0.0999610717
11550230700.0 0.9981555382 -0.1126271838
11600230400.0 0.997043939 -0.1255791349
11650230100.0 0.9949015144 -0.1370032795
11700229800.0 0.9926240191 -0.1519552059
11750229500.0 0.9902189327 -0.1663146354
11800229200.0 0.9876939293 -0.1796435301
11850228900.0 0.9839458646 -0.1918125466
11900228600.0 0.9802735399 -0.2014045562
11950228300.0 0.9770462679 -0.2111580589
12000228000.0 0.9742137598 -0.2204850631
12050227700.0 0.9704001092 -0.2331578198
12100227400.0 0.9675213035 -0.2440246283
12150227100.0 0.962208407 -0.2610030725
12200226800.0 0.9584455104 -0.272176304
12250226500.0 0.9542932707 -0.2845234662
12300226200.0 0.9497898612 -0.2966691851
12350225900.0 0.9457315496 -0.3097067074
12400225600.0 0.9411660272 -0.3223849468
12450225300.0 0.9363619993 -0.3358914373
12500225000.0 0.9309344571 -0.3503535604
12550224700.0 0.9256742161 -0.3641735906
12600224400.0 0.9206535683 -0.377154312
12650224100.0 0.9148770275 -0.3915337907
12700223800.0 0.90952725 -0.4044511284
12750223500.0 0.9039480642 -0.4173524354
12800223200.0 0.898704618 -0.4298172361
12850222900.0 0.8934072258 -0.4421156049
12900222600.0 0.8880899124 -0.4541149112
12950222300.0 0.8816612021 -0.4670961036
13000222000.0 0.875590644 -0.4783554592
13050221700.0 0.8691303402 -0.4908458919
13100221400.0 0.8624397674 -0.5031215267
13150221100.0 0.8555693132 -0.5155254051
13200220800.0 0.8482501185 -0.5267217714
13250220500.0 0.8411255637 -0.5391682954
13300220200.0 0.833690851 -0.5500397906
13350219900.0 0.8255826401 -0.5619044517
13400219600.0 0.817264974 -0.5739210361
13450219300.0 0.8076111839 -0.5871021254
13500219000.0 0.7981435272 -0.6004741626
13550218700.0 0.7879850482 -0.6127735141
13600218400.0 0.7778449618 -0.6247993896
13650218100.0 0.7686392375 -0.635197907
13700217800.0 0.7576424224 -0.6474289834
13750217500.0 0.74743242 -0.6591596638
13800217200.0 0.7364244696 -0.6702589882
13850216900.0 0.7260531976 -0.6820570817
13900216600.0 0.7158869017 -0.6906719165
13950216300.0 0.7055059344 -0.7004174846
14000216000.0 0.6952695838 -0.7089316668
14050215700.0 0.6862332628 -0.7176585313
14100215400.0 0.6763111842 -0.7267107426
14150215100.0 0.6673654561 -0.7356187097
14200214800.0 0.6578052822 -0.7443294835
14250214500.0 0.6474119082 -0.753766456
14300214200.0 0.6368941204 -0.7631471036
14350213900.0 0.6258500692 -0.7726129346
14400213600.0 0.6139325965 -0.7827136252
14450213300.0 0.6014381387 -0.7929204969
14500213000.0 0.5879901969 -0.8025497919
14550212700.0 0.5755333577 -0.8119764541
14600212400.0 0.5637879881 -0.8208262623
14650212100.0 0.5501868009 -0.8289149046
14700211800.0 0.5366460395 -0.8387878257
14750211500.0 0.5247815549 -0.8476088623
14800211200.0 0.5120123805 -0.8554827703
14850210900.0 0.5000072598 -0.8631304765
14900210600.0 0.4866338469 -0.8709023141
14950210300.0 0.4732026451 -0.8787640825
15000210000.0 0.4606541994 -0.8853199884
15050209700.0 0.4480010949 -0.8914299406
15100209400.0 0.4354896248 -0.8974473413
15150209100.0 0.4231148536 -0.9025536984
15200208800.0 0.4101969217 -0.9084530759
15250208500.0 0.3992206683 -0.912382837
15300208200.0 0.386757319 -0.9174026372
15350207900.0 0.374178014 -0.9224607131
15400207600.0 0.3589694276 -0.9276559234
15450207300.0 0.3443450936 -0.9321998548
15500207000.0 0.330061032 -0.9371649583
15550206700.0 0.3152047108 -0.9426621603
15600206400.0 0.2990707677 -0.9468749364
15650206100.0 0.2837361289 -0.950803272
15700205800.0 0.2699044612 -0.9543310757
15750205500.0 0.2557236284 -0.9579667488
15800205200.0 0.2415464397 -0.9614088418
15850204900.0 0.2273789746 -0.964865719
15900204600.0 0.2123821223 -0.9687084444
15950204300.0 0.1979020925 -0.9717441887
16000204000.0 0.1838326325 -0.9746146098
16050203700.0 0.1687456737 -0.9770987998
16100203400.0 0.1540434504 -0.9794584463
16150203100.0 0.1397854756 -0.9820890309
16200202800.0 0.1251563568 -0.984331744
16250202500.0 0.1101944369 -0.9856961926
16300202200.0 0.0946065918 -0.987229637
16350201900.0 0.0795731102 -0.9892936401
16400201600.0 0.0650974762 -0.9898333025
16450201300.0 0.0496873069 -0.9912596801
16500201000.0 0.0327557393 -0.9920794862
16550200700.0 0.0168204704 -0.9926389601
16600200400.0 0.0010085374 -0.9925994785
16650200100.0 -0.0150579592 -0.9926839925
16700199800.0 -0.0314112737 -0.9924250504
16750199500.0 -0.0505073046 -0.9913881171
16800199200.0 -0.0662979425 -0.9907803305
16850198900.0 -0.0818326145 -0.9892405912
16900198600.0 -0.0958490847 -0.9890609775
16950198300.0 -0.1088559223 -0.9874696551
17000198000.0 -0.1219686161 -0.9860393912
17050197700.0 -0.1355793089 -0.9840956199
17100197400.0 -0.1477427175 -0.9819198145
17150197100.0 -0.1602462277 -0.9797982397
17200196800.0 -0.1734126072 -0.9777668786
17250196500.0 -0.1863261151 -0.975618207
17300196200.0 -0.1984402986 -0.9731926403
17350195900.0 -0.2102332285 -0.9708467468
17400195600.0 -0.2223847864 -0.9684024427
17450195300.0 -0.2352414939 -0.9654532431
17500195000.0 -0.2486419343 -0.9623015594
17550194700.0 -0.2624044224 -0.9586345234
17600194400.0 -0.2762328912 -0.9549290543
17650194100.0 -0.2897146949 -0.9505004366
17700193800.0 -0.3029491326 -0.9464393346
17750193500.0 -0.3172819034 -0.9418363944
17800193200.0 -0.3313740058 -0.9366733356
17850192900.0 -0.3460606339 -0.9312503254
17900192600.0 -0.3614055991 -0.9246854128
17950192300.0 -0.3769749407 -0.9180288655
18000192000.0 -0.391729446 -0.910877993
18050191700.0 -0.4056645496 -0.9028757812
18100191400.0 -0.4197915656 -0.8953394148
18150191100.0 -0.4345843949 -0.8872975812
18200190800.0 -0.4515522941 -0.8780643378
18250190500.0 -0.4683872553 -0.8687351031
18300190200.0 -0.484041657 -0.8598035387
18350189900.0 -0.4991106315 -0.8516292178
18400189600.0 -0.5136209003 -0.8435086704
18450189300.0 -0.5268620931 -0.835102855
18500189000.0 -0.5406942088 -0.8271967804
18550188700.0 -0.5537045556 -0.819351573
18600188400.0 -0.5647458974 -0.8124984681
18650188100.0 -0.5761456431 -0.8064412817
18700187800.0 -0.5873952608 -0.7995237596
18750187500.0 -0.5982302596 -0.7930163621
18800187200.0 -0.6085685634 -0.785681142
18850186900.0 -0.6189328485 -0.7788520347
18900186600.0 -0.6292364411 -0.7714539001
18950186300.0 -0.6393167325 -0.7638522249
19000186000.0 -0.6467585001 -0.757346266
19050185700.0 -0.6559947514 -0.7505785928
19100185400.0 -0.6657639025 -0.7419555596
19150185100.0 -0.675906887 -0.733375453
19200184800.0 -0.6856703518 -0.7259015308
19250184500.0 -0.6957358548 -0.7165510873
19300184200.0 -0.70742175 -0.7070559472
19350183900.0 -0.7178826377 -0.6972154867
19400183600.0 -0.7277703148 -0.6870795837
19450183300.0 -0.7362737778 -0.6772487095
19500183000.0 -0.7448872057 -0.6672758388
19550182700.0 -0.7545708059 -0.6560929581
19600182400.0 -0.76475521 -0.6448296348
19650182100.0 -0.7756131946 -0.6318861597
19700181800.0 -0.7860505005 -0.6190214595
19750181500.0 -0.7966697819 -0.6048752056
19800181200.0 -0.8067226088 -0.5900360312
19850180900.0 -0.8162559487 -0.5746020777
19900180600.0 -0.824097762 -0.5598102928
19950180300.0 -0.8331217985 -0.5436181611
20000180000.0 -0.823618758 -0.5467735601
20050179700.0 -0.8317542944 -0.5341238333
20100179400.0 -0.8404382012 -0.5203006463
20150179100.0 -0.8484337996 -0.5085788135
20200178800.0 -0.8573085242 -0.4970349718
20250178500.0 -0.8670312164 -0.4842731397
20300178200.0 -0.8761423403 -0.4696467295
20350177900.0 -0.8853676095 -0.4556630202
20400177600.0 -0.8948343004 -0.4414273461
20450177300.0 -0.9030804363 -0.4273862747
20500177000.0 -0.9110674041 -0.4134564202
20550176700.0 -0.9189707928 -0.3997652053
20600176400.0 -0.9259325779 -0.3869715538
20650176100.0 -0.9327144012 -0.3741738546
20700175800.0 -0.9390646587 -0.3626346158
20750175500.0 -0.9455452152 -0.3513404544
20800175200.0 -0.9499668528 -0.3408477237
20850174900.0 -0.9538936391 -0.3298558264
20900174600.0 -0.9594814037 -0.3181744772
20950174300.0 -0.9632458936 -0.307425542
21000174000.0 -0.9656018875 -0.2963959098
21050173700.0 -0.9678018027 -0.2865843115
21100173400.0 -0.9716011236 -0.275515269
21150173100.0 -0.975157826 -0.2634801034
21200172800.0 -0.9789997374 -0.2496047286
21250172500.0 -0.982620486 -0.2360305962
21300172200.0 -0.9860229768 -0.2220821529
21350171900.0 -0.9875782797 -0.2077594559
21400171600.0 -0.9893179308 -0.1934616656
21450171300.0 -0.9901418946 -0.178807986
21500171000.0 -0.9899361327 -0.1635866353
21550170700.0 -0.9905234007 -0.1486500932
21600170400.0 -0.9915051589 -0.1340571842
21650170100.0 -0.9914123674 -0.1182499326
21700169800.0 -0.9897811001 -0.1023987543
21750169500.0 -0.9890884387 -0.0857519357
21800169200.0 -0.9901846598 -0.0699464105
21850168900.0 -0.988750467 -0.0530749926
21900168600.0 -0.9880621599 -0.0371687173
21950168300.0 -0.9876246801 -0.02069483
22000168000.0 -0.9873269624 -0.0065312
22050167700.0 -0.9874380139 0.0086504822
22100167400.0 -0.9881442157 0.0242835696
22150167100.0 -0.9890761302 0.0401416959
22200166800.0 -0.9894382992 0.0562591259
22250166500.0 -0.9889238608 0.0734497154
22300166200.0 -0.9885899139 0.0895586723
22350165900.0 -0.9867943193 0.1062081175
22400165600.0 -0.9854551047 0.1216350101
22450165300.0 -0.9828354588 0.1373070286
22500165000.0 -0.9817991555 0.1511506583
22550164700.0 -0.9800950685 0.1667605216
22600164400.0 -0.9782540635 0.1839648341
22650164100.0 -0.9763474579 0.1988700571
22700163800.0 -0.9726419028 0.2148709568
22750163500.0 -0.9704348477 0.2288561531
22800163200.0 -0.9670549931 0.2428780377
22850162900.0 -0.9646813161 0.256027775
22900162600.0 -0.9629548074 0.2698113212
22950162300.0 -0.9614138232 0.2830151401
23000162000.0 -0.9599701938 0.2952917274
23050161700.0 -0.9576269088 0.3088956634
23100161400.0 -0.9550189845 0.3216933444
23150161100.0 -0.9516110419 0.3349408852
23200160800.0 -0.9484320476 0.3473303017
23250160500.0 -0.9465258419 0.3601014137
23300160200.0 -0.943668018 0.3717367876
23350159900.0 -0.939600412 0.3855934174
23400159600.0 -0.9344607638 0.3993129562
23450159300.0 -0.9296776467 0.4125802407
23500159000.0 -0.9246700599 0.4259119482
23550158700.0 -0.9204185127 0.4398149389
23600158400.0 -0.9142716353 0.4535055347
23650158100.0 -0.9074052384 0.4681960579
23700157800.0 -0.89933927 0.4821301777
23750157500.0 -0.8897135212 0.4959461481
23800157200.0 -0.8808907334 0.5096302363
23850156900.0 -0.8706318389 0.5226479577
23900156600.0 -0.8618242886 0.5349764296
23950156300.0 -0.8524626102 0.5472601586
24000156000.0 -0.8430111299 0.5600708684
24050155700.0 -0.8326845304 0.5719222767
24100155400.0 -0.8219988035 0.5842515017
24150155100.0 -0.8114834776 0.5958991831
24200154800.0 -0.8004783127 0.6076089309
24250154500.0 -0.7890573575 0.6204060243
24300154200.0 -0.7777746618 0.6318928046
24350153900.0 -0.7658183237 0.6431133748
24400153600.0 -0.753049221 0.653490863
24450153300.0 -0.7411792571 0.6634799085
24500153000.0 -0.7297116829 0.6732023993
24550152700.0 -0.7183487157 0.6826529025
24600152400.0 -0.7066342139 0.6922363508
24650152100.0 -0.6944045749 0.7010022036
