!Created with skrf (http://scikit-rf.org).
# Hz S RI R 50.0 
!freq ReS11 ImS11
300000.0 -0.973778914 -0.125249082
50299700.0 -0.9999611358 0.0148582012
100299400.0 -0.997934267 0.0278475846
150299100.0 -1.00271949 0.044751744
200298800.0 -0.9995882064 0.0581665781
250298500.0 -0.9972824552 0.0713443492
300298200.0 -0.9858744012 0.0872013639
350297900.0 -0.9938974206 0.098329019
400297600.0 -0.9930736297 0.1146777129
450297300.0 -0.990926032 0.1286647265
500297000.0 -0.9894815463 0.1433228219
550296700.0 -0.9842860501 0.155675401
600296400.0 -1.017349464 0.1891582659
650296100.0 -0.9822764558 0.1857716388
700295800.0 -0.9793671214 0.1999840492
750295500.0 -0.9764736097 0.2140774951
800295200.0 -0.9729165947 0.228032998
850294900.0 -0.9695120946 0.241753519
900294600.0 -0.9657696089 0.2556006074
950294300.0 -0.9620280411 0.269031143
1000294000.0 -0.9581122961 0.2830934806
1050293700.0 -0.9536533708 0.2969391397
1100293400.0 -0.9494084822 0.3115362372
1150293100.0 -0.9454456715 0.3233058841
1200292800.0 -0.9403767307 0.3377926588
1250292500.0 -0.9346610495 0.3511587533
1300292200.0 -0.9289957889 0.3642878481
1350291900.0 -0.9233879433 0.3783555697
1400291600.0 -0.9180798335 0.3916289781
1450291300.0 -0.9124719054 0.4039689773
1500291000.0 -0.9062222705 0.4173113874
1550290700.0 -0.8998751046 0.4307334287
1600290400.0 -0.893660833 0.4434764704
1650290100.0 -0.8868644956 0.4558142638
1700289800.0 -0.8800296066 0.4691572829
1750289500.0 -0.8729364882 0.4813943572
1800289200.0 -0.8654475143 0.4943141553
1850288900.0 -0.8587080206 0.5057166071
1900288600.0 -0.8509916601 0.5187341992
1950288300.0 -0.8429865061 0.5313514144
2000288000.0 -0.8356475571 0.5428788318
2050287700.0 -0.8273353422 0.555238833
2100287400.0 -0.8194382972 0.5666548732
2150287100.0 -0.8109954958 0.5785019764
2200286800.0 -0.8030477265 0.5892613996
2250286500.0 -0.7940858939 0.6015893497
2300286200.0 -0.785277314 0.6128554133
2350285900.0 -0.7768208193 0.6232208799
2400285600.0 -0.7681844833 0.6342993693
2450285300.0 -0.7589509169 0.6450047422
2500285000.0 -0.749149198 0.6567219036
2550284700.0 -0.7403585228 0.6670316852
2600284400.0 -0.7308193433 0.6766564548
2650284100.0 -0.7222252563 0.6870746654
2700283800.0 -0.7119690549 0.6975119339
2750283500.0 -0.7015228567 0.7080545401
2800283200.0 -0.691457498 0.7181517619
2850282900.0 -0.6810659861 0.7280516366
2900282600.0 -0.6707399024 0.7377660515
2950282300.0 -0.6602620321 0.7475120493
3000282000.0 -0.6494913949 0.7567512743
3050281700.0 -0.6384332146 0.7659234096
3100281400.0 -0.6267303451 0.774996336
3150281100.0 -0.6156241158 0.7840095314
3200280800.0 -0.6041558313 0.7922400295
3250280500.0 -0.5930879138 0.8002117603
3300280200.0 -0.581465455 0.8085096741
3350279900.0 -0.5693056089 0.8165382812
3400279600.0 -0.556618101 0.8245949414
3450279300.0 -0.5456241901 0.8317070036
3500279000.0 -0.533764531 0.8384448678
3550278700.0 -0.5216672105 0.84575509
3600278400.0 -0.5096439765 0.8522870129
3650278100.0 -0.4968693034 0.8600368169
3700277800.0 -0.484910086 0.8664796033
3750277500.0 -0.4723910823 0.8732776233
3800277200.0 -0.4597581515 0.8795358112
3850276900.0 -0.4476564696 0.8856136478
3900276600.0 -0.4369175804 0.8912625616
3950276300.0 -0.4249342429 0.8970989686
4000276000.0 -0.4133017415 0.9031501472
4050275700.0 -0.4005994578 0.9091375493
4100275400.0 -0.3894104776 0.9145785694
4150275100.0 -0.3762024117 0.9205018888
4200274800.0 -0.3626560865 0.9260954198
4250274500.0 -0.3499771342 0.9313447329
4300274200.0 -0.3367121965 0.9367270502
4350273900.0 -0.3224541883 0.9419788383
4400273600.0 -0.3076126218 0.9474845276
4450273300.0 -0.2928655706 0.9522730556
4500273000.0 -0.2796434115 0.9565161158
4550272700.0 -0.2660387852 0.9606164584
4600272400.0 -0.2509597201 0.9647398539
4650272100.0 -0.2397848198 0.9678704119
4700271800.0 -0.2267797267 0.9711153977
4750271500.0 -0.215196672 0.9740243737
4800271200.0 -0.2029553386 0.9766751678
4850270900.0 -0.1892176844 0.9794007747
4900270600.0 -0.1753873611 0.9818468073
4950270300.0 -0.1608139047 0.9845718647
5000270000.0 -0.1464410137 0.9869109549
5050269700.0 -0.1328124867 0.988237447
5100269400.0 -0.1187414489 0.9902617147
5150269100.0 -0.1047795685 0.9920766186
5200268800.0 -0.0914687328 0.9924655799
5250268500.0 -0.0781537542 0.9942670423
5300268200.0 -0.0646181528 0.9943831586
5350267900.0 -0.051792644 0.9950457911
5400267600.0 -0.0356493855 0.9964064228
5450267300.0 -0.0220837972 0.9968539973
5500267000.0 -0.0065836863 0.9971341534
5550266700.0 0.0082086519 0.9973205163
5600266400.0 0.0240096085 0.9971466585
5650266100.0 0.040583045 0.9968443327
5700265800.0 0.0548227216 0.9959267079
5750265500.0 0.0698981563 0.9949854409
5800265200.0 0.083090807 0.9937516657
5850264900.0 0.0962207575 0.9933071702
5900264600.0 0.1128319603 0.991173529
5950264300.0 0.1246171004 0.9901039203
6000264000.0 0.1379355972 0.9878505678
6050263700.0 0.1496098483 0.9869333272
6100263400.0 0.1617615585 0.9848338986
6150263100.0 0.1763559327 0.9824350989
6200262800.0 0.1860238686 0.9810354613
6250262500.0 0.1986000831 0.9787367275
6300262200.0 0.2107296621 0.9759546119
6350261900.0 0.2237953818 0.9736506089
6400261600.0 0.2374666756 0.9702881285
6450261300.0 0.2486312444 0.9678387798
6500261000.0 0.2619735983 0.9640557865
6550260700.0 0.2750696374 0.9601739019
6600260400.0 0.288628429 0.9561314619
6650260100.0 0.3025096495 0.9515451619
6700259800.0 0.3147749663 0.9473977883
6750259500.0 0.3285353715 0.9424256688
6800259200.0 0.3422326769 0.9376214878
6850258900.0 0.3544707927 0.9320426067
6900258600.0 0.3673343258 0.9267327993
6950258300.0 0.3795494726 0.9215197439
7000258000.0 0.3912515342 0.9162717536
7050257700.0 0.4030829514 0.9104514297
7100257400.0 0.4165286417 0.9041772052
7150257100.0 0.4272620269 0.8985063118
7200256800.0 0.4405689305 0.8923226329
7250256500.0 0.4529721716 0.8856569964
7300256200.0 0.4662792635 0.8790275181
7350255900.0 0.4790852442 0.8719597225
7400255600.0 0.4929696851 0.8638540239
7450255300.0 0.5087178038 0.854901029
7500255000.0 0.5216863314 0.8475657982
7550254700.0 0.5353409395 0.8380599933
7600254400.0 0.5482653206 0.8298939971
7650254100.0 0.5596903514 0.8217733895
7700253800.0 0.5709895689 0.8139153258
7750253500.0 0.5821058479 0.8064126367
7800253200.0 0.5926409918 0.7984281083
7850252900.0 0.6025521619 0.7910260655
7900252600.0 0.6138637381 0.7823971293
7950252300.0 0.6222588445 0.776230722
8000252000.0 0.6323171144 0.7686179044
8050251700.0 0.6425608307 0.7603975663
8100251400.0 0.6526034703 0.7525227324
8150251100.0 0.662570667 0.7440058306
8200250800.0 0.6719559308 0.7358550663
8250250500.0 0.6811090537 0.7279117408
8300250200.0 0.6899449183 0.7196872705
8350249900.0 0.6989701587 0.7109811459
8400249600.0 0.7072832583 0.7027759179
8450249300.0 0.7157456237 0.6940277549
8500249000.0 0.724513271 0.685340967
8550248700.0 0.7328923066 0.6762301611
8600248400.0 0.7411948264 0.6664951336
8650248100.0 0.7487027229 0.6573833195
8700247800.0 0.7578705658 0.646381887
8750247500.0 0.7662563106 0.6363143235
8800247200.0 0.7741278906 0.6258669564
8850246900.0 0.7831267547 0.6145247216
8900246600.0 0.7915061023 0.6031969374
8950246300.0 0.8004734236 0.5904320774
9000246000.0 0.8090067938 0.57855321
9050245700.0 0.8174504864 0.5661396896
9100245400.0 0.8262403566 0.5540741133
9150245100.0 0.8347036793 0.5412930379
9200244800.0 0.8442115442 0.5268968353
9250244500.0 0.8532091671 0.512155522
9300244200.0 0.8612622038 0.4987531212
9350243900.0 0.8687626394 0.4855766663
9400243600.0 0.8755141086 0.4738905795
9450243300.0 0.88105138 0.463515366
9500243000.0 0.8872622628 0.4520041467
9550242700.0 0.8912113076 0.4444329653
9600242400.0 0.8956124204 0.4367151364
9650242100.0 0.8995417608 0.4299412313
9700241800.0 0.9047107406 0.4212181114
9750241500.0 0.9087190202 0.4138606677
9800241200.0 0.9137423472 0.4042934049
9850240900.0 0.9198301734 0.3925696926
9900240600.0 0.9256805515 0.380312873
9950240300.0 0.9326829112 0.3639103446
10000240000.0 0.937713549 0.3514314706
10050239700.0 0.9440816288 0.3351800238
10100239400.0 0.9492523161 0.3190091511
10150239100.0 0.9540052289 0.3032258334
10200238800.0 0.9584006367 0.287892823
10250238500.0 0.961627646 0.2742406964
10300238200.0 0.964813181 0.2603344419
10350237900.0 0.9673789135 0.2470573443
10400237600.0 0.970309874 0.2332427741
10450237300.0 0.9726997212 0.2199421065
10500237000.0 0.974849181 0.2077302512
10550236700.0 0.977220374 0.1930041152
10600236400.0 0.9796238207 0.1787818124
10650236100.0 0.9816353197 0.1644084959
10700235800.0 0.9837216265 0.1521368139
10750235500.0 0.9860099977 0.1385374615
10800235200.0 0.9880723696 0.1242258131
10850234900.0 0.9899114631 0.1094422163
10900234600.0 0.9922232941 0.0945243493
10950234300.0 0.9938611674 0.0810087495
11000234000.0 0.9956310293 0.0653733017
11050233700.0 0.9974586541 0.0486539671
11100233400.0 0.9989328574 0.0308241463
11150233100.0 0.999829071 0.0141444223
11200232800.0 1.000961188 -0.0020579492
11250232500.0 1.001875544 -0.019751846
11300232200.0 1.001979569 -0.0386770973
11350231900.0 1.002551307 -0.0553950965
11400231600.0 1.002357955 -0.0692758643
11450231300.0 1.001430396 -0.0858711445
11500231000.0 0.9996835213 -0.102403178
11550230700.0 0.9983778922 -0.1158186186
11600230400.0 0.9966178545 -0.1274073614
11650230100.0 0.9948252604 -0.1404593523
11700229800.0 0.9926272685 -0.155205857
11750229500.0 0.9899235965 -0.1693518387
11800229200.0 0.987239995 -0.1824991878
11850228900.0 0.9836705121 -0.1942217529
11900228600.0 0.9796999328 -0.2033420267
11950228300.0 0.9764947474 -0.2134756469
12000228000.0 0.9735029228 -0.2222963931
12050227700.0 0.96978388 -0.2350228154
12100227400.0 0.9670446804 -0.2460456197
12150227100.0 0.9622106178 -0.262240285
12200226800.0 0.9572892275 -0.2747042249
12250226500.0 0.9538903095 -0.2866442191
12300226200.0 0.9496737734 -0.2985443146
12350225900.0 0.9444322005 -0.3120213123
12400225600.0 0.9402599146 -0.3251501678
12450225300.0 0.935561024 -0.3372220423
12500225000.0 0.9303625284 -0.3521737994
12550224700.0 0.9246268412 -0.3656767194
12600224400.0 0.9197972826 -0.3786160281
12650224100.0 0.9139737124 -0.3928341407
12700223800.0 0.9087381313 -0.4058121077
12750223500.0 0.9031582918 -0.4189428198
12800223200.0 0.8980286831 -0.4312819678
12850222900.0 0.8927334802 -0.4431754468
12900222600.0 0.8868888877 -0.4558102753
12950222300.0 0.8810090378 -0.4679597674
13000222000.0 0.8749072405 -0.4801294043
13050221700.0 0.8682643671 -0.4927024815
13100221400.0 0.8613068375 -0.5044030845
13150221100.0 0.8543712112 -0.5175485653
13200220800.0 0.8474406512 -0.5288048313
13250220500.0 0.8400568723 -0.5408982256
13300220200.0 0.8326961753 -0.551722629
13350219900.0 0.8244129706 -0.5635029238
13400219600.0 0.8159429644 -0.5755086322
13450219300.0 0.8069878598 -0.5884762604
13500219000.0 0.7969625181 -0.601552557
13550218700.0 0.7870985661 -0.6140773732
13600218400.0 0.7768924491 -0.6251392445
13650218100.0 0.7674085834 -0.6363361059
13700217800.0 0.7568773673 -0.6479449023
13750217500.0 0.7474423712 -0.6589758502
13800217200.0 0.7366790898 -0.6698743112
13850216900.0 0.7255065271 -0.6815795853
13900216600.0 0.716065373 -0.6900978202
13950216300.0 0.7049990495 -0.70003994
14000216000.0 0.6955771202 -0.7095246877
14050215700.0 0.6861200566 -0.7175336204
14100215400.0 0.6768152283 -0.7264292939
14150215100.0 0.6675636663 -0.7352040812
14200214800.0 0.6580939328 -0.7439703007
14250214500.0 0.6476416963 -0.7533494813
14300214200.0 0.6371588112 -0.7627952262
14350213900.0 0.6259247666 -0.7725532475
14400213600.0 0.6142170943 -0.7824972224
14450213300.0 0.6013885596 -0.792589402
14500213000.0 0.588158659 -0.8023052678
14550212700.0 0.5755767756 -0.8118184568
14600212400.0 0.5634949665 -0.8208846441
14650212100.0 0.5507761348 -0.8292954617
14700211800.0 0.5362758236 -0.838746868
14750211500.0 0.5249681853 -0.8472814407
14800211200.0 0.5126057205 -0.8554579437
14850210900.0 0.4998933549 -0.8630509047
14900210600.0 0.4866263433 -0.8710199145
14950210300.0 0.4734367914 -0.8786824712
15000210000.0 0.4608487458 -0.8854340159
15050209700.0 0.4482372347 -0.8914934765
15100209400.0 0.4354684108 -0.897492969
15150209100.0 0.4230448375 -0.9026238493
15200208800.0 0.4110198139 -0.9085224741
15250208500.0 0.3999695328 -0.9119860667
15300208200.0 0.3879245074 -0.9168126017
15350207900.0 0.3739095235 -0.9222828453
15400207600.0 0.3598492279 -0.9276164935
15450207300.0 0.3439361188 -0.9324854238
15500207000.0 0.3308278126 -0.936639648
15550206700.0 0.3155618642 -0.9420602193
15600206400.0 0.2993405393 -0.946799597
15650206100.0 0.2835641341 -0.9510386034
15700205800.0 0.2704311243 -0.9544106447
15750205500.0 0.2561248974 -0.9576015465
15800205200.0 0.2423325665 -0.9613282251
15850204900.0 0.2282062505 -0.9646331959
15900204600.0 0.2132893671 -0.9683598603
15950204300.0 0.1988375477 -0.9716014019
16000204000.0 0.1843614289 -0.9745214854
16050203700.0 0.1691981658 -0.97771588
16100203400.0 0.1546511364 -0.9799067838
16150203100.0 0.1395991532 -0.9820888825
16200202800.0 0.1251324585 -0.9843013626
16250202500.0 0.1107773239 -0.9860383803
16300202200.0 0.094784395 -0.9874190986
16350201900.0 0.0799798251 -0.9891372211
16400201600.0 0.0652548784 -0.9899789794
16450201300.0 0.0496801164 -0.9912549547
16500201000.0 0.0327628936 -0.9921653981
16550200700.0 0.0164665904 -0.992606186
16600200400.0 0.0007852718 -0.9928049414
16650200100.0 -0.015250163 -0.9925381962
16700199800.0 -0.0319884518 -0.9919092593
16750199500.0 -0.0515861427 -0.9913750427
16800199200.0 -0.0672447192 -0.9908755821
16850198900.0 -0.0821727289 -0.9897077084
16900198600.0 -0.0963583793 -0.9895225085
16950198300.0 -0.1099082037 -0.9865329006
17000198000.0 -0.1229971912 -0.9858927358
17050197700.0 -0.1361239053 -0.9833975542
17100197400.0 -0.1488884256 -0.9825225422
17150197100.0 -0.161513363 -0.9796329554
17200196800.0 -0.1743109526 -0.9782664761
17250196500.0 -0.1871866332 -0.9755114168
17300196200.0 -0.1994693665 -0.9730799928
17350195900.0 -0.2112291685 -0.970660178
17400195600.0 -0.2232593654 -0.968178299
17450195300.0 -0.235965683 -0.9653175466
17500195000.0 -0.2492534125 -0.9621804805
17550194700.0 -0.2632537782 -0.9585629484
17600194400.0 -0.2769822468 -0.9544474478
17650194100.0 -0.2902036893 -0.9504789187
17700193800.0 -0.303237462 -0.9463454048
17750193500.0 -0.3178512723 -0.9419345816
17800193200.0 -0.332007722 -0.9359833745
17850192900.0 -0.3466628078 -0.9309391021
17900192600.0 -0.3617914195 -0.925094263
17950192300.0 -0.3772848088 -0.9179333785
18000192000.0 -0.3918533138 -0.9104757007
18050191700.0 -0.4058762613 -0.902652881
18100191400.0 -0.4200299134 -0.8950568643
18150191100.0 -0.43484644 -0.887091229
18200190800.0 -0.4517662793 -0.8777995077
18250190500.0 -0.468817488 -0.8684671026
18300190200.0 -0.4845759213 -0.8595624107
18350189900.0 -0.4994533282 -0.8508643516
18400189600.0 -0.5141960898 -0.8424612605
18450189300.0 -0.5275762115 -0.8345809363
18500189000.0 -0.5406468637 -0.8266798898
18550188700.0 -0.5533663098 -0.8186765653
18600188400.0 -0.5654770071 -0.8122164058
18650188100.0 -0.5768908756 -0.8057540138
18700187800.0 -0.5879748556 -0.7985601972
18750187500.0 -0.5989561038 -0.7920785793
18800187200.0 -0.6093031283 -0.7851493305
18850186900.0 -0.6195247992 -0.7782911774
18900186600.0 -0.6299647902 -0.7708923237
18950186300.0 -0.6401888596 -0.7632216145
19000186000.0 -0.6476001913 -0.7570566244
19050185700.0 -0.6567889237 -0.7498977108
19100185400.0 -0.666519164 -0.741826745
19150185100.0 -0.6771228989 -0.7333715297
19200184800.0 -0.6863302773 -0.7251433409
19250184500.0 -0.6968692937 -0.716011985
19300184200.0 -0.7076695695 -0.7062514818
19350183900.0 -0.7189164876 -0.6970432717
19400183600.0 -0.7285878483 -0.6859156259
19450183300.0 -0.7373440365 -0.6765793526
19500183000.0 -0.7454093524 -0.6665751495
19550182700.0 -0.7554930015 -0.6557575961
19600182400.0 -0.76573516 -0.6439938177
19650182100.0 -0.7764154879 -0.6318493313
19700181800.0 -0.7866592677 -0.6184547974
19750181500.0 -0.7972942069 -0.6042275515
19800181200.0 -0.8073011207 -0.5893306625
19850180900.0 -0.8169810793 -0.5739699946
19900180600.0 -0.8246136658 -0.5593708637
19950180300.0 -0.8336107599 -0.5431511136
20000180000.0 -0.8227906066 -0.5468345243
20050179700.0 -0.8314534265 -0.5344431211
20100179400.0 -0.8389886541 -0.5215532881
20150179100.0 -0.8479713482 -0.5091078495
20200178800.0 -0.855758791 -0.4983426983
20250178500.0 -0.8651067432 -0.4852792302
20300178200.0 -0.8753440778 -0.4713915896
20350177900.0 -0.8844899692 -0.4575726269
20400177600.0 -0.8936401056 -0.4436397183
20450177300.0 -0.901883481 -0.4291620894
20500177000.0 -0.9099823465 -0.4151772242
20550176700.0 -0.9180770484 -0.4019083604
20600176400.0 -0.924553049 -0.3885954175
20650176100.0 -0.9311904658 -0.3770089097
20700175800.0 -0.9378510836 -0.3650990331
20750175500.0 -0.9442106774 -0.3530642849
20800175200.0 -0.9487781011 -0.3426828962
20850174900.0 -0.9536814384 -0.3315009123
20900174600.0 -0.9571020443 -0.3213209409
20950174300.0 -0.9608089372 -0.3095405909
21000174000.0 -0.9637089356 -0.2999558608
21050173700.0 -0.9659218277 -0.290099917
21100173400.0 -0.9693186376 -0.2783124354
21150173100.0 -0.9729976727 -0.2662699361
21200172800.0 -0.9769646614 -0.2539710247
21250172500.0 -0.9806692269 -0.2400812228
21300172200.0 -0.9842137257 -0.2257460219
21350171900.0 -0.9859666613 -0.2118311157
21400171600.0 -0.987668101 -0.1972409835
21450171300.0 -0.9891853976 -0.1831547009
21500171000.0 -0.9888270141 -0.1690127487
21550170700.0 -0.989434875 -0.1524531743
21600170400.0 -0.9910466488 -0.1383731281
21650170100.0 -0.9907076931 -0.1230501865
21700169800.0 -0.9906957208 -0.107295623
21750169500.0 -0.9904970597 -0.090118904
21800169200.0 -0.9905062838 -0.0733679249
21850168900.0 -0.990177075 -0.0575889549
21900168600.0 -0.9894982272 -0.0414016322
21950168300.0 -0.9891011209 -0.0261174125
22000168000.0 -0.9892774811 -0.0109875064
22050167700.0 -0.9895192994 0.0041073732
22100167400.0 -0.9905879684 0.0195374149
22150167100.0 -0.99127777 0.0359882834
22200166800.0 -0.9919550409 0.0522733893
22250166500.0 -0.991251219 0.0698048583
22300166200.0 -0.9914898927 0.0864050776
22350165900.0 -0.9900837253 0.1021688799
22400165600.0 -0.9873444442 0.118123155
22450165300.0 -0.9865106057 0.1332476768
22500165000.0 -0.9851066078 0.1472425328
22550164700.0 -0.982968482 0.1628854774
22600164400.0 -0.9811607912 0.1798427849
22650164100.0 -0.9790272578 0.1952181143
22700163800.0 -0.975601944 0.2109574104
22750163500.0 -0.9720142378 0.2258700244
22800163200.0 -0.9692023003 0.239435369
22850162900.0 -0.966578935 0.2531434048
22900162600.0 -0.9648221233 0.2669366824
22950162300.0 -0.9632068932 0.2805841094
23000162000.0 -0.9615074938 0.2931247631
23050161700.0 -0.9584456731 0.3068144305
23100161400.0 -0.9554532086 0.3203925899
23150161100.0 -0.9523298739 0.3333405643
23200160800.0 -0.949798299 0.3465735309
23250160500.0 -0.947356663 0.3583856565
23300160200.0 -0.9446309198 0.3712231626
23350159900.0 -0.9397040062 0.3845011085
23400159600.0 -0.9349717802 0.398680356
23450159300.0 -0.9302523858 0.4120523412
23500159000.0 -0.9254688652 0.4260381648
23550158700.0 -0.9205740642 0.4402305971
23600158400.0 -0.9138319984 0.4545625728
23650158100.0 -0.9067398035 0.4689893581
23700157800.0 -0.8983860367 0.4833563235
23750157500.0 -0.8886341268 0.4976857719
23800157200.0 -0.8793847247 0.5111500099
23850156900.0 -0.8692774515 0.5241724141
23900156600.0 -0.8592146628 0.5354325336
23950156300.0 -0.8492519743 0.5489394608
24000156000.0 -0.8400651824 0.5617235037
24050155700.0 -0.8294736452 0.5727788309
24100155400.0 -0.8183333577 0.5860157459
24150155100.0 -0.8076801242 0.5983276518
24200154800.0 -0.797032175 0.6100379547
24250154500.0 -0.7854322447 0.6224115576
24300154200.0 -0.7739118411 0.6344872585
24350153900.0 -0.7619219491 0.645467073
24400153600.0 -0.7491988863 0.6564788406
24450153300.0 -0.7370874605 0.6669928926
24500153000.0 -0.7253407246 0.6769033108
24550152700.0 -0.7142366885 0.6867354487
24600152400.0 -0.702128806 0.696894769
24650152100.0 -0.6899634527 0.7047233153
