!Created with skrf (http://scikit-rf.org).
# Hz S RI R 50.0 
!freq ReS11 ImS11
300000.0 -1.004907696 0.0305184577
50299700.0 -0.9978371443 0.0152557677
100299400.0 -0.9959318508 0.0276521995
150299100.0 -1.000630656 0.0442207033
200298800.0 -0.9972739064 0.0572814295
250298500.0 -0.9949182252 0.0706053721
300298200.0 -0.9831419635 0.0860800839
350297900.0 -0.9909326656 0.0966808365
400297600.0 -0.9898692262 0.1129316054
450297300.0 -0.9879093653 0.1263448193
500297000.0 -0.9857407653 0.1407247464
550296700.0 -0.9807504101 0.1528977975
600296400.0 -1.013615038 0.1854632923
650296100.0 -0.9785909786 0.1819452523
700295800.0 -0.9757562187 0.1957411501
750295500.0 -0.9725046268 0.2097381112
800295200.0 -0.9693778065 0.223248416
850294900.0 -0.9662983368 0.2368518188
900294600.0 -0.9622593854 0.2504635872
950294300.0 -0.958823756 0.2637783845
1000294000.0 -0.9550960462 0.2776151525
1050293700.0 -0.9508428944 0.2914332744
1100293400.0 -0.9465853326 0.3055153116
1150293100.0 -0.9429637487 0.3172304
1200292800.0 -0.9377926425 0.331526206
1250292500.0 -0.9326209481 0.3449724215
1300292200.0 -0.9273721243 0.3581090594
1350291900.0 -0.9220033038 0.3722597503
1400291600.0 -0.9168069468 0.3852440971
1450291300.0 -0.9116313987 0.3974801899
1500291000.0 -0.9055420445 0.4109828685
1550290700.0 -0.8993709453 0.4239365947
1600290400.0 -0.893375511 0.4369334729
1650290100.0 -0.8872280001 0.4486640645
1700289800.0 -0.8804353688 0.4623060902
1750289500.0 -0.8736218857 0.4746129365
1800289200.0 -0.8668498566 0.4872476376
1850288900.0 -0.8603414265 0.4985074002
1900288600.0 -0.8530918013 0.5112023761
1950288300.0 -0.8451858483 0.5237397816
2000288000.0 -0.8378916947 0.5353176512
2050287700.0 -0.8300984359 0.5474081397
2100287400.0 -0.8224690847 0.5586986288
2150287100.0 -0.8141306392 0.5709308625
2200286800.0 -0.8063609862 0.5815775223
2250286500.0 -0.7979249076 0.5934520888
2300286200.0 -0.7896014541 0.6043331579
2350285900.0 -0.7814313858 0.6150919752
2400285600.0 -0.7720647569 0.6264259475
2450285300.0 -0.7630088575 0.6372734073
2500285000.0 -0.7540660997 0.6478475785
2550284700.0 -0.7450352821 0.6584235867
2600284400.0 -0.7348752695 0.6690303362
2650284100.0 -0.7263439062 0.6784682892
2700283800.0 -0.7163588597 0.6887857678
2750283500.0 -0.7065210807 0.698890622
2800283200.0 -0.6963274897 0.7086815221
2850282900.0 -0.6858694072 0.718782315
2900282600.0 -0.6754433204 0.7285135446
2950282300.0 -0.6652455897 0.7376869966
3000282000.0 -0.6545357992 0.7475420241
3050281700.0 -0.6436644127 0.7569209871
3100281400.0 -0.6332077243 0.7653968976
3150281100.0 -0.6231669114 0.7738871631
3200280800.0 -0.6118798761 0.7828814618
3250280500.0 -0.6003671241 0.7917489131
3300280200.0 -0.5883662777 0.8011231488
3350279900.0 -0.5774725712 0.8090481999
3400279600.0 -0.5652339854 0.8176349233
3450279300.0 -0.5537311427 0.8260782123
3500279000.0 -0.5419566522 0.8337295981
3550278700.0 -0.5299415412 0.8416640763
3600278400.0 -0.5198211491 0.8483923717
3650278100.0 -0.5066932307 0.8565920331
3700277800.0 -0.495013715 0.8635790987
3750277500.0 -0.4829843741 0.8703293937
3800277200.0 -0.4703867983 0.8772644309
3850276900.0 -0.4581472021 0.8837764903
3900276600.0 -0.4459751409 0.8898159212
3950276300.0 -0.4327398476 0.8965138404
4000276000.0 -0.4209601553 0.9023538934
4050275700.0 -0.4073877703 0.9082569682
4100275400.0 -0.3957435675 0.9133840182
4150275100.0 -0.3826558238 0.9189014672
4200274800.0 -0.368620855 0.9245682275
4250274500.0 -0.3569648781 0.9290923382
4300274200.0 -0.3440239091 0.9337622748
4350273900.0 -0.3303933643 0.9386252596
4400273600.0 -0.3180325767 0.9427461344
4450273300.0 -0.3051343837 0.9468647582
4500273000.0 -0.2929126034 0.9506228391
4550272700.0 -0.2810663793 0.9542987691
4600272400.0 -0.2664600024 0.9582946308
4650272100.0 -0.2540114732 0.9615563981
4700271800.0 -0.241010066 0.9647670102
4750271500.0 -0.2268555148 0.9681756707
4800271200.0 -0.2126088665 0.971270013
4850270900.0 -0.1984866259 0.9743364056
4900270600.0 -0.1851066433 0.9768303563
4950270300.0 -0.1724230361 0.9791859324
5000270000.0 -0.1586396348 0.9814330555
5050269700.0 -0.1450786831 0.9833632434
5100269400.0 -0.1302163841 0.9850977086
5150269100.0 -0.1158210476 0.9875326832
5200268800.0 -0.1020264001 0.9886869717
5250268500.0 -0.088806717 0.9901895268
5300268200.0 -0.0742039837 0.9910265604
5350267900.0 -0.0611962865 0.9922139505
5400267600.0 -0.0448987697 0.9935138935
5450267300.0 -0.0327058306 0.9935624534
5500267000.0 -0.0186395805 0.9940750344
5550266700.0 -0.007116452 0.9939140262
5600266400.0 0.006797957 0.9943122609
5650266100.0 0.0209181212 0.9939406962
5700265800.0 0.0336391713 0.9931763864
5750265500.0 0.0467112659 0.9931913484
5800265200.0 0.0594324017 0.9924885882
5850264900.0 0.0725255631 0.9921356326
5900264600.0 0.088041854 0.9909013895
5950264300.0 0.0991081274 0.9895230619
6000264000.0 0.1124589556 0.9883131682
6050263700.0 0.1250237981 0.9871206957
6100263400.0 0.1389286717 0.9851344995
6150263100.0 0.1546740358 0.9827989629
6200262800.0 0.1660255237 0.9806332255
6250262500.0 0.1797631413 0.9783331608
6300262200.0 0.1929376829 0.9758534581
6350261900.0 0.2060056155 0.9731847048
6400261600.0 0.2210263054 0.9699255463
6450261300.0 0.2333511058 0.9670408286
6500261000.0 0.2467825823 0.9635792464
6550260700.0 0.260183463 0.9600804532
6600260400.0 0.2727587964 0.9561701018
6650260100.0 0.2866443543 0.9523214533
6700259800.0 0.2989813412 0.9486234517
6750259500.0 0.311879754 0.9443401058
6800259200.0 0.3254045352 0.9400989896
6850258900.0 0.3377732701 0.9353471726
6900258600.0 0.351048724 0.9307078683
6950258300.0 0.3647791106 0.9255787879
7000258000.0 0.3771062972 0.9206760254
7050257700.0 0.3879598003 0.9157892343
7100257400.0 0.4027804617 0.9098956413
7150257100.0 0.4142738754 0.9048921209
7200256800.0 0.4280717936 0.898785369
7250256500.0 0.4399040133 0.8930348978
7300256200.0 0.4527332443 0.8869174622
7350255900.0 0.4655315656 0.880740029
7400255600.0 0.4744629963 0.8753174949
7450255300.0 0.4877358663 0.8687146633
7500255000.0 0.4986112396 0.8620898705
7550254700.0 0.5090232522 0.8560845566
7600254400.0 0.520345854 0.8497453358
7650254100.0 0.5310955964 0.8428614706
7700253800.0 0.542641454 0.8358108961
7750253500.0 0.5534519077 0.8288989514
7800253200.0 0.5656332561 0.8204821696
7850252900.0 0.574730767 0.8139744265
7900252600.0 0.5866567126 0.8059120474
7950252300.0 0.5970247491 0.7979434879
8000252000.0 0.6079855347 0.7895173772
8050251700.0 0.6189677168 0.781121736
8100251400.0 0.6287769236 0.7733568598
8150251100.0 0.6398958472 0.7638469504
8200250800.0 0.6493615745 0.7554842707
8250250500.0 0.6602313628 0.7457593881
8300250200.0 0.6705378121 0.7367517393
8350249900.0 0.6798680874 0.7277365003
8400249600.0 0.6895923129 0.7182946556
8450249300.0 0.7000126636 0.7081981413
8500249000.0 0.7100713878 0.6980871291
8550248700.0 0.7209361322 0.6871013069
8600248400.0 0.7310888767 0.676201565
8650248100.0 0.739082061 0.6668792431
8700247800.0 0.7485004411 0.6564442768
8750247500.0 0.7576462369 0.6462039195
8800247200.0 0.7667994145 0.6351745201
8850246900.0 0.7757533107 0.6242235703
8900246600.0 0.7842145238 0.6133467441
8950246300.0 0.7926396454 0.6022461647
9000246000.0 0.7996856351 0.5927790291
9050245700.0 0.8068108671 0.5830722365
9100245400.0 0.8154632684 0.5713961173
9150245100.0 0.8224555288 0.5607357199
9200244800.0 0.8281594805 0.552552704
9250244500.0 0.8351143984 0.5422516158
9300244200.0 0.8406930299 0.5327909866
9350243900.0 0.8474860471 0.5221530682
9400243600.0 0.8547467357 0.5105354121
9450243300.0 0.8597852591 0.5015447022
9500243000.0 0.8667801333 0.4905470342
9550242700.0 0.8740428418 0.4781620496
9600242400.0 0.8814299926 0.464577749
9650242100.0 0.8884757953 0.4514293438
9700241800.0 0.8949481888 0.4381797853
9750241500.0 0.9022957888 0.423341299
9800241200.0 0.9096382862 0.4064922531
9850240900.0 0.9153706404 0.3924560534
9900240600.0 0.9191823893 0.3831126368
9950240300.0 0.9245471364 0.3700959453
10000240000.0 0.9303773759 0.3558953752
10050239700.0 0.934671829 0.3440337011
10100239400.0 0.9387944826 0.3321760357
10150239100.0 0.9426860223 0.3199018176
10200238800.0 0.9473839907 0.3060317564
10250238500.0 0.9516014011 0.2933216676
10300238200.0 0.9555569437 0.2801165571
10350237900.0 0.9591175377 0.2676248007
10400237600.0 0.9629695955 0.254619917
10450237300.0 0.9672613332 0.2401091277
10500237000.0 0.9704981866 0.2266423306
10550236700.0 0.9737572507 0.2133321707
10600236400.0 0.9765009408 0.2000343329
10650236100.0 0.9795008569 0.1839043281
10700235800.0 0.9824351644 0.169737587
10750235500.0 0.9847286452 0.1560712047
10800235200.0 0.9867229302 0.1423178882
10850234900.0 0.9884830379 0.1295093731
10900234600.0 0.9901534259 0.1156247632
10950234300.0 0.9914697286 0.101478091
11000234000.0 0.992485235 0.0877721413
11050233700.0 0.9932327666 0.0754568756
11100233400.0 0.9940078376 0.0614922806
11150233100.0 0.9950352265 0.0485063113
11200232800.0 0.9949856186 0.0362376287
11250232500.0 0.9955204332 0.0235386037
11300232200.0 0.9950827256 0.0111015964
11350231900.0 0.9954012006 -0.0016600382
11400231600.0 0.994614492 -0.0151939126
11450231300.0 0.9943347333 -0.0266563797
11500231000.0 0.9934881931 -0.038118766
11550230700.0 0.9929698114 -0.0518162417
11600230400.0 0.9928290554 -0.0669372392
11650230100.0 0.9913233515 -0.0782331095
11700229800.0 0.9904161146 -0.0932817189
11750229500.0 0.9888877306 -0.1062736811
11800229200.0 0.9875188065 -0.1178081259
11850228900.0 0.9861819491 -0.1322555966
11900228600.0 0.9843850387 -0.1477185964
11950228300.0 0.9824285411 -0.1636185518
12000228000.0 0.9801855623 -0.177768001
12050227700.0 0.9777344224 -0.1921768611
12100227400.0 0.9759303198 -0.2034330874
12150227100.0 0.9716698553 -0.2227587756
12200226800.0 0.9687340202 -0.2351381187
12250226500.0 0.9652227151 -0.2489187849
12300226200.0 0.9625995343 -0.2616587891
12350225900.0 0.9570952698 -0.2786926771
12400225600.0 0.9532121503 -0.2928097088
12450225300.0 0.9492132107 -0.3056820582
12500225000.0 0.9443947922 -0.3203129697
12550224700.0 0.9391199759 -0.3348543302
12600224400.0 0.935021307 -0.3459079075
12650224100.0 0.9298425478 -0.3599548853
12700223800.0 0.9245424073 -0.372914566
12750223500.0 0.9187321491 -0.3865892134
12800223200.0 0.9128083862 -0.4004643928
12850222900.0 0.906815183 -0.4137429574
12900222600.0 0.9008872531 -0.4261520129
12950222300.0 0.8940461178 -0.4400066263
13000222000.0 0.8877390264 -0.452693935
13050221700.0 0.8808241016 -0.4653860526
13100221400.0 0.8745036562 -0.477270815
13150221100.0 0.8678791302 -0.4898186393
13200220800.0 0.8604750745 -0.5020423855
13250220500.0 0.853824991 -0.5144183292
13300220200.0 0.8464086222 -0.5260226566
13350219900.0 0.8383184231 -0.5395123518
13400219600.0 0.8311535203 -0.5506813993
13450219300.0 0.824009054 -0.561441507
13500219000.0 0.8170444418 -0.5712920894
13550218700.0 0.8094057383 -0.5823121986
13600218400.0 0.8015799876 -0.5928877321
13650218100.0 0.7948371427 -0.6020484369
13700217800.0 0.7859148359 -0.6134933047
13750217500.0 0.7781016938 -0.6243710074
13800217200.0 0.7683734218 -0.6356659955
13850216900.0 0.7598484017 -0.6469318987
13900216600.0 0.7519873119 -0.6563587911
13950216300.0 0.741574382 -0.6678238627
14000216000.0 0.7322058119 -0.6788242373
14050215700.0 0.7226267482 -0.6875182529
14100215400.0 0.7113008458 -0.7001330177
14150215100.0 0.6992915689 -0.7118783349
14200214800.0 0.6885706701 -0.7223781062
14250214500.0 0.676817503 -0.7333406098
14300214200.0 0.6646972127 -0.7443077558
14350213900.0 0.6533605758 -0.7541217371
14400213600.0 0.6426061037 -0.7635927836
14450213300.0 0.6321400277 -0.7720562621
14500213000.0 0.621687124 -0.7804705226
14550212700.0 0.6105170341 -0.7888629688
14600212400.0 0.598976239 -0.7974069201
14650212100.0 0.5886824449 -0.8047341438
14700211800.0 0.5768472402 -0.8129519272
14750211500.0 0.5653915325 -0.8211271449
14800211200.0 0.5529125343 -0.8295453794
14850210900.0 0.5413600733 -0.8368239566
14900210600.0 0.5294224611 -0.8445498941
14950210300.0 0.5174961031 -0.8518715371
15000210000.0 0.5054922856 -0.8588612727
15050209700.0 0.4928443805 -0.8665838692
15100209400.0 0.4795529799 -0.8740761667
15150209100.0 0.4686175027 -0.8803266802
15200208800.0 0.454462631 -0.887922991
15250208500.0 0.4415205335 -0.8947425878
15300208200.0 0.4271528065 -0.902056547
15350207900.0 0.4145298785 -0.9086439749
15400207600.0 0.4012270409 -0.9129293835
15450207300.0 0.3882442474 -0.9193801373
15500207000.0 0.3762764883 -0.9241756497
15550206700.0 0.3627780463 -0.9301760745
15600206400.0 0.3499514842 -0.9351081166
15650206100.0 0.336655031 -0.9406312531
15700205800.0 0.3230754423 -0.9451578374
15750205500.0 0.3084304098 -0.9502393791
15800205200.0 0.2944942849 -0.9546946853
15850204900.0 0.2807241006 -0.9587839178
15900204600.0 0.2648335818 -0.963482637
15950204300.0 0.2501956709 -0.967272584
16000204000.0 0.2350159011 -0.9710057763
16050203700.0 0.2202916037 -0.9745045263
16100203400.0 0.2061249779 -0.9772117466
16150203100.0 0.1906979114 -0.98061631
16200202800.0 0.1747823996 -0.9830882749
16250202500.0 0.1600794316 -0.985857844
16300202200.0 0.1454103546 -0.9877656778
16350201900.0 0.1294823191 -0.9893213252
16400201600.0 0.1144262629 -0.9909672092
16450201300.0 0.1004472943 -0.9925409079
16500201000.0 0.0858633185 -0.9939863017
16550200700.0 0.0716682645 -0.9950392411
16600200400.0 0.0568279363 -0.9960496825
16650200100.0 0.0418915621 -0.9968065256
16700199800.0 0.028801316 -0.9971874542
16750199500.0 0.0160419304 -0.9986061029
16800199200.0 0.0036727603 -0.998009177
16850198900.0 -0.0100751366 -0.9979398561
16900198600.0 -0.0243487939 -0.9974802921
16950198300.0 -0.039250417 -0.9972083685
17000198000.0 -0.0540380492 -0.9964628179
17050197700.0 -0.0691101589 -0.9956375496
17100197400.0 -0.0855380693 -0.9946424815
17150197100.0 -0.1021704134 -0.9931491039
17200196800.0 -0.1167570985 -0.9915624817
17250196500.0 -0.1324482879 -0.9891754439
17300196200.0 -0.1482237917 -0.9867920299
17350195900.0 -0.164923594 -0.9839891835
17400195600.0 -0.1807939972 -0.9810499603
17450195300.0 -0.1957787073 -0.9779568459
17500195000.0 -0.2112762752 -0.9748839308
17550194700.0 -0.226235199 -0.9715306892
17600194400.0 -0.2409191421 -0.9680427065
17650194100.0 -0.2564169048 -0.9644534467
17700193800.0 -0.2703555735 -0.9601742288
17750193500.0 -0.2843605057 -0.9559002579
17800193200.0 -0.2984406786 -0.952058203
17850192900.0 -0.3121035287 -0.947503902
17900192600.0 -0.3260452295 -0.9429014068
17950192300.0 -0.3394850122 -0.9375812935
18000192000.0 -0.3538686359 -0.9324690988
18050191700.0 -0.3680063302 -0.9267410709
18100191400.0 -0.3820116687 -0.9213892453
18150191100.0 -0.3948943801 -0.9159456202
18200190800.0 -0.4073247631 -0.9104757201
18250190500.0 -0.4200389214 -0.9047978909
18300190200.0 -0.4327050037 -0.8991824932
18350189900.0 -0.4459041532 -0.8935487232
18400189600.0 -0.4581748491 -0.887444588
18450189300.0 -0.4705291535 -0.881321423
18500189000.0 -0.4822327784 -0.8746010472
18550188700.0 -0.4941323941 -0.8679621476
18600188400.0 -0.5076472326 -0.8599768093
18650188100.0 -0.519756216 -0.8521074019
18700187800.0 -0.5323503047 -0.8437986741
18750187500.0 -0.5446839241 -0.8356707238
18800187200.0 -0.5571336055 -0.8267043889
18850186900.0 -0.5693624444 -0.817606037
18900186600.0 -0.5806278295 -0.8089723655
18950186300.0 -0.5934206974 -0.7993648593
19000186000.0 -0.6059733142 -0.7898796062
19050185700.0 -0.6196475839 -0.7799725003
19100185400.0 -0.6321475367 -0.7701572293
19150185100.0 -0.644109881 -0.7605459388
19200184800.0 -0.6560160106 -0.7501480418
19250184500.0 -0.666898808 -0.7395382486
19300184200.0 -0.6778252007 -0.7293953835
19350183900.0 -0.6901833605 -0.7184720733
19400183600.0 -0.7014717493 -0.7083008412
19450183300.0 -0.713140642 -0.6961208508
19500183000.0 -0.7239627679 -0.6848225752
19550182700.0 -0.735251714 -0.6729598162
19600182400.0 -0.7451532757 -0.6613285669
19650182100.0 -0.7551775162 -0.6492823765
19700181800.0 -0.7646554539 -0.6375120219
19750181500.0 -0.7737166401 -0.6261280495
19800181200.0 -0.7824771068 -0.6142630961
19850180900.0 -0.7913856602 -0.6026430133
19900180600.0 -0.7990307138 -0.5923838782
19950180300.0 -0.8085124858 -0.5803342612
20000180000.0 -0.8211650254 -0.5644698642
20050179700.0 -0.829586553 -0.5537765344
20100179400.0 -0.8380598911 -0.5400302636
20150179100.0 -0.8463783232 -0.5279451235
20200178800.0 -0.8531458201 -0.5158453896
20250178500.0 -0.8606315723 -0.5036958629
20300178200.0 -0.866838152 -0.491142826
20350177900.0 -0.8722432983 -0.4801156725
20400177600.0 -0.8778802159 -0.46835971
20450177300.0 -0.883464943 -0.4564766525
20500177000.0 -0.8885015754 -0.4448190751
20550176700.0 -0.8940543312 -0.4327481321
20600176400.0 -0.8986273507 -0.4204122949
20650176100.0 -0.9034386218 -0.4069229354
20700175800.0 -0.9095867257 -0.3945189589
20750175500.0 -0.9152420721 -0.3805296038
20800175200.0 -0.9194881295 -0.3678940906
20850174900.0 -0.9246673856 -0.3537666275
20900174600.0 -0.9287178645 -0.3393909057
20950174300.0 -0.9336235194 -0.3264973459
21000174000.0 -0.9379003697 -0.311843771
21050173700.0 -0.9416605397 -0.2972046863
21100173400.0 -0.9461069014 -0.2829036218
21150173100.0 -0.9497669037 -0.2680906562
21200172800.0 -0.9531149665 -0.252725987
21250172500.0 -0.9562129367 -0.238334791
21300172200.0 -0.9603002411 -0.2246008998
21350171900.0 -0.9632829802 -0.2099805151
21400171600.0 -0.9675289431 -0.1960569719
21450171300.0 -0.9703879106 -0.1813304277
21500171000.0 -0.9722145377 -0.1661964567
21550170700.0 -0.9761122996 -0.1528266835
21600170400.0 -0.9812677146 -0.1385251201
21650170100.0 -0.9834497585 -0.1247193637
21700169800.0 -0.9862816951 -0.1102008238
21750169500.0 -0.9902747394 -0.0954950004
21800169200.0 -0.9928172812 -0.0807488406
21850168900.0 -0.9953046265 -0.0670622528
21900168600.0 -0.9977918571 -0.054644202
21950168300.0 -1.000088748 -0.0396853048
22000168000.0 -1.001317258 -0.0260204078
22050167700.0 -1.002744779 -0.0110697593
22100167400.0 -1.003049616 0.0046097965
22150167100.0 -1.003105006 0.0192656664
22200166800.0 -1.00211571 0.0327005841
22250166500.0 -1.00054272 0.046456475
22300166200.0 -1.000459385 0.0591947201
22350165900.0 -0.9989518244 0.0719521819
22400165600.0 -0.9982122181 0.0850529869
22450165300.0 -0.9974295216 0.0975790257
22500165000.0 -0.9959068816 0.1110031411
22550164700.0 -0.9948488687 0.1253888769
22600164400.0 -0.9923489346 0.1383172635
22650164100.0 -0.9891054638 0.1491974611
22700163800.0 -0.9873104467 0.1609593834
22750163500.0 -0.9847399571 0.1738653394
22800163200.0 -0.9811257152 0.1860703577
22850162900.0 -0.9781763575 0.1986240528
22900162600.0 -0.9745320224 0.2123270974
22950162300.0 -0.9696368568 0.2259979214
23000162000.0 -0.9645213284 0.2399731628
23050161700.0 -0.9591113062 0.2545118557
23100161400.0 -0.9540329939 0.2682001605
23150161100.0 -0.9490664296 0.2814652555
23200160800.0 -0.9433510856 0.2958652084
23250160500.0 -0.9377861511 0.3108407968
23300160200.0 -0.9322089735 0.3249202436
23350159900.0 -0.9262469468 0.3394639939
23400159600.0 -0.9208293323 0.3524274886
23450159300.0 -0.9154721409 0.3649024939
23500159000.0 -0.9096461114 0.3779352953
23550158700.0 -0.903731573 0.3913983804
23600158400.0 -0.8971422465 0.4036870693
23650158100.0 -0.8908200201 0.4158527858
23700157800.0 -0.8846893441 0.4273834312
23750157500.0 -0.8787137731 0.4395976091
23800157200.0 -0.8732530931 0.4510655766
23850156900.0 -0.8685879794 0.4621199953
23900156600.0 -0.8625260956 0.4738284399
23950156300.0 -0.8567719487 0.4857884053
24000156000.0 -0.8513202471 0.4970066347
24050155700.0 -0.8449127683 0.508119485
24100155400.0 -0.8396691009 0.5185054439
24150155100.0 -0.8336817343 0.5296880685
24200154800.0 -0.8277549056 0.540027624
24250154500.0 -0.8220385042 0.5510321047
24300154200.0 -0.8162113435 0.5618690355
24350153900.0 -0.8101369841 0.5723051814
24400153600.0 -0.8032742133 0.5830636161
24450153300.0 -0.796558591 0.5938633904
24500153000.0 -0.7893114757 0.6040264674
24550152700.0 -0.7823519244 0.6144894567
24600152400.0 -0.7752851733 0.6248175807
24650152100.0 -0.7665971594 0.6352030807
