!Created with skrf (http://scikit-rf.org).
# Hz S RI R 50.0 
!freq ReS11 ImS11
300000.0 -0.9735416602 -0.1218492565
50299700.0 -0.9999689454 0.0148881737
100299400.0 -0.9979552893 0.0280031602
150299100.0 -1.002753351 0.0447581681
200298800.0 -0.9996504554 0.0579980186
250298500.0 -0.9971809061 0.0716085141
300298200.0 -0.9858470633 0.0874972998
350297900.0 -0.9939223949 0.0983425393
400297600.0 -0.9931102752 0.11489618
450297300.0 -0.9909304739 0.1287514765
500297000.0 -0.989209558 0.1433836221
550296700.0 -0.9842284582 0.1559181824
600296400.0 -1.017461583 0.1893104812
650296100.0 -0.9819668716 0.1858268616
700295800.0 -0.9791887389 0.2000414941
750295500.0 -0.9763954931 0.2141512163
800295200.0 -0.97308233 0.2282171435
850294900.0 -0.9696510314 0.2419265096
900294600.0 -0.9658732407 0.2554988862
950294300.0 -0.962176444 0.2693725623
1000294000.0 -0.9583717709 0.2832072764
1050293700.0 -0.9536110857 0.296980334
1100293400.0 -0.949316817 0.311420527
1150293100.0 -0.9454440976 0.3234299768
1200292800.0 -0.9403510238 0.3377620192
1250292500.0 -0.9347160987 0.3512931077
1300292200.0 -0.9289974134 0.3643663736
1350291900.0 -0.9235147348 0.3785005142
1400291600.0 -0.9177520331 0.3916982252
1450291300.0 -0.9125238275 0.4040284285
1500291000.0 -0.9061221446 0.4173567378
1550290700.0 -0.8995756928 0.4307483146
1600290400.0 -0.8933432525 0.4436189883
1650290100.0 -0.8869112133 0.455914553
1700289800.0 -0.8798592603 0.4692879499
1750289500.0 -0.8729257579 0.4815467036
1800289200.0 -0.8655453545 0.4944427148
1850288900.0 -0.8588170042 0.505672179
1900288600.0 -0.8509625047 0.5186442567
1950288300.0 -0.8429578707 0.5314275941
2000288000.0 -0.8354562732 0.5428072912
2050287700.0 -0.8272608148 0.5551596974
2100287400.0 -0.8195509907 0.5666205361
2150287100.0 -0.8109833024 0.5786642907
2200286800.0 -0.8030877204 0.5891209175
2250286500.0 -0.7941570029 0.6015180396
2300286200.0 -0.7852164187 0.6129463206
2350285900.0 -0.7768712704 0.623633944
2400285600.0 -0.7680017372 0.634280121
2450285300.0 -0.7591404322 0.6453343612
2500285000.0 -0.7491006125 0.6567102201
2550284700.0 -0.7401155472 0.6671132862
2600284400.0 -0.7311072868 0.6772367826
2650284100.0 -0.7222630336 0.6873529209
2700283800.0 -0.7120396761 0.6977526247
2750283500.0 -0.7016619377 0.7083498538
2800283200.0 -0.6914891825 0.7181152006
2850282900.0 -0.6810417085 0.7282673019
2900282600.0 -0.6708614893 0.7380551324
2950282300.0 -0.6600485387 0.7472662388
3000282000.0 -0.6496645381 0.7567530829
3050281700.0 -0.6382616928 0.7659340039
3100281400.0 -0.626732159 0.7749381902
3150281100.0 -0.6156296685 0.7841027373
3200280800.0 -0.6040669151 0.7922335886
3250280500.0 -0.5930002529 0.8002606074
3300280200.0 -0.5813414148 0.8084786719
3350279900.0 -0.5692477337 0.8163602814
3400279600.0 -0.5567043871 0.8248255997
3450279300.0 -0.5455703163 0.8316573017
3500279000.0 -0.5337226254 0.8385679612
3550278700.0 -0.521636135 0.8457912384
3600278400.0 -0.5097788473 0.8524806104
3650278100.0 -0.4968629229 0.8600492437
3700277800.0 -0.4846541172 0.8664826926
3750277500.0 -0.4722826087 0.8732213861
3800277200.0 -0.4596440318 0.8795716267
3850276900.0 -0.4475150259 0.8856178954
3900276600.0 -0.4369586802 0.8913246509
3950276300.0 -0.4246643597 0.897304568
4000276000.0 -0.4127368968 0.9032559472
4050275700.0 -0.4004380544 0.9091969118
4100275400.0 -0.3893201013 0.91465686
4150275100.0 -0.376090401 0.9205498548
4200274800.0 -0.3625978952 0.9261533904
4250274500.0 -0.3498863695 0.9315070585
4300274200.0 -0.3367284096 0.9368231019
4350273900.0 -0.3225541794 0.9419975643
4400273600.0 -0.30766998 0.9472421231
4450273300.0 -0.2926351921 0.9521611727
4500273000.0 -0.2795184528 0.9563264154
4550272700.0 -0.2658826504 0.9605487819
4600272400.0 -0.2509055714 0.9646887877
4650272100.0 -0.2395648531 0.9679789814
4700271800.0 -0.2265657395 0.9711971068
4750271500.0 -0.2149620736 0.9740130891
4800271200.0 -0.2028546662 0.9766836533
4850270900.0 -0.1891277743 0.9795062243
4900270600.0 -0.1752413895 0.9819994464
4950270300.0 -0.1606807486 0.9846431352
5000270000.0 -0.1460597625 0.9868862815
5050269700.0 -0.1326434836 0.9882604199
5100269400.0 -0.1185028748 0.9903698948
5150269100.0 -0.1045908658 0.9921975162
5200268800.0 -0.0911740007 0.9928286627
5250268500.0 -0.078131309 0.9938833003
5300268200.0 -0.0645352289 0.9946106316
5350267900.0 -0.0517110702 0.9950884183
5400267600.0 -0.0355274469 0.9962841799
5450267300.0 -0.0222174819 0.9967636492
5500267000.0 -0.0067498625 0.9969982901
5550266700.0 0.008047579 0.9973008845
5600266400.0 0.0236970098 0.9973299116
5650266100.0 0.0406237744 0.9969389218
5700265800.0 0.0545603321 0.9960517465
5750265500.0 0.069865969 0.9954924695
5800265200.0 0.0833214863 0.9942194977
5850264900.0 0.0964562408 0.9931236625
5900264600.0 0.1128686434 0.9911373879
5950264300.0 0.124669704 0.9898227435
6000264000.0 0.1382652826 0.9880648431
6050263700.0 0.1498468071 0.9865294922
6100263400.0 0.162178608 0.9847848831
6150263100.0 0.1765186627 0.9826533553
6200262800.0 0.1862454917 0.9808704193
6250262500.0 0.1988451988 0.9787313545
6300262200.0 0.2112579535 0.9761215805
6350261900.0 0.2239004697 0.9732396656
6400261600.0 0.2376716569 0.9701696805
6450261300.0 0.2487536213 0.967461608
6500261000.0 0.2621544311 0.9640492491
6550260700.0 0.2755202664 0.9602602398
6600260400.0 0.2888381801 0.9560701402
6650260100.0 0.3032548427 0.9517178372
6700259800.0 0.3149709526 0.9472655415
6750259500.0 0.3285635343 0.9423526337
6800259200.0 0.3423216049 0.9372944206
6850258900.0 0.35445112 0.9318042764
6900258600.0 0.3671267146 0.9267043162
6950258300.0 0.3797928783 0.9217186543
7000258000.0 0.3913580257 0.9162060871
7050257700.0 0.4031425893 0.9103838252
7100257400.0 0.4166629279 0.9040700918
7150257100.0 0.4276073487 0.8985764337
7200256800.0 0.4404104547 0.8920031664
7250256500.0 0.4528925744 0.8856156488
7300256200.0 0.4660724653 0.8787212738
7350255900.0 0.4788870414 0.8716808233
7400255600.0 0.493324285 0.8640671671
7450255300.0 0.5081878999 0.8548371709
7500255000.0 0.5209211186 0.8472653643
7550254700.0 0.5354359837 0.8384781971
7600254400.0 0.5480260442 0.8299301536
7650254100.0 0.5593772181 0.8219828855
7700253800.0 0.5710205028 0.8141612315
7750253500.0 0.581784396 0.8063467909
7800253200.0 0.5926241204 0.7985486508
7850252900.0 0.6022397023 0.7911678931
7900252600.0 0.6137872216 0.7825921515
7950252300.0 0.622175179 0.7760725237
8000252000.0 0.6322761101 0.7686297258
8050251700.0 0.6428292297 0.7604811771
8100251400.0 0.6527775987 0.7524917916
8150251100.0 0.6624845331 0.7440385729
8200250800.0 0.6722929048 0.7357560144
8250250500.0 0.6807248621 0.7279606042
8300250200.0 0.6901582939 0.7196748843
8350249900.0 0.6994213069 0.7106148535
8400249600.0 0.7072957884 0.7028898985
8450249300.0 0.7159287381 0.6940010882
8500249000.0 0.7245767795 0.6853313772
8550248700.0 0.7329141282 0.6761927703
8600248400.0 0.7412189924 0.6666532529
8650248100.0 0.7487768868 0.6571313676
8700247800.0 0.7582665116 0.6461803897
8750247500.0 0.7663183852 0.6360229342
8800247200.0 0.7744887219 0.6259210209
8850246900.0 0.7831135097 0.6144691822
8900246600.0 0.7915824275 0.6029746462
8950246300.0 0.800731816 0.5900981983
9000246000.0 0.8090867883 0.5785902141
9050245700.0 0.817620255 0.5662387761
9100245400.0 0.825890014 0.5541801064
9150245100.0 0.8352587485 0.5410769991
9200244800.0 0.8442823199 0.5264997304
9250244500.0 0.8538231332 0.5119830049
9300244200.0 0.8615356956 0.4982190281
9350243900.0 0.8691453601 0.4851202337
9400243600.0 0.8759165511 0.4731839269
9450243300.0 0.8813033732 0.4628479904
9500243000.0 0.8876963357 0.4510862497
9550242700.0 0.8916477157 0.4438057326
9600242400.0 0.8956603791 0.4360621605
9650242100.0 0.8998646298 0.4293858415
9700241800.0 0.9050083438 0.4204946284
9750241500.0 0.909222247 0.4129111397
9800241200.0 0.9139932473 0.4036823333
9850240900.0 0.9200199226 0.3919277949
9900240600.0 0.926024255 0.3798587692
9950240300.0 0.9329482194 0.363127322
10000240000.0 0.9375694565 0.3513344186
10050239700.0 0.9438337207 0.3351690902
10100239400.0 0.9494862942 0.3185886293
10150239100.0 0.9540856079 0.3030187725
10200238800.0 0.9583858472 0.287556322
10250238500.0 0.9615818119 0.2741624548
10300238200.0 0.9647332442 0.260245611
10350237900.0 0.9676203768 0.2468154774
10400237600.0 0.970244948 0.2331805156
10450237300.0 0.9728620513 0.2195706749
10500237000.0 0.9751801289 0.2069917107
10550236700.0 0.977133004 0.1926398741
10600236400.0 0.9794973405 0.1787916719
10650236100.0 0.9815428299 0.1641860273
10700235800.0 0.9837281938 0.1524126262
10750235500.0 0.9857887162 0.1390600165
10800235200.0 0.9877047481 0.124396321
10850234900.0 0.9898434274 0.1093453736
10900234600.0 0.9919442345 0.0947517244
10950234300.0 0.9938607611 0.0809007681
11000234000.0 0.9956545775 0.0654159617
11050233700.0 0.9973450075 0.0485589659
11100233400.0 0.9988641572 0.0308834326
11150233100.0 0.9997414542 0.0142409189
11200232800.0 1.000644222 -0.0015137391
11250232500.0 1.001635894 -0.0195459193
11300232200.0 1.002186202 -0.0382151031
11350231900.0 1.002259958 -0.0543341676
11400231600.0 1.002020329 -0.0699291768
11450231300.0 1.000288633 -0.0847507545
11500231000.0 0.9997807005 -0.1023313438
11550230700.0 0.9983858228 -0.1151304036
11600230400.0 0.9969621723 -0.1279711249
11650230100.0 0.9945588313 -0.1399777671
11700229800.0 0.9928664959 -0.1551195563
11750229500.0 0.9902603299 -0.1687821082
11800229200.0 0.9872690556 -0.1820621698
11850228900.0 0.9837020693 -0.1940462884
11900228600.0 0.9798211702 -0.2035908242
11950228300.0 0.9765046896 -0.2133604263
12000228000.0 0.9734353954 -0.2226742488
12050227700.0 0.9702435466 -0.2343657348
12100227400.0 0.9668864385 -0.245873265
12150227100.0 0.9613848629 -0.2628563368
12200226800.0 0.9576644056 -0.2734811446
12250226500.0 0.9541748807 -0.2859763886
12300226200.0 0.949680317 -0.2981294245
12350225900.0 0.9445928413 -0.3126419443
12400225600.0 0.9407947951 -0.3239642966
12450225300.0 0.9360392504 -0.3369018445
12500225000.0 0.9303324014 -0.3518311591
12550224700.0 0.924677876 -0.3653020048
12600224400.0 0.9197638363 -0.3782969261
12650224100.0 0.9140190044 -0.3925775301
12700223800.0 0.9087945691 -0.4053894617
12750223500.0 0.9031507041 -0.4186896189
12800223200.0 0.8981601349 -0.4311631507
12850222900.0 0.8927577262 -0.4432949537
12900222600.0 0.8867062847 -0.4550419593
12950222300.0 0.8806518659 -0.4679460451
13000222000.0 0.8747561073 -0.4793307562
13050221700.0 0.8680870065 -0.4927237257
13100221400.0 0.8611375938 -0.5047259847
13150221100.0 0.8544530934 -0.5172284012
13200220800.0 0.8477245797 -0.5283507341
13250220500.0 0.8402639536 -0.5404023245
13300220200.0 0.8327686524 -0.5513422297
13350219900.0 0.8245241224 -0.5633733143
13400219600.0 0.8160984059 -0.5751837869
13450219300.0 0.8070457895 -0.5885714194
13500219000.0 0.7968635316 -0.6018217788
13550218700.0 0.7877241002 -0.6136672659
13600218400.0 0.7771418329 -0.6258533049
13650218100.0 0.7680010338 -0.6363431375
13700217800.0 0.75680341 -0.6482936837
13750217500.0 0.7473356006 -0.6590646981
13800217200.0 0.7371647334 -0.6706297638
13850216900.0 0.725508993 -0.6820024212
13900216600.0 0.7151817315 -0.6903620382
13950216300.0 0.7048351524 -0.70110658
14000216000.0 0.6950671339 -0.7100003369
14050215700.0 0.6863777563 -0.7176167562
14100215400.0 0.6763154987 -0.7268254086
14150215100.0 0.6672206885 -0.7352354349
14200214800.0 0.6576338812 -0.7443992824
14250214500.0 0.6471918056 -0.7537846752
14300214200.0 0.6368611479 -0.763081489
14350213900.0 0.6256217357 -0.772785847
14400213600.0 0.6136887718 -0.7824635128
14450213300.0 0.6006549485 -0.7931212192
14500213000.0 0.5879329854 -0.8027789379
14550212700.0 0.5754607475 -0.8120322246
14600212400.0 0.5636429513 -0.8207893538
14650212100.0 0.5507522385 -0.8297504061
14700211800.0 0.5363691404 -0.8390466033
14750211500.0 0.5244622638 -0.8473649725
14800211200.0 0.5121205777 -0.8553953777
14850210900.0 0.4996783091 -0.8633542458
14900210600.0 0.4863049592 -0.8711331429
14950210300.0 0.4730655151 -0.8790307475
15000210000.0 0.4603788092 -0.8856220778
15050209700.0 0.4479799113 -0.8914205427
15100209400.0 0.4351924257 -0.8977521887
15150209100.0 0.4231649587 -0.9028897884
15200208800.0 0.4104369658 -0.9085949084
15250208500.0 0.3993638433 -0.912243467
15300208200.0 0.3873173446 -0.9181175929
15350207900.0 0.3743322315 -0.9228372324
15400207600.0 0.3585295439 -0.9280476767
15450207300.0 0.3436824175 -0.9327494724
15500207000.0 0.32958192 -0.9370662119
15550206700.0 0.3159826073 -0.9419892969
15600206400.0 0.2993148598 -0.946494045
15650206100.0 0.2832752364 -0.9511731794
15700205800.0 0.2697440205 -0.9544390249
15750205500.0 0.2559703789 -0.9579413222
15800205200.0 0.2419506934 -0.9612869474
15850204900.0 0.2278178511 -0.9647454003
15900204600.0 0.2127277476 -0.9685345134
15950204300.0 0.1981016212 -0.9715640879
16000204000.0 0.1840768525 -0.9741809732
16050203700.0 0.1688129422 -0.9772862006
16100203400.0 0.1541597787 -0.9795256555
16150203100.0 0.1392713769 -0.9819029966
16200202800.0 0.1253135896 -0.9848620949
16250202500.0 0.1095560512 -0.985458704
16300202200.0 0.0945397521 -0.9876837621
16350201900.0 0.0797855966 -0.9892434045
16400201600.0 0.0651551777 -0.9901215957
16450201300.0 0.0496173613 -0.991155022
16500201000.0 0.0323085066 -0.991860156
16550200700.0 0.0162838775 -0.9924756217
16600200400.0 0.0005369667 -0.9927215211
16650200100.0 -0.015794828 -0.9927412469
16700199800.0 -0.0322420096 -0.9923464517
16750199500.0 -0.0514350563 -0.9911777671
16800199200.0 -0.0674448877 -0.9909001513
16850198900.0 -0.083092151 -0.98922187
16900198600.0 -0.0968694698 -0.9885930194
16950198300.0 -0.1104752966 -0.9872143558
17000198000.0 -0.1240603852 -0.9860139775
17050197700.0 -0.1369538416 -0.9836946187
17100197400.0 -0.1490784651 -0.9820619317
17150197100.0 -0.1615621536 -0.9796682057
17200196800.0 -0.1749464478 -0.9776438841
17250196500.0 -0.1875529472 -0.9752597492
17300196200.0 -0.1997499712 -0.9730183116
17350195900.0 -0.2116738234 -0.9707234443
17400195600.0 -0.2235897236 -0.9681545011
17450195300.0 -0.2363502071 -0.9653499147
17500195000.0 -0.2497156818 -0.9617297109
17550194700.0 -0.2632002573 -0.9584400906
17600194400.0 -0.2774739478 -0.9543113367
17650194100.0 -0.2908990169 -0.9504705916
17700193800.0 -0.303676123 -0.9463241758
17750193500.0 -0.3181469649 -0.9413405003
17800193200.0 -0.3319320255 -0.9362331169
17850192900.0 -0.3472234543 -0.931444507
17900192600.0 -0.3621772499 -0.9247909699
17950192300.0 -0.3776331403 -0.9175543454
18000192000.0 -0.3923574207 -0.9105861791
18050191700.0 -0.4062485199 -0.9026370803
18100191400.0 -0.4202973988 -0.8949422844
18150191100.0 -0.4351108434 -0.8869155927
18200190800.0 -0.4519904425 -0.8778772177
18250190500.0 -0.4690323654 -0.8682126755
18300190200.0 -0.4844673858 -0.8595494174
18350189900.0 -0.4996767358 -0.8511911631
18400189600.0 -0.5142444479 -0.8426995826
18450189300.0 -0.5273246116 -0.8346665538
18500189000.0 -0.5411126916 -0.8267657475
18550188700.0 -0.5538440255 -0.8189526457
18600188400.0 -0.5652953401 -0.811781453
18650188100.0 -0.5770242369 -0.8052778541
18700187800.0 -0.5882772254 -0.7986525439
18750187500.0 -0.599326912 -0.7918474371
18800187200.0 -0.609808387 -0.7848964158
18850186900.0 -0.6198396313 -0.7779558081
18900186600.0 -0.6301344623 -0.7706066887
18950186300.0 -0.6403570496 -0.7631810982
19000186000.0 -0.647776543 -0.7565117414
19050185700.0 -0.6569499405 -0.7498249101
19100185400.0 -0.6669768675 -0.7415147209
19150185100.0 -0.6774655596 -0.7328680746
19200184800.0 -0.6868027222 -0.7250979833
19250184500.0 -0.6968596909 -0.7164941862
19300184200.0 -0.7079174857 -0.7062110003
19350183900.0 -0.7195438664 -0.6957054363
19400183600.0 -0.7286213877 -0.6870735166
19450183300.0 -0.7375405957 -0.6762243319
19500183000.0 -0.7465044081 -0.6664437305
19550182700.0 -0.7556098198 -0.6556369496
19600182400.0 -0.7655059303 -0.6440977123
19650182100.0 -0.7765466547 -0.6313557278
19700181800.0 -0.7866624457 -0.6182831582
19750181500.0 -0.7971152197 -0.6043599567
19800181200.0 -0.8072006598 -0.5894204411
19850180900.0 -0.8168022271 -0.5739903406
19900180600.0 -0.8243757361 -0.5595592281
19950180300.0 -0.8335491861 -0.5431926054
20000180000.0 -0.823611692 -0.5476839451
20050179700.0 -0.8313774923 -0.5348845324
20100179400.0 -0.8401802752 -0.521535337
20150179100.0 -0.8484164866 -0.5091686491
20200178800.0 -0.8572842378 -0.4975002791
20250178500.0 -0.8659904408 -0.4851110814
20300178200.0 -0.8750119553 -0.4714143975
20350177900.0 -0.8848019701 -0.4578817828
20400177600.0 -0.8936322037 -0.4431491929
20450177300.0 -0.9019781313 -0.4289992273
20500177000.0 -0.9100195582 -0.4152016645
20550176700.0 -0.9180831399 -0.4013219878
20600176400.0 -0.924490242 -0.3887835278
20650176100.0 -0.9317579451 -0.376825828
20700175800.0 -0.9377612425 -0.3647569785
20750175500.0 -0.9450926912 -0.3530887491
20800175200.0 -0.9485325848 -0.3421548292
20850174900.0 -0.9538915991 -0.3314168956
20900174600.0 -0.9580025415 -0.320358492
20950174300.0 -0.961985671 -0.3089072357
21000174000.0 -0.9640284538 -0.2991896296
21050173700.0 -0.9659326936 -0.2887834417
21100173400.0 -0.9698699639 -0.2783719001
21150173100.0 -0.9732913763 -0.2663550307
21200172800.0 -0.9774273533 -0.2530237019
21250172500.0 -0.9811363209 -0.2396935076
21300172200.0 -0.984582949 -0.2254043997
21350171900.0 -0.9861135837 -0.2110774525
21400171600.0 -0.9879861356 -0.1971950768
21450171300.0 -0.989195791 -0.183530722
21500171000.0 -0.9891481179 -0.1674970077
21550170700.0 -0.9899715931 -0.1530870069
21600170400.0 -0.9901491991 -0.1371686129
21650170100.0 -0.9912997293 -0.1222492661
21700169800.0 -0.9905417473 -0.1061097844
21750169500.0 -0.9916932784 -0.0909293723
21800169200.0 -0.9908647983 -0.0736637694
21850168900.0 -0.9893681672 -0.0572277596
21900168600.0 -0.9893660338 -0.040849303
21950168300.0 -0.9889227669 -0.0258129125
22000168000.0 -0.9892659854 -0.010056844
22050167700.0 -0.989519115 0.0045331922
22100167400.0 -0.9902074262 0.0203962271
22150167100.0 -0.9912648667 0.0361093386
22200166800.0 -0.9913465254 0.0531757341
22250166500.0 -0.9904800677 0.0696805295
22300166200.0 -0.9898529235 0.086986417
22350165900.0 -0.9897769021 0.1030725452
22400165600.0 -0.9876371837 0.1179881082
22450165300.0 -0.9860526319 0.1330031541
22500165000.0 -0.9841418343 0.1479371843
22550164700.0 -0.9821612843 0.1642150494
22600164400.0 -0.980694509 0.1809277623
22650164100.0 -0.9775246551 0.1955554434
22700163800.0 -0.9749397593 0.2125253911
22750163500.0 -0.9721260797 0.2271792857
22800163200.0 -0.9688517467 0.2399272814
22850162900.0 -0.9664582062 0.2531594821
22900162600.0 -0.9644941551 0.2672700198
22950162300.0 -0.9626141342 0.2805595532
23000162000.0 -0.9605639334 0.2933372047
23050161700.0 -0.9576367412 0.3072165665
23100161400.0 -0.9556195695 0.3201129589
23150161100.0 -0.9523302634 0.3332261709
23200160800.0 -0.9495835144 0.3461983956
23250160500.0 -0.9469687944 0.3584792052
23300160200.0 -0.9445145547 0.3711818456
23350159900.0 -0.9402861868 0.384449107
23400159600.0 -0.9344765468 0.3981957976
23450159300.0 -0.9300995959 0.4119856364
23500159000.0 -0.9254516711 0.425995635
23550158700.0 -0.9201472447 0.4400663452
23600158400.0 -0.9142675883 0.4538629195
23650158100.0 -0.9069062683 0.468651192
23700157800.0 -0.8984146612 0.4828651738
23750157500.0 -0.8891192856 0.496930286
23800157200.0 -0.8793171357 0.5106334429
23850156900.0 -0.8692887729 0.5234735983
23900156600.0 -0.8597435631 0.535422492
23950156300.0 -0.8499908275 0.5484431735
24000156000.0 -0.8413731636 0.5615754554
24050155700.0 -0.8299843815 0.5734921587
24100155400.0 -0.8198064864 0.5862627198
24150155100.0 -0.8086937836 0.5979957118
24200154800.0 -0.7981824968 0.6088765883
24250154500.0 -0.7861520376 0.6218267766
24300154200.0 -0.7749105803 0.6340132026
24350153900.0 -0.7630902925 0.644778102
24400153600.0 -0.7504844179 0.6554924054
24450153300.0 -0.7384737584 0.6656354425
24500153000.0 -0.7266285776 0.6757703696
24550152700.0 -0.7157379445 0.6860932779
24600152400.0 -0.7035458598 0.6957337413
