!Created with skrf (http://scikit-rf.org).
# Hz S RI R 50.0 
!freq ReS11 ImS11
300000.0 -0.9769346677 -0.117205465
50299700.0 -1.000129337 0.0155281044
100299400.0 -0.9978539946 0.0286934953
150299100.0 -1.002800731 0.0453917751
200298800.0 -0.9997243484 0.0586928311
250298500.0 -0.9973710461 0.0722019458
300298200.0 -0.9860792346 0.0880860452
350297900.0 -0.9941264513 0.0989292735
400297600.0 -0.9931158593 0.1155350011
450297300.0 -0.9912184027 0.1292470926
500297000.0 -0.9895094281 0.1440294573
550296700.0 -0.9842789106 0.1564197212
600296400.0 -1.017504063 0.189812732
650296100.0 -0.9821921355 0.1865363408
700295800.0 -0.979317917 0.2007293198
750295500.0 -0.9762857337 0.2146985977
800295200.0 -0.9729960736 0.2287727906
850294900.0 -0.9696262632 0.2427035929
900294600.0 -0.9656216571 0.2564852969
950294300.0 -0.9621559173 0.2701942238
1000294000.0 -0.9579863955 0.2840804183
1050293700.0 -0.9534981671 0.2979737559
1100293400.0 -0.9492179481 0.3123649075
1150293100.0 -0.9455056543 0.3242178348
1200292800.0 -0.940213622 0.338567711
1250292500.0 -0.9345265363 0.3518842303
1300292200.0 -0.928749992 0.3651382672
1350291900.0 -0.9233878923 0.3792734711
1400291600.0 -0.9179481577 0.3923029356
1450291300.0 -0.912198993 0.404669357
1500291000.0 -0.9060174355 0.4181959683
1550290700.0 -0.8995376618 0.4313995494
1600290400.0 -0.8933902551 0.4444019585
1650290100.0 -0.886526528 0.4564533435
1700289800.0 -0.8797883582 0.4698646757
1750289500.0 -0.8725462972 0.4822274424
1800289200.0 -0.8653548606 0.4949967445
1850288900.0 -0.8586570373 0.5065017553
1900288600.0 -0.8508585154 0.5194751319
1950288300.0 -0.8426947151 0.5320590681
2000288000.0 -0.8351987323 0.5432305919
2050287700.0 -0.8269340485 0.5556375083
2100287400.0 -0.8189268686 0.5674081588
2150287100.0 -0.810390724 0.5793822814
2200286800.0 -0.8027104798 0.5898163604
2250286500.0 -0.7938419696 0.6018942266
2300286200.0 -0.7850078648 0.6134147803
2350285900.0 -0.77610662 0.6245507703
2400285600.0 -0.7672773608 0.6353705813
2450285300.0 -0.7587391543 0.6457104233
2500285000.0 -0.7488770659 0.6572740451
2550284700.0 -0.7401785851 0.6674461207
2600284400.0 -0.7307176876 0.6773339463
2650284100.0 -0.7216442205 0.6881381065
2700283800.0 -0.710963829 0.6986556673
2750283500.0 -0.7008249406 0.7090794002
2800283200.0 -0.6910427379 0.71901475
2850282900.0 -0.6806766069 0.7288060473
2900282600.0 -0.6704479037 0.7383539803
2950282300.0 -0.6600240013 0.7477504872
3000282000.0 -0.6495614088 0.7570685444
3050281700.0 -0.638199521 0.7663701367
3100281400.0 -0.6261928277 0.7756854822
3150281100.0 -0.6144615514 0.7850531772
3200280800.0 -0.6029116004 0.7936637747
3250280500.0 -0.59219981 0.8012090415
3300280200.0 -0.5808070374 0.809225421
3350279900.0 -0.569364012 0.8166128627
3400279600.0 -0.5575008615 0.8243844568
3450279300.0 -0.5459613387 0.8313963973
3500279000.0 -0.5339581953 0.8385643594
3550278700.0 -0.5216461427 0.8459596555
3600278400.0 -0.5093556949 0.8529286733
3650278100.0 -0.4961734498 0.8607954578
3700277800.0 -0.4839698284 0.8671185428
3750277500.0 -0.4718575404 0.8734593824
3800277200.0 -0.4594742307 0.8800410865
3850276900.0 -0.4469906191 0.8861052433
3900276600.0 -0.4364485192 0.8916119781
3950276300.0 -0.4239685383 0.897765555
4000276000.0 -0.411853489 0.9036982731
4050275700.0 -0.3991088461 0.9099021202
4100275400.0 -0.3876019906 0.9150745252
4150275100.0 -0.3751379772 0.9210069716
4200274800.0 -0.362138753 0.9263308338
4250274500.0 -0.3501265919 0.9315494432
4300274200.0 -0.3369451059 0.9370177964
4350273900.0 -0.3231235798 0.9422399595
4400273600.0 -0.3083785016 0.9472269854
4450273300.0 -0.2927748184 0.952317828
4500273000.0 -0.2792461034 0.9567155822
4550272700.0 -0.2650525228 0.9611864183
4600272400.0 -0.2495608476 0.9652109583
4650272100.0 -0.2378966033 0.9684334467
4700271800.0 -0.2245886641 0.9717499609
4750271500.0 -0.2130090877 0.9747079742
4800271200.0 -0.2004422115 0.9773790343
4850270900.0 -0.1864771856 0.9802751504
4900270600.0 -0.1726319763 0.9826822451
4950270300.0 -0.1584862328 0.9852016434
5000270000.0 -0.144053742 0.987083127
5050269700.0 -0.130711428 0.9889866372
5100269400.0 -0.1169130548 0.9901793985
5150269100.0 -0.1038134005 0.9919833327
5200268800.0 -0.0902951795 0.9930756617
5250268500.0 -0.0772045847 0.9942111655
5300268200.0 -0.0644040838 0.994290258
5350267900.0 -0.0521190611 0.9949087344
5400267600.0 -0.0358525414 0.9963827403
5450267300.0 -0.0226741469 0.9967690042
5500267000.0 -0.0072996107 0.9972461704
5550266700.0 0.0075432202 0.9974959161
5600266400.0 0.0229976099 0.9974013498
5650266100.0 0.0396417701 0.9970329535
5700265800.0 0.0540399833 0.9964510402
5750265500.0 0.0690412023 0.9953798757
5800265200.0 0.0834334125 0.9940918549
5850264900.0 0.0965404641 0.9934880812
5900264600.0 0.1130019778 0.9912563522
5950264300.0 0.1253990863 0.9901394049
6000264000.0 0.1390261333 0.9880272285
6050263700.0 0.1513941176 0.9865381771
6100263400.0 0.1637198565 0.9849522757
6150263100.0 0.1785628663 0.9827275948
6200262800.0 0.188767516 0.980528837
6250262500.0 0.2017062239 0.9783203668
6300262200.0 0.2145702588 0.9756173463
6350261900.0 0.2276452628 0.9727582374
6400261600.0 0.2414133508 0.9693152287
6450261300.0 0.2526991706 0.9665567999
6500261000.0 0.2653961966 0.9630156559
6550260700.0 0.2785881136 0.9590569035
6600260400.0 0.2917598339 0.9552422065
6650260100.0 0.3057803412 0.9507809112
6700259800.0 0.3177561163 0.9465394601
6750259500.0 0.3315132315 0.9415605787
6800259200.0 0.3447661243 0.9365215106
6850258900.0 0.3562504488 0.9311982868
6900258600.0 0.3689069116 0.926437634
6950258300.0 0.381285361 0.9212818691
7000258000.0 0.3934267262 0.9155496464
7050257700.0 0.4056277422 0.9096337836
7100257400.0 0.4183628564 0.9032558506
7150257100.0 0.4288503542 0.8980909661
7200256800.0 0.4413654588 0.8914994238
7250256500.0 0.4532296148 0.8848657992
7300256200.0 0.4662809911 0.8784096589
7350255900.0 0.4793367387 0.8719725133
7400255600.0 0.4924054117 0.8644379673
7450255300.0 0.5074566106 0.8554368789
7500255000.0 0.5192573347 0.8482905715
7550254700.0 0.5329117316 0.839671637
7600254400.0 0.545660117 0.8314037595
7650254100.0 0.557229884 0.8235397854
7700253800.0 0.569321672 0.8155159069
7750253500.0 0.580158824 0.8077856554
7800253200.0 0.5906888294 0.8002447701
7850252900.0 0.6006681301 0.7929855112
7900252600.0 0.6122085052 0.7843213563
7950252300.0 0.6211726454 0.7777456017
8000252000.0 0.6312273775 0.7700085258
8050251700.0 0.6414777695 0.761915393
8100251400.0 0.6517608527 0.75370072
8150251100.0 0.6618716448 0.7450384443
8200250800.0 0.6713365326 0.7371274514
8250250500.0 0.679768554 0.7291270967
8300250200.0 0.6893696355 0.7203990321
8350249900.0 0.6985059929 0.7117878323
8400249600.0 0.7068345178 0.7038273509
8450249300.0 0.7159718301 0.6945850288
8500249000.0 0.7244933863 0.6858003751
8550248700.0 0.7327006908 0.6767382827
8600248400.0 0.7410894572 0.6673082373
8650248100.0 0.7489540329 0.6577386543
8700247800.0 0.7584947514 0.6466205766
8750247500.0 0.7667395248 0.6364138397
8800247200.0 0.7748298219 0.6260889522
8850246900.0 0.7838260351 0.6146571335
8900246600.0 0.7920303492 0.6032205761
8950246300.0 0.8017498481 0.5903035704
9000246000.0 0.8112554221 0.5775521371
9050245700.0 0.8200435661 0.5645768331
9100245400.0 0.8290956437 0.5519246756
9150245100.0 0.8384398064 0.538323471
9200244800.0 0.8479552685 0.5229239073
9250244500.0 0.8573417926 0.507455941
9300244200.0 0.8659050305 0.4928442957
9350243900.0 0.8736975728 0.4787402536
9400243600.0 0.8803936319 0.4665012417
9450243300.0 0.8860786101 0.4547522469
9500243000.0 0.8924646194 0.4424407885
9550242700.0 0.8960324364 0.4350126654
9600242400.0 0.8999740172 0.4276755637
9650242100.0 0.9034611742 0.421476578
9700241800.0 0.9081057776 0.4132531204
9750241500.0 0.9121922117 0.4058012219
9800241200.0 0.9166171118 0.3966215735
9850240900.0 0.9223111286 0.3851348059
9900240600.0 0.9278466462 0.3735084597
9950240300.0 0.9346282966 0.3570770488
10000240000.0 0.9390191105 0.3458687725
10050239700.0 0.9450659259 0.3300445465
10100239400.0 0.9501856602 0.3146974181
10150239100.0 0.9543516131 0.2999619163
10200238800.0 0.9582988879 0.2851994054
10250238500.0 0.961600507 0.2716780415
10300238200.0 0.9648750678 0.257882305
10350237900.0 0.9674215586 0.2448218041
10400237600.0 0.9697829251 0.2316358027
10450237300.0 0.9726261828 0.2178555407
10500237000.0 0.9750399148 0.2053963852
10550236700.0 0.9772800452 0.1915171355
10600236400.0 0.9796860297 0.1780836647
10650236100.0 0.9813386634 0.1631080445
10700235800.0 0.9837122027 0.1512262157
10750235500.0 0.985766818 0.1376805372
10800235200.0 0.9875169652 0.1237489483
10850234900.0 0.9894593823 0.1092079648
10900234600.0 0.9916292491 0.0943088437
10950234300.0 0.9935681066 0.0811832318
11000234000.0 0.9952031984 0.0661304315
11050233700.0 0.9971001119 0.0497225653
11100233400.0 0.998372919 0.032206267
11150233100.0 0.9992615798 0.0160499984
11200232800.0 0.9998836422 0.0014275851
11250232500.0 1.001085246 -0.0162021818
11300232200.0 1.001776844 -0.0336678565
11350231900.0 1.001788001 -0.0493487973
11400231600.0 1.000992827 -0.0654745544
11450231300.0 1.001370887 -0.0803150261
11500231000.0 1.000066521 -0.09761384
11550230700.0 0.9988367665 -0.1107392354
11600230400.0 0.9972454964 -0.1228924536
11650230100.0 0.9951746134 -0.1342821702
11700229800.0 0.9933944437 -0.1487958663
11750229500.0 0.9907238512 -0.1634865272
11800229200.0 0.9881424597 -0.1775403516
11850228900.0 0.9844730441 -0.1894696436
11900228600.0 0.9805886722 -0.1990959926
11950228300.0 0.9775515551 -0.2092905468
12000228000.0 0.9748742297 -0.2182582633
12050227700.0 0.9710375307 -0.2316226154
12100227400.0 0.9681968803 -0.2420738739
12150227100.0 0.9634952929 -0.2586291102
12200226800.0 0.9596176778 -0.2695581257
12250226500.0 0.9558803454 -0.2820736115
12300226200.0 0.951431331 -0.294785227
12350225900.0 0.9460950536 -0.308811835
12400225600.0 0.9420526593 -0.3211589212
12450225300.0 0.9380584992 -0.3344908456
12500225000.0 0.9320668987 -0.3487498134
12550224700.0 0.92691039 -0.3630922949
12600224400.0 0.9218057185 -0.3756901274
12650224100.0 0.916027765 -0.3900854329
12700223800.0 0.9107516221 -0.4027759449
12750223500.0 0.9052833891 -0.4157411863
12800223200.0 0.9001521394 -0.4283479236
12850222900.0 0.8945799814 -0.4406965062
12900222600.0 0.8887529354 -0.4528965219
12950222300.0 0.8826083364 -0.4656874334
13000222000.0 0.8769488366 -0.477398936
13050221700.0 0.8697923854 -0.4899468063
13100221400.0 0.8630818614 -0.5014118333
13150221100.0 0.856465353 -0.5138597299
13200220800.0 0.8493096873 -0.5253764468
13250220500.0 0.8422729986 -0.5374644283
13300220200.0 0.8346474766 -0.5485434741
13350219900.0 0.8267279436 -0.5605085457
13400219600.0 0.8182679892 -0.5724167628
13450219300.0 0.8085177315 -0.5861346988
13500219000.0 0.7985049709 -0.59984742
13550218700.0 0.7885279999 -0.6125556615
13600218400.0 0.7783480282 -0.6251639243
13650218100.0 0.7690812488 -0.6357184131
13700217800.0 0.7570329898 -0.649181156
13750217500.0 0.7470905799 -0.659572643
13800217200.0 0.7360153317 -0.6715907547
13850216900.0 0.7252616595 -0.6829033683
13900216600.0 0.7153125425 -0.69143667
13950216300.0 0.7043909299 -0.7018777917
14000216000.0 0.6942630078 -0.7122502606
14050215700.0 0.6848436252 -0.7194198173
14100215400.0 0.6748433021 -0.7289606573
14150215100.0 0.6659013789 -0.7369519637
14200214800.0 0.6563564305 -0.745821395
14250214500.0 0.6461527968 -0.7551563102
14300214200.0 0.6357114633 -0.7645177788
14350213900.0 0.6247419415 -0.7739230419
14400213600.0 0.6129810342 -0.7835724494
14450213300.0 0.5994551166 -0.7941273081
14500213000.0 0.5870594042 -0.8038811379
14550212700.0 0.5736619689 -0.8134757867
14600212400.0 0.5616281679 -0.8222674077
14650212100.0 0.5485346653 -0.8311163331
14700211800.0 0.5348816749 -0.8399821424
14750211500.0 0.5227211529 -0.8485254313
14800211200.0 0.5101148619 -0.8566722108
14850210900.0 0.4983956737 -0.8639853287
14900210600.0 0.4850185503 -0.8718577891
14950210300.0 0.4715088611 -0.8795446965
15000210000.0 0.4587422844 -0.8861317728
15050209700.0 0.4462959032 -0.8922675284
15100209400.0 0.4336944656 -0.8984154954
15150209100.0 0.4212027019 -0.9036616371
15200208800.0 0.4083349396 -0.9086825272
15250208500.0 0.3972533388 -0.9134800726
15300208200.0 0.3859393855 -0.9183087826
15350207900.0 0.3715565931 -0.9229982599
15400207600.0 0.3573457071 -0.928655312
15450207300.0 0.3422844493 -0.9329824884
15500207000.0 0.3276339714 -0.9378716993
15550206700.0 0.3121997407 -0.9437609382
15600206400.0 0.2975002846 -0.9474130189
15650206100.0 0.281103822 -0.9520363094
15700205800.0 0.2674002423 -0.955573155
15750205500.0 0.2527000391 -0.958997502
15800205200.0 0.2384538473 -0.9625548577
15850204900.0 0.2238389528 -0.9659864229
15900204600.0 0.2088350042 -0.9693600724
15950204300.0 0.1947360918 -0.9725040502
16000204000.0 0.1805983052 -0.9754401573
16050203700.0 0.1657276018 -0.9783902088
16100203400.0 0.1515901667 -0.9803298134
16150203100.0 0.1368905899 -0.982449304
16200202800.0 0.1227351014 -0.9842290775
16250202500.0 0.108580054 -0.9863740288
16300202200.0 0.0931801698 -0.9879407591
16350201900.0 0.0780144964 -0.9893570102
16400201600.0 0.0632474088 -0.9902094057
16450201300.0 0.0481578272 -0.9913592975
16500201000.0 0.0315652456 -0.9921052358
16550200700.0 0.0156857387 -0.9925030024
16600200400.0 5.1415e-05 -0.9925661137
16650200100.0 -0.0161073949 -0.9922813856
16700199800.0 -0.0329776832 -0.9921000972
16750199500.0 -0.0512485438 -0.9914646472
16800199200.0 -0.0667628515 -0.9906986499
16850198900.0 -0.0824939721 -0.9894461593
16900198600.0 -0.0962793131 -0.9887708704
16950198300.0 -0.109522331 -0.9875094093
17000198000.0 -0.122381389 -0.9855650752
17050197700.0 -0.134809567 -0.9837379009
17100197400.0 -0.14833379 -0.9821638517
17150197100.0 -0.1606084072 -0.979918649
17200196800.0 -0.1735327175 -0.977973264
17250196500.0 -0.1861293448 -0.975664981
17300196200.0 -0.1981666027 -0.9732542821
17350195900.0 -0.2102268372 -0.9708427631
17400195600.0 -0.2223424761 -0.9685374482
17450195300.0 -0.2354057497 -0.9657085933
17500195000.0 -0.2488611471 -0.9625713014
17550194700.0 -0.2627573407 -0.9585816556
17600194400.0 -0.276784938 -0.9546563541
17650194100.0 -0.2900341218 -0.9508457596
17700193800.0 -0.30297248 -0.9463246705
17750193500.0 -0.317652825 -0.9414762623
17800193200.0 -0.3321169019 -0.9364734335
17850192900.0 -0.3474003241 -0.931212887
17900192600.0 -0.3626471594 -0.9251359939
17950192300.0 -0.3780227782 -0.9179022393
18000192000.0 -0.3927504326 -0.9107228534
18050191700.0 -0.4065332371 -0.9027483616
18100191400.0 -0.4207383232 -0.8950697662
18150191100.0 -0.4357305513 -0.8869702109
18200190800.0 -0.4526267513 -0.8776715425
18250190500.0 -0.4697877968 -0.8682970016
18300190200.0 -0.4854432882 -0.8595856904
18350189900.0 -0.5003132188 -0.8511577494
18400189600.0 -0.5147031872 -0.8423795914
18450189300.0 -0.5277352861 -0.8345566983
18500189000.0 -0.5409876962 -0.8269081285
18550188700.0 -0.5539960883 -0.8191793051
18600188400.0 -0.5657278774 -0.812515091
18650188100.0 -0.5770649009 -0.8060559762
18700187800.0 -0.5875315466 -0.7992757616
18750187500.0 -0.5982038291 -0.7929057422
18800187200.0 -0.6086731298 -0.7860405574
18850186900.0 -0.6190661653 -0.7787979764
18900186600.0 -0.6292886978 -0.7715018971
18950186300.0 -0.6394497748 -0.7640392439
19000186000.0 -0.6464545801 -0.7578721758
19050185700.0 -0.6555152529 -0.7504644155
19100185400.0 -0.6657090716 -0.7418235679
19150185100.0 -0.6757687154 -0.7338293173
19200184800.0 -0.6852547559 -0.7253014479
19250184500.0 -0.6957260278 -0.7161795792
19300184200.0 -0.7070126197 -0.70631751
19350183900.0 -0.7181432728 -0.6969057225
19400183600.0 -0.7274087476 -0.6869460856
19450183300.0 -0.7360667437 -0.6771875441
19500183000.0 -0.7446148241 -0.6670566258
19550182700.0 -0.7541991765 -0.6560051064
19600182400.0 -0.7644994504 -0.6447226205
19650182100.0 -0.7756548459 -0.6318690615
19700181800.0 -0.7861547634 -0.6190109626
19750181500.0 -0.7965099604 -0.6044816051
19800181200.0 -0.8069651616 -0.5895296162
19850180900.0 -0.8165516927 -0.574181496
19900180600.0 -0.8245246137 -0.5598619794
19950180300.0 -0.8336302653 -0.5435857863
20000180000.0 -0.8261935437 -0.5455610365
20050179700.0 -0.8341627969 -0.5327558725
20100179400.0 -0.8437187067 -0.5192588727
20150179100.0 -0.8511666957 -0.5070661034
20200178800.0 -0.8596461832 -0.494113036
20250178500.0 -0.8704164766 -0.4806304261
20300178200.0 -0.8793978489 -0.4658917044
20350177900.0 -0.8878338116 -0.4511788329
20400177600.0 -0.8966137322 -0.4367323864
20450177300.0 -0.9051933335 -0.4224956424
20500177000.0 -0.9131837004 -0.4083821608
20550176700.0 -0.9215219437 -0.3948925023
20600176400.0 -0.9284193913 -0.3820771111
20650176100.0 -0.9345790361 -0.369147844
20700175800.0 -0.9417327644 -0.3570568522
20750175500.0 -0.9483062232 -0.3459557991
20800175200.0 -0.9528471936 -0.3347311346
20850174900.0 -0.9577654204 -0.3233491154
20900174600.0 -0.9621917806 -0.3122935797
20950174300.0 -0.965802305 -0.3007916924
21000174000.0 -0.9704560821 -0.2897587407
21050173700.0 -0.9722508424 -0.2782528799
21100173400.0 -0.9759354841 -0.2662198994
21150173100.0 -0.9807938712 -0.2544270364
21200172800.0 -0.9845810073 -0.2406833163
21250172500.0 -0.9869377079 -0.2270149476
21300172200.0 -0.9898737647 -0.2128165209
21350171900.0 -0.9917098056 -0.1984752784
21400171600.0 -0.9930840753 -0.1842309269
21450171300.0 -0.9937530754 -0.1701148307
21500171000.0 -0.9927925805 -0.1532435177
21550170700.0 -0.9932435517 -0.1390552865
21600170400.0 -0.9927942227 -0.1218704561
21650170100.0 -0.9917709883 -0.1061317975
21700169800.0 -0.9899787407 -0.0918658695
21750169500.0 -0.98925404 -0.075814106
21800169200.0 -0.988783249 -0.0593789692
21850168900.0 -0.9868918413 -0.0423392797
21900168600.0 -0.9862378412 -0.0263603711
21950168300.0 -0.984383001 -0.0106284742
22000168000.0 -0.9830237531 0.004000548
22050167700.0 -0.9829137403 0.018646347
22100167400.0 -0.9829921195 0.0336893015
22150167100.0 -0.9834379829 0.0492354498
22200166800.0 -0.9844379744 0.0655110015
22250166500.0 -0.9833710006 0.0830252803
22300166200.0 -0.9827453829 0.0995924349
22350165900.0 -0.981615797 0.115790306
22400165600.0 -0.9790731883 0.1321326362
22450165300.0 -0.9789416243 0.1464451046
22500165000.0 -0.9764863184 0.1610891171
22550164700.0 -0.9743119797 0.17534017
22600164400.0 -0.9730793967 0.1913418495
22650164100.0 -0.9709486313 0.2057511959
22700163800.0 -0.9691647554 0.2218373173
22750163500.0 -0.9661630704 0.236464568
22800163200.0 -0.9630812184 0.2502835239
22850162900.0 -0.9610060183 0.2639205164
22900162600.0 -0.9591152615 0.2770534593
22950162300.0 -0.9581630756 0.2895556802
23000162000.0 -0.9569347507 0.3016700849
23050161700.0 -0.9549453701 0.3136926404
23100161400.0 -0.9529852682 0.3267590947
23150161100.0 -0.950730519 0.3390052239
23200160800.0 -0.9471651187 0.3514149276
23250160500.0 -0.9446274663 0.3622333795
23300160200.0 -0.9419209592 0.3745291831
23350159900.0 -0.9386092626 0.3886431137
23400159600.0 -0.9334716852 0.4013320299
23450159300.0 -0.9291211634 0.4143672455
23500159000.0 -0.9238488729 0.4279976974
23550158700.0 -0.9200749709 0.4409862894
23600158400.0 -0.9141568328 0.4542325119
23650158100.0 -0.9079517292 0.467943784
23700157800.0 -0.9005662104 0.4819439693
23750157500.0 -0.8919900618 0.4960959818
23800157200.0 -0.8834876062 0.5093613504
23850156900.0 -0.8747560491 0.521856811
23900156600.0 -0.8651598318 0.5345415608
23950156300.0 -0.8564551503 0.547628519
24000156000.0 -0.8468612747 0.5578643808
24050155700.0 -0.836600077 0.5708312268
24100155400.0 -0.8267035623 0.5829115007
24150155100.0 -0.8158527178 0.5939280492
24200154800.0 -0.8050415482 0.6051129829
24250154500.0 -0.7938944898 0.6175069509
24300154200.0 -0.7815979946 0.6287662265
24350153900.0 -0.7702050815 0.6395525683
24400153600.0 -0.7577975018 0.6497463777
24450153300.0 -0.7462828525 0.6595343439
24500153000.0 -0.7346760779 0.6693796211
24550152700.0 -0.7238716339 0.6791386057
24600152400.0 -0.7114065925 0.6876452319
24650152100.0 -0.7002779152 0.6962165812
