!Created with skrf (http://scikit-rf.org).
# Hz S RI R 50.0 
!freq ReS11 ImS11
300000.0 -0.974176442 -0.1202252154
50299700.0 -0.9998935946 0.0149139999
100299400.0 -0.9979854689 0.0280315441
150299100.0 -1.002664073 0.0449863786
200298800.0 -0.9995641305 0.0582229155
250298500.0 -0.9973883596 0.0716247206
300298200.0 -0.9857822241 0.08758141
350297900.0 -0.9939641839 0.0984268451
400297600.0 -0.9930123364 0.1150484052
450297300.0 -0.9910329083 0.1288309505
500297000.0 -0.9893183081 0.1434124054
550296700.0 -0.9842430093 0.1557219582
600296400.0 -1.017438767 0.1893080317
650296100.0 -0.9819191059 0.1857916793
700295800.0 -0.9793087962 0.2003050302
750295500.0 -0.976318403 0.2139764696
800295200.0 -0.9730023224 0.2280903482
850294900.0 -0.9695982014 0.2419887738
900294600.0 -0.9656995757 0.2555198549
950294300.0 -0.9620865152 0.2693504572
1000294000.0 -0.9581907663 0.2832317651
1050293700.0 -0.9534836867 0.2971670685
1100293400.0 -0.9493126437 0.3116123914
1150293100.0 -0.9454746632 0.3233641575
1200292800.0 -0.940110665 0.3377845259
1250292500.0 -0.9347620926 0.351061636
1300292200.0 -0.9290410677 0.3644077276
1350291900.0 -0.9235850947 0.378563629
1400291600.0 -0.9179521576 0.3915699909
1450291300.0 -0.9124968048 0.4039202207
1500291000.0 -0.9062765348 0.4173479671
1550290700.0 -0.8998283585 0.430623193
1600290400.0 -0.893385788 0.4437912167
1650290100.0 -0.8866738274 0.4558474458
1700289800.0 -0.8797689372 0.4693099296
1750289500.0 -0.8728709456 0.4815967059
1800289200.0 -0.8654666727 0.4944667817
1850288900.0 -0.858923267 0.505743402
1900288600.0 -0.8510114741 0.5187720159
1950288300.0 -0.8428213398 0.5311652897
2000288000.0 -0.8354322632 0.5426772532
2050287700.0 -0.827264792 0.5552359922
2100287400.0 -0.8193530549 0.5667070326
2150287100.0 -0.8106243084 0.5786920009
2200286800.0 -0.8030380649 0.5891866519
2250286500.0 -0.7940397329 0.6011373096
2300286200.0 -0.7851290109 0.6127280835
2350285900.0 -0.7767894391 0.623599215
2400285600.0 -0.7679205 0.634198321
2450285300.0 -0.7590035712 0.6450469661
2500285000.0 -0.7491440607 0.6564714114
2550284700.0 -0.7403362812 0.6670216714
2600284400.0 -0.7309053063 0.6767907118
2650284100.0 -0.7224322395 0.6872588318
2700283800.0 -0.7119116402 0.6974362241
2750283500.0 -0.7014947215 0.7082674505
2800283200.0 -0.6915152132 0.7181803858
2850282900.0 -0.6811134912 0.7280154357
2900282600.0 -0.6706552425 0.7375915831
2950282300.0 -0.6601840938 0.7471060454
3000282000.0 -0.6495991219 0.7565502123
3050281700.0 -0.6385286669 0.7658766302
3100281400.0 -0.626742506 0.7749990756
3150281100.0 -0.6156164199 0.7840848251
3200280800.0 -0.6041600952 0.7922842501
3250280500.0 -0.5931089326 0.8001815341
3300280200.0 -0.5814897875 0.8084878822
3350279900.0 -0.5693533686 0.8164178527
3400279600.0 -0.5567279906 0.8245204161
3450279300.0 -0.5456996936 0.8317315491
3500279000.0 -0.5339384 0.8384843885
3550278700.0 -0.5217095298 0.8454955694
3600278400.0 -0.5099786228 0.8524887001
3650278100.0 -0.4968255254 0.8600077595
3700277800.0 -0.4845330719 0.8664742053
3750277500.0 -0.4725384018 0.87304625
3800277200.0 -0.4597827562 0.8797108274
3850276900.0 -0.447709251 0.8855003489
3900276600.0 -0.4369970935 0.8911321202
3950276300.0 -0.4246763606 0.8973121197
4000276000.0 -0.4131035447 0.9032180113
4050275700.0 -0.4004404873 0.909149461
4100275400.0 -0.3895401189 0.9147625044
4150275100.0 -0.3759704594 0.9203710135
4200274800.0 -0.3629363775 0.926262131
4250274500.0 -0.3501025982 0.931400022
4300274200.0 -0.3366669626 0.9368075261
4350273900.0 -0.3225941202 0.9419395885
4400273600.0 -0.308014679 0.9470395902
4450273300.0 -0.2928961085 0.9520953232
4500273000.0 -0.2798042329 0.9564604006
4550272700.0 -0.2660176269 0.9605824939
4600272400.0 -0.2510678243 0.9645211845
4650272100.0 -0.2396483847 0.9678560797
4700271800.0 -0.2267929528 0.971123172
4750271500.0 -0.2150255894 0.9740071717
4800271200.0 -0.2027247328 0.9767827916
4850270900.0 -0.1890426983 0.9796266315
4900270600.0 -0.175274759 0.9819923601
4950270300.0 -0.1604936506 0.9844554153
5000270000.0 -0.1461621187 0.9866724538
5050269700.0 -0.1327122124 0.9883448478
5100269400.0 -0.1186664815 0.9897824888
5150269100.0 -0.1045398054 0.9918789608
5200268800.0 -0.0912836913 0.9927648181
5250268500.0 -0.0782273662 0.9936888783
5300268200.0 -0.0644606942 0.9946595728
5350267900.0 -0.0518487198 0.9951598285
5400267600.0 -0.035523091 0.9961980922
5450267300.0 -0.0222281722 0.9965536971
5500267000.0 -0.0068984974 0.9969066112
5550266700.0 0.0078667507 0.9972575012
5600266400.0 0.0235881537 0.9973688739
5650266100.0 0.0403888658 0.9968777311
5700265800.0 0.0545933345 0.9958452609
5750265500.0 0.0693813275 0.9951018705
5800265200.0 0.0832142607 0.9943320348
5850264900.0 0.096459399 0.9935251519
5900264600.0 0.1131782057 0.9914997492
5950264300.0 0.1244026756 0.9897730085
6000264000.0 0.137835509 0.9883041621
6050263700.0 0.1496923594 0.9867219125
6100263400.0 0.1619280525 0.9849975342
6150263100.0 0.1764778636 0.9826256058
6200262800.0 0.1862262856 0.9809165452
6250262500.0 0.1988030629 0.9786988191
6300262200.0 0.2109284582 0.9762061965
6350261900.0 0.2237782544 0.9732937599
6400261600.0 0.2377737685 0.9701848387
6450261300.0 0.2489878304 0.967641256
6500261000.0 0.2621045794 0.9639432049
6550260700.0 0.2751266487 0.9599147589
6600260400.0 0.2890851821 0.9559210045
6650260100.0 0.3026519261 0.9515179949
6700259800.0 0.3148482093 0.9473088753
6750259500.0 0.3287790341 0.942269627
6800259200.0 0.3422949804 0.9373140267
6850258900.0 0.3545137687 0.9317890219
6900258600.0 0.3669413898 0.9266313819
6950258300.0 0.379675768 0.9215273922
7000258000.0 0.3914258187 0.9162347552
7050257700.0 0.4031757888 0.9104672245
7100257400.0 0.416714129 0.9040100683
7150257100.0 0.4271208979 0.8985843294
7200256800.0 0.4405133504 0.8923074883
7250256500.0 0.4529689495 0.8853910555
7300256200.0 0.4660219343 0.8787749462
7350255900.0 0.4786729326 0.8717394602
7400255600.0 0.492756679 0.864224089
7450255300.0 0.5084015438 0.8552311892
7500255000.0 0.5209829944 0.8473870589
7550254700.0 0.5350507104 0.8385690335
7600254400.0 0.5469154475 0.8300801245
7650254100.0 0.5591605705 0.8223030094
7700253800.0 0.5709530891 0.8142361515
7750253500.0 0.5819029827 0.8067666466
7800253200.0 0.5922562572 0.7989297661
7850252900.0 0.6020939629 0.7915177399
7900252600.0 0.6135518725 0.782785399
7950252300.0 0.6222345861 0.7765157196
8000252000.0 0.6319934239 0.7688466831
8050251700.0 0.6426256214 0.7605947376
8100251400.0 0.6523370165 0.75269322
8150251100.0 0.6624287804 0.7441816481
8200250800.0 0.6718602835 0.7360317007
8250250500.0 0.6803533097 0.7282775298
8300250200.0 0.6896871353 0.7199288113
8350249900.0 0.6988697316 0.7107774602
8400249600.0 0.7069009633 0.7029840159
8450249300.0 0.7159262527 0.6942793516
8500249000.0 0.7245782642 0.6854026103
8550248700.0 0.732687985 0.6763263881
8600248400.0 0.741082143 0.6668657655
8650248100.0 0.7487864137 0.6574949978
8700247800.0 0.7579676758 0.6464415857
8750247500.0 0.7662798959 0.6362396696
8800247200.0 0.7743039407 0.6259112007
8850246900.0 0.7829274222 0.614481229
8900246600.0 0.7913543961 0.6029785702
8950246300.0 0.8006269671 0.5906098439
9000246000.0 0.80922639 0.5784245367
9050245700.0 0.8178358023 0.566209653
9100245400.0 0.8259476114 0.5538582835
9150245100.0 0.8348656829 0.5411307404
9200244800.0 0.8443751238 0.5266433546
9250244500.0 0.8535881366 0.511874735
9300244200.0 0.8617022362 0.498429885
9350243900.0 0.8690577315 0.4852231016
9400243600.0 0.8757804729 0.4735178911
9450243300.0 0.8814804721 0.4628421976
9500243000.0 0.8875004019 0.4513403982
9550242700.0 0.8915707123 0.4438294957
9600242400.0 0.8958015697 0.435931404
9650242100.0 0.9001313793 0.4289902527
9700241800.0 0.9050089277 0.4203325116
9750241500.0 0.9089805216 0.4128129435
9800241200.0 0.9143112654 0.4033555398
9850240900.0 0.9199959961 0.3917705243
9900240600.0 0.9260267419 0.3799509481
9950240300.0 0.9329994429 0.3629902684
10000240000.0 0.9380765489 0.3506624217
10050239700.0 0.943894552 0.3350686817
10100239400.0 0.9492696301 0.3187413166
10150239100.0 0.9538608186 0.3030833771
10200238800.0 0.9582016546 0.2877498155
10250238500.0 0.9614414701 0.2742995244
10300238200.0 0.9646623987 0.2603176005
10350237900.0 0.9675244484 0.2470730904
10400237600.0 0.9700581951 0.233459325
10450237300.0 0.972757864 0.2200035336
10500237000.0 0.9752743696 0.2071488566
10550236700.0 0.9774647957 0.1928967237
10600236400.0 0.9796682766 0.1788544546
10650236100.0 0.9814739537 0.1648386561
10700235800.0 0.9835723502 0.1525272922
10750235500.0 0.986245631 0.1384833717
10800235200.0 0.9879416292 0.1242873327
10850234900.0 0.9900649981 0.1095462865
10900234600.0 0.9920715691 0.0945675272
10950234300.0 0.9939459257 0.0810795782
11000234000.0 0.9955797269 0.0657607988
11050233700.0 0.9973092598 0.0492009896
11100233400.0 0.9988295902 0.0315828475
11150233100.0 0.9999443336 0.014466812
11200232800.0 1.000604257 -0.0009498671
11250232500.0 1.001800694 -0.0186045197
11300232200.0 1.00210506 -0.0375526957
11350231900.0 1.002254057 -0.0539804803
11400231600.0 1.001163233 -0.0682993008
11450231300.0 1.001450609 -0.0857642959
11500231000.0 0.9995704149 -0.1009006751
11550230700.0 0.9987966213 -0.114613794
11600230400.0 0.997309562 -0.1272100124
11650230100.0 0.9944208373 -0.1391503003
11700229800.0 0.9926671719 -0.1544529294
11750229500.0 0.990149755 -0.1680336514
11800229200.0 0.9872711238 -0.1812151506
11850228900.0 0.9836956546 -0.1930755742
11900228600.0 0.9800065161 -0.2028709015
11950228300.0 0.9765522514 -0.2132865779
12000228000.0 0.9738830961 -0.2213558384
12050227700.0 0.970805372 -0.2340896239
12100227400.0 0.9669888478 -0.2450630439
12150227100.0 0.9629669299 -0.2617856331
12200226800.0 0.9584227471 -0.272767515
12250226500.0 0.9544133294 -0.286410967
12300226200.0 0.9497247611 -0.2982528329
12350225900.0 0.9450577289 -0.311598099
12400225600.0 0.9405745196 -0.3236866238
12450225300.0 0.935716848 -0.3366781719
12500225000.0 0.9305245029 -0.3514805755
12550224700.0 0.9251008834 -0.3653921737
12600224400.0 0.920133246 -0.378062769
12650224100.0 0.9142613168 -0.3923238319
12700223800.0 0.9091176468 -0.4050705189
12750223500.0 0.9034320395 -0.4182205869
12800223200.0 0.8983230713 -0.4307901452
12850222900.0 0.8928256179 -0.4428718657
12900222600.0 0.8872150197 -0.4548877735
12950222300.0 0.8811199171 -0.4676521559
13000222000.0 0.8754038069 -0.4796056923
13050221700.0 0.8683591648 -0.4925244083
13100221400.0 0.8616225576 -0.5044842456
13150221100.0 0.8549372767 -0.5163145164
13200220800.0 0.847667666 -0.5279258741
13250220500.0 0.8404692097 -0.5403689577
13300220200.0 0.8329057774 -0.5513369791
13350219900.0 0.8248909885 -0.5630918538
13400219600.0 0.8164916209 -0.5749270182
13450219300.0 0.8075712391 -0.5879463497
13500219000.0 0.7976786588 -0.6009251218
13550218700.0 0.7876724212 -0.6132665698
13600218400.0 0.7769852002 -0.6257104207
13650218100.0 0.7682965955 -0.6358355645
13700217800.0 0.7578910215 -0.6474084056
13750217500.0 0.7483462871 -0.658606368
13800217200.0 0.7363764955 -0.6698925984
13850216900.0 0.725920244 -0.6817697391
13900216600.0 0.7158786877 -0.6896202764
13950216300.0 0.7052588453 -0.6998760092
14000216000.0 0.6953371632 -0.7095766613
14050215700.0 0.6867580229 -0.7174049566
14100215400.0 0.6767670847 -0.7262071325
14150215100.0 0.6676622237 -0.7350536628
14200214800.0 0.6581678463 -0.7437480077
14250214500.0 0.6478770041 -0.7535184989
14300214200.0 0.6374797163 -0.7627654642
14350213900.0 0.6262313586 -0.7723938905
14400213600.0 0.6144661971 -0.7822841307
14450213300.0 0.6014824813 -0.7925429113
14500213000.0 0.5882730652 -0.802510985
14550212700.0 0.5759857363 -0.8117906424
14600212400.0 0.5639129398 -0.8204012963
14650212100.0 0.5511363525 -0.8289896955
14700211800.0 0.5368224321 -0.8389134568
14750211500.0 0.5252083191 -0.8471032202
14800211200.0 0.5126164517 -0.8553333062
14850210900.0 0.5001362238 -0.8630536203
14900210600.0 0.4867822315 -0.8708330239
14950210300.0 0.4734426241 -0.8786009588
15000210000.0 0.4605944302 -0.8854102197
15050209700.0 0.448490753 -0.8917220712
15100209400.0 0.4355178971 -0.8974768592
15150209100.0 0.4234585418 -0.9027388324
15200208800.0 0.4110142453 -0.9081716601
15250208500.0 0.3996748146 -0.9126504077
15300208200.0 0.3870884738 -0.9177203198
15350207900.0 0.3743954221 -0.9218438824
15400207600.0 0.3594048376 -0.9277939663
15450207300.0 0.3452785948 -0.9329149544
15500207000.0 0.3299796664 -0.9377002916
15550206700.0 0.3161253731 -0.9426315633
15600206400.0 0.2996230584 -0.9462336266
15650206100.0 0.2839890643 -0.9506449319
15700205800.0 0.2705656215 -0.9544901099
15750205500.0 0.2564325068 -0.9578305983
15800205200.0 0.242457625 -0.9611138824
15850204900.0 0.2282220236 -0.9647193005
15900204600.0 0.2130967387 -0.9684789468
15950204300.0 0.1988601952 -0.9716323188
16000204000.0 0.1846282022 -0.9743895453
16050203700.0 0.1695594217 -0.9772424504
16100203400.0 0.1545238518 -0.9791197576
16150203100.0 0.1403366511 -0.9821335877
16200202800.0 0.1256076243 -0.9841782973
16250202500.0 0.1105670559 -0.9862562874
16300202200.0 0.0952314279 -0.9872136681
16350201900.0 0.080017696 -0.9889782597
16400201600.0 0.0657320032 -0.9902473307
16450201300.0 0.0499485948 -0.9913989129
16500201000.0 0.0330511574 -0.9920069804
16550200700.0 0.0167820519 -0.9926289517
16600200400.0 0.000981985 -0.99277214
16650200100.0 -0.0149356618 -0.9926312135
16700199800.0 -0.0314153751 -0.9923313724
16750199500.0 -0.0504332847 -0.991808853
16800199200.0 -0.0663919615 -0.990483982
16850198900.0 -0.082072071 -0.9897142601
16900198600.0 -0.0963330133 -0.9886648979
16950198300.0 -0.109487613 -0.987349902
17000198000.0 -0.1227472881 -0.9858878534
17050197700.0 -0.1356131226 -0.9846187182
17100197400.0 -0.148550745 -0.9822626422
17150197100.0 -0.1604786097 -0.9809552767
17200196800.0 -0.1742788794 -0.9778422792
17250196500.0 -0.1868587683 -0.9759243376
17300196200.0 -0.1990712642 -0.9732712716
17350195900.0 -0.2109397656 -0.9710178292
17400195600.0 -0.2228648462 -0.9683187448
17450195300.0 -0.2358935893 -0.9655509601
17500195000.0 -0.2490384001 -0.9622228812
17550194700.0 -0.2625985381 -0.9586638259
17600194400.0 -0.2764911666 -0.9548668531
17650194100.0 -0.2901503274 -0.9506081021
17700193800.0 -0.3029340583 -0.9464441773
17750193500.0 -0.3174638775 -0.9420173519
17800193200.0 -0.3317132725 -0.9368847992
17850192900.0 -0.3465983404 -0.9310814975
17900192600.0 -0.3613584499 -0.9253008405
17950192300.0 -0.3769063894 -0.9181141513
18000192000.0 -0.3917671035 -0.9107754883
18050191700.0 -0.4056639465 -0.9027979255
18100191400.0 -0.4197465623 -0.8952096555
18150191100.0 -0.4347440473 -0.887179339
18200190800.0 -0.4515362779 -0.8782916337
18250190500.0 -0.4685576278 -0.8687184586
18300190200.0 -0.4839393436 -0.8598177468
18350189900.0 -0.4992018036 -0.8512011216
18400189600.0 -0.5140665789 -0.8432063791
18450189300.0 -0.5268918734 -0.8346056591
18500189000.0 -0.5405228909 -0.8267869426
18550188700.0 -0.5533747262 -0.8192148402
18600188400.0 -0.5658542951 -0.8120277261
18650188100.0 -0.5768865967 -0.8059851948
18700187800.0 -0.5877779367 -0.7989617765
18750187500.0 -0.5985185442 -0.7926268695
18800187200.0 -0.6091188699 -0.7855227429
18850186900.0 -0.6192675067 -0.7785331459
18900186600.0 -0.6297499314 -0.7713114362
18950186300.0 -0.639895995 -0.76368017
19000186000.0 -0.6471990346 -0.7573584224
19050185700.0 -0.6565519229 -0.7506719411
19100185400.0 -0.6663946879 -0.7420624717
19150185100.0 -0.6764349314 -0.7338150516
19200184800.0 -0.6860747549 -0.7254572338
19250184500.0 -0.6958222482 -0.7157803499
19300184200.0 -0.7075995695 -0.7066882217
19350183900.0 -0.7177802612 -0.6971150731
19400183600.0 -0.7279327988 -0.6873509967
19450183300.0 -0.7368112765 -0.6763983723
19500183000.0 -0.745040402 -0.6667530904
19550182700.0 -0.7552499961 -0.6559736286
19600182400.0 -0.7651380431 -0.6447657647
19650182100.0 -0.7757492826 -0.6320574525
19700181800.0 -0.7862240378 -0.6188717528
19750181500.0 -0.7966512202 -0.6047139684
19800181200.0 -0.8067086383 -0.5898231344
19850180900.0 -0.8163989927 -0.5745391717
19900180600.0 -0.8241192341 -0.5601137278
19950180300.0 -0.8334406552 -0.5438708856
20000180000.0 -0.8236922201 -0.546541821
20050179700.0 -0.8315847475 -0.5352969089
20100179400.0 -0.8401822955 -0.5211870753
20150179100.0 -0.8481789634 -0.5099534508
20200178800.0 -0.8561911366 -0.4970758277
20250178500.0 -0.8655833595 -0.4857425368
20300178200.0 -0.8752199328 -0.4717714976
20350177900.0 -0.8843670918 -0.4575702379
20400177600.0 -0.8935496901 -0.4436472271
20450177300.0 -0.902163303 -0.4291155771
20500177000.0 -0.910066651 -0.4153776737
20550176700.0 -0.9181056699 -0.4016390211
20600176400.0 -0.9245792504 -0.3888195843
20650176100.0 -0.931493958 -0.3764852602
20700175800.0 -0.9381957715 -0.3646219256
20750175500.0 -0.9450731731 -0.3528127231
20800175200.0 -0.948795869 -0.3424434464
20850174900.0 -0.9543007813 -0.3324615597
20900174600.0 -0.9576272596 -0.3207743388
20950174300.0 -0.9616336074 -0.3099847252
21000174000.0 -0.9639001993 -0.2984610361
21050173700.0 -0.9659806491 -0.2895534361
21100173400.0 -0.9691426533 -0.2779992378
21150173100.0 -0.9735081043 -0.2663043207
21200172800.0 -0.9774839653 -0.2527898424
21250172500.0 -0.9812601453 -0.2390937352
21300172200.0 -0.9843849051 -0.2253628254
21350171900.0 -0.986156604 -0.2107855322
21400171600.0 -0.9886856062 -0.1965849277
21450171300.0 -0.9893328687 -0.1821903889
21500171000.0 -0.9889703485 -0.1674848694
21550170700.0 -0.9904459599 -0.152724834
21600170400.0 -0.9910200891 -0.1372851192
21650170100.0 -0.9899725149 -0.1213611443
21700169800.0 -0.9904870467 -0.1062176972
21750169500.0 -0.9902559222 -0.0902394823
21800169200.0 -0.9904439232 -0.0742347986
21850168900.0 -0.9891215983 -0.0564567894
21900168600.0 -0.9886889346 -0.040038175
21950168300.0 -0.9891334577 -0.0251482212
22000168000.0 -0.9885328075 -0.0093531303
22050167700.0 -0.989437648 0.00497372
22100167400.0 -0.9899671029 0.0204278221
22150167100.0 -0.9905195443 0.0367151988
22200166800.0 -0.9914780072 0.0526930374
22250166500.0 -0.9904781262 0.0706555736
22300166200.0 -0.9904475503 0.0865244193
22350165900.0 -0.989897109 0.1031867597
22400165600.0 -0.9869433122 0.1179616678
22450165300.0 -0.9861357886 0.1335756006
22500165000.0 -0.9842670657 0.1477468091
22550164700.0 -0.983195597 0.1642623395
22600164400.0 -0.9804643432 0.1806253779
22650164100.0 -0.977649234 0.1957705681
22700163800.0 -0.9746861554 0.2117865467
22750163500.0 -0.9715920185 0.2264985003
22800163200.0 -0.9683313349 0.2395225292
22850162900.0 -0.9662572796 0.2530977948
22900162600.0 -0.9639113813 0.2670470756
22950162300.0 -0.9625398057 0.280630624
23000162000.0 -0.9609483091 0.2932035283
23050161700.0 -0.9581612672 0.3061948887
23100161400.0 -0.9553176549 0.3200453126
23150161100.0 -0.9524765324 0.3327741164
23200160800.0 -0.9499358261 0.3457363529
23250160500.0 -0.9474434123 0.3579394941
23300160200.0 -0.9443563213 0.371038815
23350159900.0 -0.9398314031 0.3844324671
23400159600.0 -0.9353100238 0.3972444791
23450159300.0 -0.9301552934 0.4114550609
23500159000.0 -0.9249531077 0.4252074454
23550158700.0 -0.9204065747 0.4394446577
23600158400.0 -0.9143132793 0.4530559689
23650158100.0 -0.9073596161 0.4677402683
23700157800.0 -0.898779925 0.4821385546
23750157500.0 -0.8893681912 0.4963939224
23800157200.0 -0.8797526758 0.5099219279
23850156900.0 -0.8704144311 0.5223761271
23900156600.0 -0.8602962099 0.534916778
23950156300.0 -0.8507759395 0.5476865135
24000156000.0 -0.8425442627 0.560116627
24050155700.0 -0.8307334825 0.5727277897
24100155400.0 -0.8207100955 0.5847306875
24150155100.0 -0.8091959668 0.5965130323
24200154800.0 -0.7981789072 0.6086891574
24250154500.0 -0.7880965754 0.6211810295
24300154200.0 -0.7759711517 0.6333495529
24350153900.0 -0.7638688237 0.6436985624
24400153600.0 -0.7513340108 0.6548230848
24450153300.0 -0.7390416131 0.6650521897
24500153000.0 -0.7280845017 0.674906338
24550152700.0 -0.7170152498 0.6851349174
24600152400.0 -0.7049355163 0.6948342485
24650152100.0 -0.6918940596 0.7033188384
