!Created with skrf (http://scikit-rf.org).
# Hz S RI R 50.0 
!freq ReS11 ImS11
300000.0 -0.9776883274 -0.111665546
50299700.0 -1.000118951 0.0158885499
100299400.0 -0.9980494099 0.0287628778
150299100.0 -1.002733266 0.0456066275
200298800.0 -0.9996755227 0.0590077625
250298500.0 -0.9974502023 0.0725775898
300298200.0 -0.9861877179 0.0883060351
350297900.0 -0.9941546001 0.0990761079
400297600.0 -0.9931854074 0.1159193547
450297300.0 -0.9911238515 0.1294760132
500297000.0 -0.9895206598 0.1443766972
550296700.0 -0.9844823936 0.1566284321
600296400.0 -1.017328628 0.190411254
650296100.0 -0.9821227483 0.1868660982
700295800.0 -0.9793298052 0.201099156
750295500.0 -0.9764634098 0.2148869238
800295200.0 -0.9728349509 0.2290950333
850294900.0 -0.9695469062 0.2431441893
900294600.0 -0.9657111238 0.2567297495
950294300.0 -0.9619420331 0.2703469327
1000294000.0 -0.9581346742 0.2845515664
1050293700.0 -0.9533721954 0.2981904186
1100293400.0 -0.9491375873 0.3126202959
1150293100.0 -0.9455209694 0.3245725814
1200292800.0 -0.9399117031 0.3387933684
1250292500.0 -0.9345109427 0.3521920435
1300292200.0 -0.9289295104 0.3654937639
1350291900.0 -0.923283751 0.379490926
1400291600.0 -0.9178689436 0.3925898947
1450291300.0 -0.9123037795 0.4049818771
1500291000.0 -0.9058672987 0.4183385604
1550290700.0 -0.8994586058 0.4316664733
1600290400.0 -0.8931230044 0.4446490006
1650290100.0 -0.8867203164 0.4567284556
1700289800.0 -0.8795945946 0.4700552963
1750289500.0 -0.8725923175 0.4825862592
1800289200.0 -0.8652367369 0.4952947996
1850288900.0 -0.8583169865 0.5066626909
1900288600.0 -0.8507733244 0.5198130532
1950288300.0 -0.8426593648 0.5323808755
2000288000.0 -0.8350122739 0.5436225431
2050287700.0 -0.826892928 0.5559681391
2100287400.0 -0.8188280746 0.5676385469
2150287100.0 -0.8102521723 0.5796709859
2200286800.0 -0.8025629509 0.5900487983
2250286500.0 -0.7939154077 0.6021211757
2300286200.0 -0.7847786205 0.6137901232
2350285900.0 -0.7759715254 0.6248126964
2400285600.0 -0.7670169813 0.6357923581
2450285300.0 -0.758519806 0.6460470092
2500285000.0 -0.7487277162 0.6574687152
2550284700.0 -0.7397403258 0.6677249805
2600284400.0 -0.7302759877 0.6778814172
2650284100.0 -0.7213447655 0.6886422482
2700283800.0 -0.7104728942 0.6986782457
2750283500.0 -0.7005171134 0.7093445504
2800283200.0 -0.6905761048 0.7189362527
2850282900.0 -0.6806453977 0.728964288
2900282600.0 -0.6699351733 0.7387334402
2950282300.0 -0.6600664837 0.7478625181
3000282000.0 -0.6492768234 0.757059806
3050281700.0 -0.6382374759 0.7665404743
3100281400.0 -0.6260869937 0.7759640316
3150281100.0 -0.6143195946 0.7853531751
3200280800.0 -0.6025333716 0.7939688403
3250280500.0 -0.5918311235 0.8015471499
3300280200.0 -0.5807875481 0.8093269904
3350279900.0 -0.5691472545 0.8166754371
3400279600.0 -0.5571360803 0.824406915
3450279300.0 -0.5460156783 0.8314464153
3500279000.0 -0.5339905125 0.8385629618
3550278700.0 -0.5214927324 0.8460892284
3600278400.0 -0.5092238053 0.8531689451
3650278100.0 -0.4956916482 0.8606270715
3700277800.0 -0.4837366071 0.8672201614
3750277500.0 -0.4715448669 0.8736880554
3800277200.0 -0.458998495 0.880272018
3850276900.0 -0.4469966922 0.8862497637
3900276600.0 -0.4359993497 0.8918965926
3950276300.0 -0.4235388785 0.8978819805
4000276000.0 -0.4116525506 0.9039476866
4050275700.0 -0.398697966 0.9100688439
4100275400.0 -0.3875941721 0.9153795324
4150275100.0 -0.3748759507 0.9212147854
4200274800.0 -0.3618258221 0.9265441599
4250274500.0 -0.3498131716 0.9313208105
4300274200.0 -0.3365790928 0.936977342
4350273900.0 -0.3230062646 0.9421681149
4400273600.0 -0.3078689885 0.9475578521
4450273300.0 -0.2926260177 0.9524472549
4500273000.0 -0.2789477108 0.9568172238
4550272700.0 -0.2647892697 0.9613328551
4600272400.0 -0.2492631469 0.9653786242
4650272100.0 -0.2374277866 0.9684734392
4700271800.0 -0.224179212 0.9718464539
4750271500.0 -0.2124351929 0.974735408
4800271200.0 -0.1997977807 0.9775430831
4850270900.0 -0.1861307934 0.9801862143
4900270600.0 -0.1721680277 0.9825970383
4950270300.0 -0.1578232657 0.9851605606
5000270000.0 -0.1437692384 0.9873841486
5050269700.0 -0.130120281 0.9887504612
5100269400.0 -0.1166583726 0.9905054412
5150269100.0 -0.1033407462 0.9920570327
5200268800.0 -0.0901076963 0.9932938184
5250268500.0 -0.0770408173 0.9940445537
5300268200.0 -0.0642145822 0.9947680416
5350267900.0 -0.0517185485 0.9953686706
5400267600.0 -0.0356080851 0.9964377266
5450267300.0 -0.0224649056 0.9967264909
5500267000.0 -0.0072318192 0.997150613
5550266700.0 0.0076280776 0.9974427005
5600266400.0 0.0230768524 0.9972745949
5650266100.0 0.0399236855 0.9972174027
5700265800.0 0.0544301982 0.9959372438
5750265500.0 0.0692798708 0.9955296944
5800265200.0 0.08368937 0.9943360247
5850264900.0 0.0967155349 0.9936008209
5900264600.0 0.1133138253 0.9914056265
5950264300.0 0.1258017048 0.9901361922
6000264000.0 0.1396076749 0.9881836558
6050263700.0 0.1521690275 0.986943495
6100263400.0 0.1643289102 0.9847482878
6150263100.0 0.1792031617 0.9825808862
6200262800.0 0.1895261703 0.9806310202
6250262500.0 0.2021334313 0.9782125395
6300262200.0 0.2150065805 0.975419219
6350261900.0 0.2280719507 0.9725000109
6400261600.0 0.2418212311 0.9690838301
6450261300.0 0.2532037599 0.9664205764
6500261000.0 0.2658270068 0.9629191122
6550260700.0 0.2788733681 0.9590809358
6600260400.0 0.2924148334 0.9550932203
6650260100.0 0.3061057827 0.9504295483
6700259800.0 0.318017387 0.9461570755
6750259500.0 0.3318900134 0.9413967757
6800259200.0 0.3451991519 0.9361505412
6850258900.0 0.3571588545 0.9313136543
6900258600.0 0.3693376184 0.9262829927
6950258300.0 0.3815924673 0.9207706807
7000258000.0 0.3937490008 0.9154851
7050257700.0 0.4059539119 0.9094716747
7100257400.0 0.4186422889 0.903246379
7150257100.0 0.4289395757 0.8979829793
7200256800.0 0.4416199754 0.8915546972
7250256500.0 0.4539493985 0.8854190036
7300256200.0 0.4669647548 0.8786067334
7350255900.0 0.4789531535 0.8714528347
7400255600.0 0.4923208184 0.8642035352
7450255300.0 0.5074645903 0.8551336249
7500255000.0 0.519835437 0.848180771
7550254700.0 0.5334193889 0.8398284792
7600254400.0 0.5462095731 0.831468355
7650254100.0 0.5573555124 0.8233248091
7700253800.0 0.5692508619 0.815558044
7750253500.0 0.5803837544 0.8075283757
7800253200.0 0.5911074872 0.7998634059
7850252900.0 0.6007992237 0.7930437477
7900252600.0 0.6123780592 0.784203934
7950252300.0 0.6213577967 0.7774855642
8000252000.0 0.631522337 0.7699325362
8050251700.0 0.6419752869 0.7614620809
8100251400.0 0.6519464486 0.7533672145
8150251100.0 0.6620989793 0.7447047783
8200250800.0 0.6714791422 0.7366951283
8250250500.0 0.680640555 0.728809244
8300250200.0 0.6901639815 0.7201507638
8350249900.0 0.6989876311 0.7115879647
8400249600.0 0.7071203395 0.7034671497
8450249300.0 0.7160655706 0.6942863737
8500249000.0 0.7247645177 0.6854245564
8550248700.0 0.7332127212 0.6763877143
8600248400.0 0.7414346964 0.6668642754
8650248100.0 0.749069886 0.6575892777
8700247800.0 0.7585925503 0.6462471788
8750247500.0 0.7670244717 0.6361997851
8800247200.0 0.7751575504 0.6258349263
8850246900.0 0.7839078136 0.6144838972
8900246600.0 0.7923931574 0.6029926092
8950246300.0 0.8020376671 0.5900254715
9000246000.0 0.8113837384 0.5774657748
9050245700.0 0.8206206707 0.5642844636
9100245400.0 0.8291545403 0.551658022
9150245100.0 0.8383185069 0.5378788987
9200244800.0 0.8482946005 0.5227022024
9250244500.0 0.8578744144 0.5070035981
9300244200.0 0.8662207634 0.4923000372
9350243900.0 0.8737210779 0.4784364238
9400243600.0 0.8805352936 0.466031139
9450243300.0 0.8863617298 0.4542161408
9500243000.0 0.8926934438 0.4419382917
9550242700.0 0.8964386414 0.4342718417
9600242400.0 0.9003972051 0.427090504
9650242100.0 0.9035878842 0.4206635459
9700241800.0 0.9084654444 0.4123768461
9750241500.0 0.9123860615 0.4048689832
9800241200.0 0.9170753581 0.3957943613
9850240900.0 0.9224989249 0.3841888194
9900240600.0 0.9280550226 0.3724532208
9950240300.0 0.9348608308 0.3563045262
10000240000.0 0.9395489902 0.3448144271
10050239700.0 0.9451761935 0.3291690758
10100239400.0 0.9497291362 0.3142546779
10150239100.0 0.9542150198 0.2993000319
10200238800.0 0.9583526195 0.2842967407
10250238500.0 0.9616485317 0.2709215047
10300238200.0 0.9649807474 0.2570467885
10350237900.0 0.9674229296 0.2440733187
10400237600.0 0.9700544275 0.2308906249
10450237300.0 0.9727017861 0.2176435366
10500237000.0 0.9750327582 0.2048889783
10550236700.0 0.9773775414 0.1909684354
10600236400.0 0.9795954439 0.1777797267
10650236100.0 0.9812752889 0.1632836394
10700235800.0 0.983425473 0.1507655208
10750235500.0 0.9858019357 0.1377273116
10800235200.0 0.9879384387 0.1235864317
10850234900.0 0.9895126962 0.10915258
10900234600.0 0.9918403176 0.0942185813
10950234300.0 0.993414477 0.081133085
11000234000.0 0.9952211386 0.0660324377
11050233700.0 0.9970692898 0.0496903006
11100233400.0 0.9985798742 0.0322636595
11150233100.0 0.9993430122 0.0156629822
11200232800.0 1.000183632 0.0011954575
11250232500.0 1.001348341 -0.0164577894
11300232200.0 1.001291439 -0.0332801007
11350231900.0 1.001621124 -0.049412878
11400231600.0 1.001644907 -0.0657633549
11450231300.0 1.00065945 -0.0802950723
11500231000.0 0.9991794497 -0.0960062143
11550230700.0 0.9979451755 -0.1107619289
11600230400.0 0.9968175085 -0.1230347989
11650230100.0 0.9946012144 -0.134602735
11700229800.0 0.9929317739 -0.1491595854
11750229500.0 0.9905979244 -0.1640805197
11800229200.0 0.9877766348 -0.178076041
11850228900.0 0.9840528272 -0.1902673834
11900228600.0 0.9806798082 -0.200064118
11950228300.0 0.9771670668 -0.2105760765
12000228000.0 0.9747186837 -0.2192686576
12050227700.0 0.971007488 -0.2327015038
12100227400.0 0.968036472 -0.2428157727
12150227100.0 0.9630276017 -0.2596939049
12200226800.0 0.9587113347 -0.2707066229
12250226500.0 0.9551813035 -0.2828816679
12300226200.0 0.9504961737 -0.2956175687
12350225900.0 0.9456359148 -0.3089889944
12400225600.0 0.9417405743 -0.3224347771
12450225300.0 0.9372966678 -0.3345459843
12500225000.0 0.9318298826 -0.3496802925
12550224700.0 0.9267784371 -0.3630897307
12600224400.0 0.9218321855 -0.3759408806
12650224100.0 0.9159293893 -0.3901415032
12700223800.0 0.9107701965 -0.4028887297
12750223500.0 0.9052250052 -0.4159043427
12800223200.0 0.9000529841 -0.428529065
12850222900.0 0.8943955992 -0.4407944232
12900222600.0 0.8891050107 -0.4526608989
12950222300.0 0.8824226682 -0.4652365079
13000222000.0 0.8764168227 -0.4769478215
13050221700.0 0.8693858384 -0.4898196086
13100221400.0 0.8632441549 -0.5017090837
13150221100.0 0.8561593554 -0.5138400732
13200220800.0 0.8489804382 -0.5259290974
13250220500.0 0.8416513336 -0.537827279
13300220200.0 0.8344361452 -0.5486025969
13350219900.0 0.8263269367 -0.5607068829
13400219600.0 0.8176974324 -0.5730843836
13450219300.0 0.8083076205 -0.5864828541
13500219000.0 0.7980393792 -0.600520792
13550218700.0 0.7874873344 -0.6133790903
13600218400.0 0.7774132976 -0.6262513461
13650218100.0 0.767654894 -0.6369903615
13700217800.0 0.7563124586 -0.6494221268
13750217500.0 0.7469988431 -0.6610374563
13800217200.0 0.7361136488 -0.6724856958
13850216900.0 0.7239461692 -0.6835745616
13900216600.0 0.7148330025 -0.6925222527
13950216300.0 0.7035759907 -0.7026869136
14000216000.0 0.6940265903 -0.7121623071
14050215700.0 0.6842794686 -0.7203442296
14100215400.0 0.6745933398 -0.7290375648
14150215100.0 0.6652233158 -0.7378259636
14200214800.0 0.6559073884 -0.7461933576
14250214500.0 0.6456954929 -0.7554397709
14300214200.0 0.6353191372 -0.7647240009
14350213900.0 0.6245677107 -0.774265002
14400213600.0 0.6126141785 -0.7841257745
14450213300.0 0.599679225 -0.7939097494
14500213000.0 0.586435405 -0.8042490856
14550212700.0 0.5743185991 -0.8131262628
14600212400.0 0.5615437556 -0.8223076713
14650212100.0 0.54839727 -0.8306589662
14700211800.0 0.5346175534 -0.8404258987
14750211500.0 0.5223233008 -0.8485525941
14800211200.0 0.5101703424 -0.8564336035
14850210900.0 0.4979284286 -0.864029845
14900210600.0 0.484677395 -0.8719897051
14950210300.0 0.4711433649 -0.8797407255
15000210000.0 0.4581095083 -0.8865104879
15050209700.0 0.4459298193 -0.8924252084
15100209400.0 0.4334226151 -0.8983494126
15150209100.0 0.4207342327 -0.9039525912
15200208800.0 0.4073559464 -0.909193457
15250208500.0 0.3966123243 -0.9142211342
15300208200.0 0.3841273425 -0.9188209667
15350207900.0 0.3711474873 -0.9234897543
15400207600.0 0.3562328447 -0.9290217632
15450207300.0 0.3416837789 -0.9336704455
15500207000.0 0.3277193875 -0.938500911
15550206700.0 0.3117982097 -0.9435292368
15600206400.0 0.2962126737 -0.9474219174
15650206100.0 0.280491147 -0.9521530251
15700205800.0 0.2663880539 -0.9556246818
15750205500.0 0.2517186664 -0.9594066284
15800205200.0 0.2374706264 -0.962791056
15850204900.0 0.2230081741 -0.9662531977
15900204600.0 0.2080653432 -0.9696774365
15950204300.0 0.1940151277 -0.9725638065
16000204000.0 0.1795471571 -0.9753674903
16050203700.0 0.1650800923 -0.9782670476
16100203400.0 0.1505974754 -0.9803279831
16150203100.0 0.1356914215 -0.9825316788
16200202800.0 0.1219848298 -0.9846824193
16250202500.0 0.1075748085 -0.9861400725
16300202200.0 0.0925964889 -0.9877115802
16350201900.0 0.0777326228 -0.9889088872
16400201600.0 0.0629800661 -0.990276039
16450201300.0 0.0479763318 -0.9910319821
16500201000.0 0.031131143 -0.9919873383
16550200700.0 0.0155688325 -0.992535693
16600200400.0 -0.0002903984 -0.9927559948
16650200100.0 -0.0166420338 -0.9923305377
16700199800.0 -0.0330771506 -0.9920204926
16750199500.0 -0.0516713508 -0.9916759852
16800199200.0 -0.067328863 -0.9907598045
16850198900.0 -0.0831328291 -0.9891832074
16900198600.0 -0.0969175414 -0.9881287277
16950198300.0 -0.1101807003 -0.9871683754
17000198000.0 -0.1231516787 -0.9857510811
17050197700.0 -0.1353189248 -0.9839992151
17100197400.0 -0.147919539 -0.9812724416
17150197100.0 -0.1608363845 -0.9796154119
17200196800.0 -0.1741624443 -0.9776635835
17250196500.0 -0.1870171313 -0.9752978001
17300196200.0 -0.1989732108 -0.9730620626
17350195900.0 -0.2107185668 -0.9708593244
17400195600.0 -0.2230005343 -0.9681902738
17450195300.0 -0.2361654436 -0.9654461366
17500195000.0 -0.2496033218 -0.9621516631
17550194700.0 -0.2635165586 -0.9585726456
17600194400.0 -0.2773073071 -0.9545394361
17650194100.0 -0.2910032691 -0.9504863461
17700193800.0 -0.3041393794 -0.9462686285
17750193500.0 -0.3186438603 -0.9416364557
17800193200.0 -0.3329253387 -0.9360439862
17850192900.0 -0.3478486709 -0.9308752312
17900192600.0 -0.3629259404 -0.9250100038
17950192300.0 -0.3784913343 -0.9177068999
18000192000.0 -0.3931904423 -0.9104709571
18050191700.0 -0.4067916636 -0.9025622748
18100191400.0 -0.4211166873 -0.8948306472
18150191100.0 -0.43610524 -0.8867659881
18200190800.0 -0.4530676681 -0.8774821183
18250190500.0 -0.4698469048 -0.8681091281
18300190200.0 -0.48543049 -0.8591406159
18350189900.0 -0.5005462781 -0.8510711603
18400189600.0 -0.5145538821 -0.8424561924
18450189300.0 -0.5282854923 -0.8345326592
18500189000.0 -0.5415089665 -0.8264413379
18550188700.0 -0.5543521399 -0.8189935217
18600188400.0 -0.5659800042 -0.8121194437
18650188100.0 -0.5769321769 -0.8055130889
18700187800.0 -0.5878331477 -0.7991161539
18750187500.0 -0.5986687203 -0.7923315724
18800187200.0 -0.6092224526 -0.7853706411
18850186900.0 -0.6192510127 -0.7782855941
18900186600.0 -0.6295197878 -0.7710110105
18950186300.0 -0.639876373 -0.7629287574
19000186000.0 -0.6469694737 -0.7570067494
19050185700.0 -0.655957603 -0.7498138444
19100185400.0 -0.6658280994 -0.7414003418
19150185100.0 -0.6762527685 -0.7326972462
19200184800.0 -0.6860684041 -0.724993641
19250184500.0 -0.6963550668 -0.7147963572
19300184200.0 -0.7078988673 -0.7050292212
19350183900.0 -0.7181875699 -0.6956742784
19400183600.0 -0.72830818 -0.6863007486
19450183300.0 -0.7371053468 -0.6757312232
19500183000.0 -0.7449344076 -0.6656873944
19550182700.0 -0.7545029973 -0.65485532
19600182400.0 -0.7653712489 -0.6436773495
19650182100.0 -0.7762613399 -0.6312946317
19700181800.0 -0.786385397 -0.6178477172
19750181500.0 -0.7973117542 -0.6039460073
19800181200.0 -0.8075043544 -0.5889517612
19850180900.0 -0.817007662 -0.5733857036
19900180600.0 -0.8248332113 -0.5587276522
19950180300.0 -0.8341612136 -0.5427027782
20000180000.0 -0.8270356239 -0.5460506096
20050179700.0 -0.8351686086 -0.5320040834
20100179400.0 -0.8435963723 -0.5188699478
20150179100.0 -0.8513034844 -0.5060227283
20200178800.0 -0.8610444957 -0.4934407732
20250178500.0 -0.8696745527 -0.4795125274
20300178200.0 -0.8792953647 -0.4651396245
20350177900.0 -0.8884154283 -0.4503418949
20400177600.0 -0.8976680079 -0.4357704559
20450177300.0 -0.9055962092 -0.4217346621
20500177000.0 -0.9134724632 -0.4076550545
20550176700.0 -0.9212499372 -0.3943631405
20600176400.0 -0.9283957855 -0.3805933091
20650176100.0 -0.9346587877 -0.3684973859
20700175800.0 -0.9414104945 -0.3561350222
20750175500.0 -0.948015711 -0.3448271197
20800175200.0 -0.9528395657 -0.3339026728
20850174900.0 -0.9583579086 -0.3226708117
20900174600.0 -0.9623785805 -0.3112071097
20950174300.0 -0.9673802423 -0.2993820924
21000174000.0 -0.971251415 -0.2884184265
21050173700.0 -0.9727380912 -0.27715737
21100173400.0 -0.9772877159 -0.264893954
21150173100.0 -0.9811366802 -0.2516922422
21200172800.0 -0.9849050909 -0.2390333611
21250172500.0 -0.9877734649 -0.22511517
21300172200.0 -0.9905158718 -0.2109972222
21350171900.0 -0.9918763774 -0.1965323138
21400171600.0 -0.9938355735 -0.1816473773
21450171300.0 -0.9938071944 -0.1682558872
21500171000.0 -0.9935047405 -0.1521282116
21550170700.0 -0.9926735309 -0.1371417143
21600170400.0 -0.9923204551 -0.1204888141
21650170100.0 -0.9913460843 -0.1058618339
21700169800.0 -0.9900337766 -0.0914164145
21750169500.0 -0.9884396422 -0.0743471794
21800169200.0 -0.9887443618 -0.0584992539
21850168900.0 -0.986560691 -0.0427052761
21900168600.0 -0.9857781007 -0.0258959862
21950168300.0 -0.9844704428 -0.0099084746
22000168000.0 -0.9825811624 0.0050996812
22050167700.0 -0.9828671803 0.019104994
22100167400.0 -0.9828182343 0.0346554787
22150167100.0 -0.9834357586 0.050071709
22200166800.0 -0.9837798339 0.0666747127
22250166500.0 -0.9831105097 0.0836837571
22300166200.0 -0.9826983633 0.1000731435
22350165900.0 -0.9806732192 0.1167022613
22400165600.0 -0.9791407676 0.132135451
22450165300.0 -0.9766349997 0.1477868727
22500165000.0 -0.9750276039 0.1603410365
22550164700.0 -0.9743825038 0.1766800071
22600164400.0 -0.9724404518 0.1920538384
22650164100.0 -0.969326832 0.2074497227
22700163800.0 -0.9684758044 0.2228591512
22750163500.0 -0.9651237635 0.2378368486
22800163200.0 -0.9623829631 0.2513750233
22850162900.0 -0.9598282067 0.2643946429
22900162600.0 -0.9584009773 0.278193396
22950162300.0 -0.9575628117 0.2909658819
23000162000.0 -0.9563395311 0.3028053177
23050161700.0 -0.954475554 0.3150618218
23100161400.0 -0.952157313 0.3283686262
23150161100.0 -0.9490710867 0.3403919338
23200160800.0 -0.9469159914 0.351861212
23250160500.0 -0.9437026871 0.364689415
23300160200.0 -0.9419456176 0.3757019028
23350159900.0 -0.9382509855 0.3889085304
23400159600.0 -0.9330617181 0.4024692311
23450159300.0 -0.9282024062 0.415536426
23500159000.0 -0.9239274752 0.4285649737
23550158700.0 -0.9193371677 0.4416066501
23600158400.0 -0.9140110854 0.4547162885
23650158100.0 -0.9074567986 0.4687686573
23700157800.0 -0.9001811439 0.4824824864
23750157500.0 -0.8915358085 0.4963772136
23800157200.0 -0.8823777834 0.5099582902
23850156900.0 -0.8735718455 0.5224187629
23900156600.0 -0.8645900352 0.534536739
23950156300.0 -0.8561093769 0.5468501082
24000156000.0 -0.8463763577 0.5593235748
24050155700.0 -0.8364716116 0.5709120573
24100155400.0 -0.8268454178 0.5824597417
24150155100.0 -0.8153861255 0.5944273865
24200154800.0 -0.8047805808 0.605878599
24250154500.0 -0.7925450074 0.617609156
24300154200.0 -0.7815700273 0.6293049695
24350153900.0 -0.7699538994 0.6394029223
24400153600.0 -0.7573369176 0.6497299447
24450153300.0 -0.7456941899 0.6597092908
24500153000.0 -0.7341085676 0.669445504
24550152700.0 -0.7225864706 0.6794353759
24600152400.0 -0.7106655132 0.6878581904
24650152100.0 -0.6997283489 0.6961582781
