!Created with skrf (http://scikit-rf.org).
# Hz S RI R 50.0 
!freq ReS11 ImS11
300000.0 -0.9729300005 -0.1253831282
50299700.0 -1.000036606 0.0148635419
100299400.0 -0.9979094794 0.0279180973
150299100.0 -1.002626283 0.0446622046
200298800.0 -0.9995789308 0.058190376
250298500.0 -0.9972988372 0.0715706613
300298200.0 -0.9859657962 0.0875679193
350297900.0 -0.9939482472 0.0982042498
400297600.0 -0.9931401293 0.114710816
450297300.0 -0.9909960696 0.1284935777
500297000.0 -0.9894520552 0.143351065
550296700.0 -0.9844634994 0.1559692543
600296400.0 -1.017203872 0.1891519805
650296100.0 -0.9822141669 0.1856413588
700295800.0 -0.9792655256 0.1999649587
750295500.0 -0.9763277342 0.2138561396
800295200.0 -0.9729538199 0.2280703419
850294900.0 -0.9695965875 0.241678337
900294600.0 -0.9658894728 0.2555316498
950294300.0 -0.9622256993 0.2690557768
1000294000.0 -0.9582146481 0.2833058154
1050293700.0 -0.9535730386 0.2969947069
1100293400.0 -0.9493178937 0.311253779
1150293100.0 -0.9456184898 0.3232539067
1200292800.0 -0.9401432384 0.337765596
1250292500.0 -0.9346670939 0.3511157108
1300292200.0 -0.9290436243 0.3643862615
1350291900.0 -0.9235896015 0.3784653389
1400291600.0 -0.9177930903 0.3915546336
1450291300.0 -0.9124658938 0.4038697179
1500291000.0 -0.9061613851 0.4172397115
1550290700.0 -0.8997199103 0.4307126414
1600290400.0 -0.893397551 0.4435974812
1650290100.0 -0.8868882999 0.4556844208
1700289800.0 -0.8799072348 0.4691119524
1750289500.0 -0.872786246 0.4815004757
1800289200.0 -0.86570787 0.4943812842
1850288900.0 -0.8589101821 0.5057417335
1900288600.0 -0.8512449973 0.5186309274
1950288300.0 -0.8430290323 0.5313392513
2000288000.0 -0.8352977245 0.5427320822
2050287700.0 -0.8270081644 0.5551802197
2100287400.0 -0.8193904051 0.5664260505
2150287100.0 -0.8108554072 0.5786521973
2200286800.0 -0.8029255477 0.5890885316
2250286500.0 -0.7941584622 0.6014115567
2300286200.0 -0.7853154396 0.61268821
2350285900.0 -0.777024326 0.6234259194
2400285600.0 -0.7680461726 0.6342138606
2450285300.0 -0.7593824314 0.6450457353
2500285000.0 -0.7490243639 0.6566220744
2550284700.0 -0.7402961411 0.6671663733
2600284400.0 -0.7312081308 0.6768259371
2650284100.0 -0.7223234159 0.6870368964
2700283800.0 -0.7120112931 0.6974860134
2750283500.0 -0.7018504157 0.7080164442
2800283200.0 -0.691581876 0.7180075299
2850282900.0 -0.6811207153 0.7279912683
2900282600.0 -0.6710157532 0.7379275221
2950282300.0 -0.6602858464 0.7472117542
3000282000.0 -0.6495555329 0.7567736254
3050281700.0 -0.638197526 0.7659803865
3100281400.0 -0.6268485119 0.7749448375
3150281100.0 -0.6156998611 0.7839243465
3200280800.0 -0.6042940484 0.7922365895
3250280500.0 -0.5931501829 0.8001659545
3300280200.0 -0.5815357932 0.8083657762
3350279900.0 -0.5694177079 0.8165781222
3400279600.0 -0.5567659683 0.8245659428
3450279300.0 -0.5454512211 0.8316620312
3500279000.0 -0.5336237419 0.8383918724
3550278700.0 -0.5217482847 0.8454752414
3600278400.0 -0.5099254753 0.8523426894
3650278100.0 -0.4968969467 0.859981437
3700277800.0 -0.4847365235 0.866372779
3750277500.0 -0.4725169185 0.8733892172
3800277200.0 -0.4597234087 0.8798889558
3850276900.0 -0.447653688 0.8854790172
3900276600.0 -0.4369246898 0.8909981433
3950276300.0 -0.424711386 0.8971797409
4000276000.0 -0.4133356997 0.9029777971
4050275700.0 -0.4004028827 0.9090661096
4100275400.0 -0.389491692 0.9144060624
4150275100.0 -0.3762945464 0.9205757284
4200274800.0 -0.3627502329 0.925895877
4250274500.0 -0.350046012 0.9315038098
4300274200.0 -0.3368056324 0.9367625724
4350273900.0 -0.3223977305 0.9421759711
4400273600.0 -0.3078198448 0.9473336373
4450273300.0 -0.2929472006 0.9520394277
4500273000.0 -0.2798575471 0.9567062589
4550272700.0 -0.2661580846 0.9606164596
4600272400.0 -0.2510548963 0.9646224328
4650272100.0 -0.2398612865 0.9677732293
4700271800.0 -0.2268763194 0.9710361499
4750271500.0 -0.2152675036 0.9739732876
4800271200.0 -0.2031703512 0.97670573
4850270900.0 -0.1892513583 0.9794135403
4900270600.0 -0.1755078188 0.9818915453
4950270300.0 -0.1610253619 0.984481291
5000270000.0 -0.1464083233 0.9866125674
5050269700.0 -0.1329090804 0.988451868
5100269400.0 -0.1187026705 0.9901958169
5150269100.0 -0.1049962897 0.991396225
5200268800.0 -0.0913915129 0.9928226978
5250268500.0 -0.0784021908 0.993998859
5300268200.0 -0.0647558742 0.9947235345
5350267900.0 -0.0516686783 0.9951587421
5400267600.0 -0.0356314224 0.996384248
5450267300.0 -0.0223343836 0.9966720234
5500267000.0 -0.0068510024 0.9970475837
5550266700.0 0.0081042597 0.9972362483
5600266400.0 0.0238339646 0.9968984031
5650266100.0 0.0403864074 0.9968247343
5700265800.0 0.0549156756 0.9958155872
5750265500.0 0.0696248213 0.9947807346
5800265200.0 0.0830764467 0.9940378269
5850264900.0 0.0963388151 0.9929410828
5900264600.0 0.1130123655 0.9915959673
5950264300.0 0.1242376552 0.9897392342
6000264000.0 0.1381141933 0.9880095594
6050263700.0 0.1496589309 0.9870191019
6100263400.0 0.1617053342 0.9848988617
6150263100.0 0.1761300174 0.9823337303
6200262800.0 0.1858898738 0.9808681546
6250262500.0 0.19856882 0.9786872595
6300262200.0 0.2106120723 0.9763429771
6350261900.0 0.2235759114 0.9735614518
6400261600.0 0.237760162 0.9704210048
6450261300.0 0.2484539389 0.9677895742
6500261000.0 0.2615963028 0.9642001478
6550260700.0 0.2750363484 0.9602729633
6600260400.0 0.2883018262 0.9561762014
6650260100.0 0.3028305913 0.951850271
6700259800.0 0.3148542469 0.9476721796
6750259500.0 0.3281883838 0.9426145004
6800259200.0 0.3423261691 0.937466247
6850258900.0 0.3544723047 0.9320536245
6900258600.0 0.367140228 0.9270196114
6950258300.0 0.3796685177 0.921612477
7000258000.0 0.3910551652 0.9163921143
7050257700.0 0.4030494883 0.91066997
7100257400.0 0.4164344592 0.9040852893
7150257100.0 0.4270671508 0.8986536501
7200256800.0 0.4401808227 0.8921479906
7250256500.0 0.4531666368 0.8854769987
7300256200.0 0.4657746776 0.8785174351
7350255900.0 0.4787785571 0.8718011592
7400255600.0 0.4931073298 0.8643537842
7450255300.0 0.5083703019 0.854974899
7500255000.0 0.52105532 0.8475571426
7550254700.0 0.5352359698 0.8382542048
7600254400.0 0.5481414633 0.8298864398
7650254100.0 0.5591437889 0.8217551208
7700253800.0 0.5709609847 0.814002209
7750253500.0 0.5821115527 0.8063749869
7800253200.0 0.5926245173 0.79859765
7850252900.0 0.6024508966 0.7911565721
7900252600.0 0.6136885827 0.7825187674
7950252300.0 0.6221983912 0.7762369663
8000252000.0 0.6321954967 0.7685407599
8050251700.0 0.6426371686 0.7605441815
8100251400.0 0.6527528743 0.7525394824
8150251100.0 0.6625501116 0.7439737173
8200250800.0 0.6721182297 0.7360319863
8250250500.0 0.6806493959 0.7280419493
8300250200.0 0.6896936958 0.7197947439
8350249900.0 0.6991548593 0.7110840654
8400249600.0 0.7070184132 0.70277626
8450249300.0 0.7159129964 0.6941981663
8500249000.0 0.7241713848 0.685344399
8550248700.0 0.7325041881 0.6762596173
8600248400.0 0.7409645838 0.6668549833
8650248100.0 0.748520973 0.6576589998
8700247800.0 0.757798366 0.6464048865
8750247500.0 0.7661364677 0.6362125781
8800247200.0 0.7740313321 0.6260045239
8850246900.0 0.7828327215 0.614639644
8900246600.0 0.7910630178 0.6032010845
8950246300.0 0.8003842495 0.5907398662
9000246000.0 0.8093967756 0.5785456141
9050245700.0 0.8175239642 0.5664024207
9100245400.0 0.8256714488 0.5543160946
9150245100.0 0.8345623995 0.5412339847
9200244800.0 0.8439193202 0.5270424822
9250244500.0 0.8531310905 0.5124035655
9300244200.0 0.8610424041 0.4987503121
9350243900.0 0.8687027866 0.485620125
9400243600.0 0.8753566002 0.474067124
9450243300.0 0.8806353654 0.4636472667
9500243000.0 0.8870764765 0.4520044536
9550242700.0 0.8911814817 0.4445766286
9600242400.0 0.8957054553 0.4369474749
9650242100.0 0.8998057532 0.4299376196
9700241800.0 0.9045701614 0.4215611557
9750241500.0 0.9089996827 0.4136948036
9800241200.0 0.9140810993 0.4042498049
9850240900.0 0.9199251265 0.3925067305
9900240600.0 0.9254360936 0.3810646514
9950240300.0 0.9325582981 0.3639384037
10000240000.0 0.9380942335 0.351666373
10050239700.0 0.9442761576 0.3354728022
10100239400.0 0.9492231075 0.3193047198
10150239100.0 0.9540280956 0.3035372636
10200238800.0 0.9580874607 0.288138886
10250238500.0 0.9614583398 0.2745330974
10300238200.0 0.964720854 0.2605910782
10350237900.0 0.9673687551 0.2471477187
10400237600.0 0.9701401124 0.233419528
10450237300.0 0.9727659921 0.2197326042
10500237000.0 0.9748832658 0.2079002248
10550236700.0 0.9772988772 0.1931335438
10600236400.0 0.9793081857 0.1792366388
10650236100.0 0.981475358 0.1645525327
10700235800.0 0.9838609156 0.1523514508
10750235500.0 0.9863278886 0.1387662449
10800235200.0 0.9882503903 0.1242453037
10850234900.0 0.9895134842 0.1099821985
10900234600.0 0.9916937433 0.0949713588
10950234300.0 0.9937945502 0.0812556153
11000234000.0 0.9957248148 0.0655278651
11050233700.0 0.9975291064 0.0488577443
11100233400.0 0.9988746139 0.031349824
11150233100.0 1.000114291 0.0143701192
11200232800.0 1.001029207 -0.0017324702
11250232500.0 1.001906936 -0.0194154655
11300232200.0 1.002400885 -0.0382608966
11350231900.0 1.001670221 -0.0540040213
11400231600.0 1.002019261 -0.070694023
11450231300.0 1.001542469 -0.0858407242
11500231000.0 0.9999736239 -0.1019955506
11550230700.0 0.997940139 -0.1155914524
11600230400.0 0.9973304876 -0.1284383828
11650230100.0 0.9951799957 -0.13991913
11700229800.0 0.9924750895 -0.1547672807
11750229500.0 0.9904343931 -0.1684734103
11800229200.0 0.987303385 -0.1817786284
11850228900.0 0.9834743759 -0.1937803762
11900228600.0 0.9798172723 -0.2029701202
11950228300.0 0.9763475498 -0.2135790211
12000228000.0 0.9737294424 -0.2220592486
12050227700.0 0.969682318 -0.2347754413
12100227400.0 0.9668078744 -0.2458240112
12150227100.0 0.9613719026 -0.2631784304
12200226800.0 0.9585408335 -0.2726073851
12250226500.0 0.9534536769 -0.28624779
12300226200.0 0.9496289465 -0.2988660221
12350225900.0 0.9441541419 -0.3120291393
12400225600.0 0.9402394036 -0.3248403722
12450225300.0 0.9355192802 -0.3372309329
12500225000.0 0.9301917203 -0.3523604668
12550224700.0 0.9247875068 -0.365697787
12600224400.0 0.9198209956 -0.3783267872
12650224100.0 0.9140622344 -0.3927056445
12700223800.0 0.9087606884 -0.4054911033
12750223500.0 0.9032583725 -0.4186188788
12800223200.0 0.8979455063 -0.4313603985
12850222900.0 0.8924683851 -0.4434042537
12900222600.0 0.8870819447 -0.4553980633
12950222300.0 0.8808455052 -0.4679252924
13000222000.0 0.8749353542 -0.4794192552
13050221700.0 0.8683452737 -0.4926736209
13100221400.0 0.8614723998 -0.5043983325
13150221100.0 0.854614962 -0.516745887
13200220800.0 0.8474486066 -0.5282643817
13250220500.0 0.8404112299 -0.5403002746
13300220200.0 0.832804548 -0.551460479
13350219900.0 0.8246348998 -0.563285208
13400219600.0 0.8162698724 -0.5751182802
13450219300.0 0.8072424095 -0.5880144732
13500219000.0 0.7974063007 -0.6012947549
13550218700.0 0.7873062878 -0.6139449046
13600218400.0 0.7775135538 -0.6254045286
13650218100.0 0.7675295218 -0.6365931432
13700217800.0 0.7583031735 -0.6479144018
13750217500.0 0.7474569505 -0.6586910048
13800217200.0 0.7362670371 -0.6699660864
13850216900.0 0.7253990431 -0.6809846918
13900216600.0 0.7157904939 -0.6901154695
13950216300.0 0.7052126733 -0.7001853099
14000216000.0 0.6951145933 -0.7091444478
14050215700.0 0.686226735 -0.7168466864
14100215400.0 0.6767141589 -0.7259808715
14150215100.0 0.6678467157 -0.734915949
14200214800.0 0.6581025923 -0.7438684321
14250214500.0 0.6477166163 -0.7533264479
14300214200.0 0.6374115158 -0.7628769418
14350213900.0 0.6261821876 -0.7724840256
14400213600.0 0.6142386589 -0.7821784931
14450213300.0 0.6011947926 -0.792359328
14500213000.0 0.5885164147 -0.8020050567
14550212700.0 0.5758645461 -0.8122406768
14600212400.0 0.5639864357 -0.8205552991
14650212100.0 0.5508722806 -0.8288691999
14700211800.0 0.5375837891 -0.8387498636
14750211500.0 0.525126252 -0.8468279099
14800211200.0 0.5123492248 -0.855458731
14850210900.0 0.5001722148 -0.8630658947
14900210600.0 0.4867620807 -0.870854489
14950210300.0 0.4735410103 -0.8784946792
15000210000.0 0.460970919 -0.8853320085
15050209700.0 0.4491227665 -0.8914209786
15100209400.0 0.4359123862 -0.8971522676
15150209100.0 0.4233340475 -0.9023342402
15200208800.0 0.4110615507 -0.9077295168
15250208500.0 0.3998846378 -0.9127335858
15300208200.0 0.3877815071 -0.9170057922
15350207900.0 0.3744597591 -0.9213056943
15400207600.0 0.3604876361 -0.9269963678
15450207300.0 0.3449960116 -0.9319731141
15500207000.0 0.3303670233 -0.9374352261
15550206700.0 0.3158736333 -0.9417115268
15600206400.0 0.2992703441 -0.9464347066
15650206100.0 0.2839906498 -0.9503442095
15700205800.0 0.2702711175 -0.9541140807
15750205500.0 0.2566838651 -0.9575260627
15800205200.0 0.2425454157 -0.961035468
15850204900.0 0.2283045238 -0.9646255066
15900204600.0 0.2132864791 -0.9682614706
15950204300.0 0.1986168433 -0.9712806659
16000204000.0 0.1846428378 -0.9743035123
16050203700.0 0.1693172821 -0.9774953044
16100203400.0 0.1544464434 -0.9792829557
16150203100.0 0.1397276477 -0.9820270862
16200202800.0 0.1248829412 -0.9844467353
16250202500.0 0.1105052719 -0.9860279712
16300202200.0 0.0948738345 -0.9875434474
16350201900.0 0.0801860431 -0.9889151609
16400201600.0 0.0654231781 -0.9900883998
16450201300.0 0.0499408955 -0.9913641711
16500201000.0 0.0326762425 -0.992037123
16550200700.0 0.0167375022 -0.9925531774
16600200400.0 0.0006402636 -0.9927912212
16650200100.0 -0.0153259915 -0.9927035461
16700199800.0 -0.0316911541 -0.9923483097
16750199500.0 -0.0506264294 -0.9910820089
16800199200.0 -0.0666412829 -0.9900984232
16850198900.0 -0.0821038806 -0.9894087484
16900198600.0 -0.0963671783 -0.9883520653
16950198300.0 -0.109794616 -0.9867206952
17000198000.0 -0.1233718557 -0.9856488914
17050197700.0 -0.136024206 -0.9844738075
17100197400.0 -0.1493267502 -0.9815414842
17150197100.0 -0.1613291244 -0.9798305435
17200196800.0 -0.174292194 -0.9781133146
17250196500.0 -0.1873538201 -0.9753470038
17300196200.0 -0.1995529099 -0.9730551372
17350195900.0 -0.2114243086 -0.9706182681
17400195600.0 -0.2231627388 -0.9681591322
17450195300.0 -0.2360941428 -0.9652408161
17500195000.0 -0.249467579 -0.962019559
17550194700.0 -0.2633631899 -0.9585791025
17600194400.0 -0.2769184892 -0.9550168013
17650194100.0 -0.290720978 -0.9504373535
17700193800.0 -0.3034939801 -0.9460324742
17750193500.0 -0.3176385118 -0.9416936705
17800193200.0 -0.3321822421 -0.9365331087
17850192900.0 -0.3467503024 -0.931297105
17900192600.0 -0.361685039 -0.9249798689
17950192300.0 -0.3773242629 -0.9178443962
18000192000.0 -0.3921813783 -0.9107808014
18050191700.0 -0.4059245718 -0.9026383584
18100191400.0 -0.420045569 -0.894991906
18150191100.0 -0.4349556247 -0.8869663778
18200190800.0 -0.4519002032 -0.8777331807
18250190500.0 -0.4686836724 -0.8683667991
18300190200.0 -0.4840423305 -0.8597587547
18350189900.0 -0.4994927734 -0.8506585655
18400189600.0 -0.5138272661 -0.8425483523
18450189300.0 -0.5275840108 -0.8350110997
18500189000.0 -0.5410190062 -0.8268855969
18550188700.0 -0.5540121769 -0.819289257
18600188400.0 -0.5659336565 -0.8121940865
18650188100.0 -0.5766130705 -0.8055967395
18700187800.0 -0.5878239069 -0.7984209568
18750187500.0 -0.5987287242 -0.7920426125
18800187200.0 -0.609348783 -0.7851888194
18850186900.0 -0.6194713814 -0.7783770047
18900186600.0 -0.6298363389 -0.7712744685
18950186300.0 -0.640073581 -0.7632222119
19000186000.0 -0.6470850366 -0.7571518417
19050185700.0 -0.6562408278 -0.7500193075
19100185400.0 -0.6672521257 -0.7420541998
19150185100.0 -0.6769537872 -0.7333921517
19200184800.0 -0.6864408944 -0.7249239043
19250184500.0 -0.696369212 -0.7159170116
19300184200.0 -0.7078881973 -0.706136812
19350183900.0 -0.7183962659 -0.6963557659
19400183600.0 -0.7279315747 -0.6867981302
19450183300.0 -0.7379002019 -0.676343723
19500183000.0 -0.7454406983 -0.6666648764
19550182700.0 -0.7555149566 -0.6561693208
19600182400.0 -0.7657037443 -0.6437844976
19650182100.0 -0.7763012512 -0.6315472849
19700181800.0 -0.7867317531 -0.6189008871
19750181500.0 -0.7970040148 -0.6043658936
19800181200.0 -0.8072686457 -0.5894049009
19850180900.0 -0.8170072319 -0.5743326268
19900180600.0 -0.8244414167 -0.5598694659
19950180300.0 -0.8333601447 -0.5433739838
20000180000.0 -0.8229811688 -0.547087024
20050179700.0 -0.8310854944 -0.5343652215
20100179400.0 -0.8394493983 -0.5208303585
20150179100.0 -0.8480392903 -0.5093274856
20200178800.0 -0.8564488325 -0.4985966908
20250178500.0 -0.8658393228 -0.4855045642
20300178200.0 -0.8750714505 -0.4714040504
20350177900.0 -0.8839502202 -0.4581245045
20400177600.0 -0.8935344375 -0.4438331609
20450177300.0 -0.9019625744 -0.429510544
20500177000.0 -0.9100650813 -0.4155815208
20550176700.0 -0.9177356544 -0.4019147905
20600176400.0 -0.9242344393 -0.3890062166
20650176100.0 -0.931646829 -0.3769683082
20700175800.0 -0.9381946599 -0.3651267078
20750175500.0 -0.9448536095 -0.3528532837
20800175200.0 -0.9488603396 -0.3425546658
20850174900.0 -0.9538883303 -0.3323556743
20900174600.0 -0.9582456441 -0.321872205
20950174300.0 -0.9606884509 -0.3096908812
21000174000.0 -0.9638202176 -0.2991223951
21050173700.0 -0.9658980704 -0.2896680299
21100173400.0 -0.9684440634 -0.2788486765
21150173100.0 -0.9721804676 -0.2677122077
21200172800.0 -0.9767623695 -0.2543395477
21250172500.0 -0.980280098 -0.2401174855
21300172200.0 -0.9842101501 -0.2264068308
21350171900.0 -0.9855834102 -0.2118382133
21400171600.0 -0.9882403609 -0.1979824229
21450171300.0 -0.989305718 -0.1844686266
21500171000.0 -0.9895809514 -0.1688182308
21550170700.0 -0.9894068634 -0.1538603386
21600170400.0 -0.9908892747 -0.1380773667
21650170100.0 -0.9909717867 -0.1219196172
21700169800.0 -0.9900742676 -0.1081671415
21750169500.0 -0.991268242 -0.0917769403
21800169200.0 -0.989498888 -0.074092113
21850168900.0 -0.9904562451 -0.0576400571
21900168600.0 -0.9899608633 -0.0421740939
21950168300.0 -0.9888953286 -0.0263717375
22000168000.0 -0.9893830246 -0.0114169868
22050167700.0 -0.9901843903 0.0037603313
22100167400.0 -0.9906825751 0.0195308347
22150167100.0 -0.9917018931 0.0354403488
22200166800.0 -0.9924617086 0.0523415257
22250166500.0 -0.9920352227 0.0695720968
22300166200.0 -0.9908606199 0.0854466673
22350165900.0 -0.9898417062 0.1013389763
22400165600.0 -0.9891496045 0.1170855286
22450165300.0 -0.9864573348 0.131945761
22500165000.0 -0.9862450931 0.1466473645
22550164700.0 -0.9834451259 0.1632661119
22600164400.0 -0.9812402058 0.1795843754
22650164100.0 -0.9790192191 0.1951679021
22700163800.0 -0.9752680314 0.2114792188
22750163500.0 -0.9727068568 0.2259578584
22800163200.0 -0.9692091034 0.2392669638
22850162900.0 -0.9669049422 0.2524011265
22900162600.0 -0.9650754752 0.2666871584
22950162300.0 -0.9631493386 0.2804207536
23000162000.0 -0.9610686503 0.2930071944
23050161700.0 -0.958694409 0.3065628107
23100161400.0 -0.9556205987 0.3205371849
23150161100.0 -0.9524735438 0.3334136495
23200160800.0 -0.9503913078 0.3460153699
23250160500.0 -0.9473094451 0.3583227395
23300160200.0 -0.9441611403 0.371087445
23350159900.0 -0.9396931594 0.3849942864
23400159600.0 -0.9352213636 0.3987925303
23450159300.0 -0.9298511405 0.4125325697
23500159000.0 -0.9245196388 0.4258330588
23550158700.0 -0.920452552 0.4402267609
23600158400.0 -0.9139421006 0.4544131826
23650158100.0 -0.9066389922 0.4690933243
23700157800.0 -0.8980824705 0.4832177441
23750157500.0 -0.8884316067 0.4976880629
23800157200.0 -0.8784845404 0.5110051856
23850156900.0 -0.8691179659 0.5237679677
23900156600.0 -0.8591766924 0.5363687364
23950156300.0 -0.8492683183 0.5489416733
24000156000.0 -0.8389800119 0.5609515171
24050155700.0 -0.8293951712 0.5733538313
24100155400.0 -0.8186083759 0.5862731285
24150155100.0 -0.8085067911 0.5985087627
24200154800.0 -0.7969111569 0.6101811596
24250154500.0 -0.7858568031 0.6222459282
24300154200.0 -0.7741607865 0.6348496204
24350153900.0 -0.7617936976 0.645536282
24400153600.0 -0.7492635348 0.6561800544
24450153300.0 -0.7374850825 0.6664079238
24500153000.0 -0.7255628892 0.6765640461
24550152700.0 -0.7138511048 0.6869440879
24600152400.0 -0.701948925 0.6958175647
24650152100.0 -0.6901374174 0.704716135
