!Created with skrf (http://scikit-rf.org).
# Hz S RI R 50.0 
!freq ReS11 ImS11
300000.0 -0.9741283701 -0.1188839334
50299700.0 -0.9997577032 0.0151612494
100299400.0 -0.9979095459 0.0280486851
150299100.0 -1.002615689 0.0449697157
200298800.0 -0.9994263029 0.0582176738
250298500.0 -0.9973573353 0.0717507438
300298200.0 -0.9858356564 0.0875230895
350297900.0 -0.9939042336 0.0983436567
400297600.0 -0.9930273888 0.1151405967
450297300.0 -0.9907426786 0.1288103183
500297000.0 -0.989328891 0.1435051812
550296700.0 -0.9842975417 0.1560631072
600296400.0 -1.017281711 0.1891849044
650296100.0 -0.9821389557 0.1858341081
700295800.0 -0.9791515081 0.2001039748
750295500.0 -0.9762876547 0.2141240235
800295200.0 -0.9727631525 0.2281785595
850294900.0 -0.9695527449 0.2419583447
900294600.0 -0.9658656956 0.2558041527
950294300.0 -0.9619683493 0.2694266645
1000294000.0 -0.9581436256 0.2832675135
1050293700.0 -0.9537159148 0.297192422
1100293400.0 -0.9492639151 0.3114146399
1150293100.0 -0.9454745441 0.3234471651
1200292800.0 -0.9400276239 0.3378886843
1250292500.0 -0.9346935243 0.3514395085
1300292200.0 -0.9289722044 0.3645136558
1350291900.0 -0.9233635835 0.3784689775
1400291600.0 -0.9179119593 0.3916932991
1450291300.0 -0.9125054249 0.4039845269
1500291000.0 -0.9061890195 0.4173781015
1550290700.0 -0.8996903755 0.4307065239
1600290400.0 -0.8935268927 0.4436346397
1650290100.0 -0.8868638967 0.4557764359
1700289800.0 -0.8799711563 0.4692862366
1750289500.0 -0.8727606012 0.4816405777
1800289200.0 -0.865324047 0.4946163987
1850288900.0 -0.8589311792 0.5058673506
1900288600.0 -0.8510475115 0.5186704452
1950288300.0 -0.8430766851 0.5314231543
2000288000.0 -0.8353834375 0.5427895303
2050287700.0 -0.8272338004 0.5550376481
2100287400.0 -0.8194264048 0.5667295231
2150287100.0 -0.8110084297 0.5787328582
2200286800.0 -0.8029928909 0.5893741372
2250286500.0 -0.7940030602 0.6014393437
2300286200.0 -0.7853045498 0.6128355373
2350285900.0 -0.7765674978 0.6237277812
2400285600.0 -0.7678683736 0.6346004736
2450285300.0 -0.7590466191 0.6451203112
2500285000.0 -0.7490489715 0.6565404779
2550284700.0 -0.7402684078 0.6670721067
2600284400.0 -0.7310004213 0.6767967024
2650284100.0 -0.7218246611 0.6872890489
2700283800.0 -0.7117333995 0.6976371481
2750283500.0 -0.7016369527 0.7084438923
2800283200.0 -0.6916156616 0.7182185624
2850282900.0 -0.6812265498 0.7281892013
2900282600.0 -0.6706631497 0.7377563609
2950282300.0 -0.6603195223 0.7472562311
3000282000.0 -0.6495542671 0.7566702579
3050281700.0 -0.6385396774 0.7658646267
3100281400.0 -0.6268130042 0.775013531
3150281100.0 -0.6154021694 0.7841159068
3200280800.0 -0.6038965133 0.7925977183
3250280500.0 -0.5928937099 0.8003739831
3300280200.0 -0.5814577689 0.8085570569
3350279900.0 -0.5693703831 0.8163056104
3400279600.0 -0.5569554827 0.8243962312
3450279300.0 -0.5457495674 0.8314189255
3500279000.0 -0.5338724965 0.8382686885
3550278700.0 -0.5217318315 0.8454195506
3600278400.0 -0.5099895864 0.8524101099
3650278100.0 -0.4968711348 0.8601682608
3700277800.0 -0.4847089329 0.866445197
3750277500.0 -0.4721880226 0.8732307403
3800277200.0 -0.4597860382 0.8797151355
3850276900.0 -0.4478542675 0.8857572049
3900276600.0 -0.4367490842 0.8913784279
3950276300.0 -0.4246357299 0.897165259
4000276000.0 -0.4127486876 0.9032916503
4050275700.0 -0.4001695807 0.9092709478
4100275400.0 -0.388923107 0.914766304
4150275100.0 -0.3759277025 0.9206633438
4200274800.0 -0.3626030689 0.9261644608
4250274500.0 -0.3502934645 0.9316888119
4300274200.0 -0.3369085375 0.9366664969
4350273900.0 -0.3229439953 0.9421486001
4400273600.0 -0.3082318825 0.947368015
4450273300.0 -0.2930767333 0.9520717142
4500273000.0 -0.2797138975 0.9565382179
4550272700.0 -0.2659781947 0.960436102
4600272400.0 -0.250782008 0.9647550664
4650272100.0 -0.2393971478 0.9678333027
4700271800.0 -0.2263259483 0.9711664068
4750271500.0 -0.2147518802 0.9741394264
4800271200.0 -0.2024108025 0.9766779504
4850270900.0 -0.1885650652 0.979408452
4900270600.0 -0.1748225223 0.9820624627
4950270300.0 -0.160480077 0.9845072284
5000270000.0 -0.1460374233 0.9867456256
5050269700.0 -0.1325703376 0.9883996288
5100269400.0 -0.118413595 0.9902025833
5150269100.0 -0.1044466425 0.9920073206
5200268800.0 -0.0911627786 0.9928829496
5250268500.0 -0.0781912045 0.9934391706
5300268200.0 -0.0645070786 0.9942929639
5350267900.0 -0.0520264068 0.9952631099
5400267600.0 -0.0357899867 0.99614599
5450267300.0 -0.0225565356 0.9967705268
5500267000.0 -0.0072716943 0.9970691094
5550266700.0 0.0076172484 0.9972492402
5600266400.0 0.023141679 0.9970264365
5650266100.0 0.039870956 0.9969682875
5700265800.0 0.0546225495 0.996167821
5750265500.0 0.069155814 0.9950942952
5800265200.0 0.0830461705 0.9942601854
5850264900.0 0.0963704578 0.9933898805
5900264600.0 0.1129095681 0.9915678113
5950264300.0 0.1245888195 0.9901896699
6000264000.0 0.1378972107 0.9877582983
6050263700.0 0.1497762898 0.9863893899
6100263400.0 0.162331781 0.9847100602
6150263100.0 0.1768588587 0.9825988635
6200262800.0 0.1866061237 0.9810404941
6250262500.0 0.1992651239 0.9786911718
6300262200.0 0.2116973196 0.9761903541
6350261900.0 0.224758383 0.9731257725
6400261600.0 0.2384500352 0.9701851185
6450261300.0 0.2493349331 0.967416947
6500261000.0 0.262676855 0.9640042668
6550260700.0 0.2759659753 0.9600203069
6600260400.0 0.2889542345 0.9555526859
6650260100.0 0.303322699 0.9515408433
6700259800.0 0.3154142239 0.9472240413
6750259500.0 0.3289645423 0.942253054
6800259200.0 0.3428106171 0.9371321044
6850258900.0 0.3545380765 0.9317406111
6900258600.0 0.3676122198 0.9266070461
6950258300.0 0.3799421673 0.9213955798
7000258000.0 0.3915836693 0.9161078258
7050257700.0 0.4036164374 0.9101498869
7100257400.0 0.4169265002 0.9037203649
7150257100.0 0.4273776331 0.8984329059
7200256800.0 0.4404194887 0.8919120707
7250256500.0 0.4529332256 0.8853760943
7300256200.0 0.4659762107 0.8787661775
7350255900.0 0.4786758163 0.8717318312
7400255600.0 0.492703654 0.8642752234
7450255300.0 0.5080742397 0.8551277226
7500255000.0 0.5201619312 0.8475684007
7550254700.0 0.5342900426 0.8386805954
7600254400.0 0.5468453023 0.830631723
7650254100.0 0.5582623831 0.8228027846
7700253800.0 0.5701510142 0.8148347973
7750253500.0 0.5810395234 0.8071091831
7800253200.0 0.5918151356 0.7992616558
7850252900.0 0.6015588897 0.7920854305
7900252600.0 0.6131053599 0.7833710799
7950252300.0 0.6215768561 0.776908525
8000252000.0 0.6314732509 0.7693474085
8050251700.0 0.64196997 0.7612313049
8100251400.0 0.6518953136 0.7531580818
8150251100.0 0.6620062092 0.7447507678
8200250800.0 0.6710826982 0.7364092859
8250250500.0 0.6801674027 0.728633065
8300250200.0 0.6892077428 0.7200996841
8350249900.0 0.6982831764 0.7111770548
8400249600.0 0.7064574349 0.7033897102
8450249300.0 0.7155068607 0.6944631412
8500249000.0 0.7241033496 0.6856293982
8550248700.0 0.7324066297 0.6765745393
8600248400.0 0.7407702448 0.6671518929
8650248100.0 0.7485276012 0.6576995165
8700247800.0 0.7578921824 0.6466029742
8750247500.0 0.7659478268 0.6366296331
8800247200.0 0.7741751192 0.6262448939
8850246900.0 0.7828684763 0.6147375611
8900246600.0 0.7913527408 0.603257082
8950246300.0 0.8006412889 0.5906418815
9000246000.0 0.8097584501 0.5782976176
9050245700.0 0.8182385959 0.566076289
9100245400.0 0.8266982741 0.553869964
9150245100.0 0.8358714953 0.5407097178
9200244800.0 0.8451647445 0.526092017
9250244500.0 0.8540737348 0.5112461347
9300244200.0 0.8623197896 0.4974191305
9350243900.0 0.8700144064 0.4840859139
9400243600.0 0.8766515338 0.4722949463
9450243300.0 0.8822226917 0.4614004438
9500243000.0 0.88834478 0.4495910363
9550242700.0 0.892549184 0.4419963658
9600242400.0 0.8967410617 0.4342646955
9650242100.0 0.900626331 0.4277618179
9700241800.0 0.905370952 0.419165381
9750241500.0 0.9097001484 0.411610043
9800241200.0 0.9146052947 0.4021340378
9850240900.0 0.9205251876 0.3903810923
9900240600.0 0.9258750327 0.3786845386
9950240300.0 0.9331528804 0.3621533624
10000240000.0 0.9383487664 0.35014391
10050239700.0 0.9440510597 0.3341753079
10100239400.0 0.9492867369 0.3180660892
10150239100.0 0.9538411865 0.3026033582
10200238800.0 0.9581512956 0.2873443297
10250238500.0 0.9612446348 0.2738907151
10300238200.0 0.9646168121 0.2600989831
10350237900.0 0.9672876304 0.246682878
10400237600.0 0.9700417385 0.2328738916
10450237300.0 0.9727747158 0.2194103362
10500237000.0 0.9749875208 0.2069749767
10550236700.0 0.9773077947 0.1929126684
10600236400.0 0.9796115034 0.1785116121
10650236100.0 0.9813130215 0.1645543121
10700235800.0 0.9838476665 0.1519218199
10750235500.0 0.9857771179 0.1387967037
10800235200.0 0.9880232378 0.1243723065
10850234900.0 0.9900325173 0.1095672224
10900234600.0 0.9919097187 0.0949654156
10950234300.0 0.9936377696 0.0814548995
11000234000.0 0.995509317 0.0660429483
11050233700.0 0.99731897 0.0494857703
11100233400.0 0.9988117325 0.0317216387
11150233100.0 0.999741458 0.015238117
11200232800.0 1.000780234 -0.0007722707
11250232500.0 1.00176883 -0.0183304432
11300232200.0 1.002123673 -0.0357144483
11350231900.0 1.002122591 -0.0523885902
11400231600.0 1.000856467 -0.0684961444
11450231300.0 1.001246196 -0.083835802
11500231000.0 0.9999690077 -0.1001708994
11550230700.0 0.9984846347 -0.1123485436
11600230400.0 0.996659666 -0.1253740449
11650230100.0 0.9952513362 -0.1372320188
11700229800.0 0.9927260054 -0.1520540081
11750229500.0 0.9902386217 -0.166749847
11800229200.0 0.9875300058 -0.1800774559
11850228900.0 0.9837764099 -0.192070072
11900228600.0 0.979825956 -0.2020770415
11950228300.0 0.9767033046 -0.2119392389
12000228000.0 0.9740279708 -0.2206689162
12050227700.0 0.9703937236 -0.2331255395
12100227400.0 0.9670839294 -0.2440634254
12150227100.0 0.962021968 -0.2612449684
12200226800.0 0.9583515096 -0.2720887297
12250226500.0 0.954802726 -0.2842712089
12300226200.0 0.9497800813 -0.2970182098
12350225900.0 0.9455356768 -0.3113290693
12400225600.0 0.9406262796 -0.3237174191
12450225300.0 0.9368582686 -0.3357729295
12500225000.0 0.9307823185 -0.3509265659
12550224700.0 0.9254772251 -0.364649398
12600224400.0 0.9205434621 -0.3771720672
12650224100.0 0.914788452 -0.3916059106
12700223800.0 0.9095949728 -0.4042272321
12750223500.0 0.904016271 -0.4173419471
12800223200.0 0.8987653526 -0.4296608213
12850222900.0 0.8935823071 -0.4421198047
12900222600.0 0.88800427 -0.4540987277
12950222300.0 0.8817611983 -0.4664876771
13000222000.0 0.8756992092 -0.4786468288
13050221700.0 0.8690647973 -0.4914516913
13100221400.0 0.8617613424 -0.5036065151
13150221100.0 0.8549817139 -0.515662629
13200220800.0 0.8481164907 -0.5269100281
13250220500.0 0.8410805034 -0.5393588712
13300220200.0 0.8333457817 -0.5500914869
13350219900.0 0.8254074355 -0.562073431
13400219600.0 0.8169277487 -0.5740310761
13450219300.0 0.8081684799 -0.5870892513
13500219000.0 0.7976961998 -0.6006541065
13550218700.0 0.7879642891 -0.6134573118
13600218400.0 0.7778848449 -0.6249789969
13650218100.0 0.7678823407 -0.6356560875
13700217800.0 0.7576373524 -0.6478903985
13750217500.0 0.7490019092 -0.6587470141
13800217200.0 0.7365137041 -0.6706580276
13850216900.0 0.7268226441 -0.6809693357
13900216600.0 0.7163388836 -0.6898112165
13950216300.0 0.7051973576 -0.7005629876
14000216000.0 0.6954245222 -0.7095448405
14050215700.0 0.6864238336 -0.7180593019
14100215400.0 0.6764521367 -0.7264019558
14150215100.0 0.6674781532 -0.7352687875
14200214800.0 0.6579989042 -0.7441935491
14250214500.0 0.6476380491 -0.7537274579
14300214200.0 0.6371454429 -0.7629670461
14350213900.0 0.626075609 -0.7727148991
14400213600.0 0.6141856981 -0.7821834956
14450213300.0 0.6011041244 -0.7927648182
14500213000.0 0.5882939588 -0.802650563
14550212700.0 0.5752849606 -0.8118949867
14600212400.0 0.5635763188 -0.8203101604
14650212100.0 0.5512922213 -0.8287389478
14700211800.0 0.5370378 -0.8386067697
14750211500.0 0.5247986278 -0.8470820606
14800211200.0 0.5120745378 -0.8554117189
14850210900.0 0.4998968159 -0.8629369885
14900210600.0 0.4866040196 -0.8709661904
14950210300.0 0.4733842417 -0.8786284436
15000210000.0 0.4605260951 -0.8855049929
15050209700.0 0.4485057395 -0.8915629696
15100209400.0 0.4353300904 -0.8976079732
15150209100.0 0.4235174503 -0.9029827987
15200208800.0 0.410534392 -0.9087250115
15250208500.0 0.3998184878 -0.9125003686
15300208200.0 0.3878043724 -0.9179286278
15350207900.0 0.3740539663 -0.9222737435
15400207600.0 0.3596587718 -0.9271055396
15450207300.0 0.3448943367 -0.9325590821
15500207000.0 0.330588215 -0.9375015343
15550206700.0 0.3157411318 -0.9425631769
15600206400.0 0.2995482193 -0.9464184302
15650206100.0 0.2835295468 -0.9510646225
15700205800.0 0.270192993 -0.9545301114
15750205500.0 0.2563709848 -0.9581093682
15800205200.0 0.2422811607 -0.9615053723
15850204900.0 0.2278752834 -0.9648319886
15900204600.0 0.2127669736 -0.9684019415
15950204300.0 0.1983045709 -0.9716299949
16000204000.0 0.183961276 -0.9745086092
16050203700.0 0.1691161142 -0.9775254492
16100203400.0 0.1543333692 -0.9801072509
16150203100.0 0.1395706826 -0.9824969815
16200202800.0 0.1255251592 -0.983822139
16250202500.0 0.1108379457 -0.9853084377
16300202200.0 0.0947832056 -0.9875317238
16350201900.0 0.0798793373 -0.9891678796
16400201600.0 0.0652677618 -0.9899359189
16450201300.0 0.0499586425 -0.9911937762
16500201000.0 0.0330397246 -0.9920184158
16550200700.0 0.0170277732 -0.9926556127
16600200400.0 0.0011079478 -0.993017537
16650200100.0 -0.0148892788 -0.9930205161
16700199800.0 -0.0312448514 -0.9923696518
16750199500.0 -0.0503475603 -0.9916740461
16800199200.0 -0.0662787156 -0.9910315817
16850198900.0 -0.0813163165 -0.9896933435
16900198600.0 -0.0957451443 -0.9885851619
16950198300.0 -0.1090867498 -0.9872771504
17000198000.0 -0.1222697745 -0.9856637753
17050197700.0 -0.1350086867 -0.9842240808
17100197400.0 -0.1476983121 -0.9824724469
17150197100.0 -0.1605617981 -0.9803576731
17200196800.0 -0.1730967855 -0.9779721735
17250196500.0 -0.1863326328 -0.9756815866
17300196200.0 -0.1983586979 -0.9732768481
17350195900.0 -0.2102102612 -0.9710127876
17400195600.0 -0.2221780342 -0.9682869229
17450195300.0 -0.2349513336 -0.9657471315
17500195000.0 -0.2482798343 -0.9622992383
17550194700.0 -0.2621874432 -0.9587582784
17600194400.0 -0.2758325647 -0.9547315471
17650194100.0 -0.2900513402 -0.9504861164
17700193800.0 -0.3024313642 -0.9463486843
17750193500.0 -0.3171952614 -0.9417335013
17800193200.0 -0.3312737498 -0.9363274289
17850192900.0 -0.3462379906 -0.9313921675
17900192600.0 -0.3613865974 -0.9250140232
17950192300.0 -0.3769509658 -0.9180285194
18000192000.0 -0.3915623743 -0.9107654899
18050191700.0 -0.4054074073 -0.903064971
18100191400.0 -0.4197525423 -0.8952905814
18150191100.0 -0.4345657609 -0.8875100185
18200190800.0 -0.451311006 -0.8781345342
18250190500.0 -0.4683395914 -0.8689479988
18300190200.0 -0.484144979 -0.8599784292
18350189900.0 -0.4988607627 -0.8517550114
18400189600.0 -0.5132663522 -0.84328092
18450189300.0 -0.5267675125 -0.8351428059
18500189000.0 -0.5405408767 -0.827293482
18550188700.0 -0.5534047171 -0.8191002077
18600188400.0 -0.5647792509 -0.8126283943
18650188100.0 -0.5762591726 -0.8061958244
18700187800.0 -0.5873236584 -0.79958345
18750187500.0 -0.5978002274 -0.7930692552
18800187200.0 -0.6087719416 -0.7859109839
18850186900.0 -0.6188508493 -0.7789295988
18900186600.0 -0.6290750433 -0.7716760283
18950186300.0 -0.6391306064 -0.764105317
19000186000.0 -0.6465649304 -0.7575351445
19050185700.0 -0.6560380147 -0.7502330303
19100185400.0 -0.6657971135 -0.7420614328
19150185100.0 -0.6764543479 -0.7341187573
19200184800.0 -0.685311609 -0.7251439705
19250184500.0 -0.6956936344 -0.7164149464
19300184200.0 -0.707266793 -0.7062647794
19350183900.0 -0.7174042888 -0.6969458804
19400183600.0 -0.7272256284 -0.6870687914
19450183300.0 -0.7365964626 -0.6771461567
19500183000.0 -0.7454439139 -0.6670053237
19550182700.0 -0.7544012794 -0.6561036661
19600182400.0 -0.7649534597 -0.6442824503
19650182100.0 -0.7758176363 -0.6317928097
19700181800.0 -0.786397469 -0.6187358578
19750181500.0 -0.796852408 -0.6046509174
19800181200.0 -0.8068953272 -0.5898837263
19850180900.0 -0.8163128906 -0.5745760967
19900180600.0 -0.8241140185 -0.5599277613
19950180300.0 -0.8334580335 -0.5437437834
20000180000.0 -0.8242717293 -0.5469774386
20050179700.0 -0.8325723089 -0.5342525575
20100179400.0 -0.8412208702 -0.5209798878
20150179100.0 -0.8485315553 -0.5089005962
20200178800.0 -0.8569991135 -0.4963287445
20250178500.0 -0.8670298596 -0.4843087553
20300178200.0 -0.8765831563 -0.4711312345
20350177900.0 -0.8853988417 -0.4563247161
20400177600.0 -0.8946312128 -0.4420365155
20450177300.0 -0.9025736929 -0.427646442
20500177000.0 -0.9109391951 -0.4136195436
20550176700.0 -0.9187812694 -0.4001662861
20600176400.0 -0.9256465014 -0.3877372661
20650176100.0 -0.9321113679 -0.3754149999
20700175800.0 -0.9390680828 -0.3625676475
20750175500.0 -0.9452164552 -0.3518907029
20800175200.0 -0.9498871383 -0.340745274
20850174900.0 -0.954593273 -0.330318111
20900174600.0 -0.9587453918 -0.3194541904
20950174300.0 -0.9626135419 -0.3073019906
21000174000.0 -0.9654846965 -0.2968240646
21050173700.0 -0.9670706187 -0.2868939866
21100173400.0 -0.9710272347 -0.2761820947
21150173100.0 -0.974784961 -0.2634087217
21200172800.0 -0.9787782246 -0.2507202055
21250172500.0 -0.9821481667 -0.2367990094
21300172200.0 -0.9854618372 -0.2227309371
21350171900.0 -0.9874969825 -0.2084300715
21400171600.0 -0.9889370295 -0.1945001052
21450171300.0 -0.9900431685 -0.1805200948
21500171000.0 -0.9899922988 -0.1646078887
21550170700.0 -0.9912137434 -0.1497397672
21600170400.0 -0.9908028739 -0.1339851688
21650170100.0 -0.9909452126 -0.1191503183
21700169800.0 -0.9900106324 -0.1035224997
21750169500.0 -0.9899250039 -0.0871016499
21800169200.0 -0.990066409 -0.0710949037
21850168900.0 -0.9894738867 -0.0547546785
21900168600.0 -0.9883604784 -0.0379541654
21950168300.0 -0.9885762447 -0.0216515611
22000168000.0 -0.9878022858 -0.0068674309
22050167700.0 -0.9882684364 0.007269149
22100167400.0 -0.9885757641 0.0234022331
22150167100.0 -0.9895344702 0.0388942043
22200166800.0 -0.9895643281 0.0555204753
22250166500.0 -0.9891603383 0.0725520193
22300166200.0 -0.9888742052 0.0894423379
22350165900.0 -0.9877129178 0.106383845
22400165600.0 -0.9858916028 0.1220033755
22450165300.0 -0.983731554 0.135956998
22500165000.0 -0.9821801926 0.1498812705
22550164700.0 -0.9814971871 0.1660234308
22600164400.0 -0.9790945303 0.1817560134
22650164100.0 -0.9765582018 0.1975643081
22700163800.0 -0.9733390556 0.213718029
22750163500.0 -0.9705750276 0.2289698735
22800163200.0 -0.9675127814 0.2417273621
22850162900.0 -0.9649157756 0.255158347
22900162600.0 -0.9631414228 0.2692003138
22950162300.0 -0.9615444544 0.2824191057
23000162000.0 -0.9598198616 0.2949408514
23050161700.0 -0.957424287 0.3078893034
23100161400.0 -0.9547492812 0.3216066241
23150161100.0 -0.9524091517 0.3345671627
23200160800.0 -0.9489158169 0.3471657475
23250160500.0 -0.9463743311 0.3596823218
23300160200.0 -0.9444494399 0.3712254788
23350159900.0 -0.9395844162 0.3852956362
23400159600.0 -0.9346353735 0.3989142775
23450159300.0 -0.9298115123 0.4126699974
23500159000.0 -0.9250199862 0.4262074646
23550158700.0 -0.9202795364 0.439922957
23600158400.0 -0.9143322187 0.4536379528
23650158100.0 -0.9071912839 0.4681614848
23700157800.0 -0.8990166878 0.482202233
23750157500.0 -0.8896327452 0.4965159334
23800157200.0 -0.880909386 0.5099280881
23850156900.0 -0.8705053463 0.5229373995
23900156600.0 -0.8614540588 0.5350707711
23950156300.0 -0.8516748606 0.5479148558
24000156000.0 -0.8414461694 0.5595473737
24050155700.0 -0.8315302054 0.5724719702
24100155400.0 -0.8209588603 0.5842440119
24150155100.0 -0.8104442199 0.5973192356
24200154800.0 -0.7995800233 0.6083189695
24250154500.0 -0.78868403 0.6206117484
24300154200.0 -0.7769221633 0.6326047664
24350153900.0 -0.7647715469 0.6434225169
24400153600.0 -0.7525963664 0.6538636403
24450153300.0 -0.74047394 0.6639543874
24500153000.0 -0.7288856846 0.6739468756
24550152700.0 -0.7176398537 0.6837383764
24600152400.0 -0.7056972823 0.6932911491
24650152100.0 -0.6937644399 0.7012510294
