!Created with skrf (http://scikit-rf.org).
# Hz S RI R 50.0 
!freq ReS11 ImS11
300000.0 -0.9761590199 -0.1120491355
50299700.0 -1.000157764 0.0158152434
100299400.0 -0.9980985792 0.02863605
150299100.0 -1.002891087 0.045574353
200298800.0 -0.9996971465 0.0587942848
250298500.0 -0.9973924602 0.0724905095
300298200.0 -0.9860112702 0.0881498752
350297900.0 -0.9941458093 0.0990429113
400297600.0 -0.9933793594 0.1156683309
450297300.0 -0.9909999157 0.1294749331
500297000.0 -0.9896274853 0.1441396598
550296700.0 -0.9844683709 0.1567876889
600296400.0 -1.017155433 0.1901013854
650296100.0 -0.9822717918 0.1867341677
700295800.0 -0.9792948872 0.2011275466
750295500.0 -0.976147488 0.2149852825
800295200.0 -0.9729351351 0.2290034591
850294900.0 -0.9694606312 0.24297794
900294600.0 -0.965752029 0.2567484364
950294300.0 -0.9620988208 0.270339308
1000294000.0 -0.9581356156 0.284367602
1050293700.0 -0.9535266818 0.2980971167
1100293400.0 -0.9493106957 0.3126911232
1150293100.0 -0.9453115187 0.3244951676
1200292800.0 -0.9398340379 0.3388138299
1250292500.0 -0.9347288042 0.3523094211
1300292200.0 -0.9288304396 0.36542672
1350291900.0 -0.9231216463 0.3796376663
1400291600.0 -0.9178908336 0.39252175
1450291300.0 -0.9124213844 0.40505108
1500291000.0 -0.9061071729 0.4183503987
1550290700.0 -0.8994900269 0.4316537028
1600290400.0 -0.8932939393 0.4445600929
1650290100.0 -0.8863952692 0.4566643082
1700289800.0 -0.8797168883 0.4700688602
1750289500.0 -0.8727233279 0.4823875497
1800289200.0 -0.8654376153 0.4952988875
1850288900.0 -0.8585369667 0.5065902394
1900288600.0 -0.8509691233 0.5196135378
1950288300.0 -0.8426444573 0.5320892838
2000288000.0 -0.8351950371 0.5436244477
2050287700.0 -0.8268935131 0.5557854312
2100287400.0 -0.8190247712 0.5676612858
2150287100.0 -0.8103028676 0.5796630198
2200286800.0 -0.8027710225 0.5898790367
2250286500.0 -0.7938360892 0.6019340271
2300286200.0 -0.7849065164 0.6138010636
2350285900.0 -0.7761809533 0.6245035065
2400285600.0 -0.7671845878 0.6356368235
2450285300.0 -0.7583770962 0.6460233333
2500285000.0 -0.7486955712 0.6575053744
2550284700.0 -0.739770276 0.6675783608
2600284400.0 -0.7307599621 0.6777477776
2650284100.0 -0.7215009734 0.688268888
2700283800.0 -0.7110601782 0.6990500858
2750283500.0 -0.7004506434 0.7095583726
2800283200.0 -0.6906107247 0.719021896
2850282900.0 -0.6807756805 0.7291501644
2900282600.0 -0.670259772 0.7386337652
2950282300.0 -0.6597738118 0.747902995
3000282000.0 -0.6491718117 0.7574474421
3050281700.0 -0.6381585467 0.7666175905
3100281400.0 -0.6262124719 0.775888414
3150281100.0 -0.6143279092 0.7854406811
3200280800.0 -0.6026922942 0.7938681077
3250280500.0 -0.5918884695 0.8013581366
3300280200.0 -0.580699154 0.8093153156
3350279900.0 -0.5691038889 0.8166536093
3400279600.0 -0.557227984 0.8244035156
3450279300.0 -0.5458428121 0.83146531
3500279000.0 -0.5339993937 0.8386669353
3550278700.0 -0.5214738498 0.8460018821
3600278400.0 -0.5091969122 0.8531533367
3650278100.0 -0.4958500456 0.8608944618
3700277800.0 -0.4838987561 0.867395308
3750277500.0 -0.4716936416 0.8736885549
3800277200.0 -0.4592322215 0.8802138985
3850276900.0 -0.446704786 0.8860980586
3900276600.0 -0.4361796259 0.8917914823
3950276300.0 -0.4238387883 0.8979766126
4000276000.0 -0.4116796008 0.9040477087
4050275700.0 -0.398746023 0.910070017
4100275400.0 -0.3877202387 0.9153728738
4150275100.0 -0.3747827503 0.9207915162
4200274800.0 -0.3618160966 0.9265023916
4250274500.0 -0.3497451383 0.9317315532
4300274200.0 -0.3364999084 0.9367586702
4350273900.0 -0.322806898 0.9422711282
4400273600.0 -0.3080130054 0.947358238
4450273300.0 -0.2924811889 0.9525168219
4500273000.0 -0.2788257312 0.9567460165
4550272700.0 -0.2647146763 0.9613260398
4600272400.0 -0.2493398587 0.9655007487
4650272100.0 -0.2375103188 0.9685743427
4700271800.0 -0.2241789851 0.9718797343
4750271500.0 -0.2124827554 0.9747624218
4800271200.0 -0.2000218464 0.9773563842
4850270900.0 -0.1861298047 0.9801916297
4900270600.0 -0.1723002733 0.9825498089
4950270300.0 -0.1579957411 0.9851981721
5000270000.0 -0.1439091971 0.9871371946
5050269700.0 -0.1302310962 0.9886671056
5100269400.0 -0.1167453981 0.9904803404
5150269100.0 -0.1034724865 0.9919623947
5200268800.0 -0.090154613 0.9930494912
5250268500.0 -0.0769528463 0.9939660667
5300268200.0 -0.0639533445 0.9945889228
5350267900.0 -0.0518569225 0.9952978053
5400267600.0 -0.035728915 0.9966583893
5450267300.0 -0.0227194133 0.9967684767
5500267000.0 -0.0072263606 0.9969514223
5550266700.0 0.0076846372 0.9973839623
5600266400.0 0.0232385907 0.997421366
5650266100.0 0.0398095447 0.9969609773
5700265800.0 0.0539526057 0.9960152345
5750265500.0 0.0694032936 0.9957188457
5800265200.0 0.0837281619 0.99438749
5850264900.0 0.0968664344 0.9935781108
5900264600.0 0.1133579224 0.9916916293
5950264300.0 0.1256439212 0.9900763242
6000264000.0 0.1398435587 0.9884865674
6050263700.0 0.1520855665 0.9868612394
6100263400.0 0.1641474513 0.9847469168
6150263100.0 0.1788803508 0.982545538
6200262800.0 0.1892910798 0.9806732209
6250262500.0 0.2018190825 0.9782576574
6300262200.0 0.2149103254 0.9754816277
6350261900.0 0.2278604314 0.9724623096
6400261600.0 0.2416945478 0.9691017899
6450261300.0 0.2532070392 0.966499107
6500261000.0 0.2657601445 0.9629897072
6550260700.0 0.2787334513 0.9589176503
6600260400.0 0.2919001527 0.9547930575
6650260100.0 0.3058037254 0.9505047387
6700259800.0 0.3181210563 0.9464420477
6750259500.0 0.332274333 0.9414120712
6800259200.0 0.3446980982 0.9363981216
6850258900.0 0.3571778894 0.9312685603
6900258600.0 0.3691132318 0.9261570797
6950258300.0 0.3819362457 0.9208226727
7000258000.0 0.3937157233 0.9155348871
7050257700.0 0.4060238527 0.909446158
7100257400.0 0.4186887892 0.9030770392
7150257100.0 0.4290503665 0.8979410263
7200256800.0 0.4418102538 0.8915215292
7250256500.0 0.4535673964 0.8851279183
7300256200.0 0.4667415681 0.8783640636
7350255900.0 0.4792369639 0.8715135698
7400255600.0 0.4924015149 0.8641002046
7450255300.0 0.5070658803 0.8551063928
7500255000.0 0.5190050329 0.847981516
7550254700.0 0.5331758391 0.8396194397
7600254400.0 0.5457084544 0.8310362721
7650254100.0 0.5575209336 0.8235607304
7700253800.0 0.5689961506 0.8156034595
7750253500.0 0.5803280105 0.8077369959
7800253200.0 0.5911447551 0.8001722534
7850252900.0 0.600882034 0.7930007464
7900252600.0 0.6125484724 0.784176272
7950252300.0 0.6213993852 0.7777430195
8000252000.0 0.6315049442 0.7697333373
8050251700.0 0.641970665 0.7616671517
8100251400.0 0.6520002801 0.7534554434
8150251100.0 0.6619918105 0.7448205499
8200250800.0 0.6714410891 0.7368003517
8250250500.0 0.6801619104 0.7288952682
8300250200.0 0.6895623807 0.7200568983
8350249900.0 0.6987968263 0.7115776958
8400249600.0 0.7070470745 0.7035715578
8450249300.0 0.7162705767 0.6942793049
8500249000.0 0.7247931925 0.6855476054
8550248700.0 0.7329987142 0.6765083012
8600248400.0 0.7414290647 0.6670135526
8650248100.0 0.7490936961 0.6575151524
8700247800.0 0.7586299418 0.6463868268
8750247500.0 0.7669063585 0.6363459082
8800247200.0 0.7751959163 0.6258874063
8850246900.0 0.7838499327 0.6143381478
8900246600.0 0.7924773744 0.6031150194
8950246300.0 0.8018141709 0.5901835844
9000246000.0 0.8112421296 0.5772812167
9050245700.0 0.8204088417 0.5642165423
9100245400.0 0.829166364 0.5516930831
9150245100.0 0.8385012204 0.5381567281
9200244800.0 0.8480657205 0.5224733663
9250244500.0 0.8576495565 0.5069875584
9300244200.0 0.8661799962 0.4924572901
9350243900.0 0.8739249248 0.478551465
9400243600.0 0.8804944651 0.4659963937
9450243300.0 0.8862737995 0.4545469472
9500243000.0 0.8924839559 0.4423760404
9550242700.0 0.8962020235 0.434649861
9600242400.0 0.8999121228 0.4272646239
9650242100.0 0.9036538587 0.4207444714
9700241800.0 0.9084367377 0.4126397161
9750241500.0 0.9122576397 0.4048634855
9800241200.0 0.9170464213 0.396119377
9850240900.0 0.9225797669 0.3843050342
9900240600.0 0.9282351321 0.3726816576
9950240300.0 0.9347262035 0.3566034309
10000240000.0 0.9389088681 0.3452416284
10050239700.0 0.9447953422 0.3298596099
10100239400.0 0.9501717702 0.3142105618
10150239100.0 0.9542995626 0.2994701034
10200238800.0 0.9585455066 0.2845150433
10250238500.0 0.9618299146 0.2712001813
10300238200.0 0.9647277183 0.2572570509
10350237900.0 0.9674327748 0.2442637594
10400237600.0 0.9701803622 0.2307977112
10450237300.0 0.9727132735 0.2171308858
10500237000.0 0.9748293379 0.2055058603
10550236700.0 0.9772879744 0.1908355747
10600236400.0 0.9787704624 0.1780893898
10650236100.0 0.9810395772 0.1630150887
10700235800.0 0.9837736875 0.1507229458
10750235500.0 0.9861712045 0.1375527287
10800235200.0 0.9876699249 0.1238149836
10850234900.0 0.9897277721 0.1091441113
10900234600.0 0.9920080207 0.0942751177
10950234300.0 0.9934349008 0.0812340974
11000234000.0 0.9952754953 0.0659770026
11050233700.0 0.9971046531 0.0496863162
11100233400.0 0.998291786 0.0322909236
11150233100.0 0.9994774125 0.0155940812
11200232800.0 1.000024841 0.0012012703
11250232500.0 1.001102764 -0.0154307335
11300232200.0 1.001400846 -0.0336686076
11350231900.0 1.001342485 -0.0493271906
11400231600.0 1.001367356 -0.065481981
11450231300.0 1.000552386 -0.0807040737
11500231000.0 0.9996176422 -0.0970944151
11550230700.0 0.9985146865 -0.110712304
11600230400.0 0.9970781372 -0.1230028817
11650230100.0 0.9952188198 -0.1342321289
11700229800.0 0.9922353269 -0.1488068952
11750229500.0 0.9905695103 -0.1642788525
11800229200.0 0.9878244697 -0.1778517381
11850228900.0 0.9842325087 -0.1899354437
11900228600.0 0.9805547142 -0.1997007145
11950228300.0 0.9774816262 -0.2101485013
12000228000.0 0.9747772816 -0.2186703481
12050227700.0 0.9703039017 -0.2325401058
12100227400.0 0.968168471 -0.2424897836
12150227100.0 0.9630132905 -0.2596543881
12200226800.0 0.9595506122 -0.2705661185
12250226500.0 0.9549937175 -0.2830348005
12300226200.0 0.9510127925 -0.2957771779
12350225900.0 0.9462290983 -0.3091683372
12400225600.0 0.941960781 -0.3216738851
12450225300.0 0.937118641 -0.3342173777
12500225000.0 0.9319813096 -0.3493183424
12550224700.0 0.9267340154 -0.363094459
12600224400.0 0.9217416141 -0.37579996
12650224100.0 0.9160284256 -0.3902340364
12700223800.0 0.9108539493 -0.4028557376
12750223500.0 0.9054036272 -0.4156071979
12800223200.0 0.8998821611 -0.4284861517
12850222900.0 0.8947408837 -0.4408746557
12900222600.0 0.8888419265 -0.4529282191
12950222300.0 0.8828098015 -0.465593525
13000222000.0 0.8766750819 -0.4768290139
13050221700.0 0.8700617385 -0.4895251648
13100221400.0 0.8630681255 -0.501992685
13150221100.0 0.8562567293 -0.5142871132
13200220800.0 0.8490192995 -0.5253763817
13250220500.0 0.841842876 -0.5375372819
13300220200.0 0.8344905273 -0.5485337587
13350219900.0 0.8264615299 -0.5605608684
13400219600.0 0.8180497766 -0.5728296367
13450219300.0 0.8085268642 -0.5863422445
13500219000.0 0.7985144649 -0.6005206056
13550218700.0 0.7882138707 -0.6130252013
13600218400.0 0.7780625912 -0.625151238
13650218100.0 0.7679698548 -0.636742387
13700217800.0 0.7572824144 -0.6491440393
13750217500.0 0.7463839575 -0.6605271058
13800217200.0 0.7359754296 -0.6720012451
13850216900.0 0.7244371439 -0.683574804
13900216600.0 0.7151345005 -0.6920896335
13950216300.0 0.7040400126 -0.7027798095
14000216000.0 0.6934857803 -0.711917803
14050215700.0 0.6843779732 -0.720367866
14100215400.0 0.6745839797 -0.7291533324
14150215100.0 0.6655132296 -0.7374030978
14200214800.0 0.6559995647 -0.7460946936
14250214500.0 0.645929391 -0.755380671
14300214200.0 0.6356458423 -0.7645050991
14350213900.0 0.6245722038 -0.7742171304
14400213600.0 0.6126384527 -0.7839172086
14450213300.0 0.5993939959 -0.7940278347
14500213000.0 0.5868587232 -0.8035987435
14550212700.0 0.5739964609 -0.8135041797
14600212400.0 0.5614588516 -0.8219119394
14650212100.0 0.5485770552 -0.8308382303
14700211800.0 0.534495442 -0.8401849491
14750211500.0 0.522568187 -0.848463422
14800211200.0 0.5102454693 -0.8566282673
14850210900.0 0.4979787435 -0.864084286
14900210600.0 0.4845659388 -0.8720609053
14950210300.0 0.4713183543 -0.8796405392
15000210000.0 0.45828403 -0.8865677674
15050209700.0 0.4454746131 -0.8926224119
15100209400.0 0.4329416 -0.8986743145
15150209100.0 0.420678448 -0.9039576473
15200208800.0 0.4076411932 -0.9094431705
15250208500.0 0.3968061428 -0.9138156109
15300208200.0 0.3845731064 -0.9185376843
15350207900.0 0.3711583941 -0.9233078426
15400207600.0 0.3571021431 -0.9288295825
15450207300.0 0.3422287198 -0.9333462496
15500207000.0 0.3282611903 -0.9376670689
15550206700.0 0.3125079735 -0.9432068751
15600206400.0 0.2969327101 -0.9481676994
15650206100.0 0.2806820072 -0.9520269097
15700205800.0 0.2664339557 -0.9558094793
15750205500.0 0.2523774482 -0.9592414278
15800205200.0 0.2376170643 -0.9626093876
15850204900.0 0.2232773212 -0.9660786481
15900204600.0 0.2083723067 -0.9694540579
15950204300.0 0.194204049 -0.9724870985
16000204000.0 0.1805442605 -0.9752546742
16050203700.0 0.165140435 -0.9783554596
16100203400.0 0.1506451364 -0.980815524
16150203100.0 0.1365260671 -0.9823797136
16200202800.0 0.1226741042 -0.984175878
16250202500.0 0.1077811351 -0.9859544285
16300202200.0 0.0928189434 -0.9877820072
16350201900.0 0.0774632858 -0.9889446819
16400201600.0 0.0628440015 -0.9900939286
16450201300.0 0.0477006295 -0.9910626158
16500201000.0 0.0311348196 -0.992022067
16550200700.0 0.0155607912 -0.9925836832
16600200400.0 -0.00017237 -0.9927540839
16650200100.0 -0.0161721809 -0.9926309707
16700199800.0 -0.0328548677 -0.9921754331
16750199500.0 -0.0521997071 -0.9915877237
16800199200.0 -0.0677176002 -0.9908925346
16850198900.0 -0.0828385082 -0.9897499478
16900198600.0 -0.0962344776 -0.9884559096
16950198300.0 -0.1105370956 -0.9871248455
17000198000.0 -0.1230475302 -0.9858155888
17050197700.0 -0.1353900995 -0.9841498438
17100197400.0 -0.148339142 -0.9820513185
17150197100.0 -0.1607506582 -0.9797610534
17200196800.0 -0.1733607723 -0.9781021472
17250196500.0 -0.1864597488 -0.9755034892
17300196200.0 -0.1987733326 -0.9731582802
17350195900.0 -0.2104532729 -0.9708337139
17400195600.0 -0.2227303611 -0.9682644155
17450195300.0 -0.2360420679 -0.965360925
17500195000.0 -0.2495669073 -0.9620039545
17550194700.0 -0.2633106803 -0.9583223443
17600194400.0 -0.2771739374 -0.9542673818
17650194100.0 -0.2908623874 -0.9503027423
17700193800.0 -0.3038894892 -0.9461460945
17750193500.0 -0.3182543414 -0.9416336736
17800193200.0 -0.3326260371 -0.9363962254
17850192900.0 -0.347728349 -0.9310199388
17900192600.0 -0.3627883824 -0.9246763793
17950192300.0 -0.3782907722 -0.9176441264
18000192000.0 -0.3929539581 -0.9103614499
18050191700.0 -0.4067983337 -0.9024273614
18100191400.0 -0.421100371 -0.8948368437
18150191100.0 -0.4361116313 -0.8868532138
18200190800.0 -0.4531236073 -0.8774977413
18250190500.0 -0.469998326 -0.8680343738
18300190200.0 -0.4851371092 -0.8589972967
18350189900.0 -0.5001662349 -0.8513915601
18400189600.0 -0.5146788892 -0.8423660459
18450189300.0 -0.5279234401 -0.8346223896
18500189000.0 -0.5415315543 -0.8263602888
18550188700.0 -0.5538694529 -0.8191403208
18600188400.0 -0.5657693015 -0.8123356485
18650188100.0 -0.5767795002 -0.8058350785
18700187800.0 -0.5878335092 -0.7992653382
18750187500.0 -0.5983659691 -0.7925249829
18800187200.0 -0.6087460147 -0.7855273547
18850186900.0 -0.6188858404 -0.7786587456
18900186600.0 -0.6292218927 -0.77119748
18950186300.0 -0.6393904418 -0.7635776129
19000186000.0 -0.6466474848 -0.7570226018
19050185700.0 -0.6558647326 -0.7502795358
19100185400.0 -0.6660503059 -0.7413047892
19150185100.0 -0.6763179742 -0.7336876864
19200184800.0 -0.6853764512 -0.7248901563
19250184500.0 -0.6959059825 -0.7151113543
19300184200.0 -0.7070824393 -0.7057564639
19350183900.0 -0.7178267824 -0.6961040065
19400183600.0 -0.7282283634 -0.6855708597
19450183300.0 -0.7362044033 -0.6758731689
19500183000.0 -0.7449229032 -0.6658988235
19550182700.0 -0.7542176228 -0.6551620872
19600182400.0 -0.764721345 -0.6438044342
19650182100.0 -0.7758295632 -0.6314246188
19700181800.0 -0.7862920014 -0.6182345604
19750181500.0 -0.7970149631 -0.6040274353
19800181200.0 -0.8072184557 -0.5890702747
19850180900.0 -0.8168226221 -0.5735771303
19900180600.0 -0.8245785296 -0.5589468437
19950180300.0 -0.8339990132 -0.5429153458
20000180000.0 -0.827045316 -0.5453660759
20050179700.0 -0.8346845983 -0.5328386864
20100179400.0 -0.842751043 -0.5188125878
20150179100.0 -0.8511958232 -0.5056511671
20200178800.0 -0.8606820471 -0.4937309281
20250178500.0 -0.870038197 -0.4793102415
20300178200.0 -0.8796617464 -0.4647757902
20350177900.0 -0.8881497194 -0.4504120404
20400177600.0 -0.8971320358 -0.4359212492
20450177300.0 -0.9054390488 -0.4216805839
20500177000.0 -0.9134624283 -0.4076640277
20550176700.0 -0.9214791741 -0.3940802464
20600176400.0 -0.9284249479 -0.380919818
20650176100.0 -0.9349688041 -0.3684133659
20700175800.0 -0.9416394499 -0.3563083225
20750175500.0 -0.9479563894 -0.3441300328
20800175200.0 -0.9529953381 -0.3342812408
20850174900.0 -0.9579523151 -0.3230251084
20900174600.0 -0.9623340688 -0.3104636848
20950174300.0 -0.9665899737 -0.2996858288
21000174000.0 -0.9705000208 -0.2884769274
21050173700.0 -0.9724132217 -0.2778728996
21100173400.0 -0.977198816 -0.2653618915
21150173100.0 -0.9817041656 -0.2523577626
21200172800.0 -0.9844425933 -0.2391558414
21250172500.0 -0.9879968991 -0.2248469945
21300172200.0 -0.9906313831 -0.2110255882
21350171900.0 -0.9924709804 -0.1965444749
21400171600.0 -0.9934049131 -0.1824606974
21450171300.0 -0.9937090692 -0.1677285477
21500171000.0 -0.9928587642 -0.1525769982
21550170700.0 -0.9930694084 -0.137827382
21600170400.0 -0.9930160437 -0.1207830132
21650170100.0 -0.9924729976 -0.1057337934
21700169800.0 -0.9907208472 -0.0903031522
21750169500.0 -0.9893658774 -0.0747867976
21800169200.0 -0.9887636962 -0.0576467522
21850168900.0 -0.9866599989 -0.0414137903
21900168600.0 -0.9856489353 -0.0255750893
21950168300.0 -0.9841779768 -0.0094343721
22000168000.0 -0.9830107171 0.0053389157
22050167700.0 -0.9827183089 0.0194451401
22100167400.0 -0.9830038424 0.0346496071
22150167100.0 -0.9834964251 0.0500112135
22200166800.0 -0.9834992 0.0664594058
22250166500.0 -0.9830880991 0.082925667
22300166200.0 -0.9817283738 0.1001211155
22350165900.0 -0.9805739002 0.1166565347
22400165600.0 -0.9801771577 0.1324215895
22450165300.0 -0.9776592719 0.1471219753
22500165000.0 -0.9744724814 0.1607276706
22550164700.0 -0.9743549071 0.1764750759
22600164400.0 -0.972693367 0.1921893465
22650164100.0 -0.9699027559 0.2072518293
22700163800.0 -0.9684784621 0.2226740331
22750163500.0 -0.965422581 0.238099738
22800163200.0 -0.9630752044 0.2517058308
22850162900.0 -0.9603128826 0.2650442282
22900162600.0 -0.9589434132 0.2784054066
22950162300.0 -0.9578136757 0.2910679583
23000162000.0 -0.9569601353 0.3026198388
23050161700.0 -0.9552771883 0.3150257155
23100161400.0 -0.9526414228 0.3283851523
23150161100.0 -0.9497842908 0.3402978289
23200160800.0 -0.9469115939 0.3532522118
23250160500.0 -0.9438886934 0.36470199
23300160200.0 -0.9418250954 0.3762021711
23350159900.0 -0.937528701 0.3891297514
23400159600.0 -0.9326209428 0.4022650051
23450159300.0 -0.9281895356 0.4155349523
23500159000.0 -0.9239139614 0.4282257697
23550158700.0 -0.9193992739 0.4419660316
23600158400.0 -0.9139779823 0.4548666756
23650158100.0 -0.9077491522 0.4688304433
23700157800.0 -0.8998805502 0.4824682822
23750157500.0 -0.8913777051 0.4968263863
23800157200.0 -0.8822660351 0.5098621595
23850156900.0 -0.8735689818 0.5225171601
23900156600.0 -0.8644505733 0.5350003661
23950156300.0 -0.8554569362 0.5476726867
24000156000.0 -0.8455007732 0.5593465842
24050155700.0 -0.8355813314 0.5714799604
24100155400.0 -0.8253049367 0.5828882769
24150155100.0 -0.8153239229 0.5951376023
24200154800.0 -0.8035788047 0.6064755013
24250154500.0 -0.7926960107 0.6180232306
24300154200.0 -0.7813118184 0.6298352367
24350153900.0 -0.7693218637 0.6401754895
24400153600.0 -0.7569457597 0.6502658865
24450153300.0 -0.7451991104 0.6601028555
24500153000.0 -0.7339950345 0.6694579894
24550152700.0 -0.7227700141 0.6800020087
24600152400.0 -0.7108913655 0.6884992218
24650152100.0 -0.6986844075 0.6975803427
