!Created with skrf (http://scikit-rf.org).
# Hz S RI R 50.0 
!freq ReS11 ImS11
300000.0 -0.9771565358 -0.112830297
50299700.0 -1.000023095 0.0158386054
100299400.0 -0.9980345989 0.0287293413
150299100.0 -1.002987123 0.0457856539
200298800.0 -0.9996374104 0.0589730482
250298500.0 -0.997586865 0.0724397364
300298200.0 -0.986037415 0.088285942
350297900.0 -0.9941086477 0.0990728133
400297600.0 -0.9932409361 0.1157682333
450297300.0 -0.9911206376 0.1296013716
500297000.0 -0.9895169435 0.1443974938
550296700.0 -0.984274022 0.1567007535
600296400.0 -1.017204061 0.1899747446
650296100.0 -0.9822485119 0.1868097699
700295800.0 -0.9792356874 0.2011183045
750295500.0 -0.9761415556 0.2149870721
800295200.0 -0.9730160661 0.2292592157
850294900.0 -0.9695730657 0.2431029231
900294600.0 -0.965633252 0.2569077913
950294300.0 -0.9621055484 0.2704304129
1000294000.0 -0.9578965439 0.2843899594
1050293700.0 -0.9532639042 0.2982076839
1100293400.0 -0.9491177919 0.3126235537
1150293100.0 -0.9453861468 0.3244964119
1200292800.0 -0.9400905599 0.338806103
1250292500.0 -0.9347105355 0.3522324071
1300292200.0 -0.9288500314 0.3654323698
1350291900.0 -0.9233169198 0.379526906
1400291600.0 -0.9177624701 0.3924908018
1450291300.0 -0.9124566968 0.4050111783
1500291000.0 -0.9059382215 0.4181703574
1550290700.0 -0.8993566414 0.4315255523
1600290400.0 -0.8931818115 0.4445853963
1650290100.0 -0.8866718768 0.4566353167
1700289800.0 -0.8797456897 0.4701450427
1750289500.0 -0.8726211175 0.4825494247
1800289200.0 -0.8652709141 0.4951375898
1850288900.0 -0.8584037032 0.5066004655
1900288600.0 -0.8507973626 0.519781477
1950288300.0 -0.8426618275 0.53225739
2000288000.0 -0.8350999363 0.5434948919
2050287700.0 -0.8268597954 0.5559299706
2100287400.0 -0.8190315417 0.567562291
2150287100.0 -0.8103720601 0.5798065404
2200286800.0 -0.8025576876 0.5901639228
2250286500.0 -0.7936417596 0.6019933408
2300286200.0 -0.7847063086 0.6137082324
2350285900.0 -0.7761387092 0.6247679911
2400285600.0 -0.7670627747 0.6357240616
2450285300.0 -0.7584921857 0.6459136618
2500285000.0 -0.7487811397 0.6573174515
2550284700.0 -0.7398358235 0.6675354815
2600284400.0 -0.7305361142 0.6776900706
2650284100.0 -0.7212930933 0.6883024742
2700283800.0 -0.7103744972 0.698865447
2750283500.0 -0.7005428323 0.7090981769
2800283200.0 -0.6907084683 0.7192968695
2850282900.0 -0.6805375082 0.7288590785
2900282600.0 -0.6702440529 0.7384739415
2950282300.0 -0.659950077 0.7479026059
3000282000.0 -0.6492936293 0.757274773
3050281700.0 -0.6380890184 0.7665365957
3100281400.0 -0.6261387442 0.7759345431
3150281100.0 -0.6142834431 0.7852821307
3200280800.0 -0.6025911536 0.7937347756
3250280500.0 -0.5918177925 0.8012798706
3300280200.0 -0.5806120717 0.8092970104
3350279900.0 -0.5692467953 0.8168148576
3400279600.0 -0.5569780035 0.8243533898
3450279300.0 -0.5459019698 0.8316341439
3500279000.0 -0.5338474444 0.8386698572
3550278700.0 -0.5214094897 0.8460214627
3600278400.0 -0.5091373714 0.8531656135
3650278100.0 -0.4959413562 0.8608825567
3700277800.0 -0.4838463226 0.8674121575
3750277500.0 -0.4715733028 0.8736210037
3800277200.0 -0.4593245676 0.8803329385
3850276900.0 -0.4470639012 0.8862793171
3900276600.0 -0.4362283067 0.8918463096
3950276300.0 -0.4237699845 0.8979121393
4000276000.0 -0.4116349574 0.9038229342
4050275700.0 -0.3986420409 0.9098027451
4100275400.0 -0.3874585203 0.9151502331
4150275100.0 -0.3749359501 0.9207517654
4200274800.0 -0.3620032499 0.9264892865
4250274500.0 -0.3496943532 0.9316572754
4300274200.0 -0.336709444 0.9369047161
4350273900.0 -0.3227977389 0.9419272504
4400273600.0 -0.3079500132 0.947362194
4450273300.0 -0.2925916568 0.9526592661
4500273000.0 -0.2789875304 0.9568150003
4550272700.0 -0.2647159148 0.9612023356
4600272400.0 -0.2491694479 0.9654593205
4650272100.0 -0.2375592665 0.9686362685
4700271800.0 -0.224143 0.9718376838
4750271500.0 -0.2125678343 0.974706247
4800271200.0 -0.2000091311 0.9773923718
4850270900.0 -0.1861231603 0.9802140335
4900270600.0 -0.1721485209 0.9825890981
4950270300.0 -0.1580543893 0.9849649843
5000270000.0 -0.143780142 0.9871805776
5050269700.0 -0.1301550536 0.9889882254
5100269400.0 -0.1166103165 0.9905470521
5150269100.0 -0.1033774519 0.992132226
5200268800.0 -0.090189879 0.9928178811
5250268500.0 -0.0770000894 0.9938796223
5300268200.0 -0.0642122744 0.9947663861
5350267900.0 -0.0519148534 0.9953891876
5400267600.0 -0.0354034946 0.9964238652
5450267300.0 -0.0224359165 0.9968559312
5500267000.0 -0.0073986768 0.9971729843
5550266700.0 0.0078162634 0.9974404248
5600266400.0 0.0231282972 0.9973470859
5650266100.0 0.0398402748 0.997011179
5700265800.0 0.0540911316 0.9959780195
5750265500.0 0.0695226803 0.9953808754
5800265200.0 0.083421665 0.9942025939
5850264900.0 0.0965521501 0.9933681864
5900264600.0 0.1131115577 0.9911750173
5950264300.0 0.1254396585 0.9899852461
6000264000.0 0.1393447709 0.9880587188
6050263700.0 0.1518327542 0.9864368033
6100263400.0 0.1642355393 0.9848904837
6150263100.0 0.1791013881 0.9826671637
6200262800.0 0.1893410801 0.9807024916
6250262500.0 0.20193612 0.978138293
6300262200.0 0.214957416 0.9754950443
6350261900.0 0.2279815957 0.9725712008
6400261600.0 0.2419565802 0.9692182057
6450261300.0 0.2530932408 0.9664728061
6500261000.0 0.2660922702 0.9626267104
6550260700.0 0.2790769297 0.9591360556
6600260400.0 0.2924116177 0.9550906994
6650260100.0 0.306429265 0.9508388717
6700259800.0 0.3179206464 0.9461320513
6750259500.0 0.3319068523 0.9411404588
6800259200.0 0.3450136093 0.9363444287
6850258900.0 0.356915959 0.93129063
6900258600.0 0.3691971722 0.9263021438
6950258300.0 0.3818039145 0.9208970399
7000258000.0 0.3936092049 0.9153664558
7050257700.0 0.4062163583 0.9093696463
7100257400.0 0.418690296 0.9031847199
7150257100.0 0.4289599875 0.8978077579
7200256800.0 0.4417083976 0.8914496567
7250256500.0 0.453432558 0.8850919438
7300256200.0 0.4665304068 0.8782994946
7350255900.0 0.4788951866 0.871445846
7400255600.0 0.4922210753 0.8642670853
7450255300.0 0.507738887 0.8549439411
7500255000.0 0.5191144708 0.8479406839
7550254700.0 0.5326548641 0.8395465404
7600254400.0 0.545591528 0.83132926
7650254100.0 0.5577629622 0.8233427636
7700253800.0 0.5690483404 0.8153267105
7750253500.0 0.5802329944 0.8076395222
7800253200.0 0.5909396249 0.7999800616
7850252900.0 0.6006678554 0.7929014713
7900252600.0 0.6124644986 0.7841757619
7950252300.0 0.6214449779 0.7774777239
8000252000.0 0.6316112462 0.7698797968
8050251700.0 0.6420892476 0.7613804024
8100251400.0 0.6519431697 0.7531716125
8150251100.0 0.6622257614 0.7446474953
8200250800.0 0.6715540045 0.7367813532
8250250500.0 0.6806265587 0.7286075719
8300250200.0 0.6900437652 0.7200835161
8350249900.0 0.6991919935 0.7115478322
8400249600.0 0.7069645651 0.7034929299
8450249300.0 0.7163080586 0.6941928274
8500249000.0 0.7247591745 0.6855027723
8550248700.0 0.7330449151 0.6764901837
8600248400.0 0.7414668956 0.666983307
8650248100.0 0.749349424 0.6575898101
8700247800.0 0.7588064568 0.6463747847
8750247500.0 0.7670447792 0.6362177035
8800247200.0 0.7752511009 0.6258200826
8850246900.0 0.7838809167 0.6143794535
8900246600.0 0.7923809155 0.603166091
8950246300.0 0.8022488899 0.5899929937
9000246000.0 0.8112603329 0.5772803484
9050245700.0 0.8207423188 0.5641864577
9100245400.0 0.8287029954 0.5516971373
9150245100.0 0.8385401255 0.537928802
9200244800.0 0.8483950917 0.5226019814
9250244500.0 0.8576392433 0.5069908935
9300244200.0 0.8662084511 0.4922396246
9350243900.0 0.8739739084 0.4783071982
9400243600.0 0.880730393 0.4658700626
9450243300.0 0.8864837674 0.4543248293
9500243000.0 0.8927931068 0.4420238607
9550242700.0 0.8964614514 0.4344642164
9600242400.0 0.9001180752 0.4271063005
9650242100.0 0.9037737838 0.4205877569
9700241800.0 0.9083119451 0.412346914
9750241500.0 0.9123816503 0.4048691531
9800241200.0 0.9168528886 0.3958608657
9850240900.0 0.9225919447 0.3841014016
9900240600.0 0.9280164434 0.3726839773
9950240300.0 0.9345955942 0.3564461592
10000240000.0 0.9396304035 0.3445050949
10050239700.0 0.9452043002 0.3297836671
10100239400.0 0.9501789518 0.3138592799
10150239100.0 0.9542394634 0.2994316887
10200238800.0 0.9585267466 0.2845219548
10250238500.0 0.9618617051 0.2712362415
10300238200.0 0.9650469228 0.2571082618
10350237900.0 0.967810405 0.2439210185
10400237600.0 0.9700313426 0.2308668838
10450237300.0 0.9727430774 0.2171621643
10500237000.0 0.974824594 0.2050354165
10550236700.0 0.9770815668 0.1915730202
10600236400.0 0.9795560309 0.1773387252
10650236100.0 0.9810364578 0.1634764775
10700235800.0 0.9838742037 0.1505847392
10750235500.0 0.985808547 0.1376417102
10800235200.0 0.9877734332 0.1235986992
10850234900.0 0.9897025555 0.108974344
10900234600.0 0.9914699403 0.0947659235
10950234300.0 0.9934418627 0.0810736367
11000234000.0 0.9953351364 0.0659930087
11050233700.0 0.9970980757 0.0496008337
11100233400.0 0.9984217314 0.0320555166
11150233100.0 0.9996865266 0.0156598553
11200232800.0 0.9999800557 0.0009363982
11250232500.0 1.001204298 -0.0161461305
11300232200.0 1.002033039 -0.0338538824
11350231900.0 1.001759903 -0.0499622422
11400231600.0 1.00175808 -0.0641237837
11450231300.0 1.000523882 -0.0808584473
11500231000.0 0.9998113766 -0.0967231103
11550230700.0 0.9987184956 -0.109940497
11600230400.0 0.9964878604 -0.1223534461
11650230100.0 0.9944604239 -0.1341450668
11700229800.0 0.9926629477 -0.1494068159
11750229500.0 0.9905708088 -0.1637432028
11800229200.0 0.9876874 -0.1773795021
11850228900.0 0.9840031224 -0.1899561558
11900228600.0 0.9805365619 -0.1995058989
11950228300.0 0.9773092463 -0.2099266286
12000228000.0 0.9749340059 -0.2188915517
12050227700.0 0.970869863 -0.2320512896
12100227400.0 0.9676814636 -0.2434217886
12150227100.0 0.9629520814 -0.2591510368
12200226800.0 0.9597726567 -0.2693696426
12250226500.0 0.9551655067 -0.2828497965
12300226200.0 0.9514720941 -0.2952982029
12350225900.0 0.9462097637 -0.3089195846
12400225600.0 0.9417581949 -0.3216912316
12450225300.0 0.9373614434 -0.3349007888
12500225000.0 0.9317188009 -0.3491552952
12550224700.0 0.9266343404 -0.36323804
12600224400.0 0.9217816109 -0.3757982031
12650224100.0 0.9158921541 -0.3902852024
12700223800.0 0.9106847763 -0.4029579769
12750223500.0 0.9052817766 -0.4159145643
12800223200.0 0.8998134426 -0.4285396381
12850222900.0 0.8945617284 -0.4406526963
12900222600.0 0.8889579083 -0.4525504147
12950222300.0 0.8821644401 -0.4660662609
13000222000.0 0.8763861803 -0.4766957244
13050221700.0 0.8700431183 -0.4894073895
13100221400.0 0.8631630728 -0.50193431
13150221100.0 0.8564107976 -0.5139752073
13200220800.0 0.8491858899 -0.5254449076
13250220500.0 0.8417097124 -0.5376115974
13300220200.0 0.8344792534 -0.5487179728
13350219900.0 0.8263633889 -0.5606595217
13400219600.0 0.8179205339 -0.572854381
13450219300.0 0.8083580567 -0.5867239254
13500219000.0 0.7981229585 -0.6005896418
13550218700.0 0.7878347761 -0.6135679581
13600218400.0 0.7776955141 -0.6253635762
13650218100.0 0.7676997492 -0.6368754297
13700217800.0 0.7562962768 -0.6493355443
13750217500.0 0.7469248102 -0.6605765691
13800217200.0 0.7364632391 -0.6719752324
13850216900.0 0.7239273572 -0.6835698056
13900216600.0 0.7148153082 -0.6930960951
13950216300.0 0.7040790989 -0.70256199
14000216000.0 0.6940815114 -0.7121158714
14050215700.0 0.6841813205 -0.7201793963
14100215400.0 0.6743868141 -0.7294964657
14150215100.0 0.6653334728 -0.7376825048
14200214800.0 0.6558756993 -0.7461745198
14250214500.0 0.6458340864 -0.7553841642
14300214200.0 0.6353124537 -0.7646336956
14350213900.0 0.624286997 -0.7742059066
14400213600.0 0.6123539998 -0.7840686406
14450213300.0 0.5994986649 -0.7941412918
14500213000.0 0.5864841393 -0.8044866378
14550212700.0 0.5735792163 -0.8134285089
14600212400.0 0.56111575 -0.8218248637
14650212100.0 0.5479931105 -0.8310614609
14700211800.0 0.5344569053 -0.8406106234
14750211500.0 0.5221201894 -0.8484029886
14800211200.0 0.5099135332 -0.8565349836
14850210900.0 0.4978574919 -0.8641489808
14900210600.0 0.4845333727 -0.8719228376
14950210300.0 0.4710552906 -0.8797406887
15000210000.0 0.4582437783 -0.8865397209
15050209700.0 0.4458698936 -0.892497914
15100209400.0 0.4332138929 -0.8986446196
15150209100.0 0.4208417277 -0.9037825743
15200208800.0 0.4074858722 -0.9093244093
15250208500.0 0.3961455728 -0.9139219657
15300208200.0 0.3834624479 -0.9189595679
15350207900.0 0.3712270326 -0.9229668738
15400207600.0 0.3557611808 -0.9283921455
15450207300.0 0.3417502611 -0.9341068961
15500207000.0 0.327316044 -0.9385361614
15550206700.0 0.3113382165 -0.9439010041
15600206400.0 0.2964667428 -0.9480549526
15650206100.0 0.28034182 -0.9520170553
15700205800.0 0.2662024966 -0.9560161832
15750205500.0 0.2519514249 -0.9591417703
15800205200.0 0.2374486032 -0.9627037444
15850204900.0 0.22299636 -0.9660104035
15900204600.0 0.2079840395 -0.9695920069
15950204300.0 0.1940211226 -0.9725791978
16000204000.0 0.1800604177 -0.9752179537
16050203700.0 0.1647786003 -0.9784559674
16100203400.0 0.1505625212 -0.980225661
16150203100.0 0.1365434135 -0.9824554393
16200202800.0 0.1226442515 -0.984151918
16250202500.0 0.1078893167 -0.9860397247
16300202200.0 0.0919348815 -0.9879050224
16350201900.0 0.0776563168 -0.989336819
16400201600.0 0.0632184767 -0.9902614142
16450201300.0 0.0478120775 -0.9913545887
16500201000.0 0.0313007486 -0.9921659297
16550200700.0 0.0154336345 -0.9925454378
16600200400.0 -0.0001252636 -0.992632406
16650200100.0 -0.0165412088 -0.9926328567
16700199800.0 -0.0329645093 -0.9919720971
16750199500.0 -0.0511929707 -0.9915588519
16800199200.0 -0.0676293498 -0.9902305443
16850198900.0 -0.0828452702 -0.989802786
16900198600.0 -0.0964613533 -0.9886283847
16950198300.0 -0.1099707801 -0.9871216808
17000198000.0 -0.1223396038 -0.985931763
17050197700.0 -0.1358132181 -0.9835475306
17100197400.0 -0.1488524739 -0.9818250762
17150197100.0 -0.1612630814 -0.9798751172
17200196800.0 -0.1743303983 -0.9776722817
17250196500.0 -0.1868259675 -0.9751262917
17300196200.0 -0.1987175957 -0.9730712903
17350195900.0 -0.2107181958 -0.970815425
17400195600.0 -0.2230373812 -0.9681249178
17450195300.0 -0.2359641771 -0.9654004822
17500195000.0 -0.2496383963 -0.9621112831
17550194700.0 -0.2633079668 -0.9585130307
17600194400.0 -0.2770797523 -0.954452162
17650194100.0 -0.2910027898 -0.9503988812
17700193800.0 -0.304111727 -0.9458940747
17750193500.0 -0.3184960457 -0.9415667356
17800193200.0 -0.3328528612 -0.9364196695
17850192900.0 -0.347820375 -0.9306888039
17900192600.0 -0.3629921369 -0.9248080142
17950192300.0 -0.3783763644 -0.9176351295
18000192000.0 -0.3931698515 -0.9104729577
18050191700.0 -0.4068710429 -0.9025942535
18100191400.0 -0.4211642159 -0.8948573872
18150191100.0 -0.4360121561 -0.8866605646
18200190800.0 -0.4528899769 -0.8776404962
18250190500.0 -0.4699713933 -0.8680486722
18300190200.0 -0.4853802978 -0.8595432904
18350189900.0 -0.5002617351 -0.8506179919
18400189600.0 -0.5148702618 -0.8428156296
18450189300.0 -0.5278824398 -0.8346808082
18500189000.0 -0.5410774508 -0.8269255749
18550188700.0 -0.5544157675 -0.8190682187
18600188400.0 -0.5658161046 -0.8122058341
18650188100.0 -0.5767749558 -0.805716798
18700187800.0 -0.5874242615 -0.7992127921
18750187500.0 -0.5985994943 -0.7925397034
18800187200.0 -0.608802442 -0.7853526869
18850186900.0 -0.6190669836 -0.7782947416
18900186600.0 -0.6294041834 -0.7709099368
18950186300.0 -0.6394924434 -0.7631444614
19000186000.0 -0.646752585 -0.7569811499
19050185700.0 -0.6558412032 -0.7501632256
19100185400.0 -0.6660707617 -0.7413765389
19150185100.0 -0.6760687234 -0.7328946184
19200184800.0 -0.6853965928 -0.7246736329
19250184500.0 -0.6960322175 -0.7153011688
19300184200.0 -0.7075643052 -0.705174893
19350183900.0 -0.7177165744 -0.6958587925
19400183600.0 -0.7277357342 -0.6860363076
19450183300.0 -0.7368744913 -0.6760581379
19500183000.0 -0.7447531027 -0.6664965432
19550182700.0 -0.7547761551 -0.6555392512
19600182400.0 -0.7653491871 -0.6438808742
19650182100.0 -0.7759037475 -0.6311788805
19700181800.0 -0.7865031345 -0.6180713851
19750181500.0 -0.7971244864 -0.6040803809
19800181200.0 -0.807374878 -0.5889756071
19850180900.0 -0.8170956254 -0.5736111249
19900180600.0 -0.8248512921 -0.5589806257
19950180300.0 -0.8339305038 -0.542602842
20000180000.0 -0.8272812697 -0.5453036479
20050179700.0 -0.83538708 -0.5324887549
20100179400.0 -0.8436203265 -0.5192640459
20150179100.0 -0.851780631 -0.5055863272
20200178800.0 -0.8607029298 -0.4930665578
20250178500.0 -0.8694403943 -0.4795851106
20300178200.0 -0.8796824676 -0.4650903558
20350177900.0 -0.8887018986 -0.4508826984
20400177600.0 -0.8973378363 -0.4358274112
20450177300.0 -0.9055471828 -0.4217301565
20500177000.0 -0.9133818733 -0.407616822
20550176700.0 -0.9215095133 -0.3944284725
20600176400.0 -0.9288063466 -0.3810364011
20650176100.0 -0.9347659495 -0.3685961011
20700175800.0 -0.9416105524 -0.356766514
20750175500.0 -0.9486322001 -0.345138594
20800175200.0 -0.9532033353 -0.3335225595
20850174900.0 -0.9580621377 -0.3222534591
20900174600.0 -0.9623068077 -0.3112177621
20950174300.0 -0.9669019909 -0.3002996293
21000174000.0 -0.970551756 -0.2885181143
21050173700.0 -0.9730103705 -0.2779027036
21100173400.0 -0.9777683421 -0.2653184083
21150173100.0 -0.9809850872 -0.2533514937
21200172800.0 -0.9847547631 -0.2390617238
21250172500.0 -0.9883760534 -0.225331964
21300172200.0 -0.9904346571 -0.2106843087
21350171900.0 -0.9922289478 -0.1970256067
21400171600.0 -0.9936783351 -0.1825048107
21450171300.0 -0.9938558962 -0.1678093009
21500171000.0 -0.9925151199 -0.1530025927
21550170700.0 -0.9929725494 -0.1372586312
21600170400.0 -0.9933180353 -0.1211825211
21650170100.0 -0.9927222983 -0.1071263334
21700169800.0 -0.990281127 -0.0905185701
21750169500.0 -0.9892159039 -0.0755906609
21800169200.0 -0.9879371143 -0.0587119765
21850168900.0 -0.9878279134 -0.0421243665
21900168600.0 -0.9857111327 -0.0253178645
21950168300.0 -0.9844834083 -0.009437193
22000168000.0 -0.9829176687 0.0055632874
22050167700.0 -0.9826004257 0.0193670438
22100167400.0 -0.9827989033 0.0343492501
22150167100.0 -0.9835664655 0.0504986798
22200166800.0 -0.9834781263 0.0662291821
22250166500.0 -0.9835490585 0.0836481369
22300166200.0 -0.9824687635 0.0997077663
22350165900.0 -0.9802854844 0.1167271097
22400165600.0 -0.9793425292 0.1325238942
22450165300.0 -0.9773889889 0.1472618863
22500165000.0 -0.9758114187 0.1601795929
22550164700.0 -0.9752977925 0.1756711536
22600164400.0 -0.9729982943 0.1915599404
22650164100.0 -0.9700401036 0.2060946598
22700163800.0 -0.9672695732 0.223244664
22750163500.0 -0.9657507947 0.2378930369
22800163200.0 -0.9623315983 0.2509987641
22850162900.0 -0.9600039684 0.2644272805
22900162600.0 -0.958398917 0.2778630122
22950162300.0 -0.9579625009 0.2908061481
23000162000.0 -0.9568295954 0.3022996747
23050161700.0 -0.9550614071 0.3151687995
23100161400.0 -0.9522046621 0.3277673768
23150161100.0 -0.9494477399 0.3397745109
23200160800.0 -0.9471713158 0.3525104297
23250160500.0 -0.944285122 0.3643084286
23300160200.0 -0.9422575349 0.3761535724
23350159900.0 -0.9373507961 0.3883686415
23400159600.0 -0.9326157721 0.401580543
23450159300.0 -0.9286208364 0.4156807423
23500159000.0 -0.92363051 0.4283701824
23550158700.0 -0.9193931117 0.4419046961
23600158400.0 -0.9138333514 0.4544667482
23650158100.0 -0.9075517487 0.4686388165
23700157800.0 -0.9000110859 0.4823801813
23750157500.0 -0.8920370809 0.4964979493
23800157200.0 -0.8826120205 0.5099111071
23850156900.0 -0.8737038148 0.5221346847
23900156600.0 -0.8648106777 0.5346246158
23950156300.0 -0.8550248664 0.5469927708
24000156000.0 -0.8462405206 0.5596554065
24050155700.0 -0.835334612 0.5707874667
24100155400.0 -0.8257738354 0.5831457095
24150155100.0 -0.815392763 0.5947775235
24200154800.0 -0.8038854585 0.6062502664
24250154500.0 -0.792761456 0.6178164229
24300154200.0 -0.7814529291 0.6293175784
24350153900.0 -0.7692426765 0.6396922707
24400153600.0 -0.7574912408 0.6499976381
24450153300.0 -0.7456040385 0.6601358557
24500153000.0 -0.7341187271 0.669430428
24550152700.0 -0.7226283318 0.679512214
24600152400.0 -0.7113491641 0.6875402983
24650152100.0 -0.7000418872 0.696429263
