!Created with skrf (http://scikit-rf.org).
# Hz S RI R 50.0 
!freq ReS11 ImS11
300000.0 -0.9817398953 -0.0961984947
50299700.0 -1.000091256 0.0163604636
100299400.0 -0.9981821223 0.0293408911
150299100.0 -1.002869676 0.0461523133
200298800.0 -0.9996346572 0.0593562648
250298500.0 -0.9973826473 0.0729443246
300298200.0 -0.9860443517 0.0888668302
350297900.0 -0.9940297033 0.0997378772
400297600.0 -0.9931966727 0.1161784658
450297300.0 -0.9907714759 0.1297910444
500297000.0 -0.989185455 0.144807115
550296700.0 -0.9843281977 0.1571724502
600296400.0 -1.017288255 0.1908287713
650296100.0 -0.9820476561 0.1873040246
700295800.0 -0.979158049 0.2015544006
750295500.0 -0.9758166886 0.2153156163
800295200.0 -0.9727686961 0.2296303708
850294900.0 -0.9693834551 0.2434494478
900294600.0 -0.9655026158 0.2572916463
950294300.0 -0.9615802604 0.2709269195
1000294000.0 -0.957568756 0.285113885
1050293700.0 -0.9531957824 0.2987892838
1100293400.0 -0.9488195575 0.3130383994
1150293100.0 -0.9448297474 0.3248176203
1200292800.0 -0.9396506148 0.3393451343
1250292500.0 -0.9343057209 0.3527428205
1300292200.0 -0.9285864705 0.3658433464
1350291900.0 -0.9230905281 0.3798939336
1400291600.0 -0.9174320882 0.3930885581
1450291300.0 -0.9120353776 0.4053558286
1500291000.0 -0.9056609967 0.4186220712
1550290700.0 -0.8991870103 0.4318174107
1600290400.0 -0.8930719077 0.4446372675
1650290100.0 -0.8864765066 0.4569144787
1700289800.0 -0.8795085806 0.4704307037
1750289500.0 -0.8724039376 0.4826133992
1800289200.0 -0.8651223527 0.4956138559
1850288900.0 -0.8583512839 0.5067811938
1900288600.0 -0.8508019763 0.5199137673
1950288300.0 -0.842474393 0.5325127573
2000288000.0 -0.8350153296 0.5437985599
2050287700.0 -0.826650363 0.5560996575
2100287400.0 -0.8187936405 0.5680040912
2150287100.0 -0.8101792686 0.5799291423
2200286800.0 -0.8022323874 0.5902170228
2250286500.0 -0.793505632 0.6022828621
2300286200.0 -0.7844594272 0.6137850722
2350285900.0 -0.7755328644 0.62485167
2400285600.0 -0.7664170203 0.6360022494
2450285300.0 -0.7581014779 0.6463353906
2500285000.0 -0.748341949 0.6577384681
2550284700.0 -0.7392158577 0.6680818661
2600284400.0 -0.7299455452 0.6782594855
2650284100.0 -0.7207935021 0.6888546492
2700283800.0 -0.7101239672 0.6991918921
2750283500.0 -0.699914735 0.7099332632
2800283200.0 -0.6898449362 0.7194147603
2850282900.0 -0.679859106 0.7292368951
2900282600.0 -0.6697738466 0.7387859783
2950282300.0 -0.6595941161 0.7481592937
3000282000.0 -0.6488301343 0.7575283421
3050281700.0 -0.6376239667 0.7667685685
3100281400.0 -0.6257439343 0.7759188882
3150281100.0 -0.6140591804 0.7854411149
3200280800.0 -0.6023121161 0.7939468868
3250280500.0 -0.5915526354 0.8016130811
3300280200.0 -0.58050468 0.8094983118
3350279900.0 -0.5690209572 0.8169916816
3400279600.0 -0.556961384 0.824807328
3450279300.0 -0.5457989798 0.8318988049
3500279000.0 -0.5336920622 0.8387311667
3550278700.0 -0.5214415428 0.8462606469
3600278400.0 -0.5089435899 0.8533191113
3650278100.0 -0.4956125146 0.8609888641
3700277800.0 -0.4836435355 0.8674458052
3750277500.0 -0.471410415 0.8739852623
3800277200.0 -0.458879313 0.8804659645
3850276900.0 -0.4468390461 0.8865079436
3900276600.0 -0.4358036361 0.8919722621
3950276300.0 -0.4233891735 0.898151498
4000276000.0 -0.4112869339 0.9040564145
4050275700.0 -0.39801877 0.910279968
4100275400.0 -0.3869337623 0.9155196341
4150275100.0 -0.3742316339 0.92126392
4200274800.0 -0.3609794589 0.9266442853
4250274500.0 -0.3487502984 0.9319065462
4300274200.0 -0.3356442252 0.9371277262
4350273900.0 -0.3220748975 0.9423016664
4400273600.0 -0.3074378814 0.9474235799
4450273300.0 -0.2917719285 0.9526423524
4500273000.0 -0.2780698549 0.9570107915
4550272700.0 -0.2639780636 0.9610998175
4600272400.0 -0.2484909212 0.9652725925
4650272100.0 -0.2367884076 0.9685674651
4700271800.0 -0.2236271564 0.9717670819
4750271500.0 -0.2117977206 0.9747618807
4800271200.0 -0.1991958989 0.9774286026
4850270900.0 -0.1852336278 0.9802029502
4900270600.0 -0.1714463575 0.9826595433
4950270300.0 -0.1573962204 0.9852817007
5000270000.0 -0.143096941 0.9872166987
5050269700.0 -0.129774046 0.9888726695
5100269400.0 -0.1162921204 0.9906822745
5150269100.0 -0.1029159657 0.9914993896
5200268800.0 -0.0896215999 0.9929960603
5250268500.0 -0.0767540582 0.994049364
5300268200.0 -0.0633436238 0.9950606281
5350267900.0 -0.0514101557 0.9954971541
5400267600.0 -0.0352101838 0.99672292
5450267300.0 -0.0223136884 0.9968218306
5500267000.0 -0.0072073277 0.9970976929
5550266700.0 0.0077403281 0.9974337464
5600266400.0 0.0232595513 0.9974536876
5650266100.0 0.039687489 0.9969022536
5700265800.0 0.0541769575 0.9961210229
5750265500.0 0.0692896286 0.9953668021
5800265200.0 0.0835702208 0.9943578527
5850264900.0 0.0968445504 0.9931273758
5900264600.0 0.1132404933 0.9912930133
5950264300.0 0.1255682223 0.9897829233
6000264000.0 0.1395535431 0.9881568622
6050263700.0 0.1521263759 0.9861556255
6100263400.0 0.1646247506 0.9846527099
6150263100.0 0.1793873057 0.9819872527
6200262800.0 0.1898732818 0.9802960584
6250262500.0 0.202564196 0.9777238957
6300262200.0 0.2157632627 0.975017462
6350261900.0 0.2285760096 0.9720354827
6400261600.0 0.2426362462 0.9686709096
6450261300.0 0.2539888959 0.966003981
6500261000.0 0.2665986503 0.962437536
6550260700.0 0.2794793803 0.9584141112
6600260400.0 0.292998544 0.9546464713
6650260100.0 0.3068806034 0.9501626887
6700259800.0 0.3187374552 0.945794087
6750259500.0 0.3327279842 0.94123907
6800259200.0 0.3455433134 0.9361255387
6850258900.0 0.3577521105 0.9310193884
6900258600.0 0.3695749783 0.9258235259
6950258300.0 0.3824395432 0.9207364149
7000258000.0 0.3942851539 0.9154013103
7050257700.0 0.4065108912 0.9092131243
7100257400.0 0.4192072956 0.9031194795
7150257100.0 0.4293959806 0.8979147531
7200256800.0 0.4420716824 0.8914900881
7250256500.0 0.4541859792 0.8853585498
7300256200.0 0.4671539575 0.8784670451
7350255900.0 0.4789808429 0.8713670007
7400255600.0 0.4922129976 0.8645951838
7450255300.0 0.5075626902 0.855515304
7500255000.0 0.5187361718 0.8484145383
7550254700.0 0.5326712697 0.8399111321
7600254400.0 0.5456274326 0.8317664501
7650254100.0 0.5568818003 0.8238551681
7700253800.0 0.5689049926 0.8158109186
7750253500.0 0.5801873339 0.8077054207
7800253200.0 0.5910424556 0.8000458403
7850252900.0 0.6006367016 0.792797592
7900252600.0 0.6125074677 0.7839138199
7950252300.0 0.6215156884 0.7773406304
8000252000.0 0.6317693371 0.7694577195
8050251700.0 0.6422648263 0.7611050777
8100251400.0 0.6523488924 0.7530741087
8150251100.0 0.6623317283 0.7439774081
8200250800.0 0.6719191834 0.736179782
8250250500.0 0.6803436142 0.7280233526
8300250200.0 0.6901687007 0.7193629218
8350249900.0 0.6991687917 0.7107158856
8400249600.0 0.7078335387 0.7026831367
8450249300.0 0.7167126777 0.6933909314
8500249000.0 0.7254512631 0.6844813148
8550248700.0 0.7338009698 0.6754869106
8600248400.0 0.7420881667 0.6660418705
8650248100.0 0.7499313756 0.6566262699
8700247800.0 0.7593922517 0.645598333
8750247500.0 0.7677131957 0.6353968343
8800247200.0 0.775607813 0.6253203732
8850246900.0 0.7844678664 0.6137757787
8900246600.0 0.7927011612 0.6027465397
8950246300.0 0.8023773881 0.589659825
9000246000.0 0.8114565976 0.5773411108
9050245700.0 0.8204503399 0.5645835856
9100245400.0 0.828931706 0.5519977947
9150245100.0 0.8381276216 0.5385183544
9200244800.0 0.8481080931 0.5233906434
9250244500.0 0.8573369615 0.5079867298
9300244200.0 0.8654670162 0.4935147265
9350243900.0 0.8732217045 0.479496602
9400243600.0 0.8802068845 0.4669021048
9450243300.0 0.8860494406 0.4549057214
9500243000.0 0.8924681781 0.4424493999
9550242700.0 0.8963146622 0.4342883333
9600242400.0 0.9003980915 0.4265416927
9650242100.0 0.9038993021 0.4198014762
9700241800.0 0.908680448 0.4114024524
9750241500.0 0.9126875171 0.4034612893
9800241200.0 0.917174368 0.3940734932
9850240900.0 0.923123475 0.3825841141
9900240600.0 0.9281243746 0.3713315244
9950240300.0 0.9348309434 0.355044959
10000240000.0 0.939611208 0.3433639031
10050239700.0 0.9450643509 0.3286241894
10100239400.0 0.9499679727 0.313247592
10150239100.0 0.9543696769 0.298373341
10200238800.0 0.9584364191 0.2835327175
10250238500.0 0.9618652396 0.2700818883
10300238200.0 0.9650240687 0.256228814
10350237900.0 0.9677085313 0.2429601091
10400237600.0 0.9702273178 0.2298172047
10450237300.0 0.9728214219 0.2164507683
10500237000.0 0.9748808399 0.2044874741
10550236700.0 0.9775712552 0.1904746765
10600236400.0 0.9797662513 0.1768274183
10650236100.0 0.9817302245 0.1627320021
10700235800.0 0.9836505521 0.1508167615
10750235500.0 0.9854111813 0.1374108434
10800235200.0 0.9879870198 0.1233985373
10850234900.0 0.9898495373 0.108718697
10900234600.0 0.9918434115 0.0940684682
10950234300.0 0.9935218881 0.0811381245
11000234000.0 0.9951950385 0.066225897
11050233700.0 0.9968890305 0.0499498493
11100233400.0 0.9982648988 0.0327417068
11150233100.0 0.9989110855 0.0166411434
11200232800.0 0.9996026471 0.0015398221
11250232500.0 1.001276044 -0.0151348148
11300232200.0 1.001513121 -0.0332208345
11350231900.0 1.001072891 -0.0484400551
11400231600.0 1.000842683 -0.0645654553
11450231300.0 0.9999646949 -0.0800380027
11500231000.0 0.999213003 -0.09683015
11550230700.0 0.9976915559 -0.1104055983
11600230400.0 0.9960438077 -0.1231568317
11650230100.0 0.9940120313 -0.1345555049
11700229800.0 0.9925241936 -0.149718133
11750229500.0 0.9896685378 -0.1642343257
11800229200.0 0.9873271083 -0.1780464513
11850228900.0 0.9836893103 -0.1909600973
11900228600.0 0.9799096372 -0.2007536734
11950228300.0 0.9766626056 -0.2115477477
12000228000.0 0.9739252775 -0.22037778
12050227700.0 0.9702837208 -0.2334695523
12100227400.0 0.9676579637 -0.2429345772
12150227100.0 0.9626650168 -0.2607243449
12200226800.0 0.9590830028 -0.2708196143
12250226500.0 0.9555315309 -0.2841120521
12300226200.0 0.9506384345 -0.296411876
12350225900.0 0.9459172799 -0.3093122247
12400225600.0 0.9412720734 -0.3233925766
12450225300.0 0.9369932853 -0.3350129433
12500225000.0 0.9318637576 -0.3494397755
12550224700.0 0.9266116372 -0.3635337462
12600224400.0 0.921871957 -0.3762313342
12650224100.0 0.9160529814 -0.3903405687
12700223800.0 0.910773487 -0.4028155635
12750223500.0 0.905225459 -0.415929944
12800223200.0 0.8997606606 -0.4285985146
12850222900.0 0.8946866591 -0.4403337411
12900222600.0 0.8887618593 -0.452249959
12950222300.0 0.8824749289 -0.4652968361
13000222000.0 0.8762798018 -0.4766538629
13050221700.0 0.8698734974 -0.4895425416
13100221400.0 0.8629834327 -0.5016622399
13150221100.0 0.8561764517 -0.5133770138
13200220800.0 0.8490147852 -0.5256317085
13250220500.0 0.841510355 -0.5379324078
13300220200.0 0.8339275176 -0.5491456183
13350219900.0 0.8258625091 -0.5610222272
13400219600.0 0.8172961392 -0.5732705939
13450219300.0 0.8078651288 -0.5868377497
13500219000.0 0.7975371595 -0.6006820689
13550218700.0 0.7875438312 -0.6135908441
13600218400.0 0.7771218588 -0.6255474381
13650218100.0 0.7671338273 -0.6377497751
13700217800.0 0.7559770327 -0.6494800331
13750217500.0 0.7457067475 -0.6611202654
13800217200.0 0.735027725 -0.6724295598
13850216900.0 0.724364727 -0.6840560438
13900216600.0 0.7141960147 -0.6935981742
13950216300.0 0.7034693479 -0.7036403045
14000216000.0 0.6935922155 -0.712528928
14050215700.0 0.6833867548 -0.7210572654
14100215400.0 0.6738078383 -0.7296040531
14150215100.0 0.6647409978 -0.738296797
14200214800.0 0.6557022617 -0.7467436526
14250214500.0 0.6455807235 -0.7558738118
14300214200.0 0.6351538 -0.7649949407
14350213900.0 0.6244381398 -0.7744699088
14400213600.0 0.612745794 -0.7838888352
14450213300.0 0.5998595244 -0.7940872403
14500213000.0 0.5868103501 -0.8038957213
14550212700.0 0.5745966625 -0.8137462829
14600212400.0 0.5616364979 -0.8216974048
14650212100.0 0.548888265 -0.8305915439
14700211800.0 0.5348514006 -0.8402418024
14750211500.0 0.522698539 -0.8480526861
14800211200.0 0.5104813784 -0.8563090202
14850210900.0 0.4984555245 -0.8637401165
14900210600.0 0.4850298868 -0.8716827777
14950210300.0 0.4713847078 -0.879265015
15000210000.0 0.4585807054 -0.8862549623
15050209700.0 0.4460099945 -0.8922824352
15100209400.0 0.4327772439 -0.8984654172
15150209100.0 0.4204735236 -0.9037441786
15200208800.0 0.4074705451 -0.9089253742
15250208500.0 0.3961771793 -0.9141515899
15300208200.0 0.3833150892 -0.9190679993
15350207900.0 0.370534671 -0.9236875009
15400207600.0 0.3555328555 -0.9295013183
15450207300.0 0.3404822551 -0.9339985339
15500207000.0 0.3257584363 -0.93891074
15550206700.0 0.3110140702 -0.9434718209
15600206400.0 0.2953090764 -0.9482336151
15650206100.0 0.279429653 -0.9525992148
15700205800.0 0.2659100312 -0.9559088756
15750205500.0 0.2512692267 -0.959673847
15800205200.0 0.2367176503 -0.9631521036
15850204900.0 0.2224762148 -0.9664853121
15900204600.0 0.2076250584 -0.9697876026
15950204300.0 0.1937279457 -0.9726751877
16000204000.0 0.1800862923 -0.9757450973
16050203700.0 0.1651595292 -0.9782995799
16100203400.0 0.1505688071 -0.9804084703
16150203100.0 0.1368309344 -0.9823550806
16200202800.0 0.1226344873 -0.9846361745
16250202500.0 0.1081873119 -0.986683907
16300202200.0 0.0929102387 -0.9879711337
16350201900.0 0.0784482104 -0.9894327662
16400201600.0 0.0636968495 -0.9903612979
16450201300.0 0.0485465948 -0.9913859773
16500201000.0 0.0320870712 -0.9920510326
16550200700.0 0.016502398 -0.9926617754
16600200400.0 0.0006163973 -0.9927497186
16650200100.0 -0.0159471814 -0.9928796604
16700199800.0 -0.0323515925 -0.992070903
16750199500.0 -0.0520084979 -0.9913616222
16800199200.0 -0.0674058799 -0.9909959098
16850198900.0 -0.0821905483 -0.9895137158
16900198600.0 -0.096128132 -0.9882636633
16950198300.0 -0.109142927 -0.9867539195
17000198000.0 -0.1230558082 -0.9856890552
17050197700.0 -0.1361037552 -0.9841949652
17100197400.0 -0.1488441773 -0.9817992381
17150197100.0 -0.1620469031 -0.979460702
17200196800.0 -0.1745173405 -0.9778255761
17250196500.0 -0.1875009907 -0.9747642619
17300196200.0 -0.19953799 -0.9729237731
17350195900.0 -0.2116875414 -0.9705865021
17400195600.0 -0.2240143188 -0.9679316944
17450195300.0 -0.2370675465 -0.9652629264
17500195000.0 -0.2507916805 -0.9617048537
17550194700.0 -0.2645127996 -0.9581961544
17600194400.0 -0.2787877185 -0.954051953
17650194100.0 -0.2921328792 -0.9497279028
17700193800.0 -0.3049812389 -0.9456280765
17750193500.0 -0.3193739439 -0.9412977067
17800193200.0 -0.3334376033 -0.9362434957
17850192900.0 -0.3482307683 -0.9309285922
17900192600.0 -0.3631710811 -0.9244397505
17950192300.0 -0.3786796755 -0.9178533116
18000192000.0 -0.3934339831 -0.9103855774
18050191700.0 -0.4072128274 -0.9027069896
18100191400.0 -0.4211158767 -0.895107468
18150191100.0 -0.435956164 -0.8872510548
18200190800.0 -0.4525480861 -0.8780623458
18250190500.0 -0.4694996119 -0.8687909549
18300190200.0 -0.4846594455 -0.8600648175
18350189900.0 -0.4996581846 -0.8514796965
18400189600.0 -0.5139698214 -0.8433094092
18450189300.0 -0.527755056 -0.8353507932
18500189000.0 -0.5406687819 -0.8271496762
18550188700.0 -0.5537797649 -0.8194423833
18600188400.0 -0.5656352178 -0.8119231779
18650188100.0 -0.5768338233 -0.8054300354
18700187800.0 -0.5877254669 -0.7987011685
18750187500.0 -0.5985743532 -0.7919786827
18800187200.0 -0.6094384503 -0.7846763759
18850186900.0 -0.6198407874 -0.7774593824
18900186600.0 -0.630291855 -0.7697220625
18950186300.0 -0.6408404833 -0.7619913539
19000186000.0 -0.6481388541 -0.7555595943
19050185700.0 -0.6575529797 -0.7479237613
19100185400.0 -0.6680742095 -0.7390417581
19150185100.0 -0.6779812038 -0.7305746206
19200184800.0 -0.6872907492 -0.7226377813
19250184500.0 -0.6978751388 -0.7127500307
19300184200.0 -0.7097749463 -0.7033635279
19350183900.0 -0.7202743205 -0.6939922072
19400183600.0 -0.7292746735 -0.6838050355
19450183300.0 -0.7390035861 -0.6738098092
19500183000.0 -0.7467572736 -0.6638950724
19550182700.0 -0.7566049925 -0.6531769733
19600182400.0 -0.76664276 -0.64145008
19650182100.0 -0.7770534902 -0.6296771922
19700181800.0 -0.7870235173 -0.6163301016
19750181500.0 -0.797560726 -0.6025792722
19800181200.0 -0.8076141951 -0.5878994052
19850180900.0 -0.8171748763 -0.5728442826
19900180600.0 -0.8250189063 -0.5587080081
19950180300.0 -0.8338905968 -0.5425860204
20000180000.0 -0.828123174 -0.5444730304
20050179700.0 -0.8363604175 -0.5310821314
20100179400.0 -0.8436072203 -0.5178244772
20150179100.0 -0.8523101128 -0.5057271932
20200178800.0 -0.8612039971 -0.492530498
20250178500.0 -0.8700767605 -0.479265571
20300178200.0 -0.8791453044 -0.4645120419
20350177900.0 -0.888371694 -0.4504956331
20400177600.0 -0.8967627103 -0.4359522767
20450177300.0 -0.9048662663 -0.4213142313
20500177000.0 -0.912673414 -0.4072353371
20550176700.0 -0.9204809877 -0.393669583
20600176400.0 -0.9279485186 -0.3807088374
20650176100.0 -0.9344160086 -0.3673688411
20700175800.0 -0.9414408485 -0.3550853872
20750175500.0 -0.9480844995 -0.3436312802
20800175200.0 -0.9524900207 -0.3332947545
20850174900.0 -0.9569673559 -0.3208237743
20900174600.0 -0.962088634 -0.3106409679
20950174300.0 -0.966102721 -0.2978551721
21000174000.0 -0.9700384805 -0.2857609178
21050173700.0 -0.9725085621 -0.2752511449
21100173400.0 -0.9766306853 -0.2622015764
21150173100.0 -0.9808068807 -0.2495427843
21200172800.0 -0.9846282636 -0.235842764
21250172500.0 -0.9876339895 -0.2223584135
21300172200.0 -0.9906986706 -0.2079600617
21350171900.0 -0.9925262052 -0.1938242263
21400171600.0 -0.9936024742 -0.1790523904
21450171300.0 -0.9941449618 -0.1643742432
21500171000.0 -0.9929051498 -0.1492618097
21550170700.0 -0.9939689538 -0.1341744958
21600170400.0 -0.9938343903 -0.1186964887
21650170100.0 -0.9929987224 -0.1025840612
21700169800.0 -0.9904533377 -0.0877816608
21750169500.0 -0.9886449729 -0.0728572577
21800169200.0 -0.9879682623 -0.0555752554
21850168900.0 -0.9869509189 -0.040117743
21900168600.0 -0.9854536729 -0.0240104877
21950168300.0 -0.9838343844 -0.0079245463
22000168000.0 -0.9829795605 0.0069779417
22050167700.0 -0.9821616896 0.0208702698
22100167400.0 -0.9825491958 0.0358022935
22150167100.0 -0.9831533455 0.0509848648
22200166800.0 -0.9831113316 0.0677266493
22250166500.0 -0.9820652117 0.0844174982
22300166200.0 -0.9823545385 0.1003872781
22350165900.0 -0.9796180965 0.1167661276
22400165600.0 -0.9784145297 0.1333426456
22450165300.0 -0.9764415244 0.1476838732
22500165000.0 -0.9742471833 0.1612266033
22550164700.0 -0.9730647572 0.1772265212
22600164400.0 -0.9727479467 0.1917194552
22650164100.0 -0.9700749477 0.2070144022
22700163800.0 -0.9676458678 0.2224700983
22750163500.0 -0.9644756878 0.2386532785
22800163200.0 -0.9620057476 0.2513725726
22850162900.0 -0.9596014243 0.2648339487
22900162600.0 -0.9581614051 0.2782437928
22950162300.0 -0.9568886889 0.2908124284
23000162000.0 -0.9558723801 0.3031434558
23050161700.0 -0.9534382926 0.3154587415
23100161400.0 -0.9513094039 0.3287094022
23150161100.0 -0.9482182588 0.3400559175
23200160800.0 -0.9461375459 0.3524758739
23250160500.0 -0.9426722194 0.3643431735
23300160200.0 -0.9398540059 0.3758709371
23350159900.0 -0.936557329 0.3890172086
23400159600.0 -0.9320198086 0.4023476385
23450159300.0 -0.9266425797 0.4155583862
23500159000.0 -0.9221668372 0.4279249202
23550158700.0 -0.917928875 0.440930016
23600158400.0 -0.9126678046 0.4539715457
23650158100.0 -0.9063804992 0.4678686747
23700157800.0 -0.8989229858 0.4813692458
23750157500.0 -0.8904619976 0.4951520375
23800157200.0 -0.8814692023 0.5082181402
23850156900.0 -0.8733303822 0.5212935023
23900156600.0 -0.8641078855 0.5328488937
23950156300.0 -0.8542769678 0.5459061782
24000156000.0 -0.845932331 0.5575317302
24050155700.0 -0.8355228594 0.5687299638
24100155400.0 -0.8259123599 0.5817167683
24150155100.0 -0.8151563799 0.592895633
24200154800.0 -0.803062612 0.6048280402
24250154500.0 -0.7925870879 0.6163472859
24300154200.0 -0.7809930926 0.6280515434
24350153900.0 -0.7692885461 0.6388654846
24400153600.0 -0.7571735243 0.6490311856
24450153300.0 -0.745368035 0.6591565967
24500153000.0 -0.7341510974 0.66890923
24550152700.0 -0.7227146265 0.6787232821
24600152400.0 -0.711223544 0.6880912245
24650152100.0 -0.6999296932 0.6966418328
