!Created with skrf (http://scikit-rf.org).
# Hz S RI R 50.0 
!freq ReS11 ImS11
300000.0 -0.9758375296 -0.1189958908
50299700.0 -1.000008104 0.0153943919
100299400.0 -0.9980134001 0.028468802
150299100.0 -1.002866978 0.0453210901
200298800.0 -0.9996369045 0.0586216144
250298500.0 -0.9973889018 0.0720861575
300298200.0 -0.9860288764 0.0879392025
350297900.0 -0.9940201803 0.0987088655
400297600.0 -0.993282663 0.1152436891
450297300.0 -0.9910912655 0.1290903634
500297000.0 -0.989724585 0.1439815538
550296700.0 -0.9844905798 0.1564005049
600296400.0 -1.017512995 0.1897866871
650296100.0 -0.9820928663 0.1863990639
700295800.0 -0.9794171707 0.2005808643
750295500.0 -0.9761414525 0.2144589113
800295200.0 -0.9731516406 0.2284249274
850294900.0 -0.9696817788 0.2422975968
900294600.0 -0.9658572398 0.2561919327
950294300.0 -0.9622705505 0.2698921574
1000294000.0 -0.9582178089 0.2839570767
1050293700.0 -0.9537073566 0.2975899557
1100293400.0 -0.9493190178 0.3120799897
1150293100.0 -0.9454107612 0.3239681775
1200292800.0 -0.940043251 0.3382699094
1250292500.0 -0.9347168919 0.3517357018
1300292200.0 -0.9289305051 0.3649365443
1350291900.0 -0.9234939898 0.3791585654
1400291600.0 -0.9178504954 0.3920680428
1450291300.0 -0.9125429637 0.4045006679
1500291000.0 -0.9062898468 0.4177052361
1550290700.0 -0.8995438231 0.4311708641
1600290400.0 -0.8933011052 0.4440762525
1650290100.0 -0.8868183505 0.4561269371
1700289800.0 -0.8798650124 0.4697493769
1750289500.0 -0.872902138 0.4820118981
1800289200.0 -0.8656295664 0.4949174748
1850288900.0 -0.8586611434 0.5061054628
1900288600.0 -0.8509290873 0.5192218524
1950288300.0 -0.8430435376 0.5315813921
2000288000.0 -0.8353250979 0.5431546219
2050287700.0 -0.8273579355 0.5554940182
2100287400.0 -0.819039719 0.5671288324
2150287100.0 -0.8107175138 0.5791983691
2200286800.0 -0.8030500745 0.5894083007
2250286500.0 -0.7942640071 0.6017211565
2300286200.0 -0.7852777867 0.613040553
2350285900.0 -0.7765426614 0.6241886978
2400285600.0 -0.7674746104 0.6349653421
2450285300.0 -0.7587463501 0.6454844618
2500285000.0 -0.7492107209 0.6567793176
2550284700.0 -0.740505887 0.6671999731
2600284400.0 -0.7309676087 0.6772989094
2650284100.0 -0.7219559008 0.6877698824
2700283800.0 -0.7112684099 0.6982104411
2750283500.0 -0.7009952057 0.7088063676
2800283200.0 -0.6912239925 0.7189404995
2850282900.0 -0.6809201868 0.7287078582
2900282600.0 -0.6706754005 0.7381021809
2950282300.0 -0.6604091878 0.7473239923
3000282000.0 -0.6496888134 0.7567051488
3050281700.0 -0.6384776632 0.7660150025
3100281400.0 -0.6266655079 0.7754644409
3150281100.0 -0.6148771734 0.7847782254
3200280800.0 -0.603233171 0.7931717277
3250280500.0 -0.5924229483 0.800790916
3300280200.0 -0.5811463054 0.8089137732
3350279900.0 -0.5695868458 0.8165406205
3400279600.0 -0.5575080682 0.824091669
3450279300.0 -0.5462000478 0.8313128194
3500279000.0 -0.5341457379 0.838435327
3550278700.0 -0.5218766664 0.8458198343
3600278400.0 -0.5097409538 0.8526428047
3650278100.0 -0.4963308703 0.8606137506
3700277800.0 -0.4844278891 0.8668780011
3750277500.0 -0.4722950109 0.8736431547
3800277200.0 -0.459941315 0.8800836125
3850276900.0 -0.4475384043 0.8859127219
3900276600.0 -0.4369289161 0.8914628711
3950276300.0 -0.4242719393 0.8975141355
4000276000.0 -0.41219885 0.9037475823
4050275700.0 -0.3994371248 0.9094697148
4100275400.0 -0.3880978249 0.9151563481
4150275100.0 -0.3756754497 0.9206640787
4200274800.0 -0.3626471715 0.9263047658
4250274500.0 -0.3503384074 0.9312535255
4300274200.0 -0.3374767389 0.9367927284
4350273900.0 -0.3235660945 0.9419918609
4400273600.0 -0.3086878493 0.9471437372
4450273300.0 -0.2933936783 0.9524156718
4500273000.0 -0.2798244217 0.9566559198
4550272700.0 -0.2656442987 0.9609916689
4600272400.0 -0.2504182806 0.9649857915
4650272100.0 -0.2387360688 0.9684323335
4700271800.0 -0.2253496026 0.9716889789
4750271500.0 -0.213578447 0.9745706769
4800271200.0 -0.201069657 0.9772307628
4850270900.0 -0.1872682887 0.9799185052
4900270600.0 -0.17319423 0.9824376413
4950270300.0 -0.1589056712 0.9851421041
5000270000.0 -0.1446485715 0.9872007035
5050269700.0 -0.1311263403 0.9887922927
5100269400.0 -0.1174628262 0.9903313542
5150269100.0 -0.1039678125 0.9921956767
5200268800.0 -0.0908730447 0.9927449591
5250268500.0 -0.077820324 0.9942090291
5300268200.0 -0.0648098774 0.9943240322
5350267900.0 -0.0525019579 0.9954208016
5400267600.0 -0.0363611287 0.99609988
5450267300.0 -0.0228933365 0.9967894564
5500267000.0 -0.0077785781 0.9972615671
5550266700.0 0.0069355195 0.9973011088
5600266400.0 0.0225499841 0.9974756696
5650266100.0 0.0392241941 0.9970793573
5700265800.0 0.0536272568 0.9964811288
5750265500.0 0.0686906118 0.9955801585
5800265200.0 0.082339884 0.9942378655
5850264900.0 0.0956980523 0.9936604714
5900264600.0 0.1120891142 0.9916376512
5950264300.0 0.1246564917 0.9900116941
6000264000.0 0.1384226665 0.9887365793
6050263700.0 0.1511208242 0.9872530272
6100263400.0 0.1633942458 0.9852740494
6150263100.0 0.1778376055 0.9825972655
6200262800.0 0.1883134977 0.9810205412
6250262500.0 0.2008686678 0.9785751268
6300262200.0 0.2137157411 0.9759372224
6350261900.0 0.2267642753 0.9728241783
6400261600.0 0.2405450457 0.9694104407
6450261300.0 0.2521548192 0.9670223258
6500261000.0 0.2647351677 0.9633595247
6550260700.0 0.2776563391 0.9592674734
6600260400.0 0.2911583998 0.955366453
6650260100.0 0.3052721732 0.9510360217
6700259800.0 0.3169444703 0.9464677935
6750259500.0 0.3306514709 0.9417001402
6800259200.0 0.3440666835 0.9366878179
6850258900.0 0.3562241963 0.9317147508
6900258600.0 0.3682581739 0.9265661865
6950258300.0 0.3807574422 0.921346539
7000258000.0 0.3928275486 0.9157840527
7050257700.0 0.4048968881 0.9097091952
7100257400.0 0.4178308975 0.9035352762
7150257100.0 0.4281797231 0.898273471
7200256800.0 0.4410768102 0.8919434586
7250256500.0 0.4526446932 0.8854680319
7300256200.0 0.4660254251 0.8787052527
7350255900.0 0.4782579702 0.8718758849
7400255600.0 0.4913297732 0.8645113493
7450255300.0 0.506401767 0.8554029595
7500255000.0 0.5191204461 0.848828001
7550254700.0 0.5324242708 0.8400678786
7600254400.0 0.5453942499 0.8318077215
7650254100.0 0.5568648546 0.8240490722
7700253800.0 0.5684026926 0.8160792983
7750253500.0 0.5797307015 0.8082119205
7800253200.0 0.5901938455 0.800645145
7850252900.0 0.5999733328 0.7934939966
7900252600.0 0.6118556711 0.784789022
7950252300.0 0.620488223 0.7781237267
8000252000.0 0.6307073971 0.770566359
8050251700.0 0.6410904442 0.7623602928
8100251400.0 0.6510541452 0.754289209
8150251100.0 0.6613737708 0.7455809082
8200250800.0 0.6707366823 0.7376566941
8250250500.0 0.6796039708 0.7296403896
8300250200.0 0.6888266523 0.7211408063
8350249900.0 0.698045717 0.712432285
8400249600.0 0.7064129313 0.7042778627
8450249300.0 0.7155269962 0.6951160689
8500249000.0 0.7238635551 0.6864238599
8550248700.0 0.732271865 0.677267801
8600248400.0 0.7407348563 0.6676373218
8650248100.0 0.7486342007 0.6584626076
8700247800.0 0.7581380443 0.6469508611
8750247500.0 0.7663912536 0.6370077714
8800247200.0 0.7743935699 0.6265645133
8850246900.0 0.7832646752 0.6151993075
8900246600.0 0.7916142901 0.6036438034
8950246300.0 0.8014935144 0.5907985299
9000246000.0 0.8108057444 0.5779242153
9050245700.0 0.8193888449 0.5651096881
9100245400.0 0.8280355461 0.5527545111
9150245100.0 0.8376939207 0.5390256885
9200244800.0 0.8473732327 0.5241059597
9250244500.0 0.8566937703 0.5085165852
9300244200.0 0.8653387118 0.4940061854
9350243900.0 0.8727960771 0.4802477204
9400243600.0 0.8796507555 0.4677714331
9450243300.0 0.885496051 0.4562727385
9500243000.0 0.8918241872 0.4440058368
9550242700.0 0.8954468878 0.436387712
9600242400.0 0.8995483419 0.4288741615
9650242100.0 0.9030366241 0.4225338027
9700241800.0 0.9075800667 0.4142191493
9750241500.0 0.9115639663 0.4067787104
9800241200.0 0.9166293269 0.397396381
9850240900.0 0.9219080194 0.3859332149
9900240600.0 0.9275005042 0.3743217194
9950240300.0 0.9339089533 0.3584634971
10000240000.0 0.9389633171 0.3465420211
10050239700.0 0.9445596351 0.3313378859
10100239400.0 0.9494040164 0.3160465147
10150239100.0 0.9539996252 0.3009463755
10200238800.0 0.9580888684 0.2860316185
10250238500.0 0.961462344 0.2725173153
10300238200.0 0.9647001501 0.2587982419
10350237900.0 0.9673025579 0.2454448298
10400237600.0 0.9698632752 0.2326338058
10450237300.0 0.9725415062 0.2186276073
10500237000.0 0.9747058365 0.2063483972
10550236700.0 0.9772446133 0.1925032735
10600236400.0 0.9793832653 0.1784410959
10650236100.0 0.980936626 0.1646100978
10700235800.0 0.9836241346 0.1518289931
10750235500.0 0.9856032525 0.1387618763
10800235200.0 0.9880327651 0.1244419891
10850234900.0 0.9892376509 0.1100718145
10900234600.0 0.991903601 0.0951165325
10950234300.0 0.993541749 0.0819831113
11000234000.0 0.9951166236 0.0667778418
11050233700.0 0.9969848197 0.0504473426
11100233400.0 0.9984327914 0.0332889038
11150233100.0 0.9990369978 0.017066112
11200232800.0 1.00060845 0.0013371289
11250232500.0 1.001450097 -0.0142799213
11300232200.0 1.001341508 -0.0327221345
11350231900.0 1.002137624 -0.0496704313
11400231600.0 1.001204271 -0.0629645626
11450231300.0 1.000372159 -0.078899964
11500231000.0 1.000205318 -0.0960459878
11550230700.0 0.9980665287 -0.1085950484
11600230400.0 0.9971485978 -0.1210468068
11650230100.0 0.9950823716 -0.1331880494
11700229800.0 0.9932765773 -0.1481511676
11750229500.0 0.9905127521 -0.161856263
11800229200.0 0.9880727717 -0.1756191648
11850228900.0 0.9846199561 -0.1879988214
11900228600.0 0.9810875188 -0.1979162802
11950228300.0 0.9778637303 -0.2083192323
12000228000.0 0.975061662 -0.2175598813
12050227700.0 0.9715618144 -0.2297598773
12100227400.0 0.9683625675 -0.2412737313
12150227100.0 0.9627116267 -0.2590947596
12200226800.0 0.9603319644 -0.2686168118
12250226500.0 0.9554949596 -0.281130064
12300226200.0 0.9521939433 -0.2935392983
12350225900.0 0.9461791494 -0.3081438142
12400225600.0 0.9425767085 -0.3210157198
12450225300.0 0.9383214496 -0.3334097187
12500225000.0 0.9322943732 -0.3482896902
12550224700.0 0.9270903564 -0.3619578715
12600224400.0 0.9222388069 -0.3748758245
12650224100.0 0.9163523971 -0.3893221577
12700223800.0 0.9111071094 -0.402127459
12750223500.0 0.9055475297 -0.4151999401
12800223200.0 0.9003136439 -0.4276638009
12850222900.0 0.8949002871 -0.4397388446
12900222600.0 0.8893996512 -0.4511759207
12950222300.0 0.8828045314 -0.4651382131
13000222000.0 0.8769938403 -0.4759442416
13050221700.0 0.869928165 -0.4883528779
13100221400.0 0.863629058 -0.5012337871
13150221100.0 0.8565125054 -0.5134750424
13200220800.0 0.8501563527 -0.5242879255
13250220500.0 0.8424771948 -0.5365467335
13300220200.0 0.8351133045 -0.5476522022
13350219900.0 0.8271719953 -0.5594495292
13400219600.0 0.818775194 -0.5716621833
13450219300.0 0.8094290921 -0.585343527
13500219000.0 0.799025395 -0.598977977
13550218700.0 0.7888942971 -0.6117532981
13600218400.0 0.7788643033 -0.623669426
13650218100.0 0.768657777 -0.6351558283
13700217800.0 0.758695036 -0.647582471
13750217500.0 0.7484333717 -0.6588578953
13800217200.0 0.7370985734 -0.6697182544
13850216900.0 0.726372215 -0.6815948635
13900216600.0 0.716727641 -0.6908231761
13950216300.0 0.7055541095 -0.7017664904
14000216000.0 0.6954455931 -0.710230881
14050215700.0 0.6859144433 -0.7186573527
14100215400.0 0.6759553094 -0.727962095
14150215100.0 0.6671782429 -0.7362448781
14200214800.0 0.6576178064 -0.7451153218
14250214500.0 0.6471866691 -0.7543043426
14300214200.0 0.6366756346 -0.763542787
14350213900.0 0.6257386049 -0.7733826722
14400213600.0 0.6138031546 -0.7830586781
14450213300.0 0.6006683701 -0.7933183613
14500213000.0 0.5878562945 -0.8029867186
14550212700.0 0.5755811992 -0.8126035317
14600212400.0 0.5622339675 -0.8212464326
14650212100.0 0.5497167637 -0.8305805426
14700211800.0 0.5355997722 -0.8393768292
14750211500.0 0.5237959103 -0.8482446802
14800211200.0 0.5115555364 -0.8559014703
14850210900.0 0.4994437359 -0.8634636892
14900210600.0 0.4861126292 -0.8712249135
14950210300.0 0.4727059909 -0.8788533271
15000210000.0 0.4601372806 -0.885673785
15050209700.0 0.4475415335 -0.8919436148
15100209400.0 0.4351404061 -0.8971913467
15150209100.0 0.42274796 -0.902845816
15200208800.0 0.4096006962 -0.9087607822
15250208500.0 0.3989718225 -0.9134076379
15300208200.0 0.3862098504 -0.9173367406
15350207900.0 0.3732781245 -0.9227100476
15400207600.0 0.3581385346 -0.9282569037
15450207300.0 0.3442859625 -0.9330173927
15500207000.0 0.3291404285 -0.9376307625
15550206700.0 0.3146058041 -0.9429590443
15600206400.0 0.2990332125 -0.9476715893
15650206100.0 0.2829845623 -0.9514489733
15700205800.0 0.2692513321 -0.95505436
15750205500.0 0.2546537872 -0.9587267125
15800205200.0 0.2402285039 -0.962148793
15850204900.0 0.2257076193 -0.9655916524
15900204600.0 0.210782128 -0.9691873273
15950204300.0 0.1965484647 -0.9722680386
16000204000.0 0.1824038668 -0.9748617061
16050203700.0 0.1675417251 -0.9781358316
16100203400.0 0.1529883582 -0.9802570826
16150203100.0 0.1384351556 -0.9821802261
16200202800.0 0.1243918458 -0.9844569814
16250202500.0 0.1095369442 -0.9857820369
16300202200.0 0.093937203 -0.9873363291
16350201900.0 0.0791776195 -0.9893159254
16400201600.0 0.0644589913 -0.990311436
16450201300.0 0.0492305192 -0.9911672165
16500201000.0 0.0325996213 -0.9921475814
16550200700.0 0.0170184277 -0.9924831441
16600200400.0 0.0013451095 -0.992582225
16650200100.0 -0.0149573738 -0.9925858191
16700199800.0 -0.0309642674 -0.9921205883
16750199500.0 -0.0500156757 -0.9918141803
16800199200.0 -0.0653039635 -0.9905614005
16850198900.0 -0.080465188 -0.9898264443
16900198600.0 -0.0941502446 -0.9890430707
16950198300.0 -0.1084282618 -0.9876969204
17000198000.0 -0.1211399567 -0.9867094113
17050197700.0 -0.1328332279 -0.9847833889
17100197400.0 -0.1463557899 -0.9821290358
17150197100.0 -0.1589985278 -0.9805865677
17200196800.0 -0.1714815363 -0.9779165308
17250196500.0 -0.1844484346 -0.9758696893
17300196200.0 -0.1966357308 -0.973640511
17350195900.0 -0.2084986543 -0.9713184076
17400195600.0 -0.2208865413 -0.9687974081
17450195300.0 -0.2338451368 -0.9662039349
17500195000.0 -0.2472220199 -0.962723701
17550194700.0 -0.2613736943 -0.9590507089
17600194400.0 -0.2755001724 -0.9550976373
17650194100.0 -0.288979631 -0.9509139538
17700193800.0 -0.3019127891 -0.9469653313
17750193500.0 -0.3165420487 -0.9418059134
17800193200.0 -0.3308186534 -0.9368084993
17850192900.0 -0.345862961 -0.9314987839
17900192600.0 -0.3609058109 -0.9253794061
17950192300.0 -0.3767660867 -0.9182525115
18000192000.0 -0.3913315419 -0.9110981651
18050191700.0 -0.4052720805 -0.9033339493
18100191400.0 -0.4196432299 -0.8956265029
18150191100.0 -0.4346307535 -0.8876331452
18200190800.0 -0.4516705617 -0.8784570871
18250190500.0 -0.468405512 -0.8689130375
18300190200.0 -0.4836948603 -0.8603816891
18350189900.0 -0.4989364251 -0.8522208374
18400189600.0 -0.5137411064 -0.8440853493
18450189300.0 -0.5267504276 -0.8355669421
18500189000.0 -0.5399373618 -0.8279546565
18550188700.0 -0.5526022226 -0.8200900189
18600188400.0 -0.5645406697 -0.813157017
18650188100.0 -0.5756385958 -0.8071037304
18700187800.0 -0.5864952888 -0.8008526678
18750187500.0 -0.5968894481 -0.7940802432
18800187200.0 -0.607336292 -0.7870112134
18850186900.0 -0.6175110124 -0.7801480997
18900186600.0 -0.6277252826 -0.7726789461
18950186300.0 -0.6377547231 -0.7650056057
19000186000.0 -0.6449164142 -0.7590430482
19050185700.0 -0.654445905 -0.7517035895
19100185400.0 -0.6642603376 -0.743560675
19150185100.0 -0.6744417087 -0.7346438057
19200184800.0 -0.6832331255 -0.726832295
19250184500.0 -0.6940364026 -0.7175882961
19300184200.0 -0.7051180998 -0.7074350034
19350183900.0 -0.7164757954 -0.6980424508
19400183600.0 -0.7253529488 -0.6881673104
19450183300.0 -0.7348833104 -0.6786715838
19500183000.0 -0.7429449152 -0.6683036667
19550182700.0 -0.7527285606 -0.6569981422
19600182400.0 -0.7633475421 -0.6454204016
19650182100.0 -0.7739857584 -0.6328640168
19700181800.0 -0.7844450279 -0.6200946892
19750181500.0 -0.7952574254 -0.6059967195
19800181200.0 -0.8057006613 -0.5907998873
19850180900.0 -0.8153997686 -0.5752950934
19900180600.0 -0.8232930189 -0.5608193525
19950180300.0 -0.832635774 -0.5446976886
20000180000.0 -0.8258152618 -0.5466516264
20050179700.0 -0.8343363659 -0.5340469902
20100179400.0 -0.8430656482 -0.5197564884
20150179100.0 -0.8510214637 -0.507203663
20200178800.0 -0.8598048605 -0.4945343403
20250178500.0 -0.8695318043 -0.4821565544
20300178200.0 -0.8784790796 -0.4668923733
20350177900.0 -0.8878547775 -0.4524226718
20400177600.0 -0.8963227998 -0.4378937477
20450177300.0 -0.9046806014 -0.4233340003
20500177000.0 -0.9126393819 -0.4094341728
20550176700.0 -0.920730058 -0.3960861304
20600176400.0 -0.9275726333 -0.3832126053
20650176100.0 -0.9339578065 -0.3704600757
20700175800.0 -0.9408772864 -0.3590703355
20750175500.0 -0.947605491 -0.34707
20800175200.0 -0.9525508267 -0.3370197302
20850174900.0 -0.9560536926 -0.3256868272
20900174600.0 -0.961290031 -0.3132561701
20950174300.0 -0.9645525679 -0.301738213
21000174000.0 -0.9689556518 -0.2912341417
21050173700.0 -0.9719578194 -0.2798038905
21100173400.0 -0.9757622346 -0.2688412746
21150173100.0 -0.9803694763 -0.2557653967
21200172800.0 -0.9834985696 -0.2421871073
21250172500.0 -0.9864857968 -0.2288556015
21300172200.0 -0.9889245241 -0.214789277
21350171900.0 -0.9907588716 -0.200699984
21400171600.0 -0.9926891402 -0.1862141121
21450171300.0 -0.9926098759 -0.1720568125
21500171000.0 -0.9925055545 -0.156181884
21550170700.0 -0.9937841431 -0.1411690301
21600170400.0 -0.9922935952 -0.125374439
21650170100.0 -0.991917396 -0.1083997141
21700169800.0 -0.9904797461 -0.094971241
21750169500.0 -0.9885760536 -0.0772758486
21800169200.0 -0.9888096341 -0.061525942
21850168900.0 -0.9868097251 -0.0447328115
21900168600.0 -0.9864464846 -0.0285757545
21950168300.0 -0.9850910265 -0.013031465
22000168000.0 -0.9838043972 0.0024211549
22050167700.0 -0.9837837486 0.0164674284
22100167400.0 -0.9837824889 0.0320382113
22150167100.0 -0.9845693094 0.0476418816
22200166800.0 -0.9848922187 0.0639195855
22250166500.0 -0.9846614229 0.0806938187
22300166200.0 -0.9840166487 0.0977548887
22350165900.0 -0.9823402974 0.1137346091
22400165600.0 -0.9807312609 0.1283534379
22450165300.0 -0.9787095221 0.1451147895
22500165000.0 -0.9764824302 0.1581131805
22550164700.0 -0.9753997759 0.1734064872
22600164400.0 -0.974414109 0.1889886726
22650164100.0 -0.9720037727 0.2032935769
22700163800.0 -0.9691485005 0.2197484392
22750163500.0 -0.967158434 0.2347929309
22800163200.0 -0.9639657184 0.2483008832
22850162900.0 -0.9615035313 0.2616302381
22900162600.0 -0.9597404573 0.2751823091
22950162300.0 -0.9587507508 0.2876751863
23000162000.0 -0.957842877 0.2994162111
23050161700.0 -0.9557481301 0.3123249343
23100161400.0 -0.9530707891 0.324763972
23150161100.0 -0.9510180994 0.3374428707
23200160800.0 -0.9482540678 0.3500464471
23250160500.0 -0.9445328228 0.3610146143
23300160200.0 -0.942401531 0.3739319135
23350159900.0 -0.9385814947 0.3869430976
23400159600.0 -0.9344349523 0.3996842088
23450159300.0 -0.9290516436 0.4129954547
23500159000.0 -0.9246291628 0.4262450192
23550158700.0 -0.9203082477 0.4392541098
23600158400.0 -0.9149029608 0.4525939398
23650158100.0 -0.9084855691 0.4669145877
23700157800.0 -0.9009340064 0.4810163128
23750157500.0 -0.892166421 0.4947670984
23800157200.0 -0.8836983088 0.5077788708
23850156900.0 -0.874840912 0.5208873636
23900156600.0 -0.8660715178 0.5333321171
23950156300.0 -0.8565771482 0.5451965116
24000156000.0 -0.8478359676 0.5573582284
24050155700.0 -0.8372188961 0.5705169591
24100155400.0 -0.8276354441 0.581121812
24150155100.0 -0.8168198136 0.5929643961
24200154800.0 -0.8051271712 0.6046485169
24250154500.0 -0.7944462839 0.6161935374
24300154200.0 -0.7835624809 0.6278898591
24350153900.0 -0.7711943494 0.6381808929
24400153600.0 -0.7592186261 0.6483201693
24450153300.0 -0.7474916521 0.658400632
24500153000.0 -0.7359113643 0.6681615043
24550152700.0 -0.725036013 0.6776805566
24600152400.0 -0.7130609614 0.6866332869
24650152100.0 -0.7015570222 0.6956436421
