!Created with skrf (http://scikit-rf.org).
# Hz S RI R 50.0 
!freq ReS11 ImS11
300000.0 -0.9777052555 -0.1111712345
50299700.0 -1.000167035 0.0159559804
100299400.0 -0.9980492377 0.0289614161
150299100.0 -1.002917687 0.0456843284
200298800.0 -0.9996809609 0.0592481044
250298500.0 -0.9976070096 0.0726405933
300298200.0 -0.9861030307 0.0883668215
350297900.0 -0.9940925082 0.099354544
400297600.0 -0.993214916 0.115717627
450297300.0 -0.9909964451 0.1297146365
500297000.0 -0.9895463665 0.1445026438
550296700.0 -0.9843980224 0.1568479651
600296400.0 -1.017263675 0.1903969606
650296100.0 -0.9821251991 0.186782332
700295800.0 -0.9791577707 0.2011191934
750295500.0 -0.9763222887 0.2151617119
800295200.0 -0.9730507284 0.2293000381
850294900.0 -0.9694477357 0.2430614008
900294600.0 -0.965709946 0.2569621025
950294300.0 -0.9618371411 0.2706567056
1000294000.0 -0.9580179549 0.2845579569
1050293700.0 -0.9535285081 0.2982314525
1100293400.0 -0.9490682686 0.3127055025
1150293100.0 -0.9453130897 0.3246157345
1200292800.0 -0.9398133865 0.3389717698
1250292500.0 -0.9344494136 0.3525335317
1300292200.0 -0.9287282337 0.3653781953
1350291900.0 -0.9233703627 0.3796445247
1400291600.0 -0.9176042252 0.3926965937
1450291300.0 -0.9122716264 0.4050014052
1500291000.0 -0.9060474363 0.4183970089
1550290700.0 -0.8993398454 0.431606043
1600290400.0 -0.8931083969 0.4445719637
1650290100.0 -0.8866095637 0.4569202013
1700289800.0 -0.8795435794 0.4702121673
1750289500.0 -0.8725775017 0.4825831332
1800289200.0 -0.8651420642 0.4954236611
1850288900.0 -0.8585677495 0.5066292675
1900288600.0 -0.8507537741 0.5199487494
1950288300.0 -0.8425049678 0.5323927546
2000288000.0 -0.8349231805 0.5436971884
2050287700.0 -0.8267583927 0.5561072625
2100287400.0 -0.8188809004 0.5675816423
2150287100.0 -0.810432979 0.5798916352
2200286800.0 -0.802443457 0.5900339069
2250286500.0 -0.7935717667 0.6020628223
2300286200.0 -0.7847320332 0.6136686376
2350285900.0 -0.7761493566 0.625008056
2400285600.0 -0.7669235382 0.6358220746
2450285300.0 -0.7581372762 0.6460537502
2500285000.0 -0.7485758211 0.6574382014
2550284700.0 -0.7399194115 0.6676442135
2600284400.0 -0.7303776848 0.6779120494
2650284100.0 -0.7213375293 0.6884684594
2700283800.0 -0.7106146221 0.6990765833
2750283500.0 -0.7004326683 0.7097482814
2800283200.0 -0.6908056494 0.7192167048
2850282900.0 -0.680164384 0.7290802129
2900282600.0 -0.6698912421 0.7387045006
2950282300.0 -0.6598717684 0.7479101247
3000282000.0 -0.6492127341 0.7572525705
3050281700.0 -0.6378503149 0.7667134524
3100281400.0 -0.6259714596 0.7760155438
3150281100.0 -0.6142088873 0.7855145217
3200280800.0 -0.6027698685 0.7938512129
3250280500.0 -0.5918751143 0.8013995575
3300280200.0 -0.5805049333 0.8093952923
3350279900.0 -0.5690442078 0.8168436261
3400279600.0 -0.5569563574 0.8244282518
3450279300.0 -0.545985142 0.8317208962
3500279000.0 -0.5338185481 0.8386251201
3550278700.0 -0.521440112 0.8460275625
3600278400.0 -0.5091481636 0.8534407778
3650278100.0 -0.4957711349 0.8608012481
3700277800.0 -0.4837800989 0.8672102125
3750277500.0 -0.4714759372 0.8738246615
3800277200.0 -0.4590842421 0.8800722718
3850276900.0 -0.446858982 0.8861015644
3900276600.0 -0.4360200851 0.8917747783
3950276300.0 -0.4233857108 0.8979941679
4000276000.0 -0.4115885988 0.9040392611
4050275700.0 -0.3987495212 0.9100620763
4100275400.0 -0.387307934 0.9156281265
4150275100.0 -0.3746232987 0.9209461616
4200274800.0 -0.3616787734 0.9265464969
4250274500.0 -0.349369399 0.9318462909
4300274200.0 -0.3364359346 0.9369293138
4350273900.0 -0.3226857463 0.9423020101
4400273600.0 -0.3077297248 0.9473347348
4450273300.0 -0.2924007091 0.9525596852
4500273000.0 -0.2787017212 0.9570937811
4550272700.0 -0.2644144681 0.9611325822
4600272400.0 -0.2489704209 0.9652811134
4650272100.0 -0.2374264013 0.9685597221
4700271800.0 -0.2239478619 0.9718766027
4750271500.0 -0.2124842907 0.9747706966
4800271200.0 -0.1998544428 0.9773565865
4850270900.0 -0.1860420376 0.9802467128
4900270600.0 -0.1722100411 0.9825357933
4950270300.0 -0.1577657836 0.9851817779
5000270000.0 -0.1435904977 0.9872554485
5050269700.0 -0.1302030272 0.989055297
5100269400.0 -0.1165722304 0.9907435645
5150269100.0 -0.103113394 0.9919050608
5200268800.0 -0.0899818548 0.992734538
5250268500.0 -0.0770134953 0.994358076
5300268200.0 -0.0641277106 0.9945680513
5350267900.0 -0.0514459419 0.9953323275
5400267600.0 -0.035459093 0.9961521396
5450267300.0 -0.0223100098 0.9968064952
5500267000.0 -0.0070138313 0.9973109804
5550266700.0 0.0077504004 0.9973855234
5600266400.0 0.0235203688 0.9974975182
5650266100.0 0.0397682476 0.9967325737
5700265800.0 0.0545317301 0.9963560328
5750265500.0 0.0693347942 0.9950742703
5800265200.0 0.0832158157 0.9939378823
5850264900.0 0.0967778518 0.9932872012
5900264600.0 0.1136007474 0.9916581408
5950264300.0 0.125806845 0.9900876271
6000264000.0 0.1399699228 0.9883516926
6050263700.0 0.1522588122 0.9866741267
6100263400.0 0.1645458553 0.9843341526
6150263100.0 0.1791158102 0.9823197193
6200262800.0 0.1895411067 0.9806156949
6250262500.0 0.2022104875 0.9781153982
6300262200.0 0.2150583302 0.9754065967
6350261900.0 0.2281999935 0.9723751474
6400261600.0 0.2420128673 0.9690630285
6450261300.0 0.2533576874 0.9666681283
6500261000.0 0.2658540164 0.962674697
6550260700.0 0.2791782951 0.9591416132
6600260400.0 0.2925961065 0.9549658625
6650260100.0 0.3060781541 0.9500779324
6700259800.0 0.3180922366 0.9460613698
6750259500.0 0.332137723 0.9410690628
6800259200.0 0.3449877422 0.9363323833
6850258900.0 0.3573948548 0.9312102285
6900258600.0 0.3693229178 0.9260697415
6950258300.0 0.3817586659 0.9208165582
7000258000.0 0.3940310451 0.9154278209
7050257700.0 0.4060821888 0.9091654755
7100257400.0 0.4187902005 0.9031466363
7150257100.0 0.4291141341 0.8977056178
7200256800.0 0.4419466972 0.8914723317
7250256500.0 0.4536638271 0.8849708533
7300256200.0 0.4670558368 0.8784657868
7350255900.0 0.4790079611 0.8714986591
7400255600.0 0.4924312085 0.8638834082
7450255300.0 0.5078731266 0.8552759458
7500255000.0 0.5194680928 0.8479547306
7550254700.0 0.5336543287 0.8395097906
7600254400.0 0.5456317782 0.8310750623
7650254100.0 0.5572351083 0.8233436465
7700253800.0 0.5693759554 0.8154027326
7750253500.0 0.5806543004 0.8075489373
7800253200.0 0.5911021696 0.7998715361
7850252900.0 0.6009829071 0.792606712
7900252600.0 0.6127522642 0.7839899873
7950252300.0 0.6214927049 0.7772288969
8000252000.0 0.6317762218 0.769543487
8050251700.0 0.6423782425 0.7611826046
8100251400.0 0.6523176721 0.7531320062
8150251100.0 0.6621095884 0.7444738574
8200250800.0 0.6717445845 0.7364734771
8250250500.0 0.6806568559 0.7286981157
8300250200.0 0.6900382908 0.7199935513
8350249900.0 0.6990819755 0.7112567516
8400249600.0 0.7074354383 0.7032205166
8450249300.0 0.7167706165 0.6938284275
8500249000.0 0.7249511495 0.6851693226
8550248700.0 0.7332276591 0.6762826363
8600248400.0 0.7416621227 0.666781236
8650248100.0 0.7494058189 0.6573002212
8700247800.0 0.7589673777 0.6461052551
8750247500.0 0.7671236289 0.6360821478
8800247200.0 0.7751589252 0.6258337486
8850246900.0 0.7838643059 0.6143846783
8900246600.0 0.7924623448 0.6029847542
8950246300.0 0.8024004606 0.5897490717
9000246000.0 0.8113110873 0.5772830964
9050245700.0 0.8204436108 0.5644147248
9100245400.0 0.829132956 0.551750368
9150245100.0 0.838375474 0.5380542121
9200244800.0 0.8483771056 0.5225188467
9250244500.0 0.8575681656 0.5067766859
9300244200.0 0.8660638057 0.492228072
9350243900.0 0.8738978277 0.4785635434
9400243600.0 0.8804956765 0.46599924
9450243300.0 0.8863432163 0.4543545935
9500243000.0 0.8925285256 0.4419796522
9550242700.0 0.8963855764 0.43442265
9600242400.0 0.9002368128 0.4270472136
9650242100.0 0.9037289914 0.4207215908
9700241800.0 0.9081759976 0.4125075212
9750241500.0 0.9120892076 0.405143575
9800241200.0 0.9168338036 0.3959453288
9850240900.0 0.9227329453 0.3842779057
9900240600.0 0.927985351 0.3727758109
9950240300.0 0.9350081304 0.356127795
10000240000.0 0.9393524599 0.3444920453
10050239700.0 0.9451852494 0.329525123
10100239400.0 0.9503389725 0.3137612591
10150239100.0 0.9543261831 0.2990809464
10200238800.0 0.9585861149 0.2841984889
10250238500.0 0.9618203409 0.2709611653
10300238200.0 0.9649802327 0.256986083
10350237900.0 0.9675006059 0.2438704864
10400237600.0 0.9700438099 0.2308565731
10450237300.0 0.9727434544 0.2171040862
10500237000.0 0.9749960335 0.2047972062
10550236700.0 0.9773376719 0.1908786149
10600236400.0 0.9791430416 0.1777317636
10650236100.0 0.9812448431 0.1630623361
10700235800.0 0.9834473593 0.1507548293
10750235500.0 0.9858758923 0.1375810862
10800235200.0 0.987827915 0.1231161238
10850234900.0 0.9896539144 0.1088219474
10900234600.0 0.9919042356 0.0944316557
10950234300.0 0.9935501919 0.0809821234
11000234000.0 0.9952908355 0.0658004017
11050233700.0 0.9969681377 0.0494166193
11100233400.0 0.9985385359 0.031987282
11150233100.0 0.9994309745 0.0154423388
11200232800.0 1.000104971 0.0007016786
11250232500.0 1.001488589 -0.0162745391
11300232200.0 1.001354884 -0.0336107497
11350231900.0 1.002052644 -0.0504552546
11400231600.0 1.001033524 -0.0649333897
11450231300.0 1.000501513 -0.0814691607
11500231000.0 1.000063645 -0.0974217268
11550230700.0 0.998652569 -0.1105836029
11600230400.0 0.9973128305 -0.1239285409
11650230100.0 0.9946293843 -0.1352775101
11700229800.0 0.9931665176 -0.1500662293
11750229500.0 0.9900453301 -0.1645502385
11800229200.0 0.9875652131 -0.1783485541
11850228900.0 0.9839840637 -0.1907479283
11900228600.0 0.9804034968 -0.2003071316
11950228300.0 0.9769821267 -0.2107546052
12000228000.0 0.9748028424 -0.2193850491
12050227700.0 0.9711626723 -0.2320280457
12100227400.0 0.9673710996 -0.2445099679
12150227100.0 0.9623088312 -0.260012143
12200226800.0 0.9589426169 -0.2703073576
12250226500.0 0.954858011 -0.2836251226
12300226200.0 0.9509615328 -0.2953031182
12350225900.0 0.9462519109 -0.3098755025
12400225600.0 0.941808214 -0.3225158859
12450225300.0 0.9375232667 -0.3344605037
12500225000.0 0.9317720339 -0.3496242033
12550224700.0 0.9264078644 -0.3635555933
12600224400.0 0.9216601491 -0.3761872762
12650224100.0 0.9156521092 -0.3905181796
12700223800.0 0.9106388042 -0.4032376343
12750223500.0 0.9049987886 -0.4162767593
12800223200.0 0.9000899843 -0.4286694378
12850222900.0 0.8944452065 -0.4405347801
12900222600.0 0.8886691266 -0.4530828036
12950222300.0 0.8824116185 -0.4659061429
13000222000.0 0.8762659674 -0.4774092069
13050221700.0 0.8695729958 -0.4899758832
13100221400.0 0.8628901281 -0.5020443803
13150221100.0 0.855903029 -0.5140737546
13200220800.0 0.8487855376 -0.5258732266
13250220500.0 0.8415028216 -0.5380871683
13300220200.0 0.8340746761 -0.5490102032
13350219900.0 0.8261212514 -0.5610968678
13400219600.0 0.81743557 -0.5732081006
13450219300.0 0.8080330642 -0.5869748522
13500219000.0 0.797700479 -0.6008715037
13550218700.0 0.78778888 -0.6135295482
13600218400.0 0.7779123999 -0.6252848946
13650218100.0 0.7674892809 -0.6365274708
13700217800.0 0.7566919034 -0.6492618662
13750217500.0 0.7464793419 -0.6612346848
13800217200.0 0.7354839214 -0.6723594471
13850216900.0 0.7238265323 -0.6841271779
13900216600.0 0.7146841544 -0.6921010562
13950216300.0 0.7028909265 -0.703135093
14000216000.0 0.6937326748 -0.7124976938
14050215700.0 0.6842680273 -0.7205410793
14100215400.0 0.6739288467 -0.7294594477
14150215100.0 0.6651933481 -0.7377745752
14200214800.0 0.6557602046 -0.7462852872
14250214500.0 0.6454857386 -0.7556359095
14300214200.0 0.6352282042 -0.7647848557
14350213900.0 0.6242302599 -0.7742326767
14400213600.0 0.6122863126 -0.7840013118
14450213300.0 0.5989669051 -0.7938940765
14500213000.0 0.586509105 -0.8043787103
14550212700.0 0.5733218186 -0.8134810088
14600212400.0 0.5614188412 -0.8226282249
14650212100.0 0.5484182282 -0.8314376064
14700211800.0 0.5341739128 -0.8408030275
14750211500.0 0.5216943385 -0.8485770495
14800211200.0 0.5098347957 -0.8569714728
14850210900.0 0.4978104693 -0.8643329815
14900210600.0 0.4844382994 -0.8720453507
14950210300.0 0.4708682773 -0.8797460006
15000210000.0 0.4581065336 -0.8866946622
15050209700.0 0.4456568692 -0.8928635708
15100209400.0 0.4329110359 -0.898632768
15150209100.0 0.4199740703 -0.9042455561
15200208800.0 0.4067934934 -0.9098740056
15250208500.0 0.3953213701 -0.9144055625
15300208200.0 0.384747846 -0.9184912703
15350207900.0 0.3708157784 -0.9233452069
15400207600.0 0.3557727566 -0.9295695585
15450207300.0 0.3413578695 -0.934465363
15500207000.0 0.3269151899 -0.9383982279
15550206700.0 0.3115776015 -0.9435133928
15600206400.0 0.2956487551 -0.9478598883
15650206100.0 0.2801923407 -0.9523888139
15700205800.0 0.2659909935 -0.9559676233
15750205500.0 0.2514953352 -0.959108101
15800205200.0 0.2371643272 -0.9627143125
15850204900.0 0.2225760533 -0.9661619562
15900204600.0 0.2077972834 -0.9697014862
15950204300.0 0.1937762656 -0.9725176003
16000204000.0 0.1799063434 -0.9754146871
16050203700.0 0.1650055384 -0.9780639257
16100203400.0 0.1506531219 -0.9802277484
16150203100.0 0.136361317 -0.9824561372
16200202800.0 0.1223208583 -0.9842876523
16250202500.0 0.1074587486 -0.9863099882
16300202200.0 0.0919848942 -0.9878203096
16350201900.0 0.0773632784 -0.9891369359
16400201600.0 0.0628279253 -0.9902361211
16450201300.0 0.0476436385 -0.9912502718
16500201000.0 0.0310331415 -0.9920674722
16550200700.0 0.0152011369 -0.9925060123
16600200400.0 -0.0007306148 -0.9926271522
16650200100.0 -0.0168438054 -0.9926368991
16700199800.0 -0.0336204144 -0.9919914431
16750199500.0 -0.0519595416 -0.991958835
16800199200.0 -0.0679672334 -0.9900127121
16850198900.0 -0.0830749657 -0.9890923587
16900198600.0 -0.0969670282 -0.9878882312
16950198300.0 -0.1107370652 -0.9869238526
17000198000.0 -0.1228829064 -0.9852451162
17050197700.0 -0.1360731361 -0.9839541819
17100197400.0 -0.1488175709 -0.982017164
17150197100.0 -0.161556651 -0.9798477323
17200196800.0 -0.1744224363 -0.9777145487
17250196500.0 -0.1869793151 -0.9750962545
17300196200.0 -0.1991548748 -0.9728606219
17350195900.0 -0.2112101421 -0.9704831452
17400195600.0 -0.2234250884 -0.9681718795
17450195300.0 -0.2365572002 -0.9653799072
17500195000.0 -0.249946673 -0.9618780686
17550194700.0 -0.2639239658 -0.958365496
17600194400.0 -0.2778437527 -0.9544206294
17650194100.0 -0.2917430314 -0.9503600059
17700193800.0 -0.3042851081 -0.9460316148
17750193500.0 -0.3186518728 -0.941294809
17800193200.0 -0.3335766997 -0.9365002376
17850192900.0 -0.3481302796 -0.9307128714
17900192600.0 -0.3632531521 -0.9247203822
17950192300.0 -0.3788190644 -0.9176347452
18000192000.0 -0.3935085888 -0.9103863963
18050191700.0 -0.4073738418 -0.9022999911
18100191400.0 -0.4216365829 -0.8945877072
18150191100.0 -0.4365206659 -0.8866369463
18200190800.0 -0.453377206 -0.8773810108
18250190500.0 -0.4705257691 -0.8678314336
18300190200.0 -0.4851235208 -0.8590994238
18350189900.0 -0.5004829407 -0.8511735475
18400189600.0 -0.5151966609 -0.842319203
18450189300.0 -0.5286082398 -0.83429456
18500189000.0 -0.5418717597 -0.8260100872
18550188700.0 -0.5540521518 -0.8187942767
18600188400.0 -0.5660032632 -0.8117776721
18650188100.0 -0.5770612161 -0.8055974675
18700187800.0 -0.5879072718 -0.7986431728
18750187500.0 -0.5985492052 -0.7922017013
18800187200.0 -0.6092590787 -0.785071609
18850186900.0 -0.6196483798 -0.7779717466
18900186600.0 -0.6299305292 -0.7703721774
18950186300.0 -0.6400176473 -0.7627799851
19000186000.0 -0.647117179 -0.7568121169
19050185700.0 -0.656575396 -0.7491506998
19100185400.0 -0.6665742726 -0.7410479729
19150185100.0 -0.676265895 -0.7327970131
19200184800.0 -0.6863478298 -0.7243933569
19250184500.0 -0.6967043752 -0.714480105
19300184200.0 -0.7078794047 -0.7051566423
19350183900.0 -0.7192307844 -0.6959144627
19400183600.0 -0.728332232 -0.6858265356
19450183300.0 -0.7369463698 -0.6761166203
19500183000.0 -0.7458642061 -0.6656918355
19550182700.0 -0.7551886839 -0.6552397116
19600182400.0 -0.7656777951 -0.6433464968
19650182100.0 -0.7765576055 -0.6305193127
19700181800.0 -0.7871642821 -0.6178506925
19750181500.0 -0.7975445037 -0.6036544314
19800181200.0 -0.8076404289 -0.5886641719
19850180900.0 -0.8172921758 -0.5733629852
19900180600.0 -0.8249877374 -0.5587352349
19950180300.0 -0.8337994832 -0.5426621533
20000180000.0 -0.8269272024 -0.5446628115
20050179700.0 -0.8355827973 -0.5318741522
20100179400.0 -0.8437009999 -0.5184483659
20150179100.0 -0.8516106646 -0.5054017648
20200178800.0 -0.8593332702 -0.4933827935
20250178500.0 -0.8703652844 -0.478838331
20300178200.0 -0.8794159851 -0.464823822
20350177900.0 -0.8887201754 -0.4499389153
20400177600.0 -0.8977245675 -0.4360948153
20450177300.0 -0.9052928646 -0.4219033308
20500177000.0 -0.9135442321 -0.4074107675
20550176700.0 -0.9213597336 -0.3935347196
20600176400.0 -0.9285356378 -0.3808121982
20650176100.0 -0.9350631699 -0.3682638116
20700175800.0 -0.9413304387 -0.3559991609
20750175500.0 -0.9486794627 -0.3445782142
20800175200.0 -0.9533132626 -0.3337561924
20850174900.0 -0.9580997632 -0.3223085406
20900174600.0 -0.9625444707 -0.3110627355
20950174300.0 -0.9664470372 -0.2991256599
21000174000.0 -0.9703803441 -0.28808352
21050173700.0 -0.9730527287 -0.2767146828
21100173400.0 -0.9770081611 -0.2651877763
21150173100.0 -0.9814472204 -0.25205014
21200172800.0 -0.9850343263 -0.2389463229
21250172500.0 -0.9880805697 -0.2249083417
21300172200.0 -0.9903652843 -0.2105466819
21350171900.0 -0.9916745396 -0.1967304305
21400171600.0 -0.9933438165 -0.1817526857
21450171300.0 -0.9936100686 -0.1676853963
21500171000.0 -0.9935646014 -0.1529256304
21550170700.0 -0.9932885994 -0.1363595341
21600170400.0 -0.9931803402 -0.1205837753
21650170100.0 -0.9928245625 -0.1054526026
21700169800.0 -0.9906428394 -0.0906229769
21750169500.0 -0.9890875693 -0.0745436412
21800169200.0 -0.9885797054 -0.0589370679
21850168900.0 -0.9868947655 -0.0422394996
21900168600.0 -0.9856433168 -0.0245040716
21950168300.0 -0.9842200817 -0.0095539281
22000168000.0 -0.9829986671 0.0051337579
22050167700.0 -0.9830960439 0.0194586963
22100167400.0 -0.9828779212 0.0343906988
22150167100.0 -0.983343988 0.0500701106
22200166800.0 -0.9832321983 0.0665666782
22250166500.0 -0.9829754047 0.0841499478
22300166200.0 -0.9825537322 0.099895508
22350165900.0 -0.9807686013 0.1167742067
22400165600.0 -0.9789949582 0.1319799151
22450165300.0 -0.9775072523 0.1478310434
22500165000.0 -0.9758212815 0.1606855476
22550164700.0 -0.9749100759 0.1770298526
22600164400.0 -0.9718083881 0.1921708213
22650164100.0 -0.9704517154 0.2073582166
22700163800.0 -0.9677786701 0.2230516228
22750163500.0 -0.9651964053 0.2378859215
22800163200.0 -0.9626510349 0.2519484621
22850162900.0 -0.9601237534 0.2650045864
22900162600.0 -0.9583458318 0.2786121171
22950162300.0 -0.957544829 0.2909697658
23000162000.0 -0.9567114105 0.30321316
23050161700.0 -0.9550665975 0.3156759029
23100161400.0 -0.951960488 0.3283115836
23150161100.0 -0.9500345379 0.3404679253
23200160800.0 -0.9474309984 0.3526587714
23250160500.0 -0.9437958114 0.3640712666
23300160200.0 -0.9415086674 0.3758270706
23350159900.0 -0.9380832738 0.3895297746
23400159600.0 -0.933541759 0.4021745728
23450159300.0 -0.9277239567 0.415425643
23500159000.0 -0.9236415086 0.4287604965
23550158700.0 -0.9191529964 0.4419902122
23600158400.0 -0.9136489682 0.4549430319
23650158100.0 -0.9074440226 0.4689239894
23700157800.0 -0.8998694622 0.4830203676
23750157500.0 -0.8912702171 0.4967469603
23800157200.0 -0.8822795615 0.5104459124
23850156900.0 -0.8735067918 0.5227051845
23900156600.0 -0.8644841749 0.5347181425
23950156300.0 -0.8548040669 0.5477262677
24000156000.0 -0.8455885887 0.5595319445
24050155700.0 -0.8358191255 0.5712438233
24100155400.0 -0.8255504118 0.5834852967
24150155100.0 -0.8147752417 0.5949718418
24200154800.0 -0.803475932 0.6060835093
24250154500.0 -0.7922828678 0.6178774393
24300154200.0 -0.7810430288 0.6294280771
24350153900.0 -0.7693711612 0.640185198
24400153600.0 -0.7565348612 0.6504169805
24450153300.0 -0.7447755111 0.6605339719
24500153000.0 -0.7332250592 0.6701406908
24550152700.0 -0.7224447515 0.6797963709
24600152400.0 -0.7109114777 0.689040035
