!Created with skrf (http://scikit-rf.org).
# Hz S RI R 50.0 
!freq ReS11 ImS11
300000.0 -0.9740936152 -0.1200859328
50299700.0 -1.000027894 0.0152347369
100299400.0 -0.9979556109 0.0280691769
150299100.0 -1.002850264 0.0448861942
200298800.0 -0.9996027785 0.0582414333
250298500.0 -0.997283573 0.0717893423
300298200.0 -0.9860049707 0.0876133746
350297900.0 -0.9939789162 0.0985271299
400297600.0 -0.9932828249 0.1152510108
450297300.0 -0.9910026286 0.1289671031
500297000.0 -0.9893521882 0.1436327569
550296700.0 -0.9842027232 0.1559201719
600296400.0 -1.017337121 0.1893963483
650296100.0 -0.9821884051 0.1860243293
700295800.0 -0.9792777453 0.2003962483
750295500.0 -0.9762621074 0.214166932
800295200.0 -0.9731090611 0.2284281594
850294900.0 -0.9696134974 0.2422249312
900294600.0 -0.9658033143 0.2558527548
950294300.0 -0.9621358486 0.2695082854
1000294000.0 -0.9581276599 0.2834396486
1050293700.0 -0.9537651443 0.2973857751
1100293400.0 -0.9493523891 0.3116025671
1150293100.0 -0.9455132104 0.3236227048
1200292800.0 -0.9401896123 0.3380014303
1250292500.0 -0.9346616377 0.3514446884
1300292200.0 -0.9289676872 0.3645875791
1350291900.0 -0.9235196375 0.3788061821
1400291600.0 -0.9180318342 0.3918590366
1450291300.0 -0.9126028499 0.4043252601
1500291000.0 -0.9061589029 0.4176559948
1550290700.0 -0.8998460694 0.4309817396
1600290400.0 -0.8934094565 0.4437534915
1650290100.0 -0.8867534531 0.4559021289
1700289800.0 -0.879815165 0.4692975991
1750289500.0 -0.8729163106 0.4816356234
1800289200.0 -0.8656435131 0.4947242002
1850288900.0 -0.8587917075 0.5060318693
1900288600.0 -0.8512082305 0.5189916981
1950288300.0 -0.8427980908 0.5314821134
2000288000.0 -0.8353148909 0.5429167631
2050287700.0 -0.8273883961 0.5552102723
2100287400.0 -0.8191988125 0.5668762604
2150287100.0 -0.8110581963 0.5788809019
2200286800.0 -0.8030627199 0.5892048907
2250286500.0 -0.7940330022 0.6012766895
2300286200.0 -0.7851888954 0.6129090139
2350285900.0 -0.7767272625 0.6238493436
2400285600.0 -0.7678200312 0.6349069857
2450285300.0 -0.7592480395 0.6451583243
2500285000.0 -0.7492798101 0.656575094
2550284700.0 -0.7404246519 0.6669935644
2600284400.0 -0.7308640573 0.6771480097
2650284100.0 -0.7222126274 0.687506845
2700283800.0 -0.7117390331 0.6981985862
2750283500.0 -0.7012293133 0.708437724
2800283200.0 -0.6917290002 0.7184606237
2850282900.0 -0.6812108414 0.7282192129
2900282600.0 -0.6707514807 0.7378208033
2950282300.0 -0.6604269796 0.7470950056
3000282000.0 -0.6497331889 0.7566429387
3050281700.0 -0.6386956536 0.7658797165
3100281400.0 -0.6267630591 0.775258403
3150281100.0 -0.6153418932 0.7844262918
3200280800.0 -0.6034473823 0.7928941986
3250280500.0 -0.5927398596 0.8005937086
3300280200.0 -0.5814358816 0.8087079192
3350279900.0 -0.5695634063 0.8164853463
3400279600.0 -0.5573403042 0.8244311753
3450279300.0 -0.5461732428 0.8312804647
3500279000.0 -0.5343282251 0.8382151683
3550278700.0 -0.521892754 0.8454322841
3600278400.0 -0.5097367039 0.852542737
3650278100.0 -0.4965494182 0.8602286969
3700277800.0 -0.4845229097 0.8666632379
3750277500.0 -0.4726313949 0.8732568616
3800277200.0 -0.4597080226 0.8796212077
3850276900.0 -0.4478353625 0.8857860863
3900276600.0 -0.4369163028 0.8913023566
3950276300.0 -0.4247156047 0.8972452818
4000276000.0 -0.4127978077 0.9033718099
4050275700.0 -0.3999278765 0.9094308422
4100275400.0 -0.3888956977 0.9146560051
4150275100.0 -0.3761014122 0.920604641
4200274800.0 -0.3628838458 0.9262998149
4250274500.0 -0.3506348995 0.9312617631
4300274200.0 -0.3373444631 0.9363139262
4350273900.0 -0.3234550546 0.942154785
4400273600.0 -0.3087193003 0.9474320351
4450273300.0 -0.293379213 0.9522554179
4500273000.0 -0.2799803328 0.9566380441
4550272700.0 -0.2660447538 0.9607149475
4600272400.0 -0.2506421342 0.9648466597
4650272100.0 -0.2389763356 0.9681320353
4700271800.0 -0.2258844369 0.9714484855
4750271500.0 -0.2143255645 0.9744301474
4800271200.0 -0.2017379176 0.977075486
4850270900.0 -0.1878697933 0.979988934
4900270600.0 -0.1739619179 0.9823012151
4950270300.0 -0.1596470468 0.9849161391
5000270000.0 -0.1449863513 0.9866579167
5050269700.0 -0.1317713617 0.988343597
5100269400.0 -0.1178420127 0.9902015435
5150269100.0 -0.1043771385 0.9921645565
5200268800.0 -0.0910882186 0.992957174
5250268500.0 -0.0783278855 0.9940143957
5300268200.0 -0.0647719655 0.9944586178
5350267900.0 -0.0523715562 0.9954242232
5400267600.0 -0.0362230331 0.996221682
5450267300.0 -0.0229271193 0.996588898
5500267000.0 -0.0078022383 0.9971783277
5550266700.0 0.0069679974 0.9971876069
5600266400.0 0.0226135173 0.9972387329
5650266100.0 0.0391194819 0.9968329524
5700265800.0 0.0536212791 0.9959935592
5750265500.0 0.0683268883 0.9953457604
5800265200.0 0.0825083824 0.9943802852
5850264900.0 0.0954706251 0.9934646356
5900264600.0 0.112450305 0.991727141
5950264300.0 0.1239851824 0.9896323652
6000264000.0 0.1383135352 0.988324024
6050263700.0 0.1502030849 0.9866707157
6100263400.0 0.1625234239 0.9850604262
6150263100.0 0.177239475 0.982818177
6200262800.0 0.1875257056 0.9810639536
6250262500.0 0.200010572 0.9786198922
6300262200.0 0.2127120282 0.9759291737
6350261900.0 0.2257499392 0.9731530699
6400261600.0 0.2395137044 0.9698894233
6450261300.0 0.250635544 0.9669143374
6500261000.0 0.2637439232 0.9634892602
6550260700.0 0.2763904261 0.959290054
6600260400.0 0.2900941394 0.9555840048
6650260100.0 0.3038475736 0.9513340597
6700259800.0 0.315916291 0.9466654891
6750259500.0 0.3299087202 0.9422019285
6800259200.0 0.3433439463 0.9369693132
6850258900.0 0.3555465291 0.9320051069
6900258600.0 0.3677632413 0.9266802415
6950258300.0 0.3802261071 0.9213515172
7000258000.0 0.3920319891 0.9161351669
7050257700.0 0.4042288914 0.910043472
7100257400.0 0.4172798337 0.9038542522
7150257100.0 0.4277731945 0.8983701817
7200256800.0 0.4404369537 0.8918363758
7250256500.0 0.4527210076 0.8855385436
7300256200.0 0.4656912168 0.8787456306
7350255900.0 0.4781144551 0.8719778274
7400255600.0 0.4919723081 0.8644198453
7450255300.0 0.5074388944 0.8555032203
7500255000.0 0.5188879945 0.8482351717
7550254700.0 0.53261842 0.8391605507
7600254400.0 0.5456045714 0.8314089392
7650254100.0 0.5572098427 0.8233743974
7700253800.0 0.569047374 0.8156226298
7750253500.0 0.580273303 0.807821917
7800253200.0 0.590888612 0.8001758174
7850252900.0 0.600574323 0.7930101975
7900252600.0 0.6122135836 0.7843795888
7950252300.0 0.6208767967 0.7777807456
8000252000.0 0.6308672783 0.7701374288
8050251700.0 0.6414084648 0.7619828263
8100251400.0 0.6515648112 0.7538839843
8150251100.0 0.6615820514 0.7453322304
8200250800.0 0.6709312542 0.7373943332
8250250500.0 0.679903199 0.7293372018
8300250200.0 0.6891534497 0.7208794232
8350249900.0 0.6979444102 0.7120889977
8400249600.0 0.7063382485 0.7041410862
8450249300.0 0.715360615 0.6949738162
8500249000.0 0.7239365263 0.6861790491
8550248700.0 0.7322612063 0.6771157658
8600248400.0 0.7407695679 0.6675214147
8650248100.0 0.7484139116 0.6582070405
8700247800.0 0.7579308019 0.6470022218
8750247500.0 0.7663265134 0.6369102267
8800247200.0 0.7743293841 0.626387389
8850246900.0 0.7830456109 0.615191181
8900246600.0 0.7916616244 0.6035392397
8950246300.0 0.8006300674 0.5910216807
9000246000.0 0.8098347254 0.5785861978
9050245700.0 0.8188604856 0.5656606698
9100245400.0 0.8274935486 0.5533144835
9150245100.0 0.8365706552 0.5399415449
9200244800.0 0.8460954671 0.5249706501
9250244500.0 0.855601711 0.5096936123
9300244200.0 0.8638219841 0.495432052
9350243900.0 0.871511072 0.4818985783
9400243600.0 0.878152835 0.4697874264
9450243300.0 0.8839309983 0.4587022376
9500243000.0 0.8901735333 0.4464927993
9550242700.0 0.8942507337 0.4389582279
9600242400.0 0.8979721224 0.4316278362
9650242100.0 0.9020467006 0.4250740972
9700241800.0 0.9070238988 0.4164944463
9750241500.0 0.9106412389 0.408898314
9800241200.0 0.9156560355 0.3996945609
9850240900.0 0.9214222661 0.3877458468
9900240600.0 0.9271158378 0.3762317967
9950240300.0 0.933750158 0.360086695
10000240000.0 0.9383741784 0.3483265145
10050239700.0 0.9441112738 0.3329508966
10100239400.0 0.9495490717 0.316836605
10150239100.0 0.9541261046 0.3015954866
10200238800.0 0.9578757173 0.2870087514
10250238500.0 0.9614040989 0.2735375313
10300238200.0 0.9647538059 0.2593399763
10350237900.0 0.9671750465 0.24647163
10400237600.0 0.9699051908 0.2327568029
10450237300.0 0.9725570482 0.2192259254
10500237000.0 0.9749154032 0.2069514874
10550236700.0 0.9771512942 0.19305572
10600236400.0 0.9794010688 0.1787241992
10650236100.0 0.9814983161 0.1643877509
10700235800.0 0.9835034202 0.1518406034
10750235500.0 0.9859990982 0.1386242346
10800235200.0 0.9877819298 0.1241573052
10850234900.0 0.9895225683 0.1099292983
10900234600.0 0.991876656 0.095288192
10950234300.0 0.9934537271 0.0818596992
11000234000.0 0.9952350427 0.0665179285
11050233700.0 0.997164757 0.0499880851
11100233400.0 0.9986616684 0.0327290737
11150233100.0 0.9996536294 0.0162229321
11200232800.0 1.000625087 0.0010139726
11250232500.0 1.001773124 -0.0168476169
11300232200.0 1.001988371 -0.0342821206
11350231900.0 1.00181533 -0.0499065919
11400231600.0 1.001885884 -0.0652441549
11450231300.0 1.001095162 -0.0818036286
11500231000.0 1.000010581 -0.0972072482
11550230700.0 0.9986607998 -0.1100197228
11600230400.0 0.9971077158 -0.1226755272
11650230100.0 0.9951722253 -0.1344423812
11700229800.0 0.9931603834 -0.1495939002
11750229500.0 0.9909588986 -0.1636918351
11800229200.0 0.9881628199 -0.1771701048
11850228900.0 0.9844513955 -0.1892940114
11900228600.0 0.9807592362 -0.1991321384
11950228300.0 0.9773860952 -0.2094531923
12000228000.0 0.9746576348 -0.2183409986
12050227700.0 0.9709102719 -0.2313448873
12100227400.0 0.9679897795 -0.242169494
12150227100.0 0.9627773616 -0.259225379
12200226800.0 0.9588038856 -0.2705054369
12250226500.0 0.9551745005 -0.2827805975
12300226200.0 0.9509657678 -0.2953019433
12350225900.0 0.9459324102 -0.3086919598
12400225600.0 0.9416900597 -0.3218448775
12450225300.0 0.9376766405 -0.3342953255
12500225000.0 0.9320037287 -0.3493809897
12550224700.0 0.9262582225 -0.363120336
12600224400.0 0.9213759323 -0.3758712489
12650224100.0 0.915660364 -0.3901476936
12700223800.0 0.9103742909 -0.4030791356
12750223500.0 0.9048988575 -0.4160743729
12800223200.0 0.8995674956 -0.4286217197
12850222900.0 0.8942743284 -0.4410116895
12900222600.0 0.888523051 -0.4531194279
12950222300.0 0.882111431 -0.4662806156
13000222000.0 0.8764644308 -0.4771822015
13050221700.0 0.869748676 -0.4901288082
13100221400.0 0.8631548421 -0.5020735562
13150221100.0 0.8560714331 -0.5142977354
13200220800.0 0.8491626711 -0.525708002
13250220500.0 0.8417772926 -0.5379268249
13300220200.0 0.8346552645 -0.5485329934
13350219900.0 0.8266436605 -0.560383844
13400219600.0 0.8181565475 -0.5723395418
13450219300.0 0.8088637692 -0.585707071
13500219000.0 0.798882399 -0.5992104392
13550218700.0 0.788588133 -0.6118985805
13600218400.0 0.7789805843 -0.6236897321
13650218100.0 0.7690250348 -0.6348568763
13700217800.0 0.7588350711 -0.6473740846
13750217500.0 0.7480345586 -0.6580420853
13800217200.0 0.7370589032 -0.6704574712
13850216900.0 0.725807941 -0.6816196965
13900216600.0 0.7160014616 -0.690445105
13950216300.0 0.7056166204 -0.7010401593
14000216000.0 0.6954613798 -0.7099105221
14050215700.0 0.6865744795 -0.7181981712
14100215400.0 0.6762306486 -0.7273741024
14150215100.0 0.6672405189 -0.735582872
14200214800.0 0.6578534916 -0.7446911954
14250214500.0 0.6476434526 -0.753840855
14300214200.0 0.637161269 -0.7632965931
14350213900.0 0.62574181 -0.7730320368
14400213600.0 0.6141641479 -0.7824399572
14450213300.0 0.6012705069 -0.7929337231
14500213000.0 0.5878839297 -0.8027847567
14550212700.0 0.5755404987 -0.8123138846
14600212400.0 0.5629346869 -0.8211657475
14650212100.0 0.5508476134 -0.8297775218
14700211800.0 0.5363137754 -0.8392731451
14750211500.0 0.5242092381 -0.8477284294
14800211200.0 0.5123290579 -0.8554163787
14850210900.0 0.4998867173 -0.8629652224
14900210600.0 0.4865167226 -0.8709931644
14950210300.0 0.473341709 -0.8786518038
15000210000.0 0.4604877198 -0.8855272723
15050209700.0 0.4483164717 -0.891653318
15100209400.0 0.4353908789 -0.8975456633
15150209100.0 0.4231968323 -0.9030062363
15200208800.0 0.4107090399 -0.908079247
15250208500.0 0.3990000743 -0.9128705003
15300208200.0 0.3875082208 -0.9174223568
15350207900.0 0.3744177712 -0.9218842043
15400207600.0 0.3597183211 -0.9273093962
15450207300.0 0.3442596446 -0.9323412937
15500207000.0 0.33010864 -0.9374381134
15550206700.0 0.3157329605 -0.9420679222
15600206400.0 0.299479115 -0.9467186226
15650206100.0 0.28386968 -0.9513172176
15700205800.0 0.2698757547 -0.954715036
15750205500.0 0.2553796453 -0.9581892431
15800205200.0 0.2412274217 -0.9616791898
15850204900.0 0.2268377792 -0.9651626214
15900204600.0 0.2116634905 -0.9688162496
15950204300.0 0.1975388769 -0.9719670342
16000204000.0 0.1832681946 -0.9746920799
16050203700.0 0.1683415748 -0.9780622105
16100203400.0 0.1538454791 -0.979983877
16150203100.0 0.1391559985 -0.982169414
16200202800.0 0.1247089181 -0.9846873326
16250202500.0 0.1100440044 -0.9856508575
16300202200.0 0.0944945488 -0.9877617275
16350201900.0 0.0795305895 -0.9888954824
16400201600.0 0.065056009 -0.9903695161
16450201300.0 0.049669591 -0.9913192993
16500201000.0 0.0327942958 -0.992112458
16550200700.0 0.017138865 -0.9926276433
16600200400.0 0.001436748 -0.9928974823
16650200100.0 -0.014603082 -0.9926187416
16700199800.0 -0.0309959575 -0.9923749223
16750199500.0 -0.0496669976 -0.9923164549
16800199200.0 -0.0662632548 -0.9906797739
16850198900.0 -0.0804570857 -0.9898059309
16900198600.0 -0.0944547889 -0.9890526427
16950198300.0 -0.1076005514 -0.9876671096
17000198000.0 -0.121374276 -0.9861044314
17050197700.0 -0.133515486 -0.9838700705
17100197400.0 -0.1473132768 -0.9819906599
17150197100.0 -0.1594745305 -0.980322323
17200196800.0 -0.172426358 -0.9781376445
17250196500.0 -0.1854234279 -0.97562249
17300196200.0 -0.1969983145 -0.9733684645
17350195900.0 -0.209134292 -0.9710743052
17400195600.0 -0.2213140295 -0.9687142732
17450195300.0 -0.2344735459 -0.9659058427
17500195000.0 -0.2477229636 -0.9624200195
17550194700.0 -0.2617685223 -0.958907701
17600194400.0 -0.2754537731 -0.9549577146
17650194100.0 -0.2891837803 -0.9511715881
17700193800.0 -0.3018486312 -0.9467526691
17750193500.0 -0.3166500156 -0.9419580308
17800193200.0 -0.331022198 -0.936680694
17850192900.0 -0.3457569776 -0.9316131887
17900192600.0 -0.3610103659 -0.9251198259
17950192300.0 -0.3767870118 -0.9182313333
18000192000.0 -0.3915591627 -0.9111187338
18050191700.0 -0.4054424575 -0.9031859498
18100191400.0 -0.4196943191 -0.8954671986
18150191100.0 -0.4344775007 -0.8875978583
18200190800.0 -0.4515082026 -0.8784696858
18250190500.0 -0.4683275625 -0.8688901469
18300190200.0 -0.4840521105 -0.8603226385
18350189900.0 -0.4988645851 -0.8517696136
18400189600.0 -0.5132540933 -0.8439509827
18450189300.0 -0.526426943 -0.8359525005
18500189000.0 -0.5399141537 -0.8274719462
18550188700.0 -0.55300088 -0.8200255048
18600188400.0 -0.5644847706 -0.8132529045
18650188100.0 -0.5756660047 -0.8068417156
18700187800.0 -0.5864129673 -0.7999783134
18750187500.0 -0.5969120238 -0.7936017626
18800187200.0 -0.6077108956 -0.7866574745
18850186900.0 -0.6180098811 -0.7797032149
18900186600.0 -0.6280847498 -0.7722348325
18950186300.0 -0.6382457073 -0.764747748
19000186000.0 -0.6456736819 -0.7581922939
19050185700.0 -0.6547674283 -0.7510564081
19100185400.0 -0.6648733435 -0.7431450001
19150185100.0 -0.6744924153 -0.7348518137
19200184800.0 -0.6838982651 -0.7262763168
19250184500.0 -0.6943255791 -0.7172189376
19300184200.0 -0.7058664698 -0.7080409223
19350183900.0 -0.7158753905 -0.6977389431
19400183600.0 -0.7261332631 -0.6877092331
19450183300.0 -0.7351449762 -0.677865926
19500183000.0 -0.7432974661 -0.6676741653
19550182700.0 -0.7536056029 -0.6569722856
19600182400.0 -0.7634878829 -0.6454017936
19650182100.0 -0.7744362668 -0.6330010593
19700181800.0 -0.7848410527 -0.6197882065
19750181500.0 -0.7954896904 -0.605771529
19800181200.0 -0.8057532806 -0.5906278314
19850180900.0 -0.8156548054 -0.5752122942
19900180600.0 -0.8234422921 -0.5606552038
19950180300.0 -0.8330739486 -0.5446364651
20000180000.0 -0.8244519822 -0.547124352
20050179700.0 -0.8326434629 -0.5335808182
20100179400.0 -0.8416096933 -0.5205928116
20150179100.0 -0.8495555965 -0.50882233
20200178800.0 -0.8584034086 -0.495615953
20250178500.0 -0.86781985 -0.482694299
20300178200.0 -0.8771295413 -0.4686804783
20350177900.0 -0.8869294076 -0.4541148003
20400177600.0 -0.8958950402 -0.4395603252
20450177300.0 -0.9036789363 -0.4253131408
20500177000.0 -0.9118781611 -0.4117439046
20550176700.0 -0.9197305349 -0.3982516451
20600176400.0 -0.926687899 -0.3852716457
20650176100.0 -0.933314728 -0.373289036
20700175800.0 -0.94033029 -0.3608738742
20750175500.0 -0.9471153924 -0.3494572756
20800175200.0 -0.9509941442 -0.3385516526
20850174900.0 -0.9566908431 -0.3274708549
20900174600.0 -0.9606613087 -0.3168745558
20950174300.0 -0.9639277342 -0.3052262653
21000174000.0 -0.9672227416 -0.2942442296
21050173700.0 -0.9700443144 -0.2833898055
21100173400.0 -0.9741747042 -0.2722664279
21150173100.0 -0.9779788185 -0.2597712271
21200172800.0 -0.9815632705 -0.2467371258
21250172500.0 -0.9845377808 -0.2328187356
21300172200.0 -0.9870419239 -0.218619169
21350171900.0 -0.9891621802 -0.2042535984
21400171600.0 -0.9910035726 -0.1900482657
21450171300.0 -0.9912348817 -0.1759699801
21500171000.0 -0.9912861875 -0.1595218738
21550170700.0 -0.9909824697 -0.1450196025
21600170400.0 -0.9915142831 -0.129641665
21650170100.0 -0.9908567614 -0.1130265271
21700169800.0 -0.9905445359 -0.0973981871
21750169500.0 -0.9893200756 -0.0820919796
21800169200.0 -0.9884979945 -0.0661550787
21850168900.0 -0.9885944178 -0.0486823045
21900168600.0 -0.9869420867 -0.0328764565
21950168300.0 -0.9866321045 -0.0174735454
22000168000.0 -0.9853571668 -0.0024079946
22050167700.0 -0.9856620658 0.0122571419
22100167400.0 -0.9861191478 0.0279254612
22150167100.0 -0.9866061471 0.0434653145
22200166800.0 -0.986995325 0.0596126309
22250166500.0 -0.9867759841 0.076578676
22300166200.0 -0.9858295503 0.0934421218
22350165900.0 -0.9851524773 0.1108597795
22400165600.0 -0.9830284004 0.1257114094
22450165300.0 -0.981061372 0.1407497904
22500165000.0 -0.9786069339 0.1553323437
22550164700.0 -0.9776524234 0.1703267198
22600164400.0 -0.9771647569 0.1860738305
22650164100.0 -0.9738970892 0.2008700235
22700163800.0 -0.9719990435 0.2170689334
22750163500.0 -0.9680085209 0.2323606368
22800163200.0 -0.9652870477 0.2453991888
22850162900.0 -0.9629974416 0.2587360319
22900162600.0 -0.9613945932 0.2721614808
22950162300.0 -0.9601385508 0.2851599061
23000162000.0 -0.9586911634 0.2973360172
23050161700.0 -0.9564562342 0.3094819629
23100161400.0 -0.9541310858 0.3231583844
23150161100.0 -0.9515620383 0.3353734358
23200160800.0 -0.9483260622 0.3483043877
23250160500.0 -0.9453229625 0.3606486045
23300160200.0 -0.9436937088 0.3727716225
23350159900.0 -0.9392796137 0.3856327026
23400159600.0 -0.9348761145 0.3991523659
23450159300.0 -0.929219478 0.4123185448
23500159000.0 -0.9245967556 0.4258977051
23550158700.0 -0.9199709991 0.439517137
23600158400.0 -0.9144796028 0.4529123346
23650158100.0 -0.9079575427 0.4673109618
23700157800.0 -0.9001092641 0.4811282062
23750157500.0 -0.8913285505 0.4950890111
23800157200.0 -0.8824652104 0.5087673357
23850156900.0 -0.873336588 0.5214816144
23900156600.0 -0.8632354552 0.5342157348
23950156300.0 -0.8537871045 0.5458017565
24000156000.0 -0.8454743867 0.558275164
24050155700.0 -0.8350464661 0.5707457235
24100155400.0 -0.8250236757 0.5825690044
24150155100.0 -0.8153514976 0.5946176644
24200154800.0 -0.8031309053 0.6059380972
24250154500.0 -0.7920587979 0.6180441465
24300154200.0 -0.780885669 0.630137361
24350153900.0 -0.7691047385 0.6403279756
24400153600.0 -0.7563241658 0.6505541438
24450153300.0 -0.7446252191 0.6607744459
24500153000.0 -0.7334284709 0.6705879626
24550152700.0 -0.7222257937 0.6806792237
24600152400.0 -0.7099242818 0.6895660057
24650152100.0 -0.698293525 0.6976169105
