!Created with skrf (http://scikit-rf.org).
# Hz S RI R 50.0 
!freq ReS11 ImS11
300000.0 -0.9815275024 -0.1019937403
50299700.0 -0.9999989548 0.0163171553
100299400.0 -0.9981691459 0.0292584497
150299100.0 -1.002864984 0.0459796674
200298800.0 -0.9997180609 0.0592682698
250298500.0 -0.9973806612 0.0728340629
300298200.0 -0.9858168197 0.0886567578
350297900.0 -0.993995774 0.0993821851
400297600.0 -0.9931998622 0.1161142284
450297300.0 -0.9909369431 0.1298616267
500297000.0 -0.9892964994 0.1448988309
550296700.0 -0.9842745171 0.1570212494
600296400.0 -1.017051323 0.1904830193
650296100.0 -0.9820860869 0.1870965243
700295800.0 -0.9790957996 0.2015375478
750295500.0 -0.9760744388 0.2152934476
800295200.0 -0.9728056585 0.2296094666
850294900.0 -0.9692036939 0.2433895167
900294600.0 -0.9654600393 0.2570881629
950294300.0 -0.961721521 0.2707992665
1000294000.0 -0.9577646006 0.2848033619
1050293700.0 -0.9533761427 0.2987481227
1100293400.0 -0.948975125 0.3130261897
1150293100.0 -0.9450847302 0.3249387583
1200292800.0 -0.9397217351 0.3392070979
1250292500.0 -0.9342946867 0.3525877614
1300292200.0 -0.9286765014 0.3655949909
1350291900.0 -0.9229197188 0.3798184063
1400291600.0 -0.9175796631 0.392976665
1450291300.0 -0.9122725896 0.4052701457
1500291000.0 -0.9057355296 0.4185668478
1550290700.0 -0.899318591 0.4319421035
1600290400.0 -0.8932649508 0.4447231498
1650290100.0 -0.8863960661 0.4568270242
1700289800.0 -0.8796086709 0.4703109872
1750289500.0 -0.8724699633 0.4827369843
1800289200.0 -0.865193858 0.4954570534
1850288900.0 -0.8582470203 0.506874505
1900288600.0 -0.8504278271 0.5198377938
1950288300.0 -0.8424014832 0.5323004204
2000288000.0 -0.8350776029 0.5439479132
2050287700.0 -0.8265825967 0.5562158316
2100287400.0 -0.8186295257 0.5679021772
2150287100.0 -0.8101822508 0.5799266447
2200286800.0 -0.8025437387 0.5902641442
2250286500.0 -0.7935459818 0.6025115141
2300286200.0 -0.7845582023 0.6139040517
2350285900.0 -0.7756780944 0.6250736214
2400285600.0 -0.7668009935 0.6359457064
2450285300.0 -0.758053897 0.6463574671
2500285000.0 -0.7482750975 0.6577389274
2550284700.0 -0.7392188079 0.6679288866
2600284400.0 -0.7298354685 0.677979104
2650284100.0 -0.720925202 0.6886451113
2700283800.0 -0.710139818 0.699218034
2750283500.0 -0.7001208415 0.7096246743
2800283200.0 -0.6903557739 0.7195391205
2850282900.0 -0.6798656963 0.7292054109
2900282600.0 -0.6695361113 0.7386523791
2950282300.0 -0.659756492 0.7482614482
3000282000.0 -0.6489016727 0.7574477164
3050281700.0 -0.6377069723 0.7666722457
3100281400.0 -0.625773343 0.7760230986
3150281100.0 -0.6141234723 0.7854227295
3200280800.0 -0.6023825523 0.7940141062
3250280500.0 -0.5917322341 0.8017289411
3300280200.0 -0.5804514711 0.8094396366
3350279900.0 -0.5687789019 0.8170725756
3400279600.0 -0.5568561554 0.8246045888
3450279300.0 -0.545839031 0.8317780436
3500279000.0 -0.5336965652 0.8388648711
3550278700.0 -0.5214105213 0.8461792284
3600278400.0 -0.5089640597 0.8532899229
3650278100.0 -0.4957485314 0.8610433712
3700277800.0 -0.4836814024 0.867426347
3750277500.0 -0.4714596042 0.8741137051
3800277200.0 -0.4591531673 0.8805762771
3850276900.0 -0.4468122072 0.8862838473
3900276600.0 -0.4359152163 0.8920507776
3950276300.0 -0.4233876391 0.8980906557
4000276000.0 -0.4110721709 0.9041372902
4050275700.0 -0.3981067124 0.9102382056
4100275400.0 -0.3869624503 0.9156712741
4150275100.0 -0.3743045449 0.92141678
4200274800.0 -0.3610736572 0.9265409162
4250274500.0 -0.348984951 0.9317598961
4300274200.0 -0.3359661584 0.9373814414
4350273900.0 -0.3220614186 0.9424233984
4400273600.0 -0.3073302362 0.947658086
4450273300.0 -0.2917371438 0.9526471459
4500273000.0 -0.2782813821 0.9570686878
4550272700.0 -0.2640624883 0.9610722492
4600272400.0 -0.2486069079 0.9654617025
4650272100.0 -0.2368920777 0.9685805077
4700271800.0 -0.2236151061 0.9719990328
4750271500.0 -0.211874203 0.9748324339
4800271200.0 -0.1994351559 0.9774284183
4850270900.0 -0.1854656319 0.9802028156
4900270600.0 -0.1716720006 0.9826695946
4950270300.0 -0.157571788 0.9852453622
5000270000.0 -0.1434195337 0.9874345728
5050269700.0 -0.1297716142 0.9890764245
5100269400.0 -0.1164325984 0.9906642121
5150269100.0 -0.1028815025 0.9921390434
5200268800.0 -0.0894782773 0.9930003797
5250268500.0 -0.0766683381 0.9941172884
5300268200.0 -0.0634614526 0.9949512022
5350267900.0 -0.0512504614 0.9954122932
5400267600.0 -0.0351751892 0.9967465502
5450267300.0 -0.0221699921 0.99682565
5500267000.0 -0.0070339656 0.9970435829
5550266700.0 0.007872447 0.9974544271
5600266400.0 0.0235151818 0.9973131624
5650266100.0 0.0398642384 0.9968619976
5700265800.0 0.0545077411 0.996056752
5750265500.0 0.0696869746 0.9952104358
5800265200.0 0.0834843288 0.9942141911
5850264900.0 0.0966672113 0.9933515153
5900264600.0 0.1137720911 0.9912626656
5950264300.0 0.1257447577 0.9897250294
6000264000.0 0.1394328047 0.9876806456
6050263700.0 0.1519458199 0.9862562943
6100263400.0 0.1646977583 0.9848124839
6150263100.0 0.1791802199 0.9822141625
6200262800.0 0.1899259557 0.9803010346
6250262500.0 0.2024702773 0.9779123635
6300262200.0 0.2153067204 0.975167757
6350261900.0 0.2284037594 0.972220343
6400261600.0 0.2423251402 0.9689161469
6450261300.0 0.2535077343 0.9660125054
6500261000.0 0.2664855634 0.9623584804
6550260700.0 0.2795762667 0.9586812112
6600260400.0 0.292472006 0.9542868451
6650260100.0 0.3070495623 0.9504544583
6700259800.0 0.3189280085 0.9460861356
6750259500.0 0.3323125938 0.9409272926
6800259200.0 0.3452869435 0.9359517112
6850258900.0 0.3575487978 0.9310826457
6900258600.0 0.3695119477 0.9261278741
6950258300.0 0.3821375044 0.9208852151
7000258000.0 0.3940372962 0.9153882972
7050257700.0 0.4062639319 0.9093732647
7100257400.0 0.4191112907 0.903046575
7150257100.0 0.4293680779 0.8979057616
7200256800.0 0.4423011087 0.891255878
7250256500.0 0.4539229848 0.8851223206
7300256200.0 0.4667588949 0.8783294132
7350255900.0 0.4795372224 0.8714339639
7400255600.0 0.4925216039 0.8643154461
7450255300.0 0.5078860978 0.8554338672
7500255000.0 0.5194374735 0.8483053455
7550254700.0 0.5327233948 0.8395144121
7600254400.0 0.5456107591 0.8312606576
7650254100.0 0.5570234164 0.8234726445
7700253800.0 0.5693292469 0.815495645
7750253500.0 0.5807451627 0.8076093506
7800253200.0 0.5911271114 0.7999918133
7850252900.0 0.6008000206 0.7928323026
7900252600.0 0.6127241796 0.783853732
7950252300.0 0.6215060665 0.7771876406
8000252000.0 0.6317339125 0.7695728011
8050251700.0 0.6423570623 0.7611740786
8100251400.0 0.6524067033 0.7530157606
8150251100.0 0.6626843982 0.744049464
8200250800.0 0.671727209 0.7362810353
8250250500.0 0.6807481877 0.728044468
8300250200.0 0.6901976814 0.7194241911
8350249900.0 0.6992090188 0.7108054298
8400249600.0 0.7074175214 0.702813782
8450249300.0 0.7167057969 0.6935138556
8500249000.0 0.7253611885 0.6847862744
8550248700.0 0.7335359732 0.6758089612
8600248400.0 0.7418219707 0.6662521605
8650248100.0 0.7497111581 0.656831081
8700247800.0 0.7592183418 0.6458772193
8750247500.0 0.7677049393 0.6355337125
8800247200.0 0.7755302161 0.6253760324
8850246900.0 0.7842059882 0.6140217431
8900246600.0 0.7926253061 0.6029036626
8950246300.0 0.8023908425 0.5896879241
9000246000.0 0.8113286944 0.5774439586
9050245700.0 0.8204952254 0.5643233095
9100245400.0 0.8292055104 0.5518592521
9150245100.0 0.8380425246 0.5381978292
9200244800.0 0.8481593048 0.5231433337
9250244500.0 0.8574484152 0.5073828238
9300244200.0 0.8660639385 0.4927967014
9350243900.0 0.8735387007 0.4787834088
9400243600.0 0.8804134671 0.4662879425
9450243300.0 0.8862671978 0.4544473956
9500243000.0 0.8926399504 0.4421345872
9550242700.0 0.8965739157 0.4341474036
9600242400.0 0.9003375677 0.4265448724
9650242100.0 0.9038091727 0.4200005385
9700241800.0 0.9085012557 0.4116167518
9750241500.0 0.9123799244 0.4040697237
9800241200.0 0.9168420471 0.3950946318
9850240900.0 0.9224447401 0.3830537932
9900240600.0 0.928339977 0.3714175599
9950240300.0 0.9349167607 0.3550628879
10000240000.0 0.9395180458 0.3437561083
10050239700.0 0.9447991851 0.3286358132
10100239400.0 0.9499287804 0.3130521251
10150239100.0 0.9545333575 0.2983750196
10200238800.0 0.9584030203 0.2835923195
10250238500.0 0.9619153131 0.2703112368
10300238200.0 0.9649329989 0.2564726417
10350237900.0 0.9675428848 0.2433911018
10400237600.0 0.9700411586 0.2304269757
10450237300.0 0.9727277939 0.2167352772
10500237000.0 0.9751635565 0.2043984251
10550236700.0 0.9773602808 0.1907052003
10600236400.0 0.979345206 0.1769885359
10650236100.0 0.9809092953 0.1632202822
10700235800.0 0.9835649292 0.1507475785
10750235500.0 0.985549991 0.1376044885
10800235200.0 0.9879161335 0.1237443254
10850234900.0 0.9896629192 0.1088879918
10900234600.0 0.991808912 0.0940488993
10950234300.0 0.9936206606 0.0808396471
11000234000.0 0.9953232146 0.0658724061
11050233700.0 0.9969816026 0.0496852349
11100233400.0 0.9981312988 0.0323242627
11150233100.0 0.9994147668 0.0159527661
11200232800.0 0.9995648801 0.0017095461
11250232500.0 1.000546032 -0.0158507509
11300232200.0 1.001969461 -0.033634528
11350231900.0 1.001670739 -0.0499783349
11400231600.0 1.000748409 -0.0650491636
11450231300.0 1.000610997 -0.0802096904
11500231000.0 0.9989366097 -0.0969846992
11550230700.0 0.9981738663 -0.1103702521
11600230400.0 0.9962957607 -0.1233864085
11650230100.0 0.994246464 -0.1342386264
11700229800.0 0.9923885752 -0.1494226847
11750229500.0 0.9899850714 -0.1641823474
11800229200.0 0.987456599 -0.1785310757
11850228900.0 0.9837433907 -0.1908947681
11900228600.0 0.9800589016 -0.2009490159
11950228300.0 0.9768093695 -0.2114553202
12000228000.0 0.9742343989 -0.2200297443
12050227700.0 0.9708271416 -0.2330125183
12100227400.0 0.9677321704 -0.2440658692
12150227100.0 0.9621840664 -0.2610376661
12200226800.0 0.9589436664 -0.2716330227
12250226500.0 0.9549700747 -0.2840905479
12300226200.0 0.9508622252 -0.2963266529
12350225900.0 0.9456456051 -0.310030233
12400225600.0 0.9417622896 -0.3228318449
12450225300.0 0.9366981718 -0.3352776433
12500225000.0 0.9318071147 -0.3500690403
12550224700.0 0.9263024505 -0.3636954344
12600224400.0 0.92144065 -0.3761498602
12650224100.0 0.915994044 -0.3905072222
12700223800.0 0.9105476591 -0.4031951706
12750223500.0 0.9051141098 -0.4160626053
12800223200.0 0.899898341 -0.4286301531
12850222900.0 0.8942997391 -0.4407622987
12900222600.0 0.8887806215 -0.4529424667
12950222300.0 0.8824421882 -0.4656807325
13000222000.0 0.8762950337 -0.476974295
13050221700.0 0.8696366836 -0.4898652054
13100221400.0 0.8625844608 -0.5022593835
13150221100.0 0.8559712577 -0.514371853
13200220800.0 0.8488709771 -0.5259973369
13250220500.0 0.8412468177 -0.5380142631
13300220200.0 0.8337262257 -0.5492591982
13350219900.0 0.8257827074 -0.5612276973
13400219600.0 0.8172201752 -0.5734723748
13450219300.0 0.8076875581 -0.5874558026
13500219000.0 0.7969638939 -0.6010807201
13550218700.0 0.7873788825 -0.6140318117
13600218400.0 0.7770623247 -0.626700327
13650218100.0 0.7672738765 -0.6372364714
13700217800.0 0.7566589595 -0.6495849702
13750217500.0 0.7458415292 -0.6610691764
13800217200.0 0.7347243149 -0.6719191637
13850216900.0 0.7235379057 -0.6841494381
13900216600.0 0.7138906049 -0.6939158344
13950216300.0 0.7027414372 -0.7040642823
14000216000.0 0.692309851 -0.712270478
14050215700.0 0.6837262348 -0.7204820326
14100215400.0 0.6740514908 -0.7296470821
14150215100.0 0.6650439197 -0.7384221962
14200214800.0 0.6556821673 -0.7465482329
14250214500.0 0.6453433666 -0.7558800838
14300214200.0 0.6349618336 -0.765091931
14350213900.0 0.6241306305 -0.7744783556
14400213600.0 0.6123730964 -0.7840239055
14450213300.0 0.5994516484 -0.793939799
14500213000.0 0.5861106054 -0.8041484227
14550212700.0 0.5738287691 -0.8133187876
14600212400.0 0.5617261865 -0.8221453643
14650212100.0 0.5480155195 -0.8308550789
14700211800.0 0.5341244124 -0.8401064491
14750211500.0 0.5221972446 -0.848173842
14800211200.0 0.510375716 -0.8565514098
14850210900.0 0.4980009679 -0.8640608409
14900210600.0 0.4843617734 -0.8718349853
14950210300.0 0.4709647541 -0.8795490462
15000210000.0 0.4580935258 -0.8864788162
15050209700.0 0.4456532962 -0.8924087777
15100209400.0 0.4326295064 -0.8985556389
15150209100.0 0.4205663535 -0.9042808628
15200208800.0 0.4074353069 -0.9097919778
15250208500.0 0.3958901717 -0.9147145122
15300208200.0 0.3840645862 -0.9189356681
15350207900.0 0.3702415958 -0.9231087208
15400207600.0 0.355637674 -0.9288828651
15450207300.0 0.3411859413 -0.9342790331
15500207000.0 0.3258717919 -0.9384858501
15550206700.0 0.3113735883 -0.9439333399
15600206400.0 0.2956926514 -0.9479542356
15650206100.0 0.2794054252 -0.9523970506
15700205800.0 0.2655318698 -0.9559194028
15750205500.0 0.251289764 -0.959516278
15800205200.0 0.2366005585 -0.9629597868
15850204900.0 0.2225304336 -0.9663422376
15900204600.0 0.2075893261 -0.9699404585
15950204300.0 0.1936534071 -0.9728054974
16000204000.0 0.1796518357 -0.9756877401
16050203700.0 0.1653767684 -0.9786727532
16100203400.0 0.1505995608 -0.9803766514
16150203100.0 0.1362422414 -0.9828445887
16200202800.0 0.122577988 -0.9846918318
16250202500.0 0.107761238 -0.9866544342
16300202200.0 0.0926158446 -0.9880120706
16350201900.0 0.0779973025 -0.9897712777
16400201600.0 0.0633145502 -0.9902444796
16450201300.0 0.0481411428 -0.9913615054
16500201000.0 0.0315725018 -0.9920094095
16550200700.0 0.0158359633 -0.9926270634
16600200400.0 -0.0002806075 -0.9926708069
16650200100.0 -0.0163402412 -0.9926538745
16700199800.0 -0.0329161174 -0.9919971513
16750199500.0 -0.0517599557 -0.9914837494
16800199200.0 -0.0676589604 -0.9906599308
16850198900.0 -0.082629729 -0.989409187
16900198600.0 -0.0972992052 -0.9878734855
16950198300.0 -0.1106185222 -0.9873031266
17000198000.0 -0.1234931153 -0.9856634182
17050197700.0 -0.1363521405 -0.9836615781
17100197400.0 -0.1489157648 -0.9817294088
17150197100.0 -0.1617822865 -0.9794531132
17200196800.0 -0.1750612173 -0.9775392532
17250196500.0 -0.1876463732 -0.9751625141
17300196200.0 -0.1996751311 -0.9729939811
17350195900.0 -0.2117924651 -0.9704325547
17400195600.0 -0.224163533 -0.9678918983
17450195300.0 -0.2370739444 -0.9652442143
17500195000.0 -0.2505632867 -0.9615165533
17550194700.0 -0.2646694075 -0.9578764934
17600194400.0 -0.2784060448 -0.9541530453
17650194100.0 -0.2919888542 -0.9500735819
17700193800.0 -0.3050460046 -0.9458946821
17750193500.0 -0.3191397831 -0.9410793631
17800193200.0 -0.3332816444 -0.9359894704
17850192900.0 -0.3483915748 -0.9309172914
17900192600.0 -0.3636273867 -0.9246042969
17950192300.0 -0.3786851817 -0.9173774655
18000192000.0 -0.3933567498 -0.9104588831
18050191700.0 -0.4073050278 -0.90264489
18100191400.0 -0.4212430624 -0.8948659959
18150191100.0 -0.4361721439 -0.8868630761
18200190800.0 -0.4528965752 -0.8776816282
18250190500.0 -0.469825295 -0.8681398618
18300190200.0 -0.4850957689 -0.8595876529
18350189900.0 -0.5001630163 -0.8510100914
18400189600.0 -0.5146314364 -0.8426087323
18450189300.0 -0.5282084798 -0.8346833546
18500189000.0 -0.5412936488 -0.8266999741
18550188700.0 -0.5540548425 -0.8190295289
18600188400.0 -0.5655193189 -0.8119078134
18650188100.0 -0.5770449955 -0.8055580478
18700187800.0 -0.5879362165 -0.7986711382
18750187500.0 -0.5985706679 -0.7917547056
18800187200.0 -0.6095193476 -0.7845732085
18850186900.0 -0.6197825287 -0.7775740636
18900186600.0 -0.6303644626 -0.7700273245
18950186300.0 -0.6403269619 -0.7620339291
19000186000.0 -0.6480276846 -0.7558015244
19050185700.0 -0.6572722291 -0.7483151549
19100185400.0 -0.6675821383 -0.7398936519
19150185100.0 -0.6779969278 -0.7317524982
19200184800.0 -0.6875797327 -0.7223840622
19250184500.0 -0.697103789 -0.7137993693
19300184200.0 -0.709075673 -0.704404931
19350183900.0 -0.7197489934 -0.6940640233
19400183600.0 -0.7292118223 -0.684624314
19450183300.0 -0.7385439818 -0.6741296194
19500183000.0 -0.7467674551 -0.6646386142
19550182700.0 -0.7562266892 -0.6539494291
19600182400.0 -0.7665034465 -0.642008547
19650182100.0 -0.7771485687 -0.6299471212
19700181800.0 -0.7874462247 -0.6167797724
19750181500.0 -0.7977778399 -0.6028647997
19800181200.0 -0.8078768325 -0.5880567562
19850180900.0 -0.8173902831 -0.5727769279
19900180600.0 -0.8249486121 -0.558632985
19950180300.0 -0.8342559232 -0.5423504933
20000180000.0 -0.8275445572 -0.5442574502
20050179700.0 -0.835854632 -0.5310747818
20100179400.0 -0.844910635 -0.5182304442
20150179100.0 -0.8519597666 -0.5056046622
20200178800.0 -0.8612528383 -0.4929360028
20250178500.0 -0.8701317973 -0.4784200957
20300178200.0 -0.8790675414 -0.4649474889
20350177900.0 -0.8883574802 -0.4502937144
20400177600.0 -0.8970777928 -0.4358122126
20450177300.0 -0.9052202519 -0.4210788554
20500177000.0 -0.9128631557 -0.4072846826
20550176700.0 -0.9210118653 -0.3936486653
20600176400.0 -0.9276986582 -0.3805750017
20650176100.0 -0.9342003701 -0.3680625124
20700175800.0 -0.9408362537 -0.3553651817
20750175500.0 -0.9475176829 -0.3442664461
20800175200.0 -0.9522357289 -0.3317477607
20850174900.0 -0.9569821878 -0.3219070328
20900174600.0 -0.9617776518 -0.3103690104
20950174300.0 -0.9662418325 -0.2987276816
21000174000.0 -0.969594315 -0.2872339168
21050173700.0 -0.9725318136 -0.2753812718
21100173400.0 -0.9773948284 -0.2631842116
21150173100.0 -0.980979645 -0.2505547901
21200172800.0 -0.9847111291 -0.2371930951
21250172500.0 -0.9876032218 -0.223377854
21300172200.0 -0.990383871 -0.2088677446
21350171900.0 -0.9916907205 -0.1941570731
21400171600.0 -0.9932203759 -0.179842339
21450171300.0 -0.9941048814 -0.1655873707
21500171000.0 -0.9941465315 -0.1499867107
21550170700.0 -0.99381685 -0.1355756912
21600170400.0 -0.9942591864 -0.1200819639
21650170100.0 -0.9924460843 -0.1048806871
21700169800.0 -0.9896466823 -0.0889039107
21750169500.0 -0.9893542389 -0.0727460231
21800169200.0 -0.9888356266 -0.0570293009
21850168900.0 -0.9866723043 -0.0404073598
21900168600.0 -0.9853404914 -0.0243825851
21950168300.0 -0.9838150567 -0.0084987963
22000168000.0 -0.983003902 0.0063952909
22050167700.0 -0.9828415287 0.0204511216
22100167400.0 -0.9825536289 0.0354106416
22150167100.0 -0.9833241476 0.0507951223
22200166800.0 -0.9832012362 0.067241651
22250166500.0 -0.9825170776 0.0842186063
22300166200.0 -0.9821991544 0.1008014848
22350165900.0 -0.9799928794 0.1169515288
22400165600.0 -0.9784775944 0.1337862666
22450165300.0 -0.9764990655 0.1481439002
22500165000.0 -0.9750911459 0.1615980635
22550164700.0 -0.9738990502 0.177614177
22600164400.0 -0.9723083868 0.1926589734
22650164100.0 -0.9696316178 0.2073004269
22700163800.0 -0.9673063355 0.2229892327
22750163500.0 -0.965067326 0.2385111239
22800163200.0 -0.9618657273 0.2514021732
22850162900.0 -0.9594108591 0.2652189119
22900162600.0 -0.9582346622 0.278421297
22950162300.0 -0.9571676092 0.2910687874
23000162000.0 -0.956018029 0.3027770094
23050161700.0 -0.9540699672 0.3154569405
23100161400.0 -0.9517236135 0.3281837843
23150161100.0 -0.9494024183 0.3413619251
23200160800.0 -0.9459395212 0.3523391911
23250160500.0 -0.9440431645 0.3643792449
23300160200.0 -0.9413372445 0.3770691441
23350159900.0 -0.9362234831 0.3896495843
23400159600.0 -0.9320665153 0.4022034896
23450159300.0 -0.927356501 0.4155046745
23500159000.0 -0.9228836744 0.4283399789
23550158700.0 -0.9184362353 0.4415461389
23600158400.0 -0.913327309 0.4547353015
23650158100.0 -0.9065150735 0.4686395257
23700157800.0 -0.8990448241 0.4821339845
23750157500.0 -0.8906410488 0.4962002
23800157200.0 -0.8816995926 0.5095159709
23850156900.0 -0.8731823343 0.5218278187
23900156600.0 -0.8636191128 0.5342724464
23950156300.0 -0.8543930577 0.5468631344
24000156000.0 -0.8447059574 0.5587191988
24050155700.0 -0.8355116086 0.5704916368
24100155400.0 -0.8252455162 0.5821870925
24150155100.0 -0.8146614721 0.5937895383
24200154800.0 -0.8032923859 0.605654354
24250154500.0 -0.7920935096 0.6175060093
24300154200.0 -0.7813187079 0.6290288908
24350153900.0 -0.7689104393 0.639275776
24400153600.0 -0.7565097186 0.6499448443
24450153300.0 -0.7449506925 0.6597459219
24500153000.0 -0.7336008216 0.6696458436
24550152700.0 -0.7222728235 0.6797035444
24600152400.0 -0.7109266988 0.6885062828
24650152100.0 -0.6993384825 0.6975048655
