!Created with skrf (http://scikit-rf.org).
# Hz S RI R 50.0 
!freq ReS11 ImS11
300000.0 -0.9790855266 -0.108786021
50299700.0 -1.000285568 0.0158357144
100299400.0 -0.9980945681 0.0286726545
150299100.0 -1.002785384 0.0458245434
200298800.0 -0.9996857357 0.0590197547
250298500.0 -0.9975908331 0.0724487304
300298200.0 -0.9860937184 0.0883758998
350297900.0 -0.9941590607 0.0992907129
400297600.0 -0.993169969 0.1156880073
450297300.0 -0.9911991393 0.1297030602
500297000.0 -0.9896803553 0.1445677027
550296700.0 -0.9846154783 0.156728401
600296400.0 -1.017287021 0.1901006681
650296100.0 -0.9820900162 0.1868737567
700295800.0 -0.9793153373 0.201163219
750295500.0 -0.9762783007 0.2151246087
800295200.0 -0.9729442201 0.2292804769
850294900.0 -0.9697079885 0.2430158397
900294600.0 -0.9658227787 0.2566316988
950294300.0 -0.9619539777 0.2704884592
1000294000.0 -0.9580416939 0.2846373935
1050293700.0 -0.9535192455 0.2982978446
1100293400.0 -0.949116859 0.3126555602
1150293100.0 -0.9452978767 0.3246604591
1200292800.0 -0.9399101084 0.3389239997
1250292500.0 -0.9345815234 0.3522123566
1300292200.0 -0.928612981 0.3655477449
1350291900.0 -0.9232829691 0.37951731
1400291600.0 -0.9178192091 0.3925791218
1450291300.0 -0.9121801104 0.4050638587
1500291000.0 -0.9059397735 0.4183176857
1550290700.0 -0.8995545639 0.4317671148
1600290400.0 -0.8931455513 0.4446686103
1650290100.0 -0.8865846441 0.4567435932
1700289800.0 -0.8796429931 0.4701147156
1750289500.0 -0.8725218623 0.4825702133
1800289200.0 -0.8651991295 0.4954798167
1850288900.0 -0.8585850116 0.5064818473
1900288600.0 -0.8506011379 0.5196044634
1950288300.0 -0.8426864791 0.5324046238
2000288000.0 -0.8353537754 0.543777253
2050287700.0 -0.8267621591 0.5559908673
2100287400.0 -0.818980917 0.5676471419
2150287100.0 -0.8102630346 0.5797603449
2200286800.0 -0.8025881697 0.5900381246
2250286500.0 -0.7936171894 0.6023222336
2300286200.0 -0.7848341321 0.613736298
2350285900.0 -0.7759662142 0.6246719334
2400285600.0 -0.7669482455 0.6357308845
2450285300.0 -0.7582833223 0.6461956763
2500285000.0 -0.7486479819 0.6573835148
2550284700.0 -0.7397438223 0.6676482041
2600284400.0 -0.730044914 0.6776507358
2650284100.0 -0.7211427917 0.6884270129
2700283800.0 -0.710639985 0.6990818187
2750283500.0 -0.7005055622 0.7097588365
2800283200.0 -0.6905730927 0.7192842164
2850282900.0 -0.6803335264 0.7292862449
2900282600.0 -0.6700247141 0.7386283039
2950282300.0 -0.6598674756 0.7478477919
3000282000.0 -0.6490103868 0.757430596
3050281700.0 -0.6380042917 0.7666891264
3100281400.0 -0.6259879222 0.7760312527
3150281100.0 -0.6142408639 0.7852683406
3200280800.0 -0.6025796012 0.7938355919
3250280500.0 -0.5919422823 0.8014510099
3300280200.0 -0.5807368431 0.8092455926
3350279900.0 -0.5693235899 0.8170276148
3400279600.0 -0.5569554341 0.8247073045
3450279300.0 -0.5460028221 0.8317635576
3500279000.0 -0.5339052412 0.8386584856
3550278700.0 -0.5215540067 0.8461182841
3600278400.0 -0.509257188 0.8533144917
3650278100.0 -0.4958065739 0.8610435456
3700277800.0 -0.4837063702 0.8671784106
3750277500.0 -0.4716226109 0.8736801809
3800277200.0 -0.4589943508 0.8802856878
3850276900.0 -0.4467251076 0.886100442
3900276600.0 -0.436265801 0.8919300016
3950276300.0 -0.4234365792 0.897860525
4000276000.0 -0.4114261625 0.9040701886
4050275700.0 -0.3986468574 0.9097696331
4100275400.0 -0.3873536792 0.9153495275
4150275100.0 -0.3746070332 0.9210265654
4200274800.0 -0.3617974152 0.9264398108
4250274500.0 -0.3495634167 0.9314190126
4300274200.0 -0.336492399 0.9371094445
4350273900.0 -0.3226335928 0.9423820384
4400273600.0 -0.3078143468 0.9472827696
4450273300.0 -0.292396584 0.9526525067
4500273000.0 -0.2787858718 0.9569844349
4550272700.0 -0.2645606963 0.9613323076
4600272400.0 -0.2490682049 0.9653543651
4650272100.0 -0.2374594675 0.9685002711
4700271800.0 -0.2240286071 0.9719236824
4750271500.0 -0.2124674886 0.9747489857
4800271200.0 -0.1998827171 0.9775591491
4850270900.0 -0.1861146821 0.9803162946
4900270600.0 -0.1721101079 0.9826533734
4950270300.0 -0.1578036583 0.9850803734
5000270000.0 -0.1434993085 0.9872581512
5050269700.0 -0.1301474917 0.9889882038
5100269400.0 -0.1165851859 0.9900997894
5150269100.0 -0.1033971217 0.9925080178
5200268800.0 -0.0901725854 0.9930586971
5250268500.0 -0.0768992841 0.99410094
5300268200.0 -0.0639223233 0.9947375216
5350267900.0 -0.0517026458 0.9952259329
5400267600.0 -0.0355606071 0.9964171103
5450267300.0 -0.0224968477 0.9966878185
5500267000.0 -0.0073218426 0.9968650745
5550266700.0 0.0076320575 0.9975283205
5600266400.0 0.0231894284 0.9972067894
5650266100.0 0.0397307686 0.9968184835
5700265800.0 0.0542752231 0.9963424835
5750265500.0 0.0699050505 0.9957536542
5800265200.0 0.0835978305 0.9942432469
5850264900.0 0.0968429837 0.9930033284
5900264600.0 0.1129936705 0.9912778922
5950264300.0 0.1255743471 0.9902057386
6000264000.0 0.1394707657 0.9880783658
6050263700.0 0.1519751387 0.986318558
6100263400.0 0.1642172846 0.9847283802
6150263100.0 0.1788232013 0.9825311225
6200262800.0 0.1894433726 0.9806185353
6250262500.0 0.2022550369 0.9781208715
6300262200.0 0.2150806288 0.9754499846
6350261900.0 0.2279730699 0.9724468217
6400261600.0 0.2420110441 0.9691078179
6450261300.0 0.2531864915 0.9661827686
6500261000.0 0.2661240046 0.9628564138
6550260700.0 0.2790626801 0.9590484237
6600260400.0 0.2922902135 0.9551235544
6650260100.0 0.3060977006 0.9504830629
6700259800.0 0.3186220213 0.9464285206
6750259500.0 0.3322613852 0.9412775917
6800259200.0 0.3451756444 0.9362316215
6850258900.0 0.3572077806 0.9314315374
6900258600.0 0.3691419344 0.9262991782
6950258300.0 0.3817668291 0.9210007008
7000258000.0 0.3937319432 0.9154567862
7050257700.0 0.4061125198 0.9094072793
7100257400.0 0.4187845283 0.9032454267
7150257100.0 0.4289156067 0.8979343454
7200256800.0 0.4415785249 0.8914351391
7250256500.0 0.4535943599 0.88514283
7300256200.0 0.4666038389 0.8783711767
7350255900.0 0.4789841624 0.871433794
7400255600.0 0.4925257213 0.8645355037
7450255300.0 0.507495687 0.85542238
7500255000.0 0.5194188165 0.8481817266
7550254700.0 0.5331417136 0.8395108953
7600254400.0 0.5461804625 0.8315767252
7650254100.0 0.5576392389 0.8234395177
7700253800.0 0.5693256405 0.8154900365
7750253500.0 0.5802099288 0.8075471277
7800253200.0 0.5914704178 0.7999826836
7850252900.0 0.600769203 0.7928108977
7900252600.0 0.6124396921 0.7840863867
7950252300.0 0.6214010895 0.7775684243
8000252000.0 0.6315947996 0.769454228
8050251700.0 0.6421120581 0.7614307092
8100251400.0 0.6521357781 0.753192902
8150251100.0 0.6624980295 0.7445685744
8200250800.0 0.6716201583 0.7367024601
8250250500.0 0.6805100137 0.7287049185
8300250200.0 0.6896473351 0.7198680922
8350249900.0 0.6989951751 0.7115319492
8400249600.0 0.7071937831 0.7034260366
8450249300.0 0.7164542472 0.6941897097
8500249000.0 0.7246682077 0.6853661212
8550248700.0 0.7331768332 0.6763716312
8600248400.0 0.7416178662 0.666841462
8650248100.0 0.7492026922 0.6572739538
8700247800.0 0.7587369782 0.6461059738
8750247500.0 0.766726201 0.636111339
8800247200.0 0.7752421174 0.6257502127
8850246900.0 0.7840287469 0.6143955531
8900246600.0 0.7924890547 0.6031741609
8950246300.0 0.8021315427 0.5900248493
9000246000.0 0.8115672153 0.5771696148
9050245700.0 0.8200390469 0.564317494
9100245400.0 0.8290033307 0.5517350622
9150245100.0 0.8383229203 0.5381499577
9200244800.0 0.8483294704 0.5226608317
9250244500.0 0.8577002305 0.5071381812
9300244200.0 0.8662176171 0.4922315361
9350243900.0 0.8740648466 0.4783359287
9400243600.0 0.8804869073 0.4658499363
9450243300.0 0.886289413 0.4542564164
9500243000.0 0.8926906753 0.4420277483
9550242700.0 0.8965564032 0.4342869406
9600242400.0 0.9001677822 0.4270183726
9650242100.0 0.9039489973 0.420536425
9700241800.0 0.9084173225 0.412409995
9750241500.0 0.9123237181 0.4049434167
9800241200.0 0.9170507159 0.3955011248
9850240900.0 0.9229221512 0.3838282128
9900240600.0 0.9282231504 0.3726031927
9950240300.0 0.9349456943 0.3562548475
10000240000.0 0.9391340546 0.3450826206
10050239700.0 0.9451715321 0.3291810692
10100239400.0 0.9498721537 0.3141672806
10150239100.0 0.9543733029 0.2993672072
10200238800.0 0.9585078007 0.2843970001
10250238500.0 0.9618717304 0.2710341026
10300238200.0 0.9649880427 0.257150206
10350237900.0 0.9675070984 0.244117866
10400237600.0 0.9699907394 0.2310134484
10450237300.0 0.9728963987 0.2172515158
10500237000.0 0.9748420884 0.2049427772
10550236700.0 0.9770731856 0.1912095693
10600236400.0 0.9792384532 0.1774418867
10650236100.0 0.980996619 0.1632427115
10700235800.0 0.983327676 0.1509851126
10750235500.0 0.9855712683 0.1375706306
10800235200.0 0.9878943545 0.123347537
10850234900.0 0.9895769918 0.1088841668
10900234600.0 0.9919169005 0.0943627793
10950234300.0 0.9934721662 0.0809821214
11000234000.0 0.9952330641 0.0659713685
11050233700.0 0.9970646757 0.0496138216
11100233400.0 0.9983800081 0.032301995
11150233100.0 0.9995781848 0.0159431113
11200232800.0 0.9999386489 0.0006492972
11250232500.0 1.000862134 -0.0157180545
11300232200.0 1.001274284 -0.0326689227
11350231900.0 1.001915942 -0.0500602294
11400231600.0 1.001613205 -0.064603541
11450231300.0 1.001030953 -0.0807356486
11500231000.0 0.9999255735 -0.0970883696
11550230700.0 0.9981450645 -0.1095094736
11600230400.0 0.9966136832 -0.1229034611
11650230100.0 0.9946604403 -0.1346892445
11700229800.0 0.9931250328 -0.1497905108
11750229500.0 0.9903953958 -0.1636101519
11800229200.0 0.9877087726 -0.1777443944
11850228900.0 0.984059984 -0.1900137862
11900228600.0 0.9808620946 -0.1992752726
11950228300.0 0.9772206534 -0.2102007562
12000228000.0 0.9743883079 -0.2195188683
12050227700.0 0.9711160957 -0.2319782297
12100227400.0 0.9677791154 -0.2429315895
12150227100.0 0.9628854979 -0.2594341206
12200226800.0 0.9593297819 -0.2702145652
12250226500.0 0.954943829 -0.2830899362
12300226200.0 0.9507960294 -0.2956271618
12350225900.0 0.9455649156 -0.3087764752
12400225600.0 0.9415717012 -0.3211583343
12450225300.0 0.937696632 -0.334690502
12500225000.0 0.932216879 -0.3493976704
12550224700.0 0.9266984455 -0.3629415366
12600224400.0 0.9217154466 -0.3758957804
12650224100.0 0.9160092583 -0.3900815414
12700223800.0 0.9107978014 -0.4027622742
12750223500.0 0.9051810027 -0.4159283051
12800223200.0 0.8998518517 -0.428461827
12850222900.0 0.8947906165 -0.440689764
12900222600.0 0.8887387505 -0.4527872958
12950222300.0 0.8825699467 -0.4652648541
13000222000.0 0.876686005 -0.4768566198
13050221700.0 0.869311356 -0.4900091553
13100221400.0 0.8630218011 -0.5020939982
13150221100.0 0.8561916383 -0.5143409389
13200220800.0 0.84909061 -0.5250887713
13250220500.0 0.8419511887 -0.5380895459
13300220200.0 0.8344923281 -0.5486321313
13350219900.0 0.8263807337 -0.5607409675
13400219600.0 0.8179797935 -0.5726536548
13450219300.0 0.8083549611 -0.5862639088
13500219000.0 0.7979770533 -0.6006592316
13550218700.0 0.7877122717 -0.61346845
13600218400.0 0.7774302725 -0.6255795932
13650218100.0 0.7681691092 -0.6366230393
13700217800.0 0.7570744704 -0.6499103634
13750217500.0 0.746853774 -0.6608080277
13800217200.0 0.7356010247 -0.6724535361
13850216900.0 0.7247880719 -0.6839919255
13900216600.0 0.7148218875 -0.6923801241
13950216300.0 0.703995649 -0.7027681236
14000216000.0 0.6939355596 -0.7119276459
14050215700.0 0.683985915 -0.7202074725
14100215400.0 0.6741624795 -0.7295890269
14150215100.0 0.6651348939 -0.7379072666
14200214800.0 0.6558726878 -0.7463205275
14250214500.0 0.6457261182 -0.7555367648
14300214200.0 0.6352756263 -0.7648844437
14350213900.0 0.6241432963 -0.7743436123
14400213600.0 0.6122368849 -0.7840393691
14450213300.0 0.5993627324 -0.7942734149
14500213000.0 0.5866141307 -0.8039580195
14550212700.0 0.5737119098 -0.8131219125
14600212400.0 0.5609983422 -0.8223506574
14650212100.0 0.5483498694 -0.8305119102
14700211800.0 0.5344740276 -0.8406514117
14750211500.0 0.5224251537 -0.848714486
14800211200.0 0.5102625135 -0.8567948248
14850210900.0 0.4980120808 -0.8640335623
14900210600.0 0.4845682296 -0.8718825116
14950210300.0 0.4709822212 -0.8796495516
15000210000.0 0.4583148803 -0.8863862882
15050209700.0 0.446161006 -0.8926784457
15100209400.0 0.4331607054 -0.8986534326
15150209100.0 0.4206853882 -0.9040983372
15200208800.0 0.4078175084 -0.9094099231
15250208500.0 0.3970682407 -0.9140924783
15300208200.0 0.3843259178 -0.9186235668
15350207900.0 0.3705209658 -0.922818508
15400207600.0 0.3561348428 -0.9290678641
15450207300.0 0.3415216908 -0.9337245437
15500207000.0 0.327136075 -0.9384327312
15550206700.0 0.3119495206 -0.9432868601
15600206400.0 0.2956346116 -0.9477445031
15650206100.0 0.2799855515 -0.9524808272
15700205800.0 0.2663120996 -0.9558441943
15750205500.0 0.2518652927 -0.9591914677
15800205200.0 0.2371368957 -0.9628888058
15850204900.0 0.2229085196 -0.9661531802
15900204600.0 0.207899377 -0.9697294579
15950204300.0 0.1940448533 -0.9726049251
16000204000.0 0.18007723 -0.9753324133
16050203700.0 0.1650363574 -0.9781184361
16100203400.0 0.1505679411 -0.9804906022
16150203100.0 0.1358599941 -0.9827046549
16200202800.0 0.1221395864 -0.9847603092
16250202500.0 0.1074734624 -0.9863347997
16300202200.0 0.092910834 -0.9881139621
16350201900.0 0.0777682894 -0.9893379184
16400201600.0 0.0630892455 -0.9903903189
16450201300.0 0.0479843674 -0.9912636257
16500201000.0 0.0311966823 -0.9920234252
16550200700.0 0.0155484492 -0.9925146388
16600200400.0 -0.0002548739 -0.9926801595
16650200100.0 -0.0163941579 -0.9924440628
16700199800.0 -0.0330314465 -0.9923286527
16750199500.0 -0.0519944713 -0.991671995
16800199200.0 -0.0677399903 -0.9903677871
16850198900.0 -0.0827733885 -0.9894896853
16900198600.0 -0.0966916532 -0.9887964895
16950198300.0 -0.1098151522 -0.9875831249
17000198000.0 -0.1228553696 -0.9852788345
17050197700.0 -0.1362134265 -0.9838923636
17100197400.0 -0.1485122055 -0.9822502756
17150197100.0 -0.1609120757 -0.9797565174
17200196800.0 -0.1739429948 -0.9773939659
17250196500.0 -0.187058747 -0.9753510978
17300196200.0 -0.1991376774 -0.9730890242
17350195900.0 -0.211025859 -0.9705735992
17400195600.0 -0.2231147535 -0.9682266909
17450195300.0 -0.2363408554 -0.9653746336
17500195000.0 -0.2497406209 -0.9620118092
17550194700.0 -0.2637586611 -0.9583309474
17600194400.0 -0.2776101859 -0.9545565344
17650194100.0 -0.2912694391 -0.9502707512
17700193800.0 -0.3044075276 -0.946044391
17750193500.0 -0.3184609008 -0.9414014824
17800193200.0 -0.3328984936 -0.9362073604
17850192900.0 -0.3483895146 -0.9307901412
17900192600.0 -0.3631120636 -0.9247092726
17950192300.0 -0.3787004823 -0.917540123
18000192000.0 -0.393196378 -0.9103199284
18050191700.0 -0.4071216149 -0.9025374793
18100191400.0 -0.4211936169 -0.8947961919
18150191100.0 -0.4360928189 -0.8867394877
18200190800.0 -0.4530734026 -0.8775056738
18250190500.0 -0.4698340652 -0.8680259395
18300190200.0 -0.4856503361 -0.8594846709
18350189900.0 -0.5003252276 -0.8510124803
18400189600.0 -0.5145950318 -0.8423246414
18450189300.0 -0.5278908531 -0.8344339379
18500189000.0 -0.5416359915 -0.8266594826
18550188700.0 -0.5545091783 -0.8189014443
18600188400.0 -0.5657551744 -0.8117939322
18650188100.0 -0.5767690212 -0.8054002031
18700187800.0 -0.5876280411 -0.7987583011
18750187500.0 -0.598404589 -0.7920965244
18800187200.0 -0.6090826724 -0.7851444668
18850186900.0 -0.6193254856 -0.7782239297
18900186600.0 -0.6297236004 -0.7708446041
18950186300.0 -0.6395876962 -0.7629868723
19000186000.0 -0.6473690376 -0.756828294
19050185700.0 -0.6563613324 -0.7496491588
19100185400.0 -0.6661656495 -0.7412785608
19150185100.0 -0.6761585074 -0.7325297161
19200184800.0 -0.6859957491 -0.7244386018
19250184500.0 -0.696273311 -0.7149832935
19300184200.0 -0.7074431603 -0.7051065772
19350183900.0 -0.7184259256 -0.6957999869
19400183600.0 -0.7280298154 -0.6862894782
19450183300.0 -0.7365638492 -0.6756043381
19500183000.0 -0.7455726388 -0.6659982491
19550182700.0 -0.7546915137 -0.6557781494
19600182400.0 -0.7656057739 -0.6434577915
19650182100.0 -0.7760373975 -0.6311255877
19700181800.0 -0.7867592441 -0.6176731114
19750181500.0 -0.7973920895 -0.6037576814
19800181200.0 -0.8075601306 -0.5888054055
19850180900.0 -0.8171673588 -0.5734984926
19900180600.0 -0.8247336413 -0.559100217
19950180300.0 -0.8338730739 -0.5431009061
20000180000.0 -0.8269491233 -0.5447614785
20050179700.0 -0.8350053961 -0.5317295393
20100179400.0 -0.8437321519 -0.5175310303
20150179100.0 -0.8521011467 -0.5055369814
20200178800.0 -0.8603079278 -0.4936577143
20250178500.0 -0.8695362289 -0.4791515941
20300178200.0 -0.878575683 -0.4647488356
20350177900.0 -0.8881104663 -0.4503230638
20400177600.0 -0.8973433293 -0.4355206641
20450177300.0 -0.9056937044 -0.4211657718
20500177000.0 -0.913540133 -0.4072520409
20550176700.0 -0.921448145 -0.3939603842
20600176400.0 -0.9290374046 -0.3805397269
20650176100.0 -0.9349913945 -0.368533862
20700175800.0 -0.9418845457 -0.3553212192
20750175500.0 -0.9485489215 -0.3443617312
20800175200.0 -0.9529059323 -0.3332440223
20850174900.0 -0.9577321548 -0.3228276551
20900174600.0 -0.963569123 -0.3102987555
20950174300.0 -0.9671233894 -0.2992476992
21000174000.0 -0.9702291575 -0.2877773945
21050173700.0 -0.9733271887 -0.27640239
21100173400.0 -0.9777289154 -0.2644869048
21150173100.0 -0.9815679647 -0.2520437615
21200172800.0 -0.9850106995 -0.2385247333
21250172500.0 -0.9880228401 -0.2248389607
21300172200.0 -0.990875885 -0.2105318964
21350171900.0 -0.9923831318 -0.1955935913
21400171600.0 -0.9942562647 -0.1817317237
21450171300.0 -0.9939243818 -0.1669732032
21500171000.0 -0.9935631205 -0.1509224453
21550170700.0 -0.9942344044 -0.1361373095
21600170400.0 -0.9933509526 -0.1209904401
21650170100.0 -0.9921237691 -0.105388575
21700169800.0 -0.9902156584 -0.0899099658
21750169500.0 -0.9889194348 -0.0746671523
21800169200.0 -0.9874673435 -0.0586946524
21850168900.0 -0.9866003206 -0.0408921902
21900168600.0 -0.9851371104 -0.0245153341
21950168300.0 -0.9837367536 -0.0090621552
22000168000.0 -0.9827064779 0.0059762004
22050167700.0 -0.9826402531 0.0198054376
22100167400.0 -0.9825317328 0.0349477114
22150167100.0 -0.983339224 0.0506905059
22200166800.0 -0.9838537467 0.0663573169
22250166500.0 -0.983125347 0.0836059126
22300166200.0 -0.9824390317 0.1004569796
22350165900.0 -0.9813606546 0.1173828558
22400165600.0 -0.9797756782 0.1334848682
22450165300.0 -0.9766436928 0.1476117421
22500165000.0 -0.9752327718 0.1611779076
22550164700.0 -0.9734192927 0.1771153588
22600164400.0 -0.9730932071 0.1918172927
22650164100.0 -0.9708486443 0.2075573429
22700163800.0 -0.9676158819 0.2231202094
22750163500.0 -0.9649437978 0.2379380455
22800163200.0 -0.9623765851 0.2508136556
22850162900.0 -0.9599817736 0.2650055263
22900162600.0 -0.9587020868 0.2784119243
22950162300.0 -0.9575392961 0.2909384867
23000162000.0 -0.9563672088 0.3025909347
23050161700.0 -0.9546319728 0.3152081094
23100161400.0 -0.9520662345 0.3281584264
23150161100.0 -0.9492798699 0.340161375
23200160800.0 -0.9466102823 0.3526609489
23250160500.0 -0.9437209158 0.3642360633
23300160200.0 -0.9413413189 0.3764927792
23350159900.0 -0.9382017444 0.3889071672
23400159600.0 -0.9328993667 0.4021531105
23450159300.0 -0.9277513357 0.4164297266
23500159000.0 -0.9236797254 0.4283202636
23550158700.0 -0.9193347842 0.4419383816
23600158400.0 -0.9138181291 0.4550532519
23650158100.0 -0.9074934681 0.4689606622
23700157800.0 -0.8998480551 0.482675523
23750157500.0 -0.8914655827 0.4967239439
23800157200.0 -0.8824283632 0.5098548635
23850156900.0 -0.8739934375 0.5227697069
23900156600.0 -0.8643060131 0.5349582982
23950156300.0 -0.8550702255 0.5473701599
24000156000.0 -0.8461477968 0.5605442774
24050155700.0 -0.8357910012 0.5712736622
24100155400.0 -0.8256047259 0.5830997432
24150155100.0 -0.8152406654 0.5951681241
24200154800.0 -0.8039404443 0.6061497563
24250154500.0 -0.7927659306 0.6178862924
24300154200.0 -0.7811323021 0.6295232959
24350153900.0 -0.7691360993 0.6400336772
24400153600.0 -0.7573452133 0.6501765145
24450153300.0 -0.7450690067 0.6600169681
24500153000.0 -0.7332626708 0.6695752331
24550152700.0 -0.7226454178 0.6796394489
24600152400.0 -0.7110902739 0.6880430414
