!Created with skrf (http://scikit-rf.org).
# Hz S RI R 50.0 
!freq ReS11 ImS11
300000.0 -0.9764611659 -0.1154263567
50299700.0 -0.9999905073 0.0156562198
100299400.0 -0.9981689835 0.0287870506
150299100.0 -1.002830894 0.0453332799
200298800.0 -0.9996322656 0.0588288895
250298500.0 -0.9975262224 0.0724577193
300298200.0 -0.9861610146 0.088253283
350297900.0 -0.9940264061 0.0989408736
400297600.0 -0.9930920233 0.1154236503
450297300.0 -0.9908929409 0.129307869
500297000.0 -0.9897177532 0.144337068
550296700.0 -0.9844723411 0.156540916
600296400.0 -1.017439505 0.1899675543
650296100.0 -0.9821483831 0.1867186743
700295800.0 -0.9793993361 0.200839442
750295500.0 -0.976351579 0.2148766867
800295200.0 -0.9727321832 0.22909689
850294900.0 -0.9696846945 0.2427347325
900294600.0 -0.9659366005 0.2565093881
950294300.0 -0.9620847809 0.2703819359
1000294000.0 -0.9578801676 0.2842455168
1050293700.0 -0.9534650966 0.2979695622
1100293400.0 -0.9491012013 0.3124271692
1150293100.0 -0.9454183381 0.3241699399
1200292800.0 -0.9400958956 0.3384873326
1250292500.0 -0.9347660069 0.3520422492
1300292200.0 -0.928962585 0.3653413595
1350291900.0 -0.9232292127 0.3793582242
1400291600.0 -0.917749566 0.3924939536
1450291300.0 -0.9124164245 0.4048289269
1500291000.0 -0.9060575674 0.4181329137
1550290700.0 -0.8995817563 0.4314493464
1600290400.0 -0.8932303472 0.444399037
1650290100.0 -0.886550072 0.4566567659
1700289800.0 -0.8797032483 0.4699580113
1750289500.0 -0.872827991 0.4822048531
1800289200.0 -0.8653040614 0.4952398085
1850288900.0 -0.858643629 0.506640724
1900288600.0 -0.8509483657 0.5194439987
1950288300.0 -0.8427464562 0.5320061944
2000288000.0 -0.8351268013 0.5435574524
2050287700.0 -0.8269186081 0.5557252714
2100287400.0 -0.8189488219 0.5673115427
2150287100.0 -0.8104017663 0.5795359397
2200286800.0 -0.8028096681 0.5899198117
2250286500.0 -0.7939128361 0.6018494594
2300286200.0 -0.784997982 0.6136118054
2350285900.0 -0.77611275 0.6245553158
2400285600.0 -0.7673222558 0.6355751217
2450285300.0 -0.7585631409 0.6459452507
2500285000.0 -0.7486905152 0.6571799038
2550284700.0 -0.7397804497 0.6673924
2600284400.0 -0.7303830469 0.6774869007
2650284100.0 -0.7217104867 0.6881676334
2700283800.0 -0.7109059449 0.6987591924
2750283500.0 -0.7008011426 0.7093819002
2800283200.0 -0.6908714938 0.7190369965
2850282900.0 -0.68085178 0.7291250301
2900282600.0 -0.6701783154 0.7384102946
2950282300.0 -0.6599752548 0.7475762925
3000282000.0 -0.6494263772 0.7572297697
3050281700.0 -0.6382048021 0.7663854584
3100281400.0 -0.6262632254 0.7757978819
3150281100.0 -0.6145087483 0.7850821194
3200280800.0 -0.6027941215 0.7936815748
3250280500.0 -0.5920316178 0.8013111791
3300280200.0 -0.580790304 0.8092333553
3350279900.0 -0.5693075099 0.816603305
3400279600.0 -0.5571435547 0.8244405262
3450279300.0 -0.5462496712 0.8315862703
3500279000.0 -0.5341440969 0.8385407593
3550278700.0 -0.5215211301 0.8460475117
3600278400.0 -0.5091286939 0.8528814902
3650278100.0 -0.4961288327 0.860853678
3700277800.0 -0.4839566215 0.867234753
3750277500.0 -0.4717366883 0.8736643813
3800277200.0 -0.4591571989 0.8802919367
3850276900.0 -0.4471003056 0.8861926164
3900276600.0 -0.4362323806 0.8916509862
3950276300.0 -0.4237856868 0.8977740896
4000276000.0 -0.4117855582 0.9036677829
4050275700.0 -0.3990038932 0.9097356878
4100275400.0 -0.3878408695 0.915190625
4150275100.0 -0.3751799605 0.9209866388
4200274800.0 -0.3620551992 0.9263317945
4250274500.0 -0.3497612711 0.9315989069
4300274200.0 -0.3368812751 0.9368839269
4350273900.0 -0.3230689131 0.9418375265
4400273600.0 -0.3081382606 0.9475103865
4450273300.0 -0.2928028029 0.9526014385
4500273000.0 -0.2791145116 0.9569005791
4550272700.0 -0.2648822446 0.9610790763
4600272400.0 -0.2494809306 0.9652264154
4650272100.0 -0.2378038912 0.968534287
4700271800.0 -0.2245294002 0.9717811479
4750271500.0 -0.2128676943 0.9747385773
4800271200.0 -0.2005694475 0.9774437274
4850270900.0 -0.1864249653 0.9801120777
4900270600.0 -0.1725281548 0.9825604112
4950270300.0 -0.1582015605 0.9851962409
5000270000.0 -0.1440281033 0.9869835314
5050269700.0 -0.1305242947 0.9885001119
5100269400.0 -0.1170019225 0.9900283717
5150269100.0 -0.1036194664 0.9922311746
5200268800.0 -0.0905445127 0.9928064449
5250268500.0 -0.0773337586 0.9936470958
5300268200.0 -0.0641189548 0.9943814694
5350267900.0 -0.0519587112 0.9949362619
5400267600.0 -0.0356771487 0.9962518041
5450267300.0 -0.0226128234 0.9966572434
5500267000.0 -0.007623893 0.9969456275
5550266700.0 0.0075909922 0.9972510104
5600266400.0 0.0230639819 0.9972891293
5650266100.0 0.0397959801 0.9969090829
5700265800.0 0.0542826741 0.9963431229
5750265500.0 0.069295746 0.9957071938
5800265200.0 0.0829738681 0.9940823708
5850264900.0 0.096665837 0.9933878776
5900264600.0 0.1132550313 0.9919184271
5950264300.0 0.1252177542 0.9897097707
6000264000.0 0.1393726792 0.9884003854
6050263700.0 0.1517942713 0.9865013996
6100263400.0 0.1639840985 0.9849684778
6150263100.0 0.1783822026 0.9825216641
6200262800.0 0.1889809135 0.9806562897
6250262500.0 0.2017360233 0.9781814767
6300262200.0 0.2145231767 0.9754927364
6350261900.0 0.2275729445 0.9726668481
6400261600.0 0.2413489906 0.969245157
6450261300.0 0.2525920789 0.9664685041
6500261000.0 0.2656355129 0.9632265407
6550260700.0 0.2786795368 0.9590790399
6600260400.0 0.2920018534 0.9550644392
6650260100.0 0.3057946449 0.9508022862
6700259800.0 0.3179490137 0.946443273
6750259500.0 0.3317578017 0.941475039
6800259200.0 0.3448929008 0.936567489
6850258900.0 0.3568659154 0.9313626266
6900258600.0 0.3687580592 0.9261323819
6950258300.0 0.3812975137 0.9208222791
7000258000.0 0.3934471695 0.9155318519
7050257700.0 0.4055486059 0.9096188437
7100257400.0 0.4182828015 0.9032841157
7150257100.0 0.4286268928 0.8980339474
7200256800.0 0.4415460834 0.8914669864
7250256500.0 0.4534805187 0.8851424133
7300256200.0 0.4661672431 0.8784624935
7350255900.0 0.4790659763 0.8717020358
7400255600.0 0.4922190694 0.8643627871
7450255300.0 0.5075885326 0.8554480047
7500255000.0 0.5189752854 0.8481331894
7550254700.0 0.5329490696 0.8397190164
7600254400.0 0.5454105608 0.831442661
7650254100.0 0.5575349391 0.823794646
7700253800.0 0.5688469719 0.8157349388
7750253500.0 0.5803305727 0.807838579
7800253200.0 0.5908961623 0.8002204375
7850252900.0 0.6004877861 0.7930627514
7900252600.0 0.612377839 0.7844303871
7950252300.0 0.6210469023 0.7777457942
8000252000.0 0.6313225156 0.770031179
8050251700.0 0.6416277157 0.7618208509
8100251400.0 0.6518086352 0.75372183
8150251100.0 0.6621404046 0.7449841415
8200250800.0 0.6710732124 0.7371842745
8250250500.0 0.6797616663 0.7289476977
8300250200.0 0.6897498204 0.7204677742
8350249900.0 0.6982687571 0.7117465232
8400249600.0 0.7068703616 0.7035866836
8450249300.0 0.7159236371 0.6944663321
8500249000.0 0.7243668977 0.6856551001
8550248700.0 0.7329662629 0.6766512299
8600248400.0 0.7412704182 0.6672501682
8650248100.0 0.7490397555 0.657759605
8700247800.0 0.7585569432 0.6464899068
8750247500.0 0.766732732 0.6362562216
8800247200.0 0.7747207024 0.6261048609
8850246900.0 0.783583991 0.6147007655
8900246600.0 0.7920632515 0.6032198778
8950246300.0 0.8018147056 0.5902938315
9000246000.0 0.8111138887 0.5774136042
9050245700.0 0.8199667161 0.564865231
9100245400.0 0.8288979719 0.5521529382
9150245100.0 0.8380809274 0.5381767741
9200244800.0 0.8480089212 0.5229837242
9250244500.0 0.8574858783 0.507280463
9300244200.0 0.8660253722 0.4927835686
9350243900.0 0.8737272492 0.4788785452
9400243600.0 0.8802992422 0.4664233112
9450243300.0 0.8862423862 0.4548764604
9500243000.0 0.8923293227 0.442724877
9550242700.0 0.8961672145 0.4351066935
9600242400.0 0.9000064359 0.4279143333
9650242100.0 0.9036304236 0.4212494191
9700241800.0 0.9081870185 0.4131560094
9750241500.0 0.9120282681 0.4057278344
9800241200.0 0.9168955655 0.3963851079
9850240900.0 0.922388797 0.3849467417
9900240600.0 0.9279527792 0.3730367973
9950240300.0 0.9349950001 0.3568322986
10000240000.0 0.9393868038 0.345332612
10050239700.0 0.9447939235 0.3299493606
10100239400.0 0.9501352845 0.3146684802
10150239100.0 0.9544089129 0.2999929597
10200238800.0 0.9584624906 0.2848191789
10250238500.0 0.9616415679 0.2716345072
10300238200.0 0.964888135 0.2578948712
10350237900.0 0.9675456914 0.2446316778
10400237600.0 0.9701342079 0.231388165
10450237300.0 0.972864779 0.2175322869
10500237000.0 0.9749083744 0.2053977469
10550236700.0 0.9769170739 0.1916326567
10600236400.0 0.979201996 0.1786130186
10650236100.0 0.9807219164 0.1637803513
10700235800.0 0.9832020759 0.1514389637
10750235500.0 0.986009683 0.1378367469
10800235200.0 0.9874966786 0.1239513756
10850234900.0 0.989362644 0.1092417277
10900234600.0 0.9916927577 0.0944363021
10950234300.0 0.9934657142 0.0813940265
11000234000.0 0.9952805188 0.0662694638
11050233700.0 0.9969534264 0.0499460705
11100233400.0 0.9984895758 0.0325034151
11150233100.0 0.9992912583 0.0163423388
11200232800.0 0.9999603316 0.0007451352
11250232500.0 1.000998301 -0.015399594
11300232200.0 1.001603116 -0.0329169699
11350231900.0 1.002000327 -0.0501565511
11400231600.0 1.00133205 -0.0649921263
11450231300.0 1.000390375 -0.0809761535
11500231000.0 0.9996334649 -0.0966760222
11550230700.0 0.9986335676 -0.1103094199
11600230400.0 0.996909782 -0.1226804714
11650230100.0 0.9949518484 -0.1341933066
11700229800.0 0.9930290916 -0.1489255719
11750229500.0 0.9905731467 -0.1630408662
11800229200.0 0.9880827903 -0.177150673
11850228900.0 0.9842201031 -0.1894435099
11900228600.0 0.980719313 -0.1992557317
11950228300.0 0.9774466006 -0.2093670612
12000228000.0 0.9749780122 -0.2183673363
12050227700.0 0.9712781488 -0.231190138
12100227400.0 0.9674229739 -0.242674823
12150227100.0 0.9634168159 -0.2589462956
12200226800.0 0.959351487 -0.2698895539
12250226500.0 0.9549256606 -0.2828731187
12300226200.0 0.9519413738 -0.2942047194
12350225900.0 0.9459945425 -0.3086236689
12400225600.0 0.9420082464 -0.3221081971
12450225300.0 0.9379077195 -0.3338461462
12500225000.0 0.9317327125 -0.3487434695
12550224700.0 0.9266028967 -0.3628706555
12600224400.0 0.921931939 -0.3755654519
12650224100.0 0.9161459443 -0.3900180742
12700223800.0 0.9108007031 -0.4026387034
12750223500.0 0.9053140732 -0.4155676278
12800223200.0 0.8999731641 -0.4282258819
12850222900.0 0.8944433848 -0.4406578129
12900222600.0 0.8889399203 -0.4527836701
12950222300.0 0.8827408996 -0.4652092088
13000222000.0 0.8767273664 -0.4769795278
13050221700.0 0.8697631981 -0.4896861601
13100221400.0 0.8630389404 -0.501456832
13150221100.0 0.8563656945 -0.5136009836
13200220800.0 0.8492890143 -0.5254712827
13250220500.0 0.8421012892 -0.5372405838
13300220200.0 0.8346371827 -0.5480650818
13350219900.0 0.8265966317 -0.5602585601
13400219600.0 0.8182197282 -0.5724268143
13450219300.0 0.8086282316 -0.5860170143
13500219000.0 0.7990763771 -0.5996893229
13550218700.0 0.7883791582 -0.612331992
13600218400.0 0.7783788243 -0.6250315465
13650218100.0 0.7684962807 -0.6357446198
13700217800.0 0.7576095674 -0.6486348361
13750217500.0 0.7472608915 -0.6594594088
13800217200.0 0.7357883918 -0.6709593755
13850216900.0 0.725005251 -0.6829240702
13900216600.0 0.7150002899 -0.6919528295
13950216300.0 0.7038263056 -0.7020183206
14000216000.0 0.6945011694 -0.7109626742
14050215700.0 0.6851190429 -0.7194889343
14100215400.0 0.6746601016 -0.728603175
14150215100.0 0.6659943743 -0.7370671056
14200214800.0 0.6564038582 -0.7457788334
14250214500.0 0.6462753251 -0.7551033985
14300214200.0 0.6358496619 -0.7643123148
14350213900.0 0.6249186395 -0.7741449681
14400213600.0 0.6129363546 -0.7833222068
14450213300.0 0.6000545948 -0.7942030725
14500213000.0 0.5867411771 -0.8037187629
14550212700.0 0.5740651998 -0.8136673212
14600212400.0 0.5615458901 -0.8219034722
14650212100.0 0.5489143151 -0.8308178081
14700211800.0 0.5348659424 -0.8400901532
14750211500.0 0.5227852301 -0.8485380256
14800211200.0 0.5104412903 -0.8563044195
14850210900.0 0.4981149079 -0.8641119588
14900210600.0 0.4849589749 -0.8719822029
14950210300.0 0.4715945908 -0.879478496
15000210000.0 0.4587715188 -0.8862024239
15050209700.0 0.4467922713 -0.8925756691
15100209400.0 0.4335791526 -0.8985255924
15150209100.0 0.4216884656 -0.9038020067
15200208800.0 0.4084214137 -0.9093950457
15250208500.0 0.3966063893 -0.9140753529
15300208200.0 0.3847120481 -0.9180820013
15350207900.0 0.3717898116 -0.9229462046
15400207600.0 0.357260852 -0.9285354484
15450207300.0 0.3424400813 -0.9341652149
15500207000.0 0.3278454887 -0.937696787
15550206700.0 0.3132077321 -0.9432580129
15600206400.0 0.297352762 -0.9472696535
15650206100.0 0.2813169856 -0.9517172544
15700205800.0 0.2671578856 -0.9556746378
15750205500.0 0.2527057699 -0.9590618928
15800205200.0 0.2382845793 -0.962488458
15850204900.0 0.2238967153 -0.9659919355
15900204600.0 0.2087523382 -0.9694253852
15950204300.0 0.1949716824 -0.972248299
16000204000.0 0.1808410232 -0.9751348351
16050203700.0 0.1656877383 -0.978182022
16100203400.0 0.1516209461 -0.9802087583
16150203100.0 0.1369069529 -0.9824787859
16200202800.0 0.1228703903 -0.9847311151
16250202500.0 0.1078346223 -0.9861860656
16300202200.0 0.0931159783 -0.987761947
16350201900.0 0.0778767779 -0.988971425
16400201600.0 0.0635128519 -0.9901881094
16450201300.0 0.048258285 -0.9912431745
16500201000.0 0.0316025582 -0.9920197354
16550200700.0 0.0158154207 -0.9925942453
16600200400.0 0.0001804678 -0.9927592995
16650200100.0 -0.0158511526 -0.9928762157
16700199800.0 -0.032343229 -0.9919786734
16750199500.0 -0.0511463966 -0.9917843125
16800199200.0 -0.0672627816 -0.9905492231
16850198900.0 -0.0821886487 -0.9898850665
16900198600.0 -0.0962872378 -0.9884406555
16950198300.0 -0.1090361185 -0.9872823285
17000198000.0 -0.1223680821 -0.9857340836
17050197700.0 -0.1350633804 -0.9838310576
17100197400.0 -0.1479759647 -0.98152628
17150197100.0 -0.1602675177 -0.9797468942
17200196800.0 -0.1729220491 -0.9779653871
17250196500.0 -0.1860233812 -0.9753827606
17300196200.0 -0.1979756107 -0.9730573609
17350195900.0 -0.2100137739 -0.9708907111
17400195600.0 -0.2223070501 -0.9683411111
17450195300.0 -0.2354669933 -0.9656461081
17500195000.0 -0.2487895127 -0.9623649359
17550194700.0 -0.2628916704 -0.9583733862
17600194400.0 -0.2765814914 -0.954840467
17650194100.0 -0.290460324 -0.9505283079
17700193800.0 -0.3035010822 -0.9463979444
17750193500.0 -0.3178506114 -0.9418958573
17800193200.0 -0.3322919546 -0.9365487878
17850192900.0 -0.3471771862 -0.9310588684
17900192600.0 -0.3625393533 -0.9248756742
17950192300.0 -0.3780189998 -0.9178410214
18000192000.0 -0.3928292845 -0.9105681364
18050191700.0 -0.4065915238 -0.902756434
18100191400.0 -0.4207725456 -0.8949838113
18150191100.0 -0.4356604343 -0.8871552624
18200190800.0 -0.4525370226 -0.8778895866
18250190500.0 -0.4694397914 -0.8681751347
18300190200.0 -0.4850338456 -0.8593062003
18350189900.0 -0.4998173022 -0.8512142252
18400189600.0 -0.5144922581 -0.8426950904
18450189300.0 -0.5276055896 -0.8348726507
18500189000.0 -0.5408557394 -0.8270496019
18550188700.0 -0.5538353415 -0.8192594764
18600188400.0 -0.5658620083 -0.8128352706
18650188100.0 -0.5763332214 -0.8063801266
18700187800.0 -0.5869771761 -0.7994354367
18750187500.0 -0.5976616164 -0.7930152945
18800187200.0 -0.6084474466 -0.7861016127
18850186900.0 -0.6185177721 -0.7790414697
18900186600.0 -0.6288056421 -0.7714893516
18950186300.0 -0.6389312046 -0.7638655312
19000186000.0 -0.6459650904 -0.7577608421
19050185700.0 -0.655441738 -0.750985135
19100185400.0 -0.6652430778 -0.742481468
19150185100.0 -0.6749762601 -0.7339472985
19200184800.0 -0.6848272442 -0.7254069533
19250184500.0 -0.6948748991 -0.7164116874
19300184200.0 -0.7064390119 -0.7064028341
19350183900.0 -0.7178021657 -0.6973776801
19400183600.0 -0.7277581878 -0.6869289994
19450183300.0 -0.7361095602 -0.6768651748
19500183000.0 -0.7446899388 -0.666974224
19550182700.0 -0.7535786515 -0.6563299374
19600182400.0 -0.7646849115 -0.6444188491
19650182100.0 -0.7753381383 -0.6319320126
19700181800.0 -0.7860197565 -0.6186122795
19750181500.0 -0.7966232944 -0.6045880696
19800181200.0 -0.807118145 -0.5897053411
19850180900.0 -0.816510019 -0.5742336779
19900180600.0 -0.8243907713 -0.5597350962
19950180300.0 -0.8334615632 -0.5435595506
20000180000.0 -0.8259850836 -0.5456832181
20050179700.0 -0.8337375995 -0.5330035052
20100179400.0 -0.8437459543 -0.5181184925
20150179100.0 -0.8519255768 -0.506814283
20200178800.0 -0.8602057596 -0.4943306897
20250178500.0 -0.869816607 -0.4809543809
20300178200.0 -0.8795249875 -0.4654826409
20350177900.0 -0.8880196538 -0.4511044453
20400177600.0 -0.896909617 -0.4365025972
20450177300.0 -0.905605615 -0.4222956876
20500177000.0 -0.9133270356 -0.4081503993
20550176700.0 -0.9212798128 -0.3945585096
20600176400.0 -0.9285855732 -0.3815638493
20650176100.0 -0.9352982891 -0.3690551395
20700175800.0 -0.941586109 -0.3572245644
20750175500.0 -0.9482927538 -0.344757251
20800175200.0 -0.9525357161 -0.3353304026
20850174900.0 -0.9576950632 -0.3232501728
20900174600.0 -0.9623359797 -0.3119593143
20950174300.0 -0.9666396473 -0.3007758019
21000174000.0 -0.9699911394 -0.2893108727
21050173700.0 -0.9727484062 -0.2782251915
21100173400.0 -0.97689828 -0.2665939451
21150173100.0 -0.9810674997 -0.2531937564
21200172800.0 -0.9841011469 -0.2399375972
21250172500.0 -0.9877071707 -0.2264453987
21300172200.0 -0.9902401972 -0.2122080987
21350171900.0 -0.9916270883 -0.1973768929
21400171600.0 -0.9927382005 -0.1833394497
21450171300.0 -0.9936526226 -0.1686680106
21500171000.0 -0.9934588019 -0.1527950704
21550170700.0 -0.9930093456 -0.1383134527
21600170400.0 -0.9936297765 -0.1224572239
21650170100.0 -0.9914526693 -0.1069993799
21700169800.0 -0.9905710958 -0.0921139072
21750169500.0 -0.9879145052 -0.0755500016
21800169200.0 -0.9884959836 -0.0591318293
21850168900.0 -0.9870857091 -0.0422625966
21900168600.0 -0.9858223949 -0.0262115659
21950168300.0 -0.9843494517 -0.0112140655
22000168000.0 -0.9832598216 0.0040322065
22050167700.0 -0.983352625 0.0180864913
22100167400.0 -0.9831019825 0.0338092366
22150167100.0 -0.983507211 0.0490723559
22200166800.0 -0.9840433951 0.0653278572
22250166500.0 -0.9836890526 0.0827375454
22300166200.0 -0.9824786401 0.098460722
22350165900.0 -0.9817150925 0.1156970134
22400165600.0 -0.9797418888 0.1311377476
22450165300.0 -0.978682702 0.1470396256
22500165000.0 -0.9761503339 0.1602930488
22550164700.0 -0.9752845643 0.1761006499
22600164400.0 -0.973251203 0.19126971
22650164100.0 -0.9709420129 0.2056111832
22700163800.0 -0.968646254 0.2220606723
22750163500.0 -0.9652294162 0.2371670263
22800163200.0 -0.9629617366 0.2504610511
22850162900.0 -0.9608331778 0.263404901
22900162600.0 -0.9590638494 0.2773286224
22950162300.0 -0.9580235026 0.2900783616
23000162000.0 -0.9568945081 0.3018731251
23050161700.0 -0.9548260611 0.3143926378
23100161400.0 -0.9530425999 0.327263422
23150161100.0 -0.9493474406 0.3401300175
23200160800.0 -0.9476326087 0.3517366762
23250160500.0 -0.9448233684 0.3633145286
23300160200.0 -0.9417820586 0.3759206914
23350159900.0 -0.9384837666 0.3886180429
23400159600.0 -0.9338846421 0.4018570642
23450159300.0 -0.9285179301 0.4148454306
23500159000.0 -0.9241032814 0.4274317933
23550158700.0 -0.9197107057 0.4411307119
23600158400.0 -0.9143986081 0.4543829701
23650158100.0 -0.907746237 0.4684413703
23700157800.0 -0.9001468834 0.4824092919
23750157500.0 -0.891556999 0.4966673927
23800157200.0 -0.8827849282 0.5092385096
23850156900.0 -0.8742251247 0.5218692245
23900156600.0 -0.8648274329 0.5343799061
23950156300.0 -0.8557191209 0.5472857906
24000156000.0 -0.8464002835 0.5594139329
24050155700.0 -0.8355991244 0.5710126165
24100155400.0 -0.8260781381 0.5825000658
24150155100.0 -0.816160995 0.5939121664
24200154800.0 -0.804662389 0.6056868476
24250154500.0 -0.7922897322 0.617751631
24300154200.0 -0.7818192448 0.6288101
24350153900.0 -0.7695779211 0.6395055458
24400153600.0 -0.7578979321 0.6498186966
24450153300.0 -0.7459444192 0.6599484035
24500153000.0 -0.7345888909 0.6696041089
24550152700.0 -0.7232563326 0.6791151036
24600152400.0 -0.712163764 0.6880822585
24650152100.0 -0.70024909 0.696270528
