!Created with skrf (http://scikit-rf.org).
# Hz S RI R 50.0 
!freq ReS11 ImS11
300000.0 -0.9751225388 -0.1219156582
50299700.0 -1.00003089 0.0153878331
100299400.0 -0.9979491986 0.028173229
150299100.0 -1.002671159 0.0450296793
200298800.0 -0.9997334114 0.0581859853
250298500.0 -0.9974367416 0.0717608399
300298200.0 -0.9860989151 0.0874836744
350297900.0 -0.9939863625 0.0985074177
400297600.0 -0.9932135363 0.115024795
450297300.0 -0.9911216536 0.1286997845
500297000.0 -0.9895433777 0.143556999
550296700.0 -0.9842881486 0.1560777691
600296400.0 -1.017377839 0.1892450225
650296100.0 -0.9820807881 0.1859131486
700295800.0 -0.9794235036 0.2000597918
750295500.0 -0.9765344511 0.2141801681
800295200.0 -0.9729242685 0.2283636949
850294900.0 -0.9697884411 0.241984204
900294600.0 -0.9658547321 0.2557501911
950294300.0 -0.9623056053 0.2694087772
1000294000.0 -0.9581601973 0.2835338544
1050293700.0 -0.9535479005 0.2972261842
1100293400.0 -0.9494050291 0.311670126
1150293100.0 -0.9456530747 0.3235935735
1200292800.0 -0.9402561644 0.3379039221
1250292500.0 -0.9346391872 0.3513165022
1300292200.0 -0.9290574886 0.3646666623
1350291900.0 -0.9235630831 0.3787423644
1400291600.0 -0.9180725609 0.3918235748
1450291300.0 -0.9125862233 0.4040273983
1500291000.0 -0.906327676 0.4175800783
1550290700.0 -0.8996348268 0.4309937438
1600290400.0 -0.8935468331 0.4438881108
1650290100.0 -0.8870604978 0.4559668501
1700289800.0 -0.8800244044 0.4692883123
1750289500.0 -0.8729904803 0.4816356168
1800289200.0 -0.8654866456 0.4946130071
1850288900.0 -0.858768678 0.5058989513
1900288600.0 -0.8509592724 0.5189323338
1950288300.0 -0.8428653615 0.5313077264
2000288000.0 -0.8355302921 0.5429362442
2050287700.0 -0.8272596879 0.5554140803
2100287400.0 -0.8193647675 0.5668677777
2150287100.0 -0.8108235258 0.5789349254
2200286800.0 -0.8030054228 0.5893717286
2250286500.0 -0.7943577932 0.6013468232
2300286200.0 -0.7853513337 0.6129351049
2350285900.0 -0.7766761661 0.6238094267
2400285600.0 -0.7676878096 0.6347115858
2450285300.0 -0.7591563393 0.6452500956
2500285000.0 -0.7493469289 0.656649789
2550284700.0 -0.740198592 0.6669311511
2600284400.0 -0.7311047637 0.6769772514
2650284100.0 -0.7223706065 0.6875420278
2700283800.0 -0.711501412 0.6979921356
2750283500.0 -0.7013493665 0.7084723356
2800283200.0 -0.6916091498 0.7183586737
2850282900.0 -0.6812074945 0.7285951952
2900282600.0 -0.6708033847 0.7378307443
2950282300.0 -0.6606188149 0.7472555241
3000282000.0 -0.6498809273 0.7565925625
3050281700.0 -0.6385203953 0.7660014364
3100281400.0 -0.6268438057 0.7750908454
3150281100.0 -0.6152479119 0.7845821372
3200280800.0 -0.6037239552 0.792727127
3250280500.0 -0.5926522297 0.8007192478
3300280200.0 -0.5813255056 0.8085454969
3350279900.0 -0.5694978687 0.8161224099
3400279600.0 -0.5572134469 0.8239904389
3450279300.0 -0.546381787 0.8314702169
3500279000.0 -0.5344393061 0.838215366
3550278700.0 -0.5219615428 0.8456711254
3600278400.0 -0.5098603661 0.852677032
3650278100.0 -0.4966762992 0.860173896
3700277800.0 -0.4846310509 0.8665437185
3750277500.0 -0.4725075943 0.8734244521
3800277200.0 -0.4600104908 0.8796811124
3850276900.0 -0.4480179083 0.885572279
3900276600.0 -0.4369912142 0.8913408501
3950276300.0 -0.4246809507 0.8974018589
4000276000.0 -0.4127638204 0.9033658357
4050275700.0 -0.3998806992 0.9094673715
4100275400.0 -0.3887393193 0.9149718027
4150275100.0 -0.37579639 0.9204202579
4200274800.0 -0.3629220527 0.9259836255
4250274500.0 -0.3504900606 0.9311592148
4300274200.0 -0.3376192256 0.9365162019
4350273900.0 -0.3234619864 0.9419867474
4400273600.0 -0.3089125131 0.9470457844
4450273300.0 -0.2935933699 0.9523257787
4500273000.0 -0.2799906988 0.9565768065
4550272700.0 -0.2659912662 0.9608035195
4600272400.0 -0.2508081703 0.9649288924
4650272100.0 -0.2390509292 0.9681842588
4700271800.0 -0.2259433311 0.9714695803
4750271500.0 -0.2141411519 0.9743595713
4800271200.0 -0.2018637258 0.9770290385
4850270900.0 -0.1878730742 0.9798566391
4900270600.0 -0.173985872 0.9822897203
4950270300.0 -0.1596272207 0.9846846385
5000270000.0 -0.1452010331 0.9868656096
5050269700.0 -0.132007274 0.9885932157
5100269400.0 -0.1179986538 0.9902825997
5150269100.0 -0.1047071467 0.9915124389
5200268800.0 -0.0911444583 0.9931121779
5250268500.0 -0.078143596 0.9938884463
5300268200.0 -0.0649194717 0.9941518979
5350267900.0 -0.0525160854 0.9954403043
5400267600.0 -0.0361123255 0.9964913365
5450267300.0 -0.0231309554 0.9965040889
5500267000.0 -0.0077416879 0.9968751736
5550266700.0 0.007242479 0.9972376669
5600266400.0 0.0225751325 0.997418843
5650266100.0 0.0393728596 0.997365037
5700265800.0 0.0534073804 0.9959665833
5750265500.0 0.0688329375 0.9954675776
5800265200.0 0.0826958298 0.9941806464
5850264900.0 0.0953608315 0.9936705585
5900264600.0 0.1121889444 0.9915154239
5950264300.0 0.1242578197 0.9898866407
6000264000.0 0.1382303613 0.9884606265
6050263700.0 0.1502735994 0.9869420768
6100263400.0 0.162849395 0.9851248358
6150263100.0 0.1773187699 0.9824866195
6200262800.0 0.18748595 0.9810215411
6250262500.0 0.2002624315 0.9786918625
6300262200.0 0.2126298452 0.9761141924
6350261900.0 0.2257506863 0.9730457305
6400261600.0 0.239488327 0.9698821876
6450261300.0 0.2508612332 0.9672115046
6500261000.0 0.2637680174 0.9635516628
6550260700.0 0.2767968716 0.9597354649
6600260400.0 0.2902131797 0.9555004719
6650260100.0 0.3039021872 0.9512947253
6700259800.0 0.3163828156 0.9471016332
6750259500.0 0.3297978095 0.9421855797
6800259200.0 0.3435932107 0.9372125952
6850258900.0 0.3554480859 0.9318163182
6900258600.0 0.367519672 0.9268592192
6950258300.0 0.3801064587 0.9213995489
7000258000.0 0.3920916668 0.9160386
7050257700.0 0.4042233509 0.9101124148
7100257400.0 0.4172718283 0.9037398104
7150257100.0 0.4275677274 0.8984791068
7200256800.0 0.440788765 0.8919244887
7250256500.0 0.4525334581 0.8856481131
7300256200.0 0.4658026802 0.8790519561
7350255900.0 0.4781574378 0.8718668949
7400255600.0 0.491834601 0.8646818202
7450255300.0 0.5072537591 0.8557572796
7500255000.0 0.5192772477 0.8481162897
7550254700.0 0.5329065486 0.8397508119
7600254400.0 0.5458872909 0.8313968279
7650254100.0 0.5571294802 0.8235474218
7700253800.0 0.5688068293 0.8154655296
7750253500.0 0.5801876629 0.8079062327
7800253200.0 0.5909349588 0.8000256772
7850252900.0 0.6006502678 0.7930860626
7900252600.0 0.6120168995 0.7844538305
7950252300.0 0.6207946824 0.777831615
8000252000.0 0.6308880843 0.7702948363
8050251700.0 0.6412425876 0.7619557401
8100251400.0 0.6512846995 0.7538920159
8150251100.0 0.6618334998 0.7454147726
8200250800.0 0.6706175522 0.7374091248
8250250500.0 0.6802044231 0.7294782109
8300250200.0 0.6888848333 0.7208041468
8350249900.0 0.698456096 0.712243693
8400249600.0 0.70617275 0.7041642371
8450249300.0 0.7150995529 0.6950657195
8500249000.0 0.7239440995 0.6861237146
8550248700.0 0.7322506894 0.6771415142
8600248400.0 0.7407764491 0.6675364646
8650248100.0 0.7484997707 0.6583925761
8700247800.0 0.7577337041 0.6469937364
8750247500.0 0.7660168877 0.6369275268
8800247200.0 0.7742747306 0.6265412803
8850246900.0 0.7827497602 0.6152411402
8900246600.0 0.7914228476 0.6036789725
8950246300.0 0.8008158241 0.5909544658
9000246000.0 0.8101290183 0.578231791
9050245700.0 0.8189939258 0.5657409835
9100245400.0 0.8275457084 0.553384916
9150245100.0 0.8365059879 0.5398138921
9200244800.0 0.8459736481 0.5248557407
9250244500.0 0.8556801903 0.5097479502
9300244200.0 0.864056659 0.4954611759
9350243900.0 0.8715847273 0.4819679541
9400243600.0 0.8784193937 0.4695483112
9450243300.0 0.884192794 0.458351678
9500243000.0 0.8905050174 0.4464566764
9550242700.0 0.8942829943 0.4387528439
9600242400.0 0.8982869403 0.4314075833
9650242100.0 0.9019096847 0.4246879489
9700241800.0 0.9068643767 0.4163528769
9750241500.0 0.9108049511 0.4086403995
9800241200.0 0.915942118 0.3994768333
9850240900.0 0.9213024782 0.3878580333
9900240600.0 0.9270839402 0.3760188427
9950240300.0 0.9340485605 0.3598196739
10000240000.0 0.9381581865 0.3480274851
10050239700.0 0.9441065672 0.3328947947
10100239400.0 0.949369656 0.3169622625
10150239100.0 0.9539964299 0.3021046518
10200238800.0 0.9581759091 0.2867810406
10250238500.0 0.961312661 0.2734940095
10300238200.0 0.9645670126 0.2595974098
10350237900.0 0.967452022 0.2464464714
10400237600.0 0.9699204151 0.2329929716
10450237300.0 0.9724203651 0.2192285928
10500237000.0 0.9748582328 0.2073249955
10550236700.0 0.9766922156 0.1932890449
10600236400.0 0.9794112413 0.1790853266
10650236100.0 0.98093004 0.1649130574
10700235800.0 0.9833677165 0.15225029
10750235500.0 0.9858019006 0.1386805958
10800235200.0 0.9876533481 0.1246599054
10850234900.0 0.9894450396 0.1101455331
10900234600.0 0.9917431453 0.0952695207
10950234300.0 0.9934792595 0.0817608176
11000234000.0 0.9952942172 0.0666454084
11050233700.0 0.9971915371 0.0501752189
11100233400.0 0.9987519131 0.03297546
11150233100.0 0.9998259896 0.0162404794
11200232800.0 1.000278494 0.0010878778
11250232500.0 1.00121203 -0.0157352841
11300232200.0 1.001707019 -0.0334379298
11350231900.0 1.002167197 -0.0496528724
11400231600.0 1.001459334 -0.0643118696
11450231300.0 1.000773248 -0.0803750319
11500231000.0 0.9997749914 -0.0969988192
11550230700.0 0.9984358199 -0.1104578447
11600230400.0 0.9970130377 -0.122535692
11650230100.0 0.9949238995 -0.1344003767
11700229800.0 0.9930391322 -0.1489355711
11750229500.0 0.9907695481 -0.1634735236
11800229200.0 0.9879986314 -0.1769743819
11850228900.0 0.9844307621 -0.1892018866
11900228600.0 0.9808471015 -0.1992469936
11950228300.0 0.9775079913 -0.2092816002
12000228000.0 0.9747864314 -0.2182924604
12050227700.0 0.9707174029 -0.2318262725
12100227400.0 0.9676178778 -0.2422466313
12150227100.0 0.962470319 -0.2589633916
12200226800.0 0.9593351945 -0.2699684976
12250226500.0 0.9553741678 -0.2827869012
12300226200.0 0.9507384322 -0.2951038913
12350225900.0 0.9459155674 -0.3086279604
12400225600.0 0.941884434 -0.3217950475
12450225300.0 0.9371824053 -0.3342852484
12500225000.0 0.9317009174 -0.3493022067
12550224700.0 0.926322129 -0.3630215158
12600224400.0 0.9215920311 -0.3756327844
12650224100.0 0.9158145437 -0.3901776901
12700223800.0 0.9104881912 -0.4029882524
12750223500.0 0.9050732076 -0.4155591633
12800223200.0 0.8996961002 -0.4284436876
12850222900.0 0.8944489623 -0.4408924167
12900222600.0 0.888567522 -0.4528643287
12950222300.0 0.8823353741 -0.46611348
13000222000.0 0.8771358226 -0.4767147808
13050221700.0 0.8696532247 -0.489973241
13100221400.0 0.8632719667 -0.5012849301
13150221100.0 0.8564183709 -0.5137765449
13200220800.0 0.8492591002 -0.5255248587
13250220500.0 0.842335015 -0.5374459891
13300220200.0 0.8348144434 -0.5483881817
13350219900.0 0.8268258655 -0.5602976053
13400219600.0 0.8182406079 -0.5722012705
13450219300.0 0.8089611132 -0.5854873135
13500219000.0 0.7992079911 -0.5993750389
13550218700.0 0.7889037473 -0.6115700255
13600218400.0 0.7794313479 -0.6237448631
13650218100.0 0.7692692595 -0.6348708901
13700217800.0 0.7584862577 -0.6468899395
13750217500.0 0.7483189498 -0.6581700365
13800217200.0 0.7375973316 -0.6703456476
13850216900.0 0.7262708958 -0.6817396402
13900216600.0 0.7166865441 -0.6901696529
13950216300.0 0.7054350077 -0.7007064386
14000216000.0 0.6961329973 -0.7102541002
14050215700.0 0.6861836188 -0.7182832534
14100215400.0 0.6762462848 -0.7272208862
14150215100.0 0.6673490275 -0.7357377545
14200214800.0 0.6578849587 -0.7445111516
14250214500.0 0.6475470442 -0.7538681571
14300214200.0 0.6371218551 -0.7632894163
14350213900.0 0.6259627989 -0.7730959113
14400213600.0 0.6141404361 -0.7828525467
14450213300.0 0.6010080777 -0.79291234
14500213000.0 0.5879862832 -0.8027874445
14550212700.0 0.575827373 -0.8119829595
14600212400.0 0.5629846754 -0.8213660819
14650212100.0 0.550745892 -0.82981294
14700211800.0 0.536243349 -0.8391666626
14750211500.0 0.5244959489 -0.847356043
14800211200.0 0.5119885071 -0.8555028657
14850210900.0 0.4998215138 -0.8632206017
14900210600.0 0.4866604063 -0.8710775969
14950210300.0 0.4732818094 -0.8787301648
15000210000.0 0.4606867074 -0.8854674503
15050209700.0 0.448427122 -0.8916019109
15100209400.0 0.4351412005 -0.8980605791
15150209100.0 0.4234843963 -0.902990049
15200208800.0 0.4102872009 -0.9084406735
15250208500.0 0.3991500646 -0.9128568877
15300208200.0 0.3877365184 -0.9175514272
15350207900.0 0.3737615868 -0.9220063428
15400207600.0 0.3592868723 -0.9282750449
15450207300.0 0.3453271757 -0.9321610159
15500207000.0 0.3307118245 -0.937030003
15550206700.0 0.3150895506 -0.9425157252
15600206400.0 0.2992718227 -0.9472350095
15650206100.0 0.2836647131 -0.9509987827
15700205800.0 0.2696644549 -0.9546949005
15750205500.0 0.2556256357 -0.9581423503
15800205200.0 0.2411746444 -0.961947456
15850204900.0 0.2268092764 -0.965199645
15900204600.0 0.2117609628 -0.968754831
15950204300.0 0.1976212792 -0.9718890478
16000204000.0 0.1830507827 -0.9746340831
16050203700.0 0.1681596972 -0.9777614985
16100203400.0 0.1534515639 -0.9800395954
16150203100.0 0.1391246314 -0.9817747643
16200202800.0 0.1247555049 -0.9842618155
16250202500.0 0.1099902769 -0.9858609568
16300202200.0 0.0943208401 -0.9875327414
16350201900.0 0.0795644623 -0.988959688
16400201600.0 0.064844755 -0.9903090859
16450201300.0 0.0496866149 -0.9913060086
16500201000.0 0.0328647629 -0.9921751232
16550200700.0 0.0171687613 -0.9926657946
16600200400.0 0.0012681143 -0.9928331553
16650200100.0 -0.0147085507 -0.9929954002
16700199800.0 -0.0307120242 -0.9926749178
16750199500.0 -0.0495851967 -0.9921912349
16800199200.0 -0.0655959968 -0.9903915226
16850198900.0 -0.0804908634 -0.9895997036
16900198600.0 -0.0944999864 -0.9893714716
16950198300.0 -0.1081970456 -0.9877969067
17000198000.0 -0.1206736248 -0.9857775891
17050197700.0 -0.1336764766 -0.9839071449
17100197400.0 -0.1465908078 -0.9822186147
17150197100.0 -0.1588457389 -0.9803157343
17200196800.0 -0.1720964957 -0.9783466346
17250196500.0 -0.184828805 -0.9759633377
17300196200.0 -0.196944232 -0.9733928501
17350195900.0 -0.2091534206 -0.9710901225
17400195600.0 -0.2211234144 -0.9686680717
17450195300.0 -0.234077079 -0.9660087286
17500195000.0 -0.2476931349 -0.9625668766
17550194700.0 -0.2617562081 -0.9591288739
17600194400.0 -0.2753128408 -0.9550236701
17650194100.0 -0.2889737208 -0.9509711908
17700193800.0 -0.3022950195 -0.946812387
17750193500.0 -0.3164710237 -0.9418579559
17800193200.0 -0.3307166569 -0.9368040043
17850192900.0 -0.3459287906 -0.93160539
17900192600.0 -0.3613916816 -0.9253440942
17950192300.0 -0.3766709777 -0.9184995574
18000192000.0 -0.391427117 -0.9112937792
18050191700.0 -0.4053297735 -0.9032841477
18100191400.0 -0.419493672 -0.8955566769
18150191100.0 -0.4344313496 -0.8875868497
18200190800.0 -0.4514004653 -0.8784864894
18250190500.0 -0.4683010091 -0.8689381418
18300190200.0 -0.4837262532 -0.8604641728
18350189900.0 -0.4986694009 -0.8517894951
18400189600.0 -0.5136766292 -0.8436482284
18450189300.0 -0.5263182877 -0.8352605617
18500189000.0 -0.5397409197 -0.8276894245
18550188700.0 -0.5523649318 -0.8202731847
18600188400.0 -0.5643803998 -0.8134214584
18650188100.0 -0.5755302294 -0.8071290347
18700187800.0 -0.5862869306 -0.8003485567
18750187500.0 -0.5970472764 -0.7940089267
18800187200.0 -0.607535269 -0.7869305939
18850186900.0 -0.6176300305 -0.779952448
18900186600.0 -0.6279733484 -0.7726239246
18950186300.0 -0.6379545118 -0.7648143335
19000186000.0 -0.6450260088 -0.7588119141
19050185700.0 -0.6543627971 -0.7515952687
19100185400.0 -0.6647522471 -0.7433077068
19150185100.0 -0.6747792611 -0.7350767736
19200184800.0 -0.6841851818 -0.726693826
19250184500.0 -0.6934854998 -0.7178041578
19300184200.0 -0.7048225792 -0.7084171964
19350183900.0 -0.7164809173 -0.6983866034
19400183600.0 -0.7259633023 -0.688190574
19450183300.0 -0.7346310033 -0.6779898214
19500183000.0 -0.7429177913 -0.6679720487
19550182700.0 -0.753143659 -0.6572421815
19600182400.0 -0.7637741173 -0.6453832746
19650182100.0 -0.7742184367 -0.6330797369
19700181800.0 -0.7846413025 -0.6198133303
19750181500.0 -0.7954730428 -0.6058538917
19800181200.0 -0.8058625952 -0.5907214746
19850180900.0 -0.8155845423 -0.5755279714
19900180600.0 -0.8233180315 -0.5608967304
19950180300.0 -0.8326300409 -0.544521568
20000180000.0 -0.8252104945 -0.5467691393
20050179700.0 -0.8332296614 -0.5342729967
20100179400.0 -0.8418991714 -0.5211141798
20150179100.0 -0.8491520482 -0.5086573069
20200178800.0 -0.8581998877 -0.4964894328
20250178500.0 -0.8679077464 -0.4831041511
20300178200.0 -0.877839776 -0.4683652804
20350177900.0 -0.8867886227 -0.4539452972
20400177600.0 -0.8956645535 -0.4395072591
20450177300.0 -0.9040051863 -0.4254349414
20500177000.0 -0.9119617336 -0.4114250326
20550176700.0 -0.9198679743 -0.3979826436
20600176400.0 -0.9270294397 -0.3849901752
20650176100.0 -0.9335717834 -0.3724744547
20700175800.0 -0.9408347998 -0.3605590701
20750175500.0 -0.9466345831 -0.349266792
20800175200.0 -0.9517962858 -0.3388219982
20850174900.0 -0.9561553042 -0.3275288838
20900174600.0 -0.9605606279 -0.3158228155
20950174300.0 -0.9640280469 -0.3051199471
21000174000.0 -0.9675096138 -0.2937400716
21050173700.0 -0.9694851741 -0.283771634
21100173400.0 -0.9736510114 -0.2720306801
21150173100.0 -0.9772833847 -0.2597408781
21200172800.0 -0.9813362924 -0.2459827396
21250172500.0 -0.9843718812 -0.2326760762
21300172200.0 -0.9877011226 -0.2181855136
21350171900.0 -0.9895513188 -0.2041953679
21400171600.0 -0.9906427749 -0.1891146662
21450171300.0 -0.9911743882 -0.1747227311
21500171000.0 -0.9916334022 -0.1598910188
21550170700.0 -0.9918656378 -0.1446819528
21600170400.0 -0.9920311686 -0.1302064524
21650170100.0 -0.990742311 -0.1135179772
21700169800.0 -0.9901876259 -0.0983168785
21750169500.0 -0.9894421102 -0.0827402719
21800169200.0 -0.9889801332 -0.065772386
21850168900.0 -0.9878538626 -0.048973594
21900168600.0 -0.9870537646 -0.0331938445
21950168300.0 -0.9859374272 -0.0165184901
22000168000.0 -0.9853504063 -0.002334432
22050167700.0 -0.9855435542 0.0125219311
22100167400.0 -0.9858912598 0.028206267
22150167100.0 -0.9864583047 0.0437676963
22200166800.0 -0.9864753709 0.0607337524
22250166500.0 -0.9865019713 0.0770507103
22300166200.0 -0.9860706912 0.0934566274
22350165900.0 -0.9844467983 0.1108317641
22400165600.0 -0.9823667028 0.1261313175
22450165300.0 -0.9823249009 0.1411223709
22500165000.0 -0.9788383619 0.1548104302
22550164700.0 -0.9780209159 0.1697684012
22600164400.0 -0.9759849655 0.1866106983
22650164100.0 -0.9738897155 0.2011381111
22700163800.0 -0.9705580289 0.2170097666
22750163500.0 -0.9680890769 0.2316943658
22800163200.0 -0.9654393807 0.2454310676
22850162900.0 -0.9628261185 0.2588315007
22900162600.0 -0.9612875583 0.2723062727
22950162300.0 -0.9599993435 0.2852179591
23000162000.0 -0.9583975943 0.2976601719
23050161700.0 -0.956595014 0.3102621242
23100161400.0 -0.9541433942 0.3232610611
23150161100.0 -0.9515084806 0.3357222938
23200160800.0 -0.9484078641 0.3482380411
23250160500.0 -0.9456374048 0.3603325747
23300160200.0 -0.9427632195 0.3722219685
23350159900.0 -0.9397375789 0.3861297381
23400159600.0 -0.934653703 0.3988167828
23450159300.0 -0.9292588763 0.4122595964
23500159000.0 -0.9248971174 0.4253934381
23550158700.0 -0.9200163103 0.43907585
23600158400.0 -0.9146344707 0.4528493295
23650158100.0 -0.9081562469 0.4668653584
23700157800.0 -0.9004759296 0.4809604007
23750157500.0 -0.8912953817 0.4949484625
23800157200.0 -0.8823887809 0.5085341765
23850156900.0 -0.8727137454 0.5209393181
23900156600.0 -0.8637687021 0.5345882927
23950156300.0 -0.8547480009 0.5461608081
24000156000.0 -0.8457010219 0.5588026554
24050155700.0 -0.8351257354 0.5707118406
24100155400.0 -0.8250805017 0.5823714517
24150155100.0 -0.8140981187 0.5947697938
24200154800.0 -0.8034022631 0.606433411
24250154500.0 -0.7919522561 0.6180336266
24300154200.0 -0.7809523916 0.6296440692
24350153900.0 -0.7693679253 0.640105929
24400153600.0 -0.7568150746 0.650486578
24450153300.0 -0.7449736093 0.6608133848
24500153000.0 -0.7330300423 0.670309136
24550152700.0 -0.7219118594 0.6802045715
24600152400.0 -0.7101965607 0.6886716624
24650152100.0 -0.6985745846 0.6987269434
