!Created with skrf (http://scikit-rf.org).
# Hz S RI R 50.0 
!freq ReS11 ImS11
300000.0 -0.9743417101 -0.1211455608
50299700.0 -1.000021063 0.0150702855
100299400.0 -0.9979113814 0.027942793
150299100.0 -1.002661359 0.0448207146
200298800.0 -0.9995805038 0.0580446549
250298500.0 -0.9973633234 0.0716168494
300298200.0 -0.9859082343 0.087502411
350297900.0 -0.9940249807 0.0984387377
400297600.0 -0.9930791277 0.1149395938
450297300.0 -0.9910885535 0.1287069615
500297000.0 -0.9893648769 0.1435545517
550296700.0 -0.9842423218 0.1557755063
600296400.0 -1.017289369 0.1892145095
650296100.0 -0.9821773095 0.1857128258
700295800.0 -0.9791980622 0.2000958772
750295500.0 -0.9763532269 0.2140320823
800295200.0 -0.9727673469 0.2281290864
850294900.0 -0.9696059752 0.241737887
900294600.0 -0.9658588726 0.2555726987
950294300.0 -0.9620250875 0.2693952402
1000294000.0 -0.9581399667 0.2833757262
1050293700.0 -0.9537415894 0.2970933608
1100293400.0 -0.9492515636 0.3115041202
1150293100.0 -0.9453573574 0.3232871562
1200292800.0 -0.9403135139 0.337816331
1250292500.0 -0.9347102708 0.3511954285
1300292200.0 -0.9291215133 0.3645380652
1350291900.0 -0.9235380074 0.3784556682
1400291600.0 -0.918060297 0.3916370142
1450291300.0 -0.9125930622 0.4038966153
1500291000.0 -0.9061558769 0.4173559033
1550290700.0 -0.8997286628 0.430675897
1600290400.0 -0.8934605628 0.4435585798
1650290100.0 -0.8867920141 0.4557494693
1700289800.0 -0.8799238242 0.4692983103
1750289500.0 -0.873116986 0.4815039801
1800289200.0 -0.8655942755 0.4943351909
1850288900.0 -0.8587513472 0.5058014396
1900288600.0 -0.8510760992 0.5187337488
1950288300.0 -0.842989277 0.5313987066
2000288000.0 -0.8353331736 0.5429040007
2050287700.0 -0.8273768697 0.5553129921
2100287400.0 -0.8194977896 0.566666476
2150287100.0 -0.8106525492 0.5785248208
2200286800.0 -0.8030715036 0.5891293892
2250286500.0 -0.7940826635 0.6014429153
2300286200.0 -0.7854520968 0.6127338315
2350285900.0 -0.7769901813 0.6234630847
2400285600.0 -0.7680542923 0.6343578286
2450285300.0 -0.7590560521 0.6450589612
2500285000.0 -0.7491912376 0.6566470782
2550284700.0 -0.7401175714 0.6671201856
2600284400.0 -0.7311287645 0.6767114618
2650284100.0 -0.7220872666 0.686962914
2700283800.0 -0.7118755246 0.6977569374
2750283500.0 -0.7015412316 0.7081610219
2800283200.0 -0.6913160307 0.717886052
2850282900.0 -0.6810397213 0.7280348055
2900282600.0 -0.6707446128 0.7378726238
2950282300.0 -0.660328082 0.7472489487
3000282000.0 -0.6493681553 0.7568714416
3050281700.0 -0.6384233979 0.7659812658
3100281400.0 -0.6268870499 0.7750187084
3150281100.0 -0.6157198708 0.7839208741
3200280800.0 -0.6040304292 0.7922867327
3250280500.0 -0.5930582742 0.8002807864
3300280200.0 -0.5814653695 0.80854769
3350279900.0 -0.56916172 0.8163975855
3400279600.0 -0.5566821289 0.8245557956
3450279300.0 -0.5455530161 0.8316239329
3500279000.0 -0.5339864788 0.8385861557
3550278700.0 -0.5215106633 0.845816399
3600278400.0 -0.5098536516 0.8523970029
3650278100.0 -0.4968657998 0.8599779224
3700277800.0 -0.484707464 0.8663990161
3750277500.0 -0.472375769 0.8731977263
3800277200.0 -0.4599227591 0.8797281561
3850276900.0 -0.4479287805 0.8854615969
3900276600.0 -0.4370153051 0.8913170461
3950276300.0 -0.4249073764 0.897299362
4000276000.0 -0.413011098 0.903185254
4050275700.0 -0.4003846765 0.9091065182
4100275400.0 -0.3893061061 0.9143071093
4150275100.0 -0.3760834649 0.9204446715
4200274800.0 -0.3625243317 0.9260503842
4250274500.0 -0.3499663941 0.931228606
4300274200.0 -0.3367333932 0.9368461791
4350273900.0 -0.3224079258 0.9420357119
4400273600.0 -0.3078140602 0.9473390163
4450273300.0 -0.2929708203 0.9521834967
4500273000.0 -0.279787358 0.9565083676
4550272700.0 -0.2659836646 0.9605117018
4600272400.0 -0.2510675324 0.9648436271
4650272100.0 -0.2397006293 0.967908649
4700271800.0 -0.2268025294 0.9711734747
4750271500.0 -0.2152089446 0.9739849647
4800271200.0 -0.2028502815 0.9766640456
4850270900.0 -0.1891476139 0.9794043213
4900270600.0 -0.1752091035 0.9819529083
4950270300.0 -0.1607848163 0.9846604823
5000270000.0 -0.1461252852 0.9866598796
5050269700.0 -0.132857777 0.9882392903
5100269400.0 -0.1185256992 0.990070228
5150269100.0 -0.1047268358 0.9918682998
5200268800.0 -0.0912028167 0.9928506667
5250268500.0 -0.0782236829 0.9939732261
5300268200.0 -0.064573845 0.994466677
5350267900.0 -0.0519433581 0.9951313607
5400267600.0 -0.0357050619 0.9964121343
5450267300.0 -0.0223482819 0.9964210326
5500267000.0 -0.0067951623 0.9970914874
5550266700.0 0.0078533872 0.9971116692
5600266400.0 0.0235936219 0.9973079929
5650266100.0 0.0404268963 0.9966102208
5700265800.0 0.0547999003 0.9959135463
5750265500.0 0.0699041654 0.9955351992
5800265200.0 0.0833649396 0.994056547
5850264900.0 0.0965111406 0.9931457985
5900264600.0 0.113049796 0.9910480447
5950264300.0 0.1244609085 0.9898740194
6000264000.0 0.138289411 0.9880587994
6050263700.0 0.1498563907 0.9864979812
6100263400.0 0.1620393227 0.9852333878
6150263100.0 0.1763271441 0.982575003
6200262800.0 0.1860503901 0.9809389901
6250262500.0 0.1988483101 0.9786639695
6300262200.0 0.2111575476 0.9762057249
6350261900.0 0.2238371824 0.9733722896
6400261600.0 0.2378099456 0.9700828692
6450261300.0 0.2490304916 0.9677015625
6500261000.0 0.2622762402 0.964148155
6550260700.0 0.275334598 0.9599957588
6600260400.0 0.288833176 0.9561621684
6650260100.0 0.3025813144 0.9514580036
6700259800.0 0.3149975215 0.9473806841
6750259500.0 0.3285303388 0.9424198408
6800259200.0 0.3422981374 0.9374173031
6850258900.0 0.354692357 0.9320228398
6900258600.0 0.3673876929 0.9270211068
6950258300.0 0.3796759797 0.9214574165
7000258000.0 0.3914214542 0.916315566
7050257700.0 0.403351516 0.910430743
7100257400.0 0.4166810117 0.9042180464
7150257100.0 0.4271225592 0.898618471
7200256800.0 0.4404496107 0.8921754565
7250256500.0 0.4530123502 0.8852938174
7300256200.0 0.4659317729 0.8787490044
7350255900.0 0.4789817978 0.8718614663
7400255600.0 0.4926359852 0.8640382383
7450255300.0 0.5085391882 0.8551809286
7500255000.0 0.5206665772 0.8474941712
7550254700.0 0.5354204113 0.8382846686
7600254400.0 0.5477167365 0.8303036974
7650254100.0 0.5591147475 0.8221529183
7700253800.0 0.5709160722 0.8142648768
7750253500.0 0.5818125549 0.8065256001
7800253200.0 0.5925839527 0.7986432892
7850252900.0 0.6022324119 0.7913527241
7900252600.0 0.6138017256 0.7826378757
7950252300.0 0.6221402867 0.7762776125
8000252000.0 0.632209893 0.7687860379
8050251700.0 0.6424083558 0.7607619333
8100251400.0 0.6523699184 0.7527042602
8150251100.0 0.6621737024 0.744245215
8200250800.0 0.6718073655 0.7359926215
8250250500.0 0.6802552959 0.7280031863
8300250200.0 0.6899426246 0.7198463674
8350249900.0 0.6987324558 0.7110572382
8400249600.0 0.706872113 0.7030233914
8450249300.0 0.7158951843 0.6942705326
8500249000.0 0.7242467111 0.6853155433
8550248700.0 0.7326871522 0.6764833223
8600248400.0 0.7410561516 0.6668025122
8650248100.0 0.7486206543 0.6575361672
8700247800.0 0.7580604681 0.6464078987
8750247500.0 0.7661718744 0.6362107684
8800247200.0 0.7741493542 0.6260773366
8850246900.0 0.7828165695 0.6146626487
8900246600.0 0.7913343883 0.6032956723
8950246300.0 0.8001329199 0.5906015869
9000246000.0 0.8090893487 0.5786572157
9050245700.0 0.8179426501 0.5663413605
9100245400.0 0.8263410772 0.554302548
9150245100.0 0.8350189344 0.5411778669
9200244800.0 0.8441694204 0.5267612631
9250244500.0 0.8536180086 0.5119592424
9300244200.0 0.8614188432 0.4983313541
9350243900.0 0.8690963165 0.4850991316
9400243600.0 0.8757831986 0.4733765878
9450243300.0 0.881408016 0.4628118725
9500243000.0 0.8875262242 0.4511564377
9550242700.0 0.8915203228 0.4434980259
9600242400.0 0.8958582439 0.4361262233
9650242100.0 0.9000833295 0.4291777893
9700241800.0 0.9047626862 0.4207265047
9750241500.0 0.9092539961 0.412875052
9800241200.0 0.9139270453 0.4038155789
9850240900.0 0.920128883 0.3916112946
9900240600.0 0.9260237133 0.3796833465
9950240300.0 0.9330411956 0.3633366263
10000240000.0 0.9380068904 0.3508927827
10050239700.0 0.9438544307 0.3350441579
10100239400.0 0.9495800301 0.3184706437
10150239100.0 0.9540015046 0.3030543422
10200238800.0 0.9583049677 0.2875507976
10250238500.0 0.9615430163 0.2741938436
10300238200.0 0.9646734731 0.260257861
10350237900.0 0.967407477 0.2470322142
10400237600.0 0.9700861903 0.2337471567
10450237300.0 0.972984238 0.2199066625
10500237000.0 0.975102782 0.2075687102
10550236700.0 0.9774467119 0.192774624
10600236400.0 0.9792532172 0.1792626439
10650236100.0 0.9812399954 0.1650002854
10700235800.0 0.9837152875 0.1525841329
10750235500.0 0.9857399014 0.138881235
10800235200.0 0.9876587437 0.1246656223
10850234900.0 0.9897919244 0.109744974
10900234600.0 0.9916485896 0.0947840246
10950234300.0 0.9938280821 0.0810143595
11000234000.0 0.9956435714 0.0656423742
11050233700.0 0.9972945704 0.0488544481
11100233400.0 0.9989621654 0.0310157401
11150233100.0 0.9997288515 0.0144428885
11200232800.0 1.000792331 -0.0018598685
11250232500.0 1.001656544 -0.0191088101
11300232200.0 1.002509461 -0.0382853728
11350231900.0 1.001948151 -0.0539138872
11400231600.0 1.001521504 -0.0691313209
11450231300.0 1.001255924 -0.0851124406
11500231000.0 0.9993999394 -0.1018713663
11550230700.0 0.9981851942 -0.1143028034
11600230400.0 0.997087897 -0.1274797957
11650230100.0 0.9943790984 -0.1388341789
11700229800.0 0.9925797664 -0.1543266216
11750229500.0 0.9902717419 -0.1680182157
11800229200.0 0.9874692945 -0.1814070578
11850228900.0 0.9836136676 -0.1934155953
11900228600.0 0.9799079394 -0.2030887222
11950228300.0 0.9765229111 -0.2131077083
12000228000.0 0.9737754292 -0.2220410857
12050227700.0 0.9703973914 -0.2334787389
12100227400.0 0.9666010546 -0.2458793246
12150227100.0 0.9616113723 -0.262334835
12200226800.0 0.9582784826 -0.2733612405
12250226500.0 0.9537201219 -0.2855867971
12300226200.0 0.9495810718 -0.2979249549
12350225900.0 0.9442989094 -0.311988598
12400225600.0 0.9407389079 -0.3244461452
12450225300.0 0.9357158175 -0.3369857034
12500225000.0 0.9299722769 -0.3515200194
12550224700.0 0.925027669 -0.36561794
12600224400.0 0.9199341858 -0.3781868177
12650224100.0 0.9141352076 -0.3924910377
12700223800.0 0.9089921074 -0.4053855737
12750223500.0 0.9033047965 -0.418445918
12800223200.0 0.8983049018 -0.4307534076
12850222900.0 0.8927048378 -0.442980909
12900222600.0 0.8874492858 -0.4548300705
12950222300.0 0.8811475738 -0.4680801332
13000222000.0 0.8750827173 -0.4799794352
13050221700.0 0.8683499947 -0.4919524217
13100221400.0 0.8616578819 -0.5044245613
13150221100.0 0.854895954 -0.5165857702
13200220800.0 0.847986156 -0.5279609145
13250220500.0 0.8405342516 -0.5404955231
13300220200.0 0.8329614012 -0.5511527371
13350219900.0 0.8248844249 -0.5630984532
13400219600.0 0.8165019401 -0.5746865834
13450219300.0 0.8069859114 -0.5879533753
13500219000.0 0.7974271996 -0.6012214705
13550218700.0 0.7875133801 -0.6137499386
13600218400.0 0.7776121364 -0.6252856286
13650218100.0 0.7678781474 -0.6357795111
13700217800.0 0.7573627617 -0.6481732283
13750217500.0 0.7474158286 -0.6591511841
13800217200.0 0.7366372499 -0.6702086612
13850216900.0 0.7255932808 -0.6811962072
13900216600.0 0.7162814051 -0.6905200487
13950216300.0 0.7048944219 -0.7005467073
14000216000.0 0.6955118173 -0.7096562916
14050215700.0 0.6861316281 -0.7172896672
14100215400.0 0.6766413824 -0.7262794461
14150215100.0 0.6675904995 -0.7354114092
14200214800.0 0.6581594456 -0.7442513673
14250214500.0 0.6475149585 -0.7535459822
14300214200.0 0.6370603415 -0.7629678814
14350213900.0 0.6260464294 -0.7725791798
14400213600.0 0.6142937573 -0.7825382554
14450213300.0 0.6010807999 -0.7928827327
14500213000.0 0.5882832647 -0.8025842114
14550212700.0 0.5760890639 -0.8121298785
14600212400.0 0.5635217526 -0.8207846603
14650212100.0 0.5508016616 -0.8295136368
14700211800.0 0.536685989 -0.838945448
14750211500.0 0.5246429693 -0.847345508
14800211200.0 0.5124933915 -0.8555556153
14850210900.0 0.5002661511 -0.8629022257
14900210600.0 0.4867270324 -0.8709350034
14950210300.0 0.4733950101 -0.8784691356
15000210000.0 0.4608551839 -0.8852001328
15050209700.0 0.4486194218 -0.8916178986
15100209400.0 0.4357001012 -0.8975968266
15150209100.0 0.4235358741 -0.9026918343
15200208800.0 0.4105981655 -0.9079440094
15250208500.0 0.3992252867 -0.912815143
15300208200.0 0.3877977209 -0.9176892451
15350207900.0 0.3746242737 -0.9218397227
15400207600.0 0.3596026335 -0.9274276932
15450207300.0 0.3451796253 -0.9326664492
15500207000.0 0.3312564599 -0.9369539994
15550206700.0 0.3157780139 -0.9421555085
15600206400.0 0.2997677394 -0.946757556
15650206100.0 0.2840124012 -0.9510854888
15700205800.0 0.2704540013 -0.954113463
15750205500.0 0.2565136281 -0.9577812913
15800205200.0 0.2422229221 -0.9612224404
15850204900.0 0.228082792 -0.964737432
15900204600.0 0.2129973675 -0.9682867419
15950204300.0 0.1984560747 -0.9714615799
16000204000.0 0.1842441516 -0.9745235661
16050203700.0 0.1688653431 -0.9776563029
16100203400.0 0.1541881758 -0.9796125785
16150203100.0 0.1394671722 -0.9821760126
16200202800.0 0.1250427545 -0.9843463683
16250202500.0 0.1101792305 -0.9861535678
16300202200.0 0.0948414769 -0.9871437868
16350201900.0 0.0798807083 -0.9889969369
16400201600.0 0.0650734592 -0.9900890972
16450201300.0 0.0498466289 -0.991393583
16500201000.0 0.0327021527 -0.9919352421
16550200700.0 0.0167052921 -0.992500987
16600200400.0 0.0007739126 -0.9926786648
16650200100.0 -0.0152718858 -0.9927444426
16700199800.0 -0.0317146861 -0.992483854
16750199500.0 -0.0511476399 -0.991737107
16800199200.0 -0.0667392824 -0.9903789664
16850198900.0 -0.0820815745 -0.9900569852
16900198600.0 -0.0965568742 -0.9887083375
16950198300.0 -0.1103686919 -0.9869774301
17000198000.0 -0.1232258121 -0.9854565762
17050197700.0 -0.1360671886 -0.9846489021
17100197400.0 -0.1489044514 -0.9821102661
17150197100.0 -0.1614343439 -0.9802254765
17200196800.0 -0.17448671 -0.9779667621
17250196500.0 -0.1873232452 -0.9754564246
17300196200.0 -0.1996248464 -0.9729727767
17350195900.0 -0.2112348408 -0.9707635013
17400195600.0 -0.2233187532 -0.9680887778
17450195300.0 -0.2361829403 -0.9654044709
17500195000.0 -0.2494512396 -0.9621057099
17550194700.0 -0.2629678546 -0.9582829124
17600194400.0 -0.2771170511 -0.9545317002
17650194100.0 -0.2904691121 -0.9504763288
17700193800.0 -0.3032686349 -0.9466494683
17750193500.0 -0.3176531518 -0.9416808723
17800193200.0 -0.3320899874 -0.9362757262
17850192900.0 -0.3470676864 -0.931312738
17900192600.0 -0.3618192814 -0.9250218498
17950192300.0 -0.3773725564 -0.9180200121
18000192000.0 -0.3921266823 -0.9104855707
18050191700.0 -0.405992571 -0.9027547607
18100191400.0 -0.4201323369 -0.8950625188
18150191100.0 -0.4348806733 -0.8870987908
18200190800.0 -0.4515541829 -0.8778841922
18250190500.0 -0.4684476088 -0.8684276095
18300190200.0 -0.4841507995 -0.8593873069
18350189900.0 -0.4996603168 -0.8513280908
18400189600.0 -0.5136050897 -0.8426777729
18450189300.0 -0.5271824401 -0.834983138
18500189000.0 -0.5406522424 -0.826938589
18550188700.0 -0.5536428789 -0.8192679453
18600188400.0 -0.565809084 -0.8120193011
18650188100.0 -0.5767747081 -0.8053939509
18700187800.0 -0.5878503387 -0.7989828708
18750187500.0 -0.5987795108 -0.7921733438
18800187200.0 -0.6094244325 -0.7852748837
18850186900.0 -0.6193516219 -0.7784920547
18900186600.0 -0.629816633 -0.7710643702
18950186300.0 -0.6398123631 -0.7633150271
19000186000.0 -0.6474587146 -0.7571343072
19050185700.0 -0.6570719768 -0.7498799996
19100185400.0 -0.6671293515 -0.7416668287
19150185100.0 -0.6766617152 -0.7333487117
19200184800.0 -0.6856156886 -0.7245828046
19250184500.0 -0.6966181085 -0.7165347508
19300184200.0 -0.708764552 -0.7061407129
19350183900.0 -0.7187010354 -0.6964492599
19400183600.0 -0.7287100649 -0.6869245577
19450183300.0 -0.7373326675 -0.6765967186
19500183000.0 -0.7458049083 -0.6665181127
19550182700.0 -0.7552715018 -0.6552828527
19600182400.0 -0.7659280967 -0.6435854563
19650182100.0 -0.7758445884 -0.6317762671
19700181800.0 -0.7863472355 -0.6183238839
19750181500.0 -0.7971162489 -0.6042579288
19800181200.0 -0.8071276768 -0.5894898086
19850180900.0 -0.8167607206 -0.5741501645
19900180600.0 -0.8244461068 -0.5593798039
19950180300.0 -0.8335693322 -0.5432705031
20000180000.0 -0.8238345162 -0.5468184985
20050179700.0 -0.8314049114 -0.5345597484
20100179400.0 -0.8394080326 -0.521087818
20150179100.0 -0.8476637233 -0.5091771465
20200178800.0 -0.8564096087 -0.4978929889
20250178500.0 -0.8659055289 -0.4854745818
20300178200.0 -0.8753126997 -0.4715426657
20350177900.0 -0.8848047682 -0.4573063009
20400177600.0 -0.8937895366 -0.4431728017
20450177300.0 -0.9020263711 -0.4290398039
20500177000.0 -0.9101427443 -0.4150507489
20550176700.0 -0.9184284335 -0.4016247125
20600176400.0 -0.9251610619 -0.3889180682
20650176100.0 -0.9315512653 -0.3765673657
20700175800.0 -0.9387913344 -0.3644176529
20750175500.0 -0.9440851253 -0.3526893624
20800175200.0 -0.9490080508 -0.342076203
20850174900.0 -0.9542536028 -0.3316354056
20900174600.0 -0.9582108682 -0.3207951297
20950174300.0 -0.9612424617 -0.3100247973
21000174000.0 -0.9644604793 -0.2990544239
21050173700.0 -0.9661415459 -0.2892549782
21100173400.0 -0.9698816908 -0.2779718426
21150173100.0 -0.9732913554 -0.266161968
21200172800.0 -0.9767839087 -0.2529261123
21250172500.0 -0.9807271367 -0.238992299
21300172200.0 -0.9843746067 -0.2255521228
21350171900.0 -0.9861731459 -0.2110448418
21400171600.0 -0.9875945852 -0.1969428496
21450171300.0 -0.9892895357 -0.1826799803
21500171000.0 -0.988569521 -0.1676223087
21550170700.0 -0.9890578858 -0.1530057804
21600170400.0 -0.9902060708 -0.1375099011
21650170100.0 -0.9911534164 -0.1217856977
21700169800.0 -0.989595272 -0.1056700258
21750169500.0 -0.9901355298 -0.0894048849
21800169200.0 -0.9895665142 -0.0735216799
21850168900.0 -0.989085721 -0.0574911777
21900168600.0 -0.9899099809 -0.0405264272
21950168300.0 -0.9888927109 -0.024831633
22000168000.0 -0.9890500515 -0.0097129381
22050167700.0 -0.9890958613 0.00484751
22100167400.0 -0.9899229781 0.0203130191
22150167100.0 -0.9913514342 0.0363376172
22200166800.0 -0.9914543233 0.053224642
22250166500.0 -0.9903575143 0.0705485448
22300166200.0 -0.9900003823 0.0868154306
22350165900.0 -0.988704429 0.1031563745
22400165600.0 -0.9872649125 0.1184312364
22450165300.0 -0.9870149847 0.1327540155
22500165000.0 -0.9847239941 0.1473188307
22550164700.0 -0.9820392796 0.1638643085
22600164400.0 -0.9804967942 0.1799893975
22650164100.0 -0.9780015062 0.196518633
22700163800.0 -0.9748260209 0.2125203412
22750163500.0 -0.9716962327 0.2269860772
22800163200.0 -0.9683838465 0.2400951444
22850162900.0 -0.966288743 0.2533759933
22900162600.0 -0.9642593395 0.2673310511
22950162300.0 -0.9623882268 0.2808696244
23000162000.0 -0.9610899074 0.293468717
23050161700.0 -0.9582955073 0.3070141446
23100161400.0 -0.9559957883 0.3206408046
23150161100.0 -0.9525220899 0.3332695665
23200160800.0 -0.9496461988 0.3458612219
23250160500.0 -0.9462243051 0.3577833235
23300160200.0 -0.9444866836 0.3714359947
23350159900.0 -0.9399724997 0.3845569575
23400159600.0 -0.9352592303 0.398370439
23450159300.0 -0.9302306446 0.41219764
23500159000.0 -0.9251786894 0.4257762182
23550158700.0 -0.9204462763 0.43997759
23600158400.0 -0.9141816896 0.4539600016
23650158100.0 -0.9070054942 0.46850747
23700157800.0 -0.8986364848 0.4827952699
23750157500.0 -0.8894860976 0.4970226882
23800157200.0 -0.8798301635 0.5106906692
23850156900.0 -0.8699472891 0.523369563
23900156600.0 -0.8599547835 0.5359825986
23950156300.0 -0.8508920416 0.5488298235
24000156000.0 -0.8408718058 0.5605809681
24050155700.0 -0.8303980889 0.5723512607
24100155400.0 -0.8199563829 0.5860501973
24150155100.0 -0.8089712087 0.5977032628
24200154800.0 -0.7979198693 0.6092500565
24250154500.0 -0.7866316864 0.6221122363
24300154200.0 -0.7749090364 0.6334585388
24350153900.0 -0.7633471983 0.6446873914
24400153600.0 -0.75055812 0.6556241891
24450153300.0 -0.7387647835 0.6653322949
24500153000.0 -0.726965582 0.6750242749
24550152700.0 -0.7163867117 0.6854062122
24600152400.0 -0.7038340913 0.6946404465
24650152100.0 -0.6904991742 0.7035708583
