!Created with skrf (http://scikit-rf.org).
# Hz S RI R 50.0 
!freq ReS11 ImS11
300000.0 -0.9759191559 -0.118083338
50299700.0 -0.9999540302 0.0153254378
100299400.0 -0.9979231585 0.0283589145
150299100.0 -1.002900145 0.0451437415
200298800.0 -0.9996419333 0.0584299259
250298500.0 -0.9974308411 0.0720230268
300298200.0 -0.9858666103 0.0877798745
350297900.0 -0.9940345588 0.0985375081
400297600.0 -0.9932482074 0.1151559331
450297300.0 -0.9910548743 0.1290068909
500297000.0 -0.9895111404 0.1437231063
550296700.0 -0.9843600356 0.1563076135
600296400.0 -1.017302799 0.1894787585
650296100.0 -0.9822323362 0.1861389735
700295800.0 -0.9793476636 0.2003939396
750295500.0 -0.9765145367 0.2145520774
800295200.0 -0.9728655353 0.2286468896
850294900.0 -0.9697018192 0.2422774565
900294600.0 -0.9658515402 0.2559823321
950294300.0 -0.9620534013 0.269623241
1000294000.0 -0.9581029218 0.2837189574
1050293700.0 -0.9536611436 0.2975173851
1100293400.0 -0.9491452907 0.3119703252
1150293100.0 -0.9454348151 0.3237700657
1200292800.0 -0.9400597358 0.3380731722
1250292500.0 -0.9346638926 0.3515594702
1300292200.0 -0.9291128368 0.3648827941
1350291900.0 -0.923563839 0.3787237798
1400291600.0 -0.9178729285 0.3920469048
1450291300.0 -0.9125414593 0.4044501848
1500291000.0 -0.9060628024 0.4176873934
1550290700.0 -0.8996746474 0.4311587955
1600290400.0 -0.8934392475 0.4439573863
1650290100.0 -0.8868485689 0.4562862744
1700289800.0 -0.8797645096 0.4695759485
1750289500.0 -0.8728571901 0.4817298675
1800289200.0 -0.8655080577 0.4948087852
1850288900.0 -0.8586577004 0.5061956252
1900288600.0 -0.8512783234 0.5192753416
1950288300.0 -0.8427708838 0.5317704482
2000288000.0 -0.8352312573 0.5431456566
2050287700.0 -0.8272639987 0.5554880672
2100287400.0 -0.8192634601 0.5669783916
2150287100.0 -0.8107538458 0.5792933981
2200286800.0 -0.8028555072 0.5894009032
2250286500.0 -0.7940501013 0.6015029233
2300286200.0 -0.7853705326 0.6131822068
2350285900.0 -0.7764964601 0.6240405459
2400285600.0 -0.7675892137 0.6350698233
2450285300.0 -0.7588952667 0.6453333945
2500285000.0 -0.749232304 0.6567254932
2550284700.0 -0.7404006809 0.6672060777
2600284400.0 -0.7309298888 0.6770692531
2650284100.0 -0.7219458688 0.6875569949
2700283800.0 -0.7115015055 0.6983436244
2750283500.0 -0.7010430401 0.7088315639
2800283200.0 -0.6914136921 0.7185712834
2850282900.0 -0.6809436747 0.7282192924
2900282600.0 -0.6706046472 0.7379386469
2950282300.0 -0.660354094 0.7470798206
3000282000.0 -0.6497032669 0.7567021389
3050281700.0 -0.6384977311 0.7659158166
3100281400.0 -0.6266656898 0.7752286335
3150281100.0 -0.6149209814 0.7847077029
3200280800.0 -0.6032974289 0.7933126836
3250280500.0 -0.5925737843 0.8009388721
3300280200.0 -0.5812877 0.8087438111
3350279900.0 -0.5696428673 0.8163700077
3400279600.0 -0.5574167955 0.8242087649
3450279300.0 -0.5464016704 0.831327469
3500279000.0 -0.5340603751 0.838253687
3550278700.0 -0.5219116035 0.8456439998
3600278400.0 -0.5096184095 0.8526181312
3650278100.0 -0.4966411748 0.86035149
3700277800.0 -0.4843181197 0.866782777
3750277500.0 -0.4723553451 0.8733622131
3800277200.0 -0.4599352047 0.8798023386
3850276900.0 -0.4475793531 0.8860101112
3900276600.0 -0.4367485341 0.891421712
3950276300.0 -0.4244031817 0.897359795
4000276000.0 -0.4125967572 0.9034135397
4050275700.0 -0.3996952664 0.9094144036
4100275400.0 -0.388462068 0.9148470693
4150275100.0 -0.3756462972 0.9207165296
4200274800.0 -0.3626572823 0.9261552974
4250274500.0 -0.3503468911 0.9316898864
4300274200.0 -0.3375017382 0.9365218596
4350273900.0 -0.3237227216 0.9417510289
4400273600.0 -0.3088200829 0.9472514887
4450273300.0 -0.2935697459 0.9520662029
4500273000.0 -0.2800506804 0.9564812294
4550272700.0 -0.2658260742 0.9607540551
4600272400.0 -0.2502642685 0.9651508386
4650272100.0 -0.2388417555 0.9682179882
4700271800.0 -0.2254486026 0.9715258567
4750271500.0 -0.213871327 0.9742730006
4800271200.0 -0.2012032598 0.9771785586
4850270900.0 -0.1873298205 0.9800797255
4900270600.0 -0.1733237236 0.9822232344
4950270300.0 -0.1590941427 0.9848471828
5000270000.0 -0.1448877311 0.9870865108
5050269700.0 -0.1313843563 0.9886870705
5100269400.0 -0.1177440959 0.9901963313
5150269100.0 -0.1042789055 0.9918969286
5200268800.0 -0.0911100812 0.9930220145
5250268500.0 -0.0777262334 0.9939510814
5300268200.0 -0.0647236992 0.9944662562
5350267900.0 -0.0523868058 0.9952464462
5400267600.0 -0.0360283637 0.9964923937
5450267300.0 -0.0232206259 0.9966423023
5500267000.0 -0.0079799668 0.9970185186
5550266700.0 0.0068890588 0.9971326702
5600266400.0 0.0226923422 0.9972532858
5650266100.0 0.0389838102 0.9967740264
5700265800.0 0.0535587335 0.9960438183
5750265500.0 0.0686799943 0.9954981414
5800265200.0 0.0824797743 0.9944832377
5850264900.0 0.0958847399 0.9935880705
5900264600.0 0.1122194609 0.9919133622
5950264300.0 0.1244304129 0.9901863306
6000264000.0 0.1382904895 0.9881017232
6050263700.0 0.1507264124 0.9870835229
6100263400.0 0.1631555733 0.9847244747
6150263100.0 0.1777206758 0.9825310412
6200262800.0 0.1879337028 0.9809347474
6250262500.0 0.2005023284 0.9784945719
6300262200.0 0.2134474323 0.9758460612
6350261900.0 0.2266198974 0.9729068057
6400261600.0 0.2401112618 0.9695237999
6450261300.0 0.2516704832 0.9669226913
6500261000.0 0.2644313431 0.9631997025
6550260700.0 0.2770080154 0.9592504874
6600260400.0 0.2907814665 0.9552401725
6650260100.0 0.3047789193 0.9509264432
6700259800.0 0.3164091645 0.9465973244
6750259500.0 0.3304125168 0.9415411596
6800259200.0 0.3436146327 0.9367370633
6850258900.0 0.3554897508 0.9313846445
6900258600.0 0.3679691655 0.9266994321
6950258300.0 0.3802431696 0.9211883246
7000258000.0 0.3924940646 0.9160154257
7050257700.0 0.4047765917 0.9097840117
7100257400.0 0.4177335254 0.9035388299
7150257100.0 0.427856691 0.8983190321
7200256800.0 0.4408667562 0.891834012
7250256500.0 0.4529110048 0.8854803556
7300256200.0 0.4658313432 0.8783845808
7350255900.0 0.4784559737 0.8718876813
7400255600.0 0.4915389708 0.8647877078
7450255300.0 0.5069415273 0.8553724715
7500255000.0 0.5185813554 0.848427677
7550254700.0 0.5325120191 0.8399156518
7600254400.0 0.5449142383 0.8313297144
7650254100.0 0.5565800198 0.8240576919
7700253800.0 0.5684388001 0.8158824082
7750253500.0 0.5798471655 0.8081903715
7800253200.0 0.5900910814 0.8007015226
7850252900.0 0.6001346588 0.7933963327
7900252600.0 0.6117139647 0.7846661849
7950252300.0 0.6205084047 0.7781847803
8000252000.0 0.6306501133 0.7705749799
8050251700.0 0.6410625901 0.7621915976
8100251400.0 0.6511577746 0.7543187406
8150251100.0 0.661142863 0.7455844297
8200250800.0 0.6707453852 0.7377138806
8250250500.0 0.6794530621 0.72984896
8300250200.0 0.6888388174 0.7211586389
8350249900.0 0.6978586268 0.7126660783
8400249600.0 0.7063244847 0.7043992649
8450249300.0 0.7152960412 0.6953765929
8500249000.0 0.7238427094 0.686485194
8550248700.0 0.7324235447 0.6772724736
8600248400.0 0.7405723993 0.6677654131
8650248100.0 0.7482365625 0.6583677125
8700247800.0 0.7578923086 0.6470676455
8750247500.0 0.7663049104 0.6368922411
8800247200.0 0.7743516495 0.6265559404
8850246900.0 0.7830145089 0.615425314
8900246600.0 0.7916832585 0.6037030323
8950246300.0 0.801294011 0.5906769982
9000246000.0 0.8104513581 0.5781866875
9050245700.0 0.8193696652 0.5655882071
9100245400.0 0.8281482276 0.552719491
9150245100.0 0.83757608 0.5393290026
9200244800.0 0.8470871831 0.5242655308
9250244500.0 0.8565617349 0.5088430764
9300244200.0 0.8648563703 0.4943416549
9350243900.0 0.8726907741 0.4805301975
9400243600.0 0.8792627568 0.4681633867
9450243300.0 0.8849960636 0.4568184619
9500243000.0 0.8913507596 0.4444892694
9550242700.0 0.8952352804 0.4366552801
9600242400.0 0.8993186833 0.4294085223
9650242100.0 0.9027582469 0.4230158759
9700241800.0 0.9075371194 0.4147195766
9750241500.0 0.9112526075 0.407280032
9800241200.0 0.9162724267 0.398241074
9850240900.0 0.9218807115 0.3862089895
9900240600.0 0.927795347 0.37449921
9950240300.0 0.9342266383 0.3586993556
10000240000.0 0.9383719364 0.347090931
10050239700.0 0.9444642966 0.3319495692
10100239400.0 0.9493621158 0.3164433813
10150239100.0 0.9538243435 0.3016869435
10200238800.0 0.9579899388 0.2865627616
10250238500.0 0.9614699869 0.2728707584
10300238200.0 0.9647825737 0.2591059139
10350237900.0 0.9672303079 0.2459583185
10400237600.0 0.9698130392 0.2322868968
10450237300.0 0.9723695262 0.2190791614
10500237000.0 0.9748483338 0.206637553
10550236700.0 0.9769122446 0.1926369717
10600236400.0 0.9791169106 0.1787176916
10650236100.0 0.9812851876 0.1641199667
10700235800.0 0.983699988 0.1517242106
10750235500.0 0.9856621587 0.1385422766
10800235200.0 0.9877403793 0.1244400652
10850234900.0 0.9895568328 0.1100432358
10900234600.0 0.9915771175 0.0952548128
10950234300.0 0.9933277281 0.0821250063
11000234000.0 0.9951086967 0.0669275795
11050233700.0 0.9969608556 0.0505853635
11100233400.0 0.9984355963 0.0332864354
11150233100.0 0.9996122101 0.0169271499
11200232800.0 1.000139093 0.0017100554
11250232500.0 1.001639002 -0.014978247
11300232200.0 1.001473845 -0.0319966401
11350231900.0 1.00164036 -0.0484313253
11400231600.0 1.001712658 -0.0642629761
11450231300.0 1.000795748 -0.0799177837
11500231000.0 0.9999723246 -0.0963438104
11550230700.0 0.9983818078 -0.1086566958
11600230400.0 0.9970830389 -0.1208675603
11650230100.0 0.9953402224 -0.1330582554
11700229800.0 0.9934073803 -0.1472580492
11750229500.0 0.9911817317 -0.1621681619
11800229200.0 0.9882838477 -0.1756958821
11850228900.0 0.9848134678 -0.1877777736
11900228600.0 0.9812282223 -0.1976627217
11950228300.0 0.9779873386 -0.2076804849
12000228000.0 0.9750545373 -0.2170912386
12050227700.0 0.9717065821 -0.2296482171
12100227400.0 0.9686615544 -0.2410217832
12150227100.0 0.9641516325 -0.2573451305
12200226800.0 0.9594698838 -0.2683750325
12250226500.0 0.955998215 -0.2815274625
12300226200.0 0.9512956015 -0.2944777745
12350225900.0 0.9463364765 -0.3077649306
12400225600.0 0.9423661906 -0.3200714419
12450225300.0 0.937961349 -0.3336936565
12500225000.0 0.9322743614 -0.3482208187
12550224700.0 0.9268856351 -0.3621288391
12600224400.0 0.9221716279 -0.3749707126
12650224100.0 0.916184589 -0.3893398965
12700223800.0 0.9110947721 -0.4021924927
12750223500.0 0.9056334424 -0.4151152951
12800223200.0 0.9000485896 -0.4278284991
12850222900.0 0.8947883796 -0.4402004193
12900222600.0 0.8889199106 -0.4524864498
12950222300.0 0.8831423065 -0.464586778
13000222000.0 0.8768356534 -0.4764781317
13050221700.0 0.8702778318 -0.4892211889
13100221400.0 0.8635097787 -0.5015189066
13150221100.0 0.8567477745 -0.5131373587
13200220800.0 0.8497440388 -0.52496956
13250220500.0 0.8423475774 -0.5369768186
13300220200.0 0.8352013133 -0.5473444856
13350219900.0 0.8271836459 -0.5595229292
13400219600.0 0.8188326805 -0.5715718222
13450219300.0 0.8095819797 -0.5850568191
13500219000.0 0.7993956983 -0.5985255067
13550218700.0 0.7892947529 -0.6117125601
13600218400.0 0.779187718 -0.6232716039
13650218100.0 0.7702320017 -0.6342000807
13700217800.0 0.7584608417 -0.6476453327
13750217500.0 0.7485315287 -0.6581849859
13800217200.0 0.7370985637 -0.6701072623
13850216900.0 0.7264303086 -0.6815905838
13900216600.0 0.7164457781 -0.6902731089
13950216300.0 0.7057986536 -0.7011141305
14000216000.0 0.6957736578 -0.709980441
14050215700.0 0.6868228358 -0.7180525664
14100215400.0 0.6763439687 -0.7279335509
14150215100.0 0.6669148351 -0.7359537274
14200214800.0 0.6577573266 -0.7448741327
14250214500.0 0.6475640659 -0.753998914
14300214200.0 0.6369042553 -0.7633543457
14350213900.0 0.6259394025 -0.7731244159
14400213600.0 0.6141378037 -0.7828462248
14450213300.0 0.6007237424 -0.7928023338
14500213000.0 0.5880280388 -0.8031244263
14550212700.0 0.57547859 -0.8127246451
14600212400.0 0.562662136 -0.821212308
14650212100.0 0.5496181708 -0.829920833
14700211800.0 0.5357468171 -0.8395955135
14750211500.0 0.5241166154 -0.8477357718
14800211200.0 0.5116512898 -0.8555672762
14850210900.0 0.4997959462 -0.8631585896
14900210600.0 0.4864852306 -0.8712636967
14950210300.0 0.4730088532 -0.8788055763
15000210000.0 0.4603166283 -0.885564837
15050209700.0 0.4482310907 -0.8914683899
15100209400.0 0.4354276694 -0.8975373805
15150209100.0 0.4231393073 -0.9028648122
15200208800.0 0.4103312961 -0.90855297
15250208500.0 0.398976179 -0.9130151423
15300208200.0 0.3863781026 -0.9171144833
15350207900.0 0.3730124389 -0.9224102068
15400207600.0 0.358633663 -0.9273304592
15450207300.0 0.3447008487 -0.932694183
15500207000.0 0.3294313348 -0.9374662443
15550206700.0 0.315104211 -0.9425412461
15600206400.0 0.29912891 -0.947058349
15650206100.0 0.2832940661 -0.9516784209
15700205800.0 0.2696119652 -0.9546130211
15750205500.0 0.2550028447 -0.9584986593
15800205200.0 0.2403946363 -0.9620045261
15850204900.0 0.2260182129 -0.9654289382
15900204600.0 0.2111762527 -0.969150183
15950204300.0 0.197000802 -0.9719125569
16000204000.0 0.1828983802 -0.9753059172
16050203700.0 0.1680205712 -0.9778148195
16100203400.0 0.1528337265 -0.9804161313
16150203100.0 0.1385392286 -0.9828554407
16200202800.0 0.1245855745 -0.9844821768
16250202500.0 0.1102525966 -0.9860113489
16300202200.0 0.0945830828 -0.9877673721
16350201900.0 0.0797354418 -0.9890708304
16400201600.0 0.0649704198 -0.9901903203
16450201300.0 0.0497197853 -0.9912724737
16500201000.0 0.0329583217 -0.9920512131
16550200700.0 0.0173688052 -0.9924547824
16600200400.0 0.0017115197 -0.9929648378
16650200100.0 -0.0143871163 -0.9926162252
16700199800.0 -0.0309737684 -0.9921316141
16750199500.0 -0.0494157545 -0.9912003402
16800199200.0 -0.0649514715 -0.9906059775
16850198900.0 -0.0800877562 -0.9896360785
16900198600.0 -0.0942840351 -0.9890283727
16950198300.0 -0.1082085563 -0.9866261244
17000198000.0 -0.1205995754 -0.9860786448
17050197700.0 -0.1327260996 -0.9838421517
17100197400.0 -0.1466806761 -0.9823235789
17150197100.0 -0.1586674388 -0.9799505719
17200196800.0 -0.1718409999 -0.9781051907
17250196500.0 -0.1847918009 -0.9759985649
17300196200.0 -0.1969744847 -0.9736632606
17350195900.0 -0.2088045639 -0.971160696
17400195600.0 -0.2207107442 -0.9686399133
17450195300.0 -0.2340291932 -0.9659759522
17500195000.0 -0.2473842457 -0.9627286156
17550194700.0 -0.2614638859 -0.9591509176
17600194400.0 -0.2755073417 -0.9549720255
17650194100.0 -0.2890191612 -0.9508695585
17700193800.0 -0.3021531143 -0.9466163071
17750193500.0 -0.3165108479 -0.9420549612
17800193200.0 -0.3306571009 -0.9370510696
17850192900.0 -0.3459998922 -0.9313341319
17900192600.0 -0.3614019039 -0.9254631579
17950192300.0 -0.3766565126 -0.9183517584
18000192000.0 -0.3914232614 -0.911111067
18050191700.0 -0.4052068225 -0.9033077043
18100191400.0 -0.4194686418 -0.8955342394
18150191100.0 -0.4343677975 -0.8876841241
18200190800.0 -0.4513164017 -0.8785581376
18250190500.0 -0.4683918179 -0.8690337782
18300190200.0 -0.4836230181 -0.8603724654
18350189900.0 -0.4992696978 -0.8521986822
18400189600.0 -0.5131694899 -0.8434409343
18450189300.0 -0.526488126 -0.8359511782
18500189000.0 -0.5393948294 -0.8278448656
18550188700.0 -0.5521927415 -0.8202529838
18600188400.0 -0.5644214185 -0.8136303783
18650188100.0 -0.575382193 -0.8071674632
18700187800.0 -0.5861800337 -0.800306872
18750187500.0 -0.5966385415 -0.7939809772
18800187200.0 -0.6071342426 -0.7870548547
18850186900.0 -0.6173411145 -0.7799861928
18900186600.0 -0.6275638638 -0.7727856087
18950186300.0 -0.6374931627 -0.7651818836
19000186000.0 -0.6447818323 -0.7588232256
19050185700.0 -0.6538220409 -0.7517603391
19100185400.0 -0.6635241993 -0.7441276862
19150185100.0 -0.6733898793 -0.7349638477
19200184800.0 -0.6828670466 -0.727393059
19250184500.0 -0.6926627406 -0.7174642012
19300184200.0 -0.705072859 -0.7078707451
19350183900.0 -0.7156067566 -0.6985919695
19400183600.0 -0.7252419347 -0.6886791446
19450183300.0 -0.7339440488 -0.6780640254
19500183000.0 -0.7425109677 -0.6679050219
19550182700.0 -0.7521058019 -0.6571209064
19600182400.0 -0.7627899393 -0.6455201298
19650182100.0 -0.7736586273 -0.6334374326
19700181800.0 -0.7843870748 -0.6200322257
19750181500.0 -0.7949748371 -0.6059251346
19800181200.0 -0.805436058 -0.5910127181
19850180900.0 -0.8149473542 -0.5756415261
19900180600.0 -0.8229885822 -0.5610409892
19950180300.0 -0.8321926437 -0.5448423784
20000180000.0 -0.8252945054 -0.5469379502
20050179700.0 -0.8330524778 -0.5340476388
20100179400.0 -0.842545245 -0.5201100967
20150179100.0 -0.8503634012 -0.5084809074
20200178800.0 -0.8586311385 -0.4946568202
20250178500.0 -0.8696615985 -0.4811095553
20300178200.0 -0.8780071764 -0.467263793
20350177900.0 -0.8871914807 -0.4531474839
20400177600.0 -0.8962902111 -0.4384136783
20450177300.0 -0.9047155948 -0.4239574594
20500177000.0 -0.9124634351 -0.4099697695
20550176700.0 -0.9204572493 -0.3964251288
20600176400.0 -0.9273671547 -0.3835891026
20650176100.0 -0.93427223 -0.3710767979
20700175800.0 -0.9404740765 -0.3591264009
20750175500.0 -0.9474674274 -0.3481559364
20800175200.0 -0.9519301708 -0.3378009216
20850174900.0 -0.9564555206 -0.3254931419
20900174600.0 -0.9614514378 -0.3142112505
20950174300.0 -0.965365244 -0.3027543703
21000174000.0 -0.9679657726 -0.2921407417
21050173700.0 -0.9706498841 -0.2813502535
21100173400.0 -0.9748888801 -0.2693979975
21150173100.0 -0.9792866226 -0.2570581356
21200172800.0 -0.9824722001 -0.2439648102
21250172500.0 -0.9862301176 -0.2294847814
21300172200.0 -0.9883703562 -0.2157482762
21350171900.0 -0.9900358014 -0.2012181826
21400171600.0 -0.9924090841 -0.1873330005
21450171300.0 -0.9918966252 -0.1729664916
21500171000.0 -0.9921316004 -0.1568822453
21550170700.0 -0.9924746945 -0.1416650047
21600170400.0 -0.991848103 -0.1256248629
21650170100.0 -0.990498301 -0.1098093402
21700169800.0 -0.9901754822 -0.0940580672
21750169500.0 -0.988419016 -0.0791125943
21800169200.0 -0.9880254177 -0.0631461015
21850168900.0 -0.9882028663 -0.0461440409
21900168600.0 -0.9863002503 -0.0295939135
21950168300.0 -0.9853981634 -0.013518983
22000168000.0 -0.9838177981 0.0013598117
22050167700.0 -0.9841305411 0.0155768112
22100167400.0 -0.9841497016 0.0309136751
22150167100.0 -0.9852285695 0.0465416361
22200166800.0 -0.9857069264 0.0629761533
22250166500.0 -0.9847348675 0.0806289286
22300166200.0 -0.9845717182 0.0967365118
22350165900.0 -0.9825242142 0.1129638366
22400165600.0 -0.9810755062 0.1282881437
22450165300.0 -0.9795552272 0.1433339638
22500165000.0 -0.9764807541 0.1585833507
22550164700.0 -0.9764401752 0.1732354118
22600164400.0 -0.9749878941 0.1877981048
22650164100.0 -0.9724864272 0.2028668729
22700163800.0 -0.9693364682 0.219654373
22750163500.0 -0.9676520856 0.2345593095
22800163200.0 -0.9639669932 0.2472530494
22850162900.0 -0.9616246631 0.2606877776
22900162600.0 -0.9603433824 0.274140786
22950162300.0 -0.9593064376 0.2867468293
23000162000.0 -0.9576985919 0.299001335
23050161700.0 -0.9556382547 0.3109614331
23100161400.0 -0.9534602658 0.3246680731
23150161100.0 -0.9504826988 0.3365936966
23200160800.0 -0.9476835243 0.3495516038
23250160500.0 -0.9454900116 0.3600947295
23300160200.0 -0.9428122978 0.3729333319
23350159900.0 -0.9384155768 0.3865084385
23400159600.0 -0.9341885799 0.3989038689
23450159300.0 -0.9288732481 0.4127441297
23500159000.0 -0.9242550746 0.4257303014
23550158700.0 -0.9198512682 0.4389576379
23600158400.0 -0.9146358462 0.4525978743
23650158100.0 -0.9081855734 0.4667781139
23700157800.0 -0.900662305 0.4807484158
23750157500.0 -0.8924983425 0.4946231266
23800157200.0 -0.8833664414 0.5077589468
23850156900.0 -0.8748236057 0.5206479845
23900156600.0 -0.8650385128 0.533346223
23950156300.0 -0.8560562347 0.546032907
24000156000.0 -0.8473862618 0.5581234602
24050155700.0 -0.8361126284 0.5701036707
24100155400.0 -0.827072616 0.5819751968
24150155100.0 -0.8164054896 0.5933722401
24200154800.0 -0.8052312633 0.6047663984
24250154500.0 -0.794153477 0.6163947441
24300154200.0 -0.7827899937 0.6278975136
24350153900.0 -0.7709783461 0.6385512248
24400153600.0 -0.7587642188 0.6489293113
24450153300.0 -0.7470707271 0.6590384267
24500153000.0 -0.7356873847 0.6686056191
24550152700.0 -0.7243667924 0.6783596177
24600152400.0 -0.7128042631 0.6870117479
