!Created with skrf (http://scikit-rf.org).
# Hz S RI R 50.0 
!freq ReS11 ImS11
300000.0 -0.9836814409 -0.090046844
50299700.0 -1.000057976 0.0165993018
100299400.0 -0.9979289775 0.0293918523
150299100.0 -1.0027349 0.0461750256
200298800.0 -0.9996488239 0.0594188872
250298500.0 -0.9974484904 0.0730006841
300298200.0 -0.9859961708 0.0887235302
350297900.0 -0.9939470248 0.0997945388
400297600.0 -0.9930682105 0.1162403269
450297300.0 -0.9908885984 0.1302820023
500297000.0 -0.989127287 0.1447693288
550296700.0 -0.9841312576 0.157446852
600296400.0 -1.017049793 0.190726152
650296100.0 -0.9818048985 0.1871538988
700295800.0 -0.9790059677 0.2015572711
750295500.0 -0.9759924776 0.2157679123
800295200.0 -0.9725373192 0.2296985512
850294900.0 -0.9693496934 0.2437306945
900294600.0 -0.9653142083 0.2572538964
950294300.0 -0.961557352 0.2709452402
1000294000.0 -0.9577683168 0.2849050364
1050293700.0 -0.9531209388 0.2990129499
1100293400.0 -0.9487737394 0.3132123631
1150293100.0 -0.9449220128 0.3249556844
1200292800.0 -0.9395526507 0.3393123373
1250292500.0 -0.9341397571 0.3527718833
1300292200.0 -0.9282325411 0.36620713
1350291900.0 -0.9228738571 0.3800439745
1400291600.0 -0.9175207062 0.3929296911
1450291300.0 -0.9121776055 0.4054151237
1500291000.0 -0.9057682527 0.4186102788
1550290700.0 -0.8992271885 0.4318532408
1600290400.0 -0.8929216385 0.444805256
1650290100.0 -0.8862974086 0.4569993941
1700289800.0 -0.8794916488 0.4703955076
1750289500.0 -0.8724355234 0.4826290247
1800289200.0 -0.8651344165 0.4955511413
1850288900.0 -0.8581976482 0.5070155802
1900288600.0 -0.8505861826 0.5197799813
1950288300.0 -0.842309054 0.5324627483
2000288000.0 -0.834952687 0.5440508618
2050287700.0 -0.8265769212 0.5562664752
2100287400.0 -0.818610723 0.5679541351
2150287100.0 -0.809950698 0.5800409875
2200286800.0 -0.8024900915 0.5904239643
2250286500.0 -0.7934564405 0.6024905263
2300286200.0 -0.7844199783 0.613878782
2350285900.0 -0.7754626084 0.6252215326
2400285600.0 -0.7665042277 0.6361328369
2450285300.0 -0.7577614178 0.6464743333
2500285000.0 -0.7482409827 0.6579349081
2550284700.0 -0.7391975399 0.6681956895
2600284400.0 -0.729533953 0.6781149895
2650284100.0 -0.7206523062 0.6886477184
2700283800.0 -0.7100364502 0.699358126
2750283500.0 -0.6997557744 0.7098824363
2800283200.0 -0.6900651817 0.7195871172
2850282900.0 -0.6799901575 0.7291695197
2900282600.0 -0.6696306881 0.7388156047
2950282300.0 -0.6592967162 0.7481111573
3000282000.0 -0.6486910176 0.7575390788
3050281700.0 -0.6373895632 0.7668818398
3100281400.0 -0.6257396708 0.776107131
3150281100.0 -0.6139489708 0.7853128634
3200280800.0 -0.6023722584 0.7938435684
3250280500.0 -0.5915567311 0.8017265399
3300280200.0 -0.5805996573 0.8094980064
3350279900.0 -0.5689837204 0.8170019616
3400279600.0 -0.5568989874 0.824763277
3450279300.0 -0.5457996474 0.831911204
3500279000.0 -0.5336906894 0.8388529299
3550278700.0 -0.5213385007 0.8461661583
3600278400.0 -0.5092400515 0.8534407737
3650278100.0 -0.4959006913 0.8610034048
3700277800.0 -0.4838170568 0.867421141
3750277500.0 -0.4716191313 0.874107833
3800277200.0 -0.458889174 0.8805389239
3850276900.0 -0.446841514 0.8863157941
3900276600.0 -0.4357778258 0.8922476673
3950276300.0 -0.4232130636 0.8982029252
4000276000.0 -0.4109896552 0.9042034167
4050275700.0 -0.3980252641 0.910551096
4100275400.0 -0.3866363707 0.9154362958
4150275100.0 -0.3740883608 0.9213622456
4200274800.0 -0.361074419 0.9266835753
4250274500.0 -0.3483733565 0.9319011603
4300274200.0 -0.3356590581 0.9372123158
4350273900.0 -0.3215323966 0.9422060377
4400273600.0 -0.3068970082 0.9474833576
4450273300.0 -0.2916568285 0.9526106089
4500273000.0 -0.2780541359 0.9569980824
4550272700.0 -0.2640252528 0.9612221915
4600272400.0 -0.2484720862 0.9652244369
4650272100.0 -0.2366734253 0.9684748004
4700271800.0 -0.2233627089 0.9717546936
4750271500.0 -0.2115591083 0.9746406898
4800271200.0 -0.1990027556 0.9773340032
4850270900.0 -0.1850803268 0.9801363021
4900270600.0 -0.1712386841 0.9825630167
4950270300.0 -0.1573883537 0.985255144
5000270000.0 -0.1430606673 0.9874009145
5050269700.0 -0.1297553762 0.9889335778
5100269400.0 -0.1162148105 0.9905903967
5150269100.0 -0.1028942543 0.9923833369
5200268800.0 -0.0897590447 0.9930888313
5250268500.0 -0.0766017997 0.9942238549
5300268200.0 -0.063686855 0.9947135228
5350267900.0 -0.0514494949 0.9955986692
5400267600.0 -0.0354125383 0.9964699085
5450267300.0 -0.0223577973 0.9969107296
5500267000.0 -0.007193512 0.9972784253
5550266700.0 0.0076605836 0.9972323822
5600266400.0 0.023203455 0.9972483715
5650266100.0 0.0396539107 0.9968536069
5700265800.0 0.0541166101 0.9961109839
5750265500.0 0.0691965334 0.9951803566
5800265200.0 0.0833353419 0.9942565755
5850264900.0 0.0965794634 0.9929738653
5900264600.0 0.1131210943 0.9913054974
5950264300.0 0.1254468493 0.9898105135
6000264000.0 0.1394827222 0.9878729994
6050263700.0 0.151899477 0.9863392699
6100263400.0 0.164661233 0.9840838794
6150263100.0 0.1793739906 0.9819224194
6200262800.0 0.1899499883 0.9799927002
6250262500.0 0.2027967634 0.9776551801
6300262200.0 0.2156747835 0.9747823845
6350261900.0 0.2287597008 0.9717572822
6400261600.0 0.2424427302 0.9685404934
6450261300.0 0.2540842187 0.9659518292
6500261000.0 0.2667336435 0.9623960328
6550260700.0 0.2796593659 0.9582790256
6600260400.0 0.2931143447 0.9543597241
6650260100.0 0.3066680248 0.9499417119
6700259800.0 0.3187956437 0.9457882728
6750259500.0 0.3326955947 0.9411236348
6800259200.0 0.3457214031 0.9361635216
6850258900.0 0.3572470427 0.9307526599
6900258600.0 0.3696457067 0.9259194776
6950258300.0 0.3823770106 0.9207695407
7000258000.0 0.3943016821 0.9155140447
7050257700.0 0.4064764763 0.9093845045
7100257400.0 0.4193021177 0.9030127035
7150257100.0 0.4296228069 0.8978751364
7200256800.0 0.4421169634 0.891392691
7250256500.0 0.4539294687 0.8850756865
7300256200.0 0.467087194 0.8786026503
7350255900.0 0.4793401698 0.8717559793
7400255600.0 0.4924514201 0.8645673728
7450255300.0 0.5074322554 0.8556951648
7500255000.0 0.5188841854 0.8483484443
7550254700.0 0.5321382581 0.8400288256
7600254400.0 0.5449682946 0.8315067638
7650254100.0 0.5568627866 0.8239762856
7700253800.0 0.5690071241 0.8158932544
7750253500.0 0.5798501367 0.8079518476
7800253200.0 0.5908688948 0.8001312007
7850252900.0 0.6004931098 0.7928690949
7900252600.0 0.6124600825 0.7839855712
7950252300.0 0.6214947062 0.7773484306
8000252000.0 0.631423004 0.7694555317
8050251700.0 0.6422225417 0.7611774224
8100251400.0 0.6519847884 0.7529714439
8150251100.0 0.6625119243 0.7441474112
8200250800.0 0.6716568099 0.7361622322
8250250500.0 0.6809532801 0.7281452126
8300250200.0 0.6903364513 0.7193727507
8350249900.0 0.699107367 0.7105197105
8400249600.0 0.7080097736 0.7024070412
8450249300.0 0.7166366987 0.6932970473
8500249000.0 0.7253542366 0.6843402216
8550248700.0 0.7337504465 0.6752537352
8600248400.0 0.7425008198 0.6659136967
8650248100.0 0.7499979954 0.6564473757
8700247800.0 0.7595229051 0.6453559618
8750247500.0 0.7676282265 0.6353620091
8800247200.0 0.775703355 0.6251484416
8850246900.0 0.7844052406 0.6136890801
8900246600.0 0.7930321946 0.6025495476
8950246300.0 0.8026713392 0.5898862841
9000246000.0 0.8114374742 0.5772669183
9050245700.0 0.8201941144 0.564675417
9100245400.0 0.8288553927 0.5522604291
9150245100.0 0.8380752889 0.5386746355
9200244800.0 0.847820271 0.5238244276
9250244500.0 0.8568743115 0.5084554617
9300244200.0 0.865280499 0.4941147936
9350243900.0 0.8730997458 0.4799776255
9400243600.0 0.8797988339 0.4673298312
9450243300.0 0.8857721851 0.455193739
9500243000.0 0.8924094828 0.4425959447
9550242700.0 0.8962761619 0.4344381123
9600242400.0 0.9002847826 0.4264316169
9650242100.0 0.9041692436 0.4194588464
9700241800.0 0.9086748295 0.4110960097
9750241500.0 0.9124334535 0.4032526798
9800241200.0 0.9172208396 0.3940173924
9850240900.0 0.9227356117 0.3821602775
9900240600.0 0.9282231738 0.3708098291
9950240300.0 0.934606615 0.3548459705
10000240000.0 0.939417776 0.3430414193
10050239700.0 0.9448129542 0.3281700721
10100239400.0 0.9501674167 0.3127567773
10150239100.0 0.9540569391 0.2981426811
10200238800.0 0.9583632451 0.2832976701
10250238500.0 0.9617131876 0.269871115
10300238200.0 0.9649626063 0.2561073511
10350237900.0 0.9676581777 0.2429273696
10400237600.0 0.9699641007 0.2299798355
10450237300.0 0.9730060132 0.2160911351
10500237000.0 0.9748001381 0.2041730392
10550236700.0 0.9772014909 0.1905628913
10600236400.0 0.9795680455 0.1771658559
10650236100.0 0.9818524974 0.1624866054
10700235800.0 0.9839242718 0.1502080246
10750235500.0 0.985951799 0.1372031272
10800235200.0 0.9879531551 0.1234366704
10850234900.0 0.9897228151 0.1090160113
10900234600.0 0.991781289 0.0945695814
10950234300.0 0.993237421 0.0813869717
11000234000.0 0.9952564169 0.0663856448
11050233700.0 0.9967758317 0.0504191476
11100233400.0 0.9981184284 0.033341404
11150233100.0 0.9990529401 0.0169031848
11200232800.0 0.9996434018 0.0021786999
11250232500.0 1.000454347 -0.014325586
11300232200.0 1.001567001 -0.032151952
11350231900.0 1.000683246 -0.0478154427
11400231600.0 1.001048087 -0.0635097806
11450231300.0 0.9999817773 -0.0795310235
11500231000.0 0.9988502891 -0.096094303
11550230700.0 0.9973877195 -0.1101039384
11600230400.0 0.9963371949 -0.1234023026
11650230100.0 0.9938887742 -0.1343562829
11700229800.0 0.9915630799 -0.148510935
11750229500.0 0.989553506 -0.163744991
11800229200.0 0.986928763 -0.1777972485
11850228900.0 0.9833082243 -0.1906059519
11900228600.0 0.9798910737 -0.2006118325
11950228300.0 0.9767887209 -0.2112140874
12000228000.0 0.9735832593 -0.2208169661
12050227700.0 0.9704765706 -0.2329470592
12100227400.0 0.9677443543 -0.244473012
12150227100.0 0.9621233668 -0.2606702367
12200226800.0 0.9595130352 -0.2711320526
12250226500.0 0.9548988246 -0.2845359812
12300226200.0 0.9508168434 -0.2964849375
12350225900.0 0.945817946 -0.3102182981
12400225600.0 0.9418868166 -0.323373851
12450225300.0 0.9375220233 -0.3354222937
12500225000.0 0.9320237905 -0.3499688785
12550224700.0 0.9267044388 -0.3633397276
12600224400.0 0.9219576766 -0.3757967718
12650224100.0 0.9161470905 -0.3901074854
12700223800.0 0.9109232344 -0.4027929676
12750223500.0 0.9054025442 -0.4155594427
12800223200.0 0.9004643557 -0.4278479287
12850222900.0 0.894569541 -0.4404847592
12900222600.0 0.8889008899 -0.4519402683
12950222300.0 0.8831103035 -0.4646853788
13000222000.0 0.876755391 -0.4768193005
13050221700.0 0.8693813551 -0.4893713571
13100221400.0 0.8627081313 -0.5019972276
13150221100.0 0.8558318889 -0.5141698704
13200220800.0 0.8488637853 -0.525674566
13250220500.0 0.8413020124 -0.5380749673
13300220200.0 0.8335413796 -0.5491537425
13350219900.0 0.8254305556 -0.5613334278
13400219600.0 0.8170944178 -0.5734830982
13450219300.0 0.8075850729 -0.5870253053
13500219000.0 0.7971487324 -0.6009824195
13550218700.0 0.7871238587 -0.6140863672
13600218400.0 0.7769141121 -0.6260663774
13650218100.0 0.7674118094 -0.6372201757
13700217800.0 0.756046895 -0.6488777606
13750217500.0 0.7456238341 -0.6606615739
13800217200.0 0.7360028461 -0.6724166563
13850216900.0 0.7237474911 -0.6844691585
13900216600.0 0.7139161551 -0.6931738723
13950216300.0 0.7030439881 -0.7036749034
14000216000.0 0.6927921063 -0.7126278979
14050215700.0 0.683895075 -0.720718252
14100215400.0 0.6741187563 -0.7300368055
14150215100.0 0.6649184299 -0.7384551447
14200214800.0 0.6555843884 -0.7467217565
14250214500.0 0.6455950186 -0.7559087432
14300214200.0 0.6353120802 -0.7650424176
14350213900.0 0.6244228948 -0.7743908767
14400213600.0 0.6127154614 -0.7838734231
14450213300.0 0.6002493143 -0.7941018296
14500213000.0 0.5868196163 -0.8038610631
14550212700.0 0.5750242048 -0.8132374239
14600212400.0 0.5623134217 -0.8218884614
14650212100.0 0.5492172287 -0.8299592453
14700211800.0 0.5356115338 -0.8397165198
14750211500.0 0.5230636821 -0.8481515131
14800211200.0 0.5108868145 -0.856063412
14850210900.0 0.498643428 -0.8634857103
14900210600.0 0.4854077074 -0.8713648489
14950210300.0 0.4718671243 -0.8790401255
15000210000.0 0.4589201555 -0.8860384235
15050209700.0 0.4462957168 -0.892125172
15100209400.0 0.433107987 -0.8980820579
15150209100.0 0.4209452695 -0.9039035371
15200208800.0 0.4075861982 -0.9095792888
15250208500.0 0.3949573427 -0.9138815732
15300208200.0 0.3827818479 -0.9190218121
15350207900.0 0.3698716236 -0.9232348468
15400207600.0 0.355340565 -0.9289237011
15450207300.0 0.340542962 -0.9341759011
15500207000.0 0.3253767384 -0.938615239
15550206700.0 0.3109310426 -0.9438466595
15600206400.0 0.2946515928 -0.948361945
15650206100.0 0.2797374894 -0.9526716521
15700205800.0 0.2654091893 -0.9563087083
15750205500.0 0.2512435445 -0.9596979623
15800205200.0 0.2369945273 -0.9630456025
15850204900.0 0.2225426701 -0.9664644141
15900204600.0 0.2077707474 -0.9700572721
15950204300.0 0.1939640749 -0.9729464355
16000204000.0 0.1798313883 -0.9757553504
16050203700.0 0.1653724176 -0.978634191
16100203400.0 0.1513023485 -0.9805936392
16150203100.0 0.1371261523 -0.9831482714
16200202800.0 0.1227296412 -0.9842690494
16250202500.0 0.1087122283 -0.9860441548
16300202200.0 0.0937287948 -0.9881483119
16350201900.0 0.0787397036 -0.9892299219
16400201600.0 0.0640331946 -0.9904113624
16450201300.0 0.0491932622 -0.9912558467
16500201000.0 0.0327295911 -0.9921175124
16550200700.0 0.0167698029 -0.9925218694
16600200400.0 0.0011068048 -0.9925847952
16650200100.0 -0.0157185742 -0.992753105
16700199800.0 -0.0321482059 -0.992481255
16750199500.0 -0.0506451521 -0.9913177816
16800199200.0 -0.0662034337 -0.9909728273
16850198900.0 -0.0821996048 -0.9888001331
16900198600.0 -0.0964934794 -0.9887226251
16950198300.0 -0.1102422184 -0.9872223026
17000198000.0 -0.1231588741 -0.9854651438
17050197700.0 -0.1357753985 -0.9838207481
17100197400.0 -0.1491070401 -0.9820244713
17150197100.0 -0.1619793222 -0.9794999502
17200196800.0 -0.1748080325 -0.9775150401
17250196500.0 -0.1875880491 -0.9747758163
17300196200.0 -0.2001816946 -0.9727856525
17350195900.0 -0.2121182255 -0.9702955843
17400195600.0 -0.2243853355 -0.9678866232
17450195300.0 -0.2375511145 -0.9650507558
17500195000.0 -0.250741467 -0.9617096788
17550194700.0 -0.2649621207 -0.9581277022
17600194400.0 -0.2786032229 -0.9544653776
17650194100.0 -0.2922565839 -0.9497512483
17700193800.0 -0.3054722053 -0.9457293477
17750193500.0 -0.3194401952 -0.9410773165
17800193200.0 -0.333506102 -0.9360866942
17850192900.0 -0.3481481532 -0.9302879028
17900192600.0 -0.3630901355 -0.9246249962
17950192300.0 -0.3784040715 -0.9176787441
18000192000.0 -0.3929484578 -0.9107591561
18050191700.0 -0.4067970073 -0.9028161303
18100191400.0 -0.4209394582 -0.8953497477
18150191100.0 -0.4356292011 -0.887372965
18200190800.0 -0.4521991368 -0.878296546
18250190500.0 -0.4689414116 -0.8689502673
18300190200.0 -0.4838634498 -0.8604178329
18350189900.0 -0.4995465565 -0.8516990192
18400189600.0 -0.5136718467 -0.84334165
18450189300.0 -0.5270974811 -0.8354912717
18500189000.0 -0.5406866665 -0.8269355504
18550188700.0 -0.5536136992 -0.819701177
18600188400.0 -0.5654432932 -0.8125884679
18650188100.0 -0.5767215913 -0.8058814667
18700187800.0 -0.5880447377 -0.7986676668
18750187500.0 -0.5984785293 -0.7918664223
18800187200.0 -0.6094448873 -0.7845747646
18850186900.0 -0.6199415089 -0.7773598876
18900186600.0 -0.6304712097 -0.7697227555
18950186300.0 -0.6408749493 -0.7613725231
19000186000.0 -0.6488748826 -0.7549480396
19050185700.0 -0.6579819766 -0.747292669
19100185400.0 -0.6682626514 -0.7388633616
19150185100.0 -0.6786346524 -0.7304152069
19200184800.0 -0.6879672555 -0.7216241314
19250184500.0 -0.6979956348 -0.7127491777
19300184200.0 -0.7098592082 -0.702788432
19350183900.0 -0.720579176 -0.6929831044
19400183600.0 -0.7306157403 -0.6834568393
19450183300.0 -0.7387458332 -0.6731160617
19500183000.0 -0.7469814707 -0.662855201
19550182700.0 -0.7565685931 -0.652852103
19600182400.0 -0.766916494 -0.641096957
19650182100.0 -0.7768789935 -0.6287534253
19700181800.0 -0.7876321646 -0.6160390037
19750181500.0 -0.7975626105 -0.60237937
19800181200.0 -0.8075975911 -0.5878077541
19850180900.0 -0.817166234 -0.5727605651
19900180600.0 -0.824574874 -0.5589356768
19950180300.0 -0.8337620927 -0.5428367786
20000180000.0 -0.8278940425 -0.5436456548
20050179700.0 -0.8372296345 -0.5307570855
20100179400.0 -0.8448398547 -0.5173093637
20150179100.0 -0.8519635788 -0.5051781001
20200178800.0 -0.8606679289 -0.4928332736
20250178500.0 -0.869795508 -0.4789607348
20300178200.0 -0.8790105453 -0.4648917874
20350177900.0 -0.8873859324 -0.4505215721
20400177600.0 -0.8968219343 -0.4357417012
20450177300.0 -0.9047326037 -0.4215238707
20500177000.0 -0.9124533364 -0.4075825923
20550176700.0 -0.9199540133 -0.3941555881
20600176400.0 -0.9272493075 -0.3807540266
20650176100.0 -0.9338254823 -0.3682637583
20700175800.0 -0.9401129876 -0.3560707812
20750175500.0 -0.9470092968 -0.3430363418
20800175200.0 -0.9520533174 -0.3323648322
20850174900.0 -0.9566904467 -0.3214116744
20900174600.0 -0.9613722019 -0.3098293862
20950174300.0 -0.9659119082 -0.2974299546
21000174000.0 -0.9696284125 -0.285917347
21050173700.0 -0.9721260686 -0.2742853976
21100173400.0 -0.9771123968 -0.2616671545
21150173100.0 -0.9801288037 -0.2492443419
21200172800.0 -0.9839269901 -0.2352375695
21250172500.0 -0.9873959436 -0.2219518234
21300172200.0 -0.9898800548 -0.2070895758
21350171900.0 -0.9914991089 -0.1927656347
21400171600.0 -0.9930767181 -0.1783571563
21450171300.0 -0.9932048847 -0.1647443626
21500171000.0 -0.9936000479 -0.148569631
21550170700.0 -0.9931363482 -0.1338641401
21600170400.0 -0.9921127789 -0.1181311615
21650170100.0 -0.9923785799 -0.1029184003
21700169800.0 -0.9899168659 -0.0879357871
21750169500.0 -0.9883064101 -0.0717824958
21800169200.0 -0.9890110895 -0.0566623866
21850168900.0 -0.987171361 -0.0405555587
21900168600.0 -0.9867123102 -0.0234136529
21950168300.0 -0.9844562729 -0.0084347117
22000168000.0 -0.983006509 0.0062380787
22050167700.0 -0.9829173858 0.0209203676
22100167400.0 -0.9827533116 0.0355550728
22150167100.0 -0.9832069967 0.0514258088
22200166800.0 -0.983183624 0.066423672
22250166500.0 -0.9829499944 0.0836281997
22300166200.0 -0.9824256358 0.1004160172
22350165900.0 -0.9799704251 0.1166801237
22400165600.0 -0.9777825652 0.1322558843
22450165300.0 -0.9760759415 0.1470194735
22500165000.0 -0.9756842563 0.160929232
22550164700.0 -0.973435736 0.1761710487
22600164400.0 -0.9720326961 0.1914694773
22650164100.0 -0.9697296724 0.2062669625
22700163800.0 -0.9672921416 0.222207139
22750163500.0 -0.9646837699 0.2369848445
22800163200.0 -0.9621954263 0.2509608144
22850162900.0 -0.9594248972 0.2643769884
22900162600.0 -0.957908091 0.2774747515
22950162300.0 -0.9566932875 0.290452823
23000162000.0 -0.9555197872 0.3025803285
23050161700.0 -0.9532727118 0.3150785384
23100161400.0 -0.9515400747 0.3274933486
23150161100.0 -0.9482263975 0.3402671974
23200160800.0 -0.9454096264 0.3530730166
23250160500.0 -0.9427082637 0.3635479441
23300160200.0 -0.9400405989 0.3762652663
23350159900.0 -0.9364113779 0.3889279118
23400159600.0 -0.9313676497 0.4017479753
23450159300.0 -0.9265665211 0.4146060142
23500159000.0 -0.922184671 0.4275177415
23550158700.0 -0.9176208144 0.4406088644
23600158400.0 -0.9120756594 0.4534346919
23650158100.0 -0.9059690678 0.4671887837
23700157800.0 -0.8984814773 0.4808247158
23750157500.0 -0.8899801683 0.4945076119
23800157200.0 -0.881203365 0.5078430024
23850156900.0 -0.8722501788 0.5203629096
23900156600.0 -0.8634496184 0.5330074547
23950156300.0 -0.8541639259 0.5456972409
24000156000.0 -0.8447498253 0.5574830579
24050155700.0 -0.8352084448 0.5687203299
24100155400.0 -0.8252332411 0.5810006463
24150155100.0 -0.8151376873 0.5928561482
24200154800.0 -0.8034720199 0.6035471719
24250154500.0 -0.7926904472 0.6157399073
24300154200.0 -0.7813589192 0.6273712523
24350153900.0 -0.769987013 0.6383090192
24400153600.0 -0.7571678519 0.6486568401
24450153300.0 -0.7452705304 0.6585762833
24500153000.0 -0.7337107837 0.6684659332
24550152700.0 -0.7233076111 0.6786981413
24600152400.0 -0.7111481926 0.6878732762
24650152100.0 -0.6999849041 0.6963997551
