!Created with skrf (http://scikit-rf.org).
# Hz S RI R 50.0 
!freq ReS11 ImS11
300000.0 -0.9859667367 -0.0827037799
50299700.0 -0.9997451179 0.0166033082
100299400.0 -0.9977947559 0.0293595665
150299100.0 -1.002740988 0.0462040614
200298800.0 -0.9994556024 0.0593943362
250298500.0 -0.9972923553 0.0730709027
300298200.0 -0.9857718584 0.088809368
350297900.0 -0.9936478929 0.0997285222
400297600.0 -0.9927974311 0.1163423021
450297300.0 -0.990679457 0.1300375322
500297000.0 -0.9891015426 0.1448941618
550296700.0 -0.983885504 0.1573093392
600296400.0 -1.016992463 0.1907434966
650296100.0 -0.9816722413 0.1871406809
700295800.0 -0.9788710596 0.2015106795
750295500.0 -0.9757430583 0.2152829612
800295200.0 -0.97232175 0.2296035862
850294900.0 -0.9689735032 0.2434769832
900294600.0 -0.9652056914 0.2573271802
950294300.0 -0.9611669442 0.2709412294
1000294000.0 -0.9574142281 0.2845636656
1050293700.0 -0.9529779467 0.2987659273
1100293400.0 -0.9485463606 0.3132456052
1150293100.0 -0.9447343592 0.3248933189
1200292800.0 -0.9393904882 0.3391548103
1250292500.0 -0.9340263633 0.352437351
1300292200.0 -0.9282744731 0.3657898688
1350291900.0 -0.9226717411 0.3800014601
1400291600.0 -0.9173896874 0.3928309316
1450291300.0 -0.9119246766 0.4051685979
1500291000.0 -0.9055920418 0.4184995262
1550290700.0 -0.8991862801 0.4317785553
1600290400.0 -0.8929382016 0.4447834908
1650290100.0 -0.886166027 0.4568380346
1700289800.0 -0.879453887 0.4702201119
1750289500.0 -0.8723552154 0.4824459768
1800289200.0 -0.8650498241 0.4953655436
1850288900.0 -0.8585397603 0.5067554885
1900288600.0 -0.8504428023 0.5196693191
1950288300.0 -0.842539794 0.5322917573
2000288000.0 -0.8350034754 0.5437095233
2050287700.0 -0.8267073655 0.5562484641
2100287400.0 -0.8186246028 0.56762051
2150287100.0 -0.8098797604 0.5798443621
2200286800.0 -0.8022782219 0.5902368057
2250286500.0 -0.7933452008 0.6022971177
2300286200.0 -0.7844241235 0.6138785721
2350285900.0 -0.77538193 0.624711808
2400285600.0 -0.7664805885 0.6359205773
2450285300.0 -0.7577540351 0.6462105487
2500285000.0 -0.7482046728 0.657404315
2550284700.0 -0.7392559776 0.6676699617
2600284400.0 -0.7298065613 0.6779289718
2650284100.0 -0.7207703874 0.6885263348
2700283800.0 -0.7100103446 0.6990485617
2750283500.0 -0.699658128 0.7095305864
2800283200.0 -0.6901260969 0.7194494076
2850282900.0 -0.679895188 0.7290652525
2900282600.0 -0.6694050886 0.7384956294
2950282300.0 -0.6594164485 0.7476351486
3000282000.0 -0.6485857269 0.7571948577
3050281700.0 -0.637496804 0.7664243639
3100281400.0 -0.6258172928 0.7757713431
3150281100.0 -0.6142931671 0.7850408106
3200280800.0 -0.6025532282 0.793649493
3250280500.0 -0.5918490192 0.8013193734
3300280200.0 -0.5806558078 0.8091797448
3350279900.0 -0.5692011291 0.8167199406
3400279600.0 -0.5572374656 0.8243442835
3450279300.0 -0.5461212154 0.8315549545
3500279000.0 -0.5339549248 0.8387179166
3550278700.0 -0.5217411098 0.8460093171
3600278400.0 -0.5094270397 0.8530814399
3650278100.0 -0.496319886 0.8609048252
3700277800.0 -0.4842986768 0.8672516917
3750277500.0 -0.4718724754 0.8737840605
3800277200.0 -0.4594655764 0.8803588437
3850276900.0 -0.4470204571 0.8863166647
3900276600.0 -0.4362205861 0.8922461171
3950276300.0 -0.4234849073 0.8980581722
4000276000.0 -0.4114226138 0.90404379
4050275700.0 -0.3981334785 0.9103126347
4100275400.0 -0.3868348354 0.9157175475
4150275100.0 -0.3740087543 0.9212016563
4200274800.0 -0.3609671654 0.9265635804
4250274500.0 -0.34871714 0.9317873038
4300274200.0 -0.3357562586 0.9370328343
4350273900.0 -0.3221090535 0.9422576199
4400273600.0 -0.3073996194 0.9471955644
4450273300.0 -0.2919000964 0.9526606024
4500273000.0 -0.2785000696 0.9566146168
4550272700.0 -0.2644143481 0.9608346662
4600272400.0 -0.2489394288 0.9649293672
4650272100.0 -0.2370987434 0.9682216031
4700271800.0 -0.2237196597 0.9715856559
4750271500.0 -0.2118600885 0.9744847998
4800271200.0 -0.1992115217 0.9771208809
4850270900.0 -0.1853787486 0.9798732509
4900270600.0 -0.1717264744 0.9823295544
4950270300.0 -0.1576124595 0.9848965095
5000270000.0 -0.1435028239 0.9870650131
5050269700.0 -0.1301042178 0.9887982348
5100269400.0 -0.1163521302 0.990262964
5150269100.0 -0.1031443875 0.9923418995
5200268800.0 -0.0897834984 0.9931271757
5250268500.0 -0.0769351405 0.9940448763
5300268200.0 -0.0635294724 0.9948596798
5350267900.0 -0.051645621 0.9953418965
5400267600.0 -0.0354688441 0.9966328047
5450267300.0 -0.0225727218 0.9966012539
5500267000.0 -0.0075152579 0.9970581433
5550266700.0 0.0070000357 0.9970247092
5600266400.0 0.0225514713 0.997040445
5650266100.0 0.0387613854 0.9967020179
5700265800.0 0.0532593651 0.9958782295
5750265500.0 0.0684265581 0.9954699363
5800265200.0 0.0823034115 0.9941424461
5850264900.0 0.0956984052 0.9931601223
5900264600.0 0.1120249324 0.9911544753
5950264300.0 0.1245211765 0.9898833904
6000264000.0 0.1386459009 0.9878267871
6050263700.0 0.1512618983 0.9862046945
6100263400.0 0.1640056281 0.9842311478
6150263100.0 0.1784240698 0.9817386016
6200262800.0 0.1893016038 0.980027067
6250262500.0 0.2021596877 0.9774855117
6300262200.0 0.2150459713 0.9746466604
6350261900.0 0.2280353452 0.9717316012
6400261600.0 0.2419662918 0.9683709132
6450261300.0 0.2536470307 0.9656810196
6500261000.0 0.2662441163 0.9621910449
6550260700.0 0.2791433921 0.9581226801
6600260400.0 0.2926107707 0.9546803119
6650260100.0 0.3065582588 0.949822589
6700259800.0 0.3181301054 0.9457048226
6750259500.0 0.3319821213 0.9407641691
6800259200.0 0.3452072727 0.9361640378
6850258900.0 0.3571662479 0.930909695
6900258600.0 0.3692845111 0.9261004059
6950258300.0 0.3817832301 0.9207247494
7000258000.0 0.393617152 0.9155298315
7050257700.0 0.4061494417 0.9094026123
7100257400.0 0.4188599831 0.9032666095
7150257100.0 0.429112555 0.8979445494
7200256800.0 0.4420549224 0.891713273
7250256500.0 0.4531682636 0.8853346033
7300256200.0 0.4665704403 0.8789730477
7350255900.0 0.4785621581 0.8717351504
7400255600.0 0.4915353425 0.8649219205
7450255300.0 0.506356428 0.8556561006
7500255000.0 0.5186544522 0.8490356043
7550254700.0 0.5313557205 0.8406231786
7600254400.0 0.5442063642 0.8322657013
7650254100.0 0.555827238 0.8245428548
7700253800.0 0.5677577502 0.8165862943
7750253500.0 0.5788863379 0.8084788117
7800253200.0 0.5898659202 0.8008298729
7850252900.0 0.5997320136 0.7936864991
7900252600.0 0.6114274055 0.7846333369
7950252300.0 0.6205753686 0.7777731906
8000252000.0 0.6308720463 0.7699407071
8050251700.0 0.6413557619 0.7616246672
8100251400.0 0.651668497 0.7535614727
8150251100.0 0.6615310228 0.7445890164
8200250800.0 0.671501316 0.7365412586
8250250500.0 0.6802312603 0.7284632008
8300250200.0 0.689756191 0.7197101673
8350249900.0 0.698635918 0.7108887198
8400249600.0 0.7070885439 0.7028596763
8450249300.0 0.7166501709 0.6935151269
8500249000.0 0.7250339088 0.6845664859
8550248700.0 0.7336069403 0.6754981693
8600248400.0 0.7421054577 0.6658772914
8650248100.0 0.7497770018 0.6564832399
8700247800.0 0.7591770531 0.6454398791
8750247500.0 0.7673787514 0.6357479517
8800247200.0 0.7754764987 0.625406868
8850246900.0 0.7841413689 0.6140432775
8900246600.0 0.7925867849 0.6030628847
8950246300.0 0.801975299 0.5901009868
9000246000.0 0.8109115086 0.5778331017
9050245700.0 0.8199432916 0.5652818564
9100245400.0 0.8286032087 0.5528629401
9150245100.0 0.8374767539 0.5396261372
9200244800.0 0.8467211236 0.52504726
9250244500.0 0.8558321067 0.5099524835
9300244200.0 0.8640307129 0.4956526185
9350243900.0 0.8720210667 0.4815861553
9400243600.0 0.8788073517 0.468924318
9450243300.0 0.8850554014 0.4568066059
9500243000.0 0.8915969969 0.4438679796
9550242700.0 0.8957068741 0.4353571547
9600242400.0 0.9003373173 0.4270377551
9650242100.0 0.9032067914 0.4200697965
9700241800.0 0.9083920062 0.4113283541
9750241500.0 0.9126415019 0.403212218
9800241200.0 0.9169082994 0.3939054752
9850240900.0 0.9222408297 0.382394895
9900240600.0 0.9278942716 0.3709142643
9950240300.0 0.9342316288 0.3549060669
10000240000.0 0.9388256622 0.3430496994
10050239700.0 0.9445841689 0.3281291011
10100239400.0 0.9494925218 0.313115586
10150239100.0 0.9539602227 0.2984643942
10200238800.0 0.9580039375 0.2837964104
10250238500.0 0.96154146 0.270363425
10300238200.0 0.9646573577 0.2565097069
10350237900.0 0.967393927 0.2432741919
10400237600.0 0.9702131855 0.2301064596
10450237300.0 0.9729167279 0.2167083054
10500237000.0 0.9747277361 0.2048467164
10550236700.0 0.9773315008 0.1907649294
10600236400.0 0.9792216852 0.1778288024
10650236100.0 0.9814102726 0.1634146098
10700235800.0 0.9837205647 0.1513572058
10750235500.0 0.9862905994 0.1378554785
10800235200.0 0.9880236115 0.1237421142
10850234900.0 0.9895790465 0.1097980858
10900234600.0 0.9915727359 0.0951001918
10950234300.0 0.9933858438 0.0819232286
11000234000.0 0.994964982 0.0671177303
11050233700.0 0.9966833141 0.0514305973
11100233400.0 0.9979660235 0.0342082025
11150233100.0 0.9989524678 0.0180583552
11200232800.0 0.999444983 0.0034429547
11250232500.0 1.000101258 -0.0127618883
11300232200.0 1.000928351 -0.0310796869
11350231900.0 1.000574889 -0.0463002352
11400231600.0 1.00002238 -0.0618975592
11450231300.0 0.9991737522 -0.0769298426
11500231000.0 0.998565232 -0.0935769215
11550230700.0 0.997080644 -0.1075626605
11600230400.0 0.9956611799 -0.120254656
11650230100.0 0.9937542056 -0.1320855744
11700229800.0 0.9914322316 -0.1468650557
11750229500.0 0.9893634358 -0.1618368874
11800229200.0 0.9866579571 -0.1758783984
11850228900.0 0.9834291178 -0.1888988067
11900228600.0 0.9799506556 -0.199216269
11950228300.0 0.9766945483 -0.2098659343
12000228000.0 0.9736722878 -0.2197324399
12050227700.0 0.9706171948 -0.232131147
12100227400.0 0.9667077476 -0.2436809446
12150227100.0 0.9627298488 -0.2599005935
12200226800.0 0.958902651 -0.2719747217
12250226500.0 0.9548159697 -0.2836406869
12300226200.0 0.951293039 -0.2953799989
12350225900.0 0.9462811357 -0.3099851051
12400225600.0 0.9418277891 -0.3219528568
12450225300.0 0.9375172925 -0.334655401
12500225000.0 0.932146782 -0.348807984
12550224700.0 0.9271380256 -0.3625109981
12600224400.0 0.9221115036 -0.3750196669
12650224100.0 0.9164514325 -0.3891551806
12700223800.0 0.9112963914 -0.4017881232
12750223500.0 0.9059005172 -0.4146424811
12800223200.0 0.9005727735 -0.4270542035
12850222900.0 0.8951230908 -0.4388472586
12900222600.0 0.8891504326 -0.4515071463
12950222300.0 0.8831885694 -0.4639873883
13000222000.0 0.8767732434 -0.4754211049
13050221700.0 0.8699565143 -0.4883927913
13100221400.0 0.8632277835 -0.500682547
13150221100.0 0.8561792631 -0.512997602
13200220800.0 0.8488602791 -0.5249763823
13250220500.0 0.8414806032 -0.5374216769
13300220200.0 0.834127398 -0.5481346587
13350219900.0 0.8258255813 -0.5604875604
13400219600.0 0.8174070908 -0.5726850129
13450219300.0 0.8085003484 -0.5857048744
13500219000.0 0.7978617815 -0.6000786695
13550218700.0 0.7874368567 -0.6126551919
13600218400.0 0.7773064153 -0.6244994345
13650218100.0 0.7678093762 -0.635832052
13700217800.0 0.7569692117 -0.6488058239
13750217500.0 0.7460697804 -0.6605075557
13800217200.0 0.7358619548 -0.6717102194
13850216900.0 0.7246680765 -0.6831152878
13900216600.0 0.7149799094 -0.6917047299
13950216300.0 0.7040471299 -0.7018268149
14000216000.0 0.6942746203 -0.7121574402
14050215700.0 0.6850809095 -0.7196303986
14100215400.0 0.6752621487 -0.7290238587
14150215100.0 0.6657751901 -0.7376214187
14200214800.0 0.6566814177 -0.746130422
14250214500.0 0.646593447 -0.7551722649
14300214200.0 0.6361645631 -0.7643688489
14350213900.0 0.6253508678 -0.7736509069
14400213600.0 0.6137713373 -0.7829693497
14450213300.0 0.6013175521 -0.7929226451
14500213000.0 0.5887108453 -0.8030480174
14550212700.0 0.5762626383 -0.8115107692
14600212400.0 0.5636325032 -0.8208386107
14650212100.0 0.5504857184 -0.8293340785
14700211800.0 0.5369109443 -0.8387967166
14750211500.0 0.5245584602 -0.8468674041
14800211200.0 0.5126223484 -0.8551194768
14850210900.0 0.5002661488 -0.8625657991
14900210600.0 0.4867679254 -0.8705545722
14950210300.0 0.4731654056 -0.8780806486
15000210000.0 0.4601111643 -0.8849922956
15050209700.0 0.4474365791 -0.891431998
15100209400.0 0.4346902893 -0.8974228573
15150209100.0 0.4218784653 -0.9028556881
15200208800.0 0.409099789 -0.908504431
15250208500.0 0.3970785921 -0.9131570298
15300208200.0 0.3849956517 -0.9182944296
15350207900.0 0.3718937293 -0.9234734445
15400207600.0 0.3566363596 -0.9288148487
15450207300.0 0.3419851322 -0.9333415937
15500207000.0 0.3272924667 -0.9381945063
15550206700.0 0.3117682642 -0.9436565355
15600206400.0 0.2971902951 -0.9479287365
15650206100.0 0.2811949195 -0.9521724943
15700205800.0 0.2673594915 -0.9560247836
15750205500.0 0.2529033876 -0.9594707426
15800205200.0 0.2386557897 -0.9629708092
15850204900.0 0.2243521775 -0.9661829348
15900204600.0 0.2095999359 -0.9697231002
15950204300.0 0.1956771809 -0.9727000624
16000204000.0 0.1819946715 -0.9755481776
16050203700.0 0.1672910445 -0.9782927067
16100203400.0 0.1532237568 -0.9798980866
16150203100.0 0.1387790785 -0.9826099174
16200202800.0 0.1254843219 -0.984401363
16250202500.0 0.1105249832 -0.9860234343
16300202200.0 0.0954337912 -0.9879258147
16350201900.0 0.080281765 -0.9891723323
16400201600.0 0.0660339141 -0.9901362175
16450201300.0 0.0510951119 -0.9912151867
16500201000.0 0.0346278281 -0.991995251
16550200700.0 0.0190126609 -0.9925896816
16600200400.0 0.003062782 -0.9928814048
16650200100.0 -0.0131240765 -0.9928666863
16700199800.0 -0.0296604858 -0.9929984451
16750199500.0 -0.0483927475 -0.9920257349
16800199200.0 -0.0641967979 -0.991281071
16850198900.0 -0.0793263016 -0.9896219284
16900198600.0 -0.094181261 -0.9886978175
16950198300.0 -0.1074759519 -0.9879975314
17000198000.0 -0.1203032883 -0.9859892903
17050197700.0 -0.1337081838 -0.9840989643
17100197400.0 -0.1467467506 -0.9818291867
17150197100.0 -0.1602304226 -0.97992588
17200196800.0 -0.1728353964 -0.9775096076
17250196500.0 -0.1860077772 -0.9752446823
17300196200.0 -0.198539301 -0.9731503211
17350195900.0 -0.210656053 -0.9705991505
17400195600.0 -0.2230205569 -0.9680991193
17450195300.0 -0.2362283032 -0.9651713983
17500195000.0 -0.2498358006 -0.9617937769
17550194700.0 -0.2635706658 -0.9581643594
17600194400.0 -0.2775702801 -0.954403519
17650194100.0 -0.2916246077 -0.9500614607
17700193800.0 -0.3040150495 -0.9459088926
17750193500.0 -0.3182202657 -0.9412485641
17800193200.0 -0.3324724639 -0.936464717
17850192900.0 -0.3468345011 -0.9310648734
17900192600.0 -0.3617372364 -0.9248031275
17950192300.0 -0.3771358993 -0.9184614404
18000192000.0 -0.3915583137 -0.9112092373
18050191700.0 -0.4054798645 -0.90348297
18100191400.0 -0.4196316195 -0.8960839916
18150191100.0 -0.4340766953 -0.8882515743
18200190800.0 -0.4506044628 -0.8795068931
18250190500.0 -0.4671508421 -0.8702002905
18300190200.0 -0.4825989482 -0.8619144739
18350189900.0 -0.4973295777 -0.8532864139
18400189600.0 -0.5121266976 -0.8452409502
18450189300.0 -0.5257299554 -0.8368786881
18500189000.0 -0.5383445472 -0.8288654443
18550188700.0 -0.5516130323 -0.8211598029
18600188400.0 -0.5633554195 -0.8141129103
18650188100.0 -0.5748819799 -0.8070985226
18700187800.0 -0.5861080787 -0.8003374041
18750187500.0 -0.5967811228 -0.7929879782
18800187200.0 -0.6079954059 -0.785612847
18850186900.0 -0.6185222682 -0.7783132445
18900186600.0 -0.6290562946 -0.7704680755
18950186300.0 -0.6392958962 -0.7622932039
19000186000.0 -0.6473970192 -0.7558012952
19050185700.0 -0.6565775451 -0.7480744521
19100185400.0 -0.6673117044 -0.7394972347
19150185100.0 -0.6771515058 -0.7298391233
19200184800.0 -0.6871212919 -0.7223849473
19250184500.0 -0.6974334521 -0.7129892723
19300184200.0 -0.7085944061 -0.7030765694
19350183900.0 -0.7191819142 -0.6933782569
19400183600.0 -0.7286954485 -0.6832539172
19450183300.0 -0.7377816505 -0.6730859284
19500183000.0 -0.7456596226 -0.6635247471
19550182700.0 -0.7556014275 -0.6528085606
19600182400.0 -0.7654785697 -0.6409101957
19650182100.0 -0.7760891091 -0.6289940883
19700181800.0 -0.7858365902 -0.6165397189
19750181500.0 -0.7960888108 -0.602989673
19800181200.0 -0.806014283 -0.5886424001
19850180900.0 -0.8156316775 -0.5738940111
19900180600.0 -0.8231776343 -0.5599616958
19950180300.0 -0.8325762826 -0.5442674605
20000180000.0 -0.8276984093 -0.5451244063
20050179700.0 -0.8357907007 -0.5318027797
20100179400.0 -0.8445002667 -0.5172674985
20150179100.0 -0.8513123833 -0.5053730411
20200178800.0 -0.8600813438 -0.4925598416
20250178500.0 -0.8696074166 -0.4792785961
20300178200.0 -0.8782526089 -0.465516664
20350177900.0 -0.8872894286 -0.4517280043
20400177600.0 -0.8960269207 -0.4372002092
20450177300.0 -0.9036492872 -0.4228517714
20500177000.0 -0.9114884672 -0.4088549974
20550176700.0 -0.9194498381 -0.3950477858
20600176400.0 -0.9260373049 -0.3819092094
20650176100.0 -0.9328213393 -0.3690656249
20700175800.0 -0.9387580011 -0.3563858497
20750175500.0 -0.9458675058 -0.3450376275
20800175200.0 -0.9504848427 -0.3332766705
20850174900.0 -0.9560338468 -0.322329849
20900174600.0 -0.9613565929 -0.3103358179
20950174300.0 -0.9651260517 -0.2979390849
21000174000.0 -0.968276621 -0.2855442151
21050173700.0 -0.9710345354 -0.2741319994
21100173400.0 -0.9759374617 -0.2627276619
21150173100.0 -0.9790760308 -0.2496201512
21200172800.0 -0.982552552 -0.2359580192
21250172500.0 -0.9855389218 -0.2217465912
21300172200.0 -0.9886543735 -0.2079597408
21350171900.0 -0.9903108066 -0.1934087633
21400171600.0 -0.991445021 -0.178814932
21450171300.0 -0.9921486105 -0.163751298
21500171000.0 -0.9919673209 -0.1488085134
21550170700.0 -0.9926022079 -0.134193027
21600170400.0 -0.9933046115 -0.1195344693
21650170100.0 -0.9924321772 -0.1041964916
21700169800.0 -0.9903809118 -0.0896988515
21750169500.0 -0.9895851894 -0.0729032005
21800169200.0 -0.9883246872 -0.0580656757
21850168900.0 -0.9875086391 -0.0406629512
21900168600.0 -0.9864280124 -0.0253932018
21950168300.0 -0.984799716 -0.0094092008
22000168000.0 -0.9839829972 0.0054665393
22050167700.0 -0.9835241613 0.019372534
22100167400.0 -0.9832970335 0.0343683424
22150167100.0 -0.983534401 0.0498194033
22200166800.0 -0.9838300377 0.065220644
22250166500.0 -0.9829565899 0.0823142466
22300166200.0 -0.9819736145 0.0982869796
22350165900.0 -0.9812725489 0.1145474006
22400165600.0 -0.979003768 0.1306179918
22450165300.0 -0.9771746717 0.1452272606
22500165000.0 -0.9756204666 0.158402945
22550164700.0 -0.9741904447 0.1747813913
22600164400.0 -0.9722624066 0.1894134123
22650164100.0 -0.9701992962 0.2038373666
22700163800.0 -0.9669788566 0.2193930984
22750163500.0 -0.9652398397 0.2353276408
22800163200.0 -0.9626157891 0.2485661583
22850162900.0 -0.9594247454 0.2621928853
22900162600.0 -0.9580977779 0.2753894593
22950162300.0 -0.9567355648 0.2882645782
23000162000.0 -0.9553845612 0.3002415144
23050161700.0 -0.9533310319 0.3130697702
23100161400.0 -0.9509705623 0.325311594
23150161100.0 -0.9481121645 0.338338687
23200160800.0 -0.9447416889 0.350218198
23250160500.0 -0.9422534612 0.3620758573
23300160200.0 -0.9393785302 0.3745330712
23350159900.0 -0.9354067377 0.387158369
23400159600.0 -0.9306710696 0.3995797328
23450159300.0 -0.9265620975 0.4128546413
23500159000.0 -0.9217313705 0.4253075296
23550158700.0 -0.9173570456 0.4387015586
23600158400.0 -0.9119763643 0.4516116861
23650158100.0 -0.90578159 0.4649422282
23700157800.0 -0.8984004798 0.4782866284
23750157500.0 -0.8900758804 0.4919193733
23800157200.0 -0.8815166946 0.5049501982
23850156900.0 -0.8728453458 0.5175074147
23900156600.0 -0.8636099842 0.5301243037
23950156300.0 -0.8543362368 0.542821159
24000156000.0 -0.8462081979 0.5539724644
24050155700.0 -0.8364616719 0.5663050948
24100155400.0 -0.826282591 0.5787123084
24150155100.0 -0.8150846761 0.5896785325
24200154800.0 -0.8052106109 0.6007360314
24250154500.0 -0.7935299996 0.613257671
24300154200.0 -0.7826598663 0.6248944467
24350153900.0 -0.7711901411 0.6354451178
24400153600.0 -0.7590156657 0.6460524189
24450153300.0 -0.7472255385 0.6559417589
24500153000.0 -0.7360228726 0.6663234002
24550152700.0 -0.72488388 0.6763617434
24600152400.0 -0.7138564329 0.6853884108
24650152100.0 -0.7023636617 0.6947597983
