!Created with skrf (http://scikit-rf.org).
# Hz S RI R 50.0 
!freq ReS11 ImS11
300000.0 -0.976923106 -0.1121305402
50299700.0 -1.000142894 0.0157951848
100299400.0 -0.998101467 0.0286340592
150299100.0 -1.002858068 0.0454809228
200298800.0 -0.9997970759 0.0588731074
250298500.0 -0.9973904438 0.0723420781
300298200.0 -0.9861707329 0.0881502116
350297900.0 -0.994240306 0.0988767816
400297600.0 -0.99321231 0.1157046305
450297300.0 -0.9909812485 0.1294339666
500297000.0 -0.9894878542 0.1441611299
550296700.0 -0.9842880726 0.1567067107
600296400.0 -1.017233124 0.1901740575
650296100.0 -0.982061621 0.1866639583
700295800.0 -0.9795422987 0.2009596447
750295500.0 -0.9761176543 0.2150273979
800295200.0 -0.9729352341 0.2289186244
850294900.0 -0.9697736008 0.2428659105
900294600.0 -0.9657910033 0.2565044903
950294300.0 -0.9621004147 0.2704363323
1000294000.0 -0.9580507451 0.2842800638
1050293700.0 -0.9536923632 0.2979715669
1100293400.0 -0.9493177372 0.3125867966
1150293100.0 -0.9453812251 0.3244831315
1200292800.0 -0.9399304117 0.3387222115
1250292500.0 -0.9346306884 0.3521683947
1300292200.0 -0.9288657524 0.3653190783
1350291900.0 -0.92333945 0.3793206653
1400291600.0 -0.9177444789 0.3924556215
1450291300.0 -0.9122956882 0.4048784317
1500291000.0 -0.9059336724 0.4183180112
1550290700.0 -0.899360518 0.4316404553
1600290400.0 -0.8933493457 0.4444174993
1650290100.0 -0.8865975678 0.4566876773
1700289800.0 -0.8797405405 0.4700205782
1750289500.0 -0.872680901 0.4824428837
1800289200.0 -0.8653312692 0.4954603368
1850288900.0 -0.8586204335 0.5065339857
1900288600.0 -0.8507262214 0.5197445924
1950288300.0 -0.8425386384 0.53225351
2000288000.0 -0.8353775474 0.5435402435
2050287700.0 -0.8270668168 0.5559322201
2100287400.0 -0.8189178645 0.5675274642
2150287100.0 -0.8104828739 0.579642122
2200286800.0 -0.8026967623 0.5900093466
2250286500.0 -0.7939086777 0.6019779394
2300286200.0 -0.7847257634 0.6135601672
2350285900.0 -0.7761984816 0.6246511721
2400285600.0 -0.7670096921 0.6354025605
2450285300.0 -0.7586520146 0.6460911081
2500285000.0 -0.7488890508 0.6574631736
2550284700.0 -0.7396829839 0.6674650877
2600284400.0 -0.7304814891 0.6778356499
2650284100.0 -0.721387477 0.6881884894
2700283800.0 -0.7108701796 0.698940757
2750283500.0 -0.7004546489 0.7094004292
2800283200.0 -0.6907194372 0.7190560938
2850282900.0 -0.6804583104 0.7289629368
2900282600.0 -0.6701127502 0.7384356158
2950282300.0 -0.6600069223 0.7478019123
3000282000.0 -0.6494946684 0.7572163643
3050281700.0 -0.6381504851 0.7663889214
3100281400.0 -0.625965496 0.7759516705
3150281100.0 -0.6143914056 0.7852011411
3200280800.0 -0.6027702674 0.7936595088
3250280500.0 -0.5918401601 0.8013986316
3300280200.0 -0.5806809545 0.8091492912
3350279900.0 -0.5691880208 0.8168205096
3400279600.0 -0.5570765071 0.8245144788
3450279300.0 -0.5461727495 0.831659779
3500279000.0 -0.5339958352 0.8388734121
3550278700.0 -0.5215193425 0.8459188535
3600278400.0 -0.5090925852 0.8530783779
3650278100.0 -0.4960433659 0.8608662756
3700277800.0 -0.4839661767 0.8672165866
3750277500.0 -0.4716544262 0.8735928832
3800277200.0 -0.4590598711 0.8803133805
3850276900.0 -0.4469198593 0.8860606735
3900276600.0 -0.4363534315 0.8918073359
3950276300.0 -0.4235832074 0.8977635296
4000276000.0 -0.4116550453 0.903756635
4050275700.0 -0.3987985416 0.9098373047
4100275400.0 -0.3874707185 0.9150208209
4150275100.0 -0.3747730974 0.920785959
4200274800.0 -0.36178054 0.9261650219
4250274500.0 -0.3496107486 0.9316038813
4300274200.0 -0.3366546165 0.9368584474
4350273900.0 -0.3229747892 0.9423161456
4400273600.0 -0.3079008371 0.9473183822
4450273300.0 -0.2925502324 0.9524023219
4500273000.0 -0.2789324755 0.9569079749
4550272700.0 -0.2648042243 0.9610781285
4600272400.0 -0.2492605685 0.9652606125
4650272100.0 -0.2376976568 0.9685819656
4700271800.0 -0.224331313 0.97176362
4750271500.0 -0.2127155105 0.9747082312
4800271200.0 -0.2002978378 0.9774306538
4850270900.0 -0.1862203653 0.9802787096
4900270600.0 -0.172506899 0.9826069364
4950270300.0 -0.1581457371 0.9852112954
5000270000.0 -0.1438240516 0.9870836677
5050269700.0 -0.1303676473 0.9887421027
5100269400.0 -0.1167699647 0.9903069133
5150269100.0 -0.1034134454 0.9919036231
5200268800.0 -0.0902971773 0.9931360327
5250268500.0 -0.0773613897 0.9943051785
5300268200.0 -0.0638948506 0.9945754307
5350267900.0 -0.0517106761 0.9953502988
5400267600.0 -0.0356492249 0.9964315308
5450267300.0 -0.0224986197 0.9967140742
5500267000.0 -0.0073362257 0.997119052
5550266700.0 0.0077639514 0.9976055456
5600266400.0 0.0233863626 0.997321763
5650266100.0 0.039674031 0.9970998271
5700265800.0 0.054282974 0.9962338926
5750265500.0 0.0692946302 0.9957366595
5800265200.0 0.0831875947 0.9941572635
5850264900.0 0.0965942291 0.9931854206
5900264600.0 0.1132575394 0.9916203167
5950264300.0 0.1256414769 0.989979938
6000264000.0 0.1392536057 0.9879816345
6050263700.0 0.1519560074 0.9867924783
6100263400.0 0.1641397292 0.984761944
6150263100.0 0.1787209053 0.9825622004
6200262800.0 0.1889498298 0.9807313345
6250262500.0 0.2017506428 0.9781932096
6300262200.0 0.2146141002 0.975463538
6350261900.0 0.2278322163 0.9726422867
6400261600.0 0.2414515616 0.9691930051
6450261300.0 0.2529230056 0.9664654488
6500261000.0 0.2657050024 0.9630479618
6550260700.0 0.2787281087 0.9591511367
6600260400.0 0.2919991512 0.9549145889
6650260100.0 0.3059625921 0.9506310398
6700259800.0 0.3181024343 0.9463673454
6750259500.0 0.3315981759 0.9413699501
6800259200.0 0.3448772605 0.9365722516
6850258900.0 0.3565158573 0.9310972675
6900258600.0 0.3689016009 0.9261855099
6950258300.0 0.3815393449 0.9209064688
7000258000.0 0.3933266556 0.9155119891
7050257700.0 0.4056610584 0.9094312531
7100257400.0 0.4183930302 0.903215287
7150257100.0 0.4288048855 0.8978397083
7200256800.0 0.4417635219 0.8915659482
7250256500.0 0.4536430661 0.8851763134
7300256200.0 0.4663824597 0.8783111343
7350255900.0 0.4789603155 0.8714988872
7400255600.0 0.4918819632 0.8641448506
7450255300.0 0.5075691164 0.8552846166
7500255000.0 0.5192774031 0.8479836148
7550254700.0 0.5330087965 0.8393067041
7600254400.0 0.5459297081 0.8312052969
7650254100.0 0.557766767 0.823578912
7700253800.0 0.5691071876 0.8151543593
7750253500.0 0.5804475803 0.8076495215
7800253200.0 0.5911097039 0.8001510684
7850252900.0 0.6009459595 0.7928056345
7900252600.0 0.6126007927 0.7839617251
7950252300.0 0.6214775357 0.7776049503
8000252000.0 0.6313477946 0.7698629063
8050251700.0 0.6419387933 0.76140413
8100251400.0 0.6520564588 0.7534433088
8150251100.0 0.6623955136 0.7446849858
8200250800.0 0.6720218281 0.7368301186
8250250500.0 0.680304645 0.7288920539
8300250200.0 0.6898606482 0.7203286975
8350249900.0 0.6986884588 0.7117926355
8400249600.0 0.7071553896 0.7037404784
8450249300.0 0.7159872136 0.6941906309
8500249000.0 0.7247895194 0.6856015752
8550248700.0 0.7329494691 0.6766575883
8600248400.0 0.7413944638 0.6670169026
8650248100.0 0.749082489 0.6576151168
8700247800.0 0.7585078158 0.6463402273
8750247500.0 0.7669000994 0.6362906756
8800247200.0 0.7749627164 0.6258832326
8850246900.0 0.7840122386 0.6145625484
8900246600.0 0.7922147571 0.6032939533
8950246300.0 0.8018870287 0.5902771431
9000246000.0 0.8111225713 0.5774054792
9050245700.0 0.8207708328 0.5644702049
9100245400.0 0.8289342363 0.5518577797
9150245100.0 0.8382668846 0.5384066603
9200244800.0 0.847944796 0.5230066091
9250244500.0 0.8574964408 0.5072826915
9300244200.0 0.8659749903 0.4926361095
9350243900.0 0.8735595415 0.4787191118
9400243600.0 0.880473841 0.466482187
9450243300.0 0.8860786347 0.4548561328
9500243000.0 0.8922466566 0.4426298047
9550242700.0 0.8959700072 0.4349713353
9600242400.0 0.8998732993 0.4276455557
9650242100.0 0.9035206213 0.4211524089
9700241800.0 0.9082388044 0.4129321348
9750241500.0 0.9122481041 0.4057075898
9800241200.0 0.9168808136 0.3965670054
9850240900.0 0.9224603135 0.3847571902
9900240600.0 0.9281994605 0.3729815691
9950240300.0 0.9349307345 0.3565036749
10000240000.0 0.9392075491 0.3453943659
10050239700.0 0.9449031706 0.3300836918
10100239400.0 0.9496709894 0.3146792393
10150239100.0 0.9543935766 0.2998020157
10200238800.0 0.9584104333 0.2847470586
10250238500.0 0.961798189 0.2714704878
10300238200.0 0.9648110984 0.2576958969
10350237900.0 0.9675682418 0.2445864432
10400237600.0 0.9700756525 0.2314352481
10450237300.0 0.9727439419 0.2175594103
10500237000.0 0.9748777961 0.205157261
10550236700.0 0.977390814 0.1914890208
10600236400.0 0.9792606262 0.1783674871
10650236100.0 0.9813055565 0.1630021546
10700235800.0 0.9835477702 0.1509832091
10750235500.0 0.9857450681 0.1377831745
10800235200.0 0.9879746605 0.1238613477
10850234900.0 0.9894322786 0.1095385544
10900234600.0 0.9918858136 0.0945106327
10950234300.0 0.9936304453 0.0812063621
11000234000.0 0.9951878541 0.0660839717
11050233700.0 0.9970112081 0.0494725367
11100233400.0 0.9983910006 0.0318995822
11150233100.0 0.9997410418 0.0159753866
11200232800.0 1.000333574 0.0005661981
11250232500.0 1.000906427 -0.0154604284
11300232200.0 1.001693139 -0.0342239842
11350231900.0 1.001832366 -0.0502552194
11400231600.0 1.001181566 -0.0646813858
11450231300.0 1.000869819 -0.0808149718
11500231000.0 0.9996735511 -0.0966279283
11550230700.0 0.9988909677 -0.1103976343
11600230400.0 0.9965759694 -0.1230804581
11650230100.0 0.9951114115 -0.1346964257
11700229800.0 0.9928513008 -0.1492718298
11750229500.0 0.9906225925 -0.1636374183
11800229200.0 0.9878089124 -0.1778251863
11850228900.0 0.9840761939 -0.1903351445
11900228600.0 0.9807463665 -0.1996658931
11950228300.0 0.9771330018 -0.2103171166
12000228000.0 0.9747035767 -0.2185989874
12050227700.0 0.9711484862 -0.2311704018
12100227400.0 0.967225329 -0.2427551549
12150227100.0 0.9629684715 -0.2597539684
12200226800.0 0.9593288158 -0.2702997265
12250226500.0 0.9553430123 -0.282802092
12300226200.0 0.9507839562 -0.2952166739
12350225900.0 0.9457226307 -0.3089546794
12400225600.0 0.9418047135 -0.3219958981
12450225300.0 0.9373740795 -0.3349446501
12500225000.0 0.9318439467 -0.3492766098
12550224700.0 0.9264509031 -0.3630358663
12600224400.0 0.9218099664 -0.376059838
12650224100.0 0.9159219625 -0.3904221357
12700223800.0 0.910609432 -0.4032087567
12750223500.0 0.9053377665 -0.4159953909
12800223200.0 0.9000233063 -0.4284933733
12850222900.0 0.8946402042 -0.4404385448
12900222600.0 0.888433084 -0.4524485861
12950222300.0 0.8823124367 -0.4657529949
13000222000.0 0.8764918193 -0.4766609835
13050221700.0 0.8697885815 -0.4899166558
13100221400.0 0.8628191375 -0.5014998675
13150221100.0 0.8561266642 -0.5136906767
13200220800.0 0.849031768 -0.5254013124
13250220500.0 0.8419804357 -0.5377897842
13300220200.0 0.8344384985 -0.5486105862
13350219900.0 0.8263038006 -0.5607069561
13400219600.0 0.8178862066 -0.5728038353
13450219300.0 0.8083390348 -0.5865334581
13500219000.0 0.7978346397 -0.6005244637
13550218700.0 0.7878500249 -0.6131638189
13600218400.0 0.777626424 -0.6254673176
13650218100.0 0.7679948699 -0.6367792748
13700217800.0 0.7570595927 -0.6491727099
13750217500.0 0.7469491138 -0.6601849754
13800217200.0 0.7354747302 -0.6719918201
13850216900.0 0.7243409862 -0.6835084824
13900216600.0 0.7141017752 -0.6921151038
13950216300.0 0.7042417086 -0.7025160649
14000216000.0 0.6940442426 -0.7112072531
14050215700.0 0.6848388729 -0.7195151952
14100215400.0 0.6747961111 -0.7290613081
14150215100.0 0.6654345257 -0.7373233302
14200214800.0 0.6562652097 -0.7460051261
14250214500.0 0.645984517 -0.7553832556
14300214200.0 0.6355882267 -0.7645973096
14350213900.0 0.6245217816 -0.7743032707
14400213600.0 0.6129881593 -0.7835803214
14450213300.0 0.599582678 -0.7942321857
14500213000.0 0.5862060201 -0.803513346
14550212700.0 0.5741259032 -0.8135926582
14600212400.0 0.5614475039 -0.8222007154
14650212100.0 0.5483966304 -0.8309989858
14700211800.0 0.5337660824 -0.8404936476
14750211500.0 0.5230520607 -0.8485330828
14800211200.0 0.510258652 -0.8564272395
14850210900.0 0.4980929411 -0.8640894068
14900210600.0 0.4848427749 -0.8718711782
14950210300.0 0.4712411834 -0.8795672047
15000210000.0 0.4583311602 -0.8865984274
15050209700.0 0.4460925169 -0.892571916
15100209400.0 0.4330883551 -0.8984860197
15150209100.0 0.4211374878 -0.9035391859
15200208800.0 0.4077107895 -0.9091356165
15250208500.0 0.3969962303 -0.9138947937
15300208200.0 0.3845433122 -0.9185841503
15350207900.0 0.3721054176 -0.9235245507
15400207600.0 0.356560863 -0.9291065417
15450207300.0 0.3420417181 -0.9333817952
15500207000.0 0.3274539509 -0.9379727868
15550206700.0 0.3123205609 -0.9427801865
15600206400.0 0.2965848056 -0.947627746
15650206100.0 0.2807631715 -0.9524227788
15700205800.0 0.2668380331 -0.9556531791
15750205500.0 0.2522347092 -0.9591409193
15800205200.0 0.2378356879 -0.9626011507
15850204900.0 0.2235689302 -0.9659954295
15900204600.0 0.2083849679 -0.9696247124
15950204300.0 0.1941733635 -0.9724147064
16000204000.0 0.1802343947 -0.9753139933
16050203700.0 0.1654166409 -0.9779386667
16100203400.0 0.1507983016 -0.9801700103
16150203100.0 0.1367233365 -0.9829255811
16200202800.0 0.1227490465 -0.9845987276
16250202500.0 0.1079312825 -0.9862383227
16300202200.0 0.0928147993 -0.9874753124
16350201900.0 0.0778244701 -0.9893292367
16400201600.0 0.0632687972 -0.9900557803
16450201300.0 0.0479559622 -0.9912937292
16500201000.0 0.0312603784 -0.991940719
16550200700.0 0.0156091772 -0.9926035701
16600200400.0 -0.0002537393 -0.9926012133
16650200100.0 -0.0165101405 -0.9923064382
16700199800.0 -0.0327036438 -0.9917670873
16750199500.0 -0.0516377382 -0.9914489345
16800199200.0 -0.0674281212 -0.9905778246
16850198900.0 -0.0824395922 -0.9894103507
16900198600.0 -0.0962134237 -0.9883135596
16950198300.0 -0.110310034 -0.9871328501
17000198000.0 -0.1225109721 -0.9854823579
17050197700.0 -0.1353254022 -0.9840284854
17100197400.0 -0.1477597127 -0.9819619164
17150197100.0 -0.1608303482 -0.9802070955
17200196800.0 -0.1735281568 -0.9774646653
17250196500.0 -0.1865636994 -0.9753305202
17300196200.0 -0.1990357761 -0.9731334058
17350195900.0 -0.2107274835 -0.970746641
17400195600.0 -0.2229007229 -0.9683336777
17450195300.0 -0.2360455199 -0.9656474239
17500195000.0 -0.2492962569 -0.9620656174
17550194700.0 -0.2633886437 -0.9583405536
17600194400.0 -0.2772208403 -0.9546530388
17650194100.0 -0.2908123647 -0.950209578
17700193800.0 -0.303854895 -0.9462293656
17750193500.0 -0.3184901549 -0.9418487298
17800193200.0 -0.3324820866 -0.9363396423
17850192900.0 -0.3477716141 -0.9309097202
17900192600.0 -0.3630467659 -0.9248213156
17950192300.0 -0.3782223888 -0.918007453
18000192000.0 -0.3929227572 -0.910336973
18050191700.0 -0.4067851737 -0.9024081907
18100191400.0 -0.420954949 -0.8947503187
18150191100.0 -0.4359647539 -0.8866305602
18200190800.0 -0.4529046195 -0.8774458975
18250190500.0 -0.4698215683 -0.8678885604
18300190200.0 -0.4853925874 -0.8590705826
18350189900.0 -0.500728156 -0.8507835024
18400189600.0 -0.5144411027 -0.8425207135
18450189300.0 -0.5284094558 -0.8342159867
18500189000.0 -0.5410190409 -0.826015669
18550188700.0 -0.5542040115 -0.8189919993
18600188400.0 -0.5657883463 -0.8120188738
18650188100.0 -0.5770757287 -0.8054518687
18700187800.0 -0.5874604307 -0.7991524764
18750187500.0 -0.5981492706 -0.7926100313
18800187200.0 -0.6091254123 -0.7853392198
18850186900.0 -0.6193345994 -0.7783226494
18900186600.0 -0.6294776144 -0.7710920701
18950186300.0 -0.6392963802 -0.7634760049
19000186000.0 -0.6469690012 -0.7573834997
19050185700.0 -0.6558100472 -0.7500124724
19100185400.0 -0.6660932569 -0.7416201655
19150185100.0 -0.6766057435 -0.7329444107
19200184800.0 -0.6860574513 -0.7246350811
19250184500.0 -0.696178134 -0.71546209
19300184200.0 -0.7072320614 -0.7057977202
19350183900.0 -0.7181759071 -0.6961331438
19400183600.0 -0.7279550552 -0.6865432003
19450183300.0 -0.7360663402 -0.6768001677
19500183000.0 -0.7445942358 -0.6669064927
19550182700.0 -0.7543880279 -0.6555802678
19600182400.0 -0.7652231518 -0.6442843045
19650182100.0 -0.7759686968 -0.6317623704
19700181800.0 -0.7865091117 -0.6183477063
19750181500.0 -0.79703451 -0.6040511063
19800181200.0 -0.8072989382 -0.5892191729
19850180900.0 -0.8167401067 -0.5738388955
19900180600.0 -0.824356081 -0.559285681
19950180300.0 -0.8337188179 -0.5427637182
20000180000.0 -0.8270373411 -0.5453428913
20050179700.0 -0.8345951005 -0.5320437313
20100179400.0 -0.8429451487 -0.5187217394
20150179100.0 -0.8514658135 -0.506652777
20200178800.0 -0.8601363877 -0.4932789221
20250178500.0 -0.8698224301 -0.4798510047
20300178200.0 -0.8789615942 -0.4650470919
20350177900.0 -0.8880360922 -0.4508115448
20400177600.0 -0.8970623355 -0.4365852919
20450177300.0 -0.9053128041 -0.4219812088
20500177000.0 -0.9134690117 -0.4080790216
20550176700.0 -0.9216193512 -0.3944355984
20600176400.0 -0.928475219 -0.3813212933
20650176100.0 -0.9349279998 -0.3690878952
20700175800.0 -0.9416125678 -0.3571093649
20750175500.0 -0.9483441204 -0.3452728966
20800175200.0 -0.9531419307 -0.3350295162
20850174900.0 -0.9580241678 -0.3232572642
20900174600.0 -0.963562943 -0.3115003325
20950174300.0 -0.9660670159 -0.3005779462
21000174000.0 -0.9703247651 -0.2891591238
21050173700.0 -0.9721664419 -0.2782379003
21100173400.0 -0.9767489087 -0.2657858793
21150173100.0 -0.9808401149 -0.2535792719
21200172800.0 -0.9842551052 -0.2396400249
21250172500.0 -0.9870469225 -0.2264520635
21300172200.0 -0.9901489944 -0.2121622713
21350171900.0 -0.99151543 -0.1980324296
21400171600.0 -0.9929292438 -0.1835420057
21450171300.0 -0.9938718385 -0.1684926529
21500171000.0 -0.9925194137 -0.1536741465
21550170700.0 -0.9925485132 -0.138457482
21600170400.0 -0.9931059258 -0.1229216447
21650170100.0 -0.9920195717 -0.1067266461
21700169800.0 -0.9910381571 -0.0910953968
21750169500.0 -0.9885407673 -0.0758999521
21800169200.0 -0.9871230851 -0.0600882735
21850168900.0 -0.9867857268 -0.0427802908
21900168600.0 -0.9854953262 -0.0260113421
21950168300.0 -0.9842386535 -0.010586147
22000168000.0 -0.9835467522 0.0041966671
22050167700.0 -0.982871495 0.0188393199
22100167400.0 -0.9831324403 0.0337463934
22150167100.0 -0.983846473 0.0491447562
22200166800.0 -0.9846110042 0.0653469189
22250166500.0 -0.9833026167 0.0826718191
22300166200.0 -0.9828709877 0.0992394959
22350165900.0 -0.9815589828 0.1158168932
22400165600.0 -0.979517116 0.1312920908
22450165300.0 -0.9783210576 0.1467755233
22500165000.0 -0.977262626 0.1613209867
22550164700.0 -0.9747916436 0.1751087963
22600164400.0 -0.9737804273 0.1900577545
22650164100.0 -0.9704415836 0.2057577503
22700163800.0 -0.9679830242 0.22177943
22750163500.0 -0.9660098175 0.237674167
22800163200.0 -0.9627505573 0.2507163865
22850162900.0 -0.9606550869 0.2641075161
22900162600.0 -0.9592511147 0.2773187852
22950162300.0 -0.9582426201 0.2902151101
23000162000.0 -0.9569015574 0.3019549167
23050161700.0 -0.9549021036 0.3145669706
23100161400.0 -0.9525158652 0.3271157635
23150161100.0 -0.9490459066 0.3399306823
23200160800.0 -0.9471485152 0.3513736061
23250160500.0 -0.944805057 0.3645179039
23300160200.0 -0.941834363 0.3757268399
23350159900.0 -0.9372364089 0.3894530548
23400159600.0 -0.9329965171 0.4018559646
23450159300.0 -0.9285713568 0.4156618644
23500159000.0 -0.9237996095 0.4282456585
23550158700.0 -0.9194538782 0.4413672633
23600158400.0 -0.9138568735 0.4551986101
23650158100.0 -0.9075992787 0.4687902756
23700157800.0 -0.8997849948 0.4827440235
23750157500.0 -0.8915511597 0.4967583486
23800157200.0 -0.8826017522 0.5101040332
23850156900.0 -0.8737742717 0.5230999466
23900156600.0 -0.8646394831 0.5350560475
23950156300.0 -0.8545746037 0.5474391934
24000156000.0 -0.8454094682 0.5596701981
24050155700.0 -0.8360060924 0.5717902821
24100155400.0 -0.8257331053 0.5831074771
24150155100.0 -0.8141059426 0.5948855578
24200154800.0 -0.8040118723 0.606472576
24250154500.0 -0.7922937163 0.6179275751
24300154200.0 -0.7809262846 0.62988268
24350153900.0 -0.7691940229 0.6400980606
24400153600.0 -0.7568941501 0.6504359982
24450153300.0 -0.745066943 0.6604778027
24500153000.0 -0.7333928475 0.6699305019
24550152700.0 -0.7219613073 0.6796403568
24600152400.0 -0.7108589216 0.6883789753
24650152100.0 -0.6984818305 0.6973038365
