!Created with skrf (http://scikit-rf.org).
# Hz S RI R 50.0 
!freq ReS11 ImS11
300000.0 -0.9755684329 -0.1201937647
50299700.0 -0.9999950968 0.0152644766
100299400.0 -0.9979769761 0.0282941607
150299100.0 -1.002809648 0.0452007076
200298800.0 -0.9996936004 0.0584177623
250298500.0 -0.9974076129 0.0718043303
300298200.0 -0.985968352 0.0878252071
350297900.0 -0.9940738493 0.09854229
400297600.0 -0.9931120921 0.115147269
450297300.0 -0.9911329705 0.1287578043
500297000.0 -0.9896364991 0.1435603149
550296700.0 -0.9845539749 0.1560971887
600296400.0 -1.017245383 0.1895458679
650296100.0 -0.9822381319 0.1858684263
700295800.0 -0.9791513841 0.2002969606
750295500.0 -0.9763715836 0.2142243616
800295200.0 -0.9732032047 0.2284123722
850294900.0 -0.969729337 0.2421612196
900294600.0 -0.9658808271 0.2558728611
950294300.0 -0.962308619 0.2695837547
1000294000.0 -0.9580640121 0.2837316969
1050293700.0 -0.9537576352 0.2973481462
1100293400.0 -0.9493594233 0.3119091216
1150293100.0 -0.9455600224 0.3238006383
1200292800.0 -0.9402918739 0.3379139115
1250292500.0 -0.9348423582 0.3514302005
1300292200.0 -0.9290623942 0.3647462153
1350291900.0 -0.9235042227 0.3786760566
1400291600.0 -0.9180928903 0.391752883
1450291300.0 -0.91251675 0.4042908137
1500291000.0 -0.9062500867 0.4175784155
1550290700.0 -0.8996907585 0.4308834128
1600290400.0 -0.8933154971 0.4436980142
1650290100.0 -0.8868608147 0.4560868009
1700289800.0 -0.8797581875 0.4695583824
1750289500.0 -0.8728358778 0.4817439249
1800289200.0 -0.8654634595 0.4947140797
1850288900.0 -0.8587572312 0.5059408972
1900288600.0 -0.8510952229 0.5189524426
1950288300.0 -0.8427407396 0.5315373327
2000288000.0 -0.8354859983 0.5428699157
2050287700.0 -0.8271826505 0.5552881057
2100287400.0 -0.8193305759 0.566862062
2150287100.0 -0.81075123 0.579022968
2200286800.0 -0.803097395 0.5892437948
2250286500.0 -0.794278749 0.6012550049
2300286200.0 -0.7852908869 0.6130731742
2350285900.0 -0.7766607196 0.6240806952
2400285600.0 -0.7674818836 0.6348587684
2450285300.0 -0.7591642912 0.6454027238
2500285000.0 -0.7494990195 0.6566121176
2550284700.0 -0.7403210521 0.6667755995
2600284400.0 -0.731051873 0.677053152
2650284100.0 -0.722073389 0.6875131194
2700283800.0 -0.7112634527 0.698005539
2750283500.0 -0.7012518327 0.7088161318
2800283200.0 -0.691285267 0.7183149811
2850282900.0 -0.68136379 0.7282732729
2900282600.0 -0.6707989984 0.7377950588
2950282300.0 -0.6605516861 0.7470797238
3000282000.0 -0.649868181 0.7566126512
3050281700.0 -0.6387140123 0.7658085157
3100281400.0 -0.6267650927 0.7751585799
3150281100.0 -0.6149821197 0.7844444795
3200280800.0 -0.6032254312 0.7930853394
3250280500.0 -0.5926013637 0.8008685963
3300280200.0 -0.5814075931 0.8087513997
3350279900.0 -0.5696445098 0.8163596675
3400279600.0 -0.5574587846 0.8238972797
3450279300.0 -0.5464211306 0.8310935711
3500279000.0 -0.5344706546 0.8382547809
3550278700.0 -0.522107068 0.8455894055
3600278400.0 -0.5096296829 0.8524740774
3650278100.0 -0.4963795231 0.8603506311
3700277800.0 -0.4846457296 0.866645344
3750277500.0 -0.4723904242 0.8732228102
3800277200.0 -0.4599043846 0.8798359935
3850276900.0 -0.4479262773 0.885614085
3900276600.0 -0.4368948833 0.8914838381
3950276300.0 -0.4245439848 0.8975169054
4000276000.0 -0.4125740864 0.9032050663
4050275700.0 -0.3998228047 0.9095500038
4100275400.0 -0.388555517 0.914868453
4150275100.0 -0.3758958326 0.920626782
4200274800.0 -0.3629541316 0.9260194003
4250274500.0 -0.3507103734 0.9312957596
4300274200.0 -0.3379222617 0.9364717322
4350273900.0 -0.3239919152 0.9415998607
4400273600.0 -0.309011011 0.9471928867
4450273300.0 -0.2937521843 0.9521361107
4500273000.0 -0.2801481672 0.9566618838
4550272700.0 -0.2660317332 0.9609314183
4600272400.0 -0.2506208422 0.9650875674
4650272100.0 -0.2388463661 0.9682948655
4700271800.0 -0.2255480549 0.9715454701
4750271500.0 -0.2139913323 0.9744822421
4800271200.0 -0.2013672626 0.9771614379
4850270900.0 -0.1874232548 0.9799379081
4900270600.0 -0.1736185925 0.9823095327
4950270300.0 -0.1593240035 0.9850001682
5000270000.0 -0.1449806567 0.9867778119
5050269700.0 -0.131391483 0.988621473
5100269400.0 -0.1176966869 0.9898223869
5150269100.0 -0.1043840444 0.9918086344
5200268800.0 -0.09102989 0.9929847184
5250268500.0 -0.0782328669 0.9938298478
5300268200.0 -0.0649729803 0.9947999863
5350267900.0 -0.0529416533 0.9950957342
5400267600.0 -0.0366615948 0.9962935817
5450267300.0 -0.0233135515 0.9966960925
5500267000.0 -0.0082368884 0.9969128664
5550266700.0 0.0066031822 0.997077131
5600266400.0 0.0222769401 0.9973592576
5650266100.0 0.0387656559 0.9971364532
5700265800.0 0.0531262287 0.9959739259
5750265500.0 0.0684557159 0.9953078708
5800265200.0 0.0823864601 0.9941865613
5850264900.0 0.0955156688 0.993617638
5900264600.0 0.1121729707 0.9914668153
5950264300.0 0.1242063695 0.9902613464
6000264000.0 0.1378411756 0.9882677147
6050263700.0 0.1506551849 0.9873604937
6100263400.0 0.1627501646 0.9849288725
6150263100.0 0.1776330695 0.9829815409
6200262800.0 0.1879430109 0.9809981111
6250262500.0 0.2003783147 0.978570406
6300262200.0 0.2131175695 0.9758885407
6350261900.0 0.2263452757 0.9728870206
6400261600.0 0.2401082602 0.9696495887
6450261300.0 0.2512641931 0.9669045323
6500261000.0 0.2645747916 0.9635984197
6550260700.0 0.2774975508 0.9595524729
6600260400.0 0.2907424704 0.9555013887
6650260100.0 0.3047761818 0.9511134169
6700259800.0 0.316360226 0.9465750587
6750259500.0 0.3305433261 0.9417272186
6800259200.0 0.3436748883 0.9366442175
6850258900.0 0.3557329513 0.9315255671
6900258600.0 0.3678643448 0.9265704033
6950258300.0 0.3803162906 0.9212284102
7000258000.0 0.392509601 0.9160173949
7050257700.0 0.4047338668 0.9099016064
7100257400.0 0.4173807211 0.9035258552
7150257100.0 0.4277970931 0.8984170138
7200256800.0 0.4405769909 0.8920025932
7250256500.0 0.4524110866 0.8854347371
7300256200.0 0.4655956535 0.8786616224
7350255900.0 0.4783169205 0.8722169412
7400255600.0 0.4913298019 0.8648302096
7450255300.0 0.5066242402 0.8556434981
7500255000.0 0.5186161577 0.8487978546
7550254700.0 0.5320114089 0.8400336896
7600254400.0 0.5449198597 0.8316400817
7650254100.0 0.5563232079 0.8239522332
7700253800.0 0.5684230585 0.8160968412
7750253500.0 0.5793495377 0.8083443061
7800253200.0 0.5901669837 0.8007116147
7850252900.0 0.5999718987 0.7936819924
7900252600.0 0.6115927481 0.7850060574
7950252300.0 0.6203968659 0.7783152513
8000252000.0 0.630284683 0.7706564175
8050251700.0 0.6408963929 0.7626036204
8100251400.0 0.6513163732 0.7544545995
8150251100.0 0.6609006569 0.7456809089
8200250800.0 0.6705242322 0.7378925916
8250250500.0 0.6791137155 0.7299113181
8300250200.0 0.6886817679 0.7213869915
8350249900.0 0.6975876617 0.7125571703
8400249600.0 0.7062367687 0.7044051375
8450249300.0 0.7152982058 0.6952468008
8500249000.0 0.7238069841 0.6865775414
8550248700.0 0.7318326565 0.6774555894
8600248400.0 0.7405681971 0.6679578037
8650248100.0 0.748190187 0.658397503
8700247800.0 0.7578117028 0.6473061183
8750247500.0 0.7662142548 0.6369840136
8800247200.0 0.7740516602 0.6267557406
8850246900.0 0.7831982937 0.615364552
8900246600.0 0.7915729215 0.6039365919
8950246300.0 0.8012033553 0.5909660516
9000246000.0 0.8102909458 0.5784812363
9050245700.0 0.8194386026 0.5653810046
9100245400.0 0.8279741034 0.5528874447
9150245100.0 0.8373920347 0.539433832
9200244800.0 0.8471456251 0.5243172708
9250244500.0 0.8562927974 0.5088530558
9300244200.0 0.8649140393 0.494485034
9350243900.0 0.872490846 0.4807039965
9400243600.0 0.8790496244 0.4685016564
9450243300.0 0.8850318459 0.45690725
9500243000.0 0.8914120177 0.4446046558
9550242700.0 0.8952611139 0.4370504869
9600242400.0 0.8991200035 0.4296623962
9650242100.0 0.9028784382 0.4232130651
9700241800.0 0.9076674326 0.4148270687
9750241500.0 0.9113130376 0.4074214928
9800241200.0 0.9160764094 0.3981087529
9850240900.0 0.9219371103 0.386181958
9900240600.0 0.9275673115 0.3746683199
9950240300.0 0.9343567181 0.3584403047
10000240000.0 0.9389284906 0.3470338793
10050239700.0 0.9443801234 0.3319010791
10100239400.0 0.9494005303 0.3165028156
10150239100.0 0.9538874473 0.3015474871
10200238800.0 0.9582096727 0.2864094201
10250238500.0 0.9613220604 0.2731246807
10300238200.0 0.9644254951 0.2590171292
10350237900.0 0.9672988564 0.2459888198
10400237600.0 0.969642126 0.2330542863
10450237300.0 0.9724757979 0.2191318482
10500237000.0 0.9748349035 0.206756524
10550236700.0 0.9770560693 0.192638047
10600236400.0 0.979087719 0.179078095
10650236100.0 0.9813539553 0.1641979739
10700235800.0 0.9831107315 0.1525453999
10750235500.0 0.985776054 0.1389939901
10800235200.0 0.987925364 0.1246153787
10850234900.0 0.9894977365 0.1098865932
10900234600.0 0.9915487052 0.0955088516
10950234300.0 0.9933180993 0.0822639738
11000234000.0 0.9950818611 0.067158439
11050233700.0 0.996974762 0.0508665977
11100233400.0 0.9982825375 0.0335294825
11150233100.0 0.9996517027 0.0171565806
11200232800.0 1.000541023 0.0025456073
11250232500.0 1.001198248 -0.0140302518
11300232200.0 1.001772063 -0.0325251374
11350231900.0 1.001836627 -0.0478375561
11400231600.0 1.001457019 -0.0634681233
11450231300.0 1.001205182 -0.0790650904
11500231000.0 0.9998078377 -0.094427318
11550230700.0 0.9984086471 -0.1081776695
11600230400.0 0.9970034408 -0.1207058959
11650230100.0 0.9953518898 -0.1329266729
11700229800.0 0.9932420888 -0.1471777685
11750229500.0 0.9905908775 -0.1615037581
11800229200.0 0.9882822976 -0.1751776201
11850228900.0 0.9847668304 -0.1875906373
11900228600.0 0.9813604487 -0.1974593361
11950228300.0 0.9780769961 -0.2073051751
12000228000.0 0.9755076191 -0.2163249926
12050227700.0 0.9716688116 -0.2294335659
12100227400.0 0.9685136504 -0.2405233709
12150227100.0 0.9631862809 -0.2577156659
12200226800.0 0.9601799298 -0.2683089666
12250226500.0 0.9557512553 -0.2811608246
12300226200.0 0.9519602488 -0.2930298653
12350225900.0 0.9467797241 -0.3082399398
12400225600.0 0.9428181904 -0.3203356826
12450225300.0 0.9377616241 -0.3328868846
12500225000.0 0.9321113722 -0.3482273161
12550224700.0 0.9271022957 -0.3618776698
12600224400.0 0.9219514143 -0.3745549901
12650224100.0 0.9163567939 -0.3891643628
12700223800.0 0.9110703234 -0.4020980473
12750223500.0 0.905749362 -0.4147564099
12800223200.0 0.9002402483 -0.4273155305
12850222900.0 0.8946814241 -0.4401787095
12900222600.0 0.8893106653 -0.4520347362
12950222300.0 0.8828124768 -0.4645199923
13000222000.0 0.8772594937 -0.4760219814
13050221700.0 0.870197741 -0.4891218664
13100221400.0 0.8636373043 -0.500656404
13150221100.0 0.8570881728 -0.5130908281
13200220800.0 0.8496460314 -0.5250295227
13250220500.0 0.8424699183 -0.5367088835
13300220200.0 0.8354053411 -0.5474518131
13350219900.0 0.8272477625 -0.5595372959
13400219600.0 0.8189875319 -0.5716216916
13450219300.0 0.8097256903 -0.5849925886
13500219000.0 0.7990277415 -0.5990934877
13550218700.0 0.7895422768 -0.6115920202
13600218400.0 0.779400695 -0.6235337864
13650218100.0 0.7696876291 -0.6349377293
13700217800.0 0.7583672544 -0.6476292453
13750217500.0 0.7487549589 -0.6583941071
13800217200.0 0.7372009357 -0.6700081994
13850216900.0 0.7264090197 -0.6817903244
13900216600.0 0.7163194767 -0.6904250531
13950216300.0 0.7056016632 -0.7007099241
14000216000.0 0.6950310776 -0.7096953587
14050215700.0 0.6864798088 -0.7181265717
14100215400.0 0.6766284099 -0.7273436558
14150215100.0 0.6673422843 -0.7359024504
14200214800.0 0.6577578101 -0.7446761842
14250214500.0 0.647611973 -0.7540527231
14300214200.0 0.637357382 -0.7632331113
14350213900.0 0.6261783501 -0.7730756441
14400213600.0 0.6143308802 -0.7827240952
14450213300.0 0.6009359444 -0.7929296773
14500213000.0 0.5877241023 -0.802689169
14550212700.0 0.5754729561 -0.8124805506
14600212400.0 0.5628885526 -0.8207375095
14650212100.0 0.5499085754 -0.8296415043
14700211800.0 0.5363748381 -0.8395612606
14750211500.0 0.5242341057 -0.8473520268
14800211200.0 0.5120894125 -0.8558015031
14850210900.0 0.4998935345 -0.8630117024
14900210600.0 0.4867153479 -0.8711144293
14950210300.0 0.47318003 -0.878718932
15000210000.0 0.4605960451 -0.8855503935
15050209700.0 0.4481850061 -0.8914307284
15100209400.0 0.4352951269 -0.8975177729
15150209100.0 0.4232799583 -0.9025730294
15200208800.0 0.4107744835 -0.9081272757
15250208500.0 0.3991877998 -0.9131701579
15300208200.0 0.3873893572 -0.9171363218
15350207900.0 0.3738219728 -0.9221394747
15400207600.0 0.3594567427 -0.9272054185
15450207300.0 0.3446022814 -0.9334246128
15500207000.0 0.3301828209 -0.9374582408
15550206700.0 0.3156056472 -0.9424187141
15600206400.0 0.2995639263 -0.9466199146
15650206100.0 0.283800155 -0.9509756675
15700205800.0 0.2697402546 -0.9548011555
15750205500.0 0.2551137385 -0.9583568446
15800205200.0 0.2409871718 -0.961805075
15850204900.0 0.2264849507 -0.9653501287
15900204600.0 0.2115404248 -0.9690414347
15950204300.0 0.1970297629 -0.9718908845
16000204000.0 0.1828554779 -0.9747174402
16050203700.0 0.1677170482 -0.9779159111
16100203400.0 0.1532852746 -0.980314547
16150203100.0 0.1393322824 -0.9821570301
16200202800.0 0.1249623054 -0.9844200147
16250202500.0 0.1100872705 -0.9862851796
16300202200.0 0.0948672398 -0.9875600208
16350201900.0 0.0797202195 -0.9891629767
16400201600.0 0.0648198297 -0.9902623294
16450201300.0 0.0496901593 -0.9910968427
16500201000.0 0.0329994669 -0.9921109553
16550200700.0 0.0174228139 -0.9926712207
16600200400.0 0.0016823074 -0.9926484664
16650200100.0 -0.0143511956 -0.9929776724
16700199800.0 -0.030618821 -0.9925519603
16750199500.0 -0.0491293999 -0.9917051201
16800199200.0 -0.0654181789 -0.9916438827
16850198900.0 -0.080564586 -0.989838571
16900198600.0 -0.0940846335 -0.9888488306
16950198300.0 -0.1074814924 -0.9869500978
17000198000.0 -0.119834083 -0.98635048
17050197700.0 -0.1326750649 -0.9846165959
17100197400.0 -0.1457242255 -0.9828409895
17150197100.0 -0.1584984901 -0.9803468715
17200196800.0 -0.171370053 -0.9785608904
17250196500.0 -0.1842607739 -0.9758108362
17300196200.0 -0.1962804945 -0.973596417
17350195900.0 -0.2080977319 -0.9712686048
17400195600.0 -0.2203120124 -0.9689984491
17450195300.0 -0.2335077485 -0.966087005
17500195000.0 -0.247084265 -0.962752962
17550194700.0 -0.261098304 -0.959062827
17600194400.0 -0.2747328873 -0.955390102
17650194100.0 -0.2881846705 -0.9506267419
17700193800.0 -0.3012884308 -0.9469077589
17750193500.0 -0.3158726463 -0.9425054969
17800193200.0 -0.3304229741 -0.9371966558
17850192900.0 -0.3456560604 -0.9315343066
17900192600.0 -0.3606416616 -0.9256332123
17950192300.0 -0.3762768333 -0.9185349092
18000192000.0 -0.3911410421 -0.9113046235
18050191700.0 -0.4050510944 -0.9034246028
18100191400.0 -0.4192634334 -0.8957316188
18150191100.0 -0.4343784223 -0.8877937091
18200190800.0 -0.4511130495 -0.8786057902
18250190500.0 -0.4682654011 -0.8691350111
18300190200.0 -0.4833066771 -0.860612703
18350189900.0 -0.4985846355 -0.8519658511
18400189600.0 -0.5132893117 -0.8436358761
18450189300.0 -0.52642527 -0.8355448387
18500189000.0 -0.5391213011 -0.8279295481
18550188700.0 -0.5523720647 -0.8207052242
18600188400.0 -0.5635309849 -0.8140201198
18650188100.0 -0.5751253927 -0.8073504343
18700187800.0 -0.5857708318 -0.8010939451
18750187500.0 -0.5963722544 -0.7944251341
18800187200.0 -0.6069433885 -0.7874116612
18850186900.0 -0.6169097434 -0.7805046099
18900186600.0 -0.6271628162 -0.7732741357
18950186300.0 -0.6370871885 -0.7653331005
19000186000.0 -0.6445090794 -0.7592847957
19050185700.0 -0.6538106436 -0.7520915402
19100185400.0 -0.6632134356 -0.7438368833
19150185100.0 -0.6732810623 -0.7356919611
19200184800.0 -0.6835162032 -0.7267984159
19250184500.0 -0.6932003166 -0.7179104397
19300184200.0 -0.7045203881 -0.7073757684
19350183900.0 -0.7152294873 -0.6983357763
19400183600.0 -0.724843094 -0.6887791349
19450183300.0 -0.7341621844 -0.6783927986
19500183000.0 -0.7425811059 -0.6682056493
19550182700.0 -0.7519883071 -0.6575402521
19600182400.0 -0.7624579537 -0.6462728378
19650182100.0 -0.7736463833 -0.6335267295
19700181800.0 -0.7841162436 -0.6203991677
19750181500.0 -0.7948806389 -0.6061357512
19800181200.0 -0.8052949315 -0.5912604753
19850180900.0 -0.8149153518 -0.5759289863
19900180600.0 -0.823067212 -0.5614669579
19950180300.0 -0.8323077698 -0.5451222712
20000180000.0 -0.8255608651 -0.5472307969
20050179700.0 -0.8334409884 -0.533986172
20100179400.0 -0.8421932962 -0.5211588149
20150179100.0 -0.8506458865 -0.5082402936
20200178800.0 -0.8593415083 -0.4958395139
20250178500.0 -0.8687017306 -0.4818039782
20300178200.0 -0.8787209843 -0.4672356811
20350177900.0 -0.887218825 -0.4526263181
20400177600.0 -0.8961012097 -0.4382106815
20450177300.0 -0.9046241954 -0.4240827714
20500177000.0 -0.9124378822 -0.4101123743
20550176700.0 -0.9204528609 -0.3965215606
20600176400.0 -0.9271254983 -0.3837687939
20650176100.0 -0.9334159215 -0.371321157
20700175800.0 -0.9408138554 -0.3592894708
20750175500.0 -0.9468371023 -0.3485042954
20800175200.0 -0.9515265633 -0.3364981724
20850174900.0 -0.9567450675 -0.325909566
20900174600.0 -0.9618473272 -0.3145072426
20950174300.0 -0.9654185291 -0.3032044226
21000174000.0 -0.968377017 -0.2919855824
21050173700.0 -0.9705587284 -0.2810187735
21100173400.0 -0.9752825959 -0.268850747
21150173100.0 -0.9791426062 -0.256777514
21200172800.0 -0.9832979514 -0.243440602
21250172500.0 -0.9858616135 -0.2299480089
21300172200.0 -0.9889357936 -0.2158420582
21350171900.0 -0.9906824289 -0.20152912
21400171600.0 -0.9916120225 -0.1871257253
21450171300.0 -0.9921334192 -0.1727258826
21500171000.0 -0.9923552733 -0.1575914588
21550170700.0 -0.9922755431 -0.1425479176
21600170400.0 -0.9921046759 -0.1260620033
21650170100.0 -0.9913883832 -0.1111298754
21700169800.0 -0.9887378787 -0.0950413621
21750169500.0 -0.9890011106 -0.0786788058
21800169200.0 -0.9884325035 -0.0631710679
21850168900.0 -0.9868979511 -0.0457322584
21900168600.0 -0.9864544482 -0.0300791977
21950168300.0 -0.9853574607 -0.0136117774
22000168000.0 -0.9844053224 0.0010182473
22050167700.0 -0.9839283008 0.0154880208
22100167400.0 -0.9842732231 0.0305671955
22150167100.0 -0.9849409464 0.0461495792
22200166800.0 -0.9856826716 0.0630885339
22250166500.0 -0.9840090231 0.0793391014
22300166200.0 -0.9845048209 0.0967994585
22350165900.0 -0.983723036 0.1128247607
22400165600.0 -0.9807251089 0.12938599
22450165300.0 -0.9794446103 0.1434440614
22500165000.0 -0.9769979131 0.1575553679
22550164700.0 -0.9760652116 0.1727794051
22600164400.0 -0.9746003875 0.1878877849
22650164100.0 -0.9725252967 0.2027519182
22700163800.0 -0.9696349183 0.2191797824
22750163500.0 -0.9671669099 0.2334765815
22800163200.0 -0.9645294455 0.2469955043
22850162900.0 -0.9620939651 0.2605725607
22900162600.0 -0.9600803897 0.273671909
22950162300.0 -0.9592646796 0.2867189884
23000162000.0 -0.9578042406 0.2984643977
23050161700.0 -0.9559960323 0.3112244564
23100161400.0 -0.9528453198 0.3239673753
23150161100.0 -0.9513733382 0.3366865625
23200160800.0 -0.9476326621 0.3489726689
23250160500.0 -0.9459434238 0.3604201208
23300160200.0 -0.9430817116 0.3724425956
23350159900.0 -0.9384250784 0.3861643483
23400159600.0 -0.9342309987 0.3998109758
23450159300.0 -0.929175308 0.4126999817
23500159000.0 -0.9247647816 0.4255143816
23550158700.0 -0.9203144527 0.4391369656
23600158400.0 -0.915003983 0.4520592017
23650158100.0 -0.9085580413 0.4663864151
23700157800.0 -0.9009842892 0.4804547259
23750157500.0 -0.8923236717 0.4944141388
23800157200.0 -0.883129836 0.5080495526
23850156900.0 -0.8742698382 0.519965174
23900156600.0 -0.8653979484 0.5328225644
23950156300.0 -0.855795767 0.5457102265
24000156000.0 -0.8475539012 0.5575219888
24050155700.0 -0.8375335515 0.5692151555
24100155400.0 -0.8275271809 0.5806173987
24150155100.0 -0.8163370018 0.5922807306
24200154800.0 -0.8057152775 0.6044646806
24250154500.0 -0.7942402345 0.6160405683
24300154200.0 -0.7829638001 0.6271527525
24350153900.0 -0.7719303123 0.6381887131
24400153600.0 -0.7590399498 0.6483914031
24450153300.0 -0.7473126144 0.658327839
24500153000.0 -0.7360855484 0.6679627883
24550152700.0 -0.725088709 0.6778513404
24600152400.0 -0.7136018511 0.6872016206
24650152100.0 -0.701067029 0.6949957998
