!Created with skrf (http://scikit-rf.org).
# Hz S RI R 50.0 
!freq ReS11 ImS11
300000.0 -0.9740361319 -0.1192868047
50299700.0 -0.9998632739 0.0150585001
100299400.0 -0.9980189747 0.0280327361
150299100.0 -1.002575017 0.0450826051
200298800.0 -0.9996899528 0.0582537454
250298500.0 -0.9972438683 0.0715728333
300298200.0 -0.9857380915 0.0874656931
350297900.0 -0.9939465706 0.0984307169
400297600.0 -0.9931382308 0.1151114078
450297300.0 -0.9909220917 0.1288905679
500297000.0 -0.9893154388 0.1434606567
550296700.0 -0.9842608738 0.1558595135
600296400.0 -1.017284096 0.1893554108
650296100.0 -0.9821847012 0.1860029758
700295800.0 -0.9792171291 0.2001747839
750295500.0 -0.9763179736 0.2140133382
800295200.0 -0.9731038221 0.2282410002
850294900.0 -0.9695251864 0.2418945895
900294600.0 -0.9659298532 0.2558182816
950294300.0 -0.9620592208 0.2695713315
1000294000.0 -0.9581492644 0.2834323837
1050293700.0 -0.9536887084 0.2973881226
1100293400.0 -0.9492907165 0.3115610924
1150293100.0 -0.9456002276 0.3235112289
1200292800.0 -0.9400793537 0.3378305267
1250292500.0 -0.9346280572 0.3512172303
1300292200.0 -0.9287972565 0.3646349547
1350291900.0 -0.9235319306 0.3784848343
1400291600.0 -0.9178065022 0.3916768934
1450291300.0 -0.9124253308 0.404087736
1500291000.0 -0.9062180761 0.4174487125
1550290700.0 -0.8997064068 0.4309118279
1600290400.0 -0.893252681 0.4436670697
1650290100.0 -0.886868731 0.455854157
1700289800.0 -0.8798088854 0.4691922477
1750289500.0 -0.8726448927 0.4816412464
1800289200.0 -0.8655255721 0.494419353
1850288900.0 -0.8587159944 0.5057877413
1900288600.0 -0.8509331042 0.5189399656
1950288300.0 -0.8429493971 0.5314401129
2000288000.0 -0.835427047 0.542897448
2050287700.0 -0.8271552744 0.5553228737
2100287400.0 -0.8193228076 0.5667050419
2150287100.0 -0.8108902267 0.5788547303
2200286800.0 -0.8029985968 0.5892111867
2250286500.0 -0.7942224791 0.6013473127
2300286200.0 -0.7852381694 0.6128317681
2350285900.0 -0.7766779146 0.6235498902
2400285600.0 -0.767937732 0.6344798262
2450285300.0 -0.7592004642 0.6451141743
2500285000.0 -0.7491399975 0.6568191996
2550284700.0 -0.7403505654 0.6671504536
2600284400.0 -0.7312964373 0.6771962267
2650284100.0 -0.722131583 0.6872446615
2700283800.0 -0.7117184698 0.69762676
2750283500.0 -0.7011036126 0.7081546925
2800283200.0 -0.6917454715 0.7181782294
2850282900.0 -0.6811094311 0.7281645595
2900282600.0 -0.670757175 0.7378274259
2950282300.0 -0.6603435769 0.7472664594
3000282000.0 -0.6495726514 0.7566893814
3050281700.0 -0.638491788 0.765892963
3100281400.0 -0.6267144712 0.7750195998
3150281100.0 -0.6153565765 0.7839746995
3200280800.0 -0.6037868908 0.7926556936
3250280500.0 -0.5927160119 0.8004587944
3300280200.0 -0.5815215023 0.8085828768
3350279900.0 -0.569367019 0.8165401751
3400279600.0 -0.5568298641 0.8244734461
3450279300.0 -0.5458076941 0.8315010945
3500279000.0 -0.5337400244 0.8384895582
3550278700.0 -0.5214283277 0.8455297466
3600278400.0 -0.5097184343 0.8525041002
3650278100.0 -0.496485935 0.8598921492
3700277800.0 -0.4846280963 0.8666334822
3750277500.0 -0.4722134742 0.8732786739
3800277200.0 -0.4599027629 0.8800231194
3850276900.0 -0.4476482346 0.8857426725
3900276600.0 -0.4369255154 0.8913122324
3950276300.0 -0.4243312293 0.8971645301
4000276000.0 -0.4128577028 0.9031205022
4050275700.0 -0.4002372421 0.9094872192
4100275400.0 -0.3891098059 0.9147632509
4150275100.0 -0.3758938792 0.9205039656
4200274800.0 -0.3626063415 0.9260611118
4250274500.0 -0.3501155533 0.9314285607
4300274200.0 -0.3368599669 0.9365668422
4350273900.0 -0.3227630457 0.9421601388
4400273600.0 -0.3081047702 0.9471398453
4450273300.0 -0.2930945173 0.9522341602
4500273000.0 -0.2797561681 0.9565547434
4550272700.0 -0.265825133 0.9605006519
4600272400.0 -0.2508575701 0.9645856168
4650272100.0 -0.2394583336 0.9680129031
4700271800.0 -0.2263571344 0.9712164835
4750271500.0 -0.2145911133 0.9741614319
4800271200.0 -0.2024394032 0.9769195719
4850270900.0 -0.1885937309 0.9796499861
4900270600.0 -0.1748055232 0.9820486504
4950270300.0 -0.160246783 0.9847560415
5000270000.0 -0.1458062106 0.9865869644
5050269700.0 -0.1322944027 0.9879048894
5100269400.0 -0.1180987018 0.9901578514
5150269100.0 -0.1045113136 0.9914666224
5200268800.0 -0.091109315 0.9930081731
5250268500.0 -0.0780073307 0.9936024274
5300268200.0 -0.0645889094 0.9944675891
5350267900.0 -0.0517467648 0.9950866961
5400267600.0 -0.0357248622 0.9963247294
5450267300.0 -0.0224210045 0.9965727433
5500267000.0 -0.0071195946 0.9968695734
5550266700.0 0.0078391791 0.9971731378
5600266400.0 0.0234474338 0.9970107328
5650266100.0 0.0403087626 0.9969607696
5700265800.0 0.054589317 0.9960123695
5750265500.0 0.0699104048 0.9954286703
5800265200.0 0.0831214263 0.9941223669
5850264900.0 0.0963006274 0.9932709637
5900264600.0 0.1128896438 0.9918556809
5950264300.0 0.1247314643 0.989484295
6000264000.0 0.1380181286 0.9879142131
6050263700.0 0.1500920935 0.9864724414
6100263400.0 0.1621415814 0.9847601917
6150263100.0 0.1771452367 0.9826882738
6200262800.0 0.1870405911 0.9810764351
6250262500.0 0.1993565142 0.9785614352
6300262200.0 0.211648089 0.9760633497
6350261900.0 0.2246591771 0.9732799847
6400261600.0 0.2385295877 0.9701461531
6450261300.0 0.2496641812 0.9673723567
6500261000.0 0.2629350199 0.9637737232
6550260700.0 0.2759848861 0.9598703149
6600260400.0 0.2891728905 0.9556833033
6650260100.0 0.303490596 0.9514775652
6700259800.0 0.3155494316 0.9470689784
6750259500.0 0.3290709366 0.9419463923
6800259200.0 0.342877212 0.9370182547
6850258900.0 0.3551349579 0.9319075457
6900258600.0 0.3674974263 0.926672402
6950258300.0 0.3800253479 0.9213827598
7000258000.0 0.3917474192 0.9159077465
7050257700.0 0.4038037111 0.9100962742
7100257400.0 0.417050525 0.903597094
7150257100.0 0.4275040074 0.8983817747
7200256800.0 0.440888588 0.8920157021
7250256500.0 0.4529025865 0.8854094905
7300256200.0 0.4661727084 0.8787481546
7350255900.0 0.4788450398 0.8717367356
7400255600.0 0.4931144549 0.8643539044
7450255300.0 0.5080510338 0.8550106156
7500255000.0 0.5202224879 0.8477612383
7550254700.0 0.5342915784 0.8387508882
7600254400.0 0.5469926155 0.8305881047
7650254100.0 0.5586941646 0.8226663022
7700253800.0 0.5700034483 0.8145376057
7750253500.0 0.5813526097 0.8070836419
7800253200.0 0.5920146513 0.7990399886
7850252900.0 0.6017342619 0.7919652939
7900252600.0 0.6133815672 0.7832042912
7950252300.0 0.6216697565 0.7766962837
8000252000.0 0.6317138078 0.7690393914
8050251700.0 0.6420166868 0.7609435667
8100251400.0 0.6523182339 0.7531282143
8150251100.0 0.6621777981 0.744364565
8200250800.0 0.6716018478 0.7361872434
8250250500.0 0.6804722236 0.7282898615
8300250200.0 0.689736404 0.7201418362
8350249900.0 0.6986535353 0.7110684858
8400249600.0 0.7068908512 0.7031677309
8450249300.0 0.7158146934 0.6941647104
8500249000.0 0.7242597555 0.6854617542
8550248700.0 0.7325745732 0.6764122583
8600248400.0 0.7410239334 0.6668904179
8650248100.0 0.7485975548 0.6574856532
8700247800.0 0.7580807194 0.6464222222
8750247500.0 0.7664010007 0.636139
8800247200.0 0.7742658593 0.6260532829
8850246900.0 0.7831321806 0.6147113242
8900246600.0 0.7915503627 0.6030668872
8950246300.0 0.8009444327 0.5903066616
9000246000.0 0.8094219575 0.5785368864
9050245700.0 0.8181049823 0.565963806
9100245400.0 0.8264474854 0.5534828911
9150245100.0 0.8357532118 0.5405907267
9200244800.0 0.8449071067 0.5258942691
9250244500.0 0.8545972439 0.5111660176
9300244200.0 0.8625488373 0.4970764235
9350243900.0 0.8700693534 0.4838164807
9400243600.0 0.8767339212 0.4720041644
9450243300.0 0.8823798344 0.4610857538
9500243000.0 0.888701582 0.4492594775
9550242700.0 0.8925617568 0.4418870183
9600242400.0 0.8967361084 0.4341651345
9650242100.0 0.9006862106 0.4272843393
9700241800.0 0.9057409317 0.4187596567
9750241500.0 0.9097331978 0.4113470011
9800241200.0 0.9147522677 0.4021584083
9850240900.0 0.9207562946 0.3899506959
9900240600.0 0.9262291727 0.3783025356
9950240300.0 0.9333965761 0.3616646908
10000240000.0 0.937895469 0.3496235699
10050239700.0 0.9442149341 0.3339409254
10100239400.0 0.9493848647 0.3179210457
10150239100.0 0.9539825167 0.3022769255
10200238800.0 0.9583062734 0.2869699655
10250238500.0 0.9614194542 0.2737233841
10300238200.0 0.9647191767 0.2597339102
10350237900.0 0.967277788 0.2468440985
10400237600.0 0.9699827164 0.2329388812
10450237300.0 0.9726497453 0.2195514875
10500237000.0 0.9746307379 0.2070561729
10550236700.0 0.9775303044 0.192515136
10600236400.0 0.9795454636 0.1786106722
10650236100.0 0.9813319799 0.1642564059
10700235800.0 0.9835782183 0.1521798087
10750235500.0 0.9858035013 0.1383994689
10800235200.0 0.9881956309 0.1238866748
10850234900.0 0.9898925906 0.1095826227
10900234600.0 0.992207396 0.0946703752
10950234300.0 0.9937169007 0.0810857338
11000234000.0 0.9954819486 0.0657751159
11050233700.0 0.9972278164 0.0491888846
11100233400.0 0.9987129781 0.0316247055
11150233100.0 1.000103762 0.0147303232
11200232800.0 1.000507385 -0.0007788998
11250232500.0 1.001521285 -0.0185296893
11300232200.0 1.002127757 -0.0373596176
11350231900.0 1.00181883 -0.0526631918
11400231600.0 1.001582161 -0.0686754986
11450231300.0 1.001117789 -0.0840204045
11500231000.0 0.9996231436 -0.1006115651
11550230700.0 0.9981854881 -0.1136169239
11600230400.0 0.9969408052 -0.1259712417
11650230100.0 0.995058368 -0.1379437776
11700229800.0 0.9926791118 -0.1526182382
11750229500.0 0.9900746039 -0.1669244493
11800229200.0 0.9874248614 -0.1804511324
11850228900.0 0.983711963 -0.1923658365
11900228600.0 0.9800847878 -0.2019217966
11950228300.0 0.9763619293 -0.2125812863
12000228000.0 0.9741979464 -0.2208488362
12050227700.0 0.9699979775 -0.2336633479
12100227400.0 0.9669492811 -0.2444420002
12150227100.0 0.9615506724 -0.2619860736
12200226800.0 0.9579133733 -0.2726961115
12250226500.0 0.9541224978 -0.2854326608
12300226200.0 0.9504364931 -0.2975529776
12350225900.0 0.9444347619 -0.3110846238
12400225600.0 0.9402442658 -0.3233793321
12450225300.0 0.9365504572 -0.3363510007
12500225000.0 0.9309458124 -0.3510727607
12550224700.0 0.9254513577 -0.3651299232
12600224400.0 0.9204092218 -0.3777609832
12650224100.0 0.9146070673 -0.3918672336
12700223800.0 0.9093886683 -0.4047052488
12750223500.0 0.9036546504 -0.4178760285
12800223200.0 0.8984172424 -0.430189904
12850222900.0 0.8931802483 -0.4423685378
12900222600.0 0.8878433116 -0.4546022279
12950222300.0 0.8815866965 -0.4668698505
13000222000.0 0.8757975652 -0.4787375249
13050221700.0 0.8690909934 -0.4919228508
13100221400.0 0.8620124864 -0.5039178925
13150221100.0 0.8549758242 -0.5160230339
13200220800.0 0.8480291393 -0.5277345227
13250220500.0 0.8408762233 -0.5394824743
13300220200.0 0.8331058729 -0.5507319958
13350219900.0 0.8249763681 -0.562540504
13400219600.0 0.8167113025 -0.574401466
13450219300.0 0.8070181834 -0.5875692199
13500219000.0 0.7976356939 -0.6008269391
13550218700.0 0.7873603276 -0.6133470574
13600218400.0 0.7773733769 -0.6255138377
13650218100.0 0.7685047946 -0.636134022
13700217800.0 0.7570507505 -0.6483087673
13750217500.0 0.7466933409 -0.6589042208
13800217200.0 0.7376230161 -0.6707122393
13850216900.0 0.725633135 -0.6819058693
13900216600.0 0.7158574613 -0.6906669425
13950216300.0 0.7054348117 -0.7008621643
14000216000.0 0.6950999076 -0.7101074672
14050215700.0 0.6857518579 -0.718392756
14100215400.0 0.6764210574 -0.7269715029
14150215100.0 0.6671997805 -0.7356773147
14200214800.0 0.6576775143 -0.7445796607
14250214500.0 0.6472848704 -0.753916588
14300214200.0 0.6366786243 -0.7632953652
14350213900.0 0.6256580684 -0.7730088885
14400213600.0 0.6138029309 -0.7825086977
14450213300.0 0.6010452634 -0.7929845476
14500213000.0 0.587796098 -0.8026898359
14550212700.0 0.5754074924 -0.8118155415
14600212400.0 0.5632912058 -0.8207322122
14650212100.0 0.5501633327 -0.8293188863
14700211800.0 0.5368632984 -0.8386956668
14750211500.0 0.5244924987 -0.8477717037
14800211200.0 0.5120200233 -0.8554042837
14850210900.0 0.4996078292 -0.8631845218
14900210600.0 0.4862884671 -0.8711814969
14950210300.0 0.4729357978 -0.8788752593
15000210000.0 0.4602721418 -0.8855255178
15050209700.0 0.4479234869 -0.8918296322
15100209400.0 0.4347203435 -0.8975165296
15150209100.0 0.4229531156 -0.9029679751
15200208800.0 0.4103116454 -0.9089168012
15250208500.0 0.3986650195 -0.912722697
15300208200.0 0.3866872655 -0.9172093807
15350207900.0 0.3732422386 -0.9224459427
15400207600.0 0.3585640761 -0.928285066
15450207300.0 0.3438459097 -0.9324690811
15500207000.0 0.3298336778 -0.9372914124
15550206700.0 0.3156130568 -0.9423564688
15600206400.0 0.2986932836 -0.9468811687
15650206100.0 0.283569954 -0.9510108337
15700205800.0 0.2699852151 -0.9543838621
15750205500.0 0.2556902884 -0.957990026
15800205200.0 0.2413939771 -0.9615617972
15850204900.0 0.2273398358 -0.9649223744
15900204600.0 0.2119896557 -0.9686020812
15950204300.0 0.1980103307 -0.9717297955
16000204000.0 0.1838523703 -0.9746137475
16050203700.0 0.1685279748 -0.9774059915
16100203400.0 0.1536835022 -0.9799653079
16150203100.0 0.1390574926 -0.9821598535
16200202800.0 0.1244804642 -0.9839239256
16250202500.0 0.1101010802 -0.9858166704
16300202200.0 0.0941968408 -0.9875228181
16350201900.0 0.0795541173 -0.9892262078
16400201600.0 0.0649774012 -0.9899958724
16450201300.0 0.0491795188 -0.9911212658
16500201000.0 0.0323600791 -0.9918911362
16550200700.0 0.0164753187 -0.9925853049
16600200400.0 0.000603943 -0.9926549307
16650200100.0 -0.015696652 -0.9926636868
16700199800.0 -0.03207798 -0.9921343792
16750199500.0 -0.0511253932 -0.9915604161
16800199200.0 -0.0670466896 -0.9897836744
16850198900.0 -0.0823867655 -0.989544503
16900198600.0 -0.0962894789 -0.9884855976
16950198300.0 -0.1096969125 -0.9881155717
17000198000.0 -0.1231382491 -0.9853494089
17050197700.0 -0.1357507699 -0.9844675777
17100197400.0 -0.1485921323 -0.9818831922
17150197100.0 -0.1614604529 -0.9799328306
17200196800.0 -0.1738938453 -0.9780857687
17250196500.0 -0.1867889195 -0.9751932806
17300196200.0 -0.1992555032 -0.9731674398
17350195900.0 -0.2109763058 -0.9708663308
17400195600.0 -0.2230040546 -0.9683446651
17450195300.0 -0.2359049127 -0.9654593833
17500195000.0 -0.2490584616 -0.96224134
17550194700.0 -0.2629990873 -0.9585436482
17600194400.0 -0.276385881 -0.9549391548
17650194100.0 -0.2903273985 -0.9506561587
17700193800.0 -0.3029790906 -0.9462116295
17750193500.0 -0.317382812 -0.9419358953
17800193200.0 -0.3314453297 -0.9367235865
17850192900.0 -0.346375611 -0.9314453122
17900192600.0 -0.3616069701 -0.9252097301
17950192300.0 -0.3774425877 -0.9180805335
18000192000.0 -0.3921849054 -0.9106921636
18050191700.0 -0.4060751345 -0.9027438724
18100191400.0 -0.4201321877 -0.8950366512
18150191100.0 -0.434944202 -0.8869561358
18200190800.0 -0.4518813407 -0.8778958378
18250190500.0 -0.4686589891 -0.8682505524
18300190200.0 -0.4843090486 -0.8590237463
18350189900.0 -0.4997428757 -0.8515309576
18400189600.0 -0.5141857146 -0.8427361447
18450189300.0 -0.5277644414 -0.834937796
18500189000.0 -0.5407789408 -0.8268652486
18550188700.0 -0.5541889157 -0.8191342228
18600188400.0 -0.5658322448 -0.8121346348
18650188100.0 -0.5769606549 -0.8056711886
18700187800.0 -0.5880123561 -0.7988876926
18750187500.0 -0.5984847094 -0.7923537981
18800187200.0 -0.6092508811 -0.7854305181
18850186900.0 -0.6193807214 -0.7785898254
18900186600.0 -0.629734208 -0.7712168819
18950186300.0 -0.6398094091 -0.7635944828
19000186000.0 -0.6471889817 -0.7577486869
19050185700.0 -0.6565023719 -0.7503874476
19100185400.0 -0.6661733922 -0.7416845917
19150185100.0 -0.6767118041 -0.7334122186
19200184800.0 -0.6861286986 -0.7250961335
19250184500.0 -0.6957432126 -0.7161606067
19300184200.0 -0.7077554186 -0.7068170724
19350183900.0 -0.7179789315 -0.6966767532
19400183600.0 -0.7276735289 -0.6868252765
19450183300.0 -0.7370717888 -0.6768252423
19500183000.0 -0.7449867136 -0.6669173377
19550182700.0 -0.7548424698 -0.6560747099
19600182400.0 -0.7652755909 -0.6441847103
19650182100.0 -0.7755903024 -0.6320617526
19700181800.0 -0.7862584171 -0.6185632576
19750181500.0 -0.7966891503 -0.604701677
19800181200.0 -0.8070867486 -0.5893962984
19850180900.0 -0.8166200554 -0.5742858663
19900180600.0 -0.8240672321 -0.5599252692
19950180300.0 -0.8333117112 -0.5433899748
20000180000.0 -0.8243983844 -0.5465956002
20050179700.0 -0.8323187578 -0.5340090006
20100179400.0 -0.8407777931 -0.5213819833
20150179100.0 -0.849098724 -0.5089975929
20200178800.0 -0.8574683595 -0.4968464636
20250178500.0 -0.8665602846 -0.4835045102
20300178200.0 -0.8763393665 -0.4697871651
20350177900.0 -0.8851385478 -0.4560101885
20400177600.0 -0.8943754227 -0.4416769202
20450177300.0 -0.9028694313 -0.427564745
20500177000.0 -0.9107876242 -0.4135129919
20550176700.0 -0.9187180672 -0.4000598966
20600176400.0 -0.9252760418 -0.3871832518
20650176100.0 -0.9318258044 -0.3750612431
20700175800.0 -0.9387901238 -0.3626043585
20750175500.0 -0.9453772111 -0.3509835867
20800175200.0 -0.9503185643 -0.3400269927
20850174900.0 -0.9552484899 -0.3296092911
20900174600.0 -0.9585135181 -0.3192276822
20950174300.0 -0.9622641675 -0.3079205618
21000174000.0 -0.9649215871 -0.296632308
21050173700.0 -0.9676013729 -0.2873803591
21100173400.0 -0.9715407822 -0.2751816066
21150173100.0 -0.9755434962 -0.2632249443
21200172800.0 -0.9784604795 -0.2497197143
21250172500.0 -0.9820149999 -0.2365724288
21300172200.0 -0.9857211206 -0.2224919787
21350171900.0 -0.9874294324 -0.2077769074
21400171600.0 -0.9890489536 -0.1936722919
21450171300.0 -0.9898677024 -0.1794432515
21500171000.0 -0.990448387 -0.1640873004
21550170700.0 -0.9899985017 -0.1494865914
21600170400.0 -0.9903605319 -0.1335550869
21650170100.0 -0.9912822715 -0.1185818125
21700169800.0 -0.989368164 -0.1034943319
21750169500.0 -0.9900563866 -0.087023195
21800169200.0 -0.9891349728 -0.0698279309
21850168900.0 -0.9892752313 -0.0530151814
21900168600.0 -0.9883381966 -0.0369611793
21950168300.0 -0.9880584328 -0.0220965796
22000168000.0 -0.9874689386 -0.006597491
22050167700.0 -0.9879210065 0.0078598991
22100167400.0 -0.9886702982 0.0236243761
22150167100.0 -0.9896108181 0.0394903736
22200166800.0 -0.9896085204 0.0560698648
22250166500.0 -0.9894095333 0.0727115346
22300166200.0 -0.9890812106 0.089627002
22350165900.0 -0.9876258976 0.1058491922
22400165600.0 -0.9867907978 0.1206967134
22450165300.0 -0.9836577905 0.1362511654
22500165000.0 -0.9822276864 0.1496628268
22550164700.0 -0.9811308602 0.1654887141
22600164400.0 -0.9789817586 0.1834698814
22650164100.0 -0.9760678776 0.1983715917
22700163800.0 -0.9732921849 0.2144069159
22750163500.0 -0.9711342906 0.2288625516
22800163200.0 -0.967379755 0.2418733017
22850162900.0 -0.9650154853 0.2554810382
22900162600.0 -0.9629400337 0.2694152689
22950162300.0 -0.9616022681 0.2827819332
23000162000.0 -0.9598500566 0.2950968302
23050161700.0 -0.9579980896 0.3081608151
23100161400.0 -0.9549511664 0.3217127031
23150161100.0 -0.9519690776 0.3345660177
23200160800.0 -0.9486116747 0.3473468785
23250160500.0 -0.9462066522 0.3598385049
23300160200.0 -0.9436588717 0.3727277297
23350159900.0 -0.9394265667 0.3858485198
23400159600.0 -0.9347665513 0.3987104735
23450159300.0 -0.9299396494 0.4124931551
23500159000.0 -0.9243334052 0.4263057662
23550158700.0 -0.9204784537 0.4400517208
23600158400.0 -0.9143875771 0.4538002815
23650158100.0 -0.9071766136 0.4684251602
23700157800.0 -0.8988354529 0.4821664032
23750157500.0 -0.8897377649 0.4967675848
23800157200.0 -0.8798066688 0.5103679704
23850156900.0 -0.870942704 0.5226106538
23900156600.0 -0.8609674684 0.5353162812
23950156300.0 -0.8517808886 0.5479997738
24000156000.0 -0.8419282253 0.5603559605
24050155700.0 -0.8310385528 0.5718232929
24100155400.0 -0.8208128656 0.584254575
24150155100.0 -0.8105700143 0.5967591972
24200154800.0 -0.7997616277 0.6081673879
24250154500.0 -0.7880693954 0.6200561989
24300154200.0 -0.7764616991 0.6319454485
24350153900.0 -0.7648100569 0.6431338388
24400153600.0 -0.7527288074 0.6538886869
24450153300.0 -0.7403655132 0.6639777278
24500153000.0 -0.7291264355 0.673386291
24550152700.0 -0.7173574285 0.6840841138
24600152400.0 -0.705142431 0.6937346606
