!Created with skrf (http://scikit-rf.org).
# Hz S RI R 50.0 
!freq ReS11 ImS11
300000.0 -0.9726251945 -0.1233200125
50299700.0 -0.999941292 0.014878281
100299400.0 -0.9980162813 0.0278520181
150299100.0 -1.0027911 0.0447479723
200298800.0 -0.9995207795 0.0580404441
250298500.0 -0.9973961293 0.0715858434
300298200.0 -0.9858166366 0.0874215826
350297900.0 -0.9937188117 0.0982651841
400297600.0 -0.9931992015 0.1148092102
450297300.0 -0.9909901764 0.1286699506
500297000.0 -0.9893056493 0.1436232937
550296700.0 -0.9843150432 0.1558651033
600296400.0 -1.017101369 0.1890949695
650296100.0 -0.9820008634 0.1857899257
700295800.0 -0.9794016948 0.1999938305
750295500.0 -0.9762431746 0.2140557159
800295200.0 -0.9728894236 0.2279419581
850294900.0 -0.9694229048 0.2417081782
900294600.0 -0.9658027468 0.255531491
950294300.0 -0.9620492359 0.2694503284
1000294000.0 -0.9581418541 0.28318926
1050293700.0 -0.9535988506 0.2969223346
1100293400.0 -0.9493567191 0.3115116563
1150293100.0 -0.9454906438 0.3234101912
1200292800.0 -0.940116719 0.3376360011
1250292500.0 -0.9346567848 0.3512402516
1300292200.0 -0.9289551567 0.3643700221
1350291900.0 -0.9235826927 0.3783365361
1400291600.0 -0.917970952 0.3916353525
1450291300.0 -0.9124772606 0.4040150037
1500291000.0 -0.9062692107 0.4172979567
1550290700.0 -0.8996733625 0.4306650567
1600290400.0 -0.8934910146 0.4436913598
1650290100.0 -0.8866963374 0.4556670665
1700289800.0 -0.8799391873 0.4692408729
1750289500.0 -0.8728577636 0.4812913575
1800289200.0 -0.8655083938 0.4944397736
1850288900.0 -0.8586767046 0.5057281071
1900288600.0 -0.851090763 0.5188055819
1950288300.0 -0.8429674822 0.5313934179
2000288000.0 -0.8354232316 0.542768104
2050287700.0 -0.8271046716 0.5552906152
2100287400.0 -0.8194072454 0.5665095836
2150287100.0 -0.8110610871 0.578512453
2200286800.0 -0.8032193225 0.5890474406
2250286500.0 -0.7941130859 0.6014859408
2300286200.0 -0.7853300026 0.6128765414
2350285900.0 -0.7767540389 0.6233323588
2400285600.0 -0.7679467828 0.6342089078
2450285300.0 -0.7590770637 0.6451207182
2500285000.0 -0.7491248534 0.6566432514
2550284700.0 -0.7401301952 0.6669971254
2600284400.0 -0.7310082274 0.6767894724
2650284100.0 -0.7223367305 0.6870093308
2700283800.0 -0.7117772695 0.6975034864
2750283500.0 -0.7016087005 0.7081866722
2800283200.0 -0.6915316128 0.7180396158
2850282900.0 -0.6810802405 0.7280271998
2900282600.0 -0.6709149915 0.7377015211
2950282300.0 -0.6601521298 0.7473230843
3000282000.0 -0.6495525917 0.7566741996
3050281700.0 -0.6384614086 0.7659968939
3100281400.0 -0.6269449782 0.7748215349
3150281100.0 -0.6155679646 0.7838815481
3200280800.0 -0.6042683883 0.7923010099
3250280500.0 -0.5931600901 0.8001023178
3300280200.0 -0.5814867685 0.8085008416
3350279900.0 -0.5691902364 0.8165573557
3400279600.0 -0.5565411062 0.824438703
3450279300.0 -0.5455908088 0.831647087
3500279000.0 -0.5337508629 0.8385448467
3550278700.0 -0.5216634849 0.845600146
3600278400.0 -0.510080962 0.8523467148
3650278100.0 -0.4967573033 0.8599460082
3700277800.0 -0.4847820276 0.8662479503
3750277500.0 -0.4723508006 0.8732273144
3800277200.0 -0.4597248245 0.8795295849
3850276900.0 -0.4478424806 0.8856064142
3900276600.0 -0.4370292239 0.8912042849
3950276300.0 -0.4250296257 0.8971308751
4000276000.0 -0.4133630591 0.9029391202
4050275700.0 -0.4004942726 0.9092956471
4100275400.0 -0.3895662144 0.9145234052
4150275100.0 -0.3761057063 0.9202317818
4200274800.0 -0.3626876214 0.9259346062
4250274500.0 -0.3501490063 0.9315144715
4300274200.0 -0.336926175 0.9365575919
4350273900.0 -0.3225529512 0.9418277211
4400273600.0 -0.3079579006 0.9470711063
4450273300.0 -0.2928819123 0.9519590988
4500273000.0 -0.2798556564 0.9562395398
4550272700.0 -0.2662318104 0.9605046714
4600272400.0 -0.2510533473 0.9646400785
4650272100.0 -0.2396072583 0.9678191695
4700271800.0 -0.2267950871 0.9710526932
4750271500.0 -0.2151857978 0.974027751
4800271200.0 -0.2029164722 0.9766887787
4850270900.0 -0.1892461351 0.9795463828
4900270600.0 -0.1752789973 0.9819226364
4950270300.0 -0.1608914906 0.9846463723
5000270000.0 -0.1462330103 0.986869845
5050269700.0 -0.13303887 0.9882405307
5100269400.0 -0.1187050929 0.990199645
5150269100.0 -0.104742626 0.9917184599
5200268800.0 -0.0914230524 0.9926467838
5250268500.0 -0.0782151106 0.9939277657
5300268200.0 -0.0647986438 0.9942522938
5350267900.0 -0.051637181 0.995143404
5400267600.0 -0.0358256234 0.9964379619
5450267300.0 -0.0223550743 0.9966396781
5500267000.0 -0.0070293018 0.9971399613
5550266700.0 0.008039305 0.9970169743
5600266400.0 0.0236108159 0.9971312786
5650266100.0 0.0402777647 0.9968489407
5700265800.0 0.0545871335 0.9960072902
5750265500.0 0.0694304744 0.9950979645
5800265200.0 0.0830314171 0.9944044328
5850264900.0 0.0963732538 0.9933492791
5900264600.0 0.112812338 0.9913144551
5950264300.0 0.1243861284 0.9894426105
6000264000.0 0.1380984339 0.988034039
6050263700.0 0.1495281561 0.9862451508
6100263400.0 0.1614920067 0.9844192478
6150263100.0 0.1764074086 0.9824468315
6200262800.0 0.1859170718 0.9810790833
6250262500.0 0.1986149422 0.9788115717
6300262200.0 0.2110835183 0.9763029858
6350261900.0 0.2238945627 0.9735314129
6400261600.0 0.2375852996 0.9702504284
6450261300.0 0.2486200337 0.967524086
6500261000.0 0.2621613194 0.9642844072
6550260700.0 0.2750649664 0.9601294292
6600260400.0 0.2884327292 0.9560772976
6650260100.0 0.3028559911 0.9517045808
6700259800.0 0.3151793208 0.9472834888
6750259500.0 0.3287028512 0.9428534921
6800259200.0 0.3421813084 0.9371997088
6850258900.0 0.3542799005 0.9318755647
6900258600.0 0.3667273326 0.9267689861
6950258300.0 0.379463833 0.9216316425
7000258000.0 0.3911583106 0.9163649696
7050257700.0 0.4031965249 0.9105501494
7100257400.0 0.4165979946 0.9040302727
7150257100.0 0.4272540273 0.8984959024
7200256800.0 0.4404507506 0.8922450362
7250256500.0 0.4525956883 0.8854570809
7300256200.0 0.4658251694 0.8787248817
7350255900.0 0.4787438623 0.8719456482
7400255600.0 0.4925707911 0.8638927877
7450255300.0 0.5080805063 0.8549060842
7500255000.0 0.5208992094 0.8473214609
7550254700.0 0.5355432692 0.8384004551
7600254400.0 0.5475021575 0.8299404821
7650254100.0 0.5595102953 0.8221454345
7700253800.0 0.5711135807 0.8140296619
7750253500.0 0.5817139534 0.8065611766
7800253200.0 0.5925845466 0.7987231197
7850252900.0 0.6021285181 0.7912268049
7900252600.0 0.6137847238 0.7826164948
7950252300.0 0.6219750387 0.7764400774
8000252000.0 0.6319784116 0.7689077976
8050251700.0 0.6423287541 0.7606578182
8100251400.0 0.6522821003 0.7527125619
8150251100.0 0.6626653363 0.7441809793
8200250800.0 0.6714925144 0.7360573463
8250250500.0 0.6807090117 0.7281367616
8300250200.0 0.689592155 0.7199263231
8350249900.0 0.6989449956 0.7109411522
8400249600.0 0.7071014022 0.7029862218
8450249300.0 0.7158821821 0.6942521075
8500249000.0 0.7243834079 0.6853544997
8550248700.0 0.7327240349 0.6763323171
8600248400.0 0.7407741335 0.6667719608
8650248100.0 0.7485454796 0.6573112124
8700247800.0 0.757935565 0.6464092451
8750247500.0 0.766115237 0.6363376478
8800247200.0 0.7741164883 0.6260635781
8850246900.0 0.783009276 0.6146401118
8900246600.0 0.7911708409 0.6032637988
8950246300.0 0.8004623581 0.5904363558
9000246000.0 0.8089745231 0.5788056052
9050245700.0 0.8175700901 0.5662147703
9100245400.0 0.8260821348 0.5542191902
9150245100.0 0.8347781369 0.5412338522
9200244800.0 0.8439613276 0.5268233208
9250244500.0 0.8532267429 0.5124096469
9300244200.0 0.8611296677 0.4986661317
9350243900.0 0.8687065152 0.4853108937
9400243600.0 0.8753096609 0.4737261368
9450243300.0 0.8810760964 0.4632998339
9500243000.0 0.8873296778 0.451691244
9550242700.0 0.8913612145 0.4441207537
9600242400.0 0.8953744446 0.4366036449
9650242100.0 0.899800538 0.4296093649
9700241800.0 0.9047613917 0.4208913199
9750241500.0 0.9088304825 0.4134051491
9800241200.0 0.9139379763 0.4041887992
9850240900.0 0.920009113 0.3921944867
9900240600.0 0.9258680633 0.3802008494
9950240300.0 0.9329937133 0.3634409083
10000240000.0 0.9378637391 0.3514589027
10050239700.0 0.9439024366 0.3353562104
10100239400.0 0.9495014592 0.318739642
10150239100.0 0.9541219978 0.3032847335
10200238800.0 0.9581828603 0.2878358867
10250238500.0 0.9614988584 0.274639033
10300238200.0 0.9645949673 0.2604927731
10350237900.0 0.9672759509 0.2472817233
10400237600.0 0.9700538492 0.2335657305
10450237300.0 0.9727843151 0.2199089521
10500237000.0 0.9749863896 0.2076162448
10550236700.0 0.977106133 0.1935947659
10600236400.0 0.979552939 0.1794893115
10650236100.0 0.9813937498 0.1647276818
10700235800.0 0.9832881233 0.1528670349
10750235500.0 0.9860927272 0.1385593077
10800235200.0 0.9880095371 0.1240107381
10850234900.0 0.989698395 0.1097398492
10900234600.0 0.9920971975 0.0949024554
10950234300.0 0.993821993 0.0812683214
11000234000.0 0.9955926991 0.0655515762
11050233700.0 0.9974319555 0.0488844944
11100233400.0 0.9987539521 0.0310208942
11150233100.0 0.9999949594 0.0143066653
11200232800.0 1.000713577 -0.0015718821
11250232500.0 1.001770966 -0.0196925828
11300232200.0 1.002295557 -0.0374642292
11350231900.0 1.002074622 -0.0546576737
11400231600.0 1.001801619 -0.0697769064
11450231300.0 1.0006968 -0.0854236372
11500231000.0 0.9999395416 -0.102116808
11550230700.0 0.9983346436 -0.1143003043
11600230400.0 0.997300682 -0.1276896069
11650230100.0 0.9947873531 -0.1391405731
11700229800.0 0.9927396578 -0.154138105
11750229500.0 0.9901029068 -0.1684020962
11800229200.0 0.9873656346 -0.1817322094
11850228900.0 0.9834549033 -0.1934135261
11900228600.0 0.9797564696 -0.2031623901
11950228300.0 0.9762630377 -0.2130784953
12000228000.0 0.9735665314 -0.2217995159
12050227700.0 0.9702092964 -0.2342364453
12100227400.0 0.9666674031 -0.245551927
12150227100.0 0.9613424911 -0.2630709589
12200226800.0 0.9585233358 -0.2727381871
12250226500.0 0.9541184357 -0.285820839
12300226200.0 0.9494879482 -0.2985909682
12350225900.0 0.9442735313 -0.3119774263
12400225600.0 0.9399909434 -0.3248716066
12450225300.0 0.9354858391 -0.3361494965
12500225000.0 0.9301530922 -0.3522958703
12550224700.0 0.9246796625 -0.365411885
12600224400.0 0.919877592 -0.3783661317
12650224100.0 0.9141210351 -0.3926445764
12700223800.0 0.9086684282 -0.4055505302
12750223500.0 0.9033352687 -0.4184827615
12800223200.0 0.8979048195 -0.4310426919
12850222900.0 0.8926489531 -0.4432602649
12900222600.0 0.8870518029 -0.4550866856
12950222300.0 0.8807603299 -0.467809156
13000222000.0 0.8751557474 -0.4791230457
13050221700.0 0.8682120882 -0.4924488683
13100221400.0 0.8615497605 -0.5048707911
13150221100.0 0.8545908475 -0.516808988
13200220800.0 0.8475189657 -0.5282815187
13250220500.0 0.8404912501 -0.5401652306
13300220200.0 0.8329385579 -0.5512815698
13350219900.0 0.8248239365 -0.5631989991
13400219600.0 0.8163775668 -0.5750407012
13450219300.0 0.8068679763 -0.5880809831
13500219000.0 0.7973725009 -0.6010156498
13550218700.0 0.7875499867 -0.6135419065
13600218400.0 0.7773563362 -0.6254282814
13650218100.0 0.7677056393 -0.6362412727
13700217800.0 0.7571440464 -0.6478964296
13750217500.0 0.7479400371 -0.658690015
13800217200.0 0.7366511819 -0.6699499492
13850216900.0 0.7253956551 -0.6815679035
13900216600.0 0.7155679494 -0.6895759525
13950216300.0 0.7055674055 -0.7000789039
14000216000.0 0.6953597294 -0.7093016321
14050215700.0 0.6861513129 -0.7168828106
14100215400.0 0.677009186 -0.7263108348
14150215100.0 0.6678022756 -0.735215564
14200214800.0 0.6581028836 -0.7440007718
14250214500.0 0.6476155542 -0.7534653305
14300214200.0 0.6372690411 -0.7629620237
14350213900.0 0.6260811104 -0.7725072593
14400213600.0 0.6140888528 -0.7823285103
14450213300.0 0.6013059101 -0.792731253
14500213000.0 0.5882785049 -0.8023716888
14550212700.0 0.5759125209 -0.8117374313
14600212400.0 0.5630735256 -0.8203656765
14650212100.0 0.5509519334 -0.8290978106
14700211800.0 0.5370053782 -0.8385079406
14750211500.0 0.5250498235 -0.8471631079
14800211200.0 0.5124547791 -0.8553378657
14850210900.0 0.5003576305 -0.8629393172
14900210600.0 0.4870577911 -0.8709206807
14950210300.0 0.4735841978 -0.8784611852
15000210000.0 0.4609584651 -0.8852091119
15050209700.0 0.4487813601 -0.8915170405
15100209400.0 0.4362573114 -0.8970452517
15150209100.0 0.4233568299 -0.9020915437
15200208800.0 0.4108163678 -0.9081346346
15250208500.0 0.4000508693 -0.9120442255
15300208200.0 0.3881332847 -0.9170798965
15350207900.0 0.3742179945 -0.9220527878
15400207600.0 0.3596704898 -0.9275651113
15450207300.0 0.3446626669 -0.9327261773
15500207000.0 0.3305162146 -0.9368377981
15550206700.0 0.3156763564 -0.9417096632
15600206400.0 0.299820602 -0.9464039842
15650206100.0 0.2841435498 -0.9507261268
15700205800.0 0.2707743987 -0.9541365911
15750205500.0 0.2566524871 -0.9577009927
15800205200.0 0.2423844962 -0.9611111332
15850204900.0 0.2283292139 -0.964585038
15900204600.0 0.2129571924 -0.9683774374
15950204300.0 0.1987260116 -0.9714996707
16000204000.0 0.1843079892 -0.9744682382
16050203700.0 0.169493536 -0.9773360695
16100203400.0 0.1544336084 -0.9794161545
16150203100.0 0.1394490399 -0.98176886
16200202800.0 0.1258180833 -0.984823088
16250202500.0 0.1109209579 -0.9853926316
16300202200.0 0.0951601109 -0.9879103288
16350201900.0 0.0804136517 -0.9886917769
16400201600.0 0.0653579816 -0.9901216002
16450201300.0 0.0500837149 -0.9912101409
16500201000.0 0.0328943905 -0.9920024409
16550200700.0 0.0168348588 -0.9924982243
16600200400.0 0.0008777266 -0.9928614448
16650200100.0 -0.0151736244 -0.9926385351
16700199800.0 -0.0313530456 -0.9921156136
16750199500.0 -0.0508263136 -0.9916907176
16800199200.0 -0.0660739807 -0.9906918952
16850198900.0 -0.0819078483 -0.989748865
16900198600.0 -0.0963841174 -0.9883304132
16950198300.0 -0.1099414952 -0.9874831659
17000198000.0 -0.1235032696 -0.9859738617
17050197700.0 -0.1354953037 -0.9842418957
17100197400.0 -0.1482599049 -0.9822511966
17150197100.0 -0.1616939083 -0.9797205257
17200196800.0 -0.1743369034 -0.9779270531
17250196500.0 -0.1869945762 -0.9752000333
17300196200.0 -0.1988412894 -0.9730447758
17350195900.0 -0.2110202555 -0.9705125348
17400195600.0 -0.2229981286 -0.9682569364
17450195300.0 -0.2358256637 -0.9654353981
17500195000.0 -0.2489659665 -0.9622580315
17550194700.0 -0.2626881229 -0.9585170495
17600194400.0 -0.2765995848 -0.9545895887
17650194100.0 -0.2903477095 -0.9505908732
17700193800.0 -0.3033761619 -0.9466144848
17750193500.0 -0.3173965882 -0.9415822102
17800193200.0 -0.3317419053 -0.9360298878
17850192900.0 -0.3467935232 -0.931307911
17900192600.0 -0.3617754619 -0.9249145865
17950192300.0 -0.3772872482 -0.9177094582
18000192000.0 -0.391700014 -0.9106730931
18050191700.0 -0.4058020248 -0.902864796
18100191400.0 -0.4198349492 -0.8950481933
18150191100.0 -0.4346711236 -0.8870614797
18200190800.0 -0.4515467137 -0.8779365896
18250190500.0 -0.4684042992 -0.8686782572
18300190200.0 -0.4838678989 -0.8598205875
18350189900.0 -0.4989608262 -0.8513258612
18400189600.0 -0.5138251359 -0.8430456556
18450189300.0 -0.5273707301 -0.8352854039
18500189000.0 -0.5404598371 -0.8271682107
18550188700.0 -0.5533445993 -0.8191183964
18600188400.0 -0.5652044415 -0.8123352559
18650188100.0 -0.5762337467 -0.805612716
18700187800.0 -0.5875862994 -0.7988744674
18750187500.0 -0.5984686527 -0.7927414533
18800187200.0 -0.6091625109 -0.7854288688
18850186900.0 -0.619362255 -0.7784757156
18900186600.0 -0.6296765407 -0.7709659584
18950186300.0 -0.6397141189 -0.7632472172
19000186000.0 -0.6472091062 -0.7571511941
19050185700.0 -0.6567493999 -0.7501611199
19100185400.0 -0.6665147881 -0.741805521
19150185100.0 -0.677097041 -0.7329746
19200184800.0 -0.685866127 -0.7245376016
19250184500.0 -0.6966931745 -0.7157749061
19300184200.0 -0.7079304303 -0.7062000139
19350183900.0 -0.718422725 -0.6965754453
19400183600.0 -0.7291732529 -0.6865556104
19450183300.0 -0.7380345594 -0.6764810337
19500183000.0 -0.7453646465 -0.6670372831
19550182700.0 -0.7552199155 -0.6553556247
19600182400.0 -0.7657127383 -0.6440860559
19650182100.0 -0.7757542962 -0.6317656227
19700181800.0 -0.7866466406 -0.6185531757
19750181500.0 -0.7969390452 -0.6044947564
19800181200.0 -0.8070346751 -0.5896411884
19850180900.0 -0.8166296989 -0.5742921806
19900180600.0 -0.8242083114 -0.559686877
19950180300.0 -0.833368676 -0.5434198857
20000180000.0 -0.822959954 -0.5467655083
20050179700.0 -0.8320029133 -0.5336465457
20100179400.0 -0.8392907009 -0.5213784274
20150179100.0 -0.8478468619 -0.5098830322
20200178800.0 -0.8561112905 -0.4977279826
20250178500.0 -0.8646861906 -0.4857566358
20300178200.0 -0.8748060068 -0.4720168298
20350177900.0 -0.8842796489 -0.4579218414
20400177600.0 -0.8934256559 -0.4439569389
20450177300.0 -0.9019333615 -0.4293763821
20500177000.0 -0.909832992 -0.415427027
20550176700.0 -0.918064839 -0.4017714087
20600176400.0 -0.9248628768 -0.3889930767
20650176100.0 -0.9313988135 -0.3771414238
20700175800.0 -0.9383458653 -0.3643207317
20750175500.0 -0.9440009225 -0.3526228424
20800175200.0 -0.9488632363 -0.3418252733
20850174900.0 -0.9535797222 -0.3322414544
20900174600.0 -0.9577107437 -0.3209795271
20950174300.0 -0.9624841044 -0.3098366806
21000174000.0 -0.9638950754 -0.2990862697
21050173700.0 -0.9656906119 -0.2898962885
21100173400.0 -0.969220968 -0.2781950179
21150173100.0 -0.9726595227 -0.2670802541
21200172800.0 -0.9772324074 -0.2537401537
21250172500.0 -0.981045492 -0.2400722828
21300172200.0 -0.984379818 -0.226017527
21350171900.0 -0.9856800367 -0.2113999867
21400171600.0 -0.9880628586 -0.1976726413
21450171300.0 -0.9886034681 -0.1830386322
21500171000.0 -0.9889120412 -0.1678551308
21550170700.0 -0.9900426812 -0.1529903383
21600170400.0 -0.9901474266 -0.1379688412
21650170100.0 -0.9911819601 -0.1224546519
21700169800.0 -0.9896447024 -0.106469309
21750169500.0 -0.9898830479 -0.0908249116
21800169200.0 -0.9905682592 -0.0736231677
21850168900.0 -0.9902756429 -0.0566607856
21900168600.0 -0.9890453623 -0.0411700991
21950168300.0 -0.9891443517 -0.0248497828
22000168000.0 -0.9891140655 -0.0104200846
22050167700.0 -0.9895978595 0.0039798207
22100167400.0 -0.9900381401 0.0198740253
22150167100.0 -0.9910388863 0.0358907822
22200166800.0 -0.9913958586 0.0526296938
22250166500.0 -0.9916135245 0.0697235915
22300166200.0 -0.9912744153 0.0865181141
22350165900.0 -0.9893412005 0.1025082559
22400165600.0 -0.9880041713 0.1177742599
22450165300.0 -0.9859916152 0.1341070366
22500165000.0 -0.9848703909 0.1473020357
22550164700.0 -0.9842375178 0.1642912797
22600164400.0 -0.9811375435 0.1799019703
22650164100.0 -0.9785062109 0.1958704845
22700163800.0 -0.9752597072 0.2109037366
22750163500.0 -0.9720392022 0.2262371872
22800163200.0 -0.9690210878 0.2393406207
22850162900.0 -0.9662145131 0.2526234207
22900162600.0 -0.9647124998 0.2671969176
22950162300.0 -0.9628321751 0.2803772965
23000162000.0 -0.9613166999 0.293154742
23050161700.0 -0.9588110074 0.3064839625
23100161400.0 -0.9559715585 0.3201925707
23150161100.0 -0.9522597511 0.3329945123
23200160800.0 -0.9499702451 0.3452218643
23250160500.0 -0.9467060711 0.3578176669
23300160200.0 -0.9443655421 0.3708814992
23350159900.0 -0.9400539371 0.3844874638
23400159600.0 -0.934974458 0.3986496204
23450159300.0 -0.9299153543 0.4127295225
23500159000.0 -0.9250382296 0.4255781215
23550158700.0 -0.9203310401 0.440003621
23600158400.0 -0.9140613043 0.4538941546
23650158100.0 -0.9068136905 0.4687233255
23700157800.0 -0.8983058558 0.4830091441
23750157500.0 -0.8889230824 0.4970028669
23800157200.0 -0.8791611914 0.5104349337
23850156900.0 -0.8694379668 0.5231386439
23900156600.0 -0.8597032606 0.5360598431
23950156300.0 -0.8498558871 0.5485878067
24000156000.0 -0.8408010861 0.561420542
24050155700.0 -0.8301709001 0.5729737297
24100155400.0 -0.8195590784 0.5857634095
24150155100.0 -0.80931207 0.5978919869
24200154800.0 -0.7970854658 0.6095748697
24250154500.0 -0.786773848 0.621878754
24300154200.0 -0.7749330121 0.6341786493
24350153900.0 -0.7629107224 0.6451271298
24400153600.0 -0.7504000542 0.6555651436
24450153300.0 -0.7382270821 0.6659559159
24500153000.0 -0.7264523494 0.6755671535
24550152700.0 -0.7153841369 0.6861453716
24600152400.0 -0.7026963248 0.6955996754
24650152100.0 -0.6912081866 0.70375875
