!Created with skrf (http://scikit-rf.org).
# Hz S RI R 50.0 
!freq ReS11 ImS11
300000.0 -0.9743685365 -0.121017228
50299700.0 -0.9999990041 0.015230776
100299400.0 -0.9979332798 0.0281790521
150299100.0 -1.003018473 0.045111434
200298800.0 -0.9993817843 0.0583359533
250298500.0 -0.9975097762 0.0718168526
300298200.0 -0.9859199722 0.0876096843
350297900.0 -0.9940834608 0.0985900428
400297600.0 -0.9932386442 0.115199791
450297300.0 -0.9909596249 0.1289115692
500297000.0 -0.9895305282 0.1437234747
550296700.0 -0.9843887697 0.1561229367
600296400.0 -1.017256715 0.1893221476
650296100.0 -0.9822723393 0.1861316106
700295800.0 -0.9791191713 0.2003855033
750295500.0 -0.9762520161 0.214191175
800295200.0 -0.9729974012 0.2284426917
850294900.0 -0.9696496461 0.2423003338
900294600.0 -0.9657443939 0.25597458
950294300.0 -0.9623299495 0.2695669689
1000294000.0 -0.9581882711 0.2836801325
1050293700.0 -0.9537601752 0.2973060749
1100293400.0 -0.9493937855 0.3120037772
1150293100.0 -0.9455620453 0.3237167559
1200292800.0 -0.9403656597 0.3379550056
1250292500.0 -0.9347003598 0.3513919875
1300292200.0 -0.9290297134 0.3646540586
1350291900.0 -0.9235941887 0.378800438
1400291600.0 -0.9179924108 0.3919136998
1450291300.0 -0.9125309501 0.4043099219
1500291000.0 -0.9063772386 0.4175769647
1550290700.0 -0.8996630286 0.4308951762
1600290400.0 -0.8934311265 0.4438078205
1650290100.0 -0.886919695 0.4560931431
1700289800.0 -0.879701541 0.4694459962
1750289500.0 -0.8728811428 0.4817734199
1800289200.0 -0.8656444929 0.4947694841
1850288900.0 -0.8588172749 0.5061374231
1900288600.0 -0.8509231315 0.5187901204
1950288300.0 -0.8429485252 0.5315244676
2000288000.0 -0.8353873161 0.5429703903
2050287700.0 -0.8272224877 0.5553969501
2100287400.0 -0.8192556058 0.5670492728
2150287100.0 -0.8106958341 0.5788886058
2200286800.0 -0.8028555579 0.589313235
2250286500.0 -0.7940990736 0.6012028647
2300286200.0 -0.7852813354 0.6130218828
2350285900.0 -0.7766093948 0.623917209
2400285600.0 -0.767614654 0.634972312
2450285300.0 -0.7590834525 0.6454017525
2500285000.0 -0.7494094734 0.6567462343
2550284700.0 -0.7403301911 0.6667744747
2600284400.0 -0.7310857936 0.6769991393
2650284100.0 -0.7218949423 0.6874859193
2700283800.0 -0.7112714879 0.6981220905
2750283500.0 -0.7011623945 0.708702559
2800283200.0 -0.6914315265 0.718501163
2850282900.0 -0.6811847297 0.7284034375
2900282600.0 -0.6708151416 0.7380451739
2950282300.0 -0.6605266841 0.7471658
3000282000.0 -0.6499025817 0.7566594896
3050281700.0 -0.6387082057 0.7661639245
3100281400.0 -0.6266428083 0.7753624493
3150281100.0 -0.6150042414 0.7846527677
3200280800.0 -0.6034082301 0.7930472601
3250280500.0 -0.5926451112 0.8007940575
3300280200.0 -0.5813113589 0.8087290219
3350279900.0 -0.5695268266 0.8163530418
3400279600.0 -0.5574657708 0.8241540944
3450279300.0 -0.5463257256 0.8312706674
3500279000.0 -0.5345022707 0.8384879258
3550278700.0 -0.52182939 0.8457463366
3600278400.0 -0.5097024177 0.8526083715
3650278100.0 -0.4965373861 0.8602104786
3700277800.0 -0.4842280652 0.866632509
3750277500.0 -0.4721140669 0.8732228098
3800277200.0 -0.4598374273 0.8797557745
3850276900.0 -0.4477364711 0.885730658
3900276600.0 -0.4369029609 0.8914630978
3950276300.0 -0.4246008166 0.8974766393
4000276000.0 -0.4124170483 0.9032811242
4050275700.0 -0.3997801048 0.9093612175
4100275400.0 -0.3884493626 0.9149031804
4150275100.0 -0.3757845259 0.9204800444
4200274800.0 -0.3628593361 0.9261609284
4250274500.0 -0.3506280857 0.931175098
4300274200.0 -0.337494271 0.9366975717
4350273900.0 -0.3235711333 0.9418961095
4400273600.0 -0.3088403679 0.9471936723
4450273300.0 -0.2934468182 0.9521119221
4500273000.0 -0.2799304019 0.9566717332
4550272700.0 -0.265957943 0.9608863025
4600272400.0 -0.2504524624 0.9650477588
4650272100.0 -0.2388674263 0.9682300285
4700271800.0 -0.2256076232 0.9715597057
4750271500.0 -0.2138749038 0.974357521
4800271200.0 -0.2013959183 0.9771863575
4850270900.0 -0.1875448869 0.980062948
4900270600.0 -0.1736486043 0.9824152669
4950270300.0 -0.1593249795 0.9850013867
5000270000.0 -0.1449695192 0.9870736617
5050269700.0 -0.1314571515 0.9886853938
5100269400.0 -0.1177239623 0.9901943913
5150269100.0 -0.1045030821 0.9918718812
5200268800.0 -0.0909545463 0.9927448728
5250268500.0 -0.0779258482 0.9938478738
5300268200.0 -0.0649125847 0.994389087
5350267900.0 -0.052337105 0.9952031306
5400267600.0 -0.0363794079 0.9963089358
5450267300.0 -0.022993143 0.996772736
5500267000.0 -0.0078529305 0.9970982918
5550266700.0 0.006959272 0.9971951744
5600266400.0 0.022507356 0.9971351676
5650266100.0 0.0390590377 0.9970419861
5700265800.0 0.0536163152 0.9962021911
5750265500.0 0.0689125205 0.9957072637
5800265200.0 0.0824925474 0.9943224674
5850264900.0 0.0960603342 0.9935995564
5900264600.0 0.1124252369 0.991547434
5950264300.0 0.1244100772 0.9901043192
6000264000.0 0.1384705198 0.9885497409
6050263700.0 0.1505971794 0.9871257979
6100263400.0 0.162800509 0.985081141
6150263100.0 0.1774428601 0.9826341334
6200262800.0 0.187776316 0.9809139011
6250262500.0 0.2004772575 0.9786250772
6300262200.0 0.2133272683 0.9758120914
6350261900.0 0.2262045694 0.9728576874
6400261600.0 0.240122921 0.9695277569
6450261300.0 0.2513979934 0.96698397
6500261000.0 0.2643060761 0.9633776368
6550260700.0 0.277171626 0.9592617846
6600260400.0 0.2905004658 0.9553718286
6650260100.0 0.3047917327 0.9511667623
6700259800.0 0.3167747874 0.9465203962
6750259500.0 0.3304284652 0.9416474025
6800259200.0 0.3433704714 0.9365346353
6850258900.0 0.3555411268 0.9315576025
6900258600.0 0.3680267613 0.9267426383
6950258300.0 0.3805188073 0.9213089285
7000258000.0 0.3923776349 0.9157797174
7050257700.0 0.404642512 0.909826263
7100257400.0 0.4174777565 0.90351291
7150257100.0 0.4278765677 0.8982481872
7200256800.0 0.4407955039 0.8919600336
7250256500.0 0.452627209 0.8855147455
7300256200.0 0.4658758298 0.8790365389
7350255900.0 0.4783452245 0.8718728374
7400255600.0 0.491857503 0.8645347754
7450255300.0 0.5069155725 0.8557320185
7500255000.0 0.5187285132 0.8486031144
7550254700.0 0.5330617629 0.8396417872
7600254400.0 0.5453780524 0.831794482
7650254100.0 0.5565286184 0.8238609586
7700253800.0 0.5685498428 0.8157818435
7750253500.0 0.5798196779 0.8083700267
7800253200.0 0.5904027634 0.8004812773
7850252900.0 0.6001151526 0.7932987922
7900252600.0 0.6118155182 0.7847620956
7950252300.0 0.620499006 0.7781815199
8000252000.0 0.6305341625 0.7704079132
8050251700.0 0.6411189678 0.762361986
8100251400.0 0.651121384 0.7541979958
8150251100.0 0.6611978569 0.7455941393
8200250800.0 0.6709161932 0.7374245644
8250250500.0 0.6793524667 0.7296884612
8300250200.0 0.6888042258 0.7210634137
8350249900.0 0.6978469515 0.7122912144
8400249600.0 0.706350843 0.7043417119
8450249300.0 0.7153626743 0.6950004781
8500249000.0 0.7237904402 0.6863544597
8550248700.0 0.7321995777 0.6772541808
8600248400.0 0.7407624141 0.6674855576
8650248100.0 0.7484768131 0.6581579345
8700247800.0 0.7580352882 0.6470384638
8750247500.0 0.7661889803 0.6369346855
8800247200.0 0.7742658382 0.6267388796
8850246900.0 0.7833950324 0.6149801416
8900246600.0 0.7913117506 0.6038596148
8950246300.0 0.8013022155 0.5908930088
9000246000.0 0.8103548553 0.5782723454
9050245700.0 0.8193447811 0.5654691049
9100245400.0 0.8278909961 0.5529324002
9150245100.0 0.8374216365 0.5393192569
9200244800.0 0.847053282 0.5243154612
9250244500.0 0.8561553156 0.5090382829
9300244200.0 0.8646072266 0.4947161341
9350243900.0 0.8723920727 0.4808081894
9400243600.0 0.8791192944 0.4687394843
9450243300.0 0.884867816 0.4572065172
9500243000.0 0.8911955085 0.4449768485
9550242700.0 0.8949639476 0.4374350898
9600242400.0 0.89894943 0.430060824
9650242100.0 0.9023318134 0.4235617584
9700241800.0 0.9073040617 0.4153239175
9750241500.0 0.9112998397 0.4076225431
9800241200.0 0.915894126 0.3983464683
9850240900.0 0.9216169063 0.386708754
9900240600.0 0.927021708 0.3750950559
9950240300.0 0.9340079279 0.3589898865
10000240000.0 0.9392098408 0.3470592256
10050239700.0 0.9444259478 0.332118381
10100239400.0 0.9496960303 0.3163424169
10150239100.0 0.9538244091 0.3015406205
10200238800.0 0.9580616615 0.2864562403
10250238500.0 0.9615036498 0.2731021594
10300238200.0 0.9647207477 0.2589807257
10350237900.0 0.9673025012 0.2458895306
10400237600.0 0.9697290438 0.2328540417
10450237300.0 0.9724970595 0.2193062395
10500237000.0 0.9747424166 0.2065706784
10550236700.0 0.9769321977 0.1925187517
10600236400.0 0.9793099827 0.1788585087
10650236100.0 0.9812099878 0.1641687969
10700235800.0 0.9831907826 0.1520197826
10750235500.0 0.985847732 0.1386361035
10800235200.0 0.9875687872 0.124793665
10850234900.0 0.9898047591 0.109558695
10900234600.0 0.9917177992 0.0952851524
10950234300.0 0.9936083093 0.08201613
11000234000.0 0.9952758596 0.0668534274
11050233700.0 0.9969891193 0.050583604
11100233400.0 0.9985749485 0.0333305592
11150233100.0 0.9995278238 0.0167194113
11200232800.0 1.000542972 0.0020751064
11250232500.0 1.001727101 -0.0154049909
11300232200.0 1.001599478 -0.0321463246
11350231900.0 1.001903432 -0.0485667731
11400231600.0 1.001596569 -0.0635155956
11450231300.0 1.000933202 -0.0798530807
11500231000.0 1.00017628 -0.0955395617
11550230700.0 0.9984966446 -0.1096237819
11600230400.0 0.9973367211 -0.1217432708
11650230100.0 0.9957695186 -0.1333691063
11700229800.0 0.993348695 -0.1474277936
11750229500.0 0.9907221184 -0.1622128814
11800229200.0 0.9880528054 -0.1758897638
11850228900.0 0.984352899 -0.1883838412
11900228600.0 0.9808316363 -0.1980544576
11950228300.0 0.9778253922 -0.2081833128
12000228000.0 0.9750680898 -0.2167923007
12050227700.0 0.9710848593 -0.2300552057
12100227400.0 0.9685543818 -0.2415707973
12150227100.0 0.9634730024 -0.258852519
12200226800.0 0.9593819477 -0.2691383352
12250226500.0 0.9552257684 -0.2824665808
12300226200.0 0.9508804805 -0.2946530588
12350225900.0 0.9464593966 -0.3084381942
12400225600.0 0.9418229198 -0.3205480999
12450225300.0 0.9380200632 -0.3332776215
12500225000.0 0.9321559033 -0.3483045214
12550224700.0 0.9267998886 -0.3620959668
12600224400.0 0.9219699865 -0.3749206382
12650224100.0 0.9161797911 -0.3894605795
12700223800.0 0.9108694664 -0.4023745582
12750223500.0 0.9052547911 -0.4152735821
12800223200.0 0.9001785373 -0.4279521241
12850222900.0 0.8945967459 -0.4402603895
12900222600.0 0.8891422437 -0.4520238761
12950222300.0 0.8825627807 -0.46525042
13000222000.0 0.8768235311 -0.4764040653
13050221700.0 0.8700301637 -0.489256952
13100221400.0 0.8636653574 -0.5009331296
13150221100.0 0.8566545568 -0.5131046285
13200220800.0 0.8497227105 -0.5246817089
13250220500.0 0.842433303 -0.5370982922
13300220200.0 0.835093372 -0.5478284396
13350219900.0 0.8269087836 -0.5596903434
13400219600.0 0.8188363955 -0.5717755686
13450219300.0 0.8093828405 -0.5854351379
13500219000.0 0.7991376779 -0.599029391
13550218700.0 0.7892966955 -0.6114713871
13600218400.0 0.7793885973 -0.6239491291
13650218100.0 0.7698871043 -0.6340402527
13700217800.0 0.7587382956 -0.6474849818
13750217500.0 0.7487932831 -0.6582308546
13800217200.0 0.7378502559 -0.6701534339
13850216900.0 0.726414303 -0.6814004895
13900216600.0 0.717084164 -0.6908648378
13950216300.0 0.7063271967 -0.7008785488
14000216000.0 0.6961112119 -0.7098271338
14050215700.0 0.6865672837 -0.7182575348
14100215400.0 0.6762789881 -0.7272409708
14150215100.0 0.6671103027 -0.7360065623
14200214800.0 0.6577787954 -0.7445133297
14250214500.0 0.6474874239 -0.7539867029
14300214200.0 0.637040247 -0.7633747499
14350213900.0 0.6259479282 -0.7729858942
14400213600.0 0.6143516317 -0.7828170789
14450213300.0 0.6007233734 -0.7929496419
14500213000.0 0.5876666489 -0.8027237892
14550212700.0 0.5754429282 -0.8127480327
14600212400.0 0.5628515739 -0.821234383
14650212100.0 0.5506555706 -0.8298702315
14700211800.0 0.5359835826 -0.8392976221
14750211500.0 0.524130985 -0.8476068447
14800211200.0 0.511823234 -0.8554290227
14850210900.0 0.499533841 -0.8631985352
14900210600.0 0.48638088 -0.8710496262
14950210300.0 0.473080824 -0.8787600503
15000210000.0 0.4600850739 -0.8855699113
15050209700.0 0.4478435185 -0.8917302753
15100209400.0 0.4356004881 -0.8977381097
15150209100.0 0.4228573379 -0.903467048
15200208800.0 0.4100903172 -0.9084250882
15250208500.0 0.3992607579 -0.9124983197
15300208200.0 0.3870089283 -0.9171948732
15350207900.0 0.3736831421 -0.9223812922
15400207600.0 0.3588433938 -0.9276152932
15450207300.0 0.344181879 -0.9325759962
15500207000.0 0.3300685805 -0.9372376079
15550206700.0 0.3150951162 -0.9427477769
15600206400.0 0.2993519921 -0.9471130908
15650206100.0 0.2836405532 -0.9510617115
15700205800.0 0.2698515031 -0.9548817678
15750205500.0 0.255136999 -0.9583629241
15800205200.0 0.2408300106 -0.9618321564
15850204900.0 0.2265055612 -0.9654438337
15900204600.0 0.2113751019 -0.9689830703
15950204300.0 0.1971233143 -0.9720182695
16000204000.0 0.1826951019 -0.9751683969
16050203700.0 0.1676167514 -0.9778721906
16100203400.0 0.1535085433 -0.9800623834
16150203100.0 0.1385449637 -0.9823801186
16200202800.0 0.1244627045 -0.9842308833
16250202500.0 0.1101987117 -0.9857263697
16300202200.0 0.094341129 -0.9877768176
16350201900.0 0.0794661292 -0.9885837827
16400201600.0 0.0649769092 -0.9903137408
16450201300.0 0.0495202799 -0.9913031131
16500201000.0 0.0328070663 -0.9920637878
16550200700.0 0.0172250795 -0.9926473251
16600200400.0 0.0014003998 -0.9926911781
16650200100.0 -0.0145557243 -0.9928337202
16700199800.0 -0.0307506069 -0.9921664384
16750199500.0 -0.0496545972 -0.9918745448
16800199200.0 -0.0650617784 -0.9909500844
16850198900.0 -0.0805050143 -0.9900109466
16900198600.0 -0.0941178665 -0.9884312864
16950198300.0 -0.1081881288 -0.987950741
17000198000.0 -0.120317624 -0.9860621678
17050197700.0 -0.1332717455 -0.9840650411
17100197400.0 -0.1464997669 -0.9827748937
17150197100.0 -0.1587921566 -0.9802738506
17200196800.0 -0.1716991562 -0.9783400482
17250196500.0 -0.1844710286 -0.9761438459
17300196200.0 -0.1969683665 -0.9733682803
17350195900.0 -0.2086979902 -0.9712352641
17400195600.0 -0.220754944 -0.9688825064
17450195300.0 -0.2339691322 -0.9660360621
17500195000.0 -0.2472901616 -0.9627164591
17550194700.0 -0.2610046193 -0.9592200346
17600194400.0 -0.2754066599 -0.9551587664
17650194100.0 -0.2888526846 -0.9511386945
17700193800.0 -0.3020731106 -0.9468555217
17750193500.0 -0.3165535213 -0.942144887
17800193200.0 -0.3310021193 -0.9366200495
17850192900.0 -0.346120019 -0.9316826152
17900192600.0 -0.3612163621 -0.9257788951
17950192300.0 -0.3764826393 -0.9181768239
18000192000.0 -0.3912435894 -0.9112463824
18050191700.0 -0.4053527814 -0.9032534766
18100191400.0 -0.4195124841 -0.8956053929
18150191100.0 -0.4344172337 -0.8876768818
18200190800.0 -0.4514431751 -0.8785743907
18250190500.0 -0.4683090782 -0.8691732496
18300190200.0 -0.4838580357 -0.8605495626
18350189900.0 -0.498831908 -0.85193932
18400189600.0 -0.5133050678 -0.8438933809
18450189300.0 -0.5264712176 -0.8358609332
18500189000.0 -0.5399198848 -0.8275276947
18550188700.0 -0.5529480044 -0.8202066996
18600188400.0 -0.5641124218 -0.8134688573
18650188100.0 -0.5752306228 -0.8069834879
18700187800.0 -0.5862361783 -0.8005950513
18750187500.0 -0.5969101201 -0.7937990908
18800187200.0 -0.6072979162 -0.7867728951
18850186900.0 -0.6177143052 -0.7800742512
18900186600.0 -0.6277687385 -0.7728855681
18950186300.0 -0.6377805138 -0.7651660987
19000186000.0 -0.6448486073 -0.7588470125
19050185700.0 -0.6538928156 -0.7519635319
19100185400.0 -0.6643892715 -0.7432334635
19150185100.0 -0.6740583118 -0.7351372358
19200184800.0 -0.6833244344 -0.7266081761
19250184500.0 -0.6940341974 -0.7178730045
19300184200.0 -0.7046634415 -0.7074933288
19350183900.0 -0.7154137387 -0.6987959235
19400183600.0 -0.7258536175 -0.6884709147
19450183300.0 -0.7349603626 -0.6778116237
19500183000.0 -0.7427156816 -0.667925513
19550182700.0 -0.75289985 -0.6568978842
19600182400.0 -0.7633802835 -0.6455989406
19650182100.0 -0.7739775532 -0.6332571714
19700181800.0 -0.7848652185 -0.6198381462
19750181500.0 -0.7952955758 -0.6059685517
19800181200.0 -0.8057254027 -0.5907197009
19850180900.0 -0.8153779062 -0.5753916812
19900180600.0 -0.8232246797 -0.5606541227
19950180300.0 -0.8325042069 -0.5445254247
20000180000.0 -0.8251218229 -0.5474332867
20050179700.0 -0.8337008797 -0.5341798568
20100179400.0 -0.8416839001 -0.5204299961
20150179100.0 -0.8496023534 -0.5078518708
20200178800.0 -0.8588697595 -0.4957228392
20250178500.0 -0.8682574913 -0.4822547007
20300178200.0 -0.8781515446 -0.4674965704
20350177900.0 -0.8873578102 -0.4532857527
20400177600.0 -0.8965845501 -0.4390597261
20450177300.0 -0.9045709353 -0.4245286782
20500177000.0 -0.9124558396 -0.4106246009
20550176700.0 -0.9201385586 -0.3971927453
20600176400.0 -0.927569145 -0.3841312075
20650176100.0 -0.9339607865 -0.3713457642
20700175800.0 -0.9409562778 -0.3604261601
20750175500.0 -0.9475326669 -0.3484761404
20800175200.0 -0.9521473214 -0.3376713916
20850174900.0 -0.9567143669 -0.3268644248
20900174600.0 -0.9606060693 -0.3153461291
20950174300.0 -0.9644181766 -0.3034853965
21000174000.0 -0.9683945995 -0.2923945327
21050173700.0 -0.9703683731 -0.2817411652
21100173400.0 -0.9750035668 -0.2699492967
21150173100.0 -0.9788784693 -0.2575514597
21200172800.0 -0.9821664779 -0.2445533778
21250172500.0 -0.9857401438 -0.2304404644
21300172200.0 -0.9884887238 -0.216400666
21350171900.0 -0.9905543005 -0.2023435086
21400171600.0 -0.991653378 -0.188099359
21450171300.0 -0.9920106279 -0.1736577508
21500171000.0 -0.9926440134 -0.1582923618
21550170700.0 -0.9925823937 -0.1420873799
21600170400.0 -0.9915495854 -0.126181717
21650170100.0 -0.9911331427 -0.1106147844
21700169800.0 -0.9903604618 -0.0959803742
21750169500.0 -0.9892020098 -0.0809596908
21800169200.0 -0.9887720252 -0.06397355
21850168900.0 -0.9875016544 -0.0467365157
21900168600.0 -0.9866788806 -0.0308268164
21950168300.0 -0.9854506883 -0.0141406544
22000168000.0 -0.9843496844 0.0004307886
22050167700.0 -0.9844276725 0.014671892
22100167400.0 -0.9845213421 0.0298797572
22150167100.0 -0.9854019827 0.0455147471
22200166800.0 -0.9861748301 0.0617759354
22250166500.0 -0.9860461407 0.0792364361
22300166200.0 -0.9843275891 0.0955724556
22350165900.0 -0.983676919 0.1128633642
22400165600.0 -0.9810591712 0.1286762985
22450165300.0 -0.979350224 0.1432595646
22500165000.0 -0.9769946981 0.1556535158
22550164700.0 -0.976695723 0.1725601991
22600164400.0 -0.9749154489 0.1872735339
22650164100.0 -0.972702976 0.2024551009
22700163800.0 -0.969792244 0.2183617666
22750163500.0 -0.967266671 0.2337650142
22800163200.0 -0.9641688493 0.2468802404
22850162900.0 -0.9619248254 0.2603426508
22900162600.0 -0.9604407721 0.2738316312
22950162300.0 -0.9590394862 0.286122456
23000162000.0 -0.9582529026 0.2981888317
23050161700.0 -0.9558626344 0.3108500097
23100161400.0 -0.9533297187 0.323689436
23150161100.0 -0.9506782442 0.3362674081
23200160800.0 -0.9478087706 0.3484306296
23250160500.0 -0.9456513489 0.3605810008
23300160200.0 -0.9422011629 0.3731332257
23350159900.0 -0.9389395786 0.3858959227
23400159600.0 -0.9341229505 0.3994286726
23450159300.0 -0.9296091111 0.4126597797
23500159000.0 -0.9250474368 0.425387597
23550158700.0 -0.920397274 0.4391217383
23600158400.0 -0.9149805856 0.452453496
23650158100.0 -0.9084941864 0.4668363984
23700157800.0 -0.9008018594 0.4804580585
23750157500.0 -0.8920064924 0.4949029276
23800157200.0 -0.883031897 0.5081313308
23850156900.0 -0.8745236885 0.5210501575
23900156600.0 -0.8649827485 0.5332635786
23950156300.0 -0.8554990249 0.5451454525
24000156000.0 -0.8470763292 0.5575718467
24050155700.0 -0.8369230653 0.570313164
24100155400.0 -0.8272224627 0.5812618515
24150155100.0 -0.8155429808 0.5938654639
24200154800.0 -0.8048264545 0.6051508334
24250154500.0 -0.7940192849 0.6162990455
24300154200.0 -0.7820228383 0.6280431285
24350153900.0 -0.7705008886 0.6385697948
24400153600.0 -0.7582187322 0.6493482179
24450153300.0 -0.7463674405 0.6591081915
24500153000.0 -0.7351863845 0.6682805445
24550152700.0 -0.7239854204 0.6784993784
24600152400.0 -0.7119083369 0.6877482894
24650152100.0 -0.7005079224 0.6958800472
