!Created with skrf (http://scikit-rf.org).
# Hz S RI R 50.0 
!freq ReS11 ImS11
300000.0 -0.9756476361 -0.1168167286
50299700.0 -1.000127606 0.0154212495
100299400.0 -0.9980837419 0.0283362092
150299100.0 -1.00282926 0.0453912053
200298800.0 -0.9995609516 0.0586052768
250298500.0 -0.997457626 0.0720125609
300298200.0 -0.9859047504 0.0879151772
350297900.0 -0.9939098059 0.0989698172
400297600.0 -0.9933383283 0.115450504
450297300.0 -0.9912111271 0.1292722207
500297000.0 -0.9896170713 0.1440316366
550296700.0 -0.9842849899 0.1563220957
600296400.0 -1.017579968 0.1896983267
650296100.0 -0.9822068279 0.1863714608
700295800.0 -0.9795814621 0.2005309766
750295500.0 -0.976250401 0.2148462383
800295200.0 -0.9728749123 0.2288804924
850294900.0 -0.9694826218 0.2425492356
900294600.0 -0.9657660587 0.2562346771
950294300.0 -0.9621562643 0.2701923334
1000294000.0 -0.9580645993 0.2840450348
1050293700.0 -0.9536552389 0.2978926606
1100293400.0 -0.9492357106 0.3123287402
1150293100.0 -0.9453472749 0.3243324424
1200292800.0 -0.9402115727 0.3384437903
1250292500.0 -0.9345261405 0.3517631399
1300292200.0 -0.9289989467 0.365072331
1350291900.0 -0.9233339741 0.379107725
1400291600.0 -0.9178728404 0.3921223548
1450291300.0 -0.9124447348 0.4046236295
1500291000.0 -0.9060700666 0.4181587463
1550290700.0 -0.8997040227 0.4314479218
1600290400.0 -0.893419655 0.444231708
1650290100.0 -0.8867452636 0.4563948878
1700289800.0 -0.8799006465 0.4697733889
1750289500.0 -0.8726455667 0.4821023761
1800289200.0 -0.8653348148 0.4950490686
1850288900.0 -0.8587661827 0.506412652
1900288600.0 -0.8509268575 0.5193437463
1950288300.0 -0.8426522568 0.5319315953
2000288000.0 -0.8351802111 0.5433560702
2050287700.0 -0.8270974499 0.5557142863
2100287400.0 -0.8190130132 0.5672093061
2150287100.0 -0.8106305611 0.5793546423
2200286800.0 -0.8027436167 0.5897858313
2250286500.0 -0.7941104279 0.6015927581
2300286200.0 -0.7848616826 0.6132727608
2350285900.0 -0.776152913 0.6242779619
2400285600.0 -0.7671920522 0.6353213827
2450285300.0 -0.7587252694 0.6454867926
2500285000.0 -0.7490907949 0.656931099
2550284700.0 -0.7400712765 0.6674189353
2600284400.0 -0.7309698205 0.6775802459
2650284100.0 -0.7215040386 0.6877467858
2700283800.0 -0.7111744331 0.6987446365
2750283500.0 -0.700842175 0.7089730711
2800283200.0 -0.690904824 0.7187533593
2850282900.0 -0.6810788906 0.7288319794
2900282600.0 -0.6702946764 0.7383342036
2950282300.0 -0.6601003885 0.7473827745
3000282000.0 -0.6495350673 0.7569380719
3050281700.0 -0.6384428426 0.7663307931
3100281400.0 -0.6265383579 0.7756161024
3150281100.0 -0.6145383107 0.7850435569
3200280800.0 -0.6029600175 0.7934244902
3250280500.0 -0.59205517 0.8012126284
3300280200.0 -0.5811434092 0.809181041
3350279900.0 -0.5695983655 0.8165483849
3400279600.0 -0.5572876866 0.8240664208
3450279300.0 -0.5462333499 0.8313299536
3500279000.0 -0.5342468244 0.8385381863
3550278700.0 -0.5216122915 0.8457121094
3600278400.0 -0.5094898838 0.8529274562
3650278100.0 -0.4961295388 0.8606497001
3700277800.0 -0.483958567 0.8669472309
3750277500.0 -0.4717900805 0.8736999587
3800277200.0 -0.4594709364 0.8799822971
3850276900.0 -0.4471971842 0.8860473402
3900276600.0 -0.4364700612 0.8917028975
3950276300.0 -0.4242205618 0.8975164639
4000276000.0 -0.4120923089 0.903530859
4050275700.0 -0.3990808345 0.9096759052
4100275400.0 -0.3880242779 0.9150304263
4150275100.0 -0.3752627805 0.9207789318
4200274800.0 -0.3623986835 0.9265154891
4250274500.0 -0.3500913641 0.9313443164
4300274200.0 -0.3369842991 0.9368885081
4350273900.0 -0.3233235823 0.9419254556
4400273600.0 -0.3084074676 0.9471909252
4450273300.0 -0.2930914903 0.9523389762
4500273000.0 -0.2794305407 0.9569356384
4550272700.0 -0.2652038174 0.9609827464
4600272400.0 -0.2497287841 0.9653426961
4650272100.0 -0.2380340761 0.9683948404
4700271800.0 -0.2247772999 0.9717701024
4750271500.0 -0.2131002913 0.9747144755
4800271200.0 -0.2004988048 0.9773460494
4850270900.0 -0.1867821095 0.9802321079
4900270600.0 -0.1727484016 0.9825838683
4950270300.0 -0.1584375925 0.9851153913
5000270000.0 -0.1442918711 0.9873882741
5050269700.0 -0.1308082585 0.9888930272
5100269400.0 -0.1172095121 0.9904090497
5150269100.0 -0.1036669039 0.9923177355
5200268800.0 -0.0904603984 0.9933141281
5250268500.0 -0.0773224005 0.9942500322
5300268200.0 -0.0643204996 0.9946453162
5350267900.0 -0.0522130647 0.9953806155
5400267600.0 -0.0359816135 0.9965751814
5450267300.0 -0.023158689 0.9968915231
5500267000.0 -0.0077183999 0.9972654939
5550266700.0 0.0074112013 0.9972509253
5600266400.0 0.0227716922 0.9973818011
5650266100.0 0.0394021387 0.996974584
5700265800.0 0.053787099 0.9959144927
5750265500.0 0.0690779095 0.9955006935
5800265200.0 0.0830961277 0.9942315325
5850264900.0 0.0963146798 0.9934863564
5900264600.0 0.1129186176 0.9919789018
5950264300.0 0.1248215445 0.9899995671
6000264000.0 0.1389565956 0.9880606524
6050263700.0 0.1515747907 0.9868911649
6100263400.0 0.1638745671 0.9847078553
6150263100.0 0.1783910636 0.9824932349
6200262800.0 0.1887097846 0.9809336812
6250262500.0 0.2013464568 0.9783229301
6300262200.0 0.214362939 0.9755842
6350261900.0 0.2274712236 0.9726111351
6400261600.0 0.2411068698 0.9693079365
6450261300.0 0.2523587246 0.9666116271
6500261000.0 0.2651481737 0.9629969774
6550260700.0 0.2781983113 0.9590829182
6600260400.0 0.2917837696 0.9548712923
6650260100.0 0.3053416121 0.9508861211
6700259800.0 0.3174696707 0.9465437984
6750259500.0 0.3311995375 0.9415862046
6800259200.0 0.3443069883 0.9365619141
6850258900.0 0.3564069863 0.9313282531
6900258600.0 0.3685744544 0.9262987071
6950258300.0 0.3813254243 0.9210368685
7000258000.0 0.3931457404 0.9155141043
7050257700.0 0.4055362775 0.90958955
7100257400.0 0.4181989563 0.9032888721
7150257100.0 0.4284715516 0.8980049436
7200256800.0 0.4412944609 0.8915477262
7250256500.0 0.453192058 0.8850157175
7300256200.0 0.4666856654 0.878476647
7350255900.0 0.4787245569 0.8715577331
7400255600.0 0.4918957621 0.8642571954
7450255300.0 0.5074315204 0.8555134005
7500255000.0 0.5189994522 0.8483889811
7550254700.0 0.5324564062 0.8396511478
7600254400.0 0.5455221769 0.8314953598
7650254100.0 0.5572894334 0.8236313346
7700253800.0 0.5689221612 0.8156126586
7750253500.0 0.5797034785 0.8080040235
7800253200.0 0.5904861123 0.80027716
7850252900.0 0.6003280999 0.7931772488
7900252600.0 0.6119791884 0.7845553014
7950252300.0 0.6208976651 0.7779286916
8000252000.0 0.6310395948 0.7702706157
8050251700.0 0.6414482602 0.7621594187
8100251400.0 0.6513236893 0.754004387
8150251100.0 0.6617278997 0.7453548869
8200250800.0 0.6710765535 0.7373220175
8250250500.0 0.6801241144 0.7294039524
8300250200.0 0.6893647059 0.7207704838
8350249900.0 0.6983124886 0.7120166594
8400249600.0 0.7067504089 0.7040064735
8450249300.0 0.7156990877 0.6947959516
8500249000.0 0.7244078308 0.6861005082
8550248700.0 0.7327502243 0.6769521215
8600248400.0 0.7411224124 0.6672780604
8650248100.0 0.7488935235 0.6579234839
8700247800.0 0.758275445 0.6466874008
8750247500.0 0.7665940652 0.6364878862
8800247200.0 0.7746461109 0.6263136209
8850246900.0 0.7835156089 0.6146422706
8900246600.0 0.791987451 0.6034394159
8950246300.0 0.8016048077 0.5902101156
9000246000.0 0.810810224 0.577621742
9050245700.0 0.8200251554 0.5646510525
9100245400.0 0.8285735923 0.5521623886
9150245100.0 0.8376312463 0.5386921103
9200244800.0 0.8477065879 0.523136378
9250244500.0 0.8573729146 0.5075403473
9300244200.0 0.8659555042 0.4930964623
9350243900.0 0.8733053857 0.479241872
9400243600.0 0.8802095389 0.466873493
9450243300.0 0.8859768919 0.4550599862
9500243000.0 0.892356087 0.4428020964
9550242700.0 0.8960580951 0.4354419598
9600242400.0 0.8999548999 0.4278371739
9650242100.0 0.9034927957 0.4217407757
9700241800.0 0.9082680377 0.4133502649
9750241500.0 0.9122326585 0.4057213189
9800241200.0 0.9167724393 0.3965538855
9850240900.0 0.9221967944 0.3849994459
9900240600.0 0.9280051122 0.3735129597
9950240300.0 0.9345580288 0.3571962155
10000240000.0 0.9388451191 0.345987772
10050239700.0 0.9449964569 0.3302991638
10100239400.0 0.9497526217 0.3149583839
10150239100.0 0.9539306907 0.300631245
10200238800.0 0.958319799 0.2852569756
10250238500.0 0.9614323726 0.2720260781
10300238200.0 0.9646707166 0.2579847376
10350237900.0 0.9674113676 0.2449493313
10400237600.0 0.970034628 0.231647878
10450237300.0 0.9725601803 0.2181039389
10500237000.0 0.9744844258 0.2060653836
10550236700.0 0.9770652363 0.1916924308
10600236400.0 0.9790857661 0.1781683218
10650236100.0 0.9812699338 0.1636578857
10700235800.0 0.9832920615 0.1512765436
10750235500.0 0.9857324965 0.1379049069
10800235200.0 0.9879045025 0.1238489538
10850234900.0 0.9896144508 0.1092048302
10900234600.0 0.9916649097 0.0947703427
10950234300.0 0.9934764 0.0814347282
11000234000.0 0.9952914592 0.0662985596
11050233700.0 0.9970023455 0.0501315752
11100233400.0 0.9983357672 0.032650212
11150233100.0 0.9991996902 0.0165007461
11200232800.0 1.000148513 0.0014203168
11250232500.0 1.001325644 -0.0154373437
11300232200.0 1.001979158 -0.0330291206
11350231900.0 1.001933319 -0.0486900554
11400231600.0 1.001285399 -0.063340669
11450231300.0 1.000829973 -0.0789976223
11500231000.0 0.9999270572 -0.0962460025
11550230700.0 0.9984432856 -0.108933128
11600230400.0 0.9969440379 -0.1219326873
11650230100.0 0.995018164 -0.1338000574
11700229800.0 0.9928156995 -0.1481751901
11750229500.0 0.9909025634 -0.1630003756
11800229200.0 0.9880896082 -0.1768761695
11850228900.0 0.9844557289 -0.1891541477
11900228600.0 0.9809329669 -0.1988405772
11950228300.0 0.9776575422 -0.2091933507
12000228000.0 0.9747103562 -0.2178563216
12050227700.0 0.9710020285 -0.2310009604
12100227400.0 0.9679047221 -0.2417282717
12150227100.0 0.9630883998 -0.2587558318
12200226800.0 0.9592702484 -0.2696533459
12250226500.0 0.9550710606 -0.2824147158
12300226200.0 0.9513402901 -0.2936344515
12350225900.0 0.9464998849 -0.3082661968
12400225600.0 0.9415088353 -0.3218009247
12450225300.0 0.9379849498 -0.3340288666
12500225000.0 0.9321808946 -0.3489955506
12550224700.0 0.9266758025 -0.3627230437
12600224400.0 0.921949986 -0.3757403237
12650224100.0 0.9161139209 -0.3899256332
12700223800.0 0.9107285756 -0.4028341836
12750223500.0 0.9053652483 -0.4157542184
12800223200.0 0.8999363266 -0.4282637573
12850222900.0 0.8945406837 -0.4402228565
12900222600.0 0.8888793167 -0.4526266425
12950222300.0 0.8824278026 -0.4653562752
13000222000.0 0.8767644496 -0.4767438146
13050221700.0 0.8702256787 -0.4891914572
13100221400.0 0.8629956318 -0.5015291418
13150221100.0 0.8562383359 -0.5136973978
13200220800.0 0.8491835531 -0.5253447033
13250220500.0 0.8420688943 -0.5374506803
13300220200.0 0.8345970459 -0.54823183
13350219900.0 0.8267785395 -0.5599978228
13400219600.0 0.8184994019 -0.5720233619
13450219300.0 0.8085453385 -0.5861828467
13500219000.0 0.7989980609 -0.5995290924
13550218700.0 0.7877152236 -0.6127996728
13600218400.0 0.7788403183 -0.6245688842
13650218100.0 0.7684090052 -0.6361782945
13700217800.0 0.7583947628 -0.6475072587
13750217500.0 0.7479140893 -0.6594321897
13800217200.0 0.7373119936 -0.6701973662
13850216900.0 0.7252330983 -0.6824708039
13900216600.0 0.7155068533 -0.6910235151
13950216300.0 0.705011249 -0.7018441716
14000216000.0 0.694755033 -0.7108417199
14050215700.0 0.685364184 -0.7194793855
14100215400.0 0.6754141185 -0.7281889213
14150215100.0 0.6662847606 -0.7367871769
14200214800.0 0.6568563688 -0.7455440332
14250214500.0 0.6465333678 -0.75476095
14300214200.0 0.6362346616 -0.7642612658
14350213900.0 0.6250240762 -0.7736188259
14400213600.0 0.613002908 -0.7836535378
14450213300.0 0.600444085 -0.7935409731
14500213000.0 0.5871092523 -0.803559804
14550212700.0 0.5743810944 -0.8132130053
14600212400.0 0.561875688 -0.8219091151
14650212100.0 0.549344493 -0.8308460499
14700211800.0 0.5352734257 -0.8402422433
14750211500.0 0.5232663934 -0.8485204285
14800211200.0 0.5110094695 -0.8563160065
14850210900.0 0.4987005531 -0.8638659506
14900210600.0 0.4852971094 -0.8717374211
14950210300.0 0.4718976535 -0.8792711458
15000210000.0 0.4591352166 -0.8861121551
15050209700.0 0.4467046413 -0.8920783647
15100209400.0 0.4342962616 -0.8983582003
15150209100.0 0.4218369634 -0.9033078095
15200208800.0 0.4088721586 -0.9091384088
15250208500.0 0.3977095388 -0.9131791862
15300208200.0 0.384711911 -0.9173896772
15350207900.0 0.3717247719 -0.9226681462
15400207600.0 0.3573318933 -0.9279106737
15450207300.0 0.3428806989 -0.9329936088
15500207000.0 0.3281135416 -0.9378991422
15550206700.0 0.3140001036 -0.9431510406
15600206400.0 0.2979674747 -0.9469889493
15650206100.0 0.2818408523 -0.9519873812
15700205800.0 0.268024171 -0.9549874846
15750205500.0 0.2534765154 -0.958844029
15800205200.0 0.2389902032 -0.962359579
15850204900.0 0.2245129528 -0.9658349812
15900204600.0 0.209531372 -0.9692124961
15950204300.0 0.1953304125 -0.9722217454
16000204000.0 0.1813263001 -0.9751053412
16050203700.0 0.1663198182 -0.9780159353
16100203400.0 0.1514556912 -0.9805570801
16150203100.0 0.1374634619 -0.9824206348
16200202800.0 0.1233650128 -0.9842115303
16250202500.0 0.108709209 -0.9860485618
16300202200.0 0.0927781681 -0.987915936
16350201900.0 0.0780473486 -0.9891148227
16400201600.0 0.0638179362 -0.9900931891
16450201300.0 0.0485526122 -0.9913360293
16500201000.0 0.0319548258 -0.9921378258
16550200700.0 0.0161715499 -0.9924894183
16600200400.0 0.0004218866 -0.9925856921
16650200100.0 -0.0153497533 -0.9925540849
16700199800.0 -0.0321950441 -0.992293955
16750199500.0 -0.0508326918 -0.9919192505
16800199200.0 -0.0656699574 -0.9907455188
16850198900.0 -0.0818941992 -0.9893443305
16900198600.0 -0.0961056798 -0.9886389872
16950198300.0 -0.1094046396 -0.9878272948
17000198000.0 -0.1217300327 -0.9859516487
17050197700.0 -0.1344431182 -0.9847836851
17100197400.0 -0.1469939286 -0.9821094763
17150197100.0 -0.1599573647 -0.9801460965
17200196800.0 -0.1726332597 -0.9780816792
17250196500.0 -0.1854694184 -0.9759737237
17300196200.0 -0.1976738253 -0.9734252516
17350195900.0 -0.2094833384 -0.9710390565
17400195600.0 -0.2216737877 -0.9686981429
17450195300.0 -0.2349512533 -0.9657728328
17500195000.0 -0.2482151015 -0.9625550225
17550194700.0 -0.262164975 -0.9588819963
17600194400.0 -0.2759749967 -0.9549692432
17650194100.0 -0.289664887 -0.9506980271
17700193800.0 -0.3026069642 -0.9465153193
17750193500.0 -0.3174133422 -0.942179144
17800193200.0 -0.3314934743 -0.9365879032
17850192900.0 -0.346306868 -0.9313493376
17900192600.0 -0.3616464088 -0.9252191484
17950192300.0 -0.3775225137 -0.9180120719
18000192000.0 -0.3920062821 -0.9108238407
18050191700.0 -0.406123187 -0.9030689238
18100191400.0 -0.4203679351 -0.8952854199
18150191100.0 -0.435263419 -0.8872339344
18200190800.0 -0.4521496293 -0.8780724008
18250190500.0 -0.4687494862 -0.8685673839
18300190200.0 -0.4844337016 -0.859569771
18350189900.0 -0.4997510768 -0.851275404
18400189600.0 -0.5141604106 -0.8428016708
18450189300.0 -0.5273484702 -0.8351950685
18500189000.0 -0.5407334227 -0.8271550479
18550188700.0 -0.5532702764 -0.8193804905
18600188400.0 -0.5653057872 -0.8127341657
18650188100.0 -0.5761608848 -0.8066037628
18700187800.0 -0.5869736271 -0.7999702011
18750187500.0 -0.5976759055 -0.7933020412
18800187200.0 -0.6083361406 -0.7861691331
18850186900.0 -0.6182695426 -0.779366448
18900186600.0 -0.6285130704 -0.7718738021
18950186300.0 -0.6383782565 -0.7642860827
19000186000.0 -0.6456790681 -0.7584354685
19050185700.0 -0.6552274966 -0.7512155259
19100185400.0 -0.664762176 -0.7427920587
19150185100.0 -0.6748371289 -0.7341458505
19200184800.0 -0.6840151812 -0.7262605254
19250184500.0 -0.6949043363 -0.7172966876
19300184200.0 -0.7060218071 -0.7076650443
19350183900.0 -0.7172203713 -0.69754452
19400183600.0 -0.7268226086 -0.6873401001
19450183300.0 -0.7356778842 -0.6774865779
19500183000.0 -0.7433847732 -0.667793684
19550182700.0 -0.7530702829 -0.6570578177
19600182400.0 -0.7636963268 -0.6452904192
19650182100.0 -0.7745269184 -0.6323115037
19700181800.0 -0.7854896308 -0.6190926761
19750181500.0 -0.7959062809 -0.6054131821
19800181200.0 -0.8061292126 -0.590289743
19850180900.0 -0.8159486487 -0.5746842019
19900180600.0 -0.8236401776 -0.5601357603
19950180300.0 -0.8331099972 -0.5438541767
20000180000.0 -0.8263339587 -0.5466205502
20050179700.0 -0.8343518873 -0.533166829
20100179400.0 -0.8424920849 -0.5187513626
20150179100.0 -0.8507452802 -0.5069410998
20200178800.0 -0.8598609054 -0.4937222587
20250178500.0 -0.8693150214 -0.4809192153
20300178200.0 -0.879033837 -0.4663066038
20350177900.0 -0.8876017089 -0.4510544721
20400177600.0 -0.8969669267 -0.4369590936
20450177300.0 -0.9054960087 -0.422291419
20500177000.0 -0.9132747723 -0.4086057043
20550176700.0 -0.9212406974 -0.3949544431
20600176400.0 -0.9281282909 -0.381771395
20650176100.0 -0.9347796688 -0.3693311694
20700175800.0 -0.9419207091 -0.3575300334
20750175500.0 -0.9475692216 -0.3464300929
20800175200.0 -0.952844158 -0.3348333042
20850174900.0 -0.9577392598 -0.3247249943
20900174600.0 -0.9618928276 -0.3126239562
20950174300.0 -0.9659933606 -0.3016034272
21000174000.0 -0.9701157273 -0.2906393808
21050173700.0 -0.9729097199 -0.2783547899
21100173400.0 -0.9772142315 -0.267199605
21150173100.0 -0.9805211797 -0.2545639332
21200172800.0 -0.9843194288 -0.2410619457
21250172500.0 -0.9871336026 -0.227868188
21300172200.0 -0.9898829196 -0.2131982216
21350171900.0 -0.9915495582 -0.1985040736
21400171600.0 -0.9930451956 -0.1845451694
21450171300.0 -0.9933564162 -0.1701067641
21500171000.0 -0.992980594 -0.1551476375
21550170700.0 -0.9929644813 -0.1396409064
21600170400.0 -0.9919841201 -0.1233512024
21650170100.0 -0.9915809522 -0.1063513412
21700169800.0 -0.9899828521 -0.0924005232
21750169500.0 -0.9888499262 -0.0770291085
21800169200.0 -0.9883775511 -0.0603248737
21850168900.0 -0.9861378794 -0.0437792546
21900168600.0 -0.9859290048 -0.0270121612
21950168300.0 -0.984172759 -0.0111729169
22000168000.0 -0.9836628781 0.003492049
22050167700.0 -0.9829617147 0.0183097455
22100167400.0 -0.9830712803 0.0335070691
22150167100.0 -0.9838141467 0.0490944644
22200166800.0 -0.9844746893 0.0651803866
22250166500.0 -0.9833905027 0.0825880964
22300166200.0 -0.9828870235 0.0999234309
22350165900.0 -0.9809769969 0.1158147112
22400165600.0 -0.9803216605 0.1311851835
22450165300.0 -0.9780601613 0.1470108752
22500165000.0 -0.9761263917 0.1596466105
22550164700.0 -0.9748719298 0.1745385342
22600164400.0 -0.973233587 0.1898732038
22650164100.0 -0.9710310637 0.2058828595
22700163800.0 -0.9681176784 0.2212981636
22750163500.0 -0.9663684828 0.2362477304
22800163200.0 -0.9633043325 0.249806424
22850162900.0 -0.9606080805 0.2629932901
22900162600.0 -0.9594904315 0.2760971855
22950162300.0 -0.9582148808 0.2887428956
23000162000.0 -0.9571499557 0.3006569327
23050161700.0 -0.9554992416 0.3130771383
23100161400.0 -0.9526447715 0.3262824419
23150161100.0 -0.950184762 0.3383671313
23200160800.0 -0.9471856128 0.3510352241
23250160500.0 -0.9453090519 0.3625405321
23300160200.0 -0.9418319581 0.3748820926
23350159900.0 -0.9383244116 0.3876718272
23400159600.0 -0.9329221897 0.4012004475
23450159300.0 -0.9289609387 0.4139255474
23500159000.0 -0.9239727765 0.4273850231
23550158700.0 -0.9200036337 0.4404100534
23600158400.0 -0.9145671312 0.4535971668
23650158100.0 -0.9080336602 0.4676361732
23700157800.0 -0.9005372475 0.4815101851
23750157500.0 -0.8917651543 0.4956867089
23800157200.0 -0.8836793762 0.5087441173
23850156900.0 -0.874566793 0.5213957387
23900156600.0 -0.8649020417 0.533988007
23950156300.0 -0.8559979246 0.5460759246
24000156000.0 -0.8465748372 0.5583923675
24050155700.0 -0.8373459535 0.5700519126
24100155400.0 -0.8271974185 0.5823430903
24150155100.0 -0.8161974805 0.5940802141
24200154800.0 -0.8051337293 0.6041851004
24250154500.0 -0.7941536532 0.616901285
24300154200.0 -0.7827663654 0.6284100907
24350153900.0 -0.7712556503 0.6385703595
24400153600.0 -0.7589665669 0.6488106107
24450153300.0 -0.7469858947 0.6589796589
24500153000.0 -0.7352154889 0.6680290735
24550152700.0 -0.7243578852 0.6778278782
24600152400.0 -0.7127965351 0.6869698588
24650152100.0 -0.7012146871 0.6955738145
