!Created with skrf (http://scikit-rf.org).
# Hz S RI R 50.0 
!freq ReS11 ImS11
300000.0 -0.9766654683 -0.11716828
50299700.0 -1.000005093 0.0155120464
100299400.0 -0.9980039696 0.0283968551
150299100.0 -1.002953005 0.0453335064
200298800.0 -0.9996339559 0.0586606557
250298500.0 -0.9974658791 0.0721628356
300298200.0 -0.9860302881 0.0878727454
350297900.0 -0.9939372917 0.098917333
400297600.0 -0.9931005936 0.1155171834
450297300.0 -0.9909424536 0.1292244757
500297000.0 -0.9896180013 0.1440488855
550296700.0 -0.9843718455 0.1565534791
600296400.0 -1.017359864 0.1900333372
650296100.0 -0.9823028788 0.186356186
700295800.0 -0.9793735082 0.200753134
750295500.0 -0.9762653613 0.2148958549
800295200.0 -0.973008292 0.2287562224
850294900.0 -0.9697163156 0.2426084206
900294600.0 -0.96587298 0.2563976633
950294300.0 -0.9621117911 0.2701571943
1000294000.0 -0.9582051822 0.2840693336
1050293700.0 -0.9535858293 0.2978831368
1100293400.0 -0.9492464268 0.3121811998
1150293100.0 -0.9453198945 0.3242761068
1200292800.0 -0.9400580943 0.3386010344
1250292500.0 -0.9346470294 0.351789765
1300292200.0 -0.9289098164 0.3652002675
1350291900.0 -0.923334421 0.3791688964
1400291600.0 -0.917880953 0.3923349474
1450291300.0 -0.912277146 0.4045983956
1500291000.0 -0.9061424872 0.4180921196
1550290700.0 -0.89951856 0.4312892505
1600290400.0 -0.8934818149 0.4441151712
1650290100.0 -0.8865331497 0.4562801994
1700289800.0 -0.8797832687 0.4698656918
1750289500.0 -0.8726733331 0.4821830837
1800289200.0 -0.8653494911 0.4950867984
1850288900.0 -0.8583934003 0.5064418506
1900288600.0 -0.8507756757 0.5192314011
1950288300.0 -0.8425065768 0.5319786046
2000288000.0 -0.8350698999 0.543299123
2050287700.0 -0.8270608011 0.5556483568
2100287400.0 -0.8191272696 0.5672205365
2150287100.0 -0.8104695952 0.5794648944
2200286800.0 -0.8027199388 0.5895275239
2250286500.0 -0.793903203 0.601795716
2300286200.0 -0.7850435401 0.6132859142
2350285900.0 -0.7763099605 0.6241939434
2400285600.0 -0.7674526944 0.6353604863
2450285300.0 -0.7587750774 0.6455877728
2500285000.0 -0.7490433473 0.6568709314
2550284700.0 -0.7400266248 0.6673713348
2600284400.0 -0.730928284 0.6774326876
2650284100.0 -0.7217208765 0.6879604838
2700283800.0 -0.7110152436 0.698736959
2750283500.0 -0.7011283144 0.7089682736
2800283200.0 -0.691194342 0.7188790967
2850282900.0 -0.680752405 0.7285178462
2900282600.0 -0.6705487716 0.738431119
2950282300.0 -0.6600914556 0.7475577219
3000282000.0 -0.6495307432 0.7567102527
3050281700.0 -0.6382024566 0.7661425349
3100281400.0 -0.6264007605 0.7756117403
3150281100.0 -0.6144638216 0.7849710504
3200280800.0 -0.6030099236 0.7934558432
3250280500.0 -0.5921596053 0.8011721484
3300280200.0 -0.581051735 0.8089870761
3350279900.0 -0.5694342016 0.81646628
3400279600.0 -0.5573946959 0.8243698277
3450279300.0 -0.5461462048 0.8313588164
3500279000.0 -0.5340951846 0.8384637213
3550278700.0 -0.5214524913 0.8455822968
3600278400.0 -0.5095705261 0.8528987247
3650278100.0 -0.4962581077 0.8606027929
3700277800.0 -0.4841671498 0.8669885807
3750277500.0 -0.4719547556 0.8735224638
3800277200.0 -0.4593034287 0.879998451
3850276900.0 -0.4475808341 0.8859084337
3900276600.0 -0.4365277999 0.891622242
3950276300.0 -0.4240261288 0.8975807614
4000276000.0 -0.4121046709 0.9036614495
4050275700.0 -0.3991814791 0.9097505692
4100275400.0 -0.3880054532 0.9147810014
4150275100.0 -0.3752440352 0.9208532945
4200274800.0 -0.3625852089 0.9263480277
4250274500.0 -0.3501667557 0.9314545967
4300274200.0 -0.3371783659 0.9367845363
4350273900.0 -0.323370994 0.9421257292
4400273600.0 -0.308349273 0.9473000956
4450273300.0 -0.2932049028 0.9523783513
4500273000.0 -0.2795060616 0.956820487
4550272700.0 -0.2654359726 0.9609338688
4600272400.0 -0.249865794 0.9651657667
4650272100.0 -0.2380583681 0.9683478542
4700271800.0 -0.224841931 0.9717119537
4750271500.0 -0.2131463727 0.9745556265
4800271200.0 -0.2006890369 0.9772343438
4850270900.0 -0.1866697987 0.9802093039
4900270600.0 -0.1728915214 0.982463784
4950270300.0 -0.1585349607 0.9850788175
5000270000.0 -0.1443848077 0.9871270448
5050269700.0 -0.1308344677 0.9887787253
5100269400.0 -0.1172141461 0.9905948113
5150269100.0 -0.1040127181 0.9920635397
5200268800.0 -0.0906710996 0.9929677927
5250268500.0 -0.0776941815 0.9937299314
5300268200.0 -0.0646316887 0.9946747815
5350267900.0 -0.0522562828 0.9955283058
5400267600.0 -0.0360327499 0.9965821687
5450267300.0 -0.0228033865 0.996773698
5500267000.0 -0.0077751836 0.9971589358
5550266700.0 0.0071843371 0.9971080878
5600266400.0 0.0226548951 0.9973419936
5650266100.0 0.0391763776 0.997166904
5700265800.0 0.0537031091 0.9963179563
5750265500.0 0.0687506354 0.9951972842
5800265200.0 0.0830443684 0.9945541261
5850264900.0 0.0960452891 0.9932413698
5900264600.0 0.112713127 0.9918084421
5950264300.0 0.1250653464 0.9904465367
6000264000.0 0.1389094941 0.9882668284
6050263700.0 0.1511144226 0.9866393024
6100263400.0 0.163678772 0.9851273332
6150263100.0 0.1783654989 0.9826647016
6200262800.0 0.1887317144 0.9808406553
6250262500.0 0.2011835199 0.9782876911
6300262200.0 0.2140705462 0.9755680445
6350261900.0 0.2271678732 0.9726743207
6400261600.0 0.2413054548 0.9694094878
6450261300.0 0.2523965561 0.9665586133
6500261000.0 0.2653916747 0.963034875
6550260700.0 0.2783577307 0.9591575624
6600260400.0 0.2915792262 0.9552844779
6650260100.0 0.3052874507 0.9505243633
6700259800.0 0.3172907854 0.9464538316
6750259500.0 0.3315595928 0.941703038
6800259200.0 0.3443687701 0.9365327875
6850258900.0 0.356301325 0.9313965598
6900258600.0 0.368712212 0.9264598982
6950258300.0 0.3810113039 0.9210871897
7000258000.0 0.3930843538 0.9157331226
7050257700.0 0.4052788422 0.9099144681
7100257400.0 0.4180773603 0.9035117338
7150257100.0 0.4285109985 0.8980024833
7200256800.0 0.4412526538 0.891569285
7250256500.0 0.4530156723 0.885251221
7300256200.0 0.4659398442 0.8785311931
7350255900.0 0.4784439382 0.8716643436
7400255600.0 0.4918187707 0.8648789418
7450255300.0 0.5070978569 0.8554858497
7500255000.0 0.518738864 0.8484801999
7550254700.0 0.5327893906 0.8398005532
7600254400.0 0.5454059122 0.8314480611
7650254100.0 0.5568971467 0.8237088318
7700253800.0 0.5688234256 0.8157776628
7750253500.0 0.5797462248 0.8081284266
7800253200.0 0.5906285612 0.800409727
7850252900.0 0.6003594479 0.7934150173
7900252600.0 0.6119562354 0.7845637764
7950252300.0 0.6207040028 0.7780080691
8000252000.0 0.6310448871 0.7702186202
8050251700.0 0.6413947953 0.7621477862
8100251400.0 0.6516115579 0.7540888378
8150251100.0 0.6614623557 0.7453919769
8200250800.0 0.6710241563 0.7375127011
8250250500.0 0.6800009533 0.7296521656
8300250200.0 0.6893473501 0.72106091
8350249900.0 0.6982005314 0.7120382182
8400249600.0 0.706440843 0.704396903
8450249300.0 0.715719545 0.6947843849
8500249000.0 0.7242713833 0.6861113023
8550248700.0 0.7326096483 0.6770753501
8600248400.0 0.7409884809 0.6675186369
8650248100.0 0.7487486021 0.6582685111
8700247800.0 0.7580889701 0.6469189681
8750247500.0 0.76668273 0.6365631731
8800247200.0 0.7746895189 0.626236473
8850246900.0 0.7836655344 0.6149935341
8900246600.0 0.7921336066 0.6034742872
8950246300.0 0.8015956936 0.5905259382
9000246000.0 0.8108424426 0.5777310385
9050245700.0 0.819939435 0.5647304625
9100245400.0 0.8283868876 0.5521332653
9150245100.0 0.8377104978 0.5385246595
9200244800.0 0.8476393459 0.5231640168
9250244500.0 0.8570197801 0.50756207
9300244200.0 0.865755416 0.4930881899
9350243900.0 0.8734920322 0.479091621
9400243600.0 0.8800649171 0.4669438251
9450243300.0 0.8859995738 0.4554082248
9500243000.0 0.8921117571 0.4429506836
9550242700.0 0.8959254083 0.4354616272
9600242400.0 0.8997785632 0.4280347375
9650242100.0 0.9033783123 0.4217189687
9700241800.0 0.9083528985 0.4132007374
9750241500.0 0.9120093828 0.4059886354
9800241200.0 0.9165244516 0.3970453691
9850240900.0 0.9224083647 0.3850932352
9900240600.0 0.9276677739 0.3738132851
9950240300.0 0.9348226333 0.3571524256
10000240000.0 0.9392286748 0.345702398
10050239700.0 0.9447844259 0.3309616121
10100239400.0 0.9498742241 0.3150499463
10150239100.0 0.9542667963 0.3003964903
10200238800.0 0.9584791237 0.2853530889
10250238500.0 0.96170294 0.2719799911
10300238200.0 0.9648346943 0.2580365856
10350237900.0 0.9673547502 0.2449209532
10400237600.0 0.969726224 0.2320837755
10450237300.0 0.9725482887 0.2182576692
10500237000.0 0.9745456318 0.2063294593
10550236700.0 0.9774051253 0.1914390563
10600236400.0 0.9794116082 0.1782456524
10650236100.0 0.9812572292 0.1634177592
10700235800.0 0.9838629327 0.1513673767
10750235500.0 0.9853736676 0.1385159197
10800235200.0 0.9878598601 0.1239874884
10850234900.0 0.9894574313 0.1095512355
10900234600.0 0.9918148496 0.0947927671
10950234300.0 0.9933103012 0.0816724319
11000234000.0 0.9952012887 0.0664645215
11050233700.0 0.9969977027 0.0501115098
11100233400.0 0.9981807285 0.0326316351
11150233100.0 0.9995091959 0.0165185768
11200232800.0 1.000227812 0.001547094
11250232500.0 1.001300452 -0.0152351045
11300232200.0 1.001585862 -0.0327010043
11350231900.0 1.001659229 -0.0482431412
11400231600.0 1.001556577 -0.0642753645
11450231300.0 1.001477477 -0.0806370505
11500231000.0 0.9997824366 -0.0959850716
11550230700.0 0.9981003257 -0.1090645285
11600230400.0 0.9973198144 -0.1220912734
11650230100.0 0.9948374133 -0.1338063599
11700229800.0 0.9931083794 -0.1485558512
11750229500.0 0.9909088275 -0.1624681698
11800229200.0 0.9879557597 -0.1768792739
11850228900.0 0.9843916819 -0.1888707718
11900228600.0 0.9812517716 -0.1983727893
11950228300.0 0.9777434887 -0.2093685275
12000228000.0 0.9747743053 -0.2179573318
12050227700.0 0.9713708721 -0.2307163945
12100227400.0 0.9687426389 -0.241965159
12150227100.0 0.9634822993 -0.2585355335
12200226800.0 0.9596228658 -0.2691043085
12250226500.0 0.954748778 -0.2828748288
12300226200.0 0.9507135748 -0.2946170267
12350225900.0 0.9460763123 -0.3080583008
12400225600.0 0.9420106673 -0.3212804715
12450225300.0 0.9377352789 -0.3337294754
12500225000.0 0.932124792 -0.3487623961
12550224700.0 0.9268039231 -0.3629939172
12600224400.0 0.9219476542 -0.3754376169
12650224100.0 0.9160217039 -0.3898374296
12700223800.0 0.9108677089 -0.402645721
12750223500.0 0.905415814 -0.4156904388
12800223200.0 0.9002171283 -0.428074689
12850222900.0 0.894597363 -0.4404741432
12900222600.0 0.8891188489 -0.4522036462
12950222300.0 0.882457888 -0.4651745838
13000222000.0 0.8766453479 -0.4768584016
13050221700.0 0.870002326 -0.4890718816
13100221400.0 0.8633212481 -0.5015473025
13150221100.0 0.8563805883 -0.5135701021
13200220800.0 0.8496181402 -0.5252088544
13250220500.0 0.8422237977 -0.53724563
13300220200.0 0.8349654481 -0.5480532507
13350219900.0 0.8269296801 -0.560071319
13400219600.0 0.8184852968 -0.572218192
13450219300.0 0.8090665729 -0.5855969252
13500219000.0 0.7984846505 -0.5998313538
13550218700.0 0.7891108759 -0.6122973993
13600218400.0 0.7781244684 -0.6247824575
13650218100.0 0.7691852252 -0.6354162283
13700217800.0 0.757982891 -0.6481558977
13750217500.0 0.7475054195 -0.6594079225
13800217200.0 0.7360724939 -0.671011285
13850216900.0 0.7250486738 -0.68214204
13900216600.0 0.7154622775 -0.6911600806
13950216300.0 0.705585133 -0.7016399495
14000216000.0 0.6946326045 -0.7110336576
14050215700.0 0.6851110406 -0.7191851465
14100215400.0 0.6753994513 -0.728393825
14150215100.0 0.6661244394 -0.7370118492
14200214800.0 0.656634431 -0.7454539492
14250214500.0 0.6464817001 -0.7548333247
14300214200.0 0.6360690699 -0.764240958
14350213900.0 0.6249060391 -0.7739272725
14400213600.0 0.6133440238 -0.7836986294
14450213300.0 0.5999686655 -0.7937134668
14500213000.0 0.5869235707 -0.8037367122
14550212700.0 0.5744864482 -0.8129461157
14600212400.0 0.5619830939 -0.8216509376
14650212100.0 0.5492846995 -0.8304073139
14700211800.0 0.5348681523 -0.8400765403
14750211500.0 0.5230784497 -0.848522763
14800211200.0 0.5109209867 -0.8561241131
14850210900.0 0.4986091646 -0.8637915777
14900210600.0 0.4852761015 -0.8718206751
14950210300.0 0.4717741602 -0.8794552944
15000210000.0 0.4591193812 -0.88595395
15050209700.0 0.4469421296 -0.8922698754
15100209400.0 0.4338142818 -0.8982690968
15150209100.0 0.4218383313 -0.9032084135
15200208800.0 0.4094521446 -0.9086885144
15250208500.0 0.3978201495 -0.9138082236
15300208200.0 0.3855381272 -0.9177931452
15350207900.0 0.3721549734 -0.9227995606
15400207600.0 0.3575480786 -0.9286094407
15450207300.0 0.3430033658 -0.9329335525
15500207000.0 0.3286565455 -0.9380008628
15550206700.0 0.3128491536 -0.9426035091
15600206400.0 0.2975697616 -0.9472037376
15650206100.0 0.2819970049 -0.9515221571
15700205800.0 0.2679470221 -0.9553899075
15750205500.0 0.2535124318 -0.9590207028
15800205200.0 0.2388374299 -0.9623010421
15850204900.0 0.2244108345 -0.9658009651
15900204600.0 0.209601706 -0.9694030933
15950204300.0 0.1953593327 -0.9725522185
16000204000.0 0.181562767 -0.9750756452
16050203700.0 0.1664370433 -0.9783134837
16100203400.0 0.1521960347 -0.9803317989
16150203100.0 0.137353897 -0.982214457
16200202800.0 0.1233999943 -0.9843841854
16250202500.0 0.108435941 -0.98622577
16300202200.0 0.0935826132 -0.9874334893
16350201900.0 0.0784700091 -0.9895800424
16400201600.0 0.0637728389 -0.9903964894
16450201300.0 0.0483832979 -0.9911315416
16500201000.0 0.0319339722 -0.9921738576
16550200700.0 0.0161893898 -0.9925823622
16600200400.0 0.0005290168 -0.9928027028
16650200100.0 -0.0156301781 -0.992391753
16700199800.0 -0.0323107685 -0.9920826472
16750199500.0 -0.0508205474 -0.9919621109
16800199200.0 -0.0664581451 -0.9910335338
16850198900.0 -0.0818117719 -0.9892054949
16900198600.0 -0.0954175639 -0.9884598904
16950198300.0 -0.1090280903 -0.9874958991
17000198000.0 -0.1219184297 -0.9855924925
17050197700.0 -0.1347512207 -0.9843157659
17100197400.0 -0.1475032294 -0.9822150366
17150197100.0 -0.1597746766 -0.9804265663
17200196800.0 -0.1726554741 -0.9781954986
17250196500.0 -0.1855139683 -0.9756681336
17300196200.0 -0.1977532242 -0.9732521166
17350195900.0 -0.2096773934 -0.9709811676
17400195600.0 -0.2218466935 -0.9685041823
17450195300.0 -0.2349639665 -0.9658055748
17500195000.0 -0.2485690106 -0.9624538175
17550194700.0 -0.2626243102 -0.9588740184
17600194400.0 -0.2763202815 -0.9545429898
17650194100.0 -0.2898661058 -0.9508653071
17700193800.0 -0.3027091813 -0.9462646571
17750193500.0 -0.3177673409 -0.9424159279
17800193200.0 -0.3318465778 -0.9367202978
17850192900.0 -0.3469471411 -0.9309622528
17900192600.0 -0.3619871816 -0.9249709433
17950192300.0 -0.3773200021 -0.9181531501
18000192000.0 -0.3925144869 -0.9108796841
18050191700.0 -0.4062583703 -0.9029040759
18100191400.0 -0.4203633613 -0.8952857135
18150191100.0 -0.4353386762 -0.8872921365
18200190800.0 -0.4521153522 -0.8778277619
18250190500.0 -0.4693948689 -0.8687065285
18300190200.0 -0.4849451506 -0.8599015374
18350189900.0 -0.4997628248 -0.8512534222
18400189600.0 -0.5141556648 -0.8430724958
18450189300.0 -0.5270075177 -0.8354079227
18500189000.0 -0.540837806 -0.8272040527
18550188700.0 -0.5531774998 -0.8195535348
18600188400.0 -0.5649601788 -0.8128531067
18650188100.0 -0.5760065002 -0.8064373968
18700187800.0 -0.5869050659 -0.7997807676
18750187500.0 -0.5976298326 -0.793296663
18800187200.0 -0.6081008724 -0.7862941802
18850186900.0 -0.6182704286 -0.7794770213
18900186600.0 -0.6284219006 -0.7721054451
18950186300.0 -0.6383784092 -0.7642478199
19000186000.0 -0.6458015953 -0.7581342885
19050185700.0 -0.6550988872 -0.751450706
19100185400.0 -0.6651723796 -0.7426927363
19150185100.0 -0.6757553592 -0.7341217288
19200184800.0 -0.6842147245 -0.7260996255
19250184500.0 -0.6950004295 -0.7170935976
19300184200.0 -0.7063489452 -0.7070182266
19350183900.0 -0.7164813734 -0.697413397
19400183600.0 -0.7269055361 -0.6875365902
19450183300.0 -0.7356626264 -0.6776133254
19500183000.0 -0.7435835913 -0.6672824667
19550182700.0 -0.754025587 -0.6564203882
19600182400.0 -0.7641527926 -0.6446052011
19650182100.0 -0.774910417 -0.6320915531
19700181800.0 -0.7856613725 -0.6189729084
19750181500.0 -0.7963846418 -0.6050138471
19800181200.0 -0.8065592928 -0.589858205
19850180900.0 -0.816153859 -0.5744680318
19900180600.0 -0.8240144315 -0.5600484912
19950180300.0 -0.8333038533 -0.5439158163
20000180000.0 -0.8266865095 -0.546108311
20050179700.0 -0.8345846205 -0.5330750583
20100179400.0 -0.8424468572 -0.5192917141
20150179100.0 -0.8520399988 -0.5065193505
20200178800.0 -0.8595670588 -0.4936011679
20250178500.0 -0.8692998178 -0.4802539703
20300178200.0 -0.8794255369 -0.4657900804
20350177900.0 -0.887955659 -0.4517005918
20400177600.0 -0.8971277736 -0.4367224379
20450177300.0 -0.9052926199 -0.4223148439
20500177000.0 -0.9134541757 -0.4084642112
20550176700.0 -0.9211687938 -0.3945895666
20600176400.0 -0.9283371529 -0.3817193732
20650176100.0 -0.9349603256 -0.3687792463
20700175800.0 -0.9419182825 -0.357856929
20750175500.0 -0.9483592535 -0.3462511531
20800175200.0 -0.9526906542 -0.3355575281
20850174900.0 -0.9568733771 -0.3235575795
20900174600.0 -0.9626555491 -0.3126329443
20950174300.0 -0.9669442125 -0.3013714884
21000174000.0 -0.9696307278 -0.2893109461
21050173700.0 -0.9726555713 -0.2780682077
21100173400.0 -0.9769712649 -0.2665993504
21150173100.0 -0.9807616322 -0.2541682048
21200172800.0 -0.9841634326 -0.2408755002
21250172500.0 -0.9875847852 -0.2269090877
21300172200.0 -0.9898422869 -0.2129314844
21350171900.0 -0.9917885418 -0.1986649365
21400171600.0 -0.9931117937 -0.184063975
21450171300.0 -0.9933330547 -0.1697818445
21500171000.0 -0.9921540277 -0.1541569461
21550170700.0 -0.9926320692 -0.1390080399
21600170400.0 -0.9922646737 -0.1233252801
21650170100.0 -0.9916834042 -0.1075278315
21700169800.0 -0.9887877859 -0.0920080021
21750169500.0 -0.9888676933 -0.0752015349
21800169200.0 -0.9875364511 -0.0603777348
21850168900.0 -0.9874931086 -0.0428260036
21900168600.0 -0.9854098521 -0.0266376293
21950168300.0 -0.9842386093 -0.0106714585
22000168000.0 -0.9836146729 0.0041487726
22050167700.0 -0.983039279 0.0185389899
22100167400.0 -0.9831412116 0.0337542276
22150167100.0 -0.9838955237 0.0489278866
22200166800.0 -0.9844674694 0.0651527505
22250166500.0 -0.9835096309 0.0823719454
22300166200.0 -0.9830044807 0.098856915
22350165900.0 -0.9815018691 0.1160394738
22400165600.0 -0.9803082982 0.1317791363
22450165300.0 -0.9788632459 0.146283891
22500165000.0 -0.975840423 0.160476921
22550164700.0 -0.9748446383 0.1753454587
22600164400.0 -0.9728004011 0.1902699318
22650164100.0 -0.9719372872 0.2046652835
22700163800.0 -0.968248656 0.2214625433
22750163500.0 -0.9658778065 0.2369104836
22800163200.0 -0.9629607528 0.2501115517
22850162900.0 -0.9608115839 0.2634903776
22900162600.0 -0.9593528091 0.2765233322
22950162300.0 -0.9582413566 0.2892180778
23000162000.0 -0.9572743341 0.301185494
23050161700.0 -0.9548937268 0.3139962871
23100161400.0 -0.9535071626 0.3269330453
23150161100.0 -0.9498421728 0.339253959
23200160800.0 -0.9469005356 0.3514075981
23250160500.0 -0.9440484309 0.3625680483
23300160200.0 -0.9420168614 0.3749057752
23350159900.0 -0.9380198894 0.3881621086
23400159600.0 -0.9331114524 0.4006326549
23450159300.0 -0.9284880639 0.4146099359
23500159000.0 -0.9242838595 0.4273582543
23550158700.0 -0.9194081538 0.4409160115
23600158400.0 -0.9142896734 0.4538546641
23650158100.0 -0.9080004791 0.4680402526
23700157800.0 -0.9002791504 0.4817983714
23750157500.0 -0.8919021603 0.4958458767
23800157200.0 -0.8831250093 0.5090523459
23850156900.0 -0.8744663554 0.5218379691
23900156600.0 -0.8652867558 0.5347544643
23950156300.0 -0.8553402892 0.5466889874
24000156000.0 -0.8470220759 0.5585256446
24050155700.0 -0.8360598437 0.5697674858
24100155400.0 -0.8270497085 0.5828736432
24150155100.0 -0.8161084327 0.5937741677
24200154800.0 -0.8049296433 0.6052978409
24250154500.0 -0.7939710502 0.6171534612
24300154200.0 -0.7819505495 0.6287634981
24350153900.0 -0.7703774152 0.6391105057
24400153600.0 -0.7585332627 0.6494456199
24450153300.0 -0.7462890506 0.6593991083
24500153000.0 -0.7346295182 0.6690747927
24550152700.0 -0.7237374604 0.6787748612
24600152400.0 -0.7127292587 0.6876614886
24650152100.0 -0.7008488515 0.6964470741
