!Created with skrf (http://scikit-rf.org).
# Hz S RI R 50.0 
!freq ReS11 ImS11
300000.0 -0.9739441587 -0.1214631598
50299700.0 -0.9999593783 0.0149782847
100299400.0 -0.9979984165 0.028006764
150299100.0 -1.00257436 0.0449244061
200298800.0 -0.9994979198 0.05833575
250298500.0 -0.9974368004 0.071649221
300298200.0 -0.9858816168 0.0876331514
350297900.0 -0.9939960641 0.0983003222
400297600.0 -0.992960974 0.1147930415
450297300.0 -0.990878564 0.1287754282
500297000.0 -0.9894277457 0.1433873143
550296700.0 -0.9842980661 0.1558442809
600296400.0 -1.017295349 0.1892116938
650296100.0 -0.9822141714 0.1859391145
700295800.0 -0.9793663831 0.2000067251
750295500.0 -0.9761647177 0.2140430357
800295200.0 -0.972900414 0.2279465077
850294900.0 -0.9696147448 0.2418915157
900294600.0 -0.9657086452 0.2558540646
950294300.0 -0.9620306057 0.2693784202
1000294000.0 -0.9582384365 0.2834622451
1050293700.0 -0.9536340462 0.2971432493
1100293400.0 -0.949277444 0.3115119074
1150293100.0 -0.9454739984 0.3232900152
1200292800.0 -0.9401736687 0.3378709198
1250292500.0 -0.9346120817 0.3511197806
1300292200.0 -0.9289656218 0.3645063936
1350291900.0 -0.9236434877 0.3784343521
1400291600.0 -0.9178847148 0.3916285941
1450291300.0 -0.9126206706 0.4040185584
1500291000.0 -0.9060952134 0.4173518277
1550290700.0 -0.8996327602 0.4307979668
1600290400.0 -0.8933873748 0.4435410306
1650290100.0 -0.886862719 0.4557119972
1700289800.0 -0.8799551871 0.4694071325
1750289500.0 -0.8729124123 0.4817028495
1800289200.0 -0.8654182354 0.4943198767
1850288900.0 -0.8586106739 0.5056142368
1900288600.0 -0.8509607045 0.5188874676
1950288300.0 -0.8428023239 0.5313247325
2000288000.0 -0.8352716691 0.5427725018
2050287700.0 -0.8271999181 0.5552117349
2100287400.0 -0.819166665 0.5667978217
2150287100.0 -0.8106802855 0.5786739063
2200286800.0 -0.802918111 0.5892307923
2250286500.0 -0.7940787608 0.6014207194
2300286200.0 -0.7852389672 0.6128128371
2350285900.0 -0.776837818 0.6236354039
2400285600.0 -0.7679384151 0.6343545319
2450285300.0 -0.7589874241 0.6452029637
2500285000.0 -0.7491868154 0.6566660384
2550284700.0 -0.7401810196 0.6668629515
2600284400.0 -0.7311618169 0.6769399425
2650284100.0 -0.7222883381 0.687265912
2700283800.0 -0.7117903092 0.6975652225
2750283500.0 -0.7012917467 0.7083706214
2800283200.0 -0.6914460634 0.7180817606
2850282900.0 -0.6810808427 0.7282075874
2900282600.0 -0.6708836319 0.7379339058
2950282300.0 -0.6604195702 0.7470798433
3000282000.0 -0.6497589018 0.7566509765
3050281700.0 -0.6384012227 0.7658415182
3100281400.0 -0.6267655305 0.7750545
3150281100.0 -0.6153550033 0.7841200966
3200280800.0 -0.6039694627 0.7925190366
3250280500.0 -0.5927431398 0.8003482098
3300280200.0 -0.5813296203 0.8083687967
3350279900.0 -0.5693019099 0.816441683
3400279600.0 -0.5569072114 0.8244382888
3450279300.0 -0.5456428193 0.8316096838
3500279000.0 -0.5339503276 0.8383530767
3550278700.0 -0.5217380623 0.8458562025
3600278400.0 -0.5099927465 0.8523753305
3650278100.0 -0.4969078421 0.8601377318
3700277800.0 -0.4847652192 0.8665102436
3750277500.0 -0.4724049606 0.8732794528
3800277200.0 -0.4597786318 0.879731804
3850276900.0 -0.4477463564 0.8855750833
3900276600.0 -0.4370232581 0.8913740633
3950276300.0 -0.4246845342 0.8970970497
4000276000.0 -0.412974111 0.9031749245
4050275700.0 -0.4001783612 0.9092287165
4100275400.0 -0.3891035326 0.9146526789
4150275100.0 -0.3757633896 0.9202987071
4200274800.0 -0.3626532123 0.9261172351
4250274500.0 -0.3501440318 0.931755727
4300274200.0 -0.3368716748 0.9367738149
4350273900.0 -0.322759812 0.9419833193
4400273600.0 -0.3080243053 0.9472895274
4450273300.0 -0.2930484935 0.9521826436
4500273000.0 -0.2796431544 0.9565620431
4550272700.0 -0.2659690348 0.9606014433
4600272400.0 -0.2509933437 0.9647116141
4650272100.0 -0.2395842993 0.9678858143
4700271800.0 -0.2265722624 0.9712387467
4750271500.0 -0.2148112616 0.9740641946
4800271200.0 -0.2025478431 0.9769055099
4850270900.0 -0.1887902557 0.9796287402
4900270600.0 -0.1748933978 0.9820225722
4950270300.0 -0.1603413667 0.9847654601
5000270000.0 -0.1460305286 0.98649745
5050269700.0 -0.1325196653 0.9887022326
5100269400.0 -0.1183910125 0.9900635421
5150269100.0 -0.1045458904 0.9913578752
5200268800.0 -0.091267627 0.9925031288
5250268500.0 -0.0782707318 0.9938264837
5300268200.0 -0.0647478813 0.9942490026
5350267900.0 -0.0519385309 0.9951841455
5400267600.0 -0.0355915099 0.9963133415
5450267300.0 -0.0223164138 0.9966108897
5500267000.0 -0.007117944 0.9971231675
5550266700.0 0.0077785329 0.9972007681
5600266400.0 0.0235520215 0.997142008
5650266100.0 0.0402120211 0.9969220547
5700265800.0 0.0547434317 0.9960166275
5750265500.0 0.0694712079 0.9953107216
5800265200.0 0.0832438305 0.9942307598
5850264900.0 0.0962574681 0.9930476048
5900264600.0 0.1127090234 0.9912258867
5950264300.0 0.1245472711 0.9901024525
6000264000.0 0.1381182406 0.9878870969
6050263700.0 0.1498856114 0.9867840219
6100263400.0 0.162009794 0.9849082386
6150263100.0 0.1766861725 0.9826634087
6200262800.0 0.1866232018 0.9811610567
6250262500.0 0.1991960887 0.978607928
6300262200.0 0.2114214292 0.976182545
6350261900.0 0.2243043505 0.9733581366
6400261600.0 0.238341062 0.9701350871
6450261300.0 0.2495228084 0.9676225524
6500261000.0 0.2625840744 0.9640077061
6550260700.0 0.2756085672 0.9600528169
6600260400.0 0.2891427121 0.9558127281
6650260100.0 0.303457333 0.9515544504
6700259800.0 0.3154872353 0.9471339072
6750259500.0 0.329140342 0.9424636982
6800259200.0 0.3427603755 0.9372020054
6850258900.0 0.354788757 0.9318726114
6900258600.0 0.3675000549 0.9267990467
6950258300.0 0.3798679484 0.9215152458
7000258000.0 0.3915396401 0.9162612918
7050257700.0 0.403502099 0.9103583032
7100257400.0 0.4169120542 0.9039421663
7150257100.0 0.4275517143 0.8983082089
7200256800.0 0.4407833082 0.8919089984
7250256500.0 0.4529707623 0.8854314716
7300256200.0 0.466166897 0.8789948914
7350255900.0 0.4786255665 0.8718349022
7400255600.0 0.4925152914 0.8643492931
7450255300.0 0.5079862187 0.8552785341
7500255000.0 0.5201972533 0.8475254685
7550254700.0 0.5347445475 0.8385278984
7600254400.0 0.5470630012 0.8305432015
7650254100.0 0.5588204274 0.8227307952
7700253800.0 0.5706782384 0.8144719651
7750253500.0 0.581359079 0.8069074702
7800253200.0 0.5918957759 0.799048769
7850252900.0 0.6016554596 0.7918586661
7900252600.0 0.6134462676 0.7829924734
7950252300.0 0.6217866004 0.7766687932
8000252000.0 0.6318597823 0.7691258028
8050251700.0 0.6423302135 0.7612096956
8100251400.0 0.6523483614 0.7528517041
8150251100.0 0.6619265495 0.7444356178
8200250800.0 0.6714645441 0.7362995189
8250250500.0 0.6804702173 0.7283566166
8300250200.0 0.6897686166 0.7200997498
8350249900.0 0.6988013664 0.7111355622
8400249600.0 0.7068665432 0.7030170628
8450249300.0 0.7153807281 0.6944136242
8500249000.0 0.7243696851 0.6855890432
8550248700.0 0.7326421658 0.6764841999
8600248400.0 0.741088441 0.6668914101
8650248100.0 0.7485747643 0.6576864071
8700247800.0 0.7581068574 0.6464896607
8750247500.0 0.7663070888 0.6363528936
8800247200.0 0.7741779015 0.6259756325
8850246900.0 0.7828981914 0.6147985845
8900246600.0 0.791488308 0.603206907
8950246300.0 0.800967293 0.5903759789
9000246000.0 0.8094382673 0.5785663028
9050245700.0 0.8179558803 0.5661827312
9100245400.0 0.8263462041 0.5538654153
9150245100.0 0.8354605363 0.540802618
9200244800.0 0.8449403646 0.5262459357
9250244500.0 0.8541591096 0.511489787
9300244200.0 0.8622323252 0.4976533836
9350243900.0 0.8699082479 0.4841438068
9400243600.0 0.8764668778 0.472403038
9450243300.0 0.8820631755 0.4617064247
9500243000.0 0.8883378368 0.4500063916
9550242700.0 0.8920671182 0.4426181255
9600242400.0 0.8964978216 0.4349981595
9650242100.0 0.9003747694 0.4281451943
9700241800.0 0.9055400706 0.4196197399
9750241500.0 0.9094940794 0.4119757703
9800241200.0 0.9146684704 0.4024261611
9850240900.0 0.920247045 0.3907411893
9900240600.0 0.9263649569 0.3789881367
9950240300.0 0.9333491591 0.3623105773
10000240000.0 0.9376514875 0.3503560811
10050239700.0 0.9443199243 0.3343983317
10100239400.0 0.9492371834 0.3183049874
10150239100.0 0.9538724253 0.3028366881
10200238800.0 0.9581201949 0.2874361341
10250238500.0 0.9613749157 0.274002117
10300238200.0 0.9645592868 0.2599327853
10350237900.0 0.967467619 0.2466587729
10400237600.0 0.9700826184 0.2333394185
10450237300.0 0.972657971 0.2193573208
10500237000.0 0.9747793713 0.2074171916
10550236700.0 0.9771219422 0.1927847375
10600236400.0 0.9791140993 0.179257312
10650236100.0 0.9816670272 0.1646135881
10700235800.0 0.9830632606 0.1522643579
10750235500.0 0.9860283061 0.1384652927
10800235200.0 0.9877745431 0.1244061201
10850234900.0 0.9897523864 0.1096611013
10900234600.0 0.9919085161 0.0947431266
10950234300.0 0.9936283684 0.0812748463
11000234000.0 0.9955142059 0.0658508833
11050233700.0 0.9971488612 0.0491742924
11100233400.0 0.998888387 0.0315726659
11150233100.0 0.9997650968 0.0150719831
11200232800.0 1.000841879 -0.0008292275
11250232500.0 1.001604947 -0.0187855688
11300232200.0 1.002664808 -0.0372833597
11350231900.0 1.001782847 -0.0529277242
11400231600.0 1.002006027 -0.0688601746
11450231300.0 1.001451045 -0.0843155949
11500231000.0 0.9997643478 -0.1017707133
11550230700.0 0.9985647177 -0.1133346712
11600230400.0 0.9972528239 -0.1271997328
11650230100.0 0.9949416207 -0.1379447506
11700229800.0 0.9927384599 -0.1530693237
11750229500.0 0.9904054472 -0.1673837134
11800229200.0 0.9874924526 -0.1805577415
11850228900.0 0.9838451562 -0.1925496839
11900228600.0 0.9801958982 -0.2020478303
11950228300.0 0.9764401588 -0.2122878236
12000228000.0 0.9743223549 -0.2206276652
12050227700.0 0.9698745155 -0.2337536803
12100227400.0 0.9672309997 -0.2448910746
12150227100.0 0.9625562749 -0.2613373901
12200226800.0 0.9586186014 -0.2723373269
12250226500.0 0.954126662 -0.2854443778
12300226200.0 0.9499738984 -0.2971693947
12350225900.0 0.9448121525 -0.3112255253
12400225600.0 0.9403219007 -0.3234269652
12450225300.0 0.9363482873 -0.3357879033
12500225000.0 0.9304804713 -0.3508213456
12550224700.0 0.9253287392 -0.3652508642
12600224400.0 0.9204355979 -0.3775307106
12650224100.0 0.9145624272 -0.3918936708
12700223800.0 0.9093296587 -0.4046851624
12750223500.0 0.903525327 -0.4179005465
12800223200.0 0.8986493898 -0.4301328871
12850222900.0 0.8931104109 -0.442715737
12900222600.0 0.8877217093 -0.4542623496
12950222300.0 0.8813041052 -0.4673554425
13000222000.0 0.8756482459 -0.4788861191
13050221700.0 0.8685174094 -0.4915845398
13100221400.0 0.8621761052 -0.5035177794
13150221100.0 0.8548771054 -0.5161462801
13200220800.0 0.8480484774 -0.5274003578
13250220500.0 0.8409677782 -0.5396464903
13300220200.0 0.8333797266 -0.5506690569
13350219900.0 0.825318842 -0.5624228195
13400219600.0 0.8168591244 -0.5743117949
13450219300.0 0.8075484026 -0.5873783055
13500219000.0 0.7978751548 -0.6007460369
13550218700.0 0.7876462431 -0.6134264926
13600218400.0 0.7776211238 -0.6255060633
13650218100.0 0.7680012688 -0.6360046992
13700217800.0 0.7571835767 -0.6481360296
13750217500.0 0.7474893481 -0.6586374569
13800217200.0 0.7368873258 -0.6698786673
13850216900.0 0.7255534003 -0.681941407
13900216600.0 0.7155867878 -0.6907021952
13950216300.0 0.7058170521 -0.7004627346
14000216000.0 0.695018655 -0.7094348934
14050215700.0 0.6860337829 -0.7177053836
14100215400.0 0.6766307433 -0.7269439069
14150215100.0 0.6673783748 -0.7353570932
14200214800.0 0.6577479925 -0.7443662812
14250214500.0 0.6474148134 -0.7537427807
14300214200.0 0.6368469945 -0.7630873588
14350213900.0 0.6262051931 -0.7727105523
14400213600.0 0.6143850514 -0.7825684419
14450213300.0 0.6009132477 -0.7927699759
14500213000.0 0.5878557286 -0.8025534981
14550212700.0 0.5760206104 -0.8119036853
14600212400.0 0.5637051584 -0.820594837
14650212100.0 0.5504866566 -0.8291814081
14700211800.0 0.5369109777 -0.8389473782
14750211500.0 0.5245973291 -0.8473886872
14800211200.0 0.5124866445 -0.8552711085
14850210900.0 0.4998980313 -0.863110787
14900210600.0 0.4864772135 -0.8709368053
14950210300.0 0.473280196 -0.8786979803
15000210000.0 0.4606248808 -0.8854383916
15050209700.0 0.4481338794 -0.8913343798
15100209400.0 0.4351571226 -0.8975714394
15150209100.0 0.4227437921 -0.9027965165
15200208800.0 0.4104798124 -0.9081396888
15250208500.0 0.3995272455 -0.9130139128
15300208200.0 0.3865317931 -0.9170420722
15350207900.0 0.3740975828 -0.9224355723
15400207600.0 0.3597069051 -0.927363708
15450207300.0 0.3447434374 -0.9322779643
15500207000.0 0.3298669823 -0.9371900034
15550206700.0 0.315176841 -0.9424088948
15600206400.0 0.299563751 -0.9463844097
15650206100.0 0.2837769339 -0.9514486678
15700205800.0 0.269745427 -0.954337929
15750205500.0 0.2561433602 -0.9578525072
15800205200.0 0.2419289407 -0.9613572857
15850204900.0 0.2276474832 -0.964778965
15900204600.0 0.2126449402 -0.9685214427
15950204300.0 0.1981290821 -0.9717983989
16000204000.0 0.1836151025 -0.9745330939
16050203700.0 0.168861413 -0.9775027615
16100203400.0 0.154054626 -0.9799423678
16150203100.0 0.1395771436 -0.9820364251
16200202800.0 0.1250863836 -0.9841618427
16250202500.0 0.1102258079 -0.9857585819
16300202200.0 0.0947437384 -0.9874084327
16350201900.0 0.0802939261 -0.9888423887
16400201600.0 0.0651850116 -0.9899278347
16450201300.0 0.0497332837 -0.9912963834
16500201000.0 0.0326818187 -0.9921344263
16550200700.0 0.0166753842 -0.9926173541
16600200400.0 0.0008168769 -0.9927953183
16650200100.0 -0.0152719107 -0.9925046679
16700199800.0 -0.0317464572 -0.9925582219
16750199500.0 -0.0505995784 -0.9917279613
16800199200.0 -0.0664381978 -0.990817666
16850198900.0 -0.0822662859 -0.9894516544
16900198600.0 -0.0959187069 -0.9885298118
16950198300.0 -0.109752172 -0.9871356151
17000198000.0 -0.1227725335 -0.985561124
17050197700.0 -0.1345942257 -0.9842229935
17100197400.0 -0.1479414438 -0.9822194947
17150197100.0 -0.1610055136 -0.9797758869
17200196800.0 -0.1737552851 -0.9779813183
17250196500.0 -0.1865664315 -0.9755325591
17300196200.0 -0.1988751028 -0.9731302202
17350195900.0 -0.2107045868 -0.9707996241
17400195600.0 -0.2227274603 -0.9681779471
17450195300.0 -0.2356971202 -0.9653696381
17500195000.0 -0.249090838 -0.9620798565
17550194700.0 -0.2630581072 -0.9586642498
17600194400.0 -0.2765450896 -0.9549705094
17650194100.0 -0.2904709117 -0.9505282135
17700193800.0 -0.3030110772 -0.9462385632
17750193500.0 -0.3171737969 -0.9417227096
17800193200.0 -0.3316922591 -0.9364428256
17850192900.0 -0.3467772538 -0.9313585971
17900192600.0 -0.3617228387 -0.9249076502
17950192300.0 -0.3772350612 -0.9177911677
18000192000.0 -0.392040083 -0.9107283943
18050191700.0 -0.4056841276 -0.9028349295
18100191400.0 -0.4199721917 -0.8951422781
18150191100.0 -0.4347453468 -0.8870843671
18200190800.0 -0.4516052089 -0.8779572633
18250190500.0 -0.4689482087 -0.8684790445
18300190200.0 -0.4842108192 -0.8597828914
18350189900.0 -0.4991686243 -0.8512204572
18400189600.0 -0.5137126602 -0.8424753539
18450189300.0 -0.5268984897 -0.8349785091
18500189000.0 -0.5407758095 -0.8267552017
18550188700.0 -0.5533863687 -0.8194553811
18600188400.0 -0.5655213634 -0.8120933712
18650188100.0 -0.5762251007 -0.8055657404
18700187800.0 -0.5872881244 -0.79943611
18750187500.0 -0.5981625153 -0.7927185944
18800187200.0 -0.6087855474 -0.7858133579
18850186900.0 -0.6190566337 -0.7787608129
18900186600.0 -0.6294350705 -0.7714785668
18950186300.0 -0.6393548205 -0.7635590738
19000186000.0 -0.6471169196 -0.7574594469
19050185700.0 -0.6561722773 -0.7503559679
19100185400.0 -0.6658291954 -0.741913503
19150185100.0 -0.6766372514 -0.7339873603
19200184800.0 -0.6856248283 -0.7255560078
19250184500.0 -0.6964000416 -0.7159441089
19300184200.0 -0.7071225262 -0.706286135
19350183900.0 -0.7175192471 -0.697200049
19400183600.0 -0.7275047125 -0.687260773
19450183300.0 -0.7366411839 -0.6767845903
19500183000.0 -0.7450808617 -0.6667218875
19550182700.0 -0.7543218541 -0.6561650483
19600182400.0 -0.7650561906 -0.6444424065
19650182100.0 -0.775255568 -0.6320558072
19700181800.0 -0.7863505083 -0.61886048
19750181500.0 -0.7965619465 -0.604686931
19800181200.0 -0.8070301306 -0.5897859021
19850180900.0 -0.8161437629 -0.5744380945
19900180600.0 -0.8240589834 -0.5600260744
19950180300.0 -0.8334393968 -0.5437436417
20000180000.0 -0.8241415462 -0.5473563174
20050179700.0 -0.8314254143 -0.5342665704
20100179400.0 -0.8409211014 -0.5205612568
20150179100.0 -0.8484168921 -0.5092645103
20200178800.0 -0.8575475389 -0.4977551012
20250178500.0 -0.8663247331 -0.4842987083
20300178200.0 -0.8759424774 -0.470607469
20350177900.0 -0.8848466847 -0.4567389855
20400177600.0 -0.8942404212 -0.4420510808
20450177300.0 -0.9026855764 -0.4279481639
20500177000.0 -0.9106060804 -0.4139327244
20550176700.0 -0.9184569449 -0.4003644011
20600176400.0 -0.9253181509 -0.3876496434
20650176100.0 -0.9321319115 -0.3752951562
20700175800.0 -0.9392401584 -0.362999803
20750175500.0 -0.9459552883 -0.351025204
20800175200.0 -0.9503376266 -0.3411522813
20850174900.0 -0.9542501564 -0.331032401
20900174600.0 -0.9580022218 -0.3197766205
20950174300.0 -0.9625600292 -0.3084980716
21000174000.0 -0.9652048569 -0.2972910331
21050173700.0 -0.9670467591 -0.2876350946
21100173400.0 -0.971004677 -0.2760379209
21150173100.0 -0.9746451941 -0.2635190406
21200172800.0 -0.9786754215 -0.2513129833
21250172500.0 -0.9818532257 -0.2373649391
21300172200.0 -0.9852712518 -0.2234364003
21350171900.0 -0.9868047853 -0.2092325839
21400171600.0 -0.9887976421 -0.1943953362
21450171300.0 -0.9894145349 -0.1810464975
21500171000.0 -0.9893857896 -0.1653637095
21550170700.0 -0.9908355959 -0.1509197059
21600170400.0 -0.9910212345 -0.134610676
21650170100.0 -0.9910920995 -0.1186089329
21700169800.0 -0.9896527459 -0.1038884383
21750169500.0 -0.9898625209 -0.088510645
21800169200.0 -0.9896348133 -0.0711366141
21850168900.0 -0.9895333067 -0.0546617554
21900168600.0 -0.9881250898 -0.0382068588
21950168300.0 -0.9880337676 -0.0225711061
22000168000.0 -0.9879919008 -0.0075747225
22050167700.0 -0.9881860749 0.0074630483
22100167400.0 -0.9888282438 0.0225850173
22150167100.0 -0.9896605029 0.0387991491
22200166800.0 -0.9904325441 0.0552549653
22250166500.0 -0.9896932206 0.07304993
22300166200.0 -0.9885900197 0.0894134623
22350165900.0 -0.9883213095 0.1059285102
22400165600.0 -0.9866094176 0.1207695434
22450165300.0 -0.984722643 0.137007978
22500165000.0 -0.9818185938 0.1507463087
22550164700.0 -0.9813030375 0.166203365
22600164400.0 -0.9799195698 0.1823710483
22650164100.0 -0.9770228426 0.1972215353
22700163800.0 -0.9740355122 0.2137229321
22750163500.0 -0.9713153378 0.2281956143
22800163200.0 -0.9676852962 0.2410496733
22850162900.0 -0.9653489051 0.2547829852
22900162600.0 -0.9635695103 0.2686205128
22950162300.0 -0.9618496843 0.2821058232
23000162000.0 -0.9600440017 0.2946195428
23050161700.0 -0.9576960956 0.3080205221
23100161400.0 -0.9551337854 0.3211655304
23150161100.0 -0.9521974351 0.3334889256
23200160800.0 -0.9493004462 0.3467675245
23250160500.0 -0.9460822626 0.3586905956
23300160200.0 -0.9442458038 0.3715329333
23350159900.0 -0.9399538731 0.3856676869
23400159600.0 -0.9348072023 0.3984853625
23450159300.0 -0.9293122058 0.4122104458
23500159000.0 -0.9250275687 0.4258373853
23550158700.0 -0.9201664727 0.4397499669
23600158400.0 -0.9141885901 0.4538506649
23650158100.0 -0.9070486466 0.4681228502
23700157800.0 -0.8989501508 0.48238482
23750157500.0 -0.8894767453 0.4966141523
23800157200.0 -0.8800852697 0.5102462726
23850156900.0 -0.8702315492 0.5226986422
23900156600.0 -0.8606920291 0.5357955428
23950156300.0 -0.8513770193 0.5482276071
24000156000.0 -0.8416514168 0.560482955
24050155700.0 -0.8318471117 0.5729250524
24100155400.0 -0.8215444299 0.5846860997
24150155100.0 -0.8104709819 0.5971667933
24200154800.0 -0.7992494538 0.6088663068
24250154500.0 -0.787881526 0.6204396864
24300154200.0 -0.7769491486 0.6325677691
24350153900.0 -0.7646091702 0.643791744
24400153600.0 -0.7522134925 0.654198665
24450153300.0 -0.7401600315 0.6643715659
24500153000.0 -0.728397272 0.6744160714
24550152700.0 -0.7169252171 0.6844017998
24600152400.0 -0.7055122412 0.6939034168
24650152100.0 -0.6934098748 0.7018004499
