!Created with skrf (http://scikit-rf.org).
# Hz S RI R 50.0 
!freq ReS11 ImS11
300000.0 -0.9754607496 -0.1200740473
50299700.0 -1.000103144 0.0154180504
100299400.0 -0.9980079081 0.0282459022
150299100.0 -1.002813931 0.0450599985
200298800.0 -0.9996648658 0.058416962
250298500.0 -0.9974049847 0.0718543271
300298200.0 -0.9861339384 0.087599334
350297900.0 -0.994180713 0.0988060856
400297600.0 -0.9933482063 0.1152071109
450297300.0 -0.9910693323 0.1290976905
500297000.0 -0.9896535507 0.1438027696
550296700.0 -0.9846376012 0.1559867224
600296400.0 -1.017537649 0.1894673587
650296100.0 -0.9824045073 0.1861042155
700295800.0 -0.9794174545 0.2003926577
750295500.0 -0.9764985894 0.2141274364
800295200.0 -0.9730998971 0.2283122392
850294900.0 -0.9697294918 0.2424220395
900294600.0 -0.9657896698 0.2560708738
950294300.0 -0.9622539862 0.2697016431
1000294000.0 -0.9582527144 0.283646154
1050293700.0 -0.9537213284 0.2974278626
1100293400.0 -0.9493301696 0.3119404918
1150293100.0 -0.945558082 0.3236997192
1200292800.0 -0.9402197021 0.3381466164
1250292500.0 -0.9346921693 0.3514964067
1300292200.0 -0.9288987284 0.3647845055
1350291900.0 -0.9234684421 0.3786803809
1400291600.0 -0.9178928305 0.3920566574
1450291300.0 -0.9125473431 0.4044576176
1500291000.0 -0.9062362321 0.4175982351
1550290700.0 -0.8996800889 0.4310465199
1600290400.0 -0.8933845501 0.4438963827
1650290100.0 -0.8867704231 0.4560921172
1700289800.0 -0.8797503627 0.469483596
1750289500.0 -0.8729088431 0.4816391728
1800289200.0 -0.8655560804 0.4947305294
1850288900.0 -0.8587526764 0.5060530733
1900288600.0 -0.8509543201 0.5188689629
1950288300.0 -0.8428860448 0.5315712133
2000288000.0 -0.8353483353 0.5428634476
2050287700.0 -0.8272102368 0.5554382883
2100287400.0 -0.8192412171 0.5669199777
2150287100.0 -0.8105797832 0.5791639761
2200286800.0 -0.8030732625 0.5894323294
2250286500.0 -0.7942585397 0.6013039468
2300286200.0 -0.7853717153 0.6128734319
2350285900.0 -0.7765158379 0.6240808263
2400285600.0 -0.7677575672 0.6348715785
2450285300.0 -0.7591545573 0.6454786763
2500285000.0 -0.7494313577 0.6565236796
2550284700.0 -0.7403667804 0.6671406111
2600284400.0 -0.7310557046 0.6770415224
2650284100.0 -0.7221064167 0.6874523807
2700283800.0 -0.7114107856 0.697843944
2750283500.0 -0.7010393011 0.7085801236
2800283200.0 -0.6914024809 0.7183951269
2850282900.0 -0.6810683549 0.7283904285
2900282600.0 -0.6707175421 0.7379535842
2950282300.0 -0.6602975073 0.747062551
3000282000.0 -0.6498506825 0.7565584175
3050281700.0 -0.6387315443 0.7661114906
3100281400.0 -0.6268254805 0.775320146
3150281100.0 -0.6149399932 0.7845978286
3200280800.0 -0.6034004449 0.7929390874
3250280500.0 -0.5926285641 0.8008287837
3300280200.0 -0.5811171853 0.8087110053
3350279900.0 -0.5696396492 0.8162493458
3400279600.0 -0.5575669936 0.823923576
3450279300.0 -0.5461850663 0.831006201
3500279000.0 -0.5344456243 0.8381477659
3550278700.0 -0.5219574311 0.8455751474
3600278400.0 -0.5097813835 0.8524799769
3650278100.0 -0.4965828262 0.8600241722
3700277800.0 -0.4843829396 0.8666551709
3750277500.0 -0.4724889092 0.8732424378
3800277200.0 -0.4600064307 0.8797759404
3850276900.0 -0.4478943144 0.8858106478
3900276600.0 -0.4370147882 0.8913617052
3950276300.0 -0.4247201018 0.8973933803
4000276000.0 -0.4125015661 0.9035057998
4050275700.0 -0.3998852568 0.9092277899
4100275400.0 -0.3884736845 0.9147237768
4150275100.0 -0.3758377499 0.9205923366
4200274800.0 -0.3628293495 0.9262467765
4250274500.0 -0.3505268152 0.9309121564
4300274200.0 -0.337720781 0.9363722319
4350273900.0 -0.323801188 0.9419308846
4400273600.0 -0.309018039 0.9471157032
4450273300.0 -0.2935722907 0.9523572004
4500273000.0 -0.280060625 0.9566790467
4550272700.0 -0.2660405029 0.9609090744
4600272400.0 -0.2505734225 0.9648607688
4650272100.0 -0.2389239035 0.9681911058
4700271800.0 -0.225529998 0.9715596793
4750271500.0 -0.2138000388 0.9744259814
4800271200.0 -0.2012566264 0.9770539214
4850270900.0 -0.1873169831 0.9799999883
4900270600.0 -0.1735167629 0.982167084
4950270300.0 -0.1592419446 0.9850456672
5000270000.0 -0.1448332945 0.9871087398
5050269700.0 -0.1314680026 0.9887120948
5100269400.0 -0.1177810724 0.9902500446
5150269100.0 -0.1044033695 0.9917277617
5200268800.0 -0.0910865248 0.9928601579
5250268500.0 -0.078086678 0.9939842446
5300268200.0 -0.0649580955 0.9944300106
5350267900.0 -0.0525702585 0.9951063339
5400267600.0 -0.0364913825 0.9966368856
5450267300.0 -0.0234635639 0.9969024386
5500267000.0 -0.0080974415 0.9972043711
5550266700.0 0.0068019779 0.9970556445
5600266400.0 0.0222059045 0.9971333294
5650266100.0 0.0386769758 0.9973029648
5700265800.0 0.0533557721 0.996232939
5750265500.0 0.068310414 0.9953406335
5800265200.0 0.0823879451 0.9948397333
5850264900.0 0.0956579415 0.9935993208
5900264600.0 0.1120581635 0.9920755577
5950264300.0 0.1244989082 0.9903203636
6000264000.0 0.1380759486 0.9883078566
6050263700.0 0.1508170416 0.9871658277
6100263400.0 0.1630226927 0.9853683313
6150263100.0 0.1775918411 0.9829054869
6200262800.0 0.1877999684 0.9810325081
6250262500.0 0.2004653822 0.9783555354
6300262200.0 0.2131491363 0.975801229
6350261900.0 0.2262651285 0.9729808528
6400261600.0 0.2402687412 0.9696490093
6450261300.0 0.251585957 0.9669757098
6500261000.0 0.2640979001 0.9634236701
6550260700.0 0.2772967472 0.9592995208
6600260400.0 0.2907279046 0.9553391071
6650260100.0 0.3045068373 0.9510654366
6700259800.0 0.3166935836 0.946855157
6750259500.0 0.3304677761 0.9418956393
6800259200.0 0.3439036583 0.9369664855
6850258900.0 0.3554584555 0.9315912006
6900258600.0 0.3678563075 0.9265518126
6950258300.0 0.3805591611 0.9215473314
7000258000.0 0.3922739525 0.9159106597
7050257700.0 0.4046326848 0.9099434841
7100257400.0 0.4174129521 0.9036580153
7150257100.0 0.427786763 0.898151168
7200256800.0 0.4406742937 0.8920359704
7250256500.0 0.4523174719 0.8856489637
7300256200.0 0.4654496432 0.8785337712
7350255900.0 0.4781263734 0.8721778304
7400255600.0 0.4913930367 0.8648242869
7450255300.0 0.5064030582 0.8554617807
7500255000.0 0.5183593689 0.848696305
7550254700.0 0.5319670002 0.839921834
7600254400.0 0.5446426345 0.8316529577
7650254100.0 0.5565342834 0.8240610462
7700253800.0 0.5685559093 0.8161502196
7750253500.0 0.5795142441 0.808411487
7800253200.0 0.590148807 0.8006019826
7850252900.0 0.5999479611 0.7935906995
7900252600.0 0.6116488347 0.7849448823
7950252300.0 0.6203546297 0.7782865134
8000252000.0 0.6303974679 0.770705318
8050251700.0 0.6407325743 0.7625090054
8100251400.0 0.651095399 0.7542578292
8150251100.0 0.6611944668 0.7458374701
8200250800.0 0.6706238131 0.737747271
8250250500.0 0.6796629726 0.7297945724
8300250200.0 0.6888123421 0.7215307577
8350249900.0 0.6973585342 0.7126775544
8400249600.0 0.7061605946 0.7045518008
8450249300.0 0.7152887807 0.6954074058
8500249000.0 0.7238720117 0.6868021003
8550248700.0 0.7320507709 0.6776008412
8600248400.0 0.7406016006 0.6679599463
8650248100.0 0.7483958684 0.6586173647
8700247800.0 0.7575863467 0.6474039116
8750247500.0 0.7660414478 0.6372612883
8800247200.0 0.7741973853 0.6267829568
8850246900.0 0.7831778619 0.6154225145
8900246600.0 0.7915050227 0.6039903741
8950246300.0 0.8010775834 0.5910855763
9000246000.0 0.8103805419 0.578267449
9050245700.0 0.8191665248 0.565530199
9100245400.0 0.8278810417 0.553016684
9150245100.0 0.8372896919 0.5394203734
9200244800.0 0.847057423 0.5245245583
9250244500.0 0.8565217774 0.5086840544
9300244200.0 0.8650122196 0.4946491354
9350243900.0 0.8725721183 0.48065878
9400243600.0 0.8791978644 0.4683311644
9450243300.0 0.8851200876 0.4565385721
9500243000.0 0.8914642757 0.4444586307
9550242700.0 0.8954525495 0.4368959636
9600242400.0 0.8991411968 0.4295498516
9650242100.0 0.9030531771 0.4227851711
9700241800.0 0.9075603197 0.4145273539
9750241500.0 0.9117558458 0.4067383087
9800241200.0 0.9164410393 0.3976327869
9850240900.0 0.9221209815 0.3859115376
9900240600.0 0.9272388355 0.3749038269
9950240300.0 0.9341506323 0.3588314218
10000240000.0 0.9386885436 0.347031528
10050239700.0 0.9443157655 0.3317742717
10100239400.0 0.9495323668 0.3162557607
10150239100.0 0.9539915873 0.3015432634
10200238800.0 0.9580907335 0.2864463051
10250238500.0 0.96139773 0.2731572697
10300238200.0 0.964508961 0.259167808
10350237900.0 0.96725232 0.2458752568
10400237600.0 0.9696929148 0.2327052618
10450237300.0 0.9724100041 0.2194804669
10500237000.0 0.9747090153 0.2065727075
10550236700.0 0.9769858044 0.1928015841
10600236400.0 0.9789920156 0.1792324963
10650236100.0 0.9807822401 0.1648667819
10700235800.0 0.9834427997 0.1519248329
10750235500.0 0.9857413785 0.1390009345
10800235200.0 0.9878875778 0.1244967328
10850234900.0 0.9895003306 0.110104004
10900234600.0 0.9918246773 0.0953727479
10950234300.0 0.9933900237 0.0821791779
11000234000.0 0.9952342229 0.067102315
11050233700.0 0.9970375898 0.0507829564
11100233400.0 0.9985110429 0.0333505545
11150233100.0 0.9994682671 0.0170866074
11200232800.0 1.00037814 0.0021175113
11250232500.0 1.001162197 -0.0144139836
11300232200.0 1.002217047 -0.0324387099
11350231900.0 1.001563656 -0.0474646165
11400231600.0 1.001259556 -0.0623741741
11450231300.0 1.001180531 -0.0786755101
11500231000.0 0.9998497062 -0.094685933
11550230700.0 0.9992807869 -0.1093679766
11600230400.0 0.9968628442 -0.1203095143
11650230100.0 0.9949622597 -0.1324264471
11700229800.0 0.9933629379 -0.1467929491
11750229500.0 0.9911207511 -0.161616183
11800229200.0 0.9884604322 -0.1753281802
11850228900.0 0.9848054397 -0.1874998518
11900228600.0 0.9814240209 -0.1973001667
11950228300.0 0.9780627356 -0.2078845572
12000228000.0 0.9750547737 -0.2172880724
12050227700.0 0.9721865227 -0.2291611619
12100227400.0 0.9682505966 -0.2410092387
12150227100.0 0.9635594319 -0.2568711388
12200226800.0 0.9599000661 -0.2682905363
12250226500.0 0.9559992063 -0.2812831606
12300226200.0 0.9516778 -0.293002051
12350225900.0 0.9466652938 -0.3075418525
12400225600.0 0.9424166964 -0.3207076582
12450225300.0 0.9380844796 -0.3331962118
12500225000.0 0.9325224502 -0.3480871753
12550224700.0 0.9271456357 -0.3620652677
12600224400.0 0.9221793894 -0.3747765478
12650224100.0 0.9163270446 -0.3891728823
12700223800.0 0.9109202464 -0.4020950185
12750223500.0 0.9055212121 -0.4150453429
12800223200.0 0.900372782 -0.4274572328
12850222900.0 0.8950444261 -0.4395626248
12900222600.0 0.8891236893 -0.4517964031
12950222300.0 0.882580739 -0.4651121228
13000222000.0 0.877109641 -0.475921487
13050221700.0 0.8699462932 -0.4892940431
13100221400.0 0.8637458371 -0.500561506
13150221100.0 0.8571158198 -0.5128022301
13200220800.0 0.8499839555 -0.5243917555
13250220500.0 0.8427738671 -0.5365717264
13300220200.0 0.8352311918 -0.5476891876
13350219900.0 0.8273695375 -0.5593458262
13400219600.0 0.8188806591 -0.571308055
13450219300.0 0.8096487781 -0.5849213063
13500219000.0 0.7995808156 -0.5984225725
13550218700.0 0.7891920163 -0.6115278426
13600218400.0 0.7798093977 -0.623184205
13650218100.0 0.7698159393 -0.6351093668
13700217800.0 0.7593314628 -0.6470853095
13750217500.0 0.7494232394 -0.6576619169
13800217200.0 0.7378686714 -0.6688639762
13850216900.0 0.7267177245 -0.6809275624
13900216600.0 0.7173093342 -0.689853396
13950216300.0 0.706187578 -0.7012183912
14000216000.0 0.6958952744 -0.7099837912
14050215700.0 0.6865110886 -0.7182425006
14100215400.0 0.6766455488 -0.7277485647
14150215100.0 0.6672962974 -0.735914134
14200214800.0 0.6579597563 -0.7445309608
14250214500.0 0.6475166033 -0.7539763364
14300214200.0 0.6372347194 -0.7634613008
14350213900.0 0.625962705 -0.7729507993
14400213600.0 0.6142007036 -0.7831269039
14450213300.0 0.6013802319 -0.7926196126
14500213000.0 0.5881747982 -0.802631632
14550212700.0 0.5755075915 -0.8121797562
14600212400.0 0.5629742836 -0.8211716383
14650212100.0 0.5506257662 -0.8298461748
14700211800.0 0.5359819401 -0.8394365629
14750211500.0 0.5241126816 -0.8474625977
14800211200.0 0.5120740908 -0.8556153064
14850210900.0 0.5001224417 -0.8632862965
14900210600.0 0.4867538973 -0.8709796225
14950210300.0 0.4733821586 -0.8787461699
15000210000.0 0.4607423701 -0.885276291
15050209700.0 0.4479504709 -0.8915138799
15100209400.0 0.4357476663 -0.8974947809
15150209100.0 0.4235840938 -0.9027410952
15200208800.0 0.4104648785 -0.9081838897
15250208500.0 0.3991996951 -0.9131048482
15300208200.0 0.3870822089 -0.9177148
15350207900.0 0.3741593506 -0.9228596468
15400207600.0 0.3597057689 -0.9277498747
15450207300.0 0.3450901867 -0.9328695675
15500207000.0 0.3303367616 -0.9365982491
15550206700.0 0.3159655037 -0.942611179
15600206400.0 0.2992718706 -0.9466850876
15650206100.0 0.2837381391 -0.95117281
15700205800.0 0.2697885124 -0.9549397147
15750205500.0 0.2553822608 -0.958363822
15800205200.0 0.2408760664 -0.9619368477
15850204900.0 0.2263168868 -0.9654585821
15900204600.0 0.2112217838 -0.9690471925
15950204300.0 0.1972286131 -0.972032139
16000204000.0 0.1832100118 -0.9747836829
16050203700.0 0.1682413732 -0.9777806683
16100203400.0 0.1532373937 -0.9800502412
16150203100.0 0.1393111943 -0.9821262904
16200202800.0 0.1248223256 -0.9847937668
16250202500.0 0.1101921136 -0.9861050893
16300202200.0 0.0945712697 -0.9880028927
16350201900.0 0.0797550241 -0.9892513204
16400201600.0 0.0653536043 -0.9903748
16450201300.0 0.0499910765 -0.9914399464
16500201000.0 0.0333080531 -0.9921281829
16550200700.0 0.0176147093 -0.9927236392
16600200400.0 0.0020298198 -0.9927426788
16650200100.0 -0.0141220202 -0.9929069124
16700199800.0 -0.0304009795 -0.9925036035
16750199500.0 -0.0484132512 -0.9920290916
16800199200.0 -0.0641156439 -0.991254992
16850198900.0 -0.0798435092 -0.9897644739
16900198600.0 -0.0937305967 -0.9887931028
16950198300.0 -0.1065822618 -0.9872017595
17000198000.0 -0.1202817705 -0.9864977371
17050197700.0 -0.1325535558 -0.9840896407
17100197400.0 -0.1455724988 -0.982156129
17150197100.0 -0.1584358525 -0.9803600469
17200196800.0 -0.1708224383 -0.9781865
17250196500.0 -0.18402204 -0.9757534249
17300196200.0 -0.196378008 -0.9737047947
17350195900.0 -0.208214213 -0.9713808401
17400195600.0 -0.2203581599 -0.9688791964
17450195300.0 -0.2332808688 -0.9661725676
17500195000.0 -0.2469734661 -0.9625463091
17550194700.0 -0.260670024 -0.9592557779
17600194400.0 -0.2749501266 -0.9551730168
17650194100.0 -0.2882585086 -0.9510093306
17700193800.0 -0.3012627864 -0.9465011846
17750193500.0 -0.3154485314 -0.9423998056
17800193200.0 -0.3302180979 -0.9372277133
17850192900.0 -0.345283009 -0.9318257811
17900192600.0 -0.3603110213 -0.9256843192
17950192300.0 -0.3762009603 -0.9189244408
18000192000.0 -0.3907966984 -0.9116339271
18050191700.0 -0.4048523512 -0.9036076352
18100191400.0 -0.4191336392 -0.8959684161
18150191100.0 -0.4341304897 -0.8879544449
18200190800.0 -0.4508963707 -0.878866612
18250190500.0 -0.4679417531 -0.8696120092
18300190200.0 -0.4831275785 -0.8607411559
18350189900.0 -0.4984512261 -0.8522760238
18400189600.0 -0.5128563376 -0.8444357848
18450189300.0 -0.5261326489 -0.8362065616
18500189000.0 -0.5394811601 -0.8282163537
18550188700.0 -0.5521731267 -0.8206159256
18600188400.0 -0.5636473051 -0.8142067388
18650188100.0 -0.5748470926 -0.8076504709
18700187800.0 -0.5856777847 -0.8010267371
18750187500.0 -0.5963379581 -0.7944249866
18800187200.0 -0.6067835012 -0.7873890452
18850186900.0 -0.6169789938 -0.7806533391
18900186600.0 -0.627264595 -0.7731161323
18950186300.0 -0.6373809567 -0.7655266227
19000186000.0 -0.6444988892 -0.7591958887
19050185700.0 -0.6537477261 -0.752053394
19100185400.0 -0.6638242534 -0.7436773403
19150185100.0 -0.6737740017 -0.7356924394
19200184800.0 -0.6832009852 -0.7269110583
19250184500.0 -0.69332108 -0.7177771819
19300184200.0 -0.7046897966 -0.7087904074
19350183900.0 -0.7158869576 -0.698971449
19400183600.0 -0.7254663684 -0.688835147
19450183300.0 -0.7344188803 -0.679227802
19500183000.0 -0.742426771 -0.6687932624
19550182700.0 -0.7524048044 -0.6574928354
19600182400.0 -0.7625739879 -0.646088624
19650182100.0 -0.7733458126 -0.6332774436
19700181800.0 -0.784368514 -0.6205075661
19750181500.0 -0.7947994823 -0.6066488373
19800181200.0 -0.8053156852 -0.5915006661
19850180900.0 -0.8149504373 -0.576064148
19900180600.0 -0.8227447697 -0.5615350573
19950180300.0 -0.8320507962 -0.5455314114
20000180000.0 -0.8252500013 -0.5475348654
20050179700.0 -0.8336518175 -0.5343423189
20100179400.0 -0.842270581 -0.5204080279
20150179100.0 -0.8501437845 -0.5078923928
20200178800.0 -0.858797629 -0.4958608352
20250178500.0 -0.8687748711 -0.4823468833
20300178200.0 -0.8777949956 -0.4678955687
20350177900.0 -0.8868236944 -0.4530076132
20400177600.0 -0.8958858078 -0.4383786655
20450177300.0 -0.9045812017 -0.4244153254
20500177000.0 -0.9124460279 -0.4103252646
20550176700.0 -0.9205899779 -0.3968623544
20600176400.0 -0.927573984 -0.3839815872
20650176100.0 -0.9339487066 -0.3715741722
20700175800.0 -0.9406238034 -0.3597016857
20750175500.0 -0.947062388 -0.3485643055
20800175200.0 -0.9519349898 -0.3370685886
20850174900.0 -0.9569752063 -0.3260337254
20900174600.0 -0.9614310257 -0.3148596948
20950174300.0 -0.9654343359 -0.3037821755
21000174000.0 -0.9686357654 -0.2914432462
21050173700.0 -0.971189968 -0.2811477219
21100173400.0 -0.9757462234 -0.2695198227
21150173100.0 -0.9792058025 -0.2566782877
21200172800.0 -0.9827386378 -0.2436887596
21250172500.0 -0.9857963496 -0.2295960331
21300172200.0 -0.9885035269 -0.2156573358
21350171900.0 -0.9909215843 -0.2012591786
21400171600.0 -0.9917182832 -0.1872043308
21450171300.0 -0.9922919923 -0.1724853319
21500171000.0 -0.9919585651 -0.1563316155
21550170700.0 -0.9925869293 -0.1416991503
21600170400.0 -0.9917304003 -0.1259473958
21650170100.0 -0.9904239584 -0.1094884409
21700169800.0 -0.9891947199 -0.0947812575
21750169500.0 -0.9883357565 -0.0794155096
21800169200.0 -0.9879055814 -0.0625568891
21850168900.0 -0.9868974469 -0.0457707554
21900168600.0 -0.9857075364 -0.0284378477
21950168300.0 -0.9845949265 -0.0132783112
22000168000.0 -0.9841498069 0.0018102505
22050167700.0 -0.9839202484 0.0158871006
22100167400.0 -0.9840608678 0.0309500246
22150167100.0 -0.9848728001 0.0461751414
22200166800.0 -0.9852862486 0.0628107238
22250166500.0 -0.9849423474 0.0802119652
22300166200.0 -0.9837383756 0.0973217239
22350165900.0 -0.9819236369 0.1134694801
22400165600.0 -0.9808194183 0.1289875404
22450165300.0 -0.9778486386 0.1443590454
22500165000.0 -0.9768311112 0.1571952198
22550164700.0 -0.9757256482 0.1728491251
22600164400.0 -0.9748792857 0.1881129798
22650164100.0 -0.9723926426 0.2032257392
22700163800.0 -0.968602793 0.2191841187
22750163500.0 -0.9665182226 0.2340064628
22800163200.0 -0.9640958628 0.2472105502
22850162900.0 -0.9619290344 0.2602820417
22900162600.0 -0.9602015021 0.2736874861
22950162300.0 -0.9591415524 0.2867015737
23000162000.0 -0.9577166343 0.2986797475
23050161700.0 -0.9556817343 0.3111826072
23100161400.0 -0.9530954516 0.3239178748
23150161100.0 -0.9499777325 0.336640225
23200160800.0 -0.9481742947 0.3488597185
23250160500.0 -0.9452482126 0.3605634822
23300160200.0 -0.9423163086 0.3724903779
23350159900.0 -0.9383665925 0.3857618445
23400159600.0 -0.9333117872 0.3991443768
23450159300.0 -0.9294498991 0.4123912652
23500159000.0 -0.9240735979 0.4252801987
23550158700.0 -0.9203652908 0.4387925041
23600158400.0 -0.9148440261 0.4521407916
23650158100.0 -0.9083834715 0.4663815856
23700157800.0 -0.901001006 0.4800738672
23750157500.0 -0.8925508789 0.4943134291
23800157200.0 -0.8833727231 0.5076459329
23850156900.0 -0.8751148657 0.5203517825
23900156600.0 -0.865829286 0.5327431607
23950156300.0 -0.8562460799 0.5452343076
24000156000.0 -0.8474922834 0.5577859417
24050155700.0 -0.8374917866 0.5692879962
24100155400.0 -0.8281140169 0.5804406633
24150155100.0 -0.8170720436 0.5926184381
24200154800.0 -0.8064059445 0.6043059041
24250154500.0 -0.7942161082 0.6155118372
24300154200.0 -0.7837040192 0.6271734517
24350153900.0 -0.7716576823 0.6379086827
24400153600.0 -0.7597289981 0.6482561432
24450153300.0 -0.7476569702 0.6579730415
24500153000.0 -0.7363830849 0.6673133149
24550152700.0 -0.7249616618 0.6777203518
24600152400.0 -0.7136717617 0.6866710472
24650152100.0 -0.7019831395 0.694423524
