!Created with skrf (http://scikit-rf.org).
# Hz S RI R 50.0 
!freq ReS11 ImS11
300000.0 -0.9744415314 -0.1200038758
50299700.0 -0.9997920424 0.0152520377
100299400.0 -0.9979646472 0.0280823253
150299100.0 -1.002681546 0.0449374686
200298800.0 -0.9996445421 0.058285653
250298500.0 -0.9972602565 0.0717675717
300298200.0 -0.9859675395 0.0876318215
350297900.0 -0.9940440465 0.0985007206
400297600.0 -0.9932148259 0.115166943
450297300.0 -0.9908662618 0.1287491623
500297000.0 -0.989371782 0.1436244108
550296700.0 -0.984150161 0.1559445852
600296400.0 -1.017210156 0.189301413
650296100.0 -0.9821384581 0.1859250444
700295800.0 -0.9792899328 0.2003149509
750295500.0 -0.9762078821 0.2139580624
800295200.0 -0.9728591857 0.2282420803
850294900.0 -0.9696648981 0.2420761468
900294600.0 -0.9657580203 0.255730322
950294300.0 -0.9621410395 0.2694630375
1000294000.0 -0.9580652601 0.2834644737
1050293700.0 -0.9536309475 0.2973300962
1100293400.0 -0.9493168462 0.3115782081
1150293100.0 -0.9453209132 0.3236810122
1200292800.0 -0.9402018421 0.3378234974
1250292500.0 -0.9346920201 0.3513155374
1300292200.0 -0.9290387111 0.3646729001
1350291900.0 -0.9234502208 0.3785637889
1400291600.0 -0.9179324524 0.3915818856
1450291300.0 -0.9125969649 0.4040167638
1500291000.0 -0.9061921997 0.4175414335
1550290700.0 -0.8997511589 0.4309084288
1600290400.0 -0.8935299407 0.4438449726
1650290100.0 -0.8866939523 0.4557903096
1700289800.0 -0.880039826 0.4695239461
1750289500.0 -0.8728876018 0.4816243844
1800289200.0 -0.8655406382 0.4944504849
1850288900.0 -0.8588271169 0.5057958735
1900288600.0 -0.8509552875 0.5188942907
1950288300.0 -0.8426957531 0.5313423513
2000288000.0 -0.8354271122 0.5426869658
2050287700.0 -0.8271340904 0.5554485579
2100287400.0 -0.8193166928 0.5668284094
2150287100.0 -0.8107945298 0.5787727509
2200286800.0 -0.8031269873 0.5892455835
2250286500.0 -0.7941089055 0.601281567
2300286200.0 -0.785227673 0.6130015454
2350285900.0 -0.7766999748 0.6235756911
2400285600.0 -0.7677185886 0.6346545284
2450285300.0 -0.7591891208 0.6451535769
2500285000.0 -0.7493176782 0.6568647864
2550284700.0 -0.7402474326 0.6670176817
2600284400.0 -0.7308734073 0.6769226245
2650284100.0 -0.7222517613 0.6873490128
2700283800.0 -0.7117286883 0.6977562875
2750283500.0 -0.7013755381 0.7081963626
2800283200.0 -0.6914369806 0.7184287477
2850282900.0 -0.6810857405 0.7282198401
2900282600.0 -0.6706868201 0.7377693257
2950282300.0 -0.6602979508 0.7472278008
3000282000.0 -0.649552012 0.7567218895
3050281700.0 -0.6383342502 0.7660118532
3100281400.0 -0.6267952226 0.7750967851
3150281100.0 -0.6154594536 0.7842546391
3200280800.0 -0.6038631757 0.7926170967
3250280500.0 -0.5928412745 0.8005075625
3300280200.0 -0.5813693778 0.8085602013
3350279900.0 -0.5694350994 0.8164657576
3400279600.0 -0.556997629 0.824454177
3450279300.0 -0.5459173445 0.8316252291
3500279000.0 -0.5340646481 0.8382920541
3550278700.0 -0.5217140764 0.8455524008
3600278400.0 -0.5098037823 0.8526746042
3650278100.0 -0.496713637 0.8601453377
3700277800.0 -0.4846183323 0.866592705
3750277500.0 -0.4720968838 0.8732390137
3800277200.0 -0.4597991463 0.8797599656
3850276900.0 -0.447749027 0.8855991436
3900276600.0 -0.436775566 0.8915706157
3950276300.0 -0.4246565255 0.8971981743
4000276000.0 -0.412895787 0.903232601
4050275700.0 -0.4002336397 0.9092522539
4100275400.0 -0.3890863021 0.9147778437
4150275100.0 -0.3758156555 0.9204635564
4200274800.0 -0.3629117148 0.926365706
4250274500.0 -0.3501991102 0.9313308268
4300274200.0 -0.3372516022 0.9367498551
4350273900.0 -0.3229931699 0.9419244102
4400273600.0 -0.3082298857 0.9473010855
4450273300.0 -0.2931709955 0.9521599942
4500273000.0 -0.2798852066 0.9565285544
4550272700.0 -0.2661100336 0.9608415673
4600272400.0 -0.2507446668 0.9647990909
4650272100.0 -0.2393807406 0.9678943442
4700271800.0 -0.2262466933 0.971199549
4750271500.0 -0.214584286 0.9742565801
4800271200.0 -0.2023001596 0.9767530529
4850270900.0 -0.1885075452 0.9797581225
4900270600.0 -0.1745200403 0.982132363
4950270300.0 -0.1602339926 0.9847657096
5000270000.0 -0.145913541 0.9869810666
5050269700.0 -0.1321570973 0.9883833769
5100269400.0 -0.1181804872 0.9900906511
5150269100.0 -0.1046615589 0.991627275
5200268800.0 -0.0912711286 0.993016155
5250268500.0 -0.0781807544 0.9934437203
5300268200.0 -0.0647768712 0.9945118294
5350267900.0 -0.0519523956 0.9952310683
5400267600.0 -0.035786037 0.9962307794
5450267300.0 -0.022787511 0.996550888
5500267000.0 -0.007061062 0.9969024263
5550266700.0 0.0076597973 0.9971834254
5600266400.0 0.0233552707 0.9973368506
5650266100.0 0.0400893693 0.9968828931
5700265800.0 0.0542592408 0.9959417305
5750265500.0 0.0693632788 0.995343995
5800265200.0 0.0830260531 0.9942297232
5850264900.0 0.0962309923 0.9932144655
5900264600.0 0.1127242806 0.9914975212
5950264300.0 0.1247553401 0.9901295011
6000264000.0 0.1382016834 0.9881752192
6050263700.0 0.1499863149 0.9865971565
6100263400.0 0.1623665128 0.9850679008
6150263100.0 0.1768335094 0.9828028333
6200262800.0 0.1867098338 0.9808983095
6250262500.0 0.1995269596 0.9786702022
6300262200.0 0.2118610147 0.9761416515
6350261900.0 0.2248606007 0.9732881502
6400261600.0 0.2385086632 0.9700031352
6450261300.0 0.2496917594 0.9673409298
6500261000.0 0.2629558443 0.9638239459
6550260700.0 0.2761721857 0.9600317243
6600260400.0 0.2893859937 0.9556611366
6650260100.0 0.3036791011 0.9513929387
6700259800.0 0.3157647771 0.9470821402
6750259500.0 0.329445808 0.9419840743
6800259200.0 0.3426472364 0.9370927994
6850258900.0 0.3549245717 0.9318295564
6900258600.0 0.3674744421 0.9266906815
6950258300.0 0.3801393898 0.9216241287
7000258000.0 0.3915470565 0.9159956718
7050257700.0 0.4038688693 0.91010285
7100257400.0 0.4168197255 0.9038057742
7150257100.0 0.427594322 0.8984921911
7200256800.0 0.4405182153 0.8918825924
7250256500.0 0.4529707165 0.8853128514
7300256200.0 0.4655709455 0.8786790774
7350255900.0 0.4784450518 0.8717865041
7400255600.0 0.4925445482 0.8642843966
7450255300.0 0.5082366229 0.8553781066
7500255000.0 0.5206787402 0.8477356755
7550254700.0 0.5343832758 0.8387730404
7600254400.0 0.5472460829 0.8306119135
7650254100.0 0.5583040274 0.8228147164
7700253800.0 0.5702643908 0.8148045001
7750253500.0 0.5813777262 0.8070088454
7800253200.0 0.591707272 0.7991439413
7850252900.0 0.6014883834 0.79210659
7900252600.0 0.6129755825 0.7833154697
7950252300.0 0.6214794012 0.7770404135
8000252000.0 0.6314684602 0.7693075586
8050251700.0 0.6419751249 0.7612691357
8100251400.0 0.6519736054 0.7532356691
8150251100.0 0.6622610802 0.7445604468
8200250800.0 0.6715173495 0.736466993
8250250500.0 0.6803617868 0.7286379458
8300250200.0 0.6898042619 0.7203236766
8350249900.0 0.6986484396 0.7114349861
8400249600.0 0.7065890895 0.7032847966
8450249300.0 0.7157940534 0.6945265878
8500249000.0 0.7241139588 0.6854663585
8550248700.0 0.7324450993 0.6765774728
8600248400.0 0.7409652262 0.6672497236
8650248100.0 0.7485614234 0.6577848832
8700247800.0 0.7579371882 0.6465413984
8750247500.0 0.7661823792 0.6365879008
8800247200.0 0.7742071639 0.6262634773
8850246900.0 0.7829564203 0.6148187873
8900246600.0 0.7914193936 0.6033621814
8950246300.0 0.8005890545 0.5906159047
9000246000.0 0.8096820543 0.5783982921
9050245700.0 0.8182593817 0.5660308478
9100245400.0 0.8267909308 0.5536204809
9150245100.0 0.8355454107 0.5405907972
9200244800.0 0.8450723124 0.525954708
9250244500.0 0.8542959408 0.5108170373
9300244200.0 0.8625404127 0.4970269845
9350243900.0 0.8701214163 0.4835562175
9400243600.0 0.8768105651 0.471895373
9450243300.0 0.8825275713 0.4610008005
9500243000.0 0.8888540043 0.4491497487
9550242700.0 0.892696548 0.4415676979
9600242400.0 0.8969808608 0.4340664242
9650242100.0 0.9010250275 0.4272173263
9700241800.0 0.9057030937 0.4188184356
9750241500.0 0.9099071454 0.4110741606
9800241200.0 0.9144291757 0.4017174884
9850240900.0 0.9205323044 0.3900227409
9900240600.0 0.9263654908 0.3779821433
9950240300.0 0.9333316774 0.3616463127
10000240000.0 0.9376720705 0.3501554353
10050239700.0 0.9442206267 0.3339215736
10100239400.0 0.9493483055 0.3178049252
10150239100.0 0.9540309694 0.3023882888
10200238800.0 0.9581362373 0.287033192
10250238500.0 0.9615134266 0.2735682086
10300238200.0 0.9645463107 0.2598348366
10350237900.0 0.9674171916 0.2463990738
10400237600.0 0.9700599264 0.2329798744
10450237300.0 0.972624411 0.2195314746
10500237000.0 0.9747231544 0.2072027036
10550236700.0 0.9769581091 0.1925414115
10600236400.0 0.979280263 0.1793743361
10650236100.0 0.981351818 0.1643793784
10700235800.0 0.9837887931 0.1520105711
10750235500.0 0.9857472446 0.1388970072
10800235200.0 0.9878626509 0.1241090325
10850234900.0 0.9899059482 0.1093978106
10900234600.0 0.9919889809 0.0948281682
10950234300.0 0.9935944519 0.0814479097
11000234000.0 0.9954597848 0.0660478044
11050233700.0 0.9972013044 0.0494466817
11100233400.0 0.9987262523 0.0318261569
11150233100.0 1.000040887 0.0152747066
11200232800.0 1.000602496 -0.0004150135
11250232500.0 1.001712301 -0.0180892499
11300232200.0 1.002061332 -0.0364878932
11350231900.0 1.002207832 -0.0517384043
11400231600.0 1.001674812 -0.0674161765
11450231300.0 1.001030342 -0.0835284972
11500231000.0 1.000031371 -0.1010019068
11550230700.0 0.9981215675 -0.1120976156
11600230400.0 0.9967911667 -0.125116611
11650230100.0 0.9947733108 -0.1375792445
11700229800.0 0.9927522138 -0.15235994
11750229500.0 0.9903835237 -0.1661619108
11800229200.0 0.9875250901 -0.1798153011
11850228900.0 0.9839610427 -0.1919638157
11900228600.0 0.9803230626 -0.2011233423
11950228300.0 0.9769350144 -0.2116102377
12000228000.0 0.9742283313 -0.2206923951
12050227700.0 0.9704571969 -0.232995605
12100227400.0 0.9675067456 -0.244431366
12150227100.0 0.9624080087 -0.2610141362
12200226800.0 0.9589787653 -0.2721886556
12250226500.0 0.9550969476 -0.2843583498
12300226200.0 0.949760862 -0.2972554054
12350225900.0 0.945290186 -0.3105559829
12400225600.0 0.9409819277 -0.3234845877
12450225300.0 0.9366130363 -0.3359346595
12500225000.0 0.9309868647 -0.3510013008
12550224700.0 0.925449927 -0.3644606164
12600224400.0 0.9206578469 -0.3772927762
12650224100.0 0.9146950213 -0.3914312099
12700223800.0 0.9095004116 -0.4043799741
12750223500.0 0.9040551436 -0.4175722588
12800223200.0 0.8985621598 -0.4300490732
12850222900.0 0.8936935448 -0.4421583137
12900222600.0 0.8877223108 -0.4541059174
12950222300.0 0.8817597463 -0.4669154877
13000222000.0 0.8756828344 -0.4786734822
13050221700.0 0.8687788781 -0.4913083849
13100221400.0 0.8620720571 -0.5033491405
13150221100.0 0.8553259931 -0.5156285676
13200220800.0 0.8481889417 -0.527330545
13250220500.0 0.8411524968 -0.5393041445
13300220200.0 0.8337232103 -0.5503335872
13350219900.0 0.8254369047 -0.561976159
13400219600.0 0.8172763655 -0.573857605
13450219300.0 0.8078633262 -0.5871417636
13500219000.0 0.7980518534 -0.6005199242
13550218700.0 0.7883415077 -0.6128751129
13600218400.0 0.7783111802 -0.624979114
13650218100.0 0.7681311957 -0.6356527463
13700217800.0 0.7573059662 -0.6473832791
13750217500.0 0.7481973758 -0.6586159543
13800217200.0 0.7370075633 -0.6701977731
13850216900.0 0.7266122965 -0.6816092213
13900216600.0 0.7159288516 -0.6903780577
13950216300.0 0.7052075082 -0.7006466509
14000216000.0 0.6950756191 -0.7094178219
14050215700.0 0.6864938707 -0.7178931034
14100215400.0 0.6764540182 -0.726582218
14150215100.0 0.6672783838 -0.7352682136
14200214800.0 0.6579391257 -0.7442173859
14250214500.0 0.6476096375 -0.7537346589
14300214200.0 0.6370098776 -0.7631812187
14350213900.0 0.6257715927 -0.7727064576
14400213600.0 0.6140407064 -0.782684
14450213300.0 0.6012560365 -0.7929244259
14500213000.0 0.5879743961 -0.8028497615
14550212700.0 0.5758761192 -0.811929996
14600212400.0 0.5632487308 -0.8211358302
14650212100.0 0.5507297188 -0.8298119734
14700211800.0 0.5365615785 -0.838868306
14750211500.0 0.5240550411 -0.8474953867
14800211200.0 0.5122505013 -0.8552788329
14850210900.0 0.4999759379 -0.8631586175
14900210600.0 0.4866152933 -0.8710685331
14950210300.0 0.4732561221 -0.8787908985
15000210000.0 0.4604370468 -0.885571229
15050209700.0 0.4481880906 -0.8912906502
15100209400.0 0.4358801772 -0.8976908792
15150209100.0 0.4233763099 -0.9030172073
15200208800.0 0.4099051993 -0.9082595974
15250208500.0 0.3991509992 -0.9134043902
15300208200.0 0.387312833 -0.9172010454
15350207900.0 0.3744001218 -0.9218662618
15400207600.0 0.3595613977 -0.927751423
15450207300.0 0.3441881675 -0.9324633181
15500207000.0 0.3304874824 -0.9370626177
15550206700.0 0.3153859178 -0.9418465071
15600206400.0 0.299496188 -0.9468002037
15650206100.0 0.2839544792 -0.9512281289
15700205800.0 0.2702248233 -0.95458755
15750205500.0 0.2556550974 -0.9581536925
15800205200.0 0.2419714578 -0.961310818
15850204900.0 0.2274974746 -0.965058515
15900204600.0 0.2123975508 -0.9685861501
15950204300.0 0.1983649761 -0.9717516129
16000204000.0 0.183765794 -0.9747022438
16050203700.0 0.1688173486 -0.9774057023
16100203400.0 0.1538453028 -0.9796810965
16150203100.0 0.1392564351 -0.9822536103
16200202800.0 0.1246887975 -0.9841033139
16250202500.0 0.1101676921 -0.9860084414
16300202200.0 0.0945904569 -0.9876254186
16350201900.0 0.0799558634 -0.9890561518
16400201600.0 0.0650708657 -0.9903362625
16450201300.0 0.0496372303 -0.9914033613
16500201000.0 0.0326211851 -0.9920880841
16550200700.0 0.0168148254 -0.9924707965
16600200400.0 0.0008552268 -0.9925972236
16650200100.0 -0.0150847228 -0.992795785
16700199800.0 -0.0319223091 -0.9921782242
16750199500.0 -0.0504864594 -0.9917060464
16800199200.0 -0.0668449312 -0.9909197968
16850198900.0 -0.0817377933 -0.9895564276
16900198600.0 -0.0957476514 -0.9888294857
16950198300.0 -0.108995939 -0.9879890133
17000198000.0 -0.1224353529 -0.9865472304
17050197700.0 -0.1349856266 -0.9838088085
17100197400.0 -0.1480736032 -0.9821273701
17150197100.0 -0.1605044402 -0.9798988964
17200196800.0 -0.1734206072 -0.9782529543
17250196500.0 -0.1864894422 -0.9754982272
17300196200.0 -0.1984343357 -0.973229312
17350195900.0 -0.2104450718 -0.9707878231
17400195600.0 -0.222583608 -0.968345041
17450195300.0 -0.2354359718 -0.9655627285
17500195000.0 -0.2487137479 -0.9622237535
17550194700.0 -0.2625307184 -0.9586737451
17600194400.0 -0.2765474817 -0.9549915826
17650194100.0 -0.2899252608 -0.9505041055
17700193800.0 -0.3032272349 -0.9463025132
17750193500.0 -0.3174610064 -0.9418880668
17800193200.0 -0.3314622663 -0.9367782811
17850192900.0 -0.346418647 -0.9313837859
17900192600.0 -0.3614397274 -0.9251938133
17950192300.0 -0.3771162097 -0.9179896165
18000192000.0 -0.3917406736 -0.9108317251
18050191700.0 -0.4056406908 -0.9029272302
18100191400.0 -0.4198827663 -0.8951521141
18150191100.0 -0.4348307702 -0.8872023342
18200190800.0 -0.4517381435 -0.877959002
18250190500.0 -0.4685005266 -0.8685023834
18300190200.0 -0.4839639992 -0.8600982148
18350189900.0 -0.499418824 -0.851548653
18400189600.0 -0.5136780886 -0.8431883682
18450189300.0 -0.5270904876 -0.8352162656
18500189000.0 -0.5404746671 -0.8269363021
18550188700.0 -0.553337684 -0.8192572727
18600188400.0 -0.565193982 -0.8128963945
18650188100.0 -0.5765032812 -0.8060150753
18700187800.0 -0.5873413959 -0.7994727735
18750187500.0 -0.5979582514 -0.792976888
18800187200.0 -0.6086862159 -0.7859006695
18850186900.0 -0.6187540404 -0.7791260139
18900186600.0 -0.629125395 -0.7715068122
18950186300.0 -0.6393269539 -0.7636565816
19000186000.0 -0.6469348938 -0.7575500464
19050185700.0 -0.6558587628 -0.7504147426
19100185400.0 -0.6660196251 -0.7424122472
19150185100.0 -0.6762543004 -0.7334319303
19200184800.0 -0.6855485219 -0.7260957836
19250184500.0 -0.6957939515 -0.7162740689
19300184200.0 -0.7074068035 -0.7063441586
19350183900.0 -0.7177694668 -0.6969821407
19400183600.0 -0.7279309943 -0.6870024485
19450183300.0 -0.7364458197 -0.6767270696
19500183000.0 -0.7445986649 -0.6665536874
19550182700.0 -0.7548180446 -0.6560079779
19600182400.0 -0.7646595778 -0.643896602
19650182100.0 -0.7755838819 -0.6318851395
19700181800.0 -0.7862988198 -0.6189586638
19750181500.0 -0.7965410291 -0.604777369
19800181200.0 -0.8068857577 -0.5896678084
19850180900.0 -0.8166129889 -0.5744951902
19900180600.0 -0.82422178 -0.5601984551
19950180300.0 -0.8332956165 -0.543540874
20000180000.0 -0.823845925 -0.5467664662
20050179700.0 -0.8329334707 -0.5343838531
20100179400.0 -0.8405484597 -0.5203980351
20150179100.0 -0.8489412039 -0.5088540585
20200178800.0 -0.8579886961 -0.496853255
20250178500.0 -0.8673297966 -0.4840895556
20300178200.0 -0.8770107148 -0.4702297485
20350177900.0 -0.8854087359 -0.4559170825
20400177600.0 -0.8946987059 -0.4413185496
20450177300.0 -0.9028878551 -0.4271609699
20500177000.0 -0.9109071099 -0.4131222171
20550176700.0 -0.9188515891 -0.399422962
20600176400.0 -0.9258432836 -0.3865337078
20650176100.0 -0.9326581712 -0.3745388666
20700175800.0 -0.9391996188 -0.362420044
20750175500.0 -0.9456418452 -0.3519779033
20800175200.0 -0.9504220859 -0.3399081288
20850174900.0 -0.9547520978 -0.3289207612
20900174600.0 -0.9585287662 -0.3187175093
20950174300.0 -0.9627648939 -0.3065274939
21000174000.0 -0.9660322501 -0.2959936205
21050173700.0 -0.967755557 -0.2865154088
21100173400.0 -0.9718435329 -0.2753201263
21150173100.0 -0.9752480619 -0.2628530512
21200172800.0 -0.9787621676 -0.2497702128
21250172500.0 -0.9828344673 -0.2359678338
21300172200.0 -0.9859616044 -0.2218120756
21350171900.0 -0.9878204886 -0.2075225169
21400171600.0 -0.9900895165 -0.1935102454
21450171300.0 -0.9900748036 -0.1796546462
21500171000.0 -0.9899282604 -0.1638998002
21550170700.0 -0.9910897761 -0.1489104635
21600170400.0 -0.991834012 -0.1334892524
21650170100.0 -0.9895920318 -0.1174658532
21700169800.0 -0.9896027155 -0.1023323281
21750169500.0 -0.9891334536 -0.0869733794
21800169200.0 -0.9888934257 -0.0692997568
21850168900.0 -0.9900083514 -0.0527002149
21900168600.0 -0.9879735223 -0.0363851894
21950168300.0 -0.9879341921 -0.0210655449
22000168000.0 -0.9875957985 -0.0057928085
22050167700.0 -0.9878700928 0.0082376811
22100167400.0 -0.9882316254 0.0241615865
22150167100.0 -0.9886244093 0.0399535205
22200166800.0 -0.9891115201 0.0560352457
22250166500.0 -0.9886869014 0.0734733059
22300166200.0 -0.9878696516 0.0903818079
22350165900.0 -0.9872016644 0.1063330827
22400165600.0 -0.9853528559 0.1219398455
22450165300.0 -0.9829982237 0.1373586579
22500165000.0 -0.9823644178 0.1505871337
22550164700.0 -0.9809280869 0.1670575821
22600164400.0 -0.9787932506 0.1830327255
22650164100.0 -0.9758198625 0.1984193855
22700163800.0 -0.9729792976 0.2146832099
22750163500.0 -0.9705851506 0.229895073
22800163200.0 -0.9671697831 0.2424930758
22850162900.0 -0.9648086848 0.2558582863
22900162600.0 -0.9631429502 0.269734402
22950162300.0 -0.9610957957 0.2832853901
23000162000.0 -0.9596462099 0.2955239899
23050161700.0 -0.9579236155 0.308743726
23100161400.0 -0.9550865051 0.3217683091
23150161100.0 -0.9522348916 0.3346959242
23200160800.0 -0.948788495 0.3476269159
23250160500.0 -0.9466122845 0.3593893331
23300160200.0 -0.9434022004 0.3722888836
23350159900.0 -0.9400585725 0.3857654183
23400159600.0 -0.934555684 0.3989911672
23450159300.0 -0.9300779762 0.4129373249
23500159000.0 -0.9250683147 0.4259393853
23550158700.0 -0.9201434153 0.4400593689
23600158400.0 -0.9141528753 0.4538526194
23650158100.0 -0.9072451676 0.4684809829
23700157800.0 -0.8990783591 0.4824770039
23750157500.0 -0.8901073217 0.496589809
23800157200.0 -0.880311875 0.509822985
23850156900.0 -0.8708560742 0.5224800097
23900156600.0 -0.8615624144 0.5351250521
23950156300.0 -0.8518836955 0.5485858882
24000156000.0 -0.8424085868 0.5613088197
24050155700.0 -0.8321521534 0.5722118331
24100155400.0 -0.8221184573 0.5848242585
24150155100.0 -0.8108151249 0.5961635587
24200154800.0 -0.7996475889 0.6085172576
24250154500.0 -0.788583618 0.6206808468
24300154200.0 -0.7771695503 0.6324454253
24350153900.0 -0.7654996462 0.6434774153
24400153600.0 -0.7529477018 0.6538086003
24450153300.0 -0.740850621 0.6639953652
24500153000.0 -0.7297292394 0.67421669
24550152700.0 -0.7181683147 0.6839883208
24600152400.0 -0.7058808793 0.6931422889
24650152100.0 -0.6941351258 0.7016866651
