!Created with skrf (http://scikit-rf.org).
# Hz S RI R 50.0 
!freq ReS11 ImS11
300000.0 -0.9783615668 -0.1107939357
50299700.0 -1.000017069 0.0160717728
100299400.0 -0.9980888593 0.0288666837
150299100.0 -1.002845694 0.0457666811
200298800.0 -0.9997584966 0.0588479336
250298500.0 -0.9973695819 0.0724987961
300298200.0 -0.9859771611 0.0882640403
350297900.0 -0.9942485512 0.0990479516
400297600.0 -0.9932186139 0.1158263408
450297300.0 -0.9910041823 0.1294019777
500297000.0 -0.9895054891 0.1444585318
550296700.0 -0.9844558537 0.1567916074
600296400.0 -1.017431602 0.190324991
650296100.0 -0.9820944262 0.1867545558
700295800.0 -0.9793649114 0.2013033994
750295500.0 -0.97624519 0.2151031694
800295200.0 -0.9730289312 0.2292364475
850294900.0 -0.9696790313 0.242941972
900294600.0 -0.9658006302 0.2566402532
950294300.0 -0.9619692068 0.2704427144
1000294000.0 -0.9581063342 0.2845198132
1050293700.0 -0.9535045725 0.2982127733
1100293400.0 -0.9491364672 0.3127450773
1150293100.0 -0.9453593912 0.3247154654
1200292800.0 -0.9401082417 0.3389432387
1250292500.0 -0.9345347729 0.3524685628
1300292200.0 -0.9287556704 0.3655974413
1350291900.0 -0.9232483715 0.3797119904
1400291600.0 -0.9177410483 0.3927522127
1450291300.0 -0.9121022403 0.4052147749
1500291000.0 -0.9059667477 0.4184684329
1550290700.0 -0.8997171552 0.4318594718
1600290400.0 -0.8930740192 0.4446280089
1650290100.0 -0.8866215262 0.4569304421
1700289800.0 -0.8796226981 0.4702440302
1750289500.0 -0.8726453285 0.4825760162
1800289200.0 -0.8651955942 0.495442195
1850288900.0 -0.8584136703 0.5068654904
1900288600.0 -0.8507849227 0.5197817965
1950288300.0 -0.8425843343 0.5323538197
2000288000.0 -0.8350298961 0.5435137546
2050287700.0 -0.8267547233 0.5561287337
2100287400.0 -0.8188299117 0.567736479
2150287100.0 -0.8103752429 0.5798062346
2200286800.0 -0.8025683303 0.5902196917
2250286500.0 -0.793483636 0.6020272699
2300286200.0 -0.7847793441 0.6138087933
2350285900.0 -0.7759837412 0.6247092175
2400285600.0 -0.7669682823 0.6358143278
2450285300.0 -0.7583165368 0.6462439808
2500285000.0 -0.7486135305 0.6573487977
2550284700.0 -0.7397215992 0.6680057334
2600284400.0 -0.7301540769 0.6777789685
2650284100.0 -0.7210880977 0.6886691746
2700283800.0 -0.7107747703 0.6992544593
2750283500.0 -0.7002463354 0.7094354968
2800283200.0 -0.6905070329 0.7195537878
2850282900.0 -0.680250924 0.7289448588
2900282600.0 -0.6699049168 0.7386360336
2950282300.0 -0.6598849695 0.7479037126
3000282000.0 -0.6492264831 0.7574536082
3050281700.0 -0.6378055638 0.7666999834
3100281400.0 -0.6260998187 0.7760720188
3150281100.0 -0.6141945949 0.785341228
3200280800.0 -0.6025216157 0.7938003006
3250280500.0 -0.591754418 0.8015675148
3300280200.0 -0.5805399873 0.809421835
3350279900.0 -0.5688834676 0.8170035951
3400279600.0 -0.5568965061 0.8247159604
3450279300.0 -0.5458431583 0.8317428027
3500279000.0 -0.5337379647 0.8389008127
3550278700.0 -0.521206541 0.846002485
3600278400.0 -0.5089429329 0.8532768042
3650278100.0 -0.4955471236 0.8607945538
3700277800.0 -0.4836027767 0.8673039605
3750277500.0 -0.4712908371 0.8739859663
3800277200.0 -0.4587064037 0.8804001388
3850276900.0 -0.447093675 0.8863941827
3900276600.0 -0.435768329 0.8919219148
3950276300.0 -0.4236972327 0.8979204
4000276000.0 -0.4114022604 0.9041943584
4050275700.0 -0.3985109042 0.9101188516
4100275400.0 -0.3872611166 0.9157218355
4150275100.0 -0.3746252397 0.9210344735
4200274800.0 -0.3615769385 0.9267238909
4250274500.0 -0.3495991436 0.9317192916
4300274200.0 -0.3364205191 0.9370192754
4350273900.0 -0.322630779 0.9421657419
4400273600.0 -0.3076111596 0.9473899929
4450273300.0 -0.2922644219 0.9526265366
4500273000.0 -0.278636723 0.9567655553
4550272700.0 -0.2646062947 0.961357019
4600272400.0 -0.2489939485 0.9653575487
4650272100.0 -0.2373287617 0.9684323034
4700271800.0 -0.223974261 0.9719406606
4750271500.0 -0.2122878943 0.9746772351
4800271200.0 -0.1998271606 0.9773757001
4850270900.0 -0.1858560511 0.9801441159
4900270600.0 -0.1719770626 0.982700398
4950270300.0 -0.1576995009 0.9851825451
5000270000.0 -0.1433998024 0.9871878891
5050269700.0 -0.130189731 0.9888838605
5100269400.0 -0.1164808997 0.9906812241
5150269100.0 -0.1030938826 0.9926088013
5200268800.0 -0.090042186 0.9931936161
5250268500.0 -0.0769924684 0.9941257657
5300268200.0 -0.0637416812 0.9946703935
5350267900.0 -0.0515802056 0.9954552674
5400267600.0 -0.0354960503 0.9965284696
5450267300.0 -0.0223583933 0.9968124942
5500267000.0 -0.0069466388 0.9971334213
5550266700.0 0.0080649851 0.9973985297
5600266400.0 0.0235037397 0.9974892556
5650266100.0 0.0400754304 0.9968637111
5700265800.0 0.0545297681 0.9960797586
5750265500.0 0.0695424729 0.9953112185
5800265200.0 0.0841140264 0.9944600569
5850264900.0 0.0970953505 0.9930767083
5900264600.0 0.1135918717 0.9914580973
5950264300.0 0.1257275777 0.9898677278
6000264000.0 0.1396183635 0.9881979949
6050263700.0 0.1522368413 0.9868794111
6100263400.0 0.1644528654 0.9846020475
6150263100.0 0.1792605449 0.9824911062
6200262800.0 0.1895449741 0.9804298727
6250262500.0 0.2022992016 0.978085663
6300262200.0 0.2150966928 0.9753333834
6350261900.0 0.2282736701 0.9724442398
6400261600.0 0.2419152848 0.9691001419
6450261300.0 0.2533245818 0.9663078926
6500261000.0 0.2662856939 0.9627697496
6550260700.0 0.2791397745 0.958750887
6600260400.0 0.2924230393 0.954571523
6650260100.0 0.3062630001 0.950309012
6700259800.0 0.3185189867 0.9460744073
6750259500.0 0.3323989578 0.9410099838
6800259200.0 0.3454566166 0.9361358016
6850258900.0 0.3576264672 0.9313084245
6900258600.0 0.3691936308 0.9261139364
6950258300.0 0.3818179275 0.9207882788
7000258000.0 0.3940636545 0.9155862661
7050257700.0 0.4063469773 0.9093860985
7100257400.0 0.4190740901 0.9029570328
7150257100.0 0.4290471968 0.8979320922
7200256800.0 0.4420720031 0.8915215322
7250256500.0 0.4534635787 0.8848697794
7300256200.0 0.4674345703 0.8783728091
7350255900.0 0.4796520651 0.8711842109
7400255600.0 0.4926947229 0.8642512864
7450255300.0 0.5078261951 0.8549817528
7500255000.0 0.5193836084 0.8479777165
7550254700.0 0.5332936999 0.83955582
7600254400.0 0.5460200956 0.8310702906
7650254100.0 0.5576012955 0.8232547017
7700253800.0 0.5695331299 0.8151650622
7750253500.0 0.5804572357 0.8074881134
7800253200.0 0.5914262161 0.799686853
7850252900.0 0.6011603417 0.7926514639
7900252600.0 0.6128355543 0.7838795155
7950252300.0 0.6216364511 0.7771279199
8000252000.0 0.6317081691 0.7694886166
8050251700.0 0.6423374851 0.7611814378
8100251400.0 0.6525384055 0.7528515971
8150251100.0 0.6623657791 0.7441785219
8200250800.0 0.6720161813 0.7363222915
8250250500.0 0.6806247309 0.7284929244
8300250200.0 0.6899870682 0.7198349756
8350249900.0 0.6992260235 0.7111844132
8400249600.0 0.7073778977 0.7030550697
8450249300.0 0.7164112113 0.6938649342
8500249000.0 0.7249978531 0.6851380292
8550248700.0 0.7333523641 0.6760634698
8600248400.0 0.7415549225 0.6665435514
8650248100.0 0.7494741364 0.6570076084
8700247800.0 0.75893005 0.6459438631
8750247500.0 0.7673049104 0.6359303848
8800247200.0 0.7756001853 0.625616352
8850246900.0 0.7843760861 0.6139564969
8900246600.0 0.792573122 0.6027533681
8950246300.0 0.8022469212 0.5897292277
9000246000.0 0.8114983919 0.577032357
9050245700.0 0.8203439456 0.5639281327
9100245400.0 0.8291621576 0.5515549841
9150245100.0 0.8385386359 0.5377433806
9200244800.0 0.8484512429 0.5223255378
9250244500.0 0.8579024353 0.5066226464
9300244200.0 0.8663938979 0.4919522743
9350243900.0 0.8741461565 0.4780459953
9400243600.0 0.8805188474 0.4657385364
9450243300.0 0.8865484752 0.4541154174
9500243000.0 0.8927790547 0.4419066585
9550242700.0 0.8965048455 0.4341482607
9600242400.0 0.9000179423 0.4270756183
9650242100.0 0.9040321549 0.4202233345
9700241800.0 0.9084129372 0.4123602491
9750241500.0 0.9123264316 0.4049324121
9800241200.0 0.9171591919 0.395355223
9850240900.0 0.9226118623 0.3838715586
9900240600.0 0.9281780629 0.3722950839
9950240300.0 0.9351562668 0.3560422491
10000240000.0 0.9395958596 0.3442277117
10050239700.0 0.9453420997 0.3293667077
10100239400.0 0.9498725332 0.3139582756
10150239100.0 0.9545378481 0.2988919231
10200238800.0 0.9585525269 0.2840886336
10250238500.0 0.9619827697 0.2709849282
10300238200.0 0.9650317322 0.2566632461
10350237900.0 0.9674980246 0.2437420327
10400237600.0 0.9702271709 0.2308016556
10450237300.0 0.9728767335 0.2167900502
10500237000.0 0.9749852632 0.2044869215
10550236700.0 0.9772270338 0.191022139
10600236400.0 0.9790959526 0.177674229
10650236100.0 0.9814214409 0.1625781872
10700235800.0 0.9836034773 0.1507092277
10750235500.0 0.9854616402 0.1377895307
10800235200.0 0.9878910635 0.1232297933
10850234900.0 0.989593316 0.1088532696
10900234600.0 0.9918633466 0.0940455893
10950234300.0 0.9933333354 0.0808036234
11000234000.0 0.9952542569 0.0656191148
11050233700.0 0.9969872711 0.0493062476
11100233400.0 0.9983845744 0.0319384912
11150233100.0 0.9995384629 0.0155810044
11200232800.0 1.000003604 3.94262e-05
11250232500.0 1.000796077 -0.0154333836
11300232200.0 1.001325504 -0.0344972638
11350231900.0 1.0018146 -0.0507061082
11400231600.0 1.001109411 -0.0655476583
11450231300.0 1.001090012 -0.0815874849
11500231000.0 0.9997979457 -0.0967994733
11550230700.0 0.9982661442 -0.1124926674
11600230400.0 0.9969175209 -0.1245393075
11650230100.0 0.9944389078 -0.1358076057
11700229800.0 0.9928772388 -0.1504863951
11750229500.0 0.9903311968 -0.1648738875
11800229200.0 0.9875736369 -0.1786079099
11850228900.0 0.9839382731 -0.191006533
11900228600.0 0.9802868146 -0.2004062532
11950228300.0 0.9771962466 -0.2108795934
12000228000.0 0.9743851812 -0.2199818083
12050227700.0 0.9703107971 -0.2329976034
12100227400.0 0.9673589003 -0.243947428
12150227100.0 0.9634353234 -0.25920801
12200226800.0 0.9585901147 -0.2707200663
12250226500.0 0.955109696 -0.2836987632
12300226200.0 0.9511685768 -0.2957486313
12350225900.0 0.945976601 -0.309027323
12400225600.0 0.9417586589 -0.3223607862
12450225300.0 0.9370293337 -0.3354062672
12500225000.0 0.9319780746 -0.3496824696
12550224700.0 0.9264179332 -0.3638956463
12600224400.0 0.9218420606 -0.3762206237
12650224100.0 0.9158548921 -0.3905339815
12700223800.0 0.9105673492 -0.403346288
12750223500.0 0.9049994992 -0.4163580216
12800223200.0 0.8997338437 -0.4288185991
12850222900.0 0.8942326138 -0.4412616426
12900222600.0 0.8884553991 -0.4534070502
12950222300.0 0.8819761861 -0.4662967131
13000222000.0 0.8764805452 -0.4772089827
13050221700.0 0.869518083 -0.4907346828
13100221400.0 0.8624415773 -0.5023446281
13150221100.0 0.8554884234 -0.514433975
13200220800.0 0.8489375718 -0.5264380874
13250220500.0 0.8413916445 -0.5385293467
13300220200.0 0.8340745818 -0.5491961895
13350219900.0 0.8258961811 -0.5613152664
13400219600.0 0.8172999956 -0.5735404135
13450219300.0 0.8077005441 -0.587268423
13500219000.0 0.7979166211 -0.6010558114
13550218700.0 0.7873989808 -0.6139479701
13600218400.0 0.7770341682 -0.6262184774
13650218100.0 0.7670983274 -0.637690996
13700217800.0 0.7566689052 -0.6495094346
13750217500.0 0.7458684077 -0.6612838172
13800217200.0 0.7353420134 -0.6732202758
13850216900.0 0.7246616184 -0.6841573378
13900216600.0 0.7137523915 -0.6924449127
13950216300.0 0.7030293351 -0.7026873942
14000216000.0 0.6933106182 -0.7125837211
14050215700.0 0.6836220467 -0.7204865603
14100215400.0 0.6738974817 -0.7294112892
14150215100.0 0.6648788519 -0.7381394313
14200214800.0 0.6554331506 -0.7465459353
14250214500.0 0.6451908474 -0.7557135516
14300214200.0 0.6350279516 -0.7649212951
14350213900.0 0.6240344272 -0.7745242113
14400213600.0 0.6118482565 -0.7845765503
14450213300.0 0.5991094077 -0.7941671941
14500213000.0 0.5855138906 -0.8043792168
14550212700.0 0.5730546211 -0.8135026391
14600212400.0 0.5607064065 -0.8217146457
14650212100.0 0.5474772434 -0.831054475
14700211800.0 0.5339599538 -0.8406407915
14750211500.0 0.5214953088 -0.8491544702
14800211200.0 0.5095254973 -0.8568987043
14850210900.0 0.4973640997 -0.8644879163
14900210600.0 0.4838942896 -0.872278364
14950210300.0 0.4703720964 -0.8799424438
15000210000.0 0.457688755 -0.8865528481
15050209700.0 0.445478233 -0.8927195937
15100209400.0 0.4328340981 -0.8985795037
15150209100.0 0.420207155 -0.9044645119
15200208800.0 0.4067876132 -0.9101821873
15250208500.0 0.3959135662 -0.9147933365
15300208200.0 0.3824700649 -0.9196887934
15350207900.0 0.3694052638 -0.9236343103
15400207600.0 0.3556216281 -0.9291963932
15450207300.0 0.3410454942 -0.9335922019
15500207000.0 0.3265722658 -0.9389956681
15550206700.0 0.3115132057 -0.9438771827
15600206400.0 0.2955624781 -0.9482853079
15650206100.0 0.2798844898 -0.9520835369
15700205800.0 0.2655820179 -0.9559386568
15750205500.0 0.2513702743 -0.959278251
15800205200.0 0.2367342345 -0.9628228483
15850204900.0 0.2223897127 -0.9661572293
15900204600.0 0.2073519528 -0.9696619962
15950204300.0 0.1935934114 -0.9725070008
16000204000.0 0.1794411598 -0.9756678493
16050203700.0 0.1641489469 -0.9781679845
16100203400.0 0.1503686632 -0.9801623738
16150203100.0 0.1360228555 -0.9825227191
16200202800.0 0.1218469237 -0.9850526804
16250202500.0 0.1069141967 -0.985989976
16300202200.0 0.0918803585 -0.9881270969
16350201900.0 0.0772051229 -0.9890351928
16400201600.0 0.0623224247 -0.9904111937
16450201300.0 0.0471628533 -0.9912762353
16500201000.0 0.0306715091 -0.9919025147
16550200700.0 0.0148419633 -0.9923258021
16600200400.0 -0.0007924008 -0.9925020912
16650200100.0 -0.0170263599 -0.9923518447
16700199800.0 -0.0334584732 -0.9923306209
16750199500.0 -0.0523054122 -0.9914274348
16800199200.0 -0.0682941603 -0.990898841
16850198900.0 -0.0832973174 -0.9892755136
16900198600.0 -0.0974470135 -0.9884081213
16950198300.0 -0.1108790402 -0.9874597385
17000198000.0 -0.1236861174 -0.9858539319
17050197700.0 -0.1358708655 -0.98319837
17100197400.0 -0.1493636909 -0.9815383376
17150197100.0 -0.1619183449 -0.979499802
17200196800.0 -0.1750248749 -0.9778126793
17250196500.0 -0.1876405968 -0.9753265756
17300196200.0 -0.1996473026 -0.9728476572
17350195900.0 -0.2115995986 -0.9706079593
17400195600.0 -0.2237223154 -0.9682300238
17450195300.0 -0.2368233013 -0.9654149426
17500195000.0 -0.2501124761 -0.9620645546
17550194700.0 -0.2642197448 -0.9584211603
17600194400.0 -0.2780344272 -0.9541594932
17650194100.0 -0.2912185401 -0.9500636564
17700193800.0 -0.304601536 -0.9459272611
17750193500.0 -0.3186300322 -0.9415470713
17800193200.0 -0.3330601452 -0.9361607375
17850192900.0 -0.3482715999 -0.9308419697
17900192600.0 -0.363143286 -0.92434944
17950192300.0 -0.378967179 -0.917491163
18000192000.0 -0.3935677569 -0.9101465573
18050191700.0 -0.4074129204 -0.9021398472
18100191400.0 -0.4216646703 -0.8945490292
18150191100.0 -0.4366247987 -0.8866065484
18200190800.0 -0.4534981792 -0.8773277659
18250190500.0 -0.4703004673 -0.8676853295
18300190200.0 -0.4859460377 -0.8589183936
18350189900.0 -0.5008252213 -0.8507426453
18400189600.0 -0.515454783 -0.8418890133
18450189300.0 -0.5286916461 -0.8338113464
18500189000.0 -0.5414505715 -0.8258681304
18550188700.0 -0.5547682179 -0.8184116386
18600188400.0 -0.5666654618 -0.8117750339
18650188100.0 -0.5773904539 -0.8053417186
18700187800.0 -0.588121879 -0.7989448858
18750187500.0 -0.5989379211 -0.7919152933
18800187200.0 -0.6094430902 -0.7850476078
18850186900.0 -0.6196007855 -0.7779821058
18900186600.0 -0.6301011607 -0.7705249491
18950186300.0 -0.6404280461 -0.7627518365
19000186000.0 -0.6472676232 -0.7565705092
19050185700.0 -0.6564808313 -0.749316706
19100185400.0 -0.6663218707 -0.7409648493
19150185100.0 -0.6770595086 -0.7322430678
19200184800.0 -0.6863858114 -0.7238731978
19250184500.0 -0.6968657982 -0.7150625169
19300184200.0 -0.7079309565 -0.7048169422
19350183900.0 -0.7195555435 -0.6955187294
19400183600.0 -0.7282856818 -0.6858732562
19450183300.0 -0.7371721308 -0.6757015759
19500183000.0 -0.7462184317 -0.6660899803
19550182700.0 -0.7551908186 -0.6546464642
19600182400.0 -0.7657134413 -0.6429171684
19650182100.0 -0.7764830909 -0.6304581504
19700181800.0 -0.7868627416 -0.6173495692
19750181500.0 -0.7975918811 -0.603404703
19800181200.0 -0.8078385618 -0.5884542797
19850180900.0 -0.8175764239 -0.5731211709
19900180600.0 -0.825116894 -0.5587206946
19950180300.0 -0.8340540051 -0.5421726598
20000180000.0 -0.8268749319 -0.544636422
20050179700.0 -0.8351506794 -0.5319404436
20100179400.0 -0.843590751 -0.5188673638
20150179100.0 -0.8519590819 -0.5059049168
20200178800.0 -0.860389086 -0.49270055
20250178500.0 -0.8699365504 -0.47999975
20300178200.0 -0.8797116652 -0.4647782721
20350177900.0 -0.8882301586 -0.4502679557
20400177600.0 -0.8973912103 -0.4354497595
20450177300.0 -0.9055642545 -0.4214219109
20500177000.0 -0.91347404 -0.4074090873
20550176700.0 -0.9215926014 -0.3940657129
20600176400.0 -0.9283088789 -0.380621316
20650176100.0 -0.9346499261 -0.3683707955
20700175800.0 -0.9409477648 -0.3569022634
20750175500.0 -0.9483300378 -0.3445610792
20800175200.0 -0.9525461434 -0.3331266651
20850174900.0 -0.9579515109 -0.3230509958
20900174600.0 -0.9631579743 -0.3120116417
20950174300.0 -0.9669462705 -0.2987462721
21000174000.0 -0.9700848249 -0.2883395954
21050173700.0 -0.9723723573 -0.2766445493
21100173400.0 -0.9773070525 -0.2649178148
21150173100.0 -0.980917328 -0.2523940438
21200172800.0 -0.9844418707 -0.2389937652
21250172500.0 -0.9880053349 -0.2243532627
21300172200.0 -0.9907720355 -0.2109467345
21350171900.0 -0.9922319723 -0.1960956226
21400171600.0 -0.993797355 -0.1823090337
21450171300.0 -0.993283674 -0.1681241281
21500171000.0 -0.9931690567 -0.1522134274
21550170700.0 -0.9927146582 -0.1373050064
21600170400.0 -0.993207434 -0.1211595785
21650170100.0 -0.9927549641 -0.1055987981
21700169800.0 -0.9909964525 -0.0902189385
21750169500.0 -0.9888941386 -0.0741864408
21800169200.0 -0.9883842387 -0.0580303542
21850168900.0 -0.98713111 -0.0415210925
21900168600.0 -0.9854649141 -0.0253607297
21950168300.0 -0.9836497951 -0.0091346171
22000168000.0 -0.982788719 0.0053656274
22050167700.0 -0.9826133351 0.0195626666
22100167400.0 -0.9824216414 0.0346816575
22150167100.0 -0.9834620894 0.0500042043
22200166800.0 -0.9835689844 0.0661767095
22250166500.0 -0.9831272189 0.0831323126
22300166200.0 -0.9824648211 0.1009027813
22350165900.0 -0.9812737582 0.1175508865
22400165600.0 -0.9796884335 0.1315896237
22450165300.0 -0.9771326085 0.1466190208
22500165000.0 -0.9746393652 0.1613621506
22550164700.0 -0.9744656968 0.1766383904
22600164400.0 -0.9724839125 0.1916579504
22650164100.0 -0.9705853592 0.2074712795
22700163800.0 -0.9670959723 0.2229025771
22750163500.0 -0.9652459446 0.2382628067
22800163200.0 -0.962507965 0.2513223559
22850162900.0 -0.9599450498 0.2649257387
22900162600.0 -0.9587322416 0.2780318926
22950162300.0 -0.9574539281 0.2908855124
23000162000.0 -0.9563820898 0.3025655815
23050161700.0 -0.9547649469 0.3152309919
23100161400.0 -0.9519514293 0.3283433857
23150161100.0 -0.9499855076 0.340883325
23200160800.0 -0.9472591383 0.352532719
23250160500.0 -0.9440781806 0.3642970189
23300160200.0 -0.9416240168 0.3762116132
23350159900.0 -0.9375628736 0.3895789835
23400159600.0 -0.9330275712 0.4021429331
23450159300.0 -0.9276356712 0.4154673448
23500159000.0 -0.9233253396 0.4288102925
23550158700.0 -0.9194087213 0.4419622397
23600158400.0 -0.9134921796 0.4551916644
23650158100.0 -0.907456932 0.4688517517
23700157800.0 -0.8997814635 0.482867674
23750157500.0 -0.891069549 0.4967350292
23800157200.0 -0.8820705412 0.5097875037
23850156900.0 -0.8734468668 0.5224393348
23900156600.0 -0.8644012579 0.5350706103
23950156300.0 -0.8550344637 0.5480359659
24000156000.0 -0.8455611323 0.5592743198
24050155700.0 -0.8354711955 0.5710790534
24100155400.0 -0.8256710303 0.5832578798
24150155100.0 -0.8147020053 0.5942656417
24200154800.0 -0.8040271843 0.6063695083
24250154500.0 -0.7923807041 0.6185680548
24300154200.0 -0.7808982136 0.6301146606
24350153900.0 -0.7687147084 0.6403268796
24400153600.0 -0.7566358174 0.6505947406
24450153300.0 -0.7449767814 0.6606238625
24500153000.0 -0.7336782681 0.6702968772
24550152700.0 -0.722378435 0.6801993793
24600152400.0 -0.7103918718 0.6887735139
24650152100.0 -0.6990888898 0.697001479
