!Created with skrf (http://scikit-rf.org).
# Hz S RI R 50.0 
!freq ReS11 ImS11
300000.0 -0.9740331862 -0.1212440973
50299700.0 -1.000090088 0.0151716557
100299400.0 -0.9978321681 0.0280684815
150299100.0 -1.002744879 0.0447918437
200298800.0 -0.9996155513 0.0582235432
250298500.0 -0.997355741 0.0715392835
300298200.0 -0.9859270297 0.0874975959
350297900.0 -0.9939666888 0.0984667841
400297600.0 -0.9934416668 0.1150264373
450297300.0 -0.9909506973 0.1289018693
500297000.0 -0.9893701236 0.1435031078
550296700.0 -0.9842592277 0.1558406663
600296400.0 -1.017273588 0.1892953616
650296100.0 -0.9821393843 0.1857348315
700295800.0 -0.9792367819 0.2001374954
750295500.0 -0.9763359711 0.214159273
800295200.0 -0.9729652769 0.227968033
850294900.0 -0.9696311445 0.2420609671
900294600.0 -0.9659351397 0.2556317955
950294300.0 -0.9619732229 0.2694422977
1000294000.0 -0.9581780252 0.2833453741
1050293700.0 -0.9536041817 0.2972571305
1100293400.0 -0.9492904761 0.3115962432
1150293100.0 -0.9455687138 0.3236021287
1200292800.0 -0.9402388507 0.338032503
1250292500.0 -0.9346490304 0.3512630134
1300292200.0 -0.9291254285 0.3644868146
1350291900.0 -0.9234445785 0.3784338156
1400291600.0 -0.9179821379 0.3916546247
1450291300.0 -0.9123652614 0.4040336181
1500291000.0 -0.9061209135 0.4173840695
1550290700.0 -0.8997181968 0.4306883916
1600290400.0 -0.8933464349 0.443735345
1650290100.0 -0.8867912532 0.4559432406
1700289800.0 -0.8798782097 0.4691603737
1750289500.0 -0.8729342981 0.4815388038
1800289200.0 -0.8655519006 0.4945338133
1850288900.0 -0.8587953818 0.5056575483
1900288600.0 -0.8510924658 0.5188022223
1950288300.0 -0.842884897 0.5314379547
2000288000.0 -0.8355345554 0.5428364668
2050287700.0 -0.8270474148 0.5552135832
2100287400.0 -0.8194410737 0.56668401
2150287100.0 -0.8108833932 0.5788381032
2200286800.0 -0.803218773 0.5892598245
2250286500.0 -0.7940620664 0.6013935602
2300286200.0 -0.7851532615 0.6128810651
2350285900.0 -0.7767257457 0.6237348603
2400285600.0 -0.7678193351 0.6346144125
2450285300.0 -0.7590318485 0.6453179009
2500285000.0 -0.7492285918 0.6566043848
2550284700.0 -0.7402044005 0.6671585934
2600284400.0 -0.7309708109 0.6769603121
2650284100.0 -0.7220131746 0.6873466435
2700283800.0 -0.7118395215 0.6977622363
2750283500.0 -0.7014652661 0.7083364205
2800283200.0 -0.6915036612 0.7181102998
2850282900.0 -0.6811057658 0.7280799434
2900282600.0 -0.6707801925 0.7378241929
2950282300.0 -0.6606706023 0.7472740879
3000282000.0 -0.6496476163 0.7566857196
3050281700.0 -0.6384610316 0.7658938494
3100281400.0 -0.6269094315 0.7750413128
3150281100.0 -0.6152696347 0.7841312241
3200280800.0 -0.6038736821 0.7926184581
3250280500.0 -0.5928457796 0.8005569864
3300280200.0 -0.5814981775 0.8085109779
3350279900.0 -0.5694432809 0.816405182
3400279600.0 -0.5569429173 0.8242528907
3450279300.0 -0.5459976693 0.8313864481
3500279000.0 -0.5340808879 0.838336846
3550278700.0 -0.5219357457 0.8456393673
3600278400.0 -0.5096588926 0.852270702
3650278100.0 -0.496728132 0.8603749755
3700277800.0 -0.484666444 0.8664500363
3750277500.0 -0.4723242713 0.8732062713
3800277200.0 -0.4598363579 0.8797241002
3850276900.0 -0.4478990142 0.8856383547
3900276600.0 -0.4369398352 0.8911633824
3950276300.0 -0.4247213813 0.8972410181
4000276000.0 -0.4129508589 0.9033516405
4050275700.0 -0.4001814141 0.9092545027
4100275400.0 -0.389003723 0.914738668
4150275100.0 -0.3760316142 0.9205452421
4200274800.0 -0.3626526717 0.9261764946
4250274500.0 -0.3503526736 0.9313762134
4300274200.0 -0.3373081752 0.9365519205
4350273900.0 -0.3232189856 0.9420110933
4400273600.0 -0.3083724874 0.947075409
4450273300.0 -0.2933299682 0.9521830541
4500273000.0 -0.2800015099 0.9563426088
4550272700.0 -0.2659241979 0.9607139555
4600272400.0 -0.2509385927 0.9648351662
4650272100.0 -0.2393946496 0.9680413819
4700271800.0 -0.2263176228 0.9713772837
4750271500.0 -0.2146208879 0.9741283923
4800271200.0 -0.202271866 0.9767521721
4850270900.0 -0.1883772484 0.9797496986
4900270600.0 -0.1745831919 0.982195172
4950270300.0 -0.1602093702 0.9848621925
5000270000.0 -0.1456845416 0.986690833
5050269700.0 -0.1323193549 0.9882115017
5100269400.0 -0.1182548228 0.9900708189
5150269100.0 -0.1046762566 0.991739118
5200268800.0 -0.0913896728 0.9928873233
5250268500.0 -0.0784139228 0.9938320436
5300268200.0 -0.0647846653 0.994271142
5350267900.0 -0.0520883238 0.9951377915
5400267600.0 -0.0361331205 0.9962210411
5450267300.0 -0.0227762876 0.9964889338
5500267000.0 -0.0074478015 0.9970169524
5550266700.0 0.0074686255 0.9971191675
5600266400.0 0.0229742016 0.9972289556
5650266100.0 0.0396337008 0.9968550026
5700265800.0 0.0539623918 0.9961012312
5750265500.0 0.0690402818 0.9955119419
5800265200.0 0.0826209943 0.994073435
5850264900.0 0.0959137723 0.9935158193
5900264600.0 0.1125085643 0.9913877473
5950264300.0 0.1242815101 0.9898579165
6000264000.0 0.1381940142 0.9882594917
6050263700.0 0.1502393672 0.9868888342
6100263400.0 0.1623907685 0.9851759941
6150263100.0 0.1769906845 0.98278954
6200262800.0 0.1869119972 0.9809193329
6250262500.0 0.199470039 0.9786283635
6300262200.0 0.2119193066 0.9761047831
6350261900.0 0.2248872592 0.9730754262
6400261600.0 0.2386309719 0.9699815564
6450261300.0 0.2501202721 0.9673426686
6500261000.0 0.2630496986 0.9637847968
6550260700.0 0.2759163566 0.9597067932
6600260400.0 0.2895229275 0.9558122175
6650260100.0 0.3036808828 0.9516021805
6700259800.0 0.3157035613 0.9470315648
6750259500.0 0.3297012014 0.9421133133
6800259200.0 0.342387166 0.9370263443
6850258900.0 0.3550264597 0.9317055212
6900258600.0 0.3676634012 0.9268421947
6950258300.0 0.3798602316 0.9214363343
7000258000.0 0.3916053822 0.9161680326
7050257700.0 0.4038251623 0.9102147318
7100257400.0 0.4170684358 0.9039608267
7150257100.0 0.4274750851 0.8984714196
7200256800.0 0.44041742 0.8919233775
7250256500.0 0.4527963534 0.8857204505
7300256200.0 0.4657984196 0.8788009745
7350255900.0 0.4783369087 0.8719140236
7400255600.0 0.492376262 0.8645987547
7450255300.0 0.5080081162 0.855428537
7500255000.0 0.5196018317 0.8477481368
7550254700.0 0.5337422139 0.8391908416
7600254400.0 0.5463554319 0.830798988
7650254100.0 0.5577688961 0.8230614841
7700253800.0 0.569544387 0.8151036743
7750253500.0 0.5808830877 0.8072993622
7800253200.0 0.5912140191 0.7995876446
7850252900.0 0.6011732025 0.7926445902
7900252600.0 0.6126635942 0.7838012794
7950252300.0 0.6212224202 0.7772617951
8000252000.0 0.6313178994 0.769787606
8050251700.0 0.6418799052 0.7614205234
8100251400.0 0.6519518185 0.7533423492
8150251100.0 0.6615823412 0.7448868014
8200250800.0 0.6711073895 0.7369221313
8250250500.0 0.6800660164 0.7290315913
8300250200.0 0.6888056021 0.7203853029
8350249900.0 0.6982546504 0.7115640204
8400249600.0 0.7064839448 0.7037147434
8450249300.0 0.7155275688 0.6945879232
8500249000.0 0.7240512797 0.6859153144
8550248700.0 0.7323501634 0.6768920086
8600248400.0 0.7406473682 0.6672959134
8650248100.0 0.7484491114 0.657879661
8700247800.0 0.757832172 0.6468567234
8750247500.0 0.7660910691 0.6366636949
8800247200.0 0.774013336 0.6262747159
8850246900.0 0.7828553422 0.6149603603
8900246600.0 0.7913646223 0.6036334654
8950246300.0 0.8008455956 0.5908302769
9000246000.0 0.8093593895 0.5787470806
9050245700.0 0.8183370887 0.5658230019
9100245400.0 0.826589895 0.5537015964
9150245100.0 0.8360043447 0.5405390229
9200244800.0 0.8452402534 0.525981019
9250244500.0 0.8546343002 0.5108992135
9300244200.0 0.8628029333 0.4966983713
9350243900.0 0.8704200683 0.4832857482
9400243600.0 0.8772148259 0.4712651931
9450243300.0 0.8828911151 0.4603706171
9500243000.0 0.8890712128 0.448468575
9550242700.0 0.8931200335 0.4408486741
9600242400.0 0.8970707682 0.4335007501
9650242100.0 0.9011976272 0.4264999716
9700241800.0 0.9059506678 0.4182613736
9750241500.0 0.9102154673 0.4105488368
9800241200.0 0.9153148536 0.4010004374
9850240900.0 0.9205159028 0.3894841977
9900240600.0 0.9263879763 0.3779527819
9950240300.0 0.9334845614 0.3611225702
10000240000.0 0.93852595 0.3494415246
10050239700.0 0.9440048137 0.3339050963
10100239400.0 0.9495851034 0.3176578491
10150239100.0 0.9537905308 0.3027118456
10200238800.0 0.958220974 0.2872209751
10250238500.0 0.9615530855 0.2736067662
10300238200.0 0.9645825849 0.2598231569
10350237900.0 0.9674125884 0.2463995134
10400237600.0 0.96978465 0.2332702334
10450237300.0 0.9725745576 0.2195268466
10500237000.0 0.9748952517 0.2071549479
10550236700.0 0.9769349492 0.1929868179
10600236400.0 0.9789870372 0.1796672593
10650236100.0 0.9813260547 0.1642553411
10700235800.0 0.9831876224 0.1526465175
10750235500.0 0.9856609624 0.1388155449
10800235200.0 0.9881459259 0.1242195401
10850234900.0 0.9898528601 0.1098828965
10900234600.0 0.991785698 0.0950723073
10950234300.0 0.9934315924 0.0817068145
11000234000.0 0.9954189399 0.0661885478
11050233700.0 0.9971168944 0.0497562924
11100233400.0 0.9986672456 0.0323684315
11150233100.0 0.9997673431 0.0156340873
11200232800.0 1.000604812 -0.0002899845
11250232500.0 1.001883676 -0.0170175673
11300232200.0 1.00183419 -0.0353975829
11350231900.0 1.001829508 -0.0516203189
11400231600.0 1.001648144 -0.0670179681
11450231300.0 1.001371189 -0.0842202074
11500231000.0 1.000073355 -0.0992036241
11550230700.0 0.9983084906 -0.1113005877
11600230400.0 0.9973250076 -0.1247326062
11650230100.0 0.9946945018 -0.1367284817
11700229800.0 0.9927956382 -0.1510793098
11750229500.0 0.9904054619 -0.1650857066
11800229200.0 0.9877617044 -0.1788630058
11850228900.0 0.9841013028 -0.1907760691
11900228600.0 0.9806683532 -0.2006602212
11950228300.0 0.9771393097 -0.210490998
12000228000.0 0.9743140671 -0.2195601635
12050227700.0 0.9706822482 -0.2321475967
12100227400.0 0.9676580719 -0.2431018648
12150227100.0 0.9620458848 -0.2598076795
12200226800.0 0.9593329713 -0.2708164014
12250226500.0 0.9541833608 -0.283843594
12300226200.0 0.9508655942 -0.2961185346
12350225900.0 0.9453991344 -0.3099974496
12400225600.0 0.9413295137 -0.322204102
12450225300.0 0.9366547288 -0.3353034113
12500225000.0 0.9313983717 -0.3502649809
12550224700.0 0.9258982672 -0.3639235549
12600224400.0 0.9208792388 -0.3766690747
12650224100.0 0.9151946098 -0.3909602888
12700223800.0 0.9098434891 -0.403833853
12750223500.0 0.904275478 -0.4169075744
12800223200.0 0.8990350249 -0.4295330352
12850222900.0 0.8936552874 -0.4419433533
12900222600.0 0.8880390553 -0.4536553745
12950222300.0 0.8818254223 -0.4661887736
13000222000.0 0.8758322632 -0.4782281277
13050221700.0 0.8692319103 -0.4910966261
13100221400.0 0.8625968101 -0.5028939415
13150221100.0 0.8553451901 -0.5147695135
13200220800.0 0.8485719164 -0.5265543512
13250220500.0 0.841294696 -0.5385845275
13300220200.0 0.8338635174 -0.5493146761
13350219900.0 0.8258773668 -0.5613097519
13400219600.0 0.8176793491 -0.5732933374
13450219300.0 0.8085300556 -0.5864687977
13500219000.0 0.7983668827 -0.5998425145
13550218700.0 0.7885834128 -0.6127257241
13600218400.0 0.7781461992 -0.6244843073
13650218100.0 0.768467219 -0.635356495
13700217800.0 0.758580577 -0.64700583
13750217500.0 0.7478812501 -0.658734285
13800217200.0 0.7370437756 -0.6697371445
13850216900.0 0.7256746987 -0.6805530585
13900216600.0 0.7161992467 -0.6897996128
13950216300.0 0.705643577 -0.7002077738
14000216000.0 0.6959859205 -0.7094612719
14050215700.0 0.6864188061 -0.7176069517
14100215400.0 0.6765902067 -0.726367133
14150215100.0 0.6675307273 -0.7354477006
14200214800.0 0.6580124552 -0.7442468248
14250214500.0 0.6476127111 -0.7535678763
14300214200.0 0.6370675358 -0.7630849988
14350213900.0 0.6259250717 -0.7726805335
14400213600.0 0.6142565325 -0.7825748951
14450213300.0 0.6013001182 -0.7925817227
14500213000.0 0.5878216149 -0.8018375937
14550212700.0 0.5756123759 -0.8119382795
14600212400.0 0.5635156799 -0.8209173986
14650212100.0 0.5504669586 -0.8298579269
14700211800.0 0.5365186808 -0.8392756921
14750211500.0 0.5250527427 -0.8475020013
14800211200.0 0.5122023117 -0.8554450187
14850210900.0 0.4999458777 -0.8630031384
14900210600.0 0.4866969387 -0.8709965092
14950210300.0 0.4733273991 -0.8784740823
15000210000.0 0.4609026227 -0.8854698281
15050209700.0 0.4485980413 -0.891520885
15100209400.0 0.4355338497 -0.8976009392
15150209100.0 0.4236134092 -0.9026590725
15200208800.0 0.4108751864 -0.9082435567
15250208500.0 0.3990896525 -0.9127394646
15300208200.0 0.3876444285 -0.9175782437
15350207900.0 0.3738275858 -0.9216851095
15400207600.0 0.3596196331 -0.928296311
15450207300.0 0.3451535047 -0.9326192342
15500207000.0 0.3306837673 -0.9370980122
15550206700.0 0.315538354 -0.9417221697
15600206400.0 0.2998229864 -0.9464565721
15650206100.0 0.2841580063 -0.950721689
15700205800.0 0.2702918272 -0.9543407938
15750205500.0 0.2558057288 -0.9579127066
15800205200.0 0.2416020344 -0.9613958537
15850204900.0 0.227579908 -0.9650310545
15900204600.0 0.2124176365 -0.9684350475
15950204300.0 0.1981214612 -0.9714634871
16000204000.0 0.183697431 -0.9744888938
16050203700.0 0.1687286706 -0.9777085201
16100203400.0 0.1535986469 -0.9795761442
16150203100.0 0.139399548 -0.9820907662
16200202800.0 0.1248028953 -0.9844586655
16250202500.0 0.1104978562 -0.9858472375
16300202200.0 0.0950772992 -0.9877582255
16350201900.0 0.080057597 -0.9889128763
16400201600.0 0.0652998138 -0.9903966262
16450201300.0 0.0499333269 -0.9911877181
16500201000.0 0.0329855106 -0.9921688983
16550200700.0 0.0172613723 -0.9927351422
16600200400.0 0.0014785226 -0.9930059505
16650200100.0 -0.0147723257 -0.9928292964
16700199800.0 -0.0311571831 -0.9924498296
16750199500.0 -0.049685816 -0.9917110131
16800199200.0 -0.0657162375 -0.9910341712
16850198900.0 -0.0807459779 -0.989332054
16900198600.0 -0.0951176148 -0.9883428642
16950198300.0 -0.108848277 -0.9875434741
17000198000.0 -0.1218812658 -0.9857941783
17050197700.0 -0.1344653922 -0.9839936917
17100197400.0 -0.1470783728 -0.981778529
17150197100.0 -0.1595553127 -0.9801075531
17200196800.0 -0.1728337697 -0.9781432796
17250196500.0 -0.1856457698 -0.9756561406
17300196200.0 -0.1978504144 -0.9733828458
17350195900.0 -0.209736209 -0.9708450494
17400195600.0 -0.2216215375 -0.9684608421
17450195300.0 -0.2345494891 -0.9656913888
17500195000.0 -0.2479912217 -0.9623924738
17550194700.0 -0.262130323 -0.9587736074
17600194400.0 -0.275763233 -0.9548443494
17650194100.0 -0.289254186 -0.9507029879
17700193800.0 -0.3022967767 -0.9465299848
17750193500.0 -0.3166059711 -0.9417062655
17800193200.0 -0.3312161967 -0.9367731243
17850192900.0 -0.3461900503 -0.9314055297
17900192600.0 -0.3611236654 -0.9254207497
17950192300.0 -0.3767327116 -0.9183361313
18000192000.0 -0.3914245689 -0.9108338695
18050191700.0 -0.4053119607 -0.9030840627
18100191400.0 -0.4195772334 -0.8953429266
18150191100.0 -0.4345100607 -0.8875932701
18200190800.0 -0.451417424 -0.8784356451
18250190500.0 -0.468290509 -0.86877008
18300190200.0 -0.4841787983 -0.8602304492
18350189900.0 -0.498807583 -0.851876278
18400189600.0 -0.513361377 -0.8435748423
18450189300.0 -0.5266825851 -0.8353317254
18500189000.0 -0.5401724431 -0.8276170263
18550188700.0 -0.5527590399 -0.8195821702
18600188400.0 -0.5645009269 -0.8127575178
18650188100.0 -0.5755974454 -0.8064558509
18700187800.0 -0.5867685901 -0.8000444639
18750187500.0 -0.5974108093 -0.7933376577
18800187200.0 -0.6079068406 -0.7863993716
18850186900.0 -0.6181328498 -0.7793940258
18900186600.0 -0.6284072882 -0.7721061067
18950186300.0 -0.6385768636 -0.7644093676
19000186000.0 -0.645776839 -0.7583556622
19050185700.0 -0.6554373756 -0.7508192566
19100185400.0 -0.665048987 -0.7425259434
19150185100.0 -0.6751662455 -0.7341670376
19200184800.0 -0.6848264003 -0.7258447142
19250184500.0 -0.6953750856 -0.7162711198
19300184200.0 -0.7067223466 -0.7076846709
19350183900.0 -0.7174166645 -0.6976248228
19400183600.0 -0.726464615 -0.6877175934
19450183300.0 -0.7360017533 -0.6777257644
19500183000.0 -0.7444440278 -0.6672531802
19550182700.0 -0.753908242 -0.6561468785
19600182400.0 -0.7649324057 -0.6448143754
19650182100.0 -0.7751811302 -0.6324936625
19700181800.0 -0.7855029073 -0.6190892093
19750181500.0 -0.7961912082 -0.6049274454
19800181200.0 -0.8064037022 -0.5900192323
19850180900.0 -0.8160542932 -0.5747194533
19900180600.0 -0.82389031 -0.560119625
19950180300.0 -0.8329083855 -0.5437812874
20000180000.0 -0.8251578711 -0.5470665282
20050179700.0 -0.8331020732 -0.5335280522
20100179400.0 -0.8418737668 -0.5205223556
20150179100.0 -0.8488217075 -0.5083551469
20200178800.0 -0.8574435322 -0.4964511769
20250178500.0 -0.866754786 -0.4829348096
20300178200.0 -0.8765719008 -0.4690545018
20350177900.0 -0.8858549364 -0.4552448847
20400177600.0 -0.8949726882 -0.441028005
20450177300.0 -0.9033214136 -0.426816616
20500177000.0 -0.9112353811 -0.4126169501
20550176700.0 -0.9191965108 -0.3990918059
20600176400.0 -0.9264400121 -0.3862364281
20650176100.0 -0.932667458 -0.3737975366
20700175800.0 -0.9391554729 -0.3622940936
20750175500.0 -0.9456209536 -0.3495972755
20800175200.0 -0.9502892768 -0.3399285715
20850174900.0 -0.9554073468 -0.329495344
20900174600.0 -0.9598615871 -0.3180364777
20950174300.0 -0.962944694 -0.3069260353
21000174000.0 -0.9663817077 -0.2954001593
21050173700.0 -0.9690709061 -0.285019409
21100173400.0 -0.9722794277 -0.2742113437
21150173100.0 -0.9762280393 -0.2617858015
21200172800.0 -0.9797352229 -0.2486389592
21250172500.0 -0.9830910658 -0.2348186654
21300172200.0 -0.9865199685 -0.2209218537
21350171900.0 -0.9881790153 -0.2064131796
21400171600.0 -0.9901185249 -0.1923852096
21450171300.0 -0.9902899205 -0.1783251706
21500171000.0 -0.9910321239 -0.1624298017
21550170700.0 -0.9907118487 -0.1481391637
21600170400.0 -0.9922373953 -0.1318102823
21650170100.0 -0.9910963078 -0.1159425859
21700169800.0 -0.9895674815 -0.1017370768
21750169500.0 -0.9897204123 -0.0851590242
21800169200.0 -0.9882058751 -0.068854082
21850168900.0 -0.9894700301 -0.0516628748
21900168600.0 -0.9877669481 -0.0357204066
21950168300.0 -0.9869191471 -0.0200962831
22000168000.0 -0.9865096927 -0.005022036
22050167700.0 -0.9869671626 0.0095202995
22100167400.0 -0.9871768625 0.0254072773
22150167100.0 -0.9884019544 0.0409771581
22200166800.0 -0.9886554285 0.0573673269
22250166500.0 -0.9873100139 0.0746354575
22300166200.0 -0.9869470296 0.0917832314
22350165900.0 -0.9862821186 0.1076514653
22400165600.0 -0.9856791823 0.1235003434
22450165300.0 -0.9833896021 0.1393327582
22500165000.0 -0.9812924558 0.1520501258
22550164700.0 -0.980122059 0.1682931167
22600164400.0 -0.9781398516 0.1836908476
22650164100.0 -0.9757731106 0.1997320209
22700163800.0 -0.9721303728 0.2149112876
22750163500.0 -0.9693107355 0.2301442351
22800163200.0 -0.966570419 0.2433301235
22850162900.0 -0.9642521138 0.2566660594
22900162600.0 -0.96259384 0.2706502009
22950162300.0 -0.9611410415 0.2838734834
23000162000.0 -0.959767717 0.2962235026
23050161700.0 -0.9572373489 0.3092819384
23100161400.0 -0.9546752622 0.3224174168
23150161100.0 -0.9516762984 0.3345005079
23200160800.0 -0.9491943465 0.3477503478
23250160500.0 -0.9465942372 0.3592534966
23300160200.0 -0.9440054077 0.3723481516
23350159900.0 -0.9395427523 0.3856965876
23400159600.0 -0.9342846048 0.3991101902
23450159300.0 -0.9298832492 0.4125680775
23500159000.0 -0.9251545702 0.4263864194
23550158700.0 -0.9200170731 0.4398301371
23600158400.0 -0.9143700304 0.4535526228
23650158100.0 -0.9074796281 0.4679570928
23700157800.0 -0.8993730967 0.4822019148
23750157500.0 -0.8903935605 0.4962113396
23800157200.0 -0.8811852731 0.5094028377
23850156900.0 -0.872049344 0.5226266047
23900156600.0 -0.8620185702 0.5349098959
23950156300.0 -0.8520612163 0.547226145
24000156000.0 -0.8432059726 0.5601133021
24050155700.0 -0.8330441403 0.5711856996
24100155400.0 -0.8228963984 0.5842288949
24150155100.0 -0.8118587943 0.5963885559
24200154800.0 -0.8009827156 0.6071439552
24250154500.0 -0.7896239497 0.619360284
24300154200.0 -0.7785687413 0.6315355398
24350153900.0 -0.7663384238 0.6422798781
24400153600.0 -0.7542988837 0.6528782019
24450153300.0 -0.7420313556 0.662898985
24500153000.0 -0.7307276782 0.6729956857
24550152700.0 -0.7193910089 0.6825232341
24600152400.0 -0.7074757643 0.6921798481
24650152100.0 -0.6955177854 0.7003948395
