!Created with skrf (http://scikit-rf.org).
# Hz S RI R 50.0 
!freq ReS11 ImS11
300000.0 -0.9827047698 -0.0940776009
50299700.0 -1.000004025 0.0164227385
100299400.0 -0.998133708 0.0292813087
150299100.0 -1.002818581 0.0462521876
200298800.0 -0.999697885 0.0595049257
250298500.0 -0.9974301781 0.0730957285
300298200.0 -0.9860027621 0.0886571866
350297900.0 -0.9939252041 0.099529164
400297600.0 -0.9931261627 0.1163629449
450297300.0 -0.990779273 0.1300861719
500297000.0 -0.989476321 0.1447964034
550296700.0 -0.9841436442 0.1571849135
600296400.0 -1.017261964 0.1908084168
650296100.0 -0.9820482762 0.1872230802
700295800.0 -0.9791968973 0.2015063673
750295500.0 -0.9760952608 0.2156557788
800295200.0 -0.9725657634 0.2298744645
850294900.0 -0.9695179039 0.2435730232
900294600.0 -0.9654445656 0.2571970489
950294300.0 -0.9618089969 0.2708403692
1000294000.0 -0.9578270382 0.2849127315
1050293700.0 -0.9530841306 0.2989227449
1100293400.0 -0.9488431692 0.3131677351
1150293100.0 -0.9448826039 0.3250369983
1200292800.0 -0.9396483952 0.3394534324
1250292500.0 -0.9341767705 0.3526640115
1300292200.0 -0.9285466198 0.3659545074
1350291900.0 -0.9231154288 0.3800622066
1400291600.0 -0.9172285566 0.3930327503
1450291300.0 -0.9119071433 0.4053324679
1500291000.0 -0.9056982579 0.4186099545
1550290700.0 -0.8993493008 0.4319157525
1600290400.0 -0.8929623329 0.4448361885
1650290100.0 -0.8864304615 0.4569654138
1700289800.0 -0.8794255251 0.4704667914
1750289500.0 -0.8723334788 0.4827728171
1800289200.0 -0.8649476875 0.4955639416
1850288900.0 -0.8585618059 0.5068555311
1900288600.0 -0.8504268651 0.5198633406
1950288300.0 -0.8423427375 0.5326770119
2000288000.0 -0.8348250431 0.5439540057
2050287700.0 -0.826915418 0.5564524187
2100287400.0 -0.8186694701 0.5678350163
2150287100.0 -0.8100933054 0.5799855473
2200286800.0 -0.8023395678 0.5902997325
2250286500.0 -0.7935602916 0.6024840476
2300286200.0 -0.7846020683 0.6140489217
2350285900.0 -0.7756802227 0.625052385
2400285600.0 -0.7664604366 0.6360858453
2450285300.0 -0.7581581109 0.646407945
2500285000.0 -0.7483142486 0.6576128712
2550284700.0 -0.7392757944 0.668092864
2600284400.0 -0.7299085133 0.6783484073
2650284100.0 -0.720832719 0.6886282118
2700283800.0 -0.7103018975 0.699533419
2750283500.0 -0.6998400365 0.7097922865
2800283200.0 -0.6902173912 0.7196666447
2850282900.0 -0.6798489859 0.7293092293
2900282600.0 -0.6696611697 0.7390426677
2950282300.0 -0.6595319095 0.7482880189
3000282000.0 -0.6486926121 0.7577569905
3050281700.0 -0.6374285462 0.7667965365
3100281400.0 -0.6257238237 0.7760494144
3150281100.0 -0.614087689 0.7853648129
3200280800.0 -0.602311348 0.7938151228
3250280500.0 -0.5917041307 0.8016826981
3300280200.0 -0.5805442456 0.8094539697
3350279900.0 -0.5692257239 0.8171675635
3400279600.0 -0.5568625278 0.8246750022
3450279300.0 -0.5459883653 0.8318652181
3500279000.0 -0.53377362 0.8389378358
3550278700.0 -0.5214312817 0.8462828562
3600278400.0 -0.5090228527 0.8532698045
3650278100.0 -0.4958912183 0.861060158
3700277800.0 -0.4838814754 0.8674198472
3750277500.0 -0.4715760174 0.8739571924
3800277200.0 -0.4590018601 0.8805168868
3850276900.0 -0.4467242518 0.886514292
3900276600.0 -0.4357167611 0.8921817148
3950276300.0 -0.4231461287 0.8983156706
4000276000.0 -0.4112261373 0.9045372605
4050275700.0 -0.3979855345 0.9102023695
4100275400.0 -0.38692657 0.9157955579
4150275100.0 -0.3736880674 0.9213223262
4200274800.0 -0.3610012737 0.9269824983
4250274500.0 -0.3485131561 0.9320917355
4300274200.0 -0.3355459061 0.9371715688
4350273900.0 -0.3218834572 0.9422785596
4400273600.0 -0.3070005489 0.9474735256
4450273300.0 -0.291702425 0.9525135676
4500273000.0 -0.2780643048 0.9570583873
4550272700.0 -0.2639160917 0.9611032553
4600272400.0 -0.2485755739 0.9653590842
4650272100.0 -0.2367461701 0.9684097348
4700271800.0 -0.2233088923 0.9717789185
4750271500.0 -0.211646542 0.9747594716
4800271200.0 -0.1991735154 0.9773855646
4850270900.0 -0.185282653 0.9801885084
4900270600.0 -0.1713942517 0.9826549907
4950270300.0 -0.1572639604 0.985011058
5000270000.0 -0.1431573569 0.9870367988
5050269700.0 -0.1296764246 0.9890520987
5100269400.0 -0.1161679557 0.9902318474
5150269100.0 -0.1028875778 0.9922269042
5200268800.0 -0.0896658969 0.9929560996
5250268500.0 -0.0763199395 0.994193389
5300268200.0 -0.0634498387 0.9946506273
5350267900.0 -0.0513477202 0.9955057688
5400267600.0 -0.0350920678 0.9965192568
5450267300.0 -0.0219434541 0.9970320877
5500267000.0 -0.0070599761 0.9969337253
5550266700.0 0.0077638132 0.9974820974
5600266400.0 0.0231978853 0.9974281858
5650266100.0 0.0395377712 0.9967586379
5700265800.0 0.0540620869 0.9959418477
5750265500.0 0.0694924796 0.9954974255
5800265200.0 0.0832937233 0.9938305962
5850264900.0 0.0966538185 0.9929764894
5900264600.0 0.1130807404 0.9911608755
5950264300.0 0.1256252274 0.9901980226
6000264000.0 0.1396959963 0.9880254523
6050263700.0 0.1521908223 0.9865864846
6100263400.0 0.1646967835 0.9843418717
6150263100.0 0.1788593231 0.9819592661
6200262800.0 0.1899795614 0.9802212882
6250262500.0 0.2028373392 0.9778060269
6300262200.0 0.2155890625 0.974858817
6350261900.0 0.2286055379 0.9718450643
6400261600.0 0.2425409705 0.9685156528
6450261300.0 0.2537776829 0.9657559096
6500261000.0 0.2664963746 0.9623095943
6550260700.0 0.2794406199 0.9583570935
6600260400.0 0.2930242747 0.954438505
6650260100.0 0.3069475163 0.9503220974
6700259800.0 0.3190201726 0.9461828326
6750259500.0 0.3327019493 0.9411832985
6800259200.0 0.3458162469 0.936147913
6850258900.0 0.3575478104 0.930852458
6900258600.0 0.369576147 0.9259079885
6950258300.0 0.381880287 0.9206246894
7000258000.0 0.3942838689 0.9153280777
7050257700.0 0.4063542127 0.9093920408
7100257400.0 0.4191226981 0.9030987508
7150257100.0 0.4296709036 0.8979740123
7200256800.0 0.4422180636 0.8915970139
7250256500.0 0.4541847599 0.8851269989
7300256200.0 0.4667554109 0.8784090389
7350255900.0 0.4794536197 0.8712845113
7400255600.0 0.4925198043 0.8645472777
7450255300.0 0.5075622002 0.8556578084
7500255000.0 0.5191578096 0.8486237267
7550254700.0 0.5326751942 0.8399812139
7600254400.0 0.5455712827 0.8315436051
7650254100.0 0.5572852869 0.8239009193
7700253800.0 0.568681042 0.8156577665
7750253500.0 0.5804226757 0.8078763753
7800253200.0 0.5907213163 0.7998328335
7850252900.0 0.6007342067 0.7927896203
7900252600.0 0.6126133447 0.7838842044
7950252300.0 0.6214325867 0.7773271569
8000252000.0 0.6318983586 0.7693397189
8050251700.0 0.6420095117 0.7609130968
8100251400.0 0.6523462601 0.7528959194
8150251100.0 0.662617874 0.7439407385
8200250800.0 0.6717530796 0.7361025535
8250250500.0 0.6810915928 0.7278882014
8300250200.0 0.6903748909 0.7192109467
8350249900.0 0.6992829612 0.7105543339
8400249600.0 0.7078933846 0.7025613822
8450249300.0 0.7169284648 0.6930747619
8500249000.0 0.7254451565 0.6843835981
8550248700.0 0.7339527927 0.6750798232
8600248400.0 0.7423068966 0.6658253686
8650248100.0 0.7498173209 0.656419857
8700247800.0 0.7594885036 0.6452764649
8750247500.0 0.7676761967 0.6353541491
8800247200.0 0.775652132 0.6252125073
8850246900.0 0.7845184248 0.6137348973
8900246600.0 0.7928211289 0.6026519113
8950246300.0 0.802597195 0.5895925111
9000246000.0 0.8117236949 0.577244598
9050245700.0 0.8204061476 0.5646624018
9100245400.0 0.8292090111 0.5518680172
9150245100.0 0.8380690742 0.5385029311
9200244800.0 0.8477727718 0.5235349751
9250244500.0 0.8569743725 0.508150705
9300244200.0 0.8655758852 0.4934374106
9350243900.0 0.873166478 0.4795186291
9400243600.0 0.8802120789 0.4669092538
9450243300.0 0.8861445973 0.4549786027
9500243000.0 0.8923419666 0.4424324337
9550242700.0 0.8963234767 0.4345214393
9600242400.0 0.9001965284 0.4266180358
9650242100.0 0.9039393744 0.4197080351
9700241800.0 0.9086216783 0.4111702163
9750241500.0 0.9123909661 0.403691178
9800241200.0 0.9172196401 0.3943876086
9850240900.0 0.9226464351 0.3826169473
9900240600.0 0.9282314142 0.3711073397
9950240300.0 0.9348138129 0.354923292
10000240000.0 0.9390611751 0.343740909
10050239700.0 0.9450171192 0.328356519
10100239400.0 0.9498150874 0.3129756106
10150239100.0 0.9541264199 0.2982683122
10200238800.0 0.958435193 0.2835219874
10250238500.0 0.9618112044 0.2701440463
10300238200.0 0.9649585142 0.2561828354
10350237900.0 0.9675563372 0.2432523822
10400237600.0 0.9702046854 0.229997486
10450237300.0 0.9728719151 0.2164631332
10500237000.0 0.9753021892 0.2043266607
10550236700.0 0.9774647089 0.1908381169
10600236400.0 0.9795427963 0.1777050719
10650236100.0 0.9818774809 0.1624910852
10700235800.0 0.983930141 0.1504998304
10750235500.0 0.9858465067 0.1373607511
10800235200.0 0.9877353216 0.1238056051
10850234900.0 0.9896627765 0.10906469
10900234600.0 0.991836213 0.0943945628
10950234300.0 0.9934947899 0.0812898309
11000234000.0 0.9951772503 0.0662096679
11050233700.0 0.996772461 0.0500688903
11100233400.0 0.9983260877 0.0324908239
11150233100.0 0.9991855983 0.0169913446
11200232800.0 0.9999763955 0.0013898615
11250232500.0 1.000890476 -0.0152183899
11300232200.0 1.000948348 -0.0325901063
11350231900.0 1.00100375 -0.049437683
11400231600.0 1.001049045 -0.0649886158
11450231300.0 1.000214241 -0.0799757689
11500231000.0 0.9989238362 -0.0965685106
11550230700.0 0.997041216 -0.1103893948
11600230400.0 0.9963126617 -0.1232207078
11650230100.0 0.9939672619 -0.1349637678
11700229800.0 0.9919457721 -0.14951475
11750229500.0 0.9895557966 -0.164737005
11800229200.0 0.9866529175 -0.1783948764
11850228900.0 0.9833912867 -0.1911266046
11900228600.0 0.9798980492 -0.2012911988
11950228300.0 0.9766879735 -0.2116734704
12000228000.0 0.9737669682 -0.2212258432
12050227700.0 0.9706665705 -0.2335987336
12100227400.0 0.9676079436 -0.2448177854
12150227100.0 0.9625601639 -0.2610456993
12200226800.0 0.9588435118 -0.2724067668
12250226500.0 0.9549471349 -0.2845064705
12300226200.0 0.9508822845 -0.2968061351
12350225900.0 0.9459086171 -0.3106644373
12400225600.0 0.9411688905 -0.3232146014
12450225300.0 0.9376862096 -0.3356406023
12500225000.0 0.9318545502 -0.3503120745
12550224700.0 0.9266761208 -0.3638812078
12600224400.0 0.9218156837 -0.3763969228
12650224100.0 0.9158813794 -0.3903215721
12700223800.0 0.9108115153 -0.4030383795
12750223500.0 0.9052745759 -0.4158740745
12800223200.0 0.8998002716 -0.4285505392
12850222900.0 0.8944690633 -0.4407552335
12900222600.0 0.888948991 -0.4525472948
12950222300.0 0.8821534559 -0.4656500068
13000222000.0 0.8763502762 -0.4772908252
13050221700.0 0.869402813 -0.4897850054
13100221400.0 0.8628411979 -0.5021197364
13150221100.0 0.8556566268 -0.5147314905
13200220800.0 0.848417851 -0.5262391359
13250220500.0 0.8410684245 -0.5381465232
13300220200.0 0.8337485409 -0.5492443703
13350219900.0 0.8253969825 -0.5616033365
13400219600.0 0.8170564504 -0.5738029102
13450219300.0 0.8074909892 -0.5873561278
13500219000.0 0.7970982053 -0.6013225892
13550218700.0 0.7869036771 -0.6140475064
13600218400.0 0.7766539161 -0.625941256
13650218100.0 0.7670788181 -0.6373825908
13700217800.0 0.7555112402 -0.6499732604
13750217500.0 0.7454208552 -0.6616773946
13800217200.0 0.7354637303 -0.6728052437
13850216900.0 0.7227263504 -0.6850673757
13900216600.0 0.71369396 -0.6928720667
13950216300.0 0.7035816449 -0.7036842532
14000216000.0 0.6935197034 -0.712308893
14050215700.0 0.6838256919 -0.7202625084
14100215400.0 0.6734376081 -0.7299548831
14150215100.0 0.6648724757 -0.7380192186
14200214800.0 0.6556115567 -0.7465582935
14250214500.0 0.6454567509 -0.7558470596
14300214200.0 0.63537547 -0.7650712171
14350213900.0 0.6244229958 -0.7744020916
14400213600.0 0.6127627853 -0.7843670099
14450213300.0 0.5998063168 -0.7940804062
14500213000.0 0.5869287555 -0.8035425787
14550212700.0 0.5739264727 -0.8135431753
14600212400.0 0.5616974648 -0.8220914702
14650212100.0 0.5496301917 -0.830791087
14700211800.0 0.5352122998 -0.8401380003
14750211500.0 0.5228745782 -0.847957685
14800211200.0 0.510594666 -0.855982627
14850210900.0 0.4983264353 -0.8637874016
14900210600.0 0.4848308564 -0.8715929958
14950210300.0 0.4714467014 -0.8792290548
15000210000.0 0.4586582429 -0.8861435235
15050209700.0 0.4456129253 -0.8921392334
15100209400.0 0.4328728913 -0.8984949844
15150209100.0 0.4203896431 -0.9043882889
15200208800.0 0.4072671579 -0.9098129153
15250208500.0 0.395576522 -0.91393448
15300208200.0 0.3834007038 -0.9188878162
15350207900.0 0.3704077949 -0.9240584573
15400207600.0 0.3550920481 -0.9293178676
15450207300.0 0.3400595531 -0.93403576
15500207000.0 0.3255886163 -0.9386606886
15550206700.0 0.31176197 -0.9438970353
15600206400.0 0.2949190663 -0.9487079582
15650206100.0 0.2793204308 -0.9521663939
15700205800.0 0.2655009532 -0.9561704517
15750205500.0 0.2514034961 -0.9595068622
15800205200.0 0.236952382 -0.9630543208
15850204900.0 0.2224983998 -0.9665565172
15900204600.0 0.2075038354 -0.9699758185
15950204300.0 0.1937989787 -0.9729270106
16000204000.0 0.1796934205 -0.9754267441
16050203700.0 0.165402988 -0.9783587712
16100203400.0 0.1508092781 -0.9805898243
16150203100.0 0.1362571393 -0.9826616966
16200202800.0 0.1228615356 -0.9848087964
16250202500.0 0.108339721 -0.9860640284
16300202200.0 0.0934806195 -0.9876982153
16350201900.0 0.0783522583 -0.9892954939
16400201600.0 0.0635879308 -0.9903025196
16450201300.0 0.0487975231 -0.9911336182
16500201000.0 0.0322615414 -0.992154707
16550200700.0 0.0165963647 -0.9926168106
16600200400.0 0.0007110132 -0.9927008136
16650200100.0 -0.0156868295 -0.9925737349
16700199800.0 -0.0326623554 -0.9924058066
16750199500.0 -0.0509627669 -0.9918605003
16800199200.0 -0.0669274602 -0.9906312234
16850198900.0 -0.0823559232 -0.9893502517
16900198600.0 -0.0964425586 -0.9879680654
16950198300.0 -0.1096760338 -0.9872071086
17000198000.0 -0.1233126614 -0.9860028932
17050197700.0 -0.135780321 -0.9839925304
17100197400.0 -0.1492083303 -0.9817603359
17150197100.0 -0.1617381016 -0.9799657358
17200196800.0 -0.1744149722 -0.977558044
17250196500.0 -0.1879108907 -0.9749960553
17300196200.0 -0.2002215543 -0.9726606457
17350195900.0 -0.2119758059 -0.9704032058
17400195600.0 -0.2242200356 -0.9678575569
17450195300.0 -0.2375777673 -0.9650608496
17500195000.0 -0.2510001492 -0.9615797603
17550194700.0 -0.2645036499 -0.9581833883
17600194400.0 -0.2789864339 -0.9539755231
17650194100.0 -0.2922261708 -0.9498015078
17700193800.0 -0.3051957314 -0.9459470474
17750193500.0 -0.3198064932 -0.9409417164
17800193200.0 -0.3337458423 -0.9357276348
17850192900.0 -0.3482725463 -0.930659639
17900192600.0 -0.3633982507 -0.9241733343
17950192300.0 -0.3787777011 -0.9175143109
18000192000.0 -0.3932680317 -0.9105255147
18050191700.0 -0.4069586082 -0.9027046648
18100191400.0 -0.4210369675 -0.8951972862
18150191100.0 -0.4357559631 -0.8871402683
18200190800.0 -0.4525039018 -0.8782027728
18250190500.0 -0.4694114047 -0.8687481073
18300190200.0 -0.4844759563 -0.8598365258
18350189900.0 -0.4999372669 -0.8515164951
18400189600.0 -0.5141676064 -0.8431741672
18450189300.0 -0.5274191233 -0.8349699993
18500189000.0 -0.5406279505 -0.8270198616
18550188700.0 -0.5541317948 -0.8191934863
18600188400.0 -0.5658217046 -0.8121314739
18650188100.0 -0.5768281322 -0.8056869735
18700187800.0 -0.5877243417 -0.7988515283
18750187500.0 -0.5985326933 -0.7919431186
18800187200.0 -0.6094484652 -0.7846050828
18850186900.0 -0.6200963222 -0.7772538547
18900186600.0 -0.6305248083 -0.7693738559
18950186300.0 -0.6407500672 -0.7617911347
19000186000.0 -0.648023055 -0.7552466774
19050185700.0 -0.657741833 -0.7475079229
19100185400.0 -0.6681047891 -0.7391564927
19150185100.0 -0.6784392689 -0.7299526989
19200184800.0 -0.6875204231 -0.7215451859
19250184500.0 -0.6983087986 -0.7128320651
19300184200.0 -0.7098902621 -0.7033321174
19350183900.0 -0.7204584324 -0.6934679345
19400183600.0 -0.7296771783 -0.6829859776
19450183300.0 -0.7380718156 -0.6735587639
19500183000.0 -0.7471487151 -0.6638505608
19550182700.0 -0.7568480794 -0.6523795077
19600182400.0 -0.7666705318 -0.6414061352
19650182100.0 -0.7772803894 -0.6290653078
19700181800.0 -0.7873708121 -0.615879797
19750181500.0 -0.7976906889 -0.6021591649
19800181200.0 -0.8076826979 -0.5879301101
19850180900.0 -0.8171861586 -0.5727306383
19900180600.0 -0.8249960978 -0.5584792585
19950180300.0 -0.8341729683 -0.5424630376
20000180000.0 -0.8272902358 -0.5445406176
20050179700.0 -0.8359478788 -0.5303851169
20100179400.0 -0.8442160089 -0.5179574092
20150179100.0 -0.8529190576 -0.5055358421
20200178800.0 -0.8609842395 -0.4926668165
20250178500.0 -0.8694681069 -0.4792387566
20300178200.0 -0.8792960585 -0.4645316277
20350177900.0 -0.8879607129 -0.4501557682
20400177600.0 -0.8969375817 -0.4358276401
20450177300.0 -0.9048734673 -0.4215843822
20500177000.0 -0.9126724658 -0.4075390008
20550176700.0 -0.9203882648 -0.3938457112
20600176400.0 -0.9273184917 -0.3806125241
20650176100.0 -0.9335935605 -0.3680209553
20700175800.0 -0.9411686402 -0.3562928132
20750175500.0 -0.9470554749 -0.3436748375
20800175200.0 -0.9520149623 -0.333119819
20850174900.0 -0.9572758845 -0.3215417773
20900174600.0 -0.9610924984 -0.3096418309
20950174300.0 -0.9654548518 -0.297844546
21000174000.0 -0.9693292628 -0.2862149349
21050173700.0 -0.9724305394 -0.2744960445
21100173400.0 -0.9770707307 -0.2622351301
21150173100.0 -0.9805369977 -0.2498602883
21200172800.0 -0.9843720938 -0.2359606845
21250172500.0 -0.9872720467 -0.2223252974
21300172200.0 -0.9900183486 -0.2076957172
21350171900.0 -0.9913065993 -0.1939695519
21400171600.0 -0.9928993068 -0.1790201218
21450171300.0 -0.9938388036 -0.1650827818
21500171000.0 -0.9932639985 -0.1491692309
21550170700.0 -0.9931861396 -0.1342054755
21600170400.0 -0.9931613505 -0.1193986509
21650170100.0 -0.9919888076 -0.1035306608
21700169800.0 -0.9905110228 -0.0887316541
21750169500.0 -0.9895619766 -0.0732551937
21800169200.0 -0.9888740981 -0.0571722563
21850168900.0 -0.9877851151 -0.0394196711
21900168600.0 -0.9855884507 -0.024202661
21950168300.0 -0.9846797175 -0.0085899994
22000168000.0 -0.9830176494 0.0061316053
22050167700.0 -0.9828607879 0.0201506704
22100167400.0 -0.982775871 0.0351572379
22150167100.0 -0.9834996365 0.0505085372
22200166800.0 -0.9831607127 0.0664728239
22250166500.0 -0.9823132134 0.0839619261
22300166200.0 -0.9824638516 0.1001867479
22350165900.0 -0.9808624574 0.1161108359
22400165600.0 -0.9791636367 0.1321706858
22450165300.0 -0.977022226 0.1473067401
22500165000.0 -0.9746787747 0.1597458022
22550164700.0 -0.9741099653 0.1762401669
22600164400.0 -0.9723989401 0.1918262864
22650164100.0 -0.9705438002 0.2061118833
22700163800.0 -0.9672974529 0.2220729439
22750163500.0 -0.9648753844 0.2372796485
22800163200.0 -0.9621428838 0.2507790095
22850162900.0 -0.9594399968 0.264129182
22900162600.0 -0.9579979563 0.2776925905
22950162300.0 -0.9568096491 0.2905674949
23000162000.0 -0.9558265435 0.3027001537
23050161700.0 -0.9537771306 0.3153776446
23100161400.0 -0.9515723921 0.3276712787
23150161100.0 -0.9484336579 0.3397248187
23200160800.0 -0.9459107441 0.3528916757
23250160500.0 -0.9429593797 0.3642917352
23300160200.0 -0.9404522753 0.3759148388
23350159900.0 -0.9365865488 0.3891353271
23400159600.0 -0.9315571415 0.4022744711
23450159300.0 -0.9273300865 0.41542591
23500159000.0 -0.9219594867 0.4278912125
23550158700.0 -0.9181132417 0.4412666008
23600158400.0 -0.9124150519 0.4543304925
23650158100.0 -0.9059422545 0.4676850498
23700157800.0 -0.8987030339 0.4815529725
23750157500.0 -0.890200749 0.495286241
23800157200.0 -0.8811894748 0.5081673315
23850156900.0 -0.8722497832 0.5206835503
23900156600.0 -0.862997356 0.5332397044
23950156300.0 -0.8539248802 0.5461812224
24000156000.0 -0.8445714269 0.5572835044
24050155700.0 -0.8347753249 0.5689659099
24100155400.0 -0.824992272 0.5819598283
24150155100.0 -0.813758616 0.5934175886
24200154800.0 -0.8032270884 0.6050172545
24250154500.0 -0.7920599244 0.6164150872
24300154200.0 -0.7809906128 0.6280401682
24350153900.0 -0.7687633158 0.63920818
24400153600.0 -0.7565944031 0.6495207027
24450153300.0 -0.7448290129 0.6594897798
24500153000.0 -0.7337129352 0.6691109706
24550152700.0 -0.7220149097 0.6787971887
24600152400.0 -0.7110702838 0.6880212418
24650152100.0 -0.69925259 0.6975448353
