!Created with skrf (http://scikit-rf.org).
# Hz S RI R 50.0 
!freq ReS11 ImS11
300000.0 -0.9721397472 -0.1233523092
50299700.0 -1.000040447 0.0148441028
100299400.0 -0.9978632693 0.0278506401
150299100.0 -1.00266705 0.0447798281
200298800.0 -0.9996061398 0.058114476
250298500.0 -0.9973358353 0.0717693061
300298200.0 -0.9859667463 0.0872635989
350297900.0 -0.9939187561 0.0982791537
400297600.0 -0.9931749784 0.1148070515
450297300.0 -0.9910543214 0.1288453955
500297000.0 -0.9892526715 0.1436106965
550296700.0 -0.9842172488 0.1558381523
600296400.0 -1.017510874 0.1891207958
650296100.0 -0.9822755135 0.1857225305
700295800.0 -0.9794384379 0.1998736176
750295500.0 -0.9761612538 0.2137768905
800295200.0 -0.9730567868 0.2281661491
850294900.0 -0.9695855819 0.2418582139
900294600.0 -0.9659963085 0.2556357751
950294300.0 -0.9622938956 0.2691336514
1000294000.0 -0.9581099656 0.2832248203
1050293700.0 -0.9535687702 0.2970337709
1100293400.0 -0.949428597 0.3115584916
1150293100.0 -0.9454860378 0.3233708685
1200292800.0 -0.9402311825 0.337815033
1250292500.0 -0.9349013442 0.3511183596
1300292200.0 -0.9291617686 0.3644989127
1350291900.0 -0.923484459 0.37834808
1400291600.0 -0.918073254 0.3915238392
1450291300.0 -0.9125012889 0.4039285882
1500291000.0 -0.9062199625 0.4173173278
1550290700.0 -0.8997534727 0.4305408314
1600290400.0 -0.8935681228 0.4437453661
1650290100.0 -0.8868331792 0.455675804
1700289800.0 -0.8800414902 0.4694056597
1750289500.0 -0.8728203856 0.4814540247
1800289200.0 -0.8654334321 0.4944316807
1850288900.0 -0.8588272955 0.5056995865
1900288600.0 -0.8509334883 0.5186703715
1950288300.0 -0.8430808586 0.531303572
2000288000.0 -0.8354768879 0.5427957191
2050287700.0 -0.827084339 0.5552150426
2100287400.0 -0.8195246731 0.566662064
2150287100.0 -0.810891811 0.5785781716
2200286800.0 -0.8030080789 0.5891931211
2250286500.0 -0.7939834824 0.6014126855
2300286200.0 -0.7853615651 0.6129207171
2350285900.0 -0.7768497241 0.6233928081
2400285600.0 -0.7680440759 0.6343958206
2450285300.0 -0.7591840881 0.6448825866
2500285000.0 -0.749088306 0.6567647903
2550284700.0 -0.7399898573 0.6670469913
2600284400.0 -0.7309526615 0.6767569883
2650284100.0 -0.7223165969 0.6869811283
2700283800.0 -0.7117850336 0.6975895819
2750283500.0 -0.7018010301 0.7081686114
2800283200.0 -0.6917485884 0.718020237
2850282900.0 -0.6813632105 0.7283088037
2900282600.0 -0.6707210478 0.7376677872
2950282300.0 -0.6603134208 0.7472628102
3000282000.0 -0.6494050298 0.7566110491
3050281700.0 -0.6383790659 0.7659086612
3100281400.0 -0.6266959551 0.7749772318
3150281100.0 -0.6155909454 0.7838566262
3200280800.0 -0.6042996799 0.7922650904
3250280500.0 -0.5931942474 0.8002793679
3300280200.0 -0.5813899537 0.8086095938
3350279900.0 -0.5692503786 0.8165243978
3400279600.0 -0.5565497824 0.8246387098
3450279300.0 -0.5457058052 0.8319050207
3500279000.0 -0.5338043675 0.8383115117
3550278700.0 -0.5216557865 0.8454325266
3600278400.0 -0.5098963271 0.85241474
3650278100.0 -0.4968601378 0.8597940417
3700277800.0 -0.4845173789 0.8664812343
3750277500.0 -0.4722481641 0.8732376541
3800277200.0 -0.4597602604 0.8797801448
3850276900.0 -0.4479010802 0.8857518251
3900276600.0 -0.436820229 0.8913083099
3950276300.0 -0.4246768531 0.8971086419
4000276000.0 -0.4130043996 0.903116652
4050275700.0 -0.4004162543 0.9090799134
4100275400.0 -0.3893880192 0.9145651943
4150275100.0 -0.376211353 0.9206463723
4200274800.0 -0.3627481121 0.9262638739
4250274500.0 -0.3502382516 0.9312057153
4300274200.0 -0.336907482 0.936720801
4350273900.0 -0.3226299323 0.942396385
4400273600.0 -0.3077511345 0.9470614386
4450273300.0 -0.2930017114 0.9521469245
4500273000.0 -0.279593461 0.9563485882
4550272700.0 -0.2660334302 0.9604275363
4600272400.0 -0.2511078339 0.964645519
4650272100.0 -0.2397198748 0.9679246524
4700271800.0 -0.2266371889 0.9710729216
4750271500.0 -0.2150301616 0.9740779418
4800271200.0 -0.2027959308 0.9765777377
4850270900.0 -0.1891868765 0.9794858191
4900270600.0 -0.1752538261 0.9818658423
4950270300.0 -0.1608768003 0.9845342833
5000270000.0 -0.1463952616 0.9868509806
5050269700.0 -0.1328345749 0.9885201194
5100269400.0 -0.1187320971 0.9899797564
5150269100.0 -0.1045517784 0.9917418851
5200268800.0 -0.0912139169 0.9932035925
5250268500.0 -0.0781546564 0.9937594075
5300268200.0 -0.0646551729 0.9946625975
5350267900.0 -0.0517279452 0.9953205055
5400267600.0 -0.0356115267 0.9963150393
5450267300.0 -0.0221885324 0.9966957611
5500267000.0 -0.0068231848 0.9970160269
5550266700.0 0.0079821442 0.9971767441
5600266400.0 0.0239352087 0.9972128275
5650266100.0 0.0405728719 0.9970659307
5700265800.0 0.0548893359 0.9961892041
5750265500.0 0.0697115218 0.995152175
5800265200.0 0.0831362433 0.9937903984
5850264900.0 0.0966394698 0.9934881198
5900264600.0 0.1130940102 0.9912458453
5950264300.0 0.1242628014 0.9895919566
6000264000.0 0.1379085294 0.9876796911
6050263700.0 0.1495356161 0.9867366529
6100263400.0 0.1618895212 0.9851758446
6150263100.0 0.1763039707 0.9828209244
6200262800.0 0.186071079 0.9812486903
6250262500.0 0.1987950863 0.9786183624
6300262200.0 0.2108906331 0.9763224042
6350261900.0 0.2238470317 0.9735106963
6400261600.0 0.2376353495 0.9701088763
6450261300.0 0.2489070719 0.9677217755
6500261000.0 0.2620803202 0.9639977559
6550260700.0 0.2748677274 0.9601021431
6600260400.0 0.2889493321 0.9562539194
6650260100.0 0.3029760434 0.9516371604
6700259800.0 0.3147573004 0.9471028556
6750259500.0 0.3286154432 0.9424985336
6800259200.0 0.3420668616 0.9373269348
6850258900.0 0.3546778217 0.9322305874
6900258600.0 0.3671111408 0.9269626687
6950258300.0 0.3797018277 0.9215063122
7000258000.0 0.3914026805 0.9163691322
7050257700.0 0.4031821987 0.9105615263
7100257400.0 0.4166487119 0.9042262379
7150257100.0 0.4272053184 0.8987788666
7200256800.0 0.4403254311 0.8922129558
7250256500.0 0.4530091994 0.8855942336
7300256200.0 0.4661676782 0.8790771524
7350255900.0 0.4789908644 0.8719440543
7400255600.0 0.4927892881 0.8639174418
7450255300.0 0.5085804569 0.8549854816
7500255000.0 0.5206245 0.8472118181
7550254700.0 0.5354550845 0.8385262734
7600254400.0 0.5475576045 0.8304542986
7650254100.0 0.559475662 0.8220813434
7700253800.0 0.5708544725 0.8139144048
7750253500.0 0.5821814208 0.8065720246
7800253200.0 0.5924289222 0.7985862205
7850252900.0 0.6023103442 0.7913640457
7900252600.0 0.6136974803 0.7826219811
7950252300.0 0.6223124408 0.7762121136
8000252000.0 0.6321623255 0.7686116705
8050251700.0 0.6429021239 0.7604697041
8100251400.0 0.652335875 0.7527536721
8150251100.0 0.6627998853 0.7439991402
8200250800.0 0.6721977133 0.7358747049
8250250500.0 0.6804503772 0.7282127109
8300250200.0 0.6897713208 0.7196528048
8350249900.0 0.6989355481 0.7108261952
8400249600.0 0.7069809996 0.7029348758
8450249300.0 0.7157498502 0.6941515555
8500249000.0 0.7243608948 0.6852383769
8550248700.0 0.7325705457 0.6762383877
8600248400.0 0.7411325117 0.6666815487
8650248100.0 0.7488260614 0.6571455833
8700247800.0 0.757957926 0.6461850962
8750247500.0 0.7662914221 0.6363789281
8800247200.0 0.77429275 0.626002484
8850246900.0 0.7830576406 0.6143500819
8900246600.0 0.7911296447 0.603202475
8950246300.0 0.8008179395 0.5904049138
9000246000.0 0.8092435782 0.5784282789
9050245700.0 0.8178461038 0.5661993574
9100245400.0 0.82614943 0.5540539738
9150245100.0 0.8348342418 0.5413044148
9200244800.0 0.8441179164 0.5268562219
9250244500.0 0.8533196795 0.5121404717
9300244200.0 0.8613981551 0.4985707732
9350243900.0 0.8689393794 0.4853693694
9400243600.0 0.8754604625 0.4736065742
9450243300.0 0.8811832869 0.4632113231
9500243000.0 0.8873317744 0.4514105365
9550242700.0 0.8916156592 0.4439379616
9600242400.0 0.8957187869 0.4364980628
9650242100.0 0.8997961496 0.4295354351
9700241800.0 0.9046929293 0.420952714
9750241500.0 0.9085530576 0.4131428346
9800241200.0 0.9141281533 0.4035249192
9850240900.0 0.920178362 0.3918587085
9900240600.0 0.9260430247 0.3801383113
9950240300.0 0.93310739 0.3632014459
10000240000.0 0.9378149155 0.3513437844
10050239700.0 0.9436850688 0.3350457528
10100239400.0 0.9490750072 0.3188471974
10150239100.0 0.9542289847 0.3029850215
10200238800.0 0.9583334203 0.2877413238
10250238500.0 0.9617131112 0.2743114684
10300238200.0 0.9647304927 0.2604263953
10350237900.0 0.9675023109 0.246913
10400237600.0 0.96989396 0.2335273162
10450237300.0 0.9728380034 0.2199840113
10500237000.0 0.9749604953 0.2073543208
10550236700.0 0.977646893 0.1928982721
10600236400.0 0.9795900079 0.1790910409
10650236100.0 0.981087096 0.1647928135
10700235800.0 0.9838995899 0.1520276493
10750235500.0 0.9861322866 0.1387618068
10800235200.0 0.9878318113 0.1247323091
10850234900.0 0.9900031016 0.1093501995
10900234600.0 0.9920748289 0.0944445971
10950234300.0 0.9937821667 0.081103607
11000234000.0 0.9956184382 0.0655739314
11050233700.0 0.997388959 0.0487568647
11100233400.0 0.9987763362 0.031126782
11150233100.0 1.00037054 0.0145050856
11200232800.0 1.00066767 -0.0018421208
11250232500.0 1.001855098 -0.0193678181
11300232200.0 1.002058976 -0.0378168981
11350231900.0 1.002242461 -0.0533816575
11400231600.0 1.001010106 -0.069080621
11450231300.0 1.000669952 -0.0856682197
11500231000.0 0.9995962792 -0.1015189602
11550230700.0 0.9984913839 -0.1149532398
11600230400.0 0.9965088021 -0.1275580554
11650230100.0 0.9944835706 -0.1397688628
11700229800.0 0.9924292638 -0.1541617028
11750229500.0 0.9902640251 -0.1690024815
11800229200.0 0.9873775804 -0.1818137826
11850228900.0 0.9836206117 -0.1937457637
11900228600.0 0.9799632759 -0.203116993
11950228300.0 0.9765483632 -0.2130610343
12000228000.0 0.9734668992 -0.2222248557
12050227700.0 0.9705167015 -0.2339904537
12100227400.0 0.9668389475 -0.2460144107
12150227100.0 0.9617696412 -0.2627452411
12200226800.0 0.9582060769 -0.2732963592
12250226500.0 0.9536023396 -0.2863324569
12300226200.0 0.9497848299 -0.2981804858
12350225900.0 0.9448696699 -0.3117240096
12400225600.0 0.9406386777 -0.3247453293
12450225300.0 0.9356549479 -0.3372615868
12500225000.0 0.9304596186 -0.3513521033
12550224700.0 0.9247715975 -0.3657812354
12600224400.0 0.9199321769 -0.3781638315
12650224100.0 0.9141036821 -0.3926777849
12700223800.0 0.9087515487 -0.4055999268
12750223500.0 0.9035683497 -0.4185160799
12800223200.0 0.8979195272 -0.4308944009
12850222900.0 0.8926560505 -0.4434400593
12900222600.0 0.8874511196 -0.4550885066
12950222300.0 0.8810425672 -0.4679472331
13000222000.0 0.8754011074 -0.4793296222
13050221700.0 0.8682407924 -0.4922753638
13100221400.0 0.8614695588 -0.5049188066
13150221100.0 0.8542594481 -0.5168014682
13200220800.0 0.8475531077 -0.5283846366
13250220500.0 0.8402710397 -0.5406109759
13300220200.0 0.8328004919 -0.5513523546
13350219900.0 0.8247026343 -0.5633749054
13400219600.0 0.8162872587 -0.5752424471
13450219300.0 0.8068937613 -0.5883748406
13500219000.0 0.7969432746 -0.6014751656
13550218700.0 0.7872122349 -0.6138617168
13600218400.0 0.7770566455 -0.6256432879
13650218100.0 0.7679117134 -0.6365513668
13700217800.0 0.7565965214 -0.6476637415
13750217500.0 0.7474123856 -0.6590730464
13800217200.0 0.7367306436 -0.6705586729
13850216900.0 0.7253129052 -0.6813024478
13900216600.0 0.7165475 -0.6902184898
13950216300.0 0.7051776606 -0.7006794555
14000216000.0 0.6951583575 -0.7098559376
14050215700.0 0.6861399279 -0.7175220765
14100215400.0 0.6767375774 -0.7263479036
14150215100.0 0.6673509787 -0.7352477298
14200214800.0 0.6577841163 -0.7440503501
14250214500.0 0.6475193322 -0.7535520111
14300214200.0 0.6370506445 -0.7629776533
14350213900.0 0.6258864964 -0.7726580708
14400213600.0 0.6142381973 -0.782450584
14450213300.0 0.6014404422 -0.7928774049
14500213000.0 0.5881578549 -0.8023506108
14550212700.0 0.5756686479 -0.8121662701
14600212400.0 0.5633802765 -0.8205329338
14650212100.0 0.5510910884 -0.8292247924
14700211800.0 0.5371215186 -0.8385378907
14750211500.0 0.5246440665 -0.847382412
14800211200.0 0.512344428 -0.855656098
14850210900.0 0.5001253331 -0.8631437903
14900210600.0 0.4867484539 -0.8710130794
14950210300.0 0.4732508454 -0.8786178241
15000210000.0 0.4607553573 -0.8854170927
15050209700.0 0.4484900617 -0.8914428153
15100209400.0 0.4356100117 -0.8973859283
15150209100.0 0.4236391448 -0.9027845531
15200208800.0 0.4104918648 -0.9079356583
15250208500.0 0.4005449304 -0.9127566028
15300208200.0 0.3872517888 -0.9175234046
15350207900.0 0.3740972542 -0.9223973259
15400207600.0 0.3591237421 -0.92794691
15450207300.0 0.3455657686 -0.9327703474
15500207000.0 0.3301185918 -0.9369903088
15550206700.0 0.3154588544 -0.9423678773
15600206400.0 0.2991602213 -0.9469130553
15650206100.0 0.2836929362 -0.9509827742
15700205800.0 0.2701732299 -0.954368543
15750205500.0 0.2562829902 -0.9577441442
15800205200.0 0.2423345388 -0.9611441244
15850204900.0 0.2280918397 -0.9645582271
15900204600.0 0.2130435681 -0.9682077581
15950204300.0 0.1986987051 -0.9713443763
16000204000.0 0.1842027521 -0.9744409197
16050203700.0 0.1686158519 -0.9773953169
16100203400.0 0.1541658231 -0.9799547239
16150203100.0 0.1393077474 -0.9821853044
16200202800.0 0.125168057 -0.9837843375
16250202500.0 0.1103726502 -0.9854833525
16300202200.0 0.0950655304 -0.9879987064
16350201900.0 0.0801505297 -0.9888972551
16400201600.0 0.0650248896 -0.9902405642
16450201300.0 0.0496459659 -0.9913342735
16500201000.0 0.0327745405 -0.9920641106
16550200700.0 0.0165843033 -0.9925546823
16600200400.0 0.0007366935 -0.992689214
16650200100.0 -0.0152417231 -0.9932835471
16700199800.0 -0.031885866 -0.9924814301
16750199500.0 -0.0510741271 -0.9914461725
16800199200.0 -0.0669586733 -0.9904679549
16850198900.0 -0.0822730338 -0.9895504967
16900198600.0 -0.0970723403 -0.9888323988
16950198300.0 -0.1100380593 -0.9874271017
17000198000.0 -0.1237609446 -0.9860460389
17050197700.0 -0.1360050045 -0.9841210346
17100197400.0 -0.1490515822 -0.9823636203
17150197100.0 -0.1615235308 -0.980355489
17200196800.0 -0.1745825663 -0.9777063227
17250196500.0 -0.1876459525 -0.9752847756
17300196200.0 -0.1994153655 -0.9730310041
17350195900.0 -0.2113495058 -0.9707078821
17400195600.0 -0.2234178436 -0.9681608384
17450195300.0 -0.2361886441 -0.9653713149
17500195000.0 -0.2493848971 -0.9618183705
17550194700.0 -0.2631901056 -0.9583556805
17600194400.0 -0.2768900737 -0.9546515542
17650194100.0 -0.2901882295 -0.9499727645
17700193800.0 -0.3030113923 -0.9466015045
17750193500.0 -0.3178322411 -0.9419582558
17800193200.0 -0.3318791026 -0.9363240796
17850192900.0 -0.3467850911 -0.9308021907
17900192600.0 -0.3619976289 -0.9252198534
17950192300.0 -0.3773998928 -0.9176635342
18000192000.0 -0.3919937691 -0.9106945459
18050191700.0 -0.4059540888 -0.9026853263
18100191400.0 -0.4200777708 -0.8949687697
18150191100.0 -0.4348991309 -0.8871013457
18200190800.0 -0.4516938982 -0.8779825215
18250190500.0 -0.4686437823 -0.8684646943
18300190200.0 -0.4842523994 -0.8598247028
18350189900.0 -0.4995611857 -0.8513907214
18400189600.0 -0.5136317968 -0.8430224657
18450189300.0 -0.5272087802 -0.834751581
18500189000.0 -0.5402671229 -0.8270656215
18550188700.0 -0.5535337223 -0.8191986558
18600188400.0 -0.5652106615 -0.8121150692
18650188100.0 -0.5766936773 -0.8059266938
18700187800.0 -0.5877806764 -0.7988265075
18750187500.0 -0.5987929689 -0.7921760275
18800187200.0 -0.6092414657 -0.7852826056
18850186900.0 -0.6195595208 -0.778242111
18900186600.0 -0.6297400834 -0.7709695812
18950186300.0 -0.6399693928 -0.7632852483
19000186000.0 -0.6476980317 -0.7569530716
19050185700.0 -0.6566262969 -0.7500116352
19100185400.0 -0.6669640921 -0.7416829457
19150185100.0 -0.6768051576 -0.7326204092
19200184800.0 -0.6866872946 -0.7252999311
19250184500.0 -0.6969594801 -0.716104657
19300184200.0 -0.7086145396 -0.7064970879
19350183900.0 -0.7185812731 -0.6965967623
19400183600.0 -0.7287337618 -0.6865713466
19450183300.0 -0.7377009776 -0.6766619184
19500183000.0 -0.7456165889 -0.6666773465
19550182700.0 -0.7557240679 -0.6556182588
19600182400.0 -0.7660672392 -0.6436086544
19650182100.0 -0.7762962053 -0.6317883704
19700181800.0 -0.7866449024 -0.6186266589
19750181500.0 -0.7971533149 -0.6044026133
19800181200.0 -0.8072574833 -0.5893870733
19850180900.0 -0.816705229 -0.5742025615
19900180600.0 -0.8242129346 -0.5597021334
19950180300.0 -0.833738418 -0.5435911032
20000180000.0 -0.8231427474 -0.5465712147
20050179700.0 -0.8309392067 -0.534369487
20100179400.0 -0.8397136501 -0.5212181163
20150179100.0 -0.847417995 -0.5093597985
20200178800.0 -0.8564942564 -0.4981507038
20250178500.0 -0.8652607848 -0.4862286302
20300178200.0 -0.8752872605 -0.4722499194
20350177900.0 -0.8847021049 -0.4578444447
20400177600.0 -0.8932154946 -0.4433996819
20450177300.0 -0.9020260449 -0.429496623
20500177000.0 -0.9098801814 -0.4153810072
20550176700.0 -0.9179016292 -0.4020668357
20600176400.0 -0.924815939 -0.3891764317
20650176100.0 -0.9314739298 -0.3772730616
20700175800.0 -0.9383267469 -0.3649387065
20750175500.0 -0.9448897873 -0.3534687516
20800175200.0 -0.949938522 -0.3415529937
20850174900.0 -0.9538827333 -0.3321880418
20900174600.0 -0.9581132432 -0.3212675032
20950174300.0 -0.9620983413 -0.3096505467
21000174000.0 -0.9630480902 -0.2996625874
21050173700.0 -0.966287586 -0.2902625421
21100173400.0 -0.9696050403 -0.2783624497
21150173100.0 -0.9734075729 -0.2663666437
21200172800.0 -0.9770767671 -0.2533813743
21250172500.0 -0.9808594422 -0.2398602614
21300172200.0 -0.9843571722 -0.2257244915
21350171900.0 -0.9858283485 -0.2113725061
21400171600.0 -0.9873897957 -0.1971930294
21450171300.0 -0.9880052739 -0.183843874
21500171000.0 -0.9884102894 -0.1677385202
21550170700.0 -0.9895345986 -0.1527168546
21600170400.0 -0.9903346171 -0.1380088387
21650170100.0 -0.9909518031 -0.1224204576
21700169800.0 -0.9901195011 -0.1074438645
21750169500.0 -0.9890994861 -0.0906679485
21800169200.0 -0.9890668959 -0.0742887806
21850168900.0 -0.9899897942 -0.0573499135
21900168600.0 -0.9892165072 -0.0405712846
21950168300.0 -0.9887922585 -0.0253010151
22000168000.0 -0.989163079 -0.00999375
22050167700.0 -0.9893839436 0.0046254488
22100167400.0 -0.9903821453 0.0201150318
22150167100.0 -0.9914140276 0.0361678002
22200166800.0 -0.9917314281 0.0532279425
22250166500.0 -0.9913052273 0.0698756314
22300166200.0 -0.9906595194 0.0864695093
22350165900.0 -0.989011168 0.1026818783
22400165600.0 -0.9877632381 0.1184389142
22450165300.0 -0.9859036433 0.1326772287
22500165000.0 -0.9854028258 0.1481561316
22550164700.0 -0.9833538219 0.1645012598
22600164400.0 -0.9817605984 0.1804459784
22650164100.0 -0.9780194271 0.1957114751
22700163800.0 -0.9743756793 0.211586779
22750163500.0 -0.9727596257 0.2269925038
22800163200.0 -0.9693707019 0.2394384675
22850162900.0 -0.9665570292 0.2529057328
22900162600.0 -0.9645701493 0.2670336595
22950162300.0 -0.9629619725 0.2803148363
23000162000.0 -0.9612915322 0.2931535774
23050161700.0 -0.9583495963 0.3062379777
23100161400.0 -0.9556305605 0.3200050519
23150161100.0 -0.9526087585 0.3335150354
23200160800.0 -0.9484244892 0.3458084192
23250160500.0 -0.9473982172 0.3578077265
23300160200.0 -0.943654532 0.371012232
23350159900.0 -0.9399112222 0.3847433252
23400159600.0 -0.9354792203 0.3979951975
23450159300.0 -0.9298135363 0.4119479364
23500159000.0 -0.9252655855 0.4257317318
23550158700.0 -0.9204812862 0.4398756352
23600158400.0 -0.9143341917 0.4539150825
23650158100.0 -0.9070545564 0.4683107702
23700157800.0 -0.8985498139 0.4826606946
23750157500.0 -0.8891215254 0.4968117205
23800157200.0 -0.8790465738 0.5106816947
23850156900.0 -0.8698265506 0.5237031694
23900156600.0 -0.8592420295 0.53604084
23950156300.0 -0.8502692079 0.5488201297
24000156000.0 -0.8402031688 0.5606667496
24050155700.0 -0.8295637174 0.5729744601
24100155400.0 -0.8200545185 0.585354108
24150155100.0 -0.8088038103 0.5974824935
24200154800.0 -0.7976685415 0.6089820775
24250154500.0 -0.7863739442 0.6216392509
24300154200.0 -0.7754110676 0.6335602881
24350153900.0 -0.7627295597 0.6444787186
24400153600.0 -0.7505878234 0.6555490316
24450153300.0 -0.73814322 0.6658739687
24500153000.0 -0.7265560677 0.67568067
24550152700.0 -0.7155608447 0.6860544466
24600152400.0 -0.7037052647 0.6950681769
24650152100.0 -0.6912417259 0.7037093421
