!Created with skrf (http://scikit-rf.org).
# Hz S RI R 50.0 
!freq ReS11 ImS11
300000.0 -0.9747176271 -0.1176422501
50299700.0 -0.9999333457 0.0154246675
100299400.0 -0.9978630869 0.0282696268
150299100.0 -1.002692246 0.0451520987
200298800.0 -0.9994949511 0.0583364944
250298500.0 -0.9973154744 0.0720012157
300298200.0 -0.9860747037 0.0878251301
350297900.0 -0.9940950877 0.0985854482
400297600.0 -0.9931236478 0.1152855797
450297300.0 -0.9909512038 0.1290514326
500297000.0 -0.9893698784 0.1437039873
550296700.0 -0.9841746119 0.1561830084
600296400.0 -1.017510194 0.1895283023
650296100.0 -0.9821668061 0.1860991849
700295800.0 -0.9793540897 0.200478554
750295500.0 -0.976342186 0.2142441255
800295200.0 -0.9730837705 0.2285294553
850294900.0 -0.9697140757 0.2424460455
900294600.0 -0.9657740464 0.2558601374
950294300.0 -0.9619264237 0.2696308114
1000294000.0 -0.9581801662 0.2837396409
1050293700.0 -0.9536659172 0.2975267636
1100293400.0 -0.9491869953 0.3120867634
1150293100.0 -0.9455665827 0.3238016784
1200292800.0 -0.9399016331 0.3381049065
1250292500.0 -0.9344484604 0.3516236895
1300292200.0 -0.928955898 0.3648978708
1350291900.0 -0.9234919192 0.3790325376
1400291600.0 -0.9178823752 0.392068196
1450291300.0 -0.9125166454 0.4043040574
1500291000.0 -0.9061397329 0.4178066284
1550290700.0 -0.8995451728 0.4310631377
1600290400.0 -0.893412319 0.4439578888
1650290100.0 -0.8868000125 0.4561407929
1700289800.0 -0.8798830887 0.4695448378
1750289500.0 -0.8727994088 0.4818006239
1800289200.0 -0.8653399009 0.4948928033
1850288900.0 -0.8587434781 0.5060459631
1900288600.0 -0.8508702842 0.519147902
1950288300.0 -0.8426958829 0.5316400391
2000288000.0 -0.8354998062 0.5430391366
2050287700.0 -0.827297146 0.5552337068
2100287400.0 -0.8192823784 0.5670437432
2150287100.0 -0.8106188139 0.5790786683
2200286800.0 -0.8030174504 0.5893758824
2250286500.0 -0.7941573942 0.6013486217
2300286200.0 -0.7851481239 0.6130652922
2350285900.0 -0.7765122619 0.6240116157
2400285600.0 -0.7675886027 0.635026396
2450285300.0 -0.7588114855 0.6452334174
2500285000.0 -0.7492082673 0.656567318
2550284700.0 -0.7405358325 0.6670371142
2600284400.0 -0.7308571163 0.6772580492
2650284100.0 -0.7221687268 0.6878449086
2700283800.0 -0.7112692041 0.698256202
2750283500.0 -0.7011256419 0.7087470069
2800283200.0 -0.6911635052 0.7183879864
2850282900.0 -0.680993808 0.7282412032
2900282600.0 -0.6706476506 0.7381342799
2950282300.0 -0.6605213571 0.7472537604
3000282000.0 -0.6496624822 0.7567808638
3050281700.0 -0.638658342 0.7659040433
3100281400.0 -0.6266425667 0.7752824547
3150281100.0 -0.614768914 0.7845892453
3200280800.0 -0.6033570001 0.7931152844
3250280500.0 -0.5924523301 0.8008902477
3300280200.0 -0.5811707734 0.8089443423
3350279900.0 -0.56966061 0.8163461816
3400279600.0 -0.5574127869 0.8240544743
3450279300.0 -0.5463274265 0.8311827709
3500279000.0 -0.5340005457 0.8382000732
3550278700.0 -0.5217453924 0.8454801765
3600278400.0 -0.5095291231 0.8525988119
3650278100.0 -0.4963928591 0.8602739815
3700277800.0 -0.4843399335 0.8667296941
3750277500.0 -0.4723026034 0.8732703596
3800277200.0 -0.4598091804 0.8799894985
3850276900.0 -0.4479283035 0.8858582333
3900276600.0 -0.4370132152 0.8914950272
3950276300.0 -0.4247001904 0.8971630675
4000276000.0 -0.4126032484 0.9034131617
4050275700.0 -0.3997520883 0.909630467
4100275400.0 -0.3883704163 0.9150266895
4150275100.0 -0.3760293096 0.9207935975
4200274800.0 -0.3628351537 0.9260814176
4250274500.0 -0.3504006462 0.9311958727
4300274200.0 -0.3376730257 0.9365397988
4350273900.0 -0.3235742354 0.9420247513
4400273600.0 -0.308809812 0.9471805455
4450273300.0 -0.2935551931 0.9522929539
4500273000.0 -0.2800801314 0.9562916766
4550272700.0 -0.2658162117 0.9608112224
4600272400.0 -0.2502210291 0.9650455545
4650272100.0 -0.2385863023 0.9681932219
4700271800.0 -0.2253265994 0.9715662658
4750271500.0 -0.2135864953 0.9743785847
4800271200.0 -0.2012272444 0.9770994853
4850270900.0 -0.1872555333 0.9799607409
4900270600.0 -0.1733264626 0.9823882285
4950270300.0 -0.1589256216 0.9847727976
5000270000.0 -0.1448759165 0.9870244117
5050269700.0 -0.131454162 0.9885826706
5100269400.0 -0.1177346736 0.9905796254
5150269100.0 -0.1042890559 0.9913728597
5200268800.0 -0.0910965536 0.9927340867
5250268500.0 -0.0780188954 0.9939593578
5300268200.0 -0.0648555102 0.9943678447
5350267900.0 -0.052658171 0.9950189388
5400267600.0 -0.0365533011 0.9962963691
5450267300.0 -0.0232253175 0.9965481164
5500267000.0 -0.0081817743 0.9970167698
5550266700.0 0.0069134958 0.9972699519
5600266400.0 0.0225153711 0.9970198884
5650266100.0 0.0389611015 0.9967746451
5700265800.0 0.0532378411 0.9960589391
5750265500.0 0.068255333 0.9952787474
5800265200.0 0.0825639958 0.9944380291
5850264900.0 0.0959424101 0.9934161326
5900264600.0 0.1125178624 0.9915151204
5950264300.0 0.1242507964 0.9900603416
6000264000.0 0.1381698436 0.9881956133
6050263700.0 0.150430761 0.9866230575
6100263400.0 0.1630103611 0.9849273751
6150263100.0 0.1779855493 0.9828286409
6200262800.0 0.1881077274 0.9808617214
6250262500.0 0.2007933571 0.97851246
6300262200.0 0.213621728 0.9757917422
6350261900.0 0.2265743484 0.9727634624
6400261600.0 0.2403862357 0.9695463041
6450261300.0 0.2517705309 0.9666949526
6500261000.0 0.2648313308 0.9633563712
6550260700.0 0.2776236675 0.9595786469
6600260400.0 0.2907532414 0.9552093209
6650260100.0 0.3049006704 0.9508654074
6700259800.0 0.3167945177 0.9467558713
6750259500.0 0.330683054 0.9415071128
6800259200.0 0.3436146382 0.9365851772
6850258900.0 0.3558449628 0.9314015764
6900258600.0 0.3683156136 0.9266576668
6950258300.0 0.3804899733 0.9213439459
7000258000.0 0.3926350105 0.9157526411
7050257700.0 0.4047887216 0.9098231653
7100257400.0 0.4177224265 0.9036371195
7150257100.0 0.4279924029 0.8981647257
7200256800.0 0.4407232027 0.8920353796
7250256500.0 0.4524388378 0.8853356918
7300256200.0 0.4657412302 0.8786312645
7350255900.0 0.4781393809 0.8721057211
7400255600.0 0.4916058457 0.8643521655
7450255300.0 0.5074626267 0.855820866
7500255000.0 0.5187310483 0.8484237763
7550254700.0 0.5324893151 0.8399521213
7600254400.0 0.5455760688 0.8319052971
7650254100.0 0.556437321 0.8237037253
7700253800.0 0.5681624629 0.8158791181
7750253500.0 0.5794468952 0.8081957144
7800253200.0 0.5903921731 0.8005195307
7850252900.0 0.600003063 0.7934425718
7900252600.0 0.6116635296 0.7846224517
7950252300.0 0.6204547946 0.7783032375
8000252000.0 0.6307552697 0.7705273262
8050251700.0 0.6412265275 0.762313257
8100251400.0 0.6511275658 0.7542352608
8150251100.0 0.6613967715 0.7457189245
8200250800.0 0.6706273876 0.7376247981
8250250500.0 0.6795363557 0.7297469376
8300250200.0 0.6887653599 0.7210639938
8350249900.0 0.6979600309 0.7125141344
8400249600.0 0.7062255828 0.7045788159
8450249300.0 0.7155077746 0.6950911635
8500249000.0 0.7237783006 0.6863601943
8550248700.0 0.7320797371 0.6772437387
8600248400.0 0.7406905305 0.6675124407
8650248100.0 0.7485192518 0.6581837454
8700247800.0 0.7581537688 0.647002903
8750247500.0 0.7661221136 0.6369741877
8800247200.0 0.774404467 0.6264146675
8850246900.0 0.7831636197 0.6150324548
8900246600.0 0.7916716254 0.6037377478
8950246300.0 0.8012838784 0.5907811565
9000246000.0 0.8103003464 0.5782952116
9050245700.0 0.8196747017 0.565162731
9100245400.0 0.8279228117 0.5527567781
9150245100.0 0.8375129239 0.5391187884
9200244800.0 0.8473772564 0.5239932795
9250244500.0 0.8566514136 0.5084640945
9300244200.0 0.8650515485 0.4940965059
9350243900.0 0.8726511068 0.4801573562
9400243600.0 0.8794078155 0.4678722707
9450243300.0 0.8851802318 0.4562629888
9500243000.0 0.8916357018 0.444161287
9550242700.0 0.8954398885 0.4364141857
9600242400.0 0.8992684938 0.429076431
9650242100.0 0.9029705127 0.4228619227
9700241800.0 0.9074644288 0.4146949553
9750241500.0 0.911540852 0.4067753481
9800241200.0 0.9162010309 0.3977571797
9850240900.0 0.9216715716 0.3862831467
9900240600.0 0.9274179614 0.3749675556
9950240300.0 0.9343508101 0.3583497828
10000240000.0 0.9386475598 0.3472512214
10050239700.0 0.9444844058 0.3315916475
10100239400.0 0.9494743721 0.316319809
10150239100.0 0.9539153408 0.301112745
10200238800.0 0.9581601156 0.2861975997
10250238500.0 0.9614456525 0.2728620651
10300238200.0 0.964595271 0.2590944822
10350237900.0 0.9672853639 0.2457645711
10400237600.0 0.9698277959 0.2324196611
10450237300.0 0.9722990747 0.2191163754
10500237000.0 0.9745648183 0.2065383712
10550236700.0 0.9770968375 0.1923032513
10600236400.0 0.9791561768 0.1784604694
10650236100.0 0.9814934699 0.1642309768
10700235800.0 0.9835505175 0.1516078107
10750235500.0 0.9855916682 0.1384767044
10800235200.0 0.9876669485 0.1246575928
10850234900.0 0.9896878138 0.1098996753
10900234600.0 0.9916506055 0.095227474
10950234300.0 0.9932895059 0.081975657
11000234000.0 0.9952160707 0.066821883
11050233700.0 0.9969083601 0.0506039181
11100233400.0 0.9984462984 0.0330220477
11150233100.0 0.9995556017 0.0168208936
11200232800.0 1.000123495 0.0017119763
11250232500.0 1.001277261 -0.0156317895
11300232200.0 1.001779901 -0.0325238253
11350231900.0 1.001380393 -0.0484348948
11400231600.0 1.001789526 -0.0641087961
11450231300.0 1.00159407 -0.0798484763
11500231000.0 1.000350145 -0.0954924711
11550230700.0 0.9987502162 -0.1091302437
11600230400.0 0.9972475015 -0.1214663313
11650230100.0 0.9953644818 -0.1326368752
11700229800.0 0.9931556765 -0.147381208
11750229500.0 0.9907616517 -0.1621832843
11800229200.0 0.9880621082 -0.17605272
11850228900.0 0.9847332484 -0.1882660134
11900228600.0 0.9809463997 -0.1985533067
11950228300.0 0.9777704382 -0.2084500322
12000228000.0 0.9746959949 -0.2178465743
12050227700.0 0.9714650042 -0.2302214767
12100227400.0 0.9683315132 -0.241196612
12150227100.0 0.9629886433 -0.257808083
12200226800.0 0.9591355139 -0.268816942
12250226500.0 0.9555474144 -0.2809123151
12300226200.0 0.9512395611 -0.2938161611
12350225900.0 0.9467147076 -0.3079073916
12400225600.0 0.9421235891 -0.3208513543
12450225300.0 0.9380692509 -0.3334748476
12500225000.0 0.9323612106 -0.3488966011
12550224700.0 0.9270097171 -0.3622161783
12600224400.0 0.9218929322 -0.3751681555
12650224100.0 0.9161562121 -0.3896001444
12700223800.0 0.9109427435 -0.4023243409
12750223500.0 0.9055614039 -0.4152472139
12800223200.0 0.9001014409 -0.4280719713
12850222900.0 0.8948275381 -0.4399420278
12900222600.0 0.888990748 -0.4522472864
12950222300.0 0.88237726 -0.4647931865
13000222000.0 0.8768045762 -0.4770462537
13050221700.0 0.8701238455 -0.4885581345
13100221400.0 0.8631951757 -0.5011643333
13150221100.0 0.8564202391 -0.5135647958
13200220800.0 0.8495870537 -0.525207944
13250220500.0 0.8424511798 -0.5371001606
13300220200.0 0.8351026793 -0.5477171828
13350219900.0 0.827148369 -0.5595395195
13400219600.0 0.8186046162 -0.571830841
13450219300.0 0.8094760353 -0.5852955657
13500219000.0 0.7990961098 -0.5991001762
13550218700.0 0.7894707028 -0.6120413444
13600218400.0 0.7791064247 -0.624082497
13650218100.0 0.7693313958 -0.6351770937
13700217800.0 0.7586657142 -0.6472359414
13750217500.0 0.748738887 -0.6579545846
13800217200.0 0.7373069648 -0.6695406825
13850216900.0 0.7258467047 -0.6815239251
13900216600.0 0.7161012441 -0.6910364605
13950216300.0 0.7051614973 -0.7010867905
14000216000.0 0.6956932404 -0.7098050254
14050215700.0 0.6860538547 -0.7183734916
14100215400.0 0.676120909 -0.7277956989
14150215100.0 0.6670382257 -0.7361709298
14200214800.0 0.6575557635 -0.7447631718
14250214500.0 0.6472452165 -0.7541343928
14300214200.0 0.6367571122 -0.7634837693
14350213900.0 0.6256637721 -0.7731370246
14400213600.0 0.6136467016 -0.7829355278
14450213300.0 0.6003224137 -0.7932821167
14500213000.0 0.5875185278 -0.8030331333
14550212700.0 0.5747273619 -0.8129573457
14600212400.0 0.5633374102 -0.8211444055
14650212100.0 0.54977041 -0.8300390548
14700211800.0 0.5361155683 -0.8402383491
14750211500.0 0.5237844714 -0.8479237498
14800211200.0 0.5114522798 -0.8560032733
14850210900.0 0.4994199564 -0.8632358858
14900210600.0 0.4862419485 -0.8711200566
14950210300.0 0.4727608965 -0.8788885767
15000210000.0 0.4600901151 -0.8855522962
15050209700.0 0.4480195184 -0.8915836409
15100209400.0 0.4350824975 -0.8978099072
15150209100.0 0.4227204239 -0.9032411587
15200208800.0 0.4096770731 -0.9081614834
15250208500.0 0.3980109085 -0.9128351431
15300208200.0 0.3861751915 -0.9179231398
15350207900.0 0.3733663608 -0.9229772452
15400207600.0 0.3585118834 -0.9281204009
15450207300.0 0.3442589873 -0.9329257272
15500207000.0 0.3292591799 -0.9370814426
15550206700.0 0.3149893575 -0.9423536655
15600206400.0 0.2991552017 -0.9469742942
15650206100.0 0.2830383431 -0.9512337909
15700205800.0 0.2692618166 -0.9550938263
15750205500.0 0.254632063 -0.9583426048
15800205200.0 0.2403295958 -0.961976947
15850204900.0 0.2260075376 -0.9654005149
15900204600.0 0.2109458142 -0.9689597189
15950204300.0 0.1968048602 -0.9721300905
16000204000.0 0.1824049965 -0.9751711985
16050203700.0 0.1677962106 -0.9779551409
16100203400.0 0.1530668436 -0.9801780588
16150203100.0 0.1387278842 -0.9821870896
16200202800.0 0.1239352134 -0.9847332743
16250202500.0 0.1098087131 -0.9863376417
16300202200.0 0.094254048 -0.9880213855
16350201900.0 0.0796998642 -0.9890386676
16400201600.0 0.0648977096 -0.9903020972
16450201300.0 0.049576503 -0.9911745831
16500201000.0 0.0328315226 -0.9920392124
16550200700.0 0.0172914723 -0.992677735
16600200400.0 0.0016644425 -0.992948348
16650200100.0 -0.0145026126 -0.9927656592
16700199800.0 -0.0306462567 -0.9922510737
16750199500.0 -0.0496841162 -0.9918758154
16800199200.0 -0.0652393944 -0.9911114405
16850198900.0 -0.0797871147 -0.9894760063
16900198600.0 -0.0943405997 -0.9892046082
16950198300.0 -0.1080670057 -0.9880570749
17000198000.0 -0.1207252998 -0.9861377018
17050197700.0 -0.1332080625 -0.9844651286
17100197400.0 -0.1464428668 -0.9823554839
17150197100.0 -0.1589284754 -0.9807785848
17200196800.0 -0.171515489 -0.9781423189
17250196500.0 -0.1846174031 -0.9759161006
17300196200.0 -0.1968490375 -0.9734244012
17350195900.0 -0.2087512511 -0.971308185
17400195600.0 -0.2207840512 -0.96869084
17450195300.0 -0.2341168872 -0.9659366724
17500195000.0 -0.24762862 -0.9626088827
17550194700.0 -0.2612900565 -0.9589790604
17600194400.0 -0.2752611296 -0.9553717448
17650194100.0 -0.2889339822 -0.9508618027
17700193800.0 -0.3019498364 -0.9467054014
17750193500.0 -0.3166475982 -0.941811269
17800193200.0 -0.3307817602 -0.9369503358
17850192900.0 -0.3460059026 -0.9314882864
17900192600.0 -0.3610425236 -0.9253896039
17950192300.0 -0.3765579347 -0.9184398931
18000192000.0 -0.3914682972 -0.9110849961
18050191700.0 -0.4052372882 -0.9034210705
18100191400.0 -0.4195792404 -0.8956530618
18150191100.0 -0.434520193 -0.8876988849
18200190800.0 -0.4514431005 -0.8785007194
18250190500.0 -0.4683788885 -0.8688853457
18300190200.0 -0.4838061491 -0.8605860816
18350189900.0 -0.4988104688 -0.8515350784
18400189600.0 -0.5132843231 -0.8434517335
18450189300.0 -0.526436926 -0.8360314509
18500189000.0 -0.5400416228 -0.8276036131
18550188700.0 -0.5522769655 -0.8198426253
18600188400.0 -0.5642734788 -0.8135454761
18650188100.0 -0.5751505681 -0.8068514014
18700187800.0 -0.585947072 -0.8008413805
18750187500.0 -0.5967949936 -0.7940922621
18800187200.0 -0.6072804541 -0.7870157412
18850186900.0 -0.617343482 -0.7800457385
18900186600.0 -0.6277665529 -0.772845763
18950186300.0 -0.6374378413 -0.7650906643
19000186000.0 -0.6445331861 -0.7587845117
19050185700.0 -0.6544082479 -0.751814113
19100185400.0 -0.6641170028 -0.7433452216
19150185100.0 -0.6737831503 -0.7347365039
19200184800.0 -0.6827970125 -0.7268409179
19250184500.0 -0.6939062481 -0.7172515843
19300184200.0 -0.7058436817 -0.7082721905
19350183900.0 -0.7156031933 -0.6980617034
19400183600.0 -0.725937249 -0.6879828518
19450183300.0 -0.7340184728 -0.6783898539
19500183000.0 -0.7427852317 -0.6682146676
19550182700.0 -0.7527088684 -0.6573313867
19600182400.0 -0.7631136942 -0.6459066641
19650182100.0 -0.774239608 -0.6335134314
19700181800.0 -0.7846873447 -0.6201800163
19750181500.0 -0.7951252699 -0.6059560227
19800181200.0 -0.8055983616 -0.5910370818
19850180900.0 -0.8154568947 -0.5756514726
19900180600.0 -0.8230343327 -0.5612168345
19950180300.0 -0.8324524916 -0.5448523144
20000180000.0 -0.8254060286 -0.5480356521
20050179700.0 -0.8335219083 -0.5337315432
20100179400.0 -0.842170117 -0.5203729641
20150179100.0 -0.8508628503 -0.5075942969
20200178800.0 -0.8586169551 -0.4940778456
20250178500.0 -0.8687805175 -0.4815292626
20300178200.0 -0.8780822792 -0.467517694
20350177900.0 -0.8874509842 -0.4524808307
20400177600.0 -0.8961123778 -0.4382554625
20450177300.0 -0.9047017924 -0.4239154853
20500177000.0 -0.9126704819 -0.4100116526
20550176700.0 -0.9205868772 -0.3968834173
20600176400.0 -0.9274715377 -0.3832347405
20650176100.0 -0.9342227005 -0.3711156716
20700175800.0 -0.9413743619 -0.3586957793
20750175500.0 -0.9469004349 -0.3474792044
20800175200.0 -0.952500124 -0.3367619238
20850174900.0 -0.9573902311 -0.326062483
20900174600.0 -0.9617865751 -0.3142391324
20950174300.0 -0.9656773932 -0.303187682
21000174000.0 -0.9693159856 -0.2921203836
21050173700.0 -0.9716276056 -0.2807536192
21100173400.0 -0.9756162386 -0.2686263028
21150173100.0 -0.9790473882 -0.2567413793
21200172800.0 -0.9828918995 -0.2434965923
21250172500.0 -0.9861699812 -0.2300766981
21300172200.0 -0.9882494698 -0.2157152689
21350171900.0 -0.990395243 -0.2011753856
21400171600.0 -0.9923649971 -0.1870720252
21450171300.0 -0.9922640417 -0.1722770878
21500171000.0 -0.9924073975 -0.1571563942
21550170700.0 -0.9922922353 -0.1421875723
21600170400.0 -0.9926741648 -0.1256152131
21650170100.0 -0.9910857424 -0.1104068616
21700169800.0 -0.9898227401 -0.095344365
21750169500.0 -0.9896109372 -0.0795987187
21800169200.0 -0.9877705112 -0.0624672673
21850168900.0 -0.9867149347 -0.0453509595
21900168600.0 -0.9860883824 -0.0285366426
21950168300.0 -0.9846098568 -0.0132349281
22000168000.0 -0.9842796313 0.0016558796
22050167700.0 -0.9838077008 0.0159891892
22100167400.0 -0.9835902068 0.0311399733
22150167100.0 -0.9845446189 0.0469242086
22200166800.0 -0.9851415679 0.0635241128
22250166500.0 -0.9846046259 0.0800281354
22300166200.0 -0.9839974257 0.0968954669
22350165900.0 -0.9823107628 0.1134207367
22400165600.0 -0.9811090929 0.1293952508
22450165300.0 -0.9793161507 0.1444513384
22500165000.0 -0.9774870074 0.1578628448
22550164700.0 -0.976091575 0.1723685209
22600164400.0 -0.9745698246 0.1883893991
22650164100.0 -0.9717159419 0.2033710961
22700163800.0 -0.9689101424 0.2192403306
22750163500.0 -0.9666059083 0.2344717769
22800163200.0 -0.9643427335 0.2476706363
22850162900.0 -0.961671664 0.2609177716
22900162600.0 -0.9602896038 0.2745199674
22950162300.0 -0.9590588833 0.2872380863
23000162000.0 -0.9576200386 0.2987056489
23050161700.0 -0.9557312825 0.3115041573
23100161400.0 -0.9531606868 0.3242625944
23150161100.0 -0.9506752074 0.3364800612
23200160800.0 -0.947867973 0.3492998701
23250160500.0 -0.9450563652 0.3605910522
23300160200.0 -0.9428895449 0.3733268212
23350159900.0 -0.938403449 0.3866605278
23400159600.0 -0.9333417809 0.399650603
23450159300.0 -0.9292186935 0.4127166381
23500159000.0 -0.9247364611 0.4260847005
23550158700.0 -0.9198842435 0.4392056948
23600158400.0 -0.9147601473 0.4527398218
23650158100.0 -0.9084449836 0.466847067
23700157800.0 -0.9008420025 0.4806018006
23750157500.0 -0.8919439656 0.4947637388
23800157200.0 -0.8834631489 0.5085396686
23850156900.0 -0.8742137247 0.5209672568
23900156600.0 -0.8651663963 0.5333320968
23950156300.0 -0.8555035545 0.5453558434
24000156000.0 -0.8471342475 0.5586212353
24050155700.0 -0.8363680387 0.57000678
24100155400.0 -0.8268213368 0.5818859184
24150155100.0 -0.8160731109 0.593124236
24200154800.0 -0.8054762271 0.6046685796
24250154500.0 -0.7946995357 0.616280208
24300154200.0 -0.7831263748 0.6278146322
24350153900.0 -0.7712322444 0.6383536906
24400153600.0 -0.75886763 0.6486118167
24450153300.0 -0.7473534899 0.6581977003
24500153000.0 -0.7356496046 0.6681508604
24550152700.0 -0.7241440539 0.6778701762
24600152400.0 -0.7122792397 0.6867019638
24650152100.0 -0.7010032806 0.6953511987
