!Created with skrf (http://scikit-rf.org).
# Hz S RI R 50.0 
!freq ReS11 ImS11
300000.0 -0.9765992542 -0.1177749212
50299700.0 -1.000086637 0.0153575178
100299400.0 -0.9980260446 0.0284041435
150299100.0 -1.002928765 0.0453358802
200298800.0 -0.9996141789 0.0584109994
250298500.0 -0.997461338 0.0721152658
300298200.0 -0.9860335794 0.0877562857
350297900.0 -0.9940315357 0.0985383058
400297600.0 -0.9931586992 0.1154522904
450297300.0 -0.9910582529 0.1290687405
500297000.0 -0.9895439385 0.1438990573
550296700.0 -0.9842975174 0.1564330368
600296400.0 -1.017420046 0.1896807284
650296100.0 -0.9824229121 0.1862009877
700295800.0 -0.9794206497 0.200533203
750295500.0 -0.9762496054 0.2145231193
800295200.0 -0.9730394419 0.2286129877
850294900.0 -0.9696208034 0.2424641758
900294600.0 -0.9659425429 0.2562527332
950294300.0 -0.9621937577 0.2697820993
1000294000.0 -0.9580869806 0.2838643876
1050293700.0 -0.9536500616 0.2976337292
1100293400.0 -0.9494234098 0.3121731392
1150293100.0 -0.9454320978 0.3240073866
1200292800.0 -0.9402939575 0.3382448559
1250292500.0 -0.9346613744 0.3517334171
1300292200.0 -0.9289785977 0.3651512837
1350291900.0 -0.9234058617 0.3790739572
1400291600.0 -0.9177318348 0.3920078069
1450291300.0 -0.9123699761 0.4044796137
1500291000.0 -0.9062247924 0.4177154208
1550290700.0 -0.8996135434 0.4311978196
1600290400.0 -0.8933088733 0.4440023961
1650290100.0 -0.8865791307 0.4561936255
1700289800.0 -0.8798700246 0.4695100301
1750289500.0 -0.8727918568 0.4820129397
1800289200.0 -0.8655967308 0.4948759129
1850288900.0 -0.858710671 0.5063998585
1900288600.0 -0.8510407018 0.5192405137
1950288300.0 -0.8425966441 0.5317454265
2000288000.0 -0.8350710974 0.5432983308
2050287700.0 -0.8272495097 0.5555036723
2100287400.0 -0.8192216066 0.5670113681
2150287100.0 -0.8106099731 0.5791396695
2200286800.0 -0.8029496047 0.5895813709
2250286500.0 -0.7941660059 0.6015338498
2300286200.0 -0.7849657901 0.6132611043
2350285900.0 -0.7763368764 0.6241664794
2400285600.0 -0.767572518 0.635131166
2450285300.0 -0.7589671428 0.6456405911
2500285000.0 -0.749412153 0.6567633546
2550284700.0 -0.7401353372 0.6671661583
2600284400.0 -0.7307243936 0.6773726154
2650284100.0 -0.7220310124 0.6877185143
2700283800.0 -0.7112632654 0.6980953927
2750283500.0 -0.7009291662 0.7090039091
2800283200.0 -0.6912047516 0.7185005845
2850282900.0 -0.6811627017 0.7286485544
2900282600.0 -0.6707353548 0.7382588717
2950282300.0 -0.6604922386 0.7474508681
3000282000.0 -0.6496425886 0.7567086169
3050281700.0 -0.638478644 0.7661740489
3100281400.0 -0.626641069 0.7754030719
3150281100.0 -0.6148907677 0.7848639021
3200280800.0 -0.6031812121 0.7933802689
3250280500.0 -0.5924296651 0.8009557253
3300280200.0 -0.5810440209 0.8089686487
3350279900.0 -0.5697417437 0.8164992745
3400279600.0 -0.5573855981 0.8240993032
3450279300.0 -0.5461341942 0.8314511419
3500279000.0 -0.5340803491 0.8383532954
3550278700.0 -0.5217125671 0.8458160549
3600278400.0 -0.5098824026 0.8527943397
3650278100.0 -0.4962856894 0.8604799518
3700277800.0 -0.4843450506 0.8669258161
3750277500.0 -0.4721738188 0.873583892
3800277200.0 -0.4595577417 0.8800099385
3850276900.0 -0.4474396658 0.8857818608
3900276600.0 -0.4367939081 0.8915000082
3950276300.0 -0.4242945553 0.8975083441
4000276000.0 -0.4125319435 0.9035784432
4050275700.0 -0.3994859056 0.9095156492
4100275400.0 -0.3882903736 0.9148034753
4150275100.0 -0.3756415007 0.9210511196
4200274800.0 -0.3624469315 0.9261132168
4250274500.0 -0.3502608406 0.9315000589
4300274200.0 -0.3371359933 0.9367605079
4350273900.0 -0.3232632824 0.9420229883
4400273600.0 -0.3086866939 0.94724881
4450273300.0 -0.2932661976 0.9522352273
4500273000.0 -0.2796758648 0.9566152957
4550272700.0 -0.2655742158 0.9608467076
4600272400.0 -0.2502413257 0.964981054
4650272100.0 -0.2384726835 0.9683445721
4700271800.0 -0.2251280523 0.9716133013
4750271500.0 -0.2134654324 0.974529809
4800271200.0 -0.2009160644 0.977252478
4850270900.0 -0.1870108913 0.9800481101
4900270600.0 -0.1731204627 0.9825730257
4950270300.0 -0.1589691373 0.9848785048
5000270000.0 -0.1445086698 0.9870848704
5050269700.0 -0.1312148261 0.9885333983
5100269400.0 -0.1172628271 0.990638327
5150269100.0 -0.1040338516 0.9920291379
5200268800.0 -0.090773395 0.9928964244
5250268500.0 -0.0775682696 0.9940220538
5300268200.0 -0.064463363 0.9946470131
5350267900.0 -0.0522238351 0.9953942402
5400267600.0 -0.0361077742 0.9963888162
5450267300.0 -0.0230126313 0.996733884
5500267000.0 -0.0077756795 0.9969941226
5550266700.0 0.0071639748 0.9972221312
5600266400.0 0.0223537029 0.997083577
5650266100.0 0.0391140288 0.996969074
5700265800.0 0.0534227659 0.9961400827
5750265500.0 0.0685715842 0.9952783485
5800265200.0 0.0826916724 0.9947689138
5850264900.0 0.0958383162 0.9937576412
5900264600.0 0.1126053848 0.9915477305
5950264300.0 0.124520759 0.989874223
6000264000.0 0.1385977179 0.9885120837
6050263700.0 0.1509600936 0.9866297131
6100263400.0 0.1636010033 0.9853076906
6150263100.0 0.1777987965 0.9827612942
6200262800.0 0.1882850586 0.9808619797
6250262500.0 0.2009871759 0.9784139171
6300262200.0 0.2136328646 0.9757957701
6350261900.0 0.2267073768 0.972760481
6400261600.0 0.2406816084 0.9694953565
6450261300.0 0.2520102865 0.9668564624
6500261000.0 0.2647180536 0.9631637606
6550260700.0 0.2776999551 0.9591212396
6600260400.0 0.2909203174 0.955188011
6650260100.0 0.3049883265 0.9509510499
6700259800.0 0.3167684661 0.946581611
6750259500.0 0.3306296654 0.9416032229
6800259200.0 0.3439156376 0.9365325081
6850258900.0 0.3560942688 0.9316739191
6900258600.0 0.3682191937 0.9264260042
6950258300.0 0.3805559439 0.9211584101
7000258000.0 0.3926454891 0.9157583101
7050257700.0 0.4048705069 0.9097174514
7100257400.0 0.4177327477 0.9035179384
7150257100.0 0.4280582148 0.8982795104
7200256800.0 0.4410377844 0.8918713973
7250256500.0 0.4529479162 0.8852512217
7300256200.0 0.4657946881 0.8785341994
7350255900.0 0.4780278505 0.8715943855
7400255600.0 0.4915366466 0.8643787372
7450255300.0 0.5073885349 0.8558167492
7500255000.0 0.5186867227 0.8484249283
7550254700.0 0.5327559202 0.8398787535
7600254400.0 0.5451065714 0.8316867405
7650254100.0 0.5570086743 0.8239593636
7700253800.0 0.5684891019 0.8159546815
7750253500.0 0.579639657 0.8080957757
7800253200.0 0.5905115731 0.8005688329
7850252900.0 0.6002099543 0.7933631666
7900252600.0 0.6118894646 0.7845423805
7950252300.0 0.6206621747 0.778225864
8000252000.0 0.6307327485 0.7703669424
8050251700.0 0.6412164434 0.7621597217
8100251400.0 0.6512226155 0.7539881916
8150251100.0 0.6615467116 0.7454546117
8200250800.0 0.6706734387 0.7376327074
8250250500.0 0.6793784087 0.7296224297
8300250200.0 0.6893919455 0.7209227064
8350249900.0 0.698236988 0.7122223467
8400249600.0 0.7061261107 0.7042746568
8450249300.0 0.7155694166 0.6949623033
8500249000.0 0.723882093 0.6860545617
8550248700.0 0.7324172787 0.6772029977
8600248400.0 0.7408653747 0.6675607524
8650248100.0 0.7484910001 0.6581512587
8700247800.0 0.7579472468 0.6470396718
8750247500.0 0.7663764597 0.6369672062
8800247200.0 0.7746692353 0.6264784937
8850246900.0 0.7834147099 0.6149522931
8900246600.0 0.7919487783 0.6035544181
8950246300.0 0.801437414 0.5905854223
9000246000.0 0.8105230636 0.5780107966
9050245700.0 0.8194972418 0.5650234337
9100245400.0 0.8278943143 0.5526553449
9150245100.0 0.8376528443 0.5390569815
9200244800.0 0.8472334424 0.5238637573
9250244500.0 0.8564879902 0.5084365993
9300244200.0 0.8648631803 0.4938507987
9350243900.0 0.8727836473 0.4800819663
9400243600.0 0.8795037513 0.4676892033
9450243300.0 0.8854115789 0.4562772087
9500243000.0 0.8917637219 0.4440703813
9550242700.0 0.8953972347 0.4363970705
9600242400.0 0.8994614239 0.4289824647
9650242100.0 0.9031897189 0.4223260782
9700241800.0 0.9076099372 0.4142431918
9750241500.0 0.9116308465 0.4066114845
9800241200.0 0.9164928561 0.397187534
9850240900.0 0.9223435339 0.3857075287
9900240600.0 0.9279373053 0.3740741461
9950240300.0 0.9342118216 0.3581047256
10000240000.0 0.9389697146 0.346616849
10050239700.0 0.9445375981 0.3314227472
10100239400.0 0.9492561439 0.3159598467
10150239100.0 0.9538544385 0.3008524294
10200238800.0 0.958244507 0.2859681215
10250238500.0 0.9613377478 0.2725806552
10300238200.0 0.9647504376 0.2588248257
10350237900.0 0.9673145218 0.2455473764
10400237600.0 0.9697234845 0.2325639953
10450237300.0 0.9723747681 0.2186601424
10500237000.0 0.974553852 0.2061504143
10550236700.0 0.9768599382 0.191926775
10600236400.0 0.9787397547 0.17880486
10650236100.0 0.9814303826 0.1637608209
10700235800.0 0.98324294 0.1520544042
10750235500.0 0.9858794141 0.1382720606
10800235200.0 0.9876974954 0.1246581674
10850234900.0 0.989383344 0.1097176806
10900234600.0 0.9915832042 0.09500471
10950234300.0 0.9934531024 0.0819129379
11000234000.0 0.9951743879 0.0668095143
11050233700.0 0.9968671265 0.0503123156
11100233400.0 0.9984423211 0.0331101612
11150233100.0 0.9996107346 0.0168647368
11200232800.0 1.000081744 0.0017556655
11250232500.0 1.001120265 -0.0146706554
11300232200.0 1.001920047 -0.0328355809
11350231900.0 1.001307111 -0.0487871995
11400231600.0 1.001447195 -0.0637549153
11450231300.0 1.001009181 -0.0790442909
11500231000.0 0.9995929053 -0.0952233015
11550230700.0 0.9992558381 -0.1090510217
11600230400.0 0.9971431086 -0.1213726357
11650230100.0 0.995000674 -0.1335067717
11700229800.0 0.9933647867 -0.1476200856
11750229500.0 0.9906586418 -0.1627230323
11800229200.0 0.9881776792 -0.1759956123
11850228900.0 0.9845314095 -0.1882516032
11900228600.0 0.9810759383 -0.1979104419
11950228300.0 0.9777397261 -0.208474143
12000228000.0 0.9752947545 -0.21730247
12050227700.0 0.9712655508 -0.2304983184
12100227400.0 0.9679440106 -0.2417830273
12150227100.0 0.9628967193 -0.2582505076
12200226800.0 0.9599072479 -0.2688303409
12250226500.0 0.9560287241 -0.2816200817
12300226200.0 0.9515555754 -0.2937424789
12350225900.0 0.946940783 -0.3077875167
12400225600.0 0.9419373138 -0.3210285604
12450225300.0 0.9375177423 -0.3332560318
12500225000.0 0.9324297897 -0.348665507
12550224700.0 0.9270284195 -0.3623165931
12600224400.0 0.9221124922 -0.3749992857
12650224100.0 0.916156235 -0.3894008844
12700223800.0 0.9108945682 -0.4023458978
12750223500.0 0.9054430755 -0.415151741
12800223200.0 0.9000483263 -0.4279080225
12850222900.0 0.8949190039 -0.4401968553
12900222600.0 0.8889662109 -0.4523068397
12950222300.0 0.8828174161 -0.4647894466
13000222000.0 0.8769264388 -0.4761410537
13050221700.0 0.8701039442 -0.4887945209
13100221400.0 0.8637644686 -0.5008121838
13150221100.0 0.8566197609 -0.5137207852
13200220800.0 0.8496946014 -0.5248173689
13250220500.0 0.8424640258 -0.5370940687
13300220200.0 0.8350350374 -0.5477644695
13350219900.0 0.8270788715 -0.5596347253
13400219600.0 0.8186938139 -0.571677338
13450219300.0 0.8092915068 -0.5851874029
13500219000.0 0.7988304602 -0.599430314
13550218700.0 0.7892617741 -0.6117695217
13600218400.0 0.7788414261 -0.6239884954
13650218100.0 0.7694568352 -0.6352434989
13700217800.0 0.7578496788 -0.647703741
13750217500.0 0.7490023812 -0.6586482391
13800217200.0 0.7365370325 -0.6708207658
13850216900.0 0.7263611079 -0.6817910477
13900216600.0 0.7164057876 -0.6911027672
13950216300.0 0.705899945 -0.7010744998
14000216000.0 0.6953208628 -0.7102022461
14050215700.0 0.6858946337 -0.7185679357
14100215400.0 0.6759427832 -0.7277920342
14150215100.0 0.6666458125 -0.7365995802
14200214800.0 0.657350633 -0.7449559483
14250214500.0 0.647074874 -0.7544371885
14300214200.0 0.6368522485 -0.7636917872
14350213900.0 0.6254079551 -0.7733226419
14400213600.0 0.6138146485 -0.7831773234
14450213300.0 0.6006186072 -0.7931685784
14500213000.0 0.5875395144 -0.8032169232
14550212700.0 0.5748687239 -0.812620154
14600212400.0 0.5622786997 -0.8212618145
14650212100.0 0.5501043404 -0.8303429854
14700211800.0 0.5359673326 -0.8399894808
14750211500.0 0.5240986963 -0.8482831606
14800211200.0 0.5117196059 -0.8561351409
14850210900.0 0.4993847018 -0.8635336837
14900210600.0 0.486029146 -0.8713217722
14950210300.0 0.4726082059 -0.8788107999
15000210000.0 0.459865108 -0.8857464274
15050209700.0 0.4475309724 -0.8916691058
15100209400.0 0.4347452393 -0.8979979904
15150209100.0 0.4225303334 -0.9029482152
15200208800.0 0.4096341414 -0.9090869372
15250208500.0 0.3976435126 -0.9132988629
15300208200.0 0.3860141521 -0.91790107
15350207900.0 0.373806445 -0.9225380604
15400207600.0 0.3581390753 -0.9277370541
15450207300.0 0.3443360842 -0.9329166813
15500207000.0 0.3291792429 -0.9376863496
15550206700.0 0.3144132726 -0.9427242239
15600206400.0 0.2985458324 -0.9469541855
15650206100.0 0.2827633877 -0.9512913793
15700205800.0 0.2688941201 -0.9546233755
15750205500.0 0.2544681771 -0.9587704665
15800205200.0 0.2400489503 -0.9620325915
15850204900.0 0.2256968011 -0.9655383276
15900204600.0 0.2106557074 -0.9691847872
15950204300.0 0.1963586633 -0.9723471555
16000204000.0 0.1822999852 -0.9751614369
16050203700.0 0.1675153157 -0.9781331553
16100203400.0 0.1530897792 -0.9801838819
16150203100.0 0.13844229 -0.9827562997
16200202800.0 0.1236876144 -0.9842744419
16250202500.0 0.1096829772 -0.9863597455
16300202200.0 0.0940451737 -0.9875897092
16350201900.0 0.0795095312 -0.9891616765
16400201600.0 0.06453125 -0.9902149571
16450201300.0 0.0493518638 -0.9913706563
16500201000.0 0.0326559831 -0.9920940422
16550200700.0 0.0170101611 -0.9926220457
16600200400.0 0.001350505 -0.9926533537
16650200100.0 -0.014496338 -0.9925602417
16700199800.0 -0.0311532633 -0.9924090245
16750199500.0 -0.0498712489 -0.9914127454
16800199200.0 -0.0657102441 -0.9907106667
16850198900.0 -0.0810165473 -0.9897439768
16900198600.0 -0.0954664189 -0.9881467133
16950198300.0 -0.1079573064 -0.9873384186
17000198000.0 -0.1210338303 -0.9861771953
17050197700.0 -0.1335840465 -0.9838212894
17100197400.0 -0.1464416237 -0.9821132761
17150197100.0 -0.1592942761 -0.9802084048
17200196800.0 -0.1717693932 -0.9779733303
17250196500.0 -0.1847268135 -0.9755333059
17300196200.0 -0.1969975209 -0.9734834139
17350195900.0 -0.2088889233 -0.9712972527
17400195600.0 -0.2211165613 -0.9686495623
17450195300.0 -0.2341872415 -0.9657952784
17500195000.0 -0.2476857144 -0.9624886077
17550194700.0 -0.261710716 -0.9588018839
17600194400.0 -0.2756192883 -0.9548045223
17650194100.0 -0.2891016363 -0.9504051317
17700193800.0 -0.302298534 -0.9469723971
17750193500.0 -0.316477816 -0.9420405301
17800193200.0 -0.3308500657 -0.9367800772
17850192900.0 -0.3460525205 -0.9316940894
17900192600.0 -0.3613027441 -0.9257447027
17950192300.0 -0.3768595065 -0.9184537636
18000192000.0 -0.3916484847 -0.9110576257
18050191700.0 -0.4054136622 -0.9032670322
18100191400.0 -0.4196775718 -0.8955485522
18150191100.0 -0.434717681 -0.8875817187
18200190800.0 -0.4516911239 -0.8783163554
18250190500.0 -0.4685277739 -0.8689341107
18300190200.0 -0.4839500295 -0.8598259919
18350189900.0 -0.4990682277 -0.8517905095
18400189600.0 -0.5132778089 -0.8435390144
18450189300.0 -0.5270423873 -0.8354019364
18500189000.0 -0.5397976223 -0.8276972623
18550188700.0 -0.5529726085 -0.8203025134
18600188400.0 -0.5644145637 -0.8132467897
18650188100.0 -0.5758885022 -0.8069142204
18700187800.0 -0.5862785732 -0.8001435844
18750187500.0 -0.5969893143 -0.7936740453
18800187200.0 -0.6076131041 -0.7867168372
18850186900.0 -0.6176331659 -0.7797562454
18900186600.0 -0.6281250249 -0.7723843261
18950186300.0 -0.6379375591 -0.7646975834
19000186000.0 -0.6454647514 -0.7584493617
19050185700.0 -0.654593563 -0.7513141488
19100185400.0 -0.6644111115 -0.7431681236
19150185100.0 -0.6746981511 -0.7341349895
19200184800.0 -0.6839586554 -0.7257480707
19250184500.0 -0.6937042509 -0.7172044097
19300184200.0 -0.7058560248 -0.7075881495
19350183900.0 -0.7170762219 -0.6979028919
19400183600.0 -0.7258252576 -0.6874184296
19450183300.0 -0.7350417836 -0.6777598849
19500183000.0 -0.7429772153 -0.6676928153
19550182700.0 -0.7530071041 -0.6569968818
19600182400.0 -0.763450732 -0.645172957
19650182100.0 -0.774198235 -0.6329068677
19700181800.0 -0.7851689186 -0.619730109
19750181500.0 -0.7955314276 -0.6055753596
19800181200.0 -0.8061261613 -0.590453567
19850180900.0 -0.8158470212 -0.5750953463
19900180600.0 -0.8234516857 -0.5605494322
19950180300.0 -0.8328808454 -0.5443191537
20000180000.0 -0.825886635 -0.5462460985
20050179700.0 -0.83401769 -0.5331581881
20100179400.0 -0.8423167983 -0.5196821083
20150179100.0 -0.85082284 -0.5073293309
20200178800.0 -0.860148947 -0.4947834801
20250178500.0 -0.8688576308 -0.4810610398
20300178200.0 -0.878997128 -0.4667446872
20350177900.0 -0.8879110565 -0.4521062291
20400177600.0 -0.8966959645 -0.4377761117
20450177300.0 -0.9049072688 -0.4234224817
20500177000.0 -0.9128684406 -0.4094026738
20550176700.0 -0.9207006558 -0.3958750937
20600176400.0 -0.9275053889 -0.3827826812
20650176100.0 -0.9341949276 -0.3705954404
20700175800.0 -0.940438797 -0.3584191759
20750175500.0 -0.9482299866 -0.3469614626
20800175200.0 -0.9526954829 -0.336446469
20850174900.0 -0.9561922051 -0.3253659102
20900174600.0 -0.9611748041 -0.3135860949
20950174300.0 -0.9653298988 -0.3024362246
21000174000.0 -0.9694376409 -0.2908805453
21050173700.0 -0.9718953048 -0.2803316973
21100173400.0 -0.9760864264 -0.2681879964
21150173100.0 -0.9795083194 -0.255524977
21200172800.0 -0.9829486398 -0.2422741678
21250172500.0 -0.9865087778 -0.2285062493
21300172200.0 -0.989318558 -0.2142346695
21350171900.0 -0.9908855292 -0.200245308
21400171600.0 -0.9923957823 -0.1856111564
21450171300.0 -0.9929699376 -0.1708983125
21500171000.0 -0.992904229 -0.1554355273
21550170700.0 -0.9921606902 -0.1402708604
21600170400.0 -0.9929815579 -0.1246824009
21650170100.0 -0.9910128672 -0.1091324056
21700169800.0 -0.9896297306 -0.0938019927
21750169500.0 -0.9883656653 -0.0774351032
21800169200.0 -0.9878969794 -0.0614327179
21850168900.0 -0.987027186 -0.0450597651
21900168600.0 -0.9859498584 -0.027854068
21950168300.0 -0.9843482444 -0.0124125015
22000168000.0 -0.9838128955 0.0026078263
22050167700.0 -0.9831804407 0.016936568
22100167400.0 -0.9836236091 0.0319587456
22150167100.0 -0.9843453928 0.047493986
22200166800.0 -0.9847832548 0.0639841709
22250166500.0 -0.9840637121 0.0810161817
22300166200.0 -0.9840254849 0.0977021441
22350165900.0 -0.9823047583 0.1140855315
22400165600.0 -0.9809786102 0.1303296686
22450165300.0 -0.9787392394 0.1445592724
22500165000.0 -0.9770017882 0.1574244025
22550164700.0 -0.9767637883 0.1739492563
22600164400.0 -0.9734550964 0.1893258807
22650164100.0 -0.9716939978 0.2047831736
22700163800.0 -0.9690036534 0.2199517905
22750163500.0 -0.9662512304 0.2353349564
22800163200.0 -0.9637427033 0.248558284
22850162900.0 -0.96154268 0.2615304827
22900162600.0 -0.9600429602 0.2752884217
22950162300.0 -0.9586779166 0.2878719007
23000162000.0 -0.9577606532 0.2999629845
23050161700.0 -0.9553971295 0.3122030485
23100161400.0 -0.95327466 0.3249436663
23150161100.0 -0.9506661645 0.3375068697
23200160800.0 -0.9478171448 0.3500531869
23250160500.0 -0.9442179019 0.3613078631
23300160200.0 -0.9424395391 0.3743867007
23350159900.0 -0.9391067265 0.387124201
23400159600.0 -0.9341658431 0.4008288289
23450159300.0 -0.9284085896 0.4133807926
23500159000.0 -0.924523297 0.4264811221
23550158700.0 -0.9201220179 0.4398422953
23600158400.0 -0.9143941123 0.4532344463
23650158100.0 -0.9081029157 0.4671447895
23700157800.0 -0.9004323744 0.4809473698
23750157500.0 -0.8922623434 0.4951971083
23800157200.0 -0.8833309218 0.5084071463
23850156900.0 -0.8747461633 0.5217711041
23900156600.0 -0.8652120543 0.5336755952
23950156300.0 -0.8553468844 0.5462920193
24000156000.0 -0.847128156 0.5585009422
24050155700.0 -0.8365414556 0.5700465663
24100155400.0 -0.8271642595 0.5822098939
24150155100.0 -0.8160268285 0.5942448724
24200154800.0 -0.8059012026 0.605068657
24250154500.0 -0.7941005109 0.6165957447
24300154200.0 -0.7823306744 0.6286497048
24350153900.0 -0.7706178577 0.639017077
24400153600.0 -0.7581024362 0.649089226
24450153300.0 -0.7463435476 0.6591532473
24500153000.0 -0.7352027868 0.6687441204
24550152700.0 -0.7232185955 0.6790101977
24600152400.0 -0.7121056826 0.687570778
24650152100.0 -0.7000937452 0.6964757503
