!Created with skrf (http://scikit-rf.org).
# Hz S RI R 50.0 
!freq ReS11 ImS11
300000.0 -0.9727469967 -0.1199425418
50299700.0 -0.9998373393 0.0149445835
100299400.0 -0.9978487742 0.027928128
150299100.0 -1.002653399 0.0449833468
200298800.0 -0.9994024583 0.0581526032
250298500.0 -0.9972915048 0.0717644972
300298200.0 -0.9858617239 0.0875947548
350297900.0 -0.9939890559 0.0983507863
400297600.0 -0.9929043873 0.1151026096
450297300.0 -0.9909722069 0.1287215064
500297000.0 -0.9895607282 0.14359409
550296700.0 -0.9842898565 0.1558705561
600296400.0 -1.01714071 0.1894243015
650296100.0 -0.9820293454 0.1856868736
700295800.0 -0.9792125433 0.2000287847
750295500.0 -0.9763344551 0.2139017847
800295200.0 -0.9728889337 0.2281815907
850294900.0 -0.9696609746 0.2418731743
900294600.0 -0.9657813982 0.2554080689
950294300.0 -0.9620068397 0.2694824412
1000294000.0 -0.9581769867 0.2833053311
1050293700.0 -0.9535356848 0.2969313023
1100293400.0 -0.9492923878 0.3115943628
1150293100.0 -0.9455640474 0.3234190642
1200292800.0 -0.9402168786 0.3378148043
1250292500.0 -0.9346900872 0.3510715917
1300292200.0 -0.9290444413 0.364526293
1350291900.0 -0.9235921851 0.3784165435
1400291600.0 -0.9179597099 0.3915577886
1450291300.0 -0.9125812137 0.4040977755
1500291000.0 -0.9063243917 0.4173938529
1550290700.0 -0.8998220234 0.4306822042
1600290400.0 -0.8936893322 0.443643157
1650290100.0 -0.8868116062 0.4558326707
1700289800.0 -0.8796897638 0.4693068749
1750289500.0 -0.8729467537 0.48159098
1800289200.0 -0.8655277469 0.4946488461
1850288900.0 -0.8588356475 0.5059022348
1900288600.0 -0.8510469817 0.5188011504
1950288300.0 -0.8428288492 0.5311500825
2000288000.0 -0.8354935161 0.5429849866
2050287700.0 -0.8270321067 0.5553653276
2100287400.0 -0.8193503323 0.5667085027
2150287100.0 -0.8111020889 0.5788370074
2200286800.0 -0.8029219939 0.5891747808
2250286500.0 -0.7940500604 0.6014430826
2300286200.0 -0.785278684 0.6127829983
2350285900.0 -0.7768826525 0.623495512
2400285600.0 -0.7679937352 0.6344485742
2450285300.0 -0.7594198888 0.6451536546
2500285000.0 -0.7493155652 0.656545054
2550284700.0 -0.7401909225 0.6669547983
2600284400.0 -0.7312354884 0.6769991704
2650284100.0 -0.7224201939 0.6872233952
2700283800.0 -0.7120115112 0.6975084626
2750283500.0 -0.7013856144 0.7082835436
2800283200.0 -0.6916029672 0.7182175312
2850282900.0 -0.6811551773 0.7281166672
2900282600.0 -0.6709433155 0.7378813478
2950282300.0 -0.6603455827 0.7470528225
3000282000.0 -0.6497066881 0.7564273944
3050281700.0 -0.6383247068 0.7659720477
3100281400.0 -0.6267454533 0.7749168843
3150281100.0 -0.6153963871 0.7839650841
3200280800.0 -0.6040990516 0.7923821429
3250280500.0 -0.5929151152 0.8003485137
3300280200.0 -0.5813704267 0.8084024342
3350279900.0 -0.5694584352 0.8161269834
3400279600.0 -0.5568713164 0.8244692095
3450279300.0 -0.5458994757 0.8314883859
3500279000.0 -0.5341930503 0.8385377329
3550278700.0 -0.5219776214 0.8457337017
3600278400.0 -0.5100722285 0.8524467573
3650278100.0 -0.4967951248 0.8600120334
3700277800.0 -0.4849239824 0.8665372533
3750277500.0 -0.4724497412 0.8733089621
3800277200.0 -0.4597614796 0.879648584
3850276900.0 -0.4478994997 0.8856461027
3900276600.0 -0.437020291 0.8914450133
3950276300.0 -0.4247628915 0.8972252489
4000276000.0 -0.4130388174 0.9032296937
4050275700.0 -0.4004094158 0.9090843954
4100275400.0 -0.3893313822 0.9144697393
4150275100.0 -0.3761190767 0.9207606436
4200274800.0 -0.362925664 0.9261538752
4250274500.0 -0.3503510944 0.9314525622
4300274200.0 -0.3371674794 0.9367251471
4350273900.0 -0.3230801605 0.9421860824
4400273600.0 -0.3082230351 0.9472183548
4450273300.0 -0.2932672686 0.9522038707
4500273000.0 -0.2801082193 0.9564616214
4550272700.0 -0.266121545 0.9603808157
4600272400.0 -0.2510329744 0.9647401248
4650272100.0 -0.2396263839 0.9679052244
4700271800.0 -0.2265030213 0.9711813264
4750271500.0 -0.2149519144 0.9739731109
4800271200.0 -0.2026039781 0.9768912035
4850270900.0 -0.1887440939 0.9796163472
4900270600.0 -0.174891968 0.9819260592
4950270300.0 -0.1605401445 0.9847884821
5000270000.0 -0.1460080514 0.9867296495
5050269700.0 -0.1325781562 0.9883679323
5100269400.0 -0.1184200007 0.9904824097
5150269100.0 -0.1046706065 0.9918331001
5200268800.0 -0.0913122114 0.9926967168
5250268500.0 -0.0783169426 0.9939310331
5300268200.0 -0.064830955 0.9949302509
5350267900.0 -0.0520896131 0.9953088396
5400267600.0 -0.0358312207 0.9963293396
5450267300.0 -0.0224712652 0.9967860118
5500267000.0 -0.0072862098 0.9971040896
5550266700.0 0.0075847191 0.9973954802
5600266400.0 0.0231076801 0.9970703429
5650266100.0 0.0400486064 0.9969840082
5700265800.0 0.0540865597 0.9959246193
5750265500.0 0.0691863676 0.9952992924
5800265200.0 0.082806299 0.9941289278
5850264900.0 0.0962461027 0.9932410191
5900264600.0 0.1123343308 0.9911439455
5950264300.0 0.1240319709 0.9900842145
6000264000.0 0.1380185723 0.9886939177
6050263700.0 0.1498259831 0.9866420546
6100263400.0 0.1620199977 0.9850163667
6150263100.0 0.1769372089 0.9828553596
6200262800.0 0.1866109281 0.9812081829
6250262500.0 0.1989911386 0.9786215197
6300262200.0 0.2114250728 0.9762379017
6350261900.0 0.2243436864 0.9734373122
6400261600.0 0.2381639101 0.9699257853
6450261300.0 0.2493889459 0.967553562
6500261000.0 0.2627847527 0.9640115125
6550260700.0 0.2759631937 0.9598692982
6600260400.0 0.2891323461 0.9558786321
6650260100.0 0.3034254506 0.95160172
6700259800.0 0.3151192199 0.947090873
6750259500.0 0.3293710484 0.9424025995
6800259200.0 0.3422179112 0.9369872737
6850258900.0 0.354753074 0.9320050243
6900258600.0 0.3673250685 0.927016323
6950258300.0 0.3798954047 0.9215681196
7000258000.0 0.3913665199 0.9162257264
7050257700.0 0.4035747768 0.9103764158
7100257400.0 0.4166636097 0.9040172036
7150257100.0 0.4273136472 0.8984202123
7200256800.0 0.440407939 0.8921148282
7250256500.0 0.4527457275 0.8855431502
7300256200.0 0.4653382014 0.8788232715
7350255900.0 0.4783624032 0.871905602
7400255600.0 0.4923505838 0.8644714702
7450255300.0 0.5077018875 0.8553564559
7500255000.0 0.5197115211 0.847699069
7550254700.0 0.5344847115 0.838886346
7600254400.0 0.546528091 0.8305599157
7650254100.0 0.558466427 0.822687539
7700253800.0 0.5703338966 0.8149548387
7750253500.0 0.5809958198 0.8070363684
7800253200.0 0.5918184452 0.7993702333
7850252900.0 0.6014777343 0.7921942043
7900252600.0 0.6130280581 0.7834406563
7950252300.0 0.6215723344 0.7770211553
8000252000.0 0.6315681001 0.7692817896
8050251700.0 0.6419730221 0.7611809895
8100251400.0 0.6520308319 0.7533730195
8150251100.0 0.6619968003 0.7447304972
8200250800.0 0.671448936 0.7367584849
8250250500.0 0.6799359628 0.7286388594
8300250200.0 0.6895589113 0.7201129205
8350249900.0 0.6986382553 0.7115789886
8400249600.0 0.7066853066 0.7035508646
8450249300.0 0.7153873256 0.694490826
8500249000.0 0.7241339916 0.6857756932
8550248700.0 0.7324870262 0.676608986
8600248400.0 0.7407959124 0.6671841034
8650248100.0 0.7484637629 0.6577066894
8700247800.0 0.7578159859 0.6466901974
8750247500.0 0.7660499402 0.6365544724
8800247200.0 0.7741707272 0.6263727031
8850246900.0 0.7829494811 0.6148635825
8900246600.0 0.7913569809 0.603578177
8950246300.0 0.8007132966 0.5908575835
9000246000.0 0.8093875037 0.5784995224
9050245700.0 0.818298097 0.5660862424
9100245400.0 0.8264149998 0.5538727607
9150245100.0 0.8355558503 0.5407984858
9200244800.0 0.84490017 0.5261698235
9250244500.0 0.8539933887 0.5113720835
9300244200.0 0.8619842989 0.4976732263
9350243900.0 0.8697201711 0.4843503351
9400243600.0 0.8764331263 0.4723533166
9450243300.0 0.8821394155 0.461633377
9500243000.0 0.8882433028 0.4499801227
9550242700.0 0.8923981356 0.4421607806
9600242400.0 0.8963859507 0.4346473568
9650242100.0 0.9006218782 0.4279974246
9700241800.0 0.9054159688 0.4191437628
9750241500.0 0.9095206298 0.4118724327
9800241200.0 0.914406517 0.4022345682
9850240900.0 0.9203523723 0.3905816586
9900240600.0 0.9262961525 0.3784681166
9950240300.0 0.9334037965 0.3622554367
10000240000.0 0.937962351 0.3500733957
10050239700.0 0.9442243196 0.3342162993
10100239400.0 0.9491602231 0.3184649258
10150239100.0 0.9536980589 0.3030475306
10200238800.0 0.9581150926 0.2876030538
10250238500.0 0.9614967052 0.2741621677
10300238200.0 0.9647245266 0.259974569
10350237900.0 0.9672643006 0.2469098193
10400237600.0 0.9699968211 0.2335322313
10450237300.0 0.9724896346 0.2200838809
10500237000.0 0.9749409034 0.2071318371
10550236700.0 0.9773868256 0.1927014966
10600236400.0 0.9795140895 0.1790591046
10650236100.0 0.9814322852 0.1646068996
10700235800.0 0.9837462359 0.1524349786
10750235500.0 0.9859231438 0.1387108843
10800235200.0 0.9879207522 0.124716673
10850234900.0 0.9900861358 0.1096519607
10900234600.0 0.9919431485 0.0950274174
10950234300.0 0.9935898446 0.0816270013
11000234000.0 0.9954936548 0.0661328177
11050233700.0 0.9973249632 0.0495829614
11100233400.0 0.9987718786 0.0318886787
11150233100.0 1.000073228 0.0156578314
11200232800.0 1.000465598 -0.0002679951
11250232500.0 1.001485397 -0.0175195264
11300232200.0 1.00155023 -0.0363108871
11350231900.0 1.001804662 -0.0522222815
11400231600.0 1.001578242 -0.067717239
11450231300.0 1.000955508 -0.0835996098
11500231000.0 1.000179827 -0.0996170232
11550230700.0 0.9983186883 -0.1126956629
11600230400.0 0.9965845424 -0.126076706
11650230100.0 0.9948984605 -0.1376336089
11700229800.0 0.992682611 -0.1522541454
11750229500.0 0.9903492751 -0.1664279682
11800229200.0 0.9875744948 -0.1796248274
11850228900.0 0.9840754608 -0.1916663124
11900228600.0 0.980370169 -0.2013607561
11950228300.0 0.9768352056 -0.2116596323
12000228000.0 0.9740431628 -0.2208248884
12050227700.0 0.9705996361 -0.2325718917
12100227400.0 0.9673345539 -0.2439871919
12150227100.0 0.9623870743 -0.2602762862
12200226800.0 0.9588999778 -0.2720855419
12250226500.0 0.9547347421 -0.2844474515
12300226200.0 0.9506767954 -0.2971338961
12350225900.0 0.9452069195 -0.3109207753
12400225600.0 0.9411816322 -0.32251329
12450225300.0 0.9365470721 -0.3361038129
12500225000.0 0.9306598625 -0.35108949
12550224700.0 0.9255257826 -0.3647335411
12600224400.0 0.9206785916 -0.3770677064
12650224100.0 0.914888466 -0.3913510573
12700223800.0 0.9095523843 -0.404275265
12750223500.0 0.9040662092 -0.4173236474
12800223200.0 0.8985557022 -0.4303484623
12850222900.0 0.8935365648 -0.4419856997
12900222600.0 0.8880765803 -0.4539557247
12950222300.0 0.8815342575 -0.4671851133
13000222000.0 0.8758832703 -0.4782806283
13050221700.0 0.8687945945 -0.4912727081
13100221400.0 0.8622028704 -0.5035285703
13150221100.0 0.8548316506 -0.5158373339
13200220800.0 0.8481882555 -0.5272726432
13250220500.0 0.8410871965 -0.5390746189
13300220200.0 0.833451687 -0.5502690432
13350219900.0 0.8253043653 -0.5620599095
13400219600.0 0.8170084146 -0.5740154328
13450219300.0 0.8076695242 -0.5870478698
13500219000.0 0.7981895575 -0.6004284729
13550218700.0 0.7883595066 -0.6128010548
13600218400.0 0.7777994978 -0.6248600459
13650218100.0 0.7687850482 -0.6353372372
13700217800.0 0.7583985336 -0.6469441997
13750217500.0 0.7481872405 -0.6586212452
13800217200.0 0.7371437943 -0.6698767855
13850216900.0 0.7258702363 -0.680989378
13900216600.0 0.7163166867 -0.6902393053
13950216300.0 0.7063961585 -0.7007054314
14000216000.0 0.6957920129 -0.7097292258
14050215700.0 0.6862583362 -0.7171978733
14100215400.0 0.6767971258 -0.7262940216
14150215100.0 0.667786697 -0.7351080049
14200214800.0 0.6581054169 -0.7439797237
14250214500.0 0.6478105348 -0.7535268886
14300214200.0 0.6373268801 -0.7629643102
14350213900.0 0.6261926663 -0.7724525989
14400213600.0 0.6143653025 -0.7821986618
14450213300.0 0.6012124477 -0.7927195073
14500213000.0 0.588771878 -0.8021008815
14550212700.0 0.575904485 -0.8119311375
14600212400.0 0.5638682527 -0.8204510203
14650212100.0 0.5510772432 -0.8292432988
14700211800.0 0.5370116613 -0.8386365501
14750211500.0 0.5246084225 -0.8471676928
14800211200.0 0.5124394751 -0.8553435834
14850210900.0 0.5002822561 -0.862978648
14900210600.0 0.4869927926 -0.8709445075
14950210300.0 0.4736775766 -0.8785089899
15000210000.0 0.4610588462 -0.8852881186
15050209700.0 0.4485169216 -0.8911607121
15100209400.0 0.4356864222 -0.8973611841
15150209100.0 0.4228312583 -0.9025335018
15200208800.0 0.4110666269 -0.9074746261
15250208500.0 0.4003511027 -0.912260279
15300208200.0 0.3875081152 -0.9167138046
15350207900.0 0.3753644332 -0.9217267895
15400207600.0 0.3598704352 -0.9272157078
15450207300.0 0.3452051032 -0.9330623623
15500207000.0 0.3302393501 -0.9375330036
15550206700.0 0.3156255376 -0.9424619869
15600206400.0 0.3001246982 -0.9463280575
15650206100.0 0.2847199058 -0.950698164
15700205800.0 0.2705203972 -0.9546184611
15750205500.0 0.2566549446 -0.9579559638
15800205200.0 0.2424818159 -0.9611527122
15850204900.0 0.2281235666 -0.9647239437
15900204600.0 0.2129984663 -0.9683556531
15950204300.0 0.1987759933 -0.9717936882
16000204000.0 0.1845259172 -0.9742150091
16050203700.0 0.1689305183 -0.9772543556
16100203400.0 0.1544336259 -0.9794637837
16150203100.0 0.1399723639 -0.9818822602
16200202800.0 0.1254189035 -0.9840147895
16250202500.0 0.1105631679 -0.9860698342
16300202200.0 0.0949279065 -0.9875068315
16350201900.0 0.0804467094 -0.9891611064
16400201600.0 0.0655980114 -0.9901038749
16450201300.0 0.0501101653 -0.9913158434
16500201000.0 0.0333030927 -0.9920606518
16550200700.0 0.0173610301 -0.9926962426
16600200400.0 0.0013433202 -0.9926342479
16650200100.0 -0.0146045974 -0.9926026803
16700199800.0 -0.0310233175 -0.9924666527
16750199500.0 -0.0496341462 -0.99188906
16800199200.0 -0.0655888363 -0.9909913578
16850198900.0 -0.0809175475 -0.9897491498
16900198600.0 -0.0955852363 -0.9891318655
16950198300.0 -0.1095617745 -0.9874581753
17000198000.0 -0.1223292399 -0.9858910786
17050197700.0 -0.1348333157 -0.9836314217
17100197400.0 -0.1477099531 -0.9827208767
17150197100.0 -0.1606662403 -0.980330367
17200196800.0 -0.1732289095 -0.9780407373
17250196500.0 -0.1859053883 -0.9755563978
17300196200.0 -0.1984824874 -0.9734803776
17350195900.0 -0.2100768423 -0.9710266502
17400195600.0 -0.2221184065 -0.9683648283
17450195300.0 -0.2350697399 -0.9656211087
17500195000.0 -0.24847738 -0.9622965234
17550194700.0 -0.2622331258 -0.9586027661
17600194400.0 -0.2761083557 -0.9548244198
17650194100.0 -0.2897724817 -0.9507572559
17700193800.0 -0.3027410054 -0.9465309397
17750193500.0 -0.3169234911 -0.9417489823
17800193200.0 -0.3309706198 -0.9364519914
17850192900.0 -0.3463926242 -0.9312675921
17900192600.0 -0.361035003 -0.9250503622
17950192300.0 -0.3763901847 -0.9184635434
18000192000.0 -0.3913150001 -0.9111287577
18050191700.0 -0.4052323784 -0.903103891
18100191400.0 -0.4195332153 -0.8954227677
18150191100.0 -0.4344439854 -0.8874802019
18200190800.0 -0.4511331554 -0.8783720493
18250190500.0 -0.4680097328 -0.8687092164
18300190200.0 -0.4837086666 -0.8601330353
18350189900.0 -0.4988507761 -0.8514728523
18400189600.0 -0.5135758977 -0.8431504748
18450189300.0 -0.5266461253 -0.8354703827
18500189000.0 -0.5401047733 -0.827708569
18550188700.0 -0.5531904375 -0.8198379188
18600188400.0 -0.5650364891 -0.8130256416
18650188100.0 -0.5757833909 -0.806450206
18700187800.0 -0.5869397239 -0.7996450916
18750187500.0 -0.5978663225 -0.7932004549
18800187200.0 -0.6083990001 -0.786314655
18850186900.0 -0.6185420211 -0.7793060984
18900186600.0 -0.6285474621 -0.771837892
18950186300.0 -0.638768549 -0.7643136735
19000186000.0 -0.6465706124 -0.7578608656
19050185700.0 -0.6557272331 -0.7506608597
19100185400.0 -0.6655321126 -0.7422586838
19150185100.0 -0.6755846267 -0.7337314324
19200184800.0 -0.6849633725 -0.725783436
19250184500.0 -0.6959963688 -0.7167676128
19300184200.0 -0.706748517 -0.7070873357
19350183900.0 -0.7179404047 -0.6974699258
19400183600.0 -0.7272247956 -0.688184901
19450183300.0 -0.7361791709 -0.677307318
19500183000.0 -0.7449612168 -0.6671931037
19550182700.0 -0.754336577 -0.6561912718
19600182400.0 -0.7641708215 -0.6448808561
19650182100.0 -0.7753818716 -0.6324595721
19700181800.0 -0.7861000096 -0.6193184537
19750181500.0 -0.7961694448 -0.6053948371
19800181200.0 -0.8063978566 -0.590371584
19850180900.0 -0.8160653521 -0.5749336684
19900180600.0 -0.8239061481 -0.5606718432
19950180300.0 -0.8329514125 -0.5442090599
20000180000.0 -0.8240048875 -0.5473957705
20050179700.0 -0.8322063631 -0.5349029081
20100179400.0 -0.8405963223 -0.521577668
20150179100.0 -0.8477210625 -0.5098917177
20200178800.0 -0.857398133 -0.4966498869
20250178500.0 -0.866673181 -0.4849008969
20300178200.0 -0.8761473502 -0.4705864754
20350177900.0 -0.8852807258 -0.4564008105
20400177600.0 -0.8943899079 -0.4424789611
20450177300.0 -0.9025015747 -0.428204017
20500177000.0 -0.9108472511 -0.4141090981
20550176700.0 -0.9186607339 -0.4005509852
20600176400.0 -0.925570403 -0.3876551294
20650176100.0 -0.9320339953 -0.3756518507
20700175800.0 -0.9390095071 -0.3630784141
20750175500.0 -0.9450659832 -0.3520100511
20800175200.0 -0.9498037481 -0.34173594
20850174900.0 -0.9540411782 -0.3304503539
20900174600.0 -0.9587365238 -0.3197198462
20950174300.0 -0.9617791957 -0.308042469
21000174000.0 -0.9650005526 -0.2976007046
21050173700.0 -0.9675100458 -0.2869470363
21100173400.0 -0.970813911 -0.2767101829
21150173100.0 -0.9741032395 -0.264228121
21200172800.0 -0.9782031811 -0.2505502203
21250172500.0 -0.981879061 -0.2372901412
21300172200.0 -0.9853732439 -0.2233953355
21350171900.0 -0.9870716939 -0.208489579
21400171600.0 -0.9888911582 -0.1944216123
21450171300.0 -0.9899273074 -0.1804465303
21500171000.0 -0.9900274276 -0.1651198349
21550170700.0 -0.9905778839 -0.1505334611
21600170400.0 -0.9918783043 -0.1339821972
21650170100.0 -0.9912201327 -0.1194362228
21700169800.0 -0.9907460484 -0.1033740463
21750169500.0 -0.9901532773 -0.0881762963
21800169200.0 -0.9904529788 -0.0704539187
21850168900.0 -0.989474597 -0.0543384984
21900168600.0 -0.9889727391 -0.0384157739
21950168300.0 -0.9880938094 -0.0226755447
22000168000.0 -0.9881268928 -0.0076806358
22050167700.0 -0.9878477724 0.0073596018
22100167400.0 -0.9886249191 0.0230694169
22150167100.0 -0.9897039361 0.0385839794
22200166800.0 -0.9899403901 0.0550797104
22250166500.0 -0.9890499265 0.0720520965
22300166200.0 -0.9893080879 0.0890734339
22350165900.0 -0.9877026317 0.1049653647
22400165600.0 -0.9854483876 0.1208239173
22450165300.0 -0.9839094707 0.1352763539
22500165000.0 -0.9830154086 0.1497072061
22550164700.0 -0.9821392985 0.1672573788
22600164400.0 -0.9795021256 0.1826314233
22650164100.0 -0.9768173812 0.1969922783
22700163800.0 -0.9743095449 0.2134819218
22750163500.0 -0.9708781019 0.2277139637
22800163200.0 -0.9679318981 0.2412410213
22850162900.0 -0.9649500884 0.2544900542
22900162600.0 -0.9637288784 0.2685678608
22950162300.0 -0.9617471199 0.2818577178
23000162000.0 -0.9601752367 0.2943079935
23050161700.0 -0.9580879899 0.307216214
23100161400.0 -0.9551991747 0.321176254
23150161100.0 -0.9517479393 0.3341527304
23200160800.0 -0.9497972368 0.3464581528
23250160500.0 -0.9469941692 0.3583491169
23300160200.0 -0.9443378974 0.3711244535
23350159900.0 -0.9399506423 0.3852089126
23400159600.0 -0.9346332839 0.3981969811
23450159300.0 -0.9298983044 0.4115165748
23500159000.0 -0.9249195181 0.4254561945
23550158700.0 -0.9198473171 0.4395877909
23600158400.0 -0.9144894923 0.4531784124
23650158100.0 -0.90746494 0.467620099
23700157800.0 -0.8992027019 0.4820272964
23750157500.0 -0.8896223189 0.4961483685
23800157200.0 -0.8810227493 0.5096009296
23850156900.0 -0.8708632753 0.5219190841
23900156600.0 -0.8620005057 0.5348469319
23950156300.0 -0.8516637446 0.5468164358
24000156000.0 -0.8430327476 0.5591707815
24050155700.0 -0.8322613443 0.5715907408
24100155400.0 -0.8218772412 0.5847011954
24150155100.0 -0.8110975712 0.5959200483
24200154800.0 -0.8003506386 0.6076070851
24250154500.0 -0.7892016013 0.6199218725
24300154200.0 -0.7775555168 0.6316672901
24350153900.0 -0.7654059953 0.6426793686
24400153600.0 -0.7533085139 0.653446937
24450153300.0 -0.7413286198 0.6634945116
24500153000.0 -0.7294510192 0.6734925789
24550152700.0 -0.7186980336 0.6835584218
24600152400.0 -0.706838165 0.6922669051
24650152100.0 -0.6943666931 0.7013987482
