!Created with skrf (http://scikit-rf.org).
# Hz S RI R 50.0 
!freq ReS11 ImS11
300000.0 -0.9733745793 -0.1212322597
50299700.0 -0.9998220799 0.0151644047
100299400.0 -0.9978782929 0.0281899405
150299100.0 -1.002667755 0.0448925409
200298800.0 -0.9995031143 0.0582243706
250298500.0 -0.9972001424 0.0717259968
300298200.0 -0.9859690118 0.0876163327
350297900.0 -0.9939393012 0.0984569862
400297600.0 -0.9930700796 0.1151440895
450297300.0 -0.9910570851 0.1288762268
500297000.0 -0.9895915107 0.1436527925
550296700.0 -0.9843906931 0.155923124
600296400.0 -1.017191592 0.1893968722
650296100.0 -0.982202629 0.1860183794
700295800.0 -0.9793597066 0.2000789974
750295500.0 -0.97620022 0.2142023257
800295200.0 -0.9730032655 0.2283903476
850294900.0 -0.9696441856 0.2420737508
900294600.0 -0.9659117331 0.2558865129
950294300.0 -0.9621153832 0.2695371242
1000294000.0 -0.9582367953 0.2834597054
1050293700.0 -0.9536133466 0.297060942
1100293400.0 -0.9491280721 0.3116097577
1150293100.0 -0.9454869397 0.3236883729
1200292800.0 -0.9402543292 0.3379566375
1250292500.0 -0.9346827901 0.3514514727
1300292200.0 -0.9289209229 0.3645901608
1350291900.0 -0.9233774853 0.378586744
1400291600.0 -0.9179721157 0.3917806146
1450291300.0 -0.9126271251 0.4041523445
1500291000.0 -0.9060623736 0.417346906
1550290700.0 -0.8996969884 0.4307303563
1600290400.0 -0.8934425861 0.4438167701
1650290100.0 -0.886823427 0.4558723796
1700289800.0 -0.8801724585 0.4693015878
1750289500.0 -0.8729419418 0.4815763179
1800289200.0 -0.8654732891 0.4944694088
1850288900.0 -0.8588396659 0.5057920401
1900288600.0 -0.850829001 0.5188248761
1950288300.0 -0.8431431429 0.5315727279
2000288000.0 -0.8354817891 0.5428218365
2050287700.0 -0.8271351818 0.555266493
2100287400.0 -0.8192378387 0.5668098953
2150287100.0 -0.8107361383 0.5786124664
2200286800.0 -0.8029009739 0.5892897481
2250286500.0 -0.7940751987 0.6013816422
2300286200.0 -0.7854161625 0.6129493003
2350285900.0 -0.7765888715 0.6236544082
2400285600.0 -0.7677066591 0.6347749309
2450285300.0 -0.7589894157 0.6451033804
2500285000.0 -0.7492518568 0.6566804874
2550284700.0 -0.7401085161 0.6671745011
2600284400.0 -0.7308081006 0.6770403716
2650284100.0 -0.7220659091 0.6873247985
2700283800.0 -0.7119476358 0.6977879803
2750283500.0 -0.7014455826 0.7082486007
2800283200.0 -0.6916888873 0.7180919341
2850282900.0 -0.6812280247 0.728475889
2900282600.0 -0.6706186049 0.7379169031
2950282300.0 -0.6603224598 0.7473024002
3000282000.0 -0.6497645245 0.7566367409
3050281700.0 -0.6385604655 0.7660900939
3100281400.0 -0.6268107429 0.7750746609
3150281100.0 -0.6153608172 0.7843483467
3200280800.0 -0.6038813923 0.7926809592
3250280500.0 -0.5928396103 0.8005371582
3300280200.0 -0.5811860624 0.8083865384
3350279900.0 -0.5694614618 0.8164760881
3400279600.0 -0.556985267 0.8243842174
3450279300.0 -0.54597589 0.8316425368
3500279000.0 -0.5340436461 0.838281777
3550278700.0 -0.5218081789 0.845713632
3600278400.0 -0.5097315496 0.8524697829
3650278100.0 -0.4967350449 0.8600835333
3700277800.0 -0.4846094915 0.8666320292
3750277500.0 -0.4721903835 0.8733406271
3800277200.0 -0.4598583545 0.8796765712
3850276900.0 -0.44762961 0.8855814094
3900276600.0 -0.4368670157 0.8913971428
3950276300.0 -0.4248886941 0.8975470289
4000276000.0 -0.4125924223 0.9030252017
4050275700.0 -0.4002858583 0.9090423195
4100275400.0 -0.3889111066 0.9145907707
4150275100.0 -0.3757655202 0.9205932747
4200274800.0 -0.3625663951 0.9261429498
4250274500.0 -0.349988827 0.9314431213
4300274200.0 -0.3370816521 0.9366537488
4350273900.0 -0.3227840673 0.9420821885
4400273600.0 -0.3082751397 0.9471995726
4450273300.0 -0.2931517163 0.9520959853
4500273000.0 -0.2797531313 0.9564673883
4550272700.0 -0.2660708446 0.9606343629
4600272400.0 -0.2507537242 0.964766689
4650272100.0 -0.2394850395 0.9680327646
4700271800.0 -0.2263475446 0.9714230865
4750271500.0 -0.2145453571 0.9742263719
4800271200.0 -0.2022611526 0.9767743886
4850270900.0 -0.1884069952 0.9795267712
4900270600.0 -0.1745699277 0.9820113083
4950270300.0 -0.1601361426 0.9847463826
5000270000.0 -0.145740634 0.9867915928
5050269700.0 -0.1323085843 0.9884637951
5100269400.0 -0.1181306918 0.9900730982
5150269100.0 -0.1044409048 0.9916886251
5200268800.0 -0.0914301691 0.9924474327
5250268500.0 -0.0778485608 0.9939428604
5300268200.0 -0.0645399155 0.994528869
5350267900.0 -0.052057385 0.9951604107
5400267600.0 -0.035635894 0.9963001802
5450267300.0 -0.022440823 0.9966563518
5500267000.0 -0.0073374062 0.9970246828
5550266700.0 0.0078778216 0.9972127554
5600266400.0 0.0234541543 0.9972576904
5650266100.0 0.0400247621 0.9968931742
5700265800.0 0.0543507559 0.9962117442
5750265500.0 0.0693877407 0.9951034003
5800265200.0 0.0830015108 0.9939376997
5850264900.0 0.0960633282 0.993228835
5900264600.0 0.1127608144 0.9916892835
5950264300.0 0.1245453958 0.9898567105
6000264000.0 0.1379074868 0.9879595763
6050263700.0 0.1503233905 0.9868926152
6100263400.0 0.1624358659 0.9851357111
6150263100.0 0.1768368338 0.9825013539
6200262800.0 0.1869843724 0.9810399823
6250262500.0 0.1994150125 0.9787402968
6300262200.0 0.2119932289 0.9761366071
6350261900.0 0.2248958158 0.9732265434
6400261600.0 0.2388977529 0.970123438
6450261300.0 0.2499258309 0.967423756
6500261000.0 0.2630785475 0.9636699136
6550260700.0 0.2762783586 0.9598337005
6600260400.0 0.2893335224 0.9556755011
6650260100.0 0.3036832085 0.9516344823
6700259800.0 0.3155320074 0.9471061959
6750259500.0 0.329497051 0.9420333086
6800259200.0 0.3427502233 0.9370180369
6850258900.0 0.3553157799 0.9318718052
6900258600.0 0.3674968446 0.9267691018
6950258300.0 0.3799592295 0.921231708
7000258000.0 0.3919984227 0.9160226448
7050257700.0 0.4039063148 0.910177422
7100257400.0 0.4171319338 0.9038320012
7150257100.0 0.4275919233 0.8983652788
7200256800.0 0.4409498711 0.8919678862
7250256500.0 0.4528937949 0.8854212684
7300256200.0 0.465895961 0.8787632994
7350255900.0 0.4785461461 0.8717214969
7400255600.0 0.4927832118 0.8641385113
7450255300.0 0.5078516308 0.8551395404
7500255000.0 0.5200154601 0.8477058634
7550254700.0 0.5338797978 0.83864791
7600254400.0 0.5466838631 0.8304704083
7650254100.0 0.5583066618 0.8229907066
7700253800.0 0.5701505961 0.8149826876
7750253500.0 0.5811368496 0.8071700451
7800253200.0 0.5917197653 0.7993764913
7850252900.0 0.6013815352 0.7920673684
7900252600.0 0.6129970487 0.7833665836
7950252300.0 0.6216258945 0.7770343917
8000252000.0 0.6316769842 0.7692435566
8050251700.0 0.6422195042 0.7611531596
8100251400.0 0.6522512889 0.753243944
8150251100.0 0.6617982589 0.7447001475
8200250800.0 0.6714870602 0.7364937944
8250250500.0 0.6802081386 0.7286464811
8300250200.0 0.6895308203 0.7200952142
8350249900.0 0.6990528461 0.7114804123
8400249600.0 0.7066490335 0.7031627913
8450249300.0 0.7154581331 0.6945821357
8500249000.0 0.7244833971 0.6856775587
8550248700.0 0.732706034 0.6765547258
8600248400.0 0.7407242523 0.6672352432
8650248100.0 0.7485941843 0.6576788078
8700247800.0 0.758044161 0.6466828495
8750247500.0 0.7662794634 0.6364376862
8800247200.0 0.774354495 0.6260962384
8850246900.0 0.782941597 0.6148617565
8900246600.0 0.7913411745 0.6033238524
8950246300.0 0.8009376081 0.5906730583
9000246000.0 0.8095242233 0.5785617462
9050245700.0 0.8182938787 0.5657515789
9100245400.0 0.8272163873 0.5532561376
9150245100.0 0.8360394254 0.540341769
9200244800.0 0.8454703195 0.5255878413
9250244500.0 0.854745688 0.5105695825
9300244200.0 0.8627788536 0.4968918004
9350243900.0 0.8704008048 0.4833878768
9400243600.0 0.8772376049 0.471480205
9450243300.0 0.8826195288 0.4604821471
9500243000.0 0.8890550803 0.4486676433
9550242700.0 0.8929702771 0.4410874691
9600242400.0 0.8968407253 0.4337263108
9650242100.0 0.90106918 0.4268010333
9700241800.0 0.9059075412 0.4184235444
9750241500.0 0.9100844466 0.4105750611
9800241200.0 0.9148560656 0.4014082927
9850240900.0 0.9205852816 0.3896601468
9900240600.0 0.9265401711 0.3779105156
9950240300.0 0.9334186507 0.3613854138
10000240000.0 0.9382051021 0.349561708
10050239700.0 0.9445042787 0.3334705606
10100239400.0 0.9498316766 0.3175112114
10150239100.0 0.9540907424 0.3025671938
10200238800.0 0.9582006646 0.286929331
10250238500.0 0.9615936858 0.2736142846
10300238200.0 0.9647026011 0.2596033049
10350237900.0 0.9675667366 0.2463632533
10400237600.0 0.9698486607 0.233383651
10450237300.0 0.9727802416 0.2193893237
10500237000.0 0.975035648 0.2065906326
10550236700.0 0.9775138726 0.1920692242
10600236400.0 0.9794775437 0.1784803023
10650236100.0 0.9814510823 0.1643391702
10700235800.0 0.9838204188 0.1523509232
10750235500.0 0.9861154645 0.1384567657
10800235200.0 0.9880763184 0.1244918927
10850234900.0 0.9899343091 0.1096421139
10900234600.0 0.9917794322 0.0949263023
10950234300.0 0.9936604872 0.0814551804
11000234000.0 0.9954962098 0.0660884994
11050233700.0 0.9973327188 0.0495067595
11100233400.0 0.9987172627 0.031897736
11150233100.0 0.9995812203 0.0156288363
11200232800.0 1.000588391 -0.0007472086
11250232500.0 1.001288536 -0.0171196382
11300232200.0 1.002506768 -0.0360653412
11350231900.0 1.002587259 -0.0528722322
11400231600.0 1.001239497 -0.0672797766
11450231300.0 1.000957518 -0.0834056022
11500231000.0 0.9998562274 -0.1001873203
11550230700.0 0.9980194295 -0.1129097123
11600230400.0 0.9973512 -0.1260204141
11650230100.0 0.994455878 -0.1375600908
11700229800.0 0.9927925994 -0.1524368441
11750229500.0 0.9901651539 -0.1661936914
11800229200.0 0.987597459 -0.1799539539
11850228900.0 0.9841034383 -0.1917979476
11900228600.0 0.980365127 -0.2014687899
11950228300.0 0.9768705211 -0.2117404043
12000228000.0 0.9742124283 -0.2201905047
12050227700.0 0.9700891661 -0.2336591629
12100227400.0 0.9674259193 -0.2442792993
12150227100.0 0.9618388564 -0.2613212527
12200226800.0 0.9587718262 -0.2710031565
12250226500.0 0.9548948027 -0.2846030034
12300226200.0 0.9508467224 -0.2973076443
12350225900.0 0.9455572559 -0.3106485217
12400225600.0 0.9414313408 -0.3235821931
12450225300.0 0.9362735851 -0.3359958228
12500225000.0 0.9312890308 -0.3505052745
12550224700.0 0.9255398833 -0.3641083868
12600224400.0 0.9208488652 -0.3773074239
12650224100.0 0.9147932028 -0.3915386136
12700223800.0 0.9096341371 -0.404291143
12750223500.0 0.9040623613 -0.4174513733
12800223200.0 0.8987132417 -0.4301521879
12850222900.0 0.8935099351 -0.4424276102
12900222600.0 0.8876795809 -0.4542813523
12950222300.0 0.8814322553 -0.467058707
13000222000.0 0.8756287719 -0.4780131072
13050221700.0 0.8686822957 -0.4914114908
13100221400.0 0.8620240536 -0.5033106308
13150221100.0 0.8552064378 -0.5154393173
13200220800.0 0.8481562579 -0.5272507478
13250220500.0 0.8411533198 -0.5392028587
13300220200.0 0.833627245 -0.5499840282
13350219900.0 0.8252955064 -0.5620293999
13400219600.0 0.8170809985 -0.5741363852
13450219300.0 0.807722291 -0.587209308
13500219000.0 0.797848465 -0.6008436041
13550218700.0 0.7879691404 -0.6129471886
13600218400.0 0.7775623142 -0.6246997424
13650218100.0 0.7680345999 -0.6360465083
13700217800.0 0.7579088928 -0.6470579288
13750217500.0 0.7479083288 -0.658649051
13800217200.0 0.7360317877 -0.6705921093
13850216900.0 0.7264508848 -0.6818301612
13900216600.0 0.7158833201 -0.6907044863
13950216300.0 0.705307922 -0.7006364598
14000216000.0 0.6955762594 -0.7090262133
14050215700.0 0.6861797241 -0.717777773
14100215400.0 0.6763607617 -0.7268753328
14150215100.0 0.6671333256 -0.73566871
14200214800.0 0.6578994344 -0.7441990526
14250214500.0 0.6473715503 -0.7536972144
14300214200.0 0.6369796912 -0.763071212
14350213900.0 0.6260950547 -0.7726959389
14400213600.0 0.6138680715 -0.7826923066
14450213300.0 0.6011920687 -0.7928715628
14500213000.0 0.5878107568 -0.8025227954
14550212700.0 0.5751780291 -0.8123465727
14600212400.0 0.5630772162 -0.820738412
14650212100.0 0.5501251743 -0.8294390142
14700211800.0 0.5365580322 -0.839380407
14750211500.0 0.5246161745 -0.8477386456
14800211200.0 0.5121305296 -0.8558660305
14850210900.0 0.4999177961 -0.8632429363
14900210600.0 0.4862464045 -0.8711462276
14950210300.0 0.4730180538 -0.8787068384
15000210000.0 0.4601086386 -0.8856584605
15050209700.0 0.4482887344 -0.8916456214
15100209400.0 0.4354822361 -0.8974574158
15150209100.0 0.4230794247 -0.9032452447
15200208800.0 0.4102752596 -0.9081455594
15250208500.0 0.3997307579 -0.9131365702
15300208200.0 0.3866195654 -0.9172012832
15350207900.0 0.3732958826 -0.922720159
15400207600.0 0.3594821414 -0.9283114205
15450207300.0 0.344623704 -0.932842025
15500207000.0 0.3301091533 -0.9374268745
15550206700.0 0.3156509226 -0.9423053284
15600206400.0 0.2993441984 -0.9464239447
15650206100.0 0.283206655 -0.9509641219
15700205800.0 0.2699271247 -0.9546225194
15750205500.0 0.2556409392 -0.9578049176
15800205200.0 0.2413934702 -0.9614808691
15850204900.0 0.2272177961 -0.9648721093
15900204600.0 0.2122896404 -0.9686562906
15950204300.0 0.1980534099 -0.9718375079
16000204000.0 0.1837432147 -0.9747084439
16050203700.0 0.1684028813 -0.9774267875
16100203400.0 0.1537423644 -0.9794111459
16150203100.0 0.1387691014 -0.9819287902
16200202800.0 0.125319817 -0.9844729047
16250202500.0 0.1100724329 -0.9861059589
16300202200.0 0.0945670165 -0.9872121326
16350201900.0 0.0796462272 -0.9890432711
16400201600.0 0.0652058773 -0.9902318866
16450201300.0 0.0493327801 -0.9911122313
16500201000.0 0.0325344345 -0.9920991107
16550200700.0 0.0165993261 -0.9925009118
16600200400.0 0.0006418253 -0.9926804575
16650200100.0 -0.0154661482 -0.9927965573
16700199800.0 -0.0322157301 -0.9923350764
16750199500.0 -0.0504061323 -0.9916596188
16800199200.0 -0.066238015 -0.9905452672
16850198900.0 -0.0823947231 -0.9892704296
16900198600.0 -0.0956231189 -0.9888579718
16950198300.0 -0.1101624725 -0.9877701
17000198000.0 -0.1228812339 -0.9860394818
17050197700.0 -0.1350620017 -0.9839920614
17100197400.0 -0.1478257414 -0.9819049323
17150197100.0 -0.1606579082 -0.979987175
17200196800.0 -0.1737364835 -0.9779896406
17250196500.0 -0.1864717485 -0.9754164424
17300196200.0 -0.1984897653 -0.9732598147
17350195900.0 -0.2102491103 -0.9709251883
17400195600.0 -0.2222718548 -0.9684226953
17450195300.0 -0.2352186695 -0.9656308159
17500195000.0 -0.2487178324 -0.9621905999
17550194700.0 -0.2624852491 -0.9586942235
17600194400.0 -0.2764279973 -0.9548886743
17650194100.0 -0.2901239356 -0.9503954348
17700193800.0 -0.3027188506 -0.9462736389
17750193500.0 -0.3178230826 -0.9416231991
17800193200.0 -0.331635848 -0.9366908448
17850192900.0 -0.3467079552 -0.9313995764
17900192600.0 -0.3616265117 -0.9250058434
17950192300.0 -0.3771325787 -0.9178259222
18000192000.0 -0.3921251482 -0.9105395726
18050191700.0 -0.4058257917 -0.90281327
18100191400.0 -0.4200091872 -0.8951678449
18150191100.0 -0.4349465507 -0.8871978938
18200190800.0 -0.4517690894 -0.8780435392
18250190500.0 -0.4688887276 -0.8684092875
18300190200.0 -0.4844488658 -0.8596735936
18350189900.0 -0.4995423463 -0.8512810551
18400189600.0 -0.514092966 -0.8434454054
18450189300.0 -0.527400892 -0.8346660933
18500189000.0 -0.5403349558 -0.8273668171
18550188700.0 -0.5535104957 -0.8192372898
18600188400.0 -0.5653224169 -0.8125378913
18650188100.0 -0.5764232906 -0.8058015167
18700187800.0 -0.5872217995 -0.7995461842
18750187500.0 -0.5980507544 -0.7926841914
18800187200.0 -0.6086953495 -0.785777177
18850186900.0 -0.6189197757 -0.7788005178
18900186600.0 -0.629079439 -0.7714717267
18950186300.0 -0.6390650654 -0.763653629
19000186000.0 -0.6465159231 -0.7576055386
19050185700.0 -0.6561606094 -0.7501457716
19100185400.0 -0.6660924226 -0.7420980316
19150185100.0 -0.6761171427 -0.733812092
19200184800.0 -0.685242264 -0.7259574785
19250184500.0 -0.6958087549 -0.7159597255
19300184200.0 -0.7074855922 -0.7063524608
19350183900.0 -0.7183204948 -0.6971572888
19400183600.0 -0.7275091309 -0.6869456172
19450183300.0 -0.7366301861 -0.6774458535
19500183000.0 -0.7443209789 -0.66721409
19550182700.0 -0.7549089684 -0.6557736023
19600182400.0 -0.7648374801 -0.6442251104
19650182100.0 -0.7754038343 -0.6319818395
19700181800.0 -0.7860696425 -0.6188794111
19750181500.0 -0.7965438748 -0.6047570584
19800181200.0 -0.8067467561 -0.58987052
19850180900.0 -0.8164991026 -0.5742705307
19900180600.0 -0.8241732978 -0.5600062173
19950180300.0 -0.8333612921 -0.5436603893
20000180000.0 -0.8240000535 -0.5470612657
20050179700.0 -0.8326023157 -0.5341328368
20100179400.0 -0.8410125155 -0.5211654245
20150179100.0 -0.8491100577 -0.5081820213
20200178800.0 -0.8572545118 -0.4975831604
20250178500.0 -0.8671432515 -0.4837815895
20300178200.0 -0.8762855713 -0.4698995122
20350177900.0 -0.8858809643 -0.4557971104
20400177600.0 -0.8946740839 -0.4413561603
20450177300.0 -0.9030948422 -0.4269604681
20500177000.0 -0.9111043621 -0.4132296765
20550176700.0 -0.918943391 -0.3995015271
20600176400.0 -0.925714148 -0.3865832736
20650176100.0 -0.932681501 -0.3740266532
20700175800.0 -0.939137506 -0.3628218057
20750175500.0 -0.9457549441 -0.3510009767
20800175200.0 -0.950035587 -0.3395944753
20850174900.0 -0.9552260303 -0.3280866514
20900174600.0 -0.9586779246 -0.3179106498
20950174300.0 -0.9631053976 -0.3069103401
21000174000.0 -0.9659667799 -0.295671466
21050173700.0 -0.9685027001 -0.2859908562
21100173400.0 -0.9723445449 -0.2747284861
21150173100.0 -0.9754502487 -0.2621167733
21200172800.0 -0.9792724009 -0.248816134
21250172500.0 -0.9829110798 -0.2357948637
21300172200.0 -0.9859518058 -0.2211866527
21350171900.0 -0.9879300418 -0.2067430051
21400171600.0 -0.9898276222 -0.1927017194
21450171300.0 -0.9903046558 -0.1780045696
21500171000.0 -0.9906476548 -0.162800402
21550170700.0 -0.9907947684 -0.1491338271
21600170400.0 -0.9914327539 -0.1321527399
21650170100.0 -0.9920222047 -0.1178278764
21700169800.0 -0.9908729809 -0.101168227
21750169500.0 -0.9903350829 -0.0861278823
21800169200.0 -0.9897045892 -0.0693375428
21850168900.0 -0.9888075802 -0.0526013351
21900168600.0 -0.9880514278 -0.0358974182
21950168300.0 -0.9878417505 -0.0203923629
22000168000.0 -0.9875158244 -0.005749123
22050167700.0 -0.9877268704 0.0090327262
22100167400.0 -0.9880160752 0.024368008
22150167100.0 -0.9888482104 0.0401186129
22200166800.0 -0.9894588593 0.0571383391
22250166500.0 -0.9884191628 0.0738377677
22300166200.0 -0.987418865 0.0901301877
22350165900.0 -0.9867464946 0.1067934119
22400165600.0 -0.9854468499 0.1229346976
22450165300.0 -0.9829702895 0.1380740012
22500165000.0 -0.9811398572 0.1517965421
22550164700.0 -0.98095447 0.1674445725
22600164400.0 -0.9785269305 0.1835755995
22650164100.0 -0.9761080343 0.1991185936
22700163800.0 -0.9727162063 0.2152552136
22750163500.0 -0.9704301313 0.229596246
22800163200.0 -0.966992277 0.2433147032
22850162900.0 -0.9645802843 0.2563300358
22900162600.0 -0.9628153816 0.2700457791
22950162300.0 -0.9614309138 0.2835167276
23000162000.0 -0.9599313047 0.2958213848
23050161700.0 -0.9575287559 0.3087851615
23100161400.0 -0.9551554715 0.3225072668
23150161100.0 -0.9525973271 0.3350719083
23200160800.0 -0.9487460245 0.3478116216
23250160500.0 -0.9462988671 0.3594332566
23300160200.0 -0.9433431947 0.3720092304
23350159900.0 -0.9398199512 0.3859107283
23400159600.0 -0.9350615903 0.3989131816
23450159300.0 -0.9299568519 0.4124962041
23500159000.0 -0.9251955099 0.4259389943
23550158700.0 -0.9199963734 0.4398849461
23600158400.0 -0.914403571 0.4536347426
23650158100.0 -0.9075279693 0.4679366953
23700157800.0 -0.8991866842 0.482176454
23750157500.0 -0.8899032646 0.4960646033
23800157200.0 -0.8804890496 0.5101402452
23850156900.0 -0.8719646382 0.5224297696
23900156600.0 -0.8624298036 0.5353791281
23950156300.0 -0.8522694121 0.548221914
24000156000.0 -0.8429535985 0.5607844579
24050155700.0 -0.8319578292 0.572422238
24100155400.0 -0.8224022909 0.5837996894
24150155100.0 -0.811473499 0.5962126756
24200154800.0 -0.8004838285 0.6077431987
24250154500.0 -0.7891265677 0.6203562105
24300154200.0 -0.7775098556 0.6319005847
24350153900.0 -0.7657885538 0.6429362012
24400153600.0 -0.7532929753 0.6531952818
24450153300.0 -0.7411890622 0.6634169779
24500153000.0 -0.7293698947 0.6733844014
24550152700.0 -0.7181405846 0.6833888413
24600152400.0 -0.7067876447 0.6929210008
24650152100.0 -0.6952935395 0.7012033605
