!Created with skrf (http://scikit-rf.org).
# Hz S RI R 50.0 
!freq ReS11 ImS11
300000.0 -0.9754138081 -0.1217358459
50299700.0 -1.000003746 0.0151809427
100299400.0 -0.998008184 0.0280150944
150299100.0 -1.002627828 0.0449911059
200298800.0 -0.999590645 0.0582985952
250298500.0 -0.9973002092 0.0718025516
300298200.0 -0.9860983846 0.087491388
350297900.0 -0.9939006775 0.0984525882
400297600.0 -0.9931359743 0.1150415007
450297300.0 -0.9907689324 0.128823652
500297000.0 -0.9893774401 0.1434587122
550296700.0 -0.9844298488 0.1558482946
600296400.0 -1.01730123 0.1891783865
650296100.0 -0.982189308 0.1856952586
700295800.0 -0.979290033 0.2002352096
750295500.0 -0.9762380337 0.214112846
800295200.0 -0.9728434778 0.228201383
850294900.0 -0.9695914787 0.241801543
900294600.0 -0.9657857909 0.2556102917
950294300.0 -0.9620921044 0.2695441149
1000294000.0 -0.958039567 0.2833133862
1050293700.0 -0.9536584166 0.2972609244
1100293400.0 -0.9493207838 0.311547737
1150293100.0 -0.9454536517 0.323653818
1200292800.0 -0.9402457244 0.3378825007
1250292500.0 -0.9346901006 0.3513335307
1300292200.0 -0.9292065756 0.3644489853
1350291900.0 -0.923392067 0.3785499197
1400291600.0 -0.9181102373 0.3919460552
1450291300.0 -0.9124977493 0.4043450616
1500291000.0 -0.9063397181 0.4175348291
1550290700.0 -0.8996535972 0.4308644626
1600290400.0 -0.8934256008 0.4436635454
1650290100.0 -0.8868328586 0.4560016465
1700289800.0 -0.8797932851 0.4691799347
1750289500.0 -0.8728227526 0.4817243901
1800289200.0 -0.8655561804 0.4946213909
1850288900.0 -0.8587517683 0.5059255041
1900288600.0 -0.8509016679 0.518757885
1950288300.0 -0.8430150116 0.5315780464
2000288000.0 -0.83542045 0.5429442175
2050287700.0 -0.8269401787 0.5553548333
2100287400.0 -0.8192834458 0.5667445661
2150287100.0 -0.8108344801 0.5789179053
2200286800.0 -0.8029475157 0.5891623409
2250286500.0 -0.7940602474 0.6014961139
2300286200.0 -0.7850485389 0.61307126
2350285900.0 -0.7768352748 0.6235603594
2400285600.0 -0.7677213539 0.6346137564
2450285300.0 -0.7590731928 0.6452086947
2500285000.0 -0.7490128188 0.6565701743
2550284700.0 -0.7402891995 0.666989913
2600284400.0 -0.7309759087 0.6769901449
2650284100.0 -0.722093408 0.6872920504
2700283800.0 -0.7115091354 0.6975599036
2750283500.0 -0.7015211788 0.70874402
2800283200.0 -0.6912948849 0.7179754048
2850282900.0 -0.681167563 0.7283431611
2900282600.0 -0.6706678811 0.7379871166
2950282300.0 -0.6604979756 0.7472424273
3000282000.0 -0.6497605984 0.7566425448
3050281700.0 -0.6384486049 0.7659793649
3100281400.0 -0.6266936837 0.7751802354
3150281100.0 -0.6152892781 0.7842222309
3200280800.0 -0.6039120931 0.7926258766
3250280500.0 -0.5929127947 0.8006101737
3300280200.0 -0.5812702756 0.808590649
3350279900.0 -0.5692884291 0.8165074976
3400279600.0 -0.55696547 0.824344766
3450279300.0 -0.5457995941 0.8312938148
3500279000.0 -0.5339788388 0.8382127799
3550278700.0 -0.5218084182 0.8454748842
3600278400.0 -0.5096599845 0.8527692659
3650278100.0 -0.4965242002 0.8598662612
3700277800.0 -0.4845371363 0.8666050109
3750277500.0 -0.4722436256 0.8731964854
3800277200.0 -0.4596563465 0.8796128426
3850276900.0 -0.447634785 0.8858670542
3900276600.0 -0.4367568783 0.8913174181
3950276300.0 -0.4244675672 0.8972403223
4000276000.0 -0.41294531 0.9033416405
4050275700.0 -0.40008373 0.9094471449
4100275400.0 -0.3887163265 0.914374878
4150275100.0 -0.3758317704 0.9205697438
4200274800.0 -0.3628606351 0.9260351901
4250274500.0 -0.350035787 0.9315094814
4300274200.0 -0.3369705049 0.9368572881
4350273900.0 -0.3230564508 0.9421422808
4400273600.0 -0.3079493205 0.9472474275
4450273300.0 -0.2929142762 0.9519515216
4500273000.0 -0.2797781897 0.9564600208
4550272700.0 -0.2659989929 0.9607727921
4600272400.0 -0.2507299346 0.9649551476
4650272100.0 -0.2391518801 0.9679132616
4700271800.0 -0.2262765938 0.9713828688
4750271500.0 -0.2146782105 0.9741837176
4800271200.0 -0.202183769 0.9768232188
4850270900.0 -0.1884219462 0.9796890633
4900270600.0 -0.1744848108 0.9820109213
4950270300.0 -0.1600091096 0.9847353279
5000270000.0 -0.1456850069 0.9868000736
5050269700.0 -0.1321452759 0.9881970323
5100269400.0 -0.1184039102 0.9899508561
5150269100.0 -0.1042876518 0.9919646545
5200268800.0 -0.0908785731 0.9927040672
5250268500.0 -0.0781189908 0.9938589745
5300268200.0 -0.0645664787 0.9946886382
5350267900.0 -0.0519071169 0.9951308634
5400267600.0 -0.0357661244 0.9962729179
5450267300.0 -0.0225292818 0.9965472487
5500267000.0 -0.0072700046 0.997054606
5550266700.0 0.0076599356 0.9973732711
5600266400.0 0.0235030178 0.9972012045
5650266100.0 0.0399769226 0.9968439831
5700265800.0 0.0545801757 0.9959621455
5750265500.0 0.0690482941 0.9949971218
5800265200.0 0.0828549701 0.9943026036
5850264900.0 0.0962777944 0.9932953484
5900264600.0 0.1126497873 0.9914528672
5950264300.0 0.1246861696 0.9900376691
6000264000.0 0.138129447 0.9882292077
6050263700.0 0.1502924972 0.9870564114
6100263400.0 0.1622261022 0.9851657066
6150263100.0 0.1769233402 0.9825155826
6200262800.0 0.1868021256 0.9810368225
6250262500.0 0.1995788809 0.9785504722
6300262200.0 0.2119081474 0.9760418381
6350261900.0 0.2249893743 0.9731730536
6400261600.0 0.2389116812 0.9699121846
6450261300.0 0.2499845844 0.9674029766
6500261000.0 0.2629973976 0.9637450425
6550260700.0 0.2761873412 0.9597896922
6600260400.0 0.2898259996 0.9559981116
6650260100.0 0.3037415603 0.9513978951
6700259800.0 0.3158547375 0.9472364386
6750259500.0 0.3294570386 0.9419440183
6800259200.0 0.342856983 0.9370051596
6850258900.0 0.3551381691 0.9317505308
6900258600.0 0.3676218643 0.9266303362
6950258300.0 0.3800849303 0.9212997507
7000258000.0 0.3919208596 0.9160019467
7050257700.0 0.4038805268 0.9101623148
7100257400.0 0.4170254583 0.9037715963
7150257100.0 0.4277053405 0.8984959361
7200256800.0 0.4407798775 0.8919267311
7250256500.0 0.4532157736 0.8854331708
7300256200.0 0.4660780993 0.8784988548
7350255900.0 0.4789302053 0.8718860404
7400255600.0 0.4926923013 0.8645764695
7450255300.0 0.5081625743 0.8552917185
7500255000.0 0.5203800175 0.8475972783
7550254700.0 0.5343018674 0.838816622
7600254400.0 0.5473419751 0.8304357716
7650254100.0 0.5580935489 0.8227471359
7700253800.0 0.5700946657 0.8147234983
7750253500.0 0.5813327588 0.8068260635
7800253200.0 0.5918844042 0.7991779833
7850252900.0 0.6015341218 0.791945458
7900252600.0 0.6131771092 0.7833579496
7950252300.0 0.6216577702 0.7768034421
8000252000.0 0.6314921302 0.7693211287
8050251700.0 0.6421108014 0.7610984397
8100251400.0 0.6519790213 0.753021598
8150251100.0 0.6620486968 0.7447104821
8200250800.0 0.6718010458 0.7363225273
8250250500.0 0.680269926 0.7286083505
8300250200.0 0.6895437266 0.7203031221
8350249900.0 0.6987737014 0.7112088387
8400249600.0 0.7068003256 0.7031345702
8450249300.0 0.7154216435 0.6943595129
8500249000.0 0.7241076887 0.6856903271
8550248700.0 0.7324714605 0.6766633173
8600248400.0 0.7408957807 0.6670711123
8650248100.0 0.7486523291 0.6574059467
8700247800.0 0.7580120003 0.6467271313
8750247500.0 0.7661802371 0.6364694018
8800247200.0 0.7744256051 0.6261107591
8850246900.0 0.7830510348 0.6146036707
8900246600.0 0.7915998462 0.6033056466
8950246300.0 0.8006975268 0.5903463697
9000246000.0 0.8099985439 0.5783409104
9050245700.0 0.8184750724 0.5655944146
9100245400.0 0.8267680087 0.5533700947
9150245100.0 0.8357302092 0.5403580172
9200244800.0 0.8454837843 0.5256490865
9250244500.0 0.8544777112 0.5106807778
9300244200.0 0.8627876243 0.4967085473
9350243900.0 0.8703951395 0.4833844223
9400243600.0 0.8771812917 0.4713807333
9450243300.0 0.882806984 0.4606469659
9500243000.0 0.8889143918 0.4487411648
9550242700.0 0.8929421771 0.4412842113
9600242400.0 0.8971737509 0.4335154267
9650242100.0 0.9011656375 0.4269084275
9700241800.0 0.9056919823 0.4184088027
9750241500.0 0.9099381215 0.410800121
9800241200.0 0.9148183315 0.4013790561
9850240900.0 0.9206295585 0.3899095647
9900240600.0 0.9264258243 0.3778463356
9950240300.0 0.9334076772 0.361479283
10000240000.0 0.9380521512 0.3496192471
10050239700.0 0.9442689167 0.3335253872
10100239400.0 0.9493250694 0.3178824898
10150239100.0 0.9543462865 0.3020692896
10200238800.0 0.9581606693 0.286993364
10250238500.0 0.961510784 0.2736784881
10300238200.0 0.9645901356 0.2596159228
10350237900.0 0.9672426605 0.2463794588
10400237600.0 0.969975628 0.2329975544
10450237300.0 0.9728214139 0.2192973101
10500237000.0 0.9746041832 0.2072325317
10550236700.0 0.9772151 0.1923569443
10600236400.0 0.9795790259 0.1788089061
10650236100.0 0.9815244001 0.1638682971
10700235800.0 0.9838486595 0.1516190117
10750235500.0 0.9858495533 0.1381951301
10800235200.0 0.9880038005 0.1245905733
10850234900.0 0.9897643452 0.109889102
10900234600.0 0.9918679409 0.0950495014
10950234300.0 0.9935547073 0.0813978846
11000234000.0 0.9954178815 0.0659320963
11050233700.0 0.9972389492 0.0494376951
11100233400.0 0.9989559774 0.0314337514
11150233100.0 0.9999574548 0.0150084189
11200232800.0 1.000620452 -0.0006494533
11250232500.0 1.001558716 -0.0183229371
11300232200.0 1.001612095 -0.035770938
11350231900.0 1.002006043 -0.0519821381
11400231600.0 1.001827461 -0.0679937083
11450231300.0 1.001128268 -0.0833913695
11500231000.0 0.9998391121 -0.0997886964
11550230700.0 0.9984588048 -0.1130919826
11600230400.0 0.9970681725 -0.1260008561
11650230100.0 0.994967171 -0.1378883286
11700229800.0 0.9925789414 -0.1522116043
11750229500.0 0.9904901818 -0.1660438172
11800229200.0 0.9876427029 -0.1797034451
11850228900.0 0.9837779661 -0.1919900017
11900228600.0 0.9803331597 -0.2013139562
11950228300.0 0.9770681253 -0.211660446
12000228000.0 0.9739578322 -0.2207114543
12050227700.0 0.9705651061 -0.2327691852
12100227400.0 0.9669951713 -0.2442762173
12150227100.0 0.9623415688 -0.2605744666
12200226800.0 0.9590194797 -0.2719544174
12250226500.0 0.954527615 -0.2850481723
12300226200.0 0.9502249409 -0.2972114234
12350225900.0 0.9455814196 -0.3107859798
12400225600.0 0.94080162 -0.3233641206
12450225300.0 0.9364771383 -0.3363046698
12500225000.0 0.9311219081 -0.3511257373
12550224700.0 0.9255606902 -0.3647968027
12600224400.0 0.9207350887 -0.3774438835
12650224100.0 0.9147512482 -0.3915383592
12700223800.0 0.9095408739 -0.4044182534
12750223500.0 0.9038317362 -0.4176186196
12800223200.0 0.8988281953 -0.4299116843
12850222900.0 0.8932162068 -0.442387225
12900222600.0 0.8882162374 -0.4537869193
12950222300.0 0.8816198659 -0.4673293934
13000222000.0 0.8756540469 -0.4787076742
13050221700.0 0.8686705321 -0.4909701831
13100221400.0 0.8623045889 -0.5035973109
13150221100.0 0.8551889517 -0.5156198908
13200220800.0 0.8485194127 -0.5267848576
13250220500.0 0.8410696375 -0.5391408046
13300220200.0 0.8334467108 -0.550317615
13350219900.0 0.8254838475 -0.5620332031
13400219600.0 0.8170131138 -0.5740923649
13450219300.0 0.8075439671 -0.5872450337
13500219000.0 0.7978955736 -0.6006362307
13550218700.0 0.7879996745 -0.6130979564
13600218400.0 0.7776833675 -0.624951166
13650218100.0 0.7683504899 -0.6356102722
13700217800.0 0.7571289311 -0.6481172092
13750217500.0 0.7482183022 -0.6592381204
13800217200.0 0.7370915993 -0.6703046731
13850216900.0 0.7260505705 -0.6815366984
13900216600.0 0.715507843 -0.6907610341
13950216300.0 0.705119192 -0.7002021564
14000216000.0 0.6948834559 -0.7102791719
14050215700.0 0.6857611673 -0.7180568317
14100215400.0 0.6763103584 -0.7266803357
14150215100.0 0.6671881186 -0.735715498
14200214800.0 0.6577299086 -0.7443235001
14250214500.0 0.6474828016 -0.7538180276
14300214200.0 0.6369169619 -0.7632570319
14350213900.0 0.6259636787 -0.77284068
14400213600.0 0.6141360093 -0.7828361749
14450213300.0 0.6013721244 -0.7930931317
14500213000.0 0.587750059 -0.8029905456
14550212700.0 0.5751922612 -0.8120050394
14600212400.0 0.5632397113 -0.8205681807
14650212100.0 0.5498471848 -0.8294215511
14700211800.0 0.5363410257 -0.839083282
14750211500.0 0.524511278 -0.847340515
14800211200.0 0.5120532241 -0.8556068115
14850210900.0 0.4996337137 -0.8631234839
14900210600.0 0.4862577268 -0.8711281542
14950210300.0 0.472911171 -0.8788399302
15000210000.0 0.4603652534 -0.8855227457
15050209700.0 0.4477987944 -0.8917541429
15100209400.0 0.4350167288 -0.89765219
15150209100.0 0.4227742826 -0.9032996693
15200208800.0 0.4100546502 -0.9086022662
15250208500.0 0.3989936172 -0.9122840102
15300208200.0 0.3867747852 -0.9174882415
15350207900.0 0.3734820685 -0.9227722806
15400207600.0 0.3590602932 -0.9274430009
15450207300.0 0.3438852935 -0.932755348
15500207000.0 0.3307611923 -0.9372171763
15550206700.0 0.3149495563 -0.9416954187
15600206400.0 0.2993461952 -0.9469951049
15650206100.0 0.2838608064 -0.9507929098
15700205800.0 0.2700662888 -0.9544383264
15750205500.0 0.2556491763 -0.9580222591
15800205200.0 0.2415427654 -0.9615637254
15850204900.0 0.2273183253 -0.9649373026
15900204600.0 0.2119796746 -0.9685428403
15950204300.0 0.1979869344 -0.9716375488
16000204000.0 0.1837393815 -0.9744887018
16050203700.0 0.1682935168 -0.9776043016
16100203400.0 0.153830926 -0.9794299994
16150203100.0 0.1388349174 -0.982335873
16200202800.0 0.1249594264 -0.984428614
16250202500.0 0.1097645736 -0.9856504324
16300202200.0 0.094411497 -0.9874403157
16350201900.0 0.0797768501 -0.989477612
16400201600.0 0.0648261336 -0.9901212278
16450201300.0 0.0492048522 -0.9911077542
16500201000.0 0.0323081525 -0.9920835894
16550200700.0 0.0166156155 -0.9925180303
16600200400.0 0.0006437748 -0.9928445919
16650200100.0 -0.0152998576 -0.9928244855
16700199800.0 -0.0320224387 -0.9923635489
16750199500.0 -0.0507356441 -0.9919396921
16800199200.0 -0.0668464664 -0.9910156516
16850198900.0 -0.0822298371 -0.9892079797
16900198600.0 -0.0960886648 -0.9886496019
16950198300.0 -0.1095924968 -0.9874189144
17000198000.0 -0.1225762896 -0.9860273381
17050197700.0 -0.1347910968 -0.9845211393
17100197400.0 -0.1477691412 -0.9823418805
17150197100.0 -0.1608161673 -0.9798071643
17200196800.0 -0.1736549908 -0.9781439461
17250196500.0 -0.186524216 -0.9755777688
17300196200.0 -0.1987239242 -0.973293187
17350195900.0 -0.2103119406 -0.9709353955
17400195600.0 -0.2224136389 -0.9683227059
17450195300.0 -0.2352694677 -0.9656142854
17500195000.0 -0.2486895486 -0.9623060457
17550194700.0 -0.2626575436 -0.958840154
17600194400.0 -0.2768109811 -0.9541431755
17650194100.0 -0.2898179033 -0.9504786925
17700193800.0 -0.3029021515 -0.9463786216
17750193500.0 -0.3172507498 -0.9418370979
17800193200.0 -0.331378716 -0.9364473073
17850192900.0 -0.3468056926 -0.9313768825
17900192600.0 -0.3617515434 -0.9250852888
17950192300.0 -0.3772916321 -0.9182887316
18000192000.0 -0.3918816306 -0.9106720069
18050191700.0 -0.4058419696 -0.9028321407
18100191400.0 -0.4199711422 -0.8952181639
18150191100.0 -0.4349906214 -0.8872757438
18200190800.0 -0.4517203977 -0.8780936253
18250190500.0 -0.4687838939 -0.8686281693
18300190200.0 -0.4843452614 -0.85944592
18350189900.0 -0.4993682149 -0.8515466274
18400189600.0 -0.5138551613 -0.8426434851
18450189300.0 -0.5274984973 -0.8349700785
18500189000.0 -0.5405514168 -0.8271574824
18550188700.0 -0.5538160233 -0.8194765895
18600188400.0 -0.565313927 -0.8127246077
18650188100.0 -0.5759879731 -0.806253499
18700187800.0 -0.5871621796 -0.7995742935
18750187500.0 -0.5980982691 -0.7929340366
18800187200.0 -0.6086294277 -0.7860444042
18850186900.0 -0.6188338971 -0.7788722166
18900186600.0 -0.629025426 -0.771600249
18950186300.0 -0.6392041064 -0.7639368258
19000186000.0 -0.6467106217 -0.7575657128
19050185700.0 -0.6555303454 -0.750406619
19100185400.0 -0.6661008268 -0.7423661421
19150185100.0 -0.6754564212 -0.734217885
19200184800.0 -0.6852699909 -0.7255296952
19250184500.0 -0.6957585159 -0.7163699929
19300184200.0 -0.7067092165 -0.7073232641
19350183900.0 -0.7179318197 -0.6973439866
19400183600.0 -0.7274346867 -0.687017001
19450183300.0 -0.7369226895 -0.6771335741
19500183000.0 -0.7452754273 -0.6670951814
19550182700.0 -0.7547396104 -0.6560928044
19600182400.0 -0.764836697 -0.644875701
19650182100.0 -0.7756142485 -0.6320865335
19700181800.0 -0.7861383141 -0.6188686726
19750181500.0 -0.7965688193 -0.6047739468
19800181200.0 -0.8068708286 -0.5897043086
19850180900.0 -0.8162925068 -0.5745730095
19900180600.0 -0.8243959858 -0.5598805887
19950180300.0 -0.8335005988 -0.5435142297
20000180000.0 -0.8239016461 -0.5468550901
20050179700.0 -0.8321921149 -0.5337326247
20100179400.0 -0.8414316942 -0.5207817504
20150179100.0 -0.84877792 -0.5088105177
20200178800.0 -0.8577735541 -0.4967195294
20250178500.0 -0.8662764891 -0.483209676
20300178200.0 -0.8759318727 -0.4695960044
20350177900.0 -0.8854137327 -0.4552554243
20400177600.0 -0.8944157132 -0.4413881827
20450177300.0 -0.9031395758 -0.4269478479
20500177000.0 -0.9111326772 -0.4130555871
20550176700.0 -0.919095487 -0.3998706398
20600176400.0 -0.9261828274 -0.3867249401
20650176100.0 -0.9321170113 -0.3742698845
20700175800.0 -0.9393846681 -0.3626978835
20750175500.0 -0.9458013107 -0.3505967309
20800175200.0 -0.9494466261 -0.3397595514
20850174900.0 -0.9548929242 -0.3291774594
20900174600.0 -0.9590975031 -0.3183024397
20950174300.0 -0.9626830947 -0.3071378683
21000174000.0 -0.9654932696 -0.2960155081
21050173700.0 -0.9674607737 -0.2862178917
21100173400.0 -0.9717878979 -0.2745476528
21150173100.0 -0.9756667699 -0.2624411312
21200172800.0 -0.9792909717 -0.2491615832
21250172500.0 -0.9827513437 -0.2352151812
21300172200.0 -0.986357917 -0.2217934214
21350171900.0 -0.987633973 -0.2071363129
21400171600.0 -0.9894012155 -0.1930492648
21450171300.0 -0.9905500571 -0.1786866256
21500171000.0 -0.9901904986 -0.1629672658
21550170700.0 -0.9911448057 -0.1489552892
21600170400.0 -0.9904712234 -0.1333349465
21650170100.0 -0.9914185997 -0.116840603
21700169800.0 -0.9895657052 -0.1020523813
21750169500.0 -0.9900034909 -0.0855328933
21800169200.0 -0.9887814315 -0.0705959785
21850168900.0 -0.9887580494 -0.0531976376
21900168600.0 -0.9883218612 -0.0359317144
21950168300.0 -0.987794886 -0.0206675159
22000168000.0 -0.9872432936 -0.0055519101
22050167700.0 -0.987554242 0.0087345651
22100167400.0 -0.9881457842 0.0244156569
22150167100.0 -0.9890016202 0.0404352463
22200166800.0 -0.9891587019 0.0568103221
22250166500.0 -0.9888077207 0.074490252
22300166200.0 -0.9882411397 0.0902908195
22350165900.0 -0.9864833603 0.1068174617
22400165600.0 -0.9849940024 0.1226177226
22450165300.0 -0.9835869959 0.1372327115
22500165000.0 -0.9823754572 0.1521485972
22550164700.0 -0.9809582968 0.1668046173
22600164400.0 -0.9783226286 0.1832952332
22650164100.0 -0.975552961 0.1991447774
22700163800.0 -0.972617369 0.2147123727
22750163500.0 -0.9697726008 0.2302204495
22800163200.0 -0.9667033857 0.2424678899
22850162900.0 -0.9644787498 0.2561788477
22900162600.0 -0.9625516267 0.2700355847
22950162300.0 -0.9613569515 0.2836101753
23000162000.0 -0.9596496942 0.2957630901
23050161700.0 -0.9577224987 0.3087692983
23100161400.0 -0.9550127427 0.3214147585
23150161100.0 -0.9520072194 0.3348954493
23200160800.0 -0.9488581176 0.3473647948
23250160500.0 -0.9463691992 0.3593629404
23300160200.0 -0.9433411357 0.3723233349
23350159900.0 -0.9394944814 0.3857720794
23400159600.0 -0.9346921236 0.3991043116
23450159300.0 -0.9296647602 0.4124073665
23500159000.0 -0.9245959329 0.4260283193
23550158700.0 -0.9204973435 0.4401631834
23600158400.0 -0.9145212937 0.4537721841
23650158100.0 -0.9074792162 0.468033885
23700157800.0 -0.8993352701 0.4822619371
23750157500.0 -0.8900953435 0.496261566
23800157200.0 -0.8803739745 0.5099304721
23850156900.0 -0.8718660587 0.522355148
23900156600.0 -0.8618568246 0.5348044156
23950156300.0 -0.8523283823 0.5476753335
24000156000.0 -0.8437448448 0.5595059886
24050155700.0 -0.8320436143 0.5722908968
24100155400.0 -0.8218576734 0.5843305899
24150155100.0 -0.8118832029 0.5961715266
24200154800.0 -0.7998369297 0.6073671192
24250154500.0 -0.7889556401 0.6197037461
24300154200.0 -0.7778991959 0.6318176062
24350153900.0 -0.7656966116 0.6424618517
24400153600.0 -0.753268218 0.6534044728
24450153300.0 -0.7414062802 0.6632532846
24500153000.0 -0.7294963333 0.6736368885
24550152700.0 -0.7187238539 0.683627287
24600152400.0 -0.706701379 0.6924128432
24650152100.0 -0.6955758967 0.7010618284
