!Created with skrf (http://scikit-rf.org).
# Hz S RI R 50.0 
!freq ReS11 ImS11
300000.0 -0.9824209266 -0.0962520813
50299700.0 -1.000178269 0.0164366808
100299400.0 -0.9979717465 0.0293588987
150299100.0 -1.002777312 0.046212026
200298800.0 -0.9996562808 0.0594794228
250298500.0 -0.997439676 0.0728658143
300298200.0 -0.9858433059 0.0887854992
350297900.0 -0.9942458854 0.0995335734
400297600.0 -0.9932203702 0.1164367275
450297300.0 -0.9908816615 0.1298947557
500297000.0 -0.9893701588 0.1449016231
550296700.0 -0.984168868 0.157153882
600296400.0 -1.017133606 0.1906279042
650296100.0 -0.9818556785 0.1872980617
700295800.0 -0.9792486037 0.2014287686
750295500.0 -0.9760036846 0.2156398691
800295200.0 -0.9727054032 0.2296843085
850294900.0 -0.9692982524 0.243489707
900294600.0 -0.9655085216 0.2572031552
950294300.0 -0.9617442995 0.2708929287
1000294000.0 -0.9578107542 0.2847003882
1050293700.0 -0.9531799402 0.2985908604
1100293400.0 -0.9489736056 0.3130549039
1150293100.0 -0.9449300762 0.3251081686
1200292800.0 -0.9395834331 0.3392157672
1250292500.0 -0.9340819205 0.3526340628
1300292200.0 -0.9285261257 0.3658200695
1350291900.0 -0.9228793977 0.3799834909
1400291600.0 -0.9175944367 0.3930660869
1450291300.0 -0.9121487258 0.4053115783
1500291000.0 -0.9056830655 0.4187113496
1550290700.0 -0.8992787622 0.4320844989
1600290400.0 -0.8931337326 0.4450730429
1650290100.0 -0.8863772414 0.4569903104
1700289800.0 -0.8794882049 0.4703951851
1750289500.0 -0.8724719824 0.4828223259
1800289200.0 -0.8651503746 0.4955195631
1850288900.0 -0.8582777479 0.5069107537
1900288600.0 -0.8506409386 0.5197954759
1950288300.0 -0.8424621802 0.5322676499
2000288000.0 -0.8347695654 0.5438358438
2050287700.0 -0.8265911512 0.5563155073
2100287400.0 -0.8186772369 0.5677981869
2150287100.0 -0.809993763 0.5799545175
2200286800.0 -0.8022418413 0.5903797254
2250286500.0 -0.793312298 0.602501429
2300286200.0 -0.7844605167 0.6139887503
2350285900.0 -0.7757030259 0.6252435928
2400285600.0 -0.7666068254 0.6361314029
2450285300.0 -0.7580458241 0.6465280412
2500285000.0 -0.7482536787 0.6577505335
2550284700.0 -0.739150121 0.6679814508
2600284400.0 -0.7297924386 0.6780775481
2650284100.0 -0.720819461 0.688784402
2700283800.0 -0.7101416475 0.6991482506
2750283500.0 -0.6995822241 0.7097715614
2800283200.0 -0.6900022668 0.7195622981
2850282900.0 -0.6799314943 0.7295075954
2900282600.0 -0.6695772809 0.7388564641
2950282300.0 -0.6593173624 0.7480777507
3000282000.0 -0.6486519898 0.7573787244
3050281700.0 -0.6374480839 0.7667282801
3100281400.0 -0.6256329317 0.7762165134
3150281100.0 -0.613988823 0.7853846094
3200280800.0 -0.6023472589 0.7939009715
3250280500.0 -0.5915372767 0.801618556
3300280200.0 -0.5804750241 0.8094507586
3350279900.0 -0.5688148009 0.8169538885
3400279600.0 -0.5568220707 0.8248590635
3450279300.0 -0.5456956565 0.8317414265
3500279000.0 -0.5337033677 0.83899897
3550278700.0 -0.5212711509 0.8464774551
3600278400.0 -0.5089596063 0.8535205243
3650278100.0 -0.4958169976 0.8610641839
3700277800.0 -0.4834190801 0.8673819593
3750277500.0 -0.4714841078 0.8740683284
3800277200.0 -0.4589664854 0.8806152421
3850276900.0 -0.4467381529 0.8862353413
3900276600.0 -0.4358349765 0.8919406543
3950276300.0 -0.4231282923 0.8980790249
4000276000.0 -0.4111007332 0.9041017859
4050275700.0 -0.3980250464 0.9104771371
4100275400.0 -0.3868907257 0.9155270776
4150275100.0 -0.3739359439 0.9212393354
4200274800.0 -0.3608848834 0.9269315943
4250274500.0 -0.3485552735 0.9317894024
4300274200.0 -0.3356526781 0.9370921757
4350273900.0 -0.3218454387 0.9423948201
4400273600.0 -0.3070553595 0.9476839255
4450273300.0 -0.2916394478 0.9526156837
4500273000.0 -0.2781117342 0.9568905532
4550272700.0 -0.2639148615 0.9611109594
4600272400.0 -0.2483467695 0.9653854886
4650272100.0 -0.2366510566 0.9685767538
4700271800.0 -0.2233963466 0.9719044632
4750271500.0 -0.211697133 0.9747355261
4800271200.0 -0.1991593993 0.9774987305
4850270900.0 -0.1853983471 0.9802269906
4900270600.0 -0.1713781191 0.9826700863
4950270300.0 -0.1572458032 0.9851992899
5000270000.0 -0.1432461848 0.9872710322
5050269700.0 -0.1297137952 0.9888935339
5100269400.0 -0.1160930632 0.9905157281
5150269100.0 -0.1027753569 0.9919837473
5200268800.0 -0.0894918542 0.9933358768
5250268500.0 -0.0764741045 0.9941502474
5300268200.0 -0.0634644081 0.9949887102
5350267900.0 -0.051075746 0.9953487059
5400267600.0 -0.0349708388 0.9964895302
5450267300.0 -0.0223508355 0.9966876391
5500267000.0 -0.0070234309 0.9971389327
5550266700.0 0.0079660223 0.9972481623
5600266400.0 0.0235225843 0.9974289667
5650266100.0 0.0399439753 0.996969775
5700265800.0 0.0546125136 0.9961027044
5750265500.0 0.0694763176 0.9951022046
5800265200.0 0.0835651758 0.9939612514
5850264900.0 0.0968802962 0.9929274037
5900264600.0 0.1136288245 0.9915504984
5950264300.0 0.1258332628 0.9897956929
6000264000.0 0.1396888755 0.9877669061
6050263700.0 0.1522535413 0.986111187
6100263400.0 0.1648723756 0.984395195
6150263100.0 0.1796722942 0.9819170654
6200262800.0 0.1900396747 0.9801045899
6250262500.0 0.2026679121 0.977714991
6300262200.0 0.2156956171 0.9749608761
6350261900.0 0.2286735239 0.9719402097
6400261600.0 0.2423966473 0.9685915739
6450261300.0 0.2539163711 0.9658860843
6500261000.0 0.2667273138 0.962610494
6550260700.0 0.2798318282 0.958449519
6600260400.0 0.2930684709 0.9545912241
6650260100.0 0.306978653 0.9502521452
6700259800.0 0.3189459788 0.9459019639
6750259500.0 0.3324023399 0.9410168655
6800259200.0 0.3456609681 0.9359892442
6850258900.0 0.3576368271 0.9311211933
6900258600.0 0.369910889 0.9259646935
6950258300.0 0.3822930336 0.920703333
7000258000.0 0.3941947411 0.9152140516
7050257700.0 0.4065851934 0.9092925379
7100257400.0 0.4191451039 0.9031343013
7150257100.0 0.4295479846 0.8978436454
7200256800.0 0.442317992 0.8915237008
7250256500.0 0.4539810125 0.8850719532
7300256200.0 0.4673869779 0.8783653658
7350255900.0 0.4791187621 0.8715147313
7400255600.0 0.4920560851 0.8641787536
7450255300.0 0.5075651191 0.8554411209
7500255000.0 0.5192202803 0.8482857693
7550254700.0 0.5324021759 0.8395724842
7600254400.0 0.5457444995 0.8313660317
7650254100.0 0.5572037166 0.8239762485
7700253800.0 0.5692617016 0.8154763556
7750253500.0 0.5805139861 0.807860979
7800253200.0 0.5911873005 0.7998966696
7850252900.0 0.6010165191 0.7927209053
7900252600.0 0.6126321595 0.7839454027
7950252300.0 0.6214442788 0.7771716872
8000252000.0 0.6318484332 0.7693321724
8050251700.0 0.6424160388 0.7608664258
8100251400.0 0.652418124 0.7527185177
8150251100.0 0.6625390469 0.7438892213
8200250800.0 0.6717957286 0.7358901801
8250250500.0 0.6808425513 0.727996308
8300250200.0 0.6902883696 0.7193257497
8350249900.0 0.6993540518 0.7104118733
8400249600.0 0.7077087917 0.7026808277
8450249300.0 0.7171179048 0.6933136324
8500249000.0 0.725397648 0.6842781726
8550248700.0 0.7338060345 0.6752266527
8600248400.0 0.7422014508 0.6659432975
8650248100.0 0.7499897449 0.656678729
8700247800.0 0.7594981111 0.6457102798
8750247500.0 0.7676024271 0.6352682382
8800247200.0 0.7757813149 0.6252969999
8850246900.0 0.7845251127 0.6140065317
8900246600.0 0.7927015775 0.6027048765
8950246300.0 0.8025354643 0.5896470622
9000246000.0 0.8116132942 0.5772318513
9050245700.0 0.8204030106 0.5644578355
9100245400.0 0.8291086876 0.5519213996
9150245100.0 0.8385329899 0.5380662607
9200244800.0 0.8480850524 0.523145575
9250244500.0 0.857553937 0.5079121762
9300244200.0 0.8657676277 0.4933403397
9350243900.0 0.8734604263 0.4791903349
9400243600.0 0.8802688851 0.466608534
9450243300.0 0.8861292995 0.4547062993
9500243000.0 0.8925273641 0.4422653846
9550242700.0 0.8964010415 0.4341510955
9600242400.0 0.9005458473 0.4263798906
9650242100.0 0.9040028493 0.4195736768
9700241800.0 0.9086185017 0.411247933
9750241500.0 0.912586125 0.4035824536
9800241200.0 0.9170667016 0.3943749663
9850240900.0 0.9228824146 0.3827653252
9900240600.0 0.9283354156 0.3711377053
9950240300.0 0.9348751215 0.3550870729
10000240000.0 0.9395471853 0.3432270861
10050239700.0 0.9449081546 0.3283364827
10100239400.0 0.9500658811 0.3130285632
10150239100.0 0.9544200768 0.2982659843
10200238800.0 0.958553965 0.2832174746
10250238500.0 0.9618160969 0.2699701501
10300238200.0 0.9651979962 0.2560588256
10350237900.0 0.9675745263 0.2430578109
10400237600.0 0.9701482262 0.2301031317
10450237300.0 0.9729352101 0.2165388029
10500237000.0 0.9751342077 0.2041793769
10550236700.0 0.9776596598 0.1902506417
10600236400.0 0.9793793249 0.1771340263
10650236100.0 0.9815120531 0.1626183903
10700235800.0 0.9837969873 0.1503934054
10750235500.0 0.9859569152 0.1371892531
10800235200.0 0.9881999643 0.1234206904
10850234900.0 0.9896398408 0.1086729851
10900234600.0 0.9916992864 0.0942180824
10950234300.0 0.9936779974 0.080896244
11000234000.0 0.9952657927 0.0659857895
11050233700.0 0.9968490662 0.0497226512
11100233400.0 0.9983033451 0.0325794087
11150233100.0 0.9992785214 0.0160301931
11200232800.0 0.9999697598 0.0008454972
11250232500.0 1.000687866 -0.0155933725
11300232200.0 1.001197358 -0.0339328077
11350231900.0 1.001541852 -0.0491597787
11400231600.0 1.000996402 -0.0648167203
11450231300.0 1.000608654 -0.0808900764
11500231000.0 0.9990579869 -0.0970543398
11550230700.0 0.9976802198 -0.1103262535
11600230400.0 0.9967751651 -0.1231722921
11650230100.0 0.9943139861 -0.1357189586
11700229800.0 0.9920714396 -0.1498261551
11750229500.0 0.9894745992 -0.1646031391
11800229200.0 0.9869574483 -0.1786967601
11850228900.0 0.9833063016 -0.1913372671
11900228600.0 0.9798779955 -0.2010880135
11950228300.0 0.9766436373 -0.2118721265
12000228000.0 0.9737096188 -0.2209835822
12050227700.0 0.9702009114 -0.233501496
12100227400.0 0.9669154027 -0.2443478497
12150227100.0 0.9623671355 -0.2611237921
12200226800.0 0.959026617 -0.2716025224
12250226500.0 0.9545003128 -0.2837977506
12300226200.0 0.9505842642 -0.2970747694
12350225900.0 0.9451370004 -0.3109274775
12400225600.0 0.9417446049 -0.3225902039
12450225300.0 0.9369584116 -0.3356069554
12500225000.0 0.9316145279 -0.3503312611
12550224700.0 0.9264787634 -0.3635587011
12600224400.0 0.921818055 -0.3762971499
12650224100.0 0.9159828535 -0.390449282
12700223800.0 0.9106794839 -0.4030899123
12750223500.0 0.9051900021 -0.4160293927
12800223200.0 0.8999070998 -0.4283482969
12850222900.0 0.8941826362 -0.4410529424
12900222600.0 0.8882827397 -0.4528911261
12950222300.0 0.8821630339 -0.4655954658
13000222000.0 0.8761996845 -0.4767004588
13050221700.0 0.8696783105 -0.4898535274
13100221400.0 0.8627561888 -0.5020407392
13150221100.0 0.8557355455 -0.5145100682
13200220800.0 0.8484329362 -0.5266259222
13250220500.0 0.8415649658 -0.538197006
13300220200.0 0.8337526063 -0.5494601887
13350219900.0 0.8254843039 -0.5615510126
13400219600.0 0.8170403437 -0.5737776993
13450219300.0 0.807411878 -0.5874073948
13500219000.0 0.7972825566 -0.6011328904
13550218700.0 0.7868101217 -0.6142139394
13600218400.0 0.7771458333 -0.6257542921
13650218100.0 0.7672976439 -0.6370299332
13700217800.0 0.7564132447 -0.6498061942
13750217500.0 0.7463882814 -0.6607642946
13800217200.0 0.7349175489 -0.6729183174
13850216900.0 0.7237246028 -0.6847563849
13900216600.0 0.7135939524 -0.693732592
13950216300.0 0.7032540149 -0.7030540659
14000216000.0 0.693115118 -0.7123645378
14050215700.0 0.683805664 -0.7211654723
14100215400.0 0.6733832743 -0.7301332518
14150215100.0 0.6645621043 -0.7382103779
14200214800.0 0.6553090064 -0.7468822465
14250214500.0 0.6450454172 -0.7560869262
14300214200.0 0.6350132015 -0.7652622835
14350213900.0 0.6240732689 -0.7745676793
14400213600.0 0.612390121 -0.784169555
14450213300.0 0.5996149013 -0.7940648002
14500213000.0 0.586300433 -0.8040445474
14550212700.0 0.5743011575 -0.813290151
14600212400.0 0.5616167517 -0.8217823368
14650212100.0 0.5483912049 -0.8309954927
14700211800.0 0.5346370006 -0.8399644656
14750211500.0 0.5223655901 -0.8480665337
14800211200.0 0.5099950608 -0.8563875202
14850210900.0 0.498067744 -0.8639753424
14900210600.0 0.4846538651 -0.8718301839
14950210300.0 0.4710709449 -0.8795472924
15000210000.0 0.4582670572 -0.8862631202
15050209700.0 0.4454771433 -0.8926037401
15100209400.0 0.4327721686 -0.8986663409
15150209100.0 0.4203016469 -0.9044228088
15200208800.0 0.40771148 -0.9090726799
15250208500.0 0.3950178299 -0.9136648343
15300208200.0 0.3835140805 -0.9184970154
15350207900.0 0.3697651487 -0.9239225732
15400207600.0 0.354790474 -0.9287205366
15450207300.0 0.3403228643 -0.9342144519
15500207000.0 0.326013298 -0.9387586516
15550206700.0 0.3104250162 -0.9437521375
15600206400.0 0.2948946558 -0.9483725999
15650206100.0 0.27939299 -0.9527031441
15700205800.0 0.2651168746 -0.9562123688
15750205500.0 0.2507156537 -0.960015748
15800205200.0 0.2365748768 -0.9631968115
15850204900.0 0.2221774 -0.9665973071
15900204600.0 0.2072835067 -0.9699819425
15950204300.0 0.1933732003 -0.9731584174
16000204000.0 0.1795645215 -0.9758358428
16050203700.0 0.1648490135 -0.9782551714
16100203400.0 0.15079072 -0.9808097454
16150203100.0 0.1367042088 -0.9828303776
16200202800.0 0.1224971668 -0.9848980921
16250202500.0 0.1080884373 -0.9863947922
16300202200.0 0.0927072399 -0.9876630399
16350201900.0 0.0777751732 -0.9890225874
16400201600.0 0.0634310773 -0.9903857621
16450201300.0 0.0482433143 -0.9913999986
16500201000.0 0.0317320685 -0.9920204812
16550200700.0 0.0160923751 -0.9925939137
16600200400.0 0.0001693336 -0.9928811167
16650200100.0 -0.0162133489 -0.9930059984
16700199800.0 -0.0326074308 -0.9924034043
16750199500.0 -0.0516017838 -0.9917685814
16800199200.0 -0.0675247107 -0.9907153896
16850198900.0 -0.0829414272 -0.9897693935
16900198600.0 -0.0972373742 -0.9889046725
16950198300.0 -0.1108694972 -0.9871763205
17000198000.0 -0.1230143969 -0.985378403
17050197700.0 -0.1366910022 -0.9837721735
17100197400.0 -0.1494229667 -0.9818749663
17150197100.0 -0.1622225165 -0.9793510011
17200196800.0 -0.1751547933 -0.9772287234
17250196500.0 -0.1877201688 -0.974821976
17300196200.0 -0.200559417 -0.9727961654
17350195900.0 -0.2124314672 -0.9702545506
17400195600.0 -0.2244206116 -0.9679215311
17450195300.0 -0.2378842701 -0.9650703248
17500195000.0 -0.2510748883 -0.9618951606
17550194700.0 -0.2650988498 -0.9580035669
17600194400.0 -0.2786166053 -0.9542528261
17650194100.0 -0.2923242984 -0.9497797676
17700193800.0 -0.3053833164 -0.9458417587
17750193500.0 -0.3197855605 -0.9413019398
17800193200.0 -0.3341198614 -0.9362636687
17850192900.0 -0.3483698916 -0.9309382572
17900192600.0 -0.3636060336 -0.9245407982
17950192300.0 -0.3789296369 -0.9176222031
18000192000.0 -0.393486662 -0.910518444
18050191700.0 -0.4074265043 -0.9025165629
18100191400.0 -0.4214929144 -0.8949609397
18150191100.0 -0.4363310549 -0.8869327929
18200190800.0 -0.453014163 -0.8778224424
18250190500.0 -0.4698591844 -0.8684806837
18300190200.0 -0.485162909 -0.859721268
18350189900.0 -0.4999683318 -0.8512841798
18400189600.0 -0.5146947011 -0.8428210139
18450189300.0 -0.527682837 -0.8349309695
18500189000.0 -0.5416380639 -0.8267024507
18550188700.0 -0.5545720797 -0.8191010857
18600188400.0 -0.5659798514 -0.8117546202
18650188100.0 -0.5771660887 -0.8050272683
18700187800.0 -0.5883692258 -0.7986931002
18750187500.0 -0.5995562762 -0.791687105
18800187200.0 -0.6100649447 -0.7842626063
18850186900.0 -0.6203929225 -0.7771632222
18900186600.0 -0.6310779615 -0.769498634
18950186300.0 -0.6411200873 -0.7617781223
19000186000.0 -0.6486920824 -0.7549387948
19050185700.0 -0.6578819298 -0.7476771765
19100185400.0 -0.6679890948 -0.7389964651
19150185100.0 -0.6790459948 -0.7305423436
19200184800.0 -0.6879304527 -0.7224797349
19250184500.0 -0.6982257197 -0.7133062585
19300184200.0 -0.7100066775 -0.7032605849
19350183900.0 -0.7208256621 -0.6933148711
19400183600.0 -0.7296674759 -0.683475218
19450183300.0 -0.7382989265 -0.6740275584
19500183000.0 -0.7465067225 -0.6639492094
19550182700.0 -0.7562415865 -0.6526125962
19600182400.0 -0.7663364654 -0.6414260322
19650182100.0 -0.7764381849 -0.6296767858
19700181800.0 -0.7872449806 -0.6164790251
19750181500.0 -0.7976467155 -0.6023838022
19800181200.0 -0.8076724164 -0.587978378
19850180900.0 -0.8171664213 -0.5728987721
19900180600.0 -0.8250901054 -0.5586447741
19950180300.0 -0.8341393154 -0.5424385476
20000180000.0 -0.8275804341 -0.5443002984
20050179700.0 -0.8358227652 -0.5307662429
20100179400.0 -0.8436133883 -0.5182550669
20150179100.0 -0.8519038831 -0.5052301798
20200178800.0 -0.8606352487 -0.4927203621
20250178500.0 -0.8700064315 -0.4794209477
20300178200.0 -0.8786763044 -0.4644726609
20350177900.0 -0.8884582424 -0.4503023883
20400177600.0 -0.8969129602 -0.4355898866
20450177300.0 -0.9051877253 -0.4212058172
20500177000.0 -0.9128859646 -0.4071112891
20550176700.0 -0.9205730669 -0.3938131284
20600176400.0 -0.9275746688 -0.380454146
20650176100.0 -0.9343913815 -0.3680520255
20700175800.0 -0.9418727238 -0.3556588599
20750175500.0 -0.947407867 -0.3439058105
20800175200.0 -0.9522590207 -0.332799742
20850174900.0 -0.9576218475 -0.3214718478
20900174600.0 -0.9615996379 -0.3096826907
20950174300.0 -0.9664374194 -0.2981718931
21000174000.0 -0.9694614874 -0.2861636362
21050173700.0 -0.9731970948 -0.2752991377
21100173400.0 -0.9778116985 -0.2629972384
21150173100.0 -0.9809852733 -0.2497611328
21200172800.0 -0.984685925 -0.2361019615
21250172500.0 -0.9874216938 -0.2222863204
21300172200.0 -0.9906381078 -0.2079930302
21350171900.0 -0.9921191299 -0.1941276183
21400171600.0 -0.9931797769 -0.1793764545
21450171300.0 -0.9935074 -0.165284568
21500171000.0 -0.9935212947 -0.1493213946
21550170700.0 -0.993227597 -0.1347572348
21600170400.0 -0.9939323333 -0.1188977197
21650170100.0 -0.9923444939 -0.1035799743
21700169800.0 -0.9910379531 -0.0885971612
21750169500.0 -0.989886554 -0.0731506993
21800169200.0 -0.9887720468 -0.0569532214
21850168900.0 -0.986858217 -0.0395730981
21900168600.0 -0.9859411441 -0.0248427442
21950168300.0 -0.9847880393 -0.0083442761
22000168000.0 -0.9831385169 0.006803483
22050167700.0 -0.9827048356 0.020491358
22100167400.0 -0.9825996943 0.0354943445
22150167100.0 -0.9833169987 0.0514092219
22200166800.0 -0.9836691985 0.0672334391
22250166500.0 -0.9819160133 0.0843948484
22300166200.0 -0.9817411608 0.10011638
22350165900.0 -0.9811824671 0.1171250478
22400165600.0 -0.9785075748 0.1327140933
22450165300.0 -0.9760479232 0.1477699716
22500165000.0 -0.9751532639 0.1607346298
22550164700.0 -0.9741376362 0.1760721026
22600164400.0 -0.9708792949 0.1916513108
22650164100.0 -0.9701697185 0.2061915164
22700163800.0 -0.9675242034 0.2224726653
22750163500.0 -0.9650659828 0.2378624407
22800163200.0 -0.9621249594 0.2514950946
22850162900.0 -0.9597853665 0.2646818652
22900162600.0 -0.9580792106 0.278190595
22950162300.0 -0.9571947994 0.2912964653
23000162000.0 -0.9557449079 0.3028226652
23050161700.0 -0.9537337984 0.3154065353
23100161400.0 -0.9515512735 0.3283650192
23150161100.0 -0.9487528093 0.3408121467
23200160800.0 -0.9456384265 0.3526202767
23250160500.0 -0.9425858002 0.3645617178
23300160200.0 -0.9397914691 0.3768074204
23350159900.0 -0.936216918 0.3893990859
23400159600.0 -0.9322023438 0.402557603
23450159300.0 -0.927347785 0.415421477
23500159000.0 -0.922561077 0.4280260608
23550158700.0 -0.918381822 0.4413626139
23600158400.0 -0.9127250836 0.4542002693
23650158100.0 -0.906217551 0.4678227869
23700157800.0 -0.8990447601 0.4813711415
23750157500.0 -0.8903431203 0.4954661615
23800157200.0 -0.8813808599 0.5087485551
23850156900.0 -0.8729785288 0.5212400262
23900156600.0 -0.8640909933 0.5334879333
23950156300.0 -0.8541170199 0.5457682293
24000156000.0 -0.8454665567 0.5581511894
24050155700.0 -0.8356638196 0.5700888805
24100155400.0 -0.8250313846 0.5817778352
24150155100.0 -0.8148007463 0.5928907365
24200154800.0 -0.8035007562 0.6044422878
24250154500.0 -0.7922609945 0.6167348317
24300154200.0 -0.7807833609 0.6277193798
24350153900.0 -0.7692477952 0.6389962712
24400153600.0 -0.7571433661 0.6494045186
24450153300.0 -0.7450536525 0.6593394419
24500153000.0 -0.7340248463 0.6689237423
24550152700.0 -0.7231864024 0.678724235
24600152400.0 -0.7106620365 0.6878292402
24650152100.0 -0.6994071417 0.6966223573
