!Created with skrf (http://scikit-rf.org).
# Hz S RI R 50.0 
!freq ReS11 ImS11
300000.0 -0.9752276953 -0.1202601046
50299700.0 -0.9999602642 0.0153240865
100299400.0 -0.9979728485 0.0281987475
150299100.0 -1.002831353 0.0451544012
200298800.0 -0.999753019 0.0583512726
250298500.0 -0.9974900473 0.071947273
300298200.0 -0.9860129475 0.0878863058
350297900.0 -0.9940335781 0.0986655392
400297600.0 -0.9930442573 0.115192301
450297300.0 -0.9909784165 0.1289123511
500297000.0 -0.9895848965 0.1437670143
550296700.0 -0.984287179 0.1561323376
600296400.0 -1.017286327 0.1896618023
650296100.0 -0.9823805426 0.1861086108
700295800.0 -0.9794955229 0.2004758105
750295500.0 -0.9761538989 0.214423847
800295200.0 -0.9729066532 0.2283933399
850294900.0 -0.969582111 0.2422431703
900294600.0 -0.9659835795 0.2560963082
950294300.0 -0.962067481 0.2698831079
1000294000.0 -0.9581372306 0.2838969601
1050293700.0 -0.9535907042 0.2975470464
1100293400.0 -0.9494116252 0.3120055663
1150293100.0 -0.9454543233 0.323708842
1200292800.0 -0.9401729004 0.3383327189
1250292500.0 -0.9345478048 0.351634379
1300292200.0 -0.9290983309 0.3647699612
1350291900.0 -0.9235460955 0.3788433477
1400291600.0 -0.9179536293 0.3920366283
1450291300.0 -0.9123517491 0.4043370414
1500291000.0 -0.9061661472 0.417659001
1550290700.0 -0.8996394378 0.4310191253
1600290400.0 -0.8934286103 0.4440956569
1650290100.0 -0.8867120494 0.4560886807
1700289800.0 -0.8798911475 0.4694568082
1750289500.0 -0.8727717998 0.4817762198
1800289200.0 -0.8654441866 0.4947344206
1850288900.0 -0.8584434761 0.5061120054
1900288600.0 -0.8510094575 0.5191441883
1950288300.0 -0.8428228673 0.5317831157
2000288000.0 -0.8354548478 0.5430126186
2050287700.0 -0.8273807574 0.5553311462
2100287400.0 -0.8190934253 0.5670942413
2150287100.0 -0.8108253444 0.5791266502
2200286800.0 -0.8031086696 0.5892333131
2250286500.0 -0.7942091203 0.6015044861
2300286200.0 -0.7852271064 0.6131967069
2350285900.0 -0.7765353038 0.6239771319
2400285600.0 -0.7674916337 0.6350882795
2450285300.0 -0.7590614609 0.6454258114
2500285000.0 -0.7493785203 0.6566374829
2550284700.0 -0.7404080962 0.6668661007
2600284400.0 -0.7311322693 0.6773416062
2650284100.0 -0.7217223063 0.6877042184
2700283800.0 -0.7113578387 0.698222983
2750283500.0 -0.70124603 0.7088909752
2800283200.0 -0.6912889257 0.7184584841
2850282900.0 -0.6811271716 0.7283857406
2900282600.0 -0.67075623 0.7379181531
2950282300.0 -0.6606401482 0.7471131745
3000282000.0 -0.6497881349 0.7566069538
3050281700.0 -0.6384733539 0.7658220748
3100281400.0 -0.6267720218 0.7752837473
3150281100.0 -0.6148699964 0.784666045
3200280800.0 -0.6032891312 0.7932494883
3250280500.0 -0.5923784419 0.8008255246
3300280200.0 -0.5811155034 0.8086739448
3350279900.0 -0.5696175932 0.8163134163
3400279600.0 -0.5574421643 0.8242114886
3450279300.0 -0.5463466671 0.8312392245
3500279000.0 -0.5339501984 0.8381905572
3550278700.0 -0.5218889379 0.8456335154
3600278400.0 -0.5099208234 0.8525564363
3650278100.0 -0.4965273071 0.860261221
3700277800.0 -0.4845976841 0.866874533
3750277500.0 -0.4722573166 0.8732496273
3800277200.0 -0.4596340901 0.879922017
3850276900.0 -0.4475166687 0.8857147001
3900276600.0 -0.4369728858 0.891472888
3950276300.0 -0.4243663841 0.8974380488
4000276000.0 -0.4123503716 0.9034790413
4050275700.0 -0.3994439968 0.9096264591
4100275400.0 -0.3885668883 0.915030616
4150275100.0 -0.3757146694 0.920640721
4200274800.0 -0.3628657976 0.9261787251
4250274500.0 -0.3504378476 0.9314048019
4300274200.0 -0.3376667709 0.9367546787
4350273900.0 -0.3236885746 0.9418591666
4400273600.0 -0.3090141774 0.9470479356
4450273300.0 -0.2935039684 0.9522605705
4500273000.0 -0.2797347575 0.9565679381
4550272700.0 -0.2659238212 0.9609465853
4600272400.0 -0.250382472 0.9649212971
4650272100.0 -0.2386106193 0.968302726
4700271800.0 -0.2253596676 0.9715757833
4750271500.0 -0.2136196893 0.9743858425
4800271200.0 -0.2011159242 0.9770890194
4850270900.0 -0.1872924573 0.9800272246
4900270600.0 -0.173395885 0.98246014
4950270300.0 -0.1590665472 0.9850145204
5000270000.0 -0.1447032846 0.9870648999
5050269700.0 -0.131242321 0.9884251376
5100269400.0 -0.1176021741 0.990197442
5150269100.0 -0.1043037636 0.9922358825
5200268800.0 -0.0910908687 0.9928461804
5250268500.0 -0.0778160271 0.9943357244
5300268200.0 -0.064835545 0.9945941738
5350267900.0 -0.0525710219 0.9952824464
5400267600.0 -0.0360926869 0.9967706336
5450267300.0 -0.0231259177 0.9966800986
5500267000.0 -0.0079914924 0.9971797876
5550266700.0 0.0068095332 0.9973175273
5600266400.0 0.0223306607 0.9971170243
5650266100.0 0.038766744 0.9969493209
5700265800.0 0.0533578823 0.9965709741
5750265500.0 0.0685995843 0.9956236836
5800265200.0 0.0826394548 0.994799044
5850264900.0 0.0955463931 0.9930975181
5900264600.0 0.1123093363 0.9914599761
5950264300.0 0.1247440473 0.9900203666
6000264000.0 0.1381514143 0.9882970913
6050263700.0 0.1509282561 0.9868710477
6100263400.0 0.1631228986 0.9852603999
6150263100.0 0.1777214332 0.9827728517
6200262800.0 0.1880298582 0.9807427424
6250262500.0 0.2007986948 0.9784376685
6300262200.0 0.213675629 0.9758465138
6350261900.0 0.2265267178 0.972778491
6400261600.0 0.2403603638 0.9695994308
6450261300.0 0.2519148897 0.9667076478
6500261000.0 0.2645448631 0.9633648357
6550260700.0 0.2774173513 0.9592968507
6600260400.0 0.2908089754 0.9553865171
6650260100.0 0.3049737626 0.950924793
6700259800.0 0.3171776872 0.9468995938
6750259500.0 0.3307997961 0.9418560724
6800259200.0 0.3440123877 0.9368606924
6850258900.0 0.3561439626 0.9318329488
6900258600.0 0.3681474057 0.9265571603
6950258300.0 0.3806044225 0.9214188089
7000258000.0 0.3927235213 0.9158307975
7050257700.0 0.404856015 0.909674001
7100257400.0 0.4177060612 0.9034800034
7150257100.0 0.4281476089 0.8982958646
7200256800.0 0.4409806435 0.8917510498
7250256500.0 0.452600885 0.8854943154
7300256200.0 0.4660971282 0.878889936
7350255900.0 0.4783629396 0.871718511
7400255600.0 0.4918632023 0.8648146503
7450255300.0 0.5068408946 0.8556241336
7500255000.0 0.5186615743 0.848504712
7550254700.0 0.5321302959 0.8397459088
7600254400.0 0.545211725 0.8316617675
7650254100.0 0.556535478 0.823752369
7700253800.0 0.5683336455 0.8159017998
7750253500.0 0.5794912693 0.8083406514
7800253200.0 0.5902850715 0.8005857219
7850252900.0 0.6000949027 0.7934587409
7900252600.0 0.6118219116 0.7847973462
7950252300.0 0.6205388117 0.7782885646
8000252000.0 0.6308515938 0.770436234
8050251700.0 0.6411811387 0.7623087916
8100251400.0 0.6513560952 0.7541380167
8150251100.0 0.6612148079 0.7454411844
8200250800.0 0.6704379894 0.7377371852
8250250500.0 0.6797010374 0.7297828787
8300250200.0 0.6890104183 0.7211010523
8350249900.0 0.6981921885 0.7126558523
8400249600.0 0.7064706732 0.7043989774
8450249300.0 0.7155830475 0.6952104827
8500249000.0 0.7242436932 0.686485894
8550248700.0 0.7322002995 0.6773955942
8600248400.0 0.7406982521 0.6678851324
8650248100.0 0.7484816325 0.65831976
8700247800.0 0.75818135 0.647065962
8750247500.0 0.7661544875 0.6369782239
8800247200.0 0.7744611709 0.6266952005
8850246900.0 0.7830465317 0.6151491778
8900246600.0 0.7914478496 0.6038481454
8950246300.0 0.8010799821 0.5909132988
9000246000.0 0.8106498591 0.5782694465
9050245700.0 0.8197143428 0.5651811231
9100245400.0 0.8282426242 0.5529958193
9150245100.0 0.837733104 0.5391922265
9200244800.0 0.8474735366 0.5240789146
9250244500.0 0.8568020606 0.5084830466
9300244200.0 0.8650864683 0.4939298009
9350243900.0 0.8728518187 0.4802187733
9400243600.0 0.8795679513 0.4678522641
9450243300.0 0.8853735571 0.4562079756
9500243000.0 0.8917086372 0.4440174365
9550242700.0 0.8954545581 0.4365834039
9600242400.0 0.8993402216 0.4291977143
9650242100.0 0.9031215058 0.4226271308
9700241800.0 0.9075872637 0.4144598938
9750241500.0 0.9118130421 0.4066904485
9800241200.0 0.9161154741 0.3979622042
9850240900.0 0.9219384733 0.3860282663
9900240600.0 0.9273781625 0.3745267772
9950240300.0 0.934234456 0.3583727752
10000240000.0 0.9391551025 0.3465046778
10050239700.0 0.9446087596 0.3311885809
10100239400.0 0.9497142282 0.3159301284
10150239100.0 0.9541384634 0.3012655338
10200238800.0 0.9583925838 0.2860210315
10250238500.0 0.9615792704 0.2728270572
10300238200.0 0.9645603643 0.2589058516
10350237900.0 0.9672890682 0.2457630961
10400237600.0 0.9697789547 0.2324522741
10450237300.0 0.9723370389 0.2187965533
10500237000.0 0.9747144383 0.2063123582
10550236700.0 0.9770550505 0.1924396159
10600236400.0 0.9791582296 0.1786338161
10650236100.0 0.9811194102 0.1637425094
10700235800.0 0.983687114 0.1518739795
10750235500.0 0.9855639707 0.1383181125
10800235200.0 0.9874910128 0.1244973759
10850234900.0 0.9896777761 0.1099247514
10900234600.0 0.9917681853 0.0951538417
10950234300.0 0.9934799214 0.0818423606
11000234000.0 0.9952571686 0.0668378882
11050233700.0 0.9970019008 0.0503810264
11100233400.0 0.9983753787 0.0329677378
11150233100.0 0.9996003773 0.016733719
11200232800.0 1.000413334 0.0020083262
11250232500.0 1.001276204 -0.0149941076
11300232200.0 1.001868186 -0.0326683181
11350231900.0 1.001564809 -0.0488654932
11400231600.0 1.00166696 -0.0641326847
11450231300.0 1.001739777 -0.0788254562
11500231000.0 1.000031584 -0.0958301422
11550230700.0 0.9986555428 -0.1095644901
11600230400.0 0.9976119344 -0.1218837799
11650230100.0 0.9949814118 -0.1330028721
11700229800.0 0.9929996032 -0.147310401
11750229500.0 0.9910138692 -0.1623067144
11800229200.0 0.9882314774 -0.1759404513
11850228900.0 0.9846481016 -0.1883108175
11900228600.0 0.981176458 -0.1981924889
11950228300.0 0.9776939573 -0.2085727164
12000228000.0 0.9752840748 -0.2173068822
12050227700.0 0.9713751392 -0.2306300398
12100227400.0 0.967903569 -0.2417775038
12150227100.0 0.9634297551 -0.2580260671
12200226800.0 0.9595751253 -0.2683800061
12250226500.0 0.9556200463 -0.2820593963
12300226200.0 0.9519633512 -0.2936388242
12350225900.0 0.9461975662 -0.3087016331
12400225600.0 0.9420283756 -0.321339285
12450225300.0 0.9378128713 -0.3337314649
12500225000.0 0.9320578938 -0.3481960964
12550224700.0 0.9267938284 -0.3622434162
12600224400.0 0.9219206362 -0.3751181814
12650224100.0 0.9161771685 -0.3896447459
12700223800.0 0.910820993 -0.402419266
12750223500.0 0.9055891546 -0.4151605171
12800223200.0 0.9000972561 -0.4280788987
12850222900.0 0.8946109987 -0.4402431552
12900222600.0 0.8891245783 -0.4524548494
12950222300.0 0.8826331331 -0.4654405416
13000222000.0 0.8769149431 -0.4764730668
13050221700.0 0.8698860405 -0.4895080645
13100221400.0 0.8633792947 -0.5007748856
13150221100.0 0.8566413826 -0.5131588419
13200220800.0 0.8496932187 -0.5248061745
13250220500.0 0.8422570013 -0.5369549497
13300220200.0 0.8348896928 -0.547872964
13350219900.0 0.8270258622 -0.5595600014
13400219600.0 0.8188367453 -0.5716699944
13450219300.0 0.8092745553 -0.5851746928
13500219000.0 0.7993052014 -0.5992286229
13550218700.0 0.7889095836 -0.6120916395
13600218400.0 0.7787902683 -0.6240647855
13650218100.0 0.7694609317 -0.6352473515
13700217800.0 0.7580010726 -0.6476270047
13750217500.0 0.7486208258 -0.658436186
13800217200.0 0.7373955895 -0.6700508504
13850216900.0 0.7267924984 -0.6815818161
13900216600.0 0.7168034985 -0.6906342636
13950216300.0 0.7053906364 -0.7017797242
14000216000.0 0.6953130715 -0.7103384022
14050215700.0 0.6861906244 -0.7188251792
14100215400.0 0.6763300908 -0.7277958456
14150215100.0 0.6669308451 -0.7363459093
14200214800.0 0.657463789 -0.744950241
14250214500.0 0.6472494727 -0.754291068
14300214200.0 0.6368479477 -0.7635717635
14350213900.0 0.6255577801 -0.7732438872
14400213600.0 0.6138372735 -0.7829965303
14450213300.0 0.6009877653 -0.7933177592
14500213000.0 0.587576635 -0.8032430449
14550212700.0 0.5751286844 -0.8125141339
14600212400.0 0.5626800538 -0.821032336
14650212100.0 0.5495515691 -0.8300893613
14700211800.0 0.5360440701 -0.840209459
14750211500.0 0.5239288476 -0.8476521591
14800211200.0 0.5115374499 -0.8559483043
14850210900.0 0.4994467534 -0.8634676307
14900210600.0 0.4862157124 -0.8712217253
14950210300.0 0.4727646236 -0.8787021541
15000210000.0 0.4601138675 -0.8854824917
15050209700.0 0.4478892253 -0.8914804128
15100209400.0 0.4354192363 -0.8973939976
15150209100.0 0.4222911681 -0.9033098289
15200208800.0 0.4103279136 -0.9089275451
15250208500.0 0.3984008065 -0.9130383606
15300208200.0 0.3868838034 -0.9178433817
15350207900.0 0.3735952456 -0.9229239517
15400207600.0 0.3590167871 -0.9277822897
15450207300.0 0.344200455 -0.9321017117
15500207000.0 0.3300371526 -0.937010108
15550206700.0 0.314484393 -0.9430557221
15600206400.0 0.2987801756 -0.9470487181
15650206100.0 0.2828379376 -0.9512554002
15700205800.0 0.2690891719 -0.9549318508
15750205500.0 0.2544466853 -0.9583379197
15800205200.0 0.2401347077 -0.9619623261
15850204900.0 0.2258858304 -0.9655150223
15900204600.0 0.2105847982 -0.9691875511
15950204300.0 0.1963440816 -0.9718321443
16000204000.0 0.1823374364 -0.9750184367
16050203700.0 0.1672028108 -0.9779854282
16100203400.0 0.1530487171 -0.9801619728
16150203100.0 0.138587924 -0.9823653887
16200202800.0 0.1241171991 -0.9840940527
16250202500.0 0.1095863091 -0.9859125087
16300202200.0 0.093943038 -0.9877957525
16350201900.0 0.0791629498 -0.9893690217
16400201600.0 0.0646574045 -0.9902737065
16450201300.0 0.0494029499 -0.9912942242
16500201000.0 0.0326646916 -0.9921388871
16550200700.0 0.0170467188 -0.9926502063
16600200400.0 0.0014578004 -0.9926977384
16650200100.0 -0.0145442139 -0.9926645243
16700199800.0 -0.0307658181 -0.9922946038
16750199500.0 -0.0497389432 -0.991713128
16800199200.0 -0.0653099846 -0.9905339448
16850198900.0 -0.080710055 -0.9893941245
16900198600.0 -0.094060266 -0.9886353123
16950198300.0 -0.1075597024 -0.9880504277
17000198000.0 -0.1206481486 -0.986281897
17050197700.0 -0.1335176802 -0.9836930299
17100197400.0 -0.1464323004 -0.9823054868
17150197100.0 -0.1586766017 -0.979920403
17200196800.0 -0.1714993549 -0.9781635501
17250196500.0 -0.1845682186 -0.9755758931
17300196200.0 -0.1966787132 -0.9733941463
17350195900.0 -0.2085407834 -0.9712943783
17400195600.0 -0.2207850966 -0.9686952456
17450195300.0 -0.233962283 -0.9660525223
17500195000.0 -0.2473076443 -0.9624218632
17550194700.0 -0.2611282689 -0.9592575499
17600194400.0 -0.275398131 -0.9551322018
17650194100.0 -0.2892283169 -0.9509857512
17700193800.0 -0.3021511484 -0.9466567307
17750193500.0 -0.3164055111 -0.9422008724
17800193200.0 -0.3306150783 -0.9369592658
17850192900.0 -0.3461667495 -0.9313980304
17900192600.0 -0.3610142683 -0.92548378
17950192300.0 -0.3768562505 -0.9184328998
18000192000.0 -0.3914185504 -0.9111032385
18050191700.0 -0.4054625074 -0.9033681965
18100191400.0 -0.4196897801 -0.8957450836
18150191100.0 -0.4345698792 -0.8877806559
18200190800.0 -0.451407447 -0.8787521587
18250190500.0 -0.468514668 -0.8688759267
18300190200.0 -0.4839909886 -0.8601246223
18350189900.0 -0.499248795 -0.8518877239
18400189600.0 -0.5134611159 -0.843864821
18450189300.0 -0.5266210228 -0.8358618385
18500189000.0 -0.539762824 -0.8273850115
18550188700.0 -0.5526588437 -0.8198859787
18600188400.0 -0.5645884401 -0.8138727943
18650188100.0 -0.5753934601 -0.8071841813
18700187800.0 -0.5861599324 -0.800450188
18750187500.0 -0.5968261409 -0.7938902422
18800187200.0 -0.6073008655 -0.787133864
18850186900.0 -0.6174925039 -0.7800675184
18900186600.0 -0.6278748868 -0.7726839612
18950186300.0 -0.6379784671 -0.7650188295
19000186000.0 -0.6450845994 -0.7588424572
19050185700.0 -0.6539828199 -0.7516565259
19100185400.0 -0.6642806519 -0.743048336
19150185100.0 -0.6740242179 -0.7347725867
19200184800.0 -0.6838334226 -0.7266850611
19250184500.0 -0.6940825284 -0.7170505932
19300184200.0 -0.7056888541 -0.7076013113
19350183900.0 -0.7162261493 -0.6980380314
19400183600.0 -0.7257706079 -0.6884267117
19450183300.0 -0.7345174166 -0.6784217636
19500183000.0 -0.743202545 -0.6682902206
19550182700.0 -0.752778964 -0.6570455524
19600182400.0 -0.7629719881 -0.645882479
19650182100.0 -0.7736455838 -0.6332310053
19700181800.0 -0.7846508049 -0.6200334963
19750181500.0 -0.7953664924 -0.6058627238
19800181200.0 -0.8058753653 -0.5907239988
19850180900.0 -0.8154482419 -0.5752808327
19900180600.0 -0.8230641249 -0.5607943416
19950180300.0 -0.832393161 -0.544575356
20000180000.0 -0.8257570624 -0.5470314251
20050179700.0 -0.8333633972 -0.5338669973
20100179400.0 -0.842593329 -0.5199479748
20150179100.0 -0.8508940422 -0.5075221768
20200178800.0 -0.8591750657 -0.4951670799
20250178500.0 -0.8684086341 -0.4815627582
20300178200.0 -0.8783917735 -0.4668116845
20350177900.0 -0.8882262553 -0.4523318297
20400177600.0 -0.8968089964 -0.4377630609
20450177300.0 -0.9048677295 -0.4237487777
20500177000.0 -0.9127513789 -0.4094514364
20550176700.0 -0.9206539388 -0.3961203613
20600176400.0 -0.9275918301 -0.3831841256
20650176100.0 -0.9342275122 -0.3709210749
20700175800.0 -0.9406543932 -0.3587880097
20750175500.0 -0.9474646138 -0.3472935955
20800175200.0 -0.9517653877 -0.3367942798
20850174900.0 -0.9575361751 -0.3255318508
20900174600.0 -0.9616198673 -0.3142436665
20950174300.0 -0.9655862229 -0.3024164502
21000174000.0 -0.9693550763 -0.291486887
21050173700.0 -0.9712253219 -0.2807034317
21100173400.0 -0.9758108737 -0.2684823084
21150173100.0 -0.9795424739 -0.255840926
21200172800.0 -0.9831321141 -0.2428544793
21250172500.0 -0.9862750553 -0.2294651253
21300172200.0 -0.9892205577 -0.2153205413
21350171900.0 -0.9907818872 -0.2006424968
21400171600.0 -0.9922583638 -0.1857596322
21450171300.0 -0.9928012491 -0.1717582479
21500171000.0 -0.9926584235 -0.1562856815
21550170700.0 -0.9925265689 -0.1419464415
21600170400.0 -0.9918619394 -0.1251772394
21650170100.0 -0.9918946409 -0.1102326434
21700169800.0 -0.9902153004 -0.0932702495
21750169500.0 -0.9889260627 -0.0779581054
21800169200.0 -0.9890480127 -0.0628240948
21850168900.0 -0.9870498712 -0.0444604742
21900168600.0 -0.9859402129 -0.0287691488
21950168300.0 -0.9845057685 -0.0128546058
22000168000.0 -0.9840153769 0.002420358
22050167700.0 -0.9836924171 0.0165038227
22100167400.0 -0.9839784793 0.0316374055
22150167100.0 -0.9843189717 0.0473270767
22200166800.0 -0.9849661769 0.0638701942
22250166500.0 -0.9846734447 0.0811542223
22300166200.0 -0.9837630152 0.0965204218
22350165900.0 -0.9826657624 0.1136615667
22400165600.0 -0.9807390797 0.1295539835
22450165300.0 -0.9784517828 0.1448283091
22500165000.0 -0.976900582 0.1581014345
22550164700.0 -0.9762579887 0.1737345227
22600164400.0 -0.9741476145 0.1889675266
22650164100.0 -0.972429974 0.2036520853
22700163800.0 -0.9695363536 0.21998226
22750163500.0 -0.9667599897 0.2352865246
22800163200.0 -0.9638907014 0.2479319606
22850162900.0 -0.9618366439 0.2613095137
22900162600.0 -0.9601652246 0.2748918283
22950162300.0 -0.9589819721 0.2874786887
23000162000.0 -0.9579848083 0.2992045694
23050161700.0 -0.9559928462 0.3120640729
23100161400.0 -0.9530902403 0.3248494216
23150161100.0 -0.9505209736 0.3370183593
23200160800.0 -0.9478418611 0.3498298388
23250160500.0 -0.9451035447 0.3608450273
23300160200.0 -0.9420909215 0.3730288937
23350159900.0 -0.9387986369 0.3865856724
23400159600.0 -0.9340158564 0.3998793462
23450159300.0 -0.9283242385 0.4133804753
23500159000.0 -0.9243093198 0.4259273481
23550158700.0 -0.919713718 0.4395152283
23600158400.0 -0.9148792535 0.4529004763
23650158100.0 -0.9081857724 0.4669450746
23700157800.0 -0.9005937586 0.480874563
23750157500.0 -0.8924650864 0.4952142031
23800157200.0 -0.8834070291 0.5082205779
23850156900.0 -0.8741942143 0.5208196029
23900156600.0 -0.8651432247 0.5329397864
23950156300.0 -0.8567868955 0.5459269135
24000156000.0 -0.8468666615 0.5582045604
24050155700.0 -0.8364493726 0.5693536848
24100155400.0 -0.8271721565 0.5818534198
24150155100.0 -0.8164412175 0.5937826306
24200154800.0 -0.8051883397 0.6046604453
24250154500.0 -0.7943475145 0.616619916
24300154200.0 -0.7830913149 0.6282162786
24350153900.0 -0.7708795823 0.6388737699
24400153600.0 -0.7587969692 0.6489431356
24450153300.0 -0.7470505371 0.6589587488
24500153000.0 -0.7357279677 0.6686395734
24550152700.0 -0.7247479371 0.6779888917
24600152400.0 -0.7124366268 0.6872770278
24650152100.0 -0.7012549073 0.6955430268
