!Created with skrf (http://scikit-rf.org).
# Hz S RI R 50.0 
!freq ReS11 ImS11
300000.0 -0.976459223 -0.1157345193
50299700.0 -1.000277677 0.0155225551
100299400.0 -0.9979241026 0.0284902435
150299100.0 -1.002906884 0.0453816723
200298800.0 -0.9996195967 0.0585915579
250298500.0 -0.9973947245 0.0723484882
300298200.0 -0.9858967766 0.0880204764
350297900.0 -0.9939004639 0.0989514078
400297600.0 -0.9930494965 0.1154221555
450297300.0 -0.9910159587 0.1293767481
500297000.0 -0.9894341955 0.1441098445
550296700.0 -0.9844719558 0.156428444
600296400.0 -1.017208064 0.1898529117
650296100.0 -0.9822059202 0.1863906632
700295800.0 -0.9791828085 0.2008861462
750295500.0 -0.9763741506 0.2149724834
800295200.0 -0.9730339657 0.2290570533
850294900.0 -0.9695303278 0.2424887772
900294600.0 -0.9657572269 0.2562943039
950294300.0 -0.9620853245 0.2700317381
1000294000.0 -0.9582173114 0.28393778
1050293700.0 -0.9534925899 0.298141386
1100293400.0 -0.9492553938 0.3124264083
1150293100.0 -0.945493922 0.3242539733
1200292800.0 -0.9401155094 0.3385824518
1250292500.0 -0.9345386309 0.3518993649
1300292200.0 -0.9287675857 0.3650529194
1350291900.0 -0.9233889546 0.3792790528
1400291600.0 -0.9177298716 0.3923222479
1450291300.0 -0.9124591056 0.4046723295
1500291000.0 -0.9059900952 0.418207013
1550290700.0 -0.8995029598 0.4314276569
1600290400.0 -0.8932951568 0.444318302
1650290100.0 -0.8865961063 0.4565778358
1700289800.0 -0.8797199992 0.4698345394
1750289500.0 -0.8725916724 0.4823021647
1800289200.0 -0.8652885731 0.4951943927
1850288900.0 -0.8585598632 0.5063938274
1900288600.0 -0.8509198111 0.5194772202
1950288300.0 -0.8428056428 0.5319919497
2000288000.0 -0.8352255663 0.5432962739
2050287700.0 -0.8269500591 0.5557047063
2100287400.0 -0.818979042 0.5674953739
2150287100.0 -0.810492378 0.5793166542
2200286800.0 -0.8027376319 0.5897151621
2250286500.0 -0.7937121343 0.6019162993
2300286200.0 -0.7850142953 0.6134922561
2350285900.0 -0.7764092584 0.6245921171
2400285600.0 -0.7672351476 0.6355169428
2450285300.0 -0.7585013899 0.6458623242
2500285000.0 -0.7490059357 0.6570998402
2550284700.0 -0.7398813885 0.6672800848
2600284400.0 -0.73071426 0.6776211828
2650284100.0 -0.7217142029 0.6880545689
2700283800.0 -0.7107490629 0.698474
2750283500.0 -0.7003189586 0.7091130594
2800283200.0 -0.6911487689 0.7190082219
2850282900.0 -0.6806874318 0.7289464719
2900282600.0 -0.6702862283 0.738301876
2950282300.0 -0.6601922762 0.7473911155
3000282000.0 -0.6495444293 0.7570498934
3050281700.0 -0.6382435941 0.7662831157
3100281400.0 -0.6265115684 0.7757323788
3150281100.0 -0.6145327219 0.7851012295
3200280800.0 -0.6027244857 0.7935212196
3250280500.0 -0.5921161822 0.8013234965
3300280200.0 -0.5809253542 0.8091335216
3350279900.0 -0.569381397 0.8166488145
3400279600.0 -0.5570172646 0.8242899735
3450279300.0 -0.5460447067 0.831506874
3500279000.0 -0.534132679 0.8386727245
3550278700.0 -0.5215070764 0.84585179
3600278400.0 -0.509404302 0.8528947105
3650278100.0 -0.4960687793 0.8605768465
3700277800.0 -0.4837670545 0.8670411812
3750277500.0 -0.47178503 0.8737572476
3800277200.0 -0.4592311014 0.8801588224
3850276900.0 -0.4472622977 0.8861553454
3900276600.0 -0.4362243954 0.8916795168
3950276300.0 -0.4237194422 0.8975750169
4000276000.0 -0.4119488004 0.9037505225
4050275700.0 -0.3987279571 0.9096816888
4100275400.0 -0.3878108546 0.9151257607
4150275100.0 -0.3751934412 0.9209517182
4200274800.0 -0.3623455842 0.9264391885
4250274500.0 -0.3498861879 0.9315787793
4300274200.0 -0.3369543224 0.9367521889
4350273900.0 -0.3232264446 0.942163493
4400273600.0 -0.308239535 0.9475335332
4450273300.0 -0.29279756 0.9523798655
4500273000.0 -0.2791138804 0.9568149694
4550272700.0 -0.2649407596 0.9612740539
4600272400.0 -0.2495608917 0.9652166888
4650272100.0 -0.237763452 0.968465489
4700271800.0 -0.2245881386 0.9717813874
4750271500.0 -0.2130314277 0.9746790839
4800271200.0 -0.2003019206 0.9773303119
4850270900.0 -0.1864769794 0.9801493904
4900270600.0 -0.1725523124 0.9825981769
4950270300.0 -0.1582863485 0.9851755238
5000270000.0 -0.1439293905 0.9872242363
5050269700.0 -0.1306310787 0.9888698843
5100269400.0 -0.1170486607 0.9904757685
5150269100.0 -0.103795388 0.9923388288
5200268800.0 -0.0904458074 0.9930850716
5250268500.0 -0.0774065816 0.9938907489
5300268200.0 -0.0640592348 0.9946022143
5350267900.0 -0.0519191976 0.9952752722
5400267600.0 -0.0356769181 0.9965823652
5450267300.0 -0.0227972633 0.9967893237
5500267000.0 -0.0074533547 0.9969976671
5550266700.0 0.007543489 0.9974325757
5600266400.0 0.0230876523 0.9972614044
5650266100.0 0.0395325459 0.9967874891
5700265800.0 0.0544899971 0.9963976616
5750265500.0 0.0693507951 0.99585637
5800265200.0 0.0833835795 0.9942356038
5850264900.0 0.0967028454 0.9934362539
5900264600.0 0.1131581095 0.9918336111
5950264300.0 0.1255331289 0.990427907
6000264000.0 0.1393484004 0.9885677005
6050263700.0 0.1516382943 0.9866715867
6100263400.0 0.1639424107 0.9848552431
6150263100.0 0.1783226116 0.9823931219
6200262800.0 0.1889701647 0.9806780946
6250262500.0 0.2017022804 0.9782358204
6300262200.0 0.2145617443 0.9757033543
6350261900.0 0.2276815181 0.9726328114
6400261600.0 0.2413588738 0.9693887621
6450261300.0 0.2530235182 0.9666105876
6500261000.0 0.2655100564 0.9630576041
6550260700.0 0.2786404577 0.9590534826
6600260400.0 0.2919533884 0.9550662917
6650260100.0 0.3058573815 0.9506287206
6700259800.0 0.317721568 0.9464604054
6750259500.0 0.3316069311 0.9411651569
6800259200.0 0.3448437112 0.9364597653
6850258900.0 0.3568433918 0.9311127527
6900258600.0 0.3690219437 0.9263503796
6950258300.0 0.3816353006 0.9209599498
7000258000.0 0.3934522973 0.9156211045
7050257700.0 0.4056370518 0.9095605635
7100257400.0 0.4183974248 0.9031793042
7150257100.0 0.428879501 0.8977983352
7200256800.0 0.4415910646 0.8915703764
7250256500.0 0.4534985439 0.8849503865
7300256200.0 0.4665841908 0.8784667314
7350255900.0 0.4792473312 0.8717029055
7400255600.0 0.4921055526 0.864280933
7450255300.0 0.5076784079 0.8552099099
7500255000.0 0.519227775 0.848201836
7550254700.0 0.5328601901 0.8395754655
7600254400.0 0.5455554405 0.831041772
7650254100.0 0.5571181587 0.823497869
7700253800.0 0.5693771719 0.8157221991
7750253500.0 0.5801920015 0.8076765751
7800253200.0 0.5910090406 0.8000478238
7850252900.0 0.6006453116 0.7931175917
7900252600.0 0.6122219492 0.7843296605
7950252300.0 0.6209704297 0.777770191
8000252000.0 0.6312366923 0.7700060653
8050251700.0 0.6419422995 0.7618341122
8100251400.0 0.6518770996 0.7536067971
8150251100.0 0.6617955325 0.7451673131
8200250800.0 0.6711562901 0.7371772622
8250250500.0 0.6800706788 0.7290655734
8300250200.0 0.689466808 0.7205565897
8350249900.0 0.6987052395 0.7118877027
8400249600.0 0.7068154262 0.7037014856
8450249300.0 0.715873446 0.6945931285
8500249000.0 0.7244126668 0.6857728312
8550248700.0 0.7327054111 0.6765954569
8600248400.0 0.7412017156 0.6671304647
8650248100.0 0.7490572429 0.6579208306
8700247800.0 0.7586350007 0.6465039916
8750247500.0 0.7667785852 0.6364039458
8800247200.0 0.7751348081 0.6260089608
8850246900.0 0.783671858 0.6145817515
8900246600.0 0.7921081433 0.6032899303
8950246300.0 0.8021016895 0.5900984345
9000246000.0 0.8113692236 0.577354755
9050245700.0 0.8202613624 0.5643035725
9100245400.0 0.8288634073 0.5520025471
9150245100.0 0.8384562181 0.5381747889
9200244800.0 0.8479694853 0.5227790983
9250244500.0 0.8576746848 0.5073661574
9300244200.0 0.8661218221 0.492518791
9350243900.0 0.8737024407 0.478675169
9400243600.0 0.8803407544 0.4663909037
9450243300.0 0.8862105939 0.4544756337
9500243000.0 0.8923988397 0.4425004804
9550242700.0 0.8961515452 0.4349816526
9600242400.0 0.9000878526 0.4276068967
9650242100.0 0.903555346 0.4212752439
9700241800.0 0.9080390944 0.413188997
9750241500.0 0.9120359362 0.4058348829
9800241200.0 0.9164964423 0.3964473915
9850240900.0 0.92270823 0.3845087133
9900240600.0 0.9281765757 0.3729722259
9950240300.0 0.9346917843 0.3569052495
10000240000.0 0.9389768752 0.3456914395
10050239700.0 0.9450711222 0.330113583
10100239400.0 0.9498341324 0.3147942935
10150239100.0 0.9542909335 0.2997605401
10200238800.0 0.9583868738 0.2848673711
10250238500.0 0.9618210495 0.2716755419
10300238200.0 0.9647961777 0.2576361809
10350237900.0 0.9675355097 0.2443837261
10400237600.0 0.9699754323 0.2316418999
10450237300.0 0.972747852 0.2179081784
10500237000.0 0.9748481938 0.2055926723
10550236700.0 0.9772463909 0.1916684741
10600236400.0 0.9796490439 0.1775971174
10650236100.0 0.9807640903 0.1636023285
10700235800.0 0.9837581889 0.1509345262
10750235500.0 0.9859438646 0.1375281889
10800235200.0 0.9877227173 0.1239167909
10850234900.0 0.9895136793 0.1093080398
10900234600.0 0.9917630241 0.09462149
10950234300.0 0.9935333049 0.0814002198
11000234000.0 0.9952468501 0.0662065055
11050233700.0 0.997047576 0.0497724309
11100233400.0 0.9983671631 0.0327811218
11150233100.0 0.9995202464 0.015917032
11200232800.0 1.000365564 0.0011275341
11250232500.0 1.001468261 -0.0151566672
11300232200.0 1.001547401 -0.0337032219
11350231900.0 1.001651396 -0.0484691923
11400231600.0 1.001461979 -0.0652034683
11450231300.0 1.000922693 -0.0789934212
11500231000.0 0.9998957162 -0.0970744181
11550230700.0 0.998127996 -0.1103649844
11600230400.0 0.9970158219 -0.1226706914
11650230100.0 0.9951100814 -0.1332406192
11700229800.0 0.9930475789 -0.1492586298
11750229500.0 0.9906797402 -0.1631918179
11800229200.0 0.9878288918 -0.1771721624
11850228900.0 0.9842216016 -0.1893807836
11900228600.0 0.9809048186 -0.1992180166
11950228300.0 0.9771647675 -0.2097243675
12000228000.0 0.9747017903 -0.2182864503
12050227700.0 0.9709355831 -0.23155724
12100227400.0 0.9678019391 -0.242343308
12150227100.0 0.9632112417 -0.2588421809
12200226800.0 0.9594134218 -0.269929217
12250226500.0 0.9553533822 -0.2827065896
12300226200.0 0.9516062726 -0.2949894613
12350225900.0 0.9466452691 -0.3086058305
12400225600.0 0.9419292803 -0.3214165882
12450225300.0 0.937674443 -0.3342186612
12500225000.0 0.931902502 -0.3490438515
12550224700.0 0.9268323385 -0.3630554706
12600224400.0 0.9219650633 -0.3756407323
12650224100.0 0.9160497033 -0.3899143633
12700223800.0 0.9107696555 -0.4027370775
12750223500.0 0.905239888 -0.4157073841
12800223200.0 0.9001926979 -0.4280455848
12850222900.0 0.8943755496 -0.4407415569
12900222600.0 0.8889628262 -0.4519753559
12950222300.0 0.882595605 -0.4656694806
13000222000.0 0.8766241101 -0.4765499053
13050221700.0 0.8700768885 -0.4894123685
13100221400.0 0.8633123772 -0.5014249136
13150221100.0 0.8565484964 -0.5135395894
13200220800.0 0.8496961476 -0.5254425714
13250220500.0 0.8421670617 -0.5374156858
13300220200.0 0.8346328101 -0.548335963
13350219900.0 0.8267735752 -0.5600391465
13400219600.0 0.8181767987 -0.5723934988
13450219300.0 0.8091282436 -0.585837368
13500219000.0 0.7982985885 -0.5999398681
13550218700.0 0.7879589288 -0.6127132813
13600218400.0 0.7783063698 -0.624606905
13650218100.0 0.7693961161 -0.6360571652
13700217800.0 0.7577008424 -0.6483301717
13750217500.0 0.747512254 -0.6601154458
13800217200.0 0.7364160566 -0.6710954384
13850216900.0 0.7258453567 -0.6829399385
13900216600.0 0.7158118526 -0.691886595
13950216300.0 0.70391344 -0.7021756527
14000216000.0 0.6946995395 -0.7116080585
14050215700.0 0.6850235803 -0.7195828772
14100215400.0 0.6749757692 -0.7283626531
14150215100.0 0.6659534696 -0.7370511491
14200214800.0 0.6564521181 -0.7459911879
14250214500.0 0.6463222168 -0.755073843
14300214200.0 0.6358351348 -0.7645247465
14350213900.0 0.6248579947 -0.7736922997
14400213600.0 0.6130646518 -0.7836915255
14450213300.0 0.5998586792 -0.7937110396
14500213000.0 0.5866908771 -0.803845446
14550212700.0 0.5743379215 -0.8131127517
14600212400.0 0.5615130732 -0.8219640956
14650212100.0 0.5486712856 -0.8305171729
14700211800.0 0.5346249863 -0.8404734461
14750211500.0 0.5226352412 -0.8481960249
14800211200.0 0.5103079817 -0.856452002
14850210900.0 0.4985239685 -0.8639852671
14900210600.0 0.4850481242 -0.8717786719
14950210300.0 0.4713172604 -0.8794724311
15000210000.0 0.4587609209 -0.8862442069
15050209700.0 0.4462442069 -0.8923603039
15100209400.0 0.4333889158 -0.8985639119
15150209100.0 0.4208827557 -0.9036732446
15200208800.0 0.4083018887 -0.9089361855
15250208500.0 0.3976005978 -0.9136701831
15300208200.0 0.3849812165 -0.9184523319
15350207900.0 0.3718468478 -0.9230430065
15400207600.0 0.3572988226 -0.9283388692
15450207300.0 0.3433298406 -0.9332878466
15500207000.0 0.3281597962 -0.937801566
15550206700.0 0.3134228753 -0.9430170298
15600206400.0 0.2975344733 -0.9475306382
15650206100.0 0.2812251113 -0.9520640732
15700205800.0 0.2673300869 -0.9556560412
15750205500.0 0.2527427063 -0.9590427826
15800205200.0 0.2384508733 -0.9624885432
15850204900.0 0.2239410851 -0.9659191257
15900204600.0 0.209071811 -0.9694686051
15950204300.0 0.1949072868 -0.9723520137
16000204000.0 0.1808888259 -0.9752177921
16050203700.0 0.1655868114 -0.9780938193
16100203400.0 0.1516297914 -0.9803321088
16150203100.0 0.1371417711 -0.9827888882
16200202800.0 0.1232161628 -0.9845350961
16250202500.0 0.1081110199 -0.9866515658
16300202200.0 0.0928891179 -0.9877368549
16350201900.0 0.078303577 -0.9890213316
16400201600.0 0.0632914041 -0.9904022487
16450201300.0 0.0481153 -0.9912794652
16500201000.0 0.0314925734 -0.992116128
16550200700.0 0.0159377755 -0.9926330825
16600200400.0 0.0002265945 -0.9928096319
16650200100.0 -0.0159874693 -0.9925673025
16700199800.0 -0.0323309217 -0.9923876646
16750199500.0 -0.0510512996 -0.9916066518
16800199200.0 -0.0669988551 -0.9901602976
16850198900.0 -0.0823242942 -0.9893912566
16900198600.0 -0.0959692364 -0.9881615776
16950198300.0 -0.1094878758 -0.9871008584
17000198000.0 -0.1222858935 -0.9860937282
17050197700.0 -0.1347252406 -0.9840963266
17100197400.0 -0.1473751744 -0.9815414461
17150197100.0 -0.1602721845 -0.9800414427
17200196800.0 -0.1730801075 -0.9776749803
17250196500.0 -0.1861593655 -0.9754824634
17300196200.0 -0.1981589472 -0.9731987304
17350195900.0 -0.2100158308 -0.9708766194
17400195600.0 -0.2222614199 -0.9685199329
17450195300.0 -0.2352984535 -0.9656395043
17500195000.0 -0.2487433949 -0.962254066
17550194700.0 -0.2626597692 -0.958707158
17600194400.0 -0.2765924697 -0.9545398187
17650194100.0 -0.2902209905 -0.9506248636
17700193800.0 -0.3030079103 -0.9461026402
17750193500.0 -0.317549859 -0.9418459242
17800193200.0 -0.3320654498 -0.9366171787
17850192900.0 -0.3470846565 -0.9313575635
17900192600.0 -0.3623622216 -0.9249124892
17950192300.0 -0.3781603257 -0.9180418299
18000192000.0 -0.3927178357 -0.9108425758
18050191700.0 -0.406457899 -0.9028470589
18100191400.0 -0.4207181284 -0.8951329361
18150191100.0 -0.4358134309 -0.8870075429
18200190800.0 -0.4526534327 -0.8778016553
18250190500.0 -0.4697390003 -0.8681990018
18300190200.0 -0.4850201322 -0.8595557321
18350189900.0 -0.4999512464 -0.8511471825
18400189600.0 -0.5145867268 -0.8427936236
18450189300.0 -0.5278941132 -0.8349301083
18500189000.0 -0.5409108094 -0.8270057186
18550188700.0 -0.5534941362 -0.8195179757
18600188400.0 -0.5658542979 -0.8130883309
18650188100.0 -0.5761818882 -0.806020991
18700187800.0 -0.58737221 -0.7996809971
18750187500.0 -0.5981414336 -0.7928971994
18800187200.0 -0.6085824315 -0.7856854197
18850186900.0 -0.6187667055 -0.7789448895
18900186600.0 -0.6289399569 -0.7716276206
18950186300.0 -0.639247643 -0.7639733853
19000186000.0 -0.6464211397 -0.7575538531
19050185700.0 -0.6557384157 -0.7507852743
19100185400.0 -0.6651954492 -0.7426870744
19150185100.0 -0.6756595319 -0.7340648644
19200184800.0 -0.684673698 -0.7259476203
19250184500.0 -0.6957788064 -0.7162953433
19300184200.0 -0.7066145969 -0.7059954324
19350183900.0 -0.7178288845 -0.6972718274
19400183600.0 -0.7267623554 -0.6872379458
19450183300.0 -0.736214853 -0.6772793585
19500183000.0 -0.7433995631 -0.6671479867
19550182700.0 -0.7544158466 -0.6563971024
19600182400.0 -0.7644499939 -0.6444075195
19650182100.0 -0.7753816676 -0.6321113517
19700181800.0 -0.7858993363 -0.6193434046
19750181500.0 -0.7964800515 -0.6048870883
19800181200.0 -0.8068172471 -0.5897928937
19850180900.0 -0.8165167511 -0.5742799167
19900180600.0 -0.8241574283 -0.5595560718
19950180300.0 -0.8334309832 -0.543441122
20000180000.0 -0.8264560804 -0.5455649067
20050179700.0 -0.8342380983 -0.5325572757
20100179400.0 -0.8418849977 -0.5188230195
20150179100.0 -0.8513319513 -0.50667145
20200178800.0 -0.8608085858 -0.4935500955
20250178500.0 -0.8689478434 -0.479700069
20300178200.0 -0.8793127548 -0.4657534446
20350177900.0 -0.8882352767 -0.451102936
20400177600.0 -0.8971207798 -0.4364778315
20450177300.0 -0.9054247821 -0.4223366117
20500177000.0 -0.9134603241 -0.4081873651
20550176700.0 -0.9211946079 -0.3946271494
20600176400.0 -0.9284761068 -0.3817407101
20650176100.0 -0.9351822824 -0.3695169692
20700175800.0 -0.9418434533 -0.3569983277
20750175500.0 -0.9482496735 -0.3461968494
20800175200.0 -0.9524201258 -0.3349712318
20850174900.0 -0.9578829587 -0.3237215429
20900174600.0 -0.9623726143 -0.3123780563
20950174300.0 -0.9669939473 -0.301316919
21000174000.0 -0.9701295092 -0.2889970322
21050173700.0 -0.9722120456 -0.2780002215
21100173400.0 -0.9771534781 -0.2671611401
21150173100.0 -0.9810033426 -0.2535693091
21200172800.0 -0.9844861522 -0.2400462775
21250172500.0 -0.9876383261 -0.2264997655
21300172200.0 -0.9905688441 -0.2122114825
21350171900.0 -0.9915757225 -0.1985541581
21400171600.0 -0.9933634083 -0.1839182567
21450171300.0 -0.9931049436 -0.1690848676
21500171000.0 -0.9931937311 -0.1542723527
21550170700.0 -0.9929578362 -0.1388559128
21600170400.0 -0.9928004863 -0.1238813215
21650170100.0 -0.9916863685 -0.1080984039
21700169800.0 -0.9899713758 -0.0915340576
21750169500.0 -0.989307218 -0.0771701574
21800169200.0 -0.988449942 -0.0604386783
21850168900.0 -0.9869891704 -0.0434981647
21900168600.0 -0.9850586291 -0.0270991269
21950168300.0 -0.9843645171 -0.0106716475
22000168000.0 -0.9834171945 0.0038288675
22050167700.0 -0.9828815478 0.0182488945
22100167400.0 -0.9830125458 0.0335375995
22150167100.0 -0.9835412839 0.0490694374
22200166800.0 -0.9838870601 0.0657686711
22250166500.0 -0.9833839103 0.0822857637
22300166200.0 -0.9825060066 0.0988910275
22350165900.0 -0.9810607521 0.1163289718
22400165600.0 -0.9794281618 0.131127045
22450165300.0 -0.977640956 0.1467860281
22500165000.0 -0.9757465749 0.1605330807
22550164700.0 -0.9746990777 0.1753173672
22600164400.0 -0.9731337672 0.1901789797
22650164100.0 -0.9714659234 0.2054310919
22700163800.0 -0.9684511312 0.221638092
22750163500.0 -0.9658675706 0.2373792232
22800163200.0 -0.9634126427 0.2503069899
22850162900.0 -0.9604597972 0.2634452986
22900162600.0 -0.9591430312 0.2768808694
22950162300.0 -0.9582018847 0.2897511015
23000162000.0 -0.9569633277 0.3014160585
23050161700.0 -0.9551680212 0.3138917542
23100161400.0 -0.9531772686 0.3267805631
23150161100.0 -0.949865751 0.3388401143
23200160800.0 -0.9473100555 0.3510017039
23250160500.0 -0.9450078099 0.3632302292
23300160200.0 -0.942304135 0.374770388
23350159900.0 -0.9377775825 0.3879630429
23400159600.0 -0.933796888 0.4008907354
23450159300.0 -0.928463373 0.4146963554
23500159000.0 -0.9244304085 0.4274992722
23550158700.0 -0.9198209395 0.4413798956
23600158400.0 -0.9145309598 0.4542604539
23650158100.0 -0.9081005877 0.4680267381
23700157800.0 -0.9003601614 0.4818017054
23750157500.0 -0.8919061979 0.4959853439
23800157200.0 -0.883305583 0.509480489
23850156900.0 -0.8743377844 0.5222684375
23900156600.0 -0.8652141949 0.5348972358
23950156300.0 -0.8563908729 0.5460281415
24000156000.0 -0.8472142714 0.5588558804
24050155700.0 -0.836042567 0.5706543273
24100155400.0 -0.8271642881 0.5831371159
24150155100.0 -0.8160540778 0.5940090788
24200154800.0 -0.8052371304 0.6053140806
24250154500.0 -0.7935805596 0.617213027
24300154200.0 -0.7824150501 0.6291088312
24350153900.0 -0.7706579239 0.6391363118
24400153600.0 -0.7585313223 0.6493807752
24450153300.0 -0.7464898717 0.6593485697
24500153000.0 -0.7349693004 0.6687975123
24550152700.0 -0.7237006207 0.6781033858
24600152400.0 -0.7126843748 0.6879479058
24650152100.0 -0.7006194036 0.6954780324
