!Created with skrf (http://scikit-rf.org).
# Hz S RI R 50.0 
!freq ReS11 ImS11
300000.0 -0.9779103801 -0.1142939765
50299700.0 -1.000096187 0.0157879778
100299400.0 -0.9980346395 0.0286747304
150299100.0 -1.00281789 0.045764898
200298800.0 -0.9997740421 0.0588404082
250298500.0 -0.9974057182 0.0723676504
300298200.0 -0.9862181511 0.0883753724
350297900.0 -0.9941891458 0.0990735858
400297600.0 -0.9933139629 0.1157394679
450297300.0 -0.9912346065 0.1295674853
500297000.0 -0.9896509763 0.1443146046
550296700.0 -0.9845130385 0.1568833757
600296400.0 -1.01739281 0.1899666679
650296100.0 -0.9825166705 0.1868414782
700295800.0 -0.9793183236 0.2010832394
750295500.0 -0.9763113918 0.2149738702
800295200.0 -0.973146432 0.2292785293
850294900.0 -0.9696302637 0.2429557249
900294600.0 -0.9658684688 0.2568055039
950294300.0 -0.9620801305 0.2703661295
1000294000.0 -0.958129415 0.2844673356
1050293700.0 -0.9534456465 0.2982741383
1100293400.0 -0.9493256638 0.3126507097
1150293100.0 -0.9453178971 0.3245862345
1200292800.0 -0.9400142545 0.3389156461
1250292500.0 -0.9346811155 0.3522878986
1300292200.0 -0.9287693755 0.3654543302
1350291900.0 -0.9234077578 0.3795141156
1400291600.0 -0.9177332876 0.3925671489
1450291300.0 -0.9123098766 0.4049234464
1500291000.0 -0.9061058693 0.4182170346
1550290700.0 -0.8995236794 0.4315546939
1600290400.0 -0.8931728027 0.4445196823
1650290100.0 -0.8864223077 0.4567539319
1700289800.0 -0.8796739471 0.470112844
1750289500.0 -0.8726184166 0.482477677
1800289200.0 -0.8653144079 0.495328742
1850288900.0 -0.8584048511 0.506612035
1900288600.0 -0.8507422328 0.5196485009
1950288300.0 -0.8427026954 0.5323393805
2000288000.0 -0.8352084613 0.543346518
2050287700.0 -0.826968368 0.5558094363
2100287400.0 -0.8189626928 0.5676208104
2150287100.0 -0.8105300908 0.579777136
2200286800.0 -0.8025353873 0.5900179277
2250286500.0 -0.7937412271 0.6019395108
2300286200.0 -0.7847574076 0.6135980876
2350285900.0 -0.7759048805 0.624808344
2400285600.0 -0.7670259152 0.6356913236
2450285300.0 -0.7585167387 0.6458874396
2500285000.0 -0.7488477529 0.6573825378
2550284700.0 -0.7397988098 0.6674881251
2600284400.0 -0.7302545547 0.6776918958
2650284100.0 -0.7214736308 0.6885964493
2700283800.0 -0.7108959749 0.6987090843
2750283500.0 -0.7002687881 0.7091860562
2800283200.0 -0.6906762705 0.7192588818
2850282900.0 -0.6804959098 0.7289049435
2900282600.0 -0.6703166648 0.7385944126
2950282300.0 -0.6598824694 0.7477047072
3000282000.0 -0.6490146156 0.7572575746
3050281700.0 -0.6380764505 0.766521395
3100281400.0 -0.626108433 0.7758881492
3150281100.0 -0.6142655646 0.7853735576
3200280800.0 -0.6026428346 0.7937834893
3250280500.0 -0.5919241326 0.8014527214
3300280200.0 -0.580802116 0.8091819814
3350279900.0 -0.5691626426 0.8168973618
3400279600.0 -0.5569554524 0.8244313314
3450279300.0 -0.5459155437 0.8314766428
3500279000.0 -0.5337408772 0.8386519047
3550278700.0 -0.5214140766 0.8460736862
3600278400.0 -0.5093284314 0.8531867947
3650278100.0 -0.4959000804 0.8610184657
3700277800.0 -0.4836503634 0.8671119742
3750277500.0 -0.4714934934 0.8737281335
3800277200.0 -0.4590771608 0.8803533652
3850276900.0 -0.4469977031 0.8861644829
3900276600.0 -0.4359710539 0.8919087225
3950276300.0 -0.4236200556 0.8977437872
4000276000.0 -0.4115108702 0.9039207054
4050275700.0 -0.3986883043 0.9099706043
4100275400.0 -0.387359429 0.9153959893
4150275100.0 -0.3746751057 0.9207813993
4200274800.0 -0.3617938131 0.9263944604
4250274500.0 -0.3496759404 0.9318727881
4300274200.0 -0.3366703065 0.9369546552
4350273900.0 -0.3227087444 0.9420230948
4400273600.0 -0.3078522354 0.9473933295
4450273300.0 -0.292363574 0.9525948533
4500273000.0 -0.2788515622 0.9569069067
4550272700.0 -0.2647207441 0.9610822478
4600272400.0 -0.2492506812 0.9652803409
4650272100.0 -0.2374708179 0.9684446169
4700271800.0 -0.2242069667 0.9720579238
4750271500.0 -0.2124553802 0.974659308
4800271200.0 -0.1998689859 0.9774169923
4850270900.0 -0.1860286567 0.9803833719
4900270600.0 -0.1722484945 0.9825486628
4950270300.0 -0.1580302803 0.9853295564
5000270000.0 -0.1436710673 0.9872086726
5050269700.0 -0.1304397792 0.9888519754
5100269400.0 -0.1168523298 0.9905216392
5150269100.0 -0.1035284717 0.9926049529
5200268800.0 -0.0902045392 0.9930807302
5250268500.0 -0.0770794453 0.9938151361
5300268200.0 -0.0642038211 0.9946185616
5350267900.0 -0.0519098616 0.9952742902
5400267600.0 -0.0356969697 0.9965435083
5450267300.0 -0.0226511833 0.9966284823
5500267000.0 -0.007414842 0.9971726369
5550266700.0 0.0074444138 0.9973220998
5600266400.0 0.0233186286 0.9974573029
5650266100.0 0.0397379835 0.9969032218
5700265800.0 0.054385428 0.9960894854
5750265500.0 0.0694858689 0.9956449251
5800265200.0 0.0834564241 0.9943553675
5850264900.0 0.0971161414 0.9938069741
5900264600.0 0.1132306634 0.9916309484
5950264300.0 0.1254487576 0.9897727695
6000264000.0 0.1395311462 0.9878308871
6050263700.0 0.1520163886 0.9866959881
6100263400.0 0.1646288533 0.9847880683
6150263100.0 0.1791130683 0.9823923281
6200262800.0 0.1893948253 0.9808042353
6250262500.0 0.2021205985 0.9781842794
6300262200.0 0.2148832932 0.9754111299
6350261900.0 0.2279381019 0.9723903448
6400261600.0 0.2416184554 0.9691887198
6450261300.0 0.2529971043 0.9662119067
6500261000.0 0.2660329213 0.9627216179
6550260700.0 0.2789137406 0.9590878879
6600260400.0 0.2923483067 0.9549672622
6650260100.0 0.3058212226 0.9502944778
6700259800.0 0.3181146959 0.9461283183
6750259500.0 0.3318440841 0.941229625
6800259200.0 0.3452287182 0.9362426712
6850258900.0 0.3567252848 0.9308172816
6900258600.0 0.3689663279 0.9263202941
6950258300.0 0.381818977 0.9208820665
7000258000.0 0.3935283069 0.9152863036
7050257700.0 0.4060209746 0.9093060506
7100257400.0 0.4186568566 0.9032817633
7150257100.0 0.4289849721 0.8979984409
7200256800.0 0.4417743485 0.8915165943
7250256500.0 0.4535685674 0.8852477911
7300256200.0 0.4665862534 0.8781607332
7350255900.0 0.4790237515 0.8717323825
7400255600.0 0.492635046 0.8644303327
7450255300.0 0.5071906883 0.8549226799
7500255000.0 0.5196946744 0.8482485259
7550254700.0 0.5328961683 0.8393735007
7600254400.0 0.5459364034 0.8312678236
7650254100.0 0.5574302849 0.8233930531
7700253800.0 0.5690757046 0.8156749526
7750253500.0 0.5805602953 0.8078788296
7800253200.0 0.591206216 0.800097019
7850252900.0 0.6007423782 0.7927697337
7900252600.0 0.6124052342 0.7840871808
7950252300.0 0.6212087747 0.7776766754
8000252000.0 0.6313800404 0.7697275558
8050251700.0 0.6419459089 0.7616849806
8100251400.0 0.6518476581 0.7532817108
8150251100.0 0.6620198953 0.7447357575
8200250800.0 0.6711791038 0.7368757853
8250250500.0 0.6802022599 0.7288321116
8300250200.0 0.6895393531 0.7201948465
8350249900.0 0.6987574746 0.7114154983
8400249600.0 0.7071445659 0.7034046416
8450249300.0 0.7162757052 0.6942229311
8500249000.0 0.7246376366 0.6853462273
8550248700.0 0.7331013339 0.6765454316
8600248400.0 0.7415346139 0.6669770676
8650248100.0 0.7491263486 0.6574105537
8700247800.0 0.7586451324 0.6461517904
8750247500.0 0.7670375565 0.6363192819
8800247200.0 0.7750785628 0.6258983887
8850246900.0 0.7840486331 0.6143201581
8900246600.0 0.7923484753 0.6030300838
8950246300.0 0.8017130394 0.5903889322
9000246000.0 0.8112031316 0.5772100919
9050245700.0 0.8205685807 0.5642358566
9100245400.0 0.8290864845 0.5518273671
9150245100.0 0.838280853 0.5381492348
9200244800.0 0.8486252489 0.5226471707
9250244500.0 0.8578037314 0.5069147307
9300244200.0 0.8663503158 0.4923276583
9350243900.0 0.8738669336 0.4784663457
9400243600.0 0.8803821825 0.4659615727
9450243300.0 0.88638758 0.4543889562
9500243000.0 0.8924877633 0.4422671389
9550242700.0 0.8963816627 0.4344858338
9600242400.0 0.9002479501 0.4272778357
9650242100.0 0.9038920533 0.4205747837
9700241800.0 0.9084294002 0.4124226142
9750241500.0 0.9122409463 0.405240575
9800241200.0 0.9171324399 0.3955057542
9850240900.0 0.9227381021 0.3841456439
9900240600.0 0.928209332 0.372668182
9950240300.0 0.9347453371 0.3566262611
10000240000.0 0.9394671133 0.3449497868
10050239700.0 0.9448915562 0.3299674079
10100239400.0 0.9501889176 0.3140188701
10150239100.0 0.9542901668 0.2997037416
10200238800.0 0.9584048181 0.2845626618
10250238500.0 0.9617384367 0.2710758495
10300238200.0 0.9648829525 0.2571252016
10350237900.0 0.9675618978 0.2439752648
10400237600.0 0.9700735405 0.2307364532
10450237300.0 0.9727933556 0.217327935
10500237000.0 0.9750617292 0.2052663531
10550236700.0 0.977359863 0.1915611468
10600236400.0 0.9793410808 0.1778631831
10650236100.0 0.9814118549 0.1630501522
10700235800.0 0.9835605241 0.1507050084
10750235500.0 0.9856244417 0.1379193163
10800235200.0 0.9875595763 0.1236918376
10850234900.0 0.989663622 0.1087148157
10900234600.0 0.9919120606 0.0943211204
10950234300.0 0.9935519951 0.0811082195
11000234000.0 0.9952522828 0.0660550801
11050233700.0 0.9970083458 0.0496481339
11100233400.0 0.9986132668 0.0321542
11150233100.0 0.9995095712 0.0162729738
11200232800.0 1.000034232 0.0009485347
11250232500.0 1.000822171 -0.0154186561
11300232200.0 1.001925766 -0.0337041379
11350231900.0 1.001527496 -0.0491691329
11400231600.0 1.000766809 -0.0646154223
11450231300.0 1.000334392 -0.0799189189
11500231000.0 0.9995487409 -0.097315179
11550230700.0 0.9988867856 -0.1107086397
11600230400.0 0.996380206 -0.1229125896
11650230100.0 0.994927091 -0.1339910215
11700229800.0 0.9929219306 -0.1488120382
11750229500.0 0.9905308933 -0.1638729026
11800229200.0 0.9879461769 -0.1777371979
11850228900.0 0.9843776557 -0.189948456
11900228600.0 0.980664368 -0.1996481521
11950228300.0 0.9776655237 -0.2096479075
12000228000.0 0.9747193105 -0.2192430252
12050227700.0 0.971186289 -0.2311690132
12100227400.0 0.9678470405 -0.2427002227
12150227100.0 0.96287857 -0.2589515601
12200226800.0 0.9591040958 -0.2702201615
12250226500.0 0.9554658019 -0.2832296494
12300226200.0 0.9510699794 -0.2956215424
12350225900.0 0.9468652365 -0.3087597682
12400225600.0 0.941527452 -0.3219781062
12450225300.0 0.9380276385 -0.3347171573
12500225000.0 0.9318231041 -0.3495204227
12550224700.0 0.9268343009 -0.363077861
12600224400.0 0.9218620307 -0.3759615834
12650224100.0 0.9160101899 -0.3901258742
12700223800.0 0.9107257927 -0.4029265001
12750223500.0 0.9053614036 -0.4158319637
12800223200.0 0.9000792337 -0.428533691
12850222900.0 0.8946963537 -0.4407419197
12900222600.0 0.8885350549 -0.4524339664
12950222300.0 0.8824114037 -0.4659040794
13000222000.0 0.8766078438 -0.477394407
13050221700.0 0.8695940894 -0.489841809
13100221400.0 0.8631268715 -0.5018264477
13150221100.0 0.8558890877 -0.5142121701
13200220800.0 0.8491249898 -0.5252310663
13250220500.0 0.8418447664 -0.5378841189
13300220200.0 0.8343987076 -0.5485475518
13350219900.0 0.8264033353 -0.5605557455
13400219600.0 0.8177489408 -0.5728875308
13450219300.0 0.8083019228 -0.5864938947
13500219000.0 0.7984153598 -0.6002558594
13550218700.0 0.7876385224 -0.613061317
13600218400.0 0.7775557228 -0.6254180808
13650218100.0 0.7676010029 -0.6359967544
13700217800.0 0.7575874465 -0.6490741147
13750217500.0 0.746950953 -0.6603650369
13800217200.0 0.7354612896 -0.6718343288
13850216900.0 0.7243711703 -0.6837091113
13900216600.0 0.7152384403 -0.691930439
13950216300.0 0.7037261396 -0.7030010817
14000216000.0 0.6937467782 -0.711721139
14050215700.0 0.684480488 -0.7200903604
14100215400.0 0.6746928003 -0.729305199
14150215100.0 0.6654219828 -0.7376764113
14200214800.0 0.6561445038 -0.7462434232
14250214500.0 0.6458746163 -0.7554154425
14300214200.0 0.6355310558 -0.7646057129
14350213900.0 0.624390689 -0.7742616319
14400213600.0 0.6126616874 -0.7838445861
14450213300.0 0.5997533016 -0.7938700647
14500213000.0 0.5862723455 -0.8037880021
14550212700.0 0.5736088655 -0.8136524893
14600212400.0 0.5616094209 -0.8220477793
14650212100.0 0.5485954267 -0.8308374088
14700211800.0 0.5343494042 -0.840396077
14750211500.0 0.5223970218 -0.8486303688
14800211200.0 0.5100471261 -0.8568216898
14850210900.0 0.4979812348 -0.8639302146
14900210600.0 0.4845168433 -0.8722104749
14950210300.0 0.4713028239 -0.8796092049
15000210000.0 0.4582031695 -0.8866293713
15050209700.0 0.4460812917 -0.8924902259
15100209400.0 0.4333350554 -0.8987021566
15150209100.0 0.4208815607 -0.9041353383
15200208800.0 0.4083542851 -0.9099368036
15250208500.0 0.3965177816 -0.9139311417
15300208200.0 0.3843081181 -0.9184991999
15350207900.0 0.3716389775 -0.9234746584
15400207600.0 0.3563866706 -0.928341101
15450207300.0 0.3422403629 -0.9335534918
15500207000.0 0.3275495165 -0.9383157185
15550206700.0 0.3124416786 -0.9428806376
15600206400.0 0.296092411 -0.9480095853
15650206100.0 0.2803827034 -0.9520186285
15700205800.0 0.2664529917 -0.9558378744
15750205500.0 0.2519911328 -0.9592177269
15800205200.0 0.2376232104 -0.9626913235
15850204900.0 0.2234059649 -0.966029382
15900204600.0 0.2081703641 -0.9695994262
15950204300.0 0.1940673996 -0.9726122199
16000204000.0 0.1799497533 -0.9751114476
16050203700.0 0.1652481932 -0.9781045831
16100203400.0 0.1510753142 -0.9801868568
16150203100.0 0.1366818 -0.9826851154
16200202800.0 0.1223511838 -0.9848037439
16250202500.0 0.107497912 -0.9858295578
16300202200.0 0.0926810535 -0.9879194493
16350201900.0 0.077641014 -0.9893383851
16400201600.0 0.0630911073 -0.9902583826
16450201300.0 0.0478741616 -0.9910533344
16500201000.0 0.0313727627 -0.9920163604
16550200700.0 0.0157241029 -0.9924804708
16600200400.0 -0.000163382 -0.9926457602
16650200100.0 -0.0164663544 -0.992577908
16700199800.0 -0.0328522063 -0.9920464763
16750199500.0 -0.0522719912 -0.9912426
16800199200.0 -0.0679203612 -0.9903739912
16850198900.0 -0.0831783096 -0.9887528839
16900198600.0 -0.0964195768 -0.9878756528
16950198300.0 -0.1101752469 -0.987114612
17000198000.0 -0.1227368882 -0.9861555659
17050197700.0 -0.1354215352 -0.9834853587
17100197400.0 -0.1483970352 -0.9818687523
17150197100.0 -0.1608144944 -0.9798389319
17200196800.0 -0.1732388449 -0.9779224356
17250196500.0 -0.1866398146 -0.9754251525
17300196200.0 -0.1986579742 -0.9728279903
17350195900.0 -0.2105426684 -0.9708020993
17400195600.0 -0.2226886342 -0.9682553805
17450195300.0 -0.2358997321 -0.9654900511
17500195000.0 -0.2492652347 -0.9621436965
17550194700.0 -0.2634907308 -0.9585158215
17600194400.0 -0.2771468212 -0.954624041
17650194100.0 -0.2907439025 -0.9504306067
17700193800.0 -0.3039144854 -0.9462306734
17750193500.0 -0.317806952 -0.9419858011
17800193200.0 -0.3324938901 -0.9362921573
17850192900.0 -0.3478928465 -0.9312833219
17900192600.0 -0.3629410248 -0.9249398997
17950192300.0 -0.3782904876 -0.9174476854
18000192000.0 -0.3929745263 -0.9107945534
18050191700.0 -0.4067173193 -0.9024986648
18100191400.0 -0.4209838253 -0.8948857288
18150191100.0 -0.4359814493 -0.8867128761
18200190800.0 -0.4526553023 -0.8775641251
18250190500.0 -0.4698490931 -0.8680170206
18300190200.0 -0.4853530548 -0.8593495971
18350189900.0 -0.5004816259 -0.8507195045
18400189600.0 -0.5147468967 -0.8423464121
18450189300.0 -0.5279237632 -0.8345062002
18500189000.0 -0.5415275334 -0.8266038679
18550188700.0 -0.5542891438 -0.8189915623
18600188400.0 -0.5658499638 -0.8121813503
18650188100.0 -0.5766098203 -0.8055792888
18700187800.0 -0.5875997742 -0.7989394472
18750187500.0 -0.5982891591 -0.7925714475
18800187200.0 -0.6090139264 -0.7856280173
18850186900.0 -0.6191177644 -0.778534088
18900186600.0 -0.6292726854 -0.771072181
18950186300.0 -0.6393382194 -0.76366623
19000186000.0 -0.6466588495 -0.7570533977
19050185700.0 -0.6561058055 -0.7499877321
19100185400.0 -0.6664085574 -0.7415994358
19150185100.0 -0.6762333397 -0.7331782549
19200184800.0 -0.6858300464 -0.7247613657
19250184500.0 -0.6959199553 -0.714902865
19300184200.0 -0.7073240989 -0.7053879313
19350183900.0 -0.7177422094 -0.6959836792
19400183600.0 -0.7284776609 -0.6859455639
19450183300.0 -0.7363490013 -0.676313067
19500183000.0 -0.7446747753 -0.6661220846
19550182700.0 -0.7547107753 -0.6556288393
19600182400.0 -0.7652877537 -0.6437884377
19650182100.0 -0.7756858692 -0.6314544655
19700181800.0 -0.7865252613 -0.617943788
19750181500.0 -0.7971693607 -0.604051315
19800181200.0 -0.807526575 -0.5888184961
19850180900.0 -0.8168845494 -0.5734874174
19900180600.0 -0.8246795942 -0.5590035795
19950180300.0 -0.833938373 -0.5428034696
20000180000.0 -0.8266657192 -0.5458057627
20050179700.0 -0.8346202051 -0.5325807099
20100179400.0 -0.8435124238 -0.5187513297
20150179100.0 -0.8515868285 -0.5062220529
20200178800.0 -0.8607390828 -0.4930916293
20250178500.0 -0.8700793092 -0.4797914336
20300178200.0 -0.8789295546 -0.4649069346
20350177900.0 -0.8883861698 -0.4508454391
20400177600.0 -0.8976439431 -0.436215812
20450177300.0 -0.9056307092 -0.4218065105
20500177000.0 -0.9136340212 -0.4078394986
20550176700.0 -0.9215533265 -0.394230411
20600176400.0 -0.9282539632 -0.3811520567
20650176100.0 -0.9349733678 -0.3685855962
20700175800.0 -0.9419596333 -0.3571153617
20750175500.0 -0.9478383572 -0.3454867676
20800175200.0 -0.953399979 -0.3341218295
20850174900.0 -0.9579755807 -0.3228885028
20900174600.0 -0.9637439697 -0.3112922969
20950174300.0 -0.9669073332 -0.2998108147
21000174000.0 -0.9696064618 -0.2888092021
21050173700.0 -0.9728647736 -0.2781151861
21100173400.0 -0.9771272164 -0.2651917489
21150173100.0 -0.9812937041 -0.2527584656
21200172800.0 -0.9846991498 -0.2391599887
21250172500.0 -0.9878410841 -0.2254426618
21300172200.0 -0.9905015199 -0.2110086506
21350171900.0 -0.9922730869 -0.1966094469
21400171600.0 -0.9937619721 -0.1824618454
21450171300.0 -0.9932862785 -0.1677295966
21500171000.0 -0.9930805788 -0.1522339419
21550170700.0 -0.9928436968 -0.1373868552
21600170400.0 -0.9921641465 -0.1220578618
21650170100.0 -0.9923895752 -0.1061946561
21700169800.0 -0.9901163903 -0.0915138582
21750169500.0 -0.9890089392 -0.0750039586
21800169200.0 -0.9883944182 -0.0586260744
21850168900.0 -0.9868434799 -0.0418376191
21900168600.0 -0.9853227859 -0.0260041795
21950168300.0 -0.9840120488 -0.0103572274
22000168000.0 -0.9829229841 0.0047362118
22050167700.0 -0.983195102 0.0193097411
22100167400.0 -0.9830668855 0.0345400594
22150167100.0 -0.9833715061 0.0500185347
22200166800.0 -0.9840899206 0.0662549804
22250166500.0 -0.982892972 0.0836341347
22300166200.0 -0.9817401532 0.1000753461
22350165900.0 -0.9804884378 0.116563865
22400165600.0 -0.978949256 0.1328919484
22450165300.0 -0.977506979 0.1471625763
22500165000.0 -0.9758372487 0.1608315257
22550164700.0 -0.9749764815 0.1765513169
22600164400.0 -0.9730721283 0.1912979651
22650164100.0 -0.9705394881 0.2071239132
22700163800.0 -0.9682524328 0.2226517583
22750163500.0 -0.9649219324 0.2382211388
22800163200.0 -0.9625251004 0.251261716
22850162900.0 -0.9599835827 0.2647325279
22900162600.0 -0.9585897564 0.2785254987
22950162300.0 -0.9577274633 0.2908325783
23000162000.0 -0.9565556383 0.3026371451
23050161700.0 -0.9551075233 0.3152501226
23100161400.0 -0.9530729263 0.3271682007
23150161100.0 -0.9494942438 0.3403865696
23200160800.0 -0.9471429761 0.3524328417
23250160500.0 -0.9441481591 0.3639797106
23300160200.0 -0.941706593 0.3761625388
23350159900.0 -0.9377457161 0.3890639197
23400159600.0 -0.9334700487 0.4021376565
23450159300.0 -0.9282547124 0.4151498903
23500159000.0 -0.9244210643 0.4283356086
23550158700.0 -0.9192359495 0.4415367504
23600158400.0 -0.9140586024 0.4548607946
23650158100.0 -0.9080091839 0.4687088522
23700157800.0 -0.9002297005 0.4825761308
23750157500.0 -0.8917403697 0.4967429993
23800157200.0 -0.882651107 0.5097185388
23850156900.0 -0.8737403481 0.522914412
23900156600.0 -0.8649180761 0.535070866
23950156300.0 -0.8556879215 0.5470713905
24000156000.0 -0.8465514141 0.5598812877
24050155700.0 -0.8361111204 0.570914534
24100155400.0 -0.8263701325 0.5831475697
24150155100.0 -0.8148499901 0.594381543
24200154800.0 -0.8046638067 0.6059603369
24250154500.0 -0.7926476479 0.617352901
24300154200.0 -0.7817832158 0.6286790414
24350153900.0 -0.7699314229 0.6400338103
24400153600.0 -0.7577390613 0.6496494374
24450153300.0 -0.7451297475 0.6595938303
24500153000.0 -0.7339654571 0.6694833157
24550152700.0 -0.7229602975 0.678958642
24600152400.0 -0.7107401657 0.687867329
24650152100.0 -0.6996999083 0.6959156183
