!Created with skrf (http://scikit-rf.org).
# Hz S RI R 50.0 
!freq ReS11 ImS11
300000.0 -0.9724008144 -0.1225245844
50299700.0 -0.9998543603 0.0151516533
100299400.0 -0.9979776727 0.0279586181
150299100.0 -1.00258864 0.044782468
200298800.0 -0.9995697989 0.0580584294
250298500.0 -0.9973663337 0.0717616856
300298200.0 -0.985842275 0.0874830044
350297900.0 -0.9939979785 0.0982619302
400297600.0 -0.9931639946 0.114991363
450297300.0 -0.9909011254 0.1287597718
500297000.0 -0.9895120934 0.1433675893
550296700.0 -0.9842567228 0.1557807921
600296400.0 -1.017160337 0.1890863633
650296100.0 -0.98220261 0.1859683672
700295800.0 -0.9792771152 0.1998288255
750295500.0 -0.9764147626 0.2139157755
800295200.0 -0.972974562 0.2280401907
850294900.0 -0.9697229096 0.2418614492
900294600.0 -0.9657849659 0.2556320425
950294300.0 -0.9620422439 0.2693507
1000294000.0 -0.9582610237 0.2832084909
1050293700.0 -0.9536671746 0.2969017643
1100293400.0 -0.9493477563 0.311524051
1150293100.0 -0.9455409779 0.3232733038
1200292800.0 -0.9403573668 0.3376317824
1250292500.0 -0.9346652967 0.351193157
1300292200.0 -0.9289853912 0.3643230345
1350291900.0 -0.9235569955 0.3784306475
1400291600.0 -0.9179676758 0.3914290591
1450291300.0 -0.9124770395 0.4039067838
1500291000.0 -0.9061754288 0.4172890519
1550290700.0 -0.8997452808 0.4306515965
1600290400.0 -0.8934745853 0.4435968465
1650290100.0 -0.8867586408 0.4555976302
1700289800.0 -0.879776421 0.4693879151
1750289500.0 -0.8729820917 0.4815630541
1800289200.0 -0.8655642544 0.4945289078
1850288900.0 -0.8586719396 0.5055285142
1900288600.0 -0.8509883775 0.5188695536
1950288300.0 -0.8429426496 0.5312919694
2000288000.0 -0.8353791287 0.5427777319
2050287700.0 -0.8271754119 0.5551929764
2100287400.0 -0.8194970515 0.5666071166
2150287100.0 -0.8109210083 0.5784006397
2200286800.0 -0.8031374591 0.5890254634
2250286500.0 -0.7941479409 0.6013288912
2300286200.0 -0.7852589618 0.6127404293
2350285900.0 -0.7769334191 0.6234809813
2400285600.0 -0.7681214184 0.634311848
2450285300.0 -0.7592692672 0.6448572838
2500285000.0 -0.7491849991 0.6566036978
2550284700.0 -0.7401738965 0.6670882961
2600284400.0 -0.730938529 0.6769461736
2650284100.0 -0.7225054248 0.6870325271
2700283800.0 -0.711977401 0.6975561358
2750283500.0 -0.7016604366 0.7082275587
2800283200.0 -0.6917045787 0.7181135871
2850282900.0 -0.6810030924 0.7280867369
2900282600.0 -0.6709428108 0.7378010588
2950282300.0 -0.6599873341 0.7472895387
3000282000.0 -0.6495141646 0.7566669105
3050281700.0 -0.6383655911 0.765757884
3100281400.0 -0.6270964317 0.7749451403
3150281100.0 -0.615804891 0.7839444512
3200280800.0 -0.6041260366 0.7920547839
3250280500.0 -0.593069197 0.8001794358
3300280200.0 -0.5813594581 0.8084441677
3350279900.0 -0.5692570328 0.8163288057
3400279600.0 -0.556631946 0.8247065677
3450279300.0 -0.5455935802 0.8315891642
3500279000.0 -0.5338406478 0.8385187972
3550278700.0 -0.5216504928 0.8455789449
3600278400.0 -0.5099666131 0.8522633788
3650278100.0 -0.4969304629 0.8600148945
3700277800.0 -0.4847627901 0.8664299075
3750277500.0 -0.4724836441 0.8733146429
3800277200.0 -0.4596708374 0.8795946591
3850276900.0 -0.4479048983 0.8855767702
3900276600.0 -0.436953856 0.891383909
3950276300.0 -0.4249164708 0.897233533
4000276000.0 -0.4130794031 0.9032447876
4050275700.0 -0.4005400153 0.9089301707
4100275400.0 -0.3893914976 0.9145805634
4150275100.0 -0.3762935384 0.9205128238
4200274800.0 -0.3626330567 0.9259929449
4250274500.0 -0.3500622248 0.9314184336
4300274200.0 -0.3367836173 0.9364916099
4350273900.0 -0.3224782703 0.9421344661
4400273600.0 -0.3077913322 0.9473451382
4450273300.0 -0.2927828755 0.9520311004
4500273000.0 -0.2797415827 0.9564093667
4550272700.0 -0.2662224938 0.960476311
4600272400.0 -0.2511505189 0.9645832595
4650272100.0 -0.2397355451 0.9677372366
4700271800.0 -0.2267990792 0.9710968955
4750271500.0 -0.2150418771 0.9740008316
4800271200.0 -0.2029341472 0.9766591509
4850270900.0 -0.189167378 0.979452939
4900270600.0 -0.175221071 0.9820141756
4950270300.0 -0.1606763576 0.9846112279
5000270000.0 -0.1464619119 0.9867534753
5050269700.0 -0.1328578504 0.9883949291
5100269400.0 -0.118592988 0.9901854828
5150269100.0 -0.1046889643 0.9918903894
5200268800.0 -0.0913747476 0.9925418635
5250268500.0 -0.0782795597 0.9937392434
5300268200.0 -0.0646000052 0.9946729429
5350267900.0 -0.0518264884 0.9950700715
5400267600.0 -0.0355572389 0.9963479225
5450267300.0 -0.0222898647 0.9967379146
5500267000.0 -0.0071388395 0.9968999667
5550266700.0 0.0080152269 0.9973850051
5600266400.0 0.0236518075 0.9972594444
5650266100.0 0.0404804274 0.9968942001
5700265800.0 0.0546853095 0.9956159623
5750265500.0 0.0697441864 0.9951161077
5800265200.0 0.0829789834 0.9940775988
5850264900.0 0.0965330361 0.9930469083
5900264600.0 0.1126306575 0.9912226511
5950264300.0 0.1244904973 0.989822159
6000264000.0 0.1379222609 0.9877735606
6050263700.0 0.1496423949 0.9866973956
6100263400.0 0.1620426128 0.9852066233
6150263100.0 0.1763203585 0.9824609574
6200262800.0 0.1860572034 0.9809992363
6250262500.0 0.1986713071 0.9787991827
6300262200.0 0.210968772 0.9762754646
6350261900.0 0.2238337874 0.9734287473
6400261600.0 0.2377564162 0.9703015427
6450261300.0 0.2490331706 0.9678301867
6500261000.0 0.2622705611 0.9641406733
6550260700.0 0.2752257908 0.96009259
6600260400.0 0.2887007078 0.9562144881
6650260100.0 0.3027922748 0.9516026099
6700259800.0 0.314836131 0.947493334
6750259500.0 0.3282423531 0.9422771319
6800259200.0 0.3421620425 0.9373657146
6850258900.0 0.3544477808 0.9321396452
6900258600.0 0.3671138761 0.9270218195
6950258300.0 0.3797497882 0.9216762474
7000258000.0 0.3911612759 0.9161816505
7050257700.0 0.403137679 0.910562229
7100257400.0 0.4165393733 0.9041044107
7150257100.0 0.4272151191 0.8986148755
7200256800.0 0.440302276 0.892250735
7250256500.0 0.4530180281 0.8856171735
7300256200.0 0.4658504287 0.8787783754
7350255900.0 0.4789203317 0.8716934006
7400255600.0 0.4928463054 0.8642926222
7450255300.0 0.5086302875 0.8550342658
7500255000.0 0.5212878255 0.8476292554
7550254700.0 0.5353356272 0.8382915266
7600254400.0 0.5475525557 0.8299763084
7650254100.0 0.5590950919 0.8219539949
7700253800.0 0.5707865687 0.8140589972
7750253500.0 0.5819544036 0.8065036009
7800253200.0 0.5922039468 0.7985848186
7850252900.0 0.6022146875 0.7914661802
7900252600.0 0.6136197575 0.7827476078
7950252300.0 0.6220759071 0.7763522082
8000252000.0 0.6319495744 0.7688142365
8050251700.0 0.6422392831 0.7607105649
8100251400.0 0.6520800196 0.7526789121
8150251100.0 0.6622810579 0.7442443089
8200250800.0 0.6720525425 0.7358708445
8250250500.0 0.6803707135 0.7280656969
8300250200.0 0.6895586486 0.7199207994
8350249900.0 0.6989689825 0.7109617345
8400249600.0 0.7070470135 0.7031049542
8450249300.0 0.7155927787 0.6940814596
8500249000.0 0.7243094518 0.6856209798
8550248700.0 0.7327542834 0.6764951826
8600248400.0 0.7410391539 0.6667416091
8650248100.0 0.7485616513 0.6573908224
8700247800.0 0.757969237 0.6463989968
8750247500.0 0.7662659803 0.6362057321
8800247200.0 0.7741226924 0.6261415296
8850246900.0 0.78265267 0.6147621226
8900246600.0 0.7912653589 0.6029936161
8950246300.0 0.8007589412 0.590410063
9000246000.0 0.8094345312 0.5783725663
9050245700.0 0.817550211 0.566336191
9100245400.0 0.8259598234 0.5539809885
9150245100.0 0.8348463646 0.5412680203
9200244800.0 0.8443700268 0.5268205661
9250244500.0 0.8534312259 0.5120846255
9300244200.0 0.8610051461 0.4986976735
9350243900.0 0.8689912728 0.4852494662
9400243600.0 0.8754264765 0.4737788571
9450243300.0 0.8810217297 0.4631711233
9500243000.0 0.8871974398 0.4515630736
9550242700.0 0.8913601647 0.4439294165
9600242400.0 0.8955130936 0.4365108324
9650242100.0 0.8997630909 0.4293179215
9700241800.0 0.904887524 0.42073445
9750241500.0 0.9090563744 0.4133593227
9800241200.0 0.9138937462 0.4037565921
9850240900.0 0.9199601619 0.3922004779
9900240600.0 0.9257525131 0.3802517453
9950240300.0 0.9329435507 0.3634226115
10000240000.0 0.9377738625 0.3515632147
10050239700.0 0.9439406601 0.3349492192
10100239400.0 0.9494253438 0.3189296266
10150239100.0 0.9539645069 0.303239038
10200238800.0 0.9581847472 0.2876926777
10250238500.0 0.9616194419 0.2743530282
10300238200.0 0.9647293583 0.2603343603
10350237900.0 0.9674952424 0.2470337649
10400237600.0 0.9700371052 0.2336378934
10450237300.0 0.9729005715 0.2197583657
10500237000.0 0.9749380318 0.2073478248
10550236700.0 0.9773894454 0.1929352077
10600236400.0 0.979441863 0.17944595
10650236100.0 0.9818542515 0.1643139716
10700235800.0 0.9835347434 0.152444891
10750235500.0 0.9859612986 0.138781345
10800235200.0 0.9881382456 0.1243497799
10850234900.0 0.9899463505 0.1094097707
10900234600.0 0.9919310251 0.0947886122
10950234300.0 0.9936125149 0.0813361261
11000234000.0 0.9955637187 0.0655739854
11050233700.0 0.9973039193 0.0487741341
11100233400.0 0.9989620832 0.0312880889
11150233100.0 1.000020403 0.0146477372
11200232800.0 1.000967213 -0.001697354
11250232500.0 1.001770615 -0.0193669509
11300232200.0 1.002292087 -0.0384122431
11350231900.0 1.001376881 -0.0536744428
11400231600.0 1.002111533 -0.0701480803
11450231300.0 1.001489338 -0.0851350879
11500231000.0 1.000067724 -0.101779692
11550230700.0 0.9987566755 -0.1154712024
11600230400.0 0.9971830088 -0.1274706977
11650230100.0 0.9947447779 -0.1394827453
11700229800.0 0.9926271198 -0.1536201181
11750229500.0 0.990124832 -0.1686760089
11800229200.0 0.9874332978 -0.1818807918
11850228900.0 0.9837506529 -0.1935012972
11900228600.0 0.9799626424 -0.2029920323
11950228300.0 0.97667586 -0.2133627914
12000228000.0 0.9738418661 -0.2221917266
12050227700.0 0.9696362138 -0.2351613452
12100227400.0 0.9669362762 -0.245133936
12150227100.0 0.9617024178 -0.2628799196
12200226800.0 0.9583366987 -0.2735476766
12250226500.0 0.9542857229 -0.2860015973
12300226200.0 0.9498893306 -0.2983599296
12350225900.0 0.9444120365 -0.3114894902
12400225600.0 0.9398531131 -0.3251394041
12450225300.0 0.936258144 -0.3374949839
12500225000.0 0.9303743884 -0.3519858306
12550224700.0 0.924933428 -0.3654671021
12600224400.0 0.9198531997 -0.3782903448
12650224100.0 0.9141261847 -0.3926247568
12700223800.0 0.9089379062 -0.4053798242
12750223500.0 0.9032664108 -0.4185519207
12800223200.0 0.898069362 -0.4311293347
12850222900.0 0.8926704486 -0.443467824
12900222600.0 0.8869299275 -0.4551739793
12950222300.0 0.8810560011 -0.4681944568
13000222000.0 0.8751349402 -0.4792263007
13050221700.0 0.8680361754 -0.4926529946
13100221400.0 0.8611240756 -0.5043255451
13150221100.0 0.8547806227 -0.5168142824
13200220800.0 0.8476901768 -0.5283744694
13250220500.0 0.8402811615 -0.5403862409
13300220200.0 0.8328181835 -0.5511660568
13350219900.0 0.8246688637 -0.5632784077
13400219600.0 0.8164398697 -0.5751172489
13450219300.0 0.8070300717 -0.5880301453
13500219000.0 0.7968408999 -0.6013156326
13550218700.0 0.7873602806 -0.6138155824
13600218400.0 0.7770233482 -0.6258594539
13650218100.0 0.7677316187 -0.6362164728
13700217800.0 0.7566827099 -0.6483411621
13750217500.0 0.7475714587 -0.6585323699
13800217200.0 0.7372926251 -0.6703298396
13850216900.0 0.7257932186 -0.6816087506
13900216600.0 0.7161704116 -0.6899940929
13950216300.0 0.7055580013 -0.7000622355
14000216000.0 0.6950142612 -0.7095626565
14050215700.0 0.6862549892 -0.7178762409
14100215400.0 0.6767825553 -0.7261857206
14150215100.0 0.6675934337 -0.7351314908
14200214800.0 0.6579130455 -0.7440175249
14250214500.0 0.6477042525 -0.7534862225
14300214200.0 0.6371199046 -0.7628991509
14350213900.0 0.6261860588 -0.7724824987
14400213600.0 0.6144083182 -0.7824779401
14450213300.0 0.6008043811 -0.7923839179
14500213000.0 0.5883626952 -0.8024438851
14550212700.0 0.575673726 -0.8119189127
14600212400.0 0.5634749871 -0.8202836741
14650212100.0 0.550676347 -0.8291405758
14700211800.0 0.5370173111 -0.8388456056
14750211500.0 0.5247012806 -0.8473583008
14800211200.0 0.5125298988 -0.855405032
14850210900.0 0.500111685 -0.862964761
14900210600.0 0.4868297137 -0.8708813134
14950210300.0 0.4733149412 -0.8784938938
15000210000.0 0.4606197355 -0.8853320683
15050209700.0 0.4485629899 -0.8914977147
15100209400.0 0.4358252575 -0.8979812309
15150209100.0 0.4235122436 -0.9022939758
15200208800.0 0.4114965621 -0.9083928463
15250208500.0 0.4000502566 -0.9127670993
15300208200.0 0.3878098253 -0.9176374321
15350207900.0 0.3735394423 -0.9223412324
15400207600.0 0.359446596 -0.9277177394
15450207300.0 0.3445436912 -0.9328998212
15500207000.0 0.3310308514 -0.936901353
15550206700.0 0.315546002 -0.9420114364
15600206400.0 0.2998219447 -0.9468375061
15650206100.0 0.2836406334 -0.9506988269
15700205800.0 0.2702139821 -0.9543669239
15750205500.0 0.2566482103 -0.9575846337
15800205200.0 0.2423123491 -0.9612172874
15850204900.0 0.2281788781 -0.9645265086
15900204600.0 0.2132889534 -0.9681567644
15950204300.0 0.1988022932 -0.971151356
16000204000.0 0.184420771 -0.9745311526
16050203700.0 0.1691844819 -0.977357253
16100203400.0 0.1540861053 -0.9797800215
16150203100.0 0.1397448201 -0.982145226
16200202800.0 0.1255504658 -0.9839078826
16250202500.0 0.1106640365 -0.985719491
16300202200.0 0.095095813 -0.9878579218
16350201900.0 0.0802167337 -0.9887366823
16400201600.0 0.0654408739 -0.9900986441
16450201300.0 0.0499031258 -0.9911555555
16500201000.0 0.0328819733 -0.9921094742
16550200700.0 0.0166038842 -0.992547622
16600200400.0 0.0008561385 -0.9928283529
16650200100.0 -0.0153723123 -0.9926304252
16700199800.0 -0.0318640185 -0.9922430287
16750199500.0 -0.0508416158 -0.991503005
16800199200.0 -0.0666142968 -0.9908243103
16850198900.0 -0.0818397349 -0.9889665358
16900198600.0 -0.0968209286 -0.9884296593
16950198300.0 -0.1097406257 -0.9877051371
17000198000.0 -0.1227944452 -0.9860515119
17050197700.0 -0.1352896701 -0.9839422942
17100197400.0 -0.1485630965 -0.9816917282
17150197100.0 -0.1608362643 -0.979915643
17200196800.0 -0.174154163 -0.9779343835
17250196500.0 -0.1874951368 -0.9755022082
17300196200.0 -0.1993379217 -0.9731186501
17350195900.0 -0.2112595812 -0.9706943268
17400195600.0 -0.2232974972 -0.9681177339
17450195300.0 -0.2360889622 -0.9654307302
17500195000.0 -0.2492904582 -0.9620071512
17550194700.0 -0.2633717905 -0.9586022338
17600194400.0 -0.2768415956 -0.9549434986
17650194100.0 -0.2904475307 -0.95084895
17700193800.0 -0.3033567826 -0.9462735116
17750193500.0 -0.3176556923 -0.9417140245
17800193200.0 -0.3319108875 -0.9364385636
17850192900.0 -0.3465979597 -0.9311249551
17900192600.0 -0.3617377553 -0.9249560665
17950192300.0 -0.3772404097 -0.918214556
18000192000.0 -0.392056979 -0.910812158
18050191700.0 -0.4058278272 -0.9028662015
18100191400.0 -0.4200508079 -0.8951281162
18150191100.0 -0.4346981068 -0.8871520879
18200190800.0 -0.4515789651 -0.8779843092
18250190500.0 -0.468623725 -0.8687333007
18300190200.0 -0.4841595337 -0.8598425606
18350189900.0 -0.4994637086 -0.8511850918
18400189600.0 -0.5140966786 -0.842797194
18450189300.0 -0.5272489138 -0.8348432209
18500189000.0 -0.5405525847 -0.8269039496
18550188700.0 -0.5538456527 -0.8191802087
18600188400.0 -0.5654017357 -0.8122504057
18650188100.0 -0.5767483718 -0.8057606502
18700187800.0 -0.5879126153 -0.7989448929
18750187500.0 -0.5985389875 -0.7921812117
18800187200.0 -0.6091471287 -0.7853092436
18850186900.0 -0.6195447112 -0.7782613321
18900186600.0 -0.6297846495 -0.7710872345
18950186300.0 -0.6399839895 -0.7634397962
19000186000.0 -0.6476701196 -0.7570118401
19050185700.0 -0.6570230069 -0.7496894506
19100185400.0 -0.6672056941 -0.7412999064
19150185100.0 -0.6764940755 -0.7331389855
19200184800.0 -0.6866562874 -0.7242532005
19250184500.0 -0.6963863283 -0.7162097391
19300184200.0 -0.7086724952 -0.7063389802
19350183900.0 -0.7186979542 -0.6973540291
19400183600.0 -0.728688457 -0.686625176
19450183300.0 -0.7375973497 -0.6762741287
19500183000.0 -0.7462028575 -0.6667430318
19550182700.0 -0.7557485478 -0.6558903136
19600182400.0 -0.7658244137 -0.6440487819
19650182100.0 -0.7767176626 -0.6318479137
19700181800.0 -0.7867449588 -0.6185134288
19750181500.0 -0.7971398735 -0.6044863109
19800181200.0 -0.807275647 -0.5893594666
19850180900.0 -0.816849714 -0.5742941463
19900180600.0 -0.8243765074 -0.5594001985
19950180300.0 -0.8335633697 -0.54336634
20000180000.0 -0.8226013875 -0.5477882744
20050179700.0 -0.8316919384 -0.5344157055
20100179400.0 -0.8396137126 -0.5212019292
20150179100.0 -0.8472616038 -0.5096712304
20200178800.0 -0.8562395259 -0.4977203195
20250178500.0 -0.8651809269 -0.48563188
20300178200.0 -0.8748184746 -0.4718137167
20350177900.0 -0.8845216652 -0.4576176358
20400177600.0 -0.8935900114 -0.4432241678
20450177300.0 -0.9020050911 -0.4291600072
20500177000.0 -0.9100812266 -0.4152646282
20550176700.0 -0.917970478 -0.4018668628
20600176400.0 -0.9250957981 -0.3885694767
20650176100.0 -0.9312570698 -0.3763873987
20700175800.0 -0.9380386912 -0.3642901806
20750175500.0 -0.9451474292 -0.3527412496
20800175200.0 -0.9486716121 -0.3427095739
20850174900.0 -0.9544581059 -0.3318364407
20900174600.0 -0.9581059219 -0.3207564516
20950174300.0 -0.9601543116 -0.3094076119
21000174000.0 -0.9638223689 -0.2991791608
21050173700.0 -0.9660325434 -0.2897055765
21100173400.0 -0.9688927651 -0.2781729641
21150173100.0 -0.9728742552 -0.2665440361
21200172800.0 -0.977222769 -0.2534499388
21250172500.0 -0.9806564836 -0.2396206749
21300172200.0 -0.9842686579 -0.2253903272
21350171900.0 -0.9861366582 -0.2112699928
21400171600.0 -0.9878863804 -0.1973015504
21450171300.0 -0.9886072272 -0.1835724672
21500171000.0 -0.9889260146 -0.1675845929
21550170700.0 -0.9900355234 -0.1533148452
21600170400.0 -0.9906491465 -0.1379653266
21650170100.0 -0.9913537598 -0.1216618153
21700169800.0 -0.989972591 -0.106342414
21750169500.0 -0.9897158507 -0.0899963741
21800169200.0 -0.9914479236 -0.0742346159
21850168900.0 -0.9893579632 -0.0576954237
21900168600.0 -0.9897848346 -0.0408346411
21950168300.0 -0.9895468751 -0.0257762645
22000168000.0 -0.9890655592 -0.010434767
22050167700.0 -0.9895959923 0.0044100847
22100167400.0 -0.990292859 0.0201764209
22150167100.0 -0.9912028945 0.0359961481
22200166800.0 -0.9917205941 0.0525769309
22250166500.0 -0.9907476499 0.070280857
22300166200.0 -0.9908119972 0.0860706878
22350165900.0 -0.9892875903 0.1027372159
22400165600.0 -0.9878563559 0.1179432812
22450165300.0 -0.985938821 0.1335710641
22500165000.0 -0.9848093396 0.1476278738
22550164700.0 -0.9837540062 0.1642317764
22600164400.0 -0.980933762 0.1802823443
22650164100.0 -0.9784913278 0.1952949114
22700163800.0 -0.9746924866 0.2116367344
22750163500.0 -0.972420626 0.2264479325
22800163200.0 -0.9690821122 0.2397229313
22850162900.0 -0.966661472 0.2528472639
22900162600.0 -0.9647666239 0.2669687347
22950162300.0 -0.9630856568 0.2802848316
23000162000.0 -0.9610215752 0.2929519237
23050161700.0 -0.9588721183 0.3063005215
23100161400.0 -0.9555953459 0.3199953068
23150161100.0 -0.9529932738 0.3330726903
23200160800.0 -0.9496259538 0.3457400804
23250160500.0 -0.9475603318 0.3581983504
23300160200.0 -0.9440557973 0.3717492191
23350159900.0 -0.9400434437 0.3847934306
23400159600.0 -0.9346885561 0.398319421
23450159300.0 -0.9297868357 0.4118445072
23500159000.0 -0.9248255502 0.4253749499
23550158700.0 -0.9201421049 0.439726557
23600158400.0 -0.9142481488 0.4536835877
23650158100.0 -0.9068007466 0.4683955035
23700157800.0 -0.8985132318 0.4827166153
23750157500.0 -0.8891584788 0.4971383839
23800157200.0 -0.8794667341 0.5103797947
23850156900.0 -0.8695929517 0.5232323752
23900156600.0 -0.8600345225 0.536129597
23950156300.0 -0.8504157357 0.5481380096
24000156000.0 -0.8411629698 0.5616161806
24050155700.0 -0.8293011634 0.5730122018
24100155400.0 -0.8192379586 0.5852731435
24150155100.0 -0.8085886667 0.5981809225
24200154800.0 -0.7982625415 0.6095435694
24250154500.0 -0.7859469628 0.6215920774
24300154200.0 -0.7749856624 0.6339294523
24350153900.0 -0.7628735292 0.644987225
24400153600.0 -0.7504530958 0.6556186759
24450153300.0 -0.7385806282 0.665823532
24500153000.0 -0.7268075396 0.6759280975
24550152700.0 -0.7149419543 0.6860909819
24600152400.0 -0.703063164 0.6953806895
24650152100.0 -0.691325274 0.7041232584
