!Created with skrf (http://scikit-rf.org).
# Hz S RI R 50.0 
!freq ReS11 ImS11
300000.0 -0.9735253743 -0.1235146267
50299700.0 -0.9999946967 0.0149344845
100299400.0 -0.9979810159 0.0279216172
150299100.0 -1.002762374 0.0447854803
200298800.0 -0.9996159485 0.0581661735
250298500.0 -0.9974411369 0.0715158088
300298200.0 -0.9860259861 0.0875566564
350297900.0 -0.9940431823 0.0984076402
400297600.0 -0.993132068 0.1149769097
450297300.0 -0.9908629381 0.1286116445
500297000.0 -0.9892278975 0.1433686297
550296700.0 -0.9841524156 0.1558399415
600296400.0 -1.017118469 0.1888113826
650296100.0 -0.9822479084 0.1859405297
700295800.0 -0.9793247813 0.2000101274
750295500.0 -0.9762775517 0.2139055602
800295200.0 -0.9730002478 0.2278391987
850294900.0 -0.9694986832 0.2420508163
900294600.0 -0.965823777 0.255559608
950294300.0 -0.962256573 0.269571978
1000294000.0 -0.9581158523 0.2833551418
1050293700.0 -0.9535443923 0.2971581786
1100293400.0 -0.9493122593 0.3114769399
1150293100.0 -0.9455344164 0.3235542506
1200292800.0 -0.9402571347 0.337750158
1250292500.0 -0.9344639978 0.351332126
1300292200.0 -0.9290744407 0.364575043
1350291900.0 -0.9234228798 0.3786570745
1400291600.0 -0.9176965502 0.3915943741
1450291300.0 -0.9124475767 0.4040267417
1500291000.0 -0.9061466562 0.4174836707
1550290700.0 -0.899649419 0.4306802006
1600290400.0 -0.8933861215 0.443758163
1650290100.0 -0.8867613017 0.4556138439
1700289800.0 -0.8799506447 0.4692315526
1750289500.0 -0.8727633317 0.4815936159
1800289200.0 -0.8656352108 0.4945464895
1850288900.0 -0.8586638507 0.5058504925
1900288600.0 -0.8508807141 0.5189865551
1950288300.0 -0.8429946812 0.5314602254
2000288000.0 -0.8354543744 0.5428422998
2050287700.0 -0.8271503979 0.5554421013
2100287400.0 -0.8192369215 0.5667144606
2150287100.0 -0.8107260685 0.5786478039
2200286800.0 -0.8029976061 0.5893036424
2250286500.0 -0.7941051743 0.601429117
2300286200.0 -0.7851591922 0.6130105444
2350285900.0 -0.7765828324 0.6236325365
2400285600.0 -0.7678414472 0.6344401293
2450285300.0 -0.7588127442 0.6451389227
2500285000.0 -0.7489749883 0.656759425
2550284700.0 -0.7399657118 0.6671407677
2600284400.0 -0.7309192858 0.6769615304
2650284100.0 -0.7220974785 0.6873522682
2700283800.0 -0.7119267625 0.6976846285
2750283500.0 -0.7014770843 0.7082489087
2800283200.0 -0.6915666233 0.7184706543
2850282900.0 -0.6811007612 0.7281218868
2900282600.0 -0.6706344533 0.7377084302
2950282300.0 -0.6601821376 0.7473596502
3000282000.0 -0.6494547813 0.7567468909
3050281700.0 -0.6384595248 0.7662134612
3100281400.0 -0.6267810391 0.7749436267
3150281100.0 -0.615378422 0.7840695001
3200280800.0 -0.6040915938 0.792443556
3250280500.0 -0.5929436716 0.8002474826
3300280200.0 -0.581478362 0.8084586441
3350279900.0 -0.5693689546 0.8164658055
3400279600.0 -0.5567359096 0.8245276773
3450279300.0 -0.5454219612 0.8315765509
3500279000.0 -0.5338686009 0.8386069537
3550278700.0 -0.5217141663 0.8456104294
3600278400.0 -0.5097152183 0.8524793276
3650278100.0 -0.4967729948 0.8600538624
3700277800.0 -0.4846726541 0.8666099828
3750277500.0 -0.47208694 0.8732777233
3800277200.0 -0.4596929311 0.8796970922
3850276900.0 -0.4476161265 0.8857436335
3900276600.0 -0.4366795244 0.8914234814
3950276300.0 -0.4249512021 0.8971412436
4000276000.0 -0.4128502974 0.903248748
4050275700.0 -0.4001157887 0.9093633322
4100275400.0 -0.3891360656 0.9145910354
4150275100.0 -0.3759434087 0.9205613286
4200274800.0 -0.3626767865 0.9264137277
4250274500.0 -0.3499329937 0.9315435727
4300274200.0 -0.3366428411 0.9368885592
4350273900.0 -0.322458821 0.9420765447
4400273600.0 -0.3078476223 0.9471895483
4450273300.0 -0.2925650642 0.9522118526
4500273000.0 -0.2795608547 0.9563922962
4550272700.0 -0.265938619 0.9604139683
4600272400.0 -0.2508516676 0.9648956241
4650272100.0 -0.2396588985 0.9678273329
4700271800.0 -0.2266173815 0.9712504447
4750271500.0 -0.214965433 0.9740015094
4800271200.0 -0.2028120399 0.9766221993
4850270900.0 -0.1888562701 0.9795344943
4900270600.0 -0.1750945162 0.9819992487
4950270300.0 -0.160543579 0.9846476532
5000270000.0 -0.1460968042 0.9867926666
5050269700.0 -0.1327590795 0.9880601715
5100269400.0 -0.1185840832 0.9898759385
5150269100.0 -0.1045057509 0.9919943166
5200268800.0 -0.091048256 0.9926205853
5250268500.0 -0.077929744 0.9938060209
5300268200.0 -0.0644274284 0.9945186981
5350267900.0 -0.0514861579 0.9955391055
5400267600.0 -0.0354000453 0.9961073268
5450267300.0 -0.0221651072 0.996830436
5500267000.0 -0.0068560992 0.9970781603
5550266700.0 0.0082223796 0.9970822503
5600266400.0 0.0241507057 0.9973204815
5650266100.0 0.0404362681 0.9968488443
5700265800.0 0.0549175264 0.9959484189
5750265500.0 0.0698948829 0.9949855998
5800265200.0 0.0834051472 0.9942442155
5850264900.0 0.09692966 0.9930570961
5900264600.0 0.1128611086 0.9912762214
5950264300.0 0.1247850282 0.9895583503
6000264000.0 0.1380428562 0.9877697793
6050263700.0 0.1499271139 0.9867337508
6100263400.0 0.1621049764 0.9847573533
6150263100.0 0.1767549808 0.9825998847
6200262800.0 0.1865099531 0.9809740438
6250262500.0 0.1990307346 0.9786506902
6300262200.0 0.2113365655 0.9761266198
6350261900.0 0.2241766052 0.9734358683
6400261600.0 0.2377849438 0.9699197653
6450261300.0 0.249084832 0.9675153529
6500261000.0 0.2622393121 0.9638224313
6550260700.0 0.2753939174 0.9600216879
6600260400.0 0.2891293855 0.9560628014
6650260100.0 0.3031525094 0.9514154572
6700259800.0 0.3152261263 0.9473958121
6750259500.0 0.3288207551 0.9425133591
6800259200.0 0.3421701965 0.9371365014
6850258900.0 0.3545472095 0.9317118602
6900258600.0 0.36746153 0.9267808884
6950258300.0 0.3798573765 0.9215333841
7000258000.0 0.3916498474 0.9160552825
7050257700.0 0.4033973192 0.9103760942
7100257400.0 0.4168167968 0.9037900954
7150257100.0 0.427417936 0.8985479412
7200256800.0 0.4405568727 0.8919607555
7250256500.0 0.4532213634 0.8853569339
7300256200.0 0.4661469099 0.878855214
7350255900.0 0.4787818202 0.8716647444
7400255600.0 0.4930261424 0.8640212158
7450255300.0 0.508683995 0.8548645015
7500255000.0 0.5212188686 0.8472016995
7550254700.0 0.5352394521 0.8382473589
7600254400.0 0.5477453958 0.8299233555
7650254100.0 0.5597399824 0.8219845199
7700253800.0 0.5710065583 0.8138592139
7750253500.0 0.5820025599 0.8063669706
7800253200.0 0.5925124613 0.7985725654
7850252900.0 0.6024035507 0.7911498662
7900252600.0 0.6138413535 0.7824548202
7950252300.0 0.6222991452 0.7761211531
8000252000.0 0.6322623633 0.7685533813
8050251700.0 0.6427908431 0.7604585755
8100251400.0 0.652659233 0.7525525028
8150251100.0 0.6626950605 0.7440100763
8200250800.0 0.6722955387 0.7356080926
8250250500.0 0.6809399179 0.7279379343
8300250200.0 0.6898409332 0.7194590214
8350249900.0 0.6993756889 0.7105925359
8400249600.0 0.7074107261 0.7027726061
8450249300.0 0.7158721522 0.6938562852
8500249000.0 0.7244715479 0.685018694
8550248700.0 0.7329405917 0.6760777507
8600248400.0 0.7412073095 0.6666049344
8650248100.0 0.7487862221 0.657064193
8700247800.0 0.7581738252 0.646187704
8750247500.0 0.7665057084 0.6361032895
8800247200.0 0.77447689 0.6259326584
8850246900.0 0.7830009848 0.6144703347
8900246600.0 0.7916219627 0.6029345599
8950246300.0 0.8006893349 0.5901897652
9000246000.0 0.8093032138 0.5781466236
9050245700.0 0.8181654373 0.5658465942
9100245400.0 0.8259929284 0.5539688704
9150245100.0 0.8350848385 0.5407439328
9200244800.0 0.8445173627 0.5265114696
9250244500.0 0.853735696 0.5116670757
9300244200.0 0.8616609966 0.4980853412
9350243900.0 0.8692729243 0.4848988627
9400243600.0 0.8760300749 0.4732345968
9450243300.0 0.8814566196 0.4625897673
9500243000.0 0.8877124067 0.4510212172
9550242700.0 0.891805229 0.4435537422
9600242400.0 0.89602227 0.4360462516
9650242100.0 0.900193873 0.42914394
9700241800.0 0.9051126406 0.4202661792
9750241500.0 0.9091384071 0.4128555288
9800241200.0 0.9142445717 0.4033381406
9850240900.0 0.920243217 0.3916616015
9900240600.0 0.926209601 0.379712277
9950240300.0 0.9330732718 0.363060547
10000240000.0 0.9381431079 0.3510045075
10050239700.0 0.9442615444 0.3343631684
10100239400.0 0.9497232723 0.3183413348
10150239100.0 0.9539701668 0.3030812116
10200238800.0 0.9584045835 0.2873715247
10250238500.0 0.961587044 0.2739237593
10300238200.0 0.9648174553 0.2600554866
10350237900.0 0.9676305523 0.2465910236
10400237600.0 0.9701826505 0.2330474561
10450237300.0 0.9726862906 0.2193940682
10500237000.0 0.9752703406 0.2072386105
10550236700.0 0.9771909403 0.1931311778
10600236400.0 0.9793714089 0.1788252307
10650236100.0 0.9811578232 0.1647473222
10700235800.0 0.9837700812 0.1522547665
10750235500.0 0.9859893404 0.1384025682
10800235200.0 0.9880446625 0.1241711993
10850234900.0 0.9899217247 0.1092192934
10900234600.0 0.9919456204 0.0944652178
10950234300.0 0.993726104 0.0808581701
11000234000.0 0.995615089 0.0653422248
11050233700.0 0.9974113797 0.0484969978
11100233400.0 0.9989214086 0.0309534842
11150233100.0 1.00012063 0.0139904086
11200232800.0 1.00072724 -0.0023272298
11250232500.0 1.00196414 -0.0195868666
11300232200.0 1.00262186 -0.0386107863
11350231900.0 1.001559322 -0.0537561611
11400231600.0 1.001695112 -0.0699806972
11450231300.0 1.00160127 -0.0859862719
11500231000.0 0.9999875602 -0.1019651921
11550230700.0 0.9981650797 -0.1155863825
11600230400.0 0.9972256283 -0.1287397933
11650230100.0 0.9948335172 -0.1392337523
11700229800.0 0.9926000006 -0.1545933779
11750229500.0 0.9899969195 -0.1687774022
11800229200.0 0.987292897 -0.1821961244
11850228900.0 0.9834560171 -0.1941296751
11900228600.0 0.979906996 -0.2033904441
11950228300.0 0.9765663805 -0.213616112
12000228000.0 0.9738402181 -0.2220023743
12050227700.0 0.97004202 -0.2350333722
12100227400.0 0.966814164 -0.2459047608
12150227100.0 0.9616520268 -0.2629495424
12200226800.0 0.9570841805 -0.2740409613
12250226500.0 0.954062966 -0.2859868463
12300226200.0 0.948951062 -0.2987085661
12350225900.0 0.9444773181 -0.3126307112
12400225600.0 0.9402468444 -0.3246405193
12450225300.0 0.9360298427 -0.3372452478
12500225000.0 0.9299321692 -0.3525350238
12550224700.0 0.9245871863 -0.3655203143
12600224400.0 0.9197884476 -0.37860857
12650224100.0 0.9140383515 -0.3928995323
12700223800.0 0.9086921215 -0.4056713595
12750223500.0 0.9033999152 -0.4186987848
12800223200.0 0.8980986314 -0.4315360652
12850222900.0 0.8925682598 -0.4435627941
12900222600.0 0.886511512 -0.4555707319
12950222300.0 0.8809379622 -0.4680663237
13000222000.0 0.8752770063 -0.4794825764
13050221700.0 0.8683244433 -0.4921126415
13100221400.0 0.8611611966 -0.5046845497
13150221100.0 0.8545409398 -0.5166498941
13200220800.0 0.8473909138 -0.5282915278
13250220500.0 0.8402440871 -0.5405495276
13300220200.0 0.8324495777 -0.5516756395
13350219900.0 0.8245269198 -0.5635337317
13400219600.0 0.8160971843 -0.5753602975
13450219300.0 0.8070975562 -0.5883573897
13500219000.0 0.7971235302 -0.6016683329
13550218700.0 0.7861957831 -0.6144467718
13600218400.0 0.7769655158 -0.625523653
13650218100.0 0.7676241307 -0.6365773558
13700217800.0 0.7565986843 -0.6490759917
13750217500.0 0.7473014408 -0.6596086662
13800217200.0 0.7365361367 -0.6705979451
13850216900.0 0.7256580539 -0.6814486167
13900216600.0 0.715324881 -0.6907203462
13950216300.0 0.7049151617 -0.7009157172
14000216000.0 0.6951717962 -0.7097978771
14050215700.0 0.6859455247 -0.7179294406
14100215400.0 0.6761546136 -0.726571705
14150215100.0 0.6671942883 -0.7354811991
14200214800.0 0.6576534126 -0.7442990507
14250214500.0 0.6472325383 -0.7538004616
14300214200.0 0.6367383409 -0.7631528246
14350213900.0 0.6257451278 -0.772887658
14400213600.0 0.6141949203 -0.7825978831
14450213300.0 0.6008524344 -0.7928221946
14500213000.0 0.5874265412 -0.8027284583
14550212700.0 0.5755203612 -0.8117752252
14600212400.0 0.5634371118 -0.8207671501
14650212100.0 0.5503551216 -0.8297749645
14700211800.0 0.536642845 -0.8390456834
14750211500.0 0.5245217981 -0.847490935
14800211200.0 0.5120457566 -0.8556059616
14850210900.0 0.4997514136 -0.8634836898
14900210600.0 0.4863795285 -0.8711274601
14950210300.0 0.4729312576 -0.8788958459
15000210000.0 0.4605104334 -0.8857547942
15050209700.0 0.4477716384 -0.8916393738
15100209400.0 0.4351353108 -0.8977038694
15150209100.0 0.4231599505 -0.9031500466
15200208800.0 0.4103308402 -0.9084644917
15250208500.0 0.3992194613 -0.9126240258
15300208200.0 0.3870529291 -0.9176210124
15350207900.0 0.3738563302 -0.9219731978
15400207600.0 0.358577304 -0.9277450413
15450207300.0 0.3443148921 -0.9325063988
15500207000.0 0.3296041314 -0.9375045654
15550206700.0 0.3148121335 -0.9422286914
15600206400.0 0.2986111832 -0.9466307632
15650206100.0 0.2833795511 -0.9514771265
15700205800.0 0.2693940712 -0.9546765206
15750205500.0 0.2557371878 -0.9580488834
15800205200.0 0.2415785201 -0.9613535231
15850204900.0 0.2274214745 -0.964936538
15900204600.0 0.2125305948 -0.9684935972
15950204300.0 0.197879846 -0.9715808835
16000204000.0 0.183686051 -0.9744485532
16050203700.0 0.168771531 -0.9774835143
16100203400.0 0.1537241571 -0.9796638461
16150203100.0 0.1393400512 -0.9825030124
16200202800.0 0.1243014973 -0.9843192718
16250202500.0 0.1099161478 -0.9858060487
16300202200.0 0.0944839046 -0.9873629957
16350201900.0 0.0797322967 -0.9890801798
16400201600.0 0.0645188084 -0.9899094887
16450201300.0 0.049193137 -0.9910532034
16500201000.0 0.0320780642 -0.9920401592
16550200700.0 0.0160264772 -0.9925679187
16600200400.0 1.03406e-05 -0.9925923582
16650200100.0 -0.0161887332 -0.9927105912
16700199800.0 -0.0324938342 -0.9919407831
16750199500.0 -0.0516576826 -0.9915842719
16800199200.0 -0.0674979823 -0.9907602356
16850198900.0 -0.0829454734 -0.9892845003
16900198600.0 -0.097568007 -0.9880484069
16950198300.0 -0.1109514492 -0.9869558916
17000198000.0 -0.1243067689 -0.985692505
17050197700.0 -0.1366493203 -0.9843201023
17100197400.0 -0.1496939617 -0.9818153399
17150197100.0 -0.1623192664 -0.9799199684
17200196800.0 -0.1751037006 -0.9776068546
17250196500.0 -0.1877737306 -0.9753315208
17300196200.0 -0.2001307104 -0.9729597435
17350195900.0 -0.2119891767 -0.9706207031
17400195600.0 -0.223736424 -0.9680216661
17450195300.0 -0.2367427702 -0.965310693
17500195000.0 -0.2498804912 -0.9622165023
17550194700.0 -0.2639157138 -0.9581608898
17600194400.0 -0.2774513926 -0.9547655581
17650194100.0 -0.291041155 -0.9504009455
17700193800.0 -0.3038560815 -0.9463494924
17750193500.0 -0.3180954781 -0.9420035361
17800193200.0 -0.332729689 -0.9366981964
17850192900.0 -0.3473345291 -0.931349924
17900192600.0 -0.3625177588 -0.9248911248
17950192300.0 -0.3779878777 -0.9178565129
18000192000.0 -0.3924925793 -0.9105143949
18050191700.0 -0.4064081872 -0.902477978
18100191400.0 -0.4205510764 -0.8949663565
18150191100.0 -0.4352886739 -0.8868735849
18200190800.0 -0.4521700715 -0.8775739931
18250190500.0 -0.469243528 -0.8683320557
18300190200.0 -0.4847785694 -0.8590993585
18350189900.0 -0.4997250467 -0.8511809101
18400189600.0 -0.514241069 -0.8421660028
18450189300.0 -0.5276498632 -0.8342007807
18500189000.0 -0.5408998864 -0.8262450008
18550188700.0 -0.5539074861 -0.8186220592
18600188400.0 -0.5660909044 -0.8119056488
18650188100.0 -0.5776285207 -0.805082063
18700187800.0 -0.5885682709 -0.7982380138
18750187500.0 -0.5990667576 -0.7919126835
18800187200.0 -0.6098452734 -0.7848976191
18850186900.0 -0.6198431819 -0.777989315
18900186600.0 -0.6303118725 -0.770632894
18950186300.0 -0.6408313101 -0.7630489835
19000186000.0 -0.6478346719 -0.7567623871
19050185700.0 -0.657304955 -0.7497294947
19100185400.0 -0.666993161 -0.7416816855
19150185100.0 -0.6777316937 -0.7328373868
19200184800.0 -0.6869738173 -0.7244974412
19250184500.0 -0.6966938925 -0.7154714065
19300184200.0 -0.7081736359 -0.7059818894
19350183900.0 -0.7194250165 -0.6967013023
19400183600.0 -0.7287194541 -0.686126223
19450183300.0 -0.7377823332 -0.6766731281
19500183000.0 -0.7456655142 -0.666751461
19550182700.0 -0.7557687445 -0.6554400756
19600182400.0 -0.7662170571 -0.6440423504
19650182100.0 -0.776537402 -0.63131924
19700181800.0 -0.7872123034 -0.6182138072
19750181500.0 -0.7974401725 -0.6041235476
19800181200.0 -0.8074813357 -0.5892729175
19850180900.0 -0.8170974145 -0.5738748549
19900180600.0 -0.8245548314 -0.5594774559
19950180300.0 -0.8338149774 -0.5428652541
20000180000.0 -0.8234464574 -0.5467481284
20050179700.0 -0.8319896228 -0.5344472752
20100179400.0 -0.8401898797 -0.5208733512
20150179100.0 -0.8476952366 -0.5089365273
20200178800.0 -0.8567614837 -0.4979336887
20250178500.0 -0.8648850031 -0.4848741954
20300178200.0 -0.8751420734 -0.4712741772
20350177900.0 -0.8846774949 -0.4573508328
20400177600.0 -0.8938251037 -0.4431638233
20450177300.0 -0.9018779961 -0.4289481447
20500177000.0 -0.9101685451 -0.4150744371
20550176700.0 -0.9181173255 -0.4016342288
20600176400.0 -0.9246792078 -0.3889114164
20650176100.0 -0.9316274659 -0.3762074428
20700175800.0 -0.9381017282 -0.3647654059
20750175500.0 -0.9453301681 -0.3529600934
20800175200.0 -0.9494449658 -0.3423978355
20850174900.0 -0.9534699788 -0.3315569319
20900174600.0 -0.9576150951 -0.3208237565
20950174300.0 -0.9608605152 -0.309779475
21000174000.0 -0.964070413 -0.298445158
21050173700.0 -0.9654343239 -0.2890747775
21100173400.0 -0.9691450002 -0.2786764747
21150173100.0 -0.9730485867 -0.2664231517
21200172800.0 -0.9775253416 -0.2531627628
21250172500.0 -0.9807163839 -0.2391712623
21300172200.0 -0.9840093434 -0.2251159065
21350171900.0 -0.9862224468 -0.2112704389
21400171600.0 -0.9885153343 -0.1972800859
21450171300.0 -0.9889318976 -0.1824680878
21500171000.0 -0.9902136598 -0.1672156898
21550170700.0 -0.9899514493 -0.152609987
21600170400.0 -0.9906090056 -0.1364895249
21650170100.0 -0.9908848067 -0.1216295124
21700169800.0 -0.990028227 -0.1060605718
21750169500.0 -0.9896288133 -0.0891219025
21800169200.0 -0.989673883 -0.0738860418
21850168900.0 -0.9898596886 -0.0571941075
21900168600.0 -0.9889392891 -0.0403136113
21950168300.0 -0.9891596065 -0.0246751385
22000168000.0 -0.9890900094 -0.0097505915
22050167700.0 -0.9892193411 0.0050673501
22100167400.0 -0.9899912628 0.0207124004
22150167100.0 -0.9905186365 0.0364613234
22200166800.0 -0.9916265755 0.0535631709
22250166500.0 -0.9906415338 0.0701947694
22300166200.0 -0.9899466728 0.0864861745
22350165900.0 -0.9891805095 0.1025778815
22400165600.0 -0.9879424967 0.1186508826
22450165300.0 -0.9864864548 0.133055276
22500165000.0 -0.9836745507 0.1476137937
22550164700.0 -0.9838947427 0.1635010731
22600164400.0 -0.9802519149 0.1808150105
22650164100.0 -0.9783408024 0.1970329301
22700163800.0 -0.9742244744 0.212431452
22750163500.0 -0.9722360982 0.2272181425
22800163200.0 -0.968972684 0.239168614
22850162900.0 -0.9662426388 0.2529744704
22900162600.0 -0.9645570869 0.2672575176
22950162300.0 -0.9629154682 0.2808935102
23000162000.0 -0.9611028505 0.2935950662
23050161700.0 -0.9583365533 0.3062992743
23100161400.0 -0.9555231531 0.3201524282
23150161100.0 -0.9522906455 0.3327136343
23200160800.0 -0.9493946823 0.3460734208
23250160500.0 -0.9465257655 0.3585537305
23300160200.0 -0.9439785336 0.3712830539
23350159900.0 -0.9393143124 0.3848661175
23400159600.0 -0.9349734472 0.3990336755
23450159300.0 -0.929376603 0.4121603104
23500159000.0 -0.9248652963 0.426057027
23550158700.0 -0.9203385443 0.4400302362
23600158400.0 -0.9143369683 0.4540264591
23650158100.0 -0.906944571 0.4688571381
23700157800.0 -0.8985202592 0.4829862349
23750157500.0 -0.8890438721 0.4970494088
23800157200.0 -0.8796895355 0.5103680046
23850156900.0 -0.8702619905 0.5232108409
23900156600.0 -0.8598461497 0.5364454961
23950156300.0 -0.8503191267 0.54886356
24000156000.0 -0.8407325468 0.5611883625
24050155700.0 -0.8297161229 0.5728361159
24100155400.0 -0.8203740243 0.5854595862
24150155100.0 -0.8082909448 0.5977134795
24200154800.0 -0.7975343293 0.6096378517
24250154500.0 -0.7863675872 0.6219858516
24300154200.0 -0.7751548251 0.634133241
24350153900.0 -0.7628346054 0.6450241568
24400153600.0 -0.7503783797 0.6553745917
24450153300.0 -0.7386982654 0.665633374
24500153000.0 -0.7264051117 0.6757221086
24550152700.0 -0.7152567409 0.6860389477
24600152400.0 -0.7033975668 0.6950609442
24650152100.0 -0.6909717733 0.7034983609
