!Created with skrf (http://scikit-rf.org).
# Hz S RI R 50.0 
!freq ReS11 ImS11
300000.0 -0.9735009948 -0.1209867176
50299700.0 -0.9998627292 0.0150746763
100299400.0 -0.9978290385 0.0278889611
150299100.0 -1.002752435 0.044813716
200298800.0 -0.9995802189 0.0578887473
250298500.0 -0.9974164147 0.0716300167
300298200.0 -0.9859113667 0.0875388513
350297900.0 -0.9940065076 0.0984670995
400297600.0 -0.9930181972 0.1149954483
450297300.0 -0.9908539352 0.1286806701
500297000.0 -0.9893784822 0.1435512026
550296700.0 -0.9843553133 0.1560251428
600296400.0 -1.017273644 0.1891989405
650296100.0 -0.9822739688 0.1857280742
700295800.0 -0.9793216807 0.2001151689
750295500.0 -0.9763785221 0.2139823879
800295200.0 -0.9728290425 0.2280957415
850294900.0 -0.9696132599 0.2420003514
900294600.0 -0.9658284622 0.2556781795
950294300.0 -0.9621862443 0.2693799116
1000294000.0 -0.9582525416 0.2833141062
1050293700.0 -0.9537125529 0.2971028943
1100293400.0 -0.9491981661 0.3115562557
1150293100.0 -0.9454974209 0.3233524472
1200292800.0 -0.9401003712 0.3379116382
1250292500.0 -0.934566095 0.3511075436
1300292200.0 -0.9288737512 0.3644460148
1350291900.0 -0.9234572108 0.378550453
1400291600.0 -0.9178757177 0.3916366685
1450291300.0 -0.9123477101 0.403936742
1500291000.0 -0.9062473845 0.4173162146
1550290700.0 -0.8995795224 0.4305895453
1600290400.0 -0.8934819985 0.4435620751
1650290100.0 -0.8866363575 0.4557383205
1700289800.0 -0.879772658 0.4691947084
1750289500.0 -0.8727554739 0.4813131758
1800289200.0 -0.865585018 0.4944525711
1850288900.0 -0.8586531165 0.5057408266
1900288600.0 -0.8509497831 0.5188217867
1950288300.0 -0.8427404478 0.5312801135
2000288000.0 -0.8355369189 0.5428203321
2050287700.0 -0.8271077509 0.5551579609
2100287400.0 -0.8194551957 0.5664208204
2150287100.0 -0.8109884836 0.5784587419
2200286800.0 -0.8029605092 0.5892240841
2250286500.0 -0.7940167523 0.6016259248
2300286200.0 -0.7852388843 0.6128120604
2350285900.0 -0.7770401163 0.6234140778
2400285600.0 -0.7679706567 0.6344141093
2450285300.0 -0.7592357659 0.6449481839
2500285000.0 -0.749246121 0.656666929
2550284700.0 -0.7401731208 0.66690703
2600284400.0 -0.7310785591 0.676829747
2650284100.0 -0.7223025591 0.6871503948
2700283800.0 -0.7119522229 0.6975562199
2750283500.0 -0.701880161 0.7083968225
2800283200.0 -0.6915539074 0.7179254478
2850282900.0 -0.681189293 0.7281537572
2900282600.0 -0.6706951835 0.7377764239
2950282300.0 -0.6601881868 0.7470610612
3000282000.0 -0.6497397576 0.7566589329
3050281700.0 -0.6385267676 0.7658428035
3100281400.0 -0.6267812404 0.7750447558
3150281100.0 -0.6156113219 0.7838592101
3200280800.0 -0.6042353785 0.792258062
3250280500.0 -0.5930649843 0.8002989011
3300280200.0 -0.5814908023 0.808490291
3350279900.0 -0.5692759156 0.8163303271
3400279600.0 -0.5567239295 0.8244950447
3450279300.0 -0.5455128711 0.8314944985
3500279000.0 -0.5339060825 0.8382767875
3550278700.0 -0.5217116798 0.8455610794
3600278400.0 -0.5098321963 0.8520129518
3650278100.0 -0.4969944839 0.8600122542
3700277800.0 -0.484849661 0.8663112602
3750277500.0 -0.4721106401 0.8731905577
3800277200.0 -0.4598755804 0.879849615
3850276900.0 -0.4476572031 0.8857283252
3900276600.0 -0.436661812 0.8911544876
3950276300.0 -0.4250348633 0.8971167317
4000276000.0 -0.4130317064 0.9030337492
4050275700.0 -0.400505512 0.9090495207
4100275400.0 -0.3892941318 0.9147005753
4150275100.0 -0.3760462542 0.9204651987
4200274800.0 -0.3628389971 0.9259733472
4250274500.0 -0.3500796104 0.9314309784
4300274200.0 -0.3369386323 0.936667362
4350273900.0 -0.3225769038 0.9421163546
4400273600.0 -0.3077368111 0.947164638
4450273300.0 -0.293071791 0.9522266921
4500273000.0 -0.2796709919 0.9564619685
4550272700.0 -0.265991979 0.9606211941
4600272400.0 -0.2509622759 0.9646444112
4650272100.0 -0.2395899703 0.9677793615
4700271800.0 -0.2267516755 0.9710495959
4750271500.0 -0.2150407485 0.9740920806
4800271200.0 -0.2027211232 0.976784157
4850270900.0 -0.1890641345 0.979640014
4900270600.0 -0.1751835994 0.9819469819
4950270300.0 -0.1606153803 0.9844904414
5000270000.0 -0.1462224605 0.9865156687
5050269700.0 -0.1327562339 0.9882839129
5100269400.0 -0.1184531486 0.9901709951
5150269100.0 -0.1046428617 0.9915698165
5200268800.0 -0.0912028453 0.992701266
5250268500.0 -0.0782900834 0.9939441751
5300268200.0 -0.0646927297 0.9944066917
5350267900.0 -0.0518513599 0.9954770485
5400267600.0 -0.0355541834 0.9960031104
5450267300.0 -0.0223707459 0.9965775973
5500267000.0 -0.0071340153 0.9968170769
5550266700.0 0.0079450868 0.9971806359
5600266400.0 0.0235006053 0.9972861568
5650266100.0 0.0404197942 0.99658453
5700265800.0 0.0544935675 0.9959905739
5750265500.0 0.0693799378 0.9947140103
5800265200.0 0.0829119458 0.994131806
5850264900.0 0.0965564393 0.9932430722
5900264600.0 0.1128205308 0.9911872216
5950264300.0 0.1242805861 0.9897022908
6000264000.0 0.1377047891 0.9880277358
6050263700.0 0.1496175042 0.986748174
6100263400.0 0.1619886929 0.9850756901
6150263100.0 0.1764730771 0.9824540671
6200262800.0 0.1862427294 0.9808882515
6250262500.0 0.1987824251 0.9786543353
6300262200.0 0.2111873927 0.9760363574
6350261900.0 0.2240124463 0.9733157687
6400261600.0 0.2377030397 0.9700722646
6450261300.0 0.2489636993 0.9675627561
6500261000.0 0.2621850586 0.963878506
6550260700.0 0.2750016735 0.9597228058
6600260400.0 0.2884938776 0.9556435664
6650260100.0 0.3030351838 0.9516597899
6700259800.0 0.3150213706 0.9475361634
6750259500.0 0.3287480664 0.9424881621
6800259200.0 0.3426157182 0.9374517298
6850258900.0 0.3542967086 0.9317971277
6900258600.0 0.3673462434 0.9267467286
6950258300.0 0.3797371569 0.9214227189
7000258000.0 0.3912364014 0.9160900928
7050257700.0 0.4034838678 0.910391805
7100257400.0 0.4166235641 0.904049128
7150257100.0 0.4274452487 0.8985646426
7200256800.0 0.4404483352 0.8920527112
7250256500.0 0.4529812398 0.8854970863
7300256200.0 0.4657715367 0.8787343161
7350255900.0 0.4783649157 0.871593192
7400255600.0 0.4928209513 0.864093972
7450255300.0 0.5082881674 0.8550045906
7500255000.0 0.5208722424 0.8474844879
7550254700.0 0.5349779326 0.8384266346
7600254400.0 0.5471585649 0.8302162814
7650254100.0 0.5592339334 0.8223550377
7700253800.0 0.5706223281 0.8142479734
7750253500.0 0.5815230723 0.8065442737
7800253200.0 0.592204033 0.7987990623
7850252900.0 0.6020277598 0.7915821356
7900252600.0 0.6136219943 0.7828774518
7950252300.0 0.6220787385 0.7765286765
8000252000.0 0.6320546662 0.7688324495
8050251700.0 0.6423107122 0.7607708035
8100251400.0 0.6523797056 0.7528097275
8150251100.0 0.6620301746 0.7443507416
8200250800.0 0.6717745141 0.7360755434
8250250500.0 0.6805642421 0.7282239306
8300250200.0 0.6895239027 0.719858395
8350249900.0 0.6988182719 0.7111196966
8400249600.0 0.7067442155 0.7029993963
8450249300.0 0.7157315605 0.6941684431
8500249000.0 0.7243074976 0.685453766
8550248700.0 0.7326127406 0.676409642
8600248400.0 0.7409017803 0.6667359798
8650248100.0 0.7484854342 0.6575466506
8700247800.0 0.7578730162 0.6464453619
8750247500.0 0.7662452703 0.6361942433
8800247200.0 0.7743136573 0.6260482318
8850246900.0 0.7829283068 0.6145800326
8900246600.0 0.7911949927 0.6030356168
8950246300.0 0.8003971401 0.5905738078
9000246000.0 0.8094686719 0.5786082054
9050245700.0 0.8177731956 0.5661889061
9100245400.0 0.8261742476 0.5538187183
9150245100.0 0.8349673163 0.5411676671
9200244800.0 0.8444667582 0.5266862972
9250244500.0 0.8535113145 0.5119125557
9300244200.0 0.8615592981 0.4982202173
9350243900.0 0.8690964926 0.4851883957
9400243600.0 0.8758241232 0.4734203475
9450243300.0 0.8813805628 0.4627637668
9500243000.0 0.8876606802 0.4510030464
9550242700.0 0.8914875612 0.4433820927
9600242400.0 0.8958451219 0.4360229472
9650242100.0 0.8999511666 0.428877397
9700241800.0 0.9050693752 0.4205105954
9750241500.0 0.9093416743 0.412671169
9800241200.0 0.9141622104 0.4032577133
9850240900.0 0.9198513387 0.3916988464
9900240600.0 0.9257376 0.3798489636
9950240300.0 0.9326052491 0.3631331799
10000240000.0 0.9379933351 0.3508066589
10050239700.0 0.9441481212 0.3348708698
10100239400.0 0.9492339772 0.3186711452
10150239100.0 0.9538287384 0.3033246638
10200238800.0 0.9581791979 0.2875369703
10250238500.0 0.9614930817 0.2743005396
10300238200.0 0.9644811417 0.2604907045
10350237900.0 0.9673202448 0.2469412408
10400237600.0 0.9700416775 0.2334982727
10450237300.0 0.9727991824 0.2196832636
10500237000.0 0.9749837017 0.2072625217
10550236700.0 0.9772510129 0.1932597009
10600236400.0 0.979077977 0.1793993599
10650236100.0 0.9814199993 0.1640432031
10700235800.0 0.983704471 0.152333112
10750235500.0 0.9856912876 0.1391042692
10800235200.0 0.987944251 0.1242004491
10850234900.0 0.9900906374 0.1095926251
10900234600.0 0.9921017152 0.0948614521
10950234300.0 0.9937044755 0.0813336493
11000234000.0 0.9955089 0.0656678012
11050233700.0 0.997262844 0.0489374962
11100233400.0 0.9989792537 0.0314014571
11150233100.0 1.000011024 0.0143232827
11200232800.0 1.000412539 -0.0013426313
11250232500.0 1.001706623 -0.0189279854
11300232200.0 1.001530209 -0.0376824752
11350231900.0 1.001984572 -0.0529356604
11400231600.0 1.001951464 -0.0690040074
11450231300.0 1.000518895 -0.0852349831
11500231000.0 0.9992769301 -0.1011300351
11550230700.0 0.9981024447 -0.1146403924
11600230400.0 0.9969685395 -0.1272951585
11650230100.0 0.9945589292 -0.138919773
11700229800.0 0.9927682628 -0.1543316706
11750229500.0 0.9898407196 -0.1677825472
11800229200.0 0.9873093193 -0.181474926
11850228900.0 0.9836621157 -0.1931374357
11900228600.0 0.9799747508 -0.2029685785
11950228300.0 0.976454558 -0.2130216998
12000228000.0 0.9738230507 -0.2216066043
12050227700.0 0.9698124614 -0.2346679552
12100227400.0 0.9668447363 -0.2456065516
12150227100.0 0.961921877 -0.2615931316
12200226800.0 0.9582614761 -0.2729285876
12250226500.0 0.9541339204 -0.2855863995
12300226200.0 0.9493932838 -0.2986880833
12350225900.0 0.9450798154 -0.3117650635
12400225600.0 0.9406985352 -0.3244202713
12450225300.0 0.9361902419 -0.3359527228
12500225000.0 0.9303137352 -0.3515329266
12550224700.0 0.9247948667 -0.3653390318
12600224400.0 0.9201723512 -0.3778961242
12650224100.0 0.9142506361 -0.3923487477
12700223800.0 0.9090472862 -0.4050868215
12750223500.0 0.9034708208 -0.4183050087
12800223200.0 0.8981663593 -0.430930789
12850222900.0 0.8931368163 -0.4428154259
12900222600.0 0.8873075766 -0.4550203894
12950222300.0 0.880828651 -0.4678397109
13000222000.0 0.8752920101 -0.4792123061
13050221700.0 0.8678507487 -0.4925450539
13100221400.0 0.8614624882 -0.5039398112
13150221100.0 0.8544696122 -0.5163366095
13200220800.0 0.8479089359 -0.5277872622
13250220500.0 0.8402859137 -0.5403154603
13300220200.0 0.833002162 -0.5512059241
13350219900.0 0.82474522 -0.5629047994
13400219600.0 0.8164490363 -0.574936893
13450219300.0 0.8072951233 -0.5880441963
13500219000.0 0.7971247798 -0.6011760003
13550218700.0 0.787325746 -0.6135123637
13600218400.0 0.7775413583 -0.6250570242
13650218100.0 0.76840532 -0.6361043975
13700217800.0 0.756659433 -0.6483029455
13750217500.0 0.7467889161 -0.6587414319
13800217200.0 0.7364945756 -0.6702756836
13850216900.0 0.7252195384 -0.6815315575
13900216600.0 0.7154097008 -0.6906658334
13950216300.0 0.7047265665 -0.7002343942
14000216000.0 0.695645908 -0.7092947934
14050215700.0 0.6865831871 -0.7173981374
14100215400.0 0.6767396264 -0.7264152785
14150215100.0 0.6672755825 -0.7349415674
14200214800.0 0.6579665056 -0.7440074869
14250214500.0 0.6476239208 -0.7534754376
14300214200.0 0.6370916725 -0.7628971739
14350213900.0 0.6261242401 -0.7724763776
14400213600.0 0.613978622 -0.7821390852
14450213300.0 0.6012009008 -0.7924059624
14500213000.0 0.5882921878 -0.8019836847
14550212700.0 0.576054413 -0.8115062157
14600212400.0 0.563685989 -0.820509397
14650212100.0 0.5509997115 -0.8295757797
14700211800.0 0.5371320561 -0.8388394511
14750211500.0 0.524512185 -0.8472367059
14800211200.0 0.5123474596 -0.8555273315
14850210900.0 0.4999588104 -0.8629846456
14900210600.0 0.4868137673 -0.8709829975
14950210300.0 0.4735301952 -0.8784497713
15000210000.0 0.4609745004 -0.8855149468
15050209700.0 0.4485476788 -0.8912401058
15100209400.0 0.435683716 -0.8971998711
15150209100.0 0.4236293421 -0.9028644339
15200208800.0 0.4105528127 -0.9081254199
15250208500.0 0.4007090806 -0.9126011806
15300208200.0 0.387783985 -0.9178368423
15350207900.0 0.3738261873 -0.9226936888
15400207600.0 0.3590989798 -0.927389445
15450207300.0 0.3450276919 -0.9329822682
15500207000.0 0.3307587764 -0.9369518979
15550206700.0 0.315175213 -0.9417956055
15600206400.0 0.2995302017 -0.9462391844
15650206100.0 0.2836172506 -0.9508523287
15700205800.0 0.2704821601 -0.9544633065
15750205500.0 0.2564792767 -0.9576845944
15800205200.0 0.2423066838 -0.9613002197
15850204900.0 0.2281510268 -0.9646269515
15900204600.0 0.2130223043 -0.9682710801
15950204300.0 0.1990141705 -0.9715084255
16000204000.0 0.1843741766 -0.9742877243
16050203700.0 0.1692475943 -0.9775242549
16100203400.0 0.1544215689 -0.9795937776
16150203100.0 0.1395655905 -0.982222708
16200202800.0 0.125370254 -0.9842768773
16250202500.0 0.1103470873 -0.9860313837
16300202200.0 0.0950193656 -0.9877156886
16350201900.0 0.0799169595 -0.9888015296
16400201600.0 0.0654450505 -0.9899377595
16450201300.0 0.0498953981 -0.9911062928
16500201000.0 0.032805309 -0.9919338418
16550200700.0 0.0166429864 -0.9925461234
16600200400.0 0.0009658014 -0.9925856617
16650200100.0 -0.0153423759 -0.9926438148
16700199800.0 -0.0315731725 -0.9920961471
16750199500.0 -0.0503548296 -0.9914283623
16800199200.0 -0.0666795015 -0.9906779271
16850198900.0 -0.0822900855 -0.9895481094
16900198600.0 -0.0966628998 -0.9883722487
16950198300.0 -0.1106862717 -0.987117982
17000198000.0 -0.123416535 -0.9861501561
17050197700.0 -0.136130594 -0.9839532868
17100197400.0 -0.1491077974 -0.9825642186
17150197100.0 -0.1612031296 -0.9802479008
17200196800.0 -0.1742559812 -0.9777997862
17250196500.0 -0.186960781 -0.9755157731
17300196200.0 -0.1992031776 -0.9733780131
17350195900.0 -0.2110954312 -0.9706961571
17400195600.0 -0.2229485579 -0.9681982344
17450195300.0 -0.2357225565 -0.9655554729
17500195000.0 -0.2491005093 -0.9619426152
17550194700.0 -0.2627162076 -0.9586786004
17600194400.0 -0.2767871943 -0.9545265971
17650194100.0 -0.2903891042 -0.950305208
17700193800.0 -0.3027988596 -0.9466704087
17750193500.0 -0.3175824781 -0.9416683803
17800193200.0 -0.331713946 -0.9361384636
17850192900.0 -0.3463738994 -0.9309188536
17900192600.0 -0.3615749785 -0.9249155329
17950192300.0 -0.3774086138 -0.9175905176
18000192000.0 -0.3919726521 -0.9107066878
18050191700.0 -0.4057371072 -0.9027962186
18100191400.0 -0.4198080488 -0.8951761591
18150191100.0 -0.4346447968 -0.8871678809
18200190800.0 -0.4514298945 -0.8781006356
18250190500.0 -0.4685359307 -0.8684780614
18300190200.0 -0.4839006191 -0.859572762
18350189900.0 -0.4991582952 -0.8515636997
18400189600.0 -0.5139646398 -0.8431900848
18450189300.0 -0.5269796633 -0.834978701
18500189000.0 -0.5405996569 -0.8268417713
18550188700.0 -0.5536022653 -0.8191880501
18600188400.0 -0.5651620101 -0.8122675498
18650188100.0 -0.5768102649 -0.8061270951
18700187800.0 -0.5876380391 -0.7993666436
18750187500.0 -0.5986175402 -0.7923376242
18800187200.0 -0.6091612242 -0.7853301555
18850186900.0 -0.6193928334 -0.7785393201
18900186600.0 -0.6297532416 -0.771109276
18950186300.0 -0.6397480062 -0.7635186485
19000186000.0 -0.6472902489 -0.7570556381
19050185700.0 -0.6567270747 -0.7499274616
19100185400.0 -0.6667849828 -0.741686409
19150185100.0 -0.676946151 -0.7333658565
19200184800.0 -0.6863202271 -0.7246618805
19250184500.0 -0.6955946298 -0.716141013
19300184200.0 -0.7073457726 -0.7060997574
19350183900.0 -0.71848514 -0.6967395436
19400183600.0 -0.7280971156 -0.6868292962
19450183300.0 -0.7368612033 -0.6767477202
19500183000.0 -0.7446861309 -0.6667761374
19550182700.0 -0.7551413145 -0.6557522199
19600182400.0 -0.7650721378 -0.6439149268
19650182100.0 -0.7760623466 -0.6316453651
19700181800.0 -0.7865201382 -0.6183859656
19750181500.0 -0.7970094796 -0.6042103377
19800181200.0 -0.8070863978 -0.589395843
19850180900.0 -0.816689841 -0.5742005728
19900180600.0 -0.8242448043 -0.5596492647
19950180300.0 -0.8337406895 -0.5434898966
20000180000.0 -0.8239112782 -0.5468489507
20050179700.0 -0.8311580512 -0.5340517462
20100179400.0 -0.8399315012 -0.5207266024
20150179100.0 -0.8478520218 -0.5101387128
20200178800.0 -0.8561460917 -0.4981086414
20250178500.0 -0.8649202419 -0.4850009951
20300178200.0 -0.8750278177 -0.4712156429
20350177900.0 -0.8850427453 -0.4574166228
20400177600.0 -0.8937573564 -0.4429077483
20450177300.0 -0.9020400899 -0.4289721759
20500177000.0 -0.9100112161 -0.414836828
20550176700.0 -0.918033292 -0.4014568389
20600176400.0 -0.9251723115 -0.3886593626
20650176100.0 -0.9313305754 -0.3761747445
20700175800.0 -0.9379362114 -0.3639267787
20750175500.0 -0.9451110658 -0.35271501
20800175200.0 -0.9490371336 -0.3424754586
20850174900.0 -0.9535522066 -0.331866013
20900174600.0 -0.9571605612 -0.3192426194
20950174300.0 -0.9606030678 -0.3092155224
21000174000.0 -0.9647951662 -0.2978448903
21050173700.0 -0.9653053378 -0.2884612315
21100173400.0 -0.9698398764 -0.2779314083
21150173100.0 -0.9737187816 -0.2661866333
21200172800.0 -0.9774440194 -0.2525054413
21250172500.0 -0.9809125901 -0.2387243998
21300172200.0 -0.9843716414 -0.2247477165
21350171900.0 -0.9863336002 -0.2105322934
21400171600.0 -0.9881576145 -0.1966821378
21450171300.0 -0.9899072457 -0.1825226081
21500171000.0 -0.9888977978 -0.1670437955
21550170700.0 -0.9895038769 -0.1522858733
21600170400.0 -0.9912211948 -0.1376237146
21650170100.0 -0.9911122016 -0.1216286701
21700169800.0 -0.9902484544 -0.1056372324
21750169500.0 -0.9895688226 -0.0896630205
21800169200.0 -0.9903462356 -0.0722756095
21850168900.0 -0.9902457452 -0.0564165939
21900168600.0 -0.9891457098 -0.0405607191
21950168300.0 -0.988778465 -0.0246118998
22000168000.0 -0.9886883064 -0.0097084391
22050167700.0 -0.9889727996 0.0049552267
22100167400.0 -0.9897996577 0.0207765444
22150167100.0 -0.9906760993 0.0361751886
22200166800.0 -0.9906887561 0.0529174673
22250166500.0 -0.9904739989 0.0702587003
22300166200.0 -0.9901912064 0.0861110403
22350165900.0 -0.9886478487 0.1031018564
22400165600.0 -0.9875503923 0.1183739964
22450165300.0 -0.9858820279 0.1336109795
22500165000.0 -0.9838714167 0.1477616499
22550164700.0 -0.982908362 0.1650474186
22600164400.0 -0.9800746024 0.1812255424
22650164100.0 -0.9776744385 0.1959245332
22700163800.0 -0.9744231404 0.2118047505
22750163500.0 -0.9714678907 0.2267982973
22800163200.0 -0.9683982442 0.239963029
22850162900.0 -0.9657760334 0.2533429317
22900162600.0 -0.9639588486 0.2674765357
22950162300.0 -0.9623593626 0.2808954875
23000162000.0 -0.960577515 0.2934156375
23050161700.0 -0.9580130311 0.3069628776
23100161400.0 -0.9552821584 0.3200118822
23150161100.0 -0.9528451209 0.3336113782
23200160800.0 -0.9500634329 0.3460210576
23250160500.0 -0.9464247643 0.3589877062
23300160200.0 -0.9441698638 0.3710471968
23350159900.0 -0.9402634244 0.384832062
23400159600.0 -0.9347002187 0.3983512861
23450159300.0 -0.9294606957 0.4123132792
23500159000.0 -0.9251447256 0.425517898
23550158700.0 -0.9201104783 0.439683691
23600158400.0 -0.9143068397 0.4538066049
23650158100.0 -0.9070205177 0.4683733383
23700157800.0 -0.8986812971 0.4825692685
23750157500.0 -0.8893561272 0.4967599027
23800157200.0 -0.8797139137 0.5104075614
23850156900.0 -0.870283762 0.5228643708
23900156600.0 -0.8597909604 0.5359232501
23950156300.0 -0.8498429753 0.5476318345
24000156000.0 -0.8408086278 0.5603051392
24050155700.0 -0.8301252017 0.5729678872
24100155400.0 -0.819741528 0.585236144
24150155100.0 -0.8088187905 0.5975937918
24200154800.0 -0.7982491231 0.6095638027
24250154500.0 -0.7866488689 0.6209167074
24300154200.0 -0.7754959674 0.6332328927
24350153900.0 -0.7637390039 0.6446165115
24400153600.0 -0.7507578909 0.6553373236
24450153300.0 -0.7388455803 0.6653498981
24500153000.0 -0.7270848878 0.6752529192
24550152700.0 -0.716068708 0.6855987703
24600152400.0 -0.7037200338 0.6949769929
24650152100.0 -0.6916418911 0.7033454856
