!Created with skrf (http://scikit-rf.org).
# Hz S RI R 50.0 
!freq ReS11 ImS11
300000.0 -0.9777843555 -0.1119038185
50299700.0 -1.000151399 0.0159148825
100299400.0 -0.9980958376 0.0287941532
150299100.0 -1.002774757 0.0454773651
200298800.0 -0.9995695522 0.0591123659
250298500.0 -0.9974016689 0.0723530675
300298200.0 -0.9859191142 0.0884038185
350297900.0 -0.9939369017 0.0990503115
400297600.0 -0.9933425275 0.1157693413
450297300.0 -0.9911388367 0.1295541926
500297000.0 -0.9894885435 0.1442887422
550296700.0 -0.9844141915 0.1568205363
600296400.0 -1.017426483 0.1902344572
650296100.0 -0.9821194444 0.1866358052
700295800.0 -0.9792438661 0.201099746
750295500.0 -0.9761147694 0.2149808991
800295200.0 -0.9728674135 0.2292107191
850294900.0 -0.9696235276 0.2430037874
900294600.0 -0.965758162 0.2566614212
950294300.0 -0.9618983537 0.2705599072
1000294000.0 -0.9581013659 0.2843972319
1050293700.0 -0.9536582273 0.2983102277
1100293400.0 -0.9491977962 0.3125461836
1150293100.0 -0.9451407886 0.3244150292
1200292800.0 -0.94023366 0.3388133427
1250292500.0 -0.9345356771 0.3521782595
1300292200.0 -0.9288646943 0.3653652841
1350291900.0 -0.9233388851 0.3795781993
1400291600.0 -0.917613026 0.3925837963
1450291300.0 -0.9122522603 0.4049426293
1500291000.0 -0.905987759 0.4183160996
1550290700.0 -0.8995150524 0.4317437491
1600290400.0 -0.8933560023 0.444453142
1650290100.0 -0.8866916296 0.4567140973
1700289800.0 -0.8796414149 0.4699464088
1750289500.0 -0.8726192338 0.4826657706
1800289200.0 -0.8651302528 0.495406392
1850288900.0 -0.8584376186 0.5067114788
1900288600.0 -0.8509075255 0.5196167476
1950288300.0 -0.8425562957 0.5324456084
2000288000.0 -0.8350079204 0.5436401259
2050287700.0 -0.8268902754 0.5559604563
2100287400.0 -0.818922238 0.5676700929
2150287100.0 -0.8103632865 0.5796715943
2200286800.0 -0.8026058365 0.5898745998
2250286500.0 -0.7938268547 0.6020212793
2300286200.0 -0.7847515645 0.6138910275
2350285900.0 -0.7759584742 0.6247895137
2400285600.0 -0.7669639065 0.6355911677
2450285300.0 -0.7586419639 0.6459841708
2500285000.0 -0.7487648877 0.6572800407
2550284700.0 -0.7396580151 0.6676908145
2600284400.0 -0.7304224809 0.6781297651
2650284100.0 -0.7211975207 0.6882889425
2700283800.0 -0.7107777515 0.6989039874
2750283500.0 -0.7004469467 0.709519414
2800283200.0 -0.6907437649 0.7193258987
2850282900.0 -0.6804729861 0.7291237685
2900282600.0 -0.6701297518 0.7383460451
2950282300.0 -0.6600753446 0.7478018242
3000282000.0 -0.6491776639 0.7572005856
3050281700.0 -0.6379786402 0.7663641373
3100281400.0 -0.6261604411 0.7758465495
3150281100.0 -0.6142852351 0.785217082
3200280800.0 -0.6026934614 0.7936996281
3250280500.0 -0.5918878545 0.8014871813
3300280200.0 -0.5808411848 0.8093193923
3350279900.0 -0.5693953783 0.8168996839
3400279600.0 -0.557060307 0.8244007193
3450279300.0 -0.5459349706 0.8315366465
3500279000.0 -0.5338350622 0.8387242369
3550278700.0 -0.5214158442 0.8458662265
3600278400.0 -0.5089493977 0.8531687959
3650278100.0 -0.4960128181 0.8609641903
3700277800.0 -0.4836334545 0.8672925314
3750277500.0 -0.4715870111 0.8737871814
3800277200.0 -0.4591194944 0.8801061956
3850276900.0 -0.446957964 0.8861045275
3900276600.0 -0.435956141 0.8918950936
3950276300.0 -0.4235589594 0.8980277173
4000276000.0 -0.4114027808 0.9037748896
4050275700.0 -0.3986577575 0.9097704993
4100275400.0 -0.3874064918 0.9154725693
4150275100.0 -0.3747849829 0.9208329146
4200274800.0 -0.3620077465 0.9265185863
4250274500.0 -0.3496119825 0.9315972712
4300274200.0 -0.3364530377 0.9369505826
4350273900.0 -0.3226406062 0.9421493693
4400273600.0 -0.307983226 0.9472547748
4450273300.0 -0.2925435748 0.9524329639
4500273000.0 -0.2789250015 0.9570519127
4550272700.0 -0.2648214793 0.9611237524
4600272400.0 -0.2491405883 0.9654113807
4650272100.0 -0.2374390969 0.9685720763
4700271800.0 -0.2240494817 0.9718390637
4750271500.0 -0.2124434406 0.9746395302
4800271200.0 -0.2000854919 0.9773831804
4850270900.0 -0.1861232069 0.9802297926
4900270600.0 -0.1723635449 0.9824885199
4950270300.0 -0.1579168225 0.9853287122
5000270000.0 -0.1438477068 0.9871937092
5050269700.0 -0.1302726173 0.9886607335
5100269400.0 -0.1167859195 0.9904322664
5150269100.0 -0.1034366872 0.9919671558
5200268800.0 -0.0900741236 0.9927049276
5250268500.0 -0.077308355 0.9940218948
5300268200.0 -0.0640016372 0.9948016323
5350267900.0 -0.052132962 0.9953686637
5400267600.0 -0.0356654887 0.9964535374
5450267300.0 -0.0226795317 0.996676256
5500267000.0 -0.0074163805 0.9970310138
5550266700.0 0.0074625529 0.9973054301
5600266400.0 0.0232635122 0.9974538916
5650266100.0 0.0398201205 0.9970828825
5700265800.0 0.054096977 0.9959843443
5750265500.0 0.0694773941 0.9955143289
5800265200.0 0.0835603714 0.9944708742
5850264900.0 0.0966728265 0.9932626627
5900264600.0 0.113477564 0.9916899224
5950264300.0 0.1255034861 0.9903950418
6000264000.0 0.1394070835 0.9880158118
6050263700.0 0.1520951516 0.9869056029
6100263400.0 0.1645518517 0.9849943276
6150263100.0 0.1788999521 0.9825113179
6200262800.0 0.1893365242 0.9807806917
6250262500.0 0.2019195287 0.9781317521
6300262200.0 0.214758171 0.9753811796
6350261900.0 0.2278669916 0.9724967931
6400261600.0 0.241687018 0.9693011999
6450261300.0 0.2528940308 0.9663858164
6500261000.0 0.2658607512 0.9628512213
6550260700.0 0.2789439254 0.9592307938
6600260400.0 0.2921807124 0.9549524134
6650260100.0 0.3062587204 0.9508247155
6700259800.0 0.3182574394 0.946282165
6750259500.0 0.3319079049 0.9410947275
6800259200.0 0.3451362966 0.9363768231
6850258900.0 0.3570249726 0.931087609
6900258600.0 0.3692556666 0.9263016601
6950258300.0 0.3817292003 0.9209442823
7000258000.0 0.3937864529 0.9154048499
7050257700.0 0.406086901 0.9093158261
7100257400.0 0.41855792 0.9032467809
7150257100.0 0.4289269456 0.8978712876
7200256800.0 0.4418142913 0.8916412269
7250256500.0 0.4534726993 0.8848993104
7300256200.0 0.4667434407 0.8784591419
7350255900.0 0.4791211511 0.8714591366
7400255600.0 0.4925769936 0.8643533817
7450255300.0 0.5077865215 0.8551909933
7500255000.0 0.5194288465 0.8481141057
7550254700.0 0.533187201 0.8397000981
7600254400.0 0.5460040479 0.8311475671
7650254100.0 0.5574140084 0.8234462829
7700253800.0 0.5691959439 0.8152754121
7750253500.0 0.5805670489 0.8075966385
7800253200.0 0.5910568022 0.7998949005
7850252900.0 0.6008095588 0.7928427364
7900252600.0 0.6125748974 0.783949664
7950252300.0 0.6213728412 0.7774428403
8000252000.0 0.6313643131 0.7697602064
8050251700.0 0.6419169564 0.761673824
8100251400.0 0.6521752359 0.7532249028
8150251100.0 0.6618928072 0.744651737
8200250800.0 0.6717683412 0.7366556975
8250250500.0 0.6801939695 0.7287878413
8300250200.0 0.6897516741 0.720219655
8350249900.0 0.6989600213 0.7115696332
8400249600.0 0.7069921047 0.7033907187
8450249300.0 0.716376229 0.6942580928
8500249000.0 0.724905418 0.6853963098
8550248700.0 0.7331661786 0.6764401651
8600248400.0 0.7413821128 0.6667263767
8650248100.0 0.749333815 0.6575290022
8700247800.0 0.7587851421 0.6461217652
8750247500.0 0.7669854308 0.636255884
8800247200.0 0.7753555632 0.6259210761
8850246900.0 0.7839870742 0.6142029917
8900246600.0 0.792440045 0.6030523148
8950246300.0 0.802051325 0.5900791358
9000246000.0 0.8113224 0.5772875421
9050245700.0 0.8204445581 0.564271072
9100245400.0 0.8291695635 0.5515923537
9150245100.0 0.8385248294 0.537960259
9200244800.0 0.8483823656 0.5228611285
9250244500.0 0.857796879 0.5070396825
9300244200.0 0.8662397696 0.4923882616
9350243900.0 0.8739793107 0.4784631132
9400243600.0 0.8803629902 0.4661955607
9450243300.0 0.886260153 0.4546222087
9500243000.0 0.8925395884 0.442308618
9550242700.0 0.8960987027 0.4347026102
9600242400.0 0.900076006 0.4271645437
9650242100.0 0.9037604556 0.4207813918
9700241800.0 0.9083894023 0.412741921
9750241500.0 0.9124865953 0.4050424306
9800241200.0 0.9166839521 0.3960975792
9850240900.0 0.9228221773 0.3839891332
9900240600.0 0.9281849229 0.3727048625
9950240300.0 0.934766133 0.3563230781
10000240000.0 0.9393821405 0.3450913718
10050239700.0 0.9450401035 0.3295805073
10100239400.0 0.9499654778 0.3140235054
10150239100.0 0.9544160802 0.2995186088
10200238800.0 0.9586385331 0.2846352584
10250238500.0 0.961892994 0.2711554563
10300238200.0 0.9649385741 0.2572736933
10350237900.0 0.9675836577 0.2442455121
10400237600.0 0.9700587686 0.2312343614
10450237300.0 0.9727711863 0.2175743688
10500237000.0 0.9747535552 0.2054040095
10550236700.0 0.9773333014 0.1911904835
10600236400.0 0.9794300629 0.1772977098
10650236100.0 0.9813952024 0.1634226632
10700235800.0 0.9833615137 0.1513593453
10750235500.0 0.9859885041 0.1374615405
10800235200.0 0.9876406608 0.1234402194
10850234900.0 0.9897983459 0.1089036363
10900234600.0 0.991999506 0.094516945
10950234300.0 0.993436631 0.0812610017
11000234000.0 0.995393953 0.0660890239
11050233700.0 0.9969267288 0.0495861221
11100233400.0 0.9986941267 0.0321376191
11150233100.0 0.9995423391 0.0158298608
11200232800.0 1.000059107 0.0006552942
11250232500.0 1.001263624 -0.0162719759
11300232200.0 1.001409096 -0.0335285547
11350231900.0 1.001291054 -0.049646639
11400231600.0 1.00117722 -0.0638602083
11450231300.0 1.001041498 -0.0812776618
11500231000.0 0.9998556451 -0.0971375656
11550230700.0 0.9978376666 -0.1109411594
11600230400.0 0.9964491577 -0.1232269838
11650230100.0 0.9947574778 -0.1346431739
11700229800.0 0.9929171533 -0.1495083694
11750229500.0 0.9905075481 -0.1637603329
11800229200.0 0.987827655 -0.1775954333
11850228900.0 0.9840567454 -0.1899879969
11900228600.0 0.9807081514 -0.1998290471
11950228300.0 0.977125516 -0.210247947
12000228000.0 0.9744500061 -0.219454643
12050227700.0 0.9709304174 -0.23211349
12100227400.0 0.9674825243 -0.2429607306
12150227100.0 0.96282491 -0.2591124698
12200226800.0 0.9592897604 -0.2702822191
12250226500.0 0.9550855616 -0.2836060308
12300226200.0 0.951139349 -0.2951800069
12350225900.0 0.9461874363 -0.3094678829
12400225600.0 0.9416798045 -0.3214793954
12450225300.0 0.9374996671 -0.3345782056
12500225000.0 0.931850508 -0.3493465841
12550224700.0 0.9265961598 -0.3631463121
12600224400.0 0.9217535104 -0.3759660324
12650224100.0 0.916007744 -0.3902098404
12700223800.0 0.9106228337 -0.403001979
12750223500.0 0.9051258947 -0.4160070076
12800223200.0 0.8997548096 -0.4285191623
12850222900.0 0.89447869 -0.4405393904
12900222600.0 0.8888938966 -0.4532725233
12950222300.0 0.8823778732 -0.4657680538
13000222000.0 0.8764473654 -0.4771750048
13050221700.0 0.8699252741 -0.4900049963
13100221400.0 0.8627241889 -0.5016177294
13150221100.0 0.8560535397 -0.5136575016
13200220800.0 0.8487673858 -0.5258402055
13250220500.0 0.8418405266 -0.5375323725
13300220200.0 0.8343369321 -0.5488821522
13350219900.0 0.8261286557 -0.5609141715
13400219600.0 0.8178144534 -0.5729706291
13450219300.0 0.8082873748 -0.5867090863
13500219000.0 0.7979207488 -0.6005223145
13550218700.0 0.7877519881 -0.6133462644
13600218400.0 0.7779943325 -0.625144478
13650218100.0 0.7669868091 -0.6371372641
13700217800.0 0.7569754869 -0.6486500034
13750217500.0 0.7469889213 -0.6605993743
13800217200.0 0.7350153028 -0.6727363007
13850216900.0 0.7245403638 -0.6838889309
13900216600.0 0.7142762353 -0.6927373558
13950216300.0 0.7035335936 -0.7023917302
14000216000.0 0.6939334674 -0.7116717021
14050215700.0 0.684235746 -0.7202135898
14100215400.0 0.6745642003 -0.7295455729
14150215100.0 0.6654575568 -0.7380834041
14200214800.0 0.6559435328 -0.7462639195
14250214500.0 0.6458368687 -0.7554840194
14300214200.0 0.6353338971 -0.7646905219
14350213900.0 0.6242581165 -0.7741818241
14400213600.0 0.6126420169 -0.7837725462
14450213300.0 0.5992192845 -0.7939803767
14500213000.0 0.5864666632 -0.8041817799
14550212700.0 0.5739736744 -0.813676152
14600212400.0 0.5621012698 -0.822235871
14650212100.0 0.5482202522 -0.8310755212
14700211800.0 0.533710042 -0.8401963523
14750211500.0 0.5224344927 -0.8486833631
14800211200.0 0.5097625266 -0.8566696357
14850210900.0 0.4978592507 -0.8641568258
14900210600.0 0.4847197482 -0.8720523443
14950210300.0 0.4711908351 -0.8797667585
15000210000.0 0.4582975578 -0.8864913231
15050209700.0 0.4460583697 -0.8923634457
15100209400.0 0.433647708 -0.89868798
15150209100.0 0.4207822476 -0.9043298223
15200208800.0 0.4076697179 -0.9090493122
15250208500.0 0.3959681412 -0.9140651731
15300208200.0 0.3846526557 -0.9189440572
15350207900.0 0.3713799027 -0.924087161
15400207600.0 0.356302256 -0.9292671097
15450207300.0 0.3417714151 -0.9336332762
15500207000.0 0.3272125728 -0.9383833587
15550206700.0 0.3115594344 -0.9435589199
15600206400.0 0.2961713192 -0.9477962499
15650206100.0 0.2806444559 -0.9521875865
15700205800.0 0.2664494405 -0.9555953811
15750205500.0 0.251962527 -0.9591300116
15800205200.0 0.2374280922 -0.9626254683
15850204900.0 0.2232295125 -0.9659822817
15900204600.0 0.2081071801 -0.9697584004
15950204300.0 0.194056578 -0.9726401261
16000204000.0 0.1800614854 -0.9755622918
16050203700.0 0.1652651514 -0.9783767427
16100203400.0 0.1508528857 -0.980434789
16150203100.0 0.1367183565 -0.9826468238
16200202800.0 0.1225839426 -0.9842783915
16250202500.0 0.1080541997 -0.9865068513
16300202200.0 0.0922591171 -0.9879425431
16350201900.0 0.0777339211 -0.9888763605
16400201600.0 0.0630356353 -0.9901861481
16450201300.0 0.0478164753 -0.9912182254
16500201000.0 0.0311530249 -0.9919822359
16550200700.0 0.0155871375 -0.9925827568
16600200400.0 -0.0002375286 -0.9928278888
16650200100.0 -0.016596412 -0.9925588352
16700199800.0 -0.0328863322 -0.9919770495
16750199500.0 -0.0518262441 -0.9910923605
16800199200.0 -0.0674878865 -0.991088417
16850198900.0 -0.082858913 -0.9899861293
16900198600.0 -0.0963786067 -0.988563772
16950198300.0 -0.1100321283 -0.9869372336
17000198000.0 -0.1233848237 -0.9857847746
17050197700.0 -0.1359142673 -0.9835980882
17100197400.0 -0.1484404504 -0.9814720866
17150197100.0 -0.1608571664 -0.9795301954
17200196800.0 -0.1737222561 -0.9775659314
17250196500.0 -0.1871114416 -0.975327767
17300196200.0 -0.1991230376 -0.9728638413
17350195900.0 -0.2109087658 -0.9707502853
17400195600.0 -0.2230474535 -0.9683026799
17450195300.0 -0.2360325256 -0.9653618075
17500195000.0 -0.2496470289 -0.9619826048
17550194700.0 -0.2631949147 -0.9584373318
17600194400.0 -0.2774013102 -0.9541464519
17650194100.0 -0.2912270251 -0.9502200834
17700193800.0 -0.303908668 -0.945909465
17750193500.0 -0.3188081062 -0.9412409733
17800193200.0 -0.3328853979 -0.9363517076
17850192900.0 -0.3477137568 -0.9312218995
17900192600.0 -0.3628295959 -0.9245619319
17950192300.0 -0.3784915491 -0.9176663844
18000192000.0 -0.3930937234 -0.910356167
18050191700.0 -0.4069726392 -0.9023531152
18100191400.0 -0.4211958729 -0.8947461114
18150191100.0 -0.4360987643 -0.8867757673
18200190800.0 -0.4530335989 -0.8775419471
18250190500.0 -0.4699186984 -0.8680185729
18300190200.0 -0.4853895196 -0.8593553084
18350189900.0 -0.5005569586 -0.8508349478
18400189600.0 -0.5148364767 -0.8424006616
18450189300.0 -0.5280614892 -0.8342032197
18500189000.0 -0.5411936813 -0.8265156236
18550188700.0 -0.553953666 -0.8192903232
18600188400.0 -0.5659560517 -0.8116689024
18650188100.0 -0.5770019256 -0.8056856983
18700187800.0 -0.5877634915 -0.7991309501
18750187500.0 -0.5985426197 -0.7922351457
18800187200.0 -0.6088706804 -0.7853217155
18850186900.0 -0.6191795118 -0.7783510087
18900186600.0 -0.6293952807 -0.770917748
18950186300.0 -0.6394994418 -0.7631521805
19000186000.0 -0.6468459734 -0.7569531399
19050185700.0 -0.6563350829 -0.7495381463
19100185400.0 -0.6666972761 -0.7414413806
19150185100.0 -0.6762497308 -0.7327366218
19200184800.0 -0.6859508149 -0.7246833267
19250184500.0 -0.6964038284 -0.7148161911
19300184200.0 -0.7077218337 -0.704956275
19350183900.0 -0.7187445392 -0.6954903213
19400183600.0 -0.7283829239 -0.686395915
19450183300.0 -0.7365309076 -0.6761709614
19500183000.0 -0.7448042605 -0.665964424
19550182700.0 -0.7550441005 -0.6550648621
19600182400.0 -0.7653507523 -0.6434025427
19650182100.0 -0.7760711004 -0.6312381691
19700181800.0 -0.7861383395 -0.6177279112
19750181500.0 -0.7971265056 -0.6037623782
19800181200.0 -0.8074123801 -0.5889048633
19850180900.0 -0.8171567158 -0.5736657385
19900180600.0 -0.8249704191 -0.5589608976
19950180300.0 -0.8340180424 -0.5427207782
20000180000.0 -0.8275123572 -0.5454450801
20050179700.0 -0.8352305307 -0.5325474299
20100179400.0 -0.8437251215 -0.5190204966
20150179100.0 -0.8518735873 -0.5065747178
20200178800.0 -0.8601229625 -0.4931820723
20250178500.0 -0.8699502006 -0.4796060422
20300178200.0 -0.8790716073 -0.465073558
20350177900.0 -0.8879311325 -0.4506772816
20400177600.0 -0.8971455837 -0.4361832913
20450177300.0 -0.9056093041 -0.4219614238
20500177000.0 -0.9134365502 -0.4080776586
20550176700.0 -0.9217033272 -0.3942471678
20600176400.0 -0.9282524952 -0.3809547639
20650176100.0 -0.9350502176 -0.3686586059
20700175800.0 -0.9418256818 -0.3564571995
20750175500.0 -0.9483306962 -0.3448238239
20800175200.0 -0.9525678253 -0.3343041413
20850174900.0 -0.9576089282 -0.322978184
20900174600.0 -0.9627682162 -0.3118463171
20950174300.0 -0.9666993817 -0.2996346448
21000174000.0 -0.9703274242 -0.2890271961
21050173700.0 -0.9723295937 -0.2773397414
21100173400.0 -0.9769287774 -0.2652591994
21150173100.0 -0.9811612157 -0.252668067
21200172800.0 -0.9845723987 -0.2392351168
21250172500.0 -0.9879103902 -0.2253247751
21300172200.0 -0.9903785854 -0.2112871581
21350171900.0 -0.9918161776 -0.19677681
21400171600.0 -0.9935397186 -0.1824203291
21450171300.0 -0.9940428165 -0.1684917793
21500171000.0 -0.9937145129 -0.1533284286
21550170700.0 -0.9930056902 -0.1376153961
21600170400.0 -0.9930336432 -0.1221543617
21650170100.0 -0.9917786712 -0.1061556759
21700169800.0 -0.9900459426 -0.0914977217
21750169500.0 -0.9890126261 -0.0743503215
21800169200.0 -0.9887133817 -0.0575575331
21850168900.0 -0.987095838 -0.0424491893
21900168600.0 -0.9853406093 -0.0260524312
21950168300.0 -0.9842287138 -0.0101677925
22000168000.0 -0.9828380155 0.0050257927
22050167700.0 -0.9823958865 0.0190519604
22100167400.0 -0.9827169118 0.034295567
22150167100.0 -0.9832159508 0.0500400146
22200166800.0 -0.9835794499 0.0661714751
22250166500.0 -0.9837885662 0.083571148
22300166200.0 -0.9820572607 0.1001027182
22350165900.0 -0.9802605804 0.1162874308
22400165600.0 -0.9793056798 0.1318718693
22450165300.0 -0.976931301 0.1468016237
22500165000.0 -0.9742273411 0.1606243282
22550164700.0 -0.9739777788 0.1755955239
22600164400.0 -0.9719565351 0.1910748426
22650164100.0 -0.9708334712 0.2068491593
22700163800.0 -0.9675978165 0.2227160586
22750163500.0 -0.9654718187 0.237418082
22800163200.0 -0.962403596 0.2509007589
22850162900.0 -0.9601814454 0.2647351667
22900162600.0 -0.9587337531 0.2776207528
22950162300.0 -0.957805373 0.2904609814
23000162000.0 -0.9567352879 0.3023390832
23050161700.0 -0.9547047414 0.3147807104
23100161400.0 -0.9520097236 0.3274855508
23150161100.0 -0.9504806058 0.3398285572
23200160800.0 -0.946547291 0.352500763
23250160500.0 -0.9440998076 0.3639655725
23300160200.0 -0.9418291566 0.3757153014
23350159900.0 -0.9376926497 0.3888379985
23400159600.0 -0.9329126839 0.4023156121
23450159300.0 -0.9282849478 0.4148999642
23500159000.0 -0.9240327181 0.4284411752
23550158700.0 -0.9192978985 0.4412447876
23600158400.0 -0.9138105204 0.4544855764
23650158100.0 -0.9074161468 0.4685489101
23700157800.0 -0.8999579822 0.4824415024
23750157500.0 -0.8916917587 0.4964386785
23800157200.0 -0.8824543794 0.5096114654
23850156900.0 -0.8737689045 0.5219929267
23900156600.0 -0.8643623966 0.5346231612
23950156300.0 -0.8551104871 0.5475175044
24000156000.0 -0.8463338274 0.5585731589
24050155700.0 -0.8362032341 0.570568053
24100155400.0 -0.8259221521 0.5827071565
24150155100.0 -0.8155096241 0.5946736672
24200154800.0 -0.8042091585 0.6058693536
24250154500.0 -0.7928041845 0.6177132003
24300154200.0 -0.781005901 0.6292215076
24350153900.0 -0.7696731885 0.6396519055
24400153600.0 -0.7571292306 0.6498745992
24450153300.0 -0.7451041495 0.6597296329
24500153000.0 -0.7339728163 0.6696557095
24550152700.0 -0.7225029444 0.6791825501
24600152400.0 -0.7110466524 0.6884253059
24650152100.0 -0.6991357265 0.696426317
