!Created with skrf (http://scikit-rf.org).
# Hz S RI R 50.0 
!freq ReS11 ImS11
300000.0 -0.9762730661 -0.119311267
50299700.0 -0.9999666909 0.0153268922
100299400.0 -0.9979954241 0.028318772
150299100.0 -1.002653332 0.0451956301
200298800.0 -0.9995891732 0.0583964095
250298500.0 -0.9973335093 0.0718303242
300298200.0 -0.9858701696 0.0878044654
350297900.0 -0.9939521492 0.0987988668
400297600.0 -0.9930374841 0.1152434882
450297300.0 -0.9911190686 0.1292066225
500297000.0 -0.9894076458 0.1437945269
550296700.0 -0.9843643601 0.1562029079
600296400.0 -1.017382654 0.1896611761
650296100.0 -0.9822641857 0.1861081662
700295800.0 -0.9793485822 0.2006035931
750295500.0 -0.9762978694 0.2145643715
800295200.0 -0.9729910696 0.2285218625
850294900.0 -0.9698171138 0.2424564914
900294600.0 -0.9657942053 0.2560353237
950294300.0 -0.9621489242 0.2698096184
1000294000.0 -0.9581433392 0.2839155973
1050293700.0 -0.9536647351 0.2973767342
1100293400.0 -0.9493024512 0.3118777355
1150293100.0 -0.9454008166 0.3239399531
1200292800.0 -0.9402692337 0.3381777238
1250292500.0 -0.9345568105 0.3515143169
1300292200.0 -0.9289317376 0.364767998
1350291900.0 -0.9235599988 0.3788668276
1400291600.0 -0.9178216464 0.3920861102
1450291300.0 -0.9123749514 0.4042164404
1500291000.0 -0.9061598662 0.4176275766
1550290700.0 -0.8997193405 0.4310249233
1600290400.0 -0.8933319494 0.4439026775
1650290100.0 -0.8867783291 0.4560062231
1700289800.0 -0.8798580975 0.4696551641
1750289500.0 -0.8727059991 0.4818870722
1800289200.0 -0.8656114776 0.4948010455
1850288900.0 -0.8586568459 0.5059737576
1900288600.0 -0.8508493779 0.5190917101
1950288300.0 -0.8428191484 0.5315349114
2000288000.0 -0.8354451938 0.5431743615
2050287700.0 -0.827166102 0.5554833076
2100287400.0 -0.8191231648 0.5670520005
2150287100.0 -0.8106650612 0.5790716304
2200286800.0 -0.8029730994 0.5894198427
2250286500.0 -0.7942362367 0.601423997
2300286200.0 -0.7850235418 0.6129990258
2350285900.0 -0.7763602287 0.624042042
2400285600.0 -0.7676120779 0.6348689641
2450285300.0 -0.7590966156 0.645493917
2500285000.0 -0.7491548689 0.656613951
2550284700.0 -0.7403666695 0.6669577158
2600284400.0 -0.7309923683 0.6772521321
2650284100.0 -0.72194689 0.6876308045
2700283800.0 -0.7113880919 0.6981974363
2750283500.0 -0.7011683341 0.7085594875
2800283200.0 -0.6915303939 0.7185295103
2850282900.0 -0.6810693818 0.7284781591
2900282600.0 -0.6707729723 0.7381175906
2950282300.0 -0.660564192 0.7472825195
3000282000.0 -0.6497378654 0.756719199
3050281700.0 -0.638744136 0.7659123521
3100281400.0 -0.6266032303 0.7754965358
3150281100.0 -0.6149106144 0.7846616991
3200280800.0 -0.6032795514 0.7932305881
3250280500.0 -0.5925205254 0.8007952266
3300280200.0 -0.5810633944 0.8089563523
3350279900.0 -0.5697087594 0.8164362438
3400279600.0 -0.5573152124 0.8240862626
3450279300.0 -0.5462195283 0.8311656687
3500279000.0 -0.5343697916 0.8383011788
3550278700.0 -0.5218053971 0.8457255639
3600278400.0 -0.5097004213 0.8527396183
3650278100.0 -0.496309419 0.8600653927
3700277800.0 -0.4843937263 0.8669073869
3750277500.0 -0.4722859609 0.8733069999
3800277200.0 -0.4597824674 0.8798776846
3850276900.0 -0.4478297632 0.8857433819
3900276600.0 -0.4368661991 0.8913377743
3950276300.0 -0.4245015314 0.8972327305
4000276000.0 -0.4126534139 0.9035184227
4050275700.0 -0.399731396 0.909733191
4100275400.0 -0.388366109 0.9147950943
4150275100.0 -0.3758247319 0.9206802996
4200274800.0 -0.3628674887 0.9259869195
4250274500.0 -0.3504714974 0.9311517105
4300274200.0 -0.3375838739 0.9366496988
4350273900.0 -0.3236513205 0.9417533227
4400273600.0 -0.3087888782 0.9471918947
4450273300.0 -0.2937218245 0.9521159061
4500273000.0 -0.2798956558 0.9565301014
4550272700.0 -0.2656992302 0.9608659332
4600272400.0 -0.2503050559 0.9651214084
4650272100.0 -0.2386364398 0.9682191508
4700271800.0 -0.2253184831 0.9717435985
4750271500.0 -0.2136244138 0.9744347819
4800271200.0 -0.2011228118 0.9771431372
4850270900.0 -0.1873201369 0.980058388
4900270600.0 -0.1733364213 0.9824384622
4950270300.0 -0.1590255094 0.9850646763
5000270000.0 -0.1447348541 0.986681973
5050269700.0 -0.1313292805 0.9886869253
5100269400.0 -0.1178374058 0.9904909761
5150269100.0 -0.1042670953 0.9918471907
5200268800.0 -0.0912199257 0.9931594772
5250268500.0 -0.0778563644 0.9939605233
5300268200.0 -0.064867334 0.9943357926
5350267900.0 -0.0527031989 0.9951925988
5400267600.0 -0.0364228794 0.9961512155
5450267300.0 -0.0232669834 0.9966031845
5500267000.0 -0.0079279115 0.9970212116
5550266700.0 0.0068449007 0.9973627189
5600266400.0 0.0222164457 0.9973134969
5650266100.0 0.0387966635 0.996746471
5700265800.0 0.0533318919 0.9959703062
5750265500.0 0.0686399083 0.9955160759
5800265200.0 0.0823080125 0.9944219472
5850264900.0 0.095708073 0.9933853859
5900264600.0 0.1121559794 0.9914419162
5950264300.0 0.1242858724 0.9900427299
6000264000.0 0.1380432121 0.9880605849
6050263700.0 0.1503618078 0.9863816761
6100263400.0 0.1631745272 0.9849321308
6150263100.0 0.1778492887 0.9826336356
6200262800.0 0.1880570764 0.9809375109
6250262500.0 0.2006613937 0.9784356193
6300262200.0 0.2136956322 0.9757482574
6350261900.0 0.2266729106 0.9728723281
6400261600.0 0.2403941938 0.9695154317
6450261300.0 0.2517528745 0.9668639694
6500261000.0 0.2646014543 0.9633715051
6550260700.0 0.2776343227 0.9593598625
6600260400.0 0.2908821485 0.9552563236
6650260100.0 0.3048887671 0.9510518217
6700259800.0 0.3169498803 0.9466044828
6750259500.0 0.3308538759 0.9420284192
6800259200.0 0.3439386655 0.9367209086
6850258900.0 0.3560267324 0.931600105
6900258600.0 0.3681259056 0.9264031088
6950258300.0 0.380754515 0.9213009954
7000258000.0 0.3925011151 0.9158718134
7050257700.0 0.4048648222 0.9098349555
7100257400.0 0.4175853462 0.9036042134
7150257100.0 0.4279890187 0.8983805138
7200256800.0 0.4409664388 0.8919742358
7250256500.0 0.4527176194 0.8858965229
7300256200.0 0.4654933634 0.8788296915
7350255900.0 0.4780804744 0.8720116672
7400255600.0 0.4911077058 0.8647098063
7450255300.0 0.5068554352 0.8555178627
7500255000.0 0.5185660712 0.8485401016
7550254700.0 0.5315653831 0.8399241369
7600254400.0 0.544693811 0.8316113559
7650254100.0 0.5569597702 0.8241277288
7700253800.0 0.5684630066 0.8161291806
7750253500.0 0.579572981 0.8082171088
7800253200.0 0.5899929026 0.8006508507
7850252900.0 0.6001055322 0.7936501337
7900252600.0 0.6116573096 0.7847270848
7950252300.0 0.620383345 0.7784608493
8000252000.0 0.6305495695 0.7705454804
8050251700.0 0.6412327651 0.7624998335
8100251400.0 0.6512016308 0.7541268326
8150251100.0 0.661164907 0.7458025457
8200250800.0 0.670330946 0.7376227676
8250250500.0 0.6795383502 0.7296628239
8300250200.0 0.689142542 0.7211494826
8350249900.0 0.6981146085 0.7122808692
8400249600.0 0.7061875059 0.7042610263
8450249300.0 0.7152953752 0.6950503798
8500249000.0 0.7237576639 0.6864002489
8550248700.0 0.7322371617 0.6771869733
8600248400.0 0.7405634546 0.6676962104
8650248100.0 0.7484202806 0.658338229
8700247800.0 0.7578752365 0.6471283195
8750247500.0 0.7661729343 0.6369472939
8800247200.0 0.7745587569 0.626771751
8850246900.0 0.7831910683 0.6152530173
8900246600.0 0.791841804 0.6038568531
8950246300.0 0.8013692676 0.5906576672
9000246000.0 0.8103398111 0.5781155074
9050245700.0 0.8195419731 0.5652324089
9100245400.0 0.8280640381 0.5528833101
9150245100.0 0.8373424677 0.5391438555
9200244800.0 0.8469898383 0.5239746889
9250244500.0 0.8564955848 0.5084978879
9300244200.0 0.8649660702 0.4940874128
9350243900.0 0.8727922959 0.4803629249
9400243600.0 0.879560728 0.4680234169
9450243300.0 0.8853556027 0.4565344668
9500243000.0 0.8917168151 0.4442372352
9550242700.0 0.8954146154 0.4365845298
9600242400.0 0.899451891 0.4290892046
9650242100.0 0.9030802759 0.4224515908
9700241800.0 0.9078218877 0.4142965426
9750241500.0 0.9115102477 0.4068150422
9800241200.0 0.9161939713 0.3975294844
9850240900.0 0.9222562791 0.3860195157
9900240600.0 0.9272331271 0.3747225576
9950240300.0 0.934348894 0.3582057168
10000240000.0 0.9386875448 0.3471557371
10050239700.0 0.9447004229 0.3315282031
10100239400.0 0.9494213057 0.3160211703
10150239100.0 0.9540737104 0.301244854
10200238800.0 0.958172665 0.2862299309
10250238500.0 0.9616035649 0.2728626793
10300238200.0 0.9645691472 0.258933064
10350237900.0 0.9673462131 0.2458232571
10400237600.0 0.9696850293 0.2325537647
10450237300.0 0.9724134737 0.219294055
10500237000.0 0.9748697761 0.2066757961
10550236700.0 0.9773150233 0.1921661038
10600236400.0 0.9790172825 0.1785589421
10650236100.0 0.9811853451 0.1638557756
10700235800.0 0.9833693183 0.1518841776
10750235500.0 0.9853662598 0.1384016092
10800235200.0 0.9878568882 0.1244082776
10850234900.0 0.9894931409 0.1097739169
10900234600.0 0.9913647308 0.0954245501
10950234300.0 0.9935821539 0.0818457108
11000234000.0 0.9952911381 0.0669109106
11050233700.0 0.9970583754 0.0506654028
11100233400.0 0.9986654108 0.0331935123
11150233100.0 0.9998163314 0.0170615085
11200232800.0 1.000258799 0.0019598458
11250232500.0 1.001240185 -0.0142761316
11300232200.0 1.00209043 -0.0325975223
11350231900.0 1.00238598 -0.0485148538
11400231600.0 1.000822065 -0.0639395195
11450231300.0 1.001209261 -0.07994706
11500231000.0 1.000102852 -0.096106708
11550230700.0 0.9986298347 -0.1097203285
11600230400.0 0.9969006934 -0.121553403
11650230100.0 0.9952110161 -0.1322895658
11700229800.0 0.9931241969 -0.1471768635
11750229500.0 0.9908094434 -0.1618877177
11800229200.0 0.9882493365 -0.175861618
11850228900.0 0.9846465289 -0.1881048765
11900228600.0 0.9811900221 -0.197828938
11950228300.0 0.9777977748 -0.208018606
12000228000.0 0.9750522668 -0.2175147901
12050227700.0 0.9711493313 -0.2305483161
12100227400.0 0.9681284332 -0.2412373086
12150227100.0 0.9635497617 -0.2575507083
12200226800.0 0.9596300521 -0.268601546
12250226500.0 0.9551144706 -0.2817109424
12300226200.0 0.9518060988 -0.2938317366
12350225900.0 0.9464349131 -0.3078197061
12400225600.0 0.9423787824 -0.3205815602
12450225300.0 0.9375923015 -0.3331092686
12500225000.0 0.9320491765 -0.3485631335
12550224700.0 0.9269652322 -0.3622218635
12600224400.0 0.922178063 -0.3749321277
12650224100.0 0.9163278759 -0.3893451191
12700223800.0 0.9110298691 -0.4021897496
12750223500.0 0.9055960589 -0.4151451099
12800223200.0 0.9002023685 -0.4277750477
12850222900.0 0.8949887096 -0.4400512279
12900222600.0 0.8889865886 -0.4516695926
12950222300.0 0.8826456647 -0.4650409728
13000222000.0 0.877151826 -0.4763345828
13050221700.0 0.8699562077 -0.4896884979
13100221400.0 0.8635488984 -0.5013538707
13150221100.0 0.8567309776 -0.5132131843
13200220800.0 0.8500381293 -0.5245804343
13250220500.0 0.8422765427 -0.536651978
13300220200.0 0.8353574093 -0.5473659196
13350219900.0 0.8272801727 -0.5594504476
13400219600.0 0.8188149233 -0.5715697582
13450219300.0 0.8098057137 -0.5849780527
13500219000.0 0.7997631312 -0.5987005093
13550218700.0 0.7889984046 -0.611555402
13600218400.0 0.7792837702 -0.6239685531
13650218100.0 0.7696430866 -0.6345162211
13700217800.0 0.7585863221 -0.6471178161
13750217500.0 0.7483383884 -0.6584155702
13800217200.0 0.737829117 -0.6700935978
13850216900.0 0.7260465712 -0.6812148544
13900216600.0 0.7165364855 -0.6905703415
13950216300.0 0.7056733743 -0.7011243403
14000216000.0 0.6955438629 -0.7102393342
14050215700.0 0.6858453907 -0.7183368143
14100215400.0 0.6763121783 -0.7277115164
14150215100.0 0.6667184327 -0.7363093096
14200214800.0 0.6575081663 -0.7448594424
14250214500.0 0.647206247 -0.7542405667
14300214200.0 0.6367802329 -0.7635694764
14350213900.0 0.625614103 -0.7733056732
14400213600.0 0.6134929894 -0.7829751627
14450213300.0 0.6005541145 -0.793481744
14500213000.0 0.5872779347 -0.8036127333
14550212700.0 0.5750120168 -0.8130200564
14600212400.0 0.5625780624 -0.8208747252
14650212100.0 0.5499292852 -0.830259179
14700211800.0 0.5359139736 -0.8397789341
14750211500.0 0.5236944925 -0.8479590656
14800211200.0 0.5116545445 -0.8558598752
14850210900.0 0.499318493 -0.863381945
14900210600.0 0.4863478506 -0.871188742
14950210300.0 0.4728364789 -0.8788111581
15000210000.0 0.4601138984 -0.8856479496
15050209700.0 0.4481912215 -0.8914856883
15100209400.0 0.4352638615 -0.8977642358
15150209100.0 0.4225453138 -0.9030368709
15200208800.0 0.4097256779 -0.9090995836
15250208500.0 0.3983288754 -0.9123671751
15300208200.0 0.3872301888 -0.9180616412
15350207900.0 0.3732420425 -0.9228870264
15400207600.0 0.3582009596 -0.9274736597
15450207300.0 0.3442323317 -0.9326564834
15500207000.0 0.3299994078 -0.9375123189
15550206700.0 0.314600096 -0.9423473931
15600206400.0 0.2986470462 -0.9471165058
15650206100.0 0.2835517621 -0.9513892418
15700205800.0 0.2691531888 -0.9549461208
15750205500.0 0.2546331932 -0.9586163317
15800205200.0 0.2402294685 -0.9621947972
15850204900.0 0.2259915403 -0.9654376798
15900204600.0 0.2108148979 -0.9690398674
15950204300.0 0.1968019105 -0.9721034033
16000204000.0 0.182403968 -0.974911827
16050203700.0 0.1676284459 -0.9777018186
16100203400.0 0.1528848378 -0.9795445782
16150203100.0 0.1384750563 -0.982560758
16200202800.0 0.1239808943 -0.9846722279
16250202500.0 0.1093133037 -0.9860069104
16300202200.0 0.0941225446 -0.9879432642
16350201900.0 0.0795105552 -0.9894180538
16400201600.0 0.0647803368 -0.9901733183
16450201300.0 0.0492973402 -0.9913712104
16500201000.0 0.0329787459 -0.9922547903
16550200700.0 0.0174347728 -0.9926780053
16600200400.0 0.0017014294 -0.9930916109
16650200100.0 -0.0141186306 -0.992600787
16700199800.0 -0.0306218629 -0.992148384
16750199500.0 -0.0496430748 -0.991528176
16800199200.0 -0.0652197488 -0.9907078928
16850198900.0 -0.0797329609 -0.9897009835
16900198600.0 -0.0939698335 -0.9883693962
16950198300.0 -0.1073872555 -0.9878994654
17000198000.0 -0.1207466768 -0.9855526833
17050197700.0 -0.1332827111 -0.983943789
17100197400.0 -0.1459469176 -0.9819819889
17150197100.0 -0.1582095109 -0.9800984623
17200196800.0 -0.1708817009 -0.9781391641
17250196500.0 -0.1844355485 -0.9756667748
17300196200.0 -0.1964720281 -0.9734569427
17350195900.0 -0.2085676812 -0.9710378014
17400195600.0 -0.2207779251 -0.968813919
17450195300.0 -0.233964557 -0.9659455324
17500195000.0 -0.2471052962 -0.9626571355
17550194700.0 -0.2612256639 -0.9590073134
17600194400.0 -0.275142766 -0.9549102887
17650194100.0 -0.2886679908 -0.9512931691
17700193800.0 -0.301594207 -0.947286201
17750193500.0 -0.3168819424 -0.9422226373
17800193200.0 -0.3305277629 -0.9370100926
17850192900.0 -0.3460549468 -0.9318349098
17900192600.0 -0.3610617434 -0.925277699
17950192300.0 -0.3766925817 -0.9185838831
18000192000.0 -0.3915301546 -0.9113670902
18050191700.0 -0.4051989889 -0.9034244367
18100191400.0 -0.4194129133 -0.8957130541
18150191100.0 -0.4344282468 -0.8876723872
18200190800.0 -0.4512270385 -0.8786445094
18250190500.0 -0.4682060143 -0.869156316
18300190200.0 -0.4836919321 -0.8601998932
18350189900.0 -0.4988900255 -0.8519288156
18400189600.0 -0.5130229972 -0.8436410427
18450189300.0 -0.5264816425 -0.8356532322
18500189000.0 -0.5397480677 -0.8277746094
18550188700.0 -0.552348544 -0.8203143404
18600188400.0 -0.5642159207 -0.8133893702
18650188100.0 -0.5755301465 -0.8071266859
18700187800.0 -0.586059008 -0.8006772842
18750187500.0 -0.596709421 -0.7940506963
18800187200.0 -0.6072571656 -0.7869713776
18850186900.0 -0.6174317626 -0.7800455012
18900186600.0 -0.6277169233 -0.7727954414
18950186300.0 -0.6376750836 -0.7649740837
19000186000.0 -0.6448088273 -0.7590719576
19050185700.0 -0.6543120336 -0.7517862662
19100185400.0 -0.6636873341 -0.7432483118
19150185100.0 -0.6740084548 -0.7347517162
19200184800.0 -0.6833302643 -0.7269890323
19250184500.0 -0.6938082101 -0.7171573047
19300184200.0 -0.7052926476 -0.7072167591
19350183900.0 -0.7155241745 -0.6982946018
19400183600.0 -0.72577541 -0.6885741795
19450183300.0 -0.7347963694 -0.6781917423
19500183000.0 -0.7433382775 -0.667975461
19550182700.0 -0.7528310617 -0.6568963465
19600182400.0 -0.7630657466 -0.6452562562
19650182100.0 -0.7738525794 -0.6333459522
19700181800.0 -0.7846280482 -0.619871431
19750181500.0 -0.795233367 -0.6058704051
19800181200.0 -0.8057466659 -0.5909637006
19850180900.0 -0.8154287556 -0.5755050287
19900180600.0 -0.8232550633 -0.5609862802
19950180300.0 -0.8325196376 -0.5445668296
20000180000.0 -0.8248799772 -0.5469517949
20050179700.0 -0.833751756 -0.5338934987
20100179400.0 -0.842331994 -0.5202414496
20150179100.0 -0.8505928861 -0.5075594873
20200178800.0 -0.8583357803 -0.4951763932
20250178500.0 -0.8692277139 -0.4813871123
20300178200.0 -0.8782506136 -0.4673295628
20350177900.0 -0.8874258869 -0.4525258102
20400177600.0 -0.8963746473 -0.4385495327
20450177300.0 -0.9044532477 -0.4236717612
20500177000.0 -0.9124482512 -0.4099713282
20550176700.0 -0.9205750495 -0.3964548245
20600176400.0 -0.9277487161 -0.383288415
20650176100.0 -0.9345148182 -0.3710857638
20700175800.0 -0.9415065682 -0.3592921229
20750175500.0 -0.9475595649 -0.3475950406
20800175200.0 -0.952039407 -0.3362038982
20850174900.0 -0.9572834415 -0.3268670979
20900174600.0 -0.9616662252 -0.3141092573
20950174300.0 -0.9655011738 -0.3026050823
21000174000.0 -0.9684962137 -0.2914878673
21050173700.0 -0.9715178403 -0.280643132
21100173400.0 -0.9753677044 -0.2689536534
21150173100.0 -0.978903891 -0.2559776079
21200172800.0 -0.9828827275 -0.2429464112
21250172500.0 -0.9860423984 -0.2296334228
21300172200.0 -0.9887995485 -0.215457389
21350171900.0 -0.9906610072 -0.200959238
21400171600.0 -0.9916371726 -0.1869326725
21450171300.0 -0.9917485379 -0.1723175717
21500171000.0 -0.9923731965 -0.1561841189
21550170700.0 -0.991811317 -0.1409319149
21600170400.0 -0.9927048295 -0.1256478456
21650170100.0 -0.9919846751 -0.1100938897
21700169800.0 -0.9892136167 -0.0944959111
21750169500.0 -0.9888419483 -0.0785309767
21800169200.0 -0.9886896279 -0.0626542954
21850168900.0 -0.988063598 -0.0458243317
21900168600.0 -0.986078598 -0.0289370153
21950168300.0 -0.9843285958 -0.0138309537
22000168000.0 -0.9841375952 0.0019615265
22050167700.0 -0.9836970374 0.0160824999
22100167400.0 -0.9839333708 0.0312663511
22150167100.0 -0.9844694708 0.0469465549
22200166800.0 -0.9851147795 0.0629320406
22250166500.0 -0.9844870906 0.0807896896
22300166200.0 -0.9843925053 0.096491238
22350165900.0 -0.9823383812 0.1132951124
22400165600.0 -0.9802167088 0.1293367943
22450165300.0 -0.9791551816 0.1445316773
22500165000.0 -0.9772081705 0.1577825026
22550164700.0 -0.9764607701 0.1732658411
22600164400.0 -0.9740796813 0.1884535485
22650164100.0 -0.9718654004 0.2026329127
22700163800.0 -0.9696718571 0.2199108726
22750163500.0 -0.9671640218 0.2342838053
22800163200.0 -0.9640389368 0.2476499271
22850162900.0 -0.9617511139 0.2609359005
22900162600.0 -0.9600925864 0.2743038158
22950162300.0 -0.9589759466 0.2873969841
23000162000.0 -0.9580281112 0.2993029229
23050161700.0 -0.9558806862 0.3115857319
23100161400.0 -0.9537866901 0.3240425689
23150161100.0 -0.9511579021 0.3368614969
23200160800.0 -0.9472641781 0.3498041755
23250160500.0 -0.9446928297 0.360843043
23300160200.0 -0.9420277547 0.373446689
23350159900.0 -0.9384224314 0.3869465915
23400159600.0 -0.9339617738 0.3993424101
23450159300.0 -0.9291628732 0.4132279754
23500159000.0 -0.9246860687 0.4257639932
23550158700.0 -0.9200766227 0.439776955
23600158400.0 -0.9148363832 0.4527860512
23650158100.0 -0.908367795 0.4669074226
23700157800.0 -0.9009302731 0.4807221093
23750157500.0 -0.89205395 0.4945505931
23800157200.0 -0.883659936 0.5079943722
23850156900.0 -0.8748754379 0.5209740397
23900156600.0 -0.8651038003 0.533490994
23950156300.0 -0.8562813649 0.5458494753
24000156000.0 -0.8473733333 0.5582654129
24050155700.0 -0.8367788201 0.5699312917
24100155400.0 -0.8272797371 0.5819922366
24150155100.0 -0.8160582309 0.5934706814
24200154800.0 -0.8052886789 0.6049126001
24250154500.0 -0.7943880565 0.6165646232
24300154200.0 -0.7830117844 0.6280032781
24350153900.0 -0.7709204987 0.6386068378
24400153600.0 -0.7590255559 0.6489507902
24450153300.0 -0.7470174718 0.6585113309
24500153000.0 -0.7356357062 0.668526534
24550152700.0 -0.7237030111 0.6782847405
24600152400.0 -0.7125944439 0.6872951026
24650152100.0 -0.700507804 0.6960191864
