!Created with skrf (http://scikit-rf.org).
# Hz S RI R 50.0 
!freq ReS11 ImS11
300000.0 -0.9781197475 -0.1142353554
50299700.0 -1.000157403 0.0157074837
100299400.0 -0.9980718626 0.0285107185
150299100.0 -1.002772574 0.0454814774
200298800.0 -0.9997557913 0.0586708542
250298500.0 -0.9973619304 0.0721627534
300298200.0 -0.9860981628 0.0881823732
350297900.0 -0.9940333908 0.0989894755
400297600.0 -0.9930378436 0.1155679238
450297300.0 -0.9909403329 0.1296207751
500297000.0 -0.989398589 0.1443148806
550296700.0 -0.9845076762 0.1567113586
600296400.0 -1.017285507 0.1901211365
650296100.0 -0.9823500643 0.1865641041
700295800.0 -0.9794997166 0.2010172458
750295500.0 -0.9763189092 0.2146562307
800295200.0 -0.9729249653 0.2288968084
850294900.0 -0.9694792007 0.2427429996
900294600.0 -0.9657405315 0.2567029045
950294300.0 -0.9621313023 0.2704982113
1000294000.0 -0.9579315023 0.2840606013
1050293700.0 -0.9534308513 0.2982951089
1100293400.0 -0.9492607666 0.3124633017
1150293100.0 -0.945412673 0.3244972718
1200292800.0 -0.9399544823 0.338785257
1250292500.0 -0.9345819586 0.3520400824
1300292200.0 -0.9287876639 0.3651857334
1350291900.0 -0.9234489987 0.3794378935
1400291600.0 -0.9179667526 0.3922733426
1450291300.0 -0.9123735462 0.4047759422
1500291000.0 -0.9060213074 0.4182559416
1550290700.0 -0.8995784617 0.4314420977
1600290400.0 -0.8933093688 0.4444065614
1650290100.0 -0.886535541 0.4565363645
1700289800.0 -0.879727539 0.469834266
1750289500.0 -0.8727315279 0.4823815467
1800289200.0 -0.8652728437 0.495118979
1850288900.0 -0.8584652661 0.5063761826
1900288600.0 -0.8506840733 0.5196251171
1950288300.0 -0.8425890176 0.5321110959
2000288000.0 -0.8352826744 0.5435243687
2050287700.0 -0.826936126 0.5559772115
2100287400.0 -0.8191651943 0.5675919506
2150287100.0 -0.8104812772 0.5795725233
2200286800.0 -0.8027304732 0.5898687036
2250286500.0 -0.7939585038 0.6019718842
2300286200.0 -0.7848112776 0.6135678819
2350285900.0 -0.776234098 0.624472008
2400285600.0 -0.7673480547 0.6355609402
2450285300.0 -0.7586053456 0.6460048081
2500285000.0 -0.7491657031 0.6573586153
2550284700.0 -0.7399015559 0.6675138693
2600284400.0 -0.7305232495 0.6773946588
2650284100.0 -0.7214696701 0.6882364032
2700283800.0 -0.7110162732 0.698593588
2750283500.0 -0.7006035806 0.7090621341
2800283200.0 -0.6907823079 0.7190702621
2850282900.0 -0.6804481319 0.7289584041
2900282600.0 -0.6703095487 0.738351989
2950282300.0 -0.66012776 0.7476183808
3000282000.0 -0.6492897654 0.7573173812
3050281700.0 -0.6381701143 0.7663862329
3100281400.0 -0.6262083926 0.7758596582
3150281100.0 -0.614378566 0.7852396617
3200280800.0 -0.6028145754 0.7936734376
3250280500.0 -0.5920224686 0.8015040609
3300280200.0 -0.5808335834 0.8092676425
3350279900.0 -0.5692147047 0.8167190233
3400279600.0 -0.5572353007 0.8244054247
3450279300.0 -0.5460582757 0.8317203231
3500279000.0 -0.5336773975 0.8386198597
3550278700.0 -0.5216259803 0.8460761472
3600278400.0 -0.5093230476 0.8530328382
3650278100.0 -0.496278429 0.860650684
3700277800.0 -0.4838591058 0.8671417668
3750277500.0 -0.4718707426 0.8737795478
3800277200.0 -0.4593129329 0.8801971752
3850276900.0 -0.4469089442 0.8860698673
3900276600.0 -0.4364166744 0.8917586561
3950276300.0 -0.4240796255 0.8977218529
4000276000.0 -0.4116403217 0.9039775525
4050275700.0 -0.3989646781 0.9098093968
4100275400.0 -0.3875697345 0.9151573588
4150275100.0 -0.3749639463 0.9211225431
4200274800.0 -0.3620810276 0.9264362644
4250274500.0 -0.349793128 0.9315025442
4300274200.0 -0.336900899 0.9370099771
4350273900.0 -0.3231013954 0.9421462329
4400273600.0 -0.3081107174 0.9474668328
4450273300.0 -0.2928797897 0.9524012942
4500273000.0 -0.2792136303 0.9567553254
4550272700.0 -0.264813019 0.9610677745
4600272400.0 -0.2494304282 0.9652918804
4650272100.0 -0.2377678251 0.9685093486
4700271800.0 -0.2244652038 0.9718330561
4750271500.0 -0.212826783 0.974633434
4800271200.0 -0.2003762758 0.9773260158
4850270900.0 -0.1862940595 0.9801696848
4900270600.0 -0.1725307666 0.9825592309
4950270300.0 -0.1580787306 0.9851580172
5000270000.0 -0.1440797606 0.9874755894
5050269700.0 -0.1305431602 0.9889113699
5100269400.0 -0.1167769356 0.9906365531
5150269100.0 -0.103852616 0.9923712891
5200268800.0 -0.0903937369 0.9931963344
5250268500.0 -0.0771937398 0.9939397373
5300268200.0 -0.0641260631 0.9949400696
5350267900.0 -0.0520657124 0.9952747131
5400267600.0 -0.0358252273 0.9966750152
5450267300.0 -0.0228780566 0.9968763199
5500267000.0 -0.0077597695 0.9972004374
5550266700.0 0.0075150633 0.9972729481
5600266400.0 0.0227574068 0.9970161443
5650266100.0 0.0395899152 0.996906362
5700265800.0 0.0542309452 0.9960911866
5750265500.0 0.0694256744 0.9954277491
5800265200.0 0.082872076 0.9938325873
5850264900.0 0.0962642907 0.9933669791
5900264600.0 0.1129821189 0.9914128344
5950264300.0 0.1256557668 0.9902143864
6000264000.0 0.1389409881 0.9879933659
6050263700.0 0.1514671897 0.986804871
6100263400.0 0.1640474016 0.9851225738
6150263100.0 0.1784957822 0.9823007014
6200262800.0 0.1891103577 0.9807273647
6250262500.0 0.2016519247 0.9783695444
6300262200.0 0.2145727796 0.9754771849
6350261900.0 0.2276261535 0.9726784042
6400261600.0 0.2413958067 0.9691327168
6450261300.0 0.2527790139 0.9666248494
6500261000.0 0.2653580522 0.9629293787
6550260700.0 0.2788216171 0.9592152854
6600260400.0 0.2922656725 0.9552173762
6650260100.0 0.3058743685 0.9505225495
6700259800.0 0.3177820353 0.94639748
6750259500.0 0.331623617 0.94125584
6800259200.0 0.3446269506 0.9364284705
6850258900.0 0.3567848361 0.9313031589
6900258600.0 0.3689204141 0.926415833
6950258300.0 0.3812128408 0.9209977197
7000258000.0 0.3933726023 0.9156085229
7050257700.0 0.4056185624 0.9096235415
7100257400.0 0.4182877383 0.903289298
7150257100.0 0.4285326457 0.8978365041
7200256800.0 0.4416957478 0.8915158768
7250256500.0 0.4530296041 0.8852792321
7300256200.0 0.4665286988 0.8786992743
7350255900.0 0.4789338874 0.8717452722
7400255600.0 0.491796104 0.8643021687
7450255300.0 0.5067430428 0.8552392396
7500255000.0 0.5191385978 0.8483817091
7550254700.0 0.5331660962 0.8398758452
7600254400.0 0.545480236 0.8312426992
7650254100.0 0.5574257966 0.8238760716
7700253800.0 0.5688643251 0.8157801179
7750253500.0 0.5802216351 0.8079208299
7800253200.0 0.5909472798 0.8001333967
7850252900.0 0.6004805427 0.7931079831
7900252600.0 0.6123081839 0.7842225117
7950252300.0 0.6210964799 0.777813625
8000252000.0 0.631178034 0.7700640309
8050251700.0 0.6417379408 0.7617914519
8100251400.0 0.6518219507 0.7537164818
8150251100.0 0.6618816401 0.7450205513
8200250800.0 0.6710763112 0.737065925
8250250500.0 0.6801030433 0.7290438232
8300250200.0 0.6895122492 0.720526206
8350249900.0 0.6984333511 0.7119334323
8400249600.0 0.7067861416 0.7037869184
8450249300.0 0.7158814173 0.6945904138
8500249000.0 0.7241891273 0.6856086362
8550248700.0 0.7327994183 0.676707729
8600248400.0 0.7412548074 0.6673989688
8650248100.0 0.748962442 0.6577923039
8700247800.0 0.7585331124 0.6467082457
8750247500.0 0.7668344773 0.6365874667
8800247200.0 0.7748721298 0.6261972761
8850246900.0 0.7836390474 0.614618994
8900246600.0 0.7923440928 0.6032239619
8950246300.0 0.8017247522 0.5901384664
9000246000.0 0.8107439788 0.5776954612
9050245700.0 0.8202726534 0.5644740023
9100245400.0 0.8286493392 0.5519721812
9150245100.0 0.8381756036 0.5383835149
9200244800.0 0.8478115474 0.5231919962
9250244500.0 0.8574042537 0.5072965957
9300244200.0 0.8660711818 0.4926378922
9350243900.0 0.8736694111 0.4788138157
9400243600.0 0.8803440975 0.4664800006
9450243300.0 0.8862458439 0.4545831006
9500243000.0 0.8924235317 0.4425674491
9550242700.0 0.8960050425 0.4350389645
9600242400.0 0.8999385902 0.4275054407
9650242100.0 0.9037125238 0.4211154659
9700241800.0 0.9081643424 0.4131817555
9750241500.0 0.9117917801 0.4057996686
9800241200.0 0.9168169665 0.3961901524
9850240900.0 0.9226150562 0.3846974709
9900240600.0 0.9280431277 0.3730415852
9950240300.0 0.9346633827 0.3568207609
10000240000.0 0.9393567898 0.3456161236
10050239700.0 0.9447355829 0.3301654795
10100239400.0 0.9497116591 0.3146274956
10150239100.0 0.9542534286 0.3000322624
10200238800.0 0.9584228067 0.2848761018
10250238500.0 0.9617615957 0.2717009199
10300238200.0 0.9648848389 0.2577601914
10350237900.0 0.9674420608 0.2445724896
10400237600.0 0.9700868765 0.2312208318
10450237300.0 0.9726260447 0.2178239917
10500237000.0 0.9749367588 0.2056741912
10550236700.0 0.9768501075 0.1913386961
10600236400.0 0.9790900045 0.1779054172
10650236100.0 0.981300628 0.1634881404
10700235800.0 0.9834923983 0.1516706735
10750235500.0 0.9860048601 0.1380145256
10800235200.0 0.9877830955 0.1237222785
10850234900.0 0.9895527475 0.109356136
10900234600.0 0.9916440271 0.0947838022
10950234300.0 0.9933487984 0.0816453352
11000234000.0 0.9952457074 0.0662280857
11050233700.0 0.9970047928 0.0498914473
11100233400.0 0.9984565389 0.0326361406
11150233100.0 0.9994709999 0.0162000546
11200232800.0 1.000183607 0.0012923924
11250232500.0 1.000939969 -0.0151007573
11300232200.0 1.001798391 -0.0333343833
11350231900.0 1.00173666 -0.0483636976
11400231600.0 1.001702988 -0.0648728658
11450231300.0 1.001266134 -0.0802222978
11500231000.0 0.9997491968 -0.0978492815
11550230700.0 0.998529356 -0.1102243634
11600230400.0 0.9972848339 -0.1223589111
11650230100.0 0.9949554258 -0.1334349229
11700229800.0 0.9926996304 -0.149070692
11750229500.0 0.9903942353 -0.1634163231
11800229200.0 0.9878730401 -0.1770882324
11850228900.0 0.984388764 -0.1893779149
11900228600.0 0.9808557044 -0.1990028161
11950228300.0 0.9776127475 -0.2094276182
12000228000.0 0.9749649995 -0.218605051
12050227700.0 0.9713108805 -0.2309612295
12100227400.0 0.967757422 -0.2427840525
12150227100.0 0.9635720986 -0.2578573664
12200226800.0 0.9596324662 -0.269488969
12250226500.0 0.955403247 -0.2827631838
12300226200.0 0.9512302711 -0.2947333457
12350225900.0 0.9465464915 -0.3090117771
12400225600.0 0.9419078526 -0.3214867298
12450225300.0 0.9374537652 -0.3340670741
12500225000.0 0.932076352 -0.3491749764
12550224700.0 0.9267665795 -0.3628452023
12600224400.0 0.9217679261 -0.3756691156
12650224100.0 0.9160295633 -0.390121988
12700223800.0 0.9108161162 -0.4028776827
12750223500.0 0.9052281122 -0.4157900598
12800223200.0 0.8999344777 -0.4282922709
12850222900.0 0.8946366199 -0.4405129645
12900222600.0 0.8888730518 -0.4527678506
12950222300.0 0.8827887072 -0.4657519625
13000222000.0 0.876633039 -0.4772539121
13050221700.0 0.869725401 -0.4895562408
13100221400.0 0.8632428684 -0.5016893633
13150221100.0 0.8565708529 -0.5137221632
13200220800.0 0.8492623768 -0.5253812698
13250220500.0 0.8421251045 -0.5377591805
13300220200.0 0.8346448577 -0.5483257544
13350219900.0 0.8266303187 -0.5602888925
13400219600.0 0.8183048642 -0.5723513692
13450219300.0 0.8085928689 -0.5861268369
13500219000.0 0.7981747668 -0.5999784228
13550218700.0 0.7880593246 -0.6132923814
13600218400.0 0.7779831781 -0.6247960068
13650218100.0 0.7683914572 -0.6363000083
13700217800.0 0.7575078932 -0.6487754193
13750217500.0 0.7477771629 -0.6596447583
13800217200.0 0.7362618388 -0.6721155804
13850216900.0 0.7257344436 -0.6826783318
13900216600.0 0.7146804052 -0.6916298145
13950216300.0 0.7040467834 -0.702595449
14000216000.0 0.6945059414 -0.7114131407
14050215700.0 0.6845240917 -0.7196511804
14100215400.0 0.6748184748 -0.7290761387
14150215100.0 0.6657118777 -0.7373886091
14200214800.0 0.6563206247 -0.7458301281
14250214500.0 0.6461473942 -0.7550812691
14300214200.0 0.6360252967 -0.7644092189
14350213900.0 0.6247983776 -0.7738896221
14400213600.0 0.6129622753 -0.7839200595
14450213300.0 0.5997807189 -0.7941035686
14500213000.0 0.5860331213 -0.8038139394
14550212700.0 0.5740412631 -0.8131070851
14600212400.0 0.5616086328 -0.8218587836
14650212100.0 0.5484831608 -0.8306981683
14700211800.0 0.5351244759 -0.8402184823
14750211500.0 0.5230137916 -0.8485323193
14800211200.0 0.5105542696 -0.8564490281
14850210900.0 0.4985351775 -0.8640159602
14900210600.0 0.4851053969 -0.8718778611
14950210300.0 0.471582791 -0.8794314026
15000210000.0 0.4587874614 -0.8862244956
15050209700.0 0.4464506432 -0.8924921789
15100209400.0 0.4336946132 -0.8980082523
15150209100.0 0.4213643205 -0.903824372
15200208800.0 0.4085523387 -0.9090802467
15250208500.0 0.397566294 -0.913518291
15300208200.0 0.3850835722 -0.9176886227
15350207900.0 0.3715085944 -0.923342437
15400207600.0 0.3566338451 -0.9286062647
15450207300.0 0.3424802796 -0.9339527647
15500207000.0 0.3284299801 -0.9376488
15550206700.0 0.3129923546 -0.9426529371
15600206400.0 0.296914935 -0.9475560918
15650206100.0 0.2811022558 -0.9516687603
15700205800.0 0.2673668137 -0.9555870523
15750205500.0 0.2526177085 -0.9587002761
15800205200.0 0.2382179453 -0.9625006069
15850204900.0 0.2238370993 -0.9658078771
15900204600.0 0.2088019406 -0.969359328
15950204300.0 0.1948056535 -0.9724035695
16000204000.0 0.1806674477 -0.97523149
16050203700.0 0.1658938054 -0.9777763109
16100203400.0 0.1511083217 -0.9800303664
16150203100.0 0.1371058906 -0.9825041856
16200202800.0 0.1230673619 -0.9847732896
16250202500.0 0.1082822941 -0.986105164
16300202200.0 0.0929731457 -0.9877536955
16350201900.0 0.0782054568 -0.9893921301
16400201600.0 0.0633843183 -0.9903854786
16450201300.0 0.0481750054 -0.9911570236
16500201000.0 0.0316041999 -0.9920090901
16550200700.0 0.0159823844 -0.9923983145
16600200400.0 7.17134e-05 -0.992648706
16650200100.0 -0.0160169641 -0.992492687
16700199800.0 -0.0324920355 -0.9919093937
16750199500.0 -0.0509994811 -0.9916299624
16800199200.0 -0.0671495368 -0.9904311706
16850198900.0 -0.0821095468 -0.9896592936
16900198600.0 -0.0957627252 -0.98825212
16950198300.0 -0.1092025485 -0.9874875537
17000198000.0 -0.1224787184 -0.9859474165
17050197700.0 -0.1347969543 -0.9841036077
17100197400.0 -0.1474393445 -0.9818620567
17150197100.0 -0.1602577614 -0.979683086
17200196800.0 -0.1730895996 -0.9777519504
17250196500.0 -0.1861637208 -0.9754349601
17300196200.0 -0.1981584884 -0.9729860552
17350195900.0 -0.209924986 -0.9708187039
17400195600.0 -0.2223599072 -0.9681772696
17450195300.0 -0.2352665148 -0.9654828155
17500195000.0 -0.2488758691 -0.9621488503
17550194700.0 -0.2627348741 -0.9586796167
17600194400.0 -0.2770825359 -0.9546734962
17650194100.0 -0.2907213082 -0.9507255274
17700193800.0 -0.3039147104 -0.9463506434
17750193500.0 -0.3179005822 -0.9413949836
17800193200.0 -0.3326390885 -0.9366737904
17850192900.0 -0.3470026841 -0.9309620325
17900192600.0 -0.3627442752 -0.9250612856
17950192300.0 -0.3781777197 -0.9176960372
18000192000.0 -0.3927008688 -0.9105833336
18050191700.0 -0.406661642 -0.9027118722
18100191400.0 -0.420818224 -0.8949676344
18150191100.0 -0.4358362513 -0.8867746737
18200190800.0 -0.4528605573 -0.8777494602
18250190500.0 -0.4698150655 -0.8682888962
18300190200.0 -0.4852804971 -0.8594681225
18350189900.0 -0.4999934302 -0.8512946446
18400189600.0 -0.5147004107 -0.84245755
18450189300.0 -0.5276181702 -0.8344581723
18500189000.0 -0.5409754255 -0.8263226186
18550188700.0 -0.553616164 -0.8191189648
18600188400.0 -0.5654992521 -0.812359383
18650188100.0 -0.576699167 -0.8057703936
18700187800.0 -0.5873757723 -0.7995091249
18750187500.0 -0.5979902751 -0.7927675295
18800187200.0 -0.6084860106 -0.7857580545
18850186900.0 -0.6187125228 -0.7788202365
18900186600.0 -0.6290436414 -0.7714949347
18950186300.0 -0.6391525561 -0.7637145191
19000186000.0 -0.6459831487 -0.7574009531
19050185700.0 -0.6557622216 -0.750288994
19100185400.0 -0.6659002181 -0.7417148599
19150185100.0 -0.6757201533 -0.7334675542
19200184800.0 -0.6852419568 -0.7253117859
19250184500.0 -0.695493809 -0.7164398523
19300184200.0 -0.7066746073 -0.7064701655
19350183900.0 -0.7171751836 -0.6963971099
19400183600.0 -0.7272731656 -0.6867567667
19450183300.0 -0.736337498 -0.6763635938
19500183000.0 -0.7450966318 -0.6662647302
19550182700.0 -0.7541975712 -0.6555494095
19600182400.0 -0.7647354991 -0.6441762649
19650182100.0 -0.7755797047 -0.6315378477
19700181800.0 -0.7863581946 -0.6184594829
19750181500.0 -0.7969415423 -0.6042893116
19800181200.0 -0.8072108147 -0.5891172523
19850180900.0 -0.816765769 -0.5738153729
19900180600.0 -0.8242608507 -0.5594730852
19950180300.0 -0.8335309209 -0.5432162178
20000180000.0 -0.8263697908 -0.5460427493
20050179700.0 -0.8344850639 -0.5328854678
20100179400.0 -0.8435655461 -0.5193387875
20150179100.0 -0.8514070584 -0.5062770034
20200178800.0 -0.8602471175 -0.4932542713
20250178500.0 -0.8693317697 -0.4797545808
20300178200.0 -0.8794612383 -0.4654919921
20350177900.0 -0.8881347023 -0.4511488245
20400177600.0 -0.8971588245 -0.4364252606
20450177300.0 -0.9055842921 -0.4215999047
20500177000.0 -0.9135047413 -0.4079467339
20550176700.0 -0.9216896021 -0.394348864
20600176400.0 -0.9285290793 -0.3809351599
20650176100.0 -0.9345830611 -0.3687497016
20700175800.0 -0.9415611226 -0.3567882652
20750175500.0 -0.9481636228 -0.3457168357
20800175200.0 -0.9528785667 -0.3348865379
20850174900.0 -0.9579049513 -0.3229969096
20900174600.0 -0.9625497925 -0.3110035522
20950174300.0 -0.9661257312 -0.2993605144
21000174000.0 -0.9704810133 -0.2896475918
21050173700.0 -0.9736219004 -0.2780864522
21100173400.0 -0.9771050952 -0.266376648
21150173100.0 -0.9806049548 -0.2534037225
21200172800.0 -0.9846200667 -0.2401003495
21250172500.0 -0.9870157461 -0.2263699479
21300172200.0 -0.9901287618 -0.212402747
21350171900.0 -0.9913391172 -0.1973835537
21400171600.0 -0.9931837655 -0.1836726913
21450171300.0 -0.9934459128 -0.169092464
21500171000.0 -0.993292267 -0.1524341987
21550170700.0 -0.9925322861 -0.1381870992
21600170400.0 -0.9929148932 -0.1221217266
21650170100.0 -0.9927442583 -0.1069376098
21700169800.0 -0.9902897488 -0.0925392277
21750169500.0 -0.9897014302 -0.0755913245
21800169200.0 -0.9877604308 -0.0590680287
21850168900.0 -0.9867954118 -0.042257571
21900168600.0 -0.9861067483 -0.0265549915
21950168300.0 -0.9836980477 -0.010423879
22000168000.0 -0.9830103376 0.0046733569
22050167700.0 -0.9828379834 0.0188664113
22100167400.0 -0.9826991736 0.0339600435
22150167100.0 -0.9834461738 0.0498837683
22200166800.0 -0.9840487301 0.0659696586
22250166500.0 -0.9832063626 0.083015502
22300166200.0 -0.9831614086 0.0994601873
22350165900.0 -0.9812653401 0.1165981188
22400165600.0 -0.9797005896 0.1320572565
22450165300.0 -0.9782601339 0.1461789675
22500165000.0 -0.975361965 0.1614059894
22550164700.0 -0.9747644315 0.1761056405
22600164400.0 -0.9734409396 0.1915339327
22650164100.0 -0.9710218513 0.2060117569
22700163800.0 -0.9678668025 0.2222500929
22750163500.0 -0.9659349141 0.2368222659
22800163200.0 -0.9627547248 0.2506661887
22850162900.0 -0.9601954671 0.2641924878
22900162600.0 -0.959074388 0.2773355847
22950162300.0 -0.9577355204 0.290018861
23000162000.0 -0.9570528953 0.3018604057
23050161700.0 -0.9550427171 0.3147227601
23100161400.0 -0.9532086784 0.327263226
23150161100.0 -0.9499743723 0.3393148329
23200160800.0 -0.947357694 0.3515161487
23250160500.0 -0.944457825 0.3640515078
23300160200.0 -0.9416544828 0.3755117356
23350159900.0 -0.9378291789 0.3890455204
23400159600.0 -0.9335100286 0.4017327859
23450159300.0 -0.9284405945 0.4150266313
23500159000.0 -0.9233537081 0.4278843877
23550158700.0 -0.9193389032 0.4414915433
23600158400.0 -0.914260371 0.4546726117
23650158100.0 -0.9077167347 0.4685771636
23700157800.0 -0.9001781809 0.4825321672
23750157500.0 -0.8914896338 0.4964189113
23800157200.0 -0.8826499106 0.5096199399
23850156900.0 -0.8738896663 0.5225004358
23900156600.0 -0.8643815488 0.5347791624
23950156300.0 -0.8547464726 0.5469773538
24000156000.0 -0.8461348466 0.5591139068
24050155700.0 -0.836871356 0.5710771294
24100155400.0 -0.8260648598 0.5834963063
24150155100.0 -0.8147936655 0.5949482594
24200154800.0 -0.8045198717 0.6059242967
24250154500.0 -0.792736329 0.6173939756
24300154200.0 -0.7818824589 0.6292264394
24350153900.0 -0.7698415847 0.6396163188
24400153600.0 -0.7575626435 0.6500845761
24450153300.0 -0.7456663097 0.6599124112
24500153000.0 -0.73392452 0.6698771343
24550152700.0 -0.7225910932 0.6785889078
24600152400.0 -0.7113719495 0.6878314159
24650152100.0 -0.7001556328 0.6966899122
