!Created with skrf (http://scikit-rf.org).
# Hz S RI R 50.0 
!freq ReS11 ImS11
300000.0 -0.973795792 -0.1169030441
50299700.0 -0.9998978927 0.0151682695
100299400.0 -0.9979123657 0.0283214459
150299100.0 -1.002785292 0.0450686125
200298800.0 -0.999682543 0.0584775996
250298500.0 -0.9973809728 0.0719176679
300298200.0 -0.9859613591 0.0877287748
350297900.0 -0.9939377415 0.0985630703
400297600.0 -0.9933610065 0.115261316
450297300.0 -0.9908527747 0.1290084854
500297000.0 -0.9894868435 0.1438205214
550296700.0 -0.9844281379 0.1562015981
600296400.0 -1.017223753 0.1893990571
650296100.0 -0.9822556336 0.1858001559
700295800.0 -0.9792380121 0.2005611064
750295500.0 -0.9763497833 0.2142140354
800295200.0 -0.9729578031 0.2286387667
850294900.0 -0.9696654079 0.2422638762
900294600.0 -0.9657648005 0.2559368745
950294300.0 -0.9621552951 0.2695889814
1000294000.0 -0.9582743867 0.2836246189
1050293700.0 -0.953592805 0.2974049979
1100293400.0 -0.9494379291 0.3118453074
1150293100.0 -0.9456379363 0.3239546013
1200292800.0 -0.9401932521 0.3381885083
1250292500.0 -0.9346910664 0.3515376564
1300292200.0 -0.9289117919 0.3647643375
1350291900.0 -0.9235039696 0.3787528841
1400291600.0 -0.9180488275 0.3918853524
1450291300.0 -0.9124245053 0.4043427591
1500291000.0 -0.9061265393 0.4176384429
1550290700.0 -0.8996443593 0.4311449547
1600290400.0 -0.8933328689 0.4439159301
1650290100.0 -0.8868972014 0.4559898017
1700289800.0 -0.8798791833 0.4696280929
1750289500.0 -0.8730111877 0.4818835495
1800289200.0 -0.8654854113 0.4948150605
1850288900.0 -0.8587625698 0.5060984676
1900288600.0 -0.8510603521 0.5189952305
1950288300.0 -0.8429006303 0.5315028629
2000288000.0 -0.8356305003 0.543003199
2050287700.0 -0.8272518174 0.5553324591
2100287400.0 -0.8195086491 0.5670516133
2150287100.0 -0.8106543731 0.5790352179
2200286800.0 -0.8031716958 0.5894479646
2250286500.0 -0.7942013325 0.601456972
2300286200.0 -0.7850972293 0.6131285892
2350285900.0 -0.776513346 0.6239723742
2400285600.0 -0.7675624391 0.6348797787
2450285300.0 -0.7589580512 0.645432208
2500285000.0 -0.7492542323 0.6567306673
2550284700.0 -0.74052594 0.6668871722
2600284400.0 -0.7309762411 0.6772067674
2650284100.0 -0.7220563619 0.6880083754
2700283800.0 -0.7114793007 0.6981540374
2750283500.0 -0.7010427114 0.7086823437
2800283200.0 -0.6913890016 0.7186931137
2850282900.0 -0.6810070234 0.7283603747
2900282600.0 -0.6707746066 0.7379162135
2950282300.0 -0.6606173848 0.7472681353
3000282000.0 -0.6499132078 0.7567236635
3050281700.0 -0.6385796482 0.7659368264
3100281400.0 -0.6267829516 0.7754371878
3150281100.0 -0.6149897981 0.7846244358
3200280800.0 -0.6034614432 0.7931340135
3250280500.0 -0.5924755089 0.800797643
3300280200.0 -0.5811280598 0.8086865021
3350279900.0 -0.569578263 0.8163199916
3400279600.0 -0.5575033896 0.8242422097
3450279300.0 -0.5463883334 0.8311354962
3500279000.0 -0.5343454917 0.8382133454
3550278700.0 -0.5219548942 0.8455966042
3600278400.0 -0.5096684783 0.8524523469
3650278100.0 -0.496463809 0.8601504871
3700277800.0 -0.484455131 0.8669450136
3750277500.0 -0.4722128796 0.8734665366
3800277200.0 -0.4597160664 0.879775656
3850276900.0 -0.4477720508 0.8858223212
3900276600.0 -0.4366767519 0.8914592995
3950276300.0 -0.4244017562 0.8974918157
4000276000.0 -0.412406415 0.9033515098
4050275700.0 -0.3997049778 0.9092891926
4100275400.0 -0.3885658192 0.9151594695
4150275100.0 -0.375810221 0.9206365144
4200274800.0 -0.3629055334 0.9262096042
4250274500.0 -0.3503455023 0.9314296013
4300274200.0 -0.3375931503 0.936764722
4350273900.0 -0.3237671351 0.9418655849
4400273600.0 -0.3087712631 0.9470457448
4450273300.0 -0.2936298472 0.952298011
4500273000.0 -0.2799121578 0.9567500092
4550272700.0 -0.2658184231 0.9608012553
4600272400.0 -0.2504620469 0.9650521479
4650272100.0 -0.238816555 0.9682675505
4700271800.0 -0.2254327913 0.9715624614
4750271500.0 -0.2137014833 0.9743684329
4800271200.0 -0.201388574 0.9771532904
4850270900.0 -0.187251884 0.9800690387
4900270600.0 -0.1734917591 0.9824819358
4950270300.0 -0.1592010287 0.9849143877
5000270000.0 -0.1449469672 0.9870802714
5050269700.0 -0.1312707718 0.9888276812
5100269400.0 -0.1176552511 0.9900949986
5150269100.0 -0.1044338067 0.9920311994
5200268800.0 -0.0908402602 0.9930460169
5250268500.0 -0.0779089223 0.9939823338
5300268200.0 -0.0647327082 0.9944452173
5350267900.0 -0.0526329833 0.9952007157
5400267600.0 -0.0364172584 0.9961814407
5450267300.0 -0.0232249261 0.9968097292
5500267000.0 -0.007981405 0.9970624191
5550266700.0 0.0068902978 0.9972721708
5600266400.0 0.0223117635 0.9973873013
5650266100.0 0.0389407088 0.9971220874
5700265800.0 0.0534579729 0.9960582054
5750265500.0 0.0686211535 0.995605296
5800265200.0 0.0824258105 0.9942324004
5850264900.0 0.0954360041 0.9934397563
5900264600.0 0.1123575937 0.9918397125
5950264300.0 0.1242378415 0.9904948714
6000264000.0 0.1383033415 0.9883224028
6050263700.0 0.1505004839 0.9869086736
6100263400.0 0.1629487119 0.9849972281
6150263100.0 0.1774018106 0.9828975145
6200262800.0 0.1878051006 0.9809317132
6250262500.0 0.2004898969 0.9786138315
6300262200.0 0.2134401188 0.9757484717
6350261900.0 0.2264342526 0.9728289423
6400261600.0 0.2403970393 0.969564069
6450261300.0 0.2516103145 0.9669019909
6500261000.0 0.2643709448 0.96331182
6550260700.0 0.2777327336 0.9594343225
6600260400.0 0.2907764325 0.9551455947
6650260100.0 0.3048228104 0.9509626835
6700259800.0 0.3165359582 0.9465431506
6750259500.0 0.3305085533 0.9418443771
6800259200.0 0.3438940068 0.936682834
6850258900.0 0.3558040984 0.9315873129
6900258600.0 0.3681321071 0.9266120832
6950258300.0 0.3805990919 0.921191653
7000258000.0 0.3927456386 0.9158736255
7050257700.0 0.4047983163 0.909909879
7100257400.0 0.4175577429 0.9036796306
7150257100.0 0.4279924423 0.8983645599
7200256800.0 0.4410297685 0.8920862388
7250256500.0 0.4526739792 0.8856810164
7300256200.0 0.4656670549 0.8789066276
7350255900.0 0.4781185503 0.8717698602
7400255600.0 0.4915765772 0.864920138
7450255300.0 0.5068098948 0.8555512755
7500255000.0 0.5187035311 0.8486328578
7550254700.0 0.532314874 0.8399320119
7600254400.0 0.5450534054 0.831681569
7650254100.0 0.5570604523 0.8240508701
7700253800.0 0.568317101 0.8159380402
7750253500.0 0.5799837612 0.8082107661
7800253200.0 0.5905246614 0.8006312988
7850252900.0 0.6001933064 0.7936212587
7900252600.0 0.6117892341 0.7848763254
7950252300.0 0.6205671975 0.7783562736
8000252000.0 0.630502375 0.7705669327
8050251700.0 0.6411117019 0.7623119989
8100251400.0 0.6514893272 0.7542905733
8150251100.0 0.661376866 0.7458013477
8200250800.0 0.6707185104 0.7377012968
8250250500.0 0.6797979693 0.7298277569
8300250200.0 0.6888367143 0.7210611985
8350249900.0 0.6980414656 0.7125356477
8400249600.0 0.7062125074 0.7044511175
8450249300.0 0.7151807128 0.6953053004
8500249000.0 0.7239809494 0.6864092521
8550248700.0 0.7323039824 0.6773474803
8600248400.0 0.7405968894 0.6677557534
8650248100.0 0.7484749449 0.6583387551
8700247800.0 0.7580112368 0.6473341053
8750247500.0 0.7662619393 0.6371284018
8800247200.0 0.7745423861 0.6265463375
8850246900.0 0.7830931667 0.6152530646
8900246600.0 0.7912336464 0.6039766015
8950246300.0 0.8010479141 0.5911248252
9000246000.0 0.8104202296 0.5782846661
9050245700.0 0.8191998529 0.5653333812
9100245400.0 0.8281776062 0.5528319712
9150245100.0 0.837354069 0.539367338
9200244800.0 0.8472393221 0.524375487
9250244500.0 0.8564112348 0.5086270831
9300244200.0 0.8649335039 0.4944131139
9350243900.0 0.8725903982 0.4805110303
9400243600.0 0.879247681 0.4683385752
9450243300.0 0.8853123005 0.456624634
9500243000.0 0.8914469047 0.4445283516
9550242700.0 0.8952906623 0.4368259018
9600242400.0 0.8991026904 0.4293466443
9650242100.0 0.9028142697 0.4229399301
9700241800.0 0.9073712366 0.4147709867
9750241500.0 0.9115242146 0.4071204811
9800241200.0 0.9163046763 0.3980580626
9850240900.0 0.9219092206 0.3862280389
9900240600.0 0.9274969582 0.3746632693
9950240300.0 0.9340667927 0.3585095063
10000240000.0 0.9388591607 0.3468402879
10050239700.0 0.9444115655 0.3317309573
10100239400.0 0.94924103 0.3163956221
10150239100.0 0.9538746742 0.3013337252
10200238800.0 0.9582740552 0.28621849
10250238500.0 0.9613990738 0.273059935
10300238200.0 0.9647479741 0.2591416319
10350237900.0 0.9673695311 0.2460438818
10400237600.0 0.9698089093 0.2329872723
10450237300.0 0.9725117568 0.219134339
10500237000.0 0.9747002361 0.2069076623
10550236700.0 0.9771699563 0.1926572594
10600236400.0 0.9795513665 0.1788000898
10650236100.0 0.9811115341 0.1647718847
10700235800.0 0.9833173431 0.1523314439
10750235500.0 0.9862237553 0.1386876918
10800235200.0 0.9875273732 0.124791872
10850234900.0 0.9897127834 0.1099835875
10900234600.0 0.9918580165 0.0953885597
10950234300.0 0.9934860376 0.0821805619
11000234000.0 0.995266067 0.0670040501
11050233700.0 0.9970237596 0.0505207191
11100233400.0 0.9985150205 0.0332278834
11150233100.0 0.9997681182 0.0168229778
11200232800.0 1.000100048 0.0018209965
11250232500.0 1.001447502 -0.0144262387
11300232200.0 1.002050771 -0.0324534476
11350231900.0 1.002063222 -0.0489874084
11400231600.0 1.001934877 -0.0633902579
11450231300.0 1.001012206 -0.0791814856
11500231000.0 0.9997370692 -0.0957152245
11550230700.0 0.9987592931 -0.1089761123
11600230400.0 0.997605231 -0.1212435887
11650230100.0 0.9951850483 -0.1326216941
11700229800.0 0.9933224637 -0.1472549227
11750229500.0 0.9910318065 -0.161352891
11800229200.0 0.9881935068 -0.175483238
11850228900.0 0.9848030156 -0.1875936975
11900228600.0 0.9813912657 -0.1976703278
11950228300.0 0.9779390678 -0.2082126432
12000228000.0 0.9753196108 -0.2172896856
12050227700.0 0.9717550296 -0.2293120967
12100227400.0 0.9686943943 -0.2413140549
12150227100.0 0.9631671597 -0.257864707
12200226800.0 0.9592728297 -0.2687255218
12250226500.0 0.9557231904 -0.2814434164
12300226200.0 0.9513359455 -0.2940782323
12350225900.0 0.9465883542 -0.3077021917
12400225600.0 0.941860988 -0.3206739118
12450225300.0 0.9378662013 -0.3327827576
12500225000.0 0.9324830953 -0.3480191025
12550224700.0 0.9271442654 -0.3619948309
12600224400.0 0.9221785609 -0.3747605197
12650224100.0 0.916276039 -0.3892172082
12700223800.0 0.9111097391 -0.4020383865
12750223500.0 0.9056373725 -0.4150798575
12800223200.0 0.9001330845 -0.4273952593
12850222900.0 0.89497889 -0.4399809144
12900222600.0 0.8891182787 -0.4523534906
12950222300.0 0.8827612077 -0.4644845188
13000222000.0 0.8767951299 -0.476171179
13050221700.0 0.870510281 -0.4888504718
13100221400.0 0.8636507862 -0.500868076
13150221100.0 0.8566350379 -0.5130288739
13200220800.0 0.8498518514 -0.5245012769
13250220500.0 0.842413888 -0.536826822
13300220200.0 0.8351925778 -0.5475786852
13350219900.0 0.8273163987 -0.55949266
13400219600.0 0.8190523632 -0.5715020528
13450219300.0 0.809780524 -0.584806035
13500219000.0 0.7994168926 -0.5989367178
13550218700.0 0.7892371728 -0.6115402838
13600218400.0 0.7792250155 -0.6239766634
13650218100.0 0.7694448452 -0.634810642
13700217800.0 0.7582687208 -0.647359895
13750217500.0 0.7493186292 -0.6579237929
13800217200.0 0.737740527 -0.6698190453
13850216900.0 0.7269411928 -0.681258474
13900216600.0 0.7162253487 -0.6905859213
13950216300.0 0.7059926835 -0.7007842806
14000216000.0 0.6955705649 -0.7099125264
14050215700.0 0.6864522745 -0.7180913705
14100215400.0 0.6764392439 -0.7272158562
14150215100.0 0.6672775596 -0.7358321149
14200214800.0 0.6578354468 -0.7447837829
14250214500.0 0.6474164267 -0.7541499515
14300214200.0 0.637095904 -0.763400379
14350213900.0 0.6257150264 -0.772902404
14400213600.0 0.6139021803 -0.7830197912
14450213300.0 0.6012282758 -0.7924255005
14500213000.0 0.5877809075 -0.8026170549
14550212700.0 0.5754491626 -0.8127281231
14600212400.0 0.563293206 -0.8211954971
14650212100.0 0.5498661515 -0.8298436511
14700211800.0 0.5362745779 -0.8397597258
14750211500.0 0.5242683145 -0.8479519235
14800211200.0 0.5119353984 -0.8557268495
14850210900.0 0.4997851857 -0.8632683651
14900210600.0 0.4865885555 -0.8710891097
14950210300.0 0.4732956727 -0.8786232331
15000210000.0 0.4603007752 -0.8856082756
15050209700.0 0.4481750441 -0.8919346134
15100209400.0 0.4357617545 -0.8974753576
15150209100.0 0.4233300906 -0.9030734194
15200208800.0 0.4102341899 -0.9089451004
15250208500.0 0.3990682018 -0.9130106579
15300208200.0 0.3866864449 -0.9180185805
15350207900.0 0.3738699837 -0.9224509967
15400207600.0 0.3590744315 -0.9271542888
15450207300.0 0.3449460451 -0.9326693014
15500207000.0 0.3305828981 -0.9381175805
15550206700.0 0.3146437147 -0.9428699917
15600206400.0 0.299206029 -0.9476510323
15650206100.0 0.2833789959 -0.9518097183
15700205800.0 0.2698364891 -0.954986756
15750205500.0 0.2551640596 -0.9585079468
15800205200.0 0.2408112588 -0.9619640812
15850204900.0 0.2264322416 -0.965419235
15900204600.0 0.2112370282 -0.969084151
15950204300.0 0.1969991173 -0.9718970836
16000204000.0 0.1832336289 -0.9747249271
16050203700.0 0.1674039292 -0.9778812703
16100203400.0 0.153348883 -0.9800481531
16150203100.0 0.1389638294 -0.9819455354
16200202800.0 0.1248166641 -0.9843855789
16250202500.0 0.1100405644 -0.9863977935
16300202200.0 0.0944711363 -0.9878809683
16350201900.0 0.0794212476 -0.9892963524
16400201600.0 0.0651048611 -0.9902911245
16450201300.0 0.0497838395 -0.9915105627
16500201000.0 0.0330178313 -0.9922295953
16550200700.0 0.0173608613 -0.9926734862
16600200400.0 0.0015182008 -0.9928764874
16650200100.0 -0.0144920669 -0.9928052399
16700199800.0 -0.030394032 -0.9924521321
16750199500.0 -0.0492456674 -0.992167929
16800199200.0 -0.0648777183 -0.9911332166
16850198900.0 -0.0803980942 -0.9898113404
16900198600.0 -0.0935861255 -0.9887783169
16950198300.0 -0.1075222057 -0.9875048408
17000198000.0 -0.1205732557 -0.986651422
17050197700.0 -0.1331464129 -0.9839964542
17100197400.0 -0.1459845026 -0.9826637369
17150197100.0 -0.1581188207 -0.9802316323
17200196800.0 -0.1712110134 -0.978656711
17250196500.0 -0.1841427811 -0.9759330362
17300196200.0 -0.1962818646 -0.9737027443
17350195900.0 -0.2082567629 -0.9712711537
17400195600.0 -0.220415971 -0.9689969138
17450195300.0 -0.2335800839 -0.9660128421
17500195000.0 -0.2471658047 -0.9627669319
17550194700.0 -0.2609576374 -0.9590508798
17600194400.0 -0.274959497 -0.9555661097
17650194100.0 -0.2883977787 -0.9507187088
17700193800.0 -0.3016600644 -0.9465797928
17750193500.0 -0.3165354014 -0.9421137036
17800193200.0 -0.3306297279 -0.9368795547
17850192900.0 -0.3454777105 -0.9319036566
17900192600.0 -0.3605337975 -0.9255250257
17950192300.0 -0.3763384706 -0.9182108608
18000192000.0 -0.3911944369 -0.9113279742
18050191700.0 -0.4049898659 -0.9032124496
18100191400.0 -0.4192900488 -0.895719853
18150191100.0 -0.4343107515 -0.8877470474
18200190800.0 -0.4513268392 -0.8787836747
18250190500.0 -0.4683007702 -0.8690043317
18300190200.0 -0.4838636396 -0.860546672
18350189900.0 -0.4988222319 -0.8521414029
18400189600.0 -0.5133340124 -0.843542298
18450189300.0 -0.5264799632 -0.8357826231
18500189000.0 -0.5401196898 -0.8280896681
18550188700.0 -0.5523730983 -0.8206080363
18600188400.0 -0.5643018532 -0.8136161218
18650188100.0 -0.575318497 -0.8070570697
18700187800.0 -0.5861644928 -0.8007105731
18750187500.0 -0.5964461683 -0.794063751
18800187200.0 -0.6071322446 -0.7871673859
18850186900.0 -0.6173887354 -0.7801594598
18900186600.0 -0.6275265206 -0.7729270083
18950186300.0 -0.6375641828 -0.7653739917
19000186000.0 -0.6448902899 -0.7588029111
19050185700.0 -0.6538332593 -0.7521425924
19100185400.0 -0.663943216 -0.7437029646
19150185100.0 -0.6737659016 -0.7353755433
19200184800.0 -0.683721915 -0.7267955946
19250184500.0 -0.6933156774 -0.7176568569
19300184200.0 -0.7052536182 -0.707978218
19350183900.0 -0.7155648193 -0.6986752956
19400183600.0 -0.7254252812 -0.6885944207
19450183300.0 -0.7341976825 -0.6784232317
19500183000.0 -0.7425782961 -0.6681216306
19550182700.0 -0.7526074528 -0.6572341087
19600182400.0 -0.7632401545 -0.6459545277
19650182100.0 -0.7738714632 -0.6333623621
19700181800.0 -0.784576884 -0.6199755566
19750181500.0 -0.7951360721 -0.6059657664
19800181200.0 -0.8056103892 -0.5911563647
19850180900.0 -0.8150712751 -0.5757089565
19900180600.0 -0.8230443882 -0.5611528067
19950180300.0 -0.8324518248 -0.5446461275
20000180000.0 -0.82534209 -0.5475120486
20050179700.0 -0.8333876355 -0.5337761918
20100179400.0 -0.8429579838 -0.5203933968
20150179100.0 -0.8508153977 -0.5078692962
20200178800.0 -0.85897963 -0.4949287314
20250178500.0 -0.869208087 -0.4818672683
20300178200.0 -0.8781937822 -0.4670882813
20350177900.0 -0.8872193584 -0.4531228455
20400177600.0 -0.8962407458 -0.4381407364
20450177300.0 -0.9045598433 -0.4239332758
20500177000.0 -0.9127585586 -0.4102699359
20550176700.0 -0.9204985564 -0.3968309602
20600176400.0 -0.9274559734 -0.3834868923
20650176100.0 -0.9338183491 -0.3713178353
20700175800.0 -0.9410236404 -0.3591079146
20750175500.0 -0.9472468694 -0.3481572781
20800175200.0 -0.9510882608 -0.3373300019
20850174900.0 -0.9566280031 -0.3259574296
20900174600.0 -0.9614260539 -0.3145655692
20950174300.0 -0.9651097599 -0.3038042159
21000174000.0 -0.9681390972 -0.2917001548
21050173700.0 -0.971806075 -0.2814325522
21100173400.0 -0.9760807611 -0.2700144678
21150173100.0 -0.9789719124 -0.2570442822
21200172800.0 -0.9829888025 -0.2436025013
21250172500.0 -0.9860430171 -0.2300551594
21300172200.0 -0.9886405886 -0.2160310351
21350171900.0 -0.989988241 -0.2013416022
21400171600.0 -0.992469486 -0.1874192784
21450171300.0 -0.992416929 -0.1727336865
21500171000.0 -0.9932004113 -0.1574736999
21550170700.0 -0.9918030248 -0.1412985403
21600170400.0 -0.9929156632 -0.1256590233
21650170100.0 -0.9915853335 -0.1115147743
21700169800.0 -0.9897106915 -0.0955423123
21750169500.0 -0.9889434162 -0.0782642515
21800169200.0 -0.9888563173 -0.0624238459
21850168900.0 -0.9873732951 -0.0457763205
21900168600.0 -0.9863626628 -0.0294978522
21950168300.0 -0.9849383778 -0.0137006998
22000168000.0 -0.9842111403 0.0013387244
22050167700.0 -0.9839267664 0.0157362115
22100167400.0 -0.984570753 0.0306584028
22150167100.0 -0.9848697309 0.0466733028
22200166800.0 -0.9850353075 0.0627077671
22250166500.0 -0.9850480386 0.079729607
22300166200.0 -0.9842262753 0.0965663929
22350165900.0 -0.9826250971 0.1128101626
22400165600.0 -0.98107839 0.1287304389
22450165300.0 -0.9783841213 0.1433398152
22500165000.0 -0.9767793388 0.1578700278
22550164700.0 -0.9754370655 0.1723600914
22600164400.0 -0.9740488908 0.1883419797
22650164100.0 -0.9716468399 0.2034656942
22700163800.0 -0.9696407068 0.2195111987
22750163500.0 -0.9668263026 0.2340611657
22800163200.0 -0.9640703775 0.2479078609
22850162900.0 -0.9620512822 0.2608033822
22900162600.0 -0.9604482898 0.2739061173
22950162300.0 -0.9588366082 0.2868846235
23000162000.0 -0.9578888266 0.2988234065
23050161700.0 -0.9557895966 0.3109494235
23100161400.0 -0.9535693095 0.3244556528
23150161100.0 -0.9505178033 0.3364187042
23200160800.0 -0.9475669288 0.3489653757
23250160500.0 -0.9446718483 0.3604116868
23300160200.0 -0.9417344146 0.3732014114
23350159900.0 -0.9381961313 0.3862871127
23400159600.0 -0.9341329314 0.3991216089
23450159300.0 -0.9291465102 0.4129136969
23500159000.0 -0.9244907493 0.4253636794
23550158700.0 -0.9202191315 0.439077766
23600158400.0 -0.9147483149 0.4525800928
23650158100.0 -0.9083125146 0.4666006279
23700157800.0 -0.9008237491 0.4803884275
23750157500.0 -0.8920339059 0.4945591587
23800157200.0 -0.8834824569 0.5083985913
23850156900.0 -0.8749639316 0.5202693764
23900156600.0 -0.8645650731 0.5336451727
23950156300.0 -0.855858071 0.5455772012
24000156000.0 -0.8473461131 0.5567052291
24050155700.0 -0.8366793544 0.5697603532
24100155400.0 -0.8272931461 0.5817104395
24150155100.0 -0.8159031466 0.5931657102
24200154800.0 -0.8049791904 0.6048797684
24250154500.0 -0.7938696345 0.6161679608
24300154200.0 -0.7830209741 0.6279334367
24350153900.0 -0.7712465833 0.6384270638
24400153600.0 -0.7588364632 0.6486509325
24450153300.0 -0.7468763768 0.6584558561
24500153000.0 -0.7354271472 0.6683907626
24550152700.0 -0.7238843308 0.6785238892
24600152400.0 -0.7126255834 0.687587194
24650152100.0 -0.7013367141 0.6959095341
