!Created with skrf (http://scikit-rf.org).
# Hz S RI R 50.0 
!freq ReS11 ImS11
300000.0 -0.9735246076 -0.1217448502
50299700.0 -1.000054953 0.0149179447
100299400.0 -0.9978522754 0.0278119953
150299100.0 -1.002790435 0.0447651649
200298800.0 -0.9994576448 0.0581350114
250298500.0 -0.9973422912 0.0715008663
300298200.0 -0.9857551177 0.0874409596
350297900.0 -0.9937023285 0.0982786863
400297600.0 -0.9931673298 0.1148331025
450297300.0 -0.990958729 0.1286418355
500297000.0 -0.9894413319 0.1433796675
550296700.0 -0.9843988786 0.1556893783
600296400.0 -1.017303435 0.1890755065
650296100.0 -0.9819679838 0.1855895435
700295800.0 -0.979311025 0.200023996
750295500.0 -0.9761457387 0.2140634516
800295200.0 -0.9729476473 0.2279496404
850294900.0 -0.9697167585 0.241779709
900294600.0 -0.9658834792 0.2553959618
950294300.0 -0.9622470723 0.2691716852
1000294000.0 -0.958229259 0.2832909182
1050293700.0 -0.9535963478 0.2970916709
1100293400.0 -0.9491176749 0.3116161695
1150293100.0 -0.9454812957 0.3233682851
1200292800.0 -0.940116028 0.3375902696
1250292500.0 -0.9347437851 0.3511689884
1300292200.0 -0.9290815106 0.3643310142
1350291900.0 -0.9234227844 0.3783320573
1400291600.0 -0.9177913081 0.3914728004
1450291300.0 -0.9126387368 0.4039781163
1500291000.0 -0.9063301222 0.4173134233
1550290700.0 -0.8996835838 0.4304697858
1600290400.0 -0.89354685 0.4435968868
1650290100.0 -0.8866745616 0.4557698766
1700289800.0 -0.8799707063 0.4692983432
1750289500.0 -0.8727456674 0.4813720725
1800289200.0 -0.8654274697 0.4942794985
1850288900.0 -0.858887536 0.5056596219
1900288600.0 -0.8510153654 0.5186123639
1950288300.0 -0.8430240541 0.531350802
2000288000.0 -0.8355363902 0.5428158321
2050287700.0 -0.8271761021 0.5551337599
2100287400.0 -0.8193327883 0.5664379538
2150287100.0 -0.8108431775 0.5787154161
2200286800.0 -0.802989262 0.589133042
2250286500.0 -0.7939778541 0.6013743656
2300286200.0 -0.7853799829 0.6127034982
2350285900.0 -0.7767529574 0.6234493883
2400285600.0 -0.7680398263 0.6342289666
2450285300.0 -0.758945337 0.6448604882
2500285000.0 -0.7492026957 0.6566881493
2550284700.0 -0.7401338251 0.6669747885
2600284400.0 -0.7308244425 0.6767214664
2650284100.0 -0.7223603214 0.687233045
2700283800.0 -0.7117508894 0.6977026032
2750283500.0 -0.7013651877 0.7077862631
2800283200.0 -0.6917115487 0.7182206038
2850282900.0 -0.6809299793 0.7280376652
2900282600.0 -0.67083157 0.7377984673
2950282300.0 -0.6603678645 0.7469779143
3000282000.0 -0.6497199558 0.7567564781
3050281700.0 -0.6383050335 0.7659942724
3100281400.0 -0.6267863254 0.7750234136
3150281100.0 -0.6156123172 0.7838553789
3200280800.0 -0.6041284392 0.7922193549
3250280500.0 -0.5931465963 0.8001467016
3300280200.0 -0.5815461363 0.8083067081
3350279900.0 -0.5691907627 0.8164106589
3400279600.0 -0.556638741 0.8244984627
3450279300.0 -0.5455773759 0.8318199473
3500279000.0 -0.5336869975 0.8386117067
3550278700.0 -0.5214871676 0.8454585587
3600278400.0 -0.5100428817 0.8522867913
3650278100.0 -0.4968338597 0.8598373082
3700277800.0 -0.4848383488 0.8663384258
3750277500.0 -0.4722895351 0.8733143734
3800277200.0 -0.4597600157 0.8796600991
3850276900.0 -0.4477862252 0.8854207202
3900276600.0 -0.4369624671 0.8911000433
3950276300.0 -0.425036821 0.8972018638
4000276000.0 -0.4130069133 0.9031415161
4050275700.0 -0.4004799515 0.9091990918
4100275400.0 -0.3894777888 0.9144164137
4150275100.0 -0.376129624 0.9204683833
4200274800.0 -0.3625999993 0.9258196983
4250274500.0 -0.3500111553 0.9314376312
4300274200.0 -0.3368814538 0.9366710114
4350273900.0 -0.3226779796 0.9421048451
4400273600.0 -0.3078319314 0.9471609683
4450273300.0 -0.2928402754 0.9521689212
4500273000.0 -0.279619946 0.9565171054
4550272700.0 -0.2661207239 0.96043545
4600272400.0 -0.2510021326 0.9646015667
4650272100.0 -0.2396648786 0.9678082925
4700271800.0 -0.2267730526 0.9710099386
4750271500.0 -0.2151460434 0.9740215663
4800271200.0 -0.202881839 0.9767147576
4850270900.0 -0.1891413012 0.9794653853
4900270600.0 -0.1752711345 0.9818518935
4950270300.0 -0.1607299003 0.9846576238
5000270000.0 -0.14620783 0.9867427507
5050269700.0 -0.1327826548 0.9881149415
5100269400.0 -0.1188190468 0.9899671948
5150269100.0 -0.1047334617 0.991676731
5200268800.0 -0.091379527 0.9923475312
5250268500.0 -0.0783020278 0.9939507261
5300268200.0 -0.06464379 0.9943361704
5350267900.0 -0.0518733605 0.9953072924
5400267600.0 -0.0357437519 0.9961680351
5450267300.0 -0.0222986073 0.9964940212
5500267000.0 -0.0068803265 0.996960338
5550266700.0 0.0080403237 0.9972308085
5600266400.0 0.0239390688 0.9973608488
5650266100.0 0.0402704027 0.9967367156
5700265800.0 0.054667278 0.9958135041
5750265500.0 0.0698252135 0.9953304134
5800265200.0 0.0831420338 0.9939721406
5850264900.0 0.096258467 0.9929021391
5900264600.0 0.112783904 0.9914033867
5950264300.0 0.1243749859 0.9896204761
6000264000.0 0.1377432228 0.9877106609
6050263700.0 0.1495504061 0.9865411527
6100263400.0 0.1618862133 0.9847963312
6150263100.0 0.1764975128 0.9824113266
6200262800.0 0.1862575395 0.9809390631
6250262500.0 0.1985887555 0.9786027459
6300262200.0 0.2109736562 0.9761689502
6350261900.0 0.2236477586 0.973426555
6400261600.0 0.2376551658 0.9702326099
6450261300.0 0.2487981691 0.9676988405
6500261000.0 0.2621087375 0.9640801818
6550260700.0 0.2749936032 0.959868888
6600260400.0 0.2887090361 0.9560148176
6650260100.0 0.3028759268 0.9517330479
6700259800.0 0.3147554988 0.9474488569
6750259500.0 0.3288338268 0.942605023
6800259200.0 0.3422000192 0.9372858006
6850258900.0 0.3544371913 0.9318992288
6900258600.0 0.3670965055 0.9268333856
6950258300.0 0.379664313 0.9214691594
7000258000.0 0.3911516417 0.916184446
7050257700.0 0.4032133381 0.910354397
7100257400.0 0.4165565089 0.9038856304
7150257100.0 0.4272156023 0.8986065718
7200256800.0 0.4406021672 0.8919891594
7250256500.0 0.4529464442 0.8854026827
7300256200.0 0.4657462293 0.878721162
7350255900.0 0.4787583844 0.8715295336
7400255600.0 0.4928837371 0.8640026604
7450255300.0 0.5086292434 0.8548542947
7500255000.0 0.5210107175 0.847287003
7550254700.0 0.5349772354 0.8384790389
7600254400.0 0.5477349577 0.8301349663
7650254100.0 0.5593754324 0.8221200692
7700253800.0 0.5707859221 0.8140522215
7750253500.0 0.5819850301 0.8066341231
7800253200.0 0.5925945552 0.7987423743
7850252900.0 0.6021531559 0.7912784426
7900252600.0 0.6136480012 0.7826406202
7950252300.0 0.6220604208 0.7762917883
8000252000.0 0.6319230613 0.7687305299
8050251700.0 0.6427753029 0.7604949576
8100251400.0 0.6521719406 0.7526489673
8150251100.0 0.6623145425 0.7442655944
8200250800.0 0.6717852289 0.7360340339
8250250500.0 0.6808038144 0.7280303908
8300250200.0 0.6896599577 0.7198696181
8350249900.0 0.6991824475 0.7107461129
8400249600.0 0.7072668843 0.7029221915
8450249300.0 0.7160938011 0.6941040531
8500249000.0 0.7245291843 0.6852643404
8550248700.0 0.732737683 0.6762471178
8600248400.0 0.7410573561 0.6667055576
8650248100.0 0.748724466 0.6572851541
8700247800.0 0.7578722318 0.6462911232
8750247500.0 0.7664108394 0.6361391597
8800247200.0 0.7741950214 0.6259506525
8850246900.0 0.7831569 0.6144885729
8900246600.0 0.7913869067 0.603144501
8950246300.0 0.8005770524 0.5904577781
9000246000.0 0.8091820653 0.5784865856
9050245700.0 0.8173902048 0.5663499748
9100245400.0 0.8260896566 0.5540248181
9150245100.0 0.8345893676 0.5411510361
9200244800.0 0.8442747504 0.5269064996
9250244500.0 0.8532750494 0.512093021
9300244200.0 0.8610676167 0.4985686989
9350243900.0 0.8689246129 0.4852705401
9400243600.0 0.8755831656 0.4735234575
9450243300.0 0.8812212502 0.463100493
9500243000.0 0.8875610256 0.451452886
9550242700.0 0.891625521 0.4438405111
9600242400.0 0.8957942551 0.4363516112
9650242100.0 0.9000517382 0.4293106207
9700241800.0 0.9047284668 0.420813312
9750241500.0 0.9090717902 0.4131270926
9800241200.0 0.9143271429 0.4034823819
9850240900.0 0.9199514399 0.3921033339
9900240600.0 0.9256886987 0.3802187456
9950240300.0 0.9327458029 0.3633841881
10000240000.0 0.9380487847 0.3514329832
10050239700.0 0.9438513551 0.335190955
10100239400.0 0.9492495956 0.3188494564
10150239100.0 0.953811932 0.303316602
10200238800.0 0.9579451207 0.2879303867
10250238500.0 0.9614981385 0.2743630376
10300238200.0 0.9645990602 0.2605490127
10350237900.0 0.9672272378 0.247149718
10400237600.0 0.9700127015 0.2335217006
10450237300.0 0.9728361151 0.2199011237
10500237000.0 0.9748235019 0.2079764235
10550236700.0 0.9776037885 0.192514452
10600236400.0 0.9794906079 0.1792107994
10650236100.0 0.9814605784 0.1645499844
10700235800.0 0.9840084475 0.1521979124
10750235500.0 0.9859955597 0.1386735319
10800235200.0 0.9881927215 0.1244339304
10850234900.0 0.9900364508 0.1093502598
10900234600.0 0.991881583 0.0947125097
10950234300.0 0.9936265578 0.0811134487
11000234000.0 0.9957001888 0.0655559127
11050233700.0 0.9974270151 0.0487625167
11100233400.0 0.9988075266 0.0310760638
11150233100.0 0.9997811632 0.014548819
11200232800.0 1.000762284 -0.0015307154
11250232500.0 1.001329692 -0.0193253501
11300232200.0 1.00221317 -0.0380339022
11350231900.0 1.001891281 -0.0541286431
11400231600.0 1.001078686 -0.0695695539
11450231300.0 1.000757969 -0.0855542688
11500231000.0 0.9998578146 -0.1017192439
11550230700.0 0.9980586141 -0.1139482457
11600230400.0 0.9969717667 -0.1270355218
11650230100.0 0.9948425219 -0.1398576178
11700229800.0 0.9927297317 -0.1546649243
11750229500.0 0.9903634829 -0.1680161272
11800229200.0 0.9873524168 -0.1815616173
11850228900.0 0.9836841174 -0.1934852624
11900228600.0 0.9798455128 -0.2029826045
11950228300.0 0.9763121891 -0.213499368
12000228000.0 0.9735285916 -0.2223376215
12050227700.0 0.9701920552 -0.2342443293
12100227400.0 0.9667789396 -0.2456961231
12150227100.0 0.9616067863 -0.2627749173
12200226800.0 0.9578077472 -0.2732540771
12250226500.0 0.9540054787 -0.2859618772
12300226200.0 0.949320922 -0.298198656
12350225900.0 0.9448101261 -0.3121305805
12400225600.0 0.9402759624 -0.325289983
12450225300.0 0.9357558691 -0.3368994759
12500225000.0 0.93042186 -0.3518732221
12550224700.0 0.9252053738 -0.3660173448
12600224400.0 0.920002015 -0.3783785547
12650224100.0 0.9141628201 -0.3927541581
12700223800.0 0.9089284135 -0.4053278839
12750223500.0 0.9032918316 -0.4184948848
12800223200.0 0.8980606655 -0.431121432
12850222900.0 0.8929375726 -0.4433231786
12900222600.0 0.8872581214 -0.4551832801
12950222300.0 0.8809282827 -0.4681125963
13000222000.0 0.8751074388 -0.4788965198
13050221700.0 0.8687559662 -0.4921846458
13100221400.0 0.861751988 -0.504536971
13150221100.0 0.8546144347 -0.5163754022
13200220800.0 0.8473898523 -0.52765997
13250220500.0 0.8405293161 -0.5401735361
13300220200.0 0.8329228339 -0.5513619839
13350219900.0 0.8246209249 -0.5631522053
13400219600.0 0.8163772691 -0.5750026505
13450219300.0 0.807296799 -0.588060819
13500219000.0 0.7971124872 -0.6012449
13550218700.0 0.7872876074 -0.6134468328
13600218400.0 0.7772296609 -0.6252082482
13650218100.0 0.7685534266 -0.6361894133
13700217800.0 0.7576276819 -0.6480893707
13750217500.0 0.7473314453 -0.6590022885
13800217200.0 0.7367345414 -0.6699691061
13850216900.0 0.7255305996 -0.6814379408
13900216600.0 0.7160416109 -0.6900639548
13950216300.0 0.7046130447 -0.7002600926
14000216000.0 0.6953014114 -0.7092188925
14050215700.0 0.6862500398 -0.7171214239
14100215400.0 0.6764146774 -0.726280412
14150215100.0 0.6674305117 -0.7351210625
14200214800.0 0.6579942497 -0.7440063844
14250214500.0 0.6474996099 -0.7535589237
14300214200.0 0.6369852569 -0.7630963858
14350213900.0 0.6258893474 -0.7727924881
14400213600.0 0.6142703253 -0.7824082098
14450213300.0 0.6013025758 -0.7930058771
14500213000.0 0.5887883389 -0.8030104569
14550212700.0 0.5761248441 -0.8119499709
14600212400.0 0.563491351 -0.8211184597
14650212100.0 0.5503862217 -0.8289235295
14700211800.0 0.5368851204 -0.8390319253
14750211500.0 0.5247017204 -0.8472992369
14800211200.0 0.5122158822 -0.8556152774
14850210900.0 0.4999968059 -0.8630896579
14900210600.0 0.4867821576 -0.8709808673
14950210300.0 0.4734211512 -0.8786889868
15000210000.0 0.4607192828 -0.8853039638
15050209700.0 0.4482590848 -0.8914271309
15100209400.0 0.4353914174 -0.897481562
15150209100.0 0.4229638247 -0.9026446709
15200208800.0 0.4116509832 -0.9077891574
15250208500.0 0.3996759486 -0.913102733
15300208200.0 0.3874214053 -0.9168452328
15350207900.0 0.3744336186 -0.9219319365
15400207600.0 0.3596419678 -0.9276062463
15450207300.0 0.3449675999 -0.9321569424
15500207000.0 0.3295357724 -0.9374015248
15550206700.0 0.315480677 -0.9417743027
15600206400.0 0.2998024782 -0.9464322459
15650206100.0 0.2839304089 -0.9507499886
15700205800.0 0.2703426813 -0.9543897045
15750205500.0 0.2562506516 -0.9577005295
15800205200.0 0.2423883514 -0.9612207367
15850204900.0 0.2283508268 -0.9646084595
15900204600.0 0.2131359865 -0.9682322085
15950204300.0 0.1989201383 -0.9716260105
16000204000.0 0.1842854908 -0.9745022763
16050203700.0 0.1690754748 -0.9775197589
16100203400.0 0.1544009919 -0.9796987477
16150203100.0 0.1397691221 -0.98202925
16200202800.0 0.125459572 -0.9838933039
16250202500.0 0.1102877813 -0.9859217025
16300202200.0 0.0950766054 -0.9877439784
16350201900.0 0.0800221038 -0.9888838917
16400201600.0 0.0653253864 -0.9902676128
16450201300.0 0.0498644733 -0.9911882165
16500201000.0 0.0327013575 -0.9920166199
16550200700.0 0.0167963489 -0.9925173727
16600200400.0 0.0008337554 -0.9926765811
16650200100.0 -0.0151668952 -0.9924918341
16700199800.0 -0.0317721902 -0.9921621791
16750199500.0 -0.0504694728 -0.9914593914
16800199200.0 -0.0662558337 -0.9905393527
16850198900.0 -0.0821603811 -0.9889215439
16900198600.0 -0.096587967 -0.9880847181
16950198300.0 -0.1102980824 -0.9871470108
17000198000.0 -0.123672013 -0.9857276953
17050197700.0 -0.1358713676 -0.9841085969
17100197400.0 -0.1487838079 -0.9819807231
17150197100.0 -0.1613087942 -0.9799421423
17200196800.0 -0.1741981533 -0.9780670014
17250196500.0 -0.1871001852 -0.9753570655
17300196200.0 -0.1993836156 -0.9731330358
17350195900.0 -0.2111103684 -0.9706340234
17400195600.0 -0.2233179227 -0.9682812658
17450195300.0 -0.2360326342 -0.9654905771
17500195000.0 -0.2493642356 -0.9622086738
17550194700.0 -0.2629753905 -0.9584644995
17600194400.0 -0.2769469362 -0.954580003
17650194100.0 -0.2901540136 -0.9509162337
17700193800.0 -0.3028456843 -0.9465301835
17750193500.0 -0.3180450909 -0.942185099
17800193200.0 -0.3315601165 -0.9365112567
17850192900.0 -0.346540287 -0.9313162551
17900192600.0 -0.3616503897 -0.925167402
17950192300.0 -0.3769442276 -0.9179849407
18000192000.0 -0.3917132684 -0.9107139093
18050191700.0 -0.405613543 -0.9028014817
18100191400.0 -0.4198383131 -0.8949879974
18150191100.0 -0.4347430585 -0.8870961606
18200190800.0 -0.451588352 -0.8779011346
18250190500.0 -0.4686353832 -0.8685560088
18300190200.0 -0.4839407427 -0.8596653596
18350189900.0 -0.499143987 -0.8512085398
18400189600.0 -0.5136462852 -0.8428774599
18450189300.0 -0.5270533817 -0.834731023
18500189000.0 -0.5407135398 -0.8268481277
18550188700.0 -0.553456437 -0.819111471
18600188400.0 -0.565404711 -0.8127148336
18650188100.0 -0.5768705279 -0.8055641216
18700187800.0 -0.5880047401 -0.7988550535
18750187500.0 -0.5986519679 -0.7922161603
18800187200.0 -0.6093333603 -0.7853498941
18850186900.0 -0.6197569088 -0.7783593609
18900186600.0 -0.6300138696 -0.7712061188
18950186300.0 -0.6402717731 -0.7632113553
19000186000.0 -0.6475511764 -0.7569988937
19050185700.0 -0.6566886972 -0.7496992201
19100185400.0 -0.667195564 -0.7416547726
19150185100.0 -0.6772064691 -0.7338906109
19200184800.0 -0.686705534 -0.7251412162
19250184500.0 -0.6967515633 -0.7164357047
19300184200.0 -0.7084648935 -0.7070206345
19350183900.0 -0.7192051064 -0.6968767934
19400183600.0 -0.7284252305 -0.6870120091
19450183300.0 -0.7374032093 -0.6765969425
19500183000.0 -0.74611012 -0.666819571
19550182700.0 -0.7551443839 -0.6553951209
19600182400.0 -0.7653041592 -0.6438731727
19650182100.0 -0.776244749 -0.6319989015
19700181800.0 -0.7863586951 -0.6182065555
19750181500.0 -0.7968610475 -0.6045248516
19800181200.0 -0.8070972758 -0.5894893284
19850180900.0 -0.8165435948 -0.5741782568
19900180600.0 -0.8242089361 -0.5598494739
19950180300.0 -0.8333830726 -0.543527976
20000180000.0 -0.8218884814 -0.5476668017
20050179700.0 -0.8309440957 -0.5344001825
20100179400.0 -0.8405557002 -0.5216057361
20150179100.0 -0.847626094 -0.5096806566
20200178800.0 -0.8561457931 -0.4982686739
20250178500.0 -0.8651790866 -0.485719972
20300178200.0 -0.8750387392 -0.4716677286
20350177900.0 -0.8841002912 -0.4578013268
20400177600.0 -0.8936615912 -0.4436886459
20450177300.0 -0.901989208 -0.4295933033
20500177000.0 -0.9099691559 -0.4154508205
20550176700.0 -0.9181489044 -0.4020707129
20600176400.0 -0.924743162 -0.3887887627
20650176100.0 -0.9309906928 -0.3764399512
20700175800.0 -0.9383356643 -0.3646137513
20750175500.0 -0.9452387207 -0.353745843
20800175200.0 -0.949179565 -0.3428357272
20850174900.0 -0.9536850489 -0.3324141244
20900174600.0 -0.9566821679 -0.3210508487
20950174300.0 -0.9610805148 -0.3099695222
21000174000.0 -0.964529932 -0.2988003315
21050173700.0 -0.9649433163 -0.2893282802
21100173400.0 -0.9693372769 -0.2780070424
21150173100.0 -0.9728252638 -0.26663789
21200172800.0 -0.9769849317 -0.2539287486
21250172500.0 -0.9806832984 -0.2399714742
21300172200.0 -0.9840286831 -0.2258780157
21350171900.0 -0.9860052371 -0.2115496771
21400171600.0 -0.9877015496 -0.1978260526
21450171300.0 -0.9878922009 -0.1830452799
21500171000.0 -0.9894176723 -0.1681298168
21550170700.0 -0.9891808235 -0.1532862516
21600170400.0 -0.9907663637 -0.1392037626
21650170100.0 -0.9909619334 -0.1226916361
21700169800.0 -0.9897799537 -0.1080451511
21750169500.0 -0.9906941398 -0.0905013953
21800169200.0 -0.9902748589 -0.0736290155
21850168900.0 -0.9895373305 -0.0570135759
21900168600.0 -0.9896316449 -0.0411976393
21950168300.0 -0.9889909871 -0.0251402648
22000168000.0 -0.9891918182 -0.0099738762
22050167700.0 -0.9898426118 0.0040861467
22100167400.0 -0.9904239951 0.0198849293
22150167100.0 -0.9912476894 0.0356560517
22200166800.0 -0.9913815014 0.0524920234
22250166500.0 -0.9914458194 0.070646672
22300166200.0 -0.9907695523 0.0865145189
22350165900.0 -0.9891960166 0.1025987042
22400165600.0 -0.9872208791 0.1178299832
22450165300.0 -0.9862122634 0.1328181978
22500165000.0 -0.9845232676 0.1466864657
22550164700.0 -0.9823594751 0.1636638666
22600164400.0 -0.9816761428 0.1795547201
22650164100.0 -0.9784281348 0.1951795822
22700163800.0 -0.9753911688 0.2110330641
22750163500.0 -0.9720101937 0.2262685922
22800163200.0 -0.9689885016 0.2393201162
22850162900.0 -0.9667530114 0.2521842826
22900162600.0 -0.9643324953 0.2664510717
22950162300.0 -0.9627626182 0.279994529
23000162000.0 -0.9610795906 0.2928886725
23050161700.0 -0.9584012444 0.305993814
23100161400.0 -0.9556888984 0.3200962565
23150161100.0 -0.9532543347 0.3319364985
23200160800.0 -0.950017275 0.3460307222
23250160500.0 -0.9468646235 0.3586273477
23300160200.0 -0.9438315385 0.3710096653
23350159900.0 -0.939681601 0.3845796922
23400159600.0 -0.9351867587 0.3978605329
23450159300.0 -0.9302621016 0.4119279788
23500159000.0 -0.9255292667 0.4252672914
23550158700.0 -0.9199819382 0.4397299771
23600158400.0 -0.9141995255 0.453618454
23650158100.0 -0.9071080457 0.4684082679
23700157800.0 -0.8985910601 0.4826544275
23750157500.0 -0.8893243775 0.4969452693
23800157200.0 -0.8793931213 0.5101328467
23850156900.0 -0.8698510626 0.5231338259
23900156600.0 -0.8594238823 0.5355088589
23950156300.0 -0.8505193522 0.5485667602
24000156000.0 -0.8412919901 0.5609338943
24050155700.0 -0.8301095869 0.5725417781
24100155400.0 -0.8195781441 0.584833089
24150155100.0 -0.8092438231 0.5973599562
24200154800.0 -0.7982188835 0.6088425976
24250154500.0 -0.7868588931 0.6217233799
24300154200.0 -0.7754518089 0.6337425039
24350153900.0 -0.7635196663 0.6447268141
24400153600.0 -0.7509497413 0.65507963
24450153300.0 -0.7386963475 0.6654209387
24500153000.0 -0.7270360841 0.6755540537
24550152700.0 -0.7157509327 0.6856071942
24600152400.0 -0.7038259142 0.6950700608
24650152100.0 -0.6910605149 0.7039976389
