!Created with skrf (http://scikit-rf.org).
# Hz S RI R 50.0 
!freq ReS11 ImS11
300000.0 -0.9764463616 -0.1151832025
50299700.0 -1.000076445 0.015659588
100299400.0 -0.9978938518 0.0284019965
150299100.0 -1.0028827 0.0455347175
200298800.0 -0.9996682094 0.0588512072
250298500.0 -0.9974800596 0.0723981096
300298200.0 -0.9861523228 0.0880188153
350297900.0 -0.9940982685 0.0991646445
400297600.0 -0.9934372008 0.1156446803
450297300.0 -0.9910569139 0.129448816
500297000.0 -0.9896366457 0.1440739709
550296700.0 -0.9844644078 0.156650646
600296400.0 -1.017408057 0.1898690889
650296100.0 -0.9822825718 0.1868066258
700295800.0 -0.9793648256 0.2007866843
750295500.0 -0.9763342853 0.2147376822
800295200.0 -0.97288839 0.2289907919
850294900.0 -0.9694699925 0.2427513658
900294600.0 -0.9657856594 0.2566271067
950294300.0 -0.9620567206 0.2701900179
1000294000.0 -0.9581075061 0.2842086482
1050293700.0 -0.9535489867 0.2979103306
1100293400.0 -0.9492033745 0.3125165016
1150293100.0 -0.9453832764 0.3242734988
1200292800.0 -0.9399741246 0.3385690465
1250292500.0 -0.9344563732 0.3519033704
1300292200.0 -0.9289734596 0.3653646502
1350291900.0 -0.9235219701 0.3794742029
1400291600.0 -0.9179205695 0.3923523237
1450291300.0 -0.9123197486 0.4047563119
1500291000.0 -0.9059270739 0.4180872859
1550290700.0 -0.8995115859 0.4315102126
1600290400.0 -0.8933409908 0.4444159262
1650290100.0 -0.8866287575 0.4566784226
1700289800.0 -0.8797495615 0.4699625104
1750289500.0 -0.8727319251 0.4824007661
1800289200.0 -0.8654236577 0.495294081
1850288900.0 -0.8585617283 0.506528524
1900288600.0 -0.8506204767 0.5196110737
1950288300.0 -0.8425846335 0.5321050368
2000288000.0 -0.8351797383 0.543493288
2050287700.0 -0.8271221083 0.5560102645
2100287400.0 -0.8188006279 0.5673034933
2150287100.0 -0.8103426838 0.5796249004
2200286800.0 -0.8026646502 0.5899167103
2250286500.0 -0.7938654502 0.6019611703
2300286200.0 -0.7850132019 0.6135227509
2350285900.0 -0.7762163582 0.624456509
2400285600.0 -0.7672234227 0.6355326481
2450285300.0 -0.7587143604 0.6457303161
2500285000.0 -0.7487950486 0.6570347894
2550284700.0 -0.7399588949 0.6673996816
2600284400.0 -0.7303954203 0.6774449712
2650284100.0 -0.7215222008 0.6881574274
2700283800.0 -0.7110722082 0.6986524118
2750283500.0 -0.7005197926 0.7090688602
2800283200.0 -0.6907454062 0.7191107874
2850282900.0 -0.6807245186 0.7288926576
2900282600.0 -0.670464858 0.7384429703
2950282300.0 -0.6601729465 0.7477560293
3000282000.0 -0.6494762932 0.757024339
3050281700.0 -0.6382873424 0.7664753388
3100281400.0 -0.6262048792 0.7757754629
3150281100.0 -0.6144851698 0.7850469131
3200280800.0 -0.602763133 0.7936655234
3250280500.0 -0.5919357376 0.8013828938
3300280200.0 -0.580772105 0.8091945009
3350279900.0 -0.5692021657 0.8166578851
3400279600.0 -0.557172568 0.8243168288
3450279300.0 -0.546129047 0.8315643687
3500279000.0 -0.5342146525 0.8384677927
3550278700.0 -0.5216110499 0.8458742395
3600278400.0 -0.509208858 0.8529228115
3650278100.0 -0.4959483916 0.8605181349
3700277800.0 -0.4839070372 0.8671435231
3750277500.0 -0.4717510576 0.8737635129
3800277200.0 -0.4592987756 0.880235273
3850276900.0 -0.4470041161 0.8858993072
3900276600.0 -0.4362633251 0.8915030505
3950276300.0 -0.4238485451 0.8978338016
4000276000.0 -0.4119050481 0.9038663377
4050275700.0 -0.3989237034 0.9097509871
4100275400.0 -0.387640536 0.9152010472
4150275100.0 -0.3748810015 0.9209307331
4200274800.0 -0.3621608528 0.9262288507
4250274500.0 -0.3498334399 0.9315950272
4300274200.0 -0.3370079738 0.9368643345
4350273900.0 -0.3230856525 0.9419486284
4400273600.0 -0.3083709191 0.9475198357
4450273300.0 -0.2927360069 0.952523695
4500273000.0 -0.2790576177 0.9567692162
4550272700.0 -0.2649933732 0.9610537479
4600272400.0 -0.2495975187 0.9652208699
4650272100.0 -0.2377761895 0.9684868567
4700271800.0 -0.2244602777 0.9718624489
4750271500.0 -0.212774789 0.9746432745
4800271200.0 -0.2002240962 0.9773764668
4850270900.0 -0.1864415392 0.9801852242
4900270600.0 -0.1725535248 0.9825981173
4950270300.0 -0.1583524515 0.9853661116
5000270000.0 -0.14391707 0.9873747619
5050269700.0 -0.1304079401 0.9891483742
5100269400.0 -0.1169780062 0.9905851094
5150269100.0 -0.1035627942 0.9918355123
5200268800.0 -0.0901901409 0.9930854485
5250268500.0 -0.0771851414 0.9942741999
5300268200.0 -0.064258178 0.9948225408
5350267900.0 -0.0519002962 0.9951907986
5400267600.0 -0.0358091299 0.9963610327
5450267300.0 -0.0227755081 0.9965469479
5500267000.0 -0.0074135102 0.9971971375
5550266700.0 0.0074923641 0.997295497
5600266400.0 0.0230244066 0.9973704613
5650266100.0 0.0396162189 0.9970388548
5700265800.0 0.0541324975 0.9961965922
5750265500.0 0.0694494963 0.995522735
5800265200.0 0.0835577346 0.9946858333
5850264900.0 0.0965520388 0.993136635
5900264600.0 0.1131489415 0.9913169922
5950264300.0 0.1252233866 0.9897219685
6000264000.0 0.1393872699 0.988318969
6050263700.0 0.151643441 0.9865027912
6100263400.0 0.1641835018 0.9848078361
6150263100.0 0.1788017868 0.9826788043
6200262800.0 0.1891286815 0.9807062963
6250262500.0 0.2017281007 0.9783052897
6300262200.0 0.214477424 0.9755270146
6350261900.0 0.2277646776 0.9725755453
6400261600.0 0.2413927979 0.9692735725
6450261300.0 0.252831145 0.9666602843
6500261000.0 0.2654687117 0.962989017
6550260700.0 0.2786861253 0.9592087523
6600260400.0 0.2921704413 0.9552541387
6650260100.0 0.3058325833 0.9505602035
6700259800.0 0.3179728326 0.9464277439
6750259500.0 0.3318411046 0.9414750374
6800259200.0 0.345001486 0.9366446135
6850258900.0 0.3568560667 0.9314144409
6900258600.0 0.3691130418 0.9264942198
6950258300.0 0.3814189899 0.9210326213
7000258000.0 0.3933405472 0.9156151784
7050257700.0 0.4056897503 0.9095671959
7100257400.0 0.4184873961 0.9033846698
7150257100.0 0.4287767774 0.8979264218
7200256800.0 0.4415739246 0.8916017279
7250256500.0 0.4533240473 0.8852569186
7300256200.0 0.466971887 0.8785066661
7350255900.0 0.4785035668 0.8714974164
7400255600.0 0.4925733164 0.8642142153
7450255300.0 0.5074913955 0.8550640561
7500255000.0 0.5189999773 0.8482290116
7550254700.0 0.5333415334 0.839499299
7600254400.0 0.5458420611 0.8312178013
7650254100.0 0.5572904029 0.823194256
7700253800.0 0.5694368153 0.8154179889
7750253500.0 0.5806375939 0.8075910943
7800253200.0 0.5912540183 0.8000915638
7850252900.0 0.6008698712 0.7928495965
7900252600.0 0.612530606 0.7841296332
7950252300.0 0.6212041242 0.7775845912
8000252000.0 0.6314621188 0.7697704706
8050251700.0 0.6418403138 0.7614631139
8100251400.0 0.652191104 0.7535364588
8150251100.0 0.6623018903 0.744846371
8200250800.0 0.6714997444 0.7369105615
8250250500.0 0.680502154 0.7290992003
8300250200.0 0.6897445164 0.7204582814
8350249900.0 0.6987870122 0.7116646512
8400249600.0 0.7072248599 0.7035879333
8450249300.0 0.7160707479 0.6943646634
8500249000.0 0.7246646604 0.6856166436
8550248700.0 0.7328985801 0.6765855102
8600248400.0 0.741274791 0.6671990936
8650248100.0 0.7489377477 0.6576799055
8700247800.0 0.7584602192 0.6465544745
8750247500.0 0.7668036089 0.636348043
8800247200.0 0.774972683 0.6260914741
8850246900.0 0.783630315 0.6145123556
8900246600.0 0.7921080775 0.6031653074
8950246300.0 0.8020283223 0.5901715849
9000246000.0 0.8110757328 0.5774178727
9050245700.0 0.8202493507 0.5643941842
9100245400.0 0.8291139885 0.5520025729
9150245100.0 0.8380369299 0.5381865817
9200244800.0 0.8480090152 0.5229213866
9250244500.0 0.857423909 0.5071533162
9300244200.0 0.8658014203 0.4927675817
9350243900.0 0.8736962816 0.4786956232
9400243600.0 0.880263104 0.4665425468
9450243300.0 0.8860099486 0.4550249801
9500243000.0 0.8924034688 0.4424858897
9550242700.0 0.8958783034 0.4350453692
9600242400.0 0.8997717977 0.4279303237
9650242100.0 0.9033558818 0.4213988242
9700241800.0 0.9082658778 0.4130175764
9750241500.0 0.9119512851 0.4057243481
9800241200.0 0.9167709108 0.3963791673
9850240900.0 0.9226742903 0.3847762453
9900240600.0 0.9278466132 0.3730326539
9950240300.0 0.9349227691 0.3567866431
10000240000.0 0.9394570431 0.3453646941
10050239700.0 0.9451024763 0.3300609341
10100239400.0 0.9499914796 0.3148124137
10150239100.0 0.9542295049 0.2997306275
10200238800.0 0.95853306 0.2848950854
10250238500.0 0.9618595562 0.2714719463
10300238200.0 0.9649763599 0.2575118643
10350237900.0 0.9674501514 0.2445625851
10400237600.0 0.9700007087 0.2312997681
10450237300.0 0.9726518608 0.2179154432
10500237000.0 0.9748418445 0.2055821343
10550236700.0 0.9771088366 0.1915047586
10600236400.0 0.9793202006 0.1781541881
10650236100.0 0.9810792408 0.1631140331
10700235800.0 0.9838097494 0.1508806466
10750235500.0 0.9858989116 0.1376342867
10800235200.0 0.9877171251 0.1236490774
10850234900.0 0.989594178 0.1090341306
10900234600.0 0.9916312435 0.0946420759
10950234300.0 0.9935560827 0.0810638697
11000234000.0 0.9953065657 0.0659555486
11050233700.0 0.9970542426 0.0496222774
11100233400.0 0.9982500932 0.0323014821
11150233100.0 0.9994261055 0.0161593761
11200232800.0 1.000271626 0.0007641358
11250232500.0 1.001717009 -0.0160728245
11300232200.0 1.002006234 -0.0345457025
11350231900.0 1.001633455 -0.0490455734
11400231600.0 1.00159203 -0.0653627722
11450231300.0 1.001279539 -0.0811451524
11500231000.0 0.9995902725 -0.0975502252
11550230700.0 0.9981372218 -0.1116394282
11600230400.0 0.9968212692 -0.1234505479
11650230100.0 0.9949001036 -0.1345814109
11700229800.0 0.9933772641 -0.1491501181
11750229500.0 0.9907788587 -0.1636391015
11800229200.0 0.9879752715 -0.1774973732
11850228900.0 0.9841764422 -0.1899548768
11900228600.0 0.9807275563 -0.1997105073
11950228300.0 0.977623578 -0.209542753
12000228000.0 0.9746831636 -0.2192747331
12050227700.0 0.9707917417 -0.2320452221
12100227400.0 0.9678670327 -0.2425181755
12150227100.0 0.9634632014 -0.2586523466
12200226800.0 0.9590343559 -0.2707065803
12250226500.0 0.9556124028 -0.2830353953
12300226200.0 0.9509458077 -0.2961569091
12350225900.0 0.9457646935 -0.3097209342
12400225600.0 0.9418535616 -0.3215261898
12450225300.0 0.9378415335 -0.3343300055
12500225000.0 0.932168635 -0.3494005046
12550224700.0 0.9265739445 -0.3632493657
12600224400.0 0.9217223369 -0.375678716
12650224100.0 0.9158942063 -0.3901512625
12700223800.0 0.9105865129 -0.4029592791
12750223500.0 0.9050543569 -0.4160361149
12800223200.0 0.8999384368 -0.4284879249
12850222900.0 0.8944727218 -0.4408795199
12900222600.0 0.8886631498 -0.4529402029
12950222300.0 0.8827557334 -0.4656608458
13000222000.0 0.8766149168 -0.4772316711
13050221700.0 0.8701853438 -0.4895968686
13100221400.0 0.8632301329 -0.5016572958
13150221100.0 0.8563193381 -0.5135084392
13200220800.0 0.8493310569 -0.5254425593
13250220500.0 0.841833044 -0.5379182851
13300220200.0 0.8344247993 -0.548641138
13350219900.0 0.8265456832 -0.5604435689
13400219600.0 0.8179552478 -0.5727166478
13450219300.0 0.8085491195 -0.5864545428
13500219000.0 0.7983620317 -0.6006292686
13550218700.0 0.7879715208 -0.6130785463
13600218400.0 0.7779552119 -0.625083355
13650218100.0 0.7674199686 -0.6365518608
13700217800.0 0.7575857022 -0.6487534399
13750217500.0 0.7475829454 -0.6605305915
13800217200.0 0.7358419823 -0.6717270287
13850216900.0 0.7241923731 -0.6830942604
13900216600.0 0.7147562943 -0.6921701898
13950216300.0 0.7038903681 -0.7029672688
14000216000.0 0.6933622877 -0.711405615
14050215700.0 0.6843892192 -0.7198605056
14100215400.0 0.6744571961 -0.7289917262
14150215100.0 0.6654510576 -0.7372161748
14200214800.0 0.6562774833 -0.7458721776
14250214500.0 0.6459530836 -0.7551978759
14300214200.0 0.635693192 -0.7644848521
14350213900.0 0.6245765482 -0.7739272197
14400213600.0 0.6127336402 -0.783852147
14450213300.0 0.5995783982 -0.7940855313
14500213000.0 0.5859512411 -0.8036201208
14550212700.0 0.5739565783 -0.8134074894
14600212400.0 0.5613203121 -0.8221289526
14650212100.0 0.5482850826 -0.8308919523
14700211800.0 0.5349193371 -0.8406558337
14750211500.0 0.5225661661 -0.8485329945
14800211200.0 0.5103326071 -0.8562572949
14850210900.0 0.498130268 -0.8638885818
14900210600.0 0.4850516931 -0.872005775
14950210300.0 0.4714451452 -0.8796834277
15000210000.0 0.4587556094 -0.8864872883
15050209700.0 0.4462066457 -0.8925662939
15100209400.0 0.4332609328 -0.898216226
15150209100.0 0.4204806705 -0.9036141954
15200208800.0 0.4079794186 -0.9091561581
15250208500.0 0.3970039165 -0.9135476398
15300208200.0 0.3841968816 -0.9184453676
15350207900.0 0.3714376629 -0.9231885284
15400207600.0 0.3569901884 -0.9286584122
15450207300.0 0.3419683881 -0.9330247274
15500207000.0 0.32816313 -0.9384439426
15550206700.0 0.3123148636 -0.9430502707
15600206400.0 0.296567469 -0.9477337166
15650206100.0 0.2809379669 -0.9520815327
15700205800.0 0.2670445314 -0.9555089829
15750205500.0 0.252431078 -0.9591546316
15800205200.0 0.238019346 -0.9625024611
15850204900.0 0.2235594003 -0.9659014879
15900204600.0 0.2086506551 -0.9694672284
15950204300.0 0.1945252907 -0.9725596886
16000204000.0 0.1803704508 -0.975133905
16050203700.0 0.1650224161 -0.9782258784
16100203400.0 0.1505706844 -0.9799544508
16150203100.0 0.1365237418 -0.98289482
16200202800.0 0.1223717085 -0.9846025868
16250202500.0 0.1080572893 -0.9866024728
16300202200.0 0.0925933168 -0.9880041082
16350201900.0 0.0775390064 -0.9888285388
16400201600.0 0.062880487 -0.990112918
16450201300.0 0.0478606938 -0.9912254452
16500201000.0 0.0312124415 -0.99200342
16550200700.0 0.0155313771 -0.9925651173
16600200400.0 -0.0001498095 -0.9926401172
16650200100.0 -0.0165262545 -0.9926897912
16700199800.0 -0.0328622674 -0.9923306256
16750199500.0 -0.0514292741 -0.9912005536
16800199200.0 -0.0669478812 -0.990200838
16850198900.0 -0.0826027933 -0.9893354297
16900198600.0 -0.0962905164 -0.9887636149
16950198300.0 -0.1097083801 -0.9872686508
17000198000.0 -0.1227918879 -0.9858173309
17050197700.0 -0.1351033358 -0.9833860226
17100197400.0 -0.1482284946 -0.9817002365
17150197100.0 -0.1606997314 -0.9796387529
17200196800.0 -0.1734338807 -0.9779378766
17250196500.0 -0.186417141 -0.9751981105
17300196200.0 -0.1985756783 -0.9731042124
17350195900.0 -0.2105886844 -0.9707903
17400195600.0 -0.2225567283 -0.9683304144
17450195300.0 -0.235814184 -0.9655220781
17500195000.0 -0.2493410452 -0.9621375486
17550194700.0 -0.2632237834 -0.9584371768
17600194400.0 -0.2774871772 -0.9546333328
17650194100.0 -0.2906518616 -0.9502933266
17700193800.0 -0.3041232693 -0.9458784415
17750193500.0 -0.3181224615 -0.9415688916
17800193200.0 -0.3327896789 -0.9363486017
17850192900.0 -0.3476845 -0.9310369873
17900192600.0 -0.3627453739 -0.9246689006
17950192300.0 -0.3782524954 -0.9179391849
18000192000.0 -0.3931102039 -0.910693953
18050191700.0 -0.4069450399 -0.9026131645
18100191400.0 -0.421135946 -0.8948502804
18150191100.0 -0.4359750464 -0.8867573236
18200190800.0 -0.4530964906 -0.8774978509
18250190500.0 -0.4700727237 -0.8682417102
18300190200.0 -0.4850682631 -0.8594173462
18350189900.0 -0.5003264995 -0.8510480867
18400189600.0 -0.5145004787 -0.8424618646
18450189300.0 -0.5282594043 -0.8347582888
18500189000.0 -0.5411737026 -0.8262915117
18550188700.0 -0.554399625 -0.8188244267
18600188400.0 -0.5657728681 -0.812150578
18650188100.0 -0.5765705134 -0.8058114473
18700187800.0 -0.5875869476 -0.7991527489
18750187500.0 -0.5982488624 -0.7924848252
18800187200.0 -0.6086796871 -0.7856335844
18850186900.0 -0.6189739438 -0.7786099787
18900186600.0 -0.6290503607 -0.77142981
18950186300.0 -0.6392236589 -0.7635807064
19000186000.0 -0.6461196797 -0.7575274794
19050185700.0 -0.6555650754 -0.7501077778
19100185400.0 -0.6653837223 -0.7417624988
19150185100.0 -0.675693978 -0.7333922542
19200184800.0 -0.6854463439 -0.7248672506
19250184500.0 -0.6960194007 -0.7160523132
19300184200.0 -0.7072518874 -0.7057116083
19350183900.0 -0.7174812406 -0.6967624134
19400183600.0 -0.7276821429 -0.6867662456
19450183300.0 -0.736157181 -0.6764883014
19500183000.0 -0.744537775 -0.6667063789
19550182700.0 -0.7543515252 -0.6559301972
19600182400.0 -0.7645599845 -0.6441343177
19650182100.0 -0.7756790385 -0.6318923179
19700181800.0 -0.7864842296 -0.6185554698
19750181500.0 -0.7968450847 -0.6042378921
19800181200.0 -0.8071499124 -0.5894419817
19850180900.0 -0.8168392236 -0.5740478234
19900180600.0 -0.8245540038 -0.5594801069
19950180300.0 -0.8338497786 -0.543160945
20000180000.0 -0.8268043796 -0.5458986683
20050179700.0 -0.834878193 -0.5321012891
20100179400.0 -0.8428309793 -0.5186114823
20150179100.0 -0.8516213695 -0.5066287952
20200178800.0 -0.8597688372 -0.4939198329
20250178500.0 -0.8698646803 -0.4799460194
20300178200.0 -0.8792809258 -0.4653140807
20350177900.0 -0.8878973939 -0.4508441003
20400177600.0 -0.8971839276 -0.4366053744
20450177300.0 -0.9054528743 -0.4216974252
20500177000.0 -0.9132006992 -0.4079825924
20550176700.0 -0.9214436123 -0.3944310066
20600176400.0 -0.9281511825 -0.3810110672
20650176100.0 -0.9350708746 -0.3685505632
20700175800.0 -0.9419883826 -0.3572087328
20750175500.0 -0.9483637038 -0.3458803136
20800175200.0 -0.9520779875 -0.3346032899
20850174900.0 -0.9585223094 -0.3231421928
20900174600.0 -0.9625841206 -0.3124714031
20950174300.0 -0.9668998736 -0.3003508026
21000174000.0 -0.969815768 -0.2885540228
21050173700.0 -0.9732167928 -0.2785121745
21100173400.0 -0.9768371939 -0.2664546945
21150173100.0 -0.9809230992 -0.2530859552
21200172800.0 -0.9843442185 -0.2399328035
21250172500.0 -0.9877661747 -0.2260637326
21300172200.0 -0.9906824114 -0.2120477616
21350171900.0 -0.9922159867 -0.197553272
21400171600.0 -0.9938896616 -0.1837026614
21450171300.0 -0.9937753991 -0.1686507545
21500171000.0 -0.9933693777 -0.1535096842
21550170700.0 -0.9925627909 -0.1383358112
21600170400.0 -0.9924719649 -0.1228629923
21650170100.0 -0.9926014143 -0.1058350297
21700169800.0 -0.9903688165 -0.0919792363
21750169500.0 -0.9882387719 -0.0751030995
21800169200.0 -0.9884441528 -0.0594110962
21850168900.0 -0.9873407829 -0.0425303535
21900168600.0 -0.9861195836 -0.0265554411
21950168300.0 -0.9846329485 -0.0106559902
22000168000.0 -0.9835341639 0.0042537798
22050167700.0 -0.9832182647 0.0186792409
22100167400.0 -0.9829758719 0.03384495
22150167100.0 -0.98431915 0.049358191
22200166800.0 -0.9845761391 0.0657065613
22250166500.0 -0.9834247228 0.0825495552
22300166200.0 -0.9829239313 0.0995550895
22350165900.0 -0.9816496635 0.1159308226
22400165600.0 -0.9802797536 0.1326673149
22450165300.0 -0.978197825 0.1468020671
22500165000.0 -0.9751619044 0.16037304
22550164700.0 -0.9747784929 0.1764015882
22600164400.0 -0.9735596318 0.1910069096
22650164100.0 -0.9710542647 0.2060933854
22700163800.0 -0.9685814744 0.222188075
22750163500.0 -0.9654781114 0.2373638791
22800163200.0 -0.9624576333 0.2507404933
22850162900.0 -0.960512936 0.2638539901
22900162600.0 -0.9593303193 0.2776478258
22950162300.0 -0.9581272557 0.2901628542
23000162000.0 -0.9568655416 0.3019734751
23050161700.0 -0.9550299739 0.3139517279
23100161400.0 -0.9525985424 0.3274932629
23150161100.0 -0.9500012475 0.3393945885
23200160800.0 -0.9472436363 0.3518293216
23250160500.0 -0.9441898223 0.3632345564
23300160200.0 -0.9418925045 0.375510863
23350159900.0 -0.9381009578 0.3888139762
23400159600.0 -0.9333770482 0.4020319479
23450159300.0 -0.9283396422 0.4149634192
23500159000.0 -0.9238085145 0.4277187222
23550158700.0 -0.9196506463 0.4416845398
23600158400.0 -0.9141030836 0.4546542192
23650158100.0 -0.9076351247 0.4687684762
23700157800.0 -0.9001777571 0.4825942574
23750157500.0 -0.8913258223 0.4970190712
23800157200.0 -0.8825476056 0.5102612393
23850156900.0 -0.8739111327 0.5225576028
23900156600.0 -0.8640806819 0.5349883704
23950156300.0 -0.855241164 0.5477937223
24000156000.0 -0.8464805516 0.5594690076
24050155700.0 -0.8359940877 0.5705715542
24100155400.0 -0.8258378311 0.58325442
24150155100.0 -0.8152247854 0.5947690853
24200154800.0 -0.8040560749 0.6060093463
24250154500.0 -0.7926333026 0.6178658221
24300154200.0 -0.7817632929 0.6296142058
24350153900.0 -0.769502759 0.6405052395
24400153600.0 -0.7570463216 0.6505088258
24450153300.0 -0.7453574705 0.6606950079
24500153000.0 -0.7338955445 0.6700762601
24550152700.0 -0.7225038349 0.6797050165
24600152400.0 -0.71100794 0.6887841206
24650152100.0 -0.6998097616 0.6976368458
