!Created with skrf (http://scikit-rf.org).
# Hz S RI R 50.0 
!freq ReS11 ImS11
300000.0 -0.9857163806 -0.0862532737
50299700.0 -0.9999524694 0.0166782752
100299400.0 -0.9980189906 0.0293734461
150299100.0 -1.00259781 0.0461724849
200298800.0 -0.9995125381 0.0595208845
250298500.0 -0.9973331409 0.0728769785
300298200.0 -0.9859903998 0.0887979341
350297900.0 -0.9936714838 0.0997413344
400297600.0 -0.99283759 0.1161783564
450297300.0 -0.9909505628 0.1301040064
500297000.0 -0.9893545021 0.1450238217
550296700.0 -0.984104964 0.1574460242
600296400.0 -1.017042313 0.190651142
650296100.0 -0.9819330984 0.1871958158
700295800.0 -0.9789450268 0.2014226122
750295500.0 -0.9760401805 0.2155422327
800295200.0 -0.9723388885 0.2296431719
850294900.0 -0.9690451316 0.2436689124
900294600.0 -0.9652785745 0.2572409323
950294300.0 -0.96152924 0.2710963445
1000294000.0 -0.9576693548 0.2848734719
1050293700.0 -0.9528274545 0.2988019076
1100293400.0 -0.9487315849 0.3131785219
1150293100.0 -0.9448013578 0.3249742381
1200292800.0 -0.93948917 0.3392671966
1250292500.0 -0.9340455134 0.3526630971
1300292200.0 -0.9282650561 0.3658709311
1350291900.0 -0.9228974544 0.3799221389
1400291600.0 -0.9173496389 0.3928813935
1450291300.0 -0.9118953618 0.4051656665
1500291000.0 -0.9056360399 0.4183694862
1550290700.0 -0.8990678083 0.4318757441
1600290400.0 -0.8929207905 0.4446578918
1650290100.0 -0.8863707329 0.4568906355
1700289800.0 -0.879293111 0.4702076555
1750289500.0 -0.8725377139 0.482645954
1800289200.0 -0.8651102175 0.4954644239
1850288900.0 -0.858216973 0.5067966161
1900288600.0 -0.850572985 0.5197688479
1950288300.0 -0.842370694 0.5323748275
2000288000.0 -0.8348320176 0.5439141351
2050287700.0 -0.8265869727 0.5560626653
2100287400.0 -0.8186365083 0.5678477363
2150287100.0 -0.8099408538 0.5798343354
2200286800.0 -0.8023218418 0.5901125041
2250286500.0 -0.7934550783 0.6022172393
2300286200.0 -0.7843578448 0.613829376
2350285900.0 -0.7757974582 0.6250327327
2400285600.0 -0.7665606879 0.6359244348
2450285300.0 -0.7579235155 0.6465116165
2500285000.0 -0.7481565114 0.6575514608
2550284700.0 -0.7391965252 0.6677992033
2600284400.0 -0.7295197114 0.6782785385
2650284100.0 -0.7206145486 0.688605063
2700283800.0 -0.7100431243 0.6991706184
2750283500.0 -0.6997073427 0.7098704871
2800283200.0 -0.6901076014 0.7195608034
2850282900.0 -0.6796626608 0.7291999827
2900282600.0 -0.6693538212 0.7386580908
2950282300.0 -0.6592312294 0.7478794263
3000282000.0 -0.6486955033 0.7574178594
3050281700.0 -0.637488546 0.7665003511
3100281400.0 -0.6257919479 0.7759495765
3150281100.0 -0.6140197343 0.7851409485
3200280800.0 -0.6024682621 0.793721875
3250280500.0 -0.591637965 0.8014588994
3300280200.0 -0.5804504731 0.8091251444
3350279900.0 -0.5691468245 0.81673245
3400279600.0 -0.5570863956 0.8242978731
3450279300.0 -0.5459533143 0.8315327228
3500279000.0 -0.5339762003 0.8387724204
3550278700.0 -0.5216364806 0.8463350646
3600278400.0 -0.5094435999 0.8533287926
3650278100.0 -0.4960308786 0.8610605156
3700277800.0 -0.4840748853 0.8673280961
3750277500.0 -0.4718346712 0.8738512962
3800277200.0 -0.4592195511 0.8803666349
3850276900.0 -0.4468124726 0.8864994644
3900276600.0 -0.4361820305 0.8920939638
3950276300.0 -0.4232148503 0.8982472597
4000276000.0 -0.4110188821 0.9041886255
4050275700.0 -0.3979072217 0.9102739939
4100275400.0 -0.3863593172 0.9156612622
4150275100.0 -0.3738089809 0.9214010858
4200274800.0 -0.3606568187 0.926865611
4250274500.0 -0.3486040181 0.9317961379
4300274200.0 -0.3356004176 0.9371632387
4350273900.0 -0.3217005493 0.9424653911
4400273600.0 -0.3072127334 0.9472212783
4450273300.0 -0.2918472044 0.9526731295
4500273000.0 -0.2782185082 0.9568280542
4550272700.0 -0.2641674343 0.9608903164
4600272400.0 -0.2487163855 0.9650830973
4650272100.0 -0.236818869 0.968350916
4700271800.0 -0.2235156446 0.9717982307
4750271500.0 -0.2117209807 0.9744881638
4800271200.0 -0.1992415427 0.9772293872
4850270900.0 -0.1852401888 0.9800001698
4900270600.0 -0.1715731687 0.9823798287
4950270300.0 -0.157416403 0.9851250113
5000270000.0 -0.1432925735 0.9871034958
5050269700.0 -0.1297689009 0.9887136301
5100269400.0 -0.1162663704 0.9902329566
5150269100.0 -0.1030365844 0.9920181837
5200268800.0 -0.0897674476 0.9929073375
5250268500.0 -0.0765203544 0.9940057485
5300268200.0 -0.0634845821 0.9947541873
5350267900.0 -0.0514450038 0.995382785
5400267600.0 -0.0352314646 0.9963937239
5450267300.0 -0.0222064589 0.9965657277
5500267000.0 -0.0074334767 0.996870396
5550266700.0 0.0074456761 0.9970006031
5600266400.0 0.0226445009 0.9973422641
5650266100.0 0.0391986457 0.9968519001
5700265800.0 0.0533878563 0.9955099064
5750265500.0 0.0686415323 0.9951705924
5800265200.0 0.0825839805 0.9942549143
5850264900.0 0.0959911256 0.9928030433
5900264600.0 0.1124280796 0.9910906201
5950264300.0 0.1248973195 0.9897035289
6000264000.0 0.1388004785 0.987348604
6050263700.0 0.1520395713 0.9861878899
6100263400.0 0.1640615062 0.9843868959
6150263100.0 0.179063998 0.9818638186
6200262800.0 0.1896640541 0.9799848349
6250262500.0 0.2023972843 0.9774472953
6300262200.0 0.2152735199 0.9747005223
6350261900.0 0.2285655965 0.9717748348
6400261600.0 0.2422068447 0.9684908922
6450261300.0 0.2534941336 0.9654781971
6500261000.0 0.2665483062 0.962094594
6550260700.0 0.2792591628 0.9582681583
6600260400.0 0.2927134636 0.9541883052
6650260100.0 0.3065435469 0.9499032541
6700259800.0 0.3181631233 0.945770684
6750259500.0 0.3322933592 0.9408296564
6800259200.0 0.3452507596 0.9358822042
6850258900.0 0.3571893385 0.9308328286
6900258600.0 0.3696062979 0.9260385346
6950258300.0 0.3819815121 0.9207167386
7000258000.0 0.3940380565 0.9153086686
7050257700.0 0.4061322847 0.9092844212
7100257400.0 0.4189993705 0.9029623707
7150257100.0 0.4292427122 0.897934891
7200256800.0 0.4421889394 0.891624865
7250256500.0 0.4536865023 0.8853385868
7300256200.0 0.4667416679 0.8785867389
7350255900.0 0.47900793 0.8719373627
7400255600.0 0.4917013719 0.8644844532
7450255300.0 0.5069764468 0.855822174
7500255000.0 0.5184412541 0.8487292572
7550254700.0 0.5316887538 0.840240754
7600254400.0 0.5445055774 0.8320564026
7650254100.0 0.5562974456 0.8243004506
7700253800.0 0.5679740491 0.8163272653
7750253500.0 0.5794485251 0.8085562874
7800253200.0 0.5901295755 0.8005390426
7850252900.0 0.6001697942 0.7931874555
7900252600.0 0.6118387316 0.7844799151
7950252300.0 0.6207406112 0.7776989996
8000252000.0 0.6309663222 0.7698407698
8050251700.0 0.6416348305 0.7613132887
8100251400.0 0.6516137691 0.7532749691
8150251100.0 0.6619113475 0.7444914052
8200250800.0 0.6714847811 0.7363740095
8250250500.0 0.6806966894 0.728319846
8300250200.0 0.6898620742 0.7194067903
8350249900.0 0.6990156068 0.7108627551
8400249600.0 0.7072476701 0.7024857984
8450249300.0 0.7163650115 0.6932883512
8500249000.0 0.7254362174 0.6846536545
8550248700.0 0.7337064734 0.6754196797
8600248400.0 0.7422300108 0.6656846978
8650248100.0 0.7498825826 0.6566410158
8700247800.0 0.7594194132 0.64544926
8750247500.0 0.7677901586 0.6355178678
8800247200.0 0.7755699526 0.625122289
8850246900.0 0.7843270485 0.6140889941
8900246600.0 0.7925260923 0.6029390356
8950246300.0 0.8022854829 0.5899568624
9000246000.0 0.8110415246 0.5774655067
9050245700.0 0.8204944469 0.5648049297
9100245400.0 0.8283038025 0.5522132588
9150245100.0 0.8379723323 0.539093659
9200244800.0 0.8474231618 0.5244372533
9250244500.0 0.8562056666 0.5094015423
9300244200.0 0.8648944075 0.4948661475
9350243900.0 0.8727084702 0.480942012
9400243600.0 0.8795719378 0.4681118385
9450243300.0 0.8856203994 0.4559505087
9500243000.0 0.8919730686 0.4432569975
9550242700.0 0.8960927726 0.4346379598
9600242400.0 0.9000972921 0.4264692335
9650242100.0 0.9040125905 0.419608961
9700241800.0 0.9084687507 0.4108117703
9750241500.0 0.9125475271 0.4028121915
9800241200.0 0.9174468003 0.3930235941
9850240900.0 0.9225892031 0.3818937574
9900240600.0 0.9279761279 0.3703784539
9950240300.0 0.9342306262 0.3547281509
10000240000.0 0.9392032522 0.3426102338
10050239700.0 0.944762795 0.3279009624
10100239400.0 0.9495905305 0.3128117949
10150239100.0 0.9539364881 0.2985622292
10200238800.0 0.9579400518 0.2832818257
10250238500.0 0.9615030392 0.2700762178
10300238200.0 0.9647151308 0.2561699774
10350237900.0 0.9673092854 0.2432202438
10400237600.0 0.9701856278 0.2299117422
10450237300.0 0.9729117316 0.2160799984
10500237000.0 0.9752009414 0.2044419822
10550236700.0 0.9775158445 0.1907547032
10600236400.0 0.979550415 0.1774599992
10650236100.0 0.9812627789 0.1626929432
10700235800.0 0.9841335992 0.1504325509
10750235500.0 0.9858126578 0.1379358144
10800235200.0 0.9878349318 0.1233759582
10850234900.0 0.9898574798 0.1091864021
10900234600.0 0.991840788 0.0950181366
10950234300.0 0.9932668876 0.0816373742
11000234000.0 0.9950295067 0.0667863318
11050233700.0 0.9967402289 0.0509019268
11100233400.0 0.9980804009 0.0334476692
11150233100.0 0.9989668761 0.0175155735
11200232800.0 0.999880696 0.0023066664
11250232500.0 1.000505158 -0.0134785468
11300232200.0 1.000848524 -0.0312531196
11350231900.0 1.000722262 -0.047613509
11400231600.0 1.000291793 -0.061463673
11450231300.0 1.000214162 -0.0777649236
11500231000.0 0.998949799 -0.0945991934
11550230700.0 0.9973074838 -0.1088069671
11600230400.0 0.9953993765 -0.1213495014
11650230100.0 0.9937348743 -0.1333195152
11700229800.0 0.9913516419 -0.1484045736
11750229500.0 0.9893439883 -0.1629630674
11800229200.0 0.9864883727 -0.1768525197
11850228900.0 0.9834616992 -0.1894939611
11900228600.0 0.9799158422 -0.1999223323
11950228300.0 0.9765735565 -0.210892962
12000228000.0 0.9737176606 -0.2204254025
12050227700.0 0.9700469521 -0.2334933052
12100227400.0 0.9666444714 -0.2445560873
12150227100.0 0.9624256049 -0.2603002311
12200226800.0 0.9587410544 -0.2716600205
12250226500.0 0.9549000553 -0.2843628856
12300226200.0 0.9511691469 -0.295888648
12350225900.0 0.9459432124 -0.309893063
12400225600.0 0.9418192615 -0.3225000988
12450225300.0 0.9372566843 -0.3351715634
12500225000.0 0.9321050547 -0.3493082659
12550224700.0 0.926918066 -0.3631115519
12600224400.0 0.9220846077 -0.3756072266
12650224100.0 0.9164061031 -0.3895610121
12700223800.0 0.9111558033 -0.4021576451
12750223500.0 0.9057669738 -0.4151484174
12800223200.0 0.9003503129 -0.4276429785
12850222900.0 0.8951649595 -0.4394579905
12900222600.0 0.8891860226 -0.4515830613
12950222300.0 0.882520588 -0.4649768355
13000222000.0 0.8769497874 -0.4761016253
13050221700.0 0.8698146573 -0.4886536035
13100221400.0 0.8631529958 -0.5015338638
13150221100.0 0.8562935743 -0.5137788807
13200220800.0 0.8485114847 -0.5252685134
13250220500.0 0.8415890266 -0.5376258718
13300220200.0 0.8337838134 -0.5485674183
13350219900.0 0.8255752233 -0.5608853479
13400219600.0 0.8170992072 -0.5729657721
13450219300.0 0.8076811118 -0.5865670772
13500219000.0 0.7977599453 -0.6006110954
13550218700.0 0.787042904 -0.6137239027
13600218400.0 0.7768769084 -0.6252376804
13650218100.0 0.7677252478 -0.6363487399
13700217800.0 0.756749923 -0.6489189073
13750217500.0 0.746076077 -0.6602469169
13800217200.0 0.7351137531 -0.6721216771
13850216900.0 0.7241638475 -0.6833130971
13900216600.0 0.7139842902 -0.6919016858
13950216300.0 0.7044662293 -0.7031603579
14000216000.0 0.6940279968 -0.7117463
14050215700.0 0.684407681 -0.719971206
14100215400.0 0.6745980837 -0.7294910955
14150215100.0 0.6653622199 -0.7378297152
14200214800.0 0.6560243538 -0.7462058254
14250214500.0 0.6460288125 -0.7555260335
14300214200.0 0.6357919377 -0.7648199968
14350213900.0 0.6247240258 -0.7740292263
14400213600.0 0.6136012268 -0.7835079134
14450213300.0 0.6005546632 -0.7935218785
14500213000.0 0.5873228354 -0.8034090456
14550212700.0 0.575796319 -0.8121071099
14600212400.0 0.5626657126 -0.8212958037
14650212100.0 0.5499423711 -0.8300059975
14700211800.0 0.5364307652 -0.839171019
14750211500.0 0.5239322034 -0.8472716816
14800211200.0 0.5114759458 -0.8553809687
14850210900.0 0.499163849 -0.8628367397
14900210600.0 0.485874432 -0.8708057182
14950210300.0 0.472309001 -0.8785233295
15000210000.0 0.4592309279 -0.8854280991
15050209700.0 0.4468653385 -0.891906528
15100209400.0 0.4335738724 -0.8978153505
15150209100.0 0.4211867963 -0.9035910104
15200208800.0 0.4078281976 -0.9091419656
15250208500.0 0.3955093623 -0.9139668443
15300208200.0 0.3830633375 -0.9183662979
15350207900.0 0.3702239124 -0.9228116441
15400207600.0 0.355090846 -0.9288716598
15450207300.0 0.3413427112 -0.9343423609
15500207000.0 0.3263824788 -0.9387562518
15550206700.0 0.3118246342 -0.9434427358
15600206400.0 0.2958915251 -0.9478554032
15650206100.0 0.2800958686 -0.9524082214
15700205800.0 0.2664130558 -0.9561287654
15750205500.0 0.2520829403 -0.9593518139
15800205200.0 0.2376745877 -0.9632071204
15850204900.0 0.2236399176 -0.9663167492
15900204600.0 0.208724683 -0.9699115934
15950204300.0 0.1949310245 -0.9727490852
16000204000.0 0.1811993836 -0.9757114084
16050203700.0 0.166289081 -0.9783154825
16100203400.0 0.1521438403 -0.9803108671
16150203100.0 0.13810388 -0.9826926384
16200202800.0 0.1241775044 -0.984755337
16250202500.0 0.1100611185 -0.9865595563
16300202200.0 0.0942973839 -0.9878294052
16350201900.0 0.0796823949 -0.9895663662
16400201600.0 0.0654131373 -0.9903342247
16450201300.0 0.0500874406 -0.9912791324
16500201000.0 0.0336456144 -0.992016425
16550200700.0 0.0179224158 -0.9925356977
16600200400.0 0.0020702487 -0.9926954448
16650200100.0 -0.0140670072 -0.9928084294
16700199800.0 -0.0306476281 -0.9924910761
16750199500.0 -0.0493996621 -0.9917996829
16800199200.0 -0.0656047228 -0.9909355096
16850198900.0 -0.0813444531 -0.9891142848
16900198600.0 -0.0948942841 -0.9888757357
16950198300.0 -0.108294685 -0.9874230313
17000198000.0 -0.1217591881 -0.986366779
17050197700.0 -0.1347346282 -0.9841862617
17100197400.0 -0.1478557536 -0.9816728888
17150197100.0 -0.1606937422 -0.9799507481
17200196800.0 -0.1738680928 -0.9775807117
17250196500.0 -0.1868017755 -0.9751185843
17300196200.0 -0.1993641029 -0.9728094266
17350195900.0 -0.2113673787 -0.970592749
17400195600.0 -0.223769247 -0.9680316079
17450195300.0 -0.2368115965 -0.9651936131
17500195000.0 -0.2505372884 -0.9619198891
17550194700.0 -0.2639272443 -0.9583323676
17600194400.0 -0.2780875658 -0.9539072837
17650194100.0 -0.2918481295 -0.9501118495
17700193800.0 -0.3048210741 -0.9459033844
17750193500.0 -0.3183544179 -0.94101132
17800193200.0 -0.3330044948 -0.9362892631
17850192900.0 -0.347615594 -0.9311401784
17900192600.0 -0.3622553395 -0.9248415127
17950192300.0 -0.3775799291 -0.9179312559
18000192000.0 -0.3920871896 -0.9109369656
18050191700.0 -0.4061054754 -0.9032933971
18100191400.0 -0.4201609632 -0.8957534339
18150191100.0 -0.4349147599 -0.8877988845
18200190800.0 -0.4512865772 -0.8787449657
18250190500.0 -0.4680693317 -0.86984925
18300190200.0 -0.4829761958 -0.8612781747
18350189900.0 -0.4981295639 -0.8525871201
18400189600.0 -0.5127533125 -0.844094781
18450189300.0 -0.5261966923 -0.8362331914
18500189000.0 -0.5395517023 -0.8281234051
18550188700.0 -0.5527315727 -0.8202416214
18600188400.0 -0.5644531589 -0.8130789249
18650188100.0 -0.5754129395 -0.8067141037
18700187800.0 -0.5868462002 -0.7995376122
18750187500.0 -0.597917435 -0.7925271807
18800187200.0 -0.6088458692 -0.7850569992
18850186900.0 -0.6193673914 -0.7777005136
18900186600.0 -0.629682596 -0.7701243375
18950186300.0 -0.6401262159 -0.7620901964
19000186000.0 -0.6476875235 -0.7553571838
19050185700.0 -0.6578375646 -0.7477514126
19100185400.0 -0.6673665832 -0.7392116818
19150185100.0 -0.6781911058 -0.7302012741
19200184800.0 -0.6873613777 -0.7221266245
19250184500.0 -0.6974713557 -0.7127805704
19300184200.0 -0.7085482734 -0.7031027437
19350183900.0 -0.7198360981 -0.6926408243
19400183600.0 -0.7290378776 -0.683147484
19450183300.0 -0.7378354215 -0.6734535942
19500183000.0 -0.7455981285 -0.6632614693
19550182700.0 -0.7555332202 -0.6524670186
19600182400.0 -0.7657561549 -0.6405386218
19650182100.0 -0.7763222981 -0.6288219183
19700181800.0 -0.786513477 -0.6161181239
19750181500.0 -0.7965992051 -0.6026793855
19800181200.0 -0.8067306801 -0.5881873292
19850180900.0 -0.8162100994 -0.5733971497
19900180600.0 -0.8237455736 -0.5594429763
19950180300.0 -0.8330083361 -0.543544449
20000180000.0 -0.828154067 -0.5440909403
20050179700.0 -0.8358096336 -0.5304026378
20100179400.0 -0.8441437429 -0.5178258852
20150179100.0 -0.8521171057 -0.5048206755
20200178800.0 -0.8604380064 -0.4928183581
20250178500.0 -0.8696183578 -0.4789352992
20300178200.0 -0.8788185174 -0.4651610058
20350177900.0 -0.8872430622 -0.4507656956
20400177600.0 -0.8962164392 -0.4362601427
20450177300.0 -0.9042279812 -0.4217170867
20500177000.0 -0.9118635953 -0.4078944659
20550176700.0 -0.9195424017 -0.3944128905
20600176400.0 -0.9265751245 -0.3813400237
20650176100.0 -0.9328400909 -0.3683493161
20700175800.0 -0.9398465807 -0.3559384654
20750175500.0 -0.9466022161 -0.3442040794
20800175200.0 -0.9513160821 -0.3329163485
20850174900.0 -0.9563601228 -0.3215914007
20900174600.0 -0.9603409062 -0.3088939472
20950174300.0 -0.9644214747 -0.2969924079
21000174000.0 -0.9687222564 -0.2860378445
21050173700.0 -0.9713739732 -0.274518619
21100173400.0 -0.9753562585 -0.2619916249
21150173100.0 -0.9791996529 -0.2489868892
21200172800.0 -0.9828356145 -0.2355292297
21250172500.0 -0.9867307105 -0.2215971962
21300172200.0 -0.9896439464 -0.2073512288
21350171900.0 -0.9910426945 -0.1931002318
21400171600.0 -0.9917982367 -0.1788629704
21450171300.0 -0.9930434054 -0.1640436802
21500171000.0 -0.992677412 -0.1492070842
21550170700.0 -0.9930993919 -0.1346659571
21600170400.0 -0.9939354414 -0.1184226545
21650170100.0 -0.9923111903 -0.1035501206
21700169800.0 -0.9906426027 -0.088147055
21750169500.0 -0.9897203584 -0.0725206914
21800169200.0 -0.9878776491 -0.0560153628
21850168900.0 -0.9877494901 -0.0403633485
21900168600.0 -0.986395013 -0.0237984977
21950168300.0 -0.9848414567 -0.0089241923
22000168000.0 -0.9834422056 0.0065888164
22050167700.0 -0.9832410892 0.0201948832
22100167400.0 -0.9831317321 0.0353728069
22150167100.0 -0.9832630515 0.0505029115
22200166800.0 -0.9833339518 0.0663968421
22250166500.0 -0.9824268777 0.0827792019
22300166200.0 -0.9819577229 0.0989772053
22350165900.0 -0.9803338555 0.1158729139
22400165600.0 -0.9781878645 0.1316623328
22450165300.0 -0.9770231557 0.1462167953
22500165000.0 -0.9742395871 0.1584681874
22550164700.0 -0.9741348129 0.1749923982
22600164400.0 -0.9719886948 0.1908654069
22650164100.0 -0.9698757671 0.204496965
22700163800.0 -0.9671710753 0.2204393261
22750163500.0 -0.9648201084 0.2362669263
22800163200.0 -0.961723013 0.2495631663
22850162900.0 -0.9597888143 0.2630818778
22900162600.0 -0.9579946595 0.2765163649
22950162300.0 -0.9565221354 0.2895271542
23000162000.0 -0.9551779824 0.3015607438
23050161700.0 -0.9530197968 0.3145821075
23100161400.0 -0.9504499953 0.3270571208
23150161100.0 -0.9478513234 0.3392851054
23200160800.0 -0.9449301341 0.3519469029
23250160500.0 -0.941989091 0.3633461069
23300160200.0 -0.9398673307 0.374872882
23350159900.0 -0.9355828229 0.3881497178
23400159600.0 -0.9309708314 0.4007611179
23450159300.0 -0.9265244597 0.4135253649
23500159000.0 -0.9217466529 0.4262793851
23550158700.0 -0.917464356 0.4395691386
23600158400.0 -0.9118584312 0.4520595756
23650158100.0 -0.9060079185 0.4659251777
23700157800.0 -0.8982681406 0.4792142315
23750157500.0 -0.8902315801 0.4927663662
23800157200.0 -0.881705871 0.5067353809
23850156900.0 -0.8730705711 0.5186209699
23900156600.0 -0.8638223815 0.5313897666
23950156300.0 -0.854491667 0.5441305478
24000156000.0 -0.8460032164 0.5553654962
24050155700.0 -0.8349415782 0.5680756048
24100155400.0 -0.8262102106 0.5784792559
24150155100.0 -0.8153650249 0.5911865845
24200154800.0 -0.8044168385 0.6016556972
24250154500.0 -0.7934701529 0.6141304115
24300154200.0 -0.782080837 0.6256355705
24350153900.0 -0.7702788993 0.6365383534
24400153600.0 -0.7584558819 0.6467365656
24450153300.0 -0.7467366667 0.6572214542
24500153000.0 -0.7355800897 0.6670361582
24550152700.0 -0.724461832 0.6768492329
24600152400.0 -0.7127485503 0.6869916796
24650152100.0 -0.7011204882 0.6952346815
