!Created with skrf (http://scikit-rf.org).
# Hz S RI R 50.0 
!freq ReS11 ImS11
300000.0 -1.00387498 0.0392455538
50299700.0 -0.997334884 0.0149906759
100299400.0 -0.9954005349 0.0271645706
150299100.0 -1.000028568 0.0438389151
200298800.0 -0.9967699917 0.0569132734
250298500.0 -0.9944417466 0.0700293229
300298200.0 -0.9826148874 0.0856160313
350297900.0 -0.9904610792 0.0961060965
400297600.0 -0.9895929237 0.1121052764
450297300.0 -0.9871197583 0.125658267
500297000.0 -0.9853029808 0.1400184136
550296700.0 -0.9801345437 0.1520059929
600296400.0 -1.012905423 0.1844842406
650296100.0 -0.977871092 0.1808804975
700295800.0 -0.9748225983 0.1948917479
750295500.0 -0.9717356223 0.208657111
800295200.0 -0.9686273428 0.222341642
850294900.0 -0.9655987601 0.2357199733
900294600.0 -0.9616665556 0.2492049115
950294300.0 -0.9584229857 0.2625430428
1000294000.0 -0.9545616996 0.276345517
1050293700.0 -0.9501040773 0.2899199775
1100293400.0 -0.94616473 0.3041270004
1150293100.0 -0.9425497731 0.3158081407
1200292800.0 -0.9375116927 0.3301012014
1250292500.0 -0.9324176759 0.3436506569
1300292200.0 -0.9270356206 0.3567178945
1350291900.0 -0.9218181133 0.3707540855
1400291600.0 -0.9166127565 0.3837119406
1450291300.0 -0.9114539761 0.3959615189
1500291000.0 -0.9055515467 0.409507027
1550290700.0 -0.8992342617 0.4223623031
1600290400.0 -0.8936549109 0.435558426
1650290100.0 -0.887280758 0.4471383483
1700289800.0 -0.8806907492 0.4609396325
1750289500.0 -0.8742631935 0.4727799731
1800289200.0 -0.8670671173 0.4853547813
1850288900.0 -0.8608773463 0.4968633324
1900288600.0 -0.8535149574 0.5095359829
1950288300.0 -0.8459839466 0.5218382041
2000288000.0 -0.8387071968 0.533766581
2050287700.0 -0.8308167128 0.5459355599
2100287400.0 -0.8235839885 0.5566895987
2150287100.0 -0.8149386341 0.5690621316
2200286800.0 -0.8072727098 0.5798725698
2250286500.0 -0.7989129837 0.5916051751
2300286200.0 -0.7908843235 0.6025334155
2350285900.0 -0.7825620034 0.6132426904
2400285600.0 -0.7733815479 0.6246945305
2450285300.0 -0.7642119325 0.6356548243
2500285000.0 -0.755327619 0.6460547757
2550284700.0 -0.7461190205 0.6565192036
2600284400.0 -0.7358211463 0.6673526684
2650284100.0 -0.7276611756 0.6770745486
2700283800.0 -0.7173295031 0.6868436719
2750283500.0 -0.7079325203 0.6969051811
2800283200.0 -0.6975944023 0.7068584729
2850282900.0 -0.6870404197 0.7169064595
2900282600.0 -0.6764032163 0.7267284691
2950282300.0 -0.666144754 0.735770684
3000282000.0 -0.6555824196 0.7456300861
3050281700.0 -0.6445711657 0.7549181305
3100281400.0 -0.6344142806 0.7635701405
3150281100.0 -0.6247050644 0.7719998098
3200280800.0 -0.6133764397 0.7809654324
3250280500.0 -0.6021519496 0.7899416266
3300280200.0 -0.589780969 0.7998762815
3350279900.0 -0.578733152 0.8077746959
3400279600.0 -0.5667952808 0.8165000518
3450279300.0 -0.5549841362 0.8252273448
3500279000.0 -0.5432593438 0.8334446596
3550278700.0 -0.5313036846 0.8411659061
3600278400.0 -0.5213752529 0.8479448476
3650278100.0 -0.5083604167 0.8562546937
3700277800.0 -0.4962045353 0.8633328423
3750277500.0 -0.4843139158 0.8704989835
3800277200.0 -0.4720616979 0.8770767701
3850276900.0 -0.4595587923 0.8836326646
3900276600.0 -0.4473046426 0.8897620189
3950276300.0 -0.4337829018 0.8964328719
4000276000.0 -0.4217657456 0.9023932738
4050275700.0 -0.4081813226 0.90823102
4100275400.0 -0.3970202753 0.9134127857
4150275100.0 -0.3839297505 0.9188143811
4200274800.0 -0.3695744396 0.9242215868
4250274500.0 -0.357682795 0.9285322242
4300274200.0 -0.344850285 0.9331244886
4350273900.0 -0.3310419219 0.9380272266
4400273600.0 -0.3192276148 0.9416892159
4450273300.0 -0.3067074538 0.9459280756
4500273000.0 -0.2948721435 0.9495152041
4550272700.0 -0.2834156079 0.9531085011
4600272400.0 -0.2692523616 0.9568487544
4650272100.0 -0.2569909526 0.960116628
4700271800.0 -0.244078009 0.9634797928
4750271500.0 -0.2297925989 0.96680899
4800271200.0 -0.2148689405 0.9701298962
4850270900.0 -0.2008230765 0.9731724505
4900270600.0 -0.1874711467 0.9756860757
4950270300.0 -0.175202634 0.9782742955
5000270000.0 -0.1616586403 0.9801376265
5050269700.0 -0.147904415 0.9822179591
5100269400.0 -0.1328280166 0.9845599067
5150269100.0 -0.1185065168 0.9867903948
5200268800.0 -0.1043432273 0.9882341246
5250268500.0 -0.0913216715 0.9887719491
5300268200.0 -0.0763442465 0.9903439227
5350267900.0 -0.0631254895 0.9914586148
5400267600.0 -0.0464575456 0.9926318013
5450267300.0 -0.0343295225 0.9926669809
5500267000.0 -0.0201774466 0.993113143
5550266700.0 -0.0088649864 0.9929223049
5600266400.0 0.0046298917 0.9932230857
5650266100.0 0.0182770834 0.9931872773
5700265800.0 0.0303219665 0.9927683944
5750265500.0 0.0430260305 0.9922272369
5800265200.0 0.0554022886 0.991455293
5850264900.0 0.0687914343 0.990843542
5900264600.0 0.0835920211 0.9896222412
5950264300.0 0.0943873538 0.9885721804
6000264000.0 0.1073116056 0.987469469
6050263700.0 0.1197097681 0.9867606913
6100263400.0 0.1339572941 0.9844368953
6150263100.0 0.150025451 0.9822515054
6200262800.0 0.1612023737 0.980439584
6250262500.0 0.1753579474 0.9779281674
6300262200.0 0.1884842529 0.9755222256
6350261900.0 0.2016829293 0.9731285605
6400261600.0 0.2170193638 0.9700357206
6450261300.0 0.2295138369 0.9671182607
6500261000.0 0.2434423878 0.9638522575
6550260700.0 0.2569267624 0.9600118892
6600260400.0 0.2692481076 0.9564618484
6650260100.0 0.2829708791 0.9530357662
6700259800.0 0.2958959204 0.9490763204
6750259500.0 0.3081888711 0.9452396408
6800259200.0 0.3218551054 0.9408301779
6850258900.0 0.3342757837 0.9362102381
6900258600.0 0.3476468203 0.9316005896
6950258300.0 0.3613782528 0.9264835859
7000258000.0 0.3737407406 0.9217415116
7050257700.0 0.3845252937 0.9171932783
7100257400.0 0.3992136801 0.9113328599
7150257100.0 0.4110075812 0.9062513844
7200256800.0 0.4252159725 0.9003856778
7250256500.0 0.4369165202 0.8944795464
7300256200.0 0.4504942801 0.8886133873
7350255900.0 0.4623462175 0.8819369499
7400255600.0 0.4715113732 0.877187727
7450255300.0 0.4840071556 0.8707224032
7500255000.0 0.4951864477 0.8642433068
7550254700.0 0.5052635956 0.8586799075
7600254400.0 0.515937482 0.852490913
7650254100.0 0.5265285661 0.8461032268
7700253800.0 0.5376461791 0.8392776487
7750253500.0 0.5486102892 0.8324849508
7800253200.0 0.5607600147 0.8238940606
7850252900.0 0.5698440001 0.8175256088
7900252600.0 0.5816544384 0.8094779324
7950252300.0 0.5922475485 0.8014980028
8000252000.0 0.6035731587 0.7930593176
8050251700.0 0.6148839382 0.7843341187
8100251400.0 0.6244711563 0.7767871253
8150251100.0 0.6355552448 0.7671950656
8200250800.0 0.6453197024 0.759007777
8250250500.0 0.6563017311 0.7492871704
8300250200.0 0.6665159775 0.7398985275
8350249900.0 0.6762953272 0.7308683321
8400249600.0 0.6861485311 0.721277959
8450249300.0 0.6968510808 0.7105953698
8500249000.0 0.7075847835 0.700359133
8550248700.0 0.7186860412 0.6889301928
8600248400.0 0.7291771135 0.6778422289
8650248100.0 0.7372901694 0.6685703383
8700247800.0 0.7466934372 0.6582673147
8750247500.0 0.7560232206 0.6477290138
8800247200.0 0.7654498255 0.6368689116
8850246900.0 0.7745094344 0.6257739663
8900246600.0 0.7829861132 0.614803604
8950246300.0 0.7917735422 0.6036863282
9000246000.0 0.7982432088 0.5946921084
9050245700.0 0.8050629298 0.5857300331
9100245400.0 0.8136113046 0.5738790375
9150245100.0 0.8203542538 0.5633758726
9200244800.0 0.825329471 0.5563634861
9250244500.0 0.8315916587 0.5471022349
9300244200.0 0.8367487207 0.5391254884
9350243900.0 0.8426462522 0.5293168428
9400243600.0 0.8496167851 0.5181502113
9450243300.0 0.8542844887 0.5103171986
9500243000.0 0.8607191062 0.5004726115
9550242700.0 0.8683377481 0.4879734728
9600242400.0 0.8762574464 0.4739932674
9650242100.0 0.8840975568 0.4592578524
9700241800.0 0.8914167031 0.4452546263
9750241500.0 0.8991890562 0.4288390164
9800241200.0 0.9080241577 0.4097926709
9850240900.0 0.9139457395 0.3945310986
9900240600.0 0.9181025218 0.3847272955
9950240300.0 0.9231969761 0.3720185248
10000240000.0 0.928505446 0.3583468317
10050239700.0 0.9333065755 0.345808828
10100239400.0 0.9369486944 0.3348138467
10150239100.0 0.9408550972 0.3232501347
10200238800.0 0.9455642388 0.3099360436
10250238500.0 0.949819741 0.2969544236
10300238200.0 0.9538314216 0.2841726232
10350237900.0 0.9576882371 0.2716575874
10400237600.0 0.9614655097 0.2587140172
10450237300.0 0.9659233 0.2445734664
10500237000.0 0.969425699 0.2307012889
10550236700.0 0.9725937552 0.2172009658
10600236400.0 0.9758791201 0.2040707053
10650236100.0 0.978797014 0.1881810246
10700235800.0 0.9820949558 0.1728279946
10750235500.0 0.9847712168 0.1593817959
10800235200.0 0.9865226126 0.1460328325
10850234900.0 0.9882804675 0.1332190705
10900234600.0 0.9900549473 0.1194342127
10950234300.0 0.9913106774 0.1049203102
11000234000.0 0.9921219164 0.0912509393
11050233700.0 0.9928096414 0.0795447659
11100233400.0 0.9934980373 0.0664370821
11150233100.0 0.9943030622 0.0536804049
11200232800.0 0.9943394333 0.0420877977
11250232500.0 0.9943017617 0.029228689
11300232200.0 0.9945396024 0.0177634681
11350231900.0 0.9942225126 0.0050716661
11400231600.0 0.9934049304 -0.0070795714
11450231300.0 0.9925314091 -0.0179150674
11500231000.0 0.9921723903 -0.0291929854
11550230700.0 0.9918627309 -0.0413849914
11600230400.0 0.9916504106 -0.057060523
11650230100.0 0.9904163045 -0.0689811126
11700229800.0 0.9894254595 -0.0834893318
11750229500.0 0.9882496058 -0.096661586
11800229200.0 0.9868268703 -0.1073181521
11850228900.0 0.9856897678 -0.1216083723
11900228600.0 0.9845428908 -0.1375431988
11950228300.0 0.982623322 -0.1538485791
12000228000.0 0.9808037632 -0.1696855528
12050227700.0 0.9784446865 -0.1851617852
12100227400.0 0.9763574496 -0.197280286
12150227100.0 0.9727732942 -0.2162287557
12200226800.0 0.9699851381 -0.2277873617
12250226500.0 0.9664185664 -0.2433552782
12300226200.0 0.9642565238 -0.2555011938
12350225900.0 0.9599507603 -0.2727121157
12400225600.0 0.9546882889 -0.2873970743
12450225300.0 0.9509513228 -0.3007465865
12500225000.0 0.9461118504 -0.3153758265
12550224700.0 0.9406656016 -0.3305392578
12600224400.0 0.9369140675 -0.3415953728
12650224100.0 0.9318676544 -0.3551851145
12700223800.0 0.9270549631 -0.3674002739
12750223500.0 0.9215376179 -0.380690968
12800223200.0 0.9154616005 -0.3946613308
12850222900.0 0.9093697642 -0.4080690929
12900222600.0 0.903236205 -0.4212875525
12950222300.0 0.896647196 -0.4350470468
13000222000.0 0.8900991083 -0.4479935261
13050221700.0 0.8830854755 -0.4607273173
13100221400.0 0.8767920161 -0.4721563522
13150221100.0 0.8699750002 -0.4852343577
13200220800.0 0.8627821511 -0.4981320794
13250220500.0 0.8558870366 -0.5105957915
13300220200.0 0.8484794305 -0.5224576879
13350219900.0 0.8402073483 -0.5363649721
13400219600.0 0.83282256 -0.5476817399
13450219300.0 0.8261384382 -0.5579471728
13500219000.0 0.819503605 -0.567272641
13550218700.0 0.8120478941 -0.5779138873
13600218400.0 0.8046448541 -0.5876397789
13650218100.0 0.7984738396 -0.5970235781
13700217800.0 0.7901942939 -0.6083587645
13750217500.0 0.7826799189 -0.6190506862
13800217200.0 0.7745475736 -0.6295206988
13850216900.0 0.765521682 -0.6408048896
13900216600.0 0.7572228868 -0.6494291488
13950216300.0 0.7477207664 -0.6609350835
14000216000.0 0.7382632623 -0.6717843432
14050215700.0 0.7290360006 -0.6815015065
14100215400.0 0.71688331 -0.6946856449
14150215100.0 0.7047951526 -0.7076054939
14200214800.0 0.6936239292 -0.7186555473
14250214500.0 0.6812957458 -0.7300120354
14300214200.0 0.6687518963 -0.7414806517
14350213900.0 0.6570185946 -0.7515084781
14400213600.0 0.6465121366 -0.7604936377
14450213300.0 0.636672836 -0.7689861239
14500213000.0 0.6268035784 -0.7770538529
14550212700.0 0.6163863756 -0.7851366872
14600212400.0 0.6046305422 -0.7938194833
14650212100.0 0.5950417964 -0.8005619394
14700211800.0 0.5843477101 -0.808399269
14750211500.0 0.5730078626 -0.8161559447
14800211200.0 0.5608804324 -0.8246037654
14850210900.0 0.549501401 -0.8317085016
14900210600.0 0.5381939348 -0.8392266581
14950210300.0 0.5267224 -0.8462402995
15000210000.0 0.5150126968 -0.8533144982
15050209700.0 0.5024153621 -0.8609920756
15100209400.0 0.4891859672 -0.8687345937
15150209100.0 0.4773974243 -0.8753942765
15200208800.0 0.4651553451 -0.8823808514
15250208500.0 0.4504446569 -0.8903575106
15300208200.0 0.4361425747 -0.8987659268
15350207900.0 0.4224148043 -0.9039730336
15400207600.0 0.4099255268 -0.9102404253
15450207300.0 0.397329549 -0.9160983279
15500207000.0 0.3855770955 -0.9213850642
15550206700.0 0.3720711852 -0.9274073557
15600206400.0 0.359859437 -0.9325510211
15650206100.0 0.3465101672 -0.9376932343
15700205800.0 0.3325632689 -0.9429756139
15750205500.0 0.3180493405 -0.9482800715
15800205200.0 0.304445579 -0.9530588876
15850204900.0 0.2900474929 -0.9575248453
15900204600.0 0.2738955697 -0.9625125032
15950204300.0 0.2589842596 -0.9665279044
16000204000.0 0.2435723103 -0.9705957637
16050203700.0 0.2282030209 -0.9742546724
16100203400.0 0.2142456081 -0.9774286893
16150203100.0 0.1985390978 -0.9802712108
16200202800.0 0.18271149 -0.9829038887
16250202500.0 0.1674654385 -0.9856357047
16300202200.0 0.1526480189 -0.9878971257
16350201900.0 0.137627297 -0.989705688
16400201600.0 0.121953296 -0.9917810453
16450201300.0 0.1088958531 -0.9927070774
16500201000.0 0.0949366968 -0.9942000655
16550200700.0 0.0812756779 -0.9954627745
16600200400.0 0.0669834738 -0.9966403992
16650200100.0 0.0519287083 -0.9973759732
16700199800.0 0.0394800773 -0.9982998787
16750199500.0 0.0275874748 -0.9990414006
16800199200.0 0.0168118695 -0.9989869428
16850198900.0 0.004140984 -0.9990783249
16900198600.0 -0.0089959517 -0.9990174247
16950198300.0 -0.0238237796 -0.9991402465
17000198000.0 -0.0384571288 -0.9980969372
17050197700.0 -0.0535950052 -0.9973066318
17100197400.0 -0.0713010363 -0.9962102238
17150197100.0 -0.0886051321 -0.9951597925
17200196800.0 -0.1042587215 -0.9938850205
17250196500.0 -0.1195983413 -0.9915657874
17300196200.0 -0.1372160098 -0.98953545
17350195900.0 -0.155036732 -0.9868097589
17400195600.0 -0.1721761281 -0.9837399146
17450195300.0 -0.1886055332 -0.9808334378
17500195000.0 -0.2048437895 -0.9774469041
17550194700.0 -0.220613836 -0.9743046762
17600194400.0 -0.235766495 -0.9706927177
17650194100.0 -0.2514339105 -0.9669477202
17700193800.0 -0.2658852073 -0.9630818327
17750193500.0 -0.2806047449 -0.9591808739
17800193200.0 -0.2948029123 -0.9545977005
17850192900.0 -0.3088788226 -0.9502578907
17900192600.0 -0.3221777066 -0.9461469639
17950192300.0 -0.3356389749 -0.9410090661
18000192000.0 -0.3495713818 -0.9358875305
18050191700.0 -0.3633654066 -0.9304839107
18100191400.0 -0.3770568573 -0.9256618735
18150191100.0 -0.3896395521 -0.9206752777
18200190800.0 -0.4009322532 -0.9155964043
18250190500.0 -0.4123023901 -0.9107843738
18300190200.0 -0.4240294867 -0.9057543827
18350189900.0 -0.4357314689 -0.9009235969
18400189600.0 -0.4474253182 -0.8952536046
18450189300.0 -0.4589349086 -0.889553051
18500189000.0 -0.4695638026 -0.8841976673
18550188700.0 -0.4809446744 -0.8776848808
18600188400.0 -0.4933389323 -0.8700788471
18650188100.0 -0.5056416776 -0.8625210584
18700187800.0 -0.5186572477 -0.8540158068
18750187500.0 -0.5311518472 -0.8456151978
18800187200.0 -0.5436002022 -0.836366831
18850186900.0 -0.556367901 -0.8271054122
18900186600.0 -0.5681007123 -0.8179965027
18950186300.0 -0.5811265128 -0.8082433389
19000186000.0 -0.5954227462 -0.7978455336
19050185700.0 -0.6103530623 -0.7875779605
19100185400.0 -0.6233544635 -0.7773234522
19150185100.0 -0.6364135271 -0.7674588689
19200184800.0 -0.6495210432 -0.7561905764
19250184500.0 -0.6618519584 -0.7442907397
19300184200.0 -0.6738835131 -0.7338848574
19350183900.0 -0.6867374436 -0.7233492682
19400183600.0 -0.6982880829 -0.7117338505
19450183300.0 -0.7112711238 -0.6996576952
19500183000.0 -0.7235207062 -0.6870593501
19550182700.0 -0.7357896506 -0.6746005781
19600182400.0 -0.746420617 -0.6627592739
19650182100.0 -0.7568542491 -0.6505415123
19700181800.0 -0.7664312822 -0.63794813
19750181500.0 -0.7754736399 -0.6263072508
19800181200.0 -0.7840723951 -0.6150193639
19850180900.0 -0.7924387631 -0.6036744848
19900180600.0 -0.7997624658 -0.5941296079
19950180300.0 -0.8086441608 -0.5828529984
20000180000.0 -0.8239995775 -0.5659702351
20050179700.0 -0.8314132102 -0.5556907309
20100179400.0 -0.8405448251 -0.5423748329
20150179100.0 -0.8477161322 -0.530511019
20200178800.0 -0.8545895357 -0.5180236867
20250178500.0 -0.861108925 -0.5058185616
20300178200.0 -0.8661776393 -0.4943683736
20350177900.0 -0.8706935762 -0.4833184544
20400177600.0 -0.8755988439 -0.4728756991
20450177300.0 -0.8800001063 -0.4622328875
20500177000.0 -0.8844042759 -0.4510378674
20550176700.0 -0.8891032886 -0.4392445792
20600176400.0 -0.8937361882 -0.4269557044
20650176100.0 -0.898395087 -0.4143364471
20700175800.0 -0.9035233661 -0.4013384184
20750175500.0 -0.9096800414 -0.3872258817
20800175200.0 -0.9128557978 -0.374127372
20850174900.0 -0.9180422487 -0.360216062
20900174600.0 -0.9229173159 -0.3447112029
20950174300.0 -0.9278561176 -0.3303508738
21000174000.0 -0.9320814235 -0.3155898514
21050173700.0 -0.9366577201 -0.299977235
21100173400.0 -0.9402378598 -0.2836250852
21150173100.0 -0.9445038584 -0.2677493383
21200172800.0 -0.9480027487 -0.2513008407
21250172500.0 -0.9520811278 -0.2363296081
21300172200.0 -0.9559401881 -0.2213605755
21350171900.0 -0.9595596275 -0.206096528
21400171600.0 -0.9633504618 -0.1911218877
21450171300.0 -0.9671017006 -0.1761194714
21500171000.0 -0.969366905 -0.1619439217
21550170700.0 -0.9734514093 -0.1485711174
21600170400.0 -0.9785283488 -0.1344696299
21650170100.0 -0.9829851019 -0.1207929416
21700169800.0 -0.9860137569 -0.1073000747
21750169500.0 -0.9890712528 -0.0917882137
21800169200.0 -0.9927685115 -0.0777579848
21850168900.0 -0.9968318448 -0.0658157148
21900168600.0 -0.9999699147 -0.05387787
21950168300.0 -1.002563836 -0.0404258512
22000168000.0 -1.005703688 -0.0274757832
22050167700.0 -1.007513361 -0.0130309292
22100167400.0 -1.008263173 0.0029034538
22150167100.0 -1.00844353 0.0172324391
22200166800.0 -1.007248043 0.0300621589
22250166500.0 -1.005035007 0.0427333767
22300166200.0 -1.005217063 0.0542581325
22350165900.0 -1.004097528 0.0660860816
22400165600.0 -1.003604194 0.0774020362
22450165300.0 -1.003645114 0.090255625
22500165000.0 -1.002154737 0.1018265948
22550164700.0 -0.9999581631 0.1161088449
22600164400.0 -0.9978980581 0.1286147942
22650164100.0 -0.9949985307 0.1386368879
22700163800.0 -0.992064269 0.1493641419
22750163500.0 -0.9900254252 0.1623443879
22800163200.0 -0.9859484183 0.1742380142
22850162900.0 -0.9826103169 0.1869228201
22900162600.0 -0.9785228045 0.2000498245
22950162300.0 -0.973178383 0.2142329141
23000162000.0 -0.9669496449 0.2285918605
23050161700.0 -0.9602300884 0.2438506829
23100161400.0 -0.9542618522 0.2585625624
23150161100.0 -0.9482540524 0.2726516081
23200160800.0 -0.9423572914 0.2880545531
23250160500.0 -0.9352423413 0.3037601133
23300160200.0 -0.9291213731 0.3192092872
23350159900.0 -0.9215239255 0.3346136256
23400159600.0 -0.9155247259 0.3481146945
23450159300.0 -0.9102504319 0.3603698475
23500159000.0 -0.9037634872 0.3740972757
23550158700.0 -0.8969628618 0.3877125699
23600158400.0 -0.8896376517 0.400290783
23650158100.0 -0.8831838176 0.4123416083
23700157800.0 -0.87675182 0.4237473711
23750157500.0 -0.8710880935 0.4348997746
23800157200.0 -0.865785917 0.445749376
23850156900.0 -0.8615413068 0.4567159005
23900156600.0 -0.8568533792 0.4675210692
23950156300.0 -0.8521771665 0.4785222671
24000156000.0 -0.846892904 0.4898559567
24050155700.0 -0.8423217354 0.5001268561
24100155400.0 -0.8375905364 0.5103219843
24150155100.0 -0.8332440815 0.5211901553
24200154800.0 -0.828479427 0.5310349417
24250154500.0 -0.8240981544 0.5409287177
24300154200.0 -0.819786873 0.5509582448
24350153900.0 -0.8153002274 0.5606543253
24400153600.0 -0.809659114 0.5713979226
24450153300.0 -0.8044732122 0.5814184822
24500153000.0 -0.7987030149 0.5911667576
24550152700.0 -0.7925690561 0.601413859
24600152400.0 -0.7861315438 0.611312412
24650152100.0 -0.7788140324 0.6215958592
