!Created with skrf (http://scikit-rf.org).
# Hz S RI R 50.0 
!freq ReS11 ImS11
300000.0 -0.9796596056 -0.1084023379
50299700.0 -1.000004877 0.0161147267
100299400.0 -0.99805151 0.028929631
150299100.0 -1.002839587 0.0458261663
200298800.0 -0.9997598987 0.0592212485
250298500.0 -0.9975626174 0.0725239766
300298200.0 -0.9860259627 0.0884213359
350297900.0 -0.993974691 0.0994253564
400297600.0 -0.993018487 0.1157328228
450297300.0 -0.9911339784 0.1296511831
500297000.0 -0.9895246697 0.1445856646
550296700.0 -0.9842312195 0.1569851991
600296400.0 -1.017052002 0.1902585645
650296100.0 -0.9820487877 0.1870112663
700295800.0 -0.9792487153 0.2011397139
750295500.0 -0.9761800455 0.2152791769
800295200.0 -0.9729618727 0.2293685471
850294900.0 -0.9694710211 0.2431869119
900294600.0 -0.9657184066 0.2567265562
950294300.0 -0.9618963458 0.2705178856
1000294000.0 -0.957922172 0.2846298113
1050293700.0 -0.9532420666 0.2984443371
1100293400.0 -0.9492718645 0.3129129828
1150293100.0 -0.9451853454 0.324679109
1200292800.0 -0.9399821612 0.3390411114
1250292500.0 -0.9341362591 0.35245053
1300292200.0 -0.9288008618 0.3655344935
1350291900.0 -0.9230982544 0.3795617605
1400291600.0 -0.9175837 0.3928127234
1450291300.0 -0.9122868185 0.4050822019
1500291000.0 -0.9059033825 0.4185435389
1550290700.0 -0.8994404217 0.4318268601
1600290400.0 -0.8931632098 0.4448776744
1650290100.0 -0.8865609827 0.4568926977
1700289800.0 -0.8797634405 0.4702324127
1750289500.0 -0.8724807208 0.4826646253
1800289200.0 -0.8651128339 0.4955275086
1850288900.0 -0.8585776698 0.5066877134
1900288600.0 -0.8506492844 0.5198518585
1950288300.0 -0.8423310489 0.5323047779
2000288000.0 -0.8349920593 0.5436601699
2050287700.0 -0.8268058194 0.5560650417
2100287400.0 -0.8187733264 0.5678565316
2150287100.0 -0.8100365068 0.5796677688
2200286800.0 -0.8024276013 0.5899664411
2250286500.0 -0.7935508323 0.6022025439
2300286200.0 -0.7846363093 0.613826793
2350285900.0 -0.7758735987 0.6249176081
2400285600.0 -0.7668619375 0.6358420411
2450285300.0 -0.758160148 0.6462937219
2500285000.0 -0.7484218742 0.6574349694
2550284700.0 -0.7395695028 0.6679003814
2600284400.0 -0.7301011371 0.6781166939
2650284100.0 -0.7211859059 0.6883493327
2700283800.0 -0.7105609793 0.6989022939
2750283500.0 -0.700305709 0.7097156536
2800283200.0 -0.6903664928 0.7193861431
2850282900.0 -0.6803020626 0.7292123294
2900282600.0 -0.6695687896 0.7385790028
2950282300.0 -0.6597609561 0.7478605608
3000282000.0 -0.6489172166 0.7573430216
3050281700.0 -0.6378319384 0.7666095392
3100281400.0 -0.6259553478 0.7761814385
3150281100.0 -0.6141364549 0.7852601404
3200280800.0 -0.6025585632 0.7939401361
3250280500.0 -0.5917214972 0.801396165
3300280200.0 -0.5805432463 0.809260181
3350279900.0 -0.5689937007 0.8167786731
3400279600.0 -0.5568923658 0.8246262281
3450279300.0 -0.5456262154 0.831628683
3500279000.0 -0.5337387113 0.838859494
3550278700.0 -0.5213160007 0.8461176568
3600278400.0 -0.5090131648 0.8532994737
3650278100.0 -0.4958213704 0.8610387096
3700277800.0 -0.4837231762 0.8673835145
3750277500.0 -0.4713360527 0.8736746873
3800277200.0 -0.4589513847 0.8804660298
3850276900.0 -0.4468386643 0.8865438312
3900276600.0 -0.4358958787 0.8920811958
3950276300.0 -0.423281099 0.8978857068
4000276000.0 -0.4115578752 0.9042546002
4050275700.0 -0.3984121031 0.9100509144
4100275400.0 -0.3871687302 0.9154975837
4150275100.0 -0.3745204378 0.9211202719
4200274800.0 -0.3612446771 0.9265832202
4250274500.0 -0.3491957105 0.9314752053
4300274200.0 -0.33641436 0.9370001575
4350273900.0 -0.3225826869 0.9423654262
4400273600.0 -0.3074739373 0.9472332362
4450273300.0 -0.2920564116 0.9525700932
4500273000.0 -0.2783615055 0.9570019165
4550272700.0 -0.2642870042 0.961030036
4600272400.0 -0.2489206547 0.9653333205
4650272100.0 -0.2371357087 0.9684617494
4700271800.0 -0.2239474806 0.9718807595
4750271500.0 -0.2121400216 0.9747366651
4800271200.0 -0.1995367598 0.9774286222
4850270900.0 -0.1856718291 0.9802730571
4900270600.0 -0.1719830941 0.9825679136
4950270300.0 -0.1576658784 0.9851948629
5000270000.0 -0.1433458985 0.9872536785
5050269700.0 -0.1299211323 0.9888713839
5100269400.0 -0.1164180486 0.9905497292
5150269100.0 -0.1032047686 0.9924720321
5200268800.0 -0.0898778378 0.9930555608
5250268500.0 -0.0769475729 0.9939375769
5300268200.0 -0.063802252 0.9948946204
5350267900.0 -0.0517504214 0.9953989511
5400267600.0 -0.0354429769 0.9966458538
5450267300.0 -0.0222825851 0.9966871952
5500267000.0 -0.0071622913 0.9971029782
5550266700.0 0.0078747559 0.9974720002
5600266400.0 0.0232210932 0.9972350143
5650266100.0 0.0400406181 0.9969717609
5700265800.0 0.0543730854 0.9958790723
5750265500.0 0.0697014779 0.995300812
5800265200.0 0.0833612417 0.9939016507
5850264900.0 0.0968885298 0.9933357343
5900264600.0 0.1136413698 0.9917338954
5950264300.0 0.1257012679 0.9900265419
6000264000.0 0.1396918881 0.9882876363
6050263700.0 0.1521302445 0.9864721048
6100263400.0 0.1649223386 0.9849151983
6150263100.0 0.1791747387 0.9823485192
6200262800.0 0.1896787317 0.9804496581
6250262500.0 0.202300919 0.9780326458
6300262200.0 0.2153449817 0.9752310813
6350261900.0 0.2282982244 0.9721646851
6400261600.0 0.2421312698 0.9690014491
6450261300.0 0.2534395303 0.9662443479
6500261000.0 0.2662832311 0.9627586813
6550260700.0 0.2792456509 0.9587109975
6600260400.0 0.2926333071 0.9546355455
6650260100.0 0.3062540365 0.9501723923
6700259800.0 0.3183384886 0.9458067571
6750259500.0 0.3322674988 0.9413124356
6800259200.0 0.3453597964 0.9362435025
6850258900.0 0.3576017422 0.9312204197
6900258600.0 0.3694104866 0.9261605442
6950258300.0 0.3819998362 0.9206647857
7000258000.0 0.3939108051 0.9154219869
7050257700.0 0.4062291823 0.9093417928
7100257400.0 0.4188036645 0.9030855141
7150257100.0 0.429419791 0.8978783339
7200256800.0 0.4420794101 0.8914176492
7250256500.0 0.4538765831 0.8850954834
7300256200.0 0.4668339614 0.8783978511
7350255900.0 0.4792677925 0.8714172597
7400255600.0 0.4921228876 0.8639937803
7450255300.0 0.5076163995 0.8552245627
7500255000.0 0.5191720973 0.8480336046
7550254700.0 0.5334796876 0.8395192007
7600254400.0 0.5459097855 0.8312525519
7650254100.0 0.5575181857 0.8232614712
7700253800.0 0.569466011 0.8153492354
7750253500.0 0.5803965975 0.8077387084
7800253200.0 0.5913482826 0.7997647882
7850252900.0 0.6012353805 0.7926714823
7900252600.0 0.6126669433 0.7838308892
7950252300.0 0.6216944828 0.7770588775
8000252000.0 0.6317386516 0.769384622
8050251700.0 0.6422743543 0.7611413512
8100251400.0 0.6522351477 0.7530494528
8150251100.0 0.6627037362 0.7442853867
8200250800.0 0.671816699 0.73625515
8250250500.0 0.6805459992 0.7283988414
8300250200.0 0.6900047227 0.7198808744
8350249900.0 0.6991956748 0.7109508386
8400249600.0 0.7076723383 0.7030635232
8450249300.0 0.7165518452 0.6940370777
8500249000.0 0.7250178767 0.684987444
8550248700.0 0.733317897 0.676011988
8600248400.0 0.7418971156 0.6664964008
8650248100.0 0.7495679943 0.6571262726
8700247800.0 0.7590350905 0.6458339158
8750247500.0 0.7673723683 0.6358152438
8800247200.0 0.7755247836 0.6253983822
8850246900.0 0.7841094381 0.6140929709
8900246600.0 0.7924456705 0.6029389758
8950246300.0 0.8021440332 0.5896854183
9000246000.0 0.8114566496 0.5772136801
9050245700.0 0.8204310815 0.5642139135
9100245400.0 0.8289337128 0.5515905653
9150245100.0 0.8384709649 0.537898788
9200244800.0 0.8483652481 0.5226809542
9250244500.0 0.857574119 0.5071107259
9300244200.0 0.8661492744 0.4922620353
9350243900.0 0.8738608366 0.4786342475
9400243600.0 0.8803012901 0.4661889582
9450243300.0 0.8863318055 0.4543734652
9500243000.0 0.8927475087 0.4419604686
9550242700.0 0.8964756453 0.4343055538
9600242400.0 0.9004054002 0.4266851916
9650242100.0 0.9038183548 0.4201810292
9700241800.0 0.9084741577 0.4121410653
9750241500.0 0.9124899021 0.4044719364
9800241200.0 0.9168807907 0.3952968857
9850240900.0 0.9226299246 0.3836544975
9900240600.0 0.9280141397 0.3721366178
9950240300.0 0.9349003744 0.3556887122
10000240000.0 0.9391920191 0.3446251278
10050239700.0 0.9450353741 0.3291789625
10100239400.0 0.9500630296 0.3135683081
10150239100.0 0.9543074683 0.2990499642
10200238800.0 0.9585809994 0.2840362099
10250238500.0 0.9618050519 0.2706550471
10300238200.0 0.9649565902 0.2568504772
10350237900.0 0.9674757015 0.2437509447
10400237600.0 0.9700782284 0.2305048402
10450237300.0 0.9727124117 0.216933512
10500237000.0 0.9749459245 0.2048878533
10550236700.0 0.9770536342 0.1909368992
10600236400.0 0.9793933289 0.177404611
10650236100.0 0.9814396879 0.1630281613
10700235800.0 0.9831736849 0.1512316372
10750235500.0 0.9855342869 0.1376986899
10800235200.0 0.9875740252 0.1236139902
10850234900.0 0.9897789609 0.1085883851
10900234600.0 0.9920096294 0.0940795582
10950234300.0 0.9935280956 0.0809787454
11000234000.0 0.9951887494 0.0659691633
11050233700.0 0.9968871677 0.0495592727
11100233400.0 0.9983368703 0.0322869902
11150233100.0 0.9993088235 0.0156449543
11200232800.0 0.9999302484 0.0009298765
11250232500.0 1.001100967 -0.0160263197
11300232200.0 1.001203355 -0.0342913257
11350231900.0 1.001307921 -0.0493502193
11400231600.0 1.001059724 -0.0645454597
11450231300.0 1.000588155 -0.0808613159
11500231000.0 0.9993660051 -0.0970815514
11550230700.0 0.9976536739 -0.1107721172
11600230400.0 0.9964947011 -0.1236751307
11650230100.0 0.9942124167 -0.1349041924
11700229800.0 0.9925148444 -0.1500356364
11750229500.0 0.9901979691 -0.1649016066
11800229200.0 0.9874957124 -0.1782499842
11850228900.0 0.9840453288 -0.1907172075
11900228600.0 0.9805490563 -0.200407953
11950228300.0 0.9773252735 -0.2105690394
12000228000.0 0.9742113527 -0.2201689278
12050227700.0 0.9701033226 -0.2332336556
12100227400.0 0.9675655477 -0.2433026946
12150227100.0 0.9626027147 -0.2604200149
12200226800.0 0.9590424413 -0.2707205152
12250226500.0 0.9549890027 -0.2841159787
12300226200.0 0.9509479479 -0.2960752515
12350225900.0 0.945847174 -0.3099512425
12400225600.0 0.9414077641 -0.3222871311
12450225300.0 0.9370518509 -0.3356480981
12500225000.0 0.9316798195 -0.3501721373
12550224700.0 0.9265965067 -0.3630885735
12600224400.0 0.9217336144 -0.3760221063
12650224100.0 0.9158022458 -0.3905646806
12700223800.0 0.9104565575 -0.4033185452
12750223500.0 0.9049996835 -0.4163231058
12800223200.0 0.8995998238 -0.4286174334
12850222900.0 0.894573335 -0.4408217495
12900222600.0 0.8885855868 -0.4533049043
12950222300.0 0.8823439468 -0.4660800577
13000222000.0 0.8765774476 -0.4770577324
13050221700.0 0.8695021457 -0.4902972855
13100221400.0 0.8629648026 -0.5021367519
13150221100.0 0.8562052801 -0.5139678985
13200220800.0 0.8490570234 -0.5259118487
13250220500.0 0.8414437294 -0.5381774642
13300220200.0 0.8341076018 -0.5491556502
13350219900.0 0.8258417269 -0.5613648167
13400219600.0 0.8175031632 -0.57302851
13450219300.0 0.8081016755 -0.5868264439
13500219000.0 0.7977756402 -0.6010135556
13550218700.0 0.7872920699 -0.6136441598
13600218400.0 0.7774582677 -0.625550027
13650218100.0 0.7679748108 -0.6374002841
13700217800.0 0.7564877668 -0.6495547786
13750217500.0 0.746919056 -0.6606465437
13800217200.0 0.7353461053 -0.6723123064
13850216900.0 0.7239844883 -0.683980139
13900216600.0 0.7148564331 -0.6925891771
13950216300.0 0.7041872999 -0.7034147791
14000216000.0 0.6933772104 -0.7125668845
14050215700.0 0.6837724151 -0.7205689681
14100215400.0 0.673717864 -0.7295980247
14150215100.0 0.6647927489 -0.7380574874
14200214800.0 0.6554909312 -0.7465358075
14250214500.0 0.6454613169 -0.755717599
14300214200.0 0.635108132 -0.7649819835
14350213900.0 0.6240257925 -0.7744916923
14400213600.0 0.6123927681 -0.7839235592
14450213300.0 0.5993977423 -0.7942744294
14500213000.0 0.5858628196 -0.8040501582
14550212700.0 0.5738062623 -0.8135270027
14600212400.0 0.5611399763 -0.8225143668
14650212100.0 0.5484302624 -0.8310819186
14700211800.0 0.5341251446 -0.8401996458
14750211500.0 0.5222683552 -0.8489609583
14800211200.0 0.5102779327 -0.8563511566
14850210900.0 0.4979378515 -0.8639713666
14900210600.0 0.4845485721 -0.8720714657
14950210300.0 0.4710827286 -0.8797307211
15000210000.0 0.4581466985 -0.8866012604
15050209700.0 0.4456587983 -0.8925230521
15100209400.0 0.433071678 -0.8985540039
15150209100.0 0.4202581098 -0.9038407649
15200208800.0 0.4070989455 -0.9096276065
15250208500.0 0.3959838833 -0.9140140516
15300208200.0 0.3835824775 -0.9190934605
15350207900.0 0.3709736931 -0.9239605138
15400207600.0 0.3559215971 -0.9289574659
15450207300.0 0.3411473358 -0.9340324433
15500207000.0 0.3260509536 -0.9387402271
15550206700.0 0.3113850592 -0.9435992441
15600206400.0 0.2959128381 -0.9476823494
15650206100.0 0.280031976 -0.9519345228
15700205800.0 0.2661715157 -0.9560657182
15750205500.0 0.2513239065 -0.959367906
15800205200.0 0.2368041351 -0.9627662778
15850204900.0 0.2224782878 -0.9662424317
15900204600.0 0.2076072024 -0.9697864413
15950204300.0 0.1933510599 -0.9726025198
16000204000.0 0.1796472446 -0.9754258479
16050203700.0 0.1647991399 -0.9781213551
16100203400.0 0.1503727469 -0.9806121131
16150203100.0 0.1362204914 -0.9827277481
16200202800.0 0.1217393924 -0.9843329898
16250202500.0 0.1074749846 -0.9862821518
16300202200.0 0.0923048477 -0.987925384
16350201900.0 0.077848542 -0.9891812789
16400201600.0 0.0629739072 -0.9902666179
16450201300.0 0.0476918098 -0.9912703584
16500201000.0 0.0313483823 -0.9920050106
16550200700.0 0.0155005444 -0.9925389877
16600200400.0 -0.0002815074 -0.9928205374
16650200100.0 -0.016445564 -0.9925651772
16700199800.0 -0.0328971731 -0.9918314524
16750199500.0 -0.0518591097 -0.9915695515
16800199200.0 -0.0685428182 -0.9901865679
16850198900.0 -0.0830892655 -0.9890202535
16900198600.0 -0.0967955087 -0.9884157684
16950198300.0 -0.1103073824 -0.9876740204
17000198000.0 -0.1232883574 -0.9856180986
17050197700.0 -0.1358047255 -0.9839842513
17100197400.0 -0.1492551712 -0.9810897615
17150197100.0 -0.1616876481 -0.979573574
17200196800.0 -0.1747017791 -0.9775433184
17250196500.0 -0.1873797955 -0.9750694716
17300196200.0 -0.1995064944 -0.9729565902
17350195900.0 -0.2115130196 -0.9706070471
17400195600.0 -0.2236691433 -0.9680148075
17450195300.0 -0.2368545132 -0.965289712
17500195000.0 -0.2502667592 -0.9620118186
17550194700.0 -0.2642439804 -0.9583427339
17600194400.0 -0.2781078726 -0.9543265814
17650194100.0 -0.2919816219 -0.9504220133
17700193800.0 -0.3046247757 -0.9459628895
17750193500.0 -0.3187678543 -0.9412340274
17800193200.0 -0.3330070007 -0.936599843
17850192900.0 -0.348101269 -0.9307370473
17900192600.0 -0.3632852018 -0.9247607943
17950192300.0 -0.3788975857 -0.917467724
18000192000.0 -0.3932720968 -0.9104760534
18050191700.0 -0.4072351419 -0.9023294533
18100191400.0 -0.4212703518 -0.8948716822
18150191100.0 -0.4362105654 -0.8866413851
18200190800.0 -0.4529798843 -0.8774200947
18250190500.0 -0.4703757081 -0.8678376775
18300190200.0 -0.4855461686 -0.8593968948
18350189900.0 -0.5003357064 -0.8505394485
18400189600.0 -0.5146971135 -0.8423611393
18450189300.0 -0.5283308538 -0.8342924245
18500189000.0 -0.5410390031 -0.8265004023
18550188700.0 -0.5543922936 -0.8188905983
18600188400.0 -0.5662349133 -0.8120294993
18650188100.0 -0.5771963587 -0.8051610006
18700187800.0 -0.588030679 -0.7985842264
18750187500.0 -0.5989179134 -0.7917424035
18800187200.0 -0.6092917403 -0.7848926115
18850186900.0 -0.6197840748 -0.7778030209
18900186600.0 -0.6302759166 -0.7703076063
18950186300.0 -0.6400536939 -0.7626294373
19000186000.0 -0.6476861951 -0.7559229809
19050185700.0 -0.6569407708 -0.7490407075
19100185400.0 -0.6671524624 -0.7403055679
19150185100.0 -0.6772618489 -0.7319052161
19200184800.0 -0.6870442697 -0.7233836188
19250184500.0 -0.6971956974 -0.7149137966
19300184200.0 -0.7087756502 -0.7044121264
19350183900.0 -0.7192629967 -0.6947856896
19400183600.0 -0.7289398226 -0.6850021581
19450183300.0 -0.7370792241 -0.6750477431
19500183000.0 -0.7460311574 -0.665502652
19550182700.0 -0.7557300874 -0.6543456063
19600182400.0 -0.7654478515 -0.6426879291
19650182100.0 -0.7766574051 -0.6306933262
19700181800.0 -0.7868799122 -0.6170903824
19750181500.0 -0.7974469383 -0.6034482018
19800181200.0 -0.8077216814 -0.5883329765
19850180900.0 -0.8173519844 -0.5731426846
19900180600.0 -0.8251636753 -0.558690287
19950180300.0 -0.8339581167 -0.5424094503
20000180000.0 -0.8273891622 -0.5446813612
20050179700.0 -0.8351008854 -0.5314083639
20100179400.0 -0.8434920546 -0.5179561953
20150179100.0 -0.8520069921 -0.5060080811
20200178800.0 -0.8599690159 -0.4924020573
20250178500.0 -0.8696769503 -0.478912162
20300178200.0 -0.8792925433 -0.4645699613
20350177900.0 -0.8883017486 -0.4502503261
20400177600.0 -0.8974389069 -0.4353447499
20450177300.0 -0.905364413 -0.4213688549
20500177000.0 -0.913366206 -0.4072234816
20550176700.0 -0.9212042841 -0.3938315949
20600176400.0 -0.9280904889 -0.3807012213
20650176100.0 -0.9350596237 -0.3679397006
20700175800.0 -0.940802384 -0.3562539872
20750175500.0 -0.9479752701 -0.3449602603
20800175200.0 -0.9523696475 -0.3326720722
20850174900.0 -0.9585120392 -0.3218087214
20900174600.0 -0.9628871774 -0.3112679352
20950174300.0 -0.9666394985 -0.2984536027
21000174000.0 -0.9696986271 -0.2866873918
21050173700.0 -0.9729953146 -0.2759299007
21100173400.0 -0.9772395598 -0.2644431892
21150173100.0 -0.9814211253 -0.2517419049
21200172800.0 -0.9848939266 -0.2372599634
21250172500.0 -0.9881049377 -0.2241771356
21300172200.0 -0.9905902997 -0.2097625169
21350171900.0 -0.9926173623 -0.1953671942
21400171600.0 -0.9937538688 -0.1806973741
21450171300.0 -0.993671902 -0.1667120368
21500171000.0 -0.9935309216 -0.1518531163
21550170700.0 -0.9931867988 -0.1349801667
21600170400.0 -0.9928110423 -0.1203043273
21650170100.0 -0.9924870814 -0.1040127847
21700169800.0 -0.9901528606 -0.08882791
21750169500.0 -0.9885072672 -0.073835369
21800169200.0 -0.9882931988 -0.0586652369
21850168900.0 -0.9869422825 -0.0407164429
21900168600.0 -0.985352246 -0.0244489871
21950168300.0 -0.9838714517 -0.0091435655
22000168000.0 -0.9827053189 0.0057619417
22050167700.0 -0.9824367801 0.0201513977
22100167400.0 -0.9824196749 0.0354218779
22150167100.0 -0.9831598463 0.0509360806
22200166800.0 -0.9833448731 0.0668707341
22250166500.0 -0.9827245614 0.0840714976
22300166200.0 -0.9824053353 0.1009059466
22350165900.0 -0.9805024051 0.1176801531
22400165600.0 -0.979037095 0.1318611602
22450165300.0 -0.9767831216 0.147381967
22500165000.0 -0.9743106856 0.1615366698
22550164700.0 -0.9738240622 0.1764024417
22600164400.0 -0.9721923383 0.1923039993
22650164100.0 -0.9691896233 0.2067804091
22700163800.0 -0.9674240556 0.2232393852
22750163500.0 -0.9651309428 0.2386283875
22800163200.0 -0.9617978947 0.2519256506
22850162900.0 -0.9599359096 0.265075565
22900162600.0 -0.9584199225 0.2784217729
22950162300.0 -0.9572303368 0.291203066
23000162000.0 -0.9559913384 0.3033720927
23050161700.0 -0.9543690618 0.3156056084
23100161400.0 -0.9522930379 0.3278905253
23150161100.0 -0.949006221 0.3405110427
23200160800.0 -0.9469329876 0.3530758795
23250160500.0 -0.9437087869 0.3645964613
23300160200.0 -0.941702411 0.376190147
23350159900.0 -0.9373508892 0.3903756622
23400159600.0 -0.9326394675 0.4031630059
23450159300.0 -0.9280755831 0.4155186438
23500159000.0 -0.9234720617 0.428714832
23550158700.0 -0.9186540598 0.4420535819
23600158400.0 -0.9136119279 0.4549929931
23650158100.0 -0.9069866077 0.4688205189
23700157800.0 -0.8993625688 0.4824946937
23750157500.0 -0.8911676117 0.4968234014
23800157200.0 -0.8821613719 0.509677169
23850156900.0 -0.8731542085 0.5226563884
23900156600.0 -0.8639806688 0.5353404142
23950156300.0 -0.8547236649 0.5469493969
24000156000.0 -0.8454127103 0.5586044482
24050155700.0 -0.8345168066 0.5710071266
24100155400.0 -0.8251284443 0.5833747047
24150155100.0 -0.814893109 0.594852046
24200154800.0 -0.8041664011 0.6058589556
24250154500.0 -0.792086023 0.6176687823
24300154200.0 -0.7805029652 0.6295785146
24350153900.0 -0.7692797875 0.6396355783
24400153600.0 -0.7565239399 0.6504189969
24450153300.0 -0.7451520384 0.6602093762
24500153000.0 -0.7333729018 0.6699759332
24550152700.0 -0.7225261349 0.6800200754
24600152400.0 -0.7105103028 0.6885032079
