!Created with skrf (http://scikit-rf.org).
# Hz S RI R 50.0 
!freq ReS11 ImS11
300000.0 -0.9712895279 -0.1235452646
50299700.0 -0.9998556598 0.0147467181
100299400.0 -0.9977249213 0.0278649591
150299100.0 -1.002649173 0.044741157
200298800.0 -0.9996463765 0.0581124587
250298500.0 -0.99726641 0.071711883
300298200.0 -0.9859296409 0.0872962997
350297900.0 -0.9938985512 0.0983638908
400297600.0 -0.9930388611 0.1150063212
450297300.0 -0.9910589358 0.1289141848
500297000.0 -0.9894261149 0.1434903314
550296700.0 -0.9842111159 0.1556926094
600296400.0 -1.017240974 0.1891370147
650296100.0 -0.9821964077 0.1858375044
700295800.0 -0.9794077852 0.200032888
750295500.0 -0.976171876 0.2138463949
800295200.0 -0.9728692559 0.2279899529
850294900.0 -0.9697826838 0.2420028579
900294600.0 -0.9658693558 0.2554312953
950294300.0 -0.9620786476 0.2693246488
1000294000.0 -0.9580515873 0.283091739
1050293700.0 -0.9536566647 0.2970229159
1100293400.0 -0.9493070675 0.311533894
1150293100.0 -0.9455164027 0.3233739849
1200292800.0 -0.9401110884 0.337682721
1250292500.0 -0.9348610193 0.3511352674
1300292200.0 -0.9290817482 0.3643814769
1350291900.0 -0.9234712871 0.3783912774
1400291600.0 -0.9179801687 0.3916257613
1450291300.0 -0.9124296583 0.4038598433
1500291000.0 -0.9061762108 0.4172414153
1550290700.0 -0.8996025072 0.4305210439
1600290400.0 -0.8933560987 0.4435526456
1650290100.0 -0.8867702252 0.4557251146
1700289800.0 -0.8797825932 0.4691952853
1750289500.0 -0.872827819 0.4814357424
1800289200.0 -0.8657302483 0.4942372049
1850288900.0 -0.8587350676 0.5055446392
1900288600.0 -0.8507967329 0.5187966568
1950288300.0 -0.8430314779 0.5314344848
2000288000.0 -0.8354391361 0.5428962669
2050287700.0 -0.8271543587 0.5553270506
2100287400.0 -0.8195356998 0.5666862921
2150287100.0 -0.8107709437 0.5784859828
2200286800.0 -0.8031135194 0.589086139
2250286500.0 -0.7940476147 0.6015574304
2300286200.0 -0.7852459333 0.6128875376
2350285900.0 -0.7768655353 0.6233321651
2400285600.0 -0.7680960171 0.6340454285
2450285300.0 -0.7591836581 0.6451052328
2500285000.0 -0.7492140006 0.6567086233
2550284700.0 -0.7401465371 0.667087433
2600284400.0 -0.7310512083 0.6768001364
2650284100.0 -0.7224240732 0.6868326173
2700283800.0 -0.7120409376 0.6973860574
2750283500.0 -0.701512244 0.708339738
2800283200.0 -0.691548963 0.7178357115
2850282900.0 -0.6809372058 0.7280658657
2900282600.0 -0.6707583707 0.7377667701
2950282300.0 -0.6602151469 0.747179804
3000282000.0 -0.6495531683 0.756488118
3050281700.0 -0.6384791049 0.7659203942
3100281400.0 -0.6267569642 0.7750941267
3150281100.0 -0.6156278728 0.7837946974
3200280800.0 -0.6041613375 0.7922398285
3250280500.0 -0.593227212 0.8004216538
3300280200.0 -0.581518979 0.8084734423
3350279900.0 -0.5690556695 0.8164212669
3400279600.0 -0.556738697 0.824684113
3450279300.0 -0.5455177628 0.8316991223
3500279000.0 -0.5339760255 0.8384590561
3550278700.0 -0.5216870818 0.8455227349
3600278400.0 -0.509649114 0.8522440928
3650278100.0 -0.4968204893 0.8598615929
3700277800.0 -0.4846245031 0.8664896188
3750277500.0 -0.4721239574 0.8732351582
3800277200.0 -0.4600097684 0.8796102106
3850276900.0 -0.4478398362 0.8856225715
3900276600.0 -0.4367005265 0.8912135502
3950276300.0 -0.4249060726 0.8973274243
4000276000.0 -0.4130877834 0.9029294005
4050275700.0 -0.4005870996 0.9087368554
4100275400.0 -0.3892886721 0.9147711387
4150275100.0 -0.3760499498 0.9205646698
4200274800.0 -0.3626723213 0.9263346882
4250274500.0 -0.3498625515 0.9313708521
4300274200.0 -0.3366914475 0.93660663
4350273900.0 -0.3223412362 0.9420061802
4400273600.0 -0.3078092644 0.9472752893
4450273300.0 -0.2927604879 0.9522193579
4500273000.0 -0.279462384 0.9563717694
4550272700.0 -0.266145266 0.9606812809
4600272400.0 -0.2510416274 0.9646935889
4650272100.0 -0.2398133062 0.9677524487
4700271800.0 -0.2269679029 0.9711474153
4750271500.0 -0.2152642932 0.9739045557
4800271200.0 -0.2031176258 0.9766141496
4850270900.0 -0.1892165046 0.9793539221
4900270600.0 -0.1754661162 0.9818489998
4950270300.0 -0.1608739541 0.9845921946
5000270000.0 -0.1464537319 0.986618552
5050269700.0 -0.1328876229 0.9883585945
5100269400.0 -0.1185686442 0.9899805459
5150269100.0 -0.1046677405 0.9915339254
5200268800.0 -0.0915441981 0.9925746059
5250268500.0 -0.0782552722 0.9937658525
5300268200.0 -0.0643736325 0.994626818
5350267900.0 -0.0515544939 0.9952265345
5400267600.0 -0.0356780235 0.9962646293
5450267300.0 -0.0219595738 0.9966620068
5500267000.0 -0.0066377012 0.9971195242
5550266700.0 0.0081930227 0.9971197995
5600266400.0 0.0237743639 0.9971317029
5650266100.0 0.0406763263 0.9966821319
5700265800.0 0.0546149859 0.9958417438
5750265500.0 0.0695913937 0.9946836493
5800265200.0 0.0833344263 0.9940848263
5850264900.0 0.0964478923 0.9933678314
5900264600.0 0.1130217454 0.9914229758
5950264300.0 0.1244760601 0.9899896717
6000264000.0 0.1377798928 0.987899642
6050263700.0 0.1492096183 0.9863825195
6100263400.0 0.1618047239 0.9847132241
6150263100.0 0.1763638028 0.9824292151
6200262800.0 0.1860401295 0.9812113093
6250262500.0 0.1985205983 0.9786082465
6300262200.0 0.2109119028 0.9763003507
6350261900.0 0.2236288078 0.9735032774
6400261600.0 0.2375030991 0.9701492706
6450261300.0 0.2484248341 0.9677758455
6500261000.0 0.2616620449 0.9641325552
6550260700.0 0.2750793764 0.9602659547
6600260400.0 0.2884126119 0.9557438595
6650260100.0 0.3024572428 0.9515024983
6700259800.0 0.3146296273 0.9472982453
6750259500.0 0.3281374018 0.9423309437
6800259200.0 0.3421450359 0.9374981594
6850258900.0 0.3547446849 0.9320979608
6900258600.0 0.3670721398 0.9265815201
6950258300.0 0.379682535 0.9216804909
7000258000.0 0.3911897181 0.9162848183
7050257700.0 0.4029216198 0.9105341876
7100257400.0 0.4166176042 0.9042087498
7150257100.0 0.4271190665 0.8984305086
7200256800.0 0.440232151 0.8919123569
7250256500.0 0.4533189357 0.8857201897
7300256200.0 0.4659088248 0.8787626992
7350255900.0 0.4788011934 0.8717904495
7400255600.0 0.4930076387 0.8640003733
7450255300.0 0.5086746459 0.8547081096
7500255000.0 0.5214228002 0.8474595929
7550254700.0 0.5355848031 0.8381755995
7600254400.0 0.5479991926 0.8297642686
7650254100.0 0.5596913716 0.8219907839
7700253800.0 0.5714045701 0.8139154349
7750253500.0 0.5819617216 0.8062019304
7800253200.0 0.592829463 0.7983676209
7850252900.0 0.602431357 0.7911224578
7900252600.0 0.6138808577 0.7824108082
7950252300.0 0.6222854988 0.7760479656
8000252000.0 0.6322647769 0.7684960377
8050251700.0 0.6425012335 0.760373859
8100251400.0 0.6525864621 0.7525104357
8150251100.0 0.6622489723 0.744016531
8200250800.0 0.6719211992 0.7357983198
8250250500.0 0.6808845345 0.7278974626
8300250200.0 0.6896533176 0.7194578248
8350249900.0 0.6993551012 0.7106212459
8400249600.0 0.7070744225 0.7026963125
8450249300.0 0.7157918004 0.6939175757
8500249000.0 0.7244864937 0.6852254193
8550248700.0 0.7327344919 0.6761966684
8600248400.0 0.7412838723 0.6666037981
8650248100.0 0.7488268576 0.6572119849
8700247800.0 0.7578485469 0.6462603994
8750247500.0 0.7661396617 0.6361418011
8800247200.0 0.7741038041 0.6259101699
8850246900.0 0.7827660562 0.6145659424
8900246600.0 0.7911905438 0.6031811961
8950246300.0 0.8004396757 0.5905453393
9000246000.0 0.8091773273 0.5785080346
9050245700.0 0.8175080657 0.5663048711
9100245400.0 0.8258791611 0.5539832531
9150245100.0 0.8345151754 0.5414718654
9200244800.0 0.8439042934 0.5270177827
9250244500.0 0.8531532422 0.5121952194
9300244200.0 0.8612393581 0.4988941265
9350243900.0 0.8686005008 0.4855047955
9400243600.0 0.8752225365 0.4740006226
9450243300.0 0.8807295291 0.4634179089
9500243000.0 0.887049047 0.4519507543
9550242700.0 0.8909714536 0.4444614445
9600242400.0 0.8953094692 0.4370256405
9650242100.0 0.8995749931 0.4298847268
9700241800.0 0.9045003665 0.4213846612
9750241500.0 0.9089588144 0.413571811
9800241200.0 0.9142751405 0.4038798148
9850240900.0 0.9199725653 0.3921834072
9900240600.0 0.9255144168 0.3808111639
9950240300.0 0.9331112715 0.3634812722
10000240000.0 0.9377782182 0.3516416353
10050239700.0 0.9439803728 0.3354030591
10100239400.0 0.9493157802 0.3189633281
10150239100.0 0.9542390555 0.3031922623
10200238800.0 0.9582349828 0.2879163189
10250238500.0 0.9615173566 0.2744713481
10300238200.0 0.964623243 0.2604379024
10350237900.0 0.9673666681 0.2469429521
10400237600.0 0.9701910564 0.2333925213
10450237300.0 0.9728359254 0.2197661534
10500237000.0 0.9748374875 0.2070084698
10550236700.0 0.9773650892 0.1928857192
10600236400.0 0.9796094652 0.1790631991
10650236100.0 0.981498557 0.1645555963
10700235800.0 0.9841250132 0.1519932378
10750235500.0 0.9859511328 0.1390176588
10800235200.0 0.9880891426 0.1240307881
10850234900.0 0.9898701772 0.1095671818
10900234600.0 0.992012741 0.0947037177
10950234300.0 0.9937770467 0.0808854244
11000234000.0 0.9956203744 0.0653863626
11050233700.0 0.9974957057 0.0486289639
11100233400.0 0.9988702536 0.0310413904
11150233100.0 0.9997889009 0.0140634291
11200232800.0 1.000926814 -0.0023073669
11250232500.0 1.002164448 -0.0205754339
11300232200.0 1.001801615 -0.0385044655
11350231900.0 1.002219538 -0.0544540997
11400231600.0 1.001883637 -0.0709783009
11450231300.0 1.00093849 -0.0860570842
11500231000.0 0.9995122762 -0.1022461771
11550230700.0 0.9982925621 -0.115317513
11600230400.0 0.9969885174 -0.1283076141
11650230100.0 0.9950060916 -0.1402236882
11700229800.0 0.9925337038 -0.1549225355
11750229500.0 0.9903018242 -0.1692874493
11800229200.0 0.9873723109 -0.1824415043
11850228900.0 0.98342527 -0.1940438656
11900228600.0 0.9800169803 -0.2036489155
11950228300.0 0.9765180746 -0.2135065596
12000228000.0 0.9735059819 -0.2223923884
12050227700.0 0.9692029908 -0.2356411951
12100227400.0 0.9665370704 -0.2462123835
12150227100.0 0.9617378843 -0.2633941056
12200226800.0 0.9580264351 -0.2739279288
12250226500.0 0.9546435664 -0.2866078483
12300226200.0 0.94920415 -0.2995328412
12350225900.0 0.9441698766 -0.3125135351
12400225600.0 0.9403816809 -0.3249003869
12450225300.0 0.9356649489 -0.3375950958
12500225000.0 0.9299938961 -0.3522069003
12550224700.0 0.9244838808 -0.3659859672
12600224400.0 0.9196286078 -0.378348649
12650224100.0 0.913870967 -0.3928821512
12700223800.0 0.9087097058 -0.4056940539
12750223500.0 0.903064662 -0.418988578
12800223200.0 0.8978660717 -0.4313801577
12850222900.0 0.8926801506 -0.4434867648
12900222600.0 0.8869541123 -0.455591697
12950222300.0 0.8809472284 -0.4676472843
13000222000.0 0.8748658908 -0.4800382956
13050221700.0 0.8681977137 -0.4929839393
13100221400.0 0.8610745457 -0.5049427557
13150221100.0 0.8543450829 -0.517152091
13200220800.0 0.8472554806 -0.5284785657
13250220500.0 0.8401610388 -0.5404893084
13300220200.0 0.8323407255 -0.551863912
13350219900.0 0.8243244367 -0.563600985
13400219600.0 0.8160294711 -0.5756301656
13450219300.0 0.8066634129 -0.5883817152
13500219000.0 0.7967746171 -0.6016557685
13550218700.0 0.7871605599 -0.6139777853
13600218400.0 0.7769923986 -0.6257048309
13650218100.0 0.7678968223 -0.6361092569
13700217800.0 0.7564458824 -0.6479676353
13750217500.0 0.7474115448 -0.6591682845
13800217200.0 0.7366270856 -0.6705820321
13850216900.0 0.7258634973 -0.6815810997
13900216600.0 0.7162960012 -0.6900869225
13950216300.0 0.7049534603 -0.6996940283
14000216000.0 0.6952850736 -0.7094303427
14050215700.0 0.6861606652 -0.7171065786
14100215400.0 0.6766743265 -0.7265763444
14150215100.0 0.667487476 -0.7348789347
14200214800.0 0.6579757644 -0.7439315294
14250214500.0 0.6474794642 -0.7533855671
14300214200.0 0.6371595413 -0.7628662397
14350213900.0 0.6260686553 -0.7724184263
14400213600.0 0.6140214353 -0.7821935007
14450213300.0 0.6012475191 -0.7924904479
14500213000.0 0.5883776206 -0.8023132773
14550212700.0 0.5759656579 -0.8119727096
14600212400.0 0.5635531777 -0.8206424023
14650212100.0 0.5506689318 -0.8288943933
14700211800.0 0.5369011538 -0.8385969397
14750211500.0 0.5246093586 -0.8472990654
14800211200.0 0.5123020179 -0.8555504141
14850210900.0 0.5000061918 -0.8629485317
14900210600.0 0.4866962609 -0.8710570921
14950210300.0 0.4733750472 -0.8784938832
15000210000.0 0.4605511823 -0.8853741078
15050209700.0 0.4484227199 -0.8912170235
15100209400.0 0.4357914228 -0.8972201355
15150209100.0 0.4233610299 -0.9027346923
15200208800.0 0.4108166617 -0.9075649913
15250208500.0 0.3998193981 -0.9120767479
15300208200.0 0.3873869776 -0.9173128213
15350207900.0 0.3742308092 -0.9219877773
15400207600.0 0.3596551218 -0.9269650544
15450207300.0 0.3439103751 -0.9322477154
15500207000.0 0.3297277868 -0.9369367828
15550206700.0 0.3153682742 -0.9423578302
15600206400.0 0.2995137073 -0.9466143107
15650206100.0 0.2839502401 -0.9507900275
15700205800.0 0.2703478225 -0.9542815063
15750205500.0 0.2564519874 -0.9576074522
15800205200.0 0.2422871409 -0.9611895732
15850204900.0 0.2281754357 -0.964503043
15900204600.0 0.2132426076 -0.968181236
15950204300.0 0.198889927 -0.9714942643
16000204000.0 0.184321665 -0.9745984801
16050203700.0 0.169257285 -0.9775491344
16100203400.0 0.1539400572 -0.9795586711
16150203100.0 0.1396811024 -0.9823625198
16200202800.0 0.1253138081 -0.9839713056
16250202500.0 0.1106875773 -0.9859731271
16300202200.0 0.0953345707 -0.9876418145
16350201900.0 0.080297377 -0.9891146125
16400201600.0 0.0653568356 -0.9899961497
16450201300.0 0.0498247862 -0.9912709215
16500201000.0 0.0327070148 -0.9919840154
16550200700.0 0.0165488839 -0.9925524108
16600200400.0 0.0006639163 -0.9925404732
16650200100.0 -0.0153154146 -0.9925408529
16700199800.0 -0.0318970831 -0.9922272331
16750199500.0 -0.0513032137 -0.9914021825
16800199200.0 -0.0671602038 -0.9902561044
16850198900.0 -0.082435162 -0.9893092529
16900198600.0 -0.0969448679 -0.9883637648
16950198300.0 -0.11039856 -0.987525346
17000198000.0 -0.1235785075 -0.9860808386
17050197700.0 -0.1363472608 -0.9836034583
17100197400.0 -0.1490514383 -0.9817354635
17150197100.0 -0.1617643975 -0.9800459512
17200196800.0 -0.1743768361 -0.9778827313
17250196500.0 -0.1874136009 -0.9754560914
17300196200.0 -0.1995343779 -0.972820633
17350195900.0 -0.2115635939 -0.9704936058
17400195600.0 -0.2235667078 -0.9680034846
17450195300.0 -0.236245645 -0.9653195664
17500195000.0 -0.2495014709 -0.9619056656
17550194700.0 -0.2632104897 -0.958292008
17600194400.0 -0.2772393768 -0.9542191151
17650194100.0 -0.2904298742 -0.9502690484
17700193800.0 -0.3035593482 -0.9461705237
17750193500.0 -0.3178639307 -0.941480194
17800193200.0 -0.3318579719 -0.93650121
17850192900.0 -0.3469544293 -0.9310182039
17900192600.0 -0.3618174338 -0.9247268809
17950192300.0 -0.3774313835 -0.9176996149
18000192000.0 -0.3920252248 -0.9105199003
18050191700.0 -0.4060129886 -0.9025532232
18100191400.0 -0.4200343098 -0.895028385
18150191100.0 -0.4348568413 -0.8869269403
18200190800.0 -0.451821873 -0.8777155117
18250190500.0 -0.4686706804 -0.8683088083
18300190200.0 -0.4842514181 -0.8596981951
18350189900.0 -0.4993422304 -0.8509061962
18400189600.0 -0.5138599085 -0.8428743452
18450189300.0 -0.5275137322 -0.8348215827
18500189000.0 -0.5410600087 -0.8269056425
18550188700.0 -0.553583159 -0.8192906568
18600188400.0 -0.5656405026 -0.8122048724
18650188100.0 -0.576839359 -0.8053692078
18700187800.0 -0.5879161039 -0.7986451324
18750187500.0 -0.598798655 -0.7920995648
18800187200.0 -0.6094496008 -0.7849480614
18850186900.0 -0.6196649764 -0.7781739336
18900186600.0 -0.6299540415 -0.7707044618
18950186300.0 -0.6402203481 -0.7632247898
19000186000.0 -0.6477066613 -0.7567726925
19050185700.0 -0.657125105 -0.7493621887
19100185400.0 -0.6674077076 -0.741697248
19150185100.0 -0.6775400593 -0.7331532759
19200184800.0 -0.6873521961 -0.7244635576
19250184500.0 -0.6973579496 -0.7153415496
19300184200.0 -0.7080167653 -0.7061274482
19350183900.0 -0.7189654013 -0.6961621549
19400183600.0 -0.7287960696 -0.6868052966
19450183300.0 -0.7378410905 -0.6764614405
19500183000.0 -0.7464169809 -0.6660710817
19550182700.0 -0.7557026605 -0.6550893203
19600182400.0 -0.7661399772 -0.643788941
19650182100.0 -0.7765980873 -0.6312786156
19700181800.0 -0.7868208501 -0.6181433591
19750181500.0 -0.7971673856 -0.6040786969
19800181200.0 -0.8073560135 -0.5891471328
19850180900.0 -0.8170568037 -0.5739994551
19900180600.0 -0.8243836115 -0.559592619
19950180300.0 -0.8339447788 -0.5428948482
20000180000.0 -0.822883099 -0.5468305831
20050179700.0 -0.8310050888 -0.5337948705
20100179400.0 -0.8386831806 -0.5209429917
20150179100.0 -0.8472579068 -0.5097767375
20200178800.0 -0.855800676 -0.4978462672
20250178500.0 -0.865051316 -0.4854296001
20300178200.0 -0.874417994 -0.4720989827
20350177900.0 -0.8843533296 -0.4578449228
20400177600.0 -0.8935270424 -0.444103492
20450177300.0 -0.9017965372 -0.4296398216
20500177000.0 -0.9099862646 -0.4157570358
20550176700.0 -0.9178028664 -0.402461273
20600176400.0 -0.9248463035 -0.3894491922
20650176100.0 -0.9311289977 -0.3767924477
20700175800.0 -0.937866308 -0.3649752411
20750175500.0 -0.9443004463 -0.3532509032
20800175200.0 -0.9488153691 -0.3420133722
20850174900.0 -0.9532998337 -0.3321563489
20900174600.0 -0.9573534009 -0.3211553926
20950174300.0 -0.9616939282 -0.3101733463
21000174000.0 -0.9644510196 -0.2991234181
21050173700.0 -0.9656439957 -0.2894411472
21100173400.0 -0.9691283399 -0.2785441783
21150173100.0 -0.9727911752 -0.267540281
21200172800.0 -0.9768347024 -0.2546852079
21250172500.0 -0.9802212843 -0.2401886115
21300172200.0 -0.9839422079 -0.2265484872
21350171900.0 -0.9851174879 -0.2117795622
21400171600.0 -0.9873800683 -0.1983733434
21450171300.0 -0.9887800223 -0.1834894501
21500171000.0 -0.9894635449 -0.1686528584
21550170700.0 -0.9893690731 -0.1538026659
21600170400.0 -0.990181388 -0.1381254054
21650170100.0 -0.9905285648 -0.1226929916
21700169800.0 -0.9892456787 -0.1068391181
21750169500.0 -0.990056579 -0.0917783205
21800169200.0 -0.9901308662 -0.074461897
21850168900.0 -0.9897497795 -0.0581749143
21900168600.0 -0.989072554 -0.0414274591
21950168300.0 -0.9893532285 -0.0262053942
22000168000.0 -0.9896803497 -0.0109054394
22050167700.0 -0.9899154061 0.0035868225
22100167400.0 -0.9908218979 0.0191634138
22150167100.0 -0.9916868519 0.035342486
22200166800.0 -0.9923139112 0.0519454888
22250166500.0 -0.9919080096 0.0690675046
22300166200.0 -0.990605555 0.0855968294
22350165900.0 -0.9898938541 0.1018290175
22400165600.0 -0.9878580456 0.1170640615
22450165300.0 -0.9869747347 0.132632023
22500165000.0 -0.9842080929 0.1471501396
22550164700.0 -0.9841654976 0.162314918
22600164400.0 -0.9815585767 0.1797671188
22650164100.0 -0.9784278414 0.1956914919
22700163800.0 -0.9752000752 0.2110344064
22750163500.0 -0.9724044686 0.2261526088
22800163200.0 -0.9693138447 0.2394992506
22850162900.0 -0.9668728057 0.2527111139
22900162600.0 -0.9651015003 0.2665964384
22950162300.0 -0.9628895269 0.2802659564
23000162000.0 -0.9614072941 0.2929875337
23050161700.0 -0.9586649843 0.3068360545
23100161400.0 -0.955731296 0.3203044286
23150161100.0 -0.9528851515 0.3333069499
23200160800.0 -0.949061077 0.3455209525
23250160500.0 -0.9465250637 0.3584990315
23300160200.0 -0.9447159113 0.3703794553
23350159900.0 -0.9400131868 0.3850205357
23400159600.0 -0.9349653123 0.3977598933
23450159300.0 -0.9298921638 0.4118807009
23500159000.0 -0.9248433165 0.4257690349
23550158700.0 -0.9201917197 0.4402215849
23600158400.0 -0.913868437 0.454351694
23650158100.0 -0.9068042938 0.468803121
23700157800.0 -0.8982754147 0.4829029813
23750157500.0 -0.8886672653 0.4975712194
23800157200.0 -0.8787199133 0.5110380142
23850156900.0 -0.8694325647 0.5238568008
23900156600.0 -0.8590670256 0.5357876366
23950156300.0 -0.8491117512 0.5492614182
24000156000.0 -0.8401193383 0.5612198744
24050155700.0 -0.829043348 0.5734921668
24100155400.0 -0.8190046737 0.5862372237
24150155100.0 -0.8085333957 0.5980688059
24200154800.0 -0.7973829096 0.6104175246
24250154500.0 -0.7853920153 0.6222291372
24300154200.0 -0.7741017682 0.6345484914
24350153900.0 -0.7618825255 0.645800289
24400153600.0 -0.7494295908 0.656008808
24450153300.0 -0.7372105947 0.66616213
24500153000.0 -0.7256665347 0.6768544401
24550152700.0 -0.7144346108 0.6863840999
24600152400.0 -0.7021143685 0.6961039726
24650152100.0 -0.6902185382 0.7051719697
