!Created with skrf (http://scikit-rf.org).
# Hz S RI R 50.0 
!freq ReS11 ImS11
300000.0 -0.9724674981 -0.1228674731
50299700.0 -1.000009494 0.0149202003
100299400.0 -0.9979663432 0.0279108814
150299100.0 -1.002635092 0.0446902615
200298800.0 -0.9994362168 0.0580811055
250298500.0 -0.9973751855 0.071575118
300298200.0 -0.9858187343 0.0875119042
350297900.0 -0.9938289964 0.0982074606
400297600.0 -0.9930172139 0.1148918823
450297300.0 -0.990978816 0.1286359227
500297000.0 -0.98951412 0.1432881375
550296700.0 -0.9843473727 0.1556869129
600296400.0 -1.017455958 0.1891319762
650296100.0 -0.982249144 0.1857325201
700295800.0 -0.9792881308 0.2000330598
750295500.0 -0.976345099 0.2139236813
800295200.0 -0.9729707675 0.2277779222
850294900.0 -0.9696843274 0.2417836067
900294600.0 -0.9658823956 0.2555204786
950294300.0 -0.9622069111 0.2691699267
1000294000.0 -0.9581953154 0.2832752234
1050293700.0 -0.9536095356 0.2968612892
1100293400.0 -0.9492655489 0.3114323793
1150293100.0 -0.9455075624 0.3233317766
1200292800.0 -0.9401948317 0.3375417994
1250292500.0 -0.9346113218 0.3512387154
1300292200.0 -0.9291214858 0.364342199
1350291900.0 -0.9234695136 0.3784484635
1400291600.0 -0.9181671428 0.3914716638
1450291300.0 -0.9124441058 0.4038231876
1500291000.0 -0.9061820461 0.4173086046
1550290700.0 -0.8999182757 0.4306521819
1600290400.0 -0.8934421405 0.4436599474
1650290100.0 -0.886865937 0.4557198989
1700289800.0 -0.8799526632 0.4691514794
1750289500.0 -0.8728426102 0.4814990075
1800289200.0 -0.8655980854 0.4943254943
1850288900.0 -0.8587922349 0.5058215988
1900288600.0 -0.8511533944 0.5188870546
1950288300.0 -0.8430041133 0.5313826754
2000288000.0 -0.8356338821 0.5428331219
2050287700.0 -0.8272661352 0.5551175219
2100287400.0 -0.8194180217 0.5664797418
2150287100.0 -0.8108388741 0.5785036426
2200286800.0 -0.8029581778 0.5891957834
2250286500.0 -0.7940205376 0.6012814913
2300286200.0 -0.7852340744 0.6129553302
2350285900.0 -0.7768886009 0.623206977
2400285600.0 -0.7679345307 0.6344328495
2450285300.0 -0.7593048754 0.6450830612
2500285000.0 -0.7492023777 0.6565899682
2550284700.0 -0.7400412972 0.6668916898
2600284400.0 -0.730910922 0.6769146328
2650284100.0 -0.7223657709 0.6870690177
2700283800.0 -0.7117892251 0.6976286763
2750283500.0 -0.7015549962 0.7081104828
2800283200.0 -0.6918695213 0.718249228
2850282900.0 -0.6812240614 0.7280125054
2900282600.0 -0.6707506835 0.7378071804
2950282300.0 -0.6602355029 0.7472545571
3000282000.0 -0.6494453112 0.756713824
3050281700.0 -0.6382583586 0.7658258544
3100281400.0 -0.6268735663 0.7748795535
3150281100.0 -0.6155427511 0.7839179911
3200280800.0 -0.6041636462 0.792294158
3250280500.0 -0.5930684605 0.8003107195
3300280200.0 -0.5813206138 0.8084649833
3350279900.0 -0.5692037825 0.8166169733
3400279600.0 -0.5567058549 0.8246322049
3450279300.0 -0.5455681881 0.8317323769
3500279000.0 -0.5339331776 0.8385252559
3550278700.0 -0.5215876961 0.8455403313
3600278400.0 -0.5101259186 0.852600859
3650278100.0 -0.4969241752 0.8600191769
3700277800.0 -0.4847140423 0.866461586
3750277500.0 -0.4723147606 0.87324435
3800277200.0 -0.4598064202 0.8796261907
3850276900.0 -0.4478296364 0.8855130316
3900276600.0 -0.436853766 0.8913113836
3950276300.0 -0.4248651849 0.8971347921
4000276000.0 -0.4131193868 0.9030758242
4050275700.0 -0.4005042867 0.9091399495
4100275400.0 -0.3895844242 0.9144526146
4150275100.0 -0.3761802722 0.9205919381
4200274800.0 -0.3628370062 0.9261350088
4250274500.0 -0.3501265826 0.9311462003
4300274200.0 -0.3368708881 0.9365968497
4350273900.0 -0.3225379136 0.9419605159
4400273600.0 -0.3076528372 0.9472166467
4450273300.0 -0.2928891215 0.9521072382
4500273000.0 -0.2796651965 0.9562051722
4550272700.0 -0.2661689201 0.9605518721
4600272400.0 -0.2510263292 0.9645184525
4650272100.0 -0.2396251867 0.9676898933
4700271800.0 -0.2267389537 0.9709832363
4750271500.0 -0.2151061138 0.9739579066
4800271200.0 -0.2030160116 0.9765348192
4850270900.0 -0.1891909179 0.9795846659
4900270600.0 -0.1753403105 0.981971514
4950270300.0 -0.1608357081 0.9845377909
5000270000.0 -0.1464078366 0.9868520229
5050269700.0 -0.1326864933 0.988252458
5100269400.0 -0.1186256462 0.990004708
5150269100.0 -0.1047527173 0.9918929272
5200268800.0 -0.0913150248 0.9927674493
5250268500.0 -0.0782256067 0.9937465458
5300268200.0 -0.0644551452 0.9944261206
5350267900.0 -0.051802341 0.9949942532
5400267600.0 -0.0357389412 0.9964878734
5450267300.0 -0.0221508756 0.9965595009
5500267000.0 -0.0070449532 0.9970057622
5550266700.0 0.0079055628 0.9971908528
5600266400.0 0.0237933624 0.9971159868
5650266100.0 0.0404242195 0.9966574138
5700265800.0 0.0548456762 0.995704492
5750265500.0 0.0698006759 0.9951740311
5800265200.0 0.0830175943 0.9940776107
5850264900.0 0.0965127423 0.9932423916
5900264600.0 0.1125865449 0.9913802822
5950264300.0 0.1243038716 0.9897479957
6000264000.0 0.1378164689 0.9875608605
6050263700.0 0.1497667025 0.9866338806
6100263400.0 0.1615903102 0.9848942116
6150263100.0 0.1763427544 0.9824525724
6200262800.0 0.1859603532 0.9811167414
6250262500.0 0.198630591 0.9787985788
6300262200.0 0.2109028319 0.976344252
6350261900.0 0.2238203094 0.9735498827
6400261600.0 0.237627399 0.9702958557
6450261300.0 0.24861151 0.9677920192
6500261000.0 0.261936545 0.9639424303
6550260700.0 0.2750037673 0.9601379475
6600260400.0 0.2884664954 0.9560251145
6650260100.0 0.3028526633 0.9516879355
6700259800.0 0.3146662714 0.9472263791
6750259500.0 0.3285110662 0.9424103491
6800259200.0 0.3420395978 0.9372214572
6850258900.0 0.3546264551 0.9322038143
6900258600.0 0.3671327803 0.9268771917
6950258300.0 0.3798257825 0.9216800086
7000258000.0 0.3913107539 0.916238588
7050257700.0 0.4033069747 0.9106010525
7100257400.0 0.4165935757 0.904101648
7150257100.0 0.4271405587 0.8986146088
7200256800.0 0.440389647 0.8923394733
7250256500.0 0.45306241 0.8856067333
7300256200.0 0.4658707098 0.8786429768
7350255900.0 0.4787533133 0.8716822929
7400255600.0 0.4930584162 0.864232536
7450255300.0 0.5085403322 0.8549539397
7500255000.0 0.5210728003 0.8474670812
7550254700.0 0.5349569061 0.8380817972
7600254400.0 0.547497773 0.8297021557
7650254100.0 0.5590234279 0.8217627077
7700253800.0 0.5707086303 0.8140575723
7750253500.0 0.5818696006 0.8064479863
7800253200.0 0.5924947865 0.7985164959
7850252900.0 0.6023241621 0.7913777389
7900252600.0 0.6136107931 0.7827627264
7950252300.0 0.6221254663 0.7763620117
8000252000.0 0.6321686113 0.7687666234
8050251700.0 0.6423119401 0.7604709865
8100251400.0 0.6524501019 0.7526704314
8150251100.0 0.6623159064 0.7442952191
8200250800.0 0.6718386239 0.7358689841
8250250500.0 0.6808323844 0.7280739136
8300250200.0 0.689789468 0.7196845477
8350249900.0 0.6989716112 0.7108969272
8400249600.0 0.7073119988 0.7027439361
8450249300.0 0.7158858566 0.6941636917
8500249000.0 0.7244600509 0.6853542988
8550248700.0 0.7325742391 0.6762030185
8600248400.0 0.7409860461 0.6668517135
8650248100.0 0.7485280841 0.657541897
8700247800.0 0.7579638019 0.6463572325
8750247500.0 0.7660401669 0.6362458489
8800247200.0 0.7742395102 0.6261169318
8850246900.0 0.78285405 0.6145932369
8900246600.0 0.7910133576 0.6032390563
8950246300.0 0.8005983617 0.5905731335
9000246000.0 0.8090853711 0.5787637451
9050245700.0 0.8176190771 0.5662425307
9100245400.0 0.826265332 0.5540689249
9150245100.0 0.8347956474 0.5413892809
9200244800.0 0.8440080909 0.5268028357
9250244500.0 0.853319107 0.512156568
9300244200.0 0.8612639767 0.4987135585
9350243900.0 0.8688072768 0.4852321295
9400243600.0 0.8754184482 0.4737670178
9450243300.0 0.8809586598 0.4632235076
9500243000.0 0.8874374669 0.451665098
9550242700.0 0.8913260631 0.444387878
9600242400.0 0.8955784297 0.4366443341
9650242100.0 0.899744117 0.4296872306
9700241800.0 0.9044977684 0.4211974259
9750241500.0 0.9086408238 0.4135511802
9800241200.0 0.9139376625 0.4040404582
9850240900.0 0.9199723986 0.3921134551
9900240600.0 0.9259624143 0.3801080244
9950240300.0 0.933106361 0.3634136366
10000240000.0 0.9379487567 0.3511844898
10050239700.0 0.9440036899 0.3350908937
10100239400.0 0.9495045935 0.3187106417
10150239100.0 0.9538210581 0.303249508
10200238800.0 0.9582288192 0.2876916948
10250238500.0 0.9615781869 0.2743887884
10300238200.0 0.964733953 0.2603035953
10350237900.0 0.9673506562 0.2470540572
10400237600.0 0.9698996621 0.2336156152
10450237300.0 0.9728083534 0.2196413672
10500237000.0 0.9748953956 0.2076260359
10550236700.0 0.977088041 0.1933935244
10600236400.0 0.9798408566 0.1790272112
10650236100.0 0.9816531651 0.1642752358
10700235800.0 0.9836571127 0.1526689542
10750235500.0 0.985885722 0.1390159525
10800235200.0 0.9878771511 0.1242285371
10850234900.0 0.9898333635 0.1098729976
10900234600.0 0.992125696 0.0947937137
10950234300.0 0.9938019492 0.0811392572
11000234000.0 0.9955409544 0.0654888007
11050233700.0 0.9974314752 0.0489642809
11100233400.0 0.9988427051 0.0310790488
11150233100.0 0.999961137 0.0141882175
11200232800.0 1.000674909 -0.0019109197
11250232500.0 1.001692483 -0.0189347118
11300232200.0 1.002129728 -0.0380884409
11350231900.0 1.002024075 -0.0541417026
11400231600.0 1.001158713 -0.0693761309
11450231300.0 1.00047324 -0.0848971276
11500231000.0 1.000199289 -0.1029923743
11550230700.0 0.9984778905 -0.1149304194
11600230400.0 0.9969651431 -0.1272931879
11650230100.0 0.9946470237 -0.1393216433
11700229800.0 0.9928047572 -0.1545561444
11750229500.0 0.9904316156 -0.1689208615
11800229200.0 0.9871427543 -0.1818384711
11850228900.0 0.9834684739 -0.1937201561
11900228600.0 0.9795407122 -0.2032455016
11950228300.0 0.9764171387 -0.2132445406
12000228000.0 0.9735520282 -0.2221882485
12050227700.0 0.9700507122 -0.2343785753
12100227400.0 0.9664307654 -0.2459468477
12150227100.0 0.9619914209 -0.2621646477
12200226800.0 0.9582138524 -0.2729224513
12250226500.0 0.9538792808 -0.28632543
12300226200.0 0.9496974142 -0.2978411052
12350225900.0 0.9443946009 -0.3113955134
12400225600.0 0.9401426354 -0.324952392
12450225300.0 0.9360902794 -0.3367104641
12500225000.0 0.9302926759 -0.3514110705
12550224700.0 0.9249488368 -0.3656973532
12600224400.0 0.9198978574 -0.3784173084
12650224100.0 0.9140988653 -0.3926597058
12700223800.0 0.9088042965 -0.4055048072
12750223500.0 0.9031340584 -0.418683694
12800223200.0 0.8980771027 -0.4311133351
12850222900.0 0.892766568 -0.443103303
12900222600.0 0.8867454716 -0.4554905505
12950222300.0 0.881156241 -0.467790707
13000222000.0 0.8750752121 -0.4794862045
13050221700.0 0.8681406411 -0.4926397366
13100221400.0 0.8613830426 -0.5043702297
13150221100.0 0.8548578285 -0.5167361915
13200220800.0 0.8475045234 -0.5285092895
13250220500.0 0.8404140688 -0.5404306626
13300220200.0 0.8327166881 -0.5513025531
13350219900.0 0.8246739211 -0.5631435074
13400219600.0 0.8162515089 -0.5750726018
13450219300.0 0.8071427208 -0.5878980032
13500219000.0 0.7973322235 -0.6012867072
13550218700.0 0.7875571853 -0.6135427479
13600218400.0 0.7774942703 -0.6247348199
13650218100.0 0.7682100886 -0.6359532519
13700217800.0 0.7567199728 -0.6484577991
13750217500.0 0.7473135309 -0.6585453411
13800217200.0 0.7370915831 -0.6692895469
13850216900.0 0.725202525 -0.6810362094
13900216600.0 0.7156209436 -0.6903614726
13950216300.0 0.7050902058 -0.7001540078
14000216000.0 0.6951361458 -0.7093015753
14050215700.0 0.686446013 -0.7173678732
14100215400.0 0.6767779804 -0.7259397526
14150215100.0 0.6675035302 -0.7351923248
14200214800.0 0.6580194815 -0.7438422825
14250214500.0 0.6476991151 -0.7533904207
14300214200.0 0.6371284261 -0.7627116164
14350213900.0 0.6260857357 -0.7725854855
14400213600.0 0.6140831441 -0.782345421
14450213300.0 0.6010559974 -0.792534477
14500213000.0 0.5888785682 -0.8025508652
14550212700.0 0.5761442035 -0.8116526027
14600212400.0 0.5633568143 -0.8206931859
14650212100.0 0.5505563207 -0.8294222116
14700211800.0 0.5371848221 -0.8389316647
14750211500.0 0.5246671564 -0.8472367193
14800211200.0 0.5123518616 -0.8554166855
14850210900.0 0.4999768656 -0.862941138
14900210600.0 0.4867161879 -0.871048847
14950210300.0 0.4735579179 -0.8785206957
15000210000.0 0.4607802419 -0.8851815988
15050209700.0 0.4484656639 -0.8913568669
15100209400.0 0.4356431742 -0.8974087108
15150209100.0 0.4233066968 -0.9025610449
15200208800.0 0.4107043451 -0.9083615607
15250208500.0 0.4005779332 -0.9122873447
15300208200.0 0.3880619818 -0.9170858592
15350207900.0 0.3745841505 -0.9221655509
15400207600.0 0.3592978498 -0.9275009134
15450207300.0 0.3447874769 -0.9326623175
15500207000.0 0.3305251773 -0.936863711
15550206700.0 0.3153845576 -0.9422184999
15600206400.0 0.2992757854 -0.9464339286
15650206100.0 0.2836565558 -0.9506924752
15700205800.0 0.2701839619 -0.9543501692
15750205500.0 0.2564021059 -0.9575217451
15800205200.0 0.2424173306 -0.9611918878
15850204900.0 0.2281452535 -0.9645311293
15900204600.0 0.2131447081 -0.968365474
15950204300.0 0.1987803181 -0.9712833321
16000204000.0 0.1842024786 -0.9743262151
16050203700.0 0.169062186 -0.977714924
16100203400.0 0.1542647485 -0.9793213576
16150203100.0 0.1401139096 -0.9820317022
16200202800.0 0.1255701235 -0.9841727
16250202500.0 0.1103821112 -0.9862435026
16300202200.0 0.0948191099 -0.9874611095
16350201900.0 0.0800626958 -0.9888730153
16400201600.0 0.0652910464 -0.9900507748
16450201300.0 0.0498659804 -0.9911534367
16500201000.0 0.0327552045 -0.992066325
16550200700.0 0.0167280181 -0.9924647207
16600200400.0 0.0007883202 -0.9925998225
16650200100.0 -0.0153040197 -0.9926716937
16700199800.0 -0.0318778456 -0.992133149
16750199500.0 -0.0508600446 -0.9914732628
16800199200.0 -0.0667669272 -0.9905640761
16850198900.0 -0.0822468252 -0.9893443085
16900198600.0 -0.0967701369 -0.9890394387
16950198300.0 -0.109931037 -0.987056783
17000198000.0 -0.1230811635 -0.9859586683
17050197700.0 -0.1360881425 -0.9834979596
17100197400.0 -0.1482672351 -0.9822304281
17150197100.0 -0.1614647172 -0.9797242506
17200196800.0 -0.1743906633 -0.9776430855
17250196500.0 -0.1871419193 -0.9752867572
17300196200.0 -0.1993630862 -0.9729248818
17350195900.0 -0.2111756382 -0.9706553254
17400195600.0 -0.2230286472 -0.9681997565
17450195300.0 -0.2360643804 -0.9652838398
17500195000.0 -0.2494318612 -0.9618761819
17550194700.0 -0.2630762508 -0.958674057
17600194400.0 -0.2766942557 -0.9545580118
17650194100.0 -0.2905744026 -0.9504435496
17700193800.0 -0.3036648966 -0.9462554574
17750193500.0 -0.3179990338 -0.9412363554
17800193200.0 -0.3318755956 -0.9367023219
17850192900.0 -0.3466396556 -0.9311636771
17900192600.0 -0.3620762142 -0.9250239097
17950192300.0 -0.3774575458 -0.9178762054
18000192000.0 -0.3920102687 -0.9105305435
18050191700.0 -0.4059815539 -0.9025108136
18100191400.0 -0.419982802 -0.8949381325
18150191100.0 -0.4348377338 -0.8869580091
18200190800.0 -0.451548131 -0.8779382766
18250190500.0 -0.4684699283 -0.868458893
18300190200.0 -0.4838628271 -0.8596539546
18350189900.0 -0.4992936169 -0.8513302915
18400189600.0 -0.513667328 -0.8428118892
18450189300.0 -0.5275093655 -0.8348627862
18500189000.0 -0.5407287372 -0.8265777613
18550188700.0 -0.5529743467 -0.8193552476
18600188400.0 -0.5651113455 -0.8122237762
18650188100.0 -0.5765918076 -0.8054900134
18700187800.0 -0.5874233804 -0.7990458966
18750187500.0 -0.5986859172 -0.7920603219
18800187200.0 -0.609132846 -0.7854281464
18850186900.0 -0.6194067845 -0.7785055822
18900186600.0 -0.6298457914 -0.771032731
18950186300.0 -0.6399518211 -0.7631158671
19000186000.0 -0.6474547106 -0.7568811508
19050185700.0 -0.6569241912 -0.7498009905
19100185400.0 -0.6666848711 -0.7417516937
19150185100.0 -0.6770048735 -0.7335158756
19200184800.0 -0.6866753333 -0.7250155346
19250184500.0 -0.6971168963 -0.7154670687
19300184200.0 -0.7081166343 -0.7063129786
19350183900.0 -0.7185520653 -0.6969465946
19400183600.0 -0.7286863688 -0.6868736099
19450183300.0 -0.7373708785 -0.6770760645
19500183000.0 -0.7461022667 -0.6664841384
19550182700.0 -0.755515972 -0.6553626302
19600182400.0 -0.765578008 -0.6439738036
19650182100.0 -0.77646468 -0.631336876
19700181800.0 -0.7867699033 -0.6182087867
19750181500.0 -0.7971842615 -0.6041125523
19800181200.0 -0.8072167606 -0.5890954831
19850180900.0 -0.8167952854 -0.5740359877
19900180600.0 -0.8245287958 -0.5595499425
19950180300.0 -0.8336665972 -0.5431623006
20000180000.0 -0.8234290412 -0.5469531932
20050179700.0 -0.8313838002 -0.5340174542
20100179400.0 -0.8398104652 -0.5209018069
20150179100.0 -0.8475664804 -0.5092470547
20200178800.0 -0.8558952375 -0.4975936109
20250178500.0 -0.8651590774 -0.4852231097
20300178200.0 -0.8755411349 -0.4714361527
20350177900.0 -0.8837671504 -0.4575683609
20400177600.0 -0.8936312916 -0.4435485377
20450177300.0 -0.9021318525 -0.4291331735
20500177000.0 -0.9099557241 -0.4151368709
20550176700.0 -0.9178928336 -0.4016310118
20600176400.0 -0.924720535 -0.3889818486
20650176100.0 -0.9316866968 -0.3766908068
20700175800.0 -0.9381338735 -0.3646932483
20750175500.0 -0.9446373501 -0.3527468594
20800175200.0 -0.9499919756 -0.3420029578
20850174900.0 -0.9542614289 -0.3315467822
20900174600.0 -0.957198258 -0.32043043
20950174300.0 -0.9614161453 -0.3094160395
21000174000.0 -0.9642732901 -0.2989217679
21050173700.0 -0.9654000174 -0.2897884009
21100173400.0 -0.968875568 -0.2782413059
21150173100.0 -0.9730865834 -0.2667391964
21200172800.0 -0.977170221 -0.2533538867
21250172500.0 -0.9809694918 -0.2397306311
21300172200.0 -0.9840810874 -0.2257536738
21350171900.0 -0.9860998908 -0.2111717615
21400171600.0 -0.9884580269 -0.1972443181
21450171300.0 -0.988501574 -0.1828740061
21500171000.0 -0.9888612026 -0.1680853836
21550170700.0 -0.990121269 -0.153467155
21600170400.0 -0.9905181129 -0.1375717755
21650170100.0 -0.9907709528 -0.1206121807
21700169800.0 -0.9903106236 -0.1067085419
21750169500.0 -0.9900498426 -0.0904006081
21800169200.0 -0.9898471601 -0.0743850553
21850168900.0 -0.9894980414 -0.056651673
21900168600.0 -0.9900845623 -0.0405689166
21950168300.0 -0.9892483694 -0.0251343697
22000168000.0 -0.9893660439 -0.0100892061
22050167700.0 -0.9898194405 0.004712547
22100167400.0 -0.9905630094 0.0203397291
22150167100.0 -0.9916408073 0.0365096538
22200166800.0 -0.9915067717 0.0526347155
22250166500.0 -0.9910333248 0.0700697797
22300166200.0 -0.9906609167 0.0863997026
22350165900.0 -0.9894810226 0.1025026518
22400165600.0 -0.9882371628 0.1185730348
22450165300.0 -0.9862425561 0.1333438998
22500165000.0 -0.9846731604 0.1472556126
22550164700.0 -0.9834354193 0.1636325324
22600164400.0 -0.9810777046 0.1806406486
22650164100.0 -0.9782522494 0.1956995087
22700163800.0 -0.9747311778 0.211689346
22750163500.0 -0.9719657351 0.2266999268
22800163200.0 -0.9687083568 0.239906715
22850162900.0 -0.966598512 0.2528843574
22900162600.0 -0.964526898 0.2670766467
22950162300.0 -0.962771702 0.2806804582
23000162000.0 -0.960944414 0.293500329
23050161700.0 -0.9583694063 0.3070867413
23100161400.0 -0.9558083225 0.3205147551
23150161100.0 -0.9529437992 0.332912783
23200160800.0 -0.949935311 0.3456133104
23250160500.0 -0.9473614084 0.3586530456
23300160200.0 -0.9441823312 0.3711084292
23350159900.0 -0.940456826 0.3851381835
23400159600.0 -0.9355102847 0.3980076078
23450159300.0 -0.9300466748 0.412352522
23500159000.0 -0.9255043307 0.425740383
23550158700.0 -0.9201450663 0.4400313897
23600158400.0 -0.9140457737 0.454465982
23650158100.0 -0.9067936704 0.4688657484
23700157800.0 -0.8984610565 0.4832391344
23750157500.0 -0.8890863156 0.4972888284
23800157200.0 -0.8791439584 0.5109406381
23850156900.0 -0.8692677568 0.5237240403
23900156600.0 -0.8590621214 0.5365471654
23950156300.0 -0.8503217504 0.5493327743
24000156000.0 -0.8403974685 0.5603272207
24050155700.0 -0.8290183106 0.5737688734
24100155400.0 -0.8189361145 0.5857761893
24150155100.0 -0.8084891206 0.5983875061
24200154800.0 -0.7972537146 0.6099213027
24250154500.0 -0.7863428756 0.6221070002
24300154200.0 -0.7743577715 0.6336328322
24350153900.0 -0.7623189444 0.645367559
24400153600.0 -0.7499281246 0.6559955329
24450153300.0 -0.737674188 0.666288789
24500153000.0 -0.7260595466 0.6762810396
24550152700.0 -0.7149454587 0.686775456
24600152400.0 -0.7027879393 0.6960491078
24650152100.0 -0.6904429566 0.7049229086
