!Created with skrf (http://scikit-rf.org).
# Hz S RI R 50.0 
!freq ReS11 ImS11
300000.0 -0.9744107441 -0.1214893755
50299700.0 -0.9999071154 0.0150525407
100299400.0 -0.9980629833 0.0280868654
150299100.0 -1.002884695 0.0450161711
200298800.0 -0.9996693489 0.0580242368
250298500.0 -0.9972342434 0.0718118251
300298200.0 -0.9860119865 0.0876417189
350297900.0 -0.9938929858 0.0983541175
400297600.0 -0.9931295675 0.1151130594
450297300.0 -0.9909923782 0.1288506432
500297000.0 -0.9894757278 0.1437327263
550296700.0 -0.9841230827 0.1560112317
600296400.0 -1.017263231 0.1893629657
650296100.0 -0.9822070101 0.1858560113
700295800.0 -0.9793968153 0.200287093
750295500.0 -0.976134519 0.214210694
800295200.0 -0.9728790789 0.2282562757
850294900.0 -0.9697555158 0.2420989176
900294600.0 -0.965885283 0.2557270757
950294300.0 -0.9620899235 0.2696382011
1000294000.0 -0.9582459928 0.2836236913
1050293700.0 -0.9537310355 0.2970716933
1100293400.0 -0.9491799579 0.3116722543
1150293100.0 -0.9455077271 0.3237128141
1200292800.0 -0.9403582253 0.3378438155
1250292500.0 -0.934694402 0.3514048545
1300292200.0 -0.9289963777 0.3646701816
1350291900.0 -0.9234295409 0.3787248862
1400291600.0 -0.9178863293 0.3915406341
1450291300.0 -0.9126129525 0.404165648
1500291000.0 -0.9061083071 0.4175602028
1550290700.0 -0.8997006585 0.4308353135
1600290400.0 -0.8935809149 0.4437802289
1650290100.0 -0.8867115163 0.4558642625
1700289800.0 -0.8800050567 0.4693686327
1750289500.0 -0.8726514513 0.4816711541
1800289200.0 -0.8656934466 0.4946207284
1850288900.0 -0.8588294483 0.505779748
1900288600.0 -0.8511139186 0.5188161514
1950288300.0 -0.8429495492 0.5315415886
2000288000.0 -0.8353763403 0.542693043
2050287700.0 -0.827223239 0.5551522541
2100287400.0 -0.8190893371 0.5668539937
2150287100.0 -0.8107197953 0.578962716
2200286800.0 -0.8028477177 0.5892146669
2250286500.0 -0.7940832356 0.6014309655
2300286200.0 -0.7852807721 0.613023248
2350285900.0 -0.7768031172 0.6236037022
2400285600.0 -0.7677759907 0.6347685677
2450285300.0 -0.7591156689 0.6452858673
2500285000.0 -0.7492246457 0.6566535764
2550284700.0 -0.7402844126 0.6669856344
2600284400.0 -0.7308998919 0.6769479398
2650284100.0 -0.7221149446 0.687451859
2700283800.0 -0.7116392125 0.6979560628
2750283500.0 -0.7013359377 0.7085909723
2800283200.0 -0.6913571523 0.7181126662
2850282900.0 -0.6813555465 0.7282659125
2900282600.0 -0.6707983606 0.7381337516
2950282300.0 -0.6602845653 0.7472262702
3000282000.0 -0.6497293749 0.756689332
3050281700.0 -0.638609865 0.7657368273
3100281400.0 -0.626718628 0.7751824228
3150281100.0 -0.615241068 0.7843539443
3200280800.0 -0.6036683387 0.7927459685
3250280500.0 -0.5926741223 0.8005228156
3300280200.0 -0.5812599485 0.8085156442
3350279900.0 -0.5692992504 0.8163054606
3400279600.0 -0.5569137468 0.824066348
3450279300.0 -0.5459885878 0.8313496728
3500279000.0 -0.534043442 0.8382427249
3550278700.0 -0.5220148969 0.8456339268
3600278400.0 -0.5100841114 0.8527032272
3650278100.0 -0.4964004945 0.8601899719
3700277800.0 -0.4842343107 0.8666427835
3750277500.0 -0.4723096481 0.8730901012
3800277200.0 -0.4597146886 0.8795894934
3850276900.0 -0.4478510856 0.8855035364
3900276600.0 -0.4368380014 0.8911568903
3950276300.0 -0.4245210058 0.8972437965
4000276000.0 -0.4129199095 0.9034054366
4050275700.0 -0.3998647919 0.9093850957
4100275400.0 -0.3889014055 0.9146833126
4150275100.0 -0.3758445303 0.9205765669
4200274800.0 -0.3628852239 0.9259043173
4250274500.0 -0.3503366854 0.9312524635
4300274200.0 -0.3372701776 0.936686951
4350273900.0 -0.3233907902 0.9416418216
4400273600.0 -0.3084666412 0.9471062706
4450273300.0 -0.293234678 0.9519818976
4500273000.0 -0.2800125109 0.9563255047
4550272700.0 -0.2661065605 0.9607322875
4600272400.0 -0.2506304935 0.9648399237
4650272100.0 -0.2390824574 0.9681085359
4700271800.0 -0.2259583274 0.9713689571
4750271500.0 -0.2140795743 0.9743626701
4800271200.0 -0.2017352352 0.977041298
4850270900.0 -0.1880094105 0.979787317
4900270600.0 -0.1741621097 0.9822702114
4950270300.0 -0.1596464378 0.9846761054
5000270000.0 -0.1453192477 0.9870094121
5050269700.0 -0.13179222 0.988665682
5100269400.0 -0.1181610745 0.990187653
5150269100.0 -0.1046488359 0.9916684402
5200268800.0 -0.0912112517 0.9928022996
5250268500.0 -0.0780467905 0.9937577625
5300268200.0 -0.0649375029 0.9943019837
5350267900.0 -0.052129546 0.9948296802
5400267600.0 -0.0360535693 0.9962919196
5450267300.0 -0.0228827013 0.9966062317
5500267000.0 -0.0075380848 0.9970131497
5550266700.0 0.0074166708 0.9973364561
5600266400.0 0.0226886101 0.9971562848
5650266100.0 0.0395032179 0.996825749
5700265800.0 0.0538468335 0.9962524931
5750265500.0 0.0690413856 0.9952555416
5800265200.0 0.082394627 0.9939822294
5850264900.0 0.0961902008 0.9935449139
5900264600.0 0.1124711046 0.9916570233
5950264300.0 0.1244046865 0.990193266
6000264000.0 0.138308153 0.9882098734
6050263700.0 0.1504674433 0.9865501507
6100263400.0 0.1625726043 0.9850169637
6150263100.0 0.1771786235 0.9827013466
6200262800.0 0.1873809792 0.9810234823
6250262500.0 0.1999098418 0.9785646132
6300262200.0 0.2125770047 0.976016755
6350261900.0 0.2256047869 0.973207702
6400261600.0 0.2392351993 0.9696360141
6450261300.0 0.2506835729 0.9672618402
6500261000.0 0.2636443121 0.963671526
6550260700.0 0.2768407596 0.959538702
6600260400.0 0.289863195 0.9553899518
6650260100.0 0.3040375739 0.9512017806
6700259800.0 0.3159565637 0.9468770803
6750259500.0 0.3299511225 0.9419400131
6800259200.0 0.3433377883 0.9369971063
6850258900.0 0.3554156919 0.9316013967
6900258600.0 0.367629613 0.926498551
6950258300.0 0.3803022773 0.9213878345
7000258000.0 0.3921780311 0.9162071043
7050257700.0 0.4042134641 0.9099740923
7100257400.0 0.4172555359 0.9035627847
7150257100.0 0.4277644446 0.8984128819
7200256800.0 0.4406475367 0.8920222572
7250256500.0 0.4526692973 0.8853866978
7300256200.0 0.4658888144 0.8787662354
7350255900.0 0.478090108 0.8718065994
7400255600.0 0.4918980912 0.864159005
7450255300.0 0.5073610805 0.8554812946
7500255000.0 0.5192960535 0.8480172494
7550254700.0 0.5337329147 0.839590128
7600254400.0 0.546020628 0.8312618371
7650254100.0 0.5572708801 0.8233040871
7700253800.0 0.5693482066 0.8153200261
7750253500.0 0.580233278 0.8074982665
7800253200.0 0.5911051281 0.8000075774
7850252900.0 0.6006238483 0.7928577883
7900252600.0 0.6123281466 0.7841261943
7950252300.0 0.6210266295 0.777665665
8000252000.0 0.6312337311 0.7700655222
8050251700.0 0.6417350167 0.761670428
8100251400.0 0.6516172987 0.7537826313
8150251100.0 0.6615758914 0.745083076
8200250800.0 0.6710689637 0.7372034479
8250250500.0 0.6799718782 0.7291686766
8300250200.0 0.6890869485 0.720656567
8350249900.0 0.6979855783 0.7118342908
8400249600.0 0.7064153125 0.7039603348
8450249300.0 0.7153055835 0.694885936
8500249000.0 0.7240773774 0.6860768529
8550248700.0 0.732349523 0.6771978498
8600248400.0 0.7409075611 0.6675146691
8650248100.0 0.7484942648 0.6579559728
8700247800.0 0.7581396268 0.6469254503
8750247500.0 0.7664484971 0.6367282812
8800247200.0 0.7743786328 0.6261838256
8850246900.0 0.7831985499 0.6148951577
8900246600.0 0.7915134649 0.6036088116
8950246300.0 0.8008558555 0.5907715366
9000246000.0 0.8102393921 0.5780988596
9050245700.0 0.8189418489 0.5654550506
9100245400.0 0.8274506611 0.5530376336
9150245100.0 0.8363644553 0.5398871706
9200244800.0 0.8462103591 0.5249435633
9250244500.0 0.8553109114 0.5098599182
9300244200.0 0.8637630876 0.4957716627
9350243900.0 0.8715775061 0.4822086994
9400243600.0 0.8780464567 0.469935833
9450243300.0 0.8839760431 0.4587271574
9500243000.0 0.8900553954 0.4468330348
9550242700.0 0.893992006 0.4393591025
9600242400.0 0.8981589643 0.4316382941
9650242100.0 0.9019252201 0.4251048325
9700241800.0 0.9068291456 0.4166978955
9750241500.0 0.9107901546 0.4092050831
9800241200.0 0.9154273098 0.3999546672
9850240900.0 0.921086186 0.3884168875
9900240600.0 0.9272246763 0.3762831608
9950240300.0 0.9338750469 0.3601567958
10000240000.0 0.9387787607 0.3486351814
10050239700.0 0.9445841935 0.3329322748
10100239400.0 0.9494526823 0.3172270187
10150239100.0 0.9539819953 0.3019923474
10200238800.0 0.958261831 0.2866672175
10250238500.0 0.9615144105 0.27346645
10300238200.0 0.9646378048 0.2595099788
10350237900.0 0.9672810298 0.2463738822
10400237600.0 0.9698975011 0.2328677175
10450237300.0 0.9725174056 0.2196534458
10500237000.0 0.9746983599 0.2067896634
10550236700.0 0.9770581455 0.1925353731
10600236400.0 0.9790502405 0.1787085418
10650236100.0 0.9813451367 0.1642524224
10700235800.0 0.9833861428 0.1522618733
10750235500.0 0.9859927812 0.1382304945
10800235200.0 0.9879755987 0.1244398919
10850234900.0 0.9900135759 0.109702926
10900234600.0 0.9917003159 0.095075644
10950234300.0 0.9935332663 0.0815945008
11000234000.0 0.9953105466 0.0664049951
11050233700.0 0.9970562322 0.0498909397
11100233400.0 0.9984415865 0.0323253759
11150233100.0 0.9998727779 0.0159609096
11200232800.0 1.000325027 0.0002670914
11250232500.0 1.001490179 -0.0164613731
11300232200.0 1.00133014 -0.0339685296
11350231900.0 1.001979814 -0.0510775524
11400231600.0 1.001892582 -0.0663578493
11450231300.0 1.000916075 -0.081429681
11500231000.0 0.9997770436 -0.0977730217
11550230700.0 0.9985681105 -0.1108356653
11600230400.0 0.99707584 -0.1233395613
11650230100.0 0.9950028093 -0.1350643428
11700229800.0 0.9931377093 -0.1495577282
11750229500.0 0.9905933616 -0.1641586589
11800229200.0 0.9878518781 -0.1776413719
11850228900.0 0.9843543823 -0.1898780746
11900228600.0 0.9807662666 -0.1996074718
11950228300.0 0.9773945247 -0.2097582687
12000228000.0 0.9746032407 -0.2188479763
12050227700.0 0.9710505182 -0.2316117294
12100227400.0 0.9679705591 -0.2425800546
12150227100.0 0.9622057212 -0.2595808179
12200226800.0 0.9587758445 -0.2704075732
12250226500.0 0.9549373352 -0.2830831017
12300226200.0 0.9511187846 -0.295508488
12350225900.0 0.9454492366 -0.3084178427
12400225600.0 0.9416354778 -0.3220901221
12450225300.0 0.9373053959 -0.335196756
12500225000.0 0.9318096971 -0.3490906257
12550224700.0 0.9261987267 -0.3637158948
12600224400.0 0.9213628546 -0.3760683617
12650224100.0 0.915388197 -0.3904504067
12700223800.0 0.9100960145 -0.4034522395
12750223500.0 0.9047831144 -0.4161376994
12800223200.0 0.8990348424 -0.4293490176
12850222900.0 0.894153349 -0.4413570442
12900222600.0 0.8886726633 -0.4536327782
12950222300.0 0.8822040777 -0.4660183225
13000222000.0 0.8760465356 -0.4779115306
13050221700.0 0.869435839 -0.4902279834
13100221400.0 0.8632834916 -0.5019648251
13150221100.0 0.8561329541 -0.5146179315
13200220800.0 0.8493008204 -0.5257724964
13250220500.0 0.8415555806 -0.5383002183
13300220200.0 0.8343799024 -0.5490115509
13350219900.0 0.8262928535 -0.5608921445
13400219600.0 0.8179684516 -0.5728980012
13450219300.0 0.8085058279 -0.5864165739
13500219000.0 0.7986609595 -0.5998106553
13550218700.0 0.7882425168 -0.6123036219
13600218400.0 0.778440228 -0.6244172296
13650218100.0 0.7688788676 -0.6351236946
13700217800.0 0.7581484721 -0.6475573674
13750217500.0 0.7487794226 -0.6585842979
13800217200.0 0.7373000825 -0.6698946389
13850216900.0 0.7265458235 -0.6819542406
13900216600.0 0.7160482647 -0.6904693769
13950216300.0 0.7057914603 -0.7000903622
14000216000.0 0.6956039838 -0.7093700969
14050215700.0 0.6866091013 -0.7181790055
14100215400.0 0.6760984948 -0.7270148449
14150215100.0 0.6674334633 -0.7358284161
14200214800.0 0.6577398336 -0.7447527153
14250214500.0 0.6474406732 -0.7539653338
14300214200.0 0.6371543751 -0.7633500048
14350213900.0 0.6257191166 -0.7728811217
14400213600.0 0.6143412005 -0.7828042398
14450213300.0 0.6007976413 -0.7928055087
14500213000.0 0.5878600879 -0.8028297728
14550212700.0 0.5749466035 -0.8124372423
14600212400.0 0.563244611 -0.820871599
14650212100.0 0.5497005685 -0.83006227
14700211800.0 0.5361528875 -0.8388824479
14750211500.0 0.5242947402 -0.8474208092
14800211200.0 0.5118378355 -0.8557052984
14850210900.0 0.4997477279 -0.8631272625
14900210600.0 0.4866744377 -0.8711182838
14950210300.0 0.4731149984 -0.8786668251
15000210000.0 0.4604916662 -0.8853939779
15050209700.0 0.4479329686 -0.8915663239
15100209400.0 0.4352118909 -0.8975051678
15150209100.0 0.422459142 -0.9028981547
15200208800.0 0.4104219003 -0.9082733349
15250208500.0 0.3996474668 -0.9128780431
15300208200.0 0.386750412 -0.9175781451
15350207900.0 0.3730193448 -0.9220228564
15400207600.0 0.358607347 -0.9277725385
15450207300.0 0.3450484512 -0.9329280062
15500207000.0 0.329970817 -0.9374829116
15550206700.0 0.3151606779 -0.942414805
15600206400.0 0.2998328479 -0.9472165435
15650206100.0 0.2833556908 -0.9509541948
15700205800.0 0.2696133046 -0.9547644185
15750205500.0 0.2555187149 -0.9580233575
15800205200.0 0.241271015 -0.9615755567
15850204900.0 0.2268739751 -0.9650386127
15900204600.0 0.2117804238 -0.9687064263
15950204300.0 0.1975441386 -0.9718540103
16000204000.0 0.1832212177 -0.9747602774
16050203700.0 0.1679964743 -0.9777709404
16100203400.0 0.1534693179 -0.979716336
16150203100.0 0.139152696 -0.982321904
16200202800.0 0.1247815344 -0.9846196702
16250202500.0 0.1093092643 -0.9856903852
16300202200.0 0.0944931441 -0.9875355396
16350201900.0 0.0795314423 -0.9889471417
16400201600.0 0.0650419759 -0.9902632437
16450201300.0 0.0495009912 -0.9914207916
16500201000.0 0.032794371 -0.9921092485
16550200700.0 0.0168449402 -0.992647684
16600200400.0 0.0013887334 -0.992907239
16650200100.0 -0.0148841919 -0.9929115895
16700199800.0 -0.0310587686 -0.9925024051
16750199500.0 -0.0500039184 -0.9918791887
16800199200.0 -0.0651287387 -0.9909638833
16850198900.0 -0.080998865 -0.9901251041
16900198600.0 -0.0946487409 -0.9885682393
16950198300.0 -0.108261673 -0.9875993977
17000198000.0 -0.1208375979 -0.9860553627
17050197700.0 -0.133925877 -0.9839467201
17100197400.0 -0.147280708 -0.9814492452
17150197100.0 -0.1593955439 -0.9801026507
17200196800.0 -0.1724370097 -0.9780744645
17250196500.0 -0.1851099846 -0.9757461786
17300196200.0 -0.1974091376 -0.9733679892
17350195900.0 -0.2091555696 -0.9709930363
17400195600.0 -0.2215188833 -0.9685170302
17450195300.0 -0.2345202084 -0.9657818538
17500195000.0 -0.2480145842 -0.9624464969
17550194700.0 -0.2620752174 -0.9589224466
17600194400.0 -0.2755900963 -0.9550942649
17650194100.0 -0.2893306846 -0.9510943859
17700193800.0 -0.302194734 -0.9463464811
17750193500.0 -0.3169374616 -0.9421400794
17800193200.0 -0.3308525507 -0.9367413299
17850192900.0 -0.3458609715 -0.9313929725
17900192600.0 -0.3610122362 -0.9256459996
17950192300.0 -0.3764105291 -0.9183214274
18000192000.0 -0.391537711 -0.9111190312
18050191700.0 -0.4053705255 -0.9032700761
18100191400.0 -0.4194983405 -0.8956537896
18150191100.0 -0.4344796701 -0.8875311098
18200190800.0 -0.4513142732 -0.878426787
18250190500.0 -0.4681929161 -0.8689077572
18300190200.0 -0.4838405364 -0.8601794861
18350189900.0 -0.4989745054 -0.8520178628
18400189600.0 -0.5133988466 -0.8433648521
18450189300.0 -0.5266919639 -0.83568431
18500189000.0 -0.5401455863 -0.8277514939
18550188700.0 -0.5529065041 -0.820079092
18600188400.0 -0.5645375716 -0.8132088799
18650188100.0 -0.5755930404 -0.8068753961
18700187800.0 -0.5865344161 -0.8001032556
18750187500.0 -0.5972890162 -0.7934641928
18800187200.0 -0.6077383575 -0.7865611236
18850186900.0 -0.617919672 -0.7796912148
18900186600.0 -0.628240778 -0.7723988147
18950186300.0 -0.6383194795 -0.7645717735
19000186000.0 -0.6456231631 -0.7588084216
19050185700.0 -0.6548572942 -0.7513072144
19100185400.0 -0.6648925295 -0.742985817
19150185100.0 -0.6749169266 -0.7345546112
19200184800.0 -0.6847676681 -0.726591416
19250184500.0 -0.6945472463 -0.7174991743
19300184200.0 -0.7057768626 -0.707814745
19350183900.0 -0.7169129864 -0.6981799426
19400183600.0 -0.7268279605 -0.688103121
19450183300.0 -0.7356331937 -0.6780381456
19500183000.0 -0.7442708957 -0.6681552951
19550182700.0 -0.7533430112 -0.6572345893
19600182400.0 -0.7639388073 -0.6457220641
19650182100.0 -0.7747910817 -0.6328659276
19700181800.0 -0.7853317736 -0.6196199597
19750181500.0 -0.7959200696 -0.6053722022
19800181200.0 -0.8061822105 -0.5905404687
19850180900.0 -0.8159153248 -0.5751517063
19900180600.0 -0.8233100797 -0.5609596763
19950180300.0 -0.8328861649 -0.5445882753
20000180000.0 -0.8254416313 -0.5475198694
20050179700.0 -0.8333197416 -0.5349405385
20100179400.0 -0.8415355835 -0.5204767225
20150179100.0 -0.8491948411 -0.5083483841
20200178800.0 -0.8571180173 -0.4964951679
20250178500.0 -0.8677180424 -0.4834632797
20300178200.0 -0.8770072545 -0.4692099886
20350177900.0 -0.8859253941 -0.4552907883
20400177600.0 -0.895189721 -0.4405744588
20450177300.0 -0.9036945342 -0.4259123006
20500177000.0 -0.9116209275 -0.4120656695
20550176700.0 -0.9192575189 -0.3987243567
20600176400.0 -0.9264078966 -0.3856134477
20650176100.0 -0.933082854 -0.3735633343
20700175800.0 -0.9401350657 -0.3614965672
20750175500.0 -0.9465231333 -0.3506125982
20800175200.0 -0.9513733542 -0.3394496542
20850174900.0 -0.9556264499 -0.3286154087
20900174600.0 -0.9599642567 -0.3164130162
20950174300.0 -0.9627910372 -0.3059040613
21000174000.0 -0.9661852629 -0.2940782315
21050173700.0 -0.9691715671 -0.2840329606
21100173400.0 -0.973437182 -0.2720979606
21150173100.0 -0.9771281236 -0.2599889594
21200172800.0 -0.9805159029 -0.246755911
21250172500.0 -0.9838467573 -0.2332188906
21300172200.0 -0.9870625842 -0.2191492387
21350171900.0 -0.9892150771 -0.2050933738
21400171600.0 -0.9912613711 -0.1910975549
21450171300.0 -0.9908437628 -0.176394805
21500171000.0 -0.9909159201 -0.1610545862
21550170700.0 -0.9915232305 -0.1453517668
21600170400.0 -0.992353114 -0.1303240667
21650170100.0 -0.9920099636 -0.114091969
21700169800.0 -0.9900459646 -0.0989028154
21750169500.0 -0.9894124878 -0.0828828792
21800169200.0 -0.9898357442 -0.0664666919
21850168900.0 -0.9881170392 -0.0492283412
21900168600.0 -0.9870855121 -0.0336178079
21950168300.0 -0.9862969959 -0.0171507647
22000168000.0 -0.985728186 -0.0028606379
22050167700.0 -0.9858916821 0.0117075343
22100167400.0 -0.986273579 0.0269881642
22150167100.0 -0.9867829293 0.0425987274
22200166800.0 -0.9875030697 0.0590415168
22250166500.0 -0.9863665747 0.0766863784
22300166200.0 -0.9863424691 0.092661455
22350165900.0 -0.9851844203 0.1089973077
22400165600.0 -0.9831750767 0.1247337085
22450165300.0 -0.9812264049 0.1400615556
22500165000.0 -0.9804628947 0.1541992819
22550164700.0 -0.9790410507 0.1701642927
22600164400.0 -0.9763259968 0.1849738118
22650164100.0 -0.9741512884 0.2008914023
22700163800.0 -0.9714144495 0.2157682447
22750163500.0 -0.9687312594 0.2313717646
22800163200.0 -0.9659056967 0.2449410033
22850162900.0 -0.9633034921 0.2578572201
22900162600.0 -0.9614641784 0.2713505084
22950162300.0 -0.9603435135 0.2845310806
23000162000.0 -0.9589009966 0.2969996133
23050161700.0 -0.956895319 0.3095537663
23100161400.0 -0.9542084009 0.3227051063
23150161100.0 -0.9515054128 0.3350922435
23200160800.0 -0.948377615 0.3474948807
23250160500.0 -0.9457964116 0.3600826864
23300160200.0 -0.9434426894 0.3725476297
23350159900.0 -0.9388899111 0.3863081027
23400159600.0 -0.9342704262 0.3983126913
23450159300.0 -0.9292390656 0.4122120517
23500159000.0 -0.9247296737 0.4254755226
23550158700.0 -0.9201393935 0.4390793028
23600158400.0 -0.9147999655 0.4527840571
23650158100.0 -0.907870983 0.4668232561
23700157800.0 -0.9003295732 0.4809314714
23750157500.0 -0.8912808439 0.4953909994
23800157200.0 -0.8822653362 0.5089320726
23850156900.0 -0.8735373361 0.5211494322
23900156600.0 -0.8631470377 0.534010641
23950156300.0 -0.8536431361 0.54619652
24000156000.0 -0.8451013884 0.557918958
24050155700.0 -0.8344846899 0.5699974271
24100155400.0 -0.8241269458 0.5823553478
24150155100.0 -0.8141784982 0.5943754966
24200154800.0 -0.8034351951 0.6065635733
24250154500.0 -0.7918529829 0.6184060014
24300154200.0 -0.7803044484 0.6298801543
24350153900.0 -0.7685333639 0.6404855421
24400153600.0 -0.7562017836 0.6510158168
24450153300.0 -0.744766465 0.6605145129
24500153000.0 -0.7329463055 0.6706990643
24550152700.0 -0.7213612124 0.6806696616
24600152400.0 -0.7099012687 0.6904017905
24650152100.0 -0.6979249525 0.6978559501
