!Created with skrf (http://scikit-rf.org).
# Hz S RI R 50.0 
!freq ReS11 ImS11
300000.0 -0.9755830581 -0.1191008677
50299700.0 -0.9999757645 0.0153101323
100299400.0 -0.9979441565 0.0281383419
150299100.0 -1.002846031 0.0452412328
200298800.0 -0.9996310446 0.0584634423
250298500.0 -0.9973239496 0.071845733
300298200.0 -0.9859186624 0.0875745234
350297900.0 -0.9938505158 0.0986584403
400297600.0 -0.9933473557 0.1152480009
450297300.0 -0.9910088334 0.1291713139
500297000.0 -0.9893126106 0.1437180211
550296700.0 -0.98444279 0.1562226862
600296400.0 -1.017292318 0.1892962336
650296100.0 -0.9822118929 0.1860794374
700295800.0 -0.9794653236 0.2002354225
750295500.0 -0.9763075175 0.214629536
800295200.0 -0.9730981374 0.2284188971
850294900.0 -0.9696782294 0.2420825966
900294600.0 -0.96585352 0.2558919779
950294300.0 -0.9622838142 0.2696854906
1000294000.0 -0.9582568893 0.2836043576
1050293700.0 -0.953538767 0.2975056969
1100293400.0 -0.9493218621 0.3118746539
1150293100.0 -0.9455322691 0.32361358
1200292800.0 -0.9401442561 0.3380815358
1250292500.0 -0.9345587243 0.3516029612
1300292200.0 -0.9289959662 0.3647806778
1350291900.0 -0.9234341276 0.3788690635
1400291600.0 -0.9179554055 0.3918707778
1450291300.0 -0.9125105628 0.4043202268
1500291000.0 -0.9063133509 0.4177091534
1550290700.0 -0.8997317019 0.4309548175
1600290400.0 -0.8934644118 0.4439796848
1650290100.0 -0.8867879816 0.4560036055
1700289800.0 -0.8798908216 0.469416735
1750289500.0 -0.8728489937 0.4817559678
1800289200.0 -0.8654810572 0.4946913883
1850288900.0 -0.8588595615 0.5058658543
1900288600.0 -0.8509617087 0.5190208038
1950288300.0 -0.8428414474 0.5317079713
2000288000.0 -0.8354833897 0.5429297176
2050287700.0 -0.8272427788 0.5552564922
2100287400.0 -0.819422093 0.5670412827
2150287100.0 -0.8108033917 0.5789474151
2200286800.0 -0.8031338309 0.5892174804
2250286500.0 -0.7941550884 0.6014525034
2300286200.0 -0.7851671116 0.6130746649
2350285900.0 -0.7765923829 0.62407327
2400285600.0 -0.7674086106 0.6350952658
2450285300.0 -0.7590942593 0.6452732191
2500285000.0 -0.7493253849 0.6565748494
2550284700.0 -0.7401328944 0.6667794118
2600284400.0 -0.7308847271 0.6771266008
2650284100.0 -0.7220436131 0.6875516381
2700283800.0 -0.7116936583 0.6981622971
2750283500.0 -0.7012614871 0.7085980373
2800283200.0 -0.6913405689 0.7184718139
2850282900.0 -0.6811210249 0.728436162
2900282600.0 -0.6704703427 0.7378472539
2950282300.0 -0.6607316889 0.7471896065
3000282000.0 -0.6497902251 0.7566735202
3050281700.0 -0.6387416219 0.7659614253
3100281400.0 -0.6267631187 0.7753987584
3150281100.0 -0.6149449959 0.7845451468
3200280800.0 -0.6032888735 0.793130842
3250280500.0 -0.5924276764 0.8009090378
3300280200.0 -0.5813023234 0.8089391331
3350279900.0 -0.5695671442 0.8163319326
3400279600.0 -0.557419783 0.8240592976
3450279300.0 -0.5464591474 0.8310944723
3500279000.0 -0.5344980826 0.8381859837
3550278700.0 -0.5219511123 0.84544481
3600278400.0 -0.5097343155 0.8525849552
3650278100.0 -0.4965385342 0.8602803053
3700277800.0 -0.484433599 0.8667938775
3750277500.0 -0.4723208309 0.8733233839
3800277200.0 -0.4599599226 0.8800301045
3850276900.0 -0.4477561556 0.8858601398
3900276600.0 -0.4368482017 0.8914387568
3950276300.0 -0.4245502324 0.897408314
4000276000.0 -0.4123509679 0.9036254649
4050275700.0 -0.399747305 0.9095949392
4100275400.0 -0.3885363054 0.9149009908
4150275100.0 -0.3759307468 0.920646911
4200274800.0 -0.3627450325 0.926162279
4250274500.0 -0.3504596893 0.9312198898
4300274200.0 -0.3375919556 0.9367469595
4350273900.0 -0.3237718015 0.9418444051
4400273600.0 -0.3088614609 0.9472713576
4450273300.0 -0.2937062195 0.9522510378
4500273000.0 -0.2800021007 0.9565437077
4550272700.0 -0.2659529513 0.9608766906
4600272400.0 -0.2503972501 0.9650701565
4650272100.0 -0.2386340055 0.9684000953
4700271800.0 -0.2254224624 0.9715859512
4750271500.0 -0.2137335924 0.9743986225
4800271200.0 -0.2012150066 0.9772282608
4850270900.0 -0.1872921075 0.9800175594
4900270600.0 -0.1734050739 0.9824547816
4950270300.0 -0.1590409751 0.9849295183
5000270000.0 -0.1448982512 0.987200012
5050269700.0 -0.131438869 0.9886078824
5100269400.0 -0.1176478651 0.9902513323
5150269100.0 -0.1043119206 0.9920144306
5200268800.0 -0.0910331696 0.9929010786
5250268500.0 -0.0777049636 0.9939757534
5300268200.0 -0.0646225828 0.9944884847
5350267900.0 -0.0524478543 0.9953672872
5400267600.0 -0.0363791682 0.996423281
5450267300.0 -0.0233009209 0.9964678754
5500267000.0 -0.0081483227 0.9970511049
5550266700.0 0.0068686175 0.9973973204
5600266400.0 0.0221904709 0.9973806925
5650266100.0 0.0390665352 0.9971568443
5700265800.0 0.0532700823 0.9963729628
5750265500.0 0.0683492322 0.9955386257
5800265200.0 0.0824433674 0.994567913
5850264900.0 0.0959510024 0.9935340978
5900264600.0 0.1121293724 0.9917195633
5950264300.0 0.1242341096 0.9897274393
6000264000.0 0.138574068 0.9884627189
6050263700.0 0.1504738779 0.9868832593
6100263400.0 0.1630824658 0.9849332029
6150263100.0 0.1775947832 0.9826271201
6200262800.0 0.1881018169 0.9809675225
6250262500.0 0.2006694016 0.9783156885
6300262200.0 0.2133484366 0.9758397571
6350261900.0 0.226513451 0.9729144011
6400261600.0 0.2402821115 0.9695486584
6450261300.0 0.2517535484 0.9668837085
6500261000.0 0.2647252173 0.9635537343
6550260700.0 0.2773046728 0.9591989603
6600260400.0 0.2910713719 0.9552849874
6650260100.0 0.3044767286 0.9507148741
6700259800.0 0.3166323045 0.9465075501
6750259500.0 0.3306602288 0.9415852563
6800259200.0 0.3439099254 0.9367945391
6850258900.0 0.3557249232 0.931501486
6900258600.0 0.3680792684 0.926565297
6950258300.0 0.3807554259 0.921417192
7000258000.0 0.3925433616 0.9158416869
7050257700.0 0.4048110892 0.9098646899
7100257400.0 0.4174579731 0.9036665897
7150257100.0 0.4281046813 0.8982783707
7200256800.0 0.4406606391 0.8919556418
7250256500.0 0.4528343448 0.8854941666
7300256200.0 0.4658026844 0.8789286897
7350255900.0 0.4783193827 0.8718589275
7400255600.0 0.491677933 0.8647531379
7450255300.0 0.5065925413 0.8554772618
7500255000.0 0.5185363898 0.8486846984
7550254700.0 0.5322611746 0.8402032451
7600254400.0 0.5450534946 0.8319457604
7650254100.0 0.556464292 0.8239783927
7700253800.0 0.5682683604 0.8158423096
7750253500.0 0.5794197498 0.8083276805
7800253200.0 0.5902601526 0.8005596266
7850252900.0 0.5998463556 0.7937590283
7900252600.0 0.6114213313 0.7849042322
7950252300.0 0.6204575303 0.7783310409
8000252000.0 0.6304967034 0.7706179541
8050251700.0 0.6410544687 0.7624276214
8100251400.0 0.6509564016 0.7545405124
8150251100.0 0.6613509225 0.745781587
8200250800.0 0.6707804375 0.7378413187
8250250500.0 0.6795875954 0.7298391617
8300250200.0 0.6890331615 0.721326455
8350249900.0 0.6977196676 0.7125794579
8400249600.0 0.7060671304 0.7043977802
8450249300.0 0.7149950186 0.6951759583
8500249000.0 0.7236689835 0.6864689041
8550248700.0 0.7322416293 0.6772980031
8600248400.0 0.7406099336 0.6677373561
8650248100.0 0.7483406538 0.6583640859
8700247800.0 0.7578707576 0.6470490311
8750247500.0 0.7663133758 0.637065772
8800247200.0 0.7744808475 0.6266048938
8850246900.0 0.7829750818 0.6151570923
8900246600.0 0.7919608356 0.6038231202
8950246300.0 0.8012046975 0.5909970759
9000246000.0 0.8105324265 0.5781918313
9050245700.0 0.8197620315 0.5652356167
9100245400.0 0.8280117794 0.5527538194
9150245100.0 0.8372556793 0.5391059408
9200244800.0 0.8475046037 0.5240828479
9250244500.0 0.856742326 0.5087712616
9300244200.0 0.8648864235 0.4942833215
9350243900.0 0.8727939025 0.4803831114
9400243600.0 0.8794172002 0.4680066062
9450243300.0 0.8852905761 0.456420067
9500243000.0 0.8915521991 0.4443737428
9550242700.0 0.8952699526 0.4367164085
9600242400.0 0.899245075 0.4292803755
9650242100.0 0.9027886245 0.4227282409
9700241800.0 0.9076001931 0.4145837583
9750241500.0 0.9116522939 0.4068395212
9800241200.0 0.9162343479 0.3979335034
9850240900.0 0.9218605763 0.3863392446
9900240600.0 0.9273784506 0.3744159754
9950240300.0 0.9340029449 0.3583051903
10000240000.0 0.93866052 0.3468365311
10050239700.0 0.9444655756 0.3316070525
10100239400.0 0.9495614749 0.3161808276
10150239100.0 0.9540704672 0.3010229346
10200238800.0 0.958333462 0.2864001281
10250238500.0 0.961386812 0.2730679188
10300238200.0 0.9646161486 0.2589609215
10350237900.0 0.9672239534 0.2460856434
10400237600.0 0.9699252918 0.2325480759
10450237300.0 0.9723978812 0.2191506913
10500237000.0 0.97470277 0.2068847736
10550236700.0 0.9770363541 0.1927803053
10600236400.0 0.9790478683 0.179037414
10650236100.0 0.9814387204 0.164014327
10700235800.0 0.9832765229 0.1522842069
10750235500.0 0.9855133474 0.1388244598
10800235200.0 0.9875001582 0.1248116592
10850234900.0 0.9893943482 0.1100585627
10900234600.0 0.9915062346 0.0953347147
10950234300.0 0.9935538037 0.0819829831
11000234000.0 0.9952017495 0.066975847
11050233700.0 0.9970522859 0.0507937746
11100233400.0 0.9984953123 0.0334284986
11150233100.0 0.9994360846 0.0167939042
11200232800.0 1.000127299 0.0018081875
11250232500.0 1.001479546 -0.0150951897
11300232200.0 1.001537346 -0.0321057716
11350231900.0 1.001773758 -0.0482989721
11400231600.0 1.001305835 -0.0636376004
11450231300.0 1.001236512 -0.0788487186
11500231000.0 1.000460996 -0.094580606
11550230700.0 0.9984018219 -0.1088740652
11600230400.0 0.9970705847 -0.1214114607
11650230100.0 0.9952240231 -0.1326045103
11700229800.0 0.9932243154 -0.1474103233
11750229500.0 0.9909233929 -0.1617859284
11800229200.0 0.9881728429 -0.1753800642
11850228900.0 0.9845843507 -0.1879152395
11900228600.0 0.9812476804 -0.1976481049
11950228300.0 0.9778850354 -0.2081015252
12000228000.0 0.9754078988 -0.2171531679
12050227700.0 0.9715400747 -0.2301180828
12100227400.0 0.968465494 -0.2413456835
12150227100.0 0.9632978967 -0.2581810281
12200226800.0 0.9597790922 -0.2686596374
12250226500.0 0.9562144711 -0.2815481016
12300226200.0 0.9519316946 -0.293151629
12350225900.0 0.9466336422 -0.3077078958
12400225600.0 0.9424035118 -0.3203135636
12450225300.0 0.9376955907 -0.3334611493
12500225000.0 0.9325902153 -0.3480866979
12550224700.0 0.9271644231 -0.3619282891
12600224400.0 0.9219633553 -0.374620652
12650224100.0 0.9164397459 -0.389387987
12700223800.0 0.9110682394 -0.4021340466
12750223500.0 0.9056863433 -0.414827066
12800223200.0 0.9004110006 -0.4275910533
12850222900.0 0.8946991087 -0.4398369113
12900222600.0 0.8890973621 -0.451868143
12950222300.0 0.8826578012 -0.4651699356
13000222000.0 0.8766859242 -0.4762137596
13050221700.0 0.8697956135 -0.4893666069
13100221400.0 0.8635923845 -0.5010797912
13150221100.0 0.8566358788 -0.5132622518
13200220800.0 0.8500318692 -0.5245775579
13250220500.0 0.8423951857 -0.5368296866
13300220200.0 0.835221844 -0.5475387531
13350219900.0 0.8270217375 -0.559615263
13400219600.0 0.8189387183 -0.5715558565
13450219300.0 0.809613619 -0.5849951622
13500219000.0 0.7993420126 -0.5990864079
13550218700.0 0.7894493011 -0.6117147686
13600218400.0 0.7789896657 -0.6238924582
13650218100.0 0.7699807067 -0.6348685863
13700217800.0 0.7587979797 -0.6470393077
13750217500.0 0.7480455898 -0.6590940806
13800217200.0 0.7371759067 -0.6703303049
13850216900.0 0.7265999459 -0.6815243082
13900216600.0 0.7164575421 -0.6905208124
13950216300.0 0.705974892 -0.7009051094
14000216000.0 0.6956842129 -0.7100546401
14050215700.0 0.6863757871 -0.7183778682
14100215400.0 0.676337046 -0.7272969407
14150215100.0 0.6670989068 -0.7360251115
14200214800.0 0.6576748871 -0.7447305422
14250214500.0 0.6474009917 -0.7541929402
14300214200.0 0.6369662276 -0.7635781987
14350213900.0 0.6257373509 -0.7730923946
14400213600.0 0.6140713919 -0.7828664617
14450213300.0 0.6007648292 -0.7928963527
14500213000.0 0.5877430669 -0.803175463
14550212700.0 0.5754185631 -0.8124730896
14600212400.0 0.5626307644 -0.8212581195
14650212100.0 0.5501448277 -0.8299037118
14700211800.0 0.5360828339 -0.8394447473
14750211500.0 0.5236694509 -0.8477886341
14800211200.0 0.5118330045 -0.8556955307
14850210900.0 0.4995507516 -0.8631683062
14900210600.0 0.4863739721 -0.871091782
14950210300.0 0.4728767583 -0.8788783336
15000210000.0 0.460113374 -0.8858250902
15050209700.0 0.4477197799 -0.8914981987
15100209400.0 0.4348290644 -0.898112552
15150209100.0 0.4231727866 -0.9035577613
15200208800.0 0.4100812136 -0.9079972514
15250208500.0 0.3985917096 -0.9131869584
15300208200.0 0.3861734902 -0.9178172969
15350207900.0 0.3739753233 -0.9224134894
15400207600.0 0.3589628195 -0.9280558624
15450207300.0 0.3444074991 -0.9325738365
15500207000.0 0.3294492958 -0.9371756968
15550206700.0 0.3146134017 -0.9419451914
15600206400.0 0.2983736641 -0.9472574365
15650206100.0 0.2834395798 -0.9514849606
15700205800.0 0.2693139909 -0.9553858704
15750205500.0 0.2550587513 -0.9585641208
15800205200.0 0.2407229978 -0.9619748492
15850204900.0 0.2261553527 -0.9653626032
15900204600.0 0.2111565554 -0.9690604028
15950204300.0 0.1969853629 -0.9719722845
16000204000.0 0.1827278545 -0.9750410125
16050203700.0 0.1674860078 -0.9777525722
16100203400.0 0.1533567349 -0.9799976119
16150203100.0 0.1385131549 -0.9825028248
16200202800.0 0.1245196399 -0.9843079587
16250202500.0 0.1097154609 -0.9861748623
16300202200.0 0.0945616186 -0.9879269963
16350201900.0 0.0797157213 -0.989006567
16400201600.0 0.0648024945 -0.9903224389
16450201300.0 0.0495956699 -0.9912360878
16500201000.0 0.0327255051 -0.9920617774
16550200700.0 0.0170441796 -0.9925827752
16600200400.0 0.0014419293 -0.9928264937
16650200100.0 -0.0145331969 -0.9928328552
16700199800.0 -0.030844431 -0.9927850773
16750199500.0 -0.0492469405 -0.991865998
16800199200.0 -0.065279507 -0.9912076226
16850198900.0 -0.0801193415 -0.9894974786
16900198600.0 -0.0942238347 -0.9888623083
16950198300.0 -0.1074982418 -0.9880134453
17000198000.0 -0.120276076 -0.9866320226
17050197700.0 -0.132929707 -0.9842069922
17100197400.0 -0.1463942407 -0.9824918451
17150197100.0 -0.1584973162 -0.9805003101
17200196800.0 -0.1718391287 -0.9780138198
17250196500.0 -0.1845258551 -0.9759131927
17300196200.0 -0.1966394573 -0.9736912452
17350195900.0 -0.2082962379 -0.9713411196
17400195600.0 -0.220776119 -0.968957269
17450195300.0 -0.23384304 -0.9660962147
17500195000.0 -0.2473008187 -0.9625362254
17550194700.0 -0.261338569 -0.9591798365
17600194400.0 -0.2748843588 -0.9549478585
17650194100.0 -0.2884083209 -0.9508744648
17700193800.0 -0.3018358298 -0.9468283435
17750193500.0 -0.3163534934 -0.9424758222
17800193200.0 -0.3307017801 -0.9371659247
17850192900.0 -0.3456394222 -0.9315932005
17900192600.0 -0.3607062824 -0.9254546952
17950192300.0 -0.3766405004 -0.9184093766
18000192000.0 -0.391352801 -0.9114355708
18050191700.0 -0.4053700444 -0.9034557255
18100191400.0 -0.4194794055 -0.8958093659
18150191100.0 -0.4345195153 -0.8877589245
18200190800.0 -0.4514312858 -0.8785370802
18250190500.0 -0.4683017796 -0.8692448611
18300190200.0 -0.4838451915 -0.8605473634
18350189900.0 -0.4986896118 -0.8521584554
18400189600.0 -0.5133772677 -0.8435869922
18450189300.0 -0.5265744496 -0.8362788619
18500189000.0 -0.539713793 -0.8281851965
18550188700.0 -0.5526481196 -0.8206319973
18600188400.0 -0.5643636098 -0.8135091876
18650188100.0 -0.5752741668 -0.8076442849
18700187800.0 -0.5858874373 -0.8006787613
18750187500.0 -0.5964091187 -0.794154672
18800187200.0 -0.6071643249 -0.7871916698
18850186900.0 -0.6175511704 -0.7800690592
18900186600.0 -0.6276397249 -0.7728808972
18950186300.0 -0.6374198916 -0.7654140323
19000186000.0 -0.6447970633 -0.7591111797
19050185700.0 -0.6540317832 -0.7520755884
19100185400.0 -0.6639170067 -0.7434470393
19150185100.0 -0.6741240351 -0.7352774097
19200184800.0 -0.6835638795 -0.7270647538
19250184500.0 -0.693471585 -0.7174857395
19300184200.0 -0.704731289 -0.7078680069
19350183900.0 -0.7159175401 -0.6976643011
19400183600.0 -0.7249759303 -0.6885608998
19450183300.0 -0.7340502688 -0.6787960398
19500183000.0 -0.7429884584 -0.6681530705
19550182700.0 -0.7530139166 -0.6576810327
19600182400.0 -0.7632271702 -0.6456869364
19650182100.0 -0.7739097082 -0.6333928182
19700181800.0 -0.7842690945 -0.620256252
19750181500.0 -0.7950549236 -0.605950277
19800181200.0 -0.805501306 -0.5911113082
19850180900.0 -0.8152953194 -0.5757893617
19900180600.0 -0.823387697 -0.561149451
19950180300.0 -0.8323500685 -0.5447444452
20000180000.0 -0.8251528524 -0.5471494662
20050179700.0 -0.8338770497 -0.5335342383
20100179400.0 -0.8423102857 -0.5204185772
20150179100.0 -0.8507530577 -0.5081999916
20200178800.0 -0.8587954983 -0.4958438072
20250178500.0 -0.8686709519 -0.4808846497
20300178200.0 -0.878171701 -0.4676776773
20350177900.0 -0.8876750481 -0.4527830477
20400177600.0 -0.8964102674 -0.4382146409
20450177300.0 -0.9048225593 -0.4240743981
20500177000.0 -0.9125590094 -0.4100011397
20550176700.0 -0.9203670797 -0.3965100925
20600176400.0 -0.9275787373 -0.3834888061
20650176100.0 -0.9339430373 -0.3711411732
20700175800.0 -0.9406598269 -0.35906137
20750175500.0 -0.9473939758 -0.3477815879
20800175200.0 -0.9527684239 -0.3373231688
20850174900.0 -0.9562324938 -0.3257185006
20900174600.0 -0.9616640518 -0.3147906632
20950174300.0 -0.9664301315 -0.3027813592
21000174000.0 -0.9683504032 -0.2921206515
21050173700.0 -0.9711579359 -0.2802138105
21100173400.0 -0.9757832247 -0.2687390279
21150173100.0 -0.9798297621 -0.2564145548
21200172800.0 -0.9832422804 -0.2427830217
21250172500.0 -0.9860888247 -0.2296371188
21300172200.0 -0.9887564448 -0.2151940361
21350171900.0 -0.9904335238 -0.2010166072
21400171600.0 -0.9915585686 -0.1869518609
21450171300.0 -0.9928035215 -0.1725973047
21500171000.0 -0.9925612716 -0.1566328668
21550170700.0 -0.991819364 -0.1414147527
21600170400.0 -0.9933909859 -0.1262169188
21650170100.0 -0.9914795042 -0.1097606214
21700169800.0 -0.9893505337 -0.0955008842
21750169500.0 -0.9892841355 -0.0786022905
21800169200.0 -0.9889194197 -0.0627848918
21850168900.0 -0.9877503178 -0.0456128614
21900168600.0 -0.9866688236 -0.02896893
21950168300.0 -0.9846967218 -0.0132659059
22000168000.0 -0.9842598986 0.0017172326
22050167700.0 -0.9839443034 0.015801047
22100167400.0 -0.984104952 0.0310824643
22150167100.0 -0.9846177427 0.0466228925
22200166800.0 -0.9849682455 0.0628177604
22250166500.0 -0.9846471716 0.0805344684
22300166200.0 -0.9841938485 0.0966186092
22350165900.0 -0.9827375905 0.1139302887
22400165600.0 -0.9810817929 0.1291070517
22450165300.0 -0.9789477687 0.1438991892
22500165000.0 -0.9771908589 0.1571285788
22550164700.0 -0.9753509078 0.1732091906
22600164400.0 -0.9751742597 0.1887975298
22650164100.0 -0.9722119922 0.2032730173
22700163800.0 -0.9699588026 0.219404653
22750163500.0 -0.966809602 0.234099821
22800163200.0 -0.9644683067 0.2475869068
22850162900.0 -0.9615287037 0.2607684034
22900162600.0 -0.9604176123 0.2739695829
22950162300.0 -0.9591845512 0.2869040053
23000162000.0 -0.9579061363 0.2988803471
23050161700.0 -0.9558163062 0.3118102183
23100161400.0 -0.9531767188 0.324229814
23150161100.0 -0.9508001856 0.3365513319
23200160800.0 -0.9485334224 0.349008439
23250160500.0 -0.9451961332 0.3609804147
23300160200.0 -0.9423632632 0.3724800555
23350159900.0 -0.9391289855 0.3859484798
23400159600.0 -0.9339801299 0.3991446573
23450159300.0 -0.9286644469 0.4129193385
23500159000.0 -0.924854645 0.4254915535
23550158700.0 -0.9205273164 0.4392291231
23600158400.0 -0.9150133925 0.4524408884
23650158100.0 -0.9085434817 0.4664611718
23700157800.0 -0.9009653116 0.4802033289
23750157500.0 -0.8925676708 0.4949183537
23800157200.0 -0.8835008017 0.5076973227
23850156900.0 -0.8751759664 0.5204932235
23900156600.0 -0.8650542604 0.5330343813
23950156300.0 -0.8564306368 0.5454442279
24000156000.0 -0.8469138199 0.5578661419
24050155700.0 -0.8372960036 0.5686920285
24100155400.0 -0.8277101154 0.5813826026
24150155100.0 -0.8169407507 0.5934757427
24200154800.0 -0.8056863416 0.6042026685
24250154500.0 -0.7949069024 0.6163332539
24300154200.0 -0.7829649738 0.6274238883
24350153900.0 -0.7712646001 0.6380762325
24400153600.0 -0.7591731557 0.648605625
24450153300.0 -0.7472744604 0.6588521075
24500153000.0 -0.735970448 0.6680124467
24550152700.0 -0.7245364693 0.678294231
24600152400.0 -0.7132525734 0.6868588695
24650152100.0 -0.7017695021 0.6955966229
