!Created with skrf (http://scikit-rf.org).
# Hz S RI R 50.0 
!freq ReS11 ImS11
300000.0 -0.9733749479 -0.1223504729
50299700.0 -0.9999423545 0.0148637698
100299400.0 -0.9980976389 0.0278777691
150299100.0 -1.002772962 0.0446821227
200298800.0 -0.9993972814 0.0581214391
250298500.0 -0.9972972506 0.0716026633
300298200.0 -0.9859949688 0.0873034005
350297900.0 -0.9939902078 0.0983535478
400297600.0 -0.9930732611 0.1149216018
450297300.0 -0.991093677 0.1286897538
500297000.0 -0.989499001 0.1434089331
550296700.0 -0.9842612169 0.1557387778
600296400.0 -1.017367995 0.1891821981
650296100.0 -0.9822330544 0.1857549487
700295800.0 -0.9791898922 0.2000097214
750295500.0 -0.9764277304 0.2138245962
800295200.0 -0.9730619393 0.2279729111
850294900.0 -0.9696900542 0.2419581945
900294600.0 -0.9659011257 0.2555673089
950294300.0 -0.9622066267 0.2693159929
1000294000.0 -0.9582094481 0.2834011086
1050293700.0 -0.9536380781 0.2969377134
1100293400.0 -0.9493347488 0.3114126519
1150293100.0 -0.9454737264 0.3234654318
1200292800.0 -0.940117058 0.3377747628
1250292500.0 -0.9346490908 0.3510713502
1300292200.0 -0.9289377464 0.3645670532
1350291900.0 -0.9233702679 0.37841666
1400291600.0 -0.9179023618 0.3915169306
1450291300.0 -0.912627485 0.4040810608
1500291000.0 -0.9063357976 0.4173772473
1550290700.0 -0.8995152464 0.4308486295
1600290400.0 -0.8935595546 0.4433783686
1650290100.0 -0.8867752084 0.4556744749
1700289800.0 -0.8797629197 0.4693260033
1750289500.0 -0.8728041691 0.4814925286
1800289200.0 -0.8655690741 0.4944259658
1850288900.0 -0.858621164 0.5057948005
1900288600.0 -0.8512261287 0.5186080291
1950288300.0 -0.8429878099 0.531348103
2000288000.0 -0.8354975552 0.5426529768
2050287700.0 -0.8272144833 0.5551904735
2100287400.0 -0.8194085835 0.5665114744
2150287100.0 -0.8109115083 0.5785248824
2200286800.0 -0.8030484689 0.589024834
2250286500.0 -0.7939364482 0.6014891932
2300286200.0 -0.7852406102 0.612943407
2350285900.0 -0.7769326391 0.6232810482
2400285600.0 -0.7681138673 0.6342337318
2450285300.0 -0.7592420319 0.6450275029
2500285000.0 -0.7492542549 0.6566597859
2550284700.0 -0.7401551274 0.6669171928
2600284400.0 -0.7309315371 0.6767598437
2650284100.0 -0.72222063 0.6868245554
2700283800.0 -0.7118149135 0.6974170893
2750283500.0 -0.701313104 0.7081042639
2800283200.0 -0.6919191135 0.7181932539
2850282900.0 -0.6811793631 0.728110516
2900282600.0 -0.6706315675 0.7374907926
2950282300.0 -0.6604545731 0.7474287141
3000282000.0 -0.6494888231 0.7567608364
3050281700.0 -0.638441697 0.7658333336
3100281400.0 -0.6268559954 0.775022277
3150281100.0 -0.6156133563 0.7839463799
3200280800.0 -0.6042194346 0.7923305714
3250280500.0 -0.5930595643 0.8001034557
3300280200.0 -0.5814063441 0.8083282
3350279900.0 -0.5693025489 0.8165417715
3400279600.0 -0.5565229877 0.8244399108
3450279300.0 -0.5455181042 0.8317336739
3500279000.0 -0.5337343568 0.8385520375
3550278700.0 -0.521676107 0.8456834736
3600278400.0 -0.5099954097 0.8523497519
3650278100.0 -0.4968587326 0.8599941252
3700277800.0 -0.4844950265 0.8664662811
3750277500.0 -0.4723170615 0.8730784871
3800277200.0 -0.4597869988 0.8796171692
3850276900.0 -0.4479453428 0.8855352392
3900276600.0 -0.4370597471 0.8913368996
3950276300.0 -0.4249178921 0.8970179924
4000276000.0 -0.4128633436 0.9030943239
4050275700.0 -0.4005407989 0.9089314498
4100275400.0 -0.3895888487 0.9144256308
4150275100.0 -0.3761867286 0.9203877543
4200274800.0 -0.3626509677 0.9260675165
4250274500.0 -0.350012509 0.9312904266
4300274200.0 -0.3366710363 0.9365979978
4350273900.0 -0.3224710272 0.9419308282
4400273600.0 -0.3076985971 0.947183123
4450273300.0 -0.2926195328 0.9521833562
4500273000.0 -0.2798479069 0.9562278861
4550272700.0 -0.2660432214 0.9604052831
4600272400.0 -0.2510116332 0.9647173843
4650272100.0 -0.2396905888 0.9677962444
4700271800.0 -0.2268050562 0.9711046411
4750271500.0 -0.2150304062 0.9741089505
4800271200.0 -0.2029270267 0.9765424141
4850270900.0 -0.1892626374 0.9794820432
4900270600.0 -0.1753895714 0.9819824891
4950270300.0 -0.1608208486 0.9845344951
5000270000.0 -0.1461760396 0.9866899748
5050269700.0 -0.1328184742 0.9885024031
5100269400.0 -0.1186475138 0.9899674957
5150269100.0 -0.1048390703 0.9916856656
5200268800.0 -0.0913766634 0.9926768915
5250268500.0 -0.0783623152 0.993588603
5300268200.0 -0.0646161624 0.9946478339
5350267900.0 -0.0515069019 0.9952729319
5400267600.0 -0.0355343579 0.9964842382
5450267300.0 -0.021948837 0.9965770034
5500267000.0 -0.0066697818 0.9969264316
5550266700.0 0.0081043626 0.9970088441
5600266400.0 0.0238495473 0.9971284462
5650266100.0 0.0406126 0.996858402
5700265800.0 0.0546882274 0.9958773169
5750265500.0 0.0696305849 0.995045122
5800265200.0 0.0832375639 0.9940602466
5850264900.0 0.0963818287 0.9934561649
5900264600.0 0.1131742758 0.9912838157
5950264300.0 0.1244249025 0.9895935921
6000264000.0 0.137908039 0.9873008207
6050263700.0 0.1496137839 0.9865096814
6100263400.0 0.1617970545 0.984686237
6150263100.0 0.1764687015 0.9824129653
6200262800.0 0.1861013292 0.9807717567
6250262500.0 0.1984904025 0.978647365
6300262200.0 0.2109814942 0.9762265302
6350261900.0 0.2236516847 0.973439423
6400261600.0 0.2374414753 0.9700508958
6450261300.0 0.2487959153 0.9677160619
6500261000.0 0.2619980966 0.9640923065
6550260700.0 0.2752465326 0.9602864164
6600260400.0 0.2885022675 0.9559922325
6650260100.0 0.3026001456 0.9514904608
6700259800.0 0.3148187108 0.9472363201
6750259500.0 0.3285060919 0.9425259126
6800259200.0 0.3421333119 0.937431807
6850258900.0 0.354471372 0.9319856609
6900258600.0 0.3669912491 0.9270131153
6950258300.0 0.3795882552 0.9215478707
7000258000.0 0.39115457 0.9163997368
7050257700.0 0.4030451763 0.9105221472
7100257400.0 0.416551129 0.9039045688
7150257100.0 0.4271726149 0.8984731483
7200256800.0 0.4406443644 0.8921268419
7250256500.0 0.4531085682 0.8854562883
7300256200.0 0.4660210697 0.8786087245
7350255900.0 0.4786449633 0.871583395
7400255600.0 0.4930011092 0.8638754937
7450255300.0 0.508620095 0.8549990902
7500255000.0 0.5214325922 0.8472938439
7550254700.0 0.5358005185 0.8381191209
7600254400.0 0.547719507 0.8295064338
7650254100.0 0.5592375503 0.8217130557
7700253800.0 0.570920214 0.8138347781
7750253500.0 0.5819368736 0.8061179148
7800253200.0 0.5927316892 0.7982298347
7850252900.0 0.60259295 0.7912016815
7900252600.0 0.6139647837 0.7824031609
7950252300.0 0.6222648172 0.7760056457
8000252000.0 0.6323974757 0.7684161287
8050251700.0 0.6429885694 0.7603377577
8100251400.0 0.6527166882 0.7523735419
8150251100.0 0.6626324332 0.7438243049
8200250800.0 0.6719680969 0.7356578407
8250250500.0 0.6808309672 0.7280118402
8300250200.0 0.6899178389 0.7197966899
8350249900.0 0.6993330176 0.7107162185
8400249600.0 0.7072201265 0.702851092
8450249300.0 0.7157630912 0.6941888973
8500249000.0 0.7244321953 0.6852645485
8550248700.0 0.7327376448 0.6761324631
8600248400.0 0.7409982409 0.6667688297
8650248100.0 0.7486481731 0.657287277
8700247800.0 0.7581303176 0.6462627285
8750247500.0 0.766221981 0.636299321
8800247200.0 0.7743171978 0.6258368201
8850246900.0 0.7828079243 0.6145087713
8900246600.0 0.7912092395 0.6030038054
8950246300.0 0.8005030675 0.5903422458
9000246000.0 0.8091863459 0.5786633485
9050245700.0 0.8175465344 0.5662887409
9100245400.0 0.8261569393 0.5541069232
9150245100.0 0.8347759243 0.5411726888
9200244800.0 0.8440863448 0.5267247978
9250244500.0 0.8533380849 0.5118977381
9300244200.0 0.8612625926 0.4986331827
9350243900.0 0.8688166758 0.4853730066
9400243600.0 0.87555121 0.4737467654
9450243300.0 0.8809178134 0.4632298719
9500243000.0 0.8872370679 0.4517202124
9550242700.0 0.8914352268 0.4443676723
9600242400.0 0.8956489873 0.4367194877
9650242100.0 0.8997466546 0.4298296682
9700241800.0 0.9046990893 0.4211762112
9750241500.0 0.9086598885 0.4138977499
9800241200.0 0.9138024089 0.4042278426
9850240900.0 0.9198939065 0.3926233714
9900240600.0 0.9256634097 0.3806660589
9950240300.0 0.9332395214 0.3634952916
10000240000.0 0.9375068638 0.3517764507
10050239700.0 0.9441365261 0.3354976173
10100239400.0 0.9495062505 0.3187943857
10150239100.0 0.9539987387 0.3035002568
10200238800.0 0.9583174849 0.287717594
10250238500.0 0.9615550701 0.2742080385
10300238200.0 0.9647834476 0.2602928428
10350237900.0 0.9675459695 0.247085159
10400237600.0 0.9701865428 0.2336926981
10450237300.0 0.9727977515 0.2197199793
10500237000.0 0.975082459 0.2071788884
10550236700.0 0.9771987792 0.1929305304
10600236400.0 0.9795462802 0.178904725
10650236100.0 0.9816281911 0.1640230344
10700235800.0 0.9836794534 0.1520915506
10750235500.0 0.9863105198 0.1385540971
10800235200.0 0.9877346338 0.124409317
10850234900.0 0.9898648658 0.1094783822
10900234600.0 0.9923189435 0.094544994
10950234300.0 0.9938523608 0.0809998488
11000234000.0 0.9956054026 0.0653671209
11050233700.0 0.9974292583 0.0486136671
11100233400.0 0.9990468971 0.0308681218
11150233100.0 1.000013186 0.0143292105
11200232800.0 1.001012233 -0.0016027299
11250232500.0 1.001971913 -0.0196395364
11300232200.0 1.002252321 -0.0384477951
11350231900.0 1.002054978 -0.0546805705
11400231600.0 1.001854112 -0.0700425246
11450231300.0 1.000715709 -0.0859711479
11500231000.0 1.000005638 -0.1032718581
11550230700.0 0.9982323992 -0.1147034784
11600230400.0 0.996972326 -0.1278173664
11650230100.0 0.9946910862 -0.1400252496
11700229800.0 0.9924834278 -0.1550543762
11750229500.0 0.9904317048 -0.1689250544
11800229200.0 0.9871855004 -0.1822089182
11850228900.0 0.9835189665 -0.1939170681
11900228600.0 0.9797667874 -0.2035190123
11950228300.0 0.9762172978 -0.2137054785
12000228000.0 0.973383715 -0.2226323388
12050227700.0 0.9697375984 -0.235179994
12100227400.0 0.9671025429 -0.2451159568
12150227100.0 0.9613421566 -0.2628995074
12200226800.0 0.9584821104 -0.2730607514
12250226500.0 0.9539160989 -0.2870244403
12300226200.0 0.9489037424 -0.2986799559
12350225900.0 0.9447456751 -0.3118444746
12400225600.0 0.9402808883 -0.3251125368
12450225300.0 0.9355648034 -0.337726226
12500225000.0 0.930132682 -0.3525189968
12550224700.0 0.9246243164 -0.3655427301
12600224400.0 0.9197078103 -0.37860354
12650224100.0 0.9138272131 -0.3930215283
12700223800.0 0.9086883237 -0.4057457065
12750223500.0 0.9030188659 -0.4189798145
12800223200.0 0.8980167671 -0.4313313792
12850222900.0 0.892293566 -0.4434129706
12900222600.0 0.8871053286 -0.4551725308
12950222300.0 0.8811258132 -0.4680686506
13000222000.0 0.8750183442 -0.4796639202
13050221700.0 0.8680645928 -0.4926034604
13100221400.0 0.861548945 -0.504626367
13150221100.0 0.8543793165 -0.5169826326
13200220800.0 0.8474344572 -0.5284108374
13250220500.0 0.8404092258 -0.5406834418
13300220200.0 0.8328471013 -0.5513859449
13350219900.0 0.8246093386 -0.5635502798
13400219600.0 0.8163469133 -0.5752354501
13450219300.0 0.80689217 -0.5879841426
13500219000.0 0.7970895747 -0.6015070364
13550218700.0 0.7869423059 -0.6140430316
13600218400.0 0.7770087447 -0.6256003937
13650218100.0 0.7678527302 -0.6362672611
13700217800.0 0.7577544031 -0.6474296167
13750217500.0 0.7477603626 -0.6581824475
13800217200.0 0.7362605455 -0.6698461433
13850216900.0 0.7251504625 -0.68159311
13900216600.0 0.7161962281 -0.6903525203
13950216300.0 0.7049111003 -0.7000525209
14000216000.0 0.6953607691 -0.7093719259
14050215700.0 0.6860917162 -0.7172338406
14100215400.0 0.6763403753 -0.7261941821
14150215100.0 0.6675313181 -0.7349825577
14200214800.0 0.657842609 -0.743921515
14250214500.0 0.6475309836 -0.7535698665
14300214200.0 0.6368462974 -0.762949173
14350213900.0 0.6258523403 -0.7724652734
14400213600.0 0.613881729 -0.7823712993
14450213300.0 0.601194855 -0.7923306069
14500213000.0 0.5882285753 -0.8023669162
14550212700.0 0.5757255241 -0.811776323
14600212400.0 0.5632106267 -0.820250118
14650212100.0 0.5510089645 -0.8290799867
14700211800.0 0.5373031393 -0.8390771443
14750211500.0 0.5252237211 -0.8470502618
14800211200.0 0.5123202249 -0.8556934809
14850210900.0 0.5001026867 -0.8631709396
14900210600.0 0.4867529784 -0.8710124804
14950210300.0 0.4734488414 -0.8785187739
15000210000.0 0.4609011815 -0.88553766
15050209700.0 0.4482813709 -0.8912752073
15100209400.0 0.4358335412 -0.8972639006
15150209100.0 0.4233502102 -0.9027584192
15200208800.0 0.4104859463 -0.9079478224
15250208500.0 0.3993390952 -0.912715394
15300208200.0 0.3876960039 -0.9168995189
15350207900.0 0.3740596874 -0.9217918465
15400207600.0 0.3589702557 -0.9273957463
15450207300.0 0.3448176527 -0.932405098
15500207000.0 0.330525847 -0.9369522234
15550206700.0 0.3156544982 -0.9417003071
15600206400.0 0.2995616547 -0.9464722614
15650206100.0 0.2835711207 -0.9510775796
15700205800.0 0.2705317013 -0.9537540859
15750205500.0 0.2561825668 -0.9577478506
15800205200.0 0.2423682943 -0.9611170429
15850204900.0 0.2282130484 -0.9644652842
15900204600.0 0.2132575319 -0.9683017541
15950204300.0 0.1988063227 -0.97145209
16000204000.0 0.1842815499 -0.9745435696
16050203700.0 0.1693333516 -0.9774696566
16100203400.0 0.1544519147 -0.9794237935
16150203100.0 0.1396191232 -0.9820965596
16200202800.0 0.1254251738 -0.98413073
16250202500.0 0.1108215031 -0.9858323521
16300202200.0 0.0951658474 -0.9873233239
16350201900.0 0.0801078736 -0.9890302381
16400201600.0 0.0652627321 -0.9897570825
16450201300.0 0.0498376445 -0.991046396
16500201000.0 0.0328401049 -0.9919724613
16550200700.0 0.0165710715 -0.9924100608
16600200400.0 0.0006876628 -0.9926364759
16650200100.0 -0.0157415929 -0.9926546544
16700199800.0 -0.0318993055 -0.9922413278
16750199500.0 -0.0508329253 -0.9915664145
16800199200.0 -0.0666326017 -0.9909902776
16850198900.0 -0.0825429959 -0.9892075592
16900198600.0 -0.0964883763 -0.9882938129
16950198300.0 -0.1100399873 -0.9874520343
17000198000.0 -0.1233289649 -0.9855280697
17050197700.0 -0.1360761381 -0.9838400094
17100197400.0 -0.1487615365 -0.9823180335
17150197100.0 -0.1612998723 -0.979955193
17200196800.0 -0.1744660923 -0.9777641014
17250196500.0 -0.1872613602 -0.975129851
17300196200.0 -0.1994798021 -0.9729188509
17350195900.0 -0.2112894725 -0.9706576306
17400195600.0 -0.223406876 -0.9681217923
17450195300.0 -0.2361419962 -0.9652101811
17500195000.0 -0.2492022776 -0.9621450939
17550194700.0 -0.263054501 -0.958550259
17600194400.0 -0.2769344397 -0.9546905921
17650194100.0 -0.2908519591 -0.9503327568
17700193800.0 -0.3037588342 -0.9464386993
17750193500.0 -0.3179948681 -0.9418801197
17800193200.0 -0.3320617235 -0.93669057
17850192900.0 -0.3468995477 -0.9307165078
17900192600.0 -0.3620000711 -0.9250432894
17950192300.0 -0.3774971176 -0.9176093024
18000192000.0 -0.3920719727 -0.9105191485
18050191700.0 -0.4058717427 -0.9026828082
18100191400.0 -0.4200387688 -0.8950144564
18150191100.0 -0.4349696846 -0.8869198168
18200190800.0 -0.4518074866 -0.8776922375
18250190500.0 -0.4687866635 -0.8683256683
18300190200.0 -0.4842140109 -0.8596315859
18350189900.0 -0.4994746163 -0.8509853194
18400189600.0 -0.5140345399 -0.8430773379
18450189300.0 -0.527188043 -0.8346736377
18500189000.0 -0.541000461 -0.8266413845
18550188700.0 -0.5535042903 -0.818539424
18600188400.0 -0.5658244492 -0.8118203896
18650188100.0 -0.5771468102 -0.8051468348
18700187800.0 -0.5876119487 -0.7986374855
18750187500.0 -0.5986710864 -0.7919199139
18800187200.0 -0.6094734903 -0.7850597007
18850186900.0 -0.6197749575 -0.7781406438
18900186600.0 -0.6301051578 -0.7709375789
18950186300.0 -0.6402645877 -0.7630883483
19000186000.0 -0.6476178153 -0.7567391198
19050185700.0 -0.6567427282 -0.7498911142
19100185400.0 -0.6674351121 -0.7415506857
19150185100.0 -0.6772421052 -0.7330654683
19200184800.0 -0.6863026163 -0.7256812546
19250184500.0 -0.6965814465 -0.7162570002
19300184200.0 -0.7083045761 -0.7061046656
19350183900.0 -0.719022144 -0.6964896736
19400183600.0 -0.7284414653 -0.6855720204
19450183300.0 -0.7377614171 -0.6767057925
19500183000.0 -0.7463390018 -0.6662390402
19550182700.0 -0.7554710453 -0.6552879274
19600182400.0 -0.7658323064 -0.6440597701
19650182100.0 -0.7762547349 -0.631599823
19700181800.0 -0.7868217046 -0.6181774115
19750181500.0 -0.7971729176 -0.6041321996
19800181200.0 -0.8074055005 -0.5892350932
19850180900.0 -0.8169653608 -0.5740685656
19900180600.0 -0.824426544 -0.5596072496
19950180300.0 -0.8336200391 -0.5430772628
20000180000.0 -0.8234523486 -0.5468435855
20050179700.0 -0.8314004726 -0.534725515
20100179400.0 -0.8397559393 -0.5216449407
20150179100.0 -0.8469462069 -0.5100914046
20200178800.0 -0.8561585396 -0.4980010739
20250178500.0 -0.8654845606 -0.4853435678
20300178200.0 -0.8750749592 -0.4717959409
20350177900.0 -0.8844581611 -0.4575280671
20400177600.0 -0.893255033 -0.4437320725
20450177300.0 -0.9017000709 -0.4290375719
20500177000.0 -0.9098902156 -0.4152434366
20550176700.0 -0.91798451 -0.4018202811
20600176400.0 -0.9246420747 -0.3885501177
20650176100.0 -0.9313367568 -0.3763513865
20700175800.0 -0.937983217 -0.3648296235
20750175500.0 -0.9446016371 -0.3531869575
20800175200.0 -0.9489893939 -0.3421766616
20850174900.0 -0.9539878456 -0.3316289766
20900174600.0 -0.9571098186 -0.3210973636
20950174300.0 -0.9606005469 -0.3100585122
21000174000.0 -0.9643946023 -0.2991790589
21050173700.0 -0.9654618446 -0.2889859577
21100173400.0 -0.9693559887 -0.2789628263
21150173100.0 -0.9730152563 -0.2669439556
21200172800.0 -0.9767039515 -0.2534860669
21250172500.0 -0.9807440918 -0.2399356299
21300172200.0 -0.9837412598 -0.2261617595
21350171900.0 -0.9860156368 -0.2112023496
21400171600.0 -0.9876291967 -0.1975491079
21450171300.0 -0.9884108528 -0.1836488495
21500171000.0 -0.9894802534 -0.1681006144
21550170700.0 -0.9897403259 -0.1543306054
21600170400.0 -0.9907221525 -0.1387908091
21650170100.0 -0.9910563676 -0.1213741751
21700169800.0 -0.9904601531 -0.1072816928
21750169500.0 -0.9903297856 -0.0905263076
21800169200.0 -0.9902537918 -0.0749926888
21850168900.0 -0.9901939549 -0.057357129
21900168600.0 -0.9894455787 -0.0414610876
21950168300.0 -0.9882424108 -0.025924458
22000168000.0 -0.9891728307 -0.0109039101
22050167700.0 -0.9897988143 0.0037022705
22100167400.0 -0.9905866104 0.0198633256
22150167100.0 -0.991319994 0.0354356076
22200166800.0 -0.9919117629 0.0521251906
22250166500.0 -0.9913372127 0.0691893817
22300166200.0 -0.990641877 0.0860460514
22350165900.0 -0.9895184928 0.1023418122
22400165600.0 -0.988314385 0.1181340457
22450165300.0 -0.9859835706 0.1337414224
22500165000.0 -0.9850929648 0.1470269575
22550164700.0 -0.9834635504 0.1634665793
22600164400.0 -0.9816597521 0.1794915615
22650164100.0 -0.9782781009 0.196476632
22700163800.0 -0.9752379311 0.211765674
22750163500.0 -0.9719148248 0.2263908784
22800163200.0 -0.9689469319 0.2395278495
22850162900.0 -0.9665195996 0.2524466362
22900162600.0 -0.9647145719 0.2670324345
22950162300.0 -0.9629179515 0.2806245696
23000162000.0 -0.9612013693 0.2928779601
23050161700.0 -0.9585871721 0.3069175192
23100161400.0 -0.9558300328 0.3200540701
23150161100.0 -0.9521860775 0.3334317312
23200160800.0 -0.9497999507 0.3459388888
23250160500.0 -0.9469786543 0.3585421983
23300160200.0 -0.9438971442 0.3708797163
23350159900.0 -0.940245086 0.3844006832
23400159600.0 -0.9347796965 0.398862334
23450159300.0 -0.9296812051 0.4126106235
23500159000.0 -0.9249231337 0.425820675
23550158700.0 -0.919645375 0.4399772522
23600158400.0 -0.9140824337 0.4544059737
23650158100.0 -0.906728207 0.4688662144
23700157800.0 -0.8981502909 0.4831664153
23750157500.0 -0.8888220724 0.4975835953
23800157200.0 -0.8791101042 0.5109084203
23850156900.0 -0.869285375 0.5238266617
23900156600.0 -0.8594966271 0.535791421
23950156300.0 -0.8498197673 0.5495032561
24000156000.0 -0.8401772586 0.5612256014
24050155700.0 -0.8283765101 0.5737013535
24100155400.0 -0.8185755247 0.5863190961
24150155100.0 -0.8081475151 0.5987841576
24200154800.0 -0.7975454091 0.6101467081
24250154500.0 -0.7856575476 0.622364321
24300154200.0 -0.774619657 0.6343533159
24350153900.0 -0.7624541348 0.6453361563
24400153600.0 -0.7497726589 0.6557000866
24450153300.0 -0.7375130022 0.6663265211
24500153000.0 -0.7263591077 0.67618018
24550152700.0 -0.7143490782 0.6864550394
24600152400.0 -0.7031633878 0.6962258202
24650152100.0 -0.6902327687 0.7042465681
