!Created with skrf (http://scikit-rf.org).
# Hz S RI R 50.0 
!freq ReS11 ImS11
300000.0 -0.9994113113 -0.0173439532
50299700.0 -0.9988403876 0.0159820393
100299400.0 -0.9968577957 0.0285405298
150299100.0 -1.001572318 0.0450564906
200298800.0 -0.9984346273 0.0585560757
250298500.0 -0.9960567502 0.0718121914
300298200.0 -0.9846762491 0.0872856906
350297900.0 -0.9925061213 0.0982610126
400297600.0 -0.9914942402 0.114365015
450297300.0 -0.9889695138 0.1282992941
500297000.0 -0.9873824861 0.142819807
550296700.0 -0.9826359101 0.1551822495
600296400.0 -1.01518674 0.1882691385
650296100.0 -0.9801465074 0.1847827346
700295800.0 -0.9772073988 0.1987707818
750295500.0 -0.9740904639 0.2125382894
800295200.0 -0.9708744326 0.2265578402
850294900.0 -0.9676009028 0.2403397109
900294600.0 -0.9637571067 0.2539900626
950294300.0 -0.9600809453 0.2674636594
1000294000.0 -0.9562428476 0.2813671479
1050293700.0 -0.9516717209 0.2951313884
1100293400.0 -0.9475801762 0.3096287968
1150293100.0 -0.9438666449 0.3211778723
1200292800.0 -0.9388263879 0.3356658152
1250292500.0 -0.9332596082 0.3489961382
1300292200.0 -0.9277285461 0.3621944368
1350291900.0 -0.9223742683 0.376235619
1400291600.0 -0.9170673143 0.3891727659
1450291300.0 -0.9116670053 0.4013986724
1500291000.0 -0.9056362273 0.4148250201
1550290700.0 -0.8993597449 0.4281550238
1600290400.0 -0.8930320949 0.4408401962
1650290100.0 -0.8865642857 0.4530000226
1700289800.0 -0.8797625381 0.4663561025
1750289500.0 -0.8728817976 0.478721307
1800289200.0 -0.865759005 0.4914757501
1850288900.0 -0.8591744791 0.5026581903
1900288600.0 -0.8516590164 0.5157000134
1950288300.0 -0.8437180662 0.5281960851
2000288000.0 -0.8362086034 0.5396864194
2050287700.0 -0.8281235183 0.5519049792
2100287400.0 -0.8203209376 0.5634118342
2150287100.0 -0.8117334253 0.575527654
2200286800.0 -0.8040589643 0.5861675128
2250286500.0 -0.7952709948 0.5979113472
2300286200.0 -0.7866989947 0.6092913519
2350285900.0 -0.7779650794 0.6201752583
2400285600.0 -0.7689253175 0.6313332064
2450285300.0 -0.7601022682 0.6419033242
2500285000.0 -0.7509136478 0.6527685159
2550284700.0 -0.741731605 0.6632242332
2600284400.0 -0.7320958327 0.6738526666
2650284100.0 -0.7234525962 0.6836859881
2700283800.0 -0.7130490882 0.6941746701
2750283500.0 -0.7030140057 0.7044023002
2800283200.0 -0.6928186415 0.7141724472
2850282900.0 -0.6825494632 0.7241469461
2900282600.0 -0.6721538584 0.7339010375
2950282300.0 -0.6619767314 0.743079932
3000282000.0 -0.6512329504 0.7528524529
3050281700.0 -0.6402954503 0.7618740147
3100281400.0 -0.6294750047 0.7704776346
3150281100.0 -0.6184810981 0.7795883067
3200280800.0 -0.6069334328 0.7882914602
3250280500.0 -0.5958211384 0.7966194175
3300280200.0 -0.5842768282 0.8053405784
3350279900.0 -0.5731010242 0.8127194147
3400279600.0 -0.5608178153 0.8209633906
3450279300.0 -0.5495949137 0.8286347459
3500279000.0 -0.537884114 0.8359084239
3550278700.0 -0.5259905841 0.8435566884
3600278400.0 -0.5146838072 0.8502024305
3650278100.0 -0.5014271878 0.858431098
3700277800.0 -0.4895388268 0.8647679334
3750277500.0 -0.4778613345 0.8714404212
3800277200.0 -0.4651123569 0.8783020607
3850276900.0 -0.4527164449 0.8844708707
3900276600.0 -0.4413513274 0.8904438944
3950276300.0 -0.4284178018 0.896848367
4000276000.0 -0.4162823573 0.90277782
4050275700.0 -0.4030092824 0.9089247188
4100275400.0 -0.3915411268 0.9142850321
4150275100.0 -0.378457859 0.9197791538
4200274800.0 -0.3650659719 0.9256152866
4250274500.0 -0.3526247986 0.9304780697
4300274200.0 -0.3399712742 0.9351406119
4350273900.0 -0.3263329614 0.9404073845
4400273600.0 -0.3129349477 0.9449776867
4450273300.0 -0.2986907756 0.9494778407
4500273000.0 -0.2858353302 0.9538627573
4550272700.0 -0.2726024057 0.957658993
4600272400.0 -0.2573902522 0.9617560635
4650272100.0 -0.2450730496 0.9650742242
4700271800.0 -0.231716137 0.9683489189
4750271500.0 -0.2187253575 0.9714920469
4800271200.0 -0.2051782203 0.9743524094
4850270900.0 -0.1913094682 0.9772036234
4900270600.0 -0.1781783535 0.9796384093
4950270300.0 -0.1646571063 0.982175794
5000270000.0 -0.1506500038 0.9845114796
5050269700.0 -0.1369241945 0.9863204033
5100269400.0 -0.1228610971 0.9878961434
5150269100.0 -0.1090569768 0.9896465278
5200268800.0 -0.0953653116 0.9914357284
5250268500.0 -0.082183909 0.9922828766
5300268200.0 -0.0687021681 0.9930783526
5350267900.0 -0.0562299281 0.9940768194
5400267600.0 -0.0403217191 0.9949752235
5450267300.0 -0.0279468606 0.995345293
5500267000.0 -0.0136065661 0.9957734613
5550266700.0 -0.0004323171 0.9958995708
5600266400.0 0.0141978618 0.9960759242
5650266100.0 0.029474164 0.9959493282
5700265800.0 0.0431527302 0.994904692
5750265500.0 0.0573486348 0.994492224
5800265200.0 0.0707329899 0.9936196218
5850264900.0 0.0840387235 0.9929444903
5900264600.0 0.1001974762 0.9913719904
5950264300.0 0.1121925549 0.9901696505
6000264000.0 0.1259202605 0.9881052879
6050263700.0 0.1388001236 0.9869248366
6100263400.0 0.1521082298 0.9845450256
6150263100.0 0.1676054036 0.9822122908
6200262800.0 0.1784130251 0.9804692796
6250262500.0 0.1919187795 0.9779360947
6300262200.0 0.2047406941 0.9751155308
6350261900.0 0.21770319 0.9725075558
6400261600.0 0.232144429 0.9691942373
6450261300.0 0.2441689234 0.9663755787
6500261000.0 0.2571395825 0.9627668369
6550260700.0 0.2703187579 0.9589299062
6600260400.0 0.2830931716 0.9548461481
6650260100.0 0.2968640294 0.9513703361
6700259800.0 0.3093044483 0.947204174
6750259500.0 0.3221726032 0.9422934283
6800259200.0 0.335926254 0.9380091592
6850258900.0 0.3479640572 0.9328911191
6900258600.0 0.3610937001 0.9281624494
6950258300.0 0.373933352 0.9231660154
7000258000.0 0.3859288822 0.9181037969
7050257700.0 0.3977105608 0.9123977
7100257400.0 0.4116693749 0.9062044386
7150257100.0 0.4226157903 0.9012348445
7200256800.0 0.4359788333 0.8950979319
7250256500.0 0.4473107222 0.8892211236
7300256200.0 0.4597530108 0.8828019167
7350255900.0 0.4719599353 0.8761170267
7400255600.0 0.482571611 0.8703946013
7450255300.0 0.497170353 0.8626585185
7500255000.0 0.508332625 0.8558156386
7550254700.0 0.5204591521 0.8486650866
7600254400.0 0.5325989457 0.8411064248
7650254100.0 0.543481941 0.8338432416
7700253800.0 0.5552708115 0.8260971474
7750253500.0 0.5668405842 0.818506343
7800253200.0 0.5784565948 0.8103664471
7850252900.0 0.5878900698 0.8035463902
7900252600.0 0.5997731725 0.7947058326
7950252300.0 0.6095290348 0.787189828
8000252000.0 0.620156187 0.779274886
8050251700.0 0.6309755538 0.7707047155
8100251400.0 0.6409720638 0.7625698882
8150251100.0 0.6511747167 0.7536310032
8200250800.0 0.6611582954 0.745207128
8250250500.0 0.6714139166 0.7364179582
8300250200.0 0.6804597525 0.7271779092
8350249900.0 0.6901781532 0.7183429713
8400249600.0 0.6994148852 0.7097288678
8450249300.0 0.7091394755 0.6998244185
8500249000.0 0.7183673051 0.6904057955
8550248700.0 0.7279302198 0.6803946405
8600248400.0 0.7371534603 0.67025736
8650248100.0 0.7451797723 0.6608408813
8700247800.0 0.754519457 0.650334858
8750247500.0 0.7632491668 0.6400707669
8800247200.0 0.7714991908 0.6296460037
8850246900.0 0.7802285672 0.6187554789
8900246600.0 0.7885740794 0.6079470084
8950246300.0 0.7972566368 0.5963798774
9000246000.0 0.8050758549 0.5855308209
9050245700.0 0.8132364968 0.5742745802
9100245400.0 0.8215641569 0.5625645469
9150245100.0 0.8293631495 0.5509002817
9200244800.0 0.8371979246 0.5395246933
9250244500.0 0.8453815379 0.5267395906
9300244200.0 0.8523362167 0.5152629921
9350243900.0 0.8597664373 0.5025018011
9400243600.0 0.866830587 0.4904171371
9450243300.0 0.8728890338 0.4795397179
9500243000.0 0.8799037164 0.4668098302
9550242700.0 0.8858091208 0.4555599296
9600242400.0 0.8918195435 0.4440383891
9650242100.0 0.8969794105 0.4336058179
9700241800.0 0.9028109848 0.422404362
9750241500.0 0.9085327164 0.4108003839
9800241200.0 0.9138399889 0.3985121946
9850240900.0 0.9191926182 0.3865715816
9900240600.0 0.9236732083 0.3767738087
9950240300.0 0.9291906433 0.3626101827
10000240000.0 0.9343595134 0.3497616629
10050239700.0 0.9397208202 0.3362575403
10100239400.0 0.9440293305 0.322831267
10150239100.0 0.9481464465 0.309132588
10200238800.0 0.9527180552 0.2947033494
10250238500.0 0.9568168177 0.2815728452
10300238200.0 0.9603482173 0.2678738346
10350237900.0 0.96381853 0.2547314816
10400237600.0 0.9667688511 0.241692137
10450237300.0 0.970258804 0.2276548664
10500237000.0 0.9730886225 0.2146952864
10550236700.0 0.9761355528 0.2006545317
10600236400.0 0.9784124692 0.1874587373
10650236100.0 0.9807784862 0.1725217752
10700235800.0 0.9830746342 0.1598968636
10750235500.0 0.9852058591 0.1462800181
10800235200.0 0.9875712649 0.1327992536
10850234900.0 0.989204017 0.1188979283
10900234600.0 0.991065717 0.1046751309
10950234300.0 0.9922981522 0.0911428342
11000234000.0 0.993754645 0.0773853397
11050233700.0 0.9949071662 0.0637451094
11100233400.0 0.9962005124 0.0483187936
11150233100.0 0.9970700622 0.0337338503
11200232800.0 0.9974800304 0.0200464527
11250232500.0 0.997587068 0.005958582
11300232200.0 0.998197688 -0.009629398
11350231900.0 0.9983217074 -0.0239450068
11400231600.0 0.9979681695 -0.0382376113
11450231300.0 0.9972898172 -0.0523042953
11500231000.0 0.9966989021 -0.0662911498
11550230700.0 0.9956308255 -0.0804182744
11600230400.0 0.9947546739 -0.0950607762
11650230100.0 0.9927248528 -0.1069517158
11700229800.0 0.9914887353 -0.1218270908
11750229500.0 0.9896411599 -0.135745831
11800229200.0 0.987803775 -0.1487838313
11850228900.0 0.9850227866 -0.1627386558
11900228600.0 0.9821579573 -0.1759603709
11950228300.0 0.9797569466 -0.1889816403
12000228000.0 0.9770078841 -0.2007322423
12050227700.0 0.9737836956 -0.2146758966
12100227400.0 0.9713966044 -0.2263555878
12150227100.0 0.9667515528 -0.2438775417
12200226800.0 0.9637727047 -0.2553425368
12250226500.0 0.9596433392 -0.2688040698
12300226200.0 0.9561098043 -0.2814295103
12350225900.0 0.9518088451 -0.2955734953
12400225600.0 0.9470284041 -0.309029861
12450225300.0 0.9429462309 -0.3210518351
12500225000.0 0.9383084441 -0.3352626573
12550224700.0 0.9329660316 -0.3495246426
12600224400.0 0.9282939587 -0.3615362023
12650224100.0 0.9225864386 -0.3761296917
12700223800.0 0.917355872 -0.3888056227
12750223500.0 0.9116312889 -0.4021410189
12800223200.0 0.9063002948 -0.4147221384
12850222900.0 0.9003665664 -0.427550841
12900222600.0 0.8947766989 -0.4394349307
12950222300.0 0.8885983508 -0.4530618637
13000222000.0 0.8821990083 -0.4643284799
13050221700.0 0.8750737718 -0.4779855123
13100221400.0 0.8683869297 -0.4897735721
13150221100.0 0.8615379292 -0.5020477929
13200220800.0 0.8547808431 -0.5139174818
13250220500.0 0.8475904973 -0.5261152562
13300220200.0 0.8400450107 -0.5376741389
13350219900.0 0.8318493548 -0.5502670552
13400219600.0 0.8240897978 -0.5616881866
13450219300.0 0.8157208585 -0.5736721929
13500219000.0 0.8076187535 -0.585397818
13550218700.0 0.7986676736 -0.5973217974
13600218400.0 0.7894617841 -0.6089615588
13650218100.0 0.7811644657 -0.6193063295
13700217800.0 0.77125904 -0.63150188
13750217500.0 0.7615972945 -0.6429182518
13800217200.0 0.7509210368 -0.6545392703
13850216900.0 0.7419024926 -0.6662277206
13900216600.0 0.7328555695 -0.6753389942
13950216300.0 0.7217930344 -0.6863133014
14000216000.0 0.7115611092 -0.6964483005
14050215700.0 0.7029240092 -0.7049875843
14100215400.0 0.6918049367 -0.7158499628
14150215100.0 0.6816853299 -0.7255179001
14200214800.0 0.671987264 -0.7348337632
14250214500.0 0.6610181085 -0.7449218283
14300214200.0 0.649926407 -0.7548535053
14350213900.0 0.6390435628 -0.7643536877
14400213600.0 0.6282021163 -0.773430849
14450213300.0 0.6166406288 -0.7825712729
14500213000.0 0.6051399801 -0.791286539
14550212700.0 0.592726475 -0.8014777125
14600212400.0 0.5812978285 -0.8098308837
14650212100.0 0.5692639787 -0.817389036
14700211800.0 0.5567520774 -0.826256303
14750211500.0 0.5442688476 -0.8347535387
14800211200.0 0.5316013173 -0.8432085245
14850210900.0 0.5200482893 -0.8504635871
14900210600.0 0.5071366537 -0.8582068996
14950210300.0 0.4944530243 -0.8658435068
15000210000.0 0.4816426205 -0.8728097401
15050209700.0 0.4687362154 -0.879740699
15100209400.0 0.4560285017 -0.8866766935
15150209100.0 0.444130061 -0.8930632395
15200208800.0 0.4304809005 -0.8987345769
15250208500.0 0.4179631546 -0.9049632541
15300208200.0 0.4045667253 -0.9112740274
15350207900.0 0.3915222803 -0.9162092468
15400207600.0 0.3774960348 -0.9216200893
15450207300.0 0.3644773435 -0.9265601811
15500207000.0 0.3499440274 -0.9322657193
15550206700.0 0.3359954597 -0.9375683138
15600206400.0 0.3220928034 -0.9418870647
15650206100.0 0.3072337322 -0.9465585356
15700205800.0 0.2935650906 -0.9509941142
15750205500.0 0.2792082409 -0.9550145126
15800205200.0 0.2654184452 -0.9588945398
15850204900.0 0.2516164091 -0.9624486379
15900204600.0 0.2363709689 -0.9665104394
15950204300.0 0.2221619137 -0.9697866803
16000204000.0 0.2077562292 -0.9730573625
16050203700.0 0.1933288756 -0.9764032365
16100203400.0 0.1794640817 -0.9788937169
16150203100.0 0.1643830588 -0.9813231026
16200202800.0 0.1497578325 -0.983986495
16250202500.0 0.134710279 -0.9855833151
16300202200.0 0.1195581762 -0.9874829741
16350201900.0 0.1045864987 -0.9894443911
16400201600.0 0.0896153765 -0.990830061
16450201300.0 0.0750298781 -0.9920625128
16500201000.0 0.0592091402 -0.9931631952
16550200700.0 0.0440893926 -0.9943060553
16600200400.0 0.0288414311 -0.9946157335
16650200100.0 0.0135509322 -0.9953453896
16700199800.0 -0.0013827012 -0.9954877756
16750199500.0 -0.0174058823 -0.9953355909
16800199200.0 -0.0323268519 -0.9948412543
16850198900.0 -0.0480794099 -0.9942024749
16900198600.0 -0.0621473475 -0.9931508972
16950198300.0 -0.0768151919 -0.9929844863
17000198000.0 -0.0915506325 -0.990957713
17050197700.0 -0.1049594421 -0.9889023177
17100197400.0 -0.1201216506 -0.9876959475
17150197100.0 -0.13469705 -0.9863424822
17200196800.0 -0.1482994165 -0.9835227378
17250196500.0 -0.1624604631 -0.9815810778
17300196200.0 -0.1763071997 -0.9788514362
17350195900.0 -0.1902046575 -0.976342108
17400195600.0 -0.2038801159 -0.9735400934
17450195300.0 -0.2175453821 -0.9706880486
17500195000.0 -0.2315340747 -0.9673224632
17550194700.0 -0.2456593347 -0.9638174479
17600194400.0 -0.2597166029 -0.9603418913
17650194100.0 -0.2737673766 -0.9566052213
17700193800.0 -0.2871525241 -0.9525515915
17750193500.0 -0.3010207215 -0.9478069182
17800193200.0 -0.3150414021 -0.9431945614
17850192900.0 -0.3286430174 -0.9387113971
17900192600.0 -0.3432761667 -0.9334034294
17950192300.0 -0.357901835 -0.9275620607
18000192000.0 -0.3726072467 -0.9214458112
18050191700.0 -0.3866620776 -0.9144752746
18100191400.0 -0.4010011265 -0.9081269103
18150191100.0 -0.4146753685 -0.9015754988
18200190800.0 -0.4292384537 -0.8945164028
18250190500.0 -0.4444644301 -0.8869713026
18300190200.0 -0.4590359543 -0.8798171982
18350189900.0 -0.4736718061 -0.8728419234
18400189600.0 -0.4877074769 -0.8649555755
18450189300.0 -0.5003303104 -0.8573543999
18500189000.0 -0.514241148 -0.8500788315
18550188700.0 -0.5271885955 -0.8423907193
18600188400.0 -0.5398190125 -0.8345517631
18650188100.0 -0.5523481935 -0.8265657135
18700187800.0 -0.564022988 -0.8188512114
18750187500.0 -0.5755067074 -0.811462914
18800187200.0 -0.5872745703 -0.8032320988
18850186900.0 -0.5986884416 -0.7947505357
18900186600.0 -0.6091667604 -0.7866732723
18950186300.0 -0.620748675 -0.7776437248
19000186000.0 -0.6306056256 -0.7699389915
19050185700.0 -0.641293107 -0.7613431931
19100185400.0 -0.6518046316 -0.7524795854
19150185100.0 -0.6627753717 -0.7430254158
19200184800.0 -0.6725608746 -0.7338200306
19250184500.0 -0.6823771876 -0.7242888528
19300184200.0 -0.6929362091 -0.7149773954
19350183900.0 -0.7039934611 -0.7043297272
19400183600.0 -0.7139647323 -0.6939443414
19450183300.0 -0.7241628718 -0.6835740977
19500183000.0 -0.7328814872 -0.6734690018
19550182700.0 -0.7428330087 -0.6623370791
19600182400.0 -0.751909378 -0.6514681491
19650182100.0 -0.7614949823 -0.6398700554
19700181800.0 -0.7710366022 -0.62769483
19750181500.0 -0.7807505973 -0.6157801838
19800181200.0 -0.7903517633 -0.6029590143
19850180900.0 -0.7997965994 -0.5897739253
19900180600.0 -0.8077651856 -0.5778328948
19950180300.0 -0.8179889538 -0.5636254244
20000180000.0 -0.8227661201 -0.5546177698
20050179700.0 -0.8311392974 -0.5429326433
20100179400.0 -0.8396787085 -0.5291878065
20150179100.0 -0.8480397205 -0.5170598143
20200178800.0 -0.8558933504 -0.5043190702
20250178500.0 -0.8638704992 -0.4921331473
20300178200.0 -0.8714530766 -0.479019018
20350177900.0 -0.8791630236 -0.4659443591
20400177600.0 -0.8864373256 -0.4529801243
20450177300.0 -0.8931134351 -0.4400576734
20500177000.0 -0.9000523635 -0.4268040183
20550176700.0 -0.9068143031 -0.4137388927
20600176400.0 -0.9128270646 -0.4010141183
20650176100.0 -0.9186551872 -0.3880610607
20700175800.0 -0.9249151171 -0.3752962214
20750175500.0 -0.9311949956 -0.3623826343
20800175200.0 -0.9354818518 -0.3505021067
20850174900.0 -0.9405180899 -0.3376030521
20900174600.0 -0.9450525524 -0.3256239742
20950174300.0 -0.9485101334 -0.3132883466
21000174000.0 -0.9526971628 -0.300339466
21050173700.0 -0.956141686 -0.2874915985
21100173400.0 -0.9599479931 -0.2749577671
21150173100.0 -0.9641162512 -0.2612574377
21200172800.0 -0.966558191 -0.2481295022
21250172500.0 -0.9701637477 -0.2345181238
21300172200.0 -0.9736741164 -0.2205249664
21350171900.0 -0.9762778446 -0.2063041908
21400171600.0 -0.9791471235 -0.1924846677
21450171300.0 -0.981021433 -0.1781606303
21500171000.0 -0.9829305655 -0.1631624336
21550170700.0 -0.9846907281 -0.1485805908
21600170400.0 -0.9880410063 -0.1343661644
21650170100.0 -0.9885140589 -0.1182761553
21700169800.0 -0.989824303 -0.1040088552
21750169500.0 -0.9897287431 -0.0887073617
21800169200.0 -0.9914295761 -0.072759227
21850168900.0 -0.9919154803 -0.0583863709
21900168600.0 -0.9925388276 -0.0423768005
21950168300.0 -0.9919637902 -0.0276032322
22000168000.0 -0.9924635317 -0.0125561024
22050167700.0 -0.9925895613 0.0020625285
22100167400.0 -0.9926075951 0.0168942618
22150167100.0 -0.9925148157 0.0319352059
22200166800.0 -0.992348643 0.0465670731
22250166500.0 -0.9914704825 0.062857236
22300166200.0 -0.9909021187 0.0765375387
22350165900.0 -0.9896432545 0.0918603687
22400165600.0 -0.9884936349 0.106488084
22450165300.0 -0.9868463768 0.1213167008
22500165000.0 -0.9846226844 0.1337884143
22550164700.0 -0.9841662715 0.1494341425
22600164400.0 -0.9818303449 0.1635363972
22650164100.0 -0.9786839688 0.1762635652
22700163800.0 -0.9765214344 0.1905470837
22750163500.0 -0.9742079521 0.2043907592
22800163200.0 -0.970880921 0.2171180432
22850162900.0 -0.9675617408 0.2304574246
22900162600.0 -0.9651676892 0.2442408115
22950162300.0 -0.9621589761 0.2572805104
23000162000.0 -0.9591546451 0.2699015781
23050161700.0 -0.9560506707 0.2834717051
23100161400.0 -0.952188644 0.2968197727
23150161100.0 -0.9489836293 0.3092903325
23200160800.0 -0.9454519496 0.3220231844
23250160500.0 -0.9412481706 0.3351552153
23300160200.0 -0.9380013893 0.3488057195
23350159900.0 -0.9336541235 0.3611114419
23400159600.0 -0.928065683 0.3739792798
23450159300.0 -0.9242349357 0.3868958997
23500159000.0 -0.9190876838 0.3994547338
23550158700.0 -0.9140730419 0.4124521471
23600158400.0 -0.9085297676 0.4249003061
23650158100.0 -0.902695518 0.4373430102
23700157800.0 -0.8960891584 0.4502505796
23750157500.0 -0.8891471931 0.4634329516
23800157200.0 -0.8820988095 0.4758083903
23850156900.0 -0.8753291555 0.4880348167
23900156600.0 -0.8673430067 0.5006282029
23950156300.0 -0.8597744207 0.5129424868
24000156000.0 -0.8529010348 0.5244787933
24050155700.0 -0.8437800733 0.536371797
24100155400.0 -0.8365512497 0.5486115909
24150155100.0 -0.8274847757 0.5600263863
24200154800.0 -0.8185594312 0.5708642409
24250154500.0 -0.8100008756 0.5832089236
24300154200.0 -0.8009899381 0.5948427308
24350153900.0 -0.7923211163 0.6056566537
24400153600.0 -0.7820277788 0.6162320205
24450153300.0 -0.7723353084 0.6271493661
24500153000.0 -0.7627755309 0.6377818651
24550152700.0 -0.7530686412 0.6480857291
24600152400.0 -0.7439617039 0.6583191413
24650152100.0 -0.733243921 0.669298926
