!Created with skrf (http://scikit-rf.org).
# Hz S RI R 50.0 
!freq ReS11 ImS11
300000.0 -0.9737090426 -0.1258474609
50299700.0 -0.9998708857 0.0150007272
100299400.0 -0.9980719482 0.0280133243
150299100.0 -1.002693354 0.0447237252
200298800.0 -0.9995207507 0.0582485564
250298500.0 -0.9973605574 0.0715903425
300298200.0 -0.9859342292 0.0873295756
350297900.0 -0.9940509977 0.0982247312
400297600.0 -0.9930207781 0.1148635713
450297300.0 -0.9910676812 0.1287135213
500297000.0 -0.9894774942 0.1435144395
550296700.0 -0.9843270135 0.1556951378
600296400.0 -1.017225601 0.1892134075
650296100.0 -0.9823104993 0.1858419834
700295800.0 -0.9795057613 0.2000826403
750295500.0 -0.9762451191 0.2138634591
800295200.0 -0.9730911014 0.2281522173
850294900.0 -0.9696556358 0.2419103321
900294600.0 -0.9658720491 0.2556411631
950294300.0 -0.9621125686 0.2693766261
1000294000.0 -0.9581245147 0.2832736003
1050293700.0 -0.9538304509 0.2968854438
1100293400.0 -0.9494429018 0.3113676182
1150293100.0 -0.9455949619 0.3233191186
1200292800.0 -0.9402286148 0.337723382
1250292500.0 -0.9347015547 0.3512854073
1300292200.0 -0.9291281044 0.3644376457
1350291900.0 -0.9235346432 0.3782734341
1400291600.0 -0.9180801155 0.3915681008
1450291300.0 -0.912401324 0.4040707836
1500291000.0 -0.9063516843 0.4171915049
1550290700.0 -0.8996425578 0.4306939072
1600290400.0 -0.8935445589 0.4434685758
1650290100.0 -0.8867788628 0.4558873115
1700289800.0 -0.8798543562 0.4692133307
1750289500.0 -0.8729004391 0.4815831551
1800289200.0 -0.8655778561 0.4942480024
1850288900.0 -0.8586616518 0.505714268
1900288600.0 -0.8509466378 0.5186368447
1950288300.0 -0.8428779681 0.5312441873
2000288000.0 -0.835291651 0.5428509335
2050287700.0 -0.8271047711 0.5552395976
2100287400.0 -0.8193693322 0.5665185077
2150287100.0 -0.8110293008 0.5786703048
2200286800.0 -0.8029567629 0.5891196768
2250286500.0 -0.7939338574 0.6013425138
2300286200.0 -0.785101357 0.613000369
2350285900.0 -0.7769310589 0.6234098032
2400285600.0 -0.7679864787 0.6342664783
2450285300.0 -0.7591499374 0.6449941397
2500285000.0 -0.7492381128 0.6568018738
2550284700.0 -0.7400289357 0.6671729174
2600284400.0 -0.7309883744 0.6768593748
2650284100.0 -0.7224159497 0.687149086
2700283800.0 -0.7118313274 0.6970168388
2750283500.0 -0.701617011 0.7082614066
2800283200.0 -0.6913056705 0.7179828306
2850282900.0 -0.6810534191 0.7282191569
2900282600.0 -0.6708216587 0.7379494744
2950282300.0 -0.6602585169 0.7474190885
3000282000.0 -0.6496999278 0.7568698823
3050281700.0 -0.6383134211 0.7659844852
3100281400.0 -0.6266263507 0.7750608462
3150281100.0 -0.6155783066 0.7840310709
3200280800.0 -0.6041348704 0.7922880712
3250280500.0 -0.5930343734 0.8001252776
3300280200.0 -0.5814364262 0.8084723
3350279900.0 -0.5691812558 0.8164797594
3400279600.0 -0.5565437095 0.8245423693
3450279300.0 -0.5454759435 0.8316445603
3500279000.0 -0.5336559654 0.838517268
3550278700.0 -0.5215944013 0.8455488977
3600278400.0 -0.5098173527 0.8523084716
3650278100.0 -0.4969848117 0.8600093562
3700277800.0 -0.484714058 0.8665752806
3750277500.0 -0.4723069168 0.8732330379
3800277200.0 -0.4597951609 0.8796541231
3850276900.0 -0.4477536271 0.8856086713
3900276600.0 -0.4368851229 0.8913441904
3950276300.0 -0.4246244022 0.8970359324
4000276000.0 -0.413037367 0.9029750333
4050275700.0 -0.4005057033 0.909131219
4100275400.0 -0.3893809046 0.9143503618
4150275100.0 -0.3761879631 0.9205964466
4200274800.0 -0.3626790254 0.9263191065
4250274500.0 -0.3500531019 0.9315785975
4300274200.0 -0.336736566 0.9367670714
4350273900.0 -0.3225689599 0.9420229374
4400273600.0 -0.3078234535 0.9472595745
4450273300.0 -0.2928157824 0.9521691503
4500273000.0 -0.2796935192 0.9564188785
4550272700.0 -0.2660244923 0.960473994
4600272400.0 -0.2509947144 0.9646808684
4650272100.0 -0.2397031284 0.9679616276
4700271800.0 -0.2267829952 0.9710917353
4750271500.0 -0.2151467951 0.9739993113
4800271200.0 -0.2028927823 0.9766015452
4850270900.0 -0.1892098481 0.9795063631
4900270600.0 -0.1753598076 0.9819311031
4950270300.0 -0.1608368299 0.9845978447
5000270000.0 -0.1460117993 0.9865541202
5050269700.0 -0.132800566 0.9882081573
5100269400.0 -0.1185550746 0.9900745024
5150269100.0 -0.1046747627 0.9918773809
5200268800.0 -0.0912835456 0.9924879417
5250268500.0 -0.0781947997 0.9936882685
5300268200.0 -0.0646288841 0.9946262316
5350267900.0 -0.05136958 0.9956081951
5400267600.0 -0.0354061102 0.996428856
5450267300.0 -0.0220057295 0.9965999964
5500267000.0 -0.0068032223 0.9968378862
5550266700.0 0.0081501624 0.997207974
5600266400.0 0.0239494999 0.9971729043
5650266100.0 0.0406310229 0.9967849336
5700265800.0 0.0547213274 0.9957287664
5750265500.0 0.0699202514 0.9950742596
5800265200.0 0.0831800152 0.9941119678
5850264900.0 0.0965018752 0.9928094135
5900264600.0 0.1130695392 0.9911517285
5950264300.0 0.1246375257 0.9898083917
6000264000.0 0.1382440546 0.9878857848
6050263700.0 0.150052584 0.9865777392
6100263400.0 0.1617687482 0.984509054
6150263100.0 0.1766392695 0.9826279846
6200262800.0 0.185968567 0.980714601
6250262500.0 0.198601116 0.9787505688
6300262200.0 0.2108886559 0.9762797627
6350261900.0 0.2238194186 0.9733864497
6400261600.0 0.2377291274 0.9702161777
6450261300.0 0.2484553285 0.9676893736
6500261000.0 0.2622458187 0.9641448599
6550260700.0 0.275246381 0.9600600486
6600260400.0 0.2885084224 0.9560271323
6650260100.0 0.3025957011 0.951736172
6700259800.0 0.314946615 0.9474437233
6750259500.0 0.3289002426 0.9423757254
6800259200.0 0.3418055711 0.9370077034
6850258900.0 0.3550509143 0.9321159331
6900258600.0 0.3671382729 0.9266929136
6950258300.0 0.3794915714 0.9214538002
7000258000.0 0.3911879723 0.9162413977
7050257700.0 0.4032988607 0.9104481255
7100257400.0 0.4166055803 0.903989093
7150257100.0 0.4274423013 0.8986239407
7200256800.0 0.4404560856 0.8919121693
7250256500.0 0.4531056243 0.8854065014
7300256200.0 0.4659573395 0.8787539711
7350255900.0 0.4789665974 0.8715378847
7400255600.0 0.4935823017 0.8640838659
7450255300.0 0.5091610666 0.8550766321
7500255000.0 0.5209152462 0.8469294016
7550254700.0 0.5355702657 0.8382665891
7600254400.0 0.5479502278 0.8296814327
7650254100.0 0.5594798725 0.8217428166
7700253800.0 0.5714387419 0.8137862933
7750253500.0 0.5821323597 0.806219283
7800253200.0 0.5926318589 0.7984897495
7850252900.0 0.6025185171 0.7911884161
7900252600.0 0.6139463275 0.7824504297
7950252300.0 0.6222827744 0.7760911217
8000252000.0 0.6322201153 0.7687119607
8050251700.0 0.6427319218 0.7604770293
8100251400.0 0.6525247654 0.7525056063
8150251100.0 0.6625758681 0.7440083896
8200250800.0 0.6719471626 0.7357365897
8250250500.0 0.6807465571 0.7279576078
8300250200.0 0.6896832683 0.7196524564
8350249900.0 0.6989998355 0.7107766937
8400249600.0 0.7070539649 0.7028410812
8450249300.0 0.7159324471 0.6940404989
8500249000.0 0.7243519252 0.6852019981
8550248700.0 0.7331454617 0.6760721652
8600248400.0 0.740975814 0.6666916545
8650248100.0 0.748744266 0.6572300789
8700247800.0 0.7581004416 0.6462305863
8750247500.0 0.7663382563 0.6362142041
8800247200.0 0.774280448 0.6258712648
8850246900.0 0.7828501876 0.6143748659
8900246600.0 0.7912909565 0.6030417728
8950246300.0 0.8003699807 0.590279009
9000246000.0 0.808937235 0.5784251118
9050245700.0 0.8177048863 0.5662944428
9100245400.0 0.825786946 0.5540510887
9150245100.0 0.8347856996 0.5411424334
9200244800.0 0.8442160749 0.5266751162
9250244500.0 0.853490636 0.5117766274
9300244200.0 0.8614249208 0.498479726
9350243900.0 0.8689118613 0.4852125939
9400243600.0 0.8755339743 0.4736356057
9450243300.0 0.881019738 0.4631286481
9500243000.0 0.8873668986 0.4514623531
9550242700.0 0.8913224022 0.4439202002
9600242400.0 0.8955939478 0.4363690288
9650242100.0 0.8997810119 0.4296381151
9700241800.0 0.9047119269 0.4209730485
9750241500.0 0.9089419556 0.4133250914
9800241200.0 0.9139538025 0.4038384968
9850240900.0 0.9203380462 0.3922415883
9900240600.0 0.9256926219 0.3804370231
9950240300.0 0.9329798141 0.3635874696
10000240000.0 0.9381077321 0.3510512625
10050239700.0 0.943689392 0.335108305
10100239400.0 0.9493546179 0.3187135372
10150239100.0 0.9538881751 0.3031858
10200238800.0 0.9584391564 0.2874898049
10250238500.0 0.9615224472 0.2742984504
10300238200.0 0.9647200292 0.2604141577
10350237900.0 0.9675501892 0.2467124691
10400237600.0 0.9698903195 0.2335806385
10450237300.0 0.9726215346 0.2201619288
10500237000.0 0.9746807487 0.2074962037
10550236700.0 0.9773382129 0.1930610298
10600236400.0 0.9795509654 0.1791811529
10650236100.0 0.9817770047 0.1645346848
10700235800.0 0.9834344266 0.1526195901
10750235500.0 0.9857297174 0.1384715144
10800235200.0 0.9880658308 0.1245876912
10850234900.0 0.9899355349 0.1094591374
10900234600.0 0.9921364716 0.0945305595
10950234300.0 0.9938098433 0.0809440476
11000234000.0 0.9956652163 0.0654469958
11050233700.0 0.9974071002 0.048898771
11100233400.0 0.9988867898 0.0309676813
11150233100.0 0.9999221388 0.0146639481
11200232800.0 1.000812195 -0.0016242415
11250232500.0 1.001336856 -0.019632691
11300232200.0 1.001590894 -0.0380384838
11350231900.0 1.002061894 -0.0549747104
11400231600.0 1.002166555 -0.0713241437
11450231300.0 1.001476929 -0.0860010779
11500231000.0 1.000005099 -0.1027274609
11550230700.0 0.9985416172 -0.1151594438
11600230400.0 0.9967297241 -0.128377874
11650230100.0 0.9946728877 -0.1399707722
11700229800.0 0.9927807831 -0.1551325091
11750229500.0 0.9904263913 -0.1687558848
11800229200.0 0.9875852237 -0.1821668035
11850228900.0 0.9833831891 -0.1938877475
11900228600.0 0.979976929 -0.2033686931
11950228300.0 0.9761777674 -0.2135730377
12000228000.0 0.9733156017 -0.2226550717
12050227700.0 0.9699748567 -0.2346665127
12100227400.0 0.9669295651 -0.2459488764
12150227100.0 0.9620412506 -0.2620778379
12200226800.0 0.9576776395 -0.2735334767
12250226500.0 0.9539382803 -0.2861713497
12300226200.0 0.9492038124 -0.2991190922
12350225900.0 0.9443265281 -0.3121713609
12400225600.0 0.9406994602 -0.3244897161
12450225300.0 0.9355864648 -0.3372400415
12500225000.0 0.9302429122 -0.3520971877
12550224700.0 0.9245317675 -0.3654550705
12600224400.0 0.9197204633 -0.3783266758
12650224100.0 0.9139400689 -0.3927711426
12700223800.0 0.9087599967 -0.4056084799
12750223500.0 0.9030385835 -0.4188079687
12800223200.0 0.898172702 -0.4311017893
12850222900.0 0.8928366995 -0.4432195604
12900222600.0 0.8872102561 -0.4550344594
12950222300.0 0.8809819552 -0.4679393894
13000222000.0 0.8749680626 -0.4795172842
13050221700.0 0.8682072085 -0.4926065548
13100221400.0 0.8615558524 -0.5047301758
13150221100.0 0.854188152 -0.5173330063
13200220800.0 0.8473846025 -0.528648678
13250220500.0 0.8402726982 -0.5405874247
13300220200.0 0.832636872 -0.5515128375
13350219900.0 0.8244777486 -0.5633233268
13400219600.0 0.8161781722 -0.5752463808
13450219300.0 0.8070386196 -0.5881694996
13500219000.0 0.797004325 -0.6012965484
13550218700.0 0.7869628263 -0.6137687659
13600218400.0 0.7772193277 -0.6252376415
13650218100.0 0.7680161542 -0.636542266
13700217800.0 0.7566640047 -0.648483266
13750217500.0 0.7473417227 -0.6586283396
13800217200.0 0.7355917532 -0.670214089
13850216900.0 0.7251606385 -0.6815381998
13900216600.0 0.715782696 -0.6899213742
13950216300.0 0.7050483014 -0.7005358678
14000216000.0 0.694729745 -0.7092596278
14050215700.0 0.6863199436 -0.717280577
14100215400.0 0.6768014955 -0.726210062
14150215100.0 0.667480755 -0.7351365503
14200214800.0 0.6580413547 -0.7439823072
14250214500.0 0.6476747778 -0.753462122
14300214200.0 0.636999473 -0.7630515128
14350213900.0 0.626062596 -0.7726350905
14400213600.0 0.6141659094 -0.7825223552
14450213300.0 0.6009695299 -0.7927316838
14500213000.0 0.5880835682 -0.8022648572
14550212700.0 0.5758153174 -0.8117328431
14600212400.0 0.5634323103 -0.8201888919
14650212100.0 0.5512155133 -0.8291391389
14700211800.0 0.5367410787 -0.8385397964
14750211500.0 0.5246699951 -0.8476961655
14800211200.0 0.512195035 -0.8555112458
14850210900.0 0.5000406083 -0.8630369392
14900210600.0 0.4866820375 -0.8710649895
14950210300.0 0.4734058793 -0.8787747498
15000210000.0 0.4608253716 -0.8855631042
15050209700.0 0.4486407351 -0.8919083416
15100209400.0 0.43580731 -0.8977253728
15150209100.0 0.423549537 -0.9028993591
15200208800.0 0.4106140946 -0.9078767114
15250208500.0 0.3996226824 -0.9122141078
15300208200.0 0.3872294036 -0.9169366279
15350207900.0 0.3746946885 -0.9224074238
15400207600.0 0.3592006519 -0.9278158427
15450207300.0 0.3447259787 -0.9325416302
15500207000.0 0.3301455552 -0.9372497405
15550206700.0 0.3154136049 -0.9424298481
15600206400.0 0.2993435219 -0.9467964067
15650206100.0 0.2835519221 -0.9507422723
15700205800.0 0.2700773735 -0.9543309065
15750205500.0 0.2562010923 -0.9575874883
15800205200.0 0.2421462792 -0.9613029721
15850204900.0 0.2279489738 -0.9646125065
15900204600.0 0.2129921691 -0.9683462043
15950204300.0 0.1987386969 -0.9713964967
16000204000.0 0.1839624094 -0.9741589731
16050203700.0 0.169040568 -0.9774651017
16100203400.0 0.1541295116 -0.9794922557
16150203100.0 0.1388615914 -0.9822346773
16200202800.0 0.1253494516 -0.9841178201
16250202500.0 0.110201737 -0.9857679523
16300202200.0 0.0949613347 -0.9877545116
16350201900.0 0.0800518415 -0.9889879156
16400201600.0 0.0649924125 -0.9900502058
16450201300.0 0.0498236377 -0.9912041453
16500201000.0 0.0326382366 -0.9920369415
16550200700.0 0.0165897207 -0.9924899802
16600200400.0 0.0005312213 -0.9926752333
16650200100.0 -0.0156733334 -0.9925983603
16700199800.0 -0.032011148 -0.9922972118
16750199500.0 -0.0508535469 -0.9915815138
16800199200.0 -0.0668357448 -0.9904882069
16850198900.0 -0.082260632 -0.9894099923
16900198600.0 -0.0966165798 -0.9882542929
16950198300.0 -0.1108843187 -0.9874196219
17000198000.0 -0.1229876649 -0.9856681798
17050197700.0 -0.1359180554 -0.9838807005
17100197400.0 -0.1490225146 -0.9814052612
17150197100.0 -0.1615370179 -0.9798589333
17200196800.0 -0.174580274 -0.97792065
17250196500.0 -0.187329483 -0.9751616668
17300196200.0 -0.1994284765 -0.972996066
17350195900.0 -0.2112547481 -0.9707855106
17400195600.0 -0.223115979 -0.9680120153
17450195300.0 -0.2362001725 -0.9651949053
17500195000.0 -0.2495902687 -0.9618679128
17550194700.0 -0.26312029 -0.9582748626
17600194400.0 -0.2770723518 -0.9545933389
17650194100.0 -0.2905750013 -0.9504460166
17700193800.0 -0.3035863707 -0.9460603492
17750193500.0 -0.3177664046 -0.941564083
17800193200.0 -0.3320931859 -0.9363206652
17850192900.0 -0.3466358356 -0.9310493827
17900192600.0 -0.3616799937 -0.9252555257
17950192300.0 -0.3775468069 -0.9178671687
18000192000.0 -0.3921588829 -0.9106277556
18050191700.0 -0.4059794333 -0.9027217816
18100191400.0 -0.4201958462 -0.8949494234
18150191100.0 -0.4349858462 -0.8869133285
18200190800.0 -0.451880853 -0.8777659737
18250190500.0 -0.4688046831 -0.8682277782
18300190200.0 -0.4842712386 -0.859579816
18350189900.0 -0.499765026 -0.8514498348
18400189600.0 -0.5139924818 -0.8430929972
18450189300.0 -0.5276974583 -0.8351411051
18500189000.0 -0.5410506868 -0.8265701155
18550188700.0 -0.5537653085 -0.8189788973
18600188400.0 -0.5656367933 -0.8117468141
18650188100.0 -0.5768652083 -0.8056488069
18700187800.0 -0.5881711116 -0.798693733
18750187500.0 -0.5986855308 -0.7921680158
18800187200.0 -0.609573088 -0.7850444381
18850186900.0 -0.619693336 -0.7781968462
18900186600.0 -0.6299962507 -0.7709477201
18950186300.0 -0.6404019184 -0.7631161497
19000186000.0 -0.6478109443 -0.7569092487
19050185700.0 -0.6570046734 -0.7498493258
19100185400.0 -0.6671591723 -0.7416652007
19150185100.0 -0.6770799008 -0.7331340588
19200184800.0 -0.6868764803 -0.7247546245
19250184500.0 -0.6968267486 -0.7159733571
19300184200.0 -0.7079469036 -0.706077231
19350183900.0 -0.7184956579 -0.696742656
19400183600.0 -0.7293464737 -0.6865251375
19450183300.0 -0.7384140912 -0.6765501655
19500183000.0 -0.7462062331 -0.6671389414
19550182700.0 -0.7552774406 -0.6559150974
19600182400.0 -0.7659109197 -0.6441071547
19650182100.0 -0.7764630111 -0.6318126097
19700181800.0 -0.7870435057 -0.6186651014
19750181500.0 -0.7973519972 -0.6041363506
19800181200.0 -0.8074942086 -0.5892863149
19850180900.0 -0.817159175 -0.5740256861
19900180600.0 -0.8247931966 -0.5595811692
19950180300.0 -0.8338644787 -0.5432666485
20000180000.0 -0.8237965936 -0.54696761
20050179700.0 -0.8317188335 -0.5343836983
20100179400.0 -0.839742284 -0.5214189096
20150179100.0 -0.8472235467 -0.5092097246
20200178800.0 -0.8564898975 -0.4985268332
20250178500.0 -0.8651522171 -0.4857196537
20300178200.0 -0.8751173216 -0.4713557785
20350177900.0 -0.8844436152 -0.4578449906
20400177600.0 -0.8934952585 -0.4437250585
20450177300.0 -0.9020778776 -0.4293827951
20500177000.0 -0.9101920732 -0.415323118
20550176700.0 -0.9177003748 -0.4017407431
20600176400.0 -0.9249565153 -0.3888794603
20650176100.0 -0.9318484778 -0.3765418683
20700175800.0 -0.938118149 -0.364938457
20750175500.0 -0.9446306772 -0.3527555701
20800175200.0 -0.9493316061 -0.3431950305
20850174900.0 -0.9538371297 -0.3318161072
20900174600.0 -0.9583352091 -0.3207860736
20950174300.0 -0.9615122466 -0.3100901876
21000174000.0 -0.9640896355 -0.2991088629
21050173700.0 -0.9658110118 -0.2890612046
21100173400.0 -0.9688044314 -0.2794821502
21150173100.0 -0.972784427 -0.2666896361
21200172800.0 -0.9772789473 -0.2534674004
21250172500.0 -0.9806733415 -0.2399122433
21300172200.0 -0.9844640785 -0.2256998262
21350171900.0 -0.9860734793 -0.2118783728
21400171600.0 -0.9877517757 -0.1972902424
21450171300.0 -0.9885727897 -0.1830012955
21500171000.0 -0.988200134 -0.1678473172
21550170700.0 -0.9898438022 -0.1529133279
21600170400.0 -0.9911127056 -0.1380583103
21650170100.0 -0.9914699784 -0.1222642607
21700169800.0 -0.990721337 -0.1072103734
21750169500.0 -0.9902113957 -0.0906089847
21800169200.0 -0.9902149905 -0.0735660569
21850168900.0 -0.9900044794 -0.0581337357
21900168600.0 -0.9893059318 -0.0405161052
21950168300.0 -0.9894949036 -0.0249619807
22000168000.0 -0.9891818515 -0.0103467699
22050167700.0 -0.989473083 0.004209346
22100167400.0 -0.9903926899 0.0198009999
22150167100.0 -0.9912473726 0.0360210005
22200166800.0 -0.9919034163 0.0525897518
22250166500.0 -0.9913860091 0.0703665024
22300166200.0 -0.9907437362 0.0859909983
22350165900.0 -0.9888726149 0.1024377159
22400165600.0 -0.9875842343 0.1178492605
22450165300.0 -0.9861142826 0.1320635151
22500165000.0 -0.9855044214 0.1475351115
22550164700.0 -0.9831223444 0.1641017403
22600164400.0 -0.9811131994 0.1808655367
22650164100.0 -0.9788100063 0.1956207483
22700163800.0 -0.9758034844 0.2116001118
22750163500.0 -0.9725576882 0.225877674
22800163200.0 -0.9688066577 0.2393056598
22850162900.0 -0.9665682374 0.2527709657
22900162600.0 -0.9647058977 0.2669671581
22950162300.0 -0.9628142971 0.2804284885
23000162000.0 -0.9609494178 0.2935228891
23050161700.0 -0.9582766391 0.3069041758
23100161400.0 -0.9552044109 0.3202847937
23150161100.0 -0.9528177759 0.332617338
23200160800.0 -0.9499942026 0.3460414183
23250160500.0 -0.9468693496 0.3580996818
23300160200.0 -0.9440959597 0.3715962217
23350159900.0 -0.9398921243 0.3850748594
23400159600.0 -0.9352778839 0.3983806754
23450159300.0 -0.9301318463 0.4124368415
23500159000.0 -0.9251756973 0.4259783019
23550158700.0 -0.9198676616 0.4400513805
23600158400.0 -0.9139534547 0.4541631175
23650158100.0 -0.9066671772 0.4689320593
23700157800.0 -0.8983357204 0.4831753345
23750157500.0 -0.8887937609 0.4976847635
23800157200.0 -0.8790698873 0.5113427103
23850156900.0 -0.8696355225 0.5231370764
23900156600.0 -0.8594990504 0.5362690022
23950156300.0 -0.8487128668 0.5489813176
24000156000.0 -0.8398882906 0.5617341686
24050155700.0 -0.8295744469 0.5737503177
24100155400.0 -0.8190645898 0.5861149043
24150155100.0 -0.8089295619 0.5980129846
24200154800.0 -0.7975877264 0.6104489704
24250154500.0 -0.7859202319 0.621559159
24300154200.0 -0.7740534911 0.6342722541
24350153900.0 -0.7621346954 0.6458936175
24400153600.0 -0.7496779778 0.6560845659
24450153300.0 -0.7373554696 0.6664014229
24500153000.0 -0.7255680752 0.6768080312
24550152700.0 -0.7142179935 0.686950654
24600152400.0 -0.7021635912 0.6963297903
24650152100.0 -0.6901872552 0.7046383679
