!Created with skrf (http://scikit-rf.org).
# Hz S RI R 50.0 
!freq ReS11 ImS11
300000.0 -0.9840098663 -0.0923588493
50299700.0 -1.000011532 0.0164737081
100299400.0 -0.9981498092 0.0293636794
150299100.0 -1.002850913 0.0463020724
200298800.0 -0.999846753 0.05951437
250298500.0 -0.9972967305 0.0729125931
300298200.0 -0.9859927651 0.0888523915
350297900.0 -0.9940314683 0.0995630401
400297600.0 -0.9932210814 0.1162834933
450297300.0 -0.9908273654 0.130203609
500297000.0 -0.9894786122 0.1448956801
550296700.0 -0.9840169922 0.1573147717
600296400.0 -1.016991666 0.1906088367
650296100.0 -0.9819578247 0.1872396954
700295800.0 -0.979046846 0.2014278125
750295500.0 -0.9760410781 0.2155912796
800295200.0 -0.97272726 0.2297729776
850294900.0 -0.969399219 0.243536843
900294600.0 -0.9654398342 0.257252921
950294300.0 -0.961714261 0.2709018878
1000294000.0 -0.9578195897 0.2849255659
1050293700.0 -0.9530301866 0.298641689
1100293400.0 -0.9486274137 0.3131719976
1150293100.0 -0.9450460035 0.325047698
1200292800.0 -0.9395403266 0.3395056673
1250292500.0 -0.9342475509 0.3526633213
1300292200.0 -0.9283587164 0.3658621483
1350291900.0 -0.923042622 0.379877931
1400291600.0 -0.9174246101 0.3930479532
1450291300.0 -0.9122452385 0.4054630771
1500291000.0 -0.9057771889 0.4186518342
1550290700.0 -0.8990836947 0.4321642061
1600290400.0 -0.8931566522 0.4448983342
1650290100.0 -0.8863713714 0.4570037316
1700289800.0 -0.8796898094 0.470476851
1750289500.0 -0.8723179595 0.4828041577
1800289200.0 -0.8651750096 0.4955979743
1850288900.0 -0.8583764787 0.5068981708
1900288600.0 -0.8506967595 0.519836796
1950288300.0 -0.8424385455 0.5323886824
2000288000.0 -0.8351235577 0.5439286306
2050287700.0 -0.8267978694 0.5563535264
2100287400.0 -0.8187185253 0.5677944359
2150287100.0 -0.8099961086 0.5799670458
2200286800.0 -0.8023493868 0.5903065824
2250286500.0 -0.7933806768 0.6024435852
2300286200.0 -0.7845081061 0.614063743
2350285900.0 -0.7757162629 0.6250318226
2400285600.0 -0.7664112403 0.6361942908
2450285300.0 -0.7578270788 0.6466125963
2500285000.0 -0.7482334673 0.657847684
2550284700.0 -0.7392407031 0.6681980634
2600284400.0 -0.7298266335 0.6783317599
2650284100.0 -0.7206234366 0.6888682693
2700283800.0 -0.7097510212 0.6992407893
2750283500.0 -0.699812811 0.7098453541
2800283200.0 -0.6899063089 0.7193950388
2850282900.0 -0.6798696084 0.7295022807
2900282600.0 -0.669340343 0.7389849681
2950282300.0 -0.6592587033 0.7479716119
3000282000.0 -0.6485454251 0.7574479965
3050281700.0 -0.6374776391 0.7668284782
3100281400.0 -0.6258329542 0.776252098
3150281100.0 -0.613993659 0.7855123916
3200280800.0 -0.602378895 0.7939914303
3250280500.0 -0.5915584427 0.8016757193
3300280200.0 -0.5804004277 0.8094902382
3350279900.0 -0.5689548486 0.8170008587
3400279600.0 -0.5569444445 0.8246613658
3450279300.0 -0.545835414 0.8317197381
3500279000.0 -0.5339770619 0.8391109587
3550278700.0 -0.5212799837 0.8462414519
3600278400.0 -0.5091033656 0.8534050543
3650278100.0 -0.4958930142 0.8612380632
3700277800.0 -0.4837420461 0.867231128
3750277500.0 -0.471727458 0.8740303406
3800277200.0 -0.458802434 0.8805955894
3850276900.0 -0.4467656098 0.8863265565
3900276600.0 -0.4355021612 0.8924278648
3950276300.0 -0.4232775858 0.8982188133
4000276000.0 -0.4111213654 0.9042146673
4050275700.0 -0.3981585864 0.9104589918
4100275400.0 -0.3869825574 0.9157469481
4150275100.0 -0.3739867112 0.921468152
4200274800.0 -0.3608588825 0.9269687747
4250274500.0 -0.3485896436 0.9321250494
4300274200.0 -0.335562167 0.9375204728
4350273900.0 -0.3217118019 0.9424454009
4400273600.0 -0.3068502435 0.9475012771
4450273300.0 -0.2916289384 0.9526892058
4500273000.0 -0.2782072736 0.9569381632
4550272700.0 -0.2638640579 0.9610425968
4600272400.0 -0.2484030944 0.9651762536
4650272100.0 -0.236691792 0.9685951158
4700271800.0 -0.223266391 0.9719415237
4750271500.0 -0.2115982766 0.9747103118
4800271200.0 -0.198914693 0.9774263607
4850270900.0 -0.1851700304 0.9802556185
4900270600.0 -0.1714072086 0.9826152558
4950270300.0 -0.1573851807 0.985191143
5000270000.0 -0.14312355 0.9872122306
5050269700.0 -0.1296089775 0.9890490974
5100269400.0 -0.1161036286 0.9907943964
5150269100.0 -0.1028670889 0.9920439155
5200268800.0 -0.0897931938 0.9930868559
5250268500.0 -0.0765912974 0.9943620143
5300268200.0 -0.0635640605 0.9947030791
5350267900.0 -0.0512967193 0.9954436013
5400267600.0 -0.0351501118 0.9964860921
5450267300.0 -0.0222254368 0.9968304179
5500267000.0 -0.0069496095 0.9971786142
5550266700.0 0.0077390709 0.9971773931
5600266400.0 0.0233825985 0.997269334
5650266100.0 0.0400029482 0.9969334349
5700265800.0 0.0541734274 0.9958226057
5750265500.0 0.0693744723 0.995405708
5800265200.0 0.0837804082 0.9942581766
5850264900.0 0.0967453139 0.99300244
5900264600.0 0.1131817123 0.9912956328
5950264300.0 0.1255855855 0.9896561612
6000264000.0 0.1398327149 0.9880843867
6050263700.0 0.1522966672 0.9864445764
6100263400.0 0.164795477 0.9841796566
6150263100.0 0.1793469538 0.9820097414
6200262800.0 0.1900883645 0.9801290119
6250262500.0 0.2028816738 0.9777537568
6300262200.0 0.2155165599 0.9748900879
6350261900.0 0.2288210087 0.971869838
6400261600.0 0.2424373097 0.9684357888
6450261300.0 0.2538419369 0.9656886874
6500261000.0 0.2668154676 0.9624201195
6550260700.0 0.2795479326 0.958338425
6600260400.0 0.2929059724 0.9542002208
6650260100.0 0.3066412012 0.9498997617
6700259800.0 0.3187194191 0.9457558508
6750259500.0 0.3327666717 0.9408272117
6800259200.0 0.3457763913 0.9359456624
6850258900.0 0.3575061655 0.9309577523
6900258600.0 0.3697831756 0.9261194374
6950258300.0 0.3822641352 0.9207876574
7000258000.0 0.3942121554 0.9153984999
7050257700.0 0.4064437674 0.9093734667
7100257400.0 0.419373029 0.9030575052
7150257100.0 0.4298196148 0.8978342481
7200256800.0 0.4424434075 0.8914644259
7250256500.0 0.4538224184 0.8851247932
7300256200.0 0.4670107966 0.8784599333
7350255900.0 0.4793292351 0.8719110244
7400255600.0 0.4923820269 0.8644895893
7450255300.0 0.5074922386 0.8556119324
7500255000.0 0.5187666707 0.8483231364
7550254700.0 0.5322058007 0.8397058392
7600254400.0 0.5454694517 0.8317250578
7650254100.0 0.556584847 0.8237475407
7700253800.0 0.5689039845 0.8155895738
7750253500.0 0.5803697603 0.807739322
7800253200.0 0.5911332462 0.7999009196
7850252900.0 0.6005643846 0.7927873254
7900252600.0 0.6123916328 0.7839957695
7950252300.0 0.6213516808 0.7773294688
8000252000.0 0.631525704 0.7694225295
8050251700.0 0.6421871971 0.7611876325
8100251400.0 0.6523308145 0.7528207912
8150251100.0 0.6624307382 0.744103693
8200250800.0 0.6721209055 0.7360009022
8250250500.0 0.6808923768 0.7278685497
8300250200.0 0.6905066283 0.7195243563
8350249900.0 0.6997816669 0.7106345684
8400249600.0 0.7075196206 0.7023906667
8450249300.0 0.7169801497 0.6932979924
8500249000.0 0.7252523423 0.6842697133
8550248700.0 0.7339104864 0.6754550614
8600248400.0 0.7421911478 0.6657214129
8650248100.0 0.7501509604 0.6565667079
8700247800.0 0.7594074266 0.6454005991
8750247500.0 0.7677114029 0.635391793
8800247200.0 0.7759190099 0.6252155471
8850246900.0 0.7845254052 0.6137265975
8900246600.0 0.7929089961 0.6025422242
8950246300.0 0.8022869792 0.589618575
9000246000.0 0.8113284029 0.5772315398
9050245700.0 0.8204931446 0.5644570834
9100245400.0 0.8290232602 0.5517553803
9150245100.0 0.8382326752 0.5386982488
9200244800.0 0.8478111489 0.5235027837
9250244500.0 0.8571668363 0.5080471096
9300244200.0 0.8652844355 0.4937459753
9350243900.0 0.8731664908 0.4797126711
9400243600.0 0.8801542554 0.4670045945
9450243300.0 0.8860862059 0.4549424434
9500243000.0 0.8922635112 0.4423660078
9550242700.0 0.8963331116 0.4343241802
9600242400.0 0.9000377821 0.4266619918
9650242100.0 0.9040015099 0.4195958382
9700241800.0 0.908435567 0.4112027103
9750241500.0 0.9126340962 0.4032016025
9800241200.0 0.9172580285 0.3940142425
9850240900.0 0.9226641527 0.3825081689
9900240600.0 0.9279507901 0.3709979455
9950240300.0 0.9347476747 0.3551385471
10000240000.0 0.9395509011 0.34282747
10050239700.0 0.9449117853 0.3279123839
10100239400.0 0.9498632093 0.3128036671
10150239100.0 0.954284829 0.2981713166
10200238800.0 0.9585767886 0.2831436537
10250238500.0 0.9618866152 0.269843553
10300238200.0 0.9648754407 0.2560718571
10350237900.0 0.9676974478 0.2429733122
10400237600.0 0.9702027582 0.2299088374
10450237300.0 0.9728745111 0.2160278926
10500237000.0 0.9750897583 0.2042574692
10550236700.0 0.9771176348 0.1906927551
10600236400.0 0.9797543138 0.1769356042
10650236100.0 0.9816379304 0.1629197674
10700235800.0 0.9844140667 0.1503430944
10750235500.0 0.9860699186 0.1371891367
10800235200.0 0.9880961315 0.1234717586
10850234900.0 0.989817525 0.1089127425
10900234600.0 0.9917295604 0.0945753533
10950234300.0 0.9934789026 0.0810143008
11000234000.0 0.9951705347 0.0661528468
11050233700.0 0.996832676 0.050201083
11100233400.0 0.9983747707 0.0326680893
11150233100.0 0.9993751959 0.016384779
11200232800.0 0.9997461321 0.0018924207
11250232500.0 1.000704533 -0.0148517024
11300232200.0 1.001649964 -0.0325757356
11350231900.0 1.001028197 -0.0487606986
11400231600.0 1.000605586 -0.064345279
11450231300.0 1.00009992 -0.0799359351
11500231000.0 0.998960841 -0.0964252579
11550230700.0 0.9972969001 -0.109572281
11600230400.0 0.9960468113 -0.1223777889
11650230100.0 0.9936726976 -0.1348413547
11700229800.0 0.9922916205 -0.1493818705
11750229500.0 0.9896787498 -0.1642585845
11800229200.0 0.9869780492 -0.1779617824
11850228900.0 0.9833849194 -0.1906739833
11900228600.0 0.9801017519 -0.2006870613
11950228300.0 0.9770519223 -0.2117937223
12000228000.0 0.9738655491 -0.2210111007
12050227700.0 0.9705463951 -0.2330974943
12100227400.0 0.9673798202 -0.2449963024
12150227100.0 0.9621478046 -0.2609959983
12200226800.0 0.9588741931 -0.2717087196
12250226500.0 0.954404119 -0.2850286559
12300226200.0 0.9502398004 -0.2969762817
12350225900.0 0.9456075063 -0.3103435432
12400225600.0 0.9412922006 -0.3229102128
12450225300.0 0.9367257047 -0.3354459815
12500225000.0 0.931677692 -0.3501043115
12550224700.0 0.9265962128 -0.3637618175
12600224400.0 0.9216985558 -0.3759012642
12650224100.0 0.9160821064 -0.3902184089
12700223800.0 0.9108411104 -0.402799705
12750223500.0 0.9052119584 -0.4159881303
12800223200.0 0.9000234656 -0.4281843788
12850222900.0 0.8945279785 -0.4404664027
12900222600.0 0.8890352217 -0.4522646498
12950222300.0 0.882372627 -0.46569035
13000222000.0 0.8763270409 -0.476649789
13050221700.0 0.8696098069 -0.4893693373
13100221400.0 0.8626190082 -0.5017514619
13150221100.0 0.8557781202 -0.5137565186
13200220800.0 0.8487358813 -0.526104061
13250220500.0 0.8414070351 -0.5383082878
13300220200.0 0.8334678351 -0.5493096952
13350219900.0 0.8254832685 -0.5612609555
13400219600.0 0.8171387784 -0.573540577
13450219300.0 0.8074512368 -0.5873864303
13500219000.0 0.7971804336 -0.601326003
13550218700.0 0.7867947153 -0.6139583204
13600218400.0 0.7765234237 -0.6261342877
13650218100.0 0.7673979977 -0.637124221
13700217800.0 0.7556999624 -0.6500644417
13750217500.0 0.746123055 -0.661190877
13800217200.0 0.734597209 -0.6728156181
13850216900.0 0.723685521 -0.6842261614
13900216600.0 0.7138547589 -0.693433898
13950216300.0 0.7031414899 -0.7031565151
14000216000.0 0.6928588505 -0.7127024322
14050215700.0 0.6840467485 -0.7204728125
14100215400.0 0.673624899 -0.7300259992
14150215100.0 0.6649258243 -0.7382463186
14200214800.0 0.655524981 -0.7467006938
14250214500.0 0.6455228955 -0.7559685421
14300214200.0 0.6352711861 -0.7651065875
14350213900.0 0.6241712195 -0.7743702887
14400213600.0 0.6126570114 -0.7838842668
14450213300.0 0.5997858901 -0.7941100668
14500213000.0 0.5869404817 -0.8039204194
14550212700.0 0.5740504139 -0.8129832066
14600212400.0 0.5617670172 -0.8220137384
14650212100.0 0.548971778 -0.8302821958
14700211800.0 0.5352977263 -0.8400784961
14750211500.0 0.5227545385 -0.8482977475
14800211200.0 0.510589634 -0.8562494803
14850210900.0 0.4985684694 -0.8635818434
14900210600.0 0.4851231355 -0.8714506257
14950210300.0 0.4715990125 -0.8792885054
15000210000.0 0.4586322355 -0.8860722032
15050209700.0 0.4462132976 -0.8924291007
15100209400.0 0.4332545887 -0.8985203104
15150209100.0 0.4210846589 -0.9036602914
15200208800.0 0.4070928118 -0.9097649224
15250208500.0 0.3958886485 -0.914811996
15300208200.0 0.3835754506 -0.9188828245
15350207900.0 0.3699428122 -0.9234829539
15400207600.0 0.35564745 -0.9295195717
15450207300.0 0.3409617409 -0.9343180417
15500207000.0 0.326165008 -0.9379165799
15550206700.0 0.3109098205 -0.9439383508
15600206400.0 0.2954606863 -0.9484937765
15650206100.0 0.2797176304 -0.9525026007
15700205800.0 0.2656898977 -0.9558634428
15750205500.0 0.251286305 -0.9594013247
15800205200.0 0.2371660584 -0.9628403485
15850204900.0 0.2225852794 -0.9665409763
15900204600.0 0.2077781698 -0.9700530743
15950204300.0 0.1937817716 -0.972550353
16000204000.0 0.1800257267 -0.9754990201
16050203700.0 0.1650796348 -0.9784311327
16100203400.0 0.1510242389 -0.9804112711
16150203100.0 0.1368830443 -0.9827515802
16200202800.0 0.1229122407 -0.9848193235
16250202500.0 0.1083213222 -0.9863221092
16300202200.0 0.0934293923 -0.9878524444
16350201900.0 0.0784325972 -0.9892998193
16400201600.0 0.0638052843 -0.9902705323
16450201300.0 0.0489006792 -0.9913965863
16500201000.0 0.0322126226 -0.9920433977
16550200700.0 0.0166287627 -0.992603015
16600200400.0 0.0006774493 -0.9926631153
16650200100.0 -0.0154713353 -0.9928701581
16700199800.0 -0.0322677334 -0.99217721
16750199500.0 -0.0507934507 -0.9920629819
16800199200.0 -0.0666649464 -0.9904068953
16850198900.0 -0.0821521176 -0.989699339
16900198600.0 -0.095831101 -0.9886451075
16950198300.0 -0.1098026762 -0.9875536211
17000198000.0 -0.1225916468 -0.9851217267
17050197700.0 -0.1352098923 -0.983624655
17100197400.0 -0.1488115876 -0.9816347
17150197100.0 -0.1617793569 -0.9795198263
17200196800.0 -0.1747628394 -0.977544588
17250196500.0 -0.1878216732 -0.9751706221
17300196200.0 -0.2001275231 -0.9725803322
17350195900.0 -0.211832789 -0.9703808299
17400195600.0 -0.2243141814 -0.9679290147
17450195300.0 -0.2372397078 -0.9651013557
17500195000.0 -0.2508367981 -0.961596709
17550194700.0 -0.2644253341 -0.9581282259
17600194400.0 -0.2786785603 -0.9539094931
17650194100.0 -0.2919980606 -0.9500996519
17700193800.0 -0.3047854037 -0.945846056
17750193500.0 -0.3192954901 -0.9408393511
17800193200.0 -0.3332724642 -0.9357493808
17850192900.0 -0.3483031274 -0.9304733332
17900192600.0 -0.3631431488 -0.9244699624
17950192300.0 -0.3786883378 -0.9175687934
18000192000.0 -0.3931427665 -0.9104479728
18050191700.0 -0.4068387405 -0.9027437714
18100191400.0 -0.421133843 -0.8952467836
18150191100.0 -0.4357761729 -0.8871691719
18200190800.0 -0.452466259 -0.8783106126
18250190500.0 -0.4690381755 -0.8687776889
18300190200.0 -0.4843096702 -0.8601443909
18350189900.0 -0.4993794872 -0.8519317252
18400189600.0 -0.5134512213 -0.8439463477
18450189300.0 -0.5276132899 -0.8352928493
18500189000.0 -0.5404207516 -0.8271288519
18550188700.0 -0.5533171 -0.8196074121
18600188400.0 -0.5652481969 -0.8122944785
18650188100.0 -0.5763747756 -0.8057165601
18700187800.0 -0.5878511418 -0.798765633
18750187500.0 -0.5985123418 -0.7921889687
18800187200.0 -0.6089832244 -0.7848354593
18850186900.0 -0.6196525585 -0.7775715904
18900186600.0 -0.6302151497 -0.7697437386
18950186300.0 -0.6402731611 -0.7619870281
19000186000.0 -0.6482440951 -0.7554824251
19050185700.0 -0.6577574707 -0.7474299202
19100185400.0 -0.6676529209 -0.7393844174
19150185100.0 -0.6781014348 -0.7305988865
19200184800.0 -0.6873379481 -0.7218745388
19250184500.0 -0.6978825422 -0.7130579625
19300184200.0 -0.7088555379 -0.702745156
19350183900.0 -0.7197299499 -0.6932204759
19400183600.0 -0.7290945848 -0.6838528523
19450183300.0 -0.7384578733 -0.6732099589
19500183000.0 -0.7466146493 -0.6636221369
19550182700.0 -0.7564294243 -0.6522271496
19600182400.0 -0.7667262442 -0.6408532444
19650182100.0 -0.7769118518 -0.6293319141
19700181800.0 -0.7873707631 -0.616187808
19750181500.0 -0.7975196481 -0.6020858479
19800181200.0 -0.807473014 -0.5876911575
19850180900.0 -0.8169754586 -0.5726812207
19900180600.0 -0.8248030029 -0.5588310061
19950180300.0 -0.8336838727 -0.5424971639
20000180000.0 -0.8281012226 -0.5444917814
20050179700.0 -0.8362038361 -0.5303084113
20100179400.0 -0.8447625441 -0.5168241893
20150179100.0 -0.8520090133 -0.5055238879
20200178800.0 -0.8609686177 -0.4926074576
20250178500.0 -0.86970431 -0.4789507201
20300178200.0 -0.8791124849 -0.4645237202
20350177900.0 -0.888256157 -0.4509261971
20400177600.0 -0.8966645302 -0.4364271622
20450177300.0 -0.9048435473 -0.4216141183
20500177000.0 -0.9126904308 -0.4074129629
20550176700.0 -0.9206219029 -0.3936918089
20600176400.0 -0.9269733786 -0.3805011856
20650176100.0 -0.934019452 -0.3677733688
20700175800.0 -0.9408149532 -0.3556588568
20750175500.0 -0.9469792333 -0.3441863811
20800175200.0 -0.9525792283 -0.3328900307
20850174900.0 -0.9576252126 -0.3220487413
20900174600.0 -0.9613473736 -0.3093296882
20950174300.0 -0.9653304454 -0.2972236548
21000174000.0 -0.969513515 -0.2856217614
21050173700.0 -0.9718232966 -0.2736363907
21100173400.0 -0.9763754507 -0.2616472119
21150173100.0 -0.9802434062 -0.2488082117
21200172800.0 -0.9840702163 -0.2358031007
21250172500.0 -0.9873393942 -0.2213775111
21300172200.0 -0.9904893547 -0.2071611358
21350171900.0 -0.9915302027 -0.1935324272
21400171600.0 -0.9934034725 -0.1783029896
21450171300.0 -0.9932588823 -0.1645260776
21500171000.0 -0.993070948 -0.1486570582
21550170700.0 -0.9929317735 -0.1347303971
21600170400.0 -0.9929391 -0.1195445035
21650170100.0 -0.9916677586 -0.1030380929
21700169800.0 -0.9910350341 -0.0877678375
21750169500.0 -0.9897447391 -0.0718712784
21800169200.0 -0.9881824517 -0.0567537931
21850168900.0 -0.9873905224 -0.0399465554
21900168600.0 -0.9863236915 -0.0233828406
21950168300.0 -0.9847043915 -0.0088841637
22000168000.0 -0.9831773895 0.0068101485
22050167700.0 -0.9828011616 0.0203219019
22100167400.0 -0.9824665715 0.0353326229
22150167100.0 -0.9828470359 0.0509981995
22200166800.0 -0.9836050598 0.0669095067
22250166500.0 -0.9827597711 0.0836345456
22300166200.0 -0.9824460417 0.100737407
22350165900.0 -0.9799759773 0.1168570444
22400165600.0 -0.9779240924 0.1334235777
22450165300.0 -0.9770013528 0.1468636817
22500165000.0 -0.9747785543 0.1617254904
22550164700.0 -0.9738105267 0.1765238421
22600164400.0 -0.970925303 0.1919450364
22650164100.0 -0.9700393618 0.2060272677
22700163800.0 -0.9675228801 0.2223426401
22750163500.0 -0.9640866405 0.2373918586
22800163200.0 -0.9620973004 0.2511553506
22850162900.0 -0.9593077344 0.26448481
22900162600.0 -0.957996243 0.2781127269
22950162300.0 -0.9567452891 0.2908280697
23000162000.0 -0.9555139837 0.3029351066
23050161700.0 -0.9532485635 0.3153476934
23100161400.0 -0.9516562845 0.3275397999
23150161100.0 -0.9478172536 0.3402826474
23200160800.0 -0.9461994295 0.3524560127
23250160500.0 -0.9423824642 0.3646473148
23300160200.0 -0.9399308688 0.3763328016
23350159900.0 -0.9362797979 0.3893218565
23400159600.0 -0.931911248 0.4025307727
23450159300.0 -0.9267828549 0.4151527851
23500159000.0 -0.9224889441 0.4281721188
23550158700.0 -0.9175856049 0.4406896771
23600158400.0 -0.9123402015 0.453477862
23650158100.0 -0.9060435638 0.4677131697
23700157800.0 -0.8984203919 0.4812423811
23750157500.0 -0.8900216195 0.4951367566
23800157200.0 -0.8810412322 0.5081040839
23850156900.0 -0.8730587804 0.5200986125
23900156600.0 -0.863241686 0.5328214628
23950156300.0 -0.8541928578 0.5451607805
24000156000.0 -0.8454238118 0.5575399787
24050155700.0 -0.8349275097 0.569004489
24100155400.0 -0.825410094 0.5807499283
24150155100.0 -0.8145738412 0.5928950814
24200154800.0 -0.8036072261 0.6038186166
24250154500.0 -0.7922515766 0.616107861
24300154200.0 -0.7813737661 0.6277781338
24350153900.0 -0.7692537393 0.6387366716
24400153600.0 -0.7571386838 0.6490601993
24450153300.0 -0.7455804797 0.6590681344
24500153000.0 -0.7338235449 0.668736035
24550152700.0 -0.7231537947 0.6789010317
24600152400.0 -0.7115612235 0.6877374787
24650152100.0 -0.6995683921 0.6971765263
