!Created with skrf (http://scikit-rf.org).
# Hz S RI R 50.0 
!freq ReS11 ImS11
300000.0 -0.9772250774 -0.1155572923
50299700.0 -1.000014952 0.0154831541
100299400.0 -0.9980415928 0.0285225265
150299100.0 -1.00281437 0.0454198639
200298800.0 -0.9997140053 0.0588453693
250298500.0 -0.9975102633 0.0723042459
300298200.0 -0.9858868134 0.0882213654
350297900.0 -0.9939698651 0.09904276
400297600.0 -0.9932952278 0.1156611264
450297300.0 -0.9911804088 0.1294953511
500297000.0 -0.9897112687 0.1441656455
550296700.0 -0.9845767135 0.1564927395
600296400.0 -1.017369226 0.1898774994
650296100.0 -0.9821783049 0.1866428554
700295800.0 -0.979339492 0.2009858556
750295500.0 -0.9763275979 0.2149061828
800295200.0 -0.9728715876 0.2288966993
850294900.0 -0.9696438498 0.2426510052
900294600.0 -0.9660185092 0.2566161738
950294300.0 -0.9620552667 0.2704637421
1000294000.0 -0.9580478602 0.2842466429
1050293700.0 -0.9536236379 0.2978786544
1100293400.0 -0.9491637126 0.3124015808
1150293100.0 -0.9453238622 0.3241640915
1200292800.0 -0.9403112334 0.3386764749
1250292500.0 -0.9345849502 0.3518966046
1300292200.0 -0.9290133475 0.3652898432
1350291900.0 -0.9233674045 0.3793476556
1400291600.0 -0.9175468907 0.3924727629
1450291300.0 -0.9123668185 0.4047726601
1500291000.0 -0.9060746173 0.418144537
1550290700.0 -0.8993391438 0.4314696861
1600290400.0 -0.8931638325 0.4445955948
1650290100.0 -0.8867148069 0.4566821864
1700289800.0 -0.879758741 0.4698088998
1750289500.0 -0.8728624992 0.4822884393
1800289200.0 -0.8653109741 0.4950994008
1850288900.0 -0.8585633372 0.5065316318
1900288600.0 -0.8508698877 0.5194356056
1950288300.0 -0.8425990397 0.5320347338
2000288000.0 -0.8351968754 0.5435355279
2050287700.0 -0.8269831147 0.5556175484
2100287400.0 -0.8190368059 0.5672799133
2150287100.0 -0.8103373009 0.5794192294
2200286800.0 -0.8025898906 0.5898503315
2250286500.0 -0.7938276264 0.6018816056
2300286200.0 -0.7847856057 0.6135994972
2350285900.0 -0.7762262501 0.6244832908
2400285600.0 -0.7671140675 0.6354205978
2450285300.0 -0.7587166378 0.6460002851
2500285000.0 -0.7490099522 0.6571574054
2550284700.0 -0.7398593687 0.6674564414
2600284400.0 -0.7304453166 0.6775137059
2650284100.0 -0.7216580935 0.6882329475
2700283800.0 -0.711016645 0.6987157399
2750283500.0 -0.700658779 0.709134552
2800283200.0 -0.6908560565 0.7189365334
2850282900.0 -0.6807546832 0.7289467726
2900282600.0 -0.670222476 0.738346818
2950282300.0 -0.6601628506 0.7474639952
3000282000.0 -0.6492559271 0.7570388289
3050281700.0 -0.638214126 0.7663447373
3100281400.0 -0.6262695233 0.7757905866
3150281100.0 -0.6143268133 0.7852605769
3200280800.0 -0.6028862782 0.7936395214
3250280500.0 -0.5921582795 0.8012584877
3300280200.0 -0.5807253561 0.8091270161
3350279900.0 -0.5691866045 0.8168173961
3400279600.0 -0.5571797716 0.8244858637
3450279300.0 -0.5460486642 0.8314695611
3500279000.0 -0.5339373202 0.8386861368
3550278700.0 -0.5216678413 0.8458520054
3600278400.0 -0.5094438761 0.8532492495
3650278100.0 -0.496110468 0.8608434681
3700277800.0 -0.4839031892 0.8672548441
3750277500.0 -0.4718557941 0.873604758
3800277200.0 -0.4592492591 0.8799726448
3850276900.0 -0.4472562969 0.8861706208
3900276600.0 -0.4363943886 0.8916507065
3950276300.0 -0.4239092791 0.8976934101
4000276000.0 -0.4117996738 0.9037070308
4050275700.0 -0.3990144759 0.9098740936
4100275400.0 -0.3878258583 0.9151128467
4150275100.0 -0.375062083 0.9213476739
4200274800.0 -0.36205124 0.9265218994
4250274500.0 -0.3497884632 0.9315750683
4300274200.0 -0.3371687904 0.9367950385
4350273900.0 -0.3232457871 0.942148024
4400273600.0 -0.3082182698 0.9473249811
4450273300.0 -0.2928281415 0.9525849948
4500273000.0 -0.2791593019 0.9569858333
4550272700.0 -0.2648607836 0.9610051675
4600272400.0 -0.2495098633 0.9652399843
4650272100.0 -0.2378447949 0.9685199451
4700271800.0 -0.2244988109 0.9719288086
4750271500.0 -0.2128260976 0.9747077558
4800271200.0 -0.2003289227 0.9772600402
4850270900.0 -0.1864397515 0.9801547454
4900270600.0 -0.1726137398 0.9825527473
4950270300.0 -0.1582788561 0.985033284
5000270000.0 -0.1439484001 0.9871619895
5050269700.0 -0.1306957047 0.9886267956
5100269400.0 -0.1169455403 0.990449444
5150269100.0 -0.1035450361 0.992214072
5200268800.0 -0.0903279673 0.9929061784
5250268500.0 -0.0772306272 0.9938985869
5300268200.0 -0.0643120523 0.9948884295
5350267900.0 -0.0519875805 0.99512165
5400267600.0 -0.0358770553 0.9962624999
5450267300.0 -0.0228863457 0.9969284956
5500267000.0 -0.0074102226 0.9972984845
5550266700.0 0.0074571783 0.9972226705
5600266400.0 0.0230434382 0.9972523215
5650266100.0 0.0397081632 0.9971675833
5700265800.0 0.0541900104 0.9964828626
5750265500.0 0.0692800647 0.9953801175
5800265200.0 0.083464403 0.9944892039
5850264900.0 0.0966124731 0.9932190083
5900264600.0 0.1134019133 0.9920141945
5950264300.0 0.1252615281 0.9899049749
6000264000.0 0.1392968149 0.9882196091
6050263700.0 0.1519395204 0.9866910082
6100263400.0 0.1640816266 0.9847984769
6150263100.0 0.17858693 0.9826099632
6200262800.0 0.1889329638 0.9805699643
6250262500.0 0.201657848 0.9784554768
6300262200.0 0.214609164 0.9754785987
6350261900.0 0.2277464179 0.9726072358
6400261600.0 0.2415344 0.9693684972
6450261300.0 0.2525123858 0.9665426694
6500261000.0 0.2653323274 0.9630448295
6550260700.0 0.2783062727 0.9590786389
6600260400.0 0.2922317813 0.9552716497
6650260100.0 0.3055543363 0.9505641254
6700259800.0 0.3174944974 0.9460102661
6750259500.0 0.331938312 0.9416631924
6800259200.0 0.3447711083 0.9366038482
6850258900.0 0.3569662448 0.9314988535
6900258600.0 0.3690604246 0.9263672352
6950258300.0 0.3814625881 0.9208728455
7000258000.0 0.3934809057 0.9155911013
7050257700.0 0.405609371 0.9096018108
7100257400.0 0.4184020995 0.903267801
7150257100.0 0.428625343 0.8980561429
7200256800.0 0.4413442519 0.8915752657
7250256500.0 0.4533061092 0.8851881736
7300256200.0 0.4664916575 0.8785200057
7350255900.0 0.4789085939 0.8715278079
7400255600.0 0.4920796338 0.8643299654
7450255300.0 0.5074350488 0.8552353224
7500255000.0 0.5189162077 0.8480094804
7550254700.0 0.5331386464 0.8397077502
7600254400.0 0.5459866593 0.8312618959
7650254100.0 0.5575430001 0.8235872775
7700253800.0 0.5691069213 0.8155654934
7750253500.0 0.5804523344 0.807777265
7800253200.0 0.5909600716 0.7999022297
7850252900.0 0.6006705061 0.7929190263
7900252600.0 0.6125118598 0.7841733378
7950252300.0 0.6213782643 0.7776692805
8000252000.0 0.6314778474 0.7697626667
8050251700.0 0.6418587207 0.761827906
8100251400.0 0.6520167072 0.7535628935
8150251100.0 0.6621086109 0.744908475
8200250800.0 0.6713381031 0.7370463767
8250250500.0 0.6801474242 0.7290279774
8300250200.0 0.6893114994 0.7203719331
8350249900.0 0.6987622985 0.7117561874
8400249600.0 0.7070835765 0.7037811
8450249300.0 0.7160866648 0.6945052897
8500249000.0 0.7244965135 0.6857739616
8550248700.0 0.7330486988 0.6766027484
8600248400.0 0.7412499427 0.6672162897
8650248100.0 0.7490663411 0.657916801
8700247800.0 0.7585004105 0.6464618559
8750247500.0 0.7670336263 0.6362721527
8800247200.0 0.7749359364 0.6260867725
8850246900.0 0.7835166694 0.6147819926
8900246600.0 0.7918392925 0.6033076413
8950246300.0 0.8017334709 0.5901801653
9000246000.0 0.8110053301 0.5776339116
9050245700.0 0.8202535322 0.5646430087
9100245400.0 0.8288120821 0.551986889
9150245100.0 0.8380741652 0.5382564951
9200244800.0 0.8477735936 0.5229245028
9250244500.0 0.8576841488 0.5072542796
9300244200.0 0.865895426 0.4925843624
9350243900.0 0.873648499 0.4787829962
9400243600.0 0.8802296211 0.4665592593
9450243300.0 0.8860504185 0.4549303292
9500243000.0 0.8923529131 0.4427025347
9550242700.0 0.8959197246 0.4352366227
9600242400.0 0.9000307273 0.4276467278
9650242100.0 0.9034801773 0.4215221947
9700241800.0 0.9082707296 0.4130293506
9750241500.0 0.9122546083 0.4055895563
9800241200.0 0.9168943647 0.3965540384
9850240900.0 0.9225773025 0.3847617729
9900240600.0 0.9282284771 0.3732345851
9950240300.0 0.9347384667 0.3570202241
10000240000.0 0.9393480034 0.3455894043
10050239700.0 0.9447338184 0.3303699513
10100239400.0 0.9500810945 0.3147764519
10150239100.0 0.9541638398 0.2999633247
10200238800.0 0.9585773105 0.2849873595
10250238500.0 0.9617464699 0.2716307661
10300238200.0 0.9649704479 0.2574796024
10350237900.0 0.9675173672 0.2444356112
10400237600.0 0.9699076354 0.2313632434
10450237300.0 0.9725897375 0.2175269233
10500237000.0 0.9750772546 0.2050605753
10550236700.0 0.9772543878 0.191232679
10600236400.0 0.9796289365 0.1781005401
10650236100.0 0.9810245106 0.1633125861
10700235800.0 0.9837238676 0.1508487712
10750235500.0 0.985920823 0.1380854341
10800235200.0 0.9877555059 0.1240106422
10850234900.0 0.9896157286 0.1091961525
10900234600.0 0.9916072683 0.0944956912
10950234300.0 0.993357118 0.0812808603
11000234000.0 0.9952141138 0.0661685959
11050233700.0 0.9970673198 0.0494807252
11100233400.0 0.9987661559 0.0321586645
11150233100.0 0.9994893809 0.0158458419
11200232800.0 1.000329609 0.0012073103
11250232500.0 1.001220786 -0.015305472
11300232200.0 1.00191586 -0.0337144602
11350231900.0 1.001845056 -0.0495521385
11400231600.0 1.002055188 -0.0655466395
11450231300.0 1.001434227 -0.0797182258
11500231000.0 0.9998914297 -0.0976230289
11550230700.0 0.9983039354 -0.1099601808
11600230400.0 0.9965642599 -0.1232559079
11650230100.0 0.9951794669 -0.1344180558
11700229800.0 0.9929757469 -0.148862132
11750229500.0 0.9905064357 -0.1638470431
11800229200.0 0.9877773268 -0.1775041203
11850228900.0 0.9842410482 -0.1899990819
11900228600.0 0.9806792036 -0.1993108797
11950228300.0 0.9775955577 -0.2096984228
12000228000.0 0.9750043254 -0.2182486016
12050227700.0 0.9713576624 -0.2311583629
12100227400.0 0.9676748037 -0.2424738407
12150227100.0 0.9627896796 -0.2591089508
12200226800.0 0.9591978278 -0.2700681345
12250226500.0 0.9555758515 -0.2832012306
12300226200.0 0.9514035972 -0.2945855955
12350225900.0 0.9462302902 -0.3087546232
12400225600.0 0.9422496553 -0.3213020901
12450225300.0 0.9374319716 -0.3344363274
12500225000.0 0.9320860666 -0.3489504623
12550224700.0 0.9268195974 -0.3634168674
12600224400.0 0.9218646619 -0.3757436494
12650224100.0 0.9159902069 -0.3900781627
12700223800.0 0.9107304159 -0.4030073247
12750223500.0 0.9053901678 -0.4157746497
12800223200.0 0.9000976557 -0.4283480718
12850222900.0 0.8943855885 -0.4410536185
12900222600.0 0.8890897856 -0.4524973139
12950222300.0 0.8824321075 -0.465498348
13000222000.0 0.8769958882 -0.4763520672
13050221700.0 0.8700162853 -0.4896802018
13100221400.0 0.8630716987 -0.5019729547
13150221100.0 0.8565555587 -0.5133014981
13200220800.0 0.8494173192 -0.5254902044
13250220500.0 0.842117496 -0.537531614
13300220200.0 0.8344977979 -0.5482416195
13350219900.0 0.8265401737 -0.5604477343
13400219600.0 0.8182004848 -0.5723815068
13450219300.0 0.8087708402 -0.5863280099
13500219000.0 0.7982535636 -0.5999083274
13550218700.0 0.7881361026 -0.6131267185
13600218400.0 0.7780228096 -0.6252578063
13650218100.0 0.7675462372 -0.6367338842
13700217800.0 0.7574941149 -0.6488355444
13750217500.0 0.7471768287 -0.660273818
13800217200.0 0.7361662109 -0.6715588251
13850216900.0 0.7245827649 -0.6834622993
13900216600.0 0.7157407231 -0.6915533683
13950216300.0 0.7044053094 -0.7021668478
14000216000.0 0.693859893 -0.7119667094
14050215700.0 0.6847326286 -0.7198913233
14100215400.0 0.6748128742 -0.7288270916
14150215100.0 0.6656591926 -0.7370957229
14200214800.0 0.6561824244 -0.7459455547
14250214500.0 0.646087583 -0.7551070381
14300214200.0 0.635689724 -0.7644915493
14350213900.0 0.6247702109 -0.7738414459
14400213600.0 0.6128785533 -0.7834325574
14450213300.0 0.5997513486 -0.7934839121
14500213000.0 0.5867431623 -0.8040504557
14550212700.0 0.5742149084 -0.8128189268
14600212400.0 0.5615797901 -0.8219182349
14650212100.0 0.5487570591 -0.8306187779
14700211800.0 0.5345014664 -0.8400337871
14750211500.0 0.5226722924 -0.8484723572
14800211200.0 0.5103991981 -0.8564220964
14850210900.0 0.4982866894 -0.8640520662
14900210600.0 0.4849943368 -0.8718766804
14950210300.0 0.4712866658 -0.8794788703
15000210000.0 0.4587447546 -0.8863473017
15050209700.0 0.4464576318 -0.8923136928
15100209400.0 0.433406912 -0.8982847776
15150209100.0 0.4210934274 -0.9039042019
15200208800.0 0.4082846383 -0.9093246271
15250208500.0 0.3970172933 -0.9136875239
15300208200.0 0.3847432654 -0.9183737339
15350207900.0 0.3713479989 -0.9226576658
15400207600.0 0.3566897043 -0.9286425031
15450207300.0 0.3426746777 -0.9330383591
15500207000.0 0.3281985018 -0.9381596915
15550206700.0 0.3124539639 -0.9433943152
15600206400.0 0.2967915176 -0.9477616486
15650206100.0 0.2812152107 -0.9519188081
15700205800.0 0.2670772874 -0.9556469003
15750205500.0 0.2525324004 -0.9592248305
15800205200.0 0.2381531434 -0.962523971
15850204900.0 0.2236905201 -0.9657572462
15900204600.0 0.2085926015 -0.9693674797
15950204300.0 0.1944372098 -0.9723976871
16000204000.0 0.18042495 -0.9752943671
16050203700.0 0.1656128848 -0.9783333382
16100203400.0 0.1513850589 -0.9801440724
16150203100.0 0.1369849643 -0.9824997534
16200202800.0 0.1228467292 -0.9845275136
16250202500.0 0.1077259473 -0.9861047435
16300202200.0 0.092584253 -0.9874184169
16350201900.0 0.0779438045 -0.9889912536
16400201600.0 0.0631788859 -0.9902016328
16450201300.0 0.0479200033 -0.9909719684
16500201000.0 0.0313318807 -0.9920413973
16550200700.0 0.0156762472 -0.9924695294
16600200400.0 -0.000117378 -0.9927856535
16650200100.0 -0.0162092535 -0.9926338394
16700199800.0 -0.0327557666 -0.992105145
16750199500.0 -0.0514813427 -0.9915256764
16800199200.0 -0.0673936617 -0.9903261877
16850198900.0 -0.0821110777 -0.9893755426
16900198600.0 -0.0963276815 -0.9883580864
16950198300.0 -0.1095079738 -0.9870426907
17000198000.0 -0.1225558866 -0.9860111468
17050197700.0 -0.1348815689 -0.9841228406
17100197400.0 -0.1482770711 -0.981850773
17150197100.0 -0.1610089755 -0.9799103902
17200196800.0 -0.1735475519 -0.9780909431
17250196500.0 -0.1863392004 -0.974991845
17300196200.0 -0.1983716565 -0.97313056
17350195900.0 -0.2104685574 -0.9709330625
17400195600.0 -0.2224185013 -0.9683181464
17450195300.0 -0.2356224266 -0.965609343
17500195000.0 -0.2491293757 -0.9622376163
17550194700.0 -0.2625867172 -0.9585626501
17600194400.0 -0.2766067367 -0.9545796208
17650194100.0 -0.2904611626 -0.9505196023
17700193800.0 -0.3037288384 -0.9459697078
17750193500.0 -0.3180291681 -0.9419139649
17800193200.0 -0.3324074523 -0.9364352154
17850192900.0 -0.3475628389 -0.9307469948
17900192600.0 -0.3625518927 -0.9247878291
17950192300.0 -0.3782011097 -0.9176254702
18000192000.0 -0.3928811784 -0.9104291522
18050191700.0 -0.4068026905 -0.9025166594
18100191400.0 -0.4208950564 -0.8948970506
18150191100.0 -0.4359350675 -0.8867910434
18200190800.0 -0.4527926701 -0.8775143095
18250190500.0 -0.4699420028 -0.8680929699
18300190200.0 -0.4850005017 -0.8590948567
18350189900.0 -0.5000451262 -0.850996986
18400189600.0 -0.5146951507 -0.8426027694
18450189300.0 -0.5281165957 -0.834749873
18500189000.0 -0.54115991 -0.8266107782
18550188700.0 -0.5537008143 -0.8190146916
18600188400.0 -0.5657456004 -0.8122816299
18650188100.0 -0.576720549 -0.8060668784
18700187800.0 -0.5872508122 -0.799314331
18750187500.0 -0.5979629836 -0.7928621438
18800187200.0 -0.6087702644 -0.7857456919
18850186900.0 -0.618736287 -0.7788439119
18900186600.0 -0.6292274574 -0.7712799349
18950186300.0 -0.6390358266 -0.7638163722
19000186000.0 -0.6465540881 -0.7575083341
19050185700.0 -0.6557305198 -0.7504137287
19100185400.0 -0.6656593501 -0.7420085631
19150185100.0 -0.675694596 -0.7334437961
19200184800.0 -0.6848939167 -0.7253205903
19250184500.0 -0.6950476488 -0.7160669588
19300184200.0 -0.7067903726 -0.7061334007
19350183900.0 -0.7178720213 -0.6968981604
19400183600.0 -0.7277893592 -0.68648045
19450183300.0 -0.7362434827 -0.676741896
19500183000.0 -0.7443661945 -0.6665685897
19550182700.0 -0.7542833303 -0.6558023344
19600182400.0 -0.7644982408 -0.644283483
19650182100.0 -0.7753718764 -0.6313490687
19700181800.0 -0.7861354409 -0.6185983683
19750181500.0 -0.796885467 -0.6041749488
19800181200.0 -0.8071192629 -0.5891685715
19850180900.0 -0.8167529492 -0.57386368
19900180600.0 -0.824356399 -0.5591652891
19950180300.0 -0.8336868938 -0.5429682707
20000180000.0 -0.8269535013 -0.5455535653
20050179700.0 -0.8352952912 -0.5324147462
20100179400.0 -0.8430973083 -0.5186435493
20150179100.0 -0.8519251715 -0.5071270557
20200178800.0 -0.8602214552 -0.4936074799
20250178500.0 -0.8692311021 -0.4796795584
20300178200.0 -0.8798864903 -0.4648920287
20350177900.0 -0.8887357638 -0.4508810203
20400177600.0 -0.8973511629 -0.4359540007
20450177300.0 -0.9053039832 -0.4218442858
20500177000.0 -0.9135054597 -0.4079717719
20550176700.0 -0.9213364806 -0.3942045365
20600176400.0 -0.928742234 -0.3810865596
20650176100.0 -0.935031921 -0.3688003291
20700175800.0 -0.9418892064 -0.3567939488
20750175500.0 -0.948700929 -0.3448663597
20800175200.0 -0.9534470809 -0.3343178032
20850174900.0 -0.9578193168 -0.3227629462
20900174600.0 -0.9632203026 -0.3118348531
20950174300.0 -0.9665220424 -0.2998657584
21000174000.0 -0.9704301587 -0.2899315621
21050173700.0 -0.9727586817 -0.277218532
21100173400.0 -0.9769382101 -0.2665000343
21150173100.0 -0.9809557309 -0.2538241331
21200172800.0 -0.9842953115 -0.2400632765
21250172500.0 -0.9878549171 -0.2260190785
21300172200.0 -0.990021425 -0.2119422348
21350171900.0 -0.9916417033 -0.1974423254
21400171600.0 -0.9924796921 -0.1828346121
21450171300.0 -0.9934083525 -0.1685159274
21500171000.0 -0.9928731534 -0.1534709388
21550170700.0 -0.9934926205 -0.1373839212
21600170400.0 -0.99304924 -0.1227228194
21650170100.0 -0.9915219266 -0.1064113977
21700169800.0 -0.9897092233 -0.0914728673
21750169500.0 -0.9881402829 -0.076185159
21800169200.0 -0.9881183307 -0.0587958395
21850168900.0 -0.9870485484 -0.0415103305
21900168600.0 -0.9857681117 -0.0264735529
21950168300.0 -0.9842459179 -0.010486622
22000168000.0 -0.9832351965 0.0045451195
22050167700.0 -0.9829553784 0.018647346
22100167400.0 -0.9829075199 0.0341149253
22150167100.0 -0.9835766562 0.0494187792
22200166800.0 -0.9841092206 0.065771699
22250166500.0 -0.9838119594 0.0828015689
22300166200.0 -0.9827433918 0.0997294591
22350165900.0 -0.981237582 0.1169548518
22400165600.0 -0.9794773734 0.132121338
22450165300.0 -0.9768959443 0.1470476795
22500165000.0 -0.9745156764 0.1597081029
22550164700.0 -0.9756672472 0.1761354386
22600164400.0 -0.9732291457 0.1914051577
22650164100.0 -0.9722200495 0.2071089191
22700163800.0 -0.9684365352 0.2226832325
22750163500.0 -0.9656106135 0.2378105221
22800163200.0 -0.9627878485 0.2509846884
22850162900.0 -0.960291415 0.2641319926
22900162600.0 -0.9590404809 0.277374175
22950162300.0 -0.9580183098 0.2900091017
23000162000.0 -0.9569539106 0.3022498309
23050161700.0 -0.9550706814 0.3146365621
23100161400.0 -0.9527728808 0.327238112
23150161100.0 -0.9497931184 0.340138255
23200160800.0 -0.946577944 0.3521687483
23250160500.0 -0.9438878733 0.3636606451
23300160200.0 -0.9419259184 0.3757290268
23350159900.0 -0.9376055524 0.3891333676
23400159600.0 -0.9334321218 0.4024287337
23450159300.0 -0.9285434523 0.4152767871
23500159000.0 -0.9240577646 0.4281221932
23550158700.0 -0.9191457384 0.441511461
23600158400.0 -0.9139477876 0.4546590837
23650158100.0 -0.9076746428 0.4689584265
23700157800.0 -0.9003061004 0.4828281646
23750157500.0 -0.8913695675 0.4966324736
23800157200.0 -0.8824025892 0.5098762494
23850156900.0 -0.8735115766 0.5223807882
23900156600.0 -0.8647328668 0.5355499476
23950156300.0 -0.8556360433 0.5473609186
24000156000.0 -0.8460377384 0.5594129725
24050155700.0 -0.8356433053 0.5703520531
24100155400.0 -0.8256811908 0.583883474
24150155100.0 -0.8147947048 0.5949303139
24200154800.0 -0.8042377161 0.6058327375
24250154500.0 -0.7925731909 0.6175149815
24300154200.0 -0.7810543724 0.6292730279
24350153900.0 -0.7695440445 0.6399368952
24400153600.0 -0.7574700274 0.6503032226
24450153300.0 -0.7454728959 0.6597528443
24500153000.0 -0.733572373 0.6695114093
24550152700.0 -0.7228807375 0.6791308966
24600152400.0 -0.7112812086 0.687793872
24650152100.0 -0.6995712204 0.6971763107
