!Created with skrf (http://scikit-rf.org).
# Hz S RI R 50.0 
!freq ReS11 ImS11
300000.0 -0.9762874413 -0.1207146782
50299700.0 -1.0000145 0.0152696315
100299400.0 -0.9978244456 0.0283375296
150299100.0 -1.002817414 0.0451987744
200298800.0 -0.9996499034 0.0583178079
250298500.0 -0.9973205109 0.0720111954
300298200.0 -0.9860015608 0.0876277187
350297900.0 -0.9941260107 0.0987626849
400297600.0 -0.9933554013 0.1150627549
450297300.0 -0.990906737 0.1289874408
500297000.0 -0.9893216326 0.1435770134
550296700.0 -0.9843684478 0.1560736227
600296400.0 -1.017200397 0.1895354328
650296100.0 -0.9821162179 0.1859736469
700295800.0 -0.9792680153 0.2003995443
750295500.0 -0.9765421963 0.2143634748
800295200.0 -0.9730259534 0.2283286851
850294900.0 -0.9698497678 0.2421899048
900294600.0 -0.9660031086 0.2561541044
950294300.0 -0.9621709025 0.2697497633
1000294000.0 -0.9580905295 0.2836688817
1050293700.0 -0.9537585089 0.2973862329
1100293400.0 -0.9493977574 0.3120124982
1150293100.0 -0.9455366478 0.3238177715
1200292800.0 -0.9401594101 0.3380267058
1250292500.0 -0.934594859 0.3516497687
1300292200.0 -0.929055262 0.3648749787
1350291900.0 -0.923406222 0.3787802514
1400291600.0 -0.9180677084 0.3918907496
1450291300.0 -0.9124549326 0.4043935646
1500291000.0 -0.9061382588 0.4176934754
1550290700.0 -0.8998949244 0.431046434
1600290400.0 -0.8936166665 0.443863574
1650290100.0 -0.8868226889 0.456192385
1700289800.0 -0.8799249518 0.469491682
1750289500.0 -0.8727248551 0.4818930778
1800289200.0 -0.8655360811 0.4946210579
1850288900.0 -0.8585750929 0.5060459213
1900288600.0 -0.8509922493 0.518842524
1950288300.0 -0.8427977628 0.5316636744
2000288000.0 -0.8354399219 0.5430911171
2050287700.0 -0.8272111658 0.5553489016
2100287400.0 -0.8193274691 0.566953566
2150287100.0 -0.8107878888 0.5792146626
2200286800.0 -0.8028022457 0.5893107464
2250286500.0 -0.7941018567 0.6013593082
2300286200.0 -0.7852032056 0.6131798678
2350285900.0 -0.7764605007 0.6240254701
2400285600.0 -0.7675871188 0.6350053377
2450285300.0 -0.7588939065 0.6454663668
2500285000.0 -0.7492093334 0.6567374215
2550284700.0 -0.7404850417 0.6670552481
2600284400.0 -0.7311146262 0.677184218
2650284100.0 -0.7221804347 0.6877152825
2700283800.0 -0.7112036155 0.6979041152
2750283500.0 -0.7011740646 0.708793623
2800283200.0 -0.6912957931 0.7186285947
2850282900.0 -0.6809701237 0.7282247112
2900282600.0 -0.6707438173 0.7380212463
2950282300.0 -0.6604335567 0.7471636121
3000282000.0 -0.6499056119 0.7568134542
3050281700.0 -0.6388154289 0.7659645994
3100281400.0 -0.6267412007 0.7754391806
3150281100.0 -0.614983884 0.7846241105
3200280800.0 -0.6033002439 0.7931800434
3250280500.0 -0.5924351961 0.8009090437
3300280200.0 -0.5811930655 0.8088403195
3350279900.0 -0.5695289409 0.8163424578
3400279600.0 -0.5574220357 0.8241840186
3450279300.0 -0.5463466462 0.8310396116
3500279000.0 -0.5342764233 0.8380461968
3550278700.0 -0.5219090559 0.845792043
3600278400.0 -0.509855042 0.8527639175
3650278100.0 -0.4963447998 0.8603635987
3700277800.0 -0.4845286588 0.8666770884
3750277500.0 -0.4720922138 0.8732663662
3800277200.0 -0.4598275441 0.8795294768
3850276900.0 -0.4477045913 0.8858411329
3900276600.0 -0.4370168386 0.8915406669
3950276300.0 -0.4245122138 0.8974357685
4000276000.0 -0.4123211651 0.9034575733
4050275700.0 -0.399496523 0.9096078751
4100275400.0 -0.3885118857 0.9149026496
4150275100.0 -0.3760121316 0.9207334398
4200274800.0 -0.3629409273 0.9263963313
4250274500.0 -0.3506728371 0.9313813801
4300274200.0 -0.3374917085 0.936622472
4350273900.0 -0.323452387 0.9419354744
4400273600.0 -0.3090141576 0.9472714866
4450273300.0 -0.293567778 0.9523940229
4500273000.0 -0.2800274804 0.9565647011
4550272700.0 -0.2658806534 0.9607813126
4600272400.0 -0.2504365663 0.9651597336
4650272100.0 -0.2388085559 0.9682997751
4700271800.0 -0.2254928066 0.9716072139
4750271500.0 -0.2137321527 0.9744236496
4800271200.0 -0.2012661544 0.9771307906
4850270900.0 -0.1874723185 0.9799579647
4900270600.0 -0.1733365032 0.9822554591
4950270300.0 -0.1592236915 0.9849886701
5000270000.0 -0.1450066094 0.9870110657
5050269700.0 -0.1312779278 0.9885196393
5100269400.0 -0.1175592895 0.9900801381
5150269100.0 -0.1042360069 0.9916222203
5200268800.0 -0.0909953817 0.9930993181
5250268500.0 -0.0779918681 0.9939925299
5300268200.0 -0.064809769 0.9945341432
5350267900.0 -0.0526562458 0.9950099524
5400267600.0 -0.0360218806 0.9965126671
5450267300.0 -0.0230407391 0.9966014375
5500267000.0 -0.0080449061 0.9972307404
5550266700.0 0.0070049415 0.9972778769
5600266400.0 0.0225445632 0.9973200209
5650266100.0 0.0390172373 0.9970452321
5700265800.0 0.0535477837 0.9960569765
5750265500.0 0.068379467 0.9951246383
5800265200.0 0.0826035884 0.9940933224
5850264900.0 0.0957621116 0.9933629582
5900264600.0 0.1124601744 0.9915193656
5950264300.0 0.1245839725 0.9902203136
6000264000.0 0.1382547506 0.9882272586
6050263700.0 0.1506850489 0.9869964311
6100263400.0 0.1630074105 0.9851278215
6150263100.0 0.1775144004 0.9825029589
6200262800.0 0.1878371141 0.9808313503
6250262500.0 0.2006040245 0.9785355298
6300262200.0 0.213379165 0.9757878946
6350261900.0 0.2265891152 0.9729109613
6400261600.0 0.2401122059 0.9695728047
6450261300.0 0.251680686 0.9668880129
6500261000.0 0.264419226 0.96329108
6550260700.0 0.2773210771 0.9593720007
6600260400.0 0.2907372981 0.955472356
6650260100.0 0.3045482409 0.9511041195
6700259800.0 0.3165612002 0.9465741127
6750259500.0 0.3308221997 0.9418433449
6800259200.0 0.3437547188 0.9368899611
6850258900.0 0.3559867921 0.9317488225
6900258600.0 0.3682591057 0.9267932106
6950258300.0 0.3806884453 0.9212814362
7000258000.0 0.3926362672 0.9158077384
7050257700.0 0.4048267901 0.9097097171
7100257400.0 0.4176220188 0.9034733716
7150257100.0 0.4280924288 0.8980522896
7200256800.0 0.4408072203 0.891849254
7250256500.0 0.4526712753 0.8854224119
7300256200.0 0.4659100585 0.8789150644
7350255900.0 0.4782640172 0.8718259934
7400255600.0 0.4913005108 0.8645667576
7450255300.0 0.507069327 0.855788286
7500255000.0 0.518641991 0.8482679359
7550254700.0 0.5329280314 0.8400488487
7600254400.0 0.5453971731 0.8316716331
7650254100.0 0.5565392074 0.8237885921
7700253800.0 0.5686355353 0.8158981793
7750253500.0 0.5797619594 0.8083038551
7800253200.0 0.5904841321 0.8005155944
7850252900.0 0.6001616161 0.7934566804
7900252600.0 0.6117669375 0.7846779295
7950252300.0 0.6207020446 0.7781729535
8000252000.0 0.6306408975 0.7704853717
8050251700.0 0.64117517 0.762346225
8100251400.0 0.6511819868 0.7543083744
8150251100.0 0.660815725 0.7458627358
8200250800.0 0.6705883671 0.7375283478
8250250500.0 0.6797608077 0.7298554357
8300250200.0 0.688833571 0.7210479861
8350249900.0 0.697775565 0.712233214
8400249600.0 0.7058801115 0.7042752455
8450249300.0 0.7155563848 0.6950882708
8500249000.0 0.7239586482 0.686361109
8550248700.0 0.7322714204 0.6771934493
8600248400.0 0.7406377258 0.6676884242
8650248100.0 0.7484526057 0.6582365209
8700247800.0 0.7581248294 0.6469831246
8750247500.0 0.766267963 0.6369248419
8800247200.0 0.7744489713 0.6265221274
8850246900.0 0.7832146934 0.6151875028
8900246600.0 0.7918467751 0.6035777357
8950246300.0 0.8011573703 0.5907955972
9000246000.0 0.8102833798 0.5781120444
9050245700.0 0.8196226282 0.5652400129
9100245400.0 0.8279655155 0.5529462034
9150245100.0 0.8374676216 0.5392944796
9200244800.0 0.847103646 0.5241549937
9250244500.0 0.8563749364 0.5088107718
9300244200.0 0.8647733087 0.4944168374
9350243900.0 0.8727179806 0.4806169779
9400243600.0 0.8792045815 0.4683060711
9450243300.0 0.8850963724 0.4567530104
9500243000.0 0.8912569694 0.444523186
9550242700.0 0.8951111111 0.436962022
9600242400.0 0.8992449777 0.4295997473
9650242100.0 0.9028325414 0.4229747711
9700241800.0 0.9075122238 0.414896369
9750241500.0 0.9110875932 0.4073701764
9800241200.0 0.9163216575 0.3979145157
9850240900.0 0.9217425034 0.3864272213
9900240600.0 0.9277070151 0.3747244516
9950240300.0 0.9340533546 0.3587730485
10000240000.0 0.9390339104 0.3470400986
10050239700.0 0.9448937372 0.3313315704
10100239400.0 0.9497420755 0.3160467924
10150239100.0 0.9541611028 0.3013585091
10200238800.0 0.9581155223 0.2864617357
10250238500.0 0.9613937098 0.2727574812
10300238200.0 0.964489168 0.2589521602
10350237900.0 0.9673512016 0.2459221254
10400237600.0 0.9698107277 0.2326232501
10450237300.0 0.9725052223 0.2188332857
10500237000.0 0.9749623252 0.2060989832
10550236700.0 0.9771578799 0.1925158326
10600236400.0 0.9792030309 0.1786877521
10650236100.0 0.9810473645 0.1641621722
10700235800.0 0.9834513899 0.1517718427
10750235500.0 0.9856090064 0.139134277
10800235200.0 0.9879789476 0.124393951
10850234900.0 0.9897311625 0.1099411888
10900234600.0 0.9916336657 0.0953781455
10950234300.0 0.9934434421 0.081972521
11000234000.0 0.9953083552 0.0668569873
11050233700.0 0.9970074252 0.0505395985
11100233400.0 0.9985064334 0.0332645039
11150233100.0 0.9993549491 0.0167235554
11200232800.0 1.000182876 0.0014579066
11250232500.0 1.00201947 -0.0161646432
11300232200.0 1.001468017 -0.0330261289
11350231900.0 1.001563936 -0.0488503047
11400231600.0 1.0011661 -0.0643493927
11450231300.0 1.000873097 -0.0794244099
11500231000.0 0.9995861419 -0.0960695635
11550230700.0 0.9985231422 -0.1087503957
11600230400.0 0.9971309607 -0.1220031628
11650230100.0 0.9949128063 -0.1333578223
11700229800.0 0.9931483906 -0.148024633
11750229500.0 0.9907835431 -0.1624484623
11800229200.0 0.988038638 -0.1762523227
11850228900.0 0.9843912201 -0.1884113718
11900228600.0 0.981075481 -0.1985008843
11950228300.0 0.9777534432 -0.2089458928
12000228000.0 0.9750169101 -0.2176500972
12050227700.0 0.9713326216 -0.2305486726
12100227400.0 0.9679701853 -0.2415984684
12150227100.0 0.9631617666 -0.2584208114
12200226800.0 0.9596586175 -0.2691692118
12250226500.0 0.9554663499 -0.2822526679
12300226200.0 0.9515465283 -0.2943107168
12350225900.0 0.9462591291 -0.3081953509
12400225600.0 0.942235047 -0.3207172056
12450225300.0 0.9377027114 -0.3334744379
12500225000.0 0.9322340862 -0.3486905779
12550224700.0 0.9269264456 -0.3625213905
12600224400.0 0.9219399228 -0.3750798418
12650224100.0 0.9163027281 -0.3895838712
12700223800.0 0.9108965632 -0.4024410227
12750223500.0 0.9053264883 -0.4154886227
12800223200.0 0.9001663226 -0.4279282022
12850222900.0 0.8947875862 -0.4400657361
12900222600.0 0.8887314788 -0.4525101841
12950222300.0 0.8825937499 -0.4653793525
13000222000.0 0.8768512574 -0.4764397571
13050221700.0 0.8695834479 -0.4898327257
13100221400.0 0.8632285895 -0.5014550526
13150221100.0 0.8566595225 -0.5135320971
13200220800.0 0.8494667109 -0.5249883391
13250220500.0 0.8423827231 -0.5372189127
13300220200.0 0.8351422628 -0.5481823386
13350219900.0 0.8271228767 -0.55985214
13400219600.0 0.8185278007 -0.5719761529
13450219300.0 0.8092393986 -0.5852853152
13500219000.0 0.7992569014 -0.5989336648
13550218700.0 0.7893640198 -0.6117218307
13600218400.0 0.7793247422 -0.6238513197
13650218100.0 0.7687126014 -0.6354138897
13700217800.0 0.7585841371 -0.6475445122
13750217500.0 0.7483440205 -0.6581827839
13800217200.0 0.7376868945 -0.6691885881
13850216900.0 0.7263708496 -0.681205937
13900216600.0 0.7160088367 -0.6904426046
13950216300.0 0.7053242803 -0.7009778663
14000216000.0 0.6957047148 -0.7104489202
14050215700.0 0.6862158609 -0.7184168174
14100215400.0 0.6762993225 -0.7273239702
14150215100.0 0.6668293135 -0.7360071663
14200214800.0 0.6577473423 -0.7446139029
14250214500.0 0.6473182477 -0.754057056
14300214200.0 0.6369291748 -0.7634331175
14350213900.0 0.6256629368 -0.7732455647
14400213600.0 0.6137230094 -0.783007702
14450213300.0 0.6007107097 -0.7931029857
14500213000.0 0.5877824064 -0.8031068755
14550212700.0 0.5749601611 -0.8123994575
14600212400.0 0.5626282469 -0.8211659412
14650212100.0 0.5500617202 -0.8303152916
14700211800.0 0.5360155169 -0.8396336422
14750211500.0 0.5241232673 -0.848234654
14800211200.0 0.5115366935 -0.8558832119
14850210900.0 0.499374589 -0.8637743811
14900210600.0 0.4861759622 -0.8712235462
14950210300.0 0.4725800824 -0.8788995861
15000210000.0 0.460008842 -0.8855006974
15050209700.0 0.4475434382 -0.8919507591
15100209400.0 0.4352127268 -0.898033904
15150209100.0 0.4228628598 -0.9030850159
15200208800.0 0.4107355319 -0.9085046996
15250208500.0 0.3989724999 -0.9133701569
15300208200.0 0.3867953273 -0.9175132388
15350207900.0 0.3731910935 -0.9227440405
15400207600.0 0.3596393219 -0.9276353476
15450207300.0 0.3452508582 -0.9327565122
15500207000.0 0.3293859561 -0.9375688306
15550206700.0 0.3142978854 -0.9426462266
15600206400.0 0.2988823752 -0.9469705251
15650206100.0 0.2831141165 -0.9516782131
15700205800.0 0.2693673411 -0.9550342771
15750205500.0 0.2547505255 -0.9587039632
15800205200.0 0.2406481638 -0.961854867
15850204900.0 0.2261561375 -0.96541974
15900204600.0 0.2110679541 -0.9691099975
15950204300.0 0.1969021157 -0.9720346774
16000204000.0 0.1824862039 -0.9748411208
16050203700.0 0.1674593493 -0.9778601262
16100203400.0 0.1534138226 -0.9799380311
16150203100.0 0.1387456464 -0.9823775873
16200202800.0 0.1242042535 -0.9841586978
16250202500.0 0.1098375627 -0.9861460569
16300202200.0 0.094443048 -0.9876080243
16350201900.0 0.0792140827 -0.9890271228
16400201600.0 0.0643836965 -0.9903395591
16450201300.0 0.0494145718 -0.991070227
16500201000.0 0.0327458702 -0.9919867693
16550200700.0 0.016946756 -0.9925894493
16600200400.0 0.0013686485 -0.9929582762
16650200100.0 -0.0149653735 -0.9924793944
16700199800.0 -0.0314212737 -0.9924000503
16750199500.0 -0.0494406611 -0.9918330703
16800199200.0 -0.0657761354 -0.9909338859
16850198900.0 -0.0803698135 -0.9895212041
16900198600.0 -0.0942371065 -0.9884245925
16950198300.0 -0.10741762 -0.9878632273
17000198000.0 -0.120858146 -0.9865221947
17050197700.0 -0.1337760533 -0.9845021421
17100197400.0 -0.1466960799 -0.9818517617
17150197100.0 -0.1589837525 -0.97996772
17200196800.0 -0.1717191468 -0.9783102145
17250196500.0 -0.1847166324 -0.976195471
17300196200.0 -0.1968646184 -0.973702378
17350195900.0 -0.208580544 -0.9713149783
17400195600.0 -0.220882353 -0.9687587171
17450195300.0 -0.2341584188 -0.9659885399
17500195000.0 -0.2473015049 -0.9626410652
17550194700.0 -0.2613678448 -0.9589982911
17600194400.0 -0.275462406 -0.9551430951
17650194100.0 -0.2890445699 -0.9513332384
17700193800.0 -0.30209686 -0.9468817393
17750193500.0 -0.3166125365 -0.9424167636
17800193200.0 -0.3306853385 -0.9368741263
17850192900.0 -0.3460054968 -0.9316203424
17900192600.0 -0.3607642223 -0.9254484994
17950192300.0 -0.3767032206 -0.9181721344
18000192000.0 -0.3914018676 -0.9110805854
18050191700.0 -0.4053983273 -0.9032804543
18100191400.0 -0.4196897762 -0.8955637275
18150191100.0 -0.4345727443 -0.8877475016
18200190800.0 -0.4514673748 -0.8784166461
18250190500.0 -0.4684921608 -0.8691868937
18300190200.0 -0.4840995251 -0.860276346
18350189900.0 -0.4991879748 -0.8518009201
18400189600.0 -0.5126885636 -0.8436369795
18450189300.0 -0.5265430884 -0.835443132
18500189000.0 -0.5396163866 -0.8278392412
18550188700.0 -0.5525110437 -0.820133339
18600188400.0 -0.5643534297 -0.8135100358
18650188100.0 -0.5752115516 -0.8070742755
18700187800.0 -0.5861385538 -0.80054633
18750187500.0 -0.5968296772 -0.79402278
18800187200.0 -0.6073756096 -0.786970887
18850186900.0 -0.6176472931 -0.7801347116
18900186600.0 -0.6276727043 -0.7729346637
18950186300.0 -0.6377467576 -0.7651556281
19000186000.0 -0.6450050373 -0.758947848
19050185700.0 -0.6542249287 -0.7516692737
19100185400.0 -0.6638865225 -0.7435769796
19150185100.0 -0.6739541426 -0.7348162885
19200184800.0 -0.6836234454 -0.7272694851
19250184500.0 -0.6938298494 -0.7175044236
19300184200.0 -0.7050545933 -0.7073197445
19350183900.0 -0.7157393186 -0.6980496116
19400183600.0 -0.725377753 -0.6880364958
19450183300.0 -0.734537287 -0.6779456384
19500183000.0 -0.7429738136 -0.6683635229
19550182700.0 -0.7523865252 -0.6570338426
19600182400.0 -0.7633025428 -0.6460242091
19650182100.0 -0.7741278612 -0.6334264938
19700181800.0 -0.7846846503 -0.6201617029
19750181500.0 -0.7949368226 -0.6059898015
19800181200.0 -0.8055264177 -0.5908951923
19850180900.0 -0.8154022565 -0.5755508506
19900180600.0 -0.8231120673 -0.5610915312
19950180300.0 -0.8324859449 -0.5448873287
20000180000.0 -0.8253447457 -0.5472115765
20050179700.0 -0.8330432272 -0.5343492805
20100179400.0 -0.8412649941 -0.5204247181
20150179100.0 -0.8506570279 -0.5083291898
20200178800.0 -0.8592908089 -0.4952913534
20250178500.0 -0.8686094581 -0.4820958301
20300178200.0 -0.8781595639 -0.4674868317
20350177900.0 -0.8870861669 -0.4533485009
20400177600.0 -0.8959731939 -0.4384765969
20450177300.0 -0.9043617064 -0.4242670243
20500177000.0 -0.9125441349 -0.4104164546
20550176700.0 -0.9203900879 -0.3972238061
20600176400.0 -0.9270912831 -0.3840369358
20650176100.0 -0.934241212 -0.3716164587
20700175800.0 -0.9405376675 -0.3597335003
20750175500.0 -0.9472522682 -0.3477300465
20800175200.0 -0.9519728929 -0.3373130666
20850174900.0 -0.9560984556 -0.3259823473
20900174600.0 -0.9606290233 -0.3147222579
20950174300.0 -0.9647193889 -0.3031014155
21000174000.0 -0.9685737898 -0.2922072013
21050173700.0 -0.9710117523 -0.2808897573
21100173400.0 -0.9754079367 -0.2696081262
21150173100.0 -0.9795545638 -0.2568519237
21200172800.0 -0.9828826606 -0.2436903693
21250172500.0 -0.9862394317 -0.2300147081
21300172200.0 -0.9887513306 -0.2161061873
21350171900.0 -0.9902765388 -0.2017487843
21400171600.0 -0.9915988815 -0.1872993353
21450171300.0 -0.9922075268 -0.1724350298
21500171000.0 -0.991979188 -0.1577166317
21550170700.0 -0.9913603972 -0.1419731236
21600170400.0 -0.9920225271 -0.1268172026
21650170100.0 -0.9916538578 -0.1112252224
21700169800.0 -0.9903206572 -0.0952557789
21750169500.0 -0.9886481406 -0.0794649891
21800169200.0 -0.9890017129 -0.0625674448
21850168900.0 -0.9871451045 -0.0471633927
21900168600.0 -0.9863516371 -0.02929429
21950168300.0 -0.9846382939 -0.0138931575
22000168000.0 -0.983811035 0.0008989909
22050167700.0 -0.983900945 0.0151896056
22100167400.0 -0.9843979967 0.0306046126
22150167100.0 -0.9848395929 0.0459801971
22200166800.0 -0.9850673343 0.062329231
22250166500.0 -0.9850363681 0.0799560455
22300166200.0 -0.9851194538 0.0964538493
22350165900.0 -0.982707125 0.113162858
22400165600.0 -0.9807534008 0.128870735
22450165300.0 -0.9789401489 0.14326265
22500165000.0 -0.9775333944 0.1572887692
22550164700.0 -0.9763078115 0.1724564592
22600164400.0 -0.9742848926 0.1880276699
22650164100.0 -0.9723182756 0.2025152678
22700163800.0 -0.9695181154 0.2186724236
22750163500.0 -0.9670699717 0.2339962128
22800163200.0 -0.9642368822 0.2470074875
22850162900.0 -0.962104893 0.2605344151
22900162600.0 -0.960409234 0.2736535428
22950162300.0 -0.9592908709 0.2865121563
23000162000.0 -0.9579800707 0.298550916
23050161700.0 -0.9559183615 0.3116212031
23100161400.0 -0.9536765443 0.3231593128
23150161100.0 -0.9502315048 0.3364042615
23200160800.0 -0.9475137682 0.3492082089
23250160500.0 -0.945381055 0.3608491376
23300160200.0 -0.942329565 0.3724378387
23350159900.0 -0.9393198489 0.3866165774
23400159600.0 -0.9342960774 0.3992225686
23450159300.0 -0.929196203 0.4127942896
23500159000.0 -0.9245005187 0.4256964142
23550158700.0 -0.9202488108 0.4387697138
23600158400.0 -0.9149522714 0.4521938791
23650158100.0 -0.9083620613 0.466473857
23700157800.0 -0.9009731306 0.4804252232
23750157500.0 -0.892401051 0.4946257261
23800157200.0 -0.8833315027 0.507748589
23850156900.0 -0.8747859482 0.5205804262
23900156600.0 -0.8655590647 0.5330224798
23950156300.0 -0.8556067553 0.5448799479
24000156000.0 -0.8467667767 0.5577049914
24050155700.0 -0.8360397369 0.5685103018
24100155400.0 -0.8272468946 0.5816851153
24150155100.0 -0.8164224773 0.5935173744
24200154800.0 -0.8054150376 0.6042405183
24250154500.0 -0.7941976078 0.6167572604
24300154200.0 -0.7829419227 0.6279921165
24350153900.0 -0.7712168104 0.6383131789
24400153600.0 -0.7587064956 0.6487736619
24450153300.0 -0.7472657088 0.65851302
24500153000.0 -0.7355549229 0.6683520157
24550152700.0 -0.7243948414 0.6779660806
24600152400.0 -0.71247162 0.6871396906
24650152100.0 -0.7008487721 0.6960433537
