!Created with skrf (http://scikit-rf.org).
# Hz S RI R 50.0 
!freq ReS11 ImS11
300000.0 -0.9739937584 -0.1204261936
50299700.0 -0.9999835891 0.0150712816
100299400.0 -0.9979033093 0.027977374
150299100.0 -1.002566849 0.0447392195
200298800.0 -0.9995719498 0.0581610446
250298500.0 -0.9975345478 0.0718119131
300298200.0 -0.9858376977 0.0874756414
350297900.0 -0.993941874 0.098342186
400297600.0 -0.9931698499 0.1149191316
450297300.0 -0.9910493843 0.1288970896
500297000.0 -0.9894100293 0.1434448651
550296700.0 -0.984171152 0.1558205222
600296400.0 -1.017146157 0.1892349263
650296100.0 -0.9821312356 0.1858528609
700295800.0 -0.9792668477 0.1998913536
750295500.0 -0.9761874596 0.2138799039
800295200.0 -0.9730683813 0.2282520816
850294900.0 -0.9696496536 0.2419100392
900294600.0 -0.9657577264 0.2556438047
950294300.0 -0.9619153642 0.2691713006
1000294000.0 -0.9581349737 0.283255252
1050293700.0 -0.9536293941 0.29706154
1100293400.0 -0.9494833146 0.3114525309
1150293100.0 -0.9454599795 0.3233808091
1200292800.0 -0.9401131259 0.3377251533
1250292500.0 -0.9347253659 0.3512757722
1300292200.0 -0.9290612347 0.3644015214
1350291900.0 -0.9235216933 0.3783191756
1400291600.0 -0.9179385434 0.3917211226
1450291300.0 -0.9125735985 0.4040981007
1500291000.0 -0.9061563532 0.4173270566
1550290700.0 -0.899883773 0.4306359355
1600290400.0 -0.8934410015 0.4436671342
1650290100.0 -0.886903208 0.4557369228
1700289800.0 -0.8802205154 0.4692157128
1750289500.0 -0.8728839892 0.4815634646
1800289200.0 -0.8655493774 0.4945532376
1850288900.0 -0.8586459705 0.5058315724
1900288600.0 -0.8510659144 0.5188530451
1950288300.0 -0.8429939586 0.531298918
2000288000.0 -0.835525074 0.542882881
2050287700.0 -0.8271731419 0.5551622854
2100287400.0 -0.8192917454 0.5664925026
2150287100.0 -0.8110315297 0.5786683683
2200286800.0 -0.8030445959 0.5892748048
2250286500.0 -0.7942115364 0.6014247225
2300286200.0 -0.7852368326 0.6128305781
2350285900.0 -0.7768869882 0.6235652043
2400285600.0 -0.7678342761 0.6346968081
2450285300.0 -0.7591994247 0.6451374348
2500285000.0 -0.7491648093 0.6565806513
2550284700.0 -0.7403637683 0.666888029
2600284400.0 -0.7310786444 0.6768426647
2650284100.0 -0.7224818153 0.6872490235
2700283800.0 -0.7116908886 0.6975338403
2750283500.0 -0.7017791358 0.7081434491
2800283200.0 -0.6915390314 0.7178910036
2850282900.0 -0.6812457346 0.7282361422
2900282600.0 -0.6708348234 0.7377276536
2950282300.0 -0.6604448549 0.747093858
3000282000.0 -0.6498233838 0.7566509636
3050281700.0 -0.6384579294 0.7659914568
3100281400.0 -0.6268980958 0.7749571472
3150281100.0 -0.6155424119 0.7839185447
3200280800.0 -0.603996102 0.7924101466
3250280500.0 -0.5929173384 0.8003618785
3300280200.0 -0.5815217368 0.8085017438
3350279900.0 -0.5694411557 0.816633627
3400279600.0 -0.5569540051 0.8243895999
3450279300.0 -0.545781886 0.831441862
3500279000.0 -0.5337997412 0.8381104846
3550278700.0 -0.5219350814 0.8455118185
3600278400.0 -0.5099952942 0.8524213354
3650278100.0 -0.4967056372 0.8599370148
3700277800.0 -0.4847574649 0.8664064944
3750277500.0 -0.4722345729 0.8733514102
3800277200.0 -0.4599372964 0.879733607
3850276900.0 -0.4478361215 0.8855264932
3900276600.0 -0.4370377121 0.891246666
3950276300.0 -0.4247287487 0.8971410777
4000276000.0 -0.41315097 0.9032474555
4050275700.0 -0.4005424314 0.9093460708
4100275400.0 -0.3890825217 0.9144637415
4150275100.0 -0.3761793624 0.9204251418
4200274800.0 -0.3629084746 0.9260572369
4250274500.0 -0.350294964 0.9312077523
4300274200.0 -0.3372126109 0.9366495379
4350273900.0 -0.3229838672 0.9420159297
4400273600.0 -0.3082060924 0.9472103523
4450273300.0 -0.2930950195 0.9520723707
4500273000.0 -0.2799602046 0.9564837833
4550272700.0 -0.2661575464 0.9605195359
4600272400.0 -0.2508508034 0.9646217349
4650272100.0 -0.2396020745 0.9678758682
4700271800.0 -0.2266020133 0.9712651582
4750271500.0 -0.2148739099 0.974087179
4800271200.0 -0.2026026376 0.9766637889
4850270900.0 -0.1887139826 0.9796108443
4900270600.0 -0.1749544294 0.9820712736
4950270300.0 -0.1604157708 0.9846116495
5000270000.0 -0.1460444726 0.9867140138
5050269700.0 -0.132540282 0.9880728786
5100269400.0 -0.1185713425 0.9901652646
5150269100.0 -0.1044856953 0.9916779041
5200268800.0 -0.091153136 0.9927069894
5250268500.0 -0.0781584571 0.9936455694
5300268200.0 -0.0647322065 0.9943700579
5350267900.0 -0.0519380426 0.9951688848
5400267600.0 -0.0359711503 0.9963171188
5450267300.0 -0.0224046009 0.9968430374
5500267000.0 -0.0072436688 0.9969795762
5550266700.0 0.0076682545 0.9971223247
5600266400.0 0.0234519884 0.9971601201
5650266100.0 0.0401535232 0.9970703862
5700265800.0 0.0542755352 0.9959265836
5750265500.0 0.0694000593 0.9955323766
5800265200.0 0.0826952615 0.9942972556
5850264900.0 0.0959625139 0.9931233728
5900264600.0 0.1126073178 0.9914523963
5950264300.0 0.1242812927 0.9900077867
6000264000.0 0.1377948757 0.9877596798
6050263700.0 0.1498355158 0.9867558115
6100263400.0 0.1620372439 0.985158299
6150263100.0 0.176373413 0.9826434176
6200262800.0 0.1863492173 0.9811393546
6250262500.0 0.199052057 0.9785038707
6300262200.0 0.2113827236 0.9760621056
6350261900.0 0.2241984581 0.9732378931
6400261600.0 0.2382456168 0.9700387616
6450261300.0 0.2492933331 0.9675630216
6500261000.0 0.2627648054 0.9639236963
6550260700.0 0.2755956533 0.9598518312
6600260400.0 0.2895335569 0.95592527
6650260100.0 0.3032073966 0.9514850391
6700259800.0 0.3149339787 0.9472090301
6750259500.0 0.3290459142 0.9423601893
6800259200.0 0.3423637836 0.9373962383
6850258900.0 0.3550522101 0.9321118514
6900258600.0 0.3673886014 0.9268480821
6950258300.0 0.3795828109 0.9215239878
7000258000.0 0.3916680317 0.9160501916
7050257700.0 0.4036348584 0.9102589459
7100257400.0 0.4167853124 0.9039692447
7150257100.0 0.4274439171 0.8984804965
7200256800.0 0.4405782136 0.8920462524
7250256500.0 0.4530066864 0.8856668165
7300256200.0 0.4658781589 0.8787531324
7350255900.0 0.4784201974 0.8716220244
7400255600.0 0.4926885043 0.8644617519
7450255300.0 0.5080429018 0.8551699528
7500255000.0 0.5201671628 0.8478292834
7550254700.0 0.5344191905 0.8389908905
7600254400.0 0.5467076779 0.8306511512
7650254100.0 0.5583545553 0.822714566
7700253800.0 0.570019859 0.8145953254
7750253500.0 0.5811423025 0.8070347667
7800253200.0 0.5918590592 0.7992115749
7850252900.0 0.6015392931 0.7920099117
7900252600.0 0.6131498277 0.7832412213
7950252300.0 0.6216693455 0.7769182731
8000252000.0 0.6315451333 0.7692296753
8050251700.0 0.6418949555 0.7611432557
8100251400.0 0.6518162559 0.7530577918
8150251100.0 0.6621395006 0.7446380943
8200250800.0 0.671490026 0.7363699583
8250250500.0 0.679960994 0.7285654814
8300250200.0 0.6895816582 0.7202352052
8350249900.0 0.6986390334 0.7114073351
8400249600.0 0.7062808189 0.7031649968
8450249300.0 0.7154865075 0.6945752895
8500249000.0 0.7242631393 0.685747388
8550248700.0 0.7323999987 0.6767043385
8600248400.0 0.7409624625 0.6670815177
8650248100.0 0.7486650144 0.6577585507
8700247800.0 0.7580044595 0.6465338467
8750247500.0 0.7661968973 0.6365603283
8800247200.0 0.7744930433 0.6262112481
8850246900.0 0.7830771483 0.614806116
8900246600.0 0.7910446145 0.6035017025
8950246300.0 0.8002017953 0.5906405617
9000246000.0 0.809206753 0.5787059362
9050245700.0 0.8181234227 0.5662315196
9100245400.0 0.8263058963 0.5539552369
9150245100.0 0.8355091528 0.5409325976
9200244800.0 0.845018638 0.5263795543
9250244500.0 0.853877823 0.5116665182
9300244200.0 0.8619211919 0.4977327957
9350243900.0 0.8697377155 0.4844230458
9400243600.0 0.8763601123 0.4724877071
9450243300.0 0.8819960412 0.4618825307
9500243000.0 0.8883107305 0.4499269086
9550242700.0 0.8923139394 0.4423369784
9600242400.0 0.8964705366 0.4349215261
9650242100.0 0.9005069853 0.4279942589
9700241800.0 0.9051943122 0.4196415245
9750241500.0 0.9095435599 0.4118024071
9800241200.0 0.9144793953 0.4023399512
9850240900.0 0.9206038582 0.3905672065
9900240600.0 0.9260663841 0.3790884124
9950240300.0 0.9334109537 0.3622022297
10000240000.0 0.9383456399 0.3500996176
10050239700.0 0.9440216528 0.3344759305
10100239400.0 0.9492495806 0.3182247825
10150239100.0 0.9537982185 0.3029674189
10200238800.0 0.9580927284 0.2875573128
10250238500.0 0.961376084 0.2739684419
10300238200.0 0.9647443826 0.2602692907
10350237900.0 0.9673744076 0.2468695888
10400237600.0 0.9699586908 0.233537763
10450237300.0 0.9725291064 0.2200165847
10500237000.0 0.9749927645 0.2072857356
10550236700.0 0.9772286133 0.1927878788
10600236400.0 0.9795547922 0.179167105
10650236100.0 0.9813079054 0.1649939047
10700235800.0 0.9833566617 0.1523062086
10750235500.0 0.9861353959 0.1388295142
10800235200.0 0.9877412365 0.1246566293
10850234900.0 0.9897971206 0.1097321414
10900234600.0 0.99200042 0.0950918499
10950234300.0 0.9937747357 0.0815492537
11000234000.0 0.9954384945 0.0659987922
11050233700.0 0.9972855914 0.0494975589
11100233400.0 0.9989666526 0.0318208043
11150233100.0 0.99980464 0.0152633087
11200232800.0 1.000538948 -0.0004358943
11250232500.0 1.001836308 -0.0183878926
11300232200.0 1.00170508 -0.0355717653
11350231900.0 1.001665457 -0.0527730667
11400231600.0 1.001502602 -0.0678919569
11450231300.0 1.001508521 -0.0832362555
11500231000.0 0.9994961587 -0.1004877053
11550230700.0 0.9983683438 -0.1128444162
11600230400.0 0.9967888105 -0.1264389558
11650230100.0 0.9949925766 -0.1376325847
11700229800.0 0.99262052 -0.1530883616
11750229500.0 0.9906056852 -0.1663407013
11800229200.0 0.9876523555 -0.1800429399
11850228900.0 0.9837129711 -0.1918935619
11900228600.0 0.980103324 -0.2016564921
11950228300.0 0.9768048844 -0.2118175839
12000228000.0 0.9743864796 -0.2203667565
12050227700.0 0.9701335104 -0.2339122658
12100227400.0 0.9669090049 -0.2445629908
12150227100.0 0.9616649869 -0.2609890347
12200226800.0 0.9590731922 -0.2718964698
12250226500.0 0.9539773202 -0.2849776981
12300226200.0 0.9503706786 -0.2970470614
12350225900.0 0.9448584202 -0.3101147512
12400225600.0 0.9404544869 -0.322952434
12450225300.0 0.9367122101 -0.336091589
12500225000.0 0.930871057 -0.3507126226
12550224700.0 0.9253832567 -0.3645956884
12600224400.0 0.9205322033 -0.3772885552
12650224100.0 0.9147212545 -0.3915456401
12700223800.0 0.9095486081 -0.4043991742
12750223500.0 0.9039073023 -0.4174275212
12800223200.0 0.8987020309 -0.4299387778
12850222900.0 0.8934235177 -0.4423867334
12900222600.0 0.8873870331 -0.4540539666
12950222300.0 0.8813078784 -0.4671145412
13000222000.0 0.8756477126 -0.4782439614
13050221700.0 0.8685888916 -0.491727969
13100221400.0 0.8618500649 -0.5038500667
13150221100.0 0.8552823381 -0.5157460399
13200220800.0 0.8481093152 -0.5271182395
13250220500.0 0.8410253914 -0.539288787
13300220200.0 0.8333586711 -0.5502398194
13350219900.0 0.8254283741 -0.5622458524
13400219600.0 0.8170547942 -0.5740539301
13450219300.0 0.8077793024 -0.5873592252
13500219000.0 0.7976196061 -0.6006963321
13550218700.0 0.787907545 -0.6127370564
13600218400.0 0.7780637032 -0.6250442083
13650218100.0 0.7687261735 -0.6354540428
13700217800.0 0.7578079602 -0.6479571283
13750217500.0 0.7480515463 -0.6587203628
13800217200.0 0.7377719596 -0.6698892303
13850216900.0 0.7257755541 -0.6816190198
13900216600.0 0.7156222962 -0.6896660555
13950216300.0 0.70575151 -0.6998499911
14000216000.0 0.6957025199 -0.7090368064
14050215700.0 0.6867089819 -0.717308003
14100215400.0 0.6768085739 -0.7266136241
14150215100.0 0.6678992577 -0.7351934047
14200214800.0 0.6581886366 -0.7439515735
14250214500.0 0.6476719189 -0.753356458
14300214200.0 0.6373891381 -0.762783574
14350213900.0 0.6262150843 -0.7724424111
14400213600.0 0.6143526465 -0.782289697
14450213300.0 0.6014131761 -0.7925902267
14500213000.0 0.5882649995 -0.8024551638
14550212700.0 0.5760492776 -0.8118246845
14600212400.0 0.5633017478 -0.8203772504
14650212100.0 0.5513040996 -0.8288753724
14700211800.0 0.537342493 -0.8387751904
14750211500.0 0.5246187855 -0.8471803558
14800211200.0 0.5121668558 -0.8553574026
14850210900.0 0.5003155011 -0.8629330495
14900210600.0 0.48696009 -0.8707418272
14950210300.0 0.4735206575 -0.8784510432
15000210000.0 0.4608810627 -0.8853037691
15050209700.0 0.4486651286 -0.8916762224
15100209400.0 0.43608799 -0.8974327726
15150209100.0 0.423723869 -0.9024055103
15200208800.0 0.410461375 -0.908247421
15250208500.0 0.3996310824 -0.912118903
15300208200.0 0.3874308281 -0.917284266
15350207900.0 0.3738884036 -0.922230327
15400207600.0 0.3598974115 -0.9270693113
15450207300.0 0.3453918808 -0.9324889771
15500207000.0 0.3303225223 -0.9369124939
15550206700.0 0.3161537699 -0.9417861055
15600206400.0 0.2998233351 -0.9463180543
15650206100.0 0.2844513317 -0.950521885
15700205800.0 0.2707077518 -0.9544913706
15750205500.0 0.2566340414 -0.957775697
15800205200.0 0.2424221969 -0.9610943365
15850204900.0 0.228183448 -0.9646587742
15900204600.0 0.213082988 -0.9683780018
15950204300.0 0.1988095685 -0.9714389581
16000204000.0 0.1847398877 -0.974098296
16050203700.0 0.1690090656 -0.9775243969
16100203400.0 0.1542638054 -0.9797967806
16150203100.0 0.1394024753 -0.9818386041
16200202800.0 0.1255786903 -0.9836826164
16250202500.0 0.1105188661 -0.9857466329
16300202200.0 0.095088187 -0.9875418357
16350201900.0 0.0803689645 -0.9888036739
16400201600.0 0.0655228863 -0.9901005947
16450201300.0 0.0499358555 -0.9913607289
16500201000.0 0.0332148178 -0.9921181911
16550200700.0 0.0172931515 -0.9926344368
16600200400.0 0.0012950684 -0.9926555243
16650200100.0 -0.0148665032 -0.9925945012
16700199800.0 -0.030853593 -0.9925746335
16750199500.0 -0.049913652 -0.991911159
16800199200.0 -0.0656893491 -0.9907050098
16850198900.0 -0.0815182611 -0.9894502526
16900198600.0 -0.0952408975 -0.9889655358
16950198300.0 -0.1086994174 -0.9876020606
17000198000.0 -0.1221102362 -0.9857169174
17050197700.0 -0.1343142882 -0.9840790721
17100197400.0 -0.1479216926 -0.9820903226
17150197100.0 -0.1602140545 -0.9802632251
17200196800.0 -0.1730281542 -0.9779624688
17250196500.0 -0.1860417307 -0.9756845123
17300196200.0 -0.1980215122 -0.9731032239
17350195900.0 -0.2100276334 -0.9709012039
17400195600.0 -0.2221718954 -0.9683596933
17450195300.0 -0.2350623272 -0.9655265565
17500195000.0 -0.2481976992 -0.9621949353
17550194700.0 -0.2622817192 -0.958690051
17600194400.0 -0.2760240053 -0.9546230109
17650194100.0 -0.2897100879 -0.9505104942
17700193800.0 -0.3022900051 -0.9465573001
17750193500.0 -0.3170160484 -0.9423492658
17800193200.0 -0.3311425627 -0.9367432431
17850192900.0 -0.3460388995 -0.9314702549
17900192600.0 -0.3614007456 -0.9252343882
17950192300.0 -0.3767251316 -0.9181104997
18000192000.0 -0.3913201337 -0.9108916413
18050191700.0 -0.4053180805 -0.9030018998
18100191400.0 -0.4193894459 -0.8953562171
18150191100.0 -0.4343143787 -0.8874019234
18200190800.0 -0.4512170713 -0.8782970882
18250190500.0 -0.4682411055 -0.8688101204
18300190200.0 -0.4839979244 -0.8599813707
18350189900.0 -0.4987109068 -0.8518791343
18400189600.0 -0.5133777442 -0.8434049451
18450189300.0 -0.5268181887 -0.8354525517
18500189000.0 -0.5399690106 -0.8277546695
18550188700.0 -0.5529479235 -0.8199907017
18600188400.0 -0.5650615634 -0.8132893057
18650188100.0 -0.5760662513 -0.8061911125
18700187800.0 -0.587182156 -0.7999157143
18750187500.0 -0.5977382427 -0.7931483329
18800187200.0 -0.6085415218 -0.7860396219
18850186900.0 -0.6186221841 -0.7790478008
18900186600.0 -0.6291677799 -0.7717699125
18950186300.0 -0.63925511 -0.7640884655
19000186000.0 -0.6465171594 -0.7575586169
19050185700.0 -0.6559943243 -0.7504230986
19100185400.0 -0.6659987208 -0.7423432945
19150185100.0 -0.675770325 -0.7336243822
19200184800.0 -0.6848948029 -0.7259883377
19250184500.0 -0.6952944912 -0.7159581213
19300184200.0 -0.7073225368 -0.7067583291
19350183900.0 -0.7177615389 -0.6977382885
19400183600.0 -0.7273886157 -0.6869209192
19450183300.0 -0.7366504965 -0.6777611615
19500183000.0 -0.7450450949 -0.666647832
19550182700.0 -0.754562067 -0.6561463804
19600182400.0 -0.7649786397 -0.6442737717
19650182100.0 -0.7753247807 -0.6321092595
19700181800.0 -0.7859686303 -0.6189301674
19750181500.0 -0.796446994 -0.604881052
19800181200.0 -0.8067379053 -0.5897504768
19850180900.0 -0.8162931697 -0.5746957531
19900180600.0 -0.8239489476 -0.5601747787
19950180300.0 -0.8328304381 -0.5440458995
20000180000.0 -0.8240963032 -0.5467481769
20050179700.0 -0.8325481501 -0.5343784711
20100179400.0 -0.8407860849 -0.5215214233
20150179100.0 -0.8483440626 -0.5085777179
20200178800.0 -0.856911928 -0.4967637454
20250178500.0 -0.8659534622 -0.4849853978
20300178200.0 -0.8758149672 -0.470549256
20350177900.0 -0.8852590497 -0.4566984703
20400177600.0 -0.8940467955 -0.4422149464
20450177300.0 -0.9027648754 -0.4283598022
20500177000.0 -0.910590344 -0.4142495269
20550176700.0 -0.9181990927 -0.4007266557
20600176400.0 -0.9253360731 -0.3875823358
20650176100.0 -0.9323247693 -0.3761095093
20700175800.0 -0.9385941566 -0.3630114569
20750175500.0 -0.9451777626 -0.3515689461
20800175200.0 -0.9498351667 -0.3407617668
20850174900.0 -0.9537009824 -0.3307502316
20900174600.0 -0.9585130032 -0.3184561923
20950174300.0 -0.9622034317 -0.3079772825
21000174000.0 -0.9649831403 -0.2974483408
21050173700.0 -0.9667953293 -0.2871647877
21100173400.0 -0.9709917259 -0.2768244869
21150173100.0 -0.9749356102 -0.2641350572
21200172800.0 -0.9785719594 -0.2507246055
21250172500.0 -0.9815195949 -0.2377928392
21300172200.0 -0.9854120821 -0.2233471749
21350171900.0 -0.98737756 -0.2089489676
21400171600.0 -0.989472322 -0.1949520496
21450171300.0 -0.9889521598 -0.1806141858
21500171000.0 -0.9901476184 -0.1651355154
21550170700.0 -0.9898767906 -0.1504106476
21600170400.0 -0.9904263058 -0.1348058959
21650170100.0 -0.9914501066 -0.1187000344
21700169800.0 -0.9900072885 -0.1042807765
21750169500.0 -0.9899569088 -0.0873844031
21800169200.0 -0.9900545475 -0.0712867355
21850168900.0 -0.9887335119 -0.0550148759
21900168600.0 -0.9885094915 -0.0382066432
21950168300.0 -0.9881090905 -0.0223767395
22000168000.0 -0.9879558194 -0.0077060953
22050167700.0 -0.988456423 0.0073065685
22100167400.0 -0.988759364 0.0225438732
22150167100.0 -0.9899575833 0.038515531
22200166800.0 -0.9899074649 0.0552363641
22250166500.0 -0.9891325971 0.0719841671
22300166200.0 -0.9893893612 0.0889152192
22350165900.0 -0.9880372566 0.1055055141
22400165600.0 -0.987175036 0.1210827691
22450165300.0 -0.9845638957 0.135477596
22500165000.0 -0.9829320821 0.1509844629
22550164700.0 -0.9807633222 0.1663840118
22600164400.0 -0.9789916399 0.1821689925
22650164100.0 -0.9767619422 0.1972056985
22700163800.0 -0.9742584997 0.2128260685
22750163500.0 -0.9709877724 0.2279670721
22800163200.0 -0.9677629333 0.2413575676
22850162900.0 -0.9649003719 0.2545879699
22900162600.0 -0.9635644131 0.2687308825
22950162300.0 -0.9620419396 0.2818083713
23000162000.0 -0.9599707933 0.2944588186
23050161700.0 -0.9579077705 0.3075138164
23100161400.0 -0.9550304587 0.3213235604
23150161100.0 -0.9526956706 0.3338626637
23200160800.0 -0.9493750064 0.3464865681
23250160500.0 -0.9467590859 0.3584372556
23300160200.0 -0.9444573424 0.3714198041
23350159900.0 -0.939843263 0.3848319588
23400159600.0 -0.9343109565 0.3982642377
23450159300.0 -0.9299302825 0.4118679697
23500159000.0 -0.924483676 0.4256400317
23550158700.0 -0.9202100132 0.4392688393
23600158400.0 -0.9144631346 0.4532908086
23650158100.0 -0.9073155534 0.467695604
23700157800.0 -0.8990004232 0.4819276791
23750157500.0 -0.8898394139 0.4965891497
23800157200.0 -0.8803458545 0.509880772
23850156900.0 -0.8702270548 0.5220148722
23900156600.0 -0.8606710238 0.5345518727
23950156300.0 -0.8513218826 0.5475433407
24000156000.0 -0.8420560533 0.5604938978
24050155700.0 -0.8311514374 0.571717099
24100155400.0 -0.8211824235 0.5841949153
24150155100.0 -0.8112752211 0.5961095366
24200154800.0 -0.7997215632 0.6082397053
24250154500.0 -0.7880977415 0.6205291639
24300154200.0 -0.7765877594 0.632395169
24350153900.0 -0.7650326274 0.6434151159
24400153600.0 -0.7520861262 0.6536888177
24450153300.0 -0.7404484792 0.6641075123
24500153000.0 -0.7290287902 0.673999096
24550152700.0 -0.7180564568 0.6841966634
24600152400.0 -0.7058212029 0.6935747215
24650152100.0 -0.6934142117 0.7024640073
