!Created with skrf (http://scikit-rf.org).
# Hz S RI R 50.0 
!freq ReS11 ImS11
300000.0 -1.002656445 -0.0081433401
50299700.0 -0.9986540774 0.0158659776
100299400.0 -0.9966864932 0.0282593957
150299100.0 -1.001526087 0.0451688179
200298800.0 -0.9982755142 0.0582663989
250298500.0 -0.9959390874 0.0716334527
300298200.0 -0.9841497398 0.0872984505
350297900.0 -0.9922226884 0.097975611
400297600.0 -0.9911156965 0.1145046758
450297300.0 -0.9889328515 0.128123268
500297000.0 -0.9872142435 0.1425763329
550296700.0 -0.9820850082 0.1547414
600296400.0 -1.014804398 0.1878178915
650296100.0 -0.9798975877 0.1843897288
700295800.0 -0.9769592027 0.1982142609
750295500.0 -0.9739507246 0.2123078775
800295200.0 -0.9707241968 0.2262347969
850294900.0 -0.9674773455 0.239773811
900294600.0 -0.963554262 0.253391127
950294300.0 -0.9599575661 0.266917916
1000294000.0 -0.9559958951 0.2807371641
1050293700.0 -0.9516206759 0.2945381359
1100293400.0 -0.9472493668 0.3088930061
1150293100.0 -0.9438453981 0.320768312
1200292800.0 -0.9385588475 0.3348520833
1250292500.0 -0.9333371559 0.3483327843
1300292200.0 -0.927765458 0.3615594277
1350291900.0 -0.9222325661 0.3754457808
1400291600.0 -0.916864604 0.3884915918
1450291300.0 -0.911758427 0.4007818037
1500291000.0 -0.9055093438 0.4143970984
1550290700.0 -0.8990562736 0.4273337711
1600290400.0 -0.8929956189 0.4402800665
1650290100.0 -0.8867531931 0.4523612171
1700289800.0 -0.8800381244 0.4658572939
1750289500.0 -0.8731343937 0.4780188575
1800289200.0 -0.8659466728 0.4909007759
1850288900.0 -0.8593268098 0.5019424937
1900288600.0 -0.8518602552 0.5150049246
1950288300.0 -0.8439350698 0.5273216143
2000288000.0 -0.8363043073 0.5390325744
2050287700.0 -0.8284585571 0.5511352309
2100287400.0 -0.8205718898 0.562641318
2150287100.0 -0.8119062563 0.5746624587
2200286800.0 -0.8043969918 0.5853779035
2250286500.0 -0.7957767096 0.5970263505
2300286200.0 -0.7872595065 0.6085264522
2350285900.0 -0.7787626086 0.6192004032
2400285600.0 -0.7693939189 0.6306347744
2450285300.0 -0.7604375701 0.6412818189
2500285000.0 -0.7513573958 0.6519089984
2550284700.0 -0.7423125114 0.6624437093
2600284400.0 -0.7323801417 0.6728269756
2650284100.0 -0.7239201991 0.6829022384
2700283800.0 -0.713631925 0.6933941364
2750283500.0 -0.7033189506 0.7035532755
2800283200.0 -0.6935455038 0.713422987
2850282900.0 -0.6833202178 0.723416441
2900282600.0 -0.67254243 0.7329548144
2950282300.0 -0.662415648 0.7422359135
3000282000.0 -0.6518029385 0.7518840762
3050281700.0 -0.6408399534 0.7610044874
3100281400.0 -0.6301141721 0.7697992406
3150281100.0 -0.6192621088 0.7787196765
3200280800.0 -0.6076800045 0.787494701
3250280500.0 -0.5965975459 0.7957949257
3300280200.0 -0.5847646597 0.8045690839
3350279900.0 -0.5738376597 0.812066897
3400279600.0 -0.5615976319 0.8202187683
3450279300.0 -0.5505960169 0.8282955648
3500279000.0 -0.5386061651 0.8355542294
3550278700.0 -0.5267155959 0.8431843433
3600278400.0 -0.5156533735 0.8497426185
3650278100.0 -0.5023766828 0.8579597377
3700277800.0 -0.4905594539 0.8646613613
3750277500.0 -0.4786705407 0.8711438558
3800277200.0 -0.4660769612 0.8779904368
3850276900.0 -0.453696725 0.8841758531
3900276600.0 -0.4423781443 0.8902044803
3950276300.0 -0.429256248 0.8968139756
4000276000.0 -0.4174339535 0.902662482
4050275700.0 -0.4038335091 0.9086871381
4100275400.0 -0.3922294804 0.914100782
4150275100.0 -0.3793205405 0.9196710391
4200274800.0 -0.3656013623 0.9255020327
4250274500.0 -0.3535439864 0.9302687099
4300274200.0 -0.3408283038 0.9351387675
4350273900.0 -0.3270544449 0.9399863194
4400273600.0 -0.3138998784 0.9444892014
4450273300.0 -0.2998237268 0.9490508702
4500273000.0 -0.2870519888 0.9530620686
4550272700.0 -0.2739983782 0.9570926085
4600272400.0 -0.2589424248 0.9612659813
4650272100.0 -0.2465610783 0.9644022492
4700271800.0 -0.2331796479 0.9678838091
4750271500.0 -0.2200408674 0.9710253383
4800271200.0 -0.2063870475 0.9738947626
4850270900.0 -0.1926744197 0.9768721258
4900270600.0 -0.1792405912 0.9791082604
4950270300.0 -0.1660302208 0.9816032275
5000270000.0 -0.151978573 0.9837038054
5050269700.0 -0.138260843 0.9855774613
5100269400.0 -0.1241242948 0.9876837086
5150269100.0 -0.1100630807 0.9896477181
5200268800.0 -0.0964360078 0.9908353011
5250268500.0 -0.083273174 0.9918467135
5300268200.0 -0.069377118 0.9929081487
5350267900.0 -0.056741338 0.9936337801
5400267600.0 -0.0410786204 0.9948343821
5450267300.0 -0.0285491067 0.9951125783
5500267000.0 -0.0145951617 0.9953733051
5550266700.0 -0.0014854497 0.9957334405
5600266400.0 0.0128671328 0.9956309678
5650266100.0 0.0280765562 0.9954752476
5700265800.0 0.0416714762 0.9948537484
5750265500.0 0.0554410969 0.9945365589
5800265200.0 0.0686325089 0.9934096516
5850264900.0 0.0823094562 0.9928364315
5900264600.0 0.0980556143 0.9911897145
5950264300.0 0.1101144826 0.9898478759
6000264000.0 0.1236529333 0.9878958617
6050263700.0 0.1366851668 0.9868041557
6100263400.0 0.1501888077 0.9848859248
6150263100.0 0.165659335 0.9823911415
6200262800.0 0.176479797 0.9804869503
6250262500.0 0.1900540475 0.977982852
6300262200.0 0.2029586397 0.97545264
6350261900.0 0.2159580876 0.9726281192
6400261600.0 0.2306507346 0.969190152
6450261300.0 0.2423207018 0.9664264514
6500261000.0 0.2555716341 0.9630018665
6550260700.0 0.2687063251 0.9591977976
6600260400.0 0.2814768567 0.9556033862
6650260100.0 0.2953416702 0.9513916257
6700259800.0 0.3075773065 0.94742141
6750259500.0 0.3210528293 0.942734775
6800259200.0 0.3344204686 0.9382578963
6850258900.0 0.3466868573 0.9331924652
6900258600.0 0.3592812788 0.9286145568
6950258300.0 0.372391354 0.9235434936
7000258000.0 0.3845442393 0.9183575871
7050257700.0 0.3961731961 0.9131745886
7100257400.0 0.4102654008 0.9069402334
7150257100.0 0.4212557927 0.9017969927
7200256800.0 0.4346077414 0.895774268
7250256500.0 0.4457262502 0.8896747582
7300256200.0 0.4589504624 0.8833510784
7350255900.0 0.4708158433 0.8770729316
7400255600.0 0.481480532 0.8712569893
7450255300.0 0.4953465038 0.8636602384
7500255000.0 0.506606145 0.8569237174
7550254700.0 0.5183128552 0.8496854396
7600254400.0 0.5304991472 0.8426829212
7650254100.0 0.54142907 0.8354178626
7700253800.0 0.5531742193 0.8275877606
7750253500.0 0.5644793441 0.8204014831
7800253200.0 0.5760185083 0.811950365
7850252900.0 0.5856939323 0.8051483109
7900252600.0 0.5977469086 0.796524281
7950252300.0 0.6076215604 0.7890337021
8000252000.0 0.6180943859 0.7808325627
8050251700.0 0.6290266921 0.7723692684
8100251400.0 0.6389006725 0.7644389195
8150251100.0 0.6495108727 0.7551560807
8200250800.0 0.6590543279 0.7470001386
8250250500.0 0.6693832504 0.737899911
8300250200.0 0.6791285825 0.7289047629
8350249900.0 0.6887081895 0.7197974602
8400249600.0 0.6977573673 0.7109304361
8450249300.0 0.707611109 0.7011247276
8500249000.0 0.7171185126 0.6916063336
8550248700.0 0.7266815522 0.681414579
8600248400.0 0.7360728085 0.6709515222
8650248100.0 0.7441406367 0.6618491852
8700247800.0 0.7535199247 0.6513278458
8750247500.0 0.7622094507 0.6408976483
8800247200.0 0.7707949543 0.6305602813
8850246900.0 0.7794497801 0.6197733026
8900246600.0 0.7876415842 0.6092465399
8950246300.0 0.7964584588 0.597407042
9000246000.0 0.8041644968 0.5868950088
9050245700.0 0.8120426912 0.5759173678
9100245400.0 0.8204113018 0.5640353842
9150245100.0 0.8281477985 0.5526864796
9200244800.0 0.8353394104 0.5419502525
9250244500.0 0.8434709058 0.5295162627
9300244200.0 0.8506135672 0.5180345897
9350243900.0 0.8578537587 0.5056956341
9400243600.0 0.864997689 0.493631594
9450243300.0 0.870792114 0.4829831353
9500243000.0 0.8779181983 0.4705023645
9550242700.0 0.8842134885 0.4588984474
9600242400.0 0.8902824223 0.4471721236
9650242100.0 0.8954215474 0.4363966308
9700241800.0 0.9015644644 0.4247140349
9750241500.0 0.9073288304 0.4127122722
9800241200.0 0.9132559401 0.3996000559
9850240900.0 0.9186537785 0.3872760612
9900240600.0 0.9230521684 0.3774540476
9950240300.0 0.9284038191 0.3637875926
10000240000.0 0.9335018011 0.3507573397
10050239700.0 0.9386176895 0.3377814664
10100239400.0 0.9431317737 0.3242756435
10150239100.0 0.9473988835 0.3111915791
10200238800.0 0.9518199461 0.2968863592
10250238500.0 0.9558570299 0.2834998442
10300238200.0 0.9595598228 0.2699182921
10350237900.0 0.9629670274 0.2570606536
10400237600.0 0.9662843208 0.2436438324
10450237300.0 0.969698112 0.2298225064
10500237000.0 0.9727785736 0.2165608756
10550236700.0 0.9756099639 0.2030046914
10600236400.0 0.9778104481 0.1900549273
10650236100.0 0.980452703 0.1743498886
10700235800.0 0.9829885921 0.1610990132
10750235500.0 0.9853204337 0.1476729679
10800235200.0 0.9874835146 0.1343501155
10850234900.0 0.9885518849 0.1213010628
10900234600.0 0.9909094123 0.1065869809
10950234300.0 0.9918956226 0.0930232992
11000234000.0 0.9934796859 0.079199684
11050233700.0 0.9945399097 0.0656867681
11100233400.0 0.9956738413 0.0507306536
11150233100.0 0.9970183409 0.0364344253
11200232800.0 0.9971477422 0.0229610705
11250232500.0 0.9973005269 0.0088667487
11300232200.0 0.9980254714 -0.0068055427
11350231900.0 0.9975443123 -0.0196790607
11400231600.0 0.9975567413 -0.0345347288
11450231300.0 0.9970082406 -0.0472727028
11500231000.0 0.9966210018 -0.0619417936
11550230700.0 0.9952549136 -0.0751229835
11600230400.0 0.9943573534 -0.0897527145
11650230100.0 0.9930319214 -0.1022571312
11700229800.0 0.9913984989 -0.1172422722
11750229500.0 0.989532094 -0.1307250746
11800229200.0 0.9878607447 -0.1433477621
11850228900.0 0.985426039 -0.1576502115
11900228600.0 0.9830293338 -0.1709832621
11950228300.0 0.9801334243 -0.1849866061
12000228000.0 0.9772771013 -0.1975316248
12050227700.0 0.9744138773 -0.2106883237
12100227400.0 0.9722913516 -0.2218766174
12150227100.0 0.9675968049 -0.2399321909
12200226800.0 0.9644146495 -0.2517851991
12250226500.0 0.9603902408 -0.2654116953
12300226200.0 0.9573379596 -0.2779283261
12350225900.0 0.9527986966 -0.2929045476
12400225600.0 0.9478127175 -0.3068251536
12450225300.0 0.9444765326 -0.3184367463
12500225000.0 0.9393453656 -0.3324824548
12550224700.0 0.9338704556 -0.3467918748
12600224400.0 0.929555796 -0.3590639422
12650224100.0 0.9238407826 -0.3734124343
12700223800.0 0.9184849072 -0.3862494351
12750223500.0 0.913119275 -0.3992420426
12800223200.0 0.9075113914 -0.4124035363
12850222900.0 0.9016383319 -0.4249224116
12900222600.0 0.8957697735 -0.4375500248
12950222300.0 0.8894655581 -0.4503281088
13000222000.0 0.8828788843 -0.4627487674
13050221700.0 0.8760442075 -0.4754584637
13100221400.0 0.8692579721 -0.4872475646
13150221100.0 0.862642649 -0.4998176395
13200220800.0 0.8555932836 -0.5119074995
13250220500.0 0.8487932975 -0.5238196974
13300220200.0 0.8412837363 -0.5353866397
13350219900.0 0.8333981365 -0.547999406
13400219600.0 0.8254121274 -0.5595542828
13450219300.0 0.8174372127 -0.5710561228
13500219000.0 0.8089681635 -0.5827455279
13550218700.0 0.8004144844 -0.5947416257
13600218400.0 0.7924516346 -0.605813531
13650218100.0 0.7832869781 -0.6159824803
13700217800.0 0.7743910631 -0.6276217693
13750217500.0 0.764712847 -0.6392079451
13800217200.0 0.7547028849 -0.650917333
13850216900.0 0.7444367323 -0.6624487248
13900216600.0 0.7360456838 -0.6718498102
13950216300.0 0.7258295316 -0.6827824756
14000216000.0 0.7156826598 -0.6934506023
14050215700.0 0.7066299554 -0.7026683158
14100215400.0 0.6950918233 -0.7128833031
14150215100.0 0.6849088519 -0.7233535019
14200214800.0 0.6746616046 -0.7326327771
14250214500.0 0.6638499867 -0.7428865249
14300214200.0 0.6523703542 -0.7530147768
14350213900.0 0.6413789686 -0.76255593
14400213600.0 0.6306008978 -0.7717056449
14450213300.0 0.6192572293 -0.7805072762
14500213000.0 0.6079564524 -0.7896672536
14550212700.0 0.596212831 -0.7990639485
14600212400.0 0.5842792533 -0.8077572376
14650212100.0 0.5728684135 -0.8152591706
14700211800.0 0.5594658995 -0.8242611666
14750211500.0 0.5477659712 -0.8323426937
14800211200.0 0.5351125131 -0.8409597403
14850210900.0 0.5232152591 -0.8482878731
14900210600.0 0.5108604056 -0.8560391135
14950210300.0 0.4982654983 -0.8635372491
15000210000.0 0.4854905169 -0.8705559322
15050209700.0 0.472827275 -0.8779056334
15100209400.0 0.4596313932 -0.8846794091
15150209100.0 0.4478595998 -0.8908294786
15200208800.0 0.4348978697 -0.8972617124
15250208500.0 0.4214052112 -0.9034847409
15300208200.0 0.4081571542 -0.9089823208
15350207900.0 0.3953454171 -0.9153233446
15400207600.0 0.3817329303 -0.921167607
15450207300.0 0.367546187 -0.9261011792
15500207000.0 0.353719416 -0.9306448655
15550206700.0 0.3405780134 -0.9363277632
15600206400.0 0.3265814879 -0.9409504181
15650206100.0 0.3121825552 -0.9456468341
15700205800.0 0.2983527726 -0.9502755358
15750205500.0 0.28434274 -0.9540528473
15800205200.0 0.2704524223 -0.9579808437
15850204900.0 0.256364201 -0.9618674617
15900204600.0 0.2411616136 -0.9659970694
15950204300.0 0.2268794375 -0.969277902
16000204000.0 0.212503228 -0.9725704334
16050203700.0 0.1976758196 -0.9759505487
16100203400.0 0.1834643405 -0.9784953775
16150203100.0 0.1687518057 -0.9810677592
16200202800.0 0.1537995621 -0.9835718446
16250202500.0 0.1389189784 -0.9860296893
16300202200.0 0.1242099425 -0.9874461148
16350201900.0 0.1087130817 -0.9893391506
16400201600.0 0.0937459669 -0.9905476956
16450201300.0 0.079296916 -0.9920100331
16500201000.0 0.0638960614 -0.9931867191
16550200700.0 0.0486962589 -0.994269675
16600200400.0 0.0335291977 -0.9950978541
16650200100.0 0.0183784194 -0.9953611209
16700199800.0 0.0039137261 -0.9955801257
16750199500.0 -0.0114605391 -0.9959868483
16800199200.0 -0.0263892341 -0.9955652919
16850198900.0 -0.0416506773 -0.9951478176
16900198600.0 -0.0563576167 -0.9941845865
16950198300.0 -0.0710615054 -0.9932246568
17000198000.0 -0.0854123967 -0.9921143133
17050197700.0 -0.0989220528 -0.9905924724
17100197400.0 -0.1143333569 -0.9887108115
17150197100.0 -0.1289960605 -0.9869788899
17200196800.0 -0.142987279 -0.9849298126
17250196500.0 -0.1570786524 -0.9826036224
17300196200.0 -0.1716504035 -0.9802065541
17350195900.0 -0.1859734324 -0.9775225417
17400195600.0 -0.1996917008 -0.974738058
17450195300.0 -0.2135341042 -0.9718440268
17500195000.0 -0.2276112669 -0.9685918873
17550194700.0 -0.2417213524 -0.9651004862
17600194400.0 -0.2564574276 -0.961663107
17650194100.0 -0.2706924501 -0.9574133652
17700193800.0 -0.2840586369 -0.9534799296
17750193500.0 -0.2978513674 -0.9492232337
17800193200.0 -0.3116810583 -0.944998495
17850192900.0 -0.325726556 -0.9402374925
17900192600.0 -0.3396657223 -0.9350001207
17950192300.0 -0.3545567004 -0.9293172337
18000192000.0 -0.3692890255 -0.9231944882
18050191700.0 -0.3831682818 -0.9165134226
18100191400.0 -0.3975611533 -0.9104478122
18150191100.0 -0.4111450112 -0.9040605949
18200190800.0 -0.4252727911 -0.897227503
18250190500.0 -0.4402669189 -0.8901217275
18300190200.0 -0.4546699666 -0.8830810238
18350189900.0 -0.4686926097 -0.876122512
18400189600.0 -0.4827359225 -0.8686910934
18450189300.0 -0.4957136242 -0.8616041929
18500189000.0 -0.5091899236 -0.8544327503
18550188700.0 -0.5213670315 -0.8463888473
18600188400.0 -0.5351226184 -0.8384780998
18650188100.0 -0.5473192935 -0.8303779681
18700187800.0 -0.5591800176 -0.8227926426
18750187500.0 -0.5712359575 -0.8149597283
18800187200.0 -0.5827602998 -0.8069611164
18850186900.0 -0.594263708 -0.7983464715
18900186600.0 -0.6047607595 -0.7902925442
18950186300.0 -0.6164075182 -0.7809993154
19000186000.0 -0.6267449802 -0.7730992427
19050185700.0 -0.6376903283 -0.7644722989
19100185400.0 -0.6486507528 -0.7553246916
19150185100.0 -0.659018259 -0.7464036536
19200184800.0 -0.6697222683 -0.7367638977
19250184500.0 -0.6795046812 -0.7270008228
19300184200.0 -0.690032731 -0.7172214464
19350183900.0 -0.7018221359 -0.706353142
19400183600.0 -0.7112714278 -0.6966185763
19450183300.0 -0.7213026231 -0.6861222681
19500183000.0 -0.7305022232 -0.6754939289
19550182700.0 -0.7400714731 -0.6639465504
19600182400.0 -0.7494679032 -0.6537233254
19650182100.0 -0.7594429819 -0.6419917917
19700181800.0 -0.7690183775 -0.6301472943
19750181500.0 -0.7785636212 -0.6180950797
19800181200.0 -0.7879035261 -0.6052836174
19850180900.0 -0.7974779434 -0.5926089779
19900180600.0 -0.8055172415 -0.5809283492
19950180300.0 -0.8153163437 -0.567012665
20000180000.0 -0.8218357274 -0.5566387934
20050179700.0 -0.8302070528 -0.5452371763
20100179400.0 -0.8388461294 -0.5315258983
20150179100.0 -0.8470399143 -0.5191881229
20200178800.0 -0.8555385946 -0.5066274935
20250178500.0 -0.8627311235 -0.4939312889
20300178200.0 -0.8702472849 -0.481731149
20350177900.0 -0.8777056376 -0.4683902922
20400177600.0 -0.8851627297 -0.4561068429
20450177300.0 -0.8913432316 -0.4429039663
20500177000.0 -0.8979830426 -0.4301623326
20550176700.0 -0.9046656855 -0.4172164027
20600176400.0 -0.9106535915 -0.4039513473
20650176100.0 -0.9162525131 -0.3913965534
20700175800.0 -0.9226526944 -0.3787775373
20750175500.0 -0.9284849503 -0.3656356388
20800175200.0 -0.9325662416 -0.3542290867
20850174900.0 -0.9376133428 -0.3406154671
20900174600.0 -0.9424153666 -0.3281109631
20950174300.0 -0.9466238765 -0.3156777888
21000174000.0 -0.950684346 -0.3019087742
21050173700.0 -0.9534283843 -0.2899887867
21100173400.0 -0.9573314509 -0.276828318
21150173100.0 -0.9609973718 -0.2631084991
21200172800.0 -0.9641877606 -0.2493554824
21250172500.0 -0.9676621433 -0.2361970388
21300172200.0 -0.9712692241 -0.2223944449
21350171900.0 -0.9737173009 -0.2083006342
21400171600.0 -0.9774486313 -0.1939630118
21450171300.0 -0.9792330604 -0.1796455242
21500171000.0 -0.9814274136 -0.1649864919
21550170700.0 -0.9832461354 -0.1508812697
21600170400.0 -0.9856791425 -0.1363562664
21650170100.0 -0.9886443644 -0.120816383
21700169800.0 -0.9892500357 -0.1064125646
21750169500.0 -0.9903472848 -0.0904631556
21800169200.0 -0.9917904357 -0.0747539763
21850168900.0 -0.9932078562 -0.0599870633
21900168600.0 -0.9934086755 -0.0453205812
21950168300.0 -0.9941436327 -0.029751971
22000168000.0 -0.9940566775 -0.0150316302
22050167700.0 -0.9943703855 -0.0006197876
22100167400.0 -0.9939172501 0.0148214243
22150167100.0 -0.9939223777 0.02947435
22200166800.0 -0.9934958381 0.0444351823
22250166500.0 -0.9927023069 0.0593148864
22300166200.0 -0.9920470594 0.0740929295
22350165900.0 -0.9905551816 0.0883964694
22400165600.0 -0.9898435516 0.1027079205
22450165300.0 -0.9880755721 0.116885339
22500165000.0 -0.9855402425 0.1310791351
22550164700.0 -0.9849145322 0.145474586
22600164400.0 -0.9834627727 0.1592087106
22650164100.0 -0.9808936598 0.1720814528
22700163800.0 -0.9773409941 0.1850693995
22750163500.0 -0.9753117307 0.1989628134
22800163200.0 -0.9718924801 0.2123856532
22850162900.0 -0.9692456319 0.2252767714
22900162600.0 -0.9663277726 0.2381341776
22950162300.0 -0.9629883713 0.2520226004
23000162000.0 -0.9598254445 0.2650820224
23050161700.0 -0.9563116051 0.2783994234
23100161400.0 -0.9530346421 0.2916001527
23150161100.0 -0.9485461455 0.3046683631
23200160800.0 -0.945122274 0.3174071505
23250160500.0 -0.9405859047 0.3301136357
23300160200.0 -0.9363240039 0.3439435882
23350159900.0 -0.9317773019 0.3576041465
23400159600.0 -0.9272056669 0.3706402709
23450159300.0 -0.9230227627 0.3826533141
23500159000.0 -0.9178262598 0.3951656156
23550158700.0 -0.9130672292 0.4081648618
23600158400.0 -0.9072808191 0.4203040407
23650158100.0 -0.9016757558 0.4330673704
23700157800.0 -0.8950539426 0.4455576589
23750157500.0 -0.8884286474 0.4585736844
23800157200.0 -0.8818605298 0.4711891609
23850156900.0 -0.8752501062 0.4830125633
23900156600.0 -0.8681625934 0.4956754137
23950156300.0 -0.8606957316 0.5074637011
24000156000.0 -0.8529267937 0.5195404854
24050155700.0 -0.8451610274 0.5313088912
24100155400.0 -0.8378288508 0.5433240999
24150155100.0 -0.8298483657 0.5545212701
24200154800.0 -0.8215270151 0.5650253023
24250154500.0 -0.8131731865 0.5772183136
24300154200.0 -0.805198168 0.5882507412
24350153900.0 -0.7958671928 0.5993609831
24400153600.0 -0.7866583997 0.610084296
24450153300.0 -0.7776166927 0.6210665845
24500153000.0 -0.7681886804 0.6316867393
24550152700.0 -0.7591280751 0.6420673548
24600152400.0 -0.7492887469 0.6525371524
24650152100.0 -0.7390938193 0.6622172561
