!Created with skrf (http://scikit-rf.org).
# Hz S RI R 50.0 
!freq ReS11 ImS11
300000.0 -0.9830833653 -0.0927438888
50299700.0 -1.000149703 0.0163779148
100299400.0 -0.9980744663 0.0292457161
150299100.0 -1.002660902 0.0461753941
200298800.0 -0.9995743832 0.059604452
250298500.0 -0.9973454474 0.0728962642
300298200.0 -0.9859806487 0.088731064
350297900.0 -0.9939938121 0.0996372727
400297600.0 -0.9930895323 0.1162482507
450297300.0 -0.9908774403 0.1301420012
500297000.0 -0.9892792279 0.144848358
550296700.0 -0.9839653576 0.1574318793
600296400.0 -1.0170494 0.190584941
650296100.0 -0.9820538594 0.1872506816
700295800.0 -0.9791360997 0.2014011751
750295500.0 -0.9760239027 0.215482803
800295200.0 -0.9724861999 0.229687183
850294900.0 -0.9692883705 0.2434634183
900294600.0 -0.9654101552 0.2573107873
950294300.0 -0.9616024458 0.2709395999
1000294000.0 -0.9575721651 0.2848923726
1050293700.0 -0.9530964415 0.2988258954
1100293400.0 -0.9488699439 0.3131994748
1150293100.0 -0.9452579997 0.3251134284
1200292800.0 -0.9395358905 0.339401267
1250292500.0 -0.9340998268 0.3528818432
1300292200.0 -0.9284892401 0.3659251651
1350291900.0 -0.9228614079 0.3797478266
1400291600.0 -0.9173775091 0.3930241713
1450291300.0 -0.9121606014 0.4053139905
1500291000.0 -0.9059109343 0.4185816756
1550290700.0 -0.8991154404 0.4319285631
1600290400.0 -0.8928954584 0.4447144017
1650290100.0 -0.8865115198 0.4568965216
1700289800.0 -0.8795873688 0.4704750351
1750289500.0 -0.8723804169 0.482767058
1800289200.0 -0.8651548103 0.49560082
1850288900.0 -0.8581641458 0.5067030103
1900288600.0 -0.8504129568 0.5198772561
1950288300.0 -0.842426289 0.532445242
2000288000.0 -0.8348836678 0.5440184342
2050287700.0 -0.8267141052 0.5561976597
2100287400.0 -0.8185399201 0.5680493812
2150287100.0 -0.810026191 0.5799207397
2200286800.0 -0.802093577 0.5904417174
2250286500.0 -0.7932655286 0.6024574556
2300286200.0 -0.7845093804 0.6139892914
2350285900.0 -0.7755356688 0.6249220279
2400285600.0 -0.7666040175 0.6357808475
2450285300.0 -0.7579101026 0.6464970082
2500285000.0 -0.7481949167 0.6577262381
2550284700.0 -0.7392549288 0.6680081573
2600284400.0 -0.7294973844 0.6782103072
2650284100.0 -0.720771197 0.6888675118
2700283800.0 -0.7101318612 0.6993889679
2750283500.0 -0.6996374287 0.7095217785
2800283200.0 -0.6900852429 0.7195674861
2850282900.0 -0.6798989213 0.7295143775
2900282600.0 -0.6696195176 0.7387785588
2950282300.0 -0.6595454496 0.7481411365
3000282000.0 -0.6485309943 0.7573754526
3050281700.0 -0.6375837793 0.7667017603
3100281400.0 -0.6257151741 0.7759240974
3150281100.0 -0.6140458524 0.7854962416
3200280800.0 -0.6024940221 0.7938982844
3250280500.0 -0.5916397567 0.8014711044
3300280200.0 -0.5804651374 0.8094254221
3350279900.0 -0.5689250268 0.8169230709
3400279600.0 -0.5568939607 0.8246870917
3450279300.0 -0.5457620099 0.8318284622
3500279000.0 -0.5338922631 0.8390479587
3550278700.0 -0.5215210091 0.8461886012
3600278400.0 -0.5090819864 0.8532874515
3650278100.0 -0.4958046804 0.8609573713
3700277800.0 -0.4839799459 0.8676642467
3750277500.0 -0.4716787194 0.8738617641
3800277200.0 -0.4590528135 0.8806246713
3850276900.0 -0.4468455033 0.886382955
3900276600.0 -0.4359884815 0.8921523011
3950276300.0 -0.4232817776 0.8983043873
4000276000.0 -0.4111734994 0.9043763092
4050275700.0 -0.3982282576 0.9103871954
4100275400.0 -0.3865804693 0.9155800086
4150275100.0 -0.3740058615 0.9213205209
4200274800.0 -0.3609758142 0.9267700437
4250274500.0 -0.3485174219 0.9320731975
4300274200.0 -0.3357314434 0.9371543393
4350273900.0 -0.3217596355 0.9424855083
4400273600.0 -0.3070300164 0.9473436405
4450273300.0 -0.2915945154 0.952463149
4500273000.0 -0.2781361422 0.95682384
4550272700.0 -0.2641783604 0.961220833
4600272400.0 -0.2485109316 0.9652310215
4650272100.0 -0.2367995435 0.9683683186
4700271800.0 -0.2235295572 0.9719240516
4750271500.0 -0.2116748146 0.974773745
4800271200.0 -0.1991052028 0.9772941795
4850270900.0 -0.1853696713 0.9803541146
4900270600.0 -0.1714502979 0.9825841617
4950270300.0 -0.1574397359 0.9851892516
5000270000.0 -0.1431893097 0.9870794123
5050269700.0 -0.1297830656 0.9888911298
5100269400.0 -0.1163350483 0.9906275796
5150269100.0 -0.1029764632 0.9922040853
5200268800.0 -0.0897173584 0.9932260522
5250268500.0 -0.076817219 0.9941411731
5300268200.0 -0.0636319573 0.9947324985
5350267900.0 -0.0512097655 0.995511978
5400267600.0 -0.0352395603 0.9965199236
5450267300.0 -0.0221445417 0.9967758789
5500267000.0 -0.0072637071 0.9970712077
5550266700.0 0.0076534806 0.9972724248
5600266400.0 0.0233008192 0.9973185134
5650266100.0 0.0395464341 0.9969038204
5700265800.0 0.0541560734 0.9959252454
5750265500.0 0.0694713343 0.9954489504
5800265200.0 0.0835241772 0.9944141014
5850264900.0 0.0967159165 0.9935512246
5900264600.0 0.1129826347 0.9914149347
5950264300.0 0.1255900703 0.9896518613
6000264000.0 0.1397056337 0.987994655
6050263700.0 0.1524842442 0.9866230678
6100263400.0 0.1644757305 0.984281485
6150263100.0 0.1792978976 0.9820829311
6200262800.0 0.1897795629 0.9803069015
6250262500.0 0.2025491766 0.9776914483
6300262200.0 0.2153963205 0.9749307556
6350261900.0 0.2286001047 0.9720533136
6400261600.0 0.242337021 0.968650023
6450261300.0 0.253831901 0.9658215565
6500261000.0 0.2665162269 0.962552292
6550260700.0 0.2795116046 0.9582784968
6600260400.0 0.2928032851 0.954169777
6650260100.0 0.3069751342 0.9501055527
6700259800.0 0.3187942567 0.9458674055
6750259500.0 0.3325028968 0.9410638958
6800259200.0 0.3453771349 0.9358759153
6850258900.0 0.3573819476 0.9308622036
6900258600.0 0.3695960392 0.9259171202
6950258300.0 0.3820449411 0.9206444993
7000258000.0 0.3940643196 0.9153298827
7050257700.0 0.4064791243 0.9092302259
7100257400.0 0.4191421371 0.9029659402
7150257100.0 0.4296376618 0.8979214171
7200256800.0 0.4420120034 0.8915120093
7250256500.0 0.4539985584 0.8853861576
7300256200.0 0.4670084219 0.8785212506
7350255900.0 0.4789913268 0.8712232909
7400255600.0 0.4923193286 0.8645885058
7450255300.0 0.5075359971 0.8555329112
7500255000.0 0.51905054 0.8485159734
7550254700.0 0.5321631875 0.8400077877
7600254400.0 0.545674794 0.8318184469
7650254100.0 0.5568841923 0.8238995248
7700253800.0 0.5688115921 0.815728902
7750253500.0 0.5800252448 0.8079765184
7800253200.0 0.5911681789 0.7999603212
7850252900.0 0.6006780711 0.7929940969
7900252600.0 0.6124183062 0.7842446115
7950252300.0 0.6214020469 0.7772784901
8000252000.0 0.6315671954 0.7693071439
8050251700.0 0.6423213308 0.7610882413
8100251400.0 0.652274924 0.7529091689
8150251100.0 0.6622129073 0.7442282758
8200250800.0 0.6719656925 0.7361215355
8250250500.0 0.6806420964 0.728133367
8300250200.0 0.6905972707 0.719318175
8350249900.0 0.6990469901 0.7107664769
8400249600.0 0.7076470003 0.7025022432
8450249300.0 0.7169051815 0.6932713719
8500249000.0 0.7254301913 0.6844146704
8550248700.0 0.7337090229 0.6754830006
8600248400.0 0.7422093073 0.6661070082
8650248100.0 0.749827094 0.6566421122
8700247800.0 0.7593396143 0.6454345757
8750247500.0 0.7677704936 0.6355154104
8800247200.0 0.775815026 0.62531872
8850246900.0 0.7843644368 0.6140374781
8900246600.0 0.7929449807 0.6027150896
8950246300.0 0.8024903212 0.5897249494
9000246000.0 0.8113801957 0.5774770014
9050245700.0 0.8206136491 0.564412777
9100245400.0 0.8291385752 0.5520177534
9150245100.0 0.8380697215 0.5385675467
9200244800.0 0.8477842746 0.5236836185
9250244500.0 0.8570415478 0.508134582
9300244200.0 0.8653179041 0.4937780374
9350243900.0 0.8730186822 0.4797245513
9400243600.0 0.8799641969 0.4671819918
9450243300.0 0.8859862106 0.4551735561
9500243000.0 0.8922268799 0.4424830164
9550242700.0 0.8964153678 0.4343568325
9600242400.0 0.900242653 0.4265442335
9650242100.0 0.9042206578 0.4197347777
9700241800.0 0.9087135481 0.4110716043
9750241500.0 0.9126998352 0.403299374
9800241200.0 0.9168981585 0.3941454501
9850240900.0 0.9225379777 0.3823389638
9900240600.0 0.9281309293 0.3711500273
9950240300.0 0.934645162 0.3550163227
10000240000.0 0.9392505285 0.3431683469
10050239700.0 0.9448327253 0.3280815008
10100239400.0 0.9498304469 0.3127150191
10150239100.0 0.9542903081 0.2984598193
10200238800.0 0.9583792286 0.283228709
10250238500.0 0.9618086468 0.269868732
10300238200.0 0.9648491009 0.2559788954
10350237900.0 0.967567617 0.24323428
10400237600.0 0.9700919156 0.230256449
10450237300.0 0.9727959465 0.2167929503
10500237000.0 0.9751058469 0.2041330722
10550236700.0 0.9772686866 0.1903419194
10600236400.0 0.979474078 0.1775377828
10650236100.0 0.9815347999 0.1630730033
10700235800.0 0.9838392822 0.1506596545
10750235500.0 0.985893835 0.1374710039
10800235200.0 0.9884096475 0.1232286563
10850234900.0 0.9897175344 0.1091895835
10900234600.0 0.9916783381 0.0946053226
10950234300.0 0.993545655 0.0813116209
11000234000.0 0.995228497 0.0662800969
11050233700.0 0.9968964628 0.0501844393
11100233400.0 0.9984020614 0.0330609452
11150233100.0 0.9989588388 0.0170170627
11200232800.0 0.9999300133 0.0014290939
11250232500.0 1.000581851 -0.0154286322
11300232200.0 1.001144109 -0.0326193707
11350231900.0 1.001180223 -0.0482119207
11400231600.0 1.001039354 -0.064311612
11450231300.0 0.9998129667 -0.0787689386
11500231000.0 0.9992265696 -0.0965646534
11550230700.0 0.9980876155 -0.1102163269
11600230400.0 0.9960362687 -0.1226234574
11650230100.0 0.994013741 -0.1343534136
11700229800.0 0.9918083967 -0.1491154264
11750229500.0 0.9896423901 -0.1639596384
11800229200.0 0.9869632099 -0.1779809015
11850228900.0 0.9834665869 -0.1906482235
11900228600.0 0.9799631136 -0.2007491823
11950228300.0 0.9768361067 -0.2115114402
12000228000.0 0.9739927471 -0.2207271009
12050227700.0 0.970459822 -0.2333927074
12100227400.0 0.9668921525 -0.2446925577
12150227100.0 0.9625513888 -0.2608068966
12200226800.0 0.9588518009 -0.2708436322
12250226500.0 0.9552553951 -0.2836655359
12300226200.0 0.9508869716 -0.29703319
12350225900.0 0.945761982 -0.3109441262
12400225600.0 0.9409513175 -0.3230501236
12450225300.0 0.9369006686 -0.3355694161
12500225000.0 0.9320755236 -0.3499857995
12550224700.0 0.9265777239 -0.3632480056
12600224400.0 0.9219268006 -0.3759036961
12650224100.0 0.9162407473 -0.390065808
12700223800.0 0.9108119019 -0.4027031914
12750223500.0 0.9053573794 -0.4154437383
12800223200.0 0.8999559077 -0.4281097841
12850222900.0 0.8945728144 -0.4404064488
12900222600.0 0.8889407441 -0.4521513457
12950222300.0 0.8822961775 -0.4651676023
13000222000.0 0.8765883492 -0.4767599436
13050221700.0 0.8694188983 -0.4896867291
13100221400.0 0.8628356678 -0.5016361409
13150221100.0 0.8559309946 -0.513403436
13200220800.0 0.8486190997 -0.5257540963
13250220500.0 0.8412741576 -0.5380058102
13300220200.0 0.8337187596 -0.549087407
13350219900.0 0.8255397389 -0.5611554352
13400219600.0 0.8170601122 -0.5734512834
13450219300.0 0.8077134448 -0.5871404699
13500219000.0 0.7976589595 -0.6009020819
13550218700.0 0.7869103368 -0.613981461
13600218400.0 0.7769116997 -0.6255788591
13650218100.0 0.7676194189 -0.6375148944
13700217800.0 0.7557984759 -0.6503031676
13750217500.0 0.7461734149 -0.6613016757
13800217200.0 0.7343122719 -0.6730503351
13850216900.0 0.723626539 -0.6842373657
13900216600.0 0.7146656894 -0.6936352676
13950216300.0 0.7028305031 -0.703652361
14000216000.0 0.6937007582 -0.7124010034
14050215700.0 0.6837687791 -0.720919697
14100215400.0 0.6739317094 -0.7297630097
14150215100.0 0.6651095567 -0.738472308
14200214800.0 0.6558251571 -0.7466963095
14250214500.0 0.6457518588 -0.7557082588
14300214200.0 0.6352949939 -0.7650274198
14350213900.0 0.6243270921 -0.7743716991
14400213600.0 0.6127532297 -0.7839679233
14450213300.0 0.6001671089 -0.7936283134
14500213000.0 0.5870723092 -0.8035928038
14550212700.0 0.5746141376 -0.8127918246
14600212400.0 0.5622771938 -0.8217240067
14650212100.0 0.5488867387 -0.8308069164
14700211800.0 0.5350644431 -0.8398969769
14750211500.0 0.5229605423 -0.847964431
14800211200.0 0.5106365864 -0.8561536109
14850210900.0 0.4984621523 -0.8633179922
14900210600.0 0.4850579576 -0.8713069721
14950210300.0 0.471585396 -0.8790932062
15000210000.0 0.4584899151 -0.8860566347
15050209700.0 0.4461604365 -0.8922998147
15100209400.0 0.4328865291 -0.8982626167
15150209100.0 0.4204552025 -0.9038364105
15200208800.0 0.4069785028 -0.9090852654
15250208500.0 0.39560673 -0.9144897125
15300208200.0 0.3834274649 -0.9187453493
15350207900.0 0.3700131213 -0.9227318364
15400207600.0 0.3554171344 -0.9287840066
15450207300.0 0.3415939477 -0.9341247252
15500207000.0 0.3264429006 -0.9391841666
15550206700.0 0.3110127485 -0.9434432131
15600206400.0 0.2956686686 -0.9480827397
15650206100.0 0.2795896707 -0.9523510613
15700205800.0 0.2655990513 -0.9562232173
15750205500.0 0.2513548754 -0.9597511708
15800205200.0 0.2369336915 -0.9630476784
15850204900.0 0.2227238381 -0.9664468618
15900204600.0 0.2077735084 -0.9698253787
15950204300.0 0.1939386174 -0.9727463691
16000204000.0 0.1799823161 -0.9755174295
16050203700.0 0.1658851455 -0.9781805295
16100203400.0 0.1512716848 -0.9801617734
16150203100.0 0.136852598 -0.9827524381
16200202800.0 0.1226515836 -0.9844630645
16250202500.0 0.1084441869 -0.9868032532
16300202200.0 0.0931829615 -0.9880661359
16350201900.0 0.0785382323 -0.9892302096
16400201600.0 0.0640608713 -0.9900592316
16450201300.0 0.048947456 -0.9911794278
16500201000.0 0.0324611276 -0.991992604
16550200700.0 0.0167655093 -0.9925056414
16600200400.0 0.0011038714 -0.9926259923
16650200100.0 -0.0153274915 -0.9927305215
16700199800.0 -0.0315800422 -0.9925500833
16750199500.0 -0.0510560869 -0.9917550411
16800199200.0 -0.0666137515 -0.9899832859
16850198900.0 -0.082376421 -0.9894195058
16900198600.0 -0.095659738 -0.9884577346
16950198300.0 -0.1095576998 -0.9876292357
17000198000.0 -0.1228281731 -0.9860321695
17050197700.0 -0.1361868774 -0.9836625196
17100197400.0 -0.1490168736 -0.9821311919
17150197100.0 -0.1613648674 -0.9798625623
17200196800.0 -0.1745087497 -0.977500801
17250196500.0 -0.1874704617 -0.9748815426
17300196200.0 -0.2002038986 -0.9725981728
17350195900.0 -0.2117824158 -0.9705403709
17400195600.0 -0.2242195425 -0.9678383029
17450195300.0 -0.2373057835 -0.965033841
17500195000.0 -0.2506139818 -0.9614724407
17550194700.0 -0.2645202949 -0.9581642145
17600194400.0 -0.2784352247 -0.9541214149
17650194100.0 -0.2921755777 -0.9498996112
17700193800.0 -0.3052297048 -0.9461467592
17750193500.0 -0.3194835966 -0.9412429688
17800193200.0 -0.3336085301 -0.9355957333
17850192900.0 -0.3484220943 -0.9307310813
17900192600.0 -0.3632271973 -0.9246323317
17950192300.0 -0.3786589449 -0.9177814688
18000192000.0 -0.3930946365 -0.9105730597
18050191700.0 -0.4070295185 -0.9026347826
18100191400.0 -0.4210490325 -0.8951187535
18150191100.0 -0.4358637563 -0.8871696013
18200190800.0 -0.452579687 -0.878058884
18250190500.0 -0.4693414988 -0.8684797299
18300190200.0 -0.4844391551 -0.8599506846
18350189900.0 -0.4997922136 -0.8516950166
18400189600.0 -0.5137290669 -0.8434112824
18450189300.0 -0.5271602725 -0.835218771
18500189000.0 -0.5409061072 -0.8271743748
18550188700.0 -0.5529237956 -0.8195350643
18600188400.0 -0.5651710822 -0.8125787783
18650188100.0 -0.5763977717 -0.8056375205
18700187800.0 -0.5875292647 -0.7989523095
18750187500.0 -0.5984556424 -0.7919885006
18800187200.0 -0.6092074182 -0.7847820129
18850186900.0 -0.6196919918 -0.7775590652
18900186600.0 -0.6301917529 -0.7699196229
18950186300.0 -0.6402767865 -0.7617458935
19000186000.0 -0.6480182818 -0.7556157472
19050185700.0 -0.6571990944 -0.7478370953
19100185400.0 -0.6673961383 -0.7392251331
19150185100.0 -0.6774447052 -0.7303355975
19200184800.0 -0.6877012143 -0.7221710924
19250184500.0 -0.6975510948 -0.7129933422
19300184200.0 -0.7092177474 -0.7034326245
19350183900.0 -0.7194789954 -0.6931862638
19400183600.0 -0.72933967 -0.6840219467
19450183300.0 -0.7387743502 -0.673658754
19500183000.0 -0.7464417968 -0.6636469528
19550182700.0 -0.7560053804 -0.6528766367
19600182400.0 -0.7664939925 -0.6414741003
19650182100.0 -0.7766591423 -0.6292188265
19700181800.0 -0.7869860465 -0.6163903253
19750181500.0 -0.7974154006 -0.6024178901
19800181200.0 -0.807448356 -0.5877611331
19850180900.0 -0.8168581846 -0.5730839655
19900180600.0 -0.8247174936 -0.5590507105
19950180300.0 -0.8335455162 -0.5426314243
20000180000.0 -0.8293347463 -0.5437106691
20050179700.0 -0.8361164944 -0.5306278336
20100179400.0 -0.8447457671 -0.5178227045
20150179100.0 -0.8523573054 -0.5048909709
20200178800.0 -0.8603753789 -0.4924455684
20250178500.0 -0.870123005 -0.4791017373
20300178200.0 -0.8793265751 -0.4641467936
20350177900.0 -0.8879018412 -0.4501523804
20400177600.0 -0.8970001334 -0.4354912185
20450177300.0 -0.9048420739 -0.4210405151
20500177000.0 -0.9126419327 -0.407175671
20550176700.0 -0.9208125715 -0.3936170834
20600176400.0 -0.9275659551 -0.3799553947
20650176100.0 -0.9344731251 -0.3677318165
20700175800.0 -0.9405745469 -0.3554811721
20750175500.0 -0.9468830268 -0.3437949241
20800175200.0 -0.9520133327 -0.3327051771
20850174900.0 -0.9565443088 -0.3208145216
20900174600.0 -0.9618672226 -0.3089811902
20950174300.0 -0.9660021687 -0.2972179536
21000174000.0 -0.9691039699 -0.2854235192
21050173700.0 -0.9722784908 -0.2742676771
21100173400.0 -0.976193992 -0.2625605019
21150173100.0 -0.9809091847 -0.2491226277
21200172800.0 -0.9843247296 -0.2357079319
21250172500.0 -0.9869985415 -0.221722191
21300172200.0 -0.9902233761 -0.207316307
21350171900.0 -0.9916463072 -0.1931203839
21400171600.0 -0.9931800149 -0.1786456051
21450171300.0 -0.9933540331 -0.1637370378
21500171000.0 -0.9936165843 -0.148881828
21550170700.0 -0.9935880826 -0.1339061458
21600170400.0 -0.9930626485 -0.1182289263
21650170100.0 -0.9928393837 -0.102437316
21700169800.0 -0.9908912325 -0.0882784567
21750169500.0 -0.9901705437 -0.0715452057
21800169200.0 -0.9881198797 -0.0557577064
21850168900.0 -0.9876358279 -0.0401140377
21900168600.0 -0.9862576473 -0.0236552697
21950168300.0 -0.9846159612 -0.0080486998
22000168000.0 -0.9833590399 0.0065332905
22050167700.0 -0.9830587395 0.0202654311
22100167400.0 -0.9826060189 0.035539264
22150167100.0 -0.9832230629 0.0511511646
22200166800.0 -0.9834842368 0.0666696021
22250166500.0 -0.9828151855 0.0847523547
22300166200.0 -0.9823820737 0.1006388431
22350165900.0 -0.979757235 0.1173051708
22400165600.0 -0.979163539 0.1320510702
22450165300.0 -0.9765112134 0.1468582707
22500165000.0 -0.9752646318 0.1605472185
22550164700.0 -0.9734959186 0.1760234696
22600164400.0 -0.9722803484 0.1917887461
22650164100.0 -0.9696524103 0.2066184777
22700163800.0 -0.9675601053 0.2226361006
22750163500.0 -0.9651004491 0.2383713163
22800163200.0 -0.9617068986 0.2513882397
22850162900.0 -0.9588310106 0.2646039569
22900162600.0 -0.9578939041 0.2782946774
22950162300.0 -0.956871858 0.2910529004
23000162000.0 -0.9551449234 0.3026055847
23050161700.0 -0.9532424462 0.3155763667
23100161400.0 -0.9518637789 0.3283956454
23150161100.0 -0.9489959261 0.3406784093
23200160800.0 -0.9450740934 0.3527966909
23250160500.0 -0.9424296865 0.3650642241
23300160200.0 -0.9398106967 0.3763293063
23350159900.0 -0.9368712084 0.3892361013
23400159600.0 -0.9316968875 0.4021008056
23450159300.0 -0.9269893866 0.4154650349
23500159000.0 -0.9224156428 0.4281702764
23550158700.0 -0.9178073099 0.4411747642
23600158400.0 -0.9124515585 0.4541088362
23650158100.0 -0.9061480196 0.467958279
23700157800.0 -0.8986416129 0.4813680113
23750157500.0 -0.8899335961 0.4949027851
23800157200.0 -0.8814244089 0.5079274537
23850156900.0 -0.8727496912 0.5208827354
23900156600.0 -0.8635036124 0.5327714019
23950156300.0 -0.8539084065 0.5459221153
24000156000.0 -0.8449831672 0.5571308373
24050155700.0 -0.835465194 0.5689381264
24100155400.0 -0.8248490726 0.5814588979
24150155100.0 -0.814191911 0.5933516567
24200154800.0 -0.8032232264 0.6043732005
24250154500.0 -0.7915076784 0.615710752
24300154200.0 -0.7809238637 0.6278447358
24350153900.0 -0.7689763732 0.6387314252
24400153600.0 -0.7568605344 0.6491509506
24450153300.0 -0.7452241174 0.6589208381
24500153000.0 -0.7337476883 0.6687983211
24550152700.0 -0.7225455486 0.6794124564
24600152400.0 -0.7112195628 0.6885336013
24650152100.0 -0.6996409961 0.697399447
