!Created with skrf (http://scikit-rf.org).
# Hz S RI R 50.0 
!freq ReS11 ImS11
300000.0 -0.9744842112 -0.1215483814
50299700.0 -0.9998943337 0.015338366
100299400.0 -0.9981283564 0.0279419914
150299100.0 -1.002919917 0.0452265525
200298800.0 -0.9996638879 0.058325142
250298500.0 -0.997538653 0.0719663089
300298200.0 -0.9859827023 0.0876168152
350297900.0 -0.994058251 0.09858456
400297600.0 -0.9932321534 0.1151599547
450297300.0 -0.9909660914 0.1290079407
500297000.0 -0.9894569519 0.1436904924
550296700.0 -0.9843744468 0.1560915316
600296400.0 -1.017372792 0.1893781931
650296100.0 -0.9824354832 0.1861122969
700295800.0 -0.9793009415 0.2000708139
750295500.0 -0.9763834953 0.2141255036
800295200.0 -0.9729723903 0.2282932182
850294900.0 -0.9697272109 0.2420554699
900294600.0 -0.9656845538 0.2558055738
950294300.0 -0.9622810517 0.2695846976
1000294000.0 -0.9581167865 0.2836030853
1050293700.0 -0.953749009 0.2973041363
1100293400.0 -0.9495036885 0.3117603972
1150293100.0 -0.945660813 0.323667694
1200292800.0 -0.9402377873 0.3381019788
1250292500.0 -0.9346472277 0.3513952471
1300292200.0 -0.9290782072 0.3647272591
1350291900.0 -0.9235676082 0.3787912784
1400291600.0 -0.9179245469 0.3918617883
1450291300.0 -0.9124218825 0.4041988894
1500291000.0 -0.9062463455 0.4175258176
1550290700.0 -0.8997370947 0.4311202614
1600290400.0 -0.8933808465 0.4436862325
1650290100.0 -0.8868206042 0.4560599266
1700289800.0 -0.8798666226 0.4695023814
1750289500.0 -0.8730348083 0.4819057339
1800289200.0 -0.8655622074 0.4945909246
1850288900.0 -0.858749076 0.5060063137
1900288600.0 -0.8511328217 0.5189641047
1950288300.0 -0.8430671305 0.5316188852
2000288000.0 -0.835341981 0.5431133212
2050287700.0 -0.8272552104 0.555142419
2100287400.0 -0.8193802307 0.5669197598
2150287100.0 -0.8107265842 0.5789745333
2200286800.0 -0.8028233666 0.5892821386
2250286500.0 -0.7942102505 0.6012622527
2300286200.0 -0.7852718499 0.6129275755
2350285900.0 -0.7766572963 0.6239367162
2400285600.0 -0.7675658336 0.6348446028
2450285300.0 -0.7593013797 0.6453063167
2500285000.0 -0.7491760025 0.6565291102
2550284700.0 -0.7403583893 0.6668237246
2600284400.0 -0.7312172834 0.677037625
2650284100.0 -0.722237299 0.6875188543
2700283800.0 -0.7113881844 0.6981730978
2750283500.0 -0.7010915817 0.7087541224
2800283200.0 -0.6912970545 0.7183693
2850282900.0 -0.6812513002 0.7283188018
2900282600.0 -0.6710327215 0.7378891533
2950282300.0 -0.6605624237 0.74713025
3000282000.0 -0.64990795 0.7567941974
3050281700.0 -0.6386709204 0.7658534976
3100281400.0 -0.6268479608 0.7752459619
3150281100.0 -0.6149418552 0.7844419182
3200280800.0 -0.6033873057 0.7930998791
3250280500.0 -0.592505836 0.8009034313
3300280200.0 -0.5813069122 0.8086574925
3350279900.0 -0.5697366205 0.8162845532
3400279600.0 -0.5575029827 0.8240982937
3450279300.0 -0.5462602925 0.8311203208
3500279000.0 -0.5344374949 0.8383235578
3550278700.0 -0.5220192261 0.8453687789
3600278400.0 -0.5099208879 0.8526189159
3650278100.0 -0.4965044545 0.8602584882
3700277800.0 -0.4844018381 0.8666516869
3750277500.0 -0.4723087272 0.8731637737
3800277200.0 -0.4599206656 0.8798734494
3850276900.0 -0.4477290134 0.8856809328
3900276600.0 -0.4369725594 0.8915451013
3950276300.0 -0.424720116 0.8973751179
4000276000.0 -0.4124975815 0.9034391176
4050275700.0 -0.399731659 0.9094636567
4100275400.0 -0.3884546755 0.9150655159
4150275100.0 -0.375748961 0.9204573305
4200274800.0 -0.3628805014 0.9262392178
4250274500.0 -0.3505145583 0.9310741676
4300274200.0 -0.3376959211 0.936893266
4350273900.0 -0.323879382 0.9417972245
4400273600.0 -0.3089444879 0.9471015327
4450273300.0 -0.2936830142 0.9522803908
4500273000.0 -0.2801411851 0.9566115724
4550272700.0 -0.2660500345 0.9608600232
4600272400.0 -0.2505001807 0.9650226816
4650272100.0 -0.2388348068 0.96817532
4700271800.0 -0.2255943519 0.9715107453
4750271500.0 -0.2139116529 0.9744551258
4800271200.0 -0.2014737468 0.977106849
4850270900.0 -0.1874645314 0.9799231423
4900270600.0 -0.1736932686 0.9822908991
4950270300.0 -0.1593177389 0.9848722024
5000270000.0 -0.1450871654 0.9868298917
5050269700.0 -0.1315860602 0.9886151097
5100269400.0 -0.1179655277 0.9899267074
5150269100.0 -0.1045423902 0.992165989
5200268800.0 -0.0911272548 0.9928262001
5250268500.0 -0.0782047941 0.9937635287
5300268200.0 -0.0649265493 0.9945533544
5350267900.0 -0.052568984 0.9951520468
5400267600.0 -0.0365897742 0.9965902023
5450267300.0 -0.0232165096 0.9966371924
5500267000.0 -0.0080507528 0.9970959694
5550266700.0 0.0068557828 0.9972529329
5600266400.0 0.0223785697 0.9972108468
5650266100.0 0.0388522727 0.9970442678
5700265800.0 0.0533379132 0.9961458733
5750265500.0 0.0684192991 0.9953860111
5800265200.0 0.0822481629 0.9947221651
5850264900.0 0.0954318794 0.9931413576
5900264600.0 0.1121603765 0.9916524245
5950264300.0 0.1242422905 0.9902091491
6000264000.0 0.1379304553 0.9878428294
6050263700.0 0.1505985479 0.9872031562
6100263400.0 0.1629092607 0.9851932174
6150263100.0 0.1772812749 0.9828482527
6200262800.0 0.1878999208 0.9808976421
6250262500.0 0.2004586922 0.9786259374
6300262200.0 0.2131263231 0.9761644847
6350261900.0 0.226142924 0.9730148787
6400261600.0 0.2402356384 0.9696063099
6450261300.0 0.2516055168 0.9670661768
6500261000.0 0.2643367974 0.9632946304
6550260700.0 0.277149061 0.9594367789
6600260400.0 0.2909431366 0.9554607921
6650260100.0 0.3046434302 0.9509363517
6700259800.0 0.3166245859 0.9468090882
6750259500.0 0.3302524606 0.9415718131
6800259200.0 0.3436923042 0.9370321086
6850258900.0 0.355970089 0.9316718022
6900258600.0 0.3678426533 0.9267411853
6950258300.0 0.3803221144 0.921250148
7000258000.0 0.3924050152 0.9159932768
7050257700.0 0.404593022 0.9099548959
7100257400.0 0.4174643184 0.9036363255
7150257100.0 0.4278938062 0.898242964
7200256800.0 0.4407018765 0.8920297872
7250256500.0 0.4525679905 0.88575407
7300256200.0 0.4658268113 0.8787828595
7350255900.0 0.478038484 0.872066695
7400255600.0 0.4912832003 0.865002876
7450255300.0 0.5066050747 0.8554108711
7500255000.0 0.5183906159 0.8488122197
7550254700.0 0.5323021676 0.8399664382
7600254400.0 0.5445370356 0.8315491344
7650254100.0 0.5565521385 0.8242058272
7700253800.0 0.5684563283 0.8160714255
7750253500.0 0.5798183383 0.8083058412
7800253200.0 0.5901406481 0.800688535
7850252900.0 0.5998822834 0.7935555416
7900252600.0 0.611663299 0.7848460402
7950252300.0 0.620347953 0.7783673684
8000252000.0 0.6304083907 0.7707168504
8050251700.0 0.6409899195 0.7625055937
8100251400.0 0.6508389823 0.7546260337
8150251100.0 0.6612465217 0.7457745249
8200250800.0 0.6705261892 0.737848238
8250250500.0 0.6793365103 0.7298058142
8300250200.0 0.6886165244 0.7210839466
8350249900.0 0.6977012617 0.7127013154
8400249600.0 0.7058498587 0.7044133815
8450249300.0 0.7154616694 0.6953283796
8500249000.0 0.7237351838 0.6863599396
8550248700.0 0.7321490598 0.6773639043
8600248400.0 0.7407360159 0.6678311444
8650248100.0 0.7483444574 0.6585339273
8700247800.0 0.7578624795 0.6471900263
8750247500.0 0.7662962963 0.6370650283
8800247200.0 0.7742573487 0.6266944726
8850246900.0 0.7829348768 0.6152308552
8900246600.0 0.7915628726 0.6039561071
8950246300.0 0.8013250303 0.590809763
9000246000.0 0.8104071805 0.578342897
9050245700.0 0.8192768121 0.5654051968
9100245400.0 0.827977844 0.5529430413
9150245100.0 0.8369170714 0.5394044885
9200244800.0 0.8467855 0.5243814334
9250244500.0 0.8561958737 0.5090703003
9300244200.0 0.8645984811 0.4945590181
9350243900.0 0.8723433754 0.4808348265
9400243600.0 0.879094475 0.4685661773
9450243300.0 0.8849705836 0.4569468527
9500243000.0 0.8911218369 0.4448804339
9550242700.0 0.8949316341 0.437244189
9600242400.0 0.8990011075 0.4298965489
9650242100.0 0.9026311969 0.4234437917
9700241800.0 0.9074350884 0.4152290957
9750241500.0 0.911396915 0.4077593949
9800241200.0 0.916119547 0.3983613728
9850240900.0 0.9218307809 0.3864213196
9900240600.0 0.9270739618 0.3754683383
9950240300.0 0.9342249568 0.3588821546
10000240000.0 0.9387589789 0.3472267207
10050239700.0 0.9442195065 0.3321102284
10100239400.0 0.9496121351 0.3165030064
10150239100.0 0.9538196909 0.3015377296
10200238800.0 0.9579709608 0.2866968782
10250238500.0 0.961296276 0.2732001592
10300238200.0 0.964505931 0.2591393965
10350237900.0 0.9670907124 0.2461371618
10400237600.0 0.9697621544 0.2328974293
10450237300.0 0.9723608768 0.2194315855
10500237000.0 0.9747212533 0.2067711079
10550236700.0 0.9771177669 0.1926239758
10600236400.0 0.9794873801 0.1788409862
10650236100.0 0.9808569327 0.1650136474
10700235800.0 0.9834577005 0.1517901199
10750235500.0 0.9858089566 0.1386476453
10800235200.0 0.9876915911 0.1244105817
10850234900.0 0.9897076665 0.1098930518
10900234600.0 0.9919491188 0.095243732
10950234300.0 0.9934329447 0.0820721815
11000234000.0 0.9951755131 0.0669454314
11050233700.0 0.9968474088 0.0507147956
11100233400.0 0.9984501522 0.0331387202
11150233100.0 0.9995296441 0.0169325284
11200232800.0 1.000032379 0.0019160993
11250232500.0 1.001426018 -0.0148906378
11300232200.0 1.001617457 -0.032763614
11350231900.0 1.001717501 -0.0487533712
11400231600.0 1.001290966 -0.0634435532
11450231300.0 1.001146183 -0.0803311283
11500231000.0 0.9999329017 -0.0954615119
11550230700.0 0.9985657926 -0.109246361
11600230400.0 0.9973245088 -0.1217227467
11650230100.0 0.9948386975 -0.1328415802
11700229800.0 0.9928889577 -0.1471720126
11750229500.0 0.9908251379 -0.1618215211
11800229200.0 0.9883298364 -0.175756311
11850228900.0 0.9847876064 -0.1881108356
11900228600.0 0.981193493 -0.1977384826
11950228300.0 0.9778045342 -0.2083567238
12000228000.0 0.9747154941 -0.2172894489
12050227700.0 0.9711265117 -0.2300837052
12100227400.0 0.9679931964 -0.2414742046
12150227100.0 0.9632221614 -0.257726382
12200226800.0 0.9596675512 -0.2686128194
12250226500.0 0.9564857946 -0.2809349026
12300226200.0 0.9522248357 -0.2936459562
12350225900.0 0.9466029937 -0.3080909859
12400225600.0 0.9423862169 -0.3205006208
12450225300.0 0.9379801453 -0.3337218478
12500225000.0 0.9325691891 -0.3476519002
12550224700.0 0.9269851144 -0.3622955997
12600224400.0 0.9221117447 -0.3749377962
12650224100.0 0.9163411535 -0.3892303931
12700223800.0 0.9110426923 -0.4021686311
12750223500.0 0.9053430919 -0.4152912091
12800223200.0 0.9003950066 -0.4277150667
12850222900.0 0.8948716188 -0.4400651319
12900222600.0 0.889252272 -0.4518602914
12950222300.0 0.8824897786 -0.4650969801
13000222000.0 0.8769531122 -0.47630166
13050221700.0 0.8703790037 -0.4890521677
13100221400.0 0.8633217863 -0.5010374354
13150221100.0 0.8566670295 -0.5133194098
13200220800.0 0.8496317059 -0.5246860642
13250220500.0 0.8425272254 -0.5367146232
13300220200.0 0.8352889873 -0.5475587172
13350219900.0 0.827085441 -0.5594713457
13400219600.0 0.8187793545 -0.5715111701
13450219300.0 0.8094385878 -0.5850638382
13500219000.0 0.7993406773 -0.5987612155
13550218700.0 0.789499406 -0.611432227
13600218400.0 0.7792667087 -0.623435641
13650218100.0 0.7690092932 -0.6348816191
13700217800.0 0.7583133598 -0.6475666199
13750217500.0 0.7486186014 -0.6576713937
13800217200.0 0.7375281061 -0.6698221388
13850216900.0 0.7261366493 -0.6809011712
13900216600.0 0.7174403946 -0.6900042202
13950216300.0 0.7057797245 -0.7004190076
14000216000.0 0.6955168985 -0.7098854027
14050215700.0 0.6865511852 -0.7182559621
14100215400.0 0.6763199649 -0.727754426
14150215100.0 0.667430968 -0.7360623937
14200214800.0 0.6578870359 -0.7445252735
14250214500.0 0.647662048 -0.7538842354
14300214200.0 0.6373339963 -0.7632693866
14350213900.0 0.6259756018 -0.773062011
14400213600.0 0.6144742648 -0.7825415382
14450213300.0 0.6011376775 -0.7928815599
14500213000.0 0.588052394 -0.802690636
14550212700.0 0.5754176757 -0.8121300155
14600212400.0 0.5631047318 -0.8211297979
14650212100.0 0.5502379746 -0.8299327631
14700211800.0 0.5360927978 -0.8395755952
14750211500.0 0.5239504882 -0.8476346985
14800211200.0 0.5120518525 -0.8556958916
14850210900.0 0.4998004171 -0.8631346846
14900210600.0 0.4865949135 -0.8709747515
14950210300.0 0.4731233103 -0.8786490931
15000210000.0 0.460461526 -0.8854117405
15050209700.0 0.448298913 -0.8911658044
15100209400.0 0.4351560084 -0.8975671451
15150209100.0 0.4232420994 -0.9028997283
15200208800.0 0.4101647883 -0.908735077
15250208500.0 0.3996779757 -0.9130571312
15300208200.0 0.3876332852 -0.9177866608
15350207900.0 0.3733546883 -0.9229690733
15400207600.0 0.3594384204 -0.9275090504
15450207300.0 0.3446438162 -0.9334065499
15500207000.0 0.3298142767 -0.9380098001
15550206700.0 0.3156989101 -0.9426568675
15600206400.0 0.2992535861 -0.946863457
15650206100.0 0.2842820263 -0.9510745001
15700205800.0 0.2699441766 -0.9546553068
15750205500.0 0.2554227329 -0.9587164178
15800205200.0 0.2410483739 -0.9619660297
15850204900.0 0.2265213353 -0.9652122269
15900204600.0 0.2114142655 -0.968979479
15950204300.0 0.1973740581 -0.9720952281
16000204000.0 0.1831238926 -0.9748495585
16050203700.0 0.1679610357 -0.9778974016
16100203400.0 0.1532910854 -0.9795557013
16150203100.0 0.1386316574 -0.9825596783
16200202800.0 0.1250450137 -0.9843327866
16250202500.0 0.1101169043 -0.986086211
16300202200.0 0.0945372598 -0.9872126905
16350201900.0 0.0797059921 -0.9890355031
16400201600.0 0.0651257133 -0.9903647864
16450201300.0 0.0497894324 -0.991276646
16500201000.0 0.0331513312 -0.9921911866
16550200700.0 0.0175338847 -0.9927218157
16600200400.0 0.0019910175 -0.992712732
16650200100.0 -0.0138394329 -0.9926172345
16700199800.0 -0.0306750163 -0.9923125872
16750199500.0 -0.0487722206 -0.9914443262
16800199200.0 -0.0652039633 -0.9907151457
16850198900.0 -0.080412282 -0.9894020258
16900198600.0 -0.0937572015 -0.9885941704
16950198300.0 -0.1083629526 -0.988151372
17000198000.0 -0.120414345 -0.986549456
17050197700.0 -0.1326679245 -0.9842830398
17100197400.0 -0.1457906126 -0.9828655398
17150197100.0 -0.1586619893 -0.9801864268
17200196800.0 -0.1712818185 -0.9782838006
17250196500.0 -0.1843094582 -0.9757722253
17300196200.0 -0.1965411925 -0.9735483146
17350195900.0 -0.2083675156 -0.9714082168
17400195600.0 -0.2204594866 -0.9687459827
17450195300.0 -0.2335371662 -0.9660287797
17500195000.0 -0.2470491587 -0.9626487909
17550194700.0 -0.2611017424 -0.9589822937
17600194400.0 -0.2748837334 -0.9551840294
17650194100.0 -0.2885664238 -0.9505448465
17700193800.0 -0.3019578588 -0.9465135977
17750193500.0 -0.316353806 -0.9424032415
17800193200.0 -0.3303231019 -0.9366189819
17850192900.0 -0.3458502926 -0.9312884888
17900192600.0 -0.3606356055 -0.9255027459
17950192300.0 -0.3766443909 -0.9187241062
18000192000.0 -0.3910865238 -0.9111534934
18050191700.0 -0.4049889358 -0.9033333667
18100191400.0 -0.4193829512 -0.8956267763
18150191100.0 -0.4343092243 -0.8878306356
18200190800.0 -0.4512495803 -0.8786366341
18250190500.0 -0.4682047743 -0.8690084
18300190200.0 -0.4836663655 -0.860094637
18350189900.0 -0.4986357694 -0.8522165018
18400189600.0 -0.5129786203 -0.8438362324
18450189300.0 -0.5263165615 -0.8357549045
18500189000.0 -0.5395496788 -0.8280335077
18550188700.0 -0.5521440571 -0.8205446945
18600188400.0 -0.5642740669 -0.8136752521
18650188100.0 -0.5751459126 -0.8077328599
18700187800.0 -0.5859352122 -0.8008410453
18750187500.0 -0.5965272401 -0.7944641152
18800187200.0 -0.6069748922 -0.7872908639
18850186900.0 -0.6171760038 -0.7801735579
18900186600.0 -0.6272664232 -0.7729891292
18950186300.0 -0.6373783245 -0.7654172519
19000186000.0 -0.6446139099 -0.7591195901
19050185700.0 -0.6536149341 -0.7521375413
19100185400.0 -0.6635330125 -0.7438851956
19150185100.0 -0.6738372408 -0.7353044995
19200184800.0 -0.6830148205 -0.7272481754
19250184500.0 -0.6930263917 -0.7176990996
19300184200.0 -0.7042197216 -0.7078974966
19350183900.0 -0.7159468766 -0.6984987572
19400183600.0 -0.7259313809 -0.6880139567
19450183300.0 -0.7337943591 -0.6781604482
19500183000.0 -0.7425920379 -0.6685351576
19550182700.0 -0.7523155222 -0.6572043287
19600182400.0 -0.7630386287 -0.6458930762
19650182100.0 -0.7737370346 -0.6333845444
19700181800.0 -0.7845088936 -0.6200085588
19750181500.0 -0.7952197927 -0.6058337678
19800181200.0 -0.8055597589 -0.5909455317
19850180900.0 -0.8153409032 -0.5756390575
19900180600.0 -0.8232590485 -0.561084632
19950180300.0 -0.8325848264 -0.5446981937
20000180000.0 -0.8252286937 -0.5467529148
20050179700.0 -0.8332858401 -0.5330955758
20100179400.0 -0.8408706018 -0.5207564184
20150179100.0 -0.8504212945 -0.5084403156
20200178800.0 -0.8590824462 -0.4951410952
20250178500.0 -0.8692040151 -0.481669789
20300178200.0 -0.8783009524 -0.4673513734
20350177900.0 -0.8874284318 -0.4533628004
20400177600.0 -0.8967320999 -0.4387024054
20450177300.0 -0.9044640796 -0.4241103621
20500177000.0 -0.9124182862 -0.4103629421
20550176700.0 -0.9204953498 -0.3967099876
20600176400.0 -0.9272282782 -0.3837337862
20650176100.0 -0.9339069362 -0.371411502
20700175800.0 -0.940862279 -0.35928814
20750175500.0 -0.946756601 -0.3483037258
20800175200.0 -0.952251088 -0.3373168498
20850174900.0 -0.9576237935 -0.3259863985
20900174600.0 -0.9611620699 -0.3143969299
20950174300.0 -0.9642571854 -0.3033193082
21000174000.0 -0.9682209228 -0.2921554196
21050173700.0 -0.9711089214 -0.2815607247
21100173400.0 -0.9754598401 -0.2704263074
21150173100.0 -0.9789445157 -0.2572510712
21200172800.0 -0.9828791124 -0.2436482299
21250172500.0 -0.9856105738 -0.2296792984
21300172200.0 -0.9888692869 -0.2157684493
21350171900.0 -0.9901936913 -0.2013542612
21400171600.0 -0.992223636 -0.1870625832
21450171300.0 -0.9917285041 -0.1726855138
21500171000.0 -0.9923558832 -0.1568687229
21550170700.0 -0.9919701663 -0.1420006596
21600170400.0 -0.9926547379 -0.1265695746
21650170100.0 -0.9916234085 -0.1097822167
21700169800.0 -0.9904163002 -0.0946605073
21750169500.0 -0.9889657653 -0.0796812644
21800169200.0 -0.9887523923 -0.0627052064
21850168900.0 -0.9874190363 -0.0463132935
21900168600.0 -0.9851972281 -0.0297489415
21950168300.0 -0.9842728897 -0.0142803569
22000168000.0 -0.9840621659 0.0007534086
22050167700.0 -0.9843245064 0.0150741812
22100167400.0 -0.9841194837 0.0307400362
22150167100.0 -0.9846562214 0.0461366734
22200166800.0 -0.9856216366 0.0622420551
22250166500.0 -0.9849640877 0.0793951384
22300166200.0 -0.9845162747 0.0961750128
22350165900.0 -0.9822985113 0.1132193252
22400165600.0 -0.9810514485 0.1285082453
22450165300.0 -0.9796081818 0.1432564567
22500165000.0 -0.9776399013 0.1568046344
22550164700.0 -0.9767073302 0.1727516884
22600164400.0 -0.9747032885 0.1875371946
22650164100.0 -0.9720002617 0.2038571362
22700163800.0 -0.9692795446 0.218088158
22750163500.0 -0.9675093378 0.2338219513
22800163200.0 -0.9639640539 0.2471344357
22850162900.0 -0.9620953183 0.2605364418
22900162600.0 -0.9602680009 0.2739421958
22950162300.0 -0.9590870701 0.2867015402
23000162000.0 -0.958006467 0.2985594956
23050161700.0 -0.955778372 0.3111745034
23100161400.0 -0.9537531594 0.3242682597
23150161100.0 -0.9512766067 0.3367450318
23200160800.0 -0.948102704 0.3485388405
23250160500.0 -0.9453266489 0.360854082
23300160200.0 -0.9423750163 0.3736021031
23350159900.0 -0.9386137079 0.3867299521
23400159600.0 -0.9338390131 0.3992057385
23450159300.0 -0.9297142003 0.4127578653
23500159000.0 -0.9244991827 0.425859137
23550158700.0 -0.9202191577 0.4395174783
23600158400.0 -0.9149455191 0.452600814
23650158100.0 -0.9085439128 0.4668127927
23700157800.0 -0.9008832727 0.4805375123
23750157500.0 -0.8923250047 0.4947934264
23800157200.0 -0.8830709612 0.5081258041
23850156900.0 -0.8741106971 0.5209750434
23900156600.0 -0.8655192786 0.5336210827
23950156300.0 -0.8564606606 0.5459489842
24000156000.0 -0.847225697 0.5581585575
24050155700.0 -0.8368557921 0.569606682
24100155400.0 -0.8269675556 0.5808441791
24150155100.0 -0.8160064289 0.5930583734
24200154800.0 -0.805391482 0.6047783424
24250154500.0 -0.793977993 0.6158804231
24300154200.0 -0.7826759129 0.6283270781
24350153900.0 -0.7708436508 0.6388841116
24400153600.0 -0.7590350766 0.6487388512
24450153300.0 -0.7469317621 0.6587054167
24500153000.0 -0.7356590271 0.6684935853
24550152700.0 -0.7248420173 0.6783767007
24600152400.0 -0.7125967481 0.687138453
24650152100.0 -0.7006886163 0.6952220702
