!Created with skrf (http://scikit-rf.org).
# Hz S RI R 50.0 
!freq ReS11 ImS11
300000.0 -0.9773159189 -0.1124095106
50299700.0 -1.000141462 0.0158907322
100299400.0 -0.9979585557 0.0286382031
150299100.0 -1.002864608 0.0456761197
200298800.0 -0.9997435205 0.0588921556
250298500.0 -0.9974829818 0.072276051
300298200.0 -0.9859936534 0.0881279398
350297900.0 -0.9941527127 0.099286187
400297600.0 -0.9931162378 0.1157503734
450297300.0 -0.9911804556 0.1295803695
500297000.0 -0.9895906314 0.1441362038
550296700.0 -0.9843650936 0.1566938722
600296400.0 -1.017328743 0.1900830053
650296100.0 -0.9822436186 0.1866762841
700295800.0 -0.9792400814 0.2010901907
750295500.0 -0.9764673247 0.215126558
800295200.0 -0.9728914439 0.2290416352
850294900.0 -0.9696221303 0.2430967489
900294600.0 -0.9658804277 0.2569861867
950294300.0 -0.9620221676 0.2705659409
1000294000.0 -0.957992401 0.2844708182
1050293700.0 -0.9536063264 0.2982142049
1100293400.0 -0.9491603363 0.3126114592
1150293100.0 -0.9453998438 0.3245998559
1200292800.0 -0.9398146608 0.3387843214
1250292500.0 -0.9344592464 0.3523208477
1300292200.0 -0.9287585213 0.3655698885
1350291900.0 -0.9232388435 0.3794547548
1400291600.0 -0.9178167439 0.3926599385
1450291300.0 -0.9123227643 0.4048376636
1500291000.0 -0.9059340247 0.4182604673
1550290700.0 -0.8995431209 0.4315539037
1600290400.0 -0.8932739753 0.444676821
1650290100.0 -0.8865272039 0.456736876
1700289800.0 -0.8797168367 0.4701237304
1750289500.0 -0.8725015054 0.4823521142
1800289200.0 -0.8653930837 0.4952641621
1850288900.0 -0.8585627152 0.5067345044
1900288600.0 -0.8506419221 0.5194631613
1950288300.0 -0.8426213107 0.5322223807
2000288000.0 -0.8350391879 0.5435351539
2050287700.0 -0.8268797173 0.5559681851
2100287400.0 -0.8187377063 0.5674195395
2150287100.0 -0.8103434286 0.5796731053
2200286800.0 -0.8026940484 0.5901136399
2250286500.0 -0.7939087874 0.6020043034
2300286200.0 -0.7848263754 0.613745109
2350285900.0 -0.7758177885 0.624667632
2400285600.0 -0.767089733 0.6355562546
2450285300.0 -0.7585574672 0.6461258397
2500285000.0 -0.7488475327 0.6574089578
2550284700.0 -0.7396287993 0.6677057617
2600284400.0 -0.7304766719 0.6777442733
2650284100.0 -0.721325725 0.6885151287
2700283800.0 -0.710670336 0.6990168963
2750283500.0 -0.7002728049 0.7093545258
2800283200.0 -0.6904081829 0.7192473178
2850282900.0 -0.6803677563 0.728839928
2900282600.0 -0.6701332228 0.7387644161
2950282300.0 -0.6601147841 0.7480250472
3000282000.0 -0.6492755899 0.757233568
3050281700.0 -0.638117973 0.7665237237
3100281400.0 -0.6261852404 0.7760030386
3150281100.0 -0.6141158957 0.7852412134
3200280800.0 -0.6025920519 0.7937521017
3250280500.0 -0.5918345554 0.8014440655
3300280200.0 -0.5805823144 0.809423878
3350279900.0 -0.5691683914 0.8168314837
3400279600.0 -0.557016822 0.8243808464
3450279300.0 -0.5459931088 0.8316408936
3500279000.0 -0.5337892461 0.8388283438
3550278700.0 -0.5213434239 0.8460963213
3600278400.0 -0.5090849556 0.8532848459
3650278100.0 -0.4957029898 0.8608749966
3700277800.0 -0.4838428959 0.8672251944
3750277500.0 -0.4715373718 0.8738487029
3800277200.0 -0.4586992137 0.8802680246
3850276900.0 -0.4468620482 0.886228097
3900276600.0 -0.4357705294 0.8919873474
3950276300.0 -0.4234775226 0.8978921391
4000276000.0 -0.4113637565 0.9038865401
4050275700.0 -0.3984541352 0.9099211543
4100275400.0 -0.3870978223 0.9155300003
4150275100.0 -0.3747893657 0.9209857623
4200274800.0 -0.3617455857 0.9265499686
4250274500.0 -0.3495159912 0.9317950729
4300274200.0 -0.3365440443 0.9371126076
4350273900.0 -0.3226756606 0.9422019598
4400273600.0 -0.30800867 0.9474226429
4450273300.0 -0.2924693583 0.9527736717
4500273000.0 -0.2787665846 0.9569955414
4550272700.0 -0.2645784256 0.9612855027
4600272400.0 -0.249134959 0.9654125781
4650272100.0 -0.2375095051 0.9685938009
4700271800.0 -0.2240647377 0.9719329062
4750271500.0 -0.2124060207 0.9747637472
4800271200.0 -0.1999391417 0.9775333201
4850270900.0 -0.1859492657 0.980262557
4900270600.0 -0.1720802384 0.9827305946
4950270300.0 -0.1578502423 0.9852439768
5000270000.0 -0.1436107807 0.9872502141
5050269700.0 -0.1300493073 0.9888169468
5100269400.0 -0.116647161 0.9906353772
5150269100.0 -0.1035331992 0.9918523748
5200268800.0 -0.0899161808 0.9931970752
5250268500.0 -0.0769576173 0.9941799566
5300268200.0 -0.0636959786 0.9944883746
5350267900.0 -0.0516662377 0.9951222845
5400267600.0 -0.0356236239 0.996702735
5450267300.0 -0.0223280422 0.9966541911
5500267000.0 -0.0072024958 0.9970692662
5550266700.0 0.007722304 0.9972852736
5600266400.0 0.0233175374 0.9974300183
5650266100.0 0.0398673729 0.9970494644
5700265800.0 0.054340759 0.9960948148
5750265500.0 0.0696241108 0.9952393701
5800265200.0 0.083899918 0.9942213953
5850264900.0 0.0970323121 0.9932891548
5900264600.0 0.1134198519 0.9914252866
5950264300.0 0.1257159251 0.989960437
6000264000.0 0.139480983 0.987927987
6050263700.0 0.1521842874 0.9867792244
6100263400.0 0.1644221326 0.9847543336
6150263100.0 0.1788235503 0.9823768663
6200262800.0 0.1896917818 0.9805215145
6250262500.0 0.2019579212 0.9782029771
6300262200.0 0.2150496821 0.9753887002
6350261900.0 0.2281194627 0.9723652446
6400261600.0 0.2419445871 0.9691732621
6450261300.0 0.2534955378 0.9665898031
6500261000.0 0.2662152337 0.9627727756
6550260700.0 0.2791390273 0.958751626
6600260400.0 0.2922717693 0.9548104374
6650260100.0 0.3062803513 0.9504313549
6700259800.0 0.318242596 0.9462261889
6750259500.0 0.3320767581 0.9410398128
6800259200.0 0.3449914788 0.9360629654
6850258900.0 0.3570902526 0.9309424519
6900258600.0 0.3691765207 0.9258506194
6950258300.0 0.381799803 0.9207979427
7000258000.0 0.3939149069 0.9155522704
7050257700.0 0.4060636197 0.9091846268
7100257400.0 0.4188061433 0.9030410548
7150257100.0 0.429220364 0.8978279229
7200256800.0 0.4418617827 0.8913769149
7250256500.0 0.4538159898 0.885163
7300256200.0 0.4667433376 0.8783522451
7350255900.0 0.4791627085 0.8712687144
7400255600.0 0.492459204 0.8642543964
7450255300.0 0.5078488276 0.8551649709
7500255000.0 0.5192893008 0.847983836
7550254700.0 0.533218666 0.8396284968
7600254400.0 0.5458477138 0.8311690818
7650254100.0 0.5577614221 0.8234175532
7700253800.0 0.5696399569 0.8155248109
7750253500.0 0.5804385685 0.8074043708
7800253200.0 0.5912163196 0.7999687296
7850252900.0 0.6007998836 0.7927485908
7900252600.0 0.612507756 0.7840438765
7950252300.0 0.6213563686 0.7773572118
8000252000.0 0.6316607615 0.7696982596
8050251700.0 0.6421439546 0.761493645
8100251400.0 0.6523083731 0.7532754464
8150251100.0 0.6623993582 0.7446470384
8200250800.0 0.6716020066 0.7367192578
8250250500.0 0.6805819669 0.7286462398
8300250200.0 0.6895330166 0.7200946728
8350249900.0 0.6991104217 0.7114716129
8400249600.0 0.7068668769 0.7033287939
8450249300.0 0.7162391143 0.6941141018
8500249000.0 0.7248963938 0.6853131232
8550248700.0 0.7332238593 0.6763607211
8600248400.0 0.7414573179 0.6668831852
8650248100.0 0.7492194415 0.6572802293
8700247800.0 0.758784721 0.6462147384
8750247500.0 0.7671837251 0.6360881583
8800247200.0 0.7753450911 0.6256748116
8850246900.0 0.7841946789 0.6144340986
8900246600.0 0.7923702983 0.6030784098
8950246300.0 0.8020371294 0.5899235944
9000246000.0 0.811626138 0.5769881751
9050245700.0 0.8206241116 0.5640493187
9100245400.0 0.8293314352 0.5514475412
9150245100.0 0.8386929415 0.5378290448
9200244800.0 0.848327133 0.5224651484
9250244500.0 0.8580302572 0.5068079109
9300244200.0 0.8662989718 0.4921100653
9350243900.0 0.8740447317 0.4780659659
9400243600.0 0.8808115737 0.4658940576
9450243300.0 0.8865553317 0.454128848
9500243000.0 0.892826887 0.4417985384
9550242700.0 0.8965987598 0.4340278636
9600242400.0 0.9002316528 0.4266921583
9650242100.0 0.9038242752 0.4203695555
9700241800.0 0.9085116138 0.4121223272
9750241500.0 0.9124360737 0.4045178504
9800241200.0 0.9169547557 0.3958158246
9850240900.0 0.9224471207 0.3839440216
9900240600.0 0.9284263081 0.3720962085
9950240300.0 0.9349269887 0.3559445786
10000240000.0 0.9393580492 0.3446796226
10050239700.0 0.945297376 0.3293628886
10100239400.0 0.9500218206 0.3138075593
10150239100.0 0.9544797689 0.2991504416
10200238800.0 0.9586099153 0.2844119938
10250238500.0 0.9617022217 0.2709354748
10300238200.0 0.9647755937 0.25700348
10350237900.0 0.9675886235 0.2440045344
10400237600.0 0.9701541594 0.2305342401
10450237300.0 0.972725202 0.2170746124
10500237000.0 0.974784379 0.2049555053
10550236700.0 0.9770296053 0.1912577231
10600236400.0 0.9793067247 0.1774564303
10650236100.0 0.9814357301 0.1631332072
10700235800.0 0.9840753621 0.1500611903
10750235500.0 0.9859851177 0.1375508132
10800235200.0 0.9874096778 0.1234358094
10850234900.0 0.9895812518 0.1088762393
10900234600.0 0.9916580692 0.0943064767
10950234300.0 0.993388443 0.0810582043
11000234000.0 0.9953093527 0.0659111839
11050233700.0 0.9969798251 0.0496448865
11100233400.0 0.9983799713 0.0319337546
11150233100.0 0.9993779835 0.0157356786
11200232800.0 1.000026859 0.0008126668
11250232500.0 1.00134018 -0.0158452043
11300232200.0 1.001156275 -0.0336937396
11350231900.0 1.001370132 -0.0501525849
11400231600.0 1.000936122 -0.0647826317
11450231300.0 1.000447002 -0.081467478
11500231000.0 0.9991524726 -0.0982224572
11550230700.0 0.9985592657 -0.1104681804
11600230400.0 0.9968691809 -0.1229324233
11650230100.0 0.9946090919 -0.1353267392
11700229800.0 0.9926892842 -0.149990024
11750229500.0 0.9902295481 -0.1642519055
11800229200.0 0.9876707698 -0.1780426929
11850228900.0 0.983967889 -0.1904591923
11900228600.0 0.9805415351 -0.1999560676
11950228300.0 0.9769289976 -0.2108695225
12000228000.0 0.9743230627 -0.219468196
12050227700.0 0.9709386912 -0.2320212887
12100227400.0 0.9681770077 -0.242342452
12150227100.0 0.9630120408 -0.2594030428
12200226800.0 0.9591631755 -0.2708753333
12250226500.0 0.9549536704 -0.2829013235
12300226200.0 0.9511497742 -0.2947923752
12350225900.0 0.9463201913 -0.3093447089
12400225600.0 0.9415605227 -0.322390456
12450225300.0 0.9373854363 -0.3348959035
12500225000.0 0.9319312748 -0.3496509559
12550224700.0 0.9264697368 -0.3631265459
12600224400.0 0.9217035374 -0.376059935
12650224100.0 0.9158896644 -0.3902946
12700223800.0 0.9107981898 -0.4029694383
12750223500.0 0.9051634297 -0.4160064084
12800223200.0 0.8999394072 -0.4286733041
12850222900.0 0.8944992953 -0.4404795141
12900222600.0 0.888736832 -0.4528746688
12950222300.0 0.8823155283 -0.4658953448
13000222000.0 0.8765040136 -0.4778263366
13050221700.0 0.8697114269 -0.4900802942
13100221400.0 0.8631979534 -0.5020842054
13150221100.0 0.8563715983 -0.514281662
13200220800.0 0.8488899502 -0.5253342872
13250220500.0 0.8418206139 -0.5378887345
13300220200.0 0.8343484942 -0.548882145
13350219900.0 0.825976551 -0.5609304947
13400219600.0 0.817544004 -0.5730298351
13450219300.0 0.8081364831 -0.5868781409
13500219000.0 0.7974184361 -0.6008797576
13550218700.0 0.7877149603 -0.6132554672
13600218400.0 0.7777842724 -0.6257304812
13650218100.0 0.767517132 -0.6373156084
13700217800.0 0.7564693288 -0.6496062972
13750217500.0 0.7457408184 -0.6612913353
13800217200.0 0.7350739042 -0.6722890543
13850216900.0 0.7235715708 -0.6843623126
13900216600.0 0.7138854072 -0.6934802049
13950216300.0 0.7038982932 -0.7030506786
14000216000.0 0.6936310333 -0.7120163389
14050215700.0 0.6839490666 -0.7205711364
14100215400.0 0.6738952358 -0.7295472846
14150215100.0 0.6650595508 -0.7381199526
14200214800.0 0.6556687815 -0.7463816963
14250214500.0 0.6455395163 -0.7556258411
14300214200.0 0.6352410994 -0.7649313276
14350213900.0 0.6241121453 -0.7744598056
14400213600.0 0.6124278082 -0.7841572532
14450213300.0 0.5992533992 -0.7942839517
14500213000.0 0.5861227139 -0.8040753036
14550212700.0 0.5738186812 -0.8137400091
14600212400.0 0.5616517995 -0.8225321938
14650212100.0 0.5481673181 -0.8310218225
14700211800.0 0.5342932477 -0.8403811966
14750211500.0 0.5224060857 -0.8489520913
14800211200.0 0.5098444482 -0.8564056105
14850210900.0 0.4974296722 -0.8642969204
14900210600.0 0.484266799 -0.8720846053
14950210300.0 0.4707557958 -0.8798698595
15000210000.0 0.4578601584 -0.8864770781
15050209700.0 0.4456763261 -0.8927860642
15100209400.0 0.4329151434 -0.8985581941
15150209100.0 0.4204291837 -0.9039756294
15200208800.0 0.4069243177 -0.9098115935
15250208500.0 0.395745806 -0.9142203844
15300208200.0 0.3841927167 -0.9187435783
15350207900.0 0.3698441397 -0.9238524807
15400207600.0 0.3559973899 -0.9293844476
15450207300.0 0.3418021371 -0.933953234
15500207000.0 0.3272038462 -0.9377197713
15550206700.0 0.3113228076 -0.9438781444
15600206400.0 0.2958052904 -0.947862668
15650206100.0 0.2799907872 -0.952348414
15700205800.0 0.266299266 -0.9557924765
15750205500.0 0.2518856687 -0.9596460923
15800205200.0 0.2373181164 -0.9626996941
15850204900.0 0.222823937 -0.9661456884
15900204600.0 0.2079776097 -0.9696711278
15950204300.0 0.1939100721 -0.9726685094
16000204000.0 0.1799126116 -0.9754166414
16050203700.0 0.1652170837 -0.9780521874
16100203400.0 0.15054939 -0.9805702016
16150203100.0 0.1362703904 -0.9829539729
16200202800.0 0.1222273433 -0.9849393291
16250202500.0 0.1073723662 -0.9863677545
16300202200.0 0.0922644448 -0.9876752067
16350201900.0 0.0772899712 -0.9894429291
16400201600.0 0.0626821638 -0.9901717697
16450201300.0 0.0473593484 -0.9913014072
16500201000.0 0.0308590872 -0.991870746
16550200700.0 0.015336479 -0.9924586575
16600200400.0 -0.0007066695 -0.9925292374
16650200100.0 -0.0165857024 -0.9924668385
16700199800.0 -0.0334498902 -0.991892373
16750199500.0 -0.0525646191 -0.9914652488
16800199200.0 -0.067886065 -0.9903013273
16850198900.0 -0.0839882385 -0.9889829277
16900198600.0 -0.0967895361 -0.9880939856
16950198300.0 -0.1095837808 -0.9868963045
17000198000.0 -0.1227921957 -0.9861903299
17050197700.0 -0.1355233704 -0.9838694962
17100197400.0 -0.1487984787 -0.9816046473
17150197100.0 -0.1616023629 -0.9797190812
17200196800.0 -0.1745477523 -0.9776339754
17250196500.0 -0.1869839047 -0.9750254537
17300196200.0 -0.1993525206 -0.9727673338
17350195900.0 -0.2108949274 -0.9707178384
17400195600.0 -0.2231910644 -0.9682730096
17450195300.0 -0.2363005769 -0.9652273373
17500195000.0 -0.2496018504 -0.9619507706
17550194700.0 -0.26360455 -0.9582139324
17600194400.0 -0.277572943 -0.9543060389
17650194100.0 -0.291501993 -0.9503079864
17700193800.0 -0.3037363865 -0.9462642237
17750193500.0 -0.3187877588 -0.9416603753
17800193200.0 -0.3328708933 -0.9362641046
17850192900.0 -0.3478567386 -0.9307368682
17900192600.0 -0.3633567755 -0.9248966374
17950192300.0 -0.3788041082 -0.9177100099
18000192000.0 -0.3931702847 -0.9105498068
18050191700.0 -0.4070967284 -0.9024904962
18100191400.0 -0.4213319681 -0.8947361497
18150191100.0 -0.4362560282 -0.8866883174
18200190800.0 -0.4531635069 -0.8774151386
18250190500.0 -0.4701349081 -0.8678412042
18300190200.0 -0.4856749305 -0.8591447799
18350189900.0 -0.500412004 -0.8504899983
18400189600.0 -0.5151598138 -0.8420564106
18450189300.0 -0.5281221718 -0.8341934656
18500189000.0 -0.5415461315 -0.826477431
18550188700.0 -0.5544252063 -0.818733439
18600188400.0 -0.5665493357 -0.8114267735
18650188100.0 -0.5771436915 -0.8052547808
18700187800.0 -0.5880847229 -0.7989067307
18750187500.0 -0.5989246055 -0.7923312175
18800187200.0 -0.6095767734 -0.7850757768
18850186900.0 -0.6197053954 -0.7782439511
18900186600.0 -0.6299857553 -0.7709105605
18950186300.0 -0.6401409544 -0.7630765224
19000186000.0 -0.6473901738 -0.7568164369
19050185700.0 -0.656272213 -0.7497502358
19100185400.0 -0.6665413274 -0.7414523007
19150185100.0 -0.6769981836 -0.731925834
19200184800.0 -0.6861255311 -0.7248966813
19250184500.0 -0.6963853099 -0.7150897849
19300184200.0 -0.7080118341 -0.7054298101
19350183900.0 -0.7193758476 -0.6953232776
19400183600.0 -0.7282971793 -0.6865346144
19450183300.0 -0.7369135928 -0.6761357669
19500183000.0 -0.7457200839 -0.6656686881
19550182700.0 -0.7544751181 -0.6552610234
19600182400.0 -0.7660870101 -0.6436390717
19650182100.0 -0.7763403039 -0.6310316242
19700181800.0 -0.7870427232 -0.618011976
19750181500.0 -0.7972706901 -0.6036754326
19800181200.0 -0.80752883 -0.5886747751
19850180900.0 -0.8171828423 -0.5732983696
19900180600.0 -0.8247035615 -0.5587801756
19950180300.0 -0.8338853958 -0.5427172974
20000180000.0 -0.8272475462 -0.5445341172
20050179700.0 -0.8351371399 -0.5321842486
20100179400.0 -0.8429551753 -0.5181034208
20150179100.0 -0.851314956 -0.5062161494
20200178800.0 -0.8604413041 -0.4938910484
20250178500.0 -0.8699209297 -0.4795864907
20300178200.0 -0.8796608497 -0.4646386197
20350177900.0 -0.8885845522 -0.4501857621
20400177600.0 -0.8975345118 -0.4364239008
20450177300.0 -0.9057935329 -0.4215398698
20500177000.0 -0.9138275063 -0.4075378235
20550176700.0 -0.9215452289 -0.3938611175
20600176400.0 -0.928518784 -0.3811268058
20650176100.0 -0.9354478229 -0.3684345431
20700175800.0 -0.9414818599 -0.35648381
20750175500.0 -0.9485016914 -0.34471841
20800175200.0 -0.9538456776 -0.3342062224
20850174900.0 -0.9585390569 -0.3229522077
20900174600.0 -0.9628328923 -0.3113215011
20950174300.0 -0.966745183 -0.3000890683
21000174000.0 -0.9697832401 -0.2877016881
21050173700.0 -0.9724215472 -0.2778106861
21100173400.0 -0.9771313405 -0.2643409807
21150173100.0 -0.9812317787 -0.2522982685
21200172800.0 -0.98471197 -0.2389386455
21250172500.0 -0.9880131413 -0.2252184845
21300172200.0 -0.9907512169 -0.2109019781
21350171900.0 -0.9922550124 -0.1970655553
21400171600.0 -0.9936144325 -0.1823122278
21450171300.0 -0.9938829275 -0.1678215076
21500171000.0 -0.9932051054 -0.1523403905
21550170700.0 -0.9929890141 -0.1370397746
21600170400.0 -0.9938080389 -0.1211864063
21650170100.0 -0.99288455 -0.1046986956
21700169800.0 -0.9902957114 -0.0901806411
21750169500.0 -0.9878794321 -0.0734892665
21800169200.0 -0.9883210542 -0.058957157
21850168900.0 -0.9869492938 -0.0418750627
21900168600.0 -0.9860122055 -0.0254631469
21950168300.0 -0.9835873862 -0.0098997881
22000168000.0 -0.9830539695 0.0051952316
22050167700.0 -0.982432285 0.019536959
22100167400.0 -0.9828000529 0.0347329269
22150167100.0 -0.983374516 0.0498039061
22200166800.0 -0.9835136229 0.0661203131
22250166500.0 -0.9834438616 0.0837821737
22300166200.0 -0.9828857866 0.1003005373
22350165900.0 -0.9809021478 0.1167404015
22400165600.0 -0.9786548823 0.1321161894
22450165300.0 -0.9775687773 0.147030982
22500165000.0 -0.9754717754 0.1606530684
22550164700.0 -0.9740187065 0.1769572197
22600164400.0 -0.9716691405 0.1918742587
22650164100.0 -0.9703155339 0.2064715559
22700163800.0 -0.9682781234 0.2229542402
22750163500.0 -0.965400967 0.2380705092
22800163200.0 -0.962357424 0.2510777498
22850162900.0 -0.9600350723 0.2650250403
22900162600.0 -0.9585294999 0.2781457222
22950162300.0 -0.9573523499 0.2910288103
23000162000.0 -0.9563448159 0.3024915441
23050161700.0 -0.954508787 0.3148885766
23100161400.0 -0.9521441504 0.327580765
23150161100.0 -0.9494100214 0.3402190858
23200160800.0 -0.9467616988 0.3522741123
23250160500.0 -0.944647478 0.3639851222
23300160200.0 -0.941456675 0.3765094989
23350159900.0 -0.9379865776 0.3893110166
23400159600.0 -0.9330612831 0.4015168629
23450159300.0 -0.9286183618 0.4159883736
23500159000.0 -0.9238948844 0.4283003192
23550158700.0 -0.9195733858 0.4416627982
23600158400.0 -0.9138697629 0.4550817249
23650158100.0 -0.9075915062 0.4688891664
23700157800.0 -0.9001617703 0.4825066933
23750157500.0 -0.8916081003 0.4963207086
23800157200.0 -0.882583839 0.5099052713
23850156900.0 -0.873853148 0.5220915507
23900156600.0 -0.8645682869 0.5346046535
23950156300.0 -0.8555302463 0.5467409976
24000156000.0 -0.8462547492 0.5588822124
24050155700.0 -0.8359930543 0.5712000703
24100155400.0 -0.8264137305 0.5830209371
24150155100.0 -0.8151516021 0.5943872546
24200154800.0 -0.8043986545 0.60548497
24250154500.0 -0.7930557101 0.61725115
24300154200.0 -0.7820368759 0.6294511607
24350153900.0 -0.7698492963 0.6396556864
24400153600.0 -0.7574009705 0.6498354629
24450153300.0 -0.7455873056 0.6594308112
24500153000.0 -0.7339372728 0.6695370924
24550152700.0 -0.7229163089 0.6793948663
24600152400.0 -0.7114291246 0.687564991
24650152100.0 -0.6991936654 0.6968024796
