!Created with skrf (http://scikit-rf.org).
# Hz S RI R 50.0 
!freq ReS11 ImS11
300000.0 -0.9805933818 -0.1018284529
50299700.0 -1.00003285 0.0161671803
100299400.0 -0.9981515541 0.0290482535
150299100.0 -1.002855158 0.0460124966
200298800.0 -0.9996485315 0.0591812313
250298500.0 -0.9974856936 0.0729243209
300298200.0 -0.9860413897 0.0886549303
350297900.0 -0.9940042906 0.0994662772
400297600.0 -0.9931393656 0.1159655203
450297300.0 -0.9908955252 0.1299600983
500297000.0 -0.9894691103 0.1448573323
550296700.0 -0.9842589271 0.1570198425
600296400.0 -1.017210876 0.1905583083
650296100.0 -0.9820522248 0.1871810249
700295800.0 -0.9791326303 0.2014703024
750295500.0 -0.9762490034 0.215372616
800295200.0 -0.9727700328 0.2294994785
850294900.0 -0.9695235023 0.2433918404
900294600.0 -0.9655383313 0.2572559453
950294300.0 -0.9618578086 0.2708568643
1000294000.0 -0.9577724899 0.2847935991
1050293700.0 -0.9532840927 0.2984832359
1100293400.0 -0.9490332594 0.3130043522
1150293100.0 -0.9451995775 0.3249563499
1200292800.0 -0.9396772187 0.3391388994
1250292500.0 -0.9342019017 0.3524855649
1300292200.0 -0.9286449485 0.3655533782
1350291900.0 -0.9229624399 0.3797547672
1400291600.0 -0.9175074696 0.3928868506
1450291300.0 -0.9121303144 0.4052531712
1500291000.0 -0.9059418591 0.4184842009
1550290700.0 -0.8993143246 0.4318393848
1600290400.0 -0.8929776131 0.444766837
1650290100.0 -0.8864466787 0.4569360779
1700289800.0 -0.8795552866 0.4702445399
1750289500.0 -0.8724129783 0.4825568103
1800289200.0 -0.8651358945 0.4953512076
1850288900.0 -0.8583213746 0.5067035962
1900288600.0 -0.8506647429 0.5201413212
1950288300.0 -0.842558069 0.5324408751
2000288000.0 -0.8350940881 0.543710278
2050287700.0 -0.8266647715 0.5563010076
2100287400.0 -0.8187925937 0.5679490196
2150287100.0 -0.8100921052 0.5799547449
2200286800.0 -0.8022395887 0.5902457642
2250286500.0 -0.7934572181 0.6023344385
2300286200.0 -0.7846079139 0.6140001424
2350285900.0 -0.7758235513 0.6251099088
2400285600.0 -0.7667380882 0.6359756396
2450285300.0 -0.7581532771 0.6464108797
2500285000.0 -0.7483939282 0.6574967762
2550284700.0 -0.7395831744 0.6677531792
2600284400.0 -0.72992813 0.6779606674
2650284100.0 -0.7209858417 0.6888086032
2700283800.0 -0.7101587406 0.6989626153
2750283500.0 -0.7000814014 0.7098838283
2800283200.0 -0.6901731957 0.7195177016
2850282900.0 -0.6798337657 0.7291028836
2900282600.0 -0.6698789025 0.7387681156
2950282300.0 -0.6595815612 0.748183641
3000282000.0 -0.6488624635 0.7574147398
3050281700.0 -0.6377335059 0.766935263
3100281400.0 -0.6257990216 0.7761016917
3150281100.0 -0.6140640879 0.785609636
3200280800.0 -0.6024326107 0.7940625185
3250280500.0 -0.5917032688 0.8016535027
3300280200.0 -0.5803494192 0.8092399893
3350279900.0 -0.5689511909 0.8170294052
3400279600.0 -0.5568715765 0.8247128658
3450279300.0 -0.5457886498 0.831711119
3500279000.0 -0.5335966821 0.8388386929
3550278700.0 -0.5211315814 0.8462178269
3600278400.0 -0.5090423033 0.8532358377
3650278100.0 -0.49571832 0.8608668123
3700277800.0 -0.4837051987 0.8676280812
3750277500.0 -0.4715298038 0.8740056605
3800277200.0 -0.4589455089 0.8804591943
3850276900.0 -0.4467761189 0.8862798366
3900276600.0 -0.435814682 0.8919077063
3950276300.0 -0.4233423247 0.8982915062
4000276000.0 -0.4112682772 0.9041066514
4050275700.0 -0.3982265013 0.9100968817
4100275400.0 -0.3870092029 0.9156592636
4150275100.0 -0.3741599657 0.921440151
4200274800.0 -0.3613630214 0.9268532904
4250274500.0 -0.3491698843 0.9317299031
4300274200.0 -0.3358550282 0.9372781656
4350273900.0 -0.3221429243 0.9422046422
4400273600.0 -0.3073219283 0.9473588152
4450273300.0 -0.2921277061 0.9525789261
4500273000.0 -0.2783469262 0.9569552936
4550272700.0 -0.2642411016 0.9610898133
4600272400.0 -0.2487340399 0.9652596318
4650272100.0 -0.2369262606 0.9685434584
4700271800.0 -0.2236562901 0.9719088255
4750271500.0 -0.2119888381 0.9747195501
4800271200.0 -0.1993678449 0.9773599857
4850270900.0 -0.1856536274 0.9802759492
4900270600.0 -0.1717026645 0.9826900692
4950270300.0 -0.1575494398 0.9850529191
5000270000.0 -0.1432894493 0.9873671723
5050269700.0 -0.1300054188 0.9891327126
5100269400.0 -0.1163425905 0.9906346064
5150269100.0 -0.1030678058 0.992229201
5200268800.0 -0.0898586806 0.9928624128
5250268500.0 -0.076760233 0.9942539443
5300268200.0 -0.0638083611 0.9950106754
5350267900.0 -0.051601604 0.9954616317
5400267600.0 -0.0350679128 0.9966626391
5450267300.0 -0.0221649055 0.9970088625
5500267000.0 -0.0071178872 0.9970221737
5550266700.0 0.0079130786 0.99736425
5600266400.0 0.0234866524 0.9972648
5650266100.0 0.0400200417 0.9971609552
5700265800.0 0.0543674665 0.9960704257
5750265500.0 0.0696616351 0.9956579737
5800265200.0 0.0833897522 0.9941581996
5850264900.0 0.0967300218 0.9932733439
5900264600.0 0.1133154225 0.991249771
5950264300.0 0.1255508042 0.989849155
6000264000.0 0.1400415086 0.9880597678
6050263700.0 0.152153783 0.9863879547
6100263400.0 0.1646273617 0.9848196682
6150263100.0 0.1794159882 0.9824094695
6200262800.0 0.1898238869 0.9802250601
6250262500.0 0.2025414532 0.9779076672
6300262200.0 0.2155259188 0.9751595628
6350261900.0 0.2285812196 0.9721683623
6400261600.0 0.2423306917 0.9688982011
6450261300.0 0.253670635 0.9660859326
6500261000.0 0.2665633661 0.9627635883
6550260700.0 0.2794799007 0.9587711672
6600260400.0 0.2931613884 0.9546953611
6650260100.0 0.3067301075 0.9504161571
6700259800.0 0.31871043 0.9457983515
6750259500.0 0.3325772857 0.9412794388
6800259200.0 0.3456849726 0.9363173014
6850258900.0 0.3572854209 0.9310856197
6900258600.0 0.3693387325 0.9259297724
6950258300.0 0.3819371309 0.9206919647
7000258000.0 0.3940232104 0.9153503332
7050257700.0 0.4062557317 0.9093369323
7100257400.0 0.4190753566 0.9033177462
7150257100.0 0.429338944 0.8977462544
7200256800.0 0.4421121525 0.8915549448
7250256500.0 0.4539183929 0.885086161
7300256200.0 0.4671034247 0.8783177477
7350255900.0 0.4792546197 0.8715235284
7400255600.0 0.4923631976 0.8641675156
7450255300.0 0.5074468528 0.8552018161
7500255000.0 0.519797659 0.8482986888
7550254700.0 0.5330377342 0.8396771762
7600254400.0 0.5458350326 0.8314553093
7650254100.0 0.5571606089 0.8232885565
7700253800.0 0.5693927651 0.8154529145
7750253500.0 0.5805811503 0.8079082428
7800253200.0 0.5911799913 0.7999278707
7850252900.0 0.6009963856 0.792833221
7900252600.0 0.6126037393 0.7839619037
7950252300.0 0.6214634589 0.7772509138
8000252000.0 0.6317987793 0.7694745795
8050251700.0 0.6421162283 0.7611996411
8100251400.0 0.6523070274 0.7531066019
8150251100.0 0.6624090868 0.7443012042
8200250800.0 0.6714800795 0.7362742965
8250250500.0 0.6804957624 0.7283095396
8300250200.0 0.6902144279 0.7197367014
8350249900.0 0.6990575244 0.7110401899
8400249600.0 0.7075618438 0.7030803102
8450249300.0 0.7165700045 0.6936900023
8500249000.0 0.7251423683 0.6848800014
8550248700.0 0.7334937564 0.6757941484
8600248400.0 0.7418518149 0.6664685079
8650248100.0 0.749626452 0.656988298
8700247800.0 0.7590041676 0.6459196131
8750247500.0 0.7674427527 0.6356807958
8800247200.0 0.7756698192 0.6254453253
8850246900.0 0.7844001909 0.6139463357
8900246600.0 0.7927509292 0.6028502548
8950246300.0 0.8020938541 0.5899278763
9000246000.0 0.8118552742 0.5771814738
9050245700.0 0.820678776 0.5642566082
9100245400.0 0.8293209174 0.5515840482
9150245100.0 0.8386717636 0.5380660006
9200244800.0 0.8482275337 0.5228752443
9250244500.0 0.8576914514 0.5073744315
9300244200.0 0.8661401641 0.4927778671
9350243900.0 0.8739571975 0.478747018
9400243600.0 0.8804550251 0.4662572344
9450243300.0 0.8863917439 0.4544475897
9500243000.0 0.8925174354 0.4420257705
9550242700.0 0.8964445324 0.4341645147
9600242400.0 0.9002187833 0.4266477794
9650242100.0 0.9041949201 0.420017029
9700241800.0 0.9085641165 0.411534808
9750241500.0 0.9124640352 0.4041383217
9800241200.0 0.9169996969 0.3949359614
9850240900.0 0.9227664237 0.383209493
9900240600.0 0.9279165268 0.372049236
9950240300.0 0.9349147381 0.355440942
10000240000.0 0.9392200687 0.3441152504
10050239700.0 0.9448422277 0.3288170439
10100239400.0 0.9497786941 0.3133475265
10150239100.0 0.954417943 0.2985516044
10200238800.0 0.95853797 0.2839949032
10250238500.0 0.9619264985 0.2703236356
10300238200.0 0.9648603072 0.2562359404
10350237900.0 0.9676576276 0.2432948944
10400237600.0 0.9703021342 0.2301170751
10450237300.0 0.9729567496 0.2163757581
10500237000.0 0.9751751534 0.2044928727
10550236700.0 0.9775762426 0.1904809469
10600236400.0 0.9792838363 0.1774634247
10650236100.0 0.9812047441 0.1630473392
10700235800.0 0.9834852332 0.150762011
10750235500.0 0.9857003093 0.1375899975
10800235200.0 0.9879275505 0.1235412819
10850234900.0 0.9894818183 0.1088457603
10900234600.0 0.992163283 0.0940168067
10950234300.0 0.9936334633 0.0808187712
11000234000.0 0.9952177469 0.0659282525
11050233700.0 0.9969862762 0.0497089751
11100233400.0 0.9983607615 0.0324934927
11150233100.0 0.9994186756 0.0164627685
11200232800.0 1.000033518 0.0012598581
11250232500.0 1.000760444 -0.0152579764
11300232200.0 1.001575324 -0.0339838071
11350231900.0 1.001575436 -0.0493091926
11400231600.0 1.001307159 -0.0647042004
11450231300.0 1.000244768 -0.0801548179
11500231000.0 0.9990228483 -0.0972445738
11550230700.0 0.9976178587 -0.1107092157
11600230400.0 0.9965812609 -0.1237936021
11650230100.0 0.9944441988 -0.1343257919
11700229800.0 0.9921794238 -0.1497347305
11750229500.0 0.9898884011 -0.164437993
11800229200.0 0.9873767191 -0.1784381893
11850228900.0 0.9836429545 -0.1906584018
11900228600.0 0.9804139398 -0.2006013039
11950228300.0 0.9770857608 -0.2109668152
12000228000.0 0.9742401178 -0.2201306301
12050227700.0 0.9706798135 -0.2327472251
12100227400.0 0.9672297004 -0.2444752714
12150227100.0 0.9624210316 -0.260880929
12200226800.0 0.9596809413 -0.2704416942
12250226500.0 0.9548559663 -0.2838092011
12300226200.0 0.9506238606 -0.2960477143
12350225900.0 0.9461562291 -0.3102204901
12400225600.0 0.9417987449 -0.3217426307
12450225300.0 0.9371562185 -0.3355105889
12500225000.0 0.9317306244 -0.3505036336
12550224700.0 0.9266632561 -0.3636246598
12600224400.0 0.9216557138 -0.3761807082
12650224100.0 0.9159195105 -0.390549586
12700223800.0 0.9106299429 -0.4031859004
12750223500.0 0.9052866497 -0.4159901224
12800223200.0 0.8999241801 -0.4286429421
12850222900.0 0.8943509554 -0.4408948313
12900222600.0 0.8887321781 -0.4531199027
12950222300.0 0.8826822192 -0.4655744119
13000222000.0 0.8761843589 -0.4768541388
13050221700.0 0.8694496752 -0.4901706072
13100221400.0 0.8631625165 -0.5019349443
13150221100.0 0.8561528845 -0.5138730946
13200220800.0 0.8488450251 -0.5260916315
13250220500.0 0.841397367 -0.538192254
13300220200.0 0.8340563078 -0.5492607575
13350219900.0 0.8257314973 -0.5612405622
13400219600.0 0.817508704 -0.5734932957
13450219300.0 0.8077949836 -0.586926769
13500219000.0 0.7973182682 -0.601314868
13550218700.0 0.7871994218 -0.61379487
13600218400.0 0.776908721 -0.6261135759
13650218100.0 0.7673334982 -0.6375118095
13700217800.0 0.7561373733 -0.6502455865
13750217500.0 0.7468533909 -0.6610000207
13800217200.0 0.7350827823 -0.6727384107
13850216900.0 0.7242937712 -0.6839110784
13900216600.0 0.7143823153 -0.6935877216
13950216300.0 0.7034432283 -0.7038280081
14000216000.0 0.6937011631 -0.7122273424
14050215700.0 0.6838267673 -0.7204738055
14100215400.0 0.6739674782 -0.72964188
14150215100.0 0.6646822138 -0.7383407794
14200214800.0 0.655611495 -0.7465535166
14250214500.0 0.6454350648 -0.7558927285
14300214200.0 0.6351116297 -0.7649942196
14350213900.0 0.6241607163 -0.7743121559
14400213600.0 0.6122677849 -0.7838747829
14450213300.0 0.5994368381 -0.7942157148
14500213000.0 0.5863991777 -0.8042037706
14550212700.0 0.573913735 -0.8135288274
14600212400.0 0.5613181706 -0.8219464767
14650212100.0 0.5481415583 -0.8308564232
14700211800.0 0.5345260405 -0.8401586978
14750211500.0 0.5224658471 -0.8484100421
14800211200.0 0.5105188091 -0.8565277009
14850210900.0 0.4981968235 -0.864098099
14900210600.0 0.4846449553 -0.8719072933
14950210300.0 0.4711799258 -0.8796256569
15000210000.0 0.4582341109 -0.8864430729
15050209700.0 0.4459889299 -0.892598477
15100209400.0 0.433092406 -0.8984822467
15150209100.0 0.420481845 -0.9040491492
15200208800.0 0.407450559 -0.9097536752
15250208500.0 0.3955121974 -0.9135543144
15300208200.0 0.3832741607 -0.9189776694
15350207900.0 0.3704335331 -0.9237105638
15400207600.0 0.3556679743 -0.9289249119
15450207300.0 0.3408182541 -0.9335144453
15500207000.0 0.3261102676 -0.9385356333
15550206700.0 0.3117173485 -0.9435466706
15600206400.0 0.2951601138 -0.9484159733
15650206100.0 0.2793972696 -0.9523796577
15700205800.0 0.2658564487 -0.956145219
15750205500.0 0.2513131546 -0.9592591537
15800205200.0 0.236910342 -0.9630200138
15850204900.0 0.222525455 -0.966323638
15900204600.0 0.207704681 -0.9698889954
15950204300.0 0.19389209 -0.9728005778
16000204000.0 0.1795380352 -0.9753813479
16050203700.0 0.1648369089 -0.9785220761
16100203400.0 0.1507768245 -0.98048487
16150203100.0 0.1363079291 -0.982898278
16200202800.0 0.1224028285 -0.9845648011
16250202500.0 0.1076445761 -0.9862561761
16300202200.0 0.0927239955 -0.988000603
16350201900.0 0.0779886126 -0.9893086474
16400201600.0 0.0633254672 -0.9904684922
16450201300.0 0.0483621408 -0.9913702504
16500201000.0 0.0315632428 -0.9919612121
16550200700.0 0.0158806666 -0.9925769242
16600200400.0 0.0001307467 -0.9925307639
16650200100.0 -0.0160563582 -0.9925806415
16700199800.0 -0.0331325735 -0.9921040556
16750199500.0 -0.0518762653 -0.9919022445
16800199200.0 -0.0682828386 -0.9899527075
16850198900.0 -0.0826942137 -0.9896126474
16900198600.0 -0.096979549 -0.9883623635
16950198300.0 -0.1100020962 -0.9866307869
17000198000.0 -0.1226261806 -0.9860041209
17050197700.0 -0.136040866 -0.9835072217
17100197400.0 -0.1489440487 -0.9820987206
17150197100.0 -0.161543248 -0.9795193257
17200196800.0 -0.1743836577 -0.9774267983
17250196500.0 -0.1874537764 -0.9752256403
17300196200.0 -0.1995617113 -0.9729839976
17350195900.0 -0.2114283591 -0.9705107991
17400195600.0 -0.2236035389 -0.9680577503
17450195300.0 -0.2368625782 -0.9650888188
17500195000.0 -0.2505058293 -0.9618186227
17550194700.0 -0.2642650853 -0.9581370407
17600194400.0 -0.2780777528 -0.9543849351
17650194100.0 -0.291756327 -0.9499228015
17700193800.0 -0.304773958 -0.9460892568
17750193500.0 -0.3188998247 -0.941110003
17800193200.0 -0.3334209465 -0.9356488437
17850192900.0 -0.3481014708 -0.9300748197
17900192600.0 -0.3634072163 -0.9244102715
17950192300.0 -0.3789148699 -0.9176107382
18000192000.0 -0.3934072804 -0.9102904614
18050191700.0 -0.4072858217 -0.9023617367
18100191400.0 -0.4212880145 -0.8947768116
18150191100.0 -0.4361899099 -0.8867349981
18200190800.0 -0.4531909122 -0.8775259723
18250190500.0 -0.4699599538 -0.8679448259
18300190200.0 -0.4849666907 -0.8593810495
18350189900.0 -0.5002281263 -0.8511117121
18400189600.0 -0.5152062785 -0.8425138398
18450189300.0 -0.5281162602 -0.8346067003
18500189000.0 -0.5415991843 -0.826609758
18550188700.0 -0.5542307769 -0.8188039217
18600188400.0 -0.5658901147 -0.8118320339
18650188100.0 -0.5772274427 -0.805320141
18700187800.0 -0.587997012 -0.7986996176
18750187500.0 -0.5989485089 -0.7920222415
18800187200.0 -0.6096432546 -0.7848436547
18850186900.0 -0.6198271425 -0.7776615994
18900186600.0 -0.6304628458 -0.7701988934
18950186300.0 -0.640532047 -0.762300097
19000186000.0 -0.6480965269 -0.7556973446
19050185700.0 -0.6577103369 -0.7482546461
19100185400.0 -0.6675503028 -0.7403010641
19150185100.0 -0.6779076862 -0.7316573087
19200184800.0 -0.6877110591 -0.7226814928
19250184500.0 -0.6976492028 -0.7136049381
19300184200.0 -0.7084718032 -0.7040010141
19350183900.0 -0.7202196338 -0.69406302
19400183600.0 -0.7296197872 -0.6852819827
19450183300.0 -0.7383769224 -0.674111739
19500183000.0 -0.7468638274 -0.6645059653
19550182700.0 -0.7557047603 -0.6533967384
19600182400.0 -0.7668033116 -0.642081232
19650182100.0 -0.7772290708 -0.6297356745
19700181800.0 -0.7875290593 -0.616641797
19750181500.0 -0.7977173403 -0.6025099666
19800181200.0 -0.8078285354 -0.5877698029
19850180900.0 -0.8175574416 -0.5726084319
19900180600.0 -0.8250694512 -0.5583778831
19950180300.0 -0.8343090706 -0.541829841
20000180000.0 -0.8271348371 -0.5441449227
20050179700.0 -0.8359938637 -0.5305504072
20100179400.0 -0.8432200224 -0.5173974439
20150179100.0 -0.8519271939 -0.5045632489
20200178800.0 -0.8606511365 -0.4927355469
20250178500.0 -0.8700287686 -0.4790858371
20300178200.0 -0.8801274668 -0.4650146423
20350177900.0 -0.8884404663 -0.4499250668
20400177600.0 -0.8972033731 -0.4353061819
20450177300.0 -0.9054879394 -0.4213305665
20500177000.0 -0.9131789119 -0.4071716926
20550176700.0 -0.9213029046 -0.3934761978
20600176400.0 -0.9280683758 -0.380526987
20650176100.0 -0.9350856367 -0.3684204738
20700175800.0 -0.9413019852 -0.3563653357
20750175500.0 -0.9478146028 -0.3435863503
20800175200.0 -0.9534009264 -0.3322764018
20850174900.0 -0.9576472189 -0.3218654434
20900174600.0 -0.9626507517 -0.3104830041
20950174300.0 -0.9655969813 -0.2976477459
21000174000.0 -0.9702815416 -0.2863883831
21050173700.0 -0.9732044247 -0.2757401022
21100173400.0 -0.9778156533 -0.2632297498
21150173100.0 -0.9815735766 -0.2503532552
21200172800.0 -0.9850673738 -0.2372044141
21250172500.0 -0.9876340218 -0.223250849
21300172200.0 -0.9906873758 -0.2094226475
21350171900.0 -0.9919407089 -0.1945785061
21400171600.0 -0.9934966654 -0.1804052564
21450171300.0 -0.9938439839 -0.16582844
21500171000.0 -0.9934563918 -0.1498084716
21550170700.0 -0.9933126158 -0.1358512212
21600170400.0 -0.9929720426 -0.1198528664
21650170100.0 -0.9919453551 -0.1029096942
21700169800.0 -0.9906721794 -0.0889494849
21750169500.0 -0.9895473146 -0.0742195763
21800169200.0 -0.988372716 -0.0569635422
21850168900.0 -0.987929433 -0.0399362244
21900168600.0 -0.9859825159 -0.0242722275
21950168300.0 -0.9843157818 -0.008175246
22000168000.0 -0.9829488348 0.0065767742
22050167700.0 -0.9828223843 0.020216918
22100167400.0 -0.9827196934 0.0354058739
22150167100.0 -0.9835971899 0.0507978128
22200166800.0 -0.9832846111 0.0667461865
22250166500.0 -0.982973978 0.0837466087
22300166200.0 -0.9830242007 0.1011869487
22350165900.0 -0.9807267313 0.1170379099
22400165600.0 -0.9780839415 0.132082747
22450165300.0 -0.9781346129 0.1480415146
22500165000.0 -0.9750336074 0.1613368408
22550164700.0 -0.9744411683 0.1764199395
22600164400.0 -0.9725831959 0.1923549137
22650164100.0 -0.9699984849 0.2071423882
22700163800.0 -0.9679520064 0.2231598992
22750163500.0 -0.9653065244 0.2376247463
22800163200.0 -0.9624481698 0.2520956625
22850162900.0 -0.9597791872 0.265372516
22900162600.0 -0.9582881811 0.2782251011
22950162300.0 -0.9571995762 0.2912571405
23000162000.0 -0.956101056 0.3031989374
23050161700.0 -0.9540442501 0.3156616764
23100161400.0 -0.952074102 0.3286618499
23150161100.0 -0.948568625 0.340585257
23200160800.0 -0.946023073 0.3526969523
23250160500.0 -0.9437155435 0.3649270627
23300160200.0 -0.9410564755 0.3764810246
23350159900.0 -0.9368436312 0.3903071965
23400159600.0 -0.9323615739 0.4029547606
23450159300.0 -0.9276792305 0.4154374268
23500159000.0 -0.922953338 0.4283399588
23550158700.0 -0.9184029664 0.4417746812
23600158400.0 -0.9131832381 0.4547825142
23650158100.0 -0.9068576837 0.4686983056
23700157800.0 -0.8991564704 0.4825188506
23750157500.0 -0.8908016897 0.4962281537
23800157200.0 -0.8818400578 0.5090563551
23850156900.0 -0.8727382227 0.5216639383
23900156600.0 -0.8640502686 0.5344107377
23950156300.0 -0.8546841144 0.5468258749
24000156000.0 -0.8454084439 0.5590669412
24050155700.0 -0.8351496961 0.5705028914
24100155400.0 -0.825408679 0.5826328051
24150155100.0 -0.814665194 0.5950476186
24200154800.0 -0.8035038435 0.6057570093
24250154500.0 -0.7919190402 0.6179127918
24300154200.0 -0.780950879 0.6297632322
24350153900.0 -0.7688044515 0.6395654143
24400153600.0 -0.7568570717 0.6499710854
24450153300.0 -0.7450708829 0.6603049934
24500153000.0 -0.7331217918 0.6699729716
24550152700.0 -0.7219903155 0.6797241432
24600152400.0 -0.7107213564 0.6888136769
24650152100.0 -0.6986668655 0.6972969405
