!Created with skrf (http://scikit-rf.org).
# Hz S RI R 50.0 
!freq ReS11 ImS11
300000.0 -0.998063593 -0.0389885213
50299700.0 -0.9991450572 0.0162701552
100299400.0 -0.99729449 0.0288486773
150299100.0 -1.002144725 0.0455834586
200298800.0 -0.9988226133 0.0589339621
250298500.0 -0.9964656034 0.0723122537
300298200.0 -0.9851277594 0.087965095
350297900.0 -0.9929693242 0.098773055
400297600.0 -0.9920659632 0.1152023859
450297300.0 -0.9898325582 0.129062584
500297000.0 -0.9882128638 0.143698864
550296700.0 -0.982937053 0.1561012401
600296400.0 -1.015805443 0.1892036267
650296100.0 -0.9807222677 0.1857310265
700295800.0 -0.9778147967 0.1998669112
750295500.0 -0.9747264571 0.2138333965
800295200.0 -0.9713825316 0.2275641544
850294900.0 -0.9681502048 0.2413748971
900294600.0 -0.964117643 0.2553215632
950294300.0 -0.9606368723 0.2688130521
1000294000.0 -0.9565175557 0.2828287819
1050293700.0 -0.9521521347 0.2964946758
1100293400.0 -0.9478904339 0.3107667413
1150293100.0 -0.9442797137 0.3227923958
1200292800.0 -0.9388475309 0.3370399571
1250292500.0 -0.9335703732 0.3504731585
1300292200.0 -0.928063944 0.3636173593
1350291900.0 -0.9226196055 0.3775718115
1400291600.0 -0.9170906481 0.3906207964
1450291300.0 -0.9117353885 0.403009947
1500291000.0 -0.9054653853 0.4164756893
1550290700.0 -0.8992113343 0.4294602836
1600290400.0 -0.8930412364 0.4424925888
1650290100.0 -0.8865630994 0.4544248284
1700289800.0 -0.879644461 0.4679793207
1750289500.0 -0.8727348086 0.4801582533
1800289200.0 -0.8654049305 0.492953827
1850288900.0 -0.8587427389 0.5043656101
1900288600.0 -0.8512276991 0.5172939343
1950288300.0 -0.843035108 0.5297692616
2000288000.0 -0.8356689154 0.5411175906
2050287700.0 -0.8274260295 0.553474681
2100287400.0 -0.8196133004 0.5650631465
2150287100.0 -0.8111142381 0.5772499926
2200286800.0 -0.8033503855 0.5877303217
2250286500.0 -0.7946262644 0.5994596903
2300286200.0 -0.7856502819 0.6110551294
2350285900.0 -0.7769354099 0.6219540532
2400285600.0 -0.7677176417 0.633148729
2450285300.0 -0.759285031 0.6437311879
2500285000.0 -0.7499482907 0.6545825374
2550284700.0 -0.7404926583 0.6650418855
2600284400.0 -0.730881012 0.6754671319
2650284100.0 -0.7222237804 0.685584741
2700283800.0 -0.7118626622 0.6960483539
2750283500.0 -0.7016358591 0.7065169074
2800283200.0 -0.6918338769 0.7163407544
2850282900.0 -0.6814627629 0.7261022063
2900282600.0 -0.6709562568 0.7356381742
2950282300.0 -0.6608535199 0.7446713941
3000282000.0 -0.6500787226 0.7544119215
3050281700.0 -0.6392591639 0.7636494797
3100281400.0 -0.6280769238 0.7725115739
3150281100.0 -0.61681674 0.781598164
3200280800.0 -0.605181302 0.7904454279
3250280500.0 -0.5941484379 0.7985479755
3300280200.0 -0.5828901916 0.8067181812
3350279900.0 -0.5717366749 0.8142430378
3400279600.0 -0.5595188541 0.8221524335
3450279300.0 -0.548320539 0.8296784818
3500279000.0 -0.5366492698 0.8369238874
3550278700.0 -0.5244636414 0.8443655992
3600278400.0 -0.5129378211 0.8511844637
3650278100.0 -0.499549808 0.859221894
3700277800.0 -0.4877852505 0.8655729485
3750277500.0 -0.4756860734 0.8722820148
3800277200.0 -0.463089788 0.8788643858
3850276900.0 -0.4505771508 0.8850820981
3900276600.0 -0.4395345644 0.8912264821
3950276300.0 -0.426396615 0.8974426584
4000276000.0 -0.4144037175 0.9034499057
4050275700.0 -0.4008884728 0.9093746146
4100275400.0 -0.3897159111 0.9149365315
4150275100.0 -0.3768070109 0.9204347274
4200274800.0 -0.3630936129 0.9259595379
4250274500.0 -0.3511213046 0.9306600226
4300274200.0 -0.3380559317 0.936274405
4350273900.0 -0.3246915517 0.9408097421
4400273600.0 -0.3107494209 0.945607169
4450273300.0 -0.2959684224 0.950654899
4500273000.0 -0.2829200278 0.954756458
4550272700.0 -0.2694184384 0.9588665748
4600272400.0 -0.2539082134 0.962994184
4650272100.0 -0.2418944558 0.9662713958
4700271800.0 -0.2284181797 0.9695789277
4750271500.0 -0.215876992 0.972637901
4800271200.0 -0.2027509404 0.9755134674
4850270900.0 -0.1890082145 0.9782022264
4900270600.0 -0.175537898 0.9807272686
4950270300.0 -0.1618051291 0.9830690584
5000270000.0 -0.1477906767 0.9851897837
5050269700.0 -0.1341547433 0.9868594127
5100269400.0 -0.1203096505 0.9889980982
5150269100.0 -0.1066136861 0.9911153119
5200268800.0 -0.0931174247 0.9920502201
5250268500.0 -0.0802243443 0.9930917966
5300268200.0 -0.0665030196 0.9936153527
5350267900.0 -0.054442246 0.9944321603
5400267600.0 -0.0383956883 0.9957556569
5450267300.0 -0.0260030909 0.9959686814
5500267000.0 -0.0112784227 0.9961918348
5550266700.0 0.0023285932 0.996324401
5600266400.0 0.0172142084 0.9964143087
5650266100.0 0.0329889817 0.9960358089
5700265800.0 0.0467510123 0.9953338391
5750265500.0 0.0613351571 0.9947835364
5800265200.0 0.0753189512 0.9939209205
5850264900.0 0.0886157071 0.9931387749
5900264600.0 0.1046744373 0.9918104341
5950264300.0 0.1168099443 0.9899080932
6000264000.0 0.1309877625 0.988148197
6050263700.0 0.1436242573 0.9864708932
6100263400.0 0.1566459842 0.984661276
6150263100.0 0.1721011053 0.9820304372
6200262800.0 0.1826428645 0.980232633
6250262500.0 0.1961125904 0.9776533744
6300262200.0 0.2088153382 0.9749476905
6350261900.0 0.221963116 0.9720861918
6400261600.0 0.2361782045 0.9687443276
6450261300.0 0.2479607485 0.9659902063
6500261000.0 0.260784629 0.962496685
6550260700.0 0.2738930077 0.9584531387
6600260400.0 0.2872275838 0.9545722723
6650260100.0 0.3008343428 0.9504507226
6700259800.0 0.3128710037 0.9466279691
6750259500.0 0.3264176302 0.9417036418
6800259200.0 0.3396967951 0.9368366779
6850258900.0 0.3517443026 0.9321126939
6900258600.0 0.3643642224 0.9273102697
6950258300.0 0.3771207281 0.9222863444
7000258000.0 0.3891334897 0.9168936216
7050257700.0 0.4010653362 0.9112795953
7100257400.0 0.4146567452 0.9050028155
7150257100.0 0.4251432718 0.8998256449
7200256800.0 0.4382512233 0.8936159657
7250256500.0 0.4496323955 0.887826624
7300256200.0 0.4626104388 0.8812715474
7350255900.0 0.4744767555 0.8746809308
7400255600.0 0.4858539574 0.868506225
7450255300.0 0.5007257717 0.8604234484
7500255000.0 0.5121071121 0.8532009712
7550254700.0 0.5244946558 0.8458898214
7600254400.0 0.5366304856 0.8377648014
7650254100.0 0.5482099091 0.8302166852
7700253800.0 0.5599605529 0.8224424987
7750253500.0 0.5712468537 0.8147930354
7800253200.0 0.5826485839 0.8067308961
7850252900.0 0.592364025 0.7999401874
7900252600.0 0.6044030448 0.7908601516
7950252300.0 0.6138409423 0.7836505608
8000252000.0 0.6243354033 0.775468457
8050251700.0 0.6349199876 0.7670890556
8100251400.0 0.6448044181 0.7588658662
8150251100.0 0.6557305065 0.7497284598
8200250800.0 0.6653084338 0.7416055408
8250250500.0 0.674635166 0.7330381015
8300250200.0 0.6844271322 0.724104011
8350249900.0 0.6938350718 0.7151702865
8400249600.0 0.7023514906 0.7067545816
8450249300.0 0.7118722981 0.6972571504
8500249000.0 0.7211087154 0.6879639627
8550248700.0 0.73024167 0.6781859725
8600248400.0 0.7391935099 0.6682516535
8650248100.0 0.7470336587 0.6590608886
8700247800.0 0.7562483927 0.6481039006
8750247500.0 0.7650097055 0.6381500024
8800247200.0 0.7731664316 0.6278570233
8850246900.0 0.7817061375 0.6168427609
8900246600.0 0.7897898135 0.6063215186
8950246300.0 0.7989450609 0.5941581179
9000246000.0 0.8073081027 0.5827513854
9050245700.0 0.8157504166 0.5710866991
9100245400.0 0.8238163426 0.5589824466
9150245100.0 0.8321362939 0.5468880001
9200244800.0 0.8405809638 0.5345742219
9250244500.0 0.8490761207 0.5209060088
9300244200.0 0.8566557293 0.508349021
9350243900.0 0.8642964638 0.4952704208
9400243600.0 0.8712569688 0.4828398866
9450243300.0 0.8772314806 0.4712584556
9500243000.0 0.8844033409 0.4581558208
9550242700.0 0.8898861965 0.4473952642
9600242400.0 0.8952940898 0.4367228558
9650242100.0 0.8999119056 0.4274294471
9700241800.0 0.9048620983 0.4176527751
9750241500.0 0.9100056669 0.407288244
9800241200.0 0.9147795217 0.3962781503
9850240900.0 0.9202007952 0.3846095216
9900240600.0 0.9250242088 0.374294348
9950240300.0 0.9308374947 0.3597650813
10000240000.0 0.9362378112 0.3471583106
10050239700.0 0.9412941086 0.3332198112
10100239400.0 0.9457638679 0.3186665123
10150239100.0 0.9500245294 0.305434694
10200238800.0 0.9548196292 0.2903720651
10250238500.0 0.9584751962 0.277256964
10300238200.0 0.9620207909 0.2635290091
10350237900.0 0.9651209799 0.2503026217
10400237600.0 0.9679723965 0.2368746207
10450237300.0 0.9712723341 0.2233543027
10500237000.0 0.9738633982 0.2105845936
10550236700.0 0.9762531706 0.1970885529
10600236400.0 0.9787165209 0.1837132579
10650236100.0 0.9809174743 0.1691037773
10700235800.0 0.9835964591 0.1561614695
10750235500.0 0.985598028 0.1431645238
10800235200.0 0.9872777088 0.1295282396
10850234900.0 0.9890822113 0.1153423574
10900234600.0 0.9911633836 0.1008292901
10950234300.0 0.9927786568 0.0877694033
11000234000.0 0.9941360532 0.0738392339
11050233700.0 0.9954724923 0.0592331186
11100233400.0 0.9968591899 0.0433233632
11150233100.0 0.9976725919 0.0280237076
11200232800.0 0.9983458918 0.0138957569
11250232500.0 0.9988265737 -0.0010789673
11300232200.0 0.9995943466 -0.0179415375
11350231900.0 0.9991182249 -0.0324982266
11400231600.0 0.9986078464 -0.0467327141
11450231300.0 0.9981627853 -0.0616085082
11500231000.0 0.9978069608 -0.0771477799
11550230700.0 0.9963206955 -0.0903703357
11600230400.0 0.9949095055 -0.1045067811
11650230100.0 0.9933479169 -0.1164503328
11700229800.0 0.9915277672 -0.1316195634
11750229500.0 0.9893597701 -0.145828487
11800229200.0 0.987162661 -0.159447628
11850228900.0 0.9842700134 -0.1732183594
11900228600.0 0.9811583587 -0.1854809989
11950228300.0 0.9781795719 -0.1976305659
12000228000.0 0.9754802538 -0.2083478227
12050227700.0 0.9724952447 -0.2214477469
12100227400.0 0.9696830182 -0.2321448744
12150227100.0 0.9652340689 -0.2495664822
12200226800.0 0.9615638013 -0.2616008294
12250226500.0 0.9580172918 -0.2742864057
12300226200.0 0.9537378258 -0.2864780841
12350225900.0 0.9487833978 -0.3020322885
12400225600.0 0.9451028156 -0.3143733946
12450225300.0 0.9411950744 -0.326366834
12500225000.0 0.9359056097 -0.3406266298
12550224700.0 0.9309223301 -0.3547059377
12600224400.0 0.9258975319 -0.3669992508
12650224100.0 0.9202115163 -0.3811500359
12700223800.0 0.9150993464 -0.3937690385
12750223500.0 0.9095672854 -0.406691817
12800223200.0 0.9039433663 -0.4198458586
12850222900.0 0.8987105108 -0.4317602228
12900222600.0 0.892719497 -0.4439346266
12950222300.0 0.8857497483 -0.4571364407
13000222000.0 0.8799551217 -0.4690737038
13050221700.0 0.8731505038 -0.4817739288
13100221400.0 0.8665205263 -0.4938879238
13150221100.0 0.8596247 -0.5064511246
13200220800.0 0.8522729344 -0.5180384803
13250220500.0 0.8452908843 -0.5299986315
13300220200.0 0.8375797817 -0.5413777473
13350219900.0 0.8295686763 -0.5538367532
13400219600.0 0.8216119162 -0.5654264592
13450219300.0 0.8130800535 -0.5779482553
13500219000.0 0.8037831196 -0.590715356
13550218700.0 0.7944768947 -0.602606744
13600218400.0 0.7854103795 -0.6144633541
13650218100.0 0.7761210334 -0.6253192618
13700217800.0 0.7656726432 -0.6377427777
13750217500.0 0.7566235974 -0.6489180786
13800217200.0 0.7455560254 -0.660809984
13850216900.0 0.7360074965 -0.672978088
13900216600.0 0.7264856419 -0.6816430528
13950216300.0 0.7151654709 -0.6926736916
14000216000.0 0.7056030365 -0.701756197
14050215700.0 0.6963830012 -0.7105909225
14100215400.0 0.6854386332 -0.7213158971
14150215100.0 0.6757924409 -0.7298447645
14200214800.0 0.6661943234 -0.7390235063
14250214500.0 0.6556847938 -0.7486848072
14300214200.0 0.6448604809 -0.7582722906
14350213900.0 0.634011422 -0.7677754841
14400213600.0 0.6226313756 -0.7768752096
14450213300.0 0.6109983609 -0.7864390838
14500213000.0 0.5983979622 -0.7955322542
14550212700.0 0.5868279832 -0.8046970846
14600212400.0 0.5747879512 -0.8134325276
14650212100.0 0.5629538176 -0.8214337139
14700211800.0 0.549534734 -0.8309195302
14750211500.0 0.5367524885 -0.8389843674
14800211200.0 0.5243481279 -0.8476458813
14850210900.0 0.5124966399 -0.8549108639
14900210600.0 0.4995600333 -0.8627972953
14950210300.0 0.48623205 -0.8704294729
15000210000.0 0.4735475137 -0.8774427527
15050209700.0 0.4608912965 -0.8844064609
15100209400.0 0.4477439106 -0.8908377858
15150209100.0 0.435639944 -0.8970115943
15200208800.0 0.4222698153 -0.9023327676
15250208500.0 0.4098271351 -0.9084917054
15300208200.0 0.3971677456 -0.9136880681
15350207900.0 0.3841665786 -0.9192232678
15400207600.0 0.3688654478 -0.9253272004
15450207300.0 0.3553033539 -0.9296103476
15500207000.0 0.3414935604 -0.9343519275
15550206700.0 0.3265712718 -0.9395450087
15600206400.0 0.3125264156 -0.944595782
15650206100.0 0.2967650365 -0.9487782039
15700205800.0 0.2836873108 -0.9527993121
15750205500.0 0.2694178325 -0.9566139537
15800205200.0 0.2552025442 -0.9604337106
15850204900.0 0.2412644683 -0.9639518792
15900204600.0 0.226305719 -0.9678803637
15950204300.0 0.212335389 -0.9710271406
16000204000.0 0.1979951726 -0.9738481252
16050203700.0 0.1836095908 -0.9772170786
16100203400.0 0.1690298455 -0.9793318141
16150203100.0 0.1548702229 -0.9817525614
16200202800.0 0.1401946992 -0.9843971344
16250202500.0 0.1253459493 -0.9859180271
16300202200.0 0.1107588066 -0.9877948265
16350201900.0 0.0954760634 -0.9891315665
16400201600.0 0.0808911455 -0.9906195583
16450201300.0 0.0661705832 -0.9916115059
16500201000.0 0.0501180275 -0.9927937945
16550200700.0 0.034935234 -0.9937495031
16600200400.0 0.0192721754 -0.9939670499
16650200100.0 0.0035106805 -0.9943093324
16700199800.0 -0.0115314743 -0.9945073918
16750199500.0 -0.0290570688 -0.9941039981
16800199200.0 -0.0445672245 -0.9934810448
16850198900.0 -0.060184115 -0.9926849842
16900198600.0 -0.0744782243 -0.9918985059
16950198300.0 -0.088994521 -0.9906074722
17000198000.0 -0.102840526 -0.9891056952
17050197700.0 -0.1165065377 -0.9882326561
17100197400.0 -0.1310495402 -0.9854088175
17150197100.0 -0.1444181741 -0.9836497452
17200196800.0 -0.1579022681 -0.9813437988
17250196500.0 -0.1711454009 -0.9788742622
17300196200.0 -0.1846949914 -0.9764104944
17350195900.0 -0.1982543226 -0.9740561456
17400195600.0 -0.2112268103 -0.9711962057
17450195300.0 -0.2246867787 -0.968298921
17500195000.0 -0.2383809881 -0.965079905
17550194700.0 -0.2523992276 -0.9618248735
17600194400.0 -0.266371223 -0.9574345265
17650194100.0 -0.2805475432 -0.9534890958
17700193800.0 -0.2930077867 -0.9499211384
17750193500.0 -0.3070989092 -0.9452430421
17800193200.0 -0.3214314127 -0.9405367704
17850192900.0 -0.3354980591 -0.9355228245
17900192600.0 -0.3498851497 -0.9302176116
17950192300.0 -0.3647833584 -0.9239412692
18000192000.0 -0.3795711822 -0.9175759197
18050191700.0 -0.3935825165 -0.9105519527
18100191400.0 -0.4078333116 -0.9036506288
18150191100.0 -0.4218733974 -0.8966404986
18200190800.0 -0.4371645767 -0.8889095147
18250190500.0 -0.4530437769 -0.8808530743
18300190200.0 -0.4676364046 -0.8724709101
18350189900.0 -0.4826286082 -0.8652580693
18400189600.0 -0.4968487245 -0.8570900515
18450189300.0 -0.5106046206 -0.8496784406
18500189000.0 -0.523476551 -0.841557439
18550188700.0 -0.5365529561 -0.8342529857
18600188400.0 -0.5492690425 -0.8263963371
18650188100.0 -0.5611154665 -0.8191589045
18700187800.0 -0.5728497471 -0.8115209495
18750187500.0 -0.5844229337 -0.8040631517
18800187200.0 -0.5957901263 -0.7961505731
18850186900.0 -0.6066118825 -0.7881788706
18900186600.0 -0.6171771773 -0.780183995
18950186300.0 -0.6281794055 -0.7714967843
19000186000.0 -0.6372521041 -0.7636729981
19050185700.0 -0.6476858193 -0.7558729441
19100185400.0 -0.6580541457 -0.747120112
19150185100.0 -0.6682728273 -0.7375563337
19200184800.0 -0.6774972519 -0.7293291232
19250184500.0 -0.6876704651 -0.7194485018
19300184200.0 -0.6993565012 -0.7096124197
19350183900.0 -0.7091008629 -0.7001943854
19400183600.0 -0.7188318686 -0.6898935552
19450183300.0 -0.7286129948 -0.6790667077
19500183000.0 -0.7368681925 -0.6698586449
19550182700.0 -0.7461516168 -0.658580733
19600182400.0 -0.7561123385 -0.6477067623
19650182100.0 -0.7659276478 -0.6355141244
19700181800.0 -0.775977396 -0.6237426523
19750181500.0 -0.7854592154 -0.6110565774
19800181200.0 -0.7954220454 -0.5979345363
19850180900.0 -0.8049114669 -0.584200565
19900180600.0 -0.8128915149 -0.5713023139
19950180300.0 -0.8225302171 -0.5568337507
20000180000.0 -0.8245353041 -0.5500733244
20050179700.0 -0.8323026379 -0.5383042258
20100179400.0 -0.8408074764 -0.525367007
20150179100.0 -0.8492246722 -0.5130338191
20200178800.0 -0.8579976609 -0.5003101262
20250178500.0 -0.8660482411 -0.4877251452
20300178200.0 -0.8745226518 -0.4732652846
20350177900.0 -0.8822141723 -0.4602471363
20400177600.0 -0.8899272892 -0.4469125074
20450177300.0 -0.8971439052 -0.4333176124
20500177000.0 -0.9043333384 -0.4203384893
20550176700.0 -0.9112937158 -0.4065761383
20600176400.0 -0.9178970063 -0.3939259767
20650176100.0 -0.9237750338 -0.3814578448
20700175800.0 -0.9298764166 -0.3683898182
20750175500.0 -0.936663725 -0.3559633406
20800175200.0 -0.9411581338 -0.3438042682
20850174900.0 -0.9464221856 -0.3320671178
20900174600.0 -0.9509367761 -0.3186977947
20950174300.0 -0.954404281 -0.3072166902
21000174000.0 -0.9582293442 -0.2949171105
21050173700.0 -0.9615396982 -0.2834039795
21100173400.0 -0.9657696083 -0.2701960432
21150173100.0 -0.9692056121 -0.2572790736
21200172800.0 -0.9724785781 -0.2430741181
21250172500.0 -0.9761385054 -0.2298140974
21300172200.0 -0.9791517724 -0.216075623
21350171900.0 -0.9814959021 -0.2019008433
21400171600.0 -0.9842131281 -0.1874293568
21450171300.0 -0.9860447632 -0.1730546947
21500171000.0 -0.9866508277 -0.1583863146
21550170700.0 -0.9876421054 -0.1438708023
21600170400.0 -0.9892884163 -0.1277663673
21650170100.0 -0.9906557451 -0.1133185929
21700169800.0 -0.9899577723 -0.0977999691
21750169500.0 -0.990071241 -0.0820584917
21800169200.0 -0.9909457764 -0.0683885493
21850168900.0 -0.9908530787 -0.0519913894
21900168600.0 -0.9906038858 -0.0359671021
21950168300.0 -0.989711475 -0.0202310295
22000168000.0 -0.9892954276 -0.0054654012
22050167700.0 -0.9892147387 0.0084133246
22100167400.0 -0.9888073826 0.0238046081
22150167100.0 -0.9892625219 0.0385088359
22200166800.0 -0.9890221405 0.0535540406
22250166500.0 -0.9879350156 0.0703348169
22300166200.0 -0.9873465088 0.0851657214
22350165900.0 -0.9860572422 0.1001511379
22400165600.0 -0.9844809912 0.1150386447
22450165300.0 -0.9826737616 0.1297377283
22500165000.0 -0.9807088884 0.1428382884
22550164700.0 -0.9790626679 0.1591270933
22600164400.0 -0.977502953 0.1738503041
22650164100.0 -0.9746616798 0.1870168959
22700163800.0 -0.9726284934 0.2016023998
22750163500.0 -0.9702862988 0.2158953119
22800163200.0 -0.9669489524 0.2291249414
22850162900.0 -0.9638506339 0.2423740859
22900162600.0 -0.9617853787 0.2560910717
22950162300.0 -0.9597868552 0.2692025812
23000162000.0 -0.9576083012 0.2815774804
23050161700.0 -0.9546865323 0.294781059
23100161400.0 -0.9516742103 0.3078199364
23150161100.0 -0.9480271955 0.3193626688
23200160800.0 -0.945040486 0.3330904418
23250160500.0 -0.9412836321 0.3457369374
23300160200.0 -0.9384868564 0.357381722
23350159900.0 -0.9346438427 0.3703600701
23400159600.0 -0.930175569 0.3836933568
23450159300.0 -0.9253329018 0.3961013411
23500159000.0 -0.9202189682 0.4089412873
23550158700.0 -0.9154605143 0.421507773
23600158400.0 -0.9104291298 0.4341064029
23650158100.0 -0.9045528621 0.4472763522
23700157800.0 -0.8979431678 0.4600166559
23750157500.0 -0.8903880051 0.4736925508
23800157200.0 -0.8825310909 0.4864877763
23850156900.0 -0.8752487649 0.4987500955
23900156600.0 -0.867214366 0.5115230195
23950156300.0 -0.8585947366 0.5240391814
24000156000.0 -0.8506313003 0.5351190339
24050155700.0 -0.841261694 0.5471908996
24100155400.0 -0.8329126771 0.5596441511
24150155100.0 -0.8234888457 0.5713368446
24200154800.0 -0.8136860542 0.5824363884
24250154500.0 -0.804928765 0.5937645409
24300154200.0 -0.794608009 0.6056597586
24350153900.0 -0.7844244917 0.6167538303
24400153600.0 -0.7737048999 0.6274739037
24450153300.0 -0.763373092 0.6381929259
24500153000.0 -0.7529204041 0.6485338454
24550152700.0 -0.7431703287 0.6586830335
24600152400.0 -0.7323967235 0.6688700593
24650152100.0 -0.7217342532 0.6782795494
