!Created with skrf (http://scikit-rf.org).
# Hz S RI R 50.0 
!freq ReS11 ImS11
300000.0 -0.9737864098 -0.1236077824
50299700.0 -0.9998594747 0.0149529177
100299400.0 -0.9979877585 0.0278523547
150299100.0 -1.002631328 0.0447908584
200298800.0 -0.9995774846 0.0581363191
250298500.0 -0.9975051844 0.0717090413
300298200.0 -0.9859069012 0.0875537947
350297900.0 -0.9938618636 0.0984481509
400297600.0 -0.9930588472 0.114948576
450297300.0 -0.9910931033 0.1287104079
500297000.0 -0.9893377158 0.1433983954
550296700.0 -0.9842185156 0.1558009341
600296400.0 -1.01732082 0.1890174197
650296100.0 -0.9822720704 0.1855483005
700295800.0 -0.9792223144 0.2000187788
750295500.0 -0.9763333116 0.2141035413
800295200.0 -0.9729407096 0.22817334
850294900.0 -0.9696590748 0.2418446749
900294600.0 -0.9658660938 0.2556473131
950294300.0 -0.962058827 0.269299415
1000294000.0 -0.9581900892 0.2832167056
1050293700.0 -0.953572187 0.2970638151
1100293400.0 -0.9493646199 0.311573151
1150293100.0 -0.9454617772 0.3233522271
1200292800.0 -0.9402818868 0.3377504869
1250292500.0 -0.9347178141 0.3511491337
1300292200.0 -0.9290026606 0.3645073816
1350291900.0 -0.923332291 0.3784287181
1400291600.0 -0.9180254672 0.3915106201
1450291300.0 -0.912489946 0.4040230506
1500291000.0 -0.906153698 0.4173806958
1550290700.0 -0.8996906092 0.4308365784
1600290400.0 -0.8934106751 0.4435335049
1650290100.0 -0.8867572266 0.4558812197
1700289800.0 -0.879891272 0.4691169471
1750289500.0 -0.8728859743 0.4816520294
1800289200.0 -0.8656153308 0.4943665276
1850288900.0 -0.8587306864 0.5057281932
1900288600.0 -0.8509849765 0.5188696075
1950288300.0 -0.8429558028 0.5311784575
2000288000.0 -0.8355420057 0.5428747539
2050287700.0 -0.8270660086 0.5552705412
2100287400.0 -0.8192753762 0.5666172051
2150287100.0 -0.8107748164 0.5786591414
2200286800.0 -0.8029642783 0.5891403542
2250286500.0 -0.79413607 0.6013523149
2300286200.0 -0.7852606449 0.6128959822
2350285900.0 -0.7767257263 0.6235280944
2400285600.0 -0.7677895643 0.634549903
2450285300.0 -0.7591125248 0.6451393976
2500285000.0 -0.7493263255 0.6565277056
2550284700.0 -0.7401492591 0.6669641313
2600284400.0 -0.7309572053 0.6769499304
2650284100.0 -0.7224497763 0.6871083949
2700283800.0 -0.7118748749 0.6975045254
2750283500.0 -0.7014567808 0.7080614014
2800283200.0 -0.6916385635 0.7180348602
2850282900.0 -0.6809602342 0.7282346097
2900282600.0 -0.670741878 0.7379398756
2950282300.0 -0.6603180886 0.7473199308
3000282000.0 -0.6495392212 0.7564795301
3050281700.0 -0.6384557946 0.7660525204
3100281400.0 -0.6268954505 0.7749007605
3150281100.0 -0.6155180633 0.7839297262
3200280800.0 -0.604132086 0.7924493386
3250280500.0 -0.5930292279 0.8003638658
3300280200.0 -0.5813971734 0.8085454225
3350279900.0 -0.5692603129 0.816516242
3400279600.0 -0.5567271566 0.8244571447
3450279300.0 -0.5456024004 0.8317419937
3500279000.0 -0.5335928592 0.8383341421
3550278700.0 -0.5216560338 0.8455400695
3600278400.0 -0.50991075 0.8522729224
3650278100.0 -0.4968790957 0.8600586164
3700277800.0 -0.4846092173 0.8666024793
3750277500.0 -0.4723192758 0.8731531116
3800277200.0 -0.4596257735 0.8795163723
3850276900.0 -0.4476152275 0.8857517766
3900276600.0 -0.4370017749 0.8913671576
3950276300.0 -0.4248412351 0.8972907447
4000276000.0 -0.4131040301 0.9031877845
4050275700.0 -0.4003924153 0.9089918285
4100275400.0 -0.3893930241 0.914617351
4150275100.0 -0.3760742108 0.9205111584
4200274800.0 -0.362710415 0.9260322247
4250274500.0 -0.3499215553 0.931455912
4300274200.0 -0.3368664162 0.9369965543
4350273900.0 -0.3226091877 0.9420619389
4400273600.0 -0.3078492742 0.9472333468
4450273300.0 -0.2929252225 0.9521359699
4500273000.0 -0.279611554 0.9563295515
4550272700.0 -0.266006891 0.9605409018
4600272400.0 -0.2509879806 0.9646514022
4650272100.0 -0.239680143 0.9678945394
4700271800.0 -0.2264156314 0.9711690207
4750271500.0 -0.2151151061 0.9740615882
4800271200.0 -0.2026459046 0.97668652
4850270900.0 -0.1890126254 0.9794588018
4900270600.0 -0.175242076 0.9821654923
4950270300.0 -0.1605475146 0.9846351733
5000270000.0 -0.14628423 0.9865397563
5050269700.0 -0.1326435697 0.9883468299
5100269400.0 -0.1186627297 0.9900061678
5150269100.0 -0.1047596813 0.9916337363
5200268800.0 -0.0911932414 0.9928256984
5250268500.0 -0.0780996949 0.9939217814
5300268200.0 -0.0647000666 0.9945850512
5350267900.0 -0.0518379485 0.9953361257
5400267600.0 -0.0356832786 0.9960491293
5450267300.0 -0.0221930595 0.9966754494
5500267000.0 -0.0068171101 0.9970292796
5550266700.0 0.0080763787 0.9974218805
5600266400.0 0.0238983946 0.9971844557
5650266100.0 0.0405939591 0.9967999699
5700265800.0 0.0547418771 0.9958734134
5750265500.0 0.069343688 0.9948473506
5800265200.0 0.0830704301 0.9938864221
5850264900.0 0.0965200026 0.993069143
5900264600.0 0.1130998721 0.991474543
5950264300.0 0.1244028679 0.9894561182
6000264000.0 0.1380680158 0.9878596693
6050263700.0 0.1498337377 0.9863490525
6100263400.0 0.161851957 0.9847788496
6150263100.0 0.1766015343 0.9824343549
6200262800.0 0.1863960448 0.981068863
6250262500.0 0.1991358327 0.9785601503
6300262200.0 0.2113472705 0.9762111634
6350261900.0 0.2238847422 0.9732108901
6400261600.0 0.23789997 0.9700132226
6450261300.0 0.2488046134 0.9676732203
6500261000.0 0.2625741147 0.9641434415
6550260700.0 0.2755028879 0.9603351804
6600260400.0 0.2888937253 0.9559649482
6650260100.0 0.3026262154 0.9516962961
6700259800.0 0.3149953685 0.9472875498
6750259500.0 0.3286843184 0.9424228946
6800259200.0 0.3419338045 0.9370128203
6850258900.0 0.3546040764 0.9319242945
6900258600.0 0.3674206708 0.9269665913
6950258300.0 0.3797355433 0.9216403172
7000258000.0 0.3912307271 0.9161624496
7050257700.0 0.4033165874 0.9105885862
7100257400.0 0.416755789 0.904069501
7150257100.0 0.4273372018 0.8987394028
7200256800.0 0.4403852859 0.8921405551
7250256500.0 0.4531174722 0.8854710359
7300256200.0 0.4658168291 0.8785636609
7350255900.0 0.4785010689 0.8717543892
7400255600.0 0.4926719648 0.8639996492
7450255300.0 0.5086093076 0.855051087
7500255000.0 0.521053871 0.8474993086
7550254700.0 0.5350428815 0.8381492322
7600254400.0 0.5478453686 0.8301028417
7650254100.0 0.5593994047 0.822203408
7700253800.0 0.5708545195 0.8140590938
7750253500.0 0.5816826874 0.8064443917
7800253200.0 0.5924556747 0.7985352038
7850252900.0 0.6023384894 0.7911955135
7900252600.0 0.6139707666 0.7825343197
7950252300.0 0.6222335492 0.7762504407
8000252000.0 0.6322895844 0.7685100677
8050251700.0 0.642814239 0.7605355302
8100251400.0 0.6522011813 0.7527049038
8150251100.0 0.662739653 0.7440733829
8200250800.0 0.6720648496 0.7359506627
8250250500.0 0.6807331799 0.7281459226
8300250200.0 0.6897249341 0.7196239612
8350249900.0 0.6991750392 0.710886797
8400249600.0 0.7069488237 0.703011434
8450249300.0 0.7156260447 0.6939748126
8500249000.0 0.7243767813 0.6853917486
8550248700.0 0.7325275521 0.6762983877
8600248400.0 0.7410387075 0.6667859187
8650248100.0 0.7487110763 0.6573811409
8700247800.0 0.7580058598 0.6463233306
8750247500.0 0.7661966552 0.6361766248
8800247200.0 0.7742153786 0.625978778
8850246900.0 0.7829874227 0.6145856297
8900246600.0 0.7914505603 0.6031900034
8950246300.0 0.8005146652 0.5903111008
9000246000.0 0.8095059201 0.578637152
9050245700.0 0.8177360508 0.5663010505
9100245400.0 0.8261260094 0.5539012557
9150245100.0 0.8349982207 0.5408671593
9200244800.0 0.8445862463 0.5264119096
9250244500.0 0.8533834204 0.5118182192
9300244200.0 0.8616622325 0.4982233099
9350243900.0 0.8691185708 0.4850309974
9400243600.0 0.8757512609 0.4732707468
9450243300.0 0.8812355728 0.4627663373
9500243000.0 0.8876781547 0.4511317896
9550242700.0 0.8917629117 0.4434686512
9600242400.0 0.8958271657 0.4362103376
9650242100.0 0.9001661319 0.4291430483
9700241800.0 0.9050234694 0.4205154337
9750241500.0 0.9092554954 0.4131558565
9800241200.0 0.9141461616 0.4035826186
9850240900.0 0.9198006474 0.3916706456
9900240600.0 0.9260142468 0.3799690485
9950240300.0 0.9327426256 0.3633896329
10000240000.0 0.9377402721 0.3510461195
10050239700.0 0.9441780914 0.3348657164
10100239400.0 0.9491349921 0.318710342
10150239100.0 0.9538329694 0.3031157127
10200238800.0 0.9583098956 0.2877239519
10250238500.0 0.9614821582 0.2741228114
10300238200.0 0.9647426074 0.2600865277
10350237900.0 0.9674296102 0.2470737536
10400237600.0 0.970108242 0.2334218902
10450237300.0 0.9726822281 0.2197830055
10500237000.0 0.9748746208 0.2074681192
10550236700.0 0.9774666422 0.1926433804
10600236400.0 0.979371009 0.1794846584
10650236100.0 0.9812810816 0.1644370255
10700235800.0 0.9835660438 0.152436396
10750235500.0 0.9856319452 0.1391783874
10800235200.0 0.987667574 0.1245904451
10850234900.0 0.9898902845 0.109284544
10900234600.0 0.9921780787 0.0946051489
10950234300.0 0.9937278169 0.0811674947
11000234000.0 0.9955720349 0.0655493999
11050233700.0 0.9974934685 0.0489131766
11100233400.0 0.9987671422 0.031021718
11150233100.0 0.999793198 0.014291803
11200232800.0 1.0010575 -0.0011900323
11250232500.0 1.00233171 -0.0190638567
11300232200.0 1.002373266 -0.0379700312
11350231900.0 1.002423547 -0.0535456969
11400231600.0 1.001725518 -0.0706919041
11450231300.0 1.001332746 -0.0854640206
11500231000.0 0.9999817915 -0.1022902005
11550230700.0 0.9980922667 -0.115905695
11600230400.0 0.9973698742 -0.127494185
11650230100.0 0.9946924728 -0.139503053
11700229800.0 0.9931818921 -0.1549216378
11750229500.0 0.9901654719 -0.1681652528
11800229200.0 0.9873797699 -0.1816475219
11850228900.0 0.9837400918 -0.1935467856
11900228600.0 0.9800141272 -0.203326919
11950228300.0 0.9765291878 -0.2133549226
12000228000.0 0.9736452805 -0.2220606831
12050227700.0 0.9701507374 -0.2344582264
12100227400.0 0.9665752188 -0.2454203457
12150227100.0 0.9611295878 -0.262535221
12200226800.0 0.9583472716 -0.2726924417
12250226500.0 0.9542051616 -0.2857485526
12300226200.0 0.9490959808 -0.2987979244
12350225900.0 0.9443192694 -0.3117596543
12400225600.0 0.940103908 -0.3250370032
12450225300.0 0.9357525648 -0.3370908802
12500225000.0 0.9305438491 -0.3521706313
12550224700.0 0.9248180075 -0.3655991712
12600224400.0 0.9200394668 -0.3781147571
12650224100.0 0.9140939233 -0.3925400139
12700223800.0 0.908970717 -0.4053300107
12750223500.0 0.9033134873 -0.4184397998
12800223200.0 0.8978496781 -0.4311556051
12850222900.0 0.8928915608 -0.4428569962
12900222600.0 0.8870469817 -0.4550381711
12950222300.0 0.881090396 -0.4675853418
13000222000.0 0.8748574666 -0.4793258947
13050221700.0 0.8684302179 -0.4925539103
13100221400.0 0.8618677652 -0.5044191768
13150221100.0 0.8546974282 -0.5163454684
13200220800.0 0.8477083565 -0.5281348803
13250220500.0 0.8402380601 -0.5404920687
13300220200.0 0.832815738 -0.5511350278
13350219900.0 0.8247426341 -0.5632374416
13400219600.0 0.8164305689 -0.575045306
13450219300.0 0.8070019136 -0.5881146136
13500219000.0 0.7975192655 -0.6013098242
13550218700.0 0.7877811269 -0.6134945971
13600218400.0 0.7773246394 -0.6257766329
13650218100.0 0.767533876 -0.6362497669
13700217800.0 0.7574148666 -0.6483788138
13750217500.0 0.7475498905 -0.6598171796
13800217200.0 0.7364869664 -0.6705297609
13850216900.0 0.725340107 -0.6817058838
13900216600.0 0.7158074431 -0.6903153985
13950216300.0 0.7051484049 -0.7003776958
14000216000.0 0.6951851335 -0.7096202878
14050215700.0 0.6860168958 -0.7177113254
14100215400.0 0.6766965664 -0.7263678009
14150215100.0 0.6672729824 -0.7354477539
14200214800.0 0.6577483218 -0.7441541956
14250214500.0 0.6475071466 -0.753583184
14300214200.0 0.636902221 -0.7630945159
14350213900.0 0.6259943147 -0.7725950107
14400213600.0 0.6142068855 -0.7824072318
14450213300.0 0.601254271 -0.7927607253
14500213000.0 0.5882652998 -0.802634365
14550212700.0 0.5754600168 -0.8120381968
14600212400.0 0.5632981525 -0.8203346982
14650212100.0 0.5509502003 -0.8292473973
14700211800.0 0.5371259313 -0.8389358929
14750211500.0 0.5246498908 -0.8473104461
14800211200.0 0.5122901837 -0.8554888715
14850210900.0 0.4998611414 -0.8629867616
14900210600.0 0.4865515554 -0.8710967166
14950210300.0 0.4731323182 -0.8786618682
15000210000.0 0.4605176068 -0.8853724852
15050209700.0 0.4483573272 -0.891510637
15100209400.0 0.4354325372 -0.8974789921
15150209100.0 0.4232308864 -0.9033150812
15200208800.0 0.4104956788 -0.9081900572
15250208500.0 0.3997121912 -0.9125128654
15300208200.0 0.3874012922 -0.9179363552
15350207900.0 0.3735171171 -0.9217888151
15400207600.0 0.359009836 -0.9283184232
15450207300.0 0.3450275894 -0.9326367059
15500207000.0 0.3311049702 -0.9368264273
15550206700.0 0.3154805437 -0.9415085003
15600206400.0 0.2992865143 -0.9468388363
15650206100.0 0.2837744022 -0.950826199
15700205800.0 0.2701442538 -0.954332766
15750205500.0 0.2560529421 -0.9578705751
15800205200.0 0.2419555655 -0.9612336118
15850204900.0 0.2276909785 -0.96475132
15900204600.0 0.2126935298 -0.9683675769
15950204300.0 0.1981738904 -0.9717107818
16000204000.0 0.1838272721 -0.9746323019
16050203700.0 0.168897964 -0.9777336269
16100203400.0 0.1539113749 -0.9800785457
16150203100.0 0.1396801154 -0.9819149513
16200202800.0 0.1246949546 -0.9848557101
16250202500.0 0.1104041176 -0.9859345911
16300202200.0 0.094534102 -0.9873835431
16350201900.0 0.0798784659 -0.9892256047
16400201600.0 0.0650874303 -0.9902934633
16450201300.0 0.0496208782 -0.991332039
16500201000.0 0.0325324339 -0.9920929927
16550200700.0 0.0163762583 -0.9924527167
16600200400.0 0.0005514002 -0.9926598041
16650200100.0 -0.0154565461 -0.9924724077
16700199800.0 -0.0320096611 -0.9923450691
16750199500.0 -0.0505871423 -0.9916694406
16800199200.0 -0.0664824412 -0.9902506641
16850198900.0 -0.0822166248 -0.989557364
16900198600.0 -0.0968296155 -0.9884349273
16950198300.0 -0.1100280658 -0.9874510305
17000198000.0 -0.1235865075 -0.986008413
17050197700.0 -0.1359259313 -0.984189901
17100197400.0 -0.1491382106 -0.9816585405
17150197100.0 -0.1617472181 -0.9797696326
17200196800.0 -0.1745141494 -0.9779299967
17250196500.0 -0.1873562854 -0.9753230632
17300196200.0 -0.1997562272 -0.9729539622
17350195900.0 -0.2113543526 -0.9706605934
17400195600.0 -0.223398457 -0.9680955785
17450195300.0 -0.2362101451 -0.9652336455
17500195000.0 -0.2496488302 -0.9619947878
17550194700.0 -0.26311635 -0.958833564
17600194400.0 -0.2770270655 -0.9548087486
17650194100.0 -0.290568896 -0.950549944
17700193800.0 -0.3038081419 -0.9461852735
17750193500.0 -0.317303562 -0.9419839328
17800193200.0 -0.3319940548 -0.9365190021
17850192900.0 -0.3467978787 -0.930728289
17900192600.0 -0.3619904988 -0.9248002286
17950192300.0 -0.3773898116 -0.9176404132
18000192000.0 -0.3922247178 -0.9107648743
18050191700.0 -0.4058987017 -0.9025884266
18100191400.0 -0.4201368181 -0.8950382421
18150191100.0 -0.4350412965 -0.8869901075
18200190800.0 -0.4518436538 -0.8776789522
18250190500.0 -0.4688111017 -0.8682825064
18300190200.0 -0.4843384337 -0.8595981266
18350189900.0 -0.4992091827 -0.8515798614
18400189600.0 -0.5142472277 -0.8430933408
18450189300.0 -0.5270172816 -0.8350171033
18500189000.0 -0.5409821924 -0.8266711354
18550188700.0 -0.5534795284 -0.8187755682
18600188400.0 -0.5655412294 -0.8119327978
18650188100.0 -0.5764625862 -0.8055329427
18700187800.0 -0.5876484321 -0.7987285623
18750187500.0 -0.5988518351 -0.792404481
18800187200.0 -0.6092056813 -0.7852419452
18850186900.0 -0.6195768729 -0.7783392042
18900186600.0 -0.6298054324 -0.7709742989
18950186300.0 -0.6401285415 -0.7633047579
19000186000.0 -0.647614178 -0.7568097064
19050185700.0 -0.6567266342 -0.7500878833
19100185400.0 -0.6667795031 -0.7416717692
19150185100.0 -0.6769375424 -0.7330408666
19200184800.0 -0.6863009205 -0.7250538111
19250184500.0 -0.6962772105 -0.7152065216
19300184200.0 -0.708006555 -0.7058078186
19350183900.0 -0.7189730422 -0.6967359576
19400183600.0 -0.7281895992 -0.6865267552
19450183300.0 -0.7369853711 -0.6770590146
19500183000.0 -0.7457407429 -0.6666862918
19550182700.0 -0.75554061 -0.6558016846
19600182400.0 -0.765632422 -0.6442329463
19650182100.0 -0.7763607097 -0.6317777892
19700181800.0 -0.7866555397 -0.6182272143
19750181500.0 -0.7970050351 -0.6045354409
19800181200.0 -0.8071177497 -0.5895552025
19850180900.0 -0.8168187321 -0.5742607277
19900180600.0 -0.8244804711 -0.5598280108
19950180300.0 -0.8333224878 -0.5435335039
20000180000.0 -0.8233062028 -0.5473637035
20050179700.0 -0.8310587816 -0.534170298
20100179400.0 -0.8395974294 -0.5217313954
20150179100.0 -0.847841707 -0.5100953801
20200178800.0 -0.8559977255 -0.4981622294
20250178500.0 -0.865421207 -0.485443506
20300178200.0 -0.8751834021 -0.4709503945
20350177900.0 -0.884942707 -0.4575258326
20400177600.0 -0.8941708911 -0.4435474645
20450177300.0 -0.9023139792 -0.4289726637
20500177000.0 -0.9101823265 -0.4149579996
20550176700.0 -0.9184525106 -0.4017941739
20600176400.0 -0.9251201533 -0.3885250351
20650176100.0 -0.9321156881 -0.3766629647
20700175800.0 -0.9379748766 -0.3654837582
20750175500.0 -0.944630352 -0.3529167793
20800175200.0 -0.9493929735 -0.3423835174
20850174900.0 -0.9534117484 -0.331664856
20900174600.0 -0.9580334449 -0.3212312977
20950174300.0 -0.9606072672 -0.309345323
21000174000.0 -0.9641742526 -0.2993311616
21050173700.0 -0.9659590451 -0.288958747
21100173400.0 -0.9697653525 -0.2782696203
21150173100.0 -0.9733794243 -0.2661515645
21200172800.0 -0.9769696355 -0.2533126257
21250172500.0 -0.9809377008 -0.2389212607
21300172200.0 -0.9838697065 -0.2254547177
21350171900.0 -0.9859337199 -0.2108049507
21400171600.0 -0.9879779081 -0.1964979697
21450171300.0 -0.9890543583 -0.1821728213
21500171000.0 -0.9901916073 -0.167431964
21550170700.0 -0.9904274566 -0.1523621286
21600170400.0 -0.9910688109 -0.1368074429
21650170100.0 -0.9905911644 -0.1206735784
21700169800.0 -0.99073039 -0.1057759991
21750169500.0 -0.9901193279 -0.0905709039
21800169200.0 -0.9894224052 -0.0743206516
21850168900.0 -0.9896535678 -0.05677821
21900168600.0 -0.9891971936 -0.0395811765
21950168300.0 -0.9885397651 -0.0252375526
22000168000.0 -0.9883759085 -0.0099854601
22050167700.0 -0.9889823611 0.0048645439
22100167400.0 -0.9901519649 0.0204614078
22150167100.0 -0.9909330168 0.0366053395
22200166800.0 -0.9915158364 0.0531336528
22250166500.0 -0.990946554 0.0704307535
22300166200.0 -0.991240777 0.0870065438
22350165900.0 -0.9885940457 0.1031937476
22400165600.0 -0.9878336261 0.118628346
22450165300.0 -0.9862298448 0.1331859105
22500165000.0 -0.9843284061 0.1483087868
22550164700.0 -0.9839211974 0.1634925278
22600164400.0 -0.9804417402 0.1801432157
22650164100.0 -0.9785670207 0.1960831654
22700163800.0 -0.9746060788 0.2120659272
22750163500.0 -0.9719859559 0.2269098205
22800163200.0 -0.9687677505 0.2399741334
22850162900.0 -0.9662299862 0.253439042
22900162600.0 -0.964067388 0.2673279829
22950162300.0 -0.9627638525 0.281036629
23000162000.0 -0.9609694246 0.2936760297
23050161700.0 -0.9582628356 0.3071660893
23100161400.0 -0.9558510253 0.3211521993
23150161100.0 -0.9524138078 0.3333318907
23200160800.0 -0.9496337849 0.3456871141
23250160500.0 -0.9464803903 0.3583705879
23300160200.0 -0.9433456531 0.3704496762
23350159900.0 -0.9399667488 0.3847987501
23400159600.0 -0.934808658 0.3987951438
23450159300.0 -0.9307866952 0.4126662084
23500159000.0 -0.9247662012 0.4259082197
23550158700.0 -0.9202925049 0.439786373
23600158400.0 -0.9140308133 0.4540407793
23650158100.0 -0.9070201661 0.4688790844
23700157800.0 -0.8986510467 0.4829697751
23750157500.0 -0.8890907739 0.4972754774
23800157200.0 -0.879365931 0.5107858445
23850156900.0 -0.8701615702 0.5234947289
23900156600.0 -0.8595667639 0.5359651548
23950156300.0 -0.8498379048 0.5487783811
24000156000.0 -0.8410867967 0.5608966384
24050155700.0 -0.830024338 0.5730751927
24100155400.0 -0.8195882762 0.5864054356
24150155100.0 -0.8091993871 0.597489335
24200154800.0 -0.7982759336 0.61006295
24250154500.0 -0.7866554479 0.6219121678
24300154200.0 -0.7751720215 0.6340179678
24350153900.0 -0.7631638423 0.6449579301
24400153600.0 -0.7506308523 0.6552947929
24450153300.0 -0.7386527386 0.6657048588
24500153000.0 -0.7269703613 0.6757662788
24550152700.0 -0.715268294 0.6855934118
24600152400.0 -0.7034525933 0.694555216
24650152100.0 -0.6914987412 0.7038842197
