!Created with skrf (http://scikit-rf.org).
# Hz S RI R 50.0 
!freq ReS11 ImS11
300000.0 -0.9741135697 -0.1197926158
50299700.0 -0.9999273577 0.0152247599
100299400.0 -0.997943557 0.028163433
150299100.0 -1.002822997 0.0450156695
200298800.0 -0.9996398039 0.0582774404
250298500.0 -0.9972650677 0.0718528077
300298200.0 -0.9859733339 0.0874289953
350297900.0 -0.9941188702 0.0985888396
400297600.0 -0.9931711907 0.1150914259
450297300.0 -0.9910236626 0.1289634679
500297000.0 -0.989384842 0.1436646912
550296700.0 -0.9842455281 0.1560671603
600296400.0 -1.017435714 0.1894136173
650296100.0 -0.9824087464 0.1858715322
700295800.0 -0.9793514462 0.200281774
750295500.0 -0.9763555181 0.2141880095
800295200.0 -0.9730884026 0.2283575384
850294900.0 -0.969667742 0.2420148145
900294600.0 -0.9657386387 0.2558300478
950294300.0 -0.9621392631 0.2695310603
1000294000.0 -0.9580923405 0.2834513126
1050293700.0 -0.9536472537 0.2974687408
1100293400.0 -0.9494342408 0.3117632486
1150293100.0 -0.9456211559 0.3237803826
1200292800.0 -0.9402423788 0.3379227501
1250292500.0 -0.9347898033 0.3514226026
1300292200.0 -0.9289617929 0.3645828181
1350291900.0 -0.9234236867 0.3785961611
1400291600.0 -0.9179538573 0.3918171912
1450291300.0 -0.9125721356 0.4042510872
1500291000.0 -0.9062668876 0.4175660233
1550290700.0 -0.8996030457 0.4308690204
1600290400.0 -0.8932933361 0.4438066068
1650290100.0 -0.8869917599 0.4560510792
1700289800.0 -0.8798367609 0.4694429199
1750289500.0 -0.8727175735 0.48161865
1800289200.0 -0.8655617971 0.49469084
1850288900.0 -0.8586782932 0.5059158323
1900288600.0 -0.8510895863 0.5188980957
1950288300.0 -0.8429888216 0.5316121677
2000288000.0 -0.8354684106 0.5429963936
2050287700.0 -0.8273579443 0.5551823855
2100287400.0 -0.8193701459 0.5670279036
2150287100.0 -0.8105821173 0.5788866753
2200286800.0 -0.8030063298 0.5892622907
2250286500.0 -0.7941234451 0.6013346764
2300286200.0 -0.7853439425 0.6129947094
2350285900.0 -0.7765359548 0.623945589
2400285600.0 -0.7677123163 0.6348497934
2450285300.0 -0.7592665888 0.6452857417
2500285000.0 -0.7492988018 0.656527811
2550284700.0 -0.7401859412 0.6668831955
2600284400.0 -0.7310000853 0.6769399175
2650284100.0 -0.7221090757 0.687344389
2700283800.0 -0.7112637031 0.6980516327
2750283500.0 -0.7012076792 0.7086621469
2800283200.0 -0.6914842551 0.7184804127
2850282900.0 -0.6813177496 0.7282037224
2900282600.0 -0.6707217794 0.7379405583
2950282300.0 -0.6605555954 0.7471206142
3000282000.0 -0.6498032414 0.7565651107
3050281700.0 -0.638596854 0.7658004038
3100281400.0 -0.6267518425 0.7752380197
3150281100.0 -0.6151438647 0.7844033941
3200280800.0 -0.6034971712 0.7928565113
3250280500.0 -0.5926202519 0.800748232
3300280200.0 -0.5812260594 0.8086591915
3350279900.0 -0.5694830077 0.816285211
3400279600.0 -0.5573759231 0.8239338908
3450279300.0 -0.5462748488 0.8312095314
3500279000.0 -0.5343935966 0.8382222114
3550278700.0 -0.5220028838 0.84541637
3600278400.0 -0.5097277712 0.8525831656
3650278100.0 -0.4964735594 0.8602973881
3700277800.0 -0.4846958889 0.8667452882
3750277500.0 -0.4722062509 0.8731198709
3800277200.0 -0.4598524181 0.8796278552
3850276900.0 -0.447828817 0.8856877979
3900276600.0 -0.4369792268 0.8913684211
3950276300.0 -0.4248121203 0.897397816
4000276000.0 -0.4126443847 0.9035747271
4050275700.0 -0.3998527514 0.9093723232
4100275400.0 -0.3887529183 0.9149063817
4150275100.0 -0.3758742884 0.9204232182
4200274800.0 -0.3629202081 0.9263167036
4250274500.0 -0.3507961179 0.9314174416
4300274200.0 -0.3375465714 0.9366784794
4350273900.0 -0.3237535701 0.9417109305
4400273600.0 -0.3087827183 0.9471573256
4450273300.0 -0.2935563588 0.9521373748
4500273000.0 -0.2800298798 0.9565965815
4550272700.0 -0.2658650102 0.9608566283
4600272400.0 -0.2507334864 0.9648053798
4650272100.0 -0.2389688886 0.9682107886
4700271800.0 -0.2257339972 0.9715001501
4750271500.0 -0.2139757721 0.9744466098
4800271200.0 -0.201562791 0.9771429446
4850270900.0 -0.1876634783 0.9797346593
4900270600.0 -0.1739777478 0.9821341763
4950270300.0 -0.1593736781 0.9849491911
5000270000.0 -0.145178132 0.9870005751
5050269700.0 -0.13168922 0.9884642622
5100269400.0 -0.1180360256 0.9901211654
5150269100.0 -0.1045705552 0.991865957
5200268800.0 -0.0910565707 0.9924426952
5250268500.0 -0.0780624402 0.9938052393
5300268200.0 -0.0646661785 0.9946214938
5350267900.0 -0.0525055935 0.99520458
5400267600.0 -0.0363750641 0.9962461396
5450267300.0 -0.0231576333 0.996328528
5500267000.0 -0.0079517619 0.9970690121
5550266700.0 0.0069927974 0.9970908252
5600266400.0 0.0226093876 0.9973791399
5650266100.0 0.0390131784 0.9969780067
5700265800.0 0.0533188775 0.9960319267
5750265500.0 0.0686585319 0.9954181227
5800265200.0 0.0823220845 0.9942676111
5850264900.0 0.0956600694 0.9932310851
5900264600.0 0.1123069217 0.9915446078
5950264300.0 0.124210798 0.9903256417
6000264000.0 0.1381068736 0.9882711311
6050263700.0 0.1504546912 0.986956361
6100263400.0 0.1628379356 0.9850106706
6150263100.0 0.1773327128 0.9826130395
6200262800.0 0.1876098387 0.98131261
6250262500.0 0.2002841063 0.9786148459
6300262200.0 0.2129546979 0.9759405631
6350261900.0 0.226171928 0.9729957589
6400261600.0 0.2400828949 0.9697151445
6450261300.0 0.2511955412 0.9671287237
6500261000.0 0.2641391683 0.9634564784
6550260700.0 0.2770953106 0.9595862381
6600260400.0 0.290143531 0.9552460768
6650260100.0 0.3042929303 0.9509576976
6700259800.0 0.316646537 0.9466527092
6750259500.0 0.330160444 0.9418571536
6800259200.0 0.3433787071 0.9369525614
6850258900.0 0.3554011018 0.9316101108
6900258600.0 0.3679193837 0.9268426536
6950258300.0 0.3803144111 0.9213287638
7000258000.0 0.3921382076 0.9160238888
7050257700.0 0.404582112 0.9099859935
7100257400.0 0.4173895804 0.903682536
7150257100.0 0.4276111625 0.8984878017
7200256800.0 0.4405795544 0.8918963329
7250256500.0 0.4525710562 0.8855623258
7300256200.0 0.4653876569 0.8788480292
7350255900.0 0.4778889226 0.8718079967
7400255600.0 0.4913165427 0.8646388012
7450255300.0 0.5069767449 0.8555898435
7500255000.0 0.5188084714 0.8482772799
7550254700.0 0.5327963695 0.8397631909
7600254400.0 0.5449358472 0.8315583825
7650254100.0 0.557179547 0.8238724816
7700253800.0 0.5684678628 0.8158385317
7750253500.0 0.5797400833 0.8079177623
7800253200.0 0.5905250066 0.8003685265
7850252900.0 0.6003731501 0.7932648327
7900252600.0 0.6118566658 0.7845676634
7950252300.0 0.6206032663 0.7780259038
8000252000.0 0.6307389419 0.7703925501
8050251700.0 0.6412605027 0.7622373582
8100251400.0 0.6514919492 0.7542123992
8150251100.0 0.6611217837 0.7454592013
8200250800.0 0.670702228 0.7375890658
8250250500.0 0.6795987347 0.7295631986
8300250200.0 0.688881542 0.721091459
8350249900.0 0.6980328647 0.7125291411
8400249600.0 0.7062429793 0.7044908665
8450249300.0 0.7151854418 0.6951223632
8500249000.0 0.7239573244 0.6863123798
8550248700.0 0.732228619 0.6772010413
8600248400.0 0.7406931429 0.6678411078
8650248100.0 0.7484259084 0.6582695695
8700247800.0 0.7578706686 0.6472576583
8750247500.0 0.7660811532 0.6369174263
8800247200.0 0.7742807278 0.6265039146
8850246900.0 0.783257966 0.6152188692
8900246600.0 0.7915232764 0.6037435083
8950246300.0 0.8010963118 0.5909777025
9000246000.0 0.8105834905 0.5780990072
9050245700.0 0.8192030506 0.5654202757
9100245400.0 0.8278160511 0.5529196243
9150245100.0 0.8370835634 0.5394728509
9200244800.0 0.8467006932 0.5246393643
9250244500.0 0.8559090657 0.5094829606
9300244200.0 0.8645997898 0.4949238424
9350243900.0 0.8720735334 0.481225771
9400243600.0 0.8786745937 0.4689377769
9450243300.0 0.8847637389 0.4574612959
9500243000.0 0.890876688 0.4455165977
9550242700.0 0.8947186236 0.4377654295
9600242400.0 0.8987359022 0.4303786008
9650242100.0 0.9025017174 0.4238073405
9700241800.0 0.9073373642 0.4154537163
9750241500.0 0.9110786482 0.4080718751
9800241200.0 0.9158281869 0.3987590591
9850240900.0 0.9216573488 0.3869416103
9900240600.0 0.9273449191 0.3755882902
9950240300.0 0.9337766622 0.3592602668
10000240000.0 0.9387006505 0.3477272724
10050239700.0 0.9442831008 0.3322325377
10100239400.0 0.9494244558 0.3165907538
10150239100.0 0.9541683588 0.3017470353
10200238800.0 0.9580918772 0.2866676845
10250238500.0 0.9613899582 0.273278206
10300238200.0 0.9645804145 0.2592503009
10350237900.0 0.9672990105 0.245982461
10400237600.0 0.9697688986 0.2328386168
10450237300.0 0.9726497444 0.2190213453
10500237000.0 0.9745438814 0.2069957451
10550236700.0 0.9771656992 0.1929495494
10600236400.0 0.9795528046 0.1783278423
10650236100.0 0.9810255426 0.1642737303
10700235800.0 0.9831797741 0.1521723673
10750235500.0 0.9853958658 0.1387863053
10800235200.0 0.9876676774 0.1245594414
10850234900.0 0.9897792016 0.1099735803
10900234600.0 0.9917765176 0.0954972156
10950234300.0 0.993433906 0.0820494362
11000234000.0 0.995250436 0.0668068047
11050233700.0 0.9970420972 0.0504675569
11100233400.0 0.9985401745 0.0328461939
11150233100.0 0.9992893605 0.0164965455
11200232800.0 1.000156654 0.0016718977
11250232500.0 1.001281397 -0.0154592387
11300232200.0 1.001692934 -0.0326993698
11350231900.0 1.001298211 -0.0489691002
11400231600.0 1.002199822 -0.0648630419
11450231300.0 1.001443511 -0.0802964607
11500231000.0 0.9999163726 -0.0958739728
11550230700.0 0.9987029169 -0.1091863744
11600230400.0 0.9972400709 -0.1210081704
11650230100.0 0.9953095534 -0.1332058584
11700229800.0 0.9934847398 -0.1482110268
11750229500.0 0.9908549832 -0.1624218508
11800229200.0 0.9880806352 -0.1760421275
11850228900.0 0.9845913867 -0.1884965552
11900228600.0 0.9810577815 -0.1983467447
11950228300.0 0.9777385423 -0.2085282672
12000228000.0 0.9748015837 -0.2177334275
12050227700.0 0.9716144943 -0.2306854615
12100227400.0 0.9678958739 -0.2412041613
12150227100.0 0.9628928377 -0.2584164784
12200226800.0 0.9599341281 -0.2691137069
12250226500.0 0.9554730789 -0.2826153736
12300226200.0 0.9511362178 -0.2936430283
12350225900.0 0.9462870169 -0.3085377618
12400225600.0 0.9419288969 -0.3207228678
12450225300.0 0.9375119539 -0.333294644
12500225000.0 0.932198117 -0.3486662304
12550224700.0 0.9269515135 -0.3621756818
12600224400.0 0.9219961722 -0.3753231533
12650224100.0 0.9160919987 -0.3896579647
12700223800.0 0.9107247782 -0.402553496
12750223500.0 0.9053890861 -0.4154373838
12800223200.0 0.8998216339 -0.4281393864
12850222900.0 0.8947582642 -0.4399930865
12900222600.0 0.8888778164 -0.4522358679
12950222300.0 0.8826552844 -0.4655040408
13000222000.0 0.8770878167 -0.4766760478
13050221700.0 0.8696011168 -0.4897149466
13100221400.0 0.8634957628 -0.5011170356
13150221100.0 0.8564470724 -0.5136965713
13200220800.0 0.8494991219 -0.5249881093
13250220500.0 0.842448012 -0.5371247556
13300220200.0 0.834917051 -0.547879612
13350219900.0 0.8270414664 -0.5596763713
13400219600.0 0.8183603377 -0.5719644986
13450219300.0 0.8091642219 -0.5854386549
13500219000.0 0.7993772609 -0.5991218816
13550218700.0 0.7892327153 -0.6112448746
13600218400.0 0.7788837217 -0.6236946393
13650218100.0 0.7694256527 -0.6351703912
13700217800.0 0.7579445835 -0.6466241426
13750217500.0 0.7488035624 -0.6576741636
13800217200.0 0.7374971674 -0.6699131521
13850216900.0 0.72633333 -0.6809733383
13900216600.0 0.7162392845 -0.6904474013
13950216300.0 0.7055359015 -0.7002838018
14000216000.0 0.6955401059 -0.7098792922
14050215700.0 0.6860243764 -0.7182012139
14100215400.0 0.676305366 -0.7273680167
14150215100.0 0.6672327941 -0.7358711742
14200214800.0 0.6579525699 -0.7445811587
14250214500.0 0.6474470271 -0.7539142214
14300214200.0 0.63720416 -0.7634273942
14350213900.0 0.6259760763 -0.7728786954
14400213600.0 0.6140110779 -0.7826819641
14450213300.0 0.6011150981 -0.7929902875
14500213000.0 0.5875726889 -0.802658312
14550212700.0 0.5757012269 -0.8124060431
14600212400.0 0.5631903251 -0.8209405912
14650212100.0 0.5501665816 -0.8297333848
14700211800.0 0.5360130764 -0.8392476008
14750211500.0 0.5240591127 -0.8476411649
14800211200.0 0.5117292321 -0.8557773222
14850210900.0 0.4996686535 -0.8632118089
14900210600.0 0.4861991485 -0.8712006159
14950210300.0 0.4729866779 -0.8787413382
15000210000.0 0.4602883763 -0.8855809055
15050209700.0 0.4477363992 -0.8915942862
15100209400.0 0.4352022027 -0.8977429454
15150209100.0 0.4228671792 -0.9030967594
15200208800.0 0.4104574169 -0.9086513376
15250208500.0 0.3987483867 -0.9124917017
15300208200.0 0.3863657894 -0.9171293965
15350207900.0 0.3742164404 -0.9223299315
15400207600.0 0.3595347916 -0.92793319
15450207300.0 0.344307506 -0.9328317676
15500207000.0 0.3302042103 -0.936758272
15550206700.0 0.3152059002 -0.9425225382
15600206400.0 0.2993932049 -0.9468621538
15650206100.0 0.2837059482 -0.9510396802
15700205800.0 0.2694954565 -0.954365861
15750205500.0 0.255428611 -0.9586359438
15800205200.0 0.2409785164 -0.9618755474
15850204900.0 0.2266364695 -0.9652119923
15900204600.0 0.2115113855 -0.9688965027
15950204300.0 0.1972388582 -0.9720484922
16000204000.0 0.1831334733 -0.9745742481
16050203700.0 0.1680558268 -0.9775930459
16100203400.0 0.1534036384 -0.9800520744
16150203100.0 0.1393885439 -0.982292164
16200202800.0 0.1248406675 -0.9842389532
16250202500.0 0.1104502775 -0.9857455594
16300202200.0 0.0948827138 -0.9876984995
16350201900.0 0.0795541594 -0.9891418445
16400201600.0 0.0651398145 -0.9904354732
16450201300.0 0.0495885325 -0.9912898466
16500201000.0 0.0329469191 -0.992179319
16550200700.0 0.0173384641 -0.9926334384
16600200400.0 0.0014533328 -0.9928751612
16650200100.0 -0.014581779 -0.9927231004
16700199800.0 -0.03085621 -0.9924575367
16750199500.0 -0.0495204185 -0.9922280244
16800199200.0 -0.0652690867 -0.9906514993
16850198900.0 -0.0807213857 -0.9897357482
16900198600.0 -0.0950915806 -0.9892482422
16950198300.0 -0.1079904631 -0.9871205256
17000198000.0 -0.1211739239 -0.9858914678
17050197700.0 -0.1335747913 -0.9845880062
17100197400.0 -0.1469204881 -0.9822829584
17150197100.0 -0.1589985353 -0.9802469734
17200196800.0 -0.1714283664 -0.9783303145
17250196500.0 -0.1845794037 -0.9757874338
17300196200.0 -0.1968494585 -0.9736262281
17350195900.0 -0.2087494111 -0.9711712309
17400195600.0 -0.2209299343 -0.9687748884
17450195300.0 -0.233977009 -0.9659027118
17500195000.0 -0.2474545884 -0.9625502657
17550194700.0 -0.2610744621 -0.9588504177
17600194400.0 -0.2751549287 -0.9550916172
17650194100.0 -0.2890686784 -0.9509185045
17700193800.0 -0.3016302081 -0.9470922959
17750193500.0 -0.3163803053 -0.9421866716
17800193200.0 -0.3308587293 -0.9369041029
17850192900.0 -0.3454867431 -0.9316836082
17900192600.0 -0.3613138773 -0.9258549146
17950192300.0 -0.3765371938 -0.918477378
18000192000.0 -0.3914630959 -0.9112675145
18050191700.0 -0.405245583 -0.9032851162
18100191400.0 -0.4194964364 -0.8956326828
18150191100.0 -0.4344504471 -0.8875714312
18200190800.0 -0.4514045435 -0.8786525866
18250190500.0 -0.4683528161 -0.8689122721
18300190200.0 -0.4833581232 -0.8601946333
18350189900.0 -0.498584313 -0.8518497329
18400189600.0 -0.5132769937 -0.8435447527
18450189300.0 -0.5270320993 -0.8355421846
18500189000.0 -0.5403145407 -0.8279137767
18550188700.0 -0.5524281865 -0.8201869332
18600188400.0 -0.5645346288 -0.8133424957
18650188100.0 -0.575391041 -0.8068552128
18700187800.0 -0.5859952972 -0.8005754486
18750187500.0 -0.5966657939 -0.7936742556
18800187200.0 -0.6072108678 -0.7869740272
18850186900.0 -0.6174442076 -0.7800084463
18900186600.0 -0.6276399634 -0.772696544
18950186300.0 -0.6374907097 -0.7653115202
19000186000.0 -0.6447683209 -0.7589801791
19050185700.0 -0.654310511 -0.7518911405
19100185400.0 -0.6641940141 -0.7436985133
19150185100.0 -0.6738321937 -0.7350576634
19200184800.0 -0.6839175293 -0.7272140036
19250184500.0 -0.6935689691 -0.7167690443
19300184200.0 -0.7049355176 -0.7079527935
19350183900.0 -0.7164125178 -0.6984709376
19400183600.0 -0.7253802955 -0.6884423101
19450183300.0 -0.7346754643 -0.6785358984
19500183000.0 -0.7424779861 -0.668332987
19550182700.0 -0.7529590854 -0.6573620862
19600182400.0 -0.763096219 -0.6458729601
19650182100.0 -0.7738476972 -0.6332166425
19700181800.0 -0.7845458377 -0.6199918155
19750181500.0 -0.7948578085 -0.6059460337
19800181200.0 -0.8056479603 -0.5909310677
19850180900.0 -0.8151667028 -0.5755589022
19900180600.0 -0.8231830221 -0.5612148339
19950180300.0 -0.8324942997 -0.5445648152
20000180000.0 -0.8251231654 -0.5469399585
20050179700.0 -0.8333672853 -0.5340680456
20100179400.0 -0.8426132884 -0.5204061484
20150179100.0 -0.8496716165 -0.5085138437
20200178800.0 -0.8584155441 -0.4951968607
20250178500.0 -0.867477283 -0.4829956977
20300178200.0 -0.8774070911 -0.467568959
20350177900.0 -0.8868255459 -0.4537070934
20400177600.0 -0.8960653967 -0.4393855742
20450177300.0 -0.9043315457 -0.4247242098
20500177000.0 -0.912322477 -0.4109570122
20550176700.0 -0.9201076091 -0.3972097811
20600176400.0 -0.9271293082 -0.384233266
20650176100.0 -0.9334423356 -0.3723058814
20700175800.0 -0.9400913468 -0.3603300176
20750175500.0 -0.9471427464 -0.3490809361
20800175200.0 -0.951370349 -0.337513125
20850174900.0 -0.9559271173 -0.3264612444
20900174600.0 -0.9614871206 -0.3153570382
20950174300.0 -0.9644496007 -0.3040905032
21000174000.0 -0.9678319199 -0.2929692569
21050173700.0 -0.9702009505 -0.2823876306
21100173400.0 -0.973977832 -0.270328599
21150173100.0 -0.9787484455 -0.2583696027
21200172800.0 -0.9821840229 -0.2452757798
21250172500.0 -0.9851575022 -0.2316458196
21300172200.0 -0.9881471745 -0.2176017645
21350171900.0 -0.9895854883 -0.2033584832
21400171600.0 -0.9911600857 -0.1887897178
21450171300.0 -0.9919904238 -0.1741946777
21500171000.0 -0.9918804986 -0.158589864
21550170700.0 -0.9916641246 -0.143996078
21600170400.0 -0.9921941655 -0.1272588672
21650170100.0 -0.9913941161 -0.111789265
21700169800.0 -0.9903598194 -0.0967515336
21750169500.0 -0.9899059097 -0.0816332688
21800169200.0 -0.9889009148 -0.0651108044
21850168900.0 -0.9872850719 -0.0478208645
21900168600.0 -0.9864197116 -0.031305488
21950168300.0 -0.9856430556 -0.0151759134
22000168000.0 -0.9847642846 -0.0004606686
22050167700.0 -0.9847446772 0.0139727881
22100167400.0 -0.9852702762 0.029499406
22150167100.0 -0.9857239842 0.0447997139
22200166800.0 -0.9859910479 0.0610113736
22250166500.0 -0.9853197 0.0785218677
22300166200.0 -0.985309278 0.0950220817
22350165900.0 -0.9830100765 0.1106549097
22400165600.0 -0.9821679751 0.1275881134
22450165300.0 -0.9799489831 0.1420990977
22500165000.0 -0.9780093894 0.1564117021
22550164700.0 -0.9775087286 0.1722024396
22600164400.0 -0.9755957611 0.1866523996
22650164100.0 -0.9729180002 0.202043953
22700163800.0 -0.9703546111 0.217521696
22750163500.0 -0.9676732167 0.2325915528
22800163200.0 -0.9647454287 0.2459646634
22850162900.0 -0.9619462989 0.2594332755
22900162600.0 -0.9608442062 0.2728073819
22950162300.0 -0.9597455931 0.2855666321
23000162000.0 -0.958274851 0.2977722991
23050161700.0 -0.9558289012 0.3105144133
23100161400.0 -0.9539748916 0.3240341848
23150161100.0 -0.9511578284 0.3362302554
23200160800.0 -0.9480841399 0.3485134549
23250160500.0 -0.945244589 0.3603471886
23300160200.0 -0.9427688933 0.3725917846
23350159900.0 -0.9383884649 0.3857740842
23400159600.0 -0.9340822267 0.3993375191
23450159300.0 -0.9292738943 0.4127370701
23500159000.0 -0.9247388349 0.4259948407
23550158700.0 -0.9201156201 0.4392661436
23600158400.0 -0.9146732903 0.4524848325
23650158100.0 -0.908112189 0.4667442823
23700157800.0 -0.900786135 0.4807836773
23750157500.0 -0.891808222 0.4947215655
23800157200.0 -0.8827338417 0.5082100868
23850156900.0 -0.8739129876 0.5208532039
23900156600.0 -0.8647949175 0.5330870636
23950156300.0 -0.8560946989 0.5465245361
24000156000.0 -0.8460349017 0.5586318541
24050155700.0 -0.8365603325 0.5695415766
24100155400.0 -0.8270300709 0.5817283016
24150155100.0 -0.8155040561 0.5932212766
24200154800.0 -0.8052245492 0.6045169476
24250154500.0 -0.7932314415 0.6173593511
24300154200.0 -0.7818449628 0.6286634499
24350153900.0 -0.7701151136 0.6391231892
24400153600.0 -0.7579167752 0.6495310934
24450153300.0 -0.7464548268 0.6591186197
24500153000.0 -0.7346210356 0.6688818987
24550152700.0 -0.7235296395 0.6787869414
24600152400.0 -0.7112703471 0.6882671112
24650152100.0 -0.6995698377 0.6971680738
