!Created with skrf (http://scikit-rf.org).
# Hz S RI R 50.0 
!freq ReS11 ImS11
300000.0 -0.975334452 -0.118844609
50299700.0 -1.00001953 0.0153458468
100299400.0 -0.9981594846 0.0282827188
150299100.0 -1.002846532 0.0452200058
200298800.0 -0.9996613114 0.058592186
250298500.0 -0.9975616735 0.0720121358
300298200.0 -0.9861141456 0.0878786804
350297900.0 -0.9942285963 0.0985681386
400297600.0 -0.9933107723 0.1153129276
450297300.0 -0.9912325075 0.1289442306
500297000.0 -0.9894052975 0.1437487009
550296700.0 -0.9844421678 0.1563174869
600296400.0 -1.017510561 0.1895438993
650296100.0 -0.982268951 0.1863292421
700295800.0 -0.9792826467 0.2004569689
750295500.0 -0.9762523501 0.2144839538
800295200.0 -0.9729615195 0.2284997258
850294900.0 -0.9697037551 0.242319417
900294600.0 -0.9658136003 0.2562698917
950294300.0 -0.96223756 0.2699426427
1000294000.0 -0.9580581019 0.2837671374
1050293700.0 -0.9536471356 0.2974400099
1100293400.0 -0.9495211876 0.3120957183
1150293100.0 -0.9455956559 0.3240261001
1200292800.0 -0.9403857315 0.3382131852
1250292500.0 -0.9346860637 0.3517196506
1300292200.0 -0.928913419 0.364845376
1350291900.0 -0.9233715239 0.3789500363
1400291600.0 -0.9180787061 0.3919784132
1450291300.0 -0.9124224606 0.4043689562
1500291000.0 -0.9061751913 0.4178182704
1550290700.0 -0.8996848243 0.4312771273
1600290400.0 -0.8934667225 0.4441186503
1650290100.0 -0.8868754896 0.4561571301
1700289800.0 -0.8798290297 0.4697900625
1750289500.0 -0.8727845284 0.4820476255
1800289200.0 -0.8656241205 0.4947442107
1850288900.0 -0.8587494073 0.5060500462
1900288600.0 -0.8510370915 0.5191971494
1950288300.0 -0.8428360894 0.53172962
2000288000.0 -0.8353525281 0.5433440878
2050287700.0 -0.8271212487 0.5554189777
2100287400.0 -0.8194222219 0.567105967
2150287100.0 -0.8104021455 0.5791828722
2200286800.0 -0.8029848479 0.5895644243
2250286500.0 -0.7939245321 0.6017749457
2300286200.0 -0.7851896283 0.6131217093
2350285900.0 -0.7765844978 0.6240973135
2400285600.0 -0.7675111164 0.6351885784
2450285300.0 -0.7587838794 0.6455654117
2500285000.0 -0.7491914934 0.6567786465
2550284700.0 -0.7401004185 0.6672964455
2600284400.0 -0.7309433958 0.6771745264
2650284100.0 -0.7218456054 0.6876677634
2700283800.0 -0.7111937128 0.6983166599
2750283500.0 -0.7010745942 0.7089855551
2800283200.0 -0.6914274371 0.718663612
2850282900.0 -0.6811681985 0.7285927509
2900282600.0 -0.6705260276 0.7380780756
2950282300.0 -0.6604400212 0.747508861
3000282000.0 -0.6497577167 0.7569130628
3050281700.0 -0.6384978281 0.7662180156
3100281400.0 -0.6264855005 0.7754158299
3150281100.0 -0.61488298 0.7847802571
3200280800.0 -0.6031411771 0.793289763
3250280500.0 -0.5924149137 0.8010357233
3300280200.0 -0.5809287675 0.8088327639
3350279900.0 -0.5693015033 0.8163781497
3400279600.0 -0.5573601389 0.8242816137
3450279300.0 -0.5461958862 0.8312240065
3500279000.0 -0.5341066521 0.8384205028
3550278700.0 -0.5218229428 0.8457959074
3600278400.0 -0.5096233305 0.8527752526
3650278100.0 -0.4963964222 0.8606583021
3700277800.0 -0.4844906531 0.8666444234
3750277500.0 -0.4721950493 0.8732192963
3800277200.0 -0.4597173064 0.8797779321
3850276900.0 -0.4476836259 0.8857482366
3900276600.0 -0.4368277066 0.8912946285
3950276300.0 -0.4242563854 0.8979006517
4000276000.0 -0.4121871897 0.9033601432
4050275700.0 -0.3994777527 0.9096935255
4100275400.0 -0.3881272656 0.9149573197
4150275100.0 -0.3756707821 0.9206537802
4200274800.0 -0.362803626 0.9264148253
4250274500.0 -0.3503451029 0.9314976883
4300274200.0 -0.3371927004 0.9367289328
4350273900.0 -0.3235020398 0.9420285247
4400273600.0 -0.3085292552 0.9471332937
4450273300.0 -0.2933399788 0.9523721335
4500273000.0 -0.2797382689 0.9566233644
4550272700.0 -0.2658182646 0.9609383399
4600272400.0 -0.2502629533 0.9651775448
4650272100.0 -0.238611837 0.9683117831
4700271800.0 -0.2252313752 0.9715707362
4750271500.0 -0.2135545731 0.974642211
4800271200.0 -0.2010143351 0.9772395292
4850270900.0 -0.1871291304 0.9801070488
4900270600.0 -0.1731226733 0.9824410056
4950270300.0 -0.1588561136 0.984962854
5000270000.0 -0.1447559548 0.987085708
5050269700.0 -0.1309947564 0.9887706189
5100269400.0 -0.1174002953 0.9902336058
5150269100.0 -0.1041517387 0.9918234921
5200268800.0 -0.0907883856 0.9933295148
5250268500.0 -0.0779329882 0.9941666788
5300268200.0 -0.0645572185 0.9947888051
5350267900.0 -0.0525337938 0.9951868216
5400267600.0 -0.0359151427 0.9964956479
5450267300.0 -0.0231114361 0.9967062489
5500267000.0 -0.0077421671 0.9970693954
5550266700.0 0.0073067815 0.997587269
5600266400.0 0.0223634723 0.997305262
5650266100.0 0.0393542155 0.9970218423
5700265800.0 0.0534558084 0.996054466
5750265500.0 0.0688189048 0.9951633072
5800265200.0 0.0827766538 0.9942940015
5850264900.0 0.0960021326 0.9935529752
5900264600.0 0.1126470414 0.9916840891
5950264300.0 0.1246239806 0.9902041603
6000264000.0 0.1385733151 0.9882693106
6050263700.0 0.1505964619 0.9868106133
6100263400.0 0.1632611639 0.9849684625
6150263100.0 0.1780330961 0.9828328882
6200262800.0 0.1884542858 0.9809268863
6250262500.0 0.2009637125 0.9783633406
6300262200.0 0.2136550075 0.9757773274
6350261900.0 0.2267891058 0.9728824469
6400261600.0 0.2407872856 0.9694971168
6450261300.0 0.2519867898 0.9668670275
6500261000.0 0.2646640147 0.9633062629
6550260700.0 0.2776607597 0.9592684381
6600260400.0 0.2909271568 0.9553863061
6650260100.0 0.3050444367 0.9507407429
6700259800.0 0.3168835952 0.9465897655
6750259500.0 0.331162438 0.9418321203
6800259200.0 0.3439569999 0.9364119203
6850258900.0 0.3561797989 0.9314906412
6900258600.0 0.3683769965 0.9266753573
6950258300.0 0.3809623521 0.9212817729
7000258000.0 0.3928141775 0.9156660954
7050257700.0 0.4050185263 0.9098519711
7100257400.0 0.4178873142 0.9034346648
7150257100.0 0.4281443141 0.8981649601
7200256800.0 0.441151167 0.8918216509
7250256500.0 0.4527206102 0.8855361877
7300256200.0 0.4660751761 0.8788355922
7350255900.0 0.4783475814 0.8718844839
7400255600.0 0.491657101 0.8646060665
7450255300.0 0.5070106525 0.8553888582
7500255000.0 0.5190878339 0.84854635
7550254700.0 0.5331868493 0.839676277
7600254400.0 0.5454165968 0.8313921907
7650254100.0 0.5568384984 0.8239186638
7700253800.0 0.5686280005 0.8158664625
7750253500.0 0.5798197226 0.8079810538
7800253200.0 0.5902733477 0.800510453
7850252900.0 0.6001036821 0.7933234007
7900252600.0 0.6118636052 0.7846958845
7950252300.0 0.6205456959 0.7782478932
8000252000.0 0.6307019891 0.7704208242
8050251700.0 0.6413267523 0.7622129027
8100251400.0 0.6512322941 0.7539640543
8150251100.0 0.6616078189 0.7453068129
8200250800.0 0.6710198349 0.737430695
8250250500.0 0.6800450371 0.7294580683
8300250200.0 0.6891555887 0.7209483405
8350249900.0 0.6983461304 0.7123199662
8400249600.0 0.7062453215 0.7041698708
8450249300.0 0.7154391429 0.6950684586
8500249000.0 0.7240127852 0.6860535395
8550248700.0 0.7324375816 0.676989127
8600248400.0 0.740820115 0.667724508
8650248100.0 0.7484290142 0.6581218863
8700247800.0 0.7580845418 0.6470413555
8750247500.0 0.7665382363 0.636808452
8800247200.0 0.7744865762 0.6264368096
8850246900.0 0.7833757438 0.6149405514
8900246600.0 0.7920463415 0.6036290854
8950246300.0 0.8015641569 0.5906802116
9000246000.0 0.8109215499 0.5780207999
9050245700.0 0.8195986216 0.5651032974
9100245400.0 0.8281302116 0.552532206
9150245100.0 0.837467959 0.5392156829
9200244800.0 0.8471625412 0.5239671084
9250244500.0 0.8567527398 0.5083756292
9300244200.0 0.8651716732 0.4940239376
9350243900.0 0.8727391937 0.4800879532
9400243600.0 0.8794814932 0.46793872
9450243300.0 0.8854018395 0.4563648296
9500243000.0 0.8915412501 0.4440772064
9550242700.0 0.8955228392 0.4365977069
9600242400.0 0.8995747801 0.4289827177
9650242100.0 0.9029029662 0.4229810813
9700241800.0 0.9077748359 0.4144414748
9750241500.0 0.9114347053 0.4070524988
9800241200.0 0.9161103348 0.397702723
9850240900.0 0.9219974142 0.3858653742
9900240600.0 0.9273022531 0.3747007236
9950240300.0 0.9343570222 0.3583000979
10000240000.0 0.9389249719 0.3466440745
10050239700.0 0.9442054228 0.3316725634
10100239400.0 0.9493408687 0.3157617089
10150239100.0 0.9538916001 0.3011353487
10200238800.0 0.9582741062 0.2857821031
10250238500.0 0.9614636212 0.2724933633
10300238200.0 0.9645893363 0.2585878352
10350237900.0 0.9672041717 0.245692654
10400237600.0 0.9698903789 0.2322558316
10450237300.0 0.9726143222 0.2183492339
10500237000.0 0.9749815373 0.2062309723
10550236700.0 0.9769510798 0.192391191
10600236400.0 0.9790452838 0.1786102488
10650236100.0 0.9809757263 0.1646045496
10700235800.0 0.9832863362 0.1517444807
10750235500.0 0.9860932204 0.1384193586
10800235200.0 0.9875217654 0.1242195713
10850234900.0 0.9896828461 0.1092586064
10900234600.0 0.9917388362 0.0949676958
10950234300.0 0.9933785479 0.0819383306
11000234000.0 0.9953509259 0.0666164347
11050233700.0 0.9970663363 0.0501480466
11100233400.0 0.9985811023 0.0328755057
11150233100.0 0.9994631398 0.0166851475
11200232800.0 1.000123261 0.0016405864
11250232500.0 1.001181788 -0.0150545202
11300232200.0 1.001770069 -0.0330124629
11350231900.0 1.002128329 -0.0483473531
11400231600.0 1.001682986 -0.0646361197
11450231300.0 1.00071817 -0.080633817
11500231000.0 0.999677794 -0.0963913251
11550230700.0 0.9986247931 -0.1091464054
11600230400.0 0.9967397301 -0.121783315
11650230100.0 0.9949659845 -0.1329414314
11700229800.0 0.993394238 -0.1479488841
11750229500.0 0.9909640034 -0.1625110488
11800229200.0 0.9881120245 -0.1762325616
11850228900.0 0.9845068528 -0.1887648729
11900228600.0 0.9807626354 -0.1986102254
11950228300.0 0.977555431 -0.2089598836
12000228000.0 0.9753821924 -0.2175455079
12050227700.0 0.9710014741 -0.2308697124
12100227400.0 0.9681107117 -0.2415939052
12150227100.0 0.9631761484 -0.2590106267
12200226800.0 0.959126642 -0.2698923242
12250226500.0 0.9555430483 -0.2821688039
12300226200.0 0.951884049 -0.2947557511
12350225900.0 0.9463409701 -0.3086988667
12400225600.0 0.9419673815 -0.3212619565
12450225300.0 0.937528625 -0.3339437575
12500225000.0 0.9319533372 -0.3486436089
12550224700.0 0.9267638599 -0.3625593892
12600224400.0 0.9219582483 -0.3751939817
12650224100.0 0.9160910738 -0.3896160388
12700223800.0 0.9108432158 -0.4024545682
12750223500.0 0.9053226739 -0.415733147
12800223200.0 0.9001614198 -0.4279562667
12850222900.0 0.8949559078 -0.4401741975
12900222600.0 0.8886908654 -0.4525658131
12950222300.0 0.8827916836 -0.4649901279
13000222000.0 0.8768578541 -0.4763411241
13050221700.0 0.8697900584 -0.4899305337
13100221400.0 0.8636365463 -0.5012834923
13150221100.0 0.8567609746 -0.5135946117
13200220800.0 0.8491902004 -0.5249538216
13250220500.0 0.8423415127 -0.5374811549
13300220200.0 0.8348892014 -0.5480758922
13350219900.0 0.8269793725 -0.5599292499
13400219600.0 0.8187242201 -0.5719374789
13450219300.0 0.8091268109 -0.5854089296
13500219000.0 0.7986937915 -0.5996607272
13550218700.0 0.7886118467 -0.6123369149
13600218400.0 0.7788581859 -0.6241418987
13650218100.0 0.7689117163 -0.6350550171
13700217800.0 0.757916019 -0.647229475
13750217500.0 0.7480295872 -0.658672162
13800217200.0 0.7368082805 -0.6708732507
13850216900.0 0.72641197 -0.6811958063
13900216600.0 0.7165414673 -0.6907525966
13950216300.0 0.7052604718 -0.7009622037
14000216000.0 0.6953656474 -0.7104281136
14050215700.0 0.6858780969 -0.7190312937
14100215400.0 0.6760303138 -0.7277551413
14150215100.0 0.6667340112 -0.7364073651
14200214800.0 0.657292551 -0.7450218414
14250214500.0 0.6472035224 -0.7543389164
14300214200.0 0.6367400246 -0.7637510437
14350213900.0 0.6256172219 -0.7732786086
14400213600.0 0.6135974573 -0.7833092862
14450213300.0 0.601131363 -0.7930700143
14500213000.0 0.5875531809 -0.8033102311
14550212700.0 0.5747008588 -0.8125546318
14600212400.0 0.5624378246 -0.8214452046
14650212100.0 0.5499197725 -0.8297826842
14700211800.0 0.5359906623 -0.8395996568
14750211500.0 0.5238312783 -0.8481778635
14800211200.0 0.5109795765 -0.8559800531
14850210900.0 0.4991819215 -0.8633247299
14900210600.0 0.4859493694 -0.8713171915
14950210300.0 0.4725027182 -0.878995583
15000210000.0 0.4596782792 -0.8856648154
15050209700.0 0.4472311332 -0.8916112508
15100209400.0 0.4345886899 -0.8981393391
15150209100.0 0.4222901251 -0.9032846001
15200208800.0 0.4093967604 -0.9084707381
15250208500.0 0.3983386716 -0.9129749487
15300208200.0 0.3857632095 -0.9183855796
15350207900.0 0.3732571021 -0.9225177241
15400207600.0 0.3583245015 -0.9287255023
15450207300.0 0.3433176464 -0.9325302024
15500207000.0 0.3289449449 -0.9374915659
15550206700.0 0.3145163363 -0.9427227872
15600206400.0 0.2984984143 -0.9479754079
15650206100.0 0.2828872265 -0.9512299842
15700205800.0 0.2687570904 -0.9550702165
15750205500.0 0.2542334632 -0.9587073666
15800205200.0 0.2400856776 -0.9619202099
15850204900.0 0.2255970067 -0.9655233881
15900204600.0 0.2107140187 -0.9692310214
15950204300.0 0.1965863172 -0.9721717171
16000204000.0 0.1824393529 -0.97499468
16050203700.0 0.1670750052 -0.9777818386
16100203400.0 0.1533362192 -0.9800076941
16150203100.0 0.1386549409 -0.9821087767
16200202800.0 0.1239199481 -0.9844668927
16250202500.0 0.109692126 -0.9861992628
16300202200.0 0.093813885 -0.9880065703
16350201900.0 0.0790463207 -0.9892502272
16400201600.0 0.0643650569 -0.9902311272
16450201300.0 0.0491882587 -0.9913853278
16500201000.0 0.0323856012 -0.9920700397
16550200700.0 0.0167787938 -0.9926187242
16600200400.0 0.0009693596 -0.9927896023
16650200100.0 -0.0150166493 -0.992825721
16700199800.0 -0.0316460132 -0.9924394189
16750199500.0 -0.0500259062 -0.9920483908
16800199200.0 -0.0650689957 -0.9905681463
16850198900.0 -0.0812373563 -0.9890998099
16900198600.0 -0.0947961441 -0.9887887791
16950198300.0 -0.1083286202 -0.9877426059
17000198000.0 -0.1209545136 -0.9860660434
17050197700.0 -0.1343639212 -0.9841420503
17100197400.0 -0.1473494705 -0.9820484828
17150197100.0 -0.1590837291 -0.9799841914
17200196800.0 -0.172124843 -0.9784015503
17250196500.0 -0.1849040626 -0.9757739632
17300196200.0 -0.1973195309 -0.9735301302
17350195900.0 -0.2091703271 -0.9710288772
17400195600.0 -0.2214122432 -0.9686644731
17450195300.0 -0.2345925476 -0.965898116
17500195000.0 -0.2478087207 -0.9623794308
17550194700.0 -0.2619436936 -0.9588300369
17600194400.0 -0.2754290963 -0.9549513113
17650194100.0 -0.289654866 -0.9507309547
17700193800.0 -0.3023703298 -0.9469888353
17750193500.0 -0.3170578736 -0.9421655978
17800193200.0 -0.3309366893 -0.9366099814
17850192900.0 -0.3463150292 -0.9310851882
17900192600.0 -0.3613783992 -0.9251745214
17950192300.0 -0.3767971093 -0.9181787379
18000192000.0 -0.3916853935 -0.9111565519
18050191700.0 -0.4057616045 -0.9030202448
18100191400.0 -0.4199037833 -0.895479081
18150191100.0 -0.4348623478 -0.8874038164
18200190800.0 -0.4518033669 -0.8782004431
18250190500.0 -0.4687349466 -0.869048501
18300190200.0 -0.4844026981 -0.8602128532
18350189900.0 -0.498987922 -0.8513975552
18400189600.0 -0.5138325567 -0.8435711041
18450189300.0 -0.5269438052 -0.8352483988
18500189000.0 -0.5402582653 -0.8275164612
18550188700.0 -0.5527949087 -0.8197690976
18600188400.0 -0.5646500339 -0.8131260778
18650188100.0 -0.5757525603 -0.8071465847
18700187800.0 -0.58636634 -0.8003770673
18750187500.0 -0.5970071117 -0.7939444773
18800187200.0 -0.6076648421 -0.7866181419
18850186900.0 -0.6178435361 -0.7799860618
18900186600.0 -0.6281114343 -0.772555523
18950186300.0 -0.6378755536 -0.7650209439
19000186000.0 -0.6453371284 -0.7588436863
19050185700.0 -0.6544530621 -0.7513901614
19100185400.0 -0.664072197 -0.743365649
19150185100.0 -0.6744484333 -0.7346372134
19200184800.0 -0.6842537166 -0.7264659572
19250184500.0 -0.6942445047 -0.7176785122
19300184200.0 -0.7061933905 -0.7074199044
19350183900.0 -0.715960895 -0.698017599
19400183600.0 -0.7256215549 -0.68759174
19450183300.0 -0.7351252959 -0.6783098133
19500183000.0 -0.7428280341 -0.6684426719
19550182700.0 -0.7529551756 -0.6570611713
19600182400.0 -0.7633756591 -0.6453937103
19650182100.0 -0.7735219365 -0.6329262264
19700181800.0 -0.7849661441 -0.6199359796
19750181500.0 -0.7954188251 -0.6055685248
19800181200.0 -0.8057436294 -0.5906882896
19850180900.0 -0.8155310015 -0.5751432643
19900180600.0 -0.8232420838 -0.560699371
19950180300.0 -0.8325424833 -0.5443601688
20000180000.0 -0.8255659758 -0.5457260656
20050179700.0 -0.8341140299 -0.5333173655
20100179400.0 -0.8421767429 -0.519727523
20150179100.0 -0.8504881483 -0.5074330515
20200178800.0 -0.8598890575 -0.4942613613
20250178500.0 -0.869593266 -0.4812609602
20300178200.0 -0.8792645116 -0.4666778915
20350177900.0 -0.8878073534 -0.4526335797
20400177600.0 -0.8961950958 -0.4379927226
20450177300.0 -0.9048175253 -0.4234338364
20500177000.0 -0.9128053354 -0.4096695674
20550176700.0 -0.9205080317 -0.3963052137
20600176400.0 -0.9276060662 -0.3832394957
20650176100.0 -0.9344661659 -0.370740051
20700175800.0 -0.9411906802 -0.3592680003
20750175500.0 -0.9475571077 -0.347781665
20800175200.0 -0.9518378206 -0.336120822
20850174900.0 -0.9574929185 -0.326050834
20900174600.0 -0.9623505029 -0.313768545
20950174300.0 -0.9657274494 -0.3019951538
21000174000.0 -0.9686751447 -0.2914090014
21050173700.0 -0.9720158046 -0.2809775711
21100173400.0 -0.9754155615 -0.2684663994
21150173100.0 -0.9797710196 -0.2563757786
21200172800.0 -0.9832759017 -0.2428729217
21250172500.0 -0.9862688615 -0.2292015688
21300172200.0 -0.9891108623 -0.2146519753
21350171900.0 -0.9906609345 -0.2003036027
21400171600.0 -0.9923335999 -0.1863322561
21450171300.0 -0.9925976305 -0.1718856
21500171000.0 -0.9926129394 -0.1559180042
21550170700.0 -0.9923768821 -0.1405545531
21600170400.0 -0.9926625153 -0.1252217054
21650170100.0 -0.9919064895 -0.1092046634
21700169800.0 -0.9892455849 -0.0939329296
21750169500.0 -0.989139852 -0.077877778
21800169200.0 -0.9886252568 -0.0617321643
21850168900.0 -0.9877732927 -0.0448298346
21900168600.0 -0.9866950317 -0.0287483575
21950168300.0 -0.9846108794 -0.0126645103
22000168000.0 -0.9841302255 0.0019935217
22050167700.0 -0.9841811847 0.0163638836
22100167400.0 -0.9842703857 0.0314730004
22150167100.0 -0.9849157283 0.0472258495
22200166800.0 -0.9854267512 0.0633535782
22250166500.0 -0.984584283 0.0809958601
22300166200.0 -0.9841127931 0.097129546
22350165900.0 -0.9820506506 0.1135029938
22400165600.0 -0.9811747683 0.128721738
22450165300.0 -0.97914768 0.1439491213
22500165000.0 -0.9772496637 0.1589291645
22550164700.0 -0.9766339965 0.1735033168
22600164400.0 -0.9743229701 0.1887911067
22650164100.0 -0.9718747251 0.2034169832
22700163800.0 -0.9687422855 0.2198904226
22750163500.0 -0.9672875709 0.2348372517
22800163200.0 -0.9642935139 0.2479821876
22850162900.0 -0.9615107094 0.2614993155
22900162600.0 -0.9603284749 0.2748112795
22950162300.0 -0.9589001032 0.2875649972
23000162000.0 -0.9575975493 0.2994592261
23050161700.0 -0.9556634112 0.3124341069
23100161400.0 -0.9535497238 0.3253137009
23150161100.0 -0.9507165254 0.3375486346
23200160800.0 -0.9475150276 0.3500199035
23250160500.0 -0.9451626717 0.3618057363
23300160200.0 -0.9419891874 0.3730963048
23350159900.0 -0.9384456068 0.3873173875
23400159600.0 -0.933574675 0.4002435377
23450159300.0 -0.9291302599 0.4134656056
23500159000.0 -0.9246633912 0.4266334954
23550158700.0 -0.9199091812 0.4398669977
23600158400.0 -0.9145895209 0.4530969571
23650158100.0 -0.90834371 0.4671816335
23700157800.0 -0.9009033761 0.481219363
23750157500.0 -0.8922757064 0.4951703139
23800157200.0 -0.8834453348 0.5085726938
23850156900.0 -0.8746877307 0.5208552644
23900156600.0 -0.8654201881 0.534153931
23950156300.0 -0.8561088799 0.5458398613
24000156000.0 -0.8474073284 0.558001659
24050155700.0 -0.8369629474 0.569811238
24100155400.0 -0.8265815684 0.5821518839
24150155100.0 -0.8165886759 0.5940242814
24200154800.0 -0.805629605 0.6054464389
24250154500.0 -0.7936679136 0.6167588747
24300154200.0 -0.782613599 0.6283798313
24350153900.0 -0.7707702678 0.6388874587
24400153600.0 -0.7584357482 0.6493508508
24450153300.0 -0.7466504578 0.6590742439
24500153000.0 -0.7354109431 0.6688056927
24550152700.0 -0.7239867768 0.6780403741
24600152400.0 -0.7125700961 0.6875247826
24650152100.0 -0.7011305746 0.6956691769
