!Created with skrf (http://scikit-rf.org).
# Hz S RI R 50.0 
!freq ReS11 ImS11
300000.0 -0.9793219184 -0.1077401369
50299700.0 -1.000031035 0.0158714294
100299400.0 -0.9981769874 0.0289920228
150299100.0 -1.00293579 0.04580956
200298800.0 -0.9995337148 0.0591537247
250298500.0 -0.9974114679 0.0727833722
300298200.0 -0.985954357 0.088479369
350297900.0 -0.9942347884 0.0992845135
400297600.0 -0.993210361 0.1158275416
450297300.0 -0.9910235776 0.1296638235
500297000.0 -0.9894239875 0.1443830225
550296700.0 -0.984555116 0.1570052967
600296400.0 -1.017149825 0.1902842486
650296100.0 -0.9821029039 0.1867231005
700295800.0 -0.9793545356 0.2009986235
750295500.0 -0.9762804978 0.2151417575
800295200.0 -0.9728464347 0.2295614952
850294900.0 -0.9694204779 0.2431236985
900294600.0 -0.9654980586 0.2569266466
950294300.0 -0.9618594304 0.2704801785
1000294000.0 -0.9579721356 0.2844459074
1050293700.0 -0.9533033168 0.2983830605
1100293400.0 -0.9490794394 0.3127562935
1150293100.0 -0.9453071075 0.3246505002
1200292800.0 -0.9399078928 0.3389475266
1250292500.0 -0.9342932853 0.3522946571
1300292200.0 -0.9286766347 0.3656482915
1350291900.0 -0.9232726908 0.3796900669
1400291600.0 -0.9178712349 0.3926713567
1450291300.0 -0.9123990249 0.4051873026
1500291000.0 -0.9059095919 0.4184369853
1550290700.0 -0.8993323673 0.4316974588
1600290400.0 -0.8931240866 0.4446538366
1650290100.0 -0.8866262519 0.4567909213
1700289800.0 -0.8797043215 0.4703242202
1750289500.0 -0.8724361362 0.4825031268
1800289200.0 -0.8651493011 0.4954775674
1850288900.0 -0.8583388314 0.5067180208
1900288600.0 -0.8507944997 0.5198629645
1950288300.0 -0.8424858001 0.5322648996
2000288000.0 -0.8349829959 0.5437327702
2050287700.0 -0.826960062 0.5560868628
2100287400.0 -0.8187851531 0.5677214868
2150287100.0 -0.8103536298 0.5796699888
2200286800.0 -0.8025331711 0.5900068686
2250286500.0 -0.7936085945 0.6020733704
2300286200.0 -0.7845925267 0.6137776491
2350285900.0 -0.7758570097 0.6247247968
2400285600.0 -0.7671380114 0.6357709254
2450285300.0 -0.7584756177 0.6461795122
2500285000.0 -0.7485888328 0.6573890363
2550284700.0 -0.7396602415 0.667772089
2600284400.0 -0.7301495346 0.6779158788
2650284100.0 -0.721060591 0.6886129185
2700283800.0 -0.7105664113 0.6989755317
2750283500.0 -0.700224211 0.7095575228
2800283200.0 -0.6906849888 0.7192964778
2850282900.0 -0.6804290293 0.7291052182
2900282600.0 -0.6700273681 0.7387443356
2950282300.0 -0.6597177518 0.7478485795
3000282000.0 -0.6490986723 0.7572793791
3050281700.0 -0.637962259 0.7667199305
3100281400.0 -0.6259786129 0.7760372288
3150281100.0 -0.6142980302 0.7853904914
3200280800.0 -0.6024736063 0.7939521459
3250280500.0 -0.5917947363 0.8015041417
3300280200.0 -0.5805174284 0.809342373
3350279900.0 -0.5690692342 0.8169114664
3400279600.0 -0.5569081448 0.824507808
3450279300.0 -0.5457871475 0.8315804941
3500279000.0 -0.5338607165 0.8388972675
3550278700.0 -0.5213404267 0.8459428872
3600278400.0 -0.5092586146 0.8532009528
3650278100.0 -0.4957594339 0.860771906
3700277800.0 -0.4838847938 0.8671903469
3750277500.0 -0.4716313929 0.8738840124
3800277200.0 -0.4590965673 0.8802717682
3850276900.0 -0.4469023375 0.8860658863
3900276600.0 -0.4360666104 0.8916889694
3950276300.0 -0.4233881487 0.8979179297
4000276000.0 -0.4114300165 0.903957143
4050275700.0 -0.3986475834 0.9101648453
4100275400.0 -0.3873242279 0.9154033179
4150275100.0 -0.3746622306 0.9208934483
4200274800.0 -0.3615506036 0.9265323238
4250274500.0 -0.3494369181 0.9316208073
4300274200.0 -0.3362295472 0.936825605
4350273900.0 -0.3227334156 0.9422758935
4400273600.0 -0.307654588 0.9473726367
4450273300.0 -0.2924006198 0.9523576626
4500273000.0 -0.2786635186 0.957098878
4550272700.0 -0.2645222132 0.9611831746
4600272400.0 -0.2490331051 0.9651880169
4650272100.0 -0.2373469047 0.9685485168
4700271800.0 -0.224000181 0.9718320936
4750271500.0 -0.2121943419 0.9747321704
4800271200.0 -0.1998062216 0.9775491189
4850270900.0 -0.1858867204 0.9802953975
4900270600.0 -0.1719245927 0.98268078
4950270300.0 -0.1578958208 0.985297069
5000270000.0 -0.1435265703 0.987102759
5050269700.0 -0.1303337815 0.9889741419
5100269400.0 -0.1166726703 0.9906733671
5150269100.0 -0.1034001475 0.9922355096
5200268800.0 -0.0899986111 0.993246201
5250268500.0 -0.0769509821 0.9944051957
5300268200.0 -0.0640335089 0.9949177491
5350267900.0 -0.0518269296 0.9951279244
5400267600.0 -0.0354772084 0.9966142005
5450267300.0 -0.0225229042 0.9967155252
5500267000.0 -0.0072050514 0.9970936741
5550266700.0 0.0076987529 0.9973427171
5600266400.0 0.023099679 0.9973627084
5650266100.0 0.0398904835 0.9970283946
5700265800.0 0.0541314429 0.9964082423
5750265500.0 0.0696229491 0.9953709529
5800265200.0 0.0837255497 0.9940848801
5850264900.0 0.096861068 0.9933222334
5900264600.0 0.1131627131 0.9913448106
5950264300.0 0.1255633161 0.9901638166
6000264000.0 0.1389942826 0.9877965258
6050263700.0 0.1520355265 0.9868243938
6100263400.0 0.1645387789 0.984802822
6150263100.0 0.1790639307 0.9820512238
6200262800.0 0.1895318735 0.9804352785
6250262500.0 0.2021424538 0.977923154
6300262200.0 0.2151422055 0.9752509942
6350261900.0 0.2282521177 0.9724456007
6400261600.0 0.2420158059 0.9690541157
6450261300.0 0.2535402032 0.9662173283
6500261000.0 0.2663662965 0.9627536815
6550260700.0 0.2789834113 0.958858862
6600260400.0 0.2924707098 0.9548767631
6650260100.0 0.3062927068 0.9505056614
6700259800.0 0.3184704646 0.9461608655
6750259500.0 0.332253678 0.9410851568
6800259200.0 0.3455344334 0.9364087978
6850258900.0 0.3572725743 0.9312050923
6900258600.0 0.3692607161 0.9263283709
6950258300.0 0.3819665598 0.9209554058
7000258000.0 0.3938405315 0.9154703301
7050257700.0 0.406097089 0.9096029832
7100257400.0 0.4188620003 0.9030188502
7150257100.0 0.4291803304 0.8979148928
7200256800.0 0.4419366887 0.8914077524
7250256500.0 0.4535144996 0.885149468
7300256200.0 0.4664158839 0.8783641071
7350255900.0 0.4790233381 0.8715751969
7400255600.0 0.4924796609 0.8645011555
7450255300.0 0.5075664681 0.8553619727
7500255000.0 0.5190300833 0.8481951306
7550254700.0 0.532946973 0.8396338962
7600254400.0 0.545563498 0.8310515924
7650254100.0 0.5574346975 0.8235476683
7700253800.0 0.5689206365 0.8156136408
7750253500.0 0.5805371078 0.8074899463
7800253200.0 0.5911789547 0.7999976866
7850252900.0 0.600867947 0.792860597
7900252600.0 0.6124309545 0.7840735038
7950252300.0 0.6213886338 0.7773790729
8000252000.0 0.6315838578 0.769805404
8050251700.0 0.6421019973 0.7614416779
8100251400.0 0.6520499895 0.7533282233
8150251100.0 0.662132665 0.7445743793
8200250800.0 0.6717006955 0.7366692635
8250250500.0 0.6803306721 0.728717284
8300250200.0 0.6898896641 0.7199488522
8350249900.0 0.6989648886 0.7113427612
8400249600.0 0.7073231606 0.7032893512
8450249300.0 0.7165191936 0.6940093795
8500249000.0 0.7247875661 0.6852357514
8550248700.0 0.7330011961 0.6761021719
8600248400.0 0.74165874 0.666792519
8650248100.0 0.7493341439 0.6573743981
8700247800.0 0.758841897 0.646108856
8750247500.0 0.767113736 0.6362815333
8800247200.0 0.7749119061 0.6259671875
8850246900.0 0.7838536299 0.6143494732
8900246600.0 0.7921878457 0.6028256083
8950246300.0 0.8020041187 0.5900971049
9000246000.0 0.8109951667 0.5776336779
9050245700.0 0.8203244305 0.5643958281
9100245400.0 0.8288955662 0.5518051201
9150245100.0 0.8381654745 0.5381816458
9200244800.0 0.8479789681 0.5226947432
9250244500.0 0.8577491132 0.5073338574
9300244200.0 0.8657643955 0.4924601047
9350243900.0 0.8737575181 0.4785498181
9400243600.0 0.8803062173 0.4661740024
9450243300.0 0.8863560194 0.4545407276
9500243000.0 0.8926440839 0.4422770397
9550242700.0 0.8961911164 0.4345083307
9600242400.0 0.9003856593 0.4270683028
9650242100.0 0.9040099491 0.4204809893
9700241800.0 0.9085341415 0.4121150426
9750241500.0 0.91242315 0.4047580823
9800241200.0 0.9169223599 0.3957173097
9850240900.0 0.9227710764 0.3837127003
9900240600.0 0.9282884011 0.3723519506
9950240300.0 0.9348597312 0.3560280009
10000240000.0 0.9392208019 0.3446009647
10050239700.0 0.9450999494 0.3293554737
10100239400.0 0.9502876309 0.3140428622
10150239100.0 0.9545630816 0.2994656817
10200238800.0 0.9586734836 0.2842700171
10250238500.0 0.9618067498 0.2709479827
10300238200.0 0.9650644887 0.2569143022
10350237900.0 0.9675433047 0.2438004402
10400237600.0 0.970163359 0.2302560598
10450237300.0 0.9728269069 0.2169634152
10500237000.0 0.9749860016 0.2049708418
10550236700.0 0.9770126865 0.1913660829
10600236400.0 0.9794052534 0.1773852669
10650236100.0 0.9811532439 0.1630029178
10700235800.0 0.9837516633 0.1505869662
10750235500.0 0.985638293 0.1376278128
10800235200.0 0.987511569 0.1236019476
10850234900.0 0.9897563401 0.1088079696
10900234600.0 0.9916663041 0.0944537846
10950234300.0 0.9933592908 0.0810812071
11000234000.0 0.9952683448 0.0660035318
11050233700.0 0.9970066376 0.0497093943
11100233400.0 0.9983824251 0.0324966136
11150233100.0 0.9997134253 0.0160498982
11200232800.0 1.000239199 0.0010933949
11250232500.0 1.001037889 -0.0157899013
11300232200.0 1.001538845 -0.0332811991
11350231900.0 1.001716776 -0.0491606083
11400231600.0 1.001274884 -0.0650917615
11450231300.0 1.001045877 -0.0804379081
11500231000.0 0.9997479682 -0.0967733324
11550230700.0 0.998335924 -0.1101738249
11600230400.0 0.9962811906 -0.1225286086
11650230100.0 0.9948166951 -0.1344959446
11700229800.0 0.9928546546 -0.1492163512
11750229500.0 0.9905955409 -0.1637202179
11800229200.0 0.9877827859 -0.1774793273
11850228900.0 0.9840238471 -0.1900284379
11900228600.0 0.9807655588 -0.199716939
11950228300.0 0.9770331861 -0.2101249306
12000228000.0 0.9745411183 -0.219642121
12050227700.0 0.9707402491 -0.2315429752
12100227400.0 0.9672668306 -0.2434626819
12150227100.0 0.9627027261 -0.2589653856
12200226800.0 0.9589761237 -0.2706566298
12250226500.0 0.9546962298 -0.283107351
12300226200.0 0.9510257616 -0.2953547793
12350225900.0 0.9466798581 -0.3090674235
12400225600.0 0.9415211009 -0.3223837262
12450225300.0 0.9374985787 -0.3352015061
12500225000.0 0.9319953375 -0.3493689121
12550224700.0 0.926371303 -0.3630030272
12600224400.0 0.9216400308 -0.3759202646
12650224100.0 0.9160553576 -0.3903312005
12700223800.0 0.910619265 -0.4030632257
12750223500.0 0.9052730896 -0.4158602787
12800223200.0 0.8999421269 -0.4284602044
12850222900.0 0.894469261 -0.4404822236
12900222600.0 0.8890445603 -0.4526229176
12950222300.0 0.8825925567 -0.4657136282
13000222000.0 0.8766914407 -0.4764341405
13050221700.0 0.8696760899 -0.4896977162
13100221400.0 0.8634061266 -0.5018209532
13150221100.0 0.8562995803 -0.5136878376
13200220800.0 0.8494488697 -0.5255056659
13250220500.0 0.8418243866 -0.5374656096
13300220200.0 0.8345290026 -0.5486318178
13350219900.0 0.8262740659 -0.5606936482
13400219600.0 0.8179472235 -0.5728070756
13450219300.0 0.80841551 -0.5863822396
13500219000.0 0.7982341241 -0.6004329356
13550218700.0 0.787848005 -0.6133422608
13600218400.0 0.7775996088 -0.6253568704
13650218100.0 0.7681495466 -0.6368221981
13700217800.0 0.7572858785 -0.6487704558
13750217500.0 0.7462707867 -0.6602774924
13800217200.0 0.7353642008 -0.6722321217
13850216900.0 0.7242551498 -0.6837969037
13900216600.0 0.7149645157 -0.6929902608
13950216300.0 0.7034171734 -0.703253969
14000216000.0 0.6939374696 -0.7118658342
14050215700.0 0.6838904351 -0.7200688481
14100215400.0 0.6741716953 -0.7288206501
14150215100.0 0.6652469753 -0.7378700021
14200214800.0 0.6559477443 -0.746210865
14250214500.0 0.6457118645 -0.7555061779
14300214200.0 0.6355540436 -0.764716454
14350213900.0 0.6242953875 -0.7741744913
14400213600.0 0.6125484808 -0.784134949
14450213300.0 0.5991759524 -0.7943560936
14500213000.0 0.5864119667 -0.8034081007
14550212700.0 0.573772348 -0.8135950265
14600212400.0 0.5615593218 -0.8220575477
14650212100.0 0.5485176703 -0.8310342677
14700211800.0 0.5346326224 -0.8406982956
14750211500.0 0.5225523883 -0.8485330803
14800211200.0 0.5101500588 -0.8566340486
14850210900.0 0.4982955334 -0.8641582292
14900210600.0 0.4847370889 -0.8719150741
14950210300.0 0.4714132767 -0.8795753151
15000210000.0 0.4585778804 -0.8863538445
15050209700.0 0.4462910333 -0.8925872385
15100209400.0 0.4330507686 -0.8984525968
15150209100.0 0.421121037 -0.9037113743
15200208800.0 0.4078951057 -0.908984876
15250208500.0 0.396014713 -0.9138187283
15300208200.0 0.3848700578 -0.9188796795
15350207900.0 0.3706615917 -0.9231376159
15400207600.0 0.356546073 -0.9284990543
15450207300.0 0.3414915958 -0.9331082572
15500207000.0 0.3267466433 -0.9385817676
15550206700.0 0.3121931066 -0.9431752532
15600206400.0 0.2961165717 -0.9480559308
15650206100.0 0.2805105949 -0.952146294
15700205800.0 0.2662139852 -0.9559105176
15750205500.0 0.2520616243 -0.959309874
15800205200.0 0.2374027068 -0.9626784038
15850204900.0 0.2229998996 -0.9660631937
15900204600.0 0.2081293666 -0.9695592355
15950204300.0 0.1940718003 -0.9725071848
16000204000.0 0.1798897379 -0.975603938
16050203700.0 0.1651768495 -0.9783361771
16100203400.0 0.151134832 -0.9799952798
16150203100.0 0.1365756283 -0.9823770142
16200202800.0 0.1225603466 -0.9849352038
16250202500.0 0.1078282825 -0.9862717077
16300202200.0 0.0925484702 -0.9879702861
16350201900.0 0.0776506615 -0.989451818
16400201600.0 0.0635584594 -0.9903105665
16450201300.0 0.048125738 -0.9910889158
16500201000.0 0.0314357314 -0.992165322
16550200700.0 0.0158695593 -0.9924761357
16600200400.0 8.3274e-05 -0.9927006494
16650200100.0 -0.0160710355 -0.992946282
16700199800.0 -0.0324721926 -0.9922432745
16750199500.0 -0.0512030851 -0.9915828625
16800199200.0 -0.0674130512 -0.9903218299
16850198900.0 -0.0822212055 -0.9895296501
16900198600.0 -0.0964356429 -0.9882226485
16950198300.0 -0.1098353598 -0.9875106839
17000198000.0 -0.122888 -0.9857818345
17050197700.0 -0.1359471599 -0.9839591984
17100197400.0 -0.1488306484 -0.9815396327
17150197100.0 -0.1611224788 -0.9794271929
17200196800.0 -0.1737382136 -0.9773424848
17250196500.0 -0.1869302377 -0.9752421459
17300196200.0 -0.198996063 -0.9727660283
17350195900.0 -0.2109534027 -0.9705081079
17400195600.0 -0.2230857098 -0.9681378482
17450195300.0 -0.2362180581 -0.9654419047
17500195000.0 -0.2496521843 -0.9618950097
17550194700.0 -0.2636454962 -0.9583618342
17600194400.0 -0.2774482786 -0.9547942569
17650194100.0 -0.2911964134 -0.9503120009
17700193800.0 -0.3045196561 -0.9455505954
17750193500.0 -0.3184514128 -0.9414772644
17800193200.0 -0.3329486529 -0.9361481738
17850192900.0 -0.3479117674 -0.9311143721
17900192600.0 -0.3630832887 -0.9248904729
17950192300.0 -0.3786545897 -0.9178712405
18000192000.0 -0.3931025565 -0.9104315632
18050191700.0 -0.4067506559 -0.9025402592
18100191400.0 -0.4209875901 -0.8949246104
18150191100.0 -0.4359795578 -0.8869512212
18200190800.0 -0.4527730588 -0.8776488505
18250190500.0 -0.4698999911 -0.8680838798
18300190200.0 -0.4852361673 -0.8593063688
18350189900.0 -0.4999661005 -0.851413931
18400189600.0 -0.5144434351 -0.842689242
18450189300.0 -0.5279391812 -0.8345760761
18500189000.0 -0.5411354334 -0.8269934242
18550188700.0 -0.5539944677 -0.8194014221
18600188400.0 -0.5657178592 -0.8121027414
18650188100.0 -0.5763121191 -0.8054798319
18700187800.0 -0.5873356934 -0.7987907692
18750187500.0 -0.5983955953 -0.7923070781
18800187200.0 -0.6088882091 -0.7851190715
18850186900.0 -0.6192166255 -0.7780721626
18900186600.0 -0.6298449613 -0.7704510158
18950186300.0 -0.6394558143 -0.7627884382
19000186000.0 -0.6469614343 -0.7566186003
19050185700.0 -0.6563057462 -0.7494446457
19100185400.0 -0.6665993009 -0.7406783765
19150185100.0 -0.6768860434 -0.7319855416
19200184800.0 -0.6864988765 -0.723859797
19250184500.0 -0.6965617074 -0.7147727161
19300184200.0 -0.7084144416 -0.7052553823
19350183900.0 -0.7188464228 -0.6952460029
19400183600.0 -0.7281497767 -0.6852953657
19450183300.0 -0.7376319873 -0.6750649576
19500183000.0 -0.7455942534 -0.6660211252
19550182700.0 -0.755361778 -0.6550845905
19600182400.0 -0.7654950013 -0.6428603938
19650182100.0 -0.776191958 -0.6311413237
19700181800.0 -0.7867280795 -0.6177940949
19750181500.0 -0.7972260799 -0.6038364769
19800181200.0 -0.8074191969 -0.588626629
19850180900.0 -0.8169544907 -0.5732773899
19900180600.0 -0.8246620084 -0.5592682424
19950180300.0 -0.8340203257 -0.5427283057
20000180000.0 -0.8267128265 -0.5450191164
20050179700.0 -0.835413893 -0.5321050915
20100179400.0 -0.8443553371 -0.5185251374
20150179100.0 -0.8512587483 -0.5054467595
20200178800.0 -0.860730999 -0.4932961222
20250178500.0 -0.8694185149 -0.4797387251
20300178200.0 -0.8784749369 -0.4649913961
20350177900.0 -0.887986566 -0.4502573712
20400177600.0 -0.8969517129 -0.4356775098
20450177300.0 -0.9055440648 -0.421454321
20500177000.0 -0.9133542711 -0.4076268207
20550176700.0 -0.9211873118 -0.3938039693
20600176400.0 -0.9285655419 -0.3806062674
20650176100.0 -0.9349421502 -0.3684478228
20700175800.0 -0.9417746408 -0.3561847726
20750175500.0 -0.9483841109 -0.3438503364
20800175200.0 -0.9527951406 -0.3336397629
20850174900.0 -0.9578536129 -0.3227461014
20900174600.0 -0.9630270682 -0.3106715634
20950174300.0 -0.966180339 -0.2989788901
21000174000.0 -0.9706553066 -0.2877929812
21050173700.0 -0.9719311185 -0.2765193784
21100173400.0 -0.9774275372 -0.2647241205
21150173100.0 -0.9811626659 -0.2521691731
21200172800.0 -0.9846888339 -0.2385313198
21250172500.0 -0.9878720124 -0.2244544046
21300172200.0 -0.9900488216 -0.2101883599
21350171900.0 -0.9919195133 -0.1956048999
21400171600.0 -0.9931877626 -0.1815701315
21450171300.0 -0.994022482 -0.1666903543
21500171000.0 -0.9931937471 -0.1519231028
21550170700.0 -0.992729736 -0.1366271079
21600170400.0 -0.9941723862 -0.1202128782
21650170100.0 -0.9926968045 -0.1053927046
21700169800.0 -0.9900309076 -0.0899031075
21750169500.0 -0.9881708802 -0.0746475028
21800169200.0 -0.9882105201 -0.0581487384
21850168900.0 -0.986903769 -0.0416823591
21900168600.0 -0.9854866854 -0.0251151773
21950168300.0 -0.9842490269 -0.0099864361
22000168000.0 -0.9829641935 0.0057940183
22050167700.0 -0.9825096485 0.0196940882
22100167400.0 -0.9826114244 0.0351022684
22150167100.0 -0.9829955964 0.0504148893
22200166800.0 -0.9832173744 0.0668295782
22250166500.0 -0.9828700658 0.0836586986
22300166200.0 -0.9819122587 0.1007229902
22350165900.0 -0.9813039379 0.1178391364
22400165600.0 -0.979022792 0.1320496485
22450165300.0 -0.9765200085 0.1478725164
22500165000.0 -0.9751097982 0.1613248081
22550164700.0 -0.9742482105 0.1765977031
22600164400.0 -0.9723742924 0.1914931963
22650164100.0 -0.9702763637 0.2070862086
22700163800.0 -0.9674772855 0.2229401325
22750163500.0 -0.9658001179 0.238588123
22800163200.0 -0.9620118472 0.2518007704
22850162900.0 -0.9601708811 0.2646604814
22900162600.0 -0.9583816075 0.2780769546
22950162300.0 -0.9576371746 0.290861348
23000162000.0 -0.9561960324 0.3027130555
23050161700.0 -0.9544547702 0.3156537835
23100161400.0 -0.952388448 0.3278067283
23150161100.0 -0.9495215252 0.3403377095
23200160800.0 -0.9468716632 0.3522433128
23250160500.0 -0.9432918639 0.3643904682
23300160200.0 -0.9410659847 0.3759972388
23350159900.0 -0.9369786966 0.3889116298
23400159600.0 -0.9330304014 0.4019800075
23450159300.0 -0.9281869612 0.4154391328
23500159000.0 -0.9231795982 0.4282408373
23550158700.0 -0.9190905192 0.4414320118
23600158400.0 -0.9135095029 0.4546865015
23650158100.0 -0.9069984372 0.4684486398
23700157800.0 -0.8996632359 0.4823848214
23750157500.0 -0.891215881 0.4965869817
23800157200.0 -0.8823535563 0.5095572194
23850156900.0 -0.8734546513 0.5221387274
23900156600.0 -0.8642599072 0.5351894837
23950156300.0 -0.8549839579 0.5470126331
24000156000.0 -0.8462897009 0.5592656151
24050155700.0 -0.8357922034 0.5709406185
24100155400.0 -0.8257210183 0.5829511694
24150155100.0 -0.8145572079 0.5944210563
24200154800.0 -0.8043323728 0.605705227
24250154500.0 -0.7929026018 0.6171220936
24300154200.0 -0.7814930885 0.6290740944
24350153900.0 -0.7696367176 0.6395385885
24400153600.0 -0.7570171172 0.6499838097
24450153300.0 -0.7451688106 0.6601281453
24500153000.0 -0.7338548914 0.6697181471
24550152700.0 -0.7219262214 0.6789633368
24600152400.0 -0.7109485387 0.6886438708
24650152100.0 -0.6993012629 0.696502125
