!Created with skrf (http://scikit-rf.org).
# Hz S RI R 50.0 
!freq ReS11 ImS11
300000.0 -0.971827319 -0.1233768688
50299700.0 -0.9998986089 0.0150144431
100299400.0 -0.9978207932 0.0279813706
150299100.0 -1.002603645 0.0447062463
200298800.0 -0.9996006736 0.0580806797
250298500.0 -0.9970569033 0.071619417
300298200.0 -0.9858637669 0.0874151715
350297900.0 -0.9940235789 0.0983443212
400297600.0 -0.9929199716 0.114932825
450297300.0 -0.9911743533 0.1288516972
500297000.0 -0.9895881201 0.1432983888
550296700.0 -0.9843101484 0.1559204049
600296400.0 -1.017354226 0.1888970522
650296100.0 -0.9821039614 0.1857267667
700295800.0 -0.9792783027 0.1999598906
750295500.0 -0.9761856825 0.2139437964
800295200.0 -0.972784942 0.2280723718
850294900.0 -0.9697063145 0.2417621779
900294600.0 -0.9658890991 0.2555650416
950294300.0 -0.9620447974 0.2694285051
1000294000.0 -0.9582033818 0.2833986823
1050293700.0 -0.9535642749 0.2970452049
1100293400.0 -0.9494191542 0.3114269832
1150293100.0 -0.9454634976 0.3233727824
1200292800.0 -0.9402123231 0.3375416904
1250292500.0 -0.9346795579 0.3511124337
1300292200.0 -0.9288388768 0.3643999949
1350291900.0 -0.9234122954 0.3784070602
1400291600.0 -0.9180445596 0.3915969577
1450291300.0 -0.9125299151 0.4037559927
1500291000.0 -0.9061371742 0.4174134035
1550290700.0 -0.8997675929 0.4307309914
1600290400.0 -0.8935404621 0.443450754
1650290100.0 -0.8867196307 0.455662688
1700289800.0 -0.8798525595 0.4692010649
1750289500.0 -0.8728691161 0.481421847
1800289200.0 -0.8656408147 0.4944731145
1850288900.0 -0.8589240453 0.5057824269
1900288600.0 -0.850985363 0.5186255393
1950288300.0 -0.8430161903 0.5312914675
2000288000.0 -0.8353354434 0.542621271
2050287700.0 -0.8271603106 0.5552781903
2100287400.0 -0.8194399188 0.5663392008
2150287100.0 -0.8108593917 0.5785397969
2200286800.0 -0.8030311177 0.589161037
2250286500.0 -0.7941207922 0.6012647464
2300286200.0 -0.7853116453 0.6127646455
2350285900.0 -0.7767725562 0.6235425166
2400285600.0 -0.7681396326 0.6343337868
2450285300.0 -0.7591871019 0.6449713309
2500285000.0 -0.7492664795 0.6568344105
2550284700.0 -0.7401391143 0.6671985408
2600284400.0 -0.7311275392 0.6770188765
2650284100.0 -0.7222790033 0.6870495968
2700283800.0 -0.7119670993 0.6973265982
2750283500.0 -0.7017047808 0.7081321754
2800283200.0 -0.6914198034 0.7178293588
2850282900.0 -0.6812039781 0.7280783202
2900282600.0 -0.6707531648 0.7378400393
2950282300.0 -0.6603954811 0.7471569289
3000282000.0 -0.6496485272 0.7567384943
3050281700.0 -0.6385787024 0.7660663612
3100281400.0 -0.6269198673 0.7750285844
3150281100.0 -0.6157550606 0.7838031765
3200280800.0 -0.6042465475 0.7921581116
3250280500.0 -0.593147483 0.8003345581
3300280200.0 -0.5815038646 0.8084859859
3350279900.0 -0.5692024891 0.8165412466
3400279600.0 -0.5566273905 0.8244991515
3450279300.0 -0.5455319293 0.8320473713
3500279000.0 -0.5338113583 0.8384633019
3550278700.0 -0.521587055 0.8456654786
3600278400.0 -0.5100124827 0.8522734097
3650278100.0 -0.4968841936 0.8597891664
3700277800.0 -0.4847430931 0.866291552
3750277500.0 -0.4723518485 0.8730243833
3800277200.0 -0.4599303692 0.8797279655
3850276900.0 -0.4477289527 0.8857623908
3900276600.0 -0.4368684266 0.8911314918
3950276300.0 -0.4249358925 0.8969927888
4000276000.0 -0.4131885098 0.9029878924
4050275700.0 -0.4003845021 0.909073071
4100275400.0 -0.3894766707 0.9145168994
4150275100.0 -0.3762321221 0.9201423231
4200274800.0 -0.3628294891 0.926144097
4250274500.0 -0.3500646021 0.93127748
4300274200.0 -0.3367418739 0.9368922678
4350273900.0 -0.3223425856 0.9420157958
4400273600.0 -0.3076587027 0.9472991221
4450273300.0 -0.2929096372 0.9521165884
4500273000.0 -0.2799083612 0.9564677602
4550272700.0 -0.2660465873 0.9603741565
4600272400.0 -0.2509322023 0.9647777882
4650272100.0 -0.2398039903 0.9677875498
4700271800.0 -0.2268992625 0.9711788007
4750271500.0 -0.2153374156 0.9739752098
4800271200.0 -0.203029161 0.9767272613
4850270900.0 -0.1893343821 0.9793657197
4900270600.0 -0.1755847779 0.9818891184
4950270300.0 -0.1609069632 0.9845996259
5000270000.0 -0.1463380925 0.9866345243
5050269700.0 -0.1329717708 0.9882314055
5100269400.0 -0.118882079 0.9899856862
5150269100.0 -0.1048161369 0.9914717116
5200268800.0 -0.0913793187 0.9927337944
5250268500.0 -0.0780458425 0.9937103362
5300268200.0 -0.0647852553 0.9945235171
5350267900.0 -0.0518517379 0.9951815445
5400267600.0 -0.0356907815 0.9961994738
5450267300.0 -0.0222596351 0.9967141159
5500267000.0 -0.0069960549 0.9970210856
5550266700.0 0.0082018679 0.9972538172
5600266400.0 0.0237128665 0.9971054414
5650266100.0 0.0405375542 0.9968279719
5700265800.0 0.0549444511 0.9961755662
5750265500.0 0.0697068744 0.9952993553
5800265200.0 0.0831363337 0.9938744467
5850264900.0 0.0961241144 0.9927389891
5900264600.0 0.1127352993 0.991286604
5950264300.0 0.124321375 0.9897178027
6000264000.0 0.1378757642 0.9880565809
6050263700.0 0.1494331274 0.9864914415
6100263400.0 0.162033225 0.9849486891
6150263100.0 0.1761690286 0.9825595305
6200262800.0 0.1860829142 0.9810799153
6250262500.0 0.1986577269 0.9786369499
6300262200.0 0.2107338361 0.9762393616
6350261900.0 0.2235218867 0.9733403557
6400261600.0 0.2375183235 0.9703270739
6450261300.0 0.2485982192 0.9677539355
6500261000.0 0.2621957571 0.9642354364
6550260700.0 0.274910365 0.9600832734
6600260400.0 0.2885670962 0.9560522417
6650260100.0 0.3025938979 0.951614542
6700259800.0 0.3146140152 0.9472051746
6750259500.0 0.3283274445 0.9421716326
6800259200.0 0.3420128394 0.9372994445
6850258900.0 0.3545455458 0.9321343259
6900258600.0 0.3669969843 0.9270364159
6950258300.0 0.379504226 0.9213800113
7000258000.0 0.3911762194 0.9162258682
7050257700.0 0.4030038079 0.9105187368
7100257400.0 0.4164927553 0.9040895695
7150257100.0 0.4272231766 0.8986271431
7200256800.0 0.4404614442 0.8922392368
7250256500.0 0.4528244759 0.8852712228
7300256200.0 0.4658692612 0.8786490727
7350255900.0 0.4788758722 0.8717629138
7400255600.0 0.4928567982 0.8640981942
7450255300.0 0.5087233333 0.8552261712
7500255000.0 0.5210155702 0.8474903573
7550254700.0 0.535235459 0.8382091419
7600254400.0 0.5474297032 0.830051335
7650254100.0 0.5591266666 0.8217440446
7700253800.0 0.5713746793 0.8138651132
7750253500.0 0.5821307406 0.8062146073
7800253200.0 0.5926773804 0.7984304116
7850252900.0 0.6024321156 0.7913579275
7900252600.0 0.6136746956 0.7825211957
7950252300.0 0.6222505632 0.7761703502
8000252000.0 0.6320563479 0.7685411263
8050251700.0 0.6427607471 0.7604651155
8100251400.0 0.6526604414 0.7524578478
8150251100.0 0.6625799201 0.7440690341
8200250800.0 0.6716398474 0.7360283248
8250250500.0 0.6806497536 0.7279866335
8300250200.0 0.6895169524 0.7197930539
8350249900.0 0.6989957011 0.7108609996
8400249600.0 0.7069930847 0.7029312384
8450249300.0 0.7158138601 0.6942608959
8500249000.0 0.7243684703 0.6854434879
8550248700.0 0.7326386721 0.6762033187
8600248400.0 0.7409833554 0.6669642299
8650248100.0 0.7487198783 0.6576477483
8700247800.0 0.7578990079 0.6463356653
8750247500.0 0.7662059409 0.636313222
8800247200.0 0.774151465 0.6261092897
8850246900.0 0.7828451318 0.6145731994
8900246600.0 0.7911404504 0.6031485745
8950246300.0 0.8003492936 0.5906791681
9000246000.0 0.8092877238 0.5787649186
9050245700.0 0.8176279883 0.566513413
9100245400.0 0.8257902307 0.5541460839
9150245100.0 0.8345538718 0.5413324767
9200244800.0 0.8438487039 0.5268426972
9250244500.0 0.8529066637 0.5123237704
9300244200.0 0.86104462 0.4987209256
9350243900.0 0.8689780227 0.4855777634
9400243600.0 0.8752851047 0.4737782644
9450243300.0 0.881022868 0.4633856919
9500243000.0 0.8873196504 0.4517769885
9550242700.0 0.8909916629 0.4442932082
9600242400.0 0.8955922087 0.4367994361
9650242100.0 0.8998054675 0.4297148301
9700241800.0 0.9046254338 0.4212988002
9750241500.0 0.9088299088 0.4136375483
9800241200.0 0.9138459526 0.4042257029
9850240900.0 0.9197316521 0.3926105875
9900240600.0 0.926108858 0.3802277482
9950240300.0 0.9329660009 0.3635443266
10000240000.0 0.9378203866 0.351493913
10050239700.0 0.9443249522 0.3352448953
10100239400.0 0.9491402507 0.3193346355
10150239100.0 0.954025234 0.3034207332
10200238800.0 0.9584859079 0.2877579338
10250238500.0 0.9615496974 0.2743142785
10300238200.0 0.9647581131 0.2604183028
10350237900.0 0.9675179284 0.2471086294
10400237600.0 0.9701034124 0.2337974051
10450237300.0 0.9728225426 0.2198298406
10500237000.0 0.9749833171 0.2074809961
10550236700.0 0.977759292 0.1933129137
10600236400.0 0.9795082732 0.1790713922
10650236100.0 0.9814501056 0.164723383
10700235800.0 0.9838210739 0.1522461417
10750235500.0 0.9861792219 0.1385299085
10800235200.0 0.9878787016 0.1245266286
10850234900.0 0.9899037903 0.1094195547
10900234600.0 0.9919883091 0.0948109919
10950234300.0 0.9937755744 0.0811944486
11000234000.0 0.9955970932 0.0655998602
11050233700.0 0.9974816836 0.0488733096
11100233400.0 0.9990124526 0.0310482005
11150233100.0 1.000274544 0.0145498961
11200232800.0 1.001063749 -0.0015512037
11250232500.0 1.00197258 -0.0196782621
11300232200.0 1.001773512 -0.0381715545
11350231900.0 1.002574769 -0.0541344659
11400231600.0 1.001605432 -0.0711316285
11450231300.0 1.000995736 -0.0852425318
11500231000.0 1.000193235 -0.1018542527
11550230700.0 0.9981876454 -0.1153129203
11600230400.0 0.9974540542 -0.127786302
11650230100.0 0.9948043552 -0.1398520546
11700229800.0 0.992762725 -0.1543291392
11750229500.0 0.9901601449 -0.1684932625
11800229200.0 0.9873671551 -0.1816652516
11850228900.0 0.983520123 -0.1936713029
11900228600.0 0.9798237091 -0.2032059326
11950228300.0 0.9763726316 -0.2131535207
12000228000.0 0.9739062175 -0.2214876881
12050227700.0 0.9700982948 -0.2342395007
12100227400.0 0.9661578984 -0.2459985204
12150227100.0 0.961217688 -0.2626890406
12200226800.0 0.9575152671 -0.2735208677
12250226500.0 0.9537272373 -0.2865860225
12300226200.0 0.9494350594 -0.2980324963
12350225900.0 0.9438702545 -0.3124688653
12400225600.0 0.9400499661 -0.3241028169
12450225300.0 0.9360721553 -0.3369867109
12500225000.0 0.9303702821 -0.3516487877
12550224700.0 0.9247330181 -0.3657522379
12600224400.0 0.9199102664 -0.3782993548
12650224100.0 0.9140837168 -0.3927422064
12700223800.0 0.9086897066 -0.4055580123
12750223500.0 0.9033244514 -0.4185594849
12800223200.0 0.8980218239 -0.4311408314
12850222900.0 0.89287505 -0.4430992725
12900222600.0 0.8866899743 -0.4553907839
12950222300.0 0.8808100799 -0.4675601332
13000222000.0 0.8753148884 -0.4794420968
13050221700.0 0.8680735604 -0.4930046487
13100221400.0 0.8619643185 -0.5046132981
13150221100.0 0.8544740643 -0.5164549025
13200220800.0 0.8475799712 -0.5284451543
13250220500.0 0.8401254548 -0.5405268104
13300220200.0 0.8328353594 -0.5513592902
13350219900.0 0.8244907406 -0.5633291014
13400219600.0 0.8162755434 -0.5751157913
13450219300.0 0.8070279507 -0.5882242962
13500219000.0 0.797419914 -0.6014450993
13550218700.0 0.7874310281 -0.613939812
13600218400.0 0.7774253184 -0.6251923022
13650218100.0 0.7672635152 -0.6363577335
13700217800.0 0.7575802982 -0.6478794815
13750217500.0 0.7471872147 -0.6589529786
13800217200.0 0.7368005362 -0.6706100825
13850216900.0 0.7253666978 -0.6822558581
13900216600.0 0.7156667036 -0.6906262248
13950216300.0 0.7051759949 -0.7003695456
14000216000.0 0.6951490975 -0.7090455509
14050215700.0 0.6862554509 -0.7171039655
14100215400.0 0.6769522991 -0.7262278715
14150215100.0 0.6675158494 -0.7348687947
14200214800.0 0.6581037107 -0.7439464175
14250214500.0 0.6476645575 -0.7534442563
14300214200.0 0.6373567081 -0.7628241072
14350213900.0 0.626379609 -0.7722795984
14400213600.0 0.6142409118 -0.7823002808
14450213300.0 0.6012252065 -0.792606271
14500213000.0 0.5879784686 -0.8019584647
14550212700.0 0.5759256451 -0.81129037
14600212400.0 0.563691941 -0.8204309085
14650212100.0 0.5510684444 -0.8291718604
14700211800.0 0.5375797256 -0.8387951114
14750211500.0 0.5250041728 -0.8472182767
14800211200.0 0.5127289561 -0.8552994333
14850210900.0 0.4999888762 -0.8632167066
14900210600.0 0.4866223194 -0.8710888663
14950210300.0 0.4735295124 -0.8786571271
15000210000.0 0.46073577 -0.8851292199
15050209700.0 0.4487617223 -0.891274351
15100209400.0 0.4356135459 -0.8977903545
15150209100.0 0.4237446718 -0.9022788141
15200208800.0 0.4102143562 -0.9083030643
15250208500.0 0.3996556454 -0.91203217
15300208200.0 0.3875667719 -0.917168145
15350207900.0 0.3748157551 -0.9217157648
15400207600.0 0.3590764509 -0.92706197
15450207300.0 0.3446032641 -0.9323244795
15500207000.0 0.3304106017 -0.9367901993
15550206700.0 0.3161086325 -0.9422054614
15600206400.0 0.2996011713 -0.9465517873
15650206100.0 0.2840507629 -0.9507073666
15700205800.0 0.2703490871 -0.9543959875
15750205500.0 0.2562088152 -0.9574426454
15800205200.0 0.2423458443 -0.9610803638
15850204900.0 0.2281846381 -0.9645103416
15900204600.0 0.2133137049 -0.9681941764
15950204300.0 0.1988796543 -0.9712009807
16000204000.0 0.1845194662 -0.9744217463
16050203700.0 0.169291592 -0.9773607208
16100203400.0 0.1539752647 -0.9797082965
16150203100.0 0.1397638694 -0.9819066566
16200202800.0 0.1252447291 -0.9843153386
16250202500.0 0.111049169 -0.9860490008
16300202200.0 0.0952086002 -0.9870853264
16350201900.0 0.0800654772 -0.9888366503
16400201600.0 0.0657196349 -0.9901207894
16450201300.0 0.0496799673 -0.9912533819
16500201000.0 0.0328468096 -0.9921848066
16550200700.0 0.0167809635 -0.9924435195
16600200400.0 0.0006925766 -0.9926611286
16650200100.0 -0.0156950241 -0.9925131264
16700199800.0 -0.0318685249 -0.9921277445
16750199500.0 -0.0507898831 -0.9914646998
16800199200.0 -0.0665073513 -0.990563208
16850198900.0 -0.0825088781 -0.9892209926
16900198600.0 -0.0971173263 -0.9880094954
16950198300.0 -0.109536719 -0.987429528
17000198000.0 -0.123423867 -0.9856285268
17050197700.0 -0.135825359 -0.983548453
17100197400.0 -0.1488799334 -0.9819045637
17150197100.0 -0.1616113774 -0.9801581142
17200196800.0 -0.1743103667 -0.9779332343
17250196500.0 -0.187009097 -0.9754744417
17300196200.0 -0.1994786768 -0.9729900502
17350195900.0 -0.2112170965 -0.9707090557
17400195600.0 -0.2232464234 -0.9680599798
17450195300.0 -0.236107269 -0.9652977873
17500195000.0 -0.2492533257 -0.96207937
17550194700.0 -0.263120839 -0.9584871829
17600194400.0 -0.2767482436 -0.9542719693
17650194100.0 -0.2905458046 -0.9504687552
17700193800.0 -0.303306756 -0.945951066
17750193500.0 -0.3177990016 -0.9418258606
17800193200.0 -0.3316018041 -0.9363580258
17850192900.0 -0.3467992565 -0.9313493996
17900192600.0 -0.361637795 -0.9248365159
17950192300.0 -0.3772550687 -0.918135108
18000192000.0 -0.3921610731 -0.9106281098
18050191700.0 -0.4058757039 -0.9027175265
18100191400.0 -0.4199757052 -0.895059922
18150191100.0 -0.4347949266 -0.8869113021
18200190800.0 -0.4516960953 -0.8777929463
18250190500.0 -0.468806677 -0.8685734142
18300190200.0 -0.4842217948 -0.859412405
18350189900.0 -0.4993448966 -0.8514049565
18400189600.0 -0.5138489568 -0.8428922581
18450189300.0 -0.5276706321 -0.8349571211
18500189000.0 -0.5405067427 -0.8264710067
18550188700.0 -0.5536785352 -0.8188100571
18600188400.0 -0.5652772811 -0.8119877461
18650188100.0 -0.5765127208 -0.8056197688
18700187800.0 -0.5877563166 -0.7990149041
18750187500.0 -0.5985200062 -0.7921697535
18800187200.0 -0.6092625278 -0.785424401
18850186900.0 -0.6193509463 -0.7783463047
18900186600.0 -0.6297097471 -0.7709944745
18950186300.0 -0.6399384364 -0.7634313621
19000186000.0 -0.6474114575 -0.7571417869
19050185700.0 -0.6570077706 -0.7501905299
19100185400.0 -0.6664400682 -0.7414080267
19150185100.0 -0.6770240873 -0.7331092148
19200184800.0 -0.6863768433 -0.7253813729
19250184500.0 -0.6964902259 -0.7162415247
19300184200.0 -0.7075539295 -0.7058875388
19350183900.0 -0.718900364 -0.6969795
19400183600.0 -0.7287611819 -0.6868268401
19450183300.0 -0.7369037634 -0.6762089837
19500183000.0 -0.7458991456 -0.6660675832
19550182700.0 -0.7556414439 -0.6553925527
19600182400.0 -0.7652439427 -0.6439605595
19650182100.0 -0.7764559368 -0.6316318621
19700181800.0 -0.7865096865 -0.6182659157
19750181500.0 -0.7970932025 -0.6041764511
19800181200.0 -0.807299226 -0.5892921168
19850180900.0 -0.8168563964 -0.5739151332
19900180600.0 -0.8244404029 -0.5593781605
19950180300.0 -0.8337190836 -0.5431644595
20000180000.0 -0.8236591544 -0.5464993809
20050179700.0 -0.8314494707 -0.534724105
20100179400.0 -0.8395040709 -0.5212825526
20150179100.0 -0.8473951493 -0.5093622158
20200178800.0 -0.8559764064 -0.49814111
20250178500.0 -0.8658381104 -0.4854461169
20300178200.0 -0.8752411009 -0.4719334934
20350177900.0 -0.884786067 -0.4574738853
20400177600.0 -0.8932304298 -0.4435840431
20450177300.0 -0.9018618488 -0.4291378575
20500177000.0 -0.9099276261 -0.4154557991
20550176700.0 -0.9176803344 -0.4017142604
20600176400.0 -0.9246544611 -0.3890911868
20650176100.0 -0.9316943423 -0.376676484
20700175800.0 -0.938419182 -0.3645974813
20750175500.0 -0.9446393155 -0.3538324359
20800175200.0 -0.9492656713 -0.342087815
20850174900.0 -0.9536297489 -0.3315515844
20900174600.0 -0.9587422117 -0.3214254263
20950174300.0 -0.9610930371 -0.3094040202
21000174000.0 -0.9641868927 -0.2991837995
21050173700.0 -0.9660903485 -0.2890722759
21100173400.0 -0.9690052325 -0.2791794947
21150173100.0 -0.9730954279 -0.2672007548
21200172800.0 -0.976698489 -0.2536230377
21250172500.0 -0.9808183261 -0.2399738301
21300172200.0 -0.9839342674 -0.2262463347
21350171900.0 -0.9858827551 -0.2117991953
21400171600.0 -0.9876613497 -0.1973449033
21450171300.0 -0.9888093684 -0.1832593194
21500171000.0 -0.9889476075 -0.1683397129
21550170700.0 -0.9897713172 -0.1529731242
21600170400.0 -0.9914581722 -0.1381876441
21650170100.0 -0.9915515676 -0.1215506292
21700169800.0 -0.9906865554 -0.1082261434
21750169500.0 -0.9906324934 -0.0908490352
21800169200.0 -0.9911156509 -0.0737476989
21850168900.0 -0.9895570983 -0.0576169768
21900168600.0 -0.9895385999 -0.0414141366
21950168300.0 -0.9891816677 -0.0257852881
22000168000.0 -0.988990717 -0.0106739733
22050167700.0 -0.9898323774 0.0042286292
22100167400.0 -0.9903807921 0.0198591
22150167100.0 -0.9912889429 0.0356207098
22200166800.0 -0.9918617319 0.0524266721
22250166500.0 -0.9912682627 0.0696202849
22300166200.0 -0.9905684307 0.085184456
22350165900.0 -0.9894223577 0.1024139679
22400165600.0 -0.9891960204 0.1181561762
22450165300.0 -0.9872645458 0.1331827053
22500165000.0 -0.9853436879 0.1484141315
22550164700.0 -0.9837214256 0.1632905113
22600164400.0 -0.9806919054 0.1801445223
22650164100.0 -0.9781400625 0.196399367
22700163800.0 -0.9744237009 0.21189134
22750163500.0 -0.9719124629 0.2263583879
22800163200.0 -0.9693818656 0.2395967436
22850162900.0 -0.9665495853 0.2527116687
22900162600.0 -0.9649142077 0.2670373915
22950162300.0 -0.9628700562 0.2805999373
23000162000.0 -0.9611840432 0.2932652666
23050161700.0 -0.9585375411 0.3071319417
23100161400.0 -0.9557933259 0.3202702266
23150161100.0 -0.9531226388 0.3334548937
23200160800.0 -0.9498806242 0.3460347311
23250160500.0 -0.9471704205 0.3577079839
23300160200.0 -0.9440715555 0.3707684556
23350159900.0 -0.9409159818 0.3848161726
23400159600.0 -0.935372813 0.3982827522
23450159300.0 -0.930026164 0.4124312585
23500159000.0 -0.9248592967 0.4259016767
23550158700.0 -0.9200594498 0.4403265793
23600158400.0 -0.9140083254 0.4543906141
23650158100.0 -0.9066659597 0.4691047781
23700157800.0 -0.8981977228 0.4830078856
23750157500.0 -0.888723109 0.497523989
23800157200.0 -0.879124215 0.5108920768
23850156900.0 -0.8690578057 0.5236112867
23900156600.0 -0.8591427935 0.5363877729
23950156300.0 -0.8484720914 0.5491041641
24000156000.0 -0.8402761748 0.5615315842
24050155700.0 -0.8293884097 0.5735491445
24100155400.0 -0.8191221706 0.5866905197
24150155100.0 -0.8072067598 0.5983536394
24200154800.0 -0.7965433148 0.6108358157
24250154500.0 -0.7853228261 0.6219550251
24300154200.0 -0.7740195832 0.63431362
24350153900.0 -0.7619228567 0.6458343597
24400153600.0 -0.7493127269 0.6567015635
24450153300.0 -0.737336385 0.6666825256
24500153000.0 -0.7259241373 0.6766418832
24550152700.0 -0.7150515114 0.6870704819
24600152400.0 -0.7024591203 0.696206175
24650152100.0 -0.690126695 0.7047900579
