!Created with skrf (http://scikit-rf.org).
# Hz S RI R 50.0 
!freq ReS11 ImS11
300000.0 -0.9765527252 -0.1118828224
50299700.0 -0.9999907824 0.0159374425
100299400.0 -0.9980831815 0.0288310571
150299100.0 -1.002782182 0.0456558024
200298800.0 -0.9996588439 0.0588836086
250298500.0 -0.997395517 0.0725021162
300298200.0 -0.9859799018 0.0882556128
350297900.0 -0.9942484344 0.0991337195
400297600.0 -0.9933146066 0.115756046
450297300.0 -0.9910372074 0.1297313238
500297000.0 -0.9895475539 0.1442416382
550296700.0 -0.9842647928 0.1568783838
600296400.0 -1.017252361 0.1900873236
650296100.0 -0.9822188759 0.1867966042
700295800.0 -0.9794896385 0.2011879415
750295500.0 -0.9761677154 0.2150555225
800295200.0 -0.9729129087 0.2292634251
850294900.0 -0.9695656234 0.2432200974
900294600.0 -0.9658451788 0.2569187427
950294300.0 -0.9619888392 0.2704660153
1000294000.0 -0.9578823079 0.284525875
1050293700.0 -0.953516445 0.298299413
1100293400.0 -0.9492161422 0.3127537209
1150293100.0 -0.9453490362 0.3246687981
1200292800.0 -0.9399328507 0.3388201834
1250292500.0 -0.9345687171 0.3523069108
1300292200.0 -0.9288852402 0.3656627358
1350291900.0 -0.9232400332 0.3796397525
1400291600.0 -0.9178237019 0.3926465703
1450291300.0 -0.9124257873 0.4048972614
1500291000.0 -0.9059242309 0.4183523008
1550290700.0 -0.899471465 0.431703802
1600290400.0 -0.8932258542 0.4445673709
1650290100.0 -0.8866505347 0.4567585477
1700289800.0 -0.879664883 0.4700240706
1750289500.0 -0.8726582465 0.4825811532
1800289200.0 -0.8650800836 0.4952641425
1850288900.0 -0.8583311786 0.506703728
1900288600.0 -0.8506837514 0.5195832797
1950288300.0 -0.8427122701 0.5322724179
2000288000.0 -0.8350781701 0.5437835054
2050287700.0 -0.8267851505 0.5560088184
2100287400.0 -0.8189007744 0.5676370464
2150287100.0 -0.8102889403 0.5797964961
2200286800.0 -0.8026768781 0.5900742859
2250286500.0 -0.7936040419 0.6021293486
2300286200.0 -0.7846981611 0.6137935102
2350285900.0 -0.776009538 0.6246291822
2400285600.0 -0.7670918177 0.6358990327
2450285300.0 -0.7584771976 0.6460648439
2500285000.0 -0.748715108 0.657357295
2550284700.0 -0.7397366382 0.6674663745
2600284400.0 -0.7303151009 0.6779979623
2650284100.0 -0.7213855893 0.6881807583
2700283800.0 -0.7109325187 0.6992408682
2750283500.0 -0.700334209 0.7095207395
2800283200.0 -0.6905950518 0.7189634893
2850282900.0 -0.6803713732 0.7291396006
2900282600.0 -0.6700760194 0.7384897757
2950282300.0 -0.6599857468 0.7477954185
3000282000.0 -0.6492845792 0.7572710411
3050281700.0 -0.6380101831 0.7667011307
3100281400.0 -0.6261904533 0.7759793836
3150281100.0 -0.6143007672 0.7853010723
3200280800.0 -0.6027349293 0.7939006897
3250280500.0 -0.5919129545 0.8014958139
3300280200.0 -0.5807946508 0.8091944905
3350279900.0 -0.5689897908 0.8168949621
3400279600.0 -0.5569962212 0.8245326786
3450279300.0 -0.5458327062 0.8316309592
3500279000.0 -0.533985164 0.8388144536
3550278700.0 -0.5215636899 0.8461033547
3600278400.0 -0.5091011349 0.8531614298
3650278100.0 -0.4958292085 0.8607920849
3700277800.0 -0.4840051042 0.8673110968
3750277500.0 -0.4717767807 0.8738551299
3800277200.0 -0.4591047916 0.8803112547
3850276900.0 -0.446876924 0.8861644486
3900276600.0 -0.4361285902 0.8918881522
3950276300.0 -0.4235467511 0.8979031262
4000276000.0 -0.4114059653 0.904130385
4050275700.0 -0.3987369501 0.9097591972
4100275400.0 -0.3873539357 0.9151708711
4150275100.0 -0.3749021589 0.9211509294
4200274800.0 -0.3618669897 0.9262456161
4250274500.0 -0.3495075888 0.9318021567
4300274200.0 -0.3366381342 0.9369189882
4350273900.0 -0.3227250322 0.9423528941
4400273600.0 -0.3077311595 0.9475462247
4450273300.0 -0.2925258762 0.9525407461
4500273000.0 -0.2788793043 0.9568117213
4550272700.0 -0.2646337873 0.9610134411
4600272400.0 -0.2492149063 0.9653750982
4650272100.0 -0.2374709568 0.9685546404
4700271800.0 -0.2240696387 0.9719616793
4750271500.0 -0.2126269614 0.9747284878
4800271200.0 -0.1999137983 0.9773892806
4850270900.0 -0.1861208452 0.9802614538
4900270600.0 -0.1721133655 0.982602365
4950270300.0 -0.1577567009 0.9852983509
5000270000.0 -0.1435577098 0.9873308901
5050269700.0 -0.130142429 0.9887710504
5100269400.0 -0.1168445012 0.9907570624
5150269100.0 -0.1034784504 0.9921230435
5200268800.0 -0.0900133975 0.9929373775
5250268500.0 -0.0769864726 0.994354692
5300268200.0 -0.0639428828 0.9950594027
5350267900.0 -0.0516949661 0.9953154108
5400267600.0 -0.0354898934 0.9966621747
5450267300.0 -0.0225475239 0.9969579717
5500267000.0 -0.0071884799 0.9972159888
5550266700.0 0.0077725201 0.9973947958
5600266400.0 0.0234550308 0.9971801099
5650266100.0 0.0398400753 0.9970574707
5700265800.0 0.0541388757 0.996254657
5750265500.0 0.0695452279 0.9952897054
5800265200.0 0.0839744382 0.9947669139
5850264900.0 0.0967165224 0.9932396599
5900264600.0 0.113219903 0.9914646255
5950264300.0 0.1255780311 0.9900400126
6000264000.0 0.1393787287 0.9881173044
6050263700.0 0.1519840198 0.986527197
6100263400.0 0.1645414056 0.9850628769
6150263100.0 0.1787268993 0.9821657739
6200262800.0 0.1893804492 0.9805403354
6250262500.0 0.2020139157 0.9780352567
6300262200.0 0.2149391181 0.975366883
6350261900.0 0.2279954025 0.9724949829
6400261600.0 0.2418821596 0.969129605
6450261300.0 0.2532765057 0.9663743694
6500261000.0 0.2660996625 0.9629318109
6550260700.0 0.2789080223 0.9590714221
6600260400.0 0.2925133176 0.9549172499
6650260100.0 0.3062095402 0.9506222522
6700259800.0 0.3184322806 0.9463271299
6750259500.0 0.3321817675 0.9412720317
6800259200.0 0.3448811811 0.9361916885
6850258900.0 0.3565268857 0.9309291345
6900258600.0 0.3694349631 0.9264365135
6950258300.0 0.3817372476 0.9209099394
7000258000.0 0.3937162771 0.915392229
7050257700.0 0.4060887531 0.9093692903
7100257400.0 0.4186730706 0.9030788144
7150257100.0 0.4290411514 0.897873005
7200256800.0 0.4420780895 0.8916381737
7250256500.0 0.4536355819 0.8851401415
7300256200.0 0.4666239808 0.8783785162
7350255900.0 0.4794068109 0.871797286
7400255600.0 0.4923895815 0.8643635034
7450255300.0 0.5075501517 0.8550009003
7500255000.0 0.5191084222 0.8481777952
7550254700.0 0.5333700498 0.8397597906
7600254400.0 0.5458998525 0.8312842345
7650254100.0 0.557357182 0.8232956391
7700253800.0 0.5698501687 0.81549085
7750253500.0 0.5805099847 0.8076039301
7800253200.0 0.5909826985 0.7999811453
7850252900.0 0.6006714095 0.7928717659
7900252600.0 0.6124629836 0.7840882109
7950252300.0 0.621289745 0.7776770515
8000252000.0 0.631525112 0.7698302475
8050251700.0 0.6420261591 0.7615506594
8100251400.0 0.6520162176 0.7534849499
8150251100.0 0.6620806695 0.7446330381
8200250800.0 0.6715677973 0.7368853608
8250250500.0 0.6806757398 0.7287482041
8300250200.0 0.6899709734 0.7200584529
8350249900.0 0.6987484103 0.7115034613
8400249600.0 0.7067839429 0.7033958126
8450249300.0 0.7163480231 0.6943285445
8500249000.0 0.7248452992 0.6854539224
8550248700.0 0.7330452467 0.6764325889
8600248400.0 0.7414924695 0.6668600668
8650248100.0 0.7491114496 0.6575514767
8700247800.0 0.758602399 0.6460712983
8750247500.0 0.7670567592 0.636118716
8800247200.0 0.7749273159 0.6257091758
8850246900.0 0.7839750076 0.6144933906
8900246600.0 0.7924430565 0.6030928108
8950246300.0 0.8020350868 0.5901453328
9000246000.0 0.8114169117 0.5772517051
9050245700.0 0.8204643245 0.5642484041
9100245400.0 0.8289072544 0.5519299384
9150245100.0 0.8385907583 0.5378714793
9200244800.0 0.8482096715 0.5226260097
9250244500.0 0.857690902 0.5070759629
9300244200.0 0.866145428 0.4924091657
9350243900.0 0.8739042774 0.4785310214
9400243600.0 0.8805836246 0.4660349688
9450243300.0 0.8864705629 0.4543612224
9500243000.0 0.8926361418 0.4420342963
9550242700.0 0.8962810046 0.4343736102
9600242400.0 0.9001711971 0.4271438317
9650242100.0 0.903747258 0.4206564991
9700241800.0 0.9083983789 0.4125575122
9750241500.0 0.9120943024 0.4053671459
9800241200.0 0.9169755577 0.3959347777
9850240900.0 0.9227953513 0.3841900825
9900240600.0 0.9282991382 0.3722904621
9950240300.0 0.934961199 0.3563358753
10000240000.0 0.9395280327 0.3449460779
10050239700.0 0.9448868293 0.3296319679
10100239400.0 0.9498499034 0.3140060904
10150239100.0 0.9547698855 0.2992514535
10200238800.0 0.9584884081 0.2844522884
10250238500.0 0.9618068433 0.2710236068
10300238200.0 0.9648620004 0.2570803996
10350237900.0 0.9676174965 0.2439426852
10400237600.0 0.9698998495 0.2311398697
10450237300.0 0.9728604211 0.2170808318
10500237000.0 0.9751193558 0.2050657162
10550236700.0 0.9768926927 0.191314792
10600236400.0 0.9794754955 0.1777095409
10650236100.0 0.9811202383 0.1632767895
10700235800.0 0.9834317612 0.1511583171
10750235500.0 0.9858591619 0.1375563749
10800235200.0 0.9878943281 0.123281196
10850234900.0 0.9896612005 0.1089187395
10900234600.0 0.9917599157 0.0943106512
10950234300.0 0.993548742 0.0810432883
11000234000.0 0.9951742903 0.0660882189
11050233700.0 0.9968890738 0.0494961039
11100233400.0 0.998459114 0.0325262499
11150233100.0 0.9994443115 0.015517549
11200232800.0 1.000333457 0.0008188773
11250232500.0 1.000865631 -0.0157414259
11300232200.0 1.001751514 -0.0329669456
11350231900.0 1.001895702 -0.0491481806
11400231600.0 1.001535839 -0.0655360519
11450231300.0 1.000744981 -0.0804285147
11500231000.0 0.9997501145 -0.0972145862
11550230700.0 0.9980032656 -0.1102952764
11600230400.0 0.9970005871 -0.1220423766
11650230100.0 0.9947749147 -0.134710424
11700229800.0 0.9926822257 -0.1488395328
11750229500.0 0.9901582102 -0.1634908089
11800229200.0 0.9877841475 -0.1777639541
11850228900.0 0.9842005306 -0.1901345317
11900228600.0 0.9805085331 -0.1998041251
11950228300.0 0.9773487592 -0.2102689261
12000228000.0 0.9748876944 -0.2190658334
12050227700.0 0.9707594588 -0.2321186373
12100227400.0 0.9679626997 -0.2429792494
12150227100.0 0.963259347 -0.2590988816
12200226800.0 0.9592856118 -0.2709691705
12250226500.0 0.955379562 -0.2838708399
12300226200.0 0.9514610335 -0.2951497463
12350225900.0 0.9457169577 -0.30938556
12400225600.0 0.9418431724 -0.3212381708
12450225300.0 0.937217628 -0.3344190655
12500225000.0 0.9318914848 -0.3493622096
12550224700.0 0.9263492812 -0.3631996066
12600224400.0 0.9215738739 -0.375856229
12650224100.0 0.9159111946 -0.3902425519
12700223800.0 0.9107398787 -0.4029528558
12750223500.0 0.9053383712 -0.4157239807
12800223200.0 0.9000021061 -0.4285313105
12850222900.0 0.8946286024 -0.4405517824
12900222600.0 0.8887578282 -0.4528383999
12950222300.0 0.8825291822 -0.465952813
13000222000.0 0.8769918411 -0.4767201641
13050221700.0 0.8699101154 -0.4898733585
13100221400.0 0.86314111 -0.5017387685
13150221100.0 0.8567149717 -0.5134792473
13200220800.0 0.8491861868 -0.5253793277
13250220500.0 0.8415505522 -0.5380141007
13300220200.0 0.8345371884 -0.548615936
13350219900.0 0.8260805163 -0.560511871
13400219600.0 0.8179086171 -0.5729021742
13450219300.0 0.8083574858 -0.5866079902
13500219000.0 0.7980504288 -0.6004918809
13550218700.0 0.7878876064 -0.6135017001
13600218400.0 0.7781259349 -0.6255234264
13650218100.0 0.7680347153 -0.6370406868
13700217800.0 0.756167119 -0.6489869549
13750217500.0 0.7467780984 -0.660631615
13800217200.0 0.7354911001 -0.6726440169
13850216900.0 0.7248992228 -0.6832177592
13900216600.0 0.7146804697 -0.692096278
13950216300.0 0.7036135402 -0.7024647475
14000216000.0 0.6938625541 -0.7116036696
14050215700.0 0.6843229008 -0.7204038889
14100215400.0 0.6744944859 -0.7292958394
14150215100.0 0.6653192189 -0.7378542674
14200214800.0 0.65588026 -0.7463942611
14250214500.0 0.6457973858 -0.7555131833
14300214200.0 0.6353731695 -0.7647672009
14350213900.0 0.6244894818 -0.7740515233
14400213600.0 0.6123744425 -0.7836411214
14450213300.0 0.5993503725 -0.7939940377
14500213000.0 0.5864983999 -0.8040753901
14550212700.0 0.5737960393 -0.8137135514
14600212400.0 0.5616386187 -0.8221293957
14650212100.0 0.5482676687 -0.8308066443
14700211800.0 0.5344438094 -0.8406963041
14750211500.0 0.5222710311 -0.8484209
14800211200.0 0.5101757603 -0.8567138291
14850210900.0 0.4978501085 -0.8641078521
14900210600.0 0.4844793429 -0.8718973627
14950210300.0 0.4711390533 -0.8796305912
15000210000.0 0.458375816 -0.8864487542
15050209700.0 0.4458608022 -0.8928878334
15100209400.0 0.4329242828 -0.8986249414
15150209100.0 0.4208588247 -0.9039522062
15200208800.0 0.4074334541 -0.909005516
15250208500.0 0.3967150406 -0.9139070539
15300208200.0 0.384437398 -0.9188348411
15350207900.0 0.3714558798 -0.9236807871
15400207600.0 0.3564287711 -0.9285817091
15450207300.0 0.3414759992 -0.9336482607
15500207000.0 0.3270801881 -0.9385500732
15550206700.0 0.3120632378 -0.9434360082
15600206400.0 0.2961024742 -0.9476804975
15650206100.0 0.2803104731 -0.9521041493
15700205800.0 0.2667778449 -0.9560874629
15750205500.0 0.2519898057 -0.9592691606
15800205200.0 0.2375051586 -0.9626553796
15850204900.0 0.2232366233 -0.9661210184
15900204600.0 0.2079831061 -0.9696204581
15950204300.0 0.1939374285 -0.9725380414
16000204000.0 0.1800121053 -0.9754726842
16050203700.0 0.1652184189 -0.9781521995
16100203400.0 0.1507818639 -0.9805843936
16150203100.0 0.1364575305 -0.9826354915
16200202800.0 0.1223893586 -0.9848869162
16250202500.0 0.1078804938 -0.9860125076
16300202200.0 0.0927752192 -0.9878090157
16350201900.0 0.0777944967 -0.9891846382
16400201600.0 0.0632594096 -0.9901103717
16450201300.0 0.0481191611 -0.9913161884
16500201000.0 0.0314093998 -0.9919888888
16550200700.0 0.0156879415 -0.9924840733
16600200400.0 -1.38852e-05 -0.9926659675
16650200100.0 -0.0164833864 -0.9926533149
16700199800.0 -0.0328585834 -0.9925327313
16750199500.0 -0.0518910268 -0.9916423555
16800199200.0 -0.0674666838 -0.9903793592
16850198900.0 -0.0824274088 -0.9895667748
16900198600.0 -0.0960898404 -0.9891091772
16950198300.0 -0.1098473212 -0.9873715124
17000198000.0 -0.1229624363 -0.9856948181
17050197700.0 -0.1354532145 -0.9843761275
17100197400.0 -0.147993743 -0.9815065773
17150197100.0 -0.161067159 -0.9802952807
17200196800.0 -0.1736762678 -0.9773761669
17250196500.0 -0.1861992076 -0.9753651202
17300196200.0 -0.1989189047 -0.9730982847
17350195900.0 -0.2109725285 -0.9706498356
17400195600.0 -0.2230387041 -0.968184316
17450195300.0 -0.2360487942 -0.9654463448
17500195000.0 -0.2496398672 -0.9619011712
17550194700.0 -0.2635066044 -0.9583446603
17600194400.0 -0.2773738018 -0.954288606
17650194100.0 -0.2910294479 -0.9501864994
17700193800.0 -0.3036822396 -0.9464254684
17750193500.0 -0.3188845819 -0.9414466145
17800193200.0 -0.3331667259 -0.9364602571
17850192900.0 -0.3481610737 -0.9310995188
17900192600.0 -0.3631680454 -0.9245449431
17950192300.0 -0.3788148601 -0.9175622987
18000192000.0 -0.3932976425 -0.9103676469
18050191700.0 -0.407056525 -0.9025525639
18100191400.0 -0.4211480136 -0.8946772329
18150191100.0 -0.436151068 -0.8868592794
18200190800.0 -0.453073709 -0.8775781365
18250190500.0 -0.4700550986 -0.8679042537
18300190200.0 -0.4854884485 -0.8590587633
18350189900.0 -0.500606175 -0.8509302855
18400189600.0 -0.5145041484 -0.8423339065
18450189300.0 -0.5279479828 -0.8340994267
18500189000.0 -0.5416040346 -0.8265217223
18550188700.0 -0.553875057 -0.8185175014
18600188400.0 -0.565789872 -0.8119660819
18650188100.0 -0.57667913 -0.8057029572
18700187800.0 -0.5875716688 -0.7992324364
18750187500.0 -0.5983040524 -0.7925036636
18800187200.0 -0.6088201599 -0.7854075821
18850186900.0 -0.6191860366 -0.7784558856
18900186600.0 -0.6294194177 -0.7710221888
18950186300.0 -0.6394157236 -0.7632451223
19000186000.0 -0.6467271399 -0.7567795078
19050185700.0 -0.6561327929 -0.7498503322
19100185400.0 -0.665832624 -0.7415067029
19150185100.0 -0.6759567245 -0.7324034658
19200184800.0 -0.6861880931 -0.7243303932
19250184500.0 -0.6961284986 -0.7156201769
19300184200.0 -0.7070907103 -0.7063728116
19350183900.0 -0.7183133459 -0.6961785132
19400183600.0 -0.7275712212 -0.6863078914
19450183300.0 -0.7359312808 -0.6759539511
19500183000.0 -0.7446370432 -0.6660447262
19550182700.0 -0.7546290732 -0.6550523307
19600182400.0 -0.7651382532 -0.6435983587
19650182100.0 -0.7758620107 -0.6313207049
19700181800.0 -0.7863746805 -0.6179908439
19750181500.0 -0.7970397111 -0.6036109152
19800181200.0 -0.8071472669 -0.5887465454
19850180900.0 -0.8170076698 -0.573357395
19900180600.0 -0.8246677529 -0.5590734182
19950180300.0 -0.8337882436 -0.5425315316
20000180000.0 -0.8271940475 -0.5454103198
20050179700.0 -0.8352815176 -0.5317579082
20100179400.0 -0.8438231971 -0.5184777677
20150179100.0 -0.8516128777 -0.5064556361
20200178800.0 -0.8602825767 -0.4932530086
20250178500.0 -0.8700149351 -0.4789754279
20300178200.0 -0.8790481531 -0.4653106361
20350177900.0 -0.8887463221 -0.4504030359
20400177600.0 -0.8973672471 -0.4354190348
20450177300.0 -0.9055972176 -0.4214633344
20500177000.0 -0.9136483605 -0.4075900894
20550176700.0 -0.9215337156 -0.3938940827
20600176400.0 -0.9281999632 -0.380471522
20650176100.0 -0.9348638475 -0.3683067025
20700175800.0 -0.9420820127 -0.3558927825
20750175500.0 -0.9478816281 -0.3449719128
20800175200.0 -0.9531170792 -0.3337825545
20850174900.0 -0.9582953887 -0.3229806636
20900174600.0 -0.9632546342 -0.3113545378
20950174300.0 -0.967383384 -0.2993776647
21000174000.0 -0.9705804583 -0.2877765568
21050173700.0 -0.9737227821 -0.2773860829
21100173400.0 -0.9772849646 -0.2644573837
21150173100.0 -0.9813514123 -0.2521828279
21200172800.0 -0.9847180581 -0.2384050123
21250172500.0 -0.9875733833 -0.2250255103
21300172200.0 -0.9903139198 -0.2107894726
21350171900.0 -0.9921900979 -0.1966169364
21400171600.0 -0.993515908 -0.1820165408
21450171300.0 -0.9947653632 -0.1676905355
21500171000.0 -0.9947042281 -0.1524638975
21550170700.0 -0.9928687594 -0.1366779991
21600170400.0 -0.9933423091 -0.1211709457
21650170100.0 -0.9922041851 -0.1054892857
21700169800.0 -0.990752426 -0.0889448044
21750169500.0 -0.9897784539 -0.0739039477
21800169200.0 -0.9874660965 -0.0583575946
21850168900.0 -0.9870119858 -0.0408377884
21900168600.0 -0.9857030586 -0.0255869116
21950168300.0 -0.9835544066 -0.00874732
22000168000.0 -0.9828648092 0.0056100678
22050167700.0 -0.9828077815 0.0199146219
22100167400.0 -0.9824374341 0.0350762727
22150167100.0 -0.9833614465 0.0505456428
22200166800.0 -0.9835908499 0.0664342016
22250166500.0 -0.9832174655 0.0834876187
22300166200.0 -0.9820744689 0.1010311823
22350165900.0 -0.9807259547 0.1165298165
22400165600.0 -0.9787313158 0.1333645927
22450165300.0 -0.9767518118 0.1479891743
22500165000.0 -0.9752456543 0.1611939522
22550164700.0 -0.9737645138 0.1767725292
22600164400.0 -0.9720388008 0.1917117189
22650164100.0 -0.9699874987 0.207175679
22700163800.0 -0.9673500509 0.2220755104
22750163500.0 -0.9649929729 0.2382615708
22800163200.0 -0.9619142689 0.251270218
22850162900.0 -0.9601284031 0.2649934414
22900162600.0 -0.9584649584 0.278257071
22950162300.0 -0.9578309668 0.2911449998
23000162000.0 -0.9565716137 0.3030148082
23050161700.0 -0.9547055314 0.3154465811
23100161400.0 -0.9518611598 0.3283632475
23150161100.0 -0.9493427421 0.3412431869
23200160800.0 -0.9467158211 0.352927476
23250160500.0 -0.9437916481 0.3633780692
23300160200.0 -0.9412263326 0.3764781911
23350159900.0 -0.9373461455 0.3893833784
23400159600.0 -0.9333046813 0.4016978516
23450159300.0 -0.9278833008 0.4152699901
23500159000.0 -0.9234028811 0.4285298056
23550158700.0 -0.9192476901 0.4419709249
23600158400.0 -0.9138514061 0.455025182
23650158100.0 -0.9078034281 0.4689688484
23700157800.0 -0.9000411682 0.4826097615
23750157500.0 -0.8912786528 0.496805146
23800157200.0 -0.8825605552 0.5097041872
23850156900.0 -0.874013773 0.5224011393
23900156600.0 -0.8645402829 0.5344149893
23950156300.0 -0.8552904402 0.5474547318
24000156000.0 -0.8460847728 0.5588541027
24050155700.0 -0.8362103672 0.5709857641
24100155400.0 -0.8259461309 0.5830680397
24150155100.0 -0.8157870876 0.5944383732
24200154800.0 -0.804209505 0.6056099129
24250154500.0 -0.7925159528 0.6177757965
24300154200.0 -0.7814041808 0.6287483156
24350153900.0 -0.7694087825 0.6396825732
24400153600.0 -0.7572540385 0.6503104652
24450153300.0 -0.7455357811 0.6595122881
24500153000.0 -0.7341039642 0.6695835609
24550152700.0 -0.7222708484 0.6792307005
24600152400.0 -0.7109995992 0.6885774285
24650152100.0 -0.6990456519 0.696455504
