!Created with skrf (http://scikit-rf.org).
# Hz S RI R 50.0 
!freq ReS11 ImS11
300000.0 -0.9745854474 -0.1196117019
50299700.0 -1.000015941 0.0152565992
100299400.0 -0.9980892174 0.0282160972
150299100.0 -1.002954184 0.0450256226
200298800.0 -0.999609662 0.0584807927
250298500.0 -0.9973712067 0.0718389544
300298200.0 -0.9859182043 0.0875586807
350297900.0 -0.9938689007 0.0985546751
400297600.0 -0.9933433215 0.1151061373
450297300.0 -0.9910441373 0.1289034085
500297000.0 -0.9895180228 0.1436489961
550296700.0 -0.9843373676 0.156085332
600296400.0 -1.017184987 0.1895367508
650296100.0 -0.9821454158 0.1859715761
700295800.0 -0.9794634525 0.2003337528
750295500.0 -0.9763768449 0.2144475309
800295200.0 -0.9730595031 0.2283472541
850294900.0 -0.9696289157 0.2422017417
900294600.0 -0.965944885 0.2559438928
950294300.0 -0.9620571946 0.2696091091
1000294000.0 -0.9582168664 0.2837335146
1050293700.0 -0.9535616828 0.2973928256
1100293400.0 -0.9494282208 0.311891799
1150293100.0 -0.945560775 0.3239556096
1200292800.0 -0.9403514202 0.337995996
1250292500.0 -0.9346148626 0.3515420877
1300292200.0 -0.9289430816 0.3646109386
1350291900.0 -0.9234488685 0.3786784581
1400291600.0 -0.9180131262 0.3918351125
1450291300.0 -0.9124416338 0.4041977033
1500291000.0 -0.9063089445 0.4176048728
1550290700.0 -0.8996652204 0.4309549229
1600290400.0 -0.8935241857 0.4440037958
1650290100.0 -0.8867959055 0.4559852322
1700289800.0 -0.8800381427 0.4694657728
1750289500.0 -0.8728841058 0.481800243
1800289200.0 -0.8656407782 0.494932732
1850288900.0 -0.8587842584 0.5060044425
1900288600.0 -0.8511022083 0.5190322295
1950288300.0 -0.8427837748 0.5317067468
2000288000.0 -0.8355527504 0.5430411547
2050287700.0 -0.8270961006 0.5552622588
2100287400.0 -0.8193329556 0.5669836676
2150287100.0 -0.8106753716 0.5790171327
2200286800.0 -0.802960044 0.5893251181
2250286500.0 -0.794161554 0.6015361148
2300286200.0 -0.7853182296 0.6130993772
2350285900.0 -0.7767368057 0.6240108288
2400285600.0 -0.7677309055 0.6349024234
2450285300.0 -0.7591401519 0.6452668217
2500285000.0 -0.7491668858 0.6566747877
2550284700.0 -0.7402537593 0.6669731185
2600284400.0 -0.7309826894 0.6772166234
2650284100.0 -0.7223031305 0.6876046861
2700283800.0 -0.7115544429 0.6982169403
2750283500.0 -0.7011104472 0.7085682787
2800283200.0 -0.6913357149 0.7186006143
2850282900.0 -0.6812120442 0.7281159
2900282600.0 -0.6709137502 0.7376965128
2950282300.0 -0.6606481471 0.7473536516
3000282000.0 -0.6499034403 0.7566193591
3050281700.0 -0.6386581089 0.7658653078
3100281400.0 -0.6267434529 0.7753701129
3150281100.0 -0.6149549214 0.7847641514
3200280800.0 -0.603442776 0.79301859
3250280500.0 -0.592502732 0.8007971077
3300280200.0 -0.5811739144 0.8086477551
3350279900.0 -0.569625534 0.816481279
3400279600.0 -0.5573538706 0.8240030158
3450279300.0 -0.5465118127 0.8312511482
3500279000.0 -0.5346711545 0.8384292086
3550278700.0 -0.5219920644 0.8456095261
3600278400.0 -0.509670003 0.8526899752
3650278100.0 -0.496568419 0.860292535
3700277800.0 -0.4845780287 0.8666326711
3750277500.0 -0.4723705093 0.8733358071
3800277200.0 -0.4598828721 0.8797873327
3850276900.0 -0.4476823571 0.8858176123
3900276600.0 -0.4368552346 0.8914926265
3950276300.0 -0.424605301 0.897492546
4000276000.0 -0.412792578 0.9035046761
4050275700.0 -0.3996032895 0.9094666871
4100275400.0 -0.3886043988 0.9148755579
4150275100.0 -0.3760883589 0.9207429395
4200274800.0 -0.3628310075 0.9261819415
4250274500.0 -0.3504272596 0.9312876565
4300274200.0 -0.3374174527 0.936564264
4350273900.0 -0.3238301376 0.9419860389
4400273600.0 -0.3087994562 0.9472286126
4450273300.0 -0.2934755154 0.9523522693
4500273000.0 -0.2800433668 0.9567242376
4550272700.0 -0.2660373184 0.9610556652
4600272400.0 -0.2504143954 0.9652456513
4650272100.0 -0.2386855368 0.9682860014
4700271800.0 -0.225518433 0.9716656787
4750271500.0 -0.2137244895 0.9744662727
4800271200.0 -0.201318527 0.9771968227
4850270900.0 -0.1874730763 0.9799878203
4900270600.0 -0.1735026519 0.9823872419
4950270300.0 -0.1592352908 0.9850036757
5000270000.0 -0.1449557643 0.9869582574
5050269700.0 -0.1312905236 0.9884480712
5100269400.0 -0.117687394 0.9904634243
5150269100.0 -0.1043642202 0.9921399561
5200268800.0 -0.0910397938 0.9929038464
5250268500.0 -0.0778629396 0.9935966823
5300268200.0 -0.0648252811 0.9945163046
5350267900.0 -0.0526564346 0.9952277413
5400267600.0 -0.0362391739 0.9963756719
5450267300.0 -0.0233078902 0.9967311482
5500267000.0 -0.0080614584 0.9970608376
5550266700.0 0.0069523114 0.9971858362
5600266400.0 0.0225897297 0.9972970613
5650266100.0 0.038836225 0.9970037195
5700265800.0 0.0534370895 0.9960431492
5750265500.0 0.0688130347 0.9955520723
5800265200.0 0.0825526421 0.9946437849
5850264900.0 0.0959989827 0.9935367071
5900264600.0 0.1122212691 0.9919980721
5950264300.0 0.124339041 0.9899661427
6000264000.0 0.1384748142 0.9883935524
6050263700.0 0.1504098587 0.9865962905
6100263400.0 0.1633159554 0.9853807282
6150263100.0 0.1776512696 0.9826670006
6200262800.0 0.1876971359 0.9809614055
6250262500.0 0.2004978049 0.9786342622
6300262200.0 0.2133503732 0.975948353
6350261900.0 0.2264053403 0.9727781948
6400261600.0 0.240338857 0.9696608314
6450261300.0 0.2515581509 0.9668891444
6500261000.0 0.2643898639 0.9634356905
6550260700.0 0.2775332487 0.9594830211
6600260400.0 0.2907301207 0.9553680302
6650260100.0 0.3047510998 0.951192352
6700259800.0 0.3167935192 0.946807272
6750259500.0 0.3306053924 0.9417858664
6800259200.0 0.3435940863 0.9367063783
6850258900.0 0.3558852219 0.9317558261
6900258600.0 0.3679285878 0.9265253576
6950258300.0 0.3806456134 0.9212260292
7000258000.0 0.3925938077 0.9157888104
7050257700.0 0.4047477824 0.909763418
7100257400.0 0.4174968315 0.903654186
7150257100.0 0.4279224737 0.8981595712
7200256800.0 0.4406437371 0.892027503
7250256500.0 0.4525984608 0.8858037157
7300256200.0 0.4660369741 0.8788586756
7350255900.0 0.4785572027 0.8719454668
7400255600.0 0.4919103397 0.8647850495
7450255300.0 0.5069087232 0.855781339
7500255000.0 0.5185229574 0.8484959729
7550254700.0 0.5327184485 0.8400566771
7600254400.0 0.5455118665 0.8317272049
7650254100.0 0.5565287508 0.823711985
7700253800.0 0.5685900758 0.8159434163
7750253500.0 0.5798728851 0.8083604614
7800253200.0 0.5904324655 0.8006444979
7850252900.0 0.6001065981 0.7934375473
7900252600.0 0.6116525725 0.7849033109
7950252300.0 0.6204437947 0.7782714673
8000252000.0 0.6308228329 0.7706191674
8050251700.0 0.6412020292 0.7623200279
8100251400.0 0.6510361529 0.7542526958
8150251100.0 0.6610706177 0.7455997043
8200250800.0 0.6705982536 0.7375613778
8250250500.0 0.6794593314 0.7297518194
8300250200.0 0.6887440983 0.7210731028
8350249900.0 0.6979689511 0.7124461835
8400249600.0 0.7061736978 0.7044005442
8450249300.0 0.7153619061 0.6953467808
8500249000.0 0.7239315601 0.6863165775
8550248700.0 0.7321893758 0.6774108671
8600248400.0 0.7405083147 0.6678819772
8650248100.0 0.7484354816 0.658317227
8700247800.0 0.7578253161 0.6472359145
8750247500.0 0.7661403665 0.6369771449
8800247200.0 0.7744188383 0.6268676843
8850246900.0 0.7830489059 0.6151321177
8900246600.0 0.791596739 0.603938334
8950246300.0 0.8012160528 0.5911070614
9000246000.0 0.8107670705 0.5781050589
9050245700.0 0.8194115544 0.565316009
9100245400.0 0.8281936007 0.5531361472
9150245100.0 0.8371419622 0.5392534115
9200244800.0 0.8469983761 0.524080615
9250244500.0 0.8562859406 0.5087426488
9300244200.0 0.8648595641 0.4944200657
9350243900.0 0.8723801501 0.4807948101
9400243600.0 0.8790747339 0.4683230587
9450243300.0 0.8849766612 0.4568451746
9500243000.0 0.8912715162 0.4447592459
9550242700.0 0.8950494085 0.4370932881
9600242400.0 0.8989706683 0.4295532555
9650242100.0 0.9026301311 0.4231745222
9700241800.0 0.9074384536 0.4148499044
9750241500.0 0.9115189182 0.4073191909
9800241200.0 0.9157724917 0.3980951249
9850240900.0 0.9218945606 0.3866385455
9900240600.0 0.9275047797 0.3750035883
9950240300.0 0.9342982431 0.3587997342
10000240000.0 0.9389952453 0.3469596866
10050239700.0 0.944600036 0.3316197319
10100239400.0 0.9496091793 0.3160427155
10150239100.0 0.953761404 0.3014779235
10200238800.0 0.958230179 0.2862511779
10250238500.0 0.9614281422 0.2730305457
10300238200.0 0.9644160307 0.2592215863
10350237900.0 0.9672651215 0.2458072465
10400237600.0 0.9698069493 0.2326267298
10450237300.0 0.9725405022 0.2188909654
10500237000.0 0.974502744 0.2067980416
10550236700.0 0.9767702449 0.1927983109
10600236400.0 0.9794306844 0.1784546872
10650236100.0 0.9812495181 0.1640472112
10700235800.0 0.98317227 0.1522195402
10750235500.0 0.9860106149 0.1384809148
10800235200.0 0.9877639538 0.1243802117
10850234900.0 0.9894485407 0.1097722666
10900234600.0 0.9915489813 0.0952945023
10950234300.0 0.9934625838 0.0821357073
11000234000.0 0.9952702501 0.0669827581
11050233700.0 0.9969751118 0.0503867402
11100233400.0 0.9986565136 0.033230709
11150233100.0 0.9993650717 0.0168206697
11200232800.0 1.000010118 0.0016924682
11250232500.0 1.001471799 -0.0148590235
11300232200.0 1.002197451 -0.0327680747
11350231900.0 1.002107272 -0.0476463428
11400231600.0 1.001872743 -0.0639448734
11450231300.0 1.00110238 -0.0787900149
11500231000.0 1.000344008 -0.0948492809
11550230700.0 0.9988845105 -0.1083496507
11600230400.0 0.9971671723 -0.1212960804
11650230100.0 0.9950566465 -0.1326993687
11700229800.0 0.9930424194 -0.1476171561
11750229500.0 0.9910381591 -0.1616748315
11800229200.0 0.9881983859 -0.1756765782
11850228900.0 0.9846001636 -0.1877678461
11900228600.0 0.9811394884 -0.1976986516
11950228300.0 0.9778140443 -0.2081955279
12000228000.0 0.9753475951 -0.2171756431
12050227700.0 0.9715267627 -0.2303169045
12100227400.0 0.9680825463 -0.241659849
12150227100.0 0.9634361068 -0.2577814479
12200226800.0 0.9591623303 -0.2692255111
12250226500.0 0.9555137493 -0.2813197005
12300226200.0 0.9513793865 -0.2934465986
12350225900.0 0.9462793542 -0.3087730774
12400225600.0 0.9425259642 -0.3206160578
12450225300.0 0.9376222207 -0.3336800714
12500225000.0 0.9320182538 -0.3480893092
12550224700.0 0.9270710105 -0.362195499
12600224400.0 0.9220064759 -0.3747334314
12650224100.0 0.916151405 -0.3894832058
12700223800.0 0.9110137807 -0.4021238833
12750223500.0 0.9054784249 -0.4151548465
12800223200.0 0.9001495965 -0.4279234395
12850222900.0 0.8946350796 -0.4404840643
12900222600.0 0.8893235026 -0.4521628645
12950222300.0 0.8826707301 -0.465435579
13000222000.0 0.8771112229 -0.4764168221
13050221700.0 0.8701030028 -0.4892110681
13100221400.0 0.8632861266 -0.5008992382
13150221100.0 0.856791546 -0.5130022996
13200220800.0 0.8499237653 -0.5245750238
13250220500.0 0.8425742375 -0.5370088101
13300220200.0 0.8350429787 -0.5476406163
13350219900.0 0.8271207211 -0.559624005
13400219600.0 0.8190711295 -0.5713831771
13450219300.0 0.8093292438 -0.5851671183
13500219000.0 0.7991786822 -0.5990471387
13550218700.0 0.7896316885 -0.6122039503
13600218400.0 0.7791365544 -0.6238155809
13650218100.0 0.7694532018 -0.6348879677
13700217800.0 0.758723455 -0.6468538839
13750217500.0 0.7493339465 -0.6581322682
13800217200.0 0.7371546082 -0.6704518938
13850216900.0 0.726622925 -0.6817356092
13900216600.0 0.7161911451 -0.6901278373
13950216300.0 0.7062188597 -0.700929816
14000216000.0 0.6957587726 -0.710488385
14050215700.0 0.6861149591 -0.7187232675
14100215400.0 0.6763924483 -0.7276292874
14150215100.0 0.6670322967 -0.7358320381
14200214800.0 0.6578016242 -0.7448057629
14250214500.0 0.6474519844 -0.7541221652
14300214200.0 0.6370717198 -0.7636597074
14350213900.0 0.6258623373 -0.7729109711
14400213600.0 0.6138435618 -0.7830232774
14450213300.0 0.6010294181 -0.7932474386
14500213000.0 0.5877256044 -0.8032726046
14550212700.0 0.5753576587 -0.8128008109
14600212400.0 0.5631055187 -0.8207963822
14650212100.0 0.5499134288 -0.8297295482
14700211800.0 0.5359040659 -0.8397820193
14750211500.0 0.5242531117 -0.8478667028
14800211200.0 0.5114464485 -0.8558281847
14850210900.0 0.4993940457 -0.8632874123
14900210600.0 0.4864643922 -0.8710720342
14950210300.0 0.4728937888 -0.878871088
15000210000.0 0.4602299922 -0.8856343879
15050209700.0 0.4478948942 -0.8919626746
15100209400.0 0.4349817196 -0.897775059
15150209100.0 0.4229663709 -0.9027031418
15200208800.0 0.4107166611 -0.9086437363
15250208500.0 0.3986866346 -0.9134037948
15300208200.0 0.386319125 -0.9177385641
15350207900.0 0.3735048367 -0.9220896597
15400207600.0 0.3585181996 -0.9280521191
15450207300.0 0.3440889921 -0.9324953702
15500207000.0 0.329857414 -0.9368897584
15550206700.0 0.3145616395 -0.9422800952
15600206400.0 0.2988566311 -0.946831773
15650206100.0 0.2834389982 -0.9517527183
15700205800.0 0.2697992531 -0.9548144175
15750205500.0 0.255063236 -0.9583171136
15800205200.0 0.2406004561 -0.9620931747
15850204900.0 0.2262569512 -0.9654251558
15900204600.0 0.2111940304 -0.9690059009
15950204300.0 0.1971123281 -0.9719226118
16000204000.0 0.1827705196 -0.9749596922
16050203700.0 0.1676444192 -0.9778983688
16100203400.0 0.1533583596 -0.9799973984
16150203100.0 0.1386325739 -0.9827263942
16200202800.0 0.1247371262 -0.9845634553
16250202500.0 0.1094471907 -0.9859608496
16300202200.0 0.0945797933 -0.98779551
16350201900.0 0.0793864789 -0.989227096
16400201600.0 0.0647944307 -0.9902936532
16450201300.0 0.04959849 -0.9915321311
16500201000.0 0.0329329578 -0.9922197359
16550200700.0 0.0171162339 -0.9927240771
16600200400.0 0.001656821 -0.9926437769
16650200100.0 -0.0143553675 -0.9928253723
16700199800.0 -0.0303606045 -0.9926563381
16750199500.0 -0.0493822908 -0.9919697608
16800199200.0 -0.0651108381 -0.9911942162
16850198900.0 -0.0801178878 -0.9896750883
16900198600.0 -0.0940623163 -0.9885279213
16950198300.0 -0.1073470238 -0.9877429191
17000198000.0 -0.1204479083 -0.9859448263
17050197700.0 -0.1330749734 -0.9843559793
17100197400.0 -0.1460777278 -0.9826816302
17150197100.0 -0.1587116353 -0.9802416045
17200196800.0 -0.171696068 -0.9782247089
17250196500.0 -0.1845438106 -0.9757905359
17300196200.0 -0.1964550263 -0.9735091206
17350195900.0 -0.2084419092 -0.971428855
17400195600.0 -0.2205273263 -0.968837236
17450195300.0 -0.233879815 -0.9661813746
17500195000.0 -0.2471643897 -0.962796883
17550194700.0 -0.2609662107 -0.9587707406
17600194400.0 -0.2749605574 -0.9551662414
17650194100.0 -0.2887229763 -0.9509757511
17700193800.0 -0.3016871211 -0.9465093684
17750193500.0 -0.3163799501 -0.9422639765
17800193200.0 -0.3306518414 -0.9371745415
17850192900.0 -0.3457689678 -0.931851047
17900192600.0 -0.3608733154 -0.9255615199
17950192300.0 -0.3763884766 -0.9182799672
18000192000.0 -0.3913262398 -0.911270452
18050191700.0 -0.4050813315 -0.9034837836
18100191400.0 -0.4194096619 -0.8958234215
18150191100.0 -0.4343996219 -0.8878196555
18200190800.0 -0.4513728893 -0.8786324382
18250190500.0 -0.468310819 -0.8693305276
18300190200.0 -0.4837213258 -0.8606378003
18350189900.0 -0.498351824 -0.852465572
18400189600.0 -0.5129620831 -0.8438346831
18450189300.0 -0.5266371594 -0.8360708465
18500189000.0 -0.5393959489 -0.8279345979
18550188700.0 -0.5524081214 -0.8203857771
18600188400.0 -0.5641348627 -0.8137446789
18650188100.0 -0.5756088686 -0.8075617759
18700187800.0 -0.585591711 -0.800800791
18750187500.0 -0.5966156587 -0.7942093281
18800187200.0 -0.6070202287 -0.7872400344
18850186900.0 -0.6173182708 -0.7801520336
18900186600.0 -0.6275508293 -0.772978412
18950186300.0 -0.6371932045 -0.7653702306
19000186000.0 -0.6447153601 -0.7590834276
19050185700.0 -0.65380066 -0.7522396119
19100185400.0 -0.6639272702 -0.7439708351
19150185100.0 -0.6737289612 -0.735065311
19200184800.0 -0.6832890044 -0.7274992617
19250184500.0 -0.6931267375 -0.717710321
19300184200.0 -0.7053279223 -0.708461778
19350183900.0 -0.7153189829 -0.6986963636
19400183600.0 -0.7251831587 -0.6885288703
19450183300.0 -0.7342893255 -0.6787276322
19500183000.0 -0.7424691091 -0.6684439012
19550182700.0 -0.7525874995 -0.6573464915
19600182400.0 -0.7629183592 -0.6457954462
19650182100.0 -0.7740208479 -0.633982921
19700181800.0 -0.7844973802 -0.6203395194
19750181500.0 -0.7949920559 -0.6061066138
19800181200.0 -0.8053977043 -0.591054955
19850180900.0 -0.815186252 -0.5756626914
19900180600.0 -0.8231336949 -0.5612603433
19950180300.0 -0.8324032471 -0.5450105319
20000180000.0 -0.8255558401 -0.5472838032
20050179700.0 -0.8334791044 -0.5339381939
20100179400.0 -0.8426791544 -0.5205252726
20150179100.0 -0.8505453189 -0.507695823
20200178800.0 -0.8596669817 -0.4954195112
20250178500.0 -0.868620284 -0.482396793
20300178200.0 -0.8776391533 -0.4672738985
20350177900.0 -0.8876860397 -0.4527577174
20400177600.0 -0.8954846505 -0.4388037759
20450177300.0 -0.9046252053 -0.4242067036
20500177000.0 -0.9127014725 -0.4102003547
20550176700.0 -0.9202951809 -0.3966278885
20600176400.0 -0.9273055256 -0.3838430823
20650176100.0 -0.9333956316 -0.3713166229
20700175800.0 -0.940521461 -0.3589627213
20750175500.0 -0.9465013152 -0.3477029846
20800175200.0 -0.9515236913 -0.3371359687
20850174900.0 -0.9575622781 -0.3259118374
20900174600.0 -0.9610605008 -0.3150315187
20950174300.0 -0.965551208 -0.3031207131
21000174000.0 -0.9683551871 -0.2931885
21050173700.0 -0.971489416 -0.2815663475
21100173400.0 -0.9752240383 -0.2691742664
21150173100.0 -0.9793283424 -0.2570964035
21200172800.0 -0.9828147956 -0.2437023917
21250172500.0 -0.9861459941 -0.2297214096
21300172200.0 -0.9885232788 -0.2160111579
21350171900.0 -0.9904514459 -0.2012917841
21400171600.0 -0.9921644233 -0.1870181721
21450171300.0 -0.9924270379 -0.1722277127
21500171000.0 -0.9923992714 -0.1568720314
21550170700.0 -0.9924584504 -0.1427462049
21600170400.0 -0.9912570555 -0.1255270316
21650170100.0 -0.9912738107 -0.1113025064
21700169800.0 -0.9907398095 -0.0950778707
21750169500.0 -0.9894149642 -0.0779413684
21800169200.0 -0.9890456592 -0.0626906593
21850168900.0 -0.9868680183 -0.0462157518
21900168600.0 -0.9862445398 -0.0293853612
21950168300.0 -0.984766842 -0.0143464902
22000168000.0 -0.9842582433 0.0010967568
22050167700.0 -0.9839402043 0.0155240007
22100167400.0 -0.9840167651 0.0306710613
22150167100.0 -0.9845091473 0.0465033939
22200166800.0 -0.9853447628 0.0621236759
22250166500.0 -0.9846147886 0.0796858369
22300166200.0 -0.9842815211 0.0959218762
22350165900.0 -0.9829730232 0.1128785001
22400165600.0 -0.9811047557 0.1284455968
22450165300.0 -0.9795150186 0.1437537611
22500165000.0 -0.9770055116 0.1571622098
22550164700.0 -0.9762278849 0.1723406755
22600164400.0 -0.9750941951 0.1879528984
22650164100.0 -0.9724949293 0.2024681097
22700163800.0 -0.9691587685 0.2187897546
22750163500.0 -0.9664538264 0.2345083142
22800163200.0 -0.9638806401 0.2469301967
22850162900.0 -0.9616708253 0.2606034057
22900162600.0 -0.9604029842 0.2737925689
22950162300.0 -0.9588629134 0.2868664001
23000162000.0 -0.9582110023 0.2988887502
23050161700.0 -0.9561977307 0.3109479657
23100161400.0 -0.9535888742 0.3243856812
23150161100.0 -0.9505871828 0.3365629644
23200160800.0 -0.947712484 0.3483488928
23250160500.0 -0.9449583674 0.3605851817
23300160200.0 -0.9420014548 0.3731612462
23350159900.0 -0.9394845493 0.3860497046
23400159600.0 -0.9343301953 0.3995138112
23450159300.0 -0.9292260973 0.412746117
23500159000.0 -0.9249063825 0.4259399109
23550158700.0 -0.9203439485 0.4388356323
23600158400.0 -0.9148348524 0.4522453499
23650158100.0 -0.9083450161 0.4663424005
23700157800.0 -0.9009358482 0.4805332557
23750157500.0 -0.8923796091 0.4940749184
23800157200.0 -0.8835202067 0.5076038267
23850156900.0 -0.8746945621 0.5203589309
23900156600.0 -0.8652576716 0.5333247372
23950156300.0 -0.8565453775 0.5457945948
24000156000.0 -0.8464993273 0.557719906
24050155700.0 -0.8369871619 0.5693879083
24100155400.0 -0.8265976468 0.5814422481
24150155100.0 -0.8167521079 0.5927880665
24200154800.0 -0.8057535437 0.6045437593
24250154500.0 -0.7939816566 0.6160302021
24300154200.0 -0.7831271337 0.627986961
24350153900.0 -0.771031466 0.6383419079
24400153600.0 -0.7589231396 0.6482549799
24450153300.0 -0.747064463 0.6585289498
24500153000.0 -0.7352753447 0.6682815076
24550152700.0 -0.724614191 0.677443593
24600152400.0 -0.7131112844 0.6867758659
24650152100.0 -0.7005635959 0.6956801051
