!Created with skrf (http://scikit-rf.org).
# Hz S RI R 50.0 
!freq ReS11 ImS11
300000.0 -0.9723857761 -0.1196684375
50299700.0 -1.000050608 0.0150400566
100299400.0 -0.9978191134 0.0278910538
150299100.0 -1.002688825 0.044792738
200298800.0 -0.9996116251 0.0581564823
250298500.0 -0.9972887244 0.0716575191
300298200.0 -0.9859020742 0.0874851696
350297900.0 -0.9938615395 0.0983593523
400297600.0 -0.9930755861 0.1149644331
450297300.0 -0.9911591002 0.1286778936
500297000.0 -0.989353203 0.1435323774
550296700.0 -0.984334556 0.1557811625
600296400.0 -1.017241556 0.1892073784
650296100.0 -0.9819225603 0.1859279472
700295800.0 -0.9792603181 0.2001842728
750295500.0 -0.9762509879 0.213929266
800295200.0 -0.9730091406 0.228075452
850294900.0 -0.9698043405 0.2418656779
900294600.0 -0.9657297143 0.2556091324
950294300.0 -0.9620311999 0.269189
1000294000.0 -0.9580466258 0.2831313155
1050293700.0 -0.9534993646 0.2971119595
1100293400.0 -0.9493884669 0.3115572279
1150293100.0 -0.9454318076 0.3232865999
1200292800.0 -0.9401950444 0.3377873933
1250292500.0 -0.9345652404 0.3513875637
1300292200.0 -0.9290071493 0.3644872729
1350291900.0 -0.9235117804 0.3785501194
1400291600.0 -0.9180087718 0.3917313571
1450291300.0 -0.9124792726 0.404189866
1500291000.0 -0.9060977139 0.4174087338
1550290700.0 -0.8996775294 0.4306357079
1600290400.0 -0.8933634859 0.4437038435
1650290100.0 -0.8867418159 0.4557976131
1700289800.0 -0.8797356012 0.4690900526
1750289500.0 -0.8728464536 0.4816683217
1800289200.0 -0.8654762752 0.4945428051
1850288900.0 -0.8584256628 0.505822924
1900288600.0 -0.8509568079 0.518735238
1950288300.0 -0.8428947241 0.5312403982
2000288000.0 -0.8355523484 0.5428182544
2050287700.0 -0.8271835706 0.5554009244
2100287400.0 -0.8193739402 0.5666487893
2150287100.0 -0.8111122967 0.5786226482
2200286800.0 -0.8028768067 0.5892684854
2250286500.0 -0.7941019946 0.601582935
2300286200.0 -0.7852875514 0.6129872565
2350285900.0 -0.7769757566 0.6235682592
2400285600.0 -0.7678127007 0.6347190579
2450285300.0 -0.7591169371 0.6451860808
2500285000.0 -0.749191925 0.65662487
2550284700.0 -0.7402384319 0.666929587
2600284400.0 -0.731068472 0.676908697
2650284100.0 -0.7221423516 0.6870661775
2700283800.0 -0.711789318 0.6976803142
2750283500.0 -0.7017873256 0.7083606596
2800283200.0 -0.6913957196 0.7182818475
2850282900.0 -0.6810691212 0.7281675276
2900282600.0 -0.6706995244 0.7378562499
2950282300.0 -0.6602931896 0.7472636721
3000282000.0 -0.6494704099 0.756742705
3050281700.0 -0.6382511851 0.7660303862
3100281400.0 -0.6267762249 0.774972705
3150281100.0 -0.6155013673 0.7840900852
3200280800.0 -0.6041249299 0.7924661317
3250280500.0 -0.5929816382 0.800428337
3300280200.0 -0.5814188846 0.808609989
3350279900.0 -0.569276775 0.8165454047
3400279600.0 -0.556783071 0.8245430193
3450279300.0 -0.5453917522 0.8316292028
3500279000.0 -0.5339917579 0.8388565953
3550278700.0 -0.5217078332 0.8456081571
3600278400.0 -0.509828299 0.8524839596
3650278100.0 -0.496778787 0.8599737992
3700277800.0 -0.4846840383 0.8665794718
3750277500.0 -0.4721090179 0.8733935105
3800277200.0 -0.4599710887 0.8796332738
3850276900.0 -0.447537797 0.8856800268
3900276600.0 -0.4366112046 0.8914910136
3950276300.0 -0.4246943004 0.8973560966
4000276000.0 -0.412803959 0.9032672395
4050275700.0 -0.400043956 0.909262659
4100275400.0 -0.3890475645 0.9144395763
4150275100.0 -0.3758758679 0.9207118833
4200274800.0 -0.362647943 0.9264926176
4250274500.0 -0.3498943231 0.931393568
4300274200.0 -0.336673348 0.9367172801
4350273900.0 -0.322533367 0.9422462045
4400273600.0 -0.3078677186 0.9473065909
4450273300.0 -0.2928990138 0.9521592388
4500273000.0 -0.2796293553 0.9564379401
4550272700.0 -0.2659643032 0.9606033406
4600272400.0 -0.2508928954 0.9647462381
4650272100.0 -0.2394418187 0.9678973531
4700271800.0 -0.2265256645 0.9712537574
4750271500.0 -0.2149192 0.9741420279
4800271200.0 -0.2026191031 0.9767274564
4850270900.0 -0.1887748723 0.9795728444
4900270600.0 -0.1750023722 0.9818848169
4950270300.0 -0.1604478064 0.984572076
5000270000.0 -0.1462241941 0.986836127
5050269700.0 -0.1325126002 0.9881146425
5100269400.0 -0.1185451324 0.9899036014
5150269100.0 -0.1045173884 0.9917705904
5200268800.0 -0.0911931014 0.9924511305
5250268500.0 -0.0780252206 0.9936761207
5300268200.0 -0.064660558 0.9945444264
5350267900.0 -0.051424328 0.9951836489
5400267600.0 -0.0354682116 0.9962426821
5450267300.0 -0.0219727587 0.9966920322
5500267000.0 -0.0067323922 0.99707112
5550266700.0 0.0079444691 0.9971427073
5600266400.0 0.0241000239 0.9971656062
5650266100.0 0.0403255712 0.9966370945
5700265800.0 0.0547544706 0.9958969915
5750265500.0 0.0697912635 0.9950726094
5800265200.0 0.0828875025 0.9938296915
5850264900.0 0.0966980946 0.9930600614
5900264600.0 0.1132088111 0.9917644322
5950264300.0 0.1245472435 0.9898616985
6000264000.0 0.1381514877 0.9877543357
6050263700.0 0.1498502463 0.9866031241
6100263400.0 0.1621697206 0.9849961854
6150263100.0 0.1767636116 0.9824633736
6200262800.0 0.1865267778 0.9810319305
6250262500.0 0.1989158434 0.9786033355
6300262200.0 0.2114355549 0.976013847
6350261900.0 0.2241836699 0.9733625632
6400261600.0 0.2380741531 0.9701597255
6450261300.0 0.2490703484 0.967632071
6500261000.0 0.2625867233 0.9638206871
6550260700.0 0.2755390285 0.9600178755
6600260400.0 0.2891303449 0.9562505547
6650260100.0 0.3030232297 0.9513369682
6700259800.0 0.315328374 0.9473498104
6750259500.0 0.3292265869 0.9425052126
6800259200.0 0.3425674705 0.9372035107
6850258900.0 0.3546559392 0.931931245
6900258600.0 0.3676756888 0.9269741073
6950258300.0 0.3798074118 0.9213821474
7000258000.0 0.3915757101 0.9162080063
7050257700.0 0.4034798676 0.9105119514
7100257400.0 0.4169560367 0.9038817577
7150257100.0 0.427451284 0.8986719061
7200256800.0 0.4404136405 0.8918916463
7250256500.0 0.4530588071 0.8855449994
7300256200.0 0.46611381 0.878885535
7350255900.0 0.4787016288 0.8717889534
7400255600.0 0.4930754829 0.8639539546
7450255300.0 0.5081016083 0.8547084184
7500255000.0 0.5205968326 0.8470324102
7550254700.0 0.5355268561 0.8384977229
7600254400.0 0.5473869758 0.8299967388
7650254100.0 0.5593346208 0.8221844168
7700253800.0 0.5710288395 0.8143182158
7750253500.0 0.581934195 0.8063666025
7800253200.0 0.592619891 0.7987416757
7850252900.0 0.6022067992 0.7914651506
7900252600.0 0.613882067 0.7827223292
7950252300.0 0.6222411418 0.7761701988
8000252000.0 0.6321548842 0.7687353828
8050251700.0 0.6426459476 0.7604557167
8100251400.0 0.652372252 0.7525511986
8150251100.0 0.6624918814 0.7440663428
8200250800.0 0.6720962136 0.7356332959
8250250500.0 0.6809473493 0.7281086062
8300250200.0 0.6898987672 0.7195762433
8350249900.0 0.6991148934 0.7107671474
8400249600.0 0.7071556419 0.7028352042
8450249300.0 0.7158513252 0.6940342956
8500249000.0 0.724762568 0.6851805307
8550248700.0 0.7328754946 0.6762077985
8600248400.0 0.7411005277 0.6667792934
8650248100.0 0.7487309318 0.6573426411
8700247800.0 0.7581743383 0.6464053356
8750247500.0 0.7665072134 0.6361291609
8800247200.0 0.7746106327 0.6257610496
8850246900.0 0.7834472591 0.6143157266
8900246600.0 0.7912449462 0.6031781856
8950246300.0 0.8008020455 0.5902092461
9000246000.0 0.8093190428 0.5785498398
9050245700.0 0.8179729649 0.5660516163
9100245400.0 0.8265928088 0.5536421888
9150245100.0 0.8350642823 0.5407939355
9200244800.0 0.8445383152 0.5263190955
9250244500.0 0.8532807585 0.5117250342
9300244200.0 0.8616356801 0.4979999966
9350243900.0 0.869366715 0.484555369
9400243600.0 0.8759867589 0.473091973
9450243300.0 0.8815198611 0.4623997192
9500243000.0 0.8878206266 0.4506533021
9550242700.0 0.8918863575 0.44323023
9600242400.0 0.8961567771 0.4355441294
9650242100.0 0.9001410883 0.428801915
9700241800.0 0.9050695409 0.4200546424
9750241500.0 0.909343242 0.4124900535
9800241200.0 0.9143605118 0.403020494
9850240900.0 0.9202316283 0.3911383896
9900240600.0 0.925773329 0.3797045792
9950240300.0 0.9329714764 0.3625803184
10000240000.0 0.9381475 0.350912579
10050239700.0 0.9441965027 0.3344797888
10100239400.0 0.9490287689 0.3186416804
10150239100.0 0.9537967389 0.3027264268
10200238800.0 0.9584582668 0.2873268431
10250238500.0 0.961533268 0.2739976307
10300238200.0 0.9648551919 0.2598628894
10350237900.0 0.9675211689 0.2466467871
10400237600.0 0.9701947118 0.2332017797
10450237300.0 0.9729050771 0.2195249409
10500237000.0 0.9748682815 0.2071864991
10550236700.0 0.9774752012 0.1927225787
10600236400.0 0.9795835629 0.1789075137
10650236100.0 0.9815051493 0.1641607631
10700235800.0 0.9836935973 0.1520658698
10750235500.0 0.9861319423 0.1384222416
10800235200.0 0.9877210005 0.1241990321
10850234900.0 0.9897926291 0.1093633199
10900234600.0 0.9919341065 0.0944799117
10950234300.0 0.9936727343 0.0810025734
11000234000.0 0.9955934247 0.0653945107
11050233700.0 0.9974728241 0.048663483
11100233400.0 0.9988794757 0.0310619414
11150233100.0 1.000119219 0.0140211019
11200232800.0 1.001000313 -0.0018813627
11250232500.0 1.001786533 -0.0193465623
11300232200.0 1.002212707 -0.0388865088
11350231900.0 1.002882095 -0.0548223528
11400231600.0 1.002283906 -0.0706754397
11450231300.0 1.000861988 -0.0848665497
11500231000.0 1.000162376 -0.101393255
11550230700.0 0.9983419162 -0.1148228561
11600230400.0 0.9971335107 -0.1276074919
11650230100.0 0.9950784554 -0.1395067448
11700229800.0 0.992420661 -0.154821737
11750229500.0 0.9904310509 -0.1688843246
11800229200.0 0.9872869412 -0.1815457095
11850228900.0 0.9836376485 -0.1937976089
11900228600.0 0.9799745054 -0.2036142736
11950228300.0 0.9763005324 -0.2134085844
12000228000.0 0.9733570466 -0.2223703615
12050227700.0 0.969891848 -0.2350483615
12100227400.0 0.9664446022 -0.2458379707
12150227100.0 0.9623644924 -0.262101981
12200226800.0 0.9584079221 -0.2735081517
12250226500.0 0.9540158976 -0.2864687465
12300226200.0 0.9494491797 -0.2989114766
12350225900.0 0.9448622588 -0.3120052723
12400225600.0 0.9401337648 -0.3249614564
12450225300.0 0.9355891753 -0.3375280028
12500225000.0 0.929925077 -0.3520435237
12550224700.0 0.9246694015 -0.3658869578
12600224400.0 0.9198631764 -0.3783928448
12650224100.0 0.914058312 -0.3926846148
12700223800.0 0.9087750613 -0.4056807695
12750223500.0 0.9034363347 -0.4185316922
12800223200.0 0.8979544449 -0.4313489597
12850222900.0 0.8927360432 -0.4432588113
12900222600.0 0.8872729206 -0.4553718935
12950222300.0 0.8810272897 -0.4678315421
13000222000.0 0.8752318562 -0.4797967949
13050221700.0 0.8685569844 -0.4926323713
13100221400.0 0.8614315628 -0.5045793492
13150221100.0 0.8547186198 -0.5170893869
13200220800.0 0.8476159717 -0.5282757905
13250220500.0 0.8403410353 -0.540631538
13300220200.0 0.8327861616 -0.5517897098
13350219900.0 0.8244592053 -0.5635025973
13400219600.0 0.8163387835 -0.5752847647
13450219300.0 0.8066140548 -0.5886526101
13500219000.0 0.7971384493 -0.6017202673
13550218700.0 0.7874091234 -0.6138702547
13600218400.0 0.777236965 -0.6258129943
13650218100.0 0.7675936073 -0.6365169289
13700217800.0 0.7572483593 -0.6482328736
13750217500.0 0.7481595222 -0.6583983401
13800217200.0 0.7362158132 -0.6706530293
13850216900.0 0.7252239847 -0.6815744044
13900216600.0 0.7154267434 -0.6908791657
13950216300.0 0.704903168 -0.7012024871
14000216000.0 0.6949328674 -0.7096742416
14050215700.0 0.6858607583 -0.7175167334
14100215400.0 0.6762698135 -0.7266562647
14150215100.0 0.6671836356 -0.7356752527
14200214800.0 0.6575533456 -0.7444096953
14250214500.0 0.6473154349 -0.7536653537
14300214200.0 0.6366258806 -0.7631732984
14350213900.0 0.6255554711 -0.7727961286
14400213600.0 0.6138448746 -0.7825870841
14450213300.0 0.6011238662 -0.7930532266
14500213000.0 0.5881933834 -0.8031624079
14550212700.0 0.57538864 -0.8121807716
14600212400.0 0.5633783663 -0.8212463688
14650212100.0 0.5503295985 -0.8296026895
14700211800.0 0.537416609 -0.8389185267
14750211500.0 0.5246412376 -0.8473256444
14800211200.0 0.5120424161 -0.8555295045
14850210900.0 0.4995748517 -0.8633619579
14900210600.0 0.4863389578 -0.8711435101
14950210300.0 0.4729267037 -0.8789802989
15000210000.0 0.4601730892 -0.885547189
15050209700.0 0.4480506741 -0.891652898
15100209400.0 0.4356154694 -0.8977123992
15150209100.0 0.4227863354 -0.902882274
15200208800.0 0.410356566 -0.9088073631
15250208500.0 0.3989274834 -0.9134078747
15300208200.0 0.3874530176 -0.9175221055
15350207900.0 0.3740974499 -0.9218750521
15400207600.0 0.3587552012 -0.9272583123
15450207300.0 0.3439345897 -0.9330212141
15500207000.0 0.330565385 -0.9381980845
15550206700.0 0.3149863159 -0.9430073031
15600206400.0 0.2991719517 -0.9470115902
15650206100.0 0.283555347 -0.9513925698
15700205800.0 0.2699394939 -0.9545302022
15750205500.0 0.255743011 -0.958009004
15800205200.0 0.2418005848 -0.9612947695
15850204900.0 0.2277159575 -0.9650623822
15900204600.0 0.2125614964 -0.9683383777
15950204300.0 0.1983860977 -0.9715197119
16000204000.0 0.1841520887 -0.9745065807
16050203700.0 0.168508263 -0.9777965104
16100203400.0 0.1538108897 -0.9801713457
16150203100.0 0.1391983164 -0.9821092036
16200202800.0 0.1248458132 -0.9843850813
16250202500.0 0.1099720586 -0.9856767466
16300202200.0 0.0946411235 -0.9873860542
16350201900.0 0.0798171776 -0.9888210969
16400201600.0 0.065192564 -0.9902182884
16450201300.0 0.0494027513 -0.9913233817
16500201000.0 0.0321060065 -0.9920197149
16550200700.0 0.0162193261 -0.9925409328
16600200400.0 0.0002287516 -0.9926742511
16650200100.0 -0.0157024478 -0.9925906829
16700199800.0 -0.0323918309 -0.9918633646
16750199500.0 -0.0513482007 -0.9918162104
16800199200.0 -0.0675107323 -0.9909596393
16850198900.0 -0.0829921087 -0.9889771449
16900198600.0 -0.0973147183 -0.9879651794
16950198300.0 -0.1103569561 -0.9870191765
17000198000.0 -0.123322743 -0.9859058167
17050197700.0 -0.1364033473 -0.9844667891
17100197400.0 -0.1492999838 -0.9818602576
17150197100.0 -0.1617727525 -0.9798805665
17200196800.0 -0.1748085884 -0.9781587495
17250196500.0 -0.1878676867 -0.9756717922
17300196200.0 -0.1998511966 -0.9731613714
17350195900.0 -0.2115347653 -0.9707067228
17400195600.0 -0.2235610551 -0.9680808592
17450195300.0 -0.2364851138 -0.9653958155
17500195000.0 -0.2496323316 -0.961983108
17550194700.0 -0.2633640964 -0.9585543697
17600194400.0 -0.2770418795 -0.9548771935
17650194100.0 -0.2901264392 -0.9503487114
17700193800.0 -0.3033210711 -0.9463066666
17750193500.0 -0.3181537669 -0.9417564301
17800193200.0 -0.3318637103 -0.9364210485
17850192900.0 -0.3469006957 -0.9312638226
17900192600.0 -0.3620966713 -0.9251015394
17950192300.0 -0.3774084613 -0.9179404649
18000192000.0 -0.3920416196 -0.91079446
18050191700.0 -0.4059822892 -0.9027335749
18100191400.0 -0.420164278 -0.8950593342
18150191100.0 -0.4351490488 -0.8869394838
18200190800.0 -0.4519091453 -0.8779354591
18250190500.0 -0.4689851269 -0.8684144401
18300190200.0 -0.4844008863 -0.8598070242
18350189900.0 -0.4997071915 -0.8511656402
18400189600.0 -0.5139713835 -0.842845219
18450189300.0 -0.5275861089 -0.8343818592
18500189000.0 -0.5412990685 -0.8265364701
18550188700.0 -0.5541782216 -0.8188932494
18600188400.0 -0.5658111656 -0.8119420366
18650188100.0 -0.5773046661 -0.8055569364
18700187800.0 -0.588226011 -0.7985610976
18750187500.0 -0.5989029171 -0.7920483028
18800187200.0 -0.6095867982 -0.7851219431
18850186900.0 -0.6199601646 -0.7780737716
18900186600.0 -0.6302022111 -0.770856466
18950186300.0 -0.6404104467 -0.7632313896
19000186000.0 -0.6480236628 -0.7567951196
19050185700.0 -0.657249182 -0.7495567142
19100185400.0 -0.6674027399 -0.7415264696
19150185100.0 -0.6770446508 -0.7331922346
19200184800.0 -0.6868001692 -0.7253027137
19250184500.0 -0.6971934381 -0.7159780595
19300184200.0 -0.7079716922 -0.7064036064
19350183900.0 -0.7191100977 -0.6961626015
19400183600.0 -0.7290024484 -0.6862164896
19450183300.0 -0.7379810879 -0.6766638367
19500183000.0 -0.7460365296 -0.66654479
19550182700.0 -0.7560445602 -0.6562373132
19600182400.0 -0.7657892198 -0.6441289393
19650182100.0 -0.7758167026 -0.6317771083
19700181800.0 -0.7868499386 -0.6186770875
19750181500.0 -0.7971359923 -0.6043849772
19800181200.0 -0.8074378109 -0.5895072587
19850180900.0 -0.8167511697 -0.5741698709
19900180600.0 -0.8244671232 -0.5595976721
19950180300.0 -0.8335601335 -0.5433448591
20000180000.0 -0.8237020745 -0.5466275805
20050179700.0 -0.8310579866 -0.5347895615
20100179400.0 -0.8405219078 -0.5211284269
20150179100.0 -0.8477067772 -0.509731943
20200178800.0 -0.856541845 -0.497398643
20250178500.0 -0.865521263 -0.4855500314
20300178200.0 -0.875152379 -0.4714477014
20350177900.0 -0.8848109398 -0.4571395666
20400177600.0 -0.8934896923 -0.442988649
20450177300.0 -0.9021495647 -0.4287891858
20500177000.0 -0.910002177 -0.4151482049
20550176700.0 -0.9182365542 -0.401365074
20600176400.0 -0.9249975204 -0.3887592286
20650176100.0 -0.931542437 -0.3762166783
20700175800.0 -0.9385718236 -0.3642942518
20750175500.0 -0.9446345955 -0.3526497797
20800175200.0 -0.9493602407 -0.3419409573
20850174900.0 -0.9538110308 -0.3322803793
20900174600.0 -0.9589179197 -0.3208562562
20950174300.0 -0.9611085165 -0.3090588475
21000174000.0 -0.9641360927 -0.2989466324
21050173700.0 -0.9659077508 -0.2891424585
21100173400.0 -0.9693789021 -0.2781233793
21150173100.0 -0.9738619664 -0.2658036292
21200172800.0 -0.9775085928 -0.252561356
21250172500.0 -0.9812429281 -0.2392791092
21300172200.0 -0.9845367324 -0.2248919511
21350171900.0 -0.9865616534 -0.2104915665
21400171600.0 -0.9887299395 -0.1965950138
21450171300.0 -0.9895274176 -0.1823937408
21500171000.0 -0.9889142868 -0.1664950142
21550170700.0 -0.991232075 -0.1518574272
21600170400.0 -0.9900995933 -0.1374546655
21650170100.0 -0.9901652319 -0.1209169819
21700169800.0 -0.9899644341 -0.1060831886
21750169500.0 -0.9906188529 -0.0894709906
21800169200.0 -0.9908349618 -0.0729811737
21850168900.0 -0.9901674403 -0.0561149354
21900168600.0 -0.9888599724 -0.0400538079
21950168300.0 -0.9886227539 -0.024879201
22000168000.0 -0.9889536207 -0.0090669783
22050167700.0 -0.9892755408 0.0052390269
22100167400.0 -0.98990091 0.0208094069
22150167100.0 -0.9908039945 0.0368104822
22200166800.0 -0.9913293327 0.0533964531
22250166500.0 -0.990723758 0.0707736833
22300166200.0 -0.9907388184 0.0863729344
22350165900.0 -0.9889789372 0.1037453418
22400165600.0 -0.987399251 0.1193458902
22450165300.0 -0.9853300295 0.134148284
22500165000.0 -0.9847712051 0.1481964076
22550164700.0 -0.9832065794 0.1644285778
22600164400.0 -0.9805105666 0.1807777807
22650164100.0 -0.9782334812 0.1967367149
22700163800.0 -0.9745482155 0.2112640368
22750163500.0 -0.9721287086 0.2271025788
22800163200.0 -0.9688701319 0.2398468907
22850162900.0 -0.9660776432 0.2534619154
22900162600.0 -0.9642643121 0.2672893968
22950162300.0 -0.9628123268 0.2808009965
23000162000.0 -0.9607180394 0.293248748
23050161700.0 -0.9583503223 0.3068574227
23100161400.0 -0.9557757429 0.3203895173
23150161100.0 -0.9531022583 0.3332847853
23200160800.0 -0.9496210938 0.3463166971
23250160500.0 -0.9467785779 0.3579711897
23300160200.0 -0.9437381478 0.3712213721
23350159900.0 -0.9400679428 0.3850090236
23400159600.0 -0.9343746548 0.3986050924
23450159300.0 -0.929383942 0.411948515
23500159000.0 -0.9247510664 0.4254753477
23550158700.0 -0.9203665495 0.4394470004
23600158400.0 -0.9139084704 0.4535840523
23650158100.0 -0.9071056126 0.4681758982
23700157800.0 -0.8985866096 0.4824241552
23750157500.0 -0.8891821 0.4969557649
23800157200.0 -0.879857746 0.5100933438
23850156900.0 -0.8701582916 0.5232507814
23900156600.0 -0.8600614428 0.5358729149
23950156300.0 -0.8502695691 0.5483327617
24000156000.0 -0.8405899129 0.5598619594
24050155700.0 -0.8302555319 0.5727476306
24100155400.0 -0.8196848929 0.5851744783
24150155100.0 -0.8091819052 0.5982642615
24200154800.0 -0.7985805394 0.6091576831
24250154500.0 -0.7868676842 0.6213668979
24300154200.0 -0.7752277562 0.633317049
24350153900.0 -0.7633820777 0.6444832705
24400153600.0 -0.7508969435 0.6549966665
24450153300.0 -0.7389026372 0.6650175394
24500153000.0 -0.7273789078 0.6750685066
24550152700.0 -0.7160766449 0.6855863668
24600152400.0 -0.7042616302 0.6944739999
24650152100.0 -0.6923542676 0.702526609
