!Created with skrf (http://scikit-rf.org).
# Hz S RI R 50.0 
!freq ReS11 ImS11
300000.0 -0.9732497455 -0.1200258237
50299700.0 -0.999879596 0.0153690654
100299400.0 -0.9979920813 0.0283075096
150299100.0 -1.002811229 0.0451998464
200298800.0 -0.9996156566 0.0585935163
250298500.0 -0.9974356244 0.0718908294
300298200.0 -0.9860381942 0.0877386982
350297900.0 -0.9938925913 0.0986160921
400297600.0 -0.9930873715 0.1154019273
450297300.0 -0.9910977855 0.1288976714
500297000.0 -0.9895091004 0.143741163
550296700.0 -0.9845245994 0.156048857
600296400.0 -1.017268951 0.1897400202
650296100.0 -0.9821673247 0.1860288001
700295800.0 -0.9792604315 0.2004346552
750295500.0 -0.9763791519 0.2142774419
800295200.0 -0.9730173292 0.2284185869
850294900.0 -0.9696719003 0.2423438382
900294600.0 -0.9658889637 0.2561250494
950294300.0 -0.962046101 0.2698169347
1000294000.0 -0.95814098 0.2836431537
1050293700.0 -0.953644102 0.2974544178
1100293400.0 -0.9493930028 0.3120277746
1150293100.0 -0.9454099629 0.3237152131
1200292800.0 -0.9400676601 0.3380889456
1250292500.0 -0.9347065588 0.3515937816
1300292200.0 -0.9290050118 0.3648246376
1350291900.0 -0.9234113205 0.3788330451
1400291600.0 -0.9179998123 0.3919509357
1450291300.0 -0.9124381001 0.4042694212
1500291000.0 -0.9061551966 0.4177541507
1550290700.0 -0.899517731 0.430966609
1600290400.0 -0.8932755759 0.4439775055
1650290100.0 -0.8869061783 0.4560768718
1700289800.0 -0.8797787919 0.4696420994
1750289500.0 -0.8728428457 0.4818463788
1800289200.0 -0.8652786143 0.4946772087
1850288900.0 -0.8588654455 0.5061613299
1900288600.0 -0.8508356518 0.5191341743
1950288300.0 -0.8427897553 0.5315652588
2000288000.0 -0.835456266 0.5431979286
2050287700.0 -0.8271367808 0.5553844819
2100287400.0 -0.8192208067 0.5668982588
2150287100.0 -0.8106361623 0.5789213287
2200286800.0 -0.8030005768 0.5894203715
2250286500.0 -0.7942842369 0.6015449653
2300286200.0 -0.7852573132 0.6130298682
2350285900.0 -0.7765531967 0.6241925886
2400285600.0 -0.7677577356 0.634818517
2450285300.0 -0.7590035757 0.6454227816
2500285000.0 -0.749217149 0.6567631873
2550284700.0 -0.7404622265 0.6670032976
2600284400.0 -0.7310632752 0.6770544596
2650284100.0 -0.7218697335 0.6877130772
2700283800.0 -0.7112774033 0.6983237966
2750283500.0 -0.7011717506 0.7085452726
2800283200.0 -0.6911350303 0.7183528219
2850282900.0 -0.6811296979 0.7283206417
2900282600.0 -0.6707109627 0.7380311961
2950282300.0 -0.6604729084 0.7471680568
3000282000.0 -0.6496624176 0.7566675849
3050281700.0 -0.6386632032 0.7660049412
3100281400.0 -0.6267048645 0.7752253046
3150281100.0 -0.6149079156 0.7846079835
3200280800.0 -0.6031339613 0.7931173527
3250280500.0 -0.592438413 0.8009100436
3300280200.0 -0.5812319552 0.8088712213
3350279900.0 -0.5696985426 0.8163282405
3400279600.0 -0.5571761802 0.8240747157
3450279300.0 -0.5459885244 0.8310829398
3500279000.0 -0.5340950207 0.8381302458
3550278700.0 -0.5218207259 0.8456845376
3600278400.0 -0.5095919931 0.8527285176
3650278100.0 -0.4965031709 0.8601554588
3700277800.0 -0.4843830573 0.866742444
3750277500.0 -0.4722775594 0.8733739868
3800277200.0 -0.4597007238 0.8798427113
3850276900.0 -0.4477260883 0.8859074816
3900276600.0 -0.4367239485 0.8914834926
3950276300.0 -0.4243380648 0.8974843239
4000276000.0 -0.4123600346 0.9035303714
4050275700.0 -0.3994380675 0.9094528088
4100275400.0 -0.3884892572 0.9148041893
4150275100.0 -0.3756634907 0.920391201
4200274800.0 -0.3625642582 0.9261212097
4250274500.0 -0.3504756138 0.931305179
4300274200.0 -0.3373799112 0.9368029223
4350273900.0 -0.3235947417 0.9418748786
4400273600.0 -0.3088650469 0.9469900766
4450273300.0 -0.2933200202 0.9523890474
4500273000.0 -0.2800468454 0.9565707517
4550272700.0 -0.2658388571 0.9608259738
4600272400.0 -0.250311708 0.965074865
4650272100.0 -0.2387411259 0.9682760353
4700271800.0 -0.2253563803 0.9715446654
4750271500.0 -0.2137977202 0.9744267521
4800271200.0 -0.2011986072 0.9771622916
4850270900.0 -0.1872349948 0.979930787
4900270600.0 -0.173310627 0.9824183268
4950270300.0 -0.1593474519 0.9849002099
5000270000.0 -0.1448970961 0.9871574222
5050269700.0 -0.131336631 0.9889065916
5100269400.0 -0.1175944024 0.9904362549
5150269100.0 -0.1041968922 0.9920351022
5200268800.0 -0.0909387436 0.9925908327
5250268500.0 -0.0778385381 0.994022002
5300268200.0 -0.0648258575 0.9946482713
5350267900.0 -0.0521826891 0.9953434173
5400267600.0 -0.0360887231 0.9962645346
5450267300.0 -0.0230669673 0.9965940882
5500267000.0 -0.0078597152 0.9970130686
5550266700.0 0.0071001363 0.9971487977
5600266400.0 0.0226615467 0.9973378436
5650266100.0 0.0390213998 0.9966934431
5700265800.0 0.0535094677 0.9962060781
5750265500.0 0.0686265636 0.9952267752
5800265200.0 0.082707802 0.9942353367
5850264900.0 0.0958692377 0.9934908503
5900264600.0 0.1126264613 0.9919360909
5950264300.0 0.1247216433 0.9901882586
6000264000.0 0.1384020944 0.9883105164
6050263700.0 0.1506791438 0.9864817981
6100263400.0 0.1631757445 0.9848479678
6150263100.0 0.1777157191 0.9825268071
6200262800.0 0.1880027799 0.9808119771
6250262500.0 0.2007156866 0.9784128243
6300262200.0 0.2135015484 0.9758473781
6350261900.0 0.2264382145 0.9727508625
6400261600.0 0.2403270441 0.9695280824
6450261300.0 0.2514870956 0.9669274797
6500261000.0 0.2644285527 0.9632903112
6550260700.0 0.2772176544 0.9593373203
6600260400.0 0.291032465 0.9553830315
6650260100.0 0.304735509 0.9510286232
6700259800.0 0.3169892472 0.9467307891
6750259500.0 0.3301896559 0.9415195043
6800259200.0 0.3437137367 0.9367455286
6850258900.0 0.3555092042 0.9316073142
6900258600.0 0.3679300591 0.9264646759
6950258300.0 0.3807369299 0.9211620953
7000258000.0 0.3925890189 0.9158936473
7050257700.0 0.4048659891 0.9099064421
7100257400.0 0.4177980689 0.9035794679
7150257100.0 0.4279955129 0.8981677925
7200256800.0 0.440970497 0.8916906273
7250256500.0 0.4528339235 0.8855792573
7300256200.0 0.4659013079 0.8783292084
7350255900.0 0.4782418539 0.8716168328
7400255600.0 0.4916337889 0.8644441614
7450255300.0 0.5072110709 0.8557953315
7500255000.0 0.518832431 0.8483771537
7550254700.0 0.5330646496 0.8399804971
7600254400.0 0.5455744264 0.8316371149
7650254100.0 0.5566925401 0.8235731402
7700253800.0 0.568996494 0.815758484
7750253500.0 0.5800641023 0.8080188057
7800253200.0 0.5905802318 0.8003671557
7850252900.0 0.6002056801 0.7932051143
7900252600.0 0.6120301209 0.7846929207
7950252300.0 0.620618087 0.7782198399
8000252000.0 0.6306472651 0.7704895599
8050251700.0 0.6413335229 0.7620493767
8100251400.0 0.6511256568 0.7541615403
8150251100.0 0.6618069424 0.745385128
8200250800.0 0.6710436265 0.7374626524
8250250500.0 0.6796294068 0.7295584381
8300250200.0 0.688866307 0.7210851421
8350249900.0 0.6979614405 0.7122815319
8400249600.0 0.7064619586 0.7041962408
8450249300.0 0.7154353004 0.694999375
8500249000.0 0.723953643 0.6861585424
8550248700.0 0.732336405 0.6771294676
8600248400.0 0.7407362444 0.667653948
8650248100.0 0.7484348439 0.6581309211
8700247800.0 0.7579860543 0.64706681
8750247500.0 0.7663417481 0.6367540895
8800247200.0 0.7743664008 0.6266206952
8850246900.0 0.7832054089 0.6151527867
8900246600.0 0.7917481382 0.6034544132
8950246300.0 0.8012695958 0.5906931513
9000246000.0 0.8103999789 0.5781602733
9050245700.0 0.8195007616 0.5652380039
9100245400.0 0.8281294538 0.5524996579
9150245100.0 0.8374030458 0.5394068471
9200244800.0 0.8470958755 0.524125531
9250244500.0 0.8564040838 0.5086503944
9300244200.0 0.864855009 0.4944262842
9350243900.0 0.8724748891 0.4804283163
9400243600.0 0.8792122506 0.4680194883
9450243300.0 0.8852078099 0.4565960468
9500243000.0 0.8913436919 0.4444654888
9550242700.0 0.8952800849 0.4367616621
9600242400.0 0.8992365002 0.4293870994
9650242100.0 0.9027773732 0.4230616596
9700241800.0 0.9075557686 0.4148813488
9750241500.0 0.9113913586 0.4072635889
9800241200.0 0.9163775496 0.39783978
9850240900.0 0.9217533325 0.3863834413
9900240600.0 0.9279383563 0.3746811709
9950240300.0 0.9341644106 0.358323741
10000240000.0 0.9388346289 0.3471468069
10050239700.0 0.9447309409 0.3314684439
10100239400.0 0.9496664941 0.3161453621
10150239100.0 0.954004864 0.3012509117
10200238800.0 0.9581186283 0.2861754166
10250238500.0 0.9615563983 0.2727618243
10300238200.0 0.964701142 0.2588385564
10350237900.0 0.9670579378 0.2460184446
10400237600.0 0.9698467354 0.2324780944
10450237300.0 0.9724775677 0.2187338083
10500237000.0 0.9744463915 0.2066325405
10550236700.0 0.977344333 0.1921960659
10600236400.0 0.9790245792 0.1788725844
10650236100.0 0.9811506839 0.1637629188
10700235800.0 0.9836280046 0.1514789444
10750235500.0 0.9852256724 0.1385369231
10800235200.0 0.9877319009 0.123934495
10850234900.0 0.9893377904 0.1094269344
10900234600.0 0.9916917408 0.0951203848
10950234300.0 0.9933846826 0.0818661628
11000234000.0 0.9953580211 0.0666191056
11050233700.0 0.997073026 0.0503367606
11100233400.0 0.9984832438 0.0327978708
11150233100.0 0.9997790257 0.0165395186
11200232800.0 0.9999699094 0.0014255633
11250232500.0 1.001086024 -0.014979282
11300232200.0 1.001876627 -0.0330934084
11350231900.0 1.001990445 -0.0491675983
11400231600.0 1.001534951 -0.064710597
11450231300.0 1.001145595 -0.0795402188
11500231000.0 0.9996878168 -0.0956379318
11550230700.0 0.9978527831 -0.1087604035
11600230400.0 0.9972561538 -0.1223180159
11650230100.0 0.9952038588 -0.1335588573
11700229800.0 0.9930071415 -0.1484198545
11750229500.0 0.9908915204 -0.1627020691
11800229200.0 0.98804952 -0.1765572174
11850228900.0 0.9846858355 -0.1889093881
11900228600.0 0.9809703269 -0.1984878787
11950228300.0 0.9777602486 -0.2088564531
12000228000.0 0.9752330075 -0.2178284325
12050227700.0 0.9715276624 -0.2303421825
12100227400.0 0.9682548638 -0.2419253746
12150227100.0 0.9633686652 -0.2582403519
12200226800.0 0.9593438604 -0.2694414179
12250226500.0 0.9552493868 -0.281586736
12300226200.0 0.9515113304 -0.2951859138
12350225900.0 0.9461590321 -0.3080188444
12400225600.0 0.9417305257 -0.3208024333
12450225300.0 0.9375561946 -0.3334192624
12500225000.0 0.9324755168 -0.3480671066
12550224700.0 0.926730387 -0.3623154904
12600224400.0 0.9219367003 -0.3751415984
12650224100.0 0.9161916492 -0.3896528248
12700223800.0 0.910782128 -0.4023985934
12750223500.0 0.9052215385 -0.4155251402
12800223200.0 0.9003420738 -0.4277428244
12850222900.0 0.8945436048 -0.440377779
12900222600.0 0.8893099671 -0.4522083254
12950222300.0 0.8826311402 -0.4648258459
13000222000.0 0.8769290164 -0.4768677295
13050221700.0 0.8700880111 -0.4893028871
13100221400.0 0.8634441433 -0.5011748827
13150221100.0 0.8565028731 -0.5133489514
13200220800.0 0.8496358371 -0.5248168145
13250220500.0 0.8423756952 -0.5369378844
13300220200.0 0.8350274527 -0.5478180184
13350219900.0 0.8271196958 -0.559795015
13400219600.0 0.8187742356 -0.571757076
13450219300.0 0.8093224123 -0.5852640891
13500219000.0 0.79911408 -0.5989641067
13550218700.0 0.7886494413 -0.6120281326
13600218400.0 0.7785132551 -0.6241954224
13650218100.0 0.7695142185 -0.6349634991
13700217800.0 0.7585683653 -0.6475748011
13750217500.0 0.7486758095 -0.6581344562
13800217200.0 0.737071113 -0.669979248
13850216900.0 0.7254163042 -0.6820525724
13900216600.0 0.7169001099 -0.690172067
13950216300.0 0.7054863092 -0.7016370294
14000216000.0 0.6957282103 -0.7106773502
14050215700.0 0.6860049393 -0.7185815603
14100215400.0 0.6761387899 -0.7278741932
14150215100.0 0.6667401831 -0.7362609515
14200214800.0 0.6574515048 -0.7447859692
14250214500.0 0.6470693494 -0.7543138214
14300214200.0 0.6368482781 -0.7635433246
14350213900.0 0.6257139956 -0.7731838572
14400213600.0 0.6137825857 -0.7829871013
14450213300.0 0.6005106968 -0.7934167606
14500213000.0 0.5874051786 -0.8032512108
14550212700.0 0.575076233 -0.8129765177
14600212400.0 0.5626723858 -0.8208252434
14650212100.0 0.5493962079 -0.8300421652
14700211800.0 0.5359618941 -0.839369265
14750211500.0 0.5237469588 -0.8478700459
14800211200.0 0.5117097542 -0.8562870422
14850210900.0 0.4993612192 -0.8633564144
14900210600.0 0.4861482574 -0.8712104306
14950210300.0 0.472865922 -0.8788438131
15000210000.0 0.4597713421 -0.8855775786
15050209700.0 0.4478162882 -0.8922046481
15100209400.0 0.4345309697 -0.8975489647
15150209100.0 0.4223381584 -0.9035202104
15200208800.0 0.4099797957 -0.9083802415
15250208500.0 0.398517938 -0.912575022
15300208200.0 0.3861029746 -0.9176338032
15350207900.0 0.3732685052 -0.9225896928
15400207600.0 0.3586809659 -0.9278579612
15450207300.0 0.3437461625 -0.932609067
15500207000.0 0.3299770327 -0.9375558818
15550206700.0 0.3143862193 -0.9417521114
15600206400.0 0.2983593087 -0.9470628226
15650206100.0 0.2827211135 -0.9514257925
15700205800.0 0.2690699819 -0.95492301
15750205500.0 0.2547016513 -0.9583138995
15800205200.0 0.2401991866 -0.9622023165
15850204900.0 0.2258169264 -0.9654491402
15900204600.0 0.2109252704 -0.9690476704
15950204300.0 0.1967925062 -0.9721450486
16000204000.0 0.1826839782 -0.97491278
16050203700.0 0.1671978779 -0.977373237
16100203400.0 0.1530629248 -0.9803155184
16150203100.0 0.1385320812 -0.9822684257
16200202800.0 0.1240703915 -0.9845289503
16250202500.0 0.1097506173 -0.9861855818
16300202200.0 0.0944531838 -0.9878714223
16350201900.0 0.0793574007 -0.9890795412
16400201600.0 0.0648445778 -0.9903920956
16450201300.0 0.0492873363 -0.9912654479
16500201000.0 0.0326677215 -0.9920023332
16550200700.0 0.0170981014 -0.9925923489
16600200400.0 0.0012834878 -0.9927057542
16650200100.0 -0.0146189599 -0.9926456629
16700199800.0 -0.0311172665 -0.9926410375
16750199500.0 -0.0499837251 -0.9923417443
16800199200.0 -0.0653017532 -0.9911209026
16850198900.0 -0.0806453455 -0.9897316781
16900198600.0 -0.094701036 -0.9881641199
16950198300.0 -0.1076488543 -0.9876265047
17000198000.0 -0.1211513185 -0.9864461737
17050197700.0 -0.1335763435 -0.984189347
17100197400.0 -0.1462644765 -0.982262917
17150197100.0 -0.1591821476 -0.9801882096
17200196800.0 -0.1716904001 -0.9784984676
17250196500.0 -0.1846031714 -0.9759047252
17300196200.0 -0.196946564 -0.9737593915
17350195900.0 -0.2089474616 -0.9711881355
17400195600.0 -0.2208914636 -0.9688048559
17450195300.0 -0.2341738081 -0.9659578247
17500195000.0 -0.2475543972 -0.9625857475
17550194700.0 -0.2614751488 -0.9592408775
17600194400.0 -0.2755902533 -0.954888982
17650194100.0 -0.2892469204 -0.9506964003
17700193800.0 -0.3022072192 -0.9470182549
17750193500.0 -0.3161949527 -0.9422986489
17800193200.0 -0.3311181214 -0.9370700683
17850192900.0 -0.3462631626 -0.9317132094
17900192600.0 -0.3611677026 -0.9255545206
17950192300.0 -0.376895757 -0.9183246676
18000192000.0 -0.3914196426 -0.9110998711
18050191700.0 -0.4054561238 -0.9034428162
18100191400.0 -0.4196631039 -0.8956361638
18150191100.0 -0.4346234883 -0.8876565669
18200190800.0 -0.4515002319 -0.8785630361
18250190500.0 -0.4685840666 -0.868806686
18300190200.0 -0.4837753828 -0.8605479583
18350189900.0 -0.4990893419 -0.8517515791
18400189600.0 -0.5133657422 -0.8437017704
18450189300.0 -0.5270632803 -0.8358317647
18500189000.0 -0.5400041976 -0.8275823664
18550188700.0 -0.553082816 -0.8201428727
18600188400.0 -0.5643058689 -0.813255942
18650188100.0 -0.5756169883 -0.806862932
18700187800.0 -0.5864867504 -0.8003484881
18750187500.0 -0.5970532825 -0.7938421867
18800187200.0 -0.6075124368 -0.7867819078
18850186900.0 -0.6176518828 -0.780082819
18900186600.0 -0.6280227409 -0.7726209773
18950186300.0 -0.6380035159 -0.7650613503
19000186000.0 -0.6452023635 -0.7587436844
19050185700.0 -0.6547836987 -0.7516580863
19100185400.0 -0.6646711389 -0.743448489
19150185100.0 -0.6742889181 -0.734858488
19200184800.0 -0.6841549053 -0.7269962057
19250184500.0 -0.6942613488 -0.7175543318
19300184200.0 -0.705518271 -0.7072460684
19350183900.0 -0.7163614571 -0.6982738613
19400183600.0 -0.7262500289 -0.6881494241
19450183300.0 -0.7350373242 -0.6785931857
19500183000.0 -0.7429279172 -0.6687161663
19550182700.0 -0.7529477924 -0.6580158542
19600182400.0 -0.7633982337 -0.6457062557
19650182100.0 -0.7742916061 -0.6331736835
19700181800.0 -0.7848304302 -0.6201388571
19750181500.0 -0.7951925277 -0.6058174376
19800181200.0 -0.805519267 -0.5910342093
19850180900.0 -0.8153492209 -0.5754674936
19900180600.0 -0.8233012405 -0.5610283474
19950180300.0 -0.8326185074 -0.54456174
20000180000.0 -0.825777152 -0.5466815006
20050179700.0 -0.8336891836 -0.5343296491
20100179400.0 -0.8417246777 -0.5200123467
20150179100.0 -0.8501923349 -0.5077569647
20200178800.0 -0.8598356349 -0.4951591293
20250178500.0 -0.8688917784 -0.4815798324
20300178200.0 -0.8782924449 -0.4672689293
20350177900.0 -0.8873872675 -0.4524147753
20400177600.0 -0.8962054303 -0.4384259807
20450177300.0 -0.9047391004 -0.4237340362
20500177000.0 -0.9126891619 -0.4100204245
20550176700.0 -0.9205263247 -0.3965923414
20600176400.0 -0.927583763 -0.3835884325
20650176100.0 -0.9340346675 -0.3713754137
20700175800.0 -0.9412097546 -0.3597193845
20750175500.0 -0.9468785986 -0.3475097382
20800175200.0 -0.9515121512 -0.3374856365
20850174900.0 -0.9571264551 -0.3265153061
20900174600.0 -0.9619677714 -0.3149496337
20950174300.0 -0.9656834016 -0.3033023959
21000174000.0 -0.9691668507 -0.2921781846
21050173700.0 -0.971336825 -0.2810900006
21100173400.0 -0.9756108285 -0.2688355204
21150173100.0 -0.9798954882 -0.2570398181
21200172800.0 -0.9828044867 -0.2433845433
21250172500.0 -0.9861287768 -0.2295878371
21300172200.0 -0.9885778954 -0.2157524435
21350171900.0 -0.9901538621 -0.2013911693
21400171600.0 -0.9921101401 -0.1873126396
21450171300.0 -0.9918861491 -0.1726877676
21500171000.0 -0.9920900754 -0.1568904556
21550170700.0 -0.9916866923 -0.1412403125
21600170400.0 -0.9927882969 -0.1268665214
21650170100.0 -0.9920949957 -0.1103292742
21700169800.0 -0.9895577979 -0.0948988002
21750169500.0 -0.9881044866 -0.0782964037
21800169200.0 -0.988141261 -0.0623363528
21850168900.0 -0.9872073773 -0.0464197269
21900168600.0 -0.9853358432 -0.0291139819
21950168300.0 -0.9851651563 -0.0133112253
22000168000.0 -0.9842931897 0.0014818719
22050167700.0 -0.9841838423 0.0157009189
22100167400.0 -0.9841573855 0.0309000485
22150167100.0 -0.9848564368 0.0467925847
22200166800.0 -0.9853407924 0.0627039867
22250166500.0 -0.9845566421 0.0796724199
22300166200.0 -0.9840194149 0.0964045672
22350165900.0 -0.9831688279 0.1139568862
22400165600.0 -0.9813138303 0.1294047156
22450165300.0 -0.979047391 0.1437522722
22500165000.0 -0.9772076524 0.1568313983
22550164700.0 -0.9762954498 0.173145298
22600164400.0 -0.9748229837 0.188264855
22650164100.0 -0.9727218553 0.2032782994
22700163800.0 -0.9693599742 0.219724364
22750163500.0 -0.9671062375 0.2343152961
22800163200.0 -0.9641217652 0.2474515573
22850162900.0 -0.9613379859 0.2604538671
22900162600.0 -0.960291201 0.2742452798
22950162300.0 -0.9591847242 0.286860459
23000162000.0 -0.9575869903 0.2987610883
23050161700.0 -0.9561805515 0.3116315132
23100161400.0 -0.9533357359 0.3244538161
23150161100.0 -0.950624022 0.3367185116
23200160800.0 -0.9473987836 0.3489849417
23250160500.0 -0.9452791644 0.3609755128
23300160200.0 -0.9421691237 0.372751718
23350159900.0 -0.9383695888 0.3856867106
23400159600.0 -0.9340994138 0.3999204139
23450159300.0 -0.9285578712 0.4130308496
23500159000.0 -0.9246615683 0.4255702708
23550158700.0 -0.9197729516 0.439438147
23600158400.0 -0.9146499709 0.4524877067
23650158100.0 -0.9082385492 0.4666818265
23700157800.0 -0.9006490363 0.4806588907
23750157500.0 -0.8921957052 0.4944577316
23800157200.0 -0.8834073211 0.5076495305
23850156900.0 -0.8742039831 0.520385197
23900156600.0 -0.8654472966 0.5335101963
23950156300.0 -0.8556792856 0.5455666206
24000156000.0 -0.8470421293 0.5578127347
24050155700.0 -0.8367188302 0.5697415088
24100155400.0 -0.827419503 0.5816352448
24150155100.0 -0.8165148643 0.5939826013
24200154800.0 -0.8058852511 0.6047836286
24250154500.0 -0.79445835 0.6165719798
24300154200.0 -0.7828903945 0.6279879364
24350153900.0 -0.7709957019 0.638636823
24400153600.0 -0.7585986675 0.6489777483
24450153300.0 -0.746836907 0.6587197632
24500153000.0 -0.7357544827 0.6686547389
24550152700.0 -0.7247628229 0.6778979515
24600152400.0 -0.7124022562 0.6880285416
24650152100.0 -0.7015659546 0.6951302729
