!Created with skrf (http://scikit-rf.org).
# Hz S RI R 50.0 
!freq ReS11 ImS11
300000.0 -0.9800988813 -0.1095709592
50299700.0 -1.000137666 0.015907322
100299400.0 -0.9980633036 0.0288040545
150299100.0 -1.002728812 0.0456514688
200298800.0 -0.9996595664 0.0590060132
250298500.0 -0.9973543468 0.072405492
300298200.0 -0.9858554915 0.088283613
350297900.0 -0.9938464875 0.0992481082
400297600.0 -0.9932191564 0.1157302558
450297300.0 -0.9911937431 0.1296302948
500297000.0 -0.98949313 0.1444395314
550296700.0 -0.9846051879 0.1569883178
600296400.0 -1.01719779 0.1902054732
650296100.0 -0.9822125625 0.1866947562
700295800.0 -0.9792236708 0.2011567513
750295500.0 -0.9763684451 0.2150185551
800295200.0 -0.9728798791 0.2292284924
850294900.0 -0.9694746186 0.2430818717
900294600.0 -0.9658179692 0.256824243
950294300.0 -0.9618102775 0.2705303745
1000294000.0 -0.958041049 0.2843225263
1050293700.0 -0.9534250615 0.2983604773
1100293400.0 -0.9491077523 0.3127436516
1150293100.0 -0.9454197442 0.3245757746
1200292800.0 -0.9399785711 0.33891201
1250292500.0 -0.9344807059 0.3522521825
1300292200.0 -0.9287684119 0.365512259
1350291900.0 -0.9231733825 0.379681552
1400291600.0 -0.9176207843 0.3926297924
1450291300.0 -0.9122252917 0.4051708991
1500291000.0 -0.9058086481 0.4184509301
1550290700.0 -0.8994814794 0.4318299067
1600290400.0 -0.8932942802 0.4445686465
1650290100.0 -0.8863745028 0.4570077856
1700289800.0 -0.8796127251 0.4702405578
1750289500.0 -0.872575066 0.4824873936
1800289200.0 -0.8651934091 0.4954130695
1850288900.0 -0.8583427112 0.5066095176
1900288600.0 -0.8505912002 0.5197225374
1950288300.0 -0.842447504 0.5323306032
2000288000.0 -0.8350201095 0.5437014769
2050287700.0 -0.826853332 0.556071204
2100287400.0 -0.8188714887 0.5676243494
2150287100.0 -0.8101498079 0.5797428692
2200286800.0 -0.8024857809 0.5901845884
2250286500.0 -0.7935227457 0.6020602298
2300286200.0 -0.7846642268 0.6138109339
2350285900.0 -0.7758899245 0.6247102697
2400285600.0 -0.7671497391 0.6357673495
2450285300.0 -0.7582031294 0.6461411658
2500285000.0 -0.748727976 0.657525164
2550284700.0 -0.7397396644 0.667720155
2600284400.0 -0.7302425124 0.677905837
2650284100.0 -0.7213430633 0.6884518037
2700283800.0 -0.7105983923 0.6990620756
2750283500.0 -0.7003304097 0.7094999534
2800283200.0 -0.6905755934 0.7194426384
2850282900.0 -0.6803753878 0.7291874391
2900282600.0 -0.6699152621 0.7385264588
2950282300.0 -0.6598206656 0.7477791528
3000282000.0 -0.6490583962 0.7574637695
3050281700.0 -0.6379907782 0.7666668701
3100281400.0 -0.6260114511 0.7760592906
3150281100.0 -0.6141009239 0.7853064141
3200280800.0 -0.6027652854 0.7939898649
3250280500.0 -0.5918407665 0.8015388678
3300280200.0 -0.5805229372 0.8093274656
3350279900.0 -0.5691847367 0.8168697271
3400279600.0 -0.5570104636 0.824392141
3450279300.0 -0.5457937777 0.8315387053
3500279000.0 -0.5338001059 0.8387609633
3550278700.0 -0.521428034 0.846156231
3600278400.0 -0.5090788866 0.8533040413
3650278100.0 -0.4958100699 0.8607668199
3700277800.0 -0.4839528983 0.8673812896
3750277500.0 -0.4715901377 0.8737324475
3800277200.0 -0.4589813651 0.8803107953
3850276900.0 -0.4467837963 0.8862448607
3900276600.0 -0.4360152675 0.8918565494
3950276300.0 -0.4237107721 0.8981303033
4000276000.0 -0.4115479499 0.9040028524
4050275700.0 -0.3985519516 0.9099707906
4100275400.0 -0.3872821452 0.9153064224
4150275100.0 -0.3746437022 0.9210309439
4200274800.0 -0.3616963959 0.9266582739
4250274500.0 -0.3492916113 0.9315554809
4300274200.0 -0.3364595401 0.9367418021
4350273900.0 -0.3226768239 0.9421615896
4400273600.0 -0.3076646504 0.9474159377
4450273300.0 -0.2922694627 0.9523862361
4500273000.0 -0.2787752682 0.9569520804
4550272700.0 -0.2645613918 0.9611912244
4600272400.0 -0.2489704018 0.9654542637
4650272100.0 -0.2373761285 0.9685878023
4700271800.0 -0.2238540925 0.9718570049
4750271500.0 -0.212414402 0.9747046104
4800271200.0 -0.1998145195 0.9774160605
4850270900.0 -0.1858932842 0.9803342109
4900270600.0 -0.1718866556 0.9828009665
4950270300.0 -0.1578023182 0.9853586688
5000270000.0 -0.1435777475 0.9873835595
5050269700.0 -0.1300574218 0.9889708081
5100269400.0 -0.1166144245 0.9906003173
5150269100.0 -0.1033712198 0.9920442087
5200268800.0 -0.0901490051 0.9928360486
5250268500.0 -0.0769034421 0.9940055531
5300268200.0 -0.0639332935 0.9951514606
5350267900.0 -0.0516448432 0.9958175537
5400267600.0 -0.0353034957 0.9964501345
5450267300.0 -0.0221955336 0.9967409429
5500267000.0 -0.0072540103 0.9970828111
5550266700.0 0.0077793719 0.9973441191
5600266400.0 0.0232911092 0.9973007977
5650266100.0 0.040074094 0.9971080168
5700265800.0 0.0540425061 0.9961850725
5750265500.0 0.069564664 0.9951708888
5800265200.0 0.0838478177 0.9942441781
5850264900.0 0.0971493871 0.9933805844
5900264600.0 0.1134895098 0.9915222562
5950264300.0 0.1254580655 0.9895255966
6000264000.0 0.1397638705 0.9883944232
6050263700.0 0.1525536342 0.9870608432
6100263400.0 0.1645876879 0.9848832477
6150263100.0 0.1792839709 0.9822271617
6200262800.0 0.1894881178 0.9804606491
6250262500.0 0.2022027914 0.9782397164
6300262200.0 0.2151728487 0.9753219163
6350261900.0 0.2282041675 0.9723218551
6400261600.0 0.2420393334 0.9689087307
6450261300.0 0.2533650099 0.9663983566
6500261000.0 0.2662243041 0.9627883255
6550260700.0 0.2791752147 0.958835323
6600260400.0 0.2925588275 0.9547631208
6650260100.0 0.306552103 0.9503040418
6700259800.0 0.3182859061 0.9460653859
6750259500.0 0.3324123195 0.9411709733
6800259200.0 0.3451943944 0.9362466425
6850258900.0 0.3573840014 0.9312552504
6900258600.0 0.3691909448 0.9259467994
6950258300.0 0.3818929124 0.9207458674
7000258000.0 0.3939802047 0.9154125193
7050257700.0 0.4061659831 0.9094425294
7100257400.0 0.4187032141 0.9031354702
7150257100.0 0.4292750091 0.8978413521
7200256800.0 0.4418072723 0.8915086623
7250256500.0 0.4537512066 0.8849990185
7300256200.0 0.4668380973 0.8784238185
7350255900.0 0.4796402252 0.8712915658
7400255600.0 0.4926129423 0.86432298
7450255300.0 0.5079154001 0.8550431253
7500255000.0 0.5198530232 0.8480355527
7550254700.0 0.5336182702 0.8397584519
7600254400.0 0.5461465712 0.8312048031
7650254100.0 0.5576830504 0.8236192161
7700253800.0 0.5693353312 0.8152628448
7750253500.0 0.5805855854 0.80769888
7800253200.0 0.5912271254 0.7998944874
7850252900.0 0.6008308973 0.7926839791
7900252600.0 0.6127171102 0.783948741
7950252300.0 0.6214631227 0.7773256145
8000252000.0 0.6317507772 0.7696560121
8050251700.0 0.6422361052 0.7613462769
8100251400.0 0.6520870077 0.7529605254
8150251100.0 0.6624572425 0.7444317653
8200250800.0 0.6719304714 0.7365028195
8250250500.0 0.6807395653 0.7285548585
8300250200.0 0.6898031437 0.7199933781
8350249900.0 0.6989013458 0.7112858378
8400249600.0 0.7073277888 0.7031602325
8450249300.0 0.7164924096 0.6938668009
8500249000.0 0.724938367 0.685098124
8550248700.0 0.7333912738 0.6760626033
8600248400.0 0.7415967545 0.6665315533
8650248100.0 0.7496056557 0.6572008012
8700247800.0 0.7588776747 0.6461345943
8750247500.0 0.7671292073 0.6359841182
8800247200.0 0.7753004247 0.6255695969
8850246900.0 0.7841550471 0.6141424743
8900246600.0 0.7923470779 0.6030156042
8950246300.0 0.8023203223 0.5899383401
9000246000.0 0.8118460157 0.5770605495
9050245700.0 0.8207403937 0.5641520696
9100245400.0 0.8292241085 0.5515642082
9150245100.0 0.8383452957 0.5378972163
9200244800.0 0.8483151863 0.5227036653
9250244500.0 0.8580638823 0.5069436218
9300244200.0 0.8663035579 0.4920415119
9350243900.0 0.8739775044 0.4783753806
9400243600.0 0.8805612713 0.4660147728
9450243300.0 0.8865468567 0.4544040109
9500243000.0 0.8927908214 0.4419507584
9550242700.0 0.8964972714 0.4343227504
9600242400.0 0.9003555179 0.4267438122
9650242100.0 0.9039154601 0.4203802883
9700241800.0 0.9086268625 0.4119741013
9750241500.0 0.9124908916 0.4047176152
9800241200.0 0.9170346742 0.3953956625
9850240900.0 0.9227234611 0.383978851
9900240600.0 0.9279117459 0.3723820232
9950240300.0 0.9348606473 0.3562183006
10000240000.0 0.9396720356 0.3443447388
10050239700.0 0.9453672977 0.3290565286
10100239400.0 0.9502499874 0.3136358124
10150239100.0 0.954302004 0.2991153646
10200238800.0 0.958437128 0.2842671492
10250238500.0 0.9618144449 0.270809987
10300238200.0 0.9649797526 0.2567948504
10350237900.0 0.9674962622 0.2440150695
10400237600.0 0.970139458 0.2308905211
10450237300.0 0.9727704808 0.2170964454
10500237000.0 0.974886394 0.2052240319
10550236700.0 0.9773416541 0.1908116282
10600236400.0 0.9794824438 0.1768980031
10650236100.0 0.9817124468 0.1627338082
10700235800.0 0.9840625267 0.1509690558
10750235500.0 0.9855505072 0.137872226
10800235200.0 0.9879924663 0.1233232931
10850234900.0 0.9897027622 0.1088923589
10900234600.0 0.9916345962 0.094429802
10950234300.0 0.9935911713 0.0810212429
11000234000.0 0.9952395715 0.0658290763
11050233700.0 0.9971096229 0.0493972265
11100233400.0 0.9984053483 0.0321295837
11150233100.0 0.999482211 0.0154929202
11200232800.0 1.000051758 0.0006779429
11250232500.0 1.000820224 -0.0155215009
11300232200.0 1.001479993 -0.0340090022
11350231900.0 1.001658466 -0.0497747546
11400231600.0 1.000807991 -0.0644525075
11450231300.0 1.000620289 -0.08122358
11500231000.0 0.9993838504 -0.0972054748
11550230700.0 0.9979476497 -0.1108086343
11600230400.0 0.9965401391 -0.1231520055
11650230100.0 0.9945516189 -0.1352882051
11700229800.0 0.9927921557 -0.1500068082
11750229500.0 0.9902606663 -0.1642810554
11800229200.0 0.9875453811 -0.1782682949
11850228900.0 0.9840462911 -0.1907255886
11900228600.0 0.9804278285 -0.2002109448
11950228300.0 0.9772385989 -0.2108928902
12000228000.0 0.9742808679 -0.219920608
12050227700.0 0.9708922492 -0.2320083201
12100227400.0 0.9678686284 -0.2436201653
12150227100.0 0.9626860255 -0.2605352787
12200226800.0 0.9592254176 -0.2708411478
12250226500.0 0.9555423545 -0.2828395762
12300226200.0 0.9504892307 -0.295435904
12350225900.0 0.9465126552 -0.3093565041
12400225600.0 0.9416538874 -0.3221430179
12450225300.0 0.9375592974 -0.3348190991
12500225000.0 0.9320176485 -0.3497424735
12550224700.0 0.9267455044 -0.3633665657
12600224400.0 0.9217614843 -0.3763644991
12650224100.0 0.9159408035 -0.3903287625
12700223800.0 0.9106531904 -0.4031555902
12750223500.0 0.9049567749 -0.4162800339
12800223200.0 0.8999512326 -0.4283989269
12850222900.0 0.894398198 -0.4409130109
12900222600.0 0.8884980149 -0.4531596689
12950222300.0 0.8823769011 -0.4655887088
13000222000.0 0.8761671299 -0.4774930784
13050221700.0 0.8698096962 -0.4895176285
13100221400.0 0.8629060908 -0.5016068655
13150221100.0 0.8562709953 -0.5140592958
13200220800.0 0.8488068685 -0.5256107472
13250220500.0 0.8415688176 -0.5380813558
13300220200.0 0.8341555084 -0.5490259649
13350219900.0 0.8261065091 -0.5608283575
13400219600.0 0.8178235257 -0.5729958065
13450219300.0 0.808070822 -0.5867745468
13500219000.0 0.7979426095 -0.6006672945
13550218700.0 0.7873484067 -0.6137952204
13600218400.0 0.7774839383 -0.6260579318
13650218100.0 0.767490447 -0.637111957
13700217800.0 0.7564979652 -0.6495209699
13750217500.0 0.7467845989 -0.6608516005
13800217200.0 0.7351520477 -0.6720747968
13850216900.0 0.7237464387 -0.6840897125
13900216600.0 0.7145326353 -0.6931549603
13950216300.0 0.7033502501 -0.7027585214
14000216000.0 0.6936748553 -0.7125605374
14050215700.0 0.6838768559 -0.7201617662
14100215400.0 0.6741412443 -0.7295967548
14150215100.0 0.6650714092 -0.7380037441
14200214800.0 0.6557291756 -0.7465142722
14250214500.0 0.6455851613 -0.7556506894
14300214200.0 0.6351848492 -0.7649256007
14350213900.0 0.6240373817 -0.7742040095
14400213600.0 0.6122985515 -0.7843358459
14450213300.0 0.5994565178 -0.7944457113
14500213000.0 0.586299663 -0.8042150634
14550212700.0 0.5740885639 -0.8137204677
14600212400.0 0.5608636416 -0.8228084636
14650212100.0 0.5482965683 -0.8306566384
14700211800.0 0.5339563442 -0.84045297
14750211500.0 0.5221363733 -0.8484488277
14800211200.0 0.5097096157 -0.8563947571
14850210900.0 0.4976990883 -0.8643255718
14900210600.0 0.484198495 -0.8720477621
14950210300.0 0.4708377355 -0.8797112236
15000210000.0 0.4581060318 -0.8865115133
15050209700.0 0.4456700132 -0.8925190663
15100209400.0 0.4324685219 -0.8982390414
15150209100.0 0.4202489138 -0.9048228788
15200208800.0 0.407626078 -0.9101049775
15250208500.0 0.3959162004 -0.9140324907
15300208200.0 0.3831989626 -0.9186658356
15350207900.0 0.3705840545 -0.9235590865
15400207600.0 0.3548813182 -0.9288577171
15450207300.0 0.3411714581 -0.9338994355
15500207000.0 0.3272021076 -0.9383224134
15550206700.0 0.310973582 -0.9439305587
15600206400.0 0.2958761645 -0.9475046509
15650206100.0 0.2802246192 -0.9516103017
15700205800.0 0.266092998 -0.9561376331
15750205500.0 0.2512508115 -0.9594462046
15800205200.0 0.2369741301 -0.9627775255
15850204900.0 0.2226050633 -0.9661505307
15900204600.0 0.2076789393 -0.9697875873
15950204300.0 0.1934313185 -0.9727298555
16000204000.0 0.1796633183 -0.9755996999
16050203700.0 0.1649248307 -0.9788003742
16100203400.0 0.1509053343 -0.979983005
16150203100.0 0.1361498755 -0.9825416428
16200202800.0 0.1219650286 -0.9848294539
16250202500.0 0.107653439 -0.9860094556
16300202200.0 0.0917473937 -0.9878421811
16350201900.0 0.0774537073 -0.9891870102
16400201600.0 0.0628206167 -0.9901585227
16450201300.0 0.0473391647 -0.9913518859
16500201000.0 0.0310823914 -0.9921298375
16550200700.0 0.0153059719 -0.9925412861
16600200400.0 -0.0005737525 -0.9925295451
16650200100.0 -0.0169024464 -0.9924214069
16700199800.0 -0.0330707142 -0.9921689819
16750199500.0 -0.0522484406 -0.9908697835
16800199200.0 -0.0680988707 -0.9905636589
16850198900.0 -0.0826136531 -0.9893374667
16900198600.0 -0.0970539764 -0.9887009438
16950198300.0 -0.1107700821 -0.987548266
17000198000.0 -0.1232029568 -0.9856763076
17050197700.0 -0.1361112124 -0.9834543818
17100197400.0 -0.1489103388 -0.9814012562
17150197100.0 -0.1618622382 -0.980049432
17200196800.0 -0.1744108768 -0.9771742219
17250196500.0 -0.1873516612 -0.9753814873
17300196200.0 -0.1995118352 -0.9728637933
17350195900.0 -0.2113974551 -0.9706323103
17400195600.0 -0.2236008707 -0.968188387
17450195300.0 -0.2365712759 -0.9653257426
17500195000.0 -0.2499424446 -0.9619651432
17550194700.0 -0.2636920739 -0.9582091985
17600194400.0 -0.27792677 -0.9544939018
17650194100.0 -0.2914837639 -0.9502274407
17700193800.0 -0.3043356485 -0.9460984005
17750193500.0 -0.318743431 -0.9412882152
17800193200.0 -0.333340153 -0.9358089118
17850192900.0 -0.3482674489 -0.9307730014
17900192600.0 -0.3632412199 -0.9245610014
17950192300.0 -0.3789663924 -0.9174631658
18000192000.0 -0.3933444401 -0.9101957643
18050191700.0 -0.407353301 -0.9024236465
18100191400.0 -0.4213721775 -0.8948023372
18150191100.0 -0.4363935327 -0.8867108839
18200190800.0 -0.4531793758 -0.8774392007
18250190500.0 -0.4701562432 -0.867791658
18300190200.0 -0.485649955 -0.8591305341
18350189900.0 -0.5007103587 -0.8509156247
18400189600.0 -0.5149605259 -0.8424897779
18450189300.0 -0.5280801854 -0.8343963618
18500189000.0 -0.5413198581 -0.8258208014
18550188700.0 -0.5541439454 -0.8190097686
18600188400.0 -0.5661800465 -0.8118557346
18650188100.0 -0.577101068 -0.8052760229
18700187800.0 -0.5878122393 -0.7990061086
18750187500.0 -0.5983740966 -0.7922607158
18800187200.0 -0.6093065418 -0.7852537226
18850186900.0 -0.6194892915 -0.778147875
18900186600.0 -0.6297088419 -0.7707671378
18950186300.0 -0.6398099843 -0.763015137
19000186000.0 -0.6472824206 -0.7569737643
19050185700.0 -0.6562069375 -0.7492730247
19100185400.0 -0.6664817776 -0.7415935228
19150185100.0 -0.6765127144 -0.7327245479
19200184800.0 -0.6854699549 -0.7246683002
19250184500.0 -0.696425461 -0.7145528224
19300184200.0 -0.7080317289 -0.7053486456
19350183900.0 -0.7185626822 -0.6954431463
19400183600.0 -0.7283491007 -0.6855113584
19450183300.0 -0.7374790152 -0.6753258634
19500183000.0 -0.7457410893 -0.6652804252
19550182700.0 -0.755281985 -0.6545838747
19600182400.0 -0.7654001482 -0.6432922576
19650182100.0 -0.776357041 -0.6307480159
19700181800.0 -0.7871570951 -0.6175090755
19750181500.0 -0.7973233953 -0.6033525032
19800181200.0 -0.8076951314 -0.5886488263
19850180900.0 -0.8171959934 -0.573242064
19900180600.0 -0.8247677107 -0.5590123285
19950180300.0 -0.8339763188 -0.5424818503
20000180000.0 -0.8265098942 -0.5446063837
20050179700.0 -0.8347953242 -0.5311589082
20100179400.0 -0.8444253951 -0.5177147717
20150179100.0 -0.8519474008 -0.5064047368
20200178800.0 -0.8607552995 -0.4928070035
20250178500.0 -0.8703315941 -0.4796288382
20300178200.0 -0.8803664914 -0.4643620131
20350177900.0 -0.8879564668 -0.4499417691
20400177600.0 -0.8972319759 -0.435668034
20450177300.0 -0.9056576472 -0.4209450844
20500177000.0 -0.9134439404 -0.4075694584
20550176700.0 -0.9214111284 -0.3937914157
20600176400.0 -0.9285096951 -0.3807483558
20650176100.0 -0.9352621279 -0.3682533244
20700175800.0 -0.9416773047 -0.3555854897
20750175500.0 -0.94778712 -0.3438395497
20800175200.0 -0.9528751177 -0.3337835302
20850174900.0 -0.9572701135 -0.3227237444
20900174600.0 -0.9625815366 -0.310441203
20950174300.0 -0.9670858466 -0.2995358714
21000174000.0 -0.969816982 -0.2872658217
21050173700.0 -0.9732259102 -0.2767365745
21100173400.0 -0.9769214722 -0.2635575195
21150173100.0 -0.9815029996 -0.2512283491
21200172800.0 -0.9848775734 -0.2382690002
21250172500.0 -0.9882445366 -0.2242974953
21300172200.0 -0.9904092707 -0.2104084834
21350171900.0 -0.9919685509 -0.1961199335
21400171600.0 -0.9934257334 -0.181858076
21450171300.0 -0.9931027788 -0.1667698319
21500171000.0 -0.9941250116 -0.1516585793
21550170700.0 -0.9934101098 -0.1363408103
21600170400.0 -0.9932241092 -0.1204316724
21650170100.0 -0.9918636904 -0.1044592758
21700169800.0 -0.9905849025 -0.0901602595
21750169500.0 -0.9888966142 -0.0741622512
21800169200.0 -0.9878591668 -0.0581103037
21850168900.0 -0.9873584174 -0.0410789824
21900168600.0 -0.9858303512 -0.0249144779
21950168300.0 -0.9842831063 -0.0094448222
22000168000.0 -0.9831028021 0.0056534918
22050167700.0 -0.9824650155 0.0201612848
22100167400.0 -0.9823619283 0.0349549298
22150167100.0 -0.983122499 0.0505204091
22200166800.0 -0.9835310141 0.0667017181
22250166500.0 -0.9827745147 0.0838531854
22300166200.0 -0.9818422647 0.1007389621
22350165900.0 -0.9802283403 0.116913763
22400165600.0 -0.9790460936 0.13246797
22450165300.0 -0.9765308612 0.1480827148
22500165000.0 -0.9749136103 0.1611477408
22550164700.0 -0.9743588447 0.1762639487
22600164400.0 -0.9726825903 0.1922181885
22650164100.0 -0.9699512701 0.2066993794
22700163800.0 -0.9679702758 0.2226837252
22750163500.0 -0.9648255427 0.238827099
22800163200.0 -0.9626244733 0.2516533445
22850162900.0 -0.9603848479 0.2649623919
22900162600.0 -0.958653894 0.2780990226
22950162300.0 -0.957416553 0.2906240868
23000162000.0 -0.9567224372 0.3028342403
23050161700.0 -0.954400519 0.3154059958
23100161400.0 -0.9522083754 0.3279373345
23150161100.0 -0.9492350351 0.340371613
23200160800.0 -0.9464080404 0.3527719413
23250160500.0 -0.9438609834 0.3645602758
23300160200.0 -0.941544511 0.3762247529
23350159900.0 -0.9369178117 0.3889964106
23400159600.0 -0.9335491761 0.4025933719
23450159300.0 -0.9281658621 0.4154213157
23500159000.0 -0.9236638584 0.4282466655
23550158700.0 -0.9192486537 0.4415900795
23600158400.0 -0.9137416776 0.4550892771
23650158100.0 -0.9074178232 0.4687999513
23700157800.0 -0.9000102913 0.4826892562
23750157500.0 -0.8912222501 0.4964090114
23800157200.0 -0.8822158033 0.5100865231
23850156900.0 -0.873650715 0.5224604661
23900156600.0 -0.8641838228 0.5352682136
23950156300.0 -0.8555315529 0.5469510917
24000156000.0 -0.8460674114 0.5590232669
24050155700.0 -0.83641604 0.5708745389
24100155400.0 -0.8260034306 0.5824746661
24150155100.0 -0.8154351527 0.5944203558
24200154800.0 -0.8045067693 0.6055030529
24250154500.0 -0.7924006771 0.6177611205
24300154200.0 -0.7812294802 0.6287727431
24350153900.0 -0.7694667395 0.6399285327
24400153600.0 -0.7570584296 0.6500006064
24450153300.0 -0.7455263448 0.6600577997
24500153000.0 -0.7343994631 0.6694476894
24550152700.0 -0.722112375 0.6794108055
24600152400.0 -0.7107776939 0.6885371455
24650152100.0 -0.7003191338 0.6965060568
