!Created with skrf (http://scikit-rf.org).
# Hz S RI R 50.0 
!freq ReS11 ImS11
300000.0 -0.9825152085 -0.0955710161
50299700.0 -1.000049582 0.0164501043
100299400.0 -0.9980321059 0.0293015942
150299100.0 -1.002780725 0.0460891087
200298800.0 -0.9996283084 0.0592926639
250298500.0 -0.9974434079 0.0731037385
300298200.0 -0.9858862001 0.0887764978
350297900.0 -0.9941738534 0.0997850074
400297600.0 -0.9933390229 0.1162031354
450297300.0 -0.9909020602 0.1299384232
500297000.0 -0.9894626848 0.1449212283
550296700.0 -0.9841938079 0.1572088878
600296400.0 -1.017277483 0.1906391872
650296100.0 -0.9818218112 0.1871910465
700295800.0 -0.9791642986 0.2016834693
750295500.0 -0.9758376495 0.2153954261
800295200.0 -0.9727159937 0.2296510322
850294900.0 -0.969330699 0.2436579151
900294600.0 -0.9653750499 0.2571183192
950294300.0 -0.9616516205 0.2708798898
1000294000.0 -0.9577363461 0.2848573329
1050293700.0 -0.9532589608 0.2985901519
1100293400.0 -0.9487776867 0.3129055839
1150293100.0 -0.9451141731 0.3251113534
1200292800.0 -0.9397627905 0.3392677977
1250292500.0 -0.9341350002 0.3526999714
1300292200.0 -0.9285488211 0.3658912409
1350291900.0 -0.9229179567 0.3800710205
1400291600.0 -0.9174844711 0.3932082338
1450291300.0 -0.9121261826 0.4054001617
1500291000.0 -0.9058130286 0.4186593187
1550290700.0 -0.8992382638 0.4319789137
1600290400.0 -0.8929494213 0.4448289906
1650290100.0 -0.8863261953 0.4569568151
1700289800.0 -0.879449268 0.4703942891
1750289500.0 -0.8726086771 0.4828550421
1800289200.0 -0.8651995511 0.4957175045
1850288900.0 -0.8584548041 0.5069090349
1900288600.0 -0.8504948449 0.5199114785
1950288300.0 -0.8423063377 0.5325202279
2000288000.0 -0.8348896057 0.5439111196
2050287700.0 -0.8266365584 0.5561486918
2100287400.0 -0.8185992605 0.5680493657
2150287100.0 -0.8100451448 0.5801640015
2200286800.0 -0.8021532309 0.5902755739
2250286500.0 -0.7934212837 0.6024413258
2300286200.0 -0.7842219668 0.6140511713
2350285900.0 -0.7756688733 0.6252232193
2400285600.0 -0.7665254681 0.6361920617
2450285300.0 -0.7578761324 0.6465376808
2500285000.0 -0.7484099497 0.6577471122
2550284700.0 -0.7393736427 0.6681658881
2600284400.0 -0.7296303032 0.6780594499
2650284100.0 -0.7205512386 0.6887794193
2700283800.0 -0.7101455465 0.6991751943
2750283500.0 -0.6998507878 0.7097468088
2800283200.0 -0.6901250546 0.7195549831
2850282900.0 -0.6800443112 0.7294483959
2900282600.0 -0.6694971629 0.7387890237
2950282300.0 -0.6595701091 0.7483437151
3000282000.0 -0.648601972 0.7576170755
3050281700.0 -0.6374508827 0.7667174051
3100281400.0 -0.6257604929 0.7760255621
3150281100.0 -0.6139487393 0.7854356823
3200280800.0 -0.6023352226 0.7939329375
3250280500.0 -0.591558121 0.8014744091
3300280200.0 -0.5805298679 0.809411158
3350279900.0 -0.5689298226 0.8171074209
3400279600.0 -0.556957217 0.8247564984
3450279300.0 -0.545855185 0.8317147264
3500279000.0 -0.533619231 0.8389501586
3550278700.0 -0.5212691051 0.8462664626
3600278400.0 -0.5092940385 0.853458798
3650278100.0 -0.4957597585 0.8610523314
3700277800.0 -0.4837587596 0.8674599255
3750277500.0 -0.4716248126 0.8739218766
3800277200.0 -0.4588760064 0.8804093886
3850276900.0 -0.4466930224 0.8864055856
3900276600.0 -0.4357070837 0.8922051836
3950276300.0 -0.4231554069 0.8980902761
4000276000.0 -0.4109515416 0.9044640882
4050275700.0 -0.3980600555 0.9102397028
4100275400.0 -0.3868904345 0.9155037406
4150275100.0 -0.3741319482 0.9214276531
4200274800.0 -0.3609391432 0.9268315489
4250274500.0 -0.3485113158 0.9317470647
4300274200.0 -0.3358683317 0.9371173508
4350273900.0 -0.3219603693 0.9425217419
4400273600.0 -0.3070133573 0.9476033233
4450273300.0 -0.2916240153 0.9526561876
4500273000.0 -0.2780632202 0.9568277809
4550272700.0 -0.2639616447 0.9610752064
4600272400.0 -0.248481228 0.965260702
4650272100.0 -0.2368409312 0.9685933929
4700271800.0 -0.2233953619 0.9718310167
4750271500.0 -0.2117143195 0.9746865971
4800271200.0 -0.1991051418 0.9774120616
4850270900.0 -0.1853582995 0.9799993967
4900270600.0 -0.171590679 0.9824696034
4950270300.0 -0.1573497881 0.9849694442
5000270000.0 -0.1433914598 0.9870048481
5050269700.0 -0.1298130319 0.9886256373
5100269400.0 -0.1162356359 0.9906143982
5150269100.0 -0.1030386651 0.9925247865
5200268800.0 -0.0895312648 0.9932000792
5250268500.0 -0.0763938572 0.9942277741
5300268200.0 -0.0635673494 0.9953155947
5350267900.0 -0.0513057962 0.9952566968
5400267600.0 -0.0350369604 0.9965920784
5450267300.0 -0.0222173553 0.9967204453
5500267000.0 -0.0070108997 0.9971483137
5550266700.0 0.0078286369 0.9973984064
5600266400.0 0.0234140698 0.9972266883
5650266100.0 0.0399844349 0.9970467914
5700265800.0 0.0543431514 0.996047106
5750265500.0 0.0694480414 0.9952770186
5800265200.0 0.0834424739 0.9942474858
5850264900.0 0.0966826858 0.9929672659
5900264600.0 0.1134858987 0.9916282056
5950264300.0 0.1255218677 0.9896631249
6000264000.0 0.1396396452 0.9879897589
6050263700.0 0.1525135412 0.9868560387
6100263400.0 0.1649915318 0.9845416992
6150263100.0 0.1794123403 0.9819628369
6200262800.0 0.1899696635 0.9801509627
6250262500.0 0.2027295226 0.9775897898
6300262200.0 0.2154276504 0.9749219409
6350261900.0 0.2287147037 0.9720264222
6400261600.0 0.2426115021 0.9686924729
6450261300.0 0.2537725831 0.9661063727
6500261000.0 0.2667539309 0.9625090617
6550260700.0 0.2795415957 0.9584224221
6600260400.0 0.2928849337 0.9543200433
6650260100.0 0.3070123851 0.9503278289
6700259800.0 0.3187925882 0.9459174448
6750259500.0 0.3322345033 0.940654681
6800259200.0 0.3459597701 0.9360361566
6850258900.0 0.3574444577 0.9308557721
6900258600.0 0.3697281859 0.9259761456
6950258300.0 0.3824790606 0.9207834593
7000258000.0 0.3942917474 0.9152475068
7050257700.0 0.4065634229 0.9093518882
7100257400.0 0.4191516993 0.9031334314
7150257100.0 0.4294404207 0.8979319673
7200256800.0 0.4424622596 0.8917006955
7250256500.0 0.4540849894 0.8852816097
7300256200.0 0.4670167248 0.8784042403
7350255900.0 0.4793124771 0.871572069
7400255600.0 0.4927041518 0.8644043076
7450255300.0 0.507204338 0.8554025436
7500255000.0 0.5190756045 0.8483332839
7550254700.0 0.5333575403 0.8400159895
7600254400.0 0.5454620697 0.8313382909
7650254100.0 0.557350276 0.8236446295
7700253800.0 0.5689296762 0.8155975091
7750253500.0 0.5804533038 0.8077682804
7800253200.0 0.5911681885 0.7999054173
7850252900.0 0.6006913314 0.7927863393
7900252600.0 0.6126111304 0.7837651206
7950252300.0 0.6216138895 0.7772717746
8000252000.0 0.6315243395 0.7693812534
8050251700.0 0.6424541591 0.7610406533
8100251400.0 0.6525376028 0.7527134109
8150251100.0 0.662386205 0.7442163713
8200250800.0 0.671863107 0.736080845
8250250500.0 0.6808746176 0.7279649994
8300250200.0 0.6904305559 0.7192831743
8350249900.0 0.6993586063 0.710563835
8400249600.0 0.7077020551 0.7025743094
8450249300.0 0.7169706453 0.6932905085
8500249000.0 0.7252200856 0.6845450911
8550248700.0 0.7336900762 0.6751666289
8600248400.0 0.7422202802 0.6660659534
8650248100.0 0.7499774491 0.6565792539
8700247800.0 0.759277579 0.6454332573
8750247500.0 0.7677961991 0.6353439919
8800247200.0 0.7754907818 0.6251076043
8850246900.0 0.7843796666 0.6138965979
8900246600.0 0.7928085509 0.6026425216
8950246300.0 0.8025949486 0.5896646727
9000246000.0 0.8115217158 0.5770821557
9050245700.0 0.8205734378 0.5643330197
9100245400.0 0.8290095521 0.5517770067
9150245100.0 0.8384142667 0.5384071688
9200244800.0 0.8477220555 0.5234348464
9250244500.0 0.857331905 0.5081404911
9300244200.0 0.8653920744 0.4935881525
9350243900.0 0.8732632394 0.4794435227
9400243600.0 0.8801754928 0.4668579981
9450243300.0 0.8859468477 0.4550202684
9500243000.0 0.8924092886 0.4424808827
9550242700.0 0.8963005813 0.4344151247
9600242400.0 0.9002841033 0.4265836615
9650242100.0 0.9039295654 0.4198627891
9700241800.0 0.9086165509 0.4112739457
9750241500.0 0.9125887951 0.4034875513
9800241200.0 0.9171507887 0.3944907297
9850240900.0 0.9227850647 0.3825424947
9900240600.0 0.9284068918 0.370833207
9950240300.0 0.9348055909 0.3549305312
10000240000.0 0.9397549507 0.3434034025
10050239700.0 0.945007717 0.3284885328
10100239400.0 0.949736056 0.3129089584
10150239100.0 0.9541145666 0.2984188706
10200238800.0 0.9584372209 0.2834988623
10250238500.0 0.9617013983 0.2700629699
10300238200.0 0.9649847841 0.2561723988
10350237900.0 0.9677227071 0.2430949187
10400237600.0 0.9702072672 0.2298510838
10450237300.0 0.9729267393 0.2167528115
10500237000.0 0.9750569262 0.2047275374
10550236700.0 0.9772436486 0.1909844985
10600236400.0 0.9798405825 0.1769266745
10650236100.0 0.9813633816 0.1628915971
10700235800.0 0.9838447477 0.1504082527
10750235500.0 0.985676974 0.1373870034
10800235200.0 0.9878013101 0.123787838
10850234900.0 0.9898036137 0.1085513296
10900234600.0 0.9917469103 0.0945242256
10950234300.0 0.9935034174 0.0811246522
11000234000.0 0.9952289738 0.0661417514
11050233700.0 0.9970368485 0.0499309392
11100233400.0 0.9984113076 0.032848066
11150233100.0 0.9993432452 0.0166647913
11200232800.0 0.9998694484 0.0014945327
11250232500.0 1.000858849 -0.0151579618
11300232200.0 1.001189183 -0.0328086935
11350231900.0 1.001156146 -0.0487811104
11400231600.0 1.000082125 -0.0637899021
11450231300.0 1.000689831 -0.0806000064
11500231000.0 0.999568524 -0.0975209933
11550230700.0 0.9977759245 -0.1100432714
11600230400.0 0.9960641708 -0.1239049399
11650230100.0 0.9942273584 -0.1344630435
11700229800.0 0.9920605221 -0.1494747354
11750229500.0 0.9896320715 -0.1643315518
11800229200.0 0.9869642554 -0.1782141308
11850228900.0 0.9834937791 -0.1908608061
11900228600.0 0.979889865 -0.2011730918
11950228300.0 0.9766195775 -0.2116904821
12000228000.0 0.9738171132 -0.2211927613
12050227700.0 0.9700555657 -0.2340883861
12100227400.0 0.9672199664 -0.2445350096
12150227100.0 0.9627368618 -0.2607065201
12200226800.0 0.9584593672 -0.2724089525
12250226500.0 0.9548526331 -0.2841322852
12300226200.0 0.9512380436 -0.2966642872
12350225900.0 0.9460429132 -0.3107619062
12400225600.0 0.9417679362 -0.3230873095
12450225300.0 0.937423642 -0.3351414998
12500225000.0 0.9317131502 -0.3498382496
12550224700.0 0.9266855506 -0.3633667234
12600224400.0 0.9217959293 -0.3760914344
12650224100.0 0.9160307479 -0.3902951777
12700223800.0 0.9108217099 -0.4028559925
12750223500.0 0.9054561948 -0.4156233659
12800223200.0 0.9000299212 -0.428136
12850222900.0 0.8946817282 -0.4404223379
12900222600.0 0.8888934499 -0.4519794787
12950222300.0 0.8823296945 -0.4657282787
13000222000.0 0.8765647388 -0.4772691076
13050221700.0 0.8699107266 -0.4895331269
13100221400.0 0.8631927163 -0.5014308344
13150221100.0 0.8559060286 -0.5137037059
13200220800.0 0.8488511473 -0.5255412246
13250220500.0 0.8413164491 -0.5379753553
13300220200.0 0.83373459 -0.5489392285
13350219900.0 0.8256500471 -0.5611453398
13400219600.0 0.8172679284 -0.5734081401
13450219300.0 0.8077487036 -0.5870269848
13500219000.0 0.7972792018 -0.6012222029
13550218700.0 0.7865655786 -0.6142755195
13600218400.0 0.7768975014 -0.6261080776
13650218100.0 0.7679763084 -0.6370343119
13700217800.0 0.7567274835 -0.6497042746
13750217500.0 0.7472378028 -0.6605342915
13800217200.0 0.7348478548 -0.6721858693
13850216900.0 0.7236305876 -0.684081349
13900216600.0 0.7144817438 -0.693059768
13950216300.0 0.7031701389 -0.7038993509
14000216000.0 0.693406869 -0.7128509014
14050215700.0 0.6838243168 -0.720835272
14100215400.0 0.6740046939 -0.7301351171
14150215100.0 0.6650459332 -0.738087114
14200214800.0 0.6557911653 -0.7466223878
14250214500.0 0.6454997347 -0.7559226512
14300214200.0 0.6353510233 -0.7649400262
14350213900.0 0.6242348031 -0.7743560756
14400213600.0 0.6124617129 -0.783918505
14450213300.0 0.5995221586 -0.7943185521
14500213000.0 0.5867964718 -0.8041589918
14550212700.0 0.5742298974 -0.8132910067
14600212400.0 0.561689202 -0.8216650801
14650212100.0 0.5490113018 -0.8307364789
14700211800.0 0.5349137004 -0.8400867959
14750211500.0 0.5230897164 -0.8482681156
14800211200.0 0.5106199499 -0.856438922
14850210900.0 0.4984922552 -0.8637705918
14900210600.0 0.4852273562 -0.8716234843
14950210300.0 0.4713436542 -0.8791825534
15000210000.0 0.4585663146 -0.8862297385
15050209700.0 0.4464311418 -0.8923729862
15100209400.0 0.4331837215 -0.8985628082
15150209100.0 0.4208015867 -0.9038473169
15200208800.0 0.4071447814 -0.9095657724
15250208500.0 0.3957768721 -0.9148795984
15300208200.0 0.3832794831 -0.919058613
15350207900.0 0.3698642687 -0.9233177267
15400207600.0 0.3557752793 -0.9291701577
15450207300.0 0.3406961056 -0.934221601
15500207000.0 0.325580073 -0.9384829046
15550206700.0 0.3111136644 -0.9440490902
15600206400.0 0.2952673452 -0.948381317
15650206100.0 0.2796803956 -0.9522464056
15700205800.0 0.2655231864 -0.956078238
15750205500.0 0.2511443709 -0.9595041129
15800205200.0 0.2367975654 -0.962982361
15850204900.0 0.2224242861 -0.9664366438
15900204600.0 0.2075700772 -0.9700306528
15950204300.0 0.1935447123 -0.9728415284
16000204000.0 0.1795794275 -0.9756519068
16050203700.0 0.1651750019 -0.978520405
16100203400.0 0.1511550041 -0.9808659028
16150203100.0 0.1371302676 -0.9823776749
16200202800.0 0.1227278037 -0.9846927837
16250202500.0 0.1081066383 -0.9863393787
16300202200.0 0.0931563422 -0.9879651381
16350201900.0 0.0783413703 -0.9892602452
16400201600.0 0.0637606187 -0.9902476008
16450201300.0 0.0485794352 -0.9912906518
16500201000.0 0.0320868773 -0.9921502803
16550200700.0 0.016436283 -0.9927032514
16600200400.0 0.0006595779 -0.9928684103
16650200100.0 -0.0159663929 -0.9926525462
16700199800.0 -0.0324456793 -0.9921230655
16750199500.0 -0.0518737353 -0.9914339174
16800199200.0 -0.0673401234 -0.9904527961
16850198900.0 -0.0827167576 -0.9892968263
16900198600.0 -0.0971888748 -0.9880719634
16950198300.0 -0.1101209874 -0.9875314413
17000198000.0 -0.1229544929 -0.9858402964
17050197700.0 -0.1360717671 -0.9840047562
17100197400.0 -0.1491170799 -0.9821897256
17150197100.0 -0.1613882735 -0.9795562575
17200196800.0 -0.1748984892 -0.9776908492
17250196500.0 -0.1877462165 -0.9750164396
17300196200.0 -0.2002528788 -0.9728970478
17350195900.0 -0.2121851203 -0.9704626984
17400195600.0 -0.2243047231 -0.9679743917
17450195300.0 -0.2375892121 -0.9650791271
17500195000.0 -0.2510819202 -0.9616974932
17550194700.0 -0.2643446725 -0.9579256107
17600194400.0 -0.2789820138 -0.9541897603
17650194100.0 -0.2922974817 -0.9502765634
17700193800.0 -0.304910386 -0.9459965465
17750193500.0 -0.3194170125 -0.9412203193
17800193200.0 -0.3336250447 -0.9363305163
17850192900.0 -0.348656818 -0.9306227305
17900192600.0 -0.3631183733 -0.9244726044
17950192300.0 -0.3788338167 -0.9175099335
18000192000.0 -0.3934318191 -0.9105852117
18050191700.0 -0.4073817599 -0.9026815593
18100191400.0 -0.4212693796 -0.8950779952
18150191100.0 -0.4360039761 -0.8871907789
18200190800.0 -0.4526234565 -0.8781708011
18250190500.0 -0.4695313176 -0.8686672023
18300190200.0 -0.4847707944 -0.8599235494
18350189900.0 -0.4999176938 -0.8515923645
18400189600.0 -0.5141158709 -0.8431961749
18450189300.0 -0.5274633698 -0.8354672764
18500189000.0 -0.5408341047 -0.8273317892
18550188700.0 -0.5536648577 -0.8190281038
18600188400.0 -0.5655795538 -0.8119868
18650188100.0 -0.5769431276 -0.8057960104
18700187800.0 -0.5877126404 -0.7986876602
18750187500.0 -0.5985632899 -0.7922494592
18800187200.0 -0.6095754848 -0.7845956793
18850186900.0 -0.6200692844 -0.7771974689
18900186600.0 -0.6304638645 -0.7698590753
18950186300.0 -0.6406989726 -0.7618887482
19000186000.0 -0.6483595884 -0.7554820453
19050185700.0 -0.6576725805 -0.7478979785
19100185400.0 -0.6678366408 -0.7391610921
19150185100.0 -0.6782980788 -0.7310247424
19200184800.0 -0.688106642 -0.7229185789
19250184500.0 -0.697944864 -0.7129294274
19300184200.0 -0.7097684741 -0.7032412149
19350183900.0 -0.7202605467 -0.6935586668
19400183600.0 -0.7296739436 -0.6840696925
19450183300.0 -0.7386262897 -0.6731195178
19500183000.0 -0.7470832881 -0.6642010169
19550182700.0 -0.7564433944 -0.6531479336
19600182400.0 -0.7664248417 -0.6414020855
19650182100.0 -0.7772809666 -0.6292511531
19700181800.0 -0.7873671028 -0.6164454939
19750181500.0 -0.7977556623 -0.6024750705
19800181200.0 -0.8078689854 -0.5877136083
19850180900.0 -0.817236874 -0.57279738
19900180600.0 -0.8248249132 -0.5585650965
19950180300.0 -0.8340060942 -0.5425020976
20000180000.0 -0.8278345176 -0.5438657715
20050179700.0 -0.8362597667 -0.5307879581
20100179400.0 -0.844335097 -0.5172742724
20150179100.0 -0.8520752528 -0.5052679161
20200178800.0 -0.8602200265 -0.4918799364
20250178500.0 -0.8705112882 -0.4794927988
20300178200.0 -0.879076801 -0.4646719831
20350177900.0 -0.8879407989 -0.4500958862
20400177600.0 -0.8971117933 -0.4356816399
20450177300.0 -0.9049518017 -0.4212128958
20500177000.0 -0.9129964884 -0.4071526364
20550176700.0 -0.9207362571 -0.3933099839
20600176400.0 -0.9276443312 -0.3804748425
20650176100.0 -0.9338354104 -0.3677412022
20700175800.0 -0.9410640594 -0.355487251
20750175500.0 -0.947934923 -0.3439560554
20800175200.0 -0.9523784835 -0.332461739
20850174900.0 -0.9576123626 -0.3207622324
20900174600.0 -0.9619735731 -0.3090744617
20950174300.0 -0.9665064191 -0.2976013876
21000174000.0 -0.9700135953 -0.2849342835
21050173700.0 -0.9728911384 -0.2740493691
21100173400.0 -0.9767330244 -0.2621380448
21150173100.0 -0.9813894246 -0.2495206363
21200172800.0 -0.9848454748 -0.2356892122
21250172500.0 -0.9875561935 -0.2219999802
21300172200.0 -0.9906012187 -0.2075481361
21350171900.0 -0.9919084993 -0.1933169397
21400171600.0 -0.9931085829 -0.1788195068
21450171300.0 -0.9943906997 -0.1652845773
21500171000.0 -0.9938547921 -0.1500165585
21550170700.0 -0.9933901264 -0.133643987
21600170400.0 -0.9939753348 -0.1185052037
21650170100.0 -0.9927625256 -0.1022609604
21700169800.0 -0.991065389 -0.0875629167
21750169500.0 -0.9894547406 -0.0722532889
21800169200.0 -0.9881576674 -0.0566579346
21850168900.0 -0.9876027725 -0.0394197248
21900168600.0 -0.986313045 -0.023759112
21950168300.0 -0.984359222 -0.0083188994
22000168000.0 -0.983714002 0.0065578438
22050167700.0 -0.9829157424 0.0209292338
22100167400.0 -0.9827564338 0.0359398736
22150167100.0 -0.9833360741 0.0509329476
22200166800.0 -0.9832349754 0.0667637594
22250166500.0 -0.9833589001 0.0841755996
22300166200.0 -0.9819369037 0.1011861316
22350165900.0 -0.9807232566 0.1171483022
22400165600.0 -0.9782827016 0.1324229
22450165300.0 -0.9770019246 0.1472560672
22500165000.0 -0.9748085846 0.160804529
22550164700.0 -0.9735682777 0.1760123918
22600164400.0 -0.9722988484 0.1920637406
22650164100.0 -0.9697747118 0.2063639957
22700163800.0 -0.9672782695 0.2220602715
22750163500.0 -0.9644585176 0.237275725
22800163200.0 -0.9619595639 0.250994861
22850162900.0 -0.9596271143 0.2648352988
22900162600.0 -0.9583024179 0.2780830804
22950162300.0 -0.9567988454 0.2910256785
23000162000.0 -0.9556279048 0.3029567451
23050161700.0 -0.9536524205 0.3153290183
23100161400.0 -0.9512061549 0.3283850826
23150161100.0 -0.9485522323 0.3402608945
23200160800.0 -0.9456509017 0.3523380108
23250160500.0 -0.9424959175 0.3645486041
23300160200.0 -0.9400684188 0.3761854175
23350159900.0 -0.9367458556 0.3891357748
23400159600.0 -0.9313911072 0.4026994036
23450159300.0 -0.9271171412 0.4155026523
23500159000.0 -0.9226368034 0.4279861887
23550158700.0 -0.9182706449 0.441536943
23600158400.0 -0.9123651891 0.4544676279
23650158100.0 -0.9061418911 0.4678842367
23700157800.0 -0.898844079 0.4817646005
23750157500.0 -0.8902308057 0.495606242
23800157200.0 -0.8811723784 0.5085350269
23850156900.0 -0.8725215069 0.5208836534
23900156600.0 -0.8633124615 0.5335835817
23950156300.0 -0.8543434294 0.54560006
24000156000.0 -0.8453505061 0.5575118508
24050155700.0 -0.8348066747 0.5702522351
24100155400.0 -0.825311764 0.5822118395
24150155100.0 -0.8145676802 0.5937532862
24200154800.0 -0.80379919 0.6048916442
24250154500.0 -0.7923171874 0.616790429
24300154200.0 -0.7812544606 0.6280056818
24350153900.0 -0.7693134033 0.6389562021
24400153600.0 -0.7567455618 0.649538521
24450153300.0 -0.7453796578 0.6595019608
24500153000.0 -0.7336391002 0.6690057316
24550152700.0 -0.7224974705 0.6789244945
24600152400.0 -0.7113687416 0.6887634424
