!Created with skrf (http://scikit-rf.org).
# Hz S RI R 50.0 
!freq ReS11 ImS11
300000.0 -0.9777390647 -0.1146148305
50299700.0 -0.9999545895 0.0156263455
100299400.0 -0.9982177968 0.0287754921
150299100.0 -1.002704834 0.0456931841
200298800.0 -0.9994255434 0.0589010185
250298500.0 -0.9974264272 0.0725487249
300298200.0 -0.9860459426 0.0882438602
350297900.0 -0.9940723926 0.0989896208
400297600.0 -0.9932170417 0.1156047041
450297300.0 -0.9909518573 0.1294226317
500297000.0 -0.9894386517 0.1442583876
550296700.0 -0.9843784224 0.1566759017
600296400.0 -1.017431096 0.1900871234
650296100.0 -0.9822434057 0.1868721555
700295800.0 -0.9791680807 0.2010545902
750295500.0 -0.9763167146 0.2149436863
800295200.0 -0.9730834771 0.2290867083
850294900.0 -0.9695866542 0.2429733953
900294600.0 -0.965673454 0.2567152437
950294300.0 -0.9619189036 0.2702973859
1000294000.0 -0.9579814886 0.2842478674
1050293700.0 -0.9535816992 0.2981788251
1100293400.0 -0.949097678 0.3125365605
1150293100.0 -0.9452906798 0.3245165822
1200292800.0 -0.940008146 0.3387536171
1250292500.0 -0.9345901801 0.3521970726
1300292200.0 -0.9288413582 0.3653550093
1350291900.0 -0.9233614576 0.3794141551
1400291600.0 -0.9178526779 0.39251729
1450291300.0 -0.9122773609 0.4050178628
1500291000.0 -0.9058076314 0.4184051479
1550290700.0 -0.8994825052 0.4315454012
1600290400.0 -0.8935072589 0.4445106059
1650290100.0 -0.8867909036 0.4565400437
1700289800.0 -0.8797055425 0.4699910384
1750289500.0 -0.872795837 0.4825050986
1800289200.0 -0.8653122141 0.4954888658
1850288900.0 -0.8583719567 0.5067042678
1900288600.0 -0.8506208223 0.5197226452
1950288300.0 -0.8427398113 0.5320357089
2000288000.0 -0.8349265852 0.5435529525
2050287700.0 -0.8270784537 0.5557679522
2100287400.0 -0.8189896386 0.5676522259
2150287100.0 -0.810466095 0.5796165119
2200286800.0 -0.8025444104 0.590010521
2250286500.0 -0.7937608945 0.6019695491
2300286200.0 -0.7848718427 0.6136990465
2350285900.0 -0.7760482569 0.6246021436
2400285600.0 -0.7673280018 0.6357117523
2450285300.0 -0.7584904472 0.6458873934
2500285000.0 -0.748868545 0.6572780954
2550284700.0 -0.7397813132 0.6675045155
2600284400.0 -0.730555367 0.6778567165
2650284100.0 -0.7217726986 0.6884083504
2700283800.0 -0.7108533706 0.6988658293
2750283500.0 -0.7004562606 0.7094141581
2800283200.0 -0.6906158798 0.7192498727
2850282900.0 -0.6805290967 0.7291419015
2900282600.0 -0.6699420057 0.7385461396
2950282300.0 -0.6599126279 0.7478452427
3000282000.0 -0.6492186825 0.7573242777
3050281700.0 -0.6380443314 0.7664785724
3100281400.0 -0.626059873 0.7758424558
3150281100.0 -0.6143793756 0.7852846479
3200280800.0 -0.6027912023 0.793734851
3250280500.0 -0.591804049 0.8014577897
3300280200.0 -0.5807853396 0.809339581
3350279900.0 -0.5691420473 0.8167982963
3400279600.0 -0.5570388638 0.8244232778
3450279300.0 -0.5459054999 0.8316866029
3500279000.0 -0.5339289385 0.8387367768
3550278700.0 -0.5214477019 0.845963572
3600278400.0 -0.5091003406 0.8531955683
3650278100.0 -0.495934415 0.8607399253
3700277800.0 -0.483964793 0.8673319543
3750277500.0 -0.4714934052 0.8739107986
3800277200.0 -0.4591712877 0.8803452895
3850276900.0 -0.446883203 0.8861676149
3900276600.0 -0.4360492575 0.8918712001
3950276300.0 -0.4236044647 0.8977679508
4000276000.0 -0.4116652757 0.9039852295
4050275700.0 -0.3986975313 0.9096757875
4100275400.0 -0.3875044663 0.9155484907
4150275100.0 -0.3748528163 0.9210645962
4200274800.0 -0.361987264 0.9264134329
4250274500.0 -0.349897231 0.9316869449
4300274200.0 -0.336578328 0.9367770203
4350273900.0 -0.3226822881 0.9422257201
4400273600.0 -0.308000112 0.947314717
4450273300.0 -0.2926284855 0.9524546783
4500273000.0 -0.2789867651 0.9570357987
4550272700.0 -0.264707349 0.9611847712
4600272400.0 -0.2493322584 0.9651426759
4650272100.0 -0.237514476 0.9684653509
4700271800.0 -0.2241824529 0.9720104292
4750271500.0 -0.2126284802 0.9747094579
4800271200.0 -0.2000911715 0.9774517055
4850270900.0 -0.1861143132 0.9803657054
4900270600.0 -0.1723309962 0.9826558799
4950270300.0 -0.1580266976 0.9852668537
5000270000.0 -0.1438873162 0.9871749939
5050269700.0 -0.1302651871 0.98849745
5100269400.0 -0.1165979019 0.9902225626
5150269100.0 -0.1034578125 0.9921295884
5200268800.0 -0.090131663 0.9930876536
5250268500.0 -0.0768950879 0.9940259275
5300268200.0 -0.0640005699 0.9949224936
5350267900.0 -0.051805185 0.9952592907
5400267600.0 -0.0354335588 0.9964455293
5450267300.0 -0.0225529394 0.9968634561
5500267000.0 -0.0071035621 0.9970872908
5550266700.0 0.0081247095 0.9973057627
5600266400.0 0.023418339 0.9975937949
5650266100.0 0.0398176682 0.9967152764
5700265800.0 0.0545101755 0.9962348485
5750265500.0 0.0699151132 0.9956853075
5800265200.0 0.083403022 0.9941819521
5850264900.0 0.0969453365 0.9935134765
5900264600.0 0.1134935392 0.9915456639
5950264300.0 0.1257540759 0.9904326452
6000264000.0 0.1394777966 0.9880369648
6050263700.0 0.1520313964 0.9866304819
6100263400.0 0.1645021648 0.9848074256
6150263100.0 0.1790009869 0.9824810345
6200262800.0 0.1891738917 0.9806285688
6250262500.0 0.2019055645 0.9780934075
6300262200.0 0.2149953109 0.9756398809
6350261900.0 0.2280069476 0.9725141989
6400261600.0 0.241836769 0.9692157564
6450261300.0 0.2531693124 0.9666403844
6500261000.0 0.2659146642 0.9631472855
6550260700.0 0.2788649291 0.9587936528
6600260400.0 0.2925951208 0.9551706072
6650260100.0 0.3060059508 0.950389889
6700259800.0 0.3180999444 0.9458660775
6750259500.0 0.3321074539 0.9411843113
6800259200.0 0.3449182176 0.9364031113
6850258900.0 0.3570581404 0.9312625378
6900258600.0 0.3692453637 0.9262561309
6950258300.0 0.381665798 0.9208865348
7000258000.0 0.3937349795 0.9153510218
7050257700.0 0.4062177382 0.9093886288
7100257400.0 0.4187513896 0.9030322304
7150257100.0 0.4290310783 0.8977528715
7200256800.0 0.4419939624 0.8915928276
7250256500.0 0.4537149379 0.8851219924
7300256200.0 0.466904895 0.8783517437
7350255900.0 0.4789224226 0.8715187043
7400255600.0 0.4924506864 0.8640178737
7450255300.0 0.5080899816 0.8553056181
7500255000.0 0.5195603811 0.8478230639
7550254700.0 0.5333016326 0.8395763885
7600254400.0 0.5460057479 0.8311372095
7650254100.0 0.5570989495 0.8234643624
7700253800.0 0.5691930316 0.8151944271
7750253500.0 0.5801863695 0.8075184162
7800253200.0 0.5914572928 0.7998977658
7850252900.0 0.6010866119 0.7927929097
7900252600.0 0.6127074185 0.7838852036
7950252300.0 0.6214964804 0.7773569834
8000252000.0 0.6316863312 0.7696616501
8050251700.0 0.6421931476 0.7614991677
8100251400.0 0.6524689119 0.753343151
8150251100.0 0.662775361 0.7444877679
8200250800.0 0.6720863214 0.7367021567
8250250500.0 0.6804882486 0.728955542
8300250200.0 0.6897660879 0.719942351
8350249900.0 0.6988594601 0.7113420345
8400249600.0 0.7069430014 0.7033765188
8450249300.0 0.7163531675 0.6941552113
8500249000.0 0.724743761 0.6853703276
8550248700.0 0.7330557335 0.6762809051
8600248400.0 0.7415718959 0.6668372626
8650248100.0 0.7491881626 0.6572534263
8700247800.0 0.7587856511 0.6461637648
8750247500.0 0.7670602302 0.6360416967
8800247200.0 0.7751987839 0.6257673743
8850246900.0 0.7841333809 0.614389814
8900246600.0 0.7926707443 0.6027229441
8950246300.0 0.8021783148 0.5900322051
9000246000.0 0.8115658979 0.5771063688
9050245700.0 0.8203809362 0.5642024333
9100245400.0 0.829189926 0.551640537
9150245100.0 0.8383360105 0.5378924949
9200244800.0 0.8480732272 0.522462303
9250244500.0 0.8578097945 0.5070212438
9300244200.0 0.8663259774 0.4923131843
9350243900.0 0.8738789144 0.4784142973
9400243600.0 0.8805078848 0.4660573233
9450243300.0 0.8862967787 0.4544879479
9500243000.0 0.8926003958 0.4420623793
9550242700.0 0.8964155215 0.4343434747
9600242400.0 0.9004063523 0.4270153575
9650242100.0 0.9037514946 0.4207057166
9700241800.0 0.9082725638 0.4126191297
9750241500.0 0.9120929427 0.4051018717
9800241200.0 0.9170214552 0.3958225989
9850240900.0 0.9228672066 0.3841272644
9900240600.0 0.928167219 0.3725929019
9950240300.0 0.9349636611 0.3565453233
10000240000.0 0.9391800497 0.3452815144
10050239700.0 0.9453188162 0.3291969194
10100239400.0 0.9501491944 0.3138153047
10150239100.0 0.954422337 0.2990813412
10200238800.0 0.9584767943 0.2844356972
10250238500.0 0.96169355 0.2709610889
10300238200.0 0.9649206124 0.2570778351
10350237900.0 0.967451928 0.2439364808
10400237600.0 0.9701984056 0.2306446084
10450237300.0 0.9728776442 0.2171357362
10500237000.0 0.9749492804 0.2049004884
10550236700.0 0.97746017 0.1909220601
10600236400.0 0.9790792558 0.1777338071
10650236100.0 0.9814439414 0.1629116643
10700235800.0 0.98380244 0.1508018863
10750235500.0 0.9860167609 0.1373000409
10800235200.0 0.9877114312 0.1238370047
10850234900.0 0.9895930847 0.1087115
10900234600.0 0.9917466355 0.0943154357
10950234300.0 0.9935116549 0.0810140477
11000234000.0 0.9952403978 0.0658268047
11050233700.0 0.9970835471 0.0494261682
11100233400.0 0.9987528876 0.0320417333
11150233100.0 0.999546187 0.015925154
11200232800.0 1.000041815 0.0006397405
11250232500.0 1.001552804 -0.0162648945
11300232200.0 1.001642334 -0.0340152154
11350231900.0 1.001616418 -0.049439465
11400231600.0 1.001450325 -0.0670430999
11450231300.0 1.000652897 -0.0809511345
11500231000.0 0.9996566295 -0.0976157352
11550230700.0 0.9986265668 -0.1102797327
11600230400.0 0.9966725419 -0.1237419948
11650230100.0 0.9948358149 -0.1346987247
11700229800.0 0.9925431347 -0.1494792376
11750229500.0 0.9905324686 -0.1643394317
11800229200.0 0.9878390496 -0.1780273411
11850228900.0 0.983954562 -0.1902985512
11900228600.0 0.9807519389 -0.2000228038
11950228300.0 0.9772702876 -0.2106037143
12000228000.0 0.9743693467 -0.2200453382
12050227700.0 0.9710574973 -0.2316853243
12100227400.0 0.9677898545 -0.242805135
12150227100.0 0.9628027037 -0.2600432994
12200226800.0 0.9593533121 -0.2710536736
12250226500.0 0.9546292983 -0.2840419526
12300226200.0 0.9506370498 -0.2956900575
12350225900.0 0.9456472134 -0.309611281
12400225600.0 0.9416747543 -0.3224929001
12450225300.0 0.9374721038 -0.3347048525
12500225000.0 0.9316666242 -0.349996372
12550224700.0 0.926417949 -0.3634388513
12600224400.0 0.9216469886 -0.3761456417
12650224100.0 0.9158962988 -0.3903807085
12700223800.0 0.9106886237 -0.4030042671
12750223500.0 0.9051812679 -0.4160254626
12800223200.0 0.8998736257 -0.4288073756
12850222900.0 0.8945334952 -0.4409068921
12900222600.0 0.8886591259 -0.4533037433
12950222300.0 0.8823605242 -0.4658556891
13000222000.0 0.8764173476 -0.4770455512
13050221700.0 0.8696993256 -0.489728263
13100221400.0 0.8631982378 -0.5019460699
13150221100.0 0.8559648668 -0.5143805391
13200220800.0 0.8490989568 -0.5257911051
13250220500.0 0.8419477794 -0.5379478944
13300220200.0 0.8343362779 -0.5487641171
13350219900.0 0.8260016267 -0.5610237881
13400219600.0 0.81782704 -0.5730323118
13450219300.0 0.8081604996 -0.5867392664
13500219000.0 0.7978859662 -0.6006967355
13550218700.0 0.7877167485 -0.6133803815
13600218400.0 0.7771359552 -0.6260738622
13650218100.0 0.7678294256 -0.6370044988
13700217800.0 0.7570527201 -0.6483203313
13750217500.0 0.7468025712 -0.6606256509
13800217200.0 0.7353080913 -0.672592139
13850216900.0 0.7237110397 -0.6839950304
13900216600.0 0.7145440354 -0.6919597898
13950216300.0 0.7036710853 -0.7028666031
14000216000.0 0.6937143476 -0.7124051988
14050215700.0 0.6838006731 -0.7199196177
14100215400.0 0.6743068583 -0.7293315563
14150215100.0 0.6651404526 -0.7377613459
14200214800.0 0.6558915536 -0.7461438699
14250214500.0 0.6456417615 -0.7555427465
14300214200.0 0.6353469131 -0.7648392876
14350213900.0 0.6243712255 -0.7739973931
14400213600.0 0.6126920475 -0.7840350491
14450213300.0 0.5993591044 -0.7940147496
14500213000.0 0.5861120319 -0.8042620305
14550212700.0 0.5731183067 -0.8134308381
14600212400.0 0.5614125538 -0.8223401851
14650212100.0 0.5480796749 -0.8308396699
14700211800.0 0.5342665017 -0.8407802654
14750211500.0 0.5219263946 -0.8488743276
14800211200.0 0.5096680786 -0.856863375
14850210900.0 0.4976152163 -0.8640208045
14900210600.0 0.4842782543 -0.8721712991
14950210300.0 0.4709198186 -0.8797482598
15000210000.0 0.4582274175 -0.8864617112
15050209700.0 0.4460042198 -0.8924611955
15100209400.0 0.4330282133 -0.898315761
15150209100.0 0.4204343322 -0.9040129094
15200208800.0 0.4077223018 -0.9096055383
15250208500.0 0.3957426821 -0.9141670517
15300208200.0 0.3837018393 -0.9187370034
15350207900.0 0.3706840793 -0.9233254681
15400207600.0 0.3555574571 -0.9285404049
15450207300.0 0.3416307021 -0.9335415248
15500207000.0 0.3263122541 -0.9385756112
15550206700.0 0.3121515712 -0.9434813951
15600206400.0 0.2959622227 -0.9475638522
15650206100.0 0.2806431949 -0.9521491471
15700205800.0 0.2667165074 -0.9557751087
15750205500.0 0.2517038898 -0.9592327775
15800205200.0 0.2375580906 -0.9628247198
15850204900.0 0.2229984406 -0.9659931831
15900204600.0 0.2079848429 -0.9696607155
15950204300.0 0.1940291779 -0.9723872317
16000204000.0 0.1800306764 -0.9752304852
16050203700.0 0.165287639 -0.9783345538
16100203400.0 0.1510636133 -0.9802908399
16150203100.0 0.1361825359 -0.9826488865
16200202800.0 0.1222377042 -0.9843288926
16250202500.0 0.1081723211 -0.9859374955
16300202200.0 0.0921733641 -0.9878759359
16350201900.0 0.0775992494 -0.9892391361
16400201600.0 0.0628372165 -0.9903657208
16450201300.0 0.0474455024 -0.9910767933
16500201000.0 0.0308745121 -0.9920390352
16550200700.0 0.0150771809 -0.992522823
16600200400.0 -0.0009261754 -0.9926648832
16650200100.0 -0.0169484653 -0.992444295
16700199800.0 -0.033368562 -0.9921428715
16750199500.0 -0.0524189868 -0.9916375113
16800199200.0 -0.068120133 -0.990178496
16850198900.0 -0.0831745339 -0.9893918973
16900198600.0 -0.0969003843 -0.9891181408
16950198300.0 -0.1103602164 -0.9878330403
17000198000.0 -0.1232450689 -0.9861438878
17050197700.0 -0.135677429 -0.983980211
17100197400.0 -0.1488465199 -0.981415131
17150197100.0 -0.1611072908 -0.9796462614
17200196800.0 -0.1741599973 -0.977767283
17250196500.0 -0.1871037971 -0.9755274921
17300196200.0 -0.1992857819 -0.9730498523
17350195900.0 -0.2111956377 -0.9706564882
17400195600.0 -0.2233570608 -0.9680898108
17450195300.0 -0.2366291697 -0.9654001097
17500195000.0 -0.2499061325 -0.9620994703
17550194700.0 -0.2638157184 -0.958589008
17600194400.0 -0.2773706466 -0.9543540731
17650194100.0 -0.2913146395 -0.9503154551
17700193800.0 -0.3043336264 -0.9459993144
17750193500.0 -0.318837054 -0.9417119335
17800193200.0 -0.332863758 -0.936594113
17850192900.0 -0.3481199378 -0.9309175807
17900192600.0 -0.3631042817 -0.9245533598
17950192300.0 -0.378770589 -0.9173372368
18000192000.0 -0.3933833298 -0.9103589471
18050191700.0 -0.407084979 -0.9022877279
18100191400.0 -0.4213573867 -0.8946240368
18150191100.0 -0.4363566812 -0.8865000012
18200190800.0 -0.4531758178 -0.8775306198
18250190500.0 -0.4704555877 -0.8678923319
18300190200.0 -0.4856815816 -0.8592574209
18350189900.0 -0.5003760483 -0.8505830357
18400189600.0 -0.5149742602 -0.8420261958
18450189300.0 -0.5284359316 -0.8341161965
18500189000.0 -0.5418533979 -0.8264420805
18550188700.0 -0.5546146017 -0.8187058814
18600188400.0 -0.5663266767 -0.8116561497
18650188100.0 -0.5772244772 -0.8053973458
18700187800.0 -0.5878824641 -0.7987541625
18750187500.0 -0.5987843944 -0.7921817837
18800187200.0 -0.6091554938 -0.7851741687
18850186900.0 -0.6194981324 -0.7782732101
18900186600.0 -0.6297533934 -0.7709329013
18950186300.0 -0.6396629327 -0.7630659194
19000186000.0 -0.646819592 -0.7572977623
19050185700.0 -0.6562630004 -0.7497115027
19100185400.0 -0.6664695996 -0.7418210211
19150185100.0 -0.6764716339 -0.7324665254
19200184800.0 -0.6855607001 -0.724281292
19250184500.0 -0.6961600715 -0.7152869212
19300184200.0 -0.7083776665 -0.7053232699
19350183900.0 -0.7183354541 -0.6961695728
19400183600.0 -0.7286286596 -0.6856305842
19450183300.0 -0.7371849297 -0.6763732876
19500183000.0 -0.7452447455 -0.6655863993
19550182700.0 -0.7550595784 -0.6548292394
19600182400.0 -0.7654071765 -0.6435618397
19650182100.0 -0.776025826 -0.631384955
19700181800.0 -0.7865931926 -0.6178474439
19750181500.0 -0.7972855346 -0.6038875025
19800181200.0 -0.8072224417 -0.589036771
19850180900.0 -0.8169073932 -0.573516656
19900180600.0 -0.8244844966 -0.5589323822
19950180300.0 -0.8339021409 -0.5427644189
20000180000.0 -0.8264184454 -0.5449682196
20050179700.0 -0.8340706195 -0.5313068293
20100179400.0 -0.8433142025 -0.5178025169
20150179100.0 -0.8511960126 -0.5061731632
20200178800.0 -0.8606448398 -0.4935933924
20250178500.0 -0.8704860241 -0.4799634678
20300178200.0 -0.8793768946 -0.4653072354
20350177900.0 -0.8881344159 -0.4500269323
20400177600.0 -0.8969250949 -0.4358255368
20450177300.0 -0.9054938295 -0.4217749998
20500177000.0 -0.9135571905 -0.4077640125
20550176700.0 -0.9211770372 -0.3939547363
20600176400.0 -0.9281725499 -0.3812192322
20650176100.0 -0.9351392943 -0.3685549234
20700175800.0 -0.9420233603 -0.3567745306
20750175500.0 -0.9489457921 -0.344946758
20800175200.0 -0.9526804986 -0.3340638386
20850174900.0 -0.9581747121 -0.3233201215
20900174600.0 -0.9625498079 -0.3108803662
20950174300.0 -0.966841654 -0.2990436151
21000174000.0 -0.9704788349 -0.2881163286
21050173700.0 -0.9729884959 -0.2775516767
21100173400.0 -0.9772687032 -0.2654445489
21150173100.0 -0.9810061379 -0.2529922319
21200172800.0 -0.9846533437 -0.2391000711
21250172500.0 -0.9878806695 -0.2252987559
21300172200.0 -0.9907873255 -0.2113074859
21350171900.0 -0.9922078036 -0.1960703489
21400171600.0 -0.9932242073 -0.1822467228
21450171300.0 -0.9942873987 -0.1675858594
21500171000.0 -0.9932079354 -0.1523561731
21550170700.0 -0.9938741867 -0.1372836239
21600170400.0 -0.9928816636 -0.1206322003
21650170100.0 -0.9918530773 -0.105016451
21700169800.0 -0.9903057286 -0.0896165339
21750169500.0 -0.988889141 -0.0746066851
21800169200.0 -0.9878167857 -0.058301878
21850168900.0 -0.9867628035 -0.0422432037
21900168600.0 -0.9854072679 -0.0259832775
21950168300.0 -0.984191287 -0.0093025088
22000168000.0 -0.9832051436 0.0049045421
22050167700.0 -0.982821966 0.019140665
22100167400.0 -0.982645401 0.0343572898
22150167100.0 -0.983332309 0.0498654198
22200166800.0 -0.9834777022 0.066053089
22250166500.0 -0.9828598508 0.083679232
22300166200.0 -0.9823387404 0.1006404952
22350165900.0 -0.9812375954 0.1163775536
22400165600.0 -0.9797481555 0.1331324724
22450165300.0 -0.9773720552 0.1482058879
22500165000.0 -0.9752451258 0.1605690043
22550164700.0 -0.9739242261 0.1762177349
22600164400.0 -0.9724698517 0.1917444832
22650164100.0 -0.9712903918 0.2065024247
22700163800.0 -0.9675934841 0.2229484915
22750163500.0 -0.9656668003 0.2377278045
22800163200.0 -0.9626852159 0.2508784344
22850162900.0 -0.9604252018 0.2646754036
22900162600.0 -0.9587303125 0.277932358
22950162300.0 -0.9576683927 0.2903789024
23000162000.0 -0.9566735383 0.3024393238
23050161700.0 -0.9547735245 0.3150325591
23100161400.0 -0.952549966 0.3278158052
23150161100.0 -0.9497975885 0.3393961944
23200160800.0 -0.9469009855 0.3529066056
23250160500.0 -0.9439306783 0.3640528156
23300160200.0 -0.9417870657 0.3755007673
23350159900.0 -0.9382374242 0.3891727412
23400159600.0 -0.9334355956 0.4023880509
23450159300.0 -0.9284374531 0.4153244562
23500159000.0 -0.9239400909 0.4282101403
23550158700.0 -0.9192052876 0.4415168951
23600158400.0 -0.9139302793 0.4548429135
23650158100.0 -0.9075295951 0.4687745181
23700157800.0 -0.9001836735 0.4825595833
23750157500.0 -0.8911911467 0.4967602134
23800157200.0 -0.8829978861 0.5094153017
23850156900.0 -0.8737773044 0.5224182535
23900156600.0 -0.8645313922 0.534885033
23950156300.0 -0.8546505537 0.5475680552
24000156000.0 -0.8460303677 0.5593470997
24050155700.0 -0.8363967536 0.5712899789
24100155400.0 -0.8258559987 0.5830711055
24150155100.0 -0.8155606254 0.5946274611
24200154800.0 -0.8041983552 0.6061222339
24250154500.0 -0.7926376204 0.6181083416
24300154200.0 -0.7814272753 0.6296464705
24350153900.0 -0.7694626351 0.640036555
24400153600.0 -0.7571962535 0.6501545891
24450153300.0 -0.7455261219 0.6601601728
24500153000.0 -0.7338858728 0.6696346497
24550152700.0 -0.7224680743 0.678946387
24600152400.0 -0.7111576099 0.6884144648
24650152100.0 -0.6995025875 0.697650084
