!Created with skrf (http://scikit-rf.org).
# Hz S RI R 50.0 
!freq ReS11 ImS11
300000.0 -0.9726943972 -0.1221536783
50299700.0 -0.9999423923 0.0148838541
100299400.0 -0.9980002417 0.0279521761
150299100.0 -1.002627544 0.044744108
200298800.0 -0.9996300388 0.0581417145
250298500.0 -0.997339842 0.0716823413
300298200.0 -0.9858029046 0.0875200518
350297900.0 -0.9939134299 0.0983257908
400297600.0 -0.993132377 0.1150024049
450297300.0 -0.9909181479 0.1285302157
500297000.0 -0.9894845587 0.1433194314
550296700.0 -0.9841306603 0.1558144326
600296400.0 -1.017305425 0.1890839795
650296100.0 -0.9821662127 0.1855964051
700295800.0 -0.9793615367 0.1999771191
750295500.0 -0.9764465428 0.214049629
800295200.0 -0.9729039521 0.2281190272
850294900.0 -0.9696583863 0.2418945343
900294600.0 -0.9657928579 0.2555196107
950294300.0 -0.9621373127 0.2692749231
1000294000.0 -0.9582819902 0.2832536942
1050293700.0 -0.9535320116 0.2971058826
1100293400.0 -0.9492472749 0.3115763
1150293100.0 -0.9453607569 0.3233763344
1200292800.0 -0.9400132501 0.3377680174
1250292500.0 -0.9344775917 0.3512696909
1300292200.0 -0.9289689895 0.3644198809
1350291900.0 -0.9235564375 0.3783286949
1400291600.0 -0.9180182733 0.3915221576
1450291300.0 -0.9123702833 0.4038613097
1500291000.0 -0.9062867781 0.4171794524
1550290700.0 -0.8996923488 0.430763115
1600290400.0 -0.8933785939 0.4435002803
1650290100.0 -0.8867675845 0.4557892759
1700289800.0 -0.8798722745 0.4692547969
1750289500.0 -0.8727862532 0.4813195523
1800289200.0 -0.8654383857 0.4945057222
1850288900.0 -0.8588597769 0.5059191999
1900288600.0 -0.8511368814 0.5186858052
1950288300.0 -0.8430190106 0.5315103602
2000288000.0 -0.8353760525 0.542807496
2050287700.0 -0.82708817 0.5553445051
2100287400.0 -0.8193709291 0.5663980867
2150287100.0 -0.8108727203 0.5786352547
2200286800.0 -0.8028106734 0.5893989353
2250286500.0 -0.7941381192 0.6013972287
2300286200.0 -0.785151529 0.612906616
2350285900.0 -0.7767887284 0.6235046411
2400285600.0 -0.7679387117 0.6343478457
2450285300.0 -0.7591020551 0.6450717235
2500285000.0 -0.7490353265 0.6568118917
2550284700.0 -0.7399808695 0.6669613279
2600284400.0 -0.7309005244 0.6771121405
2650284100.0 -0.7223700635 0.6871234559
2700283800.0 -0.7118031138 0.6975314664
2750283500.0 -0.7017145296 0.7083260791
2800283200.0 -0.6915567021 0.7181943205
2850282900.0 -0.6811597376 0.7280893319
2900282600.0 -0.6707375319 0.7378960873
2950282300.0 -0.6602265427 0.7473077158
3000282000.0 -0.6495606331 0.75666325
3050281700.0 -0.638439512 0.7659743273
3100281400.0 -0.6267657825 0.7750392143
3150281100.0 -0.6155815879 0.7839944133
3200280800.0 -0.6041776033 0.7924927733
3250280500.0 -0.5930206503 0.8001195611
3300280200.0 -0.5814440112 0.8086207508
3350279900.0 -0.5691868426 0.8165913615
3400279600.0 -0.5566416393 0.8245729807
3450279300.0 -0.5455182528 0.8317646223
3500279000.0 -0.5337766746 0.838572884
3550278700.0 -0.5215885103 0.8455907412
3600278400.0 -0.5098104371 0.8524159229
3650278100.0 -0.496603332 0.8598713397
3700277800.0 -0.4845133409 0.866372262
3750277500.0 -0.4722577331 0.8731077885
3800277200.0 -0.4597165292 0.879922927
3850276900.0 -0.447633568 0.8856506051
3900276600.0 -0.4366908841 0.8915046329
3950276300.0 -0.4248203424 0.8970722385
4000276000.0 -0.4129982661 0.90306807
4050275700.0 -0.4002163945 0.9090030863
4100275400.0 -0.3895075311 0.9146253446
4150275100.0 -0.3758343835 0.9207309592
4200274800.0 -0.3625425422 0.9260497985
4250274500.0 -0.3500788054 0.9312707106
4300274200.0 -0.3367158667 0.9369369545
4350273900.0 -0.3226684336 0.9421509494
4400273600.0 -0.307694404 0.9473156362
4450273300.0 -0.2926944963 0.9523254979
4500273000.0 -0.2797725248 0.9564443979
4550272700.0 -0.2659799285 0.9606061068
4600272400.0 -0.2509047948 0.9646098952
4650272100.0 -0.239434548 0.9677753243
4700271800.0 -0.2265593177 0.9711646483
4750271500.0 -0.2149382964 0.9739502577
4800271200.0 -0.2027118417 0.9768048828
4850270900.0 -0.189018724 0.9795901903
4900270600.0 -0.1751896136 0.9819867628
4950270300.0 -0.1606612711 0.9847200318
5000270000.0 -0.1460558817 0.9865270602
5050269700.0 -0.1327397247 0.9881531597
5100269400.0 -0.1186340397 0.9900604122
5150269100.0 -0.1046735436 0.9917697423
5200268800.0 -0.0912176773 0.992611761
5250268500.0 -0.0781889139 0.993770254
5300268200.0 -0.064700647 0.9944614244
5350267900.0 -0.0520130351 0.9951066428
5400267600.0 -0.035697315 0.9962877228
5450267300.0 -0.0221091884 0.9966456176
5500267000.0 -0.0067461312 0.9969545161
5550266700.0 0.0079918833 0.997096066
5600266400.0 0.0239338998 0.9971485331
5650266100.0 0.0406030649 0.9968377621
5700265800.0 0.0546555936 0.9960545683
5750265500.0 0.06965861 0.995108766
5800265200.0 0.0831952163 0.9941169632
5850264900.0 0.0968804499 0.9933565185
5900264600.0 0.1131128241 0.9912544647
5950264300.0 0.1244215403 0.9898500812
6000264000.0 0.1378956852 0.9874674914
6050263700.0 0.1498178514 0.9867860153
6100263400.0 0.1620938064 0.9850802787
6150263100.0 0.1764216215 0.9825710439
6200262800.0 0.1863395067 0.9810995622
6250262500.0 0.1986754079 0.9787019455
6300262200.0 0.2112011971 0.9761778709
6350261900.0 0.2237646135 0.9735127043
6400261600.0 0.2377006538 0.97008655
6450261300.0 0.2490207271 0.9678457308
6500261000.0 0.2622937482 0.9640372519
6550260700.0 0.2754452919 0.9600213673
6600260400.0 0.2886137541 0.9559337772
6650260100.0 0.3026373192 0.9512387804
6700259800.0 0.3149606115 0.9473380246
6750259500.0 0.3287889042 0.9422317805
6800259200.0 0.3423861548 0.9373435431
6850258900.0 0.3545628277 0.9320857339
6900258600.0 0.3672105881 0.926801715
6950258300.0 0.3797113779 0.9215958946
7000258000.0 0.3913940672 0.9163740931
7050257700.0 0.4032629072 0.9104008034
7100257400.0 0.4166033072 0.9040447641
7150257100.0 0.4272465166 0.8985934111
7200256800.0 0.4405183925 0.8922753682
7250256500.0 0.4530396347 0.8853627337
7300256200.0 0.4661863587 0.8788093159
7350255900.0 0.4787544581 0.8718234918
7400255600.0 0.492536497 0.864034235
7450255300.0 0.5084023158 0.854952252
7500255000.0 0.5209431641 0.84754034
7550254700.0 0.5351806063 0.838071248
7600254400.0 0.5477142998 0.8300735237
7650254100.0 0.5592648419 0.8221119213
7700253800.0 0.5711098072 0.8142196147
7750253500.0 0.5817530467 0.8063654142
7800253200.0 0.5924896332 0.798633023
7850252900.0 0.6022237317 0.7912444831
7900252600.0 0.6137682922 0.7826352467
7950252300.0 0.6223199107 0.7762709363
8000252000.0 0.632131489 0.768658857
8050251700.0 0.6424694904 0.7607000895
8100251400.0 0.6526035813 0.7527792336
8150251100.0 0.662342743 0.74412089
8200250800.0 0.6721925217 0.7361117516
8250250500.0 0.6807344805 0.7280053544
8300250200.0 0.6894932518 0.7197544461
8350249900.0 0.6989342972 0.7109623782
8400249600.0 0.7073642144 0.7029457867
8450249300.0 0.7158884803 0.6939850247
8500249000.0 0.7244480353 0.6851661187
8550248700.0 0.7327730619 0.6763769103
8600248400.0 0.7412689821 0.666724383
8650248100.0 0.748634893 0.6575789679
8700247800.0 0.7581202407 0.6464591677
8750247500.0 0.7663785493 0.6362018191
8800247200.0 0.7741206165 0.6259513666
8850246900.0 0.7832427515 0.6146380104
8900246600.0 0.7914237156 0.6031258965
8950246300.0 0.8007169692 0.5905057459
9000246000.0 0.8090726 0.5785163034
9050245700.0 0.8177101372 0.5660823709
9100245400.0 0.8261782106 0.5537856295
9150245100.0 0.834828104 0.5409993882
9200244800.0 0.8442231644 0.5266490179
9250244500.0 0.8537188641 0.511711133
9300244200.0 0.861464486 0.4984607906
9350243900.0 0.8695066456 0.4849236328
9400243600.0 0.8757486941 0.4731912846
9450243300.0 0.8813497003 0.4627109933
9500243000.0 0.8876787885 0.4510348649
9550242700.0 0.8916298552 0.4435269988
9600242400.0 0.8959724497 0.4361816999
9650242100.0 0.8999401698 0.4290426442
9700241800.0 0.9049812627 0.4204909966
9750241500.0 0.9090682442 0.4131444488
9800241200.0 0.9142715223 0.4034560947
9850240900.0 0.9202975092 0.3917491586
9900240600.0 0.9258754852 0.3800246134
9950240300.0 0.9331034399 0.3630772328
10000240000.0 0.9381698561 0.3506446159
10050239700.0 0.9442691396 0.3349642409
10100239400.0 0.9492835689 0.3187350636
10150239100.0 0.9540280372 0.3032219112
10200238800.0 0.9584384446 0.2876613628
10250238500.0 0.9615691323 0.2740747209
10300238200.0 0.9647552201 0.2601407631
10350237900.0 0.9674019601 0.2469055839
10400237600.0 0.9701157062 0.233231835
10450237300.0 0.9729863105 0.2195989858
10500237000.0 0.9752140737 0.2072325053
10550236700.0 0.9773581567 0.1925629382
10600236400.0 0.979575271 0.1787678523
10650236100.0 0.9813994505 0.1648508909
10700235800.0 0.9836836829 0.1522962493
10750235500.0 0.9860790625 0.1384651596
10800235200.0 0.9880947796 0.1242865698
10850234900.0 0.9898240557 0.1096304979
10900234600.0 0.9922678782 0.0946008121
10950234300.0 0.9936232993 0.0811777763
11000234000.0 0.9954693341 0.0655194605
11050233700.0 0.9973340028 0.0488120567
11100233400.0 0.9988223472 0.0312198202
11150233100.0 1.00020381 0.0143661136
11200232800.0 1.000861969 -0.0017154323
11250232500.0 1.002391341 -0.0197489831
11300232200.0 1.001950752 -0.036939789
11350231900.0 1.001983949 -0.0538722963
11400231600.0 1.001429164 -0.0696555928
11450231300.0 1.000989748 -0.085322509
11500231000.0 0.9995412626 -0.1012677094
11550230700.0 0.9986480277 -0.1151192382
11600230400.0 0.9968800594 -0.1279733269
11650230100.0 0.9944336825 -0.1397653485
11700229800.0 0.9922703917 -0.1546732837
11750229500.0 0.9900956622 -0.1687821015
11800229200.0 0.9874216508 -0.1819370973
11850228900.0 0.9834594376 -0.1936658054
11900228600.0 0.9798947265 -0.2031411693
11950228300.0 0.9763015267 -0.2135870667
12000228000.0 0.9736202378 -0.222106407
12050227700.0 0.9697636557 -0.2344510658
12100227400.0 0.9666773629 -0.2454963939
12150227100.0 0.9618223726 -0.2624931394
12200226800.0 0.9581009935 -0.2732662066
12250226500.0 0.9541261535 -0.2865433018
12300226200.0 0.949570147 -0.2981711537
12350225900.0 0.9447594539 -0.3124598413
12400225600.0 0.9408645612 -0.3239760754
12450225300.0 0.9360366063 -0.3371227403
12500225000.0 0.9304948716 -0.351794694
12550224700.0 0.9247417337 -0.3654720749
12600224400.0 0.9198829137 -0.3783943469
12650224100.0 0.9140906598 -0.3926814196
12700223800.0 0.9088063766 -0.4054463859
12750223500.0 0.9033818688 -0.4185636347
12800223200.0 0.8980707901 -0.431204081
12850222900.0 0.8927266501 -0.443560186
12900222600.0 0.8869742505 -0.4552555952
12950222300.0 0.8806516244 -0.4680477798
13000222000.0 0.8749701495 -0.4799127761
13050221700.0 0.8681497914 -0.4924813455
13100221400.0 0.8614133942 -0.5045411318
13150221100.0 0.8546085972 -0.5164869479
13200220800.0 0.8474947858 -0.5282082574
13250220500.0 0.8402510243 -0.5404210429
13300220200.0 0.8328264149 -0.5513330034
13350219900.0 0.8247384585 -0.5634479918
13400219600.0 0.81629107 -0.5751563324
13450219300.0 0.807142497 -0.5879500068
13500219000.0 0.7972940789 -0.6013764407
13550218700.0 0.7870762344 -0.6139704924
13600218400.0 0.7774396615 -0.6256147235
13650218100.0 0.7675923911 -0.6365293398
13700217800.0 0.7566459746 -0.6479341972
13750217500.0 0.7468276857 -0.6587580406
13800217200.0 0.7364979604 -0.6699928491
13850216900.0 0.7250880676 -0.6818082868
13900216600.0 0.7165638065 -0.689747645
13950216300.0 0.7051110099 -0.7002288765
14000216000.0 0.6955234156 -0.7090088181
14050215700.0 0.6865029135 -0.7177608647
14100215400.0 0.6763792747 -0.7265747477
14150215100.0 0.6672140735 -0.7351465849
14200214800.0 0.657663659 -0.744115806
14250214500.0 0.6474110199 -0.7535629629
14300214200.0 0.6368661617 -0.7631259775
14350213900.0 0.6258275394 -0.7725207888
14400213600.0 0.6139629917 -0.7823672362
14450213300.0 0.6014807778 -0.7926008106
14500213000.0 0.588097184 -0.802439156
14550212700.0 0.5758079459 -0.8120289249
14600212400.0 0.5632459371 -0.8201965343
14650212100.0 0.5505618133 -0.8295331226
14700211800.0 0.5366189972 -0.8388560059
14750211500.0 0.5246450466 -0.8471956794
14800211200.0 0.5120895388 -0.855683283
14850210900.0 0.499888469 -0.863236629
14900210600.0 0.4866207359 -0.8710017126
14950210300.0 0.4730213992 -0.8787517252
15000210000.0 0.4605262286 -0.8854701891
15050209700.0 0.447990439 -0.8915413372
15100209400.0 0.4354212272 -0.8977479213
15150209100.0 0.422532761 -0.9026424385
15200208800.0 0.4109156158 -0.9082189099
15250208500.0 0.3992831538 -0.9128162882
15300208200.0 0.3869286085 -0.9174948899
15350207900.0 0.3741380069 -0.9225521907
15400207600.0 0.3589793023 -0.9276592572
15450207300.0 0.344612066 -0.9326623163
15500207000.0 0.3305625966 -0.9370852046
15550206700.0 0.3156804033 -0.9418966912
15600206400.0 0.299173821 -0.9467513709
15650206100.0 0.2838283556 -0.9511414792
15700205800.0 0.2699835959 -0.9548023677
15750205500.0 0.2559522089 -0.9579249612
15800205200.0 0.2419895761 -0.9612859006
15850204900.0 0.2277968511 -0.9647370433
15900204600.0 0.2127500848 -0.9683320769
15950204300.0 0.1983583654 -0.9713500382
16000204000.0 0.1841696017 -0.9744889641
16050203700.0 0.1691285996 -0.9777371362
16100203400.0 0.1539903324 -0.9795637836
16150203100.0 0.1393602043 -0.9818688812
16200202800.0 0.124819092 -0.9840289612
16250202500.0 0.1096819969 -0.9859564364
16300202200.0 0.094766599 -0.9879566333
16350201900.0 0.0796045495 -0.9893573161
16400201600.0 0.0648430569 -0.9903781905
16450201300.0 0.0496229359 -0.9912012184
16500201000.0 0.0323670919 -0.9920262121
16550200700.0 0.016428273 -0.9925223683
16600200400.0 0.000276977 -0.9925471175
16650200100.0 -0.0159372412 -0.9924888835
16700199800.0 -0.0320632274 -0.9921300831
16750199500.0 -0.0508648966 -0.9918891306
16800199200.0 -0.0669989561 -0.9903529296
16850198900.0 -0.0824328866 -0.9888110928
16900198600.0 -0.0970391453 -0.9883379711
16950198300.0 -0.110335172 -0.9869733746
17000198000.0 -0.1239881955 -0.9854661561
17050197700.0 -0.1363744502 -0.9839540963
17100197400.0 -0.1494499247 -0.9822561896
17150197100.0 -0.161898031 -0.9800994398
17200196800.0 -0.1744790156 -0.9776777186
17250196500.0 -0.1873332248 -0.9751115267
17300196200.0 -0.1995482122 -0.9730785865
17350195900.0 -0.2114605501 -0.9705854068
17400195600.0 -0.2234221921 -0.9680038377
17450195300.0 -0.236336539 -0.9652308255
17500195000.0 -0.2494232008 -0.9619829431
17550194700.0 -0.2631638135 -0.9584854593
17600194400.0 -0.2768978237 -0.954636056
17650194100.0 -0.2903763394 -0.9507882036
17700193800.0 -0.3034466114 -0.9464904387
17750193500.0 -0.3177554938 -0.9418951117
17800193200.0 -0.3321536609 -0.9365347805
17850192900.0 -0.3469370712 -0.9309688438
17900192600.0 -0.3621819323 -0.9248316171
17950192300.0 -0.3773085109 -0.9177385714
18000192000.0 -0.3923374324 -0.9106261121
18050191700.0 -0.4062630128 -0.9026448454
18100191400.0 -0.4203145155 -0.8949415394
18150191100.0 -0.4350009366 -0.8870405824
18200190800.0 -0.4518836959 -0.8777832642
18250190500.0 -0.468752388 -0.8682036427
18300190200.0 -0.4842777858 -0.8597070059
18350189900.0 -0.4993533286 -0.850784597
18400189600.0 -0.5139473911 -0.8428066961
18450189300.0 -0.5276785203 -0.8346537178
18500189000.0 -0.5408807137 -0.8265196776
18550188700.0 -0.5537684357 -0.8186750053
18600188400.0 -0.5657119882 -0.8121380713
18650188100.0 -0.5769551307 -0.8054939329
18700187800.0 -0.5879208072 -0.7987272797
18750187500.0 -0.5986401158 -0.7924031389
18800187200.0 -0.6092807974 -0.784988619
18850186900.0 -0.6195487541 -0.7782375698
18900186600.0 -0.6299913807 -0.7708527623
18950186300.0 -0.6400833379 -0.7628808488
19000186000.0 -0.6473960747 -0.756883875
19050185700.0 -0.6571562616 -0.7497751184
19100185400.0 -0.6671997457 -0.7415963991
19150185100.0 -0.6768771907 -0.7334365891
19200184800.0 -0.6870974226 -0.724708723
19250184500.0 -0.6963532772 -0.7158398848
19300184200.0 -0.7084297474 -0.7061479304
19350183900.0 -0.7196740376 -0.696561679
19400183600.0 -0.7285624601 -0.687094678
19450183300.0 -0.7371479725 -0.6762564582
19500183000.0 -0.7453388974 -0.6667655015
19550182700.0 -0.7557526594 -0.6553783669
19600182400.0 -0.7653483267 -0.644256608
19650182100.0 -0.7761908029 -0.6315338627
19700181800.0 -0.7869273444 -0.6183236166
19750181500.0 -0.7972247532 -0.6044939255
19800181200.0 -0.8070842005 -0.5894459973
19850180900.0 -0.8168646847 -0.574095435
19900180600.0 -0.824451373 -0.5597500419
19950180300.0 -0.8334454526 -0.5432249047
20000180000.0 -0.8227309227 -0.5473266906
20050179700.0 -0.8313052891 -0.5344983354
20100179400.0 -0.8397854735 -0.5208373362
20150179100.0 -0.8470497702 -0.5100718181
20200178800.0 -0.856345504 -0.4973515147
20250178500.0 -0.8657442743 -0.4850337182
20300178200.0 -0.8757323409 -0.4716949274
20350177900.0 -0.8850115658 -0.4574023856
20400177600.0 -0.893531069 -0.4430970981
20450177300.0 -0.9021471305 -0.4290131126
20500177000.0 -0.9104039375 -0.4149606509
20550176700.0 -0.9179552843 -0.4012140533
20600176400.0 -0.9250358925 -0.3888117228
20650176100.0 -0.9322934297 -0.375762558
20700175800.0 -0.9386804138 -0.363872107
20750175500.0 -0.944785499 -0.3526274651
20800175200.0 -0.9498238403 -0.341730703
20850174900.0 -0.9535938199 -0.3314864899
20900174600.0 -0.9581004337 -0.3202153718
20950174300.0 -0.9616865018 -0.3096227869
21000174000.0 -0.9644788217 -0.2990614152
21050173700.0 -0.9660764155 -0.2887873029
21100173400.0 -0.9698668874 -0.2779378604
21150173100.0 -0.9735852406 -0.2662680086
21200172800.0 -0.9773127907 -0.2529500918
21250172500.0 -0.9809346876 -0.2391085601
21300172200.0 -0.9847404704 -0.2249759714
21350171900.0 -0.9863304544 -0.2108079046
21400171600.0 -0.9887443311 -0.1964382242
21450171300.0 -0.9889241046 -0.1827859085
21500171000.0 -0.9894035569 -0.1671433838
21550170700.0 -0.9898443032 -0.1527178628
21600170400.0 -0.989684783 -0.1366442142
21650170100.0 -0.9909161072 -0.121141625
21700169800.0 -0.990769307 -0.1053401629
21750169500.0 -0.9901490235 -0.0896436992
21800169200.0 -0.989612014 -0.0730947341
21850168900.0 -0.9895674456 -0.0568887225
21900168600.0 -0.9892067785 -0.0404165741
21950168300.0 -0.9885670234 -0.0245691861
22000168000.0 -0.9887563682 -0.010077582
22050167700.0 -0.9893560966 0.0052796669
22100167400.0 -0.9898859953 0.0206202161
22150167100.0 -0.9908083453 0.0366620616
22200166800.0 -0.9914777138 0.0530260457
22250166500.0 -0.9908092945 0.0704860704
22300166200.0 -0.9902113134 0.0870253082
22350165900.0 -0.9895522929 0.1032300466
22400165600.0 -0.9874904274 0.1192406612
22450165300.0 -0.9855341974 0.1342372287
22500165000.0 -0.9845840828 0.1488143983
22550164700.0 -0.9822888225 0.1649515489
22600164400.0 -0.9810042868 0.1807030827
22650164100.0 -0.9788787176 0.1952778632
22700163800.0 -0.9749424306 0.2127674486
22750163500.0 -0.9714451111 0.227119305
22800163200.0 -0.9684814471 0.2402610165
22850162900.0 -0.9661522137 0.253356811
22900162600.0 -0.9643135583 0.2673479925
22950162300.0 -0.9627878564 0.2812529273
23000162000.0 -0.9611850798 0.2936097362
23050161700.0 -0.9582515009 0.3074005426
23100161400.0 -0.9559505064 0.3207628515
23150161100.0 -0.9525356429 0.3330567165
23200160800.0 -0.9491667169 0.346124045
23250160500.0 -0.9471495706 0.3585285494
23300160200.0 -0.9433113426 0.371237821
23350159900.0 -0.9403570474 0.3847037933
23400159600.0 -0.934879285 0.3988742829
23450159300.0 -0.9301222805 0.4122838919
23500159000.0 -0.9249876918 0.4257123516
23550158700.0 -0.9202404235 0.4402554957
23600158400.0 -0.9139712095 0.4541880592
23650158100.0 -0.907013208 0.468581071
23700157800.0 -0.8985189929 0.4829720721
23750157500.0 -0.8889996806 0.4969744069
23800157200.0 -0.8792887872 0.5107649264
23850156900.0 -0.8698545036 0.5236850082
23900156600.0 -0.8602053977 0.5362465865
23950156300.0 -0.8505003332 0.5485552108
24000156000.0 -0.8406978044 0.56097154
24050155700.0 -0.8301180832 0.572207466
24100155400.0 -0.8200432127 0.5861460631
24150155100.0 -0.8085352115 0.5980605754
24200154800.0 -0.797327718 0.6099706277
24250154500.0 -0.786006403 0.622356919
24300154200.0 -0.7752913117 0.6339795141
24350153900.0 -0.7627342943 0.6452226956
24400153600.0 -0.7503448307 0.655946577
24450153300.0 -0.7381144129 0.6659231806
24500153000.0 -0.7264701507 0.6761057041
24550152700.0 -0.7152703899 0.6865485735
24600152400.0 -0.7033319437 0.6946241745
24650152100.0 -0.6912438155 0.7033930793
