!Created with skrf (http://scikit-rf.org).
# Hz S RI R 50.0 
!freq ReS11 ImS11
300000.0 -0.9744506197 -0.1209722297
50299700.0 -1.000033232 0.0150913543
100299400.0 -0.9980104775 0.0279310624
150299100.0 -1.002625142 0.0448847286
200298800.0 -0.9994707465 0.0582972984
250298500.0 -0.9972993527 0.0716294712
300298200.0 -0.9858432382 0.0876025328
350297900.0 -0.9939681728 0.0984449062
400297600.0 -0.9929257315 0.1149374373
450297300.0 -0.9908981074 0.1286403338
500297000.0 -0.9894288006 0.1435316656
550296700.0 -0.9843727781 0.1555946792
600296400.0 -1.017135104 0.1892929998
650296100.0 -0.9821159898 0.1859243718
700295800.0 -0.979391001 0.1999789099
750295500.0 -0.9761569144 0.2139598731
800295200.0 -0.9729073461 0.2281017063
850294900.0 -0.9697006067 0.2420375436
900294600.0 -0.9658036532 0.2555018869
950294300.0 -0.9620757259 0.2692249922
1000294000.0 -0.9580972896 0.2832579369
1050293700.0 -0.953441703 0.2971687494
1100293400.0 -0.9492053772 0.3116480037
1150293100.0 -0.9452714878 0.3236247709
1200292800.0 -0.9402486257 0.3377749197
1250292500.0 -0.9345806836 0.3511625431
1300292200.0 -0.9289860519 0.3643413189
1350291900.0 -0.9234525661 0.3783894163
1400291600.0 -0.9180074043 0.3915316731
1450291300.0 -0.9125012662 0.4039677056
1500291000.0 -0.9061935893 0.4173803769
1550290700.0 -0.8995740723 0.4308245634
1600290400.0 -0.8932792136 0.4436992416
1650290100.0 -0.8868498232 0.4558787235
1700289800.0 -0.8799526098 0.4691431375
1750289500.0 -0.872790797 0.4814153769
1800289200.0 -0.8657204918 0.4944858973
1850288900.0 -0.8588622064 0.5058594357
1900288600.0 -0.851098914 0.518768756
1950288300.0 -0.8429267555 0.5314183953
2000288000.0 -0.8354488548 0.5429517207
2050287700.0 -0.8274011907 0.5554497012
2100287400.0 -0.8193967998 0.5664680889
2150287100.0 -0.810795247 0.578802983
2200286800.0 -0.8029724132 0.589360079
2250286500.0 -0.7939979244 0.6013083019
2300286200.0 -0.7853210747 0.6128862053
2350285900.0 -0.7767125966 0.6233148565
2400285600.0 -0.7680890312 0.6345218683
2450285300.0 -0.7589149413 0.6451743707
2500285000.0 -0.7490327531 0.6566414489
2550284700.0 -0.7400812605 0.6670311125
2600284400.0 -0.7310072472 0.676828005
2650284100.0 -0.7222721788 0.6871582023
2700283800.0 -0.71184924 0.697795999
2750283500.0 -0.7011805384 0.708147063
2800283200.0 -0.6915496729 0.7184024378
2850282900.0 -0.6810433521 0.7281504841
2900282600.0 -0.6706004968 0.7377922298
2950282300.0 -0.6600609957 0.7472751322
3000282000.0 -0.6495425782 0.7566014624
3050281700.0 -0.6382687816 0.7660771125
3100281400.0 -0.6267576929 0.7750539012
3150281100.0 -0.6154871662 0.7840729606
3200280800.0 -0.6039948482 0.7923597793
3250280500.0 -0.5928932522 0.800240141
3300280200.0 -0.5813641536 0.8083658494
3350279900.0 -0.5691536974 0.8165279407
3400279600.0 -0.5567470752 0.8244714811
3450279300.0 -0.5454985849 0.8313798286
3500279000.0 -0.5337179938 0.8384418612
3550278700.0 -0.5216778148 0.8456870586
3600278400.0 -0.5096517596 0.8523797392
3650278100.0 -0.4967642273 0.8600224914
3700277800.0 -0.4846076075 0.8664632621
3750277500.0 -0.4722933612 0.8731681238
3800277200.0 -0.4598685355 0.8795121411
3850276900.0 -0.4479192227 0.885829654
3900276600.0 -0.4367475263 0.8914268298
3950276300.0 -0.4247576969 0.8971050951
4000276000.0 -0.4131597548 0.9030512476
4050275700.0 -0.4006162705 0.9093121998
4100275400.0 -0.3890038214 0.9145431552
4150275100.0 -0.3758956029 0.920568881
4200274800.0 -0.3626553131 0.9259181501
4250274500.0 -0.3499658617 0.9314838652
4300274200.0 -0.3368435362 0.9367990061
4350273900.0 -0.3224044472 0.942072698
4400273600.0 -0.3077731863 0.9473793762
4450273300.0 -0.2926905014 0.9522852469
4500273000.0 -0.2796732462 0.9564269183
4550272700.0 -0.2659338479 0.9605895249
4600272400.0 -0.2508936831 0.9646480161
4650272100.0 -0.2395963316 0.9679384785
4700271800.0 -0.2265755739 0.97115412
4750271500.0 -0.2148421291 0.9739936255
4800271200.0 -0.2027482304 0.9767804377
4850270900.0 -0.188937969 0.9794359408
4900270600.0 -0.1749757972 0.9818771816
4950270300.0 -0.1605470155 0.9847032256
5000270000.0 -0.1461575237 0.9865801043
5050269700.0 -0.132552687 0.988318329
5100269400.0 -0.1183497516 0.9897763961
5150269100.0 -0.104518742 0.9917640915
5200268800.0 -0.091173543 0.9929746356
5250268500.0 -0.0779525817 0.993693557
5300268200.0 -0.064331116 0.9942726597
5350267900.0 -0.0517436982 0.9951937862
5400267600.0 -0.0356353778 0.9965616876
5450267300.0 -0.0222794813 0.9965759174
5500267000.0 -0.007001001 0.9968782448
5550266700.0 0.0079600311 0.9971175943
5600266400.0 0.0238064529 0.9971940573
5650266100.0 0.040527229 0.9968847531
5700265800.0 0.0549108654 0.9962343223
5750265500.0 0.0695970913 0.9952717338
5800265200.0 0.0833850942 0.9940898022
5850264900.0 0.0965271839 0.9929695046
5900264600.0 0.1129037173 0.9911190338
5950264300.0 0.1245976641 0.9897807562
6000264000.0 0.1379029312 0.9882394572
6050263700.0 0.1499056443 0.9868367385
6100263400.0 0.1620119916 0.9850229433
6150263100.0 0.1764676571 0.9825310011
6200262800.0 0.1864032058 0.9810100963
6250262500.0 0.1989145922 0.9786291335
6300262200.0 0.2112094961 0.9759815281
6350261900.0 0.224058184 0.9733465259
6400261600.0 0.2377675319 0.9701160773
6450261300.0 0.2491115327 0.9676489418
6500261000.0 0.262072914 0.9639160861
6550260700.0 0.27558017 0.9601101393
6600260400.0 0.2887636424 0.9559081034
6650260100.0 0.3025441676 0.951350774
6700259800.0 0.3149125265 0.9471558343
6750259500.0 0.3289631674 0.9422984347
6800259200.0 0.3423538882 0.937335669
6850258900.0 0.3545920196 0.9318182425
6900258600.0 0.3670701365 0.926764195
6950258300.0 0.3798327799 0.9215993952
7000258000.0 0.3915569808 0.9161821814
7050257700.0 0.403346346 0.9104872793
7100257400.0 0.4167795733 0.9039899386
7150257100.0 0.4273895199 0.8985232547
7200256800.0 0.4406579659 0.8922688741
7250256500.0 0.4529373481 0.8855576267
7300256200.0 0.4661037755 0.8788110784
7350255900.0 0.4785407756 0.8715577849
7400255600.0 0.4931716091 0.8640773666
7450255300.0 0.5085229684 0.854898289
7500255000.0 0.5209697078 0.8475960314
7550254700.0 0.5352134304 0.8382850012
7600254400.0 0.547250777 0.8299010645
7650254100.0 0.5589467853 0.822255879
7700253800.0 0.5708462262 0.8142349953
7750253500.0 0.581514182 0.8065060808
7800253200.0 0.5925307316 0.7987186825
7850252900.0 0.6020540953 0.791451297
7900252600.0 0.6135585169 0.7828106232
7950252300.0 0.6219964532 0.7764007415
8000252000.0 0.6319969855 0.7687550916
8050251700.0 0.6422839325 0.7607035317
8100251400.0 0.6522818909 0.7527636564
8150251100.0 0.6621935196 0.7441034677
8200250800.0 0.6719235828 0.7359415818
8250250500.0 0.6804648023 0.7280754009
8300250200.0 0.6899258603 0.7198654446
8350249900.0 0.6992431933 0.7108656358
8400249600.0 0.7070822215 0.7030585397
8450249300.0 0.7156864555 0.6940853328
8500249000.0 0.7244035252 0.6852306427
8550248700.0 0.7325837115 0.6762809767
8600248400.0 0.7410898937 0.666924148
8650248100.0 0.7486274782 0.6574193118
8700247800.0 0.7580278106 0.6462129141
8750247500.0 0.7663409072 0.6362160708
8800247200.0 0.7744216915 0.6259844784
8850246900.0 0.7825990508 0.6143414707
8900246600.0 0.7913285751 0.6029889608
8950246300.0 0.8006456238 0.5905114807
9000246000.0 0.8095662995 0.5783979221
9050245700.0 0.8176396738 0.566295621
9100245400.0 0.8259891607 0.5539687362
9150245100.0 0.8353821849 0.5410991895
9200244800.0 0.8445314012 0.5264952348
9250244500.0 0.8536760578 0.5119092764
9300244200.0 0.8614394146 0.4983005583
9350243900.0 0.8692712189 0.4849624957
9400243600.0 0.8757907547 0.473079299
9450243300.0 0.8815087344 0.462546495
9500243000.0 0.8876582271 0.4509044171
9550242700.0 0.8916826002 0.4434481565
9600242400.0 0.8958606471 0.4359196096
9650242100.0 0.8999632255 0.4289467342
9700241800.0 0.9052267432 0.4200640094
9750241500.0 0.9091810668 0.4126311422
9800241200.0 0.9142507102 0.4034320543
9850240900.0 0.9199976984 0.3915349356
9900240600.0 0.9261160637 0.3795848617
9950240300.0 0.9329572766 0.3630303672
10000240000.0 0.9378688355 0.3505689278
10050239700.0 0.9438822853 0.3352021407
10100239400.0 0.9492294352 0.318434415
10150239100.0 0.9538509933 0.3030279988
10200238800.0 0.9583566561 0.2875680581
10250238500.0 0.9615895675 0.2741092732
10300238200.0 0.964613026 0.260256425
10350237900.0 0.9674924295 0.2468164644
10400237600.0 0.9701331682 0.2334549527
10450237300.0 0.9728361241 0.2197495099
10500237000.0 0.9751619002 0.206938544
10550236700.0 0.9772550663 0.1926014121
10600236400.0 0.9798212905 0.1787988581
10650236100.0 0.9814260204 0.1646064105
10700235800.0 0.9836399578 0.1525323116
10750235500.0 0.9858811195 0.1386426906
10800235200.0 0.9881179123 0.1244991697
10850234900.0 0.9901910197 0.1095237212
10900234600.0 0.9920330463 0.0945974583
10950234300.0 0.9938468777 0.0812196122
11000234000.0 0.9954148921 0.0656244395
11050233700.0 0.9973628737 0.048973445
11100233400.0 0.9988559009 0.0311471802
11150233100.0 1.000162643 0.0146051092
11200232800.0 1.000662634 -0.0014010981
11250232500.0 1.001661592 -0.0194977539
11300232200.0 1.002351386 -0.0379891498
11350231900.0 1.002091366 -0.0537408104
11400231600.0 1.002041092 -0.0704214242
11450231300.0 1.001115134 -0.0851218094
11500231000.0 0.9990731078 -0.1012870083
11550230700.0 0.9982482131 -0.1145552636
11600230400.0 0.9971899216 -0.1268211386
11650230100.0 0.9947680554 -0.1387362666
11700229800.0 0.9927699053 -0.1539836123
11750229500.0 0.9901275669 -0.1681113065
11800229200.0 0.9873587902 -0.1813643605
11850228900.0 0.9834388208 -0.1932987281
11900228600.0 0.9800016339 -0.2029058694
11950228300.0 0.9764434747 -0.2129355281
12000228000.0 0.9741257928 -0.2216533997
12050227700.0 0.9698528915 -0.2340442181
12100227400.0 0.9665501232 -0.2456205843
12150227100.0 0.9612490759 -0.2624781054
12200226800.0 0.9582201008 -0.2734411432
12250226500.0 0.953952091 -0.2858364174
12300226200.0 0.9500073565 -0.2979472145
12350225900.0 0.9447823946 -0.3114885602
12400225600.0 0.9403147374 -0.3249983088
12450225300.0 0.9360960856 -0.3371463266
12500225000.0 0.9303721879 -0.3515758069
12550224700.0 0.9250047028 -0.3654524192
12600224400.0 0.9200760034 -0.3782726125
12650224100.0 0.914195656 -0.3923804941
12700223800.0 0.9089128777 -0.4052682393
12750223500.0 0.9034912531 -0.4183722834
12800223200.0 0.898233322 -0.4308802703
12850222900.0 0.8928895197 -0.4428770351
12900222600.0 0.8872794922 -0.4552911758
12950222300.0 0.8812800199 -0.4680384343
13000222000.0 0.8750794556 -0.4795852497
13050221700.0 0.8680858865 -0.4926469146
13100221400.0 0.8617111503 -0.5041770447
13150221100.0 0.8549043058 -0.5168556703
13200220800.0 0.8477844458 -0.5282417955
13250220500.0 0.8402800629 -0.5401919745
13300220200.0 0.8327677353 -0.5513438787
13350219900.0 0.8246771444 -0.5630928507
13400219600.0 0.8163457262 -0.5750225506
13450219300.0 0.8071071213 -0.5881840645
13500219000.0 0.7972636329 -0.601395757
13550218700.0 0.7873548264 -0.6136960671
13600218400.0 0.7777746601 -0.6253883453
13650218100.0 0.7682290394 -0.6361701199
13700217800.0 0.7575759441 -0.6483269559
13750217500.0 0.7473564537 -0.659053532
13800217200.0 0.7371218905 -0.6698590906
13850216900.0 0.7253089799 -0.6815293322
13900216600.0 0.71568514 -0.6908198058
13950216300.0 0.7050831661 -0.7011442598
14000216000.0 0.6957812834 -0.7091359426
14050215700.0 0.6863836587 -0.7173909337
14100215400.0 0.6768029247 -0.7262041996
14150215100.0 0.6674367725 -0.7352836713
14200214800.0 0.657977146 -0.7439425561
14250214500.0 0.6476459612 -0.7534717155
14300214200.0 0.637018014 -0.7629675401
14350213900.0 0.6258066016 -0.7726482562
14400213600.0 0.6142468317 -0.7822670807
14450213300.0 0.6015231585 -0.7928286757
14500213000.0 0.588714226 -0.802642839
14550212700.0 0.5759205549 -0.8118379308
14600212400.0 0.5632955984 -0.8209685225
14650212100.0 0.5510489781 -0.8293729523
14700211800.0 0.5366121572 -0.8389496712
14750211500.0 0.5250019034 -0.8473818543
14800211200.0 0.5123338603 -0.855447204
14850210900.0 0.4999632475 -0.8631492143
14900210600.0 0.4867272437 -0.8710862623
14950210300.0 0.4733597472 -0.8787366383
15000210000.0 0.460605155 -0.8855896828
15050209700.0 0.448306757 -0.8914456829
15100209400.0 0.4356390867 -0.8974431567
15150209100.0 0.4230390367 -0.9028188254
15200208800.0 0.4107846594 -0.9086616028
15250208500.0 0.3995509252 -0.9121902477
15300208200.0 0.3870912801 -0.9173640198
15350207900.0 0.3743584458 -0.9223466602
15400207600.0 0.3585722071 -0.9269956187
15450207300.0 0.3442389491 -0.9328907738
15500207000.0 0.330060378 -0.9372673122
15550206700.0 0.3153094565 -0.9421822998
15600206400.0 0.299687893 -0.946881864
15650206100.0 0.283832619 -0.9505712267
15700205800.0 0.2703956502 -0.9544314615
15750205500.0 0.2563982021 -0.957648779
15800205200.0 0.2423140702 -0.9613117941
15850204900.0 0.2279822534 -0.96487988
15900204600.0 0.2130082003 -0.9684272579
15950204300.0 0.1984854933 -0.9716159412
16000204000.0 0.1841300511 -0.9743801682
16050203700.0 0.1690895635 -0.9775216131
16100203400.0 0.1543163825 -0.9793546198
16150203100.0 0.1395859397 -0.9820953317
16200202800.0 0.1254797264 -0.9841779218
16250202500.0 0.1103403792 -0.9857373747
16300202200.0 0.0950483913 -0.9875238532
16350201900.0 0.0801622842 -0.9889961708
16400201600.0 0.0650754586 -0.990074416
16450201300.0 0.0497167604 -0.9910533796
16500201000.0 0.0325793366 -0.9920376103
16550200700.0 0.0166405294 -0.9924632343
16600200400.0 0.0005959179 -0.9927120319
16650200100.0 -0.0155666515 -0.9927856822
16700199800.0 -0.0317853118 -0.9922352041
16750199500.0 -0.0505326906 -0.9920182213
16800199200.0 -0.066517895 -0.9909183439
16850198900.0 -0.0823777249 -0.9893038443
16900198600.0 -0.0964246561 -0.9890102973
16950198300.0 -0.1106005821 -0.9875803899
17000198000.0 -0.1229090757 -0.9857514068
17050197700.0 -0.1360237787 -0.9841403721
17100197400.0 -0.1484516074 -0.9818412503
17150197100.0 -0.1617350893 -0.9802989866
17200196800.0 -0.1746103262 -0.9782981248
17250196500.0 -0.1873026383 -0.9754954195
17300196200.0 -0.1994154987 -0.9731003656
17350195900.0 -0.2113063342 -0.9707907893
17400195600.0 -0.2233453415 -0.9681642175
17450195300.0 -0.236183501 -0.9652607071
17500195000.0 -0.2493549131 -0.9620844762
17550194700.0 -0.2629904915 -0.9586201157
17600194400.0 -0.276874387 -0.9548419548
17650194100.0 -0.2907907609 -0.9506121317
17700193800.0 -0.3031704301 -0.9465217346
17750193500.0 -0.3175652104 -0.9418554729
17800193200.0 -0.3315448084 -0.9367949969
17850192900.0 -0.3467288742 -0.9312400208
17900192600.0 -0.3615126085 -0.9245984976
17950192300.0 -0.3773424752 -0.9179677943
18000192000.0 -0.3924524533 -0.9105429266
18050191700.0 -0.4059628251 -0.9028713977
18100191400.0 -0.4199994005 -0.8950654722
18150191100.0 -0.4349228648 -0.8871845554
18200190800.0 -0.4516365749 -0.8779488142
18250190500.0 -0.4686400147 -0.8687419161
18300190200.0 -0.4843142176 -0.8595552264
18350189900.0 -0.499608362 -0.851397724
18400189600.0 -0.5138974574 -0.8430305988
18450189300.0 -0.5277839901 -0.8351924698
18500189000.0 -0.541082275 -0.82685696
18550188700.0 -0.5539598076 -0.8190676127
18600188400.0 -0.5655102463 -0.8122067217
18650188100.0 -0.5771622334 -0.8057025596
18700187800.0 -0.5877441996 -0.7992082819
18750187500.0 -0.5985460097 -0.7923238515
18800187200.0 -0.6092071403 -0.7853735216
18850186900.0 -0.619387807 -0.7785338239
18900186600.0 -0.6296454358 -0.771064013
18950186300.0 -0.6395850081 -0.7635028493
19000186000.0 -0.647196385 -0.757323496
19050185700.0 -0.6569830642 -0.7499341428
19100185400.0 -0.6668564356 -0.7422123983
19150185100.0 -0.6770675986 -0.7333813625
19200184800.0 -0.686337586 -0.7249864438
19250184500.0 -0.6969943934 -0.7161461257
19300184200.0 -0.7081358492 -0.7063993674
19350183900.0 -0.7183382332 -0.6968601205
19400183600.0 -0.7280333729 -0.6869819902
19450183300.0 -0.7372802036 -0.6762085323
19500183000.0 -0.7454708546 -0.6670891953
19550182700.0 -0.7551537391 -0.6556429415
19600182400.0 -0.7654837474 -0.6438722382
19650182100.0 -0.7757661413 -0.6319338982
19700181800.0 -0.7863742396 -0.618736867
19750181500.0 -0.7968222068 -0.6045020217
19800181200.0 -0.8070240112 -0.5895224577
19850180900.0 -0.8166446636 -0.5740223009
19900180600.0 -0.8243816683 -0.5596987102
19950180300.0 -0.8336054944 -0.543545438
20000180000.0 -0.8230756419 -0.5476471316
20050179700.0 -0.8315306272 -0.5353264966
20100179400.0 -0.8412042625 -0.5208723796
20150179100.0 -0.847669366 -0.5092157173
20200178800.0 -0.8563491149 -0.4984981704
20250178500.0 -0.8661443158 -0.4853421711
20300178200.0 -0.8751788722 -0.4709326667
20350177900.0 -0.8846680147 -0.4571590596
20400177600.0 -0.8935339437 -0.4429648873
20450177300.0 -0.9021223532 -0.4288672486
20500177000.0 -0.910201848 -0.4149269227
20550176700.0 -0.9182026427 -0.4015869723
20600176400.0 -0.925199266 -0.3883300158
20650176100.0 -0.9321649272 -0.3760072546
20700175800.0 -0.9384636537 -0.3642579768
20750175500.0 -0.9449830392 -0.3528134408
20800175200.0 -0.9495921585 -0.3418801604
20850174900.0 -0.953899519 -0.3307372612
20900174600.0 -0.9574859964 -0.3204773549
20950174300.0 -0.9617258833 -0.309462261
21000174000.0 -0.9637868804 -0.2980046348
21050173700.0 -0.9661559507 -0.2891066319
21100173400.0 -0.9694980269 -0.2775495122
21150173100.0 -0.9735682057 -0.2649372947
21200172800.0 -0.9774415984 -0.2527137064
21250172500.0 -0.9811792594 -0.2387759156
21300172200.0 -0.9848027113 -0.2243754579
21350171900.0 -0.9869278139 -0.2099564762
21400171600.0 -0.9882751392 -0.1955056357
21450171300.0 -0.9893862982 -0.1826020772
21500171000.0 -0.9894688711 -0.1664078833
21550170700.0 -0.9896972114 -0.1524508012
21600170400.0 -0.9913986189 -0.1358267843
21650170100.0 -0.9911060195 -0.1211171316
21700169800.0 -0.9905757869 -0.1050101263
21750169500.0 -0.9902390711 -0.0896441193
21800169200.0 -0.9900964616 -0.073269003
21850168900.0 -0.9894602505 -0.0561493985
21900168600.0 -0.9886807197 -0.0397528145
21950168300.0 -0.9887870508 -0.0246294193
22000168000.0 -0.9885350374 -0.0088033314
22050167700.0 -0.9892493696 0.0054078543
22100167400.0 -0.9896954812 0.020890557
22150167100.0 -0.990764487 0.0369189212
22200166800.0 -0.9912871499 0.0536027759
22250166500.0 -0.9906898157 0.07110337
22300166200.0 -0.990810509 0.0876551975
22350165900.0 -0.9887696681 0.1039095299
22400165600.0 -0.9870988398 0.1196910408
22450165300.0 -0.9848222301 0.133860137
22500165000.0 -0.9840392871 0.1476782027
22550164700.0 -0.9825834035 0.1650089134
22600164400.0 -0.9795714212 0.1810827212
22650164100.0 -0.9778007745 0.1959747012
22700163800.0 -0.97398759 0.212380551
22750163500.0 -0.9707621548 0.2272698023
22800163200.0 -0.9684514582 0.2404715603
22850162900.0 -0.9662313361 0.2535401751
22900162600.0 -0.9643447696 0.2675454968
22950162300.0 -0.9623501627 0.2811927854
23000162000.0 -0.9605450454 0.2939338401
23050161700.0 -0.9586860493 0.3070136004
23100161400.0 -0.955942407 0.3202543652
23150161100.0 -0.952008552 0.3332833829
23200160800.0 -0.9501853096 0.3460556839
23250160500.0 -0.9468416275 0.3585912842
23300160200.0 -0.9439068296 0.3712932107
23350159900.0 -0.9400608631 0.3847798352
23400159600.0 -0.9345816301 0.3981233686
23450159300.0 -0.9295780996 0.4124692598
23500159000.0 -0.9253776905 0.4256968329
23550158700.0 -0.9203261728 0.4397159917
23600158400.0 -0.9140515718 0.4539140274
23650158100.0 -0.9070018404 0.4683564474
23700157800.0 -0.8988447974 0.4825650852
23750157500.0 -0.8890166995 0.4970143737
23800157200.0 -0.8796141578 0.5100528585
23850156900.0 -0.8695310557 0.5228132177
23900156600.0 -0.8605026624 0.5352464306
23950156300.0 -0.8503755374 0.5483929734
24000156000.0 -0.8414210455 0.5612053853
24050155700.0 -0.8307238719 0.5725455457
24100155400.0 -0.8199296186 0.5855014316
24150155100.0 -0.8090338017 0.597353168
24200154800.0 -0.7979194976 0.6089218966
24250154500.0 -0.7867043669 0.621248015
24300154200.0 -0.775651111 0.6333546756
24350153900.0 -0.7635176574 0.6445138476
24400153600.0 -0.7509879787 0.6549255674
24450153300.0 -0.7389442113 0.6649233366
24500153000.0 -0.7274242938 0.6752776275
24550152700.0 -0.7157259781 0.685232266
24600152400.0 -0.7035979979 0.6946600647
24650152100.0 -0.6919294223 0.7038785445
