!Created with skrf (http://scikit-rf.org).
# Hz S RI R 50.0 
!freq ReS11 ImS11
300000.0 -0.9745254033 -0.1209587005
50299700.0 -1.000012327 0.015078486
100299400.0 -0.997874336 0.0281429069
150299100.0 -1.002648929 0.044946998
200298800.0 -0.9995779382 0.0583476509
250298500.0 -0.9974229647 0.0717023842
300298200.0 -0.985887115 0.0876075048
350297900.0 -0.9938931354 0.0984632375
400297600.0 -0.9930943419 0.1149614673
450297300.0 -0.9909475637 0.1286296043
500297000.0 -0.9895053543 0.1433735195
550296700.0 -0.9842749845 0.1559362387
600296400.0 -1.01699524 0.1894007602
650296100.0 -0.9820803501 0.1857111519
700295800.0 -0.9792745442 0.2002361365
750295500.0 -0.9762989281 0.2139559613
800295200.0 -0.9728992377 0.2282379408
850294900.0 -0.9694044739 0.2419832749
900294600.0 -0.965777651 0.2556764019
950294300.0 -0.9620133525 0.269337978
1000294000.0 -0.9580599309 0.2832989937
1050293700.0 -0.9535671012 0.2973561824
1100293400.0 -0.9493737629 0.3116351278
1150293100.0 -0.9453850176 0.323519961
1200292800.0 -0.9400914261 0.3378285282
1250292500.0 -0.9346669318 0.3513018814
1300292200.0 -0.9290141694 0.3645926154
1350291900.0 -0.9234940004 0.3787503202
1400291600.0 -0.9178375717 0.3916883233
1450291300.0 -0.9125065146 0.4040858037
1500291000.0 -0.9063743273 0.4173739218
1550290700.0 -0.8996819353 0.4308674369
1600290400.0 -0.8936360569 0.4437499537
1650290100.0 -0.8867582266 0.4559961185
1700289800.0 -0.8797769279 0.4692339431
1750289500.0 -0.8728590221 0.4817013437
1800289200.0 -0.8654619168 0.4943828914
1850288900.0 -0.8586682012 0.506042232
1900288600.0 -0.851156169 0.5188395591
1950288300.0 -0.8427850569 0.5315503962
2000288000.0 -0.8353949439 0.5429093114
2050287700.0 -0.82710814 0.5552279586
2100287400.0 -0.819173716 0.5667003642
2150287100.0 -0.8108010972 0.5786322026
2200286800.0 -0.8028972605 0.5892349759
2250286500.0 -0.7939634038 0.6013015341
2300286200.0 -0.7853977242 0.6128585876
2350285900.0 -0.7767394227 0.6237341913
2400285600.0 -0.7676926702 0.6347601261
2450285300.0 -0.7589849856 0.6451417136
2500285000.0 -0.74899368 0.6567497471
2550284700.0 -0.7401262038 0.6671986008
2600284400.0 -0.7311658325 0.677261214
2650284100.0 -0.7221562346 0.6872996818
2700283800.0 -0.7116625166 0.6976360114
2750283500.0 -0.7013857229 0.7085196563
2800283200.0 -0.6910429893 0.718011685
2850282900.0 -0.6809735687 0.7282657704
2900282600.0 -0.6707157714 0.7379648457
2950282300.0 -0.6601329418 0.7471520029
3000282000.0 -0.6495764307 0.7566613262
3050281700.0 -0.6385130283 0.7659303676
3100281400.0 -0.6267048041 0.775127012
3150281100.0 -0.6155162965 0.7842651646
3200280800.0 -0.6038678135 0.7927022339
3250280500.0 -0.5928184154 0.8004650576
3300280200.0 -0.5811988117 0.8083887456
3350279900.0 -0.5691886435 0.8165474211
3400279600.0 -0.556907715 0.8245540296
3450279300.0 -0.5457407772 0.8315311042
3500279000.0 -0.5339362136 0.8384172148
3550278700.0 -0.5218908864 0.8457030256
3600278400.0 -0.5096200216 0.8525080066
3650278100.0 -0.4966901355 0.8602796603
3700277800.0 -0.4845760259 0.8666179239
3750277500.0 -0.4722662137 0.8730592504
3800277200.0 -0.4597343368 0.8796720769
3850276900.0 -0.447745149 0.8856936812
3900276600.0 -0.4368068072 0.8911564595
3950276300.0 -0.4247787433 0.8972608988
4000276000.0 -0.41288255 0.9031085287
4050275700.0 -0.3999440674 0.9091389295
4100275400.0 -0.389055413 0.9148263711
4150275100.0 -0.3759289554 0.9204607306
4200274800.0 -0.3627529089 0.9260531771
4250274500.0 -0.3501145599 0.9313079908
4300274200.0 -0.336964879 0.9366553796
4350273900.0 -0.3228045182 0.9420078571
4400273600.0 -0.3080537103 0.9473446676
4450273300.0 -0.2929943491 0.9521026964
4500273000.0 -0.2797198566 0.956546548
4550272700.0 -0.2658808436 0.9606880957
4600272400.0 -0.2506794887 0.9648641719
4650272100.0 -0.239280159 0.9680846439
4700271800.0 -0.2261857349 0.9712101439
4750271500.0 -0.2144669637 0.9741441448
4800271200.0 -0.2022172127 0.9768891894
4850270900.0 -0.1884788643 0.9796651231
4900270600.0 -0.1745030412 0.9821195854
4950270300.0 -0.1599629069 0.9845406474
5000270000.0 -0.1456056259 0.9867562343
5050269700.0 -0.1320899031 0.9884315937
5100269400.0 -0.1181562169 0.990255803
5150269100.0 -0.1044433784 0.991634146
5200268800.0 -0.0911173642 0.9927274674
5250268500.0 -0.0779686419 0.9936166762
5300268200.0 -0.0646659043 0.9941978913
5350267900.0 -0.0519915646 0.9951720617
5400267600.0 -0.0356664984 0.9960468513
5450267300.0 -0.0224675516 0.9965675689
5500267000.0 -0.0072026593 0.9969085168
5550266700.0 0.0077471956 0.9973246056
5600266400.0 0.0235165888 0.9972434979
5650266100.0 0.0399748016 0.9967353324
5700265800.0 0.054475373 0.9958893827
5750265500.0 0.0693693907 0.9952948615
5800265200.0 0.0828472669 0.9937974512
5850264900.0 0.0961066389 0.9929767619
5900264600.0 0.1127607524 0.9915611416
5950264300.0 0.1244234498 0.9894971345
6000264000.0 0.1381286826 0.9878288533
6050263700.0 0.1501431579 0.9866487171
6100263400.0 0.1623130541 0.984778171
6150263100.0 0.1769749296 0.9825111708
6200262800.0 0.1871276778 0.98117081
6250262500.0 0.1995177747 0.9784723151
6300262200.0 0.2119091452 0.9759933059
6350261900.0 0.2247800126 0.9734279405
6400261600.0 0.23868101 0.9699982604
6450261300.0 0.2498325978 0.9672692215
6500261000.0 0.2633798044 0.9639089993
6550260700.0 0.2761163267 0.9596840992
6600260400.0 0.2896479377 0.9558287201
6650260100.0 0.3037079419 0.9513572828
6700259800.0 0.3159386277 0.9472633912
6750259500.0 0.329500631 0.9421780493
6800259200.0 0.342676362 0.9368898705
6850258900.0 0.3550093412 0.9318876414
6900258600.0 0.3677183838 0.926754655
6950258300.0 0.3800958835 0.921306137
7000258000.0 0.3918801814 0.916208939
7050257700.0 0.4038508369 0.9101984586
7100257400.0 0.4171492407 0.9037915893
7150257100.0 0.4275041616 0.8984429359
7200256800.0 0.4407979104 0.8919085733
7250256500.0 0.4531260513 0.8854211867
7300256200.0 0.4659042825 0.8788112155
7350255900.0 0.4787488817 0.871856073
7400255600.0 0.4925184548 0.8642369321
7450255300.0 0.5081127158 0.8553057708
7500255000.0 0.5202024461 0.8476734566
7550254700.0 0.5342938081 0.8390954262
7600254400.0 0.5470887097 0.8306936721
7650254100.0 0.5584917059 0.822737808
7700253800.0 0.5699927749 0.8147993172
7750253500.0 0.5811486414 0.8071003948
7800253200.0 0.5917792582 0.7992987755
7850252900.0 0.60151118 0.7919848371
7900252600.0 0.6130826063 0.7834560687
7950252300.0 0.6217476816 0.7767203943
8000252000.0 0.6315147308 0.7693857261
8050251700.0 0.6421838787 0.7610890667
8100251400.0 0.6520088031 0.7529408944
8150251100.0 0.6621577484 0.7446914136
8200250800.0 0.6715109702 0.7363430076
8250250500.0 0.6803944101 0.7285553772
8300250200.0 0.6896306894 0.7201676971
8350249900.0 0.6989823415 0.7112905574
8400249600.0 0.707126192 0.7032367
8450249300.0 0.7157026141 0.6943628263
8500249000.0 0.7244196263 0.6856181678
8550248700.0 0.7325422278 0.6766630838
8600248400.0 0.7410041574 0.6670105623
8650248100.0 0.7487154504 0.6574941604
8700247800.0 0.7580222833 0.6465273303
8750247500.0 0.7661566285 0.6364473231
8800247200.0 0.774326076 0.6262120627
8850246900.0 0.7831875072 0.6146275261
8900246600.0 0.7915934744 0.6032577528
8950246300.0 0.8009736623 0.590449266
9000246000.0 0.8099239794 0.578331653
9050245700.0 0.8181913459 0.5655464423
9100245400.0 0.8271653104 0.5535565693
9150245100.0 0.8354475003 0.5404237474
9200244800.0 0.8453058393 0.5256772571
9250244500.0 0.8543872171 0.5107902194
9300244200.0 0.862817171 0.4968700504
9350243900.0 0.870268287 0.483379609
9400243600.0 0.8770854023 0.4714893778
9450243300.0 0.8825593666 0.460700601
9500243000.0 0.8888578876 0.4488582812
9550242700.0 0.8926691284 0.4413420791
9600242400.0 0.8969694303 0.4338576513
9650242100.0 0.9008565008 0.4270798156
9700241800.0 0.9057864963 0.4183448306
9750241500.0 0.9099628564 0.4108647591
9800241200.0 0.9147689458 0.4018130153
9850240900.0 0.9208150834 0.3897800532
9900240600.0 0.9263929737 0.3781678134
9950240300.0 0.9332174131 0.3617264929
10000240000.0 0.938356265 0.349392525
10050239700.0 0.9439629628 0.334108368
10100239400.0 0.9492671891 0.317965136
10150239100.0 0.9538387305 0.3024414307
10200238800.0 0.9582590783 0.2871332109
10250238500.0 0.9615211392 0.2735914772
10300238200.0 0.9645398158 0.2597152635
10350237900.0 0.9674466032 0.2463577537
10400237600.0 0.9699141088 0.2330377977
10450237300.0 0.9726416429 0.2191352338
10500237000.0 0.9749605694 0.2069681757
10550236700.0 0.9772752338 0.1925068068
10600236400.0 0.9794790501 0.1790158894
10650236100.0 0.9809748971 0.1647468844
10700235800.0 0.9834980745 0.1523044415
10750235500.0 0.9860812001 0.1384209599
10800235200.0 0.9879429161 0.1243130115
10850234900.0 0.9896936425 0.1097962398
10900234600.0 0.9920077401 0.094550957
10950234300.0 0.9937229891 0.081287761
11000234000.0 0.9955193879 0.0658693145
11050233700.0 0.9972110648 0.0490573776
11100233400.0 0.9987108402 0.0315004614
11150233100.0 1.00003544 0.0147430672
11200232800.0 1.000338217 -0.0003396116
11250232500.0 1.00146197 -0.018128651
11300232200.0 1.001333556 -0.036599775
11350231900.0 1.001966754 -0.0524518318
11400231600.0 1.001746764 -0.0679850929
11450231300.0 1.000715279 -0.0834185599
11500231000.0 0.9994047984 -0.1001730483
11550230700.0 0.998291548 -0.1134122115
11600230400.0 0.9970883369 -0.1260016601
11650230100.0 0.994951704 -0.1376243273
11700229800.0 0.9927845029 -0.1524943391
11750229500.0 0.9903734492 -0.1665677511
11800229200.0 0.9875207974 -0.1799796719
11850228900.0 0.983726602 -0.1922264587
11900228600.0 0.9800945709 -0.201897568
11950228300.0 0.9770274137 -0.2118749483
12000228000.0 0.9741958054 -0.2210986423
12050227700.0 0.970529897 -0.2333919095
12100227400.0 0.9669227213 -0.2450302017
12150227100.0 0.9621582483 -0.2610395485
12200226800.0 0.9586785814 -0.2719552145
12250226500.0 0.954414872 -0.2844448277
12300226200.0 0.9500550996 -0.2978122752
12350225900.0 0.9458406212 -0.3107554262
12400225600.0 0.9407195416 -0.3235697943
12450225300.0 0.9363284389 -0.3364922329
12500225000.0 0.9309355171 -0.3509500438
12550224700.0 0.925338619 -0.3646116471
12600224400.0 0.9204371782 -0.377313947
12650224100.0 0.9148003362 -0.391739252
12700223800.0 0.9094744447 -0.4046342999
12750223500.0 0.9039510894 -0.4175236159
12800223200.0 0.8985507027 -0.4302650651
12850222900.0 0.8928868408 -0.4428715876
12900222600.0 0.8876461844 -0.4546563405
12950222300.0 0.8814197778 -0.467381145
13000222000.0 0.8756799711 -0.4786700729
13050221700.0 0.8685481348 -0.4916063892
13100221400.0 0.8621971745 -0.5035253114
13150221100.0 0.8552022236 -0.5157995407
13200220800.0 0.8477001943 -0.5271266008
13250220500.0 0.8407090824 -0.5395687686
13300220200.0 0.8333763528 -0.5502756678
13350219900.0 0.8253066258 -0.5622602238
13400219600.0 0.8169920144 -0.5739929137
13450219300.0 0.8075882528 -0.5875464022
13500219000.0 0.7978557685 -0.6005841442
13550218700.0 0.7878031908 -0.6133148078
13600218400.0 0.7783079343 -0.6251588804
13650218100.0 0.7675191862 -0.6360913805
13700217800.0 0.7581379257 -0.6477634038
13750217500.0 0.7481561229 -0.6590691869
13800217200.0 0.7364092002 -0.6709068025
13850216900.0 0.7261501853 -0.6813825057
13900216600.0 0.7159033553 -0.6903670432
13950216300.0 0.7051478242 -0.7009817737
14000216000.0 0.6951225897 -0.7096234194
14050215700.0 0.6860791915 -0.717906494
14100215400.0 0.676213738 -0.7269336431
14150215100.0 0.6671068385 -0.7357789618
14200214800.0 0.6575874718 -0.7443093132
14250214500.0 0.6472378344 -0.753895944
14300214200.0 0.6367840547 -0.7634633157
14350213900.0 0.6254277624 -0.7729374571
14400213600.0 0.6142709084 -0.782778898
14450213300.0 0.6013035229 -0.7931973437
14500213000.0 0.5882013177 -0.8024841983
14550212700.0 0.5754817898 -0.812351539
14600212400.0 0.5626395026 -0.8208205709
14650212100.0 0.5501761811 -0.8295639161
14700211800.0 0.5363125091 -0.8392335417
14750211500.0 0.524829392 -0.8475035129
14800211200.0 0.5118589449 -0.8556827647
14850210900.0 0.4993285819 -0.863425145
14900210600.0 0.4862880163 -0.871320502
14950210300.0 0.4727840406 -0.8788726139
15000210000.0 0.4601272282 -0.8856631515
15050209700.0 0.4478378143 -0.8916405115
15100209400.0 0.43523102 -0.8977357447
15150209100.0 0.4228967162 -0.9029925459
15200208800.0 0.4102779299 -0.9081689534
15250208500.0 0.3994824633 -0.913040863
15300208200.0 0.3870999773 -0.9175188705
15350207900.0 0.3734857133 -0.9221231658
15400207600.0 0.3596092139 -0.9276719821
15450207300.0 0.3444318854 -0.9328083132
15500207000.0 0.3301042109 -0.9369733052
15550206700.0 0.3150932212 -0.9424121785
15600206400.0 0.2992843161 -0.9471316995
15650206100.0 0.2834769175 -0.9511619283
15700205800.0 0.2697651593 -0.9544016042
15750205500.0 0.25548861 -0.9578951342
15800205200.0 0.2413317283 -0.9617494831
15850204900.0 0.227036053 -0.9650203072
15900204600.0 0.2119314812 -0.9686889423
15950204300.0 0.1976853625 -0.9718475681
16000204000.0 0.1835261107 -0.9747760281
16050203700.0 0.1684586066 -0.9772954147
16100203400.0 0.1534882644 -0.9796981072
16150203100.0 0.138740315 -0.9819676831
16200202800.0 0.1246836258 -0.9846450791
16250202500.0 0.110016063 -0.9860026757
16300202200.0 0.0945108255 -0.987844934
16350201900.0 0.0794445749 -0.9890776142
16400201600.0 0.0649384037 -0.9901998899
16450201300.0 0.0493275204 -0.9911461986
16500201000.0 0.0324252443 -0.9919954871
16550200700.0 0.0165063269 -0.9924632556
16600200400.0 0.0006920259 -0.9927403305
16650200100.0 -0.0158539494 -0.9924428652
16700199800.0 -0.0317548499 -0.9921534359
16750199500.0 -0.0509288714 -0.9920291897
16800199200.0 -0.0665681059 -0.9907461915
16850198900.0 -0.0819570149 -0.9897671848
16900198600.0 -0.096093516 -0.9882227572
16950198300.0 -0.1100678871 -0.9878246782
17000198000.0 -0.1221283635 -0.9864115325
17050197700.0 -0.1354637887 -0.9842892121
17100197400.0 -0.1480770477 -0.9820645196
17150197100.0 -0.1608063173 -0.9803640749
17200196800.0 -0.1732574515 -0.978055896
17250196500.0 -0.1863176738 -0.9755472645
17300196200.0 -0.1985970122 -0.9732769896
17350195900.0 -0.210496074 -0.9709057248
17400195600.0 -0.2226059913 -0.9682895925
17450195300.0 -0.2354978731 -0.9655724067
17500195000.0 -0.248806424 -0.9621248682
17550194700.0 -0.2629069981 -0.9587907891
17600194400.0 -0.2765740292 -0.9548906537
17650194100.0 -0.2903875856 -0.9505075611
17700193800.0 -0.3028560252 -0.9464674841
17750193500.0 -0.31698285 -0.9415623322
17800193200.0 -0.3318271366 -0.9362533654
17850192900.0 -0.3464290304 -0.9311716363
17900192600.0 -0.3617058101 -0.9252014626
17950192300.0 -0.3775056407 -0.9178176579
18000192000.0 -0.3918090003 -0.9107380767
18050191700.0 -0.4059104797 -0.9028450825
18100191400.0 -0.4199811932 -0.8950967353
18150191100.0 -0.4349339857 -0.8872315233
18200190800.0 -0.4517472393 -0.8780493809
18250190500.0 -0.4688365342 -0.8685101996
18300190200.0 -0.4845331222 -0.8597742894
18350189900.0 -0.4992709228 -0.8515811728
18400189600.0 -0.5140436592 -0.8430922656
18450189300.0 -0.5271967752 -0.8354172472
18500189000.0 -0.540715481 -0.8271848874
18550188700.0 -0.5532794653 -0.8192550328
18600188400.0 -0.5651578033 -0.8126475437
18650188100.0 -0.5766728392 -0.8059332097
18700187800.0 -0.5873079118 -0.7993593837
18750187500.0 -0.5982617937 -0.7925534749
18800187200.0 -0.6089189467 -0.785640834
18850186900.0 -0.6191152285 -0.7788180011
18900186600.0 -0.6293475981 -0.7713957118
18950186300.0 -0.6393849173 -0.7637603695
19000186000.0 -0.6472377605 -0.7573995449
19050185700.0 -0.6559530092 -0.7503400501
19100185400.0 -0.6661730071 -0.7416966707
19150185100.0 -0.6759684671 -0.7337316594
19200184800.0 -0.68538852 -0.7255940769
19250184500.0 -0.6953909098 -0.7161557288
19300184200.0 -0.7070297604 -0.7066495782
19350183900.0 -0.7184187883 -0.6965472767
19400183600.0 -0.7278340873 -0.687129394
19450183300.0 -0.7364602681 -0.6762539565
19500183000.0 -0.7450799482 -0.6664578203
19550182700.0 -0.7549833682 -0.6559748417
19600182400.0 -0.7649619174 -0.6441705849
19650182100.0 -0.7760431418 -0.632172466
19700181800.0 -0.786177918 -0.6189739849
19750181500.0 -0.7968787597 -0.6045612117
19800181200.0 -0.8069285072 -0.5898144659
19850180900.0 -0.816532442 -0.5743673571
19900180600.0 -0.824120641 -0.5599555323
19950180300.0 -0.833427172 -0.5435503504
20000180000.0 -0.8240235299 -0.5468295665
20050179700.0 -0.83144716 -0.5335409743
20100179400.0 -0.8407346951 -0.5202894925
20150179100.0 -0.8486364555 -0.5085835065
20200178800.0 -0.8569538561 -0.4969784821
20250178500.0 -0.8667334846 -0.4847108322
20300178200.0 -0.8768488875 -0.4695597665
20350177900.0 -0.8856732486 -0.4560608584
20400177600.0 -0.894563802 -0.4415117234
20450177300.0 -0.9032031664 -0.4272191608
20500177000.0 -0.9109467873 -0.4130912557
20550176700.0 -0.9190122802 -0.3998051635
20600176400.0 -0.9260073432 -0.3870532064
20650176100.0 -0.9326157651 -0.3743485264
20700175800.0 -0.939300835 -0.3630348212
20750175500.0 -0.9457718521 -0.35122616
20800175200.0 -0.9507840638 -0.3397829653
20850174900.0 -0.9546825116 -0.3289700021
20900174600.0 -0.9595344354 -0.3175763359
20950174300.0 -0.9627902026 -0.3071713026
21000174000.0 -0.9659492846 -0.2959132183
21050173700.0 -0.9678516118 -0.2861550044
21100173400.0 -0.9714231785 -0.2749724125
21150173100.0 -0.9757428604 -0.2626285402
21200172800.0 -0.9793992808 -0.2496135876
21250172500.0 -0.9826648181 -0.2361789981
21300172200.0 -0.9859615108 -0.2216047776
21350171900.0 -0.9879306314 -0.2073865297
21400171600.0 -0.9897303957 -0.1934793008
21450171300.0 -0.9910052967 -0.1795090502
21500171000.0 -0.9906839836 -0.1632515694
21550170700.0 -0.9902362072 -0.149118929
21600170400.0 -0.9927825419 -0.1335445017
21650170100.0 -0.9917065588 -0.117548545
21700169800.0 -0.9893514119 -0.1021946082
21750169500.0 -0.9902715642 -0.0856713196
21800169200.0 -0.9899823154 -0.0697497123
21850168900.0 -0.9892560736 -0.0528395101
21900168600.0 -0.9879234219 -0.0364871611
21950168300.0 -0.9877293302 -0.0211712867
22000168000.0 -0.9877422006 -0.0056145687
22050167700.0 -0.987471111 0.0087375361
22100167400.0 -0.9881203405 0.0244259737
22150167100.0 -0.9888771836 0.0404222367
22200166800.0 -0.9891793058 0.0565144219
22250166500.0 -0.9887648841 0.0732248014
22300166200.0 -0.9887076549 0.0902606185
22350165900.0 -0.9865710707 0.1067241747
22400165600.0 -0.9848738702 0.1228637636
22450165300.0 -0.9837009204 0.1380216588
22500165000.0 -0.9819665568 0.1523560368
22550164700.0 -0.9808272526 0.167610577
22600164400.0 -0.9789055826 0.1832544455
22650164100.0 -0.9760301066 0.1986877388
22700163800.0 -0.9730519605 0.2145130889
22750163500.0 -0.9702483918 0.229784199
22800163200.0 -0.9673848676 0.2425418421
22850162900.0 -0.9646241262 0.2559553885
22900162600.0 -0.9630435019 0.27003595
22950162300.0 -0.9614299894 0.2831277154
23000162000.0 -0.9596964784 0.2956881341
23050161700.0 -0.9572937753 0.3090890093
23100161400.0 -0.9554658195 0.3219623201
23150161100.0 -0.9516631705 0.3349453318
23200160800.0 -0.948001967 0.3481656668
23250160500.0 -0.9458903028 0.3601868343
23300160200.0 -0.9435816157 0.3724730491
23350159900.0 -0.9397512534 0.3855095805
23400159600.0 -0.9344136105 0.3990962668
23450159300.0 -0.9292849044 0.4123918465
23500159000.0 -0.9249578748 0.4257601878
23550158700.0 -0.9202760251 0.440271793
23600158400.0 -0.9143016411 0.4537304636
23650158100.0 -0.9073126486 0.46803999
23700157800.0 -0.8992392524 0.4823545525
23750157500.0 -0.8898617285 0.4967320517
23800157200.0 -0.8804601196 0.5095575752
23850156900.0 -0.8714385004 0.5225809527
23900156600.0 -0.8611909987 0.5352280509
23950156300.0 -0.8513730749 0.5482121383
24000156000.0 -0.8432911573 0.5601575413
24050155700.0 -0.832600737 0.5717004695
24100155400.0 -0.8226742041 0.5842216061
24150155100.0 -0.8116034565 0.5955441671
24200154800.0 -0.8005201595 0.6085323441
24250154500.0 -0.7889986426 0.6197225739
24300154200.0 -0.7772098308 0.6320145466
24350153900.0 -0.7656334307 0.6431020258
24400153600.0 -0.7528231227 0.653367582
24450153300.0 -0.7410505552 0.6638640099
24500153000.0 -0.7298654444 0.6739437903
24550152700.0 -0.7180387444 0.6833909476
24600152400.0 -0.7059784919 0.6926607884
24650152100.0 -0.6942761985 0.7007048178
