!Created with skrf (http://scikit-rf.org).
# Hz S RI R 50.0 
!freq ReS11 ImS11
300000.0 -0.9745780678 -0.1232765332
50299700.0 -0.999914587 0.0147797261
100299400.0 -0.9978476766 0.028031484
150299100.0 -1.00279212 0.0447365143
200298800.0 -0.9995275382 0.0580821722
250298500.0 -0.9975231554 0.0717249578
300298200.0 -0.9858402715 0.0873363906
350297900.0 -0.9939442505 0.0980863923
400297600.0 -0.9929442853 0.1148292973
450297300.0 -0.9909106772 0.1287407452
500297000.0 -0.9892842565 0.1434104079
550296700.0 -0.9843056725 0.1557129949
600296400.0 -1.017051115 0.1889092777
650296100.0 -0.9821501795 0.185645744
700295800.0 -0.9791812255 0.1998269591
750295500.0 -0.9761347905 0.2138907253
800295200.0 -0.9730126792 0.2280642316
850294900.0 -0.9696814847 0.2418544159
900294600.0 -0.9658443866 0.2554771448
950294300.0 -0.9620478547 0.2691660405
1000294000.0 -0.9578697361 0.2833888648
1050293700.0 -0.9536539378 0.2967499938
1100293400.0 -0.9494202254 0.3114922067
1150293100.0 -0.9454577138 0.3234904599
1200292800.0 -0.9400796196 0.3376589228
1250292500.0 -0.9346673969 0.3509793627
1300292200.0 -0.9288911204 0.3644858642
1350291900.0 -0.9235178717 0.3783302026
1400291600.0 -0.9177513475 0.3915253289
1450291300.0 -0.912504455 0.4040326151
1500291000.0 -0.9062344478 0.4172550776
1550290700.0 -0.8996836564 0.430610972
1600290400.0 -0.89347798 0.4434709672
1650290100.0 -0.8871244321 0.4554945565
1700289800.0 -0.8797673912 0.4692343912
1750289500.0 -0.8729742051 0.4814678065
1800289200.0 -0.8656454077 0.494279738
1850288900.0 -0.8586844255 0.5056886835
1900288600.0 -0.8510673532 0.5187571682
1950288300.0 -0.842889709 0.5310777084
2000288000.0 -0.8353940815 0.5426465546
2050287700.0 -0.8271177725 0.5551833297
2100287400.0 -0.8193121937 0.5665200454
2150287100.0 -0.8109495026 0.578549506
2200286800.0 -0.8028425196 0.5891373306
2250286500.0 -0.7939189 0.6014399925
2300286200.0 -0.785291161 0.6128621363
2350285900.0 -0.7770384391 0.6232709905
2400285600.0 -0.7678949521 0.6342938701
2450285300.0 -0.7591020025 0.6449845749
2500285000.0 -0.749076374 0.6566658635
2550284700.0 -0.7402377345 0.6669802926
2600284400.0 -0.731015261 0.6768775517
2650284100.0 -0.7223900543 0.6869827091
2700283800.0 -0.7121191186 0.6974008373
2750283500.0 -0.7016956858 0.7081043816
2800283200.0 -0.6918026793 0.7181401873
2850282900.0 -0.6812741196 0.7281242603
2900282600.0 -0.6706716185 0.7377768806
2950282300.0 -0.6602443266 0.7470395373
3000282000.0 -0.6495561248 0.7565672013
3050281700.0 -0.6382624985 0.7657945754
3100281400.0 -0.6268725487 0.7748734198
3150281100.0 -0.6157936105 0.7839208376
3200280800.0 -0.6042529359 0.7922284245
3250280500.0 -0.5930711424 0.8002113626
3300280200.0 -0.5813690919 0.80831988
3350279900.0 -0.5694148943 0.8165081052
3400279600.0 -0.5566475976 0.8246346103
3450279300.0 -0.5456219985 0.8317453915
3500279000.0 -0.5338178709 0.8383648429
3550278700.0 -0.5217862128 0.845714538
3600278400.0 -0.5098935915 0.8522742946
3650278100.0 -0.4968774357 0.8598499329
3700277800.0 -0.4846524915 0.8665444986
3750277500.0 -0.4721945317 0.8733355814
3800277200.0 -0.459939514 0.8798410389
3850276900.0 -0.4477982144 0.8857038709
3900276600.0 -0.4367474697 0.8913685215
3950276300.0 -0.4248816835 0.897164075
4000276000.0 -0.4132934283 0.9033021222
4050275700.0 -0.4001845858 0.9090171302
4100275400.0 -0.3894469823 0.9146557115
4150275100.0 -0.3761484527 0.9203839243
4200274800.0 -0.3626265848 0.9263132738
4250274500.0 -0.3500384383 0.9313084491
4300274200.0 -0.336795999 0.9365799688
4350273900.0 -0.3224992013 0.9420267201
4400273600.0 -0.307784508 0.94729722
4450273300.0 -0.2928547653 0.9521496845
4500273000.0 -0.2797700171 0.9563778463
4550272700.0 -0.266238924 0.9603611451
4600272400.0 -0.2509870522 0.9647329526
4650272100.0 -0.2397397601 0.9678156117
4700271800.0 -0.2269380246 0.9712018185
4750271500.0 -0.2152123959 0.973883649
4800271200.0 -0.2029698236 0.9765868223
4850270900.0 -0.1891554261 0.979528283
4900270600.0 -0.175425972 0.9818143149
4950270300.0 -0.1606934134 0.9846597724
5000270000.0 -0.1464252109 0.986638005
5050269700.0 -0.1327374465 0.9881686022
5100269400.0 -0.118756018 0.9899313344
5150269100.0 -0.1047297439 0.9917030699
5200268800.0 -0.0914074059 0.9926198738
5250268500.0 -0.07843028 0.9938777058
5300268200.0 -0.0647318006 0.994684931
5350267900.0 -0.051572949 0.9953556251
5400267600.0 -0.0356749585 0.996263474
5450267300.0 -0.0221674912 0.9964191583
5500267000.0 -0.0069294997 0.9969288195
5550266700.0 0.0079815398 0.997040782
5600266400.0 0.0236375308 0.9971397245
5650266100.0 0.0403904671 0.9969378802
5700265800.0 0.0546429651 0.9959068448
5750265500.0 0.0692640051 0.99516236
5800265200.0 0.0832687862 0.9938182782
5850264900.0 0.0960821222 0.9932308444
5900264600.0 0.1125628088 0.9911906881
5950264300.0 0.1242514635 0.9893693364
6000264000.0 0.1378736894 0.9879808028
6050263700.0 0.1496225013 0.9867404973
6100263400.0 0.1616445043 0.9847538859
6150263100.0 0.1762158227 0.9823458314
6200262800.0 0.1861085884 0.9810930276
6250262500.0 0.1985987432 0.9787054308
6300262200.0 0.2108144147 0.9762166113
6350261900.0 0.2235921879 0.9733657516
6400261600.0 0.2375769078 0.9702586627
6450261300.0 0.2487274421 0.9677823643
6500261000.0 0.2619366993 0.9640887554
6550260700.0 0.2752902544 0.9603829842
6600260400.0 0.2887033628 0.9561624899
6650260100.0 0.3026320131 0.9516605329
6700259800.0 0.3151154699 0.9475026595
6750259500.0 0.3285784966 0.9424698625
6800259200.0 0.3421153486 0.9372322777
6850258900.0 0.3546722214 0.9320849669
6900258600.0 0.3671651105 0.9269360181
6950258300.0 0.3795294644 0.9215436135
7000258000.0 0.391251953 0.9162349092
7050257700.0 0.4032640363 0.9102729301
7100257400.0 0.4164797257 0.9039453622
7150257100.0 0.4273086987 0.8985757871
7200256800.0 0.4404115468 0.8920498808
7250256500.0 0.4526927135 0.8854854887
7300256200.0 0.4658939958 0.8789582226
7350255900.0 0.4788471471 0.8717026091
7400255600.0 0.4929548904 0.8640881824
7450255300.0 0.5086728758 0.8552449307
7500255000.0 0.5207637689 0.8473372765
7550254700.0 0.5349039166 0.838367134
7600254400.0 0.547572543 0.8299913061
7650254100.0 0.5591057755 0.8220940985
7700253800.0 0.5707763486 0.8140055492
7750253500.0 0.5817919613 0.8063707509
7800253200.0 0.5925206926 0.7986171895
7850252900.0 0.6021649952 0.7914454696
7900252600.0 0.6137000395 0.7826290416
7950252300.0 0.6220740387 0.7763379669
8000252000.0 0.6320139135 0.7687976719
8050251700.0 0.642168757 0.7608500936
8100251400.0 0.6524925309 0.7526635214
8150251100.0 0.662328344 0.7441775026
8200250800.0 0.6720435859 0.7359480094
8250250500.0 0.6808145505 0.7281705048
8300250200.0 0.6898290608 0.7197060734
8350249900.0 0.6993902189 0.7109751205
8400249600.0 0.7071979458 0.7030328864
8450249300.0 0.7156915587 0.6942126462
8500249000.0 0.724265938 0.6853144238
8550248700.0 0.7327083362 0.6764363035
8600248400.0 0.7408164177 0.6670416354
8650248100.0 0.7486455161 0.6575381635
8700247800.0 0.7579274643 0.6463059414
8750247500.0 0.7661734587 0.6361492682
8800247200.0 0.7741095201 0.6260070101
8850246900.0 0.7829865024 0.614567727
8900246600.0 0.7912452747 0.6033011585
8950246300.0 0.8006388218 0.5904991596
9000246000.0 0.8088492306 0.5788652
9050245700.0 0.8174968082 0.5663105465
9100245400.0 0.8260404615 0.5539657264
9150245100.0 0.8350384845 0.5410781912
9200244800.0 0.8440407289 0.5271123246
9250244500.0 0.8531462137 0.5123608667
9300244200.0 0.8611503783 0.4988029578
9350243900.0 0.8687715873 0.4855512493
9400243600.0 0.8754876191 0.4739023291
9450243300.0 0.8808593081 0.4633189458
9500243000.0 0.8872929069 0.4516895239
9550242700.0 0.8912713456 0.4441029812
9600242400.0 0.8954008892 0.4368602732
9650242100.0 0.8999086511 0.4294881274
9700241800.0 0.9047237204 0.4210929406
9750241500.0 0.9090220084 0.4134707731
9800241200.0 0.9139480745 0.4037661007
9850240900.0 0.9197327709 0.3922764598
9900240600.0 0.925810298 0.3803142788
9950240300.0 0.9328156221 0.3633756378
10000240000.0 0.9375707694 0.3519167744
10050239700.0 0.9441684534 0.3353099997
10100239400.0 0.9493000068 0.3189281642
10150239100.0 0.9539704133 0.3033905841
10200238800.0 0.9581977865 0.2879514244
10250238500.0 0.9615378115 0.2744231689
10300238200.0 0.9646882453 0.2605045286
10350237900.0 0.9673061694 0.2473746363
10400237600.0 0.9701049785 0.233531812
10450237300.0 0.9727791112 0.2199816429
10500237000.0 0.9749922617 0.2076177221
10550236700.0 0.9775413416 0.1927618986
10600236400.0 0.9796723079 0.1795041442
10650236100.0 0.9815630595 0.1645042571
10700235800.0 0.9837638932 0.1522923177
10750235500.0 0.9860152326 0.1388606435
10800235200.0 0.9880016939 0.1244060677
10850234900.0 0.989966871 0.1097984467
10900234600.0 0.9921080054 0.0946974562
10950234300.0 0.9937089378 0.081253708
11000234000.0 0.9955880023 0.0656923666
11050233700.0 0.9973874683 0.0489850435
11100233400.0 0.998755053 0.0313157941
11150233100.0 0.9998040552 0.0144513262
11200232800.0 1.001097344 -0.0017868685
11250232500.0 1.001881149 -0.0196540338
11300232200.0 1.002254441 -0.0382845527
11350231900.0 1.001828721 -0.0538817227
11400231600.0 1.001691923 -0.0697972102
11450231300.0 1.00116101 -0.0856114141
11500231000.0 0.9996800958 -0.1017961426
11550230700.0 0.9980892439 -0.11483923
11600230400.0 0.9971404994 -0.1279396312
11650230100.0 0.9947309168 -0.1395559407
11700229800.0 0.9927004106 -0.1533910149
11750229500.0 0.9902434665 -0.1686581124
11800229200.0 0.9873112146 -0.1816962124
11850228900.0 0.9836171051 -0.1930360702
11900228600.0 0.9799527105 -0.203005632
11950228300.0 0.9765650984 -0.2131046481
12000228000.0 0.9735188669 -0.2216624585
12050227700.0 0.9697669378 -0.2342246738
12100227400.0 0.9668035059 -0.2452522661
12150227100.0 0.9617582945 -0.2617723086
12200226800.0 0.9580261413 -0.2726955315
12250226500.0 0.9539155545 -0.2865118923
12300226200.0 0.9498613411 -0.2983130169
12350225900.0 0.944628923 -0.3123262847
12400225600.0 0.9397614806 -0.3239967725
12450225300.0 0.9360529418 -0.3369382643
12500225000.0 0.930653679 -0.3512715967
12550224700.0 0.9245216257 -0.3654309258
12600224400.0 0.9199903329 -0.3783965544
12650224100.0 0.914090692 -0.3925559588
12700223800.0 0.9089071812 -0.4053243737
12750223500.0 0.9032396628 -0.4185371049
12800223200.0 0.8976897871 -0.4314461543
12850222900.0 0.8931393834 -0.4426457943
12900222600.0 0.8871719585 -0.4545333228
12950222300.0 0.8812858565 -0.4678178727
13000222000.0 0.8748746739 -0.4799963364
13050221700.0 0.8682941658 -0.4925172902
13100221400.0 0.8616580987 -0.5044730207
13150221100.0 0.8545344551 -0.5167509276
13200220800.0 0.8476599204 -0.5283542059
13250220500.0 0.8402666804 -0.5401378786
13300220200.0 0.8329882004 -0.5512555582
13350219900.0 0.8248657176 -0.5629566467
13400219600.0 0.816368371 -0.5751630409
13450219300.0 0.8070295662 -0.5879183726
13500219000.0 0.7969893814 -0.6010845795
13550218700.0 0.7874780395 -0.6135972906
13600218400.0 0.7777050166 -0.625139583
13650218100.0 0.7680118013 -0.6362095999
13700217800.0 0.7561231823 -0.648425348
13750217500.0 0.7465730304 -0.6590538049
13800217200.0 0.7366265773 -0.6701060496
13850216900.0 0.7255017094 -0.6810615792
13900216600.0 0.7155159558 -0.6904581538
13950216300.0 0.705149969 -0.7001091343
14000216000.0 0.6958555243 -0.7097207658
14050215700.0 0.6862158544 -0.7176740747
14100215400.0 0.6768192721 -0.726391664
14150215100.0 0.6677853783 -0.735052867
14200214800.0 0.6580854331 -0.7441122511
14250214500.0 0.6476916782 -0.7534115088
14300214200.0 0.6372706714 -0.7628783264
14350213900.0 0.6261765007 -0.772783003
14400213600.0 0.6141450283 -0.7823608085
14450213300.0 0.6014300428 -0.7920717609
14500213000.0 0.5882536015 -0.8025111548
14550212700.0 0.5761076482 -0.8116876835
14600212400.0 0.5635529047 -0.8204982745
14650212100.0 0.5507787485 -0.8292040299
14700211800.0 0.537081206 -0.8386415773
14750211500.0 0.5248370644 -0.8471765459
14800211200.0 0.512530092 -0.8553710842
14850210900.0 0.5001469723 -0.8629049786
14900210600.0 0.4868968467 -0.8707766652
14950210300.0 0.4734784254 -0.8785193234
15000210000.0 0.4607617715 -0.885114902
15050209700.0 0.4486712397 -0.8914302537
15100209400.0 0.4357643092 -0.8966976404
15150209100.0 0.4232910929 -0.9021813379
15200208800.0 0.4107602477 -0.9083096101
15250208500.0 0.3995973984 -0.912547625
15300208200.0 0.387718325 -0.916780064
15350207900.0 0.3735646758 -0.9224049638
15400207600.0 0.3594133307 -0.9276409428
15450207300.0 0.345290024 -0.9321500373
15500207000.0 0.3305370002 -0.9363922676
15550206700.0 0.31579079 -0.9420638124
15600206400.0 0.2996647482 -0.9461246189
15650206100.0 0.2843605452 -0.9510299882
15700205800.0 0.2708616021 -0.9542113696
15750205500.0 0.2564179138 -0.9574264463
15800205200.0 0.2424953511 -0.9612329337
15850204900.0 0.2283382354 -0.9645714185
15900204600.0 0.2134964149 -0.9682449511
15950204300.0 0.1989921848 -0.9714598795
16000204000.0 0.1845294457 -0.9747294235
16050203700.0 0.169400499 -0.9774389493
16100203400.0 0.1542728879 -0.9797703922
16150203100.0 0.1398219432 -0.9820743718
16200202800.0 0.1257246453 -0.9839081826
16250202500.0 0.1108185432 -0.9856709732
16300202200.0 0.0952010282 -0.9877718524
16350201900.0 0.0804848912 -0.9887821197
16400201600.0 0.0655156937 -0.9902978239
16450201300.0 0.0502637082 -0.9912715015
16500201000.0 0.032992512 -0.9920984637
16550200700.0 0.0169043319 -0.9925062766
16600200400.0 0.0009272564 -0.992741684
16650200100.0 -0.0151397637 -0.9925478453
16700199800.0 -0.0311143394 -0.9921632931
16750199500.0 -0.0502569129 -0.9912153857
16800199200.0 -0.0664140523 -0.9904284828
16850198900.0 -0.0816376638 -0.9891003276
16900198600.0 -0.0964348779 -0.9886127045
16950198300.0 -0.1094543947 -0.9873598624
17000198000.0 -0.1230284184 -0.9865592377
17050197700.0 -0.1356808417 -0.9840509901
17100197400.0 -0.1486690822 -0.982495163
17150197100.0 -0.1616422427 -0.9801255885
17200196800.0 -0.1740851642 -0.9780250529
17250196500.0 -0.1869939646 -0.9755429679
17300196200.0 -0.1993524458 -0.9734253373
17350195900.0 -0.2110953858 -0.9707846835
17400195600.0 -0.2230412905 -0.9682045918
17450195300.0 -0.2358664997 -0.9655548009
17500195000.0 -0.2492107141 -0.9621330018
17550194700.0 -0.262974601 -0.9587864881
17600194400.0 -0.2767429605 -0.954703982
17650194100.0 -0.2902330717 -0.9506728706
17700193800.0 -0.3029630769 -0.9460485459
17750193500.0 -0.3174667881 -0.9418027588
17800193200.0 -0.3316141713 -0.9368757174
17850192900.0 -0.3461600408 -0.9308925698
17900192600.0 -0.3612274098 -0.9249660164
17950192300.0 -0.37717234 -0.9181161172
18000192000.0 -0.3915888475 -0.910799233
18050191700.0 -0.4054949995 -0.9028322057
18100191400.0 -0.419738992 -0.8952472789
18150191100.0 -0.4345649176 -0.8872372595
18200190800.0 -0.4514451871 -0.878046892
18250190500.0 -0.4683162967 -0.8686428223
18300190200.0 -0.4837867686 -0.8599139013
18350189900.0 -0.4991509856 -0.8517820241
18400189600.0 -0.5138751338 -0.8428321214
18450189300.0 -0.5271287969 -0.8351032852
18500189000.0 -0.5400708451 -0.8268272997
18550188700.0 -0.5531436835 -0.8195769867
18600188400.0 -0.5655415664 -0.8122725035
18650188100.0 -0.5765951988 -0.8057069479
18700187800.0 -0.5877541581 -0.7990889654
18750187500.0 -0.5985936587 -0.7922117434
18800187200.0 -0.6091352024 -0.7854504403
18850186900.0 -0.619403029 -0.7784163363
18900186600.0 -0.6298316337 -0.7711169261
18950186300.0 -0.6399707208 -0.7634602198
19000186000.0 -0.6477050635 -0.75726996
19050185700.0 -0.6569567234 -0.7498242989
19100185400.0 -0.6666827334 -0.7417456101
19150185100.0 -0.6769821699 -0.7336543842
19200184800.0 -0.6860542053 -0.7245553569
19250184500.0 -0.695812829 -0.715507619
19300184200.0 -0.7079399897 -0.7065709533
19350183900.0 -0.7185258881 -0.6965462202
19400183600.0 -0.7283489807 -0.6869832562
19450183300.0 -0.7374646839 -0.6770935449
19500183000.0 -0.7455817193 -0.6665940242
19550182700.0 -0.7555915434 -0.6551487476
19600182400.0 -0.765596283 -0.6442972361
19650182100.0 -0.7762218023 -0.6317733551
19700181800.0 -0.7866088182 -0.618679915
19750181500.0 -0.7970328739 -0.6042758978
19800181200.0 -0.8069863805 -0.5895090415
19850180900.0 -0.8165051026 -0.574273038
19900180600.0 -0.824218418 -0.5599717184
19950180300.0 -0.8333205257 -0.5435622406
20000180000.0 -0.8232532697 -0.5469871641
20050179700.0 -0.8311817431 -0.534724155
20100179400.0 -0.8400932723 -0.5217807725
20150179100.0 -0.8476446793 -0.5099896743
20200178800.0 -0.8555234706 -0.4988094036
20250178500.0 -0.8657354986 -0.4859959712
20300178200.0 -0.8747497108 -0.4722173773
20350177900.0 -0.8846011888 -0.4578811297
20400177600.0 -0.8933285181 -0.4435560822
20450177300.0 -0.902061664 -0.4294307737
20500177000.0 -0.9099545375 -0.4154562553
20550176700.0 -0.9183099783 -0.4017779414
20600176400.0 -0.9245057394 -0.3891415599
20650176100.0 -0.9316304543 -0.3767620088
20700175800.0 -0.9384484598 -0.3648206752
20750175500.0 -0.9442879103 -0.352828276
20800175200.0 -0.9489045428 -0.3429364841
20850174900.0 -0.9534871731 -0.3320376497
20900174600.0 -0.9575417348 -0.3207131949
20950174300.0 -0.9609550303 -0.310197396
21000174000.0 -0.9640177752 -0.2992286031
21050173700.0 -0.9659198466 -0.2896146371
21100173400.0 -0.9691058897 -0.2783492502
21150173100.0 -0.9728936722 -0.266681064
21200172800.0 -0.9767469468 -0.2540903983
21250172500.0 -0.9804208449 -0.2398323267
21300172200.0 -0.9840863519 -0.2261121411
21350171900.0 -0.9862152423 -0.2116238346
21400171600.0 -0.988186107 -0.1975511402
21450171300.0 -0.9890109194 -0.1832988322
21500171000.0 -0.9887297296 -0.1682870875
21550170700.0 -0.989489839 -0.153600892
21600170400.0 -0.9914260506 -0.1365895753
21650170100.0 -0.9904521293 -0.1227100535
21700169800.0 -0.9896467352 -0.1076041748
21750169500.0 -0.9905178975 -0.0907521232
21800169200.0 -0.9902526768 -0.0744882039
21850168900.0 -0.9895538646 -0.0573633306
21900168600.0 -0.9893573683 -0.04102856
21950168300.0 -0.9890567917 -0.0247061115
22000168000.0 -0.9888199055 -0.010488161
22050167700.0 -0.9893683299 0.0046086163
22100167400.0 -0.9903511318 0.0200879997
22150167100.0 -0.9910499446 0.0362000064
22200166800.0 -0.9917803514 0.052896116
22250166500.0 -0.9911802075 0.0696670546
22300166200.0 -0.9907183113 0.0867414835
22350165900.0 -0.9897097112 0.1025643248
22400165600.0 -0.987366089 0.1176398388
22450165300.0 -0.9867346232 0.1326275363
22500165000.0 -0.9844455288 0.1476385572
22550164700.0 -0.983025959 0.1631547029
22600164400.0 -0.981121083 0.1803748804
22650164100.0 -0.9781576088 0.1942787321
22700163800.0 -0.9747322701 0.2111439254
22750163500.0 -0.9723900648 0.226057775
22800163200.0 -0.9687806654 0.2393491864
22850162900.0 -0.9664406729 0.2525207819
22900162600.0 -0.9647727286 0.2665037341
22950162300.0 -0.9630687817 0.280106657
23000162000.0 -0.9609397532 0.2928034507
23050161700.0 -0.9587438106 0.306449049
23100161400.0 -0.9560216937 0.3196792094
23150161100.0 -0.9525628109 0.3325081814
23200160800.0 -0.9497174724 0.3453074865
23250160500.0 -0.9469330048 0.3576609746
23300160200.0 -0.9442366077 0.3700502932
23350159900.0 -0.939994333 0.3848148958
23400159600.0 -0.9355165878 0.3977077508
23450159300.0 -0.9305828198 0.4120184449
23500159000.0 -0.9249587494 0.4254745594
23550158700.0 -0.9204537541 0.4394632215
23600158400.0 -0.9141867131 0.4535076293
23650158100.0 -0.9070764389 0.4683010866
23700157800.0 -0.8984264688 0.4827251137
23750157500.0 -0.8888628471 0.4970666172
23800157200.0 -0.8793306801 0.5104317331
23850156900.0 -0.8700718035 0.522964525
23900156600.0 -0.859461391 0.5358481595
23950156300.0 -0.8502325064 0.5488048594
24000156000.0 -0.8408382161 0.5607409752
24050155700.0 -0.8299184468 0.5735277431
24100155400.0 -0.8200650249 0.5854842209
24150155100.0 -0.8089608967 0.5978057982
24200154800.0 -0.7983125866 0.6100458127
24250154500.0 -0.7863249987 0.6215063196
24300154200.0 -0.7752185282 0.6334865102
24350153900.0 -0.7631927781 0.6449575169
24400153600.0 -0.7507556502 0.655272721
24450153300.0 -0.7385313946 0.6656678823
24500153000.0 -0.7269398185 0.6755001797
24550152700.0 -0.715881228 0.6856682367
24600152400.0 -0.7038945321 0.6952354123
24650152100.0 -0.6912032682 0.7035804021
