!Created with skrf (http://scikit-rf.org).
# Hz S RI R 50.0 
!freq ReS11 ImS11
300000.0 -0.9751966875 -0.1160357813
50299700.0 -1.000104494 0.0156492668
100299400.0 -0.9979984714 0.0285020316
150299100.0 -1.002862049 0.0453224905
200298800.0 -0.9996929897 0.0587504704
250298500.0 -0.9973279191 0.0721929185
300298200.0 -0.9859804175 0.0879691414
350297900.0 -0.9940249968 0.0989331416
400297600.0 -0.99323579 0.1154966073
450297300.0 -0.9912407378 0.1291846929
500297000.0 -0.9895374492 0.1439280353
550296700.0 -0.9843927392 0.1564406985
600296400.0 -1.017256581 0.1897888503
650296100.0 -0.982319146 0.1863556275
700295800.0 -0.979358356 0.2008072507
750295500.0 -0.976403687 0.2147495237
800295200.0 -0.9729112457 0.2287901748
850294900.0 -0.9696596641 0.2424899272
900294600.0 -0.9658606876 0.2563225832
950294300.0 -0.9619486057 0.270167764
1000294000.0 -0.9581997527 0.2839306137
1050293700.0 -0.9537041081 0.2978851832
1100293400.0 -0.9493468509 0.3121724676
1150293100.0 -0.9453579055 0.3241055451
1200292800.0 -0.9400072301 0.3383400587
1250292500.0 -0.9346319558 0.3518304848
1300292200.0 -0.9288822195 0.3651004888
1350291900.0 -0.9233320835 0.379157338
1400291600.0 -0.9180112849 0.3922806777
1450291300.0 -0.9124403804 0.4047062816
1500291000.0 -0.9061147728 0.4179532447
1550290700.0 -0.8995109436 0.4313833904
1600290400.0 -0.893318317 0.4442104658
1650290100.0 -0.8867031168 0.4563336942
1700289800.0 -0.8799690709 0.4698645496
1750289500.0 -0.8727809103 0.4821893489
1800289200.0 -0.865392739 0.494996111
1850288900.0 -0.858734153 0.5062959828
1900288600.0 -0.8507869613 0.5194476892
1950288300.0 -0.8429247514 0.5319033408
2000288000.0 -0.8353232448 0.5434047604
2050287700.0 -0.8271520365 0.5557480631
2100287400.0 -0.8190850195 0.567351021
2150287100.0 -0.810580073 0.5791692221
2200286800.0 -0.8027556875 0.5894817134
2250286500.0 -0.7937904917 0.6015293833
2300286200.0 -0.7849706008 0.6135425188
2350285900.0 -0.7762068127 0.624300107
2400285600.0 -0.7671805821 0.6352903933
2450285300.0 -0.7589619168 0.6456990963
2500285000.0 -0.7492011001 0.657008451
2550284700.0 -0.7401401622 0.6672029105
2600284400.0 -0.7308216461 0.6773540881
2650284100.0 -0.7214378469 0.6877750924
2700283800.0 -0.7110697369 0.6984720262
2750283500.0 -0.7008777445 0.7090698894
2800283200.0 -0.6911472326 0.7188757282
2850282900.0 -0.6810609033 0.7287099702
2900282600.0 -0.670612931 0.7383300363
2950282300.0 -0.6604436997 0.7473833883
3000282000.0 -0.6495000027 0.7569926095
3050281700.0 -0.6383294991 0.7663320015
3100281400.0 -0.6265322212 0.7755735711
3150281100.0 -0.6145954476 0.7849009119
3200280800.0 -0.6030404926 0.7934729241
3250280500.0 -0.5921289219 0.8012095218
3300280200.0 -0.5807994551 0.8091073243
3350279900.0 -0.5692672114 0.8164474361
3400279600.0 -0.5572107211 0.8244193563
3450279300.0 -0.5462849272 0.8314601118
3500279000.0 -0.5339578632 0.8384308901
3550278700.0 -0.52169697 0.8458843797
3600278400.0 -0.5094280598 0.8530063562
3650278100.0 -0.4963102236 0.8604970834
3700277800.0 -0.4842494788 0.8670053864
3750277500.0 -0.4720480638 0.8736783781
3800277200.0 -0.4594501876 0.8801241308
3850276900.0 -0.4475174376 0.8860463544
3900276600.0 -0.436334717 0.8915581129
3950276300.0 -0.4239708366 0.8974929977
4000276000.0 -0.4120993341 0.9036216626
4050275700.0 -0.3989633119 0.9098323648
4100275400.0 -0.3881412643 0.915287008
4150275100.0 -0.3752996624 0.9209548243
4200274800.0 -0.3621786169 0.9264888362
4250274500.0 -0.3502429893 0.9315522774
4300274200.0 -0.3371341668 0.936817869
4350273900.0 -0.3234066037 0.9420287204
4400273600.0 -0.3083476931 0.9474049626
4450273300.0 -0.2932348231 0.9524648954
4500273000.0 -0.27955027 0.9567881166
4550272700.0 -0.2653229476 0.9608884403
4600272400.0 -0.2500093008 0.9651512266
4650272100.0 -0.2381861143 0.9683449008
4700271800.0 -0.2248804401 0.9716918233
4750271500.0 -0.2130690597 0.9745651304
4800271200.0 -0.20073593 0.9773771988
4850270900.0 -0.1868005572 0.9802711818
4900270600.0 -0.1727920702 0.9824481486
4950270300.0 -0.1585145833 0.9850793389
5000270000.0 -0.1443235051 0.987121809
5050269700.0 -0.1306707803 0.988628592
5100269400.0 -0.1175170876 0.9902815394
5150269100.0 -0.1041231658 0.9919156718
5200268800.0 -0.0906264346 0.9928474539
5250268500.0 -0.0775672227 0.9942871962
5300268200.0 -0.064227313 0.9940300159
5350267900.0 -0.052345746 0.9954946654
5400267600.0 -0.0359365359 0.996607504
5450267300.0 -0.0229064718 0.9966264228
5500267000.0 -0.0075979931 0.9971168933
5550266700.0 0.0073690461 0.9973129224
5600266400.0 0.022718551 0.9973978134
5650266100.0 0.0394549998 0.997192251
5700265800.0 0.0535864755 0.9960659839
5750265500.0 0.0689445415 0.9956679607
5800265200.0 0.0827315869 0.994193849
5850264900.0 0.0962201653 0.993199555
5900264600.0 0.1129241129 0.9918064808
5950264300.0 0.1248422276 0.9902567321
6000264000.0 0.1387889681 0.9881312958
6050263700.0 0.1511707081 0.9865371305
6100263400.0 0.1634559802 0.9849346873
6150263100.0 0.1782291367 0.9827085316
6200262800.0 0.1884171754 0.9808146714
6250262500.0 0.2011754122 0.9784924433
6300262200.0 0.2141258056 0.9756736948
6350261900.0 0.2271944185 0.9728060729
6400261600.0 0.2410145169 0.9695044649
6450261300.0 0.2524221238 0.9667309544
6500261000.0 0.2653791751 0.9633450752
6550260700.0 0.2781415752 0.9591748263
6600260400.0 0.2915390913 0.9550302078
6650260100.0 0.3055058115 0.9507374164
6700259800.0 0.3174698017 0.9462523451
6750259500.0 0.3313091561 0.9417271417
6800259200.0 0.344590513 0.9367203765
6850258900.0 0.3564288822 0.9314049465
6900258600.0 0.3687836542 0.9265208655
6950258300.0 0.3811385165 0.9210891137
7000258000.0 0.3930647505 0.9156947724
7050257700.0 0.4052693692 0.9094755888
7100257400.0 0.4182313556 0.903314496
7150257100.0 0.428447566 0.8981211729
7200256800.0 0.4413350847 0.8916756265
7250256500.0 0.452718123 0.8850724482
7300256200.0 0.4661213945 0.8787876483
7350255900.0 0.4785096421 0.8718453115
7400255600.0 0.4914410107 0.864288885
7450255300.0 0.5072631928 0.8553319626
7500255000.0 0.5188237976 0.84819145
7550254700.0 0.5327357103 0.8398828543
7600254400.0 0.545591948 0.8316598087
7650254100.0 0.557119979 0.8237670911
7700253800.0 0.5687816131 0.8154959421
7750253500.0 0.5797775977 0.8078816662
7800253200.0 0.590743604 0.8005477097
7850252900.0 0.60031559 0.7933062157
7900252600.0 0.6120762605 0.7843833195
7950252300.0 0.620815137 0.7779759927
8000252000.0 0.630970236 0.7702999306
8050251700.0 0.6413905173 0.7620306207
8100251400.0 0.6517921866 0.7538601589
8150251100.0 0.6616499212 0.7453416224
8200250800.0 0.6711184667 0.7373541661
8250250500.0 0.6796260294 0.7295076403
8300250200.0 0.6891193248 0.7207647111
8350249900.0 0.6981654249 0.7122404728
8400249600.0 0.7065674212 0.703929532
8450249300.0 0.7156524264 0.6946273425
8500249000.0 0.7241165591 0.6859332671
8550248700.0 0.7323647712 0.6769570137
8600248400.0 0.7409825609 0.6673941478
8650248100.0 0.7487489956 0.6579510753
8700247800.0 0.7582572928 0.6467530584
8750247500.0 0.7664021633 0.6367454321
8800247200.0 0.7747294118 0.6263691444
8850246900.0 0.7835969237 0.6148894774
8900246600.0 0.7917373085 0.6036248282
8950246300.0 0.8013531768 0.5905105482
9000246000.0 0.8108372181 0.577647354
9050245700.0 0.8201399485 0.5647207902
9100245400.0 0.8284882368 0.5523145981
9150245100.0 0.8381125602 0.5385476458
9200244800.0 0.8478869816 0.5234983003
9250244500.0 0.8572706891 0.5076931237
9300244200.0 0.8658275413 0.4931700094
9350243900.0 0.8733877273 0.4793291016
9400243600.0 0.8800778173 0.4669110424
9450243300.0 0.8859965345 0.4552242759
9500243000.0 0.8921242535 0.443101396
9550242700.0 0.8959996222 0.4354237394
9600242400.0 0.8999417155 0.4281826621
9650242100.0 0.9034869706 0.4217410304
9700241800.0 0.9078399263 0.4132897994
9750241500.0 0.9120161075 0.4059383633
9800241200.0 0.9167143471 0.3968613282
9850240900.0 0.9225836594 0.3849860831
9900240600.0 0.9279616808 0.3734939856
9950240300.0 0.9343994454 0.3575507255
10000240000.0 0.9393673786 0.3461553185
10050239700.0 0.9449486408 0.3307266818
10100239400.0 0.9495711219 0.3153097641
10150239100.0 0.9538686184 0.3003678981
10200238800.0 0.9581357286 0.2854617037
10250238500.0 0.9615444773 0.2721254872
10300238200.0 0.9646717066 0.2581908393
10350237900.0 0.9673962859 0.2452485272
10400237600.0 0.9698754946 0.232159634
10450237300.0 0.9727147228 0.2181402296
10500237000.0 0.9746659318 0.2059950542
10550236700.0 0.9769373915 0.1918624968
10600236400.0 0.9790657336 0.1789771048
10650236100.0 0.9813655078 0.1634153193
10700235800.0 0.9836440883 0.1513320907
10750235500.0 0.9860651219 0.1381622523
10800235200.0 0.9876052137 0.1246233678
10850234900.0 0.9894974224 0.1094901199
10900234600.0 0.9917299872 0.0949022549
10950234300.0 0.993498314 0.0817590497
11000234000.0 0.9952970682 0.0665524667
11050233700.0 0.9969584634 0.050257594
11100233400.0 0.9984703419 0.0329582183
11150233100.0 0.9996927326 0.0168506681
11200232800.0 1.000149204 0.0018234357
11250232500.0 1.001644773 -0.0152593948
11300232200.0 1.001849906 -0.0333309698
11350231900.0 1.001585034 -0.0484860688
11400231600.0 1.001421164 -0.0645156723
11450231300.0 1.001728114 -0.0797898957
11500231000.0 1.000112647 -0.096416196
11550230700.0 0.9983440085 -0.1089233247
11600230400.0 0.9970445458 -0.1219107685
11650230100.0 0.9953345067 -0.1336848292
11700229800.0 0.9930526311 -0.1479417977
11750229500.0 0.990692575 -0.1626338806
11800229200.0 0.9880426404 -0.176298932
11850228900.0 0.9845031705 -0.1885090605
11900228600.0 0.9811381219 -0.1986849054
11950228300.0 0.9777710356 -0.2089105644
12000228000.0 0.9748313835 -0.2179658803
12050227700.0 0.9708148848 -0.2315896494
12100227400.0 0.9676445155 -0.2417422304
12150227100.0 0.9633232407 -0.2580643868
12200226800.0 0.9593401122 -0.2694851765
12250226500.0 0.9553155653 -0.2817709547
12300226200.0 0.9516525918 -0.2944605073
12350225900.0 0.9461057252 -0.3079481548
12400225600.0 0.9420805657 -0.3209275972
12450225300.0 0.9376782109 -0.333569076
12500225000.0 0.932247063 -0.3488028733
12550224700.0 0.9268860335 -0.3627720903
12600224400.0 0.9218628871 -0.3752526289
12650224100.0 0.9161238088 -0.3896982826
12700223800.0 0.9109006435 -0.402599935
12750223500.0 0.9053970103 -0.4155647599
12800223200.0 0.9000869888 -0.428109105
12850222900.0 0.8947377147 -0.4402268401
12900222600.0 0.8889194818 -0.4521720349
12950222300.0 0.8824846146 -0.4653157786
13000222000.0 0.8769583721 -0.4767976707
13050221700.0 0.8701082947 -0.4889228577
13100221400.0 0.8630403553 -0.501133078
13150221100.0 0.8566163191 -0.5135802525
13200220800.0 0.8497365492 -0.5250244914
13250220500.0 0.8423279378 -0.537317383
13300220200.0 0.8350169507 -0.547998066
13350219900.0 0.8269265319 -0.5600682436
13400219600.0 0.8183265331 -0.5721232541
13450219300.0 0.8093402787 -0.5857839889
13500219000.0 0.7988971895 -0.599698487
13550218700.0 0.7890621237 -0.6123437989
13600218400.0 0.7787548024 -0.6243472382
13650218100.0 0.7692290184 -0.6355138141
13700217800.0 0.7585642884 -0.6477099902
13750217500.0 0.7476030523 -0.6595361345
13800217200.0 0.7361651792 -0.6708550641
13850216900.0 0.7252732218 -0.6817197407
13900216600.0 0.7160680162 -0.6911954594
13950216300.0 0.704788899 -0.7018426996
14000216000.0 0.6949732456 -0.7106945746
14050215700.0 0.6852983498 -0.7191371071
14100215400.0 0.6754653119 -0.7284225037
14150215100.0 0.6662634536 -0.7368649232
14200214800.0 0.6568609811 -0.7455004188
14250214500.0 0.646603033 -0.7548198934
14300214200.0 0.6360782016 -0.7641273732
14350213900.0 0.6252596039 -0.7736475855
14400213600.0 0.613181442 -0.7836724858
14450213300.0 0.6002844486 -0.7937157416
14500213000.0 0.5873458061 -0.8037969216
14550212700.0 0.574132091 -0.81287771
14600212400.0 0.5624837922 -0.8220720283
14650212100.0 0.5495960953 -0.8303268508
14700211800.0 0.535063987 -0.8399667475
14750211500.0 0.5231340646 -0.8484991671
14800211200.0 0.5111709374 -0.8563549191
14850210900.0 0.4988626339 -0.8635945035
14900210600.0 0.4855247239 -0.8716167633
14950210300.0 0.4720760005 -0.8793296629
15000210000.0 0.4594138969 -0.8861654897
15050209700.0 0.4467504388 -0.892142829
15100209400.0 0.4342054051 -0.8983101655
15150209100.0 0.4219259946 -0.9037310146
15200208800.0 0.4085002771 -0.9089971657
15250208500.0 0.398089516 -0.9136400217
15300208200.0 0.3855164333 -0.9181406976
15350207900.0 0.3730088564 -0.9223388938
15400207600.0 0.3575671112 -0.9287944154
15450207300.0 0.3438137581 -0.9329902709
15500207000.0 0.328617733 -0.9372541645
15550206700.0 0.3142192796 -0.9430868005
15600206400.0 0.2978194876 -0.9472030483
15650206100.0 0.2822108009 -0.9512645799
15700205800.0 0.2680850556 -0.9553208999
15750205500.0 0.2535252782 -0.9587223591
15800205200.0 0.2389473878 -0.962338518
15850204900.0 0.2245789374 -0.9658763185
15900204600.0 0.2097838242 -0.969485209
15950204300.0 0.1955368968 -0.9722883622
16000204000.0 0.1815766904 -0.9754002184
16050203700.0 0.1661639887 -0.9779094327
16100203400.0 0.1517823857 -0.9801932958
16150203100.0 0.1376993657 -0.9824619505
16200202800.0 0.1234873174 -0.9844195509
16250202500.0 0.1087624163 -0.9860296172
16300202200.0 0.0932775171 -0.987870096
16350201900.0 0.0783791964 -0.9893006091
16400201600.0 0.0637820567 -0.9902280668
16450201300.0 0.0485472071 -0.9913243599
16500201000.0 0.0320561949 -0.9920175489
16550200700.0 0.0164663255 -0.9925684057
16600200400.0 0.0007976637 -0.9927952803
16650200100.0 -0.0158628285 -0.9924912959
16700199800.0 -0.0315505533 -0.9922911405
16750199500.0 -0.0503456545 -0.9917387047
16800199200.0 -0.0659398578 -0.9906804893
16850198900.0 -0.0811274178 -0.9896747242
16900198600.0 -0.094920609 -0.9886878502
16950198300.0 -0.1087199897 -0.9882236751
17000198000.0 -0.1217866759 -0.9857700439
17050197700.0 -0.1344235274 -0.9840855513
17100197400.0 -0.147190616 -0.9822241318
17150197100.0 -0.1594645808 -0.9803091799
17200196800.0 -0.1723639092 -0.9780391818
17250196500.0 -0.1852450114 -0.9753726915
17300196200.0 -0.1974501653 -0.9734646796
17350195900.0 -0.2093433701 -0.9709113279
17400195600.0 -0.2215957887 -0.9684903679
17450195300.0 -0.2348656274 -0.9657267957
17500195000.0 -0.2482241187 -0.9624272637
17550194700.0 -0.2619466617 -0.9588283801
17600194400.0 -0.2761330711 -0.9547068796
17650194100.0 -0.2898538601 -0.9511774993
17700193800.0 -0.3029460323 -0.9465826111
17750193500.0 -0.3172936487 -0.9421346414
17800193200.0 -0.3315686755 -0.9369633361
17850192900.0 -0.3464946706 -0.9314817897
17900192600.0 -0.3619456756 -0.9255522687
17950192300.0 -0.3774868642 -0.9180133282
18000192000.0 -0.3921001961 -0.9110045293
18050191700.0 -0.4059802728 -0.9030276067
18100191400.0 -0.4202121548 -0.895256605
18150191100.0 -0.4352514341 -0.8872832078
18200190800.0 -0.4521528649 -0.877905054
18250190500.0 -0.4691737814 -0.8687297393
18300190200.0 -0.484727557 -0.8596930569
18350189900.0 -0.4998932555 -0.8517861569
18400189600.0 -0.5139637853 -0.8430340727
18450189300.0 -0.5271943238 -0.8353501977
18500189000.0 -0.5403287812 -0.8272783088
18550188700.0 -0.5536948962 -0.8194408846
18600188400.0 -0.5649798041 -0.8128982876
18650188100.0 -0.576060769 -0.806222128
18700187800.0 -0.5871903236 -0.7998994337
18750187500.0 -0.5975877944 -0.7935468932
18800187200.0 -0.6081480069 -0.7863060886
18850186900.0 -0.618309175 -0.7793849101
18900186600.0 -0.6287789588 -0.7719040951
18950186300.0 -0.6388449478 -0.7643451562
19000186000.0 -0.6461431528 -0.758194351
19050185700.0 -0.6552367597 -0.7514301118
19100185400.0 -0.6651511823 -0.7427406184
19150185100.0 -0.675241362 -0.7343985695
19200184800.0 -0.684462513 -0.7259164257
19250184500.0 -0.6956076073 -0.7162981895
19300184200.0 -0.7069959153 -0.7071459976
19350183900.0 -0.7167782754 -0.6974475232
19400183600.0 -0.7268511561 -0.6874814484
19450183300.0 -0.7356795464 -0.6772192071
19500183000.0 -0.744067747 -0.6682362111
19550182700.0 -0.7538063316 -0.6569810959
19600182400.0 -0.7642881296 -0.6450357521
19650182100.0 -0.7749162736 -0.6325465287
19700181800.0 -0.785585421 -0.6191947895
19750181500.0 -0.7961166444 -0.6050871647
19800181200.0 -0.8065234748 -0.5900033527
19850180900.0 -0.8162227707 -0.5746287786
19900180600.0 -0.8240601755 -0.56024306
19950180300.0 -0.8333558532 -0.5438165613
20000180000.0 -0.8260829712 -0.5461260678
20050179700.0 -0.8347897233 -0.5333017339
20100179400.0 -0.8430337414 -0.5193092335
20150179100.0 -0.850724017 -0.5073894282
20200178800.0 -0.8598723116 -0.4940806729
20250178500.0 -0.8693470364 -0.4800787716
20300178200.0 -0.8784964723 -0.4652817347
20350177900.0 -0.8881441991 -0.451503597
20400177600.0 -0.8965882616 -0.4366526599
20450177300.0 -0.9054314257 -0.4223231912
20500177000.0 -0.9132951998 -0.4083535294
20550176700.0 -0.9210222371 -0.3949923637
20600176400.0 -0.928286629 -0.3820391483
20650176100.0 -0.934402275 -0.3696011937
20700175800.0 -0.9413669011 -0.358268466
20750175500.0 -0.9479001632 -0.3460267198
20800175200.0 -0.9531020633 -0.3355199599
20850174900.0 -0.9576285975 -0.3240086657
20900174600.0 -0.9626641787 -0.3129491426
20950174300.0 -0.9661892806 -0.3015169427
21000174000.0 -0.9695899684 -0.2893381071
21050173700.0 -0.9722974909 -0.2790446812
21100173400.0 -0.9766539818 -0.2667470084
21150173100.0 -0.9808521655 -0.2542049373
21200172800.0 -0.9837090359 -0.240954501
21250172500.0 -0.9872874644 -0.227350972
21300172200.0 -0.9902064247 -0.2131248055
21350171900.0 -0.9916973867 -0.1991168474
21400171600.0 -0.992718338 -0.1843752454
21450171300.0 -0.9929984106 -0.1701787545
21500171000.0 -0.9932753132 -0.1542910835
21550170700.0 -0.9933996164 -0.1385678082
21600170400.0 -0.9921841105 -0.1232451139
21650170100.0 -0.9919442595 -0.1077566194
21700169800.0 -0.9905329128 -0.0927251914
21750169500.0 -0.9895474322 -0.0769234719
21800169200.0 -0.9880900238 -0.060181977
21850168900.0 -0.9873127921 -0.0440353036
21900168600.0 -0.9851818187 -0.0271976231
21950168300.0 -0.9844068521 -0.0112860747
22000168000.0 -0.983268124 0.0037961695
22050167700.0 -0.9832664139 0.0181959288
22100167400.0 -0.9832688805 0.0336791786
22150167100.0 -0.9840751023 0.0486222549
22200166800.0 -0.9842568842 0.0650553378
22250166500.0 -0.9837936858 0.0823765984
22300166200.0 -0.9830585433 0.0989493151
22350165900.0 -0.9824034598 0.115712344
22400165600.0 -0.9801320527 0.1313799411
22450165300.0 -0.9779608182 0.1466926151
22500165000.0 -0.9764813794 0.1595927188
22550164700.0 -0.9745743616 0.1752608178
22600164400.0 -0.9730370338 0.1903621745
22650164100.0 -0.9718653236 0.2063028591
22700163800.0 -0.9683146975 0.2217052953
22750163500.0 -0.9658358201 0.2361629849
22800163200.0 -0.9630910747 0.2495414684
22850162900.0 -0.9611617419 0.2634866856
22900162600.0 -0.9594891238 0.2766390997
22950162300.0 -0.9583524181 0.2889756553
23000162000.0 -0.9575134871 0.3008862377
23050161700.0 -0.9552760052 0.3133449043
23100161400.0 -0.9531921152 0.3260538847
23150161100.0 -0.9507286518 0.338887354
23200160800.0 -0.9465485707 0.3508511166
23250160500.0 -0.9445596658 0.3629895089
23300160200.0 -0.9420245633 0.3749937665
23350159900.0 -0.9383709945 0.3878613871
23400159600.0 -0.9336642477 0.4010097943
23450159300.0 -0.9286304024 0.4139801424
23500159000.0 -0.9240513271 0.4276576768
23550158700.0 -0.9198937438 0.4408292454
23600158400.0 -0.9145331093 0.4542865812
23650158100.0 -0.9081906729 0.4678925097
23700157800.0 -0.9005747801 0.4820232357
23750157500.0 -0.8919667976 0.496033122
23800157200.0 -0.8828833148 0.5091762667
23850156900.0 -0.8745733035 0.5214413359
23900156600.0 -0.8641827447 0.5348774243
23950156300.0 -0.8558662663 0.5475068293
24000156000.0 -0.8457378103 0.5596385167
24050155700.0 -0.8373853675 0.5700927399
24100155400.0 -0.8268719182 0.5822254811
24150155100.0 -0.8156628727 0.5946480471
24200154800.0 -0.8048608237 0.6055931177
24250154500.0 -0.7931544505 0.6174001061
24300154200.0 -0.781846283 0.6285615385
24350153900.0 -0.7704394445 0.6397127517
24400153600.0 -0.757776567 0.6497527003
24450153300.0 -0.7465937873 0.6595500768
24500153000.0 -0.7349638906 0.6690064344
24550152700.0 -0.7235721736 0.6789449717
24600152400.0 -0.7124929146 0.6880629196
24650152100.0 -0.7004586006 0.6960276319
