!Created with skrf (http://scikit-rf.org).
# Hz S RI R 50.0 
!freq ReS11 ImS11
300000.0 -0.9726713016 -0.1249581533
50299700.0 -0.9998800675 0.0151315398
100299400.0 -0.9977238416 0.0279038048
150299100.0 -1.002490409 0.0448724114
200298800.0 -0.9994477571 0.0581005201
250298500.0 -0.9974687657 0.0716894763
300298200.0 -0.9858405057 0.0873459296
350297900.0 -0.9939121983 0.0982398232
400297600.0 -0.9931148682 0.1149263692
450297300.0 -0.9908205839 0.128628884
500297000.0 -0.9893727479 0.1434644426
550296700.0 -0.9843235193 0.1560099998
600296400.0 -1.017281792 0.1890636899
650296100.0 -0.982271636 0.1859164552
700295800.0 -0.9790984305 0.1998956746
750295500.0 -0.9762212378 0.2137656615
800295200.0 -0.9727928788 0.2283475644
850294900.0 -0.9696136194 0.2418325967
900294600.0 -0.9657733101 0.2557524254
950294300.0 -0.9619717677 0.2692578637
1000294000.0 -0.9580454209 0.2831584554
1050293700.0 -0.9535857927 0.2968806087
1100293400.0 -0.9491666229 0.3113692112
1150293100.0 -0.9455841139 0.3232657035
1200292800.0 -0.9401218885 0.3376543813
1250292500.0 -0.9344834077 0.3512103593
1300292200.0 -0.9291895808 0.3645082264
1350291900.0 -0.9235492216 0.3782361124
1400291600.0 -0.9180341729 0.3916975407
1450291300.0 -0.9123514732 0.4039546293
1500291000.0 -0.906279053 0.4173587486
1550290700.0 -0.8996250942 0.4305379811
1600290400.0 -0.8934165656 0.4435304868
1650290100.0 -0.8867278212 0.4557723239
1700289800.0 -0.8798243232 0.4690441264
1750289500.0 -0.8728815447 0.4814369088
1800289200.0 -0.8655848659 0.4941665357
1850288900.0 -0.8587032625 0.5057306275
1900288600.0 -0.8507676311 0.518798087
1950288300.0 -0.8428409408 0.5312978778
2000288000.0 -0.8354305593 0.5428663624
2050287700.0 -0.8272289978 0.5551547865
2100287400.0 -0.8194829327 0.5664875239
2150287100.0 -0.8108840518 0.5786330805
2200286800.0 -0.802913096 0.5892052178
2250286500.0 -0.7940031044 0.6015625224
2300286200.0 -0.7852355181 0.6127982944
2350285900.0 -0.7767664971 0.6233949355
2400285600.0 -0.7680758894 0.6344137339
2450285300.0 -0.7590445794 0.6450476356
2500285000.0 -0.7490461122 0.6565766878
2550284700.0 -0.7401525533 0.6670636379
2600284400.0 -0.7308602025 0.6769299601
2650284100.0 -0.7223939439 0.6872164169
2700283800.0 -0.7119824863 0.6974490814
2750283500.0 -0.7016452804 0.708265915
2800283200.0 -0.6917257199 0.718115711
2850282900.0 -0.6812026678 0.7280317607
2900282600.0 -0.6706982225 0.7375173908
2950282300.0 -0.6602070465 0.747542481
3000282000.0 -0.6494169912 0.7566750241
3050281700.0 -0.6382919227 0.7657801649
3100281400.0 -0.6267459741 0.7749155237
3150281100.0 -0.6155337429 0.783940469
3200280800.0 -0.6042104658 0.7922002942
3250280500.0 -0.5929843528 0.800404271
3300280200.0 -0.5814198683 0.8085726505
3350279900.0 -0.5691365759 0.8164656067
3400279600.0 -0.556499924 0.8245643285
3450279300.0 -0.5455226914 0.8317754299
3500279000.0 -0.5337979618 0.8384276426
3550278700.0 -0.5215932486 0.8455186612
3600278400.0 -0.5096025607 0.8522906327
3650278100.0 -0.4967701101 0.8600326822
3700277800.0 -0.4846402409 0.8664113872
3750277500.0 -0.4721556845 0.8730390921
3800277200.0 -0.4598795753 0.8798018383
3850276900.0 -0.4477112587 0.885611457
3900276600.0 -0.4368783878 0.8913448109
3950276300.0 -0.4249026351 0.8970684452
4000276000.0 -0.4130946045 0.9029996585
4050275700.0 -0.4004607511 0.9090619311
4100275400.0 -0.3891778361 0.9144754348
4150275100.0 -0.3761965956 0.9203663063
4200274800.0 -0.3627207051 0.9258884048
4250274500.0 -0.3499243548 0.9312543807
4300274200.0 -0.3367320621 0.9366310658
4350273900.0 -0.3225664614 0.9418536557
4400273600.0 -0.307763137 0.9471296496
4450273300.0 -0.2926802532 0.9523204953
4500273000.0 -0.2797214741 0.956353613
4550272700.0 -0.26604954 0.9605240596
4600272400.0 -0.2509930363 0.964705296
4650272100.0 -0.2396981939 0.967789044
4700271800.0 -0.2269493266 0.9710934833
4750271500.0 -0.2151301084 0.9739543598
4800271200.0 -0.2029777714 0.9765967466
4850270900.0 -0.1891795201 0.9795384486
4900270600.0 -0.1753023208 0.9818709111
4950270300.0 -0.1607377975 0.984645466
5000270000.0 -0.1462286201 0.9866415748
5050269700.0 -0.1330279547 0.9880448749
5100269400.0 -0.1186374546 0.9901142579
5150269100.0 -0.1048185819 0.9911429312
5200268800.0 -0.0911898401 0.9927247145
5250268500.0 -0.0781911724 0.9935833706
5300268200.0 -0.0645541253 0.9945848079
5350267900.0 -0.0515441845 0.9951243347
5400267600.0 -0.0353660218 0.9963469953
5450267300.0 -0.0220468919 0.9967008837
5500267000.0 -0.0066675179 0.9971178267
5550266700.0 0.0080900772 0.9971007235
5600266400.0 0.0238388572 0.996927092
5650266100.0 0.0407116502 0.996548563
5700265800.0 0.0552571731 0.996347943
5750265500.0 0.0697969474 0.9949678078
5800265200.0 0.0831068007 0.9940848327
5850264900.0 0.0962393986 0.9930408163
5900264600.0 0.1131102668 0.9913373996
5950264300.0 0.1244215919 0.9897565062
6000264000.0 0.1379062773 0.988195108
6050263700.0 0.1497297888 0.9864890038
6100263400.0 0.1618939234 0.9850362685
6150263100.0 0.1765721698 0.9825983906
6200262800.0 0.1860615371 0.981097613
6250262500.0 0.1988490354 0.9786834318
6300262200.0 0.2109196701 0.9762596431
6350261900.0 0.2236909615 0.973434298
6400261600.0 0.2375677736 0.9702311343
6450261300.0 0.2486446911 0.9677709207
6500261000.0 0.26201904 0.9640726717
6550260700.0 0.2750005923 0.9602956342
6600260400.0 0.2885375731 0.9561903757
6650260100.0 0.3027095921 0.9518098952
6700259800.0 0.3146573578 0.9472268836
6750259500.0 0.3284903115 0.9422236818
6800259200.0 0.3419498147 0.9371530856
6850258900.0 0.3545131967 0.9319678043
6900258600.0 0.3669030963 0.9268810958
6950258300.0 0.3796496384 0.9214746049
7000258000.0 0.3911554506 0.9161954261
7050257700.0 0.4032305804 0.9104249863
7100257400.0 0.4166153423 0.9040303776
7150257100.0 0.4273737009 0.8985832455
7200256800.0 0.4405404518 0.892071198
7250256500.0 0.4529526628 0.8854179339
7300256200.0 0.4660441209 0.8786140756
7350255900.0 0.4789792595 0.8716748929
7400255600.0 0.4928632868 0.8638440504
7450255300.0 0.5084309701 0.8547055622
7500255000.0 0.5213758207 0.8474834851
7550254700.0 0.5357577651 0.8383464402
7600254400.0 0.5479307526 0.8296726301
7650254100.0 0.5597334289 0.8219866987
7700253800.0 0.5709694617 0.8138079614
7750253500.0 0.5817301566 0.8061715614
7800253200.0 0.592726918 0.7983871286
7850252900.0 0.6024253606 0.7910516141
7900252600.0 0.6139479378 0.7824376962
7950252300.0 0.6222824974 0.7760570089
8000252000.0 0.6321537284 0.7685514508
8050251700.0 0.6426378331 0.7603717182
8100251400.0 0.6525826378 0.7523469738
8150251100.0 0.6622551805 0.7441688066
8200250800.0 0.6724301173 0.7358020611
8250250500.0 0.6807234333 0.7279013919
8300250200.0 0.6898991566 0.7197256354
8350249900.0 0.6989332273 0.710902223
8400249600.0 0.7071917671 0.7028192495
8450249300.0 0.7158721789 0.693871111
8500249000.0 0.7244827815 0.6852466664
8550248700.0 0.7327649265 0.6762035836
8600248400.0 0.741040077 0.6670024055
8650248100.0 0.7487374013 0.6573249024
8700247800.0 0.7578508704 0.64628973
8750247500.0 0.7661598408 0.6362097458
8800247200.0 0.7742004774 0.6259868809
8850246900.0 0.7826431074 0.6147574165
8900246600.0 0.7914276673 0.6030402584
8950246300.0 0.8004428143 0.5904593175
9000246000.0 0.8090897304 0.5783388165
9050245700.0 0.817523438 0.5662299161
9100245400.0 0.8259543392 0.5541969361
9150245100.0 0.8346938815 0.5412303266
9200244800.0 0.8440623483 0.5268617652
9250244500.0 0.8530721205 0.5120949546
9300244200.0 0.8612089298 0.4985853152
9350243900.0 0.8688497398 0.4853890128
9400243600.0 0.875386361 0.4737562966
9450243300.0 0.8808851815 0.463502111
9500243000.0 0.8871355735 0.4516813394
9550242700.0 0.8912234531 0.4442787916
9600242400.0 0.895664923 0.4366643277
9650242100.0 0.8996429178 0.4296746006
9700241800.0 0.9044615488 0.4211291162
9750241500.0 0.9087107874 0.4134738705
9800241200.0 0.914115215 0.4038663861
9850240900.0 0.9200331264 0.3923037285
9900240600.0 0.925991482 0.3804237293
9950240300.0 0.9329662681 0.3635075047
10000240000.0 0.9378790096 0.3516620943
10050239700.0 0.9440748833 0.3350924435
10100239400.0 0.9492590219 0.3189292992
10150239100.0 0.9540009974 0.3032743909
10200238800.0 0.9584630507 0.2874949408
10250238500.0 0.9615940517 0.2742555789
10300238200.0 0.964730509 0.2603796413
10350237900.0 0.967519912 0.2470937609
10400237600.0 0.970068595 0.2337196975
10450237300.0 0.9727404415 0.2200347084
10500237000.0 0.9751320302 0.2074847698
10550236700.0 0.9775537564 0.1929199149
10600236400.0 0.9791293663 0.1794981894
10650236100.0 0.9815997169 0.1643266088
10700235800.0 0.983636872 0.1523777213
10750235500.0 0.9860084584 0.1389651601
10800235200.0 0.9879462924 0.1244047189
10850234900.0 0.9897113512 0.1093087606
10900234600.0 0.992033399 0.0949484118
10950234300.0 0.9937925822 0.081039134
11000234000.0 0.9956785941 0.0653947375
11050233700.0 0.9972972746 0.0487165043
11100233400.0 0.9986975836 0.0308174483
11150233100.0 1.000061548 0.0143503355
11200232800.0 1.001132743 -0.001980517
11250232500.0 1.001832051 -0.0198935285
11300232200.0 1.001918804 -0.0382055636
11350231900.0 1.002414461 -0.0543310959
11400231600.0 1.00166482 -0.0704995372
11450231300.0 1.001321895 -0.0861672225
11500231000.0 0.9990777317 -0.1023536336
11550230700.0 0.9977931717 -0.1152672326
11600230400.0 0.9970508843 -0.1281076568
11650230100.0 0.9951517915 -0.1400900721
11700229800.0 0.9924713226 -0.1552552708
11750229500.0 0.9901528352 -0.1691458032
11800229200.0 0.9874477227 -0.1824563126
11850228900.0 0.9833726426 -0.1941492983
11900228600.0 0.9794398317 -0.2035438683
11950228300.0 0.9763723113 -0.2133647469
12000228000.0 0.9734699625 -0.2225751125
12050227700.0 0.9702918487 -0.2340378546
12100227400.0 0.9668813472 -0.2459999718
12150227100.0 0.9618562874 -0.2621091328
12200226800.0 0.957818234 -0.2733507901
12250226500.0 0.9537143174 -0.2865469933
12300226200.0 0.950032999 -0.2986804238
12350225900.0 0.9437371901 -0.3125574578
12400225600.0 0.9400878595 -0.3252336847
12450225300.0 0.9352125542 -0.337583155
12500225000.0 0.9300992302 -0.352166529
12550224700.0 0.9246199827 -0.3659597627
12600224400.0 0.9198561734 -0.3786414039
12650224100.0 0.9139501897 -0.3929918748
12700223800.0 0.9086717507 -0.4057228659
12750223500.0 0.9032153825 -0.4187595109
12800223200.0 0.8976625527 -0.43119434
12850222900.0 0.892488604 -0.4435636944
12900222600.0 0.8874095352 -0.4552906232
12950222300.0 0.880922866 -0.4684627446
13000222000.0 0.874827643 -0.4790827253
13050221700.0 0.8680940111 -0.4924927968
13100221400.0 0.861264474 -0.5046497092
13150221100.0 0.8544059939 -0.5169443796
13200220800.0 0.8474046642 -0.5282056775
13250220500.0 0.8401556845 -0.5403023164
13300220200.0 0.8324471311 -0.5517348483
13350219900.0 0.8243092332 -0.5634787112
13400219600.0 0.8159015797 -0.5754424766
13450219300.0 0.8070550394 -0.5882108093
13500219000.0 0.7967557599 -0.6018177693
13550218700.0 0.7872651331 -0.6134312402
13600218400.0 0.7772035573 -0.6260064664
13650218100.0 0.7674269874 -0.6365756889
13700217800.0 0.7569979482 -0.6484930408
13750217500.0 0.7479266906 -0.6591107863
13800217200.0 0.7365488215 -0.6706531799
13850216900.0 0.726065562 -0.68093792
13900216600.0 0.7157167475 -0.6908337716
13950216300.0 0.7052701619 -0.7009201422
14000216000.0 0.6950461219 -0.7097035051
14050215700.0 0.6858515219 -0.7174303168
14100215400.0 0.6767069876 -0.7265359214
14150215100.0 0.6675243242 -0.7351086371
14200214800.0 0.6579822435 -0.744014507
14250214500.0 0.6474519988 -0.7535534762
14300214200.0 0.6370821042 -0.7629104614
14350213900.0 0.6261154991 -0.7725149503
14400213600.0 0.6140293341 -0.7823221917
14450213300.0 0.6013510533 -0.7928203941
14500213000.0 0.5882200575 -0.8027901029
14550212700.0 0.5756449356 -0.8116044047
14600212400.0 0.5636815815 -0.8205138627
14650212100.0 0.5511085301 -0.8292357781
14700211800.0 0.5371552655 -0.8389097542
14750211500.0 0.5251629556 -0.8474606597
14800211200.0 0.5120146322 -0.8554217357
14850210900.0 0.4999427432 -0.8630430694
14900210600.0 0.4865900837 -0.8710938988
14950210300.0 0.4732078006 -0.8787720612
15000210000.0 0.4606493282 -0.8853107484
15050209700.0 0.4480029952 -0.8914358117
15100209400.0 0.4352999614 -0.8974555789
15150209100.0 0.4232318003 -0.9031550629
15200208800.0 0.410252956 -0.9081994417
15250208500.0 0.3999285591 -0.9135368892
15300208200.0 0.3875177047 -0.9177991438
15350207900.0 0.3741964992 -0.9222677994
15400207600.0 0.3592785997 -0.9279805545
15450207300.0 0.3446535724 -0.9323100157
15500207000.0 0.3302256668 -0.9369912777
15550206700.0 0.3156497634 -0.9415942483
15600206400.0 0.2994848505 -0.9470045454
15650206100.0 0.2836012726 -0.9508730341
15700205800.0 0.2701243152 -0.9543772159
15750205500.0 0.2560284115 -0.9576528872
15800205200.0 0.2421945272 -0.9611487651
15850204900.0 0.2279820185 -0.9646858717
15900204600.0 0.2129267717 -0.9683388664
15950204300.0 0.1986853141 -0.9716540179
16000204000.0 0.1838437694 -0.9744016881
16050203700.0 0.1691748197 -0.9770733343
16100203400.0 0.1540457175 -0.9795443075
16150203100.0 0.1394921328 -0.9820656771
16200202800.0 0.1253221364 -0.9840069748
16250202500.0 0.1103661328 -0.9858852963
16300202200.0 0.0944817078 -0.9876107836
16350201900.0 0.0797644913 -0.988940178
16400201600.0 0.0650360753 -0.9898749246
16450201300.0 0.0496251002 -0.9912617246
16500201000.0 0.0325555039 -0.992030954
16550200700.0 0.0163475858 -0.9924393121
16600200400.0 0.0004154045 -0.9927166127
16650200100.0 -0.0154647372 -0.9927098768
16700199800.0 -0.0321093122 -0.9920764376
16750199500.0 -0.0512394466 -0.9915170594
16800199200.0 -0.0664190921 -0.9905568818
16850198900.0 -0.0827652852 -0.9892351338
16900198600.0 -0.0971559104 -0.9886560968
16950198300.0 -0.1108043751 -0.9875099589
17000198000.0 -0.1235206118 -0.986117042
17050197700.0 -0.1358011686 -0.983718599
17100197400.0 -0.1490991882 -0.9816294625
17150197100.0 -0.1617026637 -0.9802483336
17200196800.0 -0.174657273 -0.9780220789
17250196500.0 -0.187566235 -0.9755664922
17300196200.0 -0.1997603817 -0.9729769482
17350195900.0 -0.2115120282 -0.9706154904
17400195600.0 -0.2233090729 -0.9680161691
17450195300.0 -0.2362967156 -0.9651317096
17500195000.0 -0.24945118 -0.9619755872
17550194700.0 -0.2633273904 -0.9585966836
17600194400.0 -0.2773221498 -0.9546130048
17650194100.0 -0.2906934801 -0.9504235575
17700193800.0 -0.3035070079 -0.9459700371
17750193500.0 -0.3178460576 -0.9415711325
17800193200.0 -0.3320629084 -0.9362605127
17850192900.0 -0.3469197685 -0.930928881
17900192600.0 -0.3617925665 -0.9247841245
17950192300.0 -0.3776020767 -0.9178153244
18000192000.0 -0.3923062925 -0.9104690573
18050191700.0 -0.4059941364 -0.9025983274
18100191400.0 -0.4201081677 -0.8948132894
18150191100.0 -0.4350288667 -0.8869096433
18200190800.0 -0.4517293691 -0.8777709032
18250190500.0 -0.4686176248 -0.8683000922
18300190200.0 -0.4840513286 -0.8593997532
18350189900.0 -0.4999173213 -0.8510563308
18400189600.0 -0.514149765 -0.8429782947
18450189300.0 -0.5276714904 -0.8345188085
18500189000.0 -0.5408088572 -0.8269255748
18550188700.0 -0.5537175493 -0.8188783665
18600188400.0 -0.56581369 -0.8120270166
18650188100.0 -0.5768709328 -0.8054667144
18700187800.0 -0.5880105019 -0.7989387526
18750187500.0 -0.5991143034 -0.7918536067
18800187200.0 -0.6095821251 -0.7851550819
18850186900.0 -0.6198331389 -0.778158751
18900186600.0 -0.630020922 -0.770787109
18950186300.0 -0.6401555374 -0.7630713194
19000186000.0 -0.6478052239 -0.7570883467
19050185700.0 -0.6572422368 -0.7495941076
19100185400.0 -0.6668019119 -0.7413284411
19150185100.0 -0.6770574743 -0.7329412438
19200184800.0 -0.6864834059 -0.7244729073
19250184500.0 -0.6965920239 -0.7160030935
19300184200.0 -0.7084318152 -0.7062045343
19350183900.0 -0.7187274266 -0.6963046368
19400183600.0 -0.7281074702 -0.6867480323
19450183300.0 -0.7379975516 -0.6759210478
19500183000.0 -0.7462885115 -0.6661547698
19550182700.0 -0.7563005521 -0.6551322413
19600182400.0 -0.7655814451 -0.6437368013
19650182100.0 -0.7763414631 -0.631337336
19700181800.0 -0.7871017856 -0.6183369727
19750181500.0 -0.7973293686 -0.6041624607
19800181200.0 -0.807399983 -0.5893117731
19850180900.0 -0.8171144045 -0.5738501984
19900180600.0 -0.82457862 -0.5595315798
19950180300.0 -0.8340734413 -0.5428787936
20000180000.0 -0.8231687947 -0.5468110979
20050179700.0 -0.8315954361 -0.534153959
20100179400.0 -0.8394439511 -0.5211731078
20150179100.0 -0.847633652 -0.5089424439
20200178800.0 -0.8559654664 -0.4980382722
20250178500.0 -0.8653037117 -0.4857121537
20300178200.0 -0.8751496657 -0.4719874893
20350177900.0 -0.884636363 -0.4579724248
20400177600.0 -0.8936701507 -0.4438117258
20450177300.0 -0.901808879 -0.4293856426
20500177000.0 -0.9098862073 -0.4153944868
20550176700.0 -0.9182615118 -0.4019663388
20600176400.0 -0.9247993079 -0.3885693896
20650176100.0 -0.9316361835 -0.3765999071
20700175800.0 -0.9378733017 -0.3642743698
20750175500.0 -0.9452393568 -0.352883063
20800175200.0 -0.9490746629 -0.3420009864
20850174900.0 -0.9540308198 -0.3317418021
20900174600.0 -0.9579368251 -0.3205715173
20950174300.0 -0.9618180626 -0.3097690041
21000174000.0 -0.9641032146 -0.2995006952
21050173700.0 -0.9658173679 -0.2895430856
21100173400.0 -0.9690563497 -0.278518195
21150173100.0 -0.9735078032 -0.2665934932
21200172800.0 -0.9769397082 -0.253575201
21250172500.0 -0.980636386 -0.2396348478
21300172200.0 -0.9837369794 -0.2260757055
21350171900.0 -0.9861638146 -0.2116528377
21400171600.0 -0.9885123176 -0.1974662399
21450171300.0 -0.9886026113 -0.1834907895
21500171000.0 -0.9882571913 -0.1687507302
21550170700.0 -0.9890236093 -0.1537524209
21600170400.0 -0.9903564923 -0.1382855862
21650170100.0 -0.9917601739 -0.1223134148
21700169800.0 -0.9905819705 -0.1068020135
21750169500.0 -0.9904024863 -0.0913598674
21800169200.0 -0.9913595774 -0.0742716119
21850168900.0 -0.990556945 -0.0578832812
21900168600.0 -0.9889931066 -0.0410674235
21950168300.0 -0.9892403711 -0.0258768293
22000168000.0 -0.9894893226 -0.01090166
22050167700.0 -0.9899941489 0.0039043469
22100167400.0 -0.9903980261 0.0196856926
22150167100.0 -0.991246246 0.0356136287
22200166800.0 -0.9915304615 0.0525495356
22250166500.0 -0.991476391 0.0696528577
22300166200.0 -0.9908669573 0.0862025601
22350165900.0 -0.9890153105 0.1024301376
22400165600.0 -0.9882082156 0.1181012546
22450165300.0 -0.9861133132 0.133282852
22500165000.0 -0.9847817208 0.1479537086
22550164700.0 -0.983392782 0.1633186694
22600164400.0 -0.9814679528 0.1800993085
22650164100.0 -0.9785929511 0.1956817777
22700163800.0 -0.9752113568 0.2120253664
22750163500.0 -0.9724094015 0.2269720453
22800163200.0 -0.968919376 0.2395438414
22850162900.0 -0.9664022848 0.2526637838
22900162600.0 -0.964542823 0.2670994062
22950162300.0 -0.9628687983 0.2805921221
23000162000.0 -0.9613972494 0.2934506075
23050161700.0 -0.958530162 0.3066433446
23100161400.0 -0.9558687762 0.3201434742
23150161100.0 -0.9529767267 0.3331801196
23200160800.0 -0.9494787829 0.3461970607
23250160500.0 -0.9473544308 0.3580200822
23300160200.0 -0.943851966 0.370679953
23350159900.0 -0.9401651629 0.3853370298
23400159600.0 -0.9346268101 0.3987391715
23450159300.0 -0.9296401694 0.4128457805
23500159000.0 -0.925057389 0.4259846491
23550158700.0 -0.9202442581 0.4403846031
23600158400.0 -0.9140278676 0.4544490459
23650158100.0 -0.9067779518 0.4688463375
23700157800.0 -0.8982879766 0.4830378388
23750157500.0 -0.8886956375 0.4978480113
23800157200.0 -0.8788591737 0.5111568346
23850156900.0 -0.8693717406 0.5241825147
23900156600.0 -0.8597690619 0.5362438503
23950156300.0 -0.8501273455 0.5485688544
24000156000.0 -0.8401319859 0.5609901926
24050155700.0 -0.8294446412 0.5738806652
24100155400.0 -0.8191695015 0.5860999539
24150155100.0 -0.8077016388 0.5987623421
24200154800.0 -0.796508495 0.6101359074
24250154500.0 -0.7859329992 0.6225056759
24300154200.0 -0.7739751006 0.6348495173
24350153900.0 -0.7618910478 0.6457398091
24400153600.0 -0.7496214888 0.6565764089
24450153300.0 -0.7377316066 0.6668108512
24500153000.0 -0.7259080398 0.6769562552
24550152700.0 -0.7141705613 0.6867399028
24600152400.0 -0.7022782775 0.6956276813
24650152100.0 -0.6900115553 0.7044229928
