!Created with skrf (http://scikit-rf.org).
# Hz S RI R 50.0 
!freq ReS11 ImS11
300000.0 -0.9754338957 -0.1179260884
50299700.0 -0.9999652935 0.015418176
100299400.0 -0.9979938589 0.0284192548
150299100.0 -1.002674994 0.0451920304
200298800.0 -0.9996684417 0.0586826261
250298500.0 -0.9973216719 0.071952859
300298200.0 -0.9858369609 0.0878438238
350297900.0 -0.9941806652 0.0988416648
400297600.0 -0.9931247009 0.1154216921
450297300.0 -0.9912146729 0.1290839232
500297000.0 -0.9894105103 0.1437530291
550296700.0 -0.9843720777 0.156280156
600296400.0 -1.017297909 0.1897467543
650296100.0 -0.9821217447 0.186227179
700295800.0 -0.9792656835 0.2005954862
750295500.0 -0.9762652427 0.2143599617
800295200.0 -0.9730407922 0.2287217407
850294900.0 -0.9695640088 0.2423811663
900294600.0 -0.9658242492 0.2562672663
950294300.0 -0.9621432864 0.2698665864
1000294000.0 -0.9581115928 0.2839226788
1050293700.0 -0.953443509 0.2977866645
1100293400.0 -0.9493067713 0.312130291
1150293100.0 -0.9455297938 0.324078663
1200292800.0 -0.9401238266 0.3383423067
1250292500.0 -0.9346088133 0.3517907052
1300292200.0 -0.9290036677 0.3650272844
1350291900.0 -0.9234218302 0.3789436559
1400291600.0 -0.9178308047 0.3921523423
1450291300.0 -0.912331983 0.4046121344
1500291000.0 -0.9061544418 0.4178965311
1550290700.0 -0.8996576496 0.4313225932
1600290400.0 -0.8933583781 0.4440686475
1650290100.0 -0.8866762526 0.4563208097
1700289800.0 -0.8797600596 0.4696661943
1750289500.0 -0.8728006711 0.4821971058
1800289200.0 -0.8654753232 0.4949253366
1850288900.0 -0.8586767474 0.5063310976
1900288600.0 -0.8508407461 0.5191516285
1950288300.0 -0.8429080325 0.5319285147
2000288000.0 -0.8352094826 0.5430769858
2050287700.0 -0.827066853 0.5556546997
2100287400.0 -0.8191089376 0.5671270449
2150287100.0 -0.81072769 0.5790405746
2200286800.0 -0.8028214132 0.589573826
2250286500.0 -0.7940706335 0.6016641008
2300286200.0 -0.785123475 0.6131780921
2350285900.0 -0.7764511801 0.6242007755
2400285600.0 -0.7674721611 0.6352213401
2450285300.0 -0.758868182 0.6455884284
2500285000.0 -0.7490390071 0.6568496416
2550284700.0 -0.7402089537 0.6671456643
2600284400.0 -0.7307647086 0.6771941322
2650284100.0 -0.7218403056 0.6880816617
2700283800.0 -0.7113122687 0.6983611344
2750283500.0 -0.7006075474 0.7088520034
2800283200.0 -0.6909315253 0.7187564278
2850282900.0 -0.6809758929 0.7285808845
2900282600.0 -0.6706692234 0.7381810263
2950282300.0 -0.6606181563 0.7474367515
3000282000.0 -0.649723183 0.7569201942
3050281700.0 -0.6384071515 0.7661372498
3100281400.0 -0.6264547609 0.7755821881
3150281100.0 -0.6146624673 0.7849153405
3200280800.0 -0.6032018781 0.7934087085
3250280500.0 -0.592388333 0.8009693173
3300280200.0 -0.5812015409 0.8090268819
3350279900.0 -0.569485585 0.8163233555
3400279600.0 -0.5573589327 0.8243370058
3450279300.0 -0.5462003624 0.8313670355
3500279000.0 -0.5340259725 0.8384912359
3550278700.0 -0.5217712614 0.8456206593
3600278400.0 -0.5095226288 0.8526881497
3650278100.0 -0.4962271608 0.860468249
3700277800.0 -0.4842038999 0.8666563937
3750277500.0 -0.4720074132 0.8731902446
3800277200.0 -0.4594591345 0.8799531661
3850276900.0 -0.4474162896 0.8860771957
3900276600.0 -0.4368662439 0.8915819105
3950276300.0 -0.4240528807 0.8974674275
4000276000.0 -0.4120348925 0.9035938535
4050275700.0 -0.3991448613 0.9094081123
4100275400.0 -0.3880578184 0.915014744
4150275100.0 -0.3753860006 0.9207101089
4200274800.0 -0.3625157707 0.9262384304
4250274500.0 -0.3503805115 0.9312341921
4300274200.0 -0.3370866043 0.9369412541
4350273900.0 -0.3234465082 0.9420335936
4400273600.0 -0.3086952705 0.9472549454
4450273300.0 -0.2933395118 0.9523436215
4500273000.0 -0.2797236588 0.9567389434
4550272700.0 -0.2654509972 0.9610055338
4600272400.0 -0.2500806223 0.9651559184
4650272100.0 -0.2382884668 0.9683760659
4700271800.0 -0.2250946567 0.9717182826
4750271500.0 -0.2133605952 0.974615044
4800271200.0 -0.2007169756 0.977189243
4850270900.0 -0.1868443563 0.9800527539
4900270600.0 -0.1729561786 0.9824674101
4950270300.0 -0.1588024811 0.9852507314
5000270000.0 -0.1444758537 0.9871318927
5050269700.0 -0.1310486403 0.9887528093
5100269400.0 -0.1172756671 0.9904750154
5150269100.0 -0.1041792273 0.9921373344
5200268800.0 -0.0907107025 0.9927078304
5250268500.0 -0.0776164648 0.9938131515
5300268200.0 -0.0644896349 0.9945704037
5350267900.0 -0.0521867247 0.995390236
5400267600.0 -0.0360339085 0.9961903928
5450267300.0 -0.0228404136 0.9966260134
5500267000.0 -0.0079538651 0.9970688908
5550266700.0 0.0071574631 0.9971754147
5600266400.0 0.0225183069 0.9972594213
5650266100.0 0.0389813955 0.9967448012
5700265800.0 0.0535647895 0.9958937076
5750265500.0 0.0688347199 0.9953334087
5800265200.0 0.082842918 0.9944260971
5850264900.0 0.0962220732 0.9935242385
5900264600.0 0.1124693955 0.9918176902
5950264300.0 0.1247623973 0.9902922668
6000264000.0 0.1388498497 0.9882384203
6050263700.0 0.1510536413 0.9869741175
6100263400.0 0.1634071321 0.9850540629
6150263100.0 0.1779635471 0.9824042628
6200262800.0 0.1886233887 0.9809642648
6250262500.0 0.201377311 0.9782800108
6300262200.0 0.2139320837 0.9755228945
6350261900.0 0.2271543302 0.9727206072
6400261600.0 0.2409164441 0.9694845643
6450261300.0 0.2522147721 0.9667128623
6500261000.0 0.2648568378 0.9629416212
6550260700.0 0.2780573315 0.9592862811
6600260400.0 0.2911742187 0.9551166568
6650260100.0 0.3053446433 0.9507106184
6700259800.0 0.3171707922 0.946301054
6750259500.0 0.330826585 0.9415117011
6800259200.0 0.3442362286 0.9367053389
6850258900.0 0.356166272 0.9314673075
6900258600.0 0.3685038698 0.9265327775
6950258300.0 0.3810322671 0.9212748918
7000258000.0 0.3929413262 0.9157101842
7050257700.0 0.4052266135 0.9097732959
7100257400.0 0.4178482042 0.903557187
7150257100.0 0.4282948609 0.8981473274
7200256800.0 0.4413900951 0.8919744092
7250256500.0 0.4529727736 0.8852534535
7300256200.0 0.4658503755 0.8784026342
7350255900.0 0.4783706458 0.8718235474
7400255600.0 0.4917572494 0.8643804566
7450255300.0 0.5069977854 0.8552346439
7500255000.0 0.5189944775 0.8483143046
7550254700.0 0.5325821924 0.8400084659
7600254400.0 0.5450319455 0.8313795698
7650254100.0 0.5570107346 0.8236642274
7700253800.0 0.5687357132 0.8160530341
7750253500.0 0.58009383 0.8082193867
7800253200.0 0.5905656917 0.8003140403
7850252900.0 0.600243631 0.7933842982
7900252600.0 0.6119699165 0.7846479297
7950252300.0 0.6205729709 0.7781343694
8000252000.0 0.6308779312 0.7705552435
8050251700.0 0.6412619745 0.7622403441
8100251400.0 0.6514240087 0.7539220922
8150251100.0 0.6613987269 0.7453028494
8200250800.0 0.6709522746 0.7373501964
8250250500.0 0.6797749646 0.7295096989
8300250200.0 0.6890384533 0.7209862239
8350249900.0 0.6982466726 0.7120962102
8400249600.0 0.7064436533 0.7040706797
8450249300.0 0.7156425641 0.6950046378
8500249000.0 0.7243026104 0.6861404297
8550248700.0 0.7323536337 0.6769549848
8600248400.0 0.7408679817 0.6675229876
8650248100.0 0.74872873 0.6580129755
8700247800.0 0.7579742893 0.6469639954
8750247500.0 0.7664274146 0.6367047302
8800247200.0 0.7747340454 0.6264279902
8850246900.0 0.7834058866 0.6148885279
8900246600.0 0.7917033802 0.6035285042
8950246300.0 0.8014561154 0.5903904706
9000246000.0 0.8106123555 0.5779437914
9050245700.0 0.8196870537 0.5649989266
9100245400.0 0.8281973283 0.5524530488
9150245100.0 0.837336192 0.5390133273
9200244800.0 0.8477644473 0.523595494
9250244500.0 0.8568051929 0.5080550878
9300244200.0 0.8653312462 0.4936348885
9350243900.0 0.8730423784 0.4797671989
9400243600.0 0.8797607115 0.4674419782
9450243300.0 0.8857141659 0.4559074434
9500243000.0 0.8918832529 0.4438213256
9550242700.0 0.8957033699 0.4361943736
9600242400.0 0.899571945 0.4286511386
9650242100.0 0.9030840906 0.4223414807
9700241800.0 0.9077748658 0.4140098922
9750241500.0 0.9119349494 0.4065331584
9800241200.0 0.9165682243 0.3968828078
9850240900.0 0.9219583234 0.3857973593
9900240600.0 0.9276086207 0.3741643842
9950240300.0 0.934438744 0.3578759912
10000240000.0 0.9389228745 0.3462030178
10050239700.0 0.944750762 0.3309427075
10100239400.0 0.9496111815 0.3154672501
10150239100.0 0.954075497 0.3006196727
10200238800.0 0.9583462027 0.285744193
10250238500.0 0.9616000396 0.2722900824
10300238200.0 0.9647238114 0.2583140378
10350237900.0 0.967145676 0.245313815
10400237600.0 0.9699687277 0.232117896
10450237300.0 0.9723640727 0.21822963
10500237000.0 0.9747597223 0.2059717409
10550236700.0 0.9771333908 0.1919475841
10600236400.0 0.9790825063 0.1785051969
10650236100.0 0.9808052392 0.1644899293
10700235800.0 0.9832679252 0.151456239
10750235500.0 0.9856664542 0.1380461341
10800235200.0 0.9873253521 0.1243153862
10850234900.0 0.9894673899 0.1094339137
10900234600.0 0.9915737967 0.0949743385
10950234300.0 0.9933898775 0.0815586965
11000234000.0 0.9953050909 0.0666390623
11050233700.0 0.997034136 0.0502419501
11100233400.0 0.9984047363 0.0329798456
11150233100.0 0.999199458 0.0164859807
11200232800.0 0.999863483 0.0017734465
11250232500.0 1.001359879 -0.0150899199
11300232200.0 1.001066881 -0.0326816302
11350231900.0 1.002046856 -0.0490042595
11400231600.0 1.00155546 -0.0646324629
11450231300.0 1.000917338 -0.0797508683
11500231000.0 0.9997975652 -0.0962785684
11550230700.0 0.998465673 -0.109144683
11600230400.0 0.9976127379 -0.1223555721
11650230100.0 0.9949098611 -0.1340474897
11700229800.0 0.9931297186 -0.1479030985
11750229500.0 0.9908878785 -0.1632229002
11800229200.0 0.9882115226 -0.1764049362
11850228900.0 0.9843453232 -0.1889542309
11900228600.0 0.9806948807 -0.1986826748
11950228300.0 0.9775938755 -0.20897714
12000228000.0 0.9751818782 -0.2175892461
12050227700.0 0.9711939095 -0.2304081403
12100227400.0 0.9679892828 -0.2422108204
12150227100.0 0.9632030971 -0.2582741752
12200226800.0 0.9599876712 -0.269615231
12250226500.0 0.9553406833 -0.2823482138
12300226200.0 0.9513507539 -0.2952241409
12350225900.0 0.9465649393 -0.3084595368
12400225600.0 0.9420681038 -0.3211259739
12450225300.0 0.9375534494 -0.3341478583
12500225000.0 0.9321438568 -0.348847258
12550224700.0 0.9268503062 -0.362581094
12600224400.0 0.9220519612 -0.375547735
12650224100.0 0.9161467143 -0.3897922647
12700223800.0 0.9108271259 -0.402536678
12750223500.0 0.9053954029 -0.4154146326
12800223200.0 0.9000621872 -0.4282544683
12850222900.0 0.8945999714 -0.4403268952
12900222600.0 0.8888203283 -0.4524713882
12950222300.0 0.8825730474 -0.465339842
13000222000.0 0.8767966758 -0.4762703438
13050221700.0 0.8699942722 -0.4896487037
13100221400.0 0.863234116 -0.501264657
13150221100.0 0.8566124305 -0.5133647995
13200220800.0 0.8494249186 -0.524972581
13250220500.0 0.8425363928 -0.5372319717
13300220200.0 0.834801304 -0.5480975723
13350219900.0 0.8269291851 -0.5599561353
13400219600.0 0.8183006725 -0.572090464
13450219300.0 0.8091855808 -0.5856063565
13500219000.0 0.799060058 -0.5993219026
13550218700.0 0.7879486179 -0.6123850972
13600218400.0 0.7780891868 -0.6244808655
13650218100.0 0.7688064442 -0.63570543
13700217800.0 0.7583846969 -0.6474534953
13750217500.0 0.7482071316 -0.6595529239
13800217200.0 0.7369790881 -0.6699729536
13850216900.0 0.7249954259 -0.6825018707
13900216600.0 0.7155188265 -0.6911042026
13950216300.0 0.7049764194 -0.7009500877
14000216000.0 0.6947563398 -0.7104256481
14050215700.0 0.6852301599 -0.7188319847
14100215400.0 0.6760301159 -0.7286313364
14150215100.0 0.6662700705 -0.7365199068
14200214800.0 0.6568491927 -0.7453889854
14250214500.0 0.6466024922 -0.7546233819
14300214200.0 0.636418317 -0.7639293661
14350213900.0 0.6250939345 -0.7734790549
14400213600.0 0.6132733444 -0.7833212336
14450213300.0 0.6004957231 -0.7933609347
14500213000.0 0.5871257852 -0.8035587337
14550212700.0 0.5747773101 -0.812981513
14600212400.0 0.5623667743 -0.8216818507
14650212100.0 0.5490979724 -0.8303420498
14700211800.0 0.5357108291 -0.8401513741
14750211500.0 0.5231173224 -0.8480019149
14800211200.0 0.5112555899 -0.8560780267
14850210900.0 0.4991883826 -0.8634571523
14900210600.0 0.4856968116 -0.8714983468
14950210300.0 0.472306161 -0.8789310132
15000210000.0 0.4594416653 -0.8856029096
15050209700.0 0.4471703366 -0.8920247278
15100209400.0 0.434220987 -0.8978184527
15150209100.0 0.4219142054 -0.9034574066
15200208800.0 0.4094359048 -0.9086559115
15250208500.0 0.398051066 -0.9135013063
15300208200.0 0.3855931494 -0.918041788
15350207900.0 0.3725940427 -0.9225879053
15400207600.0 0.3578477275 -0.9274481251
15450207300.0 0.3432348028 -0.9331449723
15500207000.0 0.328298187 -0.9378121935
15550206700.0 0.3138854943 -0.9429323939
15600206400.0 0.2982263617 -0.9474511091
15650206100.0 0.2822491666 -0.9514469845
15700205800.0 0.2685113368 -0.9551927617
15750205500.0 0.2539517606 -0.9588474609
15800205200.0 0.2395665275 -0.9622197174
15850204900.0 0.2250091885 -0.9655819596
15900204600.0 0.2100910881 -0.9692344731
15950204300.0 0.1958731867 -0.9723001926
16000204000.0 0.181697087 -0.9751011852
16050203700.0 0.1668940529 -0.9778840186
16100203400.0 0.1525938608 -0.9800600564
16150203100.0 0.1372705896 -0.9826517801
16200202800.0 0.1237569623 -0.9841590015
16250202500.0 0.1088931448 -0.9860874211
16300202200.0 0.0936322734 -0.9877178238
16350201900.0 0.0789834658 -0.9894536006
16400201600.0 0.0640608321 -0.9903348969
16450201300.0 0.0487028286 -0.9911073149
16500201000.0 0.0322530232 -0.9921541845
16550200700.0 0.0166095051 -0.992588591
16600200400.0 0.0009486648 -0.9928778235
16650200100.0 -0.0153065796 -0.9925252833
16700199800.0 -0.031506512 -0.9918008315
16750199500.0 -0.0500673749 -0.9914931416
16800199200.0 -0.0660697838 -0.9906293039
16850198900.0 -0.0809274146 -0.9893621742
16900198600.0 -0.0953948054 -0.988643844
16950198300.0 -0.1084726438 -0.9876298582
17000198000.0 -0.1214580056 -0.9862807023
17050197700.0 -0.134294354 -0.9838386904
17100197400.0 -0.1471371195 -0.9820298882
17150197100.0 -0.1589539124 -0.9795797069
17200196800.0 -0.1722092746 -0.9779323156
17250196500.0 -0.1851089332 -0.9756121493
17300196200.0 -0.1972673905 -0.973417663
17350195900.0 -0.2093089268 -0.97111908
17400195600.0 -0.2214948412 -0.9685403913
17450195300.0 -0.2344707115 -0.965872448
17500195000.0 -0.2480916777 -0.9625254831
17550194700.0 -0.2618727365 -0.9587755332
17600194400.0 -0.2756025283 -0.9546272973
17650194100.0 -0.2898070309 -0.9508176931
17700193800.0 -0.3028033675 -0.9463391742
17750193500.0 -0.3169142282 -0.9417665123
17800193200.0 -0.3313926102 -0.936833513
17850192900.0 -0.3463559501 -0.9313398348
17900192600.0 -0.3614158376 -0.9251963305
17950192300.0 -0.3773164624 -0.9182105333
18000192000.0 -0.391812055 -0.9107346174
18050191700.0 -0.405651118 -0.9030546914
18100191400.0 -0.4201018541 -0.8954418053
18150191100.0 -0.4350827708 -0.8873949189
18200190800.0 -0.4519597953 -0.8778957604
18250190500.0 -0.4688801413 -0.8685678214
18300190200.0 -0.4840449587 -0.8600210418
18350189900.0 -0.4993753972 -0.8514110307
18400189600.0 -0.5139016367 -0.8432467461
18450189300.0 -0.5274079363 -0.8351434936
18500189000.0 -0.5406717737 -0.8273957664
18550188700.0 -0.5528188382 -0.8197640104
18600188400.0 -0.5647856567 -0.8130176734
18650188100.0 -0.5759352387 -0.8066726758
18700187800.0 -0.5867770067 -0.7999741231
18750187500.0 -0.5971920557 -0.7933108362
18800187200.0 -0.6078910016 -0.7865727615
18850186900.0 -0.617983381 -0.7795773736
18900186600.0 -0.6283672045 -0.7721187269
18950186300.0 -0.6382865133 -0.7643568046
19000186000.0 -0.645687123 -0.7583181194
19050185700.0 -0.6548663633 -0.7513954705
19100185400.0 -0.6648609213 -0.7424284668
19150185100.0 -0.6749584613 -0.7340179238
19200184800.0 -0.6842592656 -0.7263444752
19250184500.0 -0.6946026758 -0.7167883699
19300184200.0 -0.7055993124 -0.7078213452
19350183900.0 -0.7166111202 -0.6976583299
19400183600.0 -0.7265227312 -0.6877441575
19450183300.0 -0.73488465 -0.677256559
19500183000.0 -0.7436651027 -0.6673274906
19550182700.0 -0.7533012036 -0.6567396024
19600182400.0 -0.763572995 -0.6451649446
19650182100.0 -0.7745909452 -0.6326571037
19700181800.0 -0.7851700126 -0.6193535212
19750181500.0 -0.7956157654 -0.6053340545
19800181200.0 -0.806156722 -0.5904425233
19850180900.0 -0.8158591444 -0.5749336316
19900180600.0 -0.8238136996 -0.5602427998
19950180300.0 -0.8329767068 -0.5439180969
20000180000.0 -0.8256535649 -0.5465710201
20050179700.0 -0.8344468255 -0.5337541767
20100179400.0 -0.8429136146 -0.5206506876
20150179100.0 -0.8509250032 -0.5069856793
20200178800.0 -0.8597424518 -0.4943785749
20250178500.0 -0.8687451821 -0.4808330514
20300178200.0 -0.8786326711 -0.4662705191
20350177900.0 -0.8882191467 -0.4517407894
20400177600.0 -0.8966709152 -0.4372746738
20450177300.0 -0.9051174211 -0.4230257941
20500177000.0 -0.9131052348 -0.4092662041
20550176700.0 -0.9210651345 -0.3955783604
20600176400.0 -0.9279170905 -0.382698459
20650176100.0 -0.9343192648 -0.3702230116
20700175800.0 -0.940866159 -0.3582916204
20750175500.0 -0.9473218411 -0.3468304
20800175200.0 -0.9520887275 -0.3360110726
20850174900.0 -0.9581241277 -0.32529626
20900174600.0 -0.9621723229 -0.3128408506
20950174300.0 -0.9664254139 -0.3013977173
21000174000.0 -0.9693542589 -0.290222805
21050173700.0 -0.9726125327 -0.2793465378
21100173400.0 -0.976335481 -0.2680954132
21150173100.0 -0.9798274204 -0.2553907947
21200172800.0 -0.9835966356 -0.2421047859
21250172500.0 -0.9866754602 -0.2286233522
21300172200.0 -0.9895181541 -0.2139749368
21350171900.0 -0.9908891609 -0.1995030709
21400171600.0 -0.992500352 -0.1856141089
21450171300.0 -0.992365338 -0.171245164
21500171000.0 -0.9931919293 -0.1552419861
21550170700.0 -0.9922805868 -0.1399221623
21600170400.0 -0.9924949047 -0.124868373
21650170100.0 -0.9915189117 -0.1084851717
21700169800.0 -0.9906035657 -0.0929771157
21750169500.0 -0.9894148999 -0.0768881027
21800169200.0 -0.9888155049 -0.0605745974
21850168900.0 -0.9870636173 -0.0439450985
21900168600.0 -0.9862636048 -0.0278485795
21950168300.0 -0.9845375296 -0.0118290093
22000168000.0 -0.9836590578 0.0027587005
22050167700.0 -0.9831631268 0.017465936
22100167400.0 -0.9834901135 0.0325913387
22150167100.0 -0.9842740431 0.0475811335
22200166800.0 -0.9843817312 0.0641126516
22250166500.0 -0.9841002841 0.081190997
22300166200.0 -0.983068223 0.0979014633
22350165900.0 -0.9828793001 0.1150525063
22400165600.0 -0.9798381583 0.1304324867
22450165300.0 -0.9783813823 0.1450966992
22500165000.0 -0.9770047763 0.1586189271
22550164700.0 -0.9749694096 0.1739164617
22600164400.0 -0.973454285 0.1894600744
22650164100.0 -0.9711866159 0.2048642596
22700163800.0 -0.9687647835 0.2206637089
22750163500.0 -0.9664425708 0.2354085647
22800163200.0 -0.9635275929 0.2491343851
22850162900.0 -0.9612121992 0.262530835
22900162600.0 -0.9596039681 0.27549616
22950162300.0 -0.9586764593 0.2881061362
23000162000.0 -0.9574639599 0.3002366434
23050161700.0 -0.9558036741 0.3128015425
23100161400.0 -0.9530910034 0.3252328063
23150161100.0 -0.9501014107 0.3373416904
23200160800.0 -0.9470932148 0.3501515954
23250160500.0 -0.9446477805 0.362297581
23300160200.0 -0.942123985 0.3740476387
23350159900.0 -0.9382357764 0.387525593
23400159600.0 -0.9335428849 0.3999730383
23450159300.0 -0.928486555 0.4139192154
23500159000.0 -0.9240946671 0.4266588792
23550158700.0 -0.9200478485 0.4398151916
23600158400.0 -0.9143920862 0.4533231554
23650158100.0 -0.9081550862 0.4674973053
23700157800.0 -0.9004303083 0.4810936531
23750157500.0 -0.8920578456 0.4951089473
23800157200.0 -0.8831661026 0.5084204297
23850156900.0 -0.8742181182 0.5209674847
23900156600.0 -0.864967409 0.5333455002
23950156300.0 -0.8557870993 0.5464628436
24000156000.0 -0.846545744 0.5584456872
24050155700.0 -0.8369229925 0.5701599513
24100155400.0 -0.8267628173 0.5819270214
24150155100.0 -0.8163123748 0.5931152833
24200154800.0 -0.8054091267 0.6045732196
24250154500.0 -0.7940219227 0.6166459812
24300154200.0 -0.78240217 0.6274943616
24350153900.0 -0.7709343594 0.6389850166
24400153600.0 -0.7584986096 0.6489819961
24450153300.0 -0.7469522974 0.6592812864
24500153000.0 -0.7352659862 0.6685831101
24550152700.0 -0.7238724099 0.6787037591
24600152400.0 -0.7122575036 0.6874479299
24650152100.0 -0.7006005132 0.6965042494
