!Created with skrf (http://scikit-rf.org).
# Hz S RI R 50.0 
!freq ReS11 ImS11
300000.0 -0.9740797585 -0.1212031706
50299700.0 -1.000056968 0.0151696557
100299400.0 -0.9981560238 0.0281851599
150299100.0 -1.002732016 0.0449838623
200298800.0 -0.9996210003 0.0584548565
250298500.0 -0.9973708235 0.0718740896
300298200.0 -0.9858950605 0.0876128038
350297900.0 -0.9941056798 0.0984584784
400297600.0 -0.993141805 0.1150938968
450297300.0 -0.9910511688 0.1287773844
500297000.0 -0.989468033 0.1438940396
550296700.0 -0.9842682831 0.1559844839
600296400.0 -1.017403033 0.1893924405
650296100.0 -0.9821566372 0.1858657334
700295800.0 -0.9791100707 0.2002211348
750295500.0 -0.9763931678 0.214284622
800295200.0 -0.9727898942 0.2283726169
850294900.0 -0.96979727 0.2421813326
900294600.0 -0.9657850938 0.2559921295
950294300.0 -0.9621889715 0.2696224547
1000294000.0 -0.9582696457 0.2834211869
1050293700.0 -0.9537961443 0.2973065722
1100293400.0 -0.9493234275 0.311768573
1150293100.0 -0.9455377734 0.3235016539
1200292800.0 -0.9399403881 0.3380324978
1250292500.0 -0.9347500843 0.3515951976
1300292200.0 -0.9291807365 0.3646164537
1350291900.0 -0.9235157475 0.3786410397
1400291600.0 -0.918139106 0.3920146131
1450291300.0 -0.9125478514 0.4042815143
1500291000.0 -0.9062282385 0.4176719999
1550290700.0 -0.8996046569 0.4308011062
1600290400.0 -0.8935266893 0.4436773941
1650290100.0 -0.8868684802 0.4559441468
1700289800.0 -0.8798543708 0.4695344698
1750289500.0 -0.8728512163 0.4817754365
1800289200.0 -0.8655291341 0.4946772661
1850288900.0 -0.8588271966 0.5059033857
1900288600.0 -0.8509259732 0.5189320441
1950288300.0 -0.8428649711 0.5313463637
2000288000.0 -0.8354253684 0.5430209092
2050287700.0 -0.8273391142 0.5554491878
2100287400.0 -0.8192605997 0.5668481914
2150287100.0 -0.8108157888 0.5789042455
2200286800.0 -0.8031963504 0.5893175193
2250286500.0 -0.7941294058 0.6012482797
2300286200.0 -0.7852625805 0.6128361401
2350285900.0 -0.7767558378 0.6238138856
2400285600.0 -0.7678098643 0.6350186946
2450285300.0 -0.7590903509 0.6451829151
2500285000.0 -0.7491842377 0.6565021366
2550284700.0 -0.7402475578 0.6668862204
2600284400.0 -0.7308725851 0.6769807405
2650284100.0 -0.7221234337 0.6872532127
2700283800.0 -0.7117963972 0.6979880461
2750283500.0 -0.7013467673 0.7086971033
2800283200.0 -0.6913818093 0.7182085604
2850282900.0 -0.6812659696 0.7283538681
2900282600.0 -0.6707330947 0.737872277
2950282300.0 -0.6605822932 0.7471911245
3000282000.0 -0.6498177932 0.7568172295
3050281700.0 -0.6384415114 0.765950349
3100281400.0 -0.6266275945 0.7753152607
3150281100.0 -0.615234553 0.7844497076
3200280800.0 -0.6036537429 0.7929198367
3250280500.0 -0.5925421822 0.8006632279
3300280200.0 -0.5811662997 0.8086341896
3350279900.0 -0.5695688121 0.816241078
3400279600.0 -0.5570830111 0.8240155798
3450279300.0 -0.5461359 0.8314481744
3500279000.0 -0.5342185653 0.8384697399
3550278700.0 -0.5218869755 0.8457310938
3600278400.0 -0.5098439684 0.8526058927
3650278100.0 -0.4967554444 0.8602054726
3700277800.0 -0.4844955678 0.8666364347
3750277500.0 -0.4725039472 0.8732415902
3800277200.0 -0.4597487401 0.8797151432
3850276900.0 -0.4479736221 0.8856319473
3900276600.0 -0.4368568408 0.8913643474
3950276300.0 -0.424657182 0.8975642322
4000276000.0 -0.4127410095 0.9033592206
4050275700.0 -0.4001628049 0.9092595676
4100275400.0 -0.3887795734 0.9147097019
4150275100.0 -0.3758551803 0.9206764343
4200274800.0 -0.3628129932 0.9259701788
4250274500.0 -0.3505414728 0.9312433486
4300274200.0 -0.3371661969 0.936435286
4350273900.0 -0.3234533695 0.9420751893
4400273600.0 -0.3084927006 0.9472435061
4450273300.0 -0.2934617051 0.9521888357
4500273000.0 -0.2798378851 0.9565361255
4550272700.0 -0.2660137494 0.9608917381
4600272400.0 -0.2507326658 0.9650381377
4650272100.0 -0.2388496603 0.9682070543
4700271800.0 -0.2258413096 0.9713526677
4750271500.0 -0.2140623507 0.9744056717
4800271200.0 -0.2016448932 0.9770959346
4850270900.0 -0.1879485684 0.9797313628
4900270600.0 -0.1740614243 0.9822587755
4950270300.0 -0.1595911945 0.9850189387
5000270000.0 -0.1453204797 0.9869057648
5050269700.0 -0.1317156522 0.9885376036
5100269400.0 -0.1180328699 0.9902050331
5150269100.0 -0.1044161727 0.9916705161
5200268800.0 -0.0910924593 0.9929420163
5250268500.0 -0.0780042138 0.9940144981
5300268200.0 -0.0647629414 0.9947754875
5350267900.0 -0.0524397913 0.9952244163
5400267600.0 -0.0360963538 0.9964910061
5450267300.0 -0.0227514847 0.9965545376
5500267000.0 -0.0074869645 0.9970614423
5550266700.0 0.0072386437 0.9972030666
5600266400.0 0.0226777859 0.9971811637
5650266100.0 0.0394071785 0.9966912511
5700265800.0 0.0535191232 0.9959657506
5750265500.0 0.0685862825 0.9951659058
5800265200.0 0.0827235979 0.9945012106
5850264900.0 0.096027175 0.9936678827
5900264600.0 0.1126791526 0.9913840802
5950264300.0 0.1245430689 0.9902085923
6000264000.0 0.138260857 0.9882193294
6050263700.0 0.15056002 0.9867961469
6100263400.0 0.1626124288 0.985031829
6150263100.0 0.177292831 0.9826011674
6200262800.0 0.1874537892 0.9809892974
6250262500.0 0.2001366083 0.9785820842
6300262200.0 0.212601749 0.9760015427
6350261900.0 0.2257279826 0.9731374966
6400261600.0 0.239785091 0.9697581411
6450261300.0 0.2509729073 0.9671432138
6500261000.0 0.2637684583 0.9636419882
6550260700.0 0.2769188554 0.9594327082
6600260400.0 0.2899959211 0.9553502034
6650260100.0 0.3041004665 0.9511404851
6700259800.0 0.3166086521 0.9470313764
6750259500.0 0.3298392626 0.9416170651
6800259200.0 0.3435367721 0.9371839853
6850258900.0 0.3555926999 0.9317394654
6900258600.0 0.3680283937 0.9266529575
6950258300.0 0.3802691859 0.92134386
7000258000.0 0.3922234506 0.9159442049
7050257700.0 0.4043905428 0.9098267027
7100257400.0 0.4174007525 0.9037396848
7150257100.0 0.4280128476 0.8982153661
7200256800.0 0.4406695088 0.8919407394
7250256500.0 0.4530407493 0.885678689
7300256200.0 0.4656494034 0.8786488206
7350255900.0 0.4784005908 0.8719182745
7400255600.0 0.4919745004 0.8645077973
7450255300.0 0.5072310814 0.8551589684
7500255000.0 0.5194386687 0.8480882139
7550254700.0 0.5332085061 0.8393623734
7600254400.0 0.5456679678 0.831320898
7650254100.0 0.5573054313 0.8235984906
7700253800.0 0.5692209586 0.8155062209
7750253500.0 0.5803545648 0.8077475802
7800253200.0 0.591047877 0.8002408848
7850252900.0 0.6005657563 0.7931246891
7900252600.0 0.6122765468 0.7843782045
7950252300.0 0.6207899691 0.7778681503
8000252000.0 0.6308348595 0.7701717409
8050251700.0 0.6412137276 0.7620126357
8100251400.0 0.6513477646 0.7539978798
8150251100.0 0.6613887046 0.7452173136
8200250800.0 0.6708969159 0.7371060184
8250250500.0 0.6795049708 0.7295282882
8300250200.0 0.6888134922 0.7207313
8350249900.0 0.6980779958 0.7120217927
8400249600.0 0.7062707971 0.7040606076
8450249300.0 0.7153511172 0.6949209304
8500249000.0 0.7240299105 0.6861289618
8550248700.0 0.732394021 0.6770497486
8600248400.0 0.7406882091 0.667496498
8650248100.0 0.7483862552 0.6580579971
8700247800.0 0.7578628377 0.6470662625
8750247500.0 0.7662983687 0.6368330948
8800247200.0 0.7743311224 0.6264966048
8850246900.0 0.7834731776 0.6150662447
8900246600.0 0.7916557874 0.6037309523
8950246300.0 0.8012130292 0.5909228301
9000246000.0 0.8101214015 0.5783996899
9050245700.0 0.8191062158 0.5656754083
9100245400.0 0.8274812894 0.5532926418
9150245100.0 0.8367452854 0.539789293
9200244800.0 0.8462959482 0.5249014445
9250244500.0 0.8557851856 0.5094391851
9300244200.0 0.8638316815 0.4954156286
9350243900.0 0.8716850706 0.4818408261
9400243600.0 0.8784272466 0.4696813029
9450243300.0 0.8840429781 0.4584194723
9500243000.0 0.8904579191 0.4463334877
9550242700.0 0.8941341349 0.4387133444
9600242400.0 0.8981765274 0.4313381147
9650242100.0 0.9019476831 0.4246923688
9700241800.0 0.9065684303 0.4165024515
9750241500.0 0.9108678175 0.4087499825
9800241200.0 0.915780864 0.3992653137
9850240900.0 0.9213371386 0.3878978364
9900240600.0 0.9269200071 0.3764384359
9950240300.0 0.9338819878 0.3597532949
10000240000.0 0.9385665812 0.3479432533
10050239700.0 0.9443232815 0.332422721
10100239400.0 0.9497744115 0.3170054166
10150239100.0 0.9540609772 0.3016181501
10200238800.0 0.9582262753 0.2868750036
10250238500.0 0.9613919136 0.273311652
10300238200.0 0.9646358526 0.2592073348
10350237900.0 0.9673015429 0.2464106641
10400237600.0 0.9698093118 0.2328848143
10450237300.0 0.972506964 0.2190944823
10500237000.0 0.9746533226 0.2069764705
10550236700.0 0.977132774 0.1926082269
10600236400.0 0.9797253114 0.1784650415
10650236100.0 0.9812693502 0.1643446337
10700235800.0 0.9833925432 0.1522957982
10750235500.0 0.985507506 0.1388370836
10800235200.0 0.9877550672 0.1244961036
10850234900.0 0.9897980892 0.1096881099
10900234600.0 0.9918216274 0.0951277894
10950234300.0 0.9935702953 0.0818405168
11000234000.0 0.9953456993 0.066439952
11050233700.0 0.9970586675 0.0501503364
11100233400.0 0.9986368669 0.0325265071
11150233100.0 0.9996680899 0.0163345879
11200232800.0 1.000495492 0.0009235683
11250232500.0 1.001781608 -0.016516689
11300232200.0 1.001901978 -0.0339667877
11350231900.0 1.002117418 -0.0495552377
11400231600.0 1.001452827 -0.0653610604
11450231300.0 1.001176414 -0.0812484109
11500231000.0 0.9996919887 -0.0971195323
11550230700.0 0.9985027593 -0.1105226224
11600230400.0 0.997360381 -0.1227552416
11650230100.0 0.9949088353 -0.1343747535
11700229800.0 0.9932233566 -0.1495586331
11750229500.0 0.9906854323 -0.1635870356
11800229200.0 0.9879285504 -0.1768880401
11850228900.0 0.9844499021 -0.1893165593
11900228600.0 0.9809618558 -0.1990405266
11950228300.0 0.9777783007 -0.2092520027
12000228000.0 0.9745807566 -0.2186900824
12050227700.0 0.9711613967 -0.2312335557
12100227400.0 0.9679877583 -0.2419867888
12150227100.0 0.9627378586 -0.2594471762
12200226800.0 0.9593253269 -0.2702017168
12250226500.0 0.9548680619 -0.2834490749
12300226200.0 0.9507495414 -0.2947894301
12350225900.0 0.9458199914 -0.3093283145
12400225600.0 0.9417675546 -0.3214233582
12450225300.0 0.9375099231 -0.3343162691
12500225000.0 0.9316332887 -0.3488825882
12550224700.0 0.9266510308 -0.3631393521
12600224400.0 0.9215348998 -0.3759029098
12650224100.0 0.9156570795 -0.3901007995
12700223800.0 0.9104778933 -0.4029600897
12750223500.0 0.905000964 -0.4161247634
12800223200.0 0.899692272 -0.4286526143
12850222900.0 0.8940131745 -0.4411620994
12900222600.0 0.8885573846 -0.453437753
12950222300.0 0.8823808799 -0.4661782631
13000222000.0 0.8760502338 -0.477575995
13050221700.0 0.8700335265 -0.4899475658
13100221400.0 0.8628574752 -0.5019407143
13150221100.0 0.8560820442 -0.5141355265
13200220800.0 0.849177075 -0.5257991261
13250220500.0 0.8419015802 -0.5377190272
13300220200.0 0.83452556 -0.5487282278
13350219900.0 0.8265012024 -0.560474635
13400219600.0 0.8181385322 -0.5725814273
13450219300.0 0.8090478451 -0.5856859978
13500219000.0 0.798445296 -0.599636014
13550218700.0 0.7884536774 -0.6123011793
13600218400.0 0.7786603408 -0.6239040335
13650218100.0 0.7692926536 -0.6351421516
13700217800.0 0.7583682776 -0.6474558386
13750217500.0 0.747974847 -0.6584174995
13800217200.0 0.7369100323 -0.6706083366
13850216900.0 0.7262014713 -0.6813101819
13900216600.0 0.716550179 -0.69052059
13950216300.0 0.7053252107 -0.7008863282
14000216000.0 0.6953705467 -0.7097488202
14050215700.0 0.6864305789 -0.7182518658
14100215400.0 0.6763983383 -0.7269948967
14150215100.0 0.6672570036 -0.7360774905
14200214800.0 0.6577988382 -0.7445529477
14250214500.0 0.6475739583 -0.7537486359
14300214200.0 0.6370199054 -0.7632293542
14350213900.0 0.6260446114 -0.7728980736
14400213600.0 0.6139996702 -0.7828165188
14450213300.0 0.6008835001 -0.7932774265
14500213000.0 0.5881882444 -0.8031103196
14550212700.0 0.5754590798 -0.8122789668
14600212400.0 0.5625614144 -0.8212016099
14650212100.0 0.5498300421 -0.8299261091
14700211800.0 0.5361532399 -0.8393227963
14750211500.0 0.5242266246 -0.8477395645
14800211200.0 0.5118757821 -0.8557047581
14850210900.0 0.4998738872 -0.8632732722
14900210600.0 0.4866088802 -0.8711576094
14950210300.0 0.4733236619 -0.8787458267
15000210000.0 0.4604315975 -0.8854821382
15050209700.0 0.4483640653 -0.8915182898
15100209400.0 0.4357984447 -0.8973634404
15150209100.0 0.4232989137 -0.9029965778
15200208800.0 0.4104868101 -0.9083535649
15250208500.0 0.3989498182 -0.9130388401
15300208200.0 0.3873829228 -0.9178634475
15350207900.0 0.3739226328 -0.9221119992
15400207600.0 0.3590401304 -0.9279011791
15450207300.0 0.3452007806 -0.9327541148
15500207000.0 0.3298809343 -0.937239613
15550206700.0 0.3151940656 -0.9428547722
15600206400.0 0.2991675695 -0.9463425414
15650206100.0 0.2838686806 -0.9507447278
15700205800.0 0.2695601376 -0.9547989062
15750205500.0 0.255344894 -0.9578643796
15800205200.0 0.2412591916 -0.9616017601
15850204900.0 0.2267529396 -0.9651900427
15900204600.0 0.2117099998 -0.9686696675
15950204300.0 0.1975108459 -0.9718513015
16000204000.0 0.1832290938 -0.9747943481
16050203700.0 0.1683058615 -0.9778736414
16100203400.0 0.1536566019 -0.9798213027
16150203100.0 0.1390282045 -0.9821553394
16200202800.0 0.124609582 -0.9843660844
16250202500.0 0.110116232 -0.9861459817
16300202200.0 0.0947338753 -0.9877748102
16350201900.0 0.079605703 -0.9891352104
16400201600.0 0.0653562317 -0.9903760706
16450201300.0 0.0497351792 -0.991448711
16500201000.0 0.0329846136 -0.9920311375
16550200700.0 0.0172300001 -0.9926479938
16600200400.0 0.0015721747 -0.992912778
16650200100.0 -0.0145004255 -0.9928852475
16700199800.0 -0.0308386075 -0.9921906542
16750199500.0 -0.0497673293 -0.9919729193
16800199200.0 -0.0652797197 -0.9908848782
16850198900.0 -0.0803842807 -0.9896911538
16900198600.0 -0.09417343 -0.9891218351
16950198300.0 -0.1085006586 -0.9875472298
17000198000.0 -0.1212624177 -0.9858644141
17050197700.0 -0.1332953237 -0.9841019395
17100197400.0 -0.1465747986 -0.9818376053
17150197100.0 -0.1591121961 -0.980158363
17200196800.0 -0.1717947827 -0.9780611717
17250196500.0 -0.1849475349 -0.9757177175
17300196200.0 -0.1974174782 -0.9734242002
17350195900.0 -0.2093064309 -0.9710730899
17400195600.0 -0.221351313 -0.9685869919
17450195300.0 -0.2343295954 -0.9658335277
17500195000.0 -0.2476196926 -0.9623949254
17550194700.0 -0.2615556928 -0.9589806068
17600194400.0 -0.2753859243 -0.9551740797
17650194100.0 -0.2891761823 -0.950965308
17700193800.0 -0.3025578442 -0.9466456324
17750193500.0 -0.3168299332 -0.9425920287
17800193200.0 -0.331044889 -0.9367551966
17850192900.0 -0.3462811197 -0.931519008
17900192600.0 -0.3613408764 -0.9252453611
17950192300.0 -0.3769213202 -0.9183536006
18000192000.0 -0.3916613331 -0.9113935501
18050191700.0 -0.4054271487 -0.9032904797
18100191400.0 -0.419660243 -0.8954753029
18150191100.0 -0.4346678007 -0.8876274401
18200190800.0 -0.4514338813 -0.8786153713
18250190500.0 -0.4683245934 -0.869003955
18300190200.0 -0.4839927448 -0.8603186819
18350189900.0 -0.4988068222 -0.8520799008
18400189600.0 -0.5135033807 -0.8433844351
18450189300.0 -0.527054078 -0.835951254
18500189000.0 -0.5403065604 -0.8274974756
18550188700.0 -0.5523923966 -0.8200475567
18600188400.0 -0.5643412109 -0.813332648
18650188100.0 -0.5757310188 -0.8069272436
18700187800.0 -0.586532212 -0.8002788398
18750187500.0 -0.5970468483 -0.7938925435
18800187200.0 -0.6077027658 -0.7867552235
18850186900.0 -0.6178227169 -0.7798182723
18900186600.0 -0.6279838702 -0.7724804937
18950186300.0 -0.6381237531 -0.7649168744
19000186000.0 -0.6449158693 -0.7588137421
19050185700.0 -0.6540882146 -0.751656832
19100185400.0 -0.6643743954 -0.7437804217
19150185100.0 -0.6743998351 -0.7347881442
19200184800.0 -0.6836503498 -0.7264484561
19250184500.0 -0.6941147805 -0.7172541623
19300184200.0 -0.7054006511 -0.7074456207
19350183900.0 -0.7159379657 -0.6985739726
19400183600.0 -0.7261361467 -0.6887261188
19450183300.0 -0.7349157727 -0.6784538815
19500183000.0 -0.7437112815 -0.6679436561
19550182700.0 -0.7528346623 -0.6574822058
19600182400.0 -0.7631933962 -0.6456715188
19650182100.0 -0.7744878405 -0.633303765
19700181800.0 -0.7846971051 -0.6200842931
19750181500.0 -0.7954176169 -0.605839223
19800181200.0 -0.8057342994 -0.5908138462
19850180900.0 -0.8155199925 -0.5753055337
19900180600.0 -0.8231969411 -0.5609169746
19950180300.0 -0.8324779602 -0.5447035725
20000180000.0 -0.8252387746 -0.5472207816
20050179700.0 -0.8336530879 -0.5341201091
20100179400.0 -0.8415225033 -0.5209737005
20150179100.0 -0.8499370619 -0.5090173791
20200178800.0 -0.8589983987 -0.4957758329
20250178500.0 -0.8679064507 -0.4835275476
20300178200.0 -0.8777020996 -0.4685395867
20350177900.0 -0.8864636692 -0.4544959195
20400177600.0 -0.8957565191 -0.4400450149
20450177300.0 -0.9038744136 -0.425418313
20500177000.0 -0.9120009441 -0.4115699841
20550176700.0 -0.9198631439 -0.3978488207
20600176400.0 -0.9268350997 -0.385017595
20650176100.0 -0.933319743 -0.3730407765
20700175800.0 -0.9402735629 -0.361055083
20750175500.0 -0.9467796246 -0.3492939701
20800175200.0 -0.9513108194 -0.3383972808
20850174900.0 -0.9558184626 -0.3271661758
20900174600.0 -0.9602555381 -0.3160149611
20950174300.0 -0.9633906037 -0.3044495497
21000174000.0 -0.9676625597 -0.294023416
21050173700.0 -0.9703089177 -0.283159568
21100173400.0 -0.9736124025 -0.2720680466
21150173100.0 -0.9775729097 -0.2593538078
21200172800.0 -0.9812087782 -0.246179923
21250172500.0 -0.9846502999 -0.2324975978
21300172200.0 -0.9875985326 -0.2184801958
21350171900.0 -0.9891307969 -0.2042301758
21400171600.0 -0.9907754624 -0.1903237694
21450171300.0 -0.9915211765 -0.1758644883
21500171000.0 -0.990888688 -0.1603313223
21550170700.0 -0.9913305799 -0.1448125898
21600170400.0 -0.9933569242 -0.1285560888
21650170100.0 -0.9910024008 -0.112546329
21700169800.0 -0.9895390926 -0.0975758511
21750169500.0 -0.9888213884 -0.0823512895
21800169200.0 -0.9882791294 -0.0657557429
21850168900.0 -0.9882710481 -0.0487188444
21900168600.0 -0.9870318678 -0.032734709
21950168300.0 -0.9861216957 -0.0173933836
22000168000.0 -0.9853993864 -0.0018086639
22050167700.0 -0.9856248575 0.0126286173
22100167400.0 -0.9855563478 0.0281415635
22150167100.0 -0.9864954281 0.0436965699
22200166800.0 -0.9868392209 0.0602564096
22250166500.0 -0.9863028177 0.0770585397
22300166200.0 -0.9861061742 0.0936409831
22350165900.0 -0.9849335196 0.1106811761
22400165600.0 -0.9831377769 0.1256639642
22450165300.0 -0.9808940627 0.1408812222
22500165000.0 -0.9789752491 0.1545743003
22550164700.0 -0.9774756476 0.1702018771
22600164400.0 -0.9756527404 0.1858171793
22650164100.0 -0.9741435103 0.200873891
22700163800.0 -0.9706020559 0.2171996464
22750163500.0 -0.9686124204 0.2319427556
22800163200.0 -0.9654024089 0.2453983212
22850162900.0 -0.9630547763 0.2586874904
22900162600.0 -0.9613015802 0.2724242568
22950162300.0 -0.9601516676 0.285281622
23000162000.0 -0.9588104425 0.2974388829
23050161700.0 -0.9566678416 0.3107152576
23100161400.0 -0.9544548346 0.3229413731
23150161100.0 -0.9514323876 0.3357054138
23200160800.0 -0.9485216679 0.3485065938
23250160500.0 -0.9456330117 0.3606268307
23300160200.0 -0.9431941508 0.3718937421
23350159900.0 -0.938930312 0.3862341795
23400159600.0 -0.934679084 0.3988382949
23450159300.0 -0.9290746971 0.4130013316
23500159000.0 -0.9244683626 0.4257718303
23550158700.0 -0.9205025294 0.4394170947
23600158400.0 -0.9145377998 0.4526324118
23650158100.0 -0.9079721494 0.4670905298
23700157800.0 -0.9001404309 0.4810627304
23750157500.0 -0.8914168599 0.4953828783
23800157200.0 -0.8821534365 0.5081710615
23850156900.0 -0.8733945399 0.52115175
23900156600.0 -0.8635646239 0.533859855
23950156300.0 -0.8541713098 0.5467111225
24000156000.0 -0.8455570085 0.5579115638
24050155700.0 -0.8357352643 0.5708045025
24100155400.0 -0.825037009 0.5823691229
24150155100.0 -0.8143037107 0.5943419619
24200154800.0 -0.8035406085 0.6060614139
24250154500.0 -0.7916231676 0.6177524264
24300154200.0 -0.7806766271 0.6296192741
24350153900.0 -0.7688157912 0.6401855054
24400153600.0 -0.7568996186 0.6504394031
24450153300.0 -0.7447987025 0.66056102
24500153000.0 -0.7336923632 0.6703846729
24550152700.0 -0.7221445612 0.6799462423
24600152400.0 -0.7110874763 0.6889638398
24650152100.0 -0.6985425501 0.6977648652
