!Created with skrf (http://scikit-rf.org).
# Hz S RI R 50.0 
!freq ReS11 ImS11
300000.0 -0.9754868226 -0.1206440298
50299700.0 -0.9999007074 0.0151441521
100299400.0 -0.9979983737 0.0282475383
150299100.0 -1.002924446 0.0450334644
200298800.0 -0.9996942562 0.0582355482
250298500.0 -0.9974106199 0.0718638919
300298200.0 -0.9860803863 0.0875172555
350297900.0 -0.993927161 0.0984330457
400297600.0 -0.9932074741 0.1151670779
450297300.0 -0.9911292129 0.1290386906
500297000.0 -0.9893531675 0.1436615675
550296700.0 -0.984450706 0.1561900181
600296400.0 -1.017266941 0.1894243872
650296100.0 -0.9821711693 0.1862107869
700295800.0 -0.9793656637 0.2000966573
750295500.0 -0.9762919969 0.2141742008
800295200.0 -0.97301486 0.2282423829
850294900.0 -0.9696194431 0.2422204601
900294600.0 -0.9659369122 0.2558278057
950294300.0 -0.9620245434 0.2694569754
1000294000.0 -0.9581389223 0.2835411801
1050293700.0 -0.953482034 0.2973867311
1100293400.0 -0.9493966913 0.3117780539
1150293100.0 -0.9456333993 0.3236193078
1200292800.0 -0.9401826462 0.3379080375
1250292500.0 -0.9348412596 0.3515109339
1300292200.0 -0.9289210341 0.3646250974
1350291900.0 -0.9233235303 0.3786809636
1400291600.0 -0.9178922075 0.3917955445
1450291300.0 -0.912611372 0.4041124619
1500291000.0 -0.9061671821 0.4176984346
1550290700.0 -0.8997107677 0.4308043597
1600290400.0 -0.8935236102 0.4439077645
1650290100.0 -0.8866736335 0.4560940495
1700289800.0 -0.8800099561 0.4691915677
1750289500.0 -0.8729687971 0.4817930549
1800289200.0 -0.8656894366 0.494537143
1850288900.0 -0.858675422 0.505911263
1900288600.0 -0.85095231 0.5190318679
1950288300.0 -0.8428339002 0.5313614739
2000288000.0 -0.8354510706 0.5428859625
2050287700.0 -0.8271100031 0.5553109251
2100287400.0 -0.8194562932 0.5668739857
2150287100.0 -0.8108449051 0.5787807048
2200286800.0 -0.8029578004 0.5891628308
2250286500.0 -0.794335714 0.6012881271
2300286200.0 -0.7852344511 0.6129443356
2350285900.0 -0.7767127986 0.6239113446
2400285600.0 -0.7676589569 0.6348220615
2450285300.0 -0.759252157 0.6451730554
2500285000.0 -0.7493185502 0.656544121
2550284700.0 -0.740410179 0.6667519483
2600284400.0 -0.7309213004 0.6768689173
2650284100.0 -0.7222276793 0.6872290869
2700283800.0 -0.7115181243 0.6977951988
2750283500.0 -0.7012821685 0.7085591306
2800283200.0 -0.6914235638 0.718316828
2850282900.0 -0.681034673 0.7282448366
2900282600.0 -0.6707812247 0.7379658756
2950282300.0 -0.6606419848 0.7472703046
3000282000.0 -0.6499220551 0.756651851
3050281700.0 -0.6385372914 0.7658213914
3100281400.0 -0.6268874531 0.7752381912
3150281100.0 -0.6150725826 0.7844636711
3200280800.0 -0.6036119881 0.7929017333
3250280500.0 -0.5925512448 0.8005878692
3300280200.0 -0.5814994124 0.8085874788
3350279900.0 -0.5695580247 0.8162099197
3400279600.0 -0.557283616 0.8241345132
3450279300.0 -0.5462230704 0.8311883352
3500279000.0 -0.5342318445 0.8382192398
3550278700.0 -0.5221251581 0.8454133098
3600278400.0 -0.5098550293 0.8525837548
3650278100.0 -0.4965832527 0.8602594052
3700277800.0 -0.4845631277 0.86652273
3750277500.0 -0.4722888213 0.8733370194
3800277200.0 -0.4599303235 0.8796166589
3850276900.0 -0.4478963484 0.885704468
3900276600.0 -0.4369653287 0.8912703073
3950276300.0 -0.4244911647 0.8973813226
4000276000.0 -0.4126577672 0.9033025833
4050275700.0 -0.4000927477 0.9092902337
4100275400.0 -0.3888257778 0.9149485108
4150275100.0 -0.3760163293 0.920546707
4200274800.0 -0.3628014853 0.9259076125
4250274500.0 -0.3506479884 0.9311229173
4300274200.0 -0.3375368942 0.9364590451
4350273900.0 -0.3236781214 0.9418871188
4400273600.0 -0.3090117403 0.9470920501
4450273300.0 -0.2934909339 0.9522236094
4500273000.0 -0.2801026842 0.9564308476
4550272700.0 -0.2660711275 0.9608876314
4600272400.0 -0.2505760483 0.965018696
4650272100.0 -0.2392122266 0.9680410293
4700271800.0 -0.2258384016 0.9714522457
4750271500.0 -0.2141623437 0.9743021081
4800271200.0 -0.2017847432 0.9769915309
4850270900.0 -0.1879358439 0.9797647697
4900270600.0 -0.1739724984 0.9822903126
4950270300.0 -0.1595862977 0.9848974206
5000270000.0 -0.1453812955 0.9868649473
5050269700.0 -0.1316754159 0.98846545
5100269400.0 -0.1180182335 0.99020491
5150269100.0 -0.1045325637 0.9918892881
5200268800.0 -0.0913013176 0.9925873667
5250268500.0 -0.0780309771 0.9941526879
5300268200.0 -0.0647943804 0.9947452835
5350267900.0 -0.0525834668 0.9951216953
5400267600.0 -0.0362708261 0.9963407723
5450267300.0 -0.0232678215 0.9966328445
5500267000.0 -0.0078750296 0.9970149527
5550266700.0 0.0069365762 0.9974601674
5600266400.0 0.0225011671 0.9972962874
5650266100.0 0.0389277803 0.9967617219
5700265800.0 0.0536459973 0.9962489042
5750265500.0 0.0687194602 0.9958186235
5800265200.0 0.0824154086 0.9944540576
5850264900.0 0.0958047508 0.9935296832
5900264600.0 0.1121157364 0.9914712519
5950264300.0 0.1241432669 0.9900138481
6000264000.0 0.1379978301 0.9881883941
6050263700.0 0.1501268391 0.9870469404
6100263400.0 0.1629076208 0.9853058684
6150263100.0 0.177289362 0.9827834406
6200262800.0 0.1874989046 0.9809190127
6250262500.0 0.2000705413 0.9785202907
6300262200.0 0.2127664501 0.9759541409
6350261900.0 0.2257244293 0.9729750439
6400261600.0 0.2395261625 0.969664347
6450261300.0 0.2509885038 0.9671949539
6500261000.0 0.2640288213 0.9635430663
6550260700.0 0.2767732624 0.9595840935
6600260400.0 0.2901511602 0.9554012141
6650260100.0 0.3040644218 0.9511323199
6700259800.0 0.3164273876 0.9470245813
6750259500.0 0.32995701 0.9420167022
6800259200.0 0.3431366476 0.9369972778
6850258900.0 0.3550915573 0.9317256458
6900258600.0 0.3679176333 0.926864974
6950258300.0 0.3800058827 0.9213092166
7000258000.0 0.3921298961 0.9159178975
7050257700.0 0.4043255164 0.9099255831
7100257400.0 0.4173739046 0.903597653
7150257100.0 0.4275865483 0.8984051723
7200256800.0 0.4405245356 0.8921513702
7250256500.0 0.4524664017 0.8854714147
7300256200.0 0.4655452599 0.8788693565
7350255900.0 0.4781659384 0.8720644204
7400255600.0 0.4914733421 0.8644477231
7450255300.0 0.5069785199 0.8556535095
7500255000.0 0.5187490485 0.8483616628
7550254700.0 0.5325986273 0.8396822034
7600254400.0 0.5455901468 0.8315636199
7650254100.0 0.5573338028 0.8237494084
7700253800.0 0.5688757018 0.8156423619
7750253500.0 0.5800232022 0.8079762135
7800253200.0 0.5907080063 0.8001602379
7850252900.0 0.6003706433 0.7932380477
7900252600.0 0.6119060292 0.7845337915
7950252300.0 0.6206437229 0.7780287391
8000252000.0 0.6307422805 0.7703095751
8050251700.0 0.6410552595 0.7622181305
8100251400.0 0.6512292435 0.7540823573
8150251100.0 0.6611803706 0.7454617049
8200250800.0 0.6707215365 0.7373589559
8250250500.0 0.6793700434 0.7296885836
8300250200.0 0.6886483405 0.7211414395
8350249900.0 0.6978283122 0.7123214499
8400249600.0 0.7062145791 0.7042258199
8450249300.0 0.7150118483 0.6951465851
8500249000.0 0.723954478 0.6863444238
8550248700.0 0.7322362911 0.6770094295
8600248400.0 0.7405806069 0.6676891982
8650248100.0 0.7483500484 0.6582779817
8700247800.0 0.757759992 0.6471039004
8750247500.0 0.7662023169 0.6370610613
8800247200.0 0.7741211957 0.6266166113
8850246900.0 0.7830788128 0.6151766986
8900246600.0 0.7914640305 0.6040021363
8950246300.0 0.8009201332 0.5909156844
9000246000.0 0.809887946 0.5784173855
9050245700.0 0.8194436983 0.5656046748
9100245400.0 0.8275994381 0.5530832546
9150245100.0 0.8369245418 0.540071142
9200244800.0 0.8464071751 0.5247908689
9250244500.0 0.8557904558 0.5096361024
9300244200.0 0.864096393 0.495286547
9350243900.0 0.8719848756 0.4815600009
9400243600.0 0.8784139977 0.4694840021
9450243300.0 0.8843759712 0.4581157667
9500243000.0 0.8903398139 0.4461619409
9550242700.0 0.8944216712 0.4384976814
9600242400.0 0.8985884045 0.4310645448
9650242100.0 0.9022299654 0.4243411984
9700241800.0 0.9067918118 0.416046558
9750241500.0 0.9110116119 0.408471596
9800241200.0 0.915678968 0.3992301084
9850240900.0 0.92126171 0.3874950859
9900240600.0 0.9270754733 0.376079924
9950240300.0 0.9338431358 0.3598478825
10000240000.0 0.9386115963 0.3478168249
10050239700.0 0.9442792445 0.3324922574
10100239400.0 0.9495416432 0.316428332
10150239100.0 0.9541069262 0.3015122758
10200238800.0 0.9581948782 0.2867150387
10250238500.0 0.9614195563 0.2733910259
10300238200.0 0.9645907726 0.2594904854
10350237900.0 0.9671877309 0.2464364913
10400237600.0 0.9697298721 0.2330483284
10450237300.0 0.9723518499 0.2194271767
10500237000.0 0.9747697714 0.2070650761
10550236700.0 0.977337264 0.1927085911
10600236400.0 0.9793558975 0.1790560033
10650236100.0 0.9812697769 0.1647486683
10700235800.0 0.9833461679 0.1523661418
10750235500.0 0.9859819715 0.1388317827
10800235200.0 0.9876181077 0.1247953693
10850234900.0 0.9895065767 0.1099078179
10900234600.0 0.9917429821 0.0954576868
10950234300.0 0.9935199953 0.0820550032
11000234000.0 0.9952036701 0.0668354071
11050233700.0 0.9970210954 0.0504639229
11100233400.0 0.9987410529 0.0329564931
11150233100.0 0.9994282868 0.0165310072
11200232800.0 1.000419207 0.0018077029
11250232500.0 1.001303764 -0.0152931728
11300232200.0 1.002014623 -0.0333202606
11350231900.0 1.002105332 -0.049777799
11400231600.0 1.00142203 -0.0644365268
11450231300.0 1.001591043 -0.0791277227
11500231000.0 0.9998594485 -0.0963277043
11550230700.0 0.9982698234 -0.1090777037
11600230400.0 0.9970772072 -0.1222525234
11650230100.0 0.9953740526 -0.1335269575
11700229800.0 0.9931333566 -0.1485458059
11750229500.0 0.9907502026 -0.1625467133
11800229200.0 0.9881308234 -0.1765318774
11850228900.0 0.984384234 -0.1886951398
11900228600.0 0.9809347835 -0.1986105096
11950228300.0 0.9778154968 -0.2090799176
12000228000.0 0.9746899832 -0.2179551744
12050227700.0 0.9706521876 -0.231078618
12100227400.0 0.968052207 -0.2416975028
12150227100.0 0.9635146261 -0.2583037014
12200226800.0 0.9591247904 -0.2693328355
12250226500.0 0.9554109545 -0.2821534047
12300226200.0 0.9512860134 -0.2935484659
12350225900.0 0.9460109503 -0.3078184329
12400225600.0 0.9419671875 -0.3208571781
12450225300.0 0.9376631425 -0.3342242928
12500225000.0 0.9320865539 -0.3489940304
12550224700.0 0.9264946301 -0.3626025494
12600224400.0 0.921656775 -0.3753299236
12650224100.0 0.9158427037 -0.3896849313
12700223800.0 0.9108165098 -0.4024362422
12750223500.0 0.9051145452 -0.4157524724
12800223200.0 0.9000159569 -0.4283485615
12850222900.0 0.8944635587 -0.4403861423
12900222600.0 0.8885014045 -0.4524579022
12950222300.0 0.8825635393 -0.4652390429
13000222000.0 0.8767262186 -0.477007713
13050221700.0 0.8700889003 -0.4893328509
13100221400.0 0.8629455045 -0.5014373036
13150221100.0 0.8566537217 -0.5136059821
13200220800.0 0.8493830859 -0.5249263377
13250220500.0 0.8424506263 -0.5370459021
13300220200.0 0.8347505143 -0.5480428834
13350219900.0 0.8271000648 -0.5599386557
13400219600.0 0.8186589763 -0.5718543171
13450219300.0 0.8092770943 -0.5853156098
13500219000.0 0.7991715232 -0.5992677121
13550218700.0 0.7892967598 -0.6117047694
13600218400.0 0.7790177433 -0.6237645988
13650218100.0 0.7698847034 -0.6347660547
13700217800.0 0.7587246859 -0.6467697899
13750217500.0 0.7486047065 -0.6579158625
13800217200.0 0.7373559443 -0.6700888191
13850216900.0 0.7265216975 -0.6810125835
13900216600.0 0.7160773139 -0.6900823448
13950216300.0 0.7064225714 -0.7004777632
14000216000.0 0.6956511658 -0.7097705061
14050215700.0 0.6864417746 -0.7179687049
14100215400.0 0.6766316902 -0.7274568752
14150215100.0 0.6673615822 -0.7356822589
14200214800.0 0.6580103064 -0.7445435081
14250214500.0 0.6475485982 -0.753857359
14300214200.0 0.6371928261 -0.7632117592
14350213900.0 0.6265089255 -0.772755307
14400213600.0 0.6140462103 -0.7826056251
14450213300.0 0.6011157808 -0.7927327962
14500213000.0 0.588021335 -0.8023547752
14550212700.0 0.5757312522 -0.8121383815
14600212400.0 0.5631061006 -0.8203941248
14650212100.0 0.550448129 -0.8300332909
14700211800.0 0.5367622221 -0.8395780661
14750211500.0 0.5244182434 -0.8472732614
14800211200.0 0.5122884927 -0.8557219516
14850210900.0 0.5000408807 -0.8628320325
14900210600.0 0.4868733174 -0.8711194089
14950210300.0 0.4732252779 -0.8786196603
15000210000.0 0.460750774 -0.8852432759
15050209700.0 0.4484805264 -0.8912955028
15100209400.0 0.4358649879 -0.8976601569
15150209100.0 0.4232184285 -0.9023297347
15200208800.0 0.4107787479 -0.9081290089
15250208500.0 0.3989903032 -0.9132407568
15300208200.0 0.3872367534 -0.9173683653
15350207900.0 0.3733786872 -0.9214970293
15400207600.0 0.3591228983 -0.92776611
15450207300.0 0.3446327573 -0.9328495826
15500207000.0 0.3307495498 -0.9370599723
15550206700.0 0.3153546605 -0.9426183622
15600206400.0 0.2994884324 -0.9470079642
15650206100.0 0.2835070636 -0.951045499
15700205800.0 0.2701958076 -0.9545042723
15750205500.0 0.2556655878 -0.9581476712
15800205200.0 0.2414130793 -0.9616815285
15850204900.0 0.2272063292 -0.9651240417
15900204600.0 0.2120295798 -0.9686379464
15950204300.0 0.1978853326 -0.9720479977
16000204000.0 0.1832347228 -0.9747879617
16050203700.0 0.1682036831 -0.9776370877
16100203400.0 0.1535087896 -0.9799995958
16150203100.0 0.1390150766 -0.9820290455
16200202800.0 0.1248458898 -0.9844675591
16250202500.0 0.1099387538 -0.9858689435
16300202200.0 0.0945040157 -0.9878499784
16350201900.0 0.0797025643 -0.9889759212
16400201600.0 0.0651132198 -0.9902935341
16450201300.0 0.0497917726 -0.991330025
16500201000.0 0.0330794779 -0.992168424
16550200700.0 0.0174203002 -0.9925379939
16600200400.0 0.0017573149 -0.9928973494
16650200100.0 -0.0143049694 -0.9928636528
16700199800.0 -0.0306866496 -0.9922252919
16750199500.0 -0.0492466836 -0.9916218162
16800199200.0 -0.0649335115 -0.9907611365
16850198900.0 -0.0805385254 -0.9894543278
16900198600.0 -0.0943547674 -0.9889384515
16950198300.0 -0.1078041172 -0.9874318018
17000198000.0 -0.1206000422 -0.9868483902
17050197700.0 -0.1334412075 -0.984328858
17100197400.0 -0.1462768824 -0.9824532762
17150197100.0 -0.1590643583 -0.9803090017
17200196800.0 -0.1715279952 -0.9780844851
17250196500.0 -0.1848202724 -0.976002844
17300196200.0 -0.1968710881 -0.9734445578
17350195900.0 -0.2088184842 -0.9711825701
17400195600.0 -0.2208635594 -0.9687110973
17450195300.0 -0.2338864919 -0.9660313957
17500195000.0 -0.2474274606 -0.9626345195
17550194700.0 -0.2612422881 -0.9592278592
17600194400.0 -0.2751976614 -0.9549213071
17650194100.0 -0.2890096426 -0.9511255514
17700193800.0 -0.3018392783 -0.946927691
17750193500.0 -0.3163090036 -0.9421252489
17800193200.0 -0.330577509 -0.9371563862
17850192900.0 -0.3453274435 -0.9314138568
17900192600.0 -0.3608741134 -0.9254398786
17950192300.0 -0.3766436393 -0.9180763416
18000192000.0 -0.3913175636 -0.9113810011
18050191700.0 -0.4051425871 -0.9033037009
18100191400.0 -0.4192878817 -0.8956493212
18150191100.0 -0.4344384475 -0.8877199701
18200190800.0 -0.451201539 -0.8785690889
18250190500.0 -0.468261546 -0.8690844345
18300190200.0 -0.4836291138 -0.8604060219
18350189900.0 -0.49882086 -0.8518848359
18400189600.0 -0.5133718113 -0.8439283458
18450189300.0 -0.5264964355 -0.8357114601
18500189000.0 -0.5398012111 -0.8279370118
18550188700.0 -0.552375472 -0.8199930555
18600188400.0 -0.5640885204 -0.8134677999
18650188100.0 -0.5753724104 -0.8070074726
18700187800.0 -0.5862400167 -0.8007493314
18750187500.0 -0.5967165837 -0.7942456965
18800187200.0 -0.6072697007 -0.7868503191
18850186900.0 -0.6172048044 -0.7801494128
18900186600.0 -0.6274504058 -0.772842359
18950186300.0 -0.6377371044 -0.7652506433
19000186000.0 -0.6448115882 -0.7590809844
19050185700.0 -0.6542621203 -0.7521388684
19100185400.0 -0.6639977991 -0.7435535677
19150185100.0 -0.6749646472 -0.7355549286
19200184800.0 -0.6836401509 -0.7267997459
19250184500.0 -0.6934848841 -0.7183707809
19300184200.0 -0.7054912224 -0.7076864827
19350183900.0 -0.7162769032 -0.6979170364
19400183600.0 -0.7252488702 -0.6889946579
19450183300.0 -0.7348233935 -0.6780655489
19500183000.0 -0.7432535229 -0.6685227417
19550182700.0 -0.7527427092 -0.6576242173
19600182400.0 -0.7629033166 -0.6458279475
19650182100.0 -0.7741692035 -0.6331039395
19700181800.0 -0.784607768 -0.6201558451
19750181500.0 -0.7953948463 -0.6057938727
19800181200.0 -0.8056040742 -0.5909078695
19850180900.0 -0.8154541866 -0.5755518924
19900180600.0 -0.8232166526 -0.5609870467
19950180300.0 -0.8326270619 -0.5447930234
20000180000.0 -0.825221774 -0.5480849697
20050179700.0 -0.833776491 -0.5343652811
20100179400.0 -0.8416458072 -0.5212831336
20150179100.0 -0.8499347841 -0.5081550753
20200178800.0 -0.8583480381 -0.4956230156
20250178500.0 -0.8682828502 -0.483217635
20300178200.0 -0.8781469476 -0.4677480602
20350177900.0 -0.8870697889 -0.4538305588
20400177600.0 -0.8960910523 -0.4396639533
20450177300.0 -0.9044072586 -0.42541948
20500177000.0 -0.9120637015 -0.411269077
20550176700.0 -0.9201733016 -0.3978137139
20600176400.0 -0.9270328713 -0.3848592259
20650176100.0 -0.9330347949 -0.3726507402
20700175800.0 -0.9404400577 -0.360292018
20750175500.0 -0.9462731465 -0.3487207545
20800175200.0 -0.9522264217 -0.3381144633
20850174900.0 -0.9563246864 -0.3276549837
20900174600.0 -0.9606791135 -0.3159454459
20950174300.0 -0.9649139924 -0.3047542231
21000174000.0 -0.9670861836 -0.2929760726
21050173700.0 -0.9706186298 -0.2836247581
21100173400.0 -0.9738636548 -0.2718463322
21150173100.0 -0.9782392644 -0.2584221783
21200172800.0 -0.9816419831 -0.2456761309
21250172500.0 -0.9850262781 -0.2318542922
21300172200.0 -0.987599863 -0.2181283792
21350171900.0 -0.9894626829 -0.2037664932
21400171600.0 -0.9912512666 -0.1892934623
21450171300.0 -0.9911525287 -0.1750193812
21500171000.0 -0.9912070861 -0.1591088775
21550170700.0 -0.9918120743 -0.1446622527
21600170400.0 -0.992809063 -0.1289878979
21650170100.0 -0.991496404 -0.1138749154
21700169800.0 -0.9900522592 -0.0981506729
21750169500.0 -0.988969359 -0.0814073201
21800169200.0 -0.9890713917 -0.0654916802
21850168900.0 -0.9879279412 -0.0487517473
21900168600.0 -0.9865262652 -0.0314250364
21950168300.0 -0.9857766497 -0.016662947
22000168000.0 -0.9849238714 -0.0015136299
22050167700.0 -0.9851866106 0.0131398865
22100167400.0 -0.9850809314 0.028579299
22150167100.0 -0.9861406625 0.0442078606
22200166800.0 -0.986629464 0.0605516489
22250166500.0 -0.9867251647 0.0776185113
22300166200.0 -0.985370934 0.094079036
22350165900.0 -0.9840389814 0.1112209117
22400165600.0 -0.9820474796 0.127082195
22450165300.0 -0.9804975795 0.1416552059
22500165000.0 -0.9800371524 0.1560119368
22550164700.0 -0.977963779 0.1711637837
22600164400.0 -0.9763151491 0.1858265064
22650164100.0 -0.9734258778 0.201488763
22700163800.0 -0.9701956171 0.2178397072
22750163500.0 -0.9682922022 0.2321938142
22800163200.0 -0.9645579914 0.2460248916
22850162900.0 -0.9623080215 0.2590647283
22900162600.0 -0.9611979508 0.2726256696
22950162300.0 -0.9598163243 0.2854315488
23000162000.0 -0.9585692327 0.2974250768
23050161700.0 -0.9565272325 0.3102386627
23100161400.0 -0.9537957844 0.323192001
23150161100.0 -0.9508631227 0.3357758881
23200160800.0 -0.9488026751 0.3482215774
23250160500.0 -0.9454838251 0.359999514
23300160200.0 -0.9429162686 0.3722670051
23350159900.0 -0.9393440812 0.3861021197
23400159600.0 -0.9342636321 0.3996524165
23450159300.0 -0.9297420249 0.4123605858
23500159000.0 -0.9248946447 0.4255277043
23550158700.0 -0.9205628503 0.439153719
23600158400.0 -0.9148600202 0.4525719087
23650158100.0 -0.908220533 0.4668898361
23700157800.0 -0.9007295832 0.4805186576
23750157500.0 -0.8919790178 0.4950493846
23800157200.0 -0.8832009031 0.5077823868
23850156900.0 -0.8740473899 0.5210951627
23900156600.0 -0.864747747 0.5336382882
23950156300.0 -0.8545350721 0.5461486435
24000156000.0 -0.8459307119 0.5585433545
24050155700.0 -0.8359162035 0.5700609501
24100155400.0 -0.8257163259 0.5821706451
24150155100.0 -0.8146886514 0.5942460232
24200154800.0 -0.8044355346 0.6058649281
24250154500.0 -0.7931459625 0.6171548982
24300154200.0 -0.7817894523 0.6289152124
24350153900.0 -0.7699971758 0.6390658005
24400153600.0 -0.7577883775 0.6494937973
24450153300.0 -0.7457170327 0.6597842104
24500153000.0 -0.734228307 0.6693176698
24550152700.0 -0.7230866864 0.6789556703
24600152400.0 -0.7112972985 0.6884162013
24650152100.0 -0.6993300232 0.6969514178
