!Created with skrf (http://scikit-rf.org).
# Hz S RI R 50.0 
!freq ReS11 ImS11
300000.0 -0.9735140356 -0.1208870881
50299700.0 -0.9999682976 0.0149788015
100299400.0 -0.9980081508 0.0279135176
150299100.0 -1.002644993 0.044876401
200298800.0 -0.9995210244 0.0582644345
250298500.0 -0.9973929734 0.0716403613
300298200.0 -0.9859843122 0.0875113625
350297900.0 -0.9939427431 0.0984371809
400297600.0 -0.993031454 0.1150142256
450297300.0 -0.9910601092 0.1286782742
500297000.0 -0.9894524794 0.143285849
550296700.0 -0.9843318199 0.1557973146
600296400.0 -1.017315088 0.1893176581
650296100.0 -0.9821913953 0.1857964381
700295800.0 -0.9793185052 0.2002196763
750295500.0 -0.9763704661 0.2139633933
800295200.0 -0.9728565215 0.2281505151
850294900.0 -0.9696064348 0.2418875993
900294600.0 -0.9657762881 0.2558467897
950294300.0 -0.9622108978 0.269229644
1000294000.0 -0.9582904104 0.2834186572
1050293700.0 -0.9534865328 0.297266552
1100293400.0 -0.9494609722 0.3115488936
1150293100.0 -0.9455310485 0.3235946042
1200292800.0 -0.9401978522 0.3377338314
1250292500.0 -0.9346743884 0.3513249171
1300292200.0 -0.9289693278 0.364508732
1350291900.0 -0.9234594268 0.3785448315
1400291600.0 -0.9179401672 0.3916534398
1450291300.0 -0.9125925973 0.4042071194
1500291000.0 -0.9063433499 0.4172969416
1550290700.0 -0.8996998412 0.4307531783
1600290400.0 -0.893560506 0.4437605598
1650290100.0 -0.8866573465 0.4558268609
1700289800.0 -0.8797948998 0.469183069
1750289500.0 -0.8728067378 0.4815746891
1800289200.0 -0.8655149529 0.4943887961
1850288900.0 -0.858673286 0.5060802024
1900288600.0 -0.8511522208 0.5186997775
1950288300.0 -0.8427983139 0.5311942695
2000288000.0 -0.8354910245 0.5426875847
2050287700.0 -0.8271670813 0.5552937815
2100287400.0 -0.8193119889 0.5665660807
2150287100.0 -0.8107482526 0.5786558515
2200286800.0 -0.8029406037 0.5892211509
2250286500.0 -0.7939763977 0.6012713924
2300286200.0 -0.7853968671 0.6129270408
2350285900.0 -0.7769803669 0.6236107238
2400285600.0 -0.7679126134 0.6345475647
2450285300.0 -0.7589852883 0.6449666223
2500285000.0 -0.7490814849 0.6566149186
2550284700.0 -0.7402912328 0.666982777
2600284400.0 -0.7309598613 0.6769073466
2650284100.0 -0.7222598355 0.6869857384
2700283800.0 -0.7117160885 0.6975992161
2750283500.0 -0.7014345243 0.7085559358
2800283200.0 -0.691623199 0.7182492992
2850282900.0 -0.6812674259 0.7282606167
2900282600.0 -0.6703726018 0.7377416048
2950282300.0 -0.6603707233 0.7471925454
3000282000.0 -0.6496137139 0.7565824793
3050281700.0 -0.6383567724 0.7660011622
3100281400.0 -0.6268461901 0.7750799312
3150281100.0 -0.6154413268 0.7840742464
3200280800.0 -0.6040706416 0.792543777
3250280500.0 -0.5929987394 0.8003999485
3300280200.0 -0.5815229097 0.8085313576
3350279900.0 -0.56946497 0.8165157099
3400279600.0 -0.5568020406 0.8243931425
3450279300.0 -0.5458362916 0.8315012231
3500279000.0 -0.5338821453 0.8385649841
3550278700.0 -0.5218625651 0.8454443955
3600278400.0 -0.5098555639 0.8525163096
3650278100.0 -0.4967270503 0.8600636111
3700277800.0 -0.4847408957 0.8667270203
3750277500.0 -0.4722757396 0.8731750455
3800277200.0 -0.4597731064 0.8798605447
3850276900.0 -0.4478018186 0.8856943836
3900276600.0 -0.4368454868 0.8912430956
3950276300.0 -0.4248517486 0.8972681999
4000276000.0 -0.4129168396 0.9032516138
4050275700.0 -0.4002161555 0.9092874974
4100275400.0 -0.3890928756 0.914709453
4150275100.0 -0.3761006576 0.9206373499
4200274800.0 -0.3628645395 0.9263970118
4250274500.0 -0.3502164105 0.9312862595
4300274200.0 -0.3369603115 0.9367146864
4350273900.0 -0.3228006484 0.9419321855
4400273600.0 -0.3079671099 0.9471614341
4450273300.0 -0.2930294836 0.9523141445
4500273000.0 -0.2797812247 0.9564818552
4550272700.0 -0.2660918185 0.9606734656
4600272400.0 -0.2508308531 0.9647854526
4650272100.0 -0.2394767062 0.9679725462
4700271800.0 -0.2264256605 0.9713327996
4750271500.0 -0.2147113554 0.9740123628
4800271200.0 -0.2024720148 0.9766941935
4850270900.0 -0.1886731241 0.9796785753
4900270600.0 -0.1749359428 0.9821521814
4950270300.0 -0.1603246757 0.984660906
5000270000.0 -0.1459918248 0.9867238933
5050269700.0 -0.1322797148 0.9882587329
5100269400.0 -0.1185532791 0.9903376415
5150269100.0 -0.1045226846 0.9916516181
5200268800.0 -0.0910863085 0.9927011227
5250268500.0 -0.078030028 0.9939935447
5300268200.0 -0.0646917934 0.9945278775
5350267900.0 -0.0519800955 0.9955013325
5400267600.0 -0.035573285 0.9963173447
5450267300.0 -0.0224454028 0.9965994049
5500267000.0 -0.0071036354 0.9970065009
5550266700.0 0.0079165564 0.9973385085
5600266400.0 0.0235340887 0.9972467477
5650266100.0 0.0402411776 0.9965769341
5700265800.0 0.0545815669 0.9958957915
5750265500.0 0.0693828722 0.9952764827
5800265200.0 0.0826230848 0.9941055203
5850264900.0 0.0962543793 0.9931036085
5900264600.0 0.1126443652 0.9913000928
5950264300.0 0.12435798 0.9898777652
6000264000.0 0.1383569191 0.9885123717
6050263700.0 0.1500512336 0.9871439851
6100263400.0 0.1622205665 0.9849254089
6150263100.0 0.1768934323 0.9827260228
6200262800.0 0.1865957377 0.9811035465
6250262500.0 0.1990818823 0.9786224947
6300262200.0 0.211657375 0.9762698648
6350261900.0 0.2243812161 0.9732527158
6400261600.0 0.2385605026 0.9700600756
6450261300.0 0.2496327539 0.9674601834
6500261000.0 0.262875172 0.9639338396
6550260700.0 0.2758017049 0.9600074641
6600260400.0 0.2892144591 0.955676647
6650260100.0 0.303212391 0.9513643533
6700259800.0 0.315431416 0.9472151098
6750259500.0 0.3289400505 0.9421617467
6800259200.0 0.3427192357 0.937355584
6850258900.0 0.3549336376 0.9320091955
6900258600.0 0.3674252601 0.9269102633
6950258300.0 0.3799580576 0.9214034538
7000258000.0 0.3916428188 0.916128642
7050257700.0 0.4036001896 0.9103190499
7100257400.0 0.4168368455 0.9038546159
7150257100.0 0.4276143038 0.8986976932
7200256800.0 0.4406964801 0.8919262103
7250256500.0 0.4529390851 0.885512436
7300256200.0 0.4658133305 0.8786576183
7350255900.0 0.4785214953 0.8720136155
7400255600.0 0.4925190195 0.8639474078
7450255300.0 0.5080298432 0.8551189264
7500255000.0 0.5208330574 0.8475629305
7550254700.0 0.5346227662 0.8388018539
7600254400.0 0.5473199235 0.8305661373
7650254100.0 0.5587112536 0.8224554576
7700253800.0 0.5706022128 0.814747871
7750253500.0 0.5814106794 0.8070284609
7800253200.0 0.5921618112 0.799071319
7850252900.0 0.6015755444 0.792036824
7900252600.0 0.613183695 0.7832187798
7950252300.0 0.621758108 0.7769109253
8000252000.0 0.6317685687 0.7691968261
8050251700.0 0.6419923703 0.7610706413
8100251400.0 0.6521961318 0.7530914779
8150251100.0 0.6621659291 0.7446514821
8200250800.0 0.6715542076 0.7362807849
8250250500.0 0.6802665251 0.7285361627
8300250200.0 0.6895227444 0.7200122526
8350249900.0 0.6984919336 0.711236707
8400249600.0 0.7069321477 0.7032719321
8450249300.0 0.7158243259 0.6945540725
8500249000.0 0.724233114 0.685817771
8550248700.0 0.7326944804 0.6765499303
8600248400.0 0.7409184998 0.6669658294
8650248100.0 0.7486198996 0.6574650419
8700247800.0 0.7579927667 0.646489178
8750247500.0 0.7662827966 0.6363782388
8800247200.0 0.7741016406 0.6262454779
8850246900.0 0.7829702475 0.614752514
8900246600.0 0.7911914548 0.6033240356
8950246300.0 0.800810475 0.5906270577
9000246000.0 0.8096860933 0.5784309226
9050245700.0 0.8183622071 0.5661445934
9100245400.0 0.8268047396 0.5537595237
9150245100.0 0.8355559621 0.5406505539
9200244800.0 0.845218838 0.5261668385
9250244500.0 0.8541712907 0.5112242863
9300244200.0 0.8621159221 0.4975625725
9350243900.0 0.8700199688 0.4839454821
9400243600.0 0.8765068058 0.4724488708
9450243300.0 0.8821545077 0.4616379719
9500243000.0 0.8883752925 0.4498084343
9550242700.0 0.8923261552 0.4421829634
9600242400.0 0.8963649483 0.4348461595
9650242100.0 0.9006013535 0.4277995229
9700241800.0 0.9055636579 0.4191795515
9750241500.0 0.9096364657 0.4118051281
9800241200.0 0.9144589874 0.4022858733
9850240900.0 0.9201246579 0.3908501135
9900240600.0 0.9263466156 0.3785815496
9950240300.0 0.9334092517 0.3622084764
10000240000.0 0.9382097119 0.3502044824
10050239700.0 0.9442940268 0.3338400458
10100239400.0 0.949486932 0.3179750506
10150239100.0 0.9540066757 0.302674693
10200238800.0 0.9583047832 0.2873512592
10250238500.0 0.9615555426 0.273748814
10300238200.0 0.9647083879 0.2600254659
10350237900.0 0.9675221514 0.2467512475
10400237600.0 0.9700952914 0.2333497738
10450237300.0 0.9726782217 0.2196930746
10500237000.0 0.9746958399 0.2074613381
10550236700.0 0.9774102987 0.1928120913
10600236400.0 0.9790491658 0.1794809265
10650236100.0 0.9814893932 0.1645913704
10700235800.0 0.9835095908 0.152207954
10750235500.0 0.9859196478 0.1386473795
10800235200.0 0.9881589199 0.1241886408
10850234900.0 0.9900934571 0.1095204642
10900234600.0 0.9921402395 0.0947106819
10950234300.0 0.9934728492 0.081400264
11000234000.0 0.9954550897 0.0660064102
11050233700.0 0.997292561 0.0492953053
11100233400.0 0.9987121686 0.0314240417
11150233100.0 0.9999268719 0.0147510865
11200232800.0 1.001013031 -0.0009906789
11250232500.0 1.001750566 -0.0184427592
11300232200.0 1.002036752 -0.0365845099
11350231900.0 1.001767418 -0.053242349
11400231600.0 1.001686548 -0.068895822
11450231300.0 1.000778679 -0.0835580036
11500231000.0 0.9995070799 -0.1002650712
11550230700.0 0.9988545841 -0.1135149762
11600230400.0 0.9971369286 -0.1261455011
11650230100.0 0.9949919623 -0.1379081622
11700229800.0 0.9928503425 -0.1528611235
11750229500.0 0.9903758645 -0.1668078723
11800229200.0 0.9874456472 -0.1804284622
11850228900.0 0.9837300728 -0.1924167331
11900228600.0 0.9800274031 -0.202151172
11950228300.0 0.9769034924 -0.2121049813
12000228000.0 0.9739564457 -0.2210542182
12050227700.0 0.970630122 -0.2332939632
12100227400.0 0.9670765507 -0.2450910712
12150227100.0 0.9618551 -0.261842477
12200226800.0 0.9589883583 -0.2714487442
12250226500.0 0.9544677337 -0.2852257095
12300226200.0 0.950158652 -0.2968146146
12350225900.0 0.9454405353 -0.3107161535
12400225600.0 0.9407343746 -0.3234586914
12450225300.0 0.9365402302 -0.3365714233
12500225000.0 0.9307309734 -0.3509075449
12550224700.0 0.9252332408 -0.364569983
12600224400.0 0.9204481759 -0.3774309576
12650224100.0 0.914699285 -0.3918346107
12700223800.0 0.9092794819 -0.4046685857
12750223500.0 0.9037901774 -0.4177889078
12800223200.0 0.8985327754 -0.4306283089
12850222900.0 0.8934904439 -0.442414634
12900222600.0 0.8875499059 -0.4547039045
12950222300.0 0.8812443599 -0.4674131575
13000222000.0 0.875309669 -0.4789495035
13050221700.0 0.8685389822 -0.4911810111
13100221400.0 0.8621559521 -0.5040565679
13150221100.0 0.8549905562 -0.5159467524
13200220800.0 0.8480872493 -0.5274703562
13250220500.0 0.8407457831 -0.5397462319
13300220200.0 0.8333244918 -0.5504634454
13350219900.0 0.8254524297 -0.5625957514
13400219600.0 0.8168887424 -0.5743461482
13450219300.0 0.807449951 -0.5875966851
13500219000.0 0.7982425703 -0.6007047328
13550218700.0 0.7878308813 -0.6131588989
13600218400.0 0.7783820876 -0.6247870797
13650218100.0 0.7684837539 -0.6358135219
13700217800.0 0.7567453606 -0.6477611856
13750217500.0 0.7473918481 -0.6592892893
13800217200.0 0.7368157021 -0.6702329397
13850216900.0 0.7260980021 -0.6812239427
13900216600.0 0.7162669329 -0.6899393198
13950216300.0 0.7055336055 -0.700268369
14000216000.0 0.6954258174 -0.7093559229
14050215700.0 0.6861230468 -0.7182008681
14100215400.0 0.6760952314 -0.7269596741
14150215100.0 0.6674519781 -0.7353976195
14200214800.0 0.6578516533 -0.7443718087
14250214500.0 0.6475054 -0.753624083
14300214200.0 0.6370364258 -0.7631055222
14350213900.0 0.6261374926 -0.7725626232
14400213600.0 0.6140537408 -0.7825192382
14450213300.0 0.6010764683 -0.7928273846
14500213000.0 0.5881530715 -0.8026707178
14550212700.0 0.5755418746 -0.8126381683
14600212400.0 0.5638206681 -0.8208456427
14650212100.0 0.5508691219 -0.8295580736
14700211800.0 0.5367113788 -0.8393912732
14750211500.0 0.5244972125 -0.8473686517
14800211200.0 0.5122314648 -0.855422206
14850210900.0 0.4999859198 -0.8630314504
14900210600.0 0.4867534551 -0.8709886327
14950210300.0 0.4734589669 -0.8787643108
15000210000.0 0.4606212271 -0.885453802
15050209700.0 0.4482823911 -0.8913932945
15100209400.0 0.4354599908 -0.8975922565
15150209100.0 0.4230739236 -0.9033740067
15200208800.0 0.4105865675 -0.9089628328
15250208500.0 0.3997554908 -0.9125159805
15300208200.0 0.3867767443 -0.9174256928
15350207900.0 0.3740480766 -0.9223127711
15400207600.0 0.3598412659 -0.9272350149
15450207300.0 0.3451384435 -0.9323146954
15500207000.0 0.3298682119 -0.937279313
15550206700.0 0.3150693453 -0.9421110633
15600206400.0 0.2993706775 -0.9466233417
15650206100.0 0.2840111516 -0.9512646637
15700205800.0 0.2700784486 -0.9543581051
15750205500.0 0.2560660549 -0.9581127517
15800205200.0 0.2418542653 -0.9612649918
15850204900.0 0.227672239 -0.9648347056
15900204600.0 0.2125552546 -0.9683807727
15950204300.0 0.1983803793 -0.9715195409
16000204000.0 0.1838501682 -0.9746107376
16050203700.0 0.1690495869 -0.9777763722
16100203400.0 0.1539638176 -0.9794886394
16150203100.0 0.1394351235 -0.9823075988
16200202800.0 0.1251365693 -0.984455254
16250202500.0 0.1101533662 -0.9860298698
16300202200.0 0.0947002227 -0.9874457519
16350201900.0 0.0798964184 -0.9889461051
16400201600.0 0.0649917408 -0.990174939
16450201300.0 0.049720501 -0.9911688613
16500201000.0 0.0328159792 -0.9921434457
16550200700.0 0.0168369537 -0.992536281
16600200400.0 0.0011505812 -0.9929048152
16650200100.0 -0.0151888283 -0.9924689943
16700199800.0 -0.0316288837 -0.9920932225
16750199500.0 -0.0501063965 -0.9915084164
16800199200.0 -0.0665269238 -0.9911395143
16850198900.0 -0.0818399407 -0.9896657942
16900198600.0 -0.095626788 -0.9889902304
16950198300.0 -0.1093303617 -0.9876059584
17000198000.0 -0.122294176 -0.9863026932
17050197700.0 -0.1353600761 -0.9843578892
17100197400.0 -0.1486805581 -0.9825087892
17150197100.0 -0.1608163969 -0.979967776
17200196800.0 -0.1734886295 -0.9778496732
17250196500.0 -0.1863428218 -0.9758420337
17300196200.0 -0.1986252217 -0.9730047896
17350195900.0 -0.2105149494 -0.9710334603
17400195600.0 -0.2226121169 -0.9683618875
17450195300.0 -0.2354662208 -0.9657193742
17500195000.0 -0.2487896973 -0.9623134908
17550194700.0 -0.2624969761 -0.9586847853
17600194400.0 -0.2764355576 -0.9546639916
17650194100.0 -0.2898396386 -0.9507614304
17700193800.0 -0.3028166509 -0.9466072044
17750193500.0 -0.317439252 -0.9415210792
17800193200.0 -0.331492552 -0.9368370055
17850192900.0 -0.3462713353 -0.9312207708
17900192600.0 -0.3616107611 -0.9251800666
17950192300.0 -0.3770439178 -0.9182173035
18000192000.0 -0.3919688336 -0.9107721896
18050191700.0 -0.4055635971 -0.9030707583
18100191400.0 -0.4197623751 -0.8953103953
18150191100.0 -0.4345691425 -0.8873417573
18200190800.0 -0.4515840084 -0.8782216869
18250190500.0 -0.4686417521 -0.8689797633
18300190200.0 -0.4841114414 -0.8601516902
18350189900.0 -0.4991817232 -0.8515259876
18400189600.0 -0.5140656765 -0.8428899305
18450189300.0 -0.5268296129 -0.8352883555
18500189000.0 -0.5399910271 -0.8274819957
18550188700.0 -0.5534527016 -0.8192843212
18600188400.0 -0.5652032088 -0.8126833599
18650188100.0 -0.5764661442 -0.8058589412
18700187800.0 -0.5872220646 -0.7997638674
18750187500.0 -0.598144878 -0.7931136046
18800187200.0 -0.6089086355 -0.7857194488
18850186900.0 -0.6190114632 -0.7789976773
18900186600.0 -0.6292856636 -0.7715633714
18950186300.0 -0.63950037 -0.763873827
19000186000.0 -0.6466855778 -0.7576177635
19050185700.0 -0.6567606507 -0.7503850923
19100185400.0 -0.6665171001 -0.7423996117
19150185100.0 -0.6763734343 -0.7336291856
19200184800.0 -0.6858901528 -0.725719399
19250184500.0 -0.6959813696 -0.716246731
19300184200.0 -0.7073378091 -0.706869111
19350183900.0 -0.7187147999 -0.6972395607
19400183600.0 -0.7279417296 -0.6867922323
19450183300.0 -0.736997344 -0.6770100495
19500183000.0 -0.7455433819 -0.6672819595
19550182700.0 -0.7546255733 -0.6562902749
19600182400.0 -0.7651258005 -0.6442161707
19650182100.0 -0.7760977494 -0.6319102025
19700181800.0 -0.786327807 -0.6188676019
19750181500.0 -0.796771415 -0.6047561007
19800181200.0 -0.8068919057 -0.5895749798
19850180900.0 -0.8164753023 -0.5742975672
19900180600.0 -0.8241341307 -0.5598500575
19950180300.0 -0.8334909324 -0.5436708373
20000180000.0 -0.8243375157 -0.5464151048
20050179700.0 -0.8317888695 -0.5342468855
20100179400.0 -0.8404334845 -0.5212307285
20150179100.0 -0.8479118579 -0.5091373298
20200178800.0 -0.8571267967 -0.4971180154
20250178500.0 -0.8662944307 -0.4842813832
20300178200.0 -0.8757283974 -0.4706483843
20350177900.0 -0.8845585252 -0.4569199196
20400177600.0 -0.8943643441 -0.4423260713
20450177300.0 -0.9028541418 -0.4280339917
20500177000.0 -0.910621591 -0.4139360111
20550176700.0 -0.9185872081 -0.4006992063
20600176400.0 -0.9254652829 -0.3872535221
20650176100.0 -0.9322101565 -0.3751303437
20700175800.0 -0.9389236735 -0.3634647703
20750175500.0 -0.9445859706 -0.3519383747
20800175200.0 -0.9500059961 -0.341744562
20850174900.0 -0.9541419571 -0.3301547858
20900174600.0 -0.9582921366 -0.3194776089
20950174300.0 -0.9619871298 -0.3089178073
21000174000.0 -0.9655913821 -0.2973350317
21050173700.0 -0.9674644152 -0.287738465
21100173400.0 -0.9710433124 -0.2754741317
21150173100.0 -0.9743693918 -0.2639794625
21200172800.0 -0.9789754921 -0.2507333158
21250172500.0 -0.9819301522 -0.2369777649
21300172200.0 -0.9850440427 -0.2230297339
21350171900.0 -0.9871939975 -0.2087914681
21400171600.0 -0.9892320148 -0.1948319692
21450171300.0 -0.9897185269 -0.18137798
21500171000.0 -0.9900109794 -0.1653477196
21550170700.0 -0.9900514597 -0.1498424056
21600170400.0 -0.9904678761 -0.1349402354
21650170100.0 -0.9913972177 -0.119724903
21700169800.0 -0.9901451734 -0.1049514131
21750169500.0 -0.990794682 -0.0873606077
21800169200.0 -0.9901168628 -0.0721680383
21850168900.0 -0.9890526971 -0.0537880892
21900168600.0 -0.9891504479 -0.0379077466
21950168300.0 -0.9879748899 -0.0228241533
22000168000.0 -0.9877207541 -0.0078242913
22050167700.0 -0.9880986881 0.0072063744
22100167400.0 -0.9888412523 0.0227597375
22150167100.0 -0.9892272625 0.0386569457
22200166800.0 -0.9900474157 0.0549325033
22250166500.0 -0.9890764724 0.0720540397
22300166200.0 -0.9886651266 0.0892514475
22350165900.0 -0.9879533675 0.1055631202
22400165600.0 -0.9860386635 0.1196679133
22450165300.0 -0.9844772867 0.1364501771
22500165000.0 -0.9826560604 0.1506364134
22550164700.0 -0.9828250857 0.1662561866
22600164400.0 -0.979671912 0.1815328298
22650164100.0 -0.9763580412 0.197894056
22700163800.0 -0.9733051461 0.2135894759
22750163500.0 -0.9710208719 0.2286252415
22800163200.0 -0.9681508915 0.241608657
22850162900.0 -0.9654143783 0.254454574
22900162600.0 -0.9635142601 0.2686600361
22950162300.0 -0.9618791926 0.2821069366
23000162000.0 -0.9602952771 0.2944205671
23050161700.0 -0.9577477186 0.3084643585
23100161400.0 -0.9552728189 0.3210563317
23150161100.0 -0.9520335238 0.3338978055
23200160800.0 -0.9491452184 0.3470373607
23250160500.0 -0.9461948295 0.3591296071
23300160200.0 -0.9443876927 0.371341184
23350159900.0 -0.9397572032 0.385021353
23400159600.0 -0.9353419858 0.3986347869
23450159300.0 -0.9297174527 0.4122756825
23500159000.0 -0.9251219902 0.4257717688
23550158700.0 -0.9202007099 0.4397335886
23600158400.0 -0.9143020933 0.4538044748
23650158100.0 -0.9074023851 0.4678404415
23700157800.0 -0.8990519564 0.4822648266
23750157500.0 -0.8898263949 0.496558813
23800157200.0 -0.8804097402 0.5097165748
23850156900.0 -0.8711621941 0.5223635884
23900156600.0 -0.86161655 0.535198281
23950156300.0 -0.8513454442 0.5475030025
24000156000.0 -0.842792991 0.5601745621
24050155700.0 -0.8319323355 0.572123807
24100155400.0 -0.8211952308 0.5851935236
24150155100.0 -0.8108277607 0.5963287017
24200154800.0 -0.7993781771 0.6086397263
24250154500.0 -0.7884345021 0.6206337827
24300154200.0 -0.7769049037 0.632322423
24350153900.0 -0.7647618176 0.6434489541
24400153600.0 -0.7524293267 0.6540587969
24450153300.0 -0.7406873127 0.664221649
24500153000.0 -0.72938815 0.6734178001
24550152700.0 -0.7179103207 0.6836066434
24600152400.0 -0.7057945918 0.6935154481
24650152100.0 -0.6943346067 0.7015635749
