!Created with skrf (http://scikit-rf.org).
# Hz S RI R 50.0 
!freq ReS11 ImS11
300000.0 -0.9780589852 -0.1164762222
50299700.0 -1.000038154 0.0154957401
100299400.0 -0.9980484395 0.0285173861
150299100.0 -1.002756301 0.0452662815
200298800.0 -0.9995289424 0.0586500952
250298500.0 -0.9974779083 0.0721514273
300298200.0 -0.9861544333 0.0880124515
350297900.0 -0.9938405079 0.098922537
400297600.0 -0.9931556251 0.1157165849
450297300.0 -0.9910911554 0.129307452
500297000.0 -0.989468044 0.1441959723
550296700.0 -0.9844513109 0.1564629384
600296400.0 -1.017311732 0.1898990075
650296100.0 -0.9821610676 0.186378769
700295800.0 -0.9791947325 0.2005134056
750295500.0 -0.9762100513 0.2145753661
800295200.0 -0.9730926128 0.2287198274
850294900.0 -0.9696727741 0.2424472736
900294600.0 -0.965701974 0.2563627499
950294300.0 -0.962122728 0.2700310355
1000294000.0 -0.9581946398 0.2839154376
1050293700.0 -0.9535720427 0.2979102361
1100293400.0 -0.9493425445 0.3121503415
1150293100.0 -0.9454227948 0.3240421928
1200292800.0 -0.9400411307 0.3383428006
1250292500.0 -0.9345474878 0.3518649297
1300292200.0 -0.9290698031 0.3653070751
1350291900.0 -0.9234198242 0.3791177299
1400291600.0 -0.9178624832 0.3922290498
1450291300.0 -0.9123936158 0.4045715323
1500291000.0 -0.9062712812 0.4181252514
1550290700.0 -0.8996459951 0.4314409406
1600290400.0 -0.893175921 0.4443564581
1650290100.0 -0.8865998173 0.4564712736
1700289800.0 -0.8800930061 0.4698196909
1750289500.0 -0.8727244719 0.4822346285
1800289200.0 -0.8653410187 0.494883804
1850288900.0 -0.8585864012 0.5064742313
1900288600.0 -0.8508164823 0.5194596383
1950288300.0 -0.8427922822 0.5320279814
2000288000.0 -0.8351760304 0.5433435509
2050287700.0 -0.8271580126 0.5558770511
2100287400.0 -0.8191758038 0.5672495539
2150287100.0 -0.8106205877 0.5794167942
2200286800.0 -0.8027611533 0.5896604001
2250286500.0 -0.7938815112 0.6016697085
2300286200.0 -0.7849758056 0.6132971294
2350285900.0 -0.7762996171 0.6242325703
2400285600.0 -0.7672366386 0.6353595862
2450285300.0 -0.7587301526 0.6457315228
2500285000.0 -0.7489583437 0.6571773178
2550284700.0 -0.7400279751 0.6671252829
2600284400.0 -0.7306261424 0.6773128828
2650284100.0 -0.7217724584 0.6880278789
2700283800.0 -0.7109811479 0.6983904252
2750283500.0 -0.7005499791 0.7090056635
2800283200.0 -0.6908845479 0.7190017016
2850282900.0 -0.680695053 0.7288392763
2900282600.0 -0.6705192011 0.7383504075
2950282300.0 -0.6602859753 0.7474730877
3000282000.0 -0.6495677648 0.7569384377
3050281700.0 -0.6384242319 0.7662247489
3100281400.0 -0.626501769 0.775868502
3150281100.0 -0.6146325613 0.7851208013
3200280800.0 -0.6028996544 0.7936193842
3250280500.0 -0.5920748825 0.8012218574
3300280200.0 -0.5809154365 0.8089303705
3350279900.0 -0.5694911747 0.816787542
3400279600.0 -0.5573248297 0.824182153
3450279300.0 -0.5460661941 0.8314944346
3500279000.0 -0.5342177523 0.8385910864
3550278700.0 -0.5216652919 0.8457076211
3600278400.0 -0.5094608385 0.8531742395
3650278100.0 -0.4960224522 0.8605700819
3700277800.0 -0.4841675861 0.8670089589
3750277500.0 -0.4719985113 0.8734448765
3800277200.0 -0.4594396053 0.8801393646
3850276900.0 -0.4474004785 0.8858004307
3900276600.0 -0.4366845356 0.8914426221
3950276300.0 -0.4239476824 0.8975762814
4000276000.0 -0.4120280193 0.9039077979
4050275700.0 -0.3991236933 0.9096233226
4100275400.0 -0.3878181549 0.9150600195
4150275100.0 -0.3754183717 0.920761788
4200274800.0 -0.3623003126 0.926319061
4250274500.0 -0.3502839678 0.9313275555
4300274200.0 -0.337410809 0.9366657296
4350273900.0 -0.3235407293 0.9419613375
4400273600.0 -0.3084961346 0.9471567776
4450273300.0 -0.2930643392 0.9522859903
4500273000.0 -0.2793713265 0.9568280796
4550272700.0 -0.26531127 0.9609374838
4600272400.0 -0.2497187405 0.9652686107
4650272100.0 -0.2379481282 0.9684027437
4700271800.0 -0.2247564616 0.9716409333
4750271500.0 -0.2130353597 0.9746376957
4800271200.0 -0.2004835801 0.9772680891
4850270900.0 -0.1865666551 0.9800425843
4900270600.0 -0.1729048636 0.9824849224
4950270300.0 -0.1584310056 0.9850435933
5000270000.0 -0.1442358195 0.9870488401
5050269700.0 -0.1308651298 0.9887771942
5100269400.0 -0.1172062013 0.9905834039
5150269100.0 -0.1040074047 0.9918698581
5200268800.0 -0.0907074882 0.992951453
5250268500.0 -0.0777347644 0.9940213069
5300268200.0 -0.0645055219 0.9948537602
5350267900.0 -0.0523496079 0.9953101351
5400267600.0 -0.035899355 0.9967113752
5450267300.0 -0.0228862693 0.9965263748
5500267000.0 -0.0077106744 0.9969420574
5550266700.0 0.007185645 0.9973325395
5600266400.0 0.0227755323 0.9973006318
5650266100.0 0.0392471868 0.9970028369
5700265800.0 0.0540638798 0.996428424
5750265500.0 0.068882257 0.9951342037
5800265200.0 0.0830145298 0.9945337887
5850264900.0 0.0963138247 0.9935999969
5900264600.0 0.1129797056 0.9915956783
5950264300.0 0.1250861079 0.9902183829
6000264000.0 0.1388779134 0.9885792906
6050263700.0 0.1515374247 0.9869627196
6100263400.0 0.1636482639 0.9849738919
6150263100.0 0.1783643237 0.9825379104
6200262800.0 0.1889041808 0.9806828846
6250262500.0 0.2014844917 0.9783964373
6300262200.0 0.2141963292 0.9757431126
6350261900.0 0.2273944439 0.9725593836
6400261600.0 0.2411513972 0.9693964514
6450261300.0 0.2524731062 0.966624967
6500261000.0 0.2654444326 0.9632051941
6550260700.0 0.278301276 0.959269191
6600260400.0 0.2917751646 0.9549796527
6650260100.0 0.3055975183 0.9507621343
6700259800.0 0.3174186551 0.9461615327
6750259500.0 0.3314086032 0.9414589045
6800259200.0 0.3444965131 0.9366113638
6850258900.0 0.3565853326 0.9315126571
6900258600.0 0.3687456877 0.9264760659
6950258300.0 0.3811669829 0.9210194512
7000258000.0 0.3933086429 0.9156568678
7050257700.0 0.4054310149 0.9094469729
7100257400.0 0.4183263364 0.9032897861
7150257100.0 0.4285954822 0.8981863431
7200256800.0 0.4412805506 0.8917125341
7250256500.0 0.4531256048 0.8850621017
7300256200.0 0.466487954 0.8785092292
7350255900.0 0.4784951325 0.8714685485
7400255600.0 0.4918222997 0.864143684
7450255300.0 0.5073944118 0.8555178124
7500255000.0 0.5189920102 0.8482083495
7550254700.0 0.532700219 0.8398550784
7600254400.0 0.5461113026 0.8314482869
7650254100.0 0.5565792202 0.8235357467
7700253800.0 0.5689512831 0.8156236466
7750253500.0 0.5801673526 0.8079555915
7800253200.0 0.5907584847 0.8003716939
7850252900.0 0.6004378295 0.7931103523
7900252600.0 0.6120831514 0.7844386182
7950252300.0 0.6208869529 0.7778070246
8000252000.0 0.630887421 0.7701960086
8050251700.0 0.6414901843 0.762030792
8100251400.0 0.6514727957 0.7538812572
8150251100.0 0.6616870056 0.7452475955
8200250800.0 0.6711506207 0.737299369
8250250500.0 0.6800259795 0.7293622738
8300250200.0 0.6896357441 0.7206018477
8350249900.0 0.6982490945 0.712024869
8400249600.0 0.7066390092 0.7039418791
8450249300.0 0.7156030472 0.6947764638
8500249000.0 0.7243253565 0.6857223617
8550248700.0 0.7325831938 0.6768645465
8600248400.0 0.7409027809 0.6673757054
8650248100.0 0.7489015899 0.6579993354
8700247800.0 0.758119107 0.6468069345
8750247500.0 0.7666259871 0.6364759017
8800247200.0 0.7747732708 0.6262515026
8850246900.0 0.7834130134 0.6147205983
8900246600.0 0.7916938419 0.6033798463
8950246300.0 0.8018523729 0.5902544856
9000246000.0 0.8110936469 0.5774068422
9050245700.0 0.8199738325 0.5646207373
9100245400.0 0.828824321 0.5521475267
9150245100.0 0.8379925432 0.5382206461
9200244800.0 0.847648465 0.5231206022
9250244500.0 0.8572687769 0.5073841974
9300244200.0 0.8659284939 0.4930032565
9350243900.0 0.8735935386 0.4790302115
9400243600.0 0.8803693417 0.4665060121
9450243300.0 0.8861709581 0.4551142967
9500243000.0 0.8923291006 0.4427061398
9550242700.0 0.8960877461 0.4351489037
9600242400.0 0.8999517211 0.4276973271
9650242100.0 0.9035798323 0.4215237716
9700241800.0 0.9081950586 0.4131692503
9750241500.0 0.9121486829 0.4058032442
9800241200.0 0.9166497319 0.3964866577
9850240900.0 0.9227447095 0.3846614224
9900240600.0 0.9279330934 0.3732905876
9950240300.0 0.9346758404 0.3570798384
10000240000.0 0.9392261072 0.3457477634
10050239700.0 0.9450306865 0.3303184175
10100239400.0 0.9499165272 0.3148360455
10150239100.0 0.9541863421 0.3002212062
10200238800.0 0.9583632603 0.2851596459
10250238500.0 0.9615885633 0.2718350951
10300238200.0 0.9647977399 0.2580408288
10350237900.0 0.967329665 0.2451070698
10400237600.0 0.9698953611 0.2318515597
10450237300.0 0.9725574045 0.2179391724
10500237000.0 0.9750082091 0.2056713666
10550236700.0 0.9771162915 0.1916705988
10600236400.0 0.9790077881 0.178645367
10650236100.0 0.981365062 0.1631250474
10700235800.0 0.9835735566 0.151149056
10750235500.0 0.9857803201 0.1378370962
10800235200.0 0.9875878003 0.1240666749
10850234900.0 0.989579209 0.1091528968
10900234600.0 0.9917981541 0.094747763
10950234300.0 0.9934581539 0.0814759808
11000234000.0 0.9952539915 0.0663313419
11050233700.0 0.9971299398 0.0501539374
11100233400.0 0.998368172 0.0327325768
11150233100.0 0.9994729191 0.0159487447
11200232800.0 1.000382138 0.0014423613
11250232500.0 1.001190994 -0.0155727411
11300232200.0 1.001985842 -0.0333058223
11350231900.0 1.001807523 -0.0490848179
11400231600.0 1.001714206 -0.064860401
11450231300.0 1.000652496 -0.0797329963
11500231000.0 0.9995654005 -0.0963620243
11550230700.0 0.9976753149 -0.1095798117
11600230400.0 0.9972608863 -0.1215524935
11650230100.0 0.994970057 -0.133776403
11700229800.0 0.992991326 -0.1484718733
11750229500.0 0.9905359902 -0.1626275785
11800229200.0 0.987951586 -0.1766958444
11850228900.0 0.9844722677 -0.1891212972
11900228600.0 0.9808839497 -0.1987252548
11950228300.0 0.9776364403 -0.2091198265
12000228000.0 0.9746298607 -0.2186902736
12050227700.0 0.9717789138 -0.2303924691
12100227400.0 0.9678174574 -0.2420751446
12150227100.0 0.9629289497 -0.258531832
12200226800.0 0.9595150542 -0.2694493812
12250226500.0 0.9548520306 -0.2824129778
12300226200.0 0.9514106208 -0.2948116789
12350225900.0 0.9461019745 -0.3082487369
12400225600.0 0.9421989715 -0.3211243058
12450225300.0 0.9378101225 -0.3340595736
12500225000.0 0.9320590276 -0.3489941809
12550224700.0 0.9268759022 -0.3627700278
12600224400.0 0.9218447155 -0.3753134098
12650224100.0 0.9160636199 -0.3898285056
12700223800.0 0.9107933984 -0.4026845255
12750223500.0 0.9053688378 -0.4156965949
12800223200.0 0.9001666134 -0.428209878
12850222900.0 0.8948456803 -0.4405176553
12900222600.0 0.8888713746 -0.452276795
12950222300.0 0.8824147247 -0.4657380739
13000222000.0 0.876655051 -0.4768936584
13050221700.0 0.8701436248 -0.4896889512
13100221400.0 0.8632382466 -0.5015767438
13150221100.0 0.8566254111 -0.5136961036
13200220800.0 0.8494872036 -0.5253794081
13250220500.0 0.8422473982 -0.5375825632
13300220200.0 0.8350842143 -0.5481306374
13350219900.0 0.8270108389 -0.5599773168
13400219600.0 0.8185550592 -0.5720831942
13450219300.0 0.8092398055 -0.5856209605
13500219000.0 0.7984302859 -0.5996684798
13550218700.0 0.7885702253 -0.612647137
13600218400.0 0.778464734 -0.6247535369
13650218100.0 0.7683363653 -0.6359365272
13700217800.0 0.7577771965 -0.6484986657
13750217500.0 0.7476346666 -0.6594952681
13800217200.0 0.7362246555 -0.6713640654
13850216900.0 0.725043984 -0.6824892701
13900216600.0 0.7155781955 -0.6918405655
13950216300.0 0.7043412006 -0.7016601782
14000216000.0 0.6943141384 -0.7110195423
14050215700.0 0.6852982002 -0.7197535783
14100215400.0 0.675073478 -0.728524698
14150215100.0 0.6659474767 -0.7369057942
14200214800.0 0.6567375873 -0.7456450244
14250214500.0 0.6464207418 -0.7549234398
14300214200.0 0.636161602 -0.7642770389
14350213900.0 0.6249698968 -0.7738344159
14400213600.0 0.6129242633 -0.7836574685
14450213300.0 0.6001302021 -0.7937708166
14500213000.0 0.5866950522 -0.8039313334
14550212700.0 0.5744502651 -0.813015774
14600212400.0 0.562119721 -0.8219237999
14650212100.0 0.5488585281 -0.8306762651
14700211800.0 0.534803719 -0.8399541997
14750211500.0 0.5232445102 -0.8487635942
14800211200.0 0.5109073729 -0.8565134472
14850210900.0 0.4986610519 -0.8638257865
14900210600.0 0.4853909228 -0.871696545
14950210300.0 0.4718487111 -0.8793683151
15000210000.0 0.4590772634 -0.886027337
15050209700.0 0.4469788997 -0.8925116766
15100209400.0 0.4338882004 -0.8975953076
15150209100.0 0.422249591 -0.9037232612
15200208800.0 0.409052715 -0.9093617875
15250208500.0 0.3978262755 -0.9135474477
15300208200.0 0.3850524394 -0.9186144953
15350207900.0 0.3724086916 -0.9227294752
15400207600.0 0.3571027363 -0.9285979747
15450207300.0 0.3428328677 -0.9330775099
15500207000.0 0.3291550654 -0.937892502
15550206700.0 0.312867026 -0.9425590469
15600206400.0 0.2971254265 -0.9477350841
15650206100.0 0.2812719376 -0.9518773905
15700205800.0 0.2678300046 -0.9553651733
15750205500.0 0.2530105908 -0.9591941952
15800205200.0 0.2388837544 -0.9623401875
15850204900.0 0.224355713 -0.9658189582
15900204600.0 0.2094431291 -0.9694157752
15950204300.0 0.1954577665 -0.9724317889
16000204000.0 0.1810971851 -0.9748770076
16050203700.0 0.1662681848 -0.9780434712
16100203400.0 0.1517150752 -0.9803840766
16150203100.0 0.137262207 -0.9827130378
16200202800.0 0.1231379067 -0.9843512421
16250202500.0 0.1088486083 -0.9861939735
16300202200.0 0.0929165859 -0.9878334343
16350201900.0 0.0782404378 -0.9892604148
16400201600.0 0.0636630608 -0.9904363857
16450201300.0 0.0485184799 -0.9911987305
16500201000.0 0.0318934092 -0.9920521965
16550200700.0 0.0161752306 -0.9926431882
16600200400.0 0.0003196029 -0.9926595245
16650200100.0 -0.0156758137 -0.9925971728
16700199800.0 -0.0322612357 -0.9917060487
16750199500.0 -0.0509086898 -0.9912737654
16800199200.0 -0.0665514162 -0.9905832227
16850198900.0 -0.0813405223 -0.9895157052
16900198600.0 -0.0954315985 -0.9884355389
16950198300.0 -0.1093683103 -0.9873810097
17000198000.0 -0.122252966 -0.9857507724
17050197700.0 -0.1348297365 -0.9838554918
17100197400.0 -0.1473141942 -0.9819079209
17150197100.0 -0.1598400613 -0.9798379714
17200196800.0 -0.1728725067 -0.9776441312
17250196500.0 -0.1857099888 -0.9753742454
17300196200.0 -0.1976512996 -0.9732611171
17350195900.0 -0.2097664639 -0.9710292252
17400195600.0 -0.2218474518 -0.9684844523
17450195300.0 -0.2348561896 -0.965749495
17500195000.0 -0.2487275529 -0.9623262851
17550194700.0 -0.262616205 -0.9587664538
17600194400.0 -0.2765691218 -0.954608009
17650194100.0 -0.2901195896 -0.9506366651
17700193800.0 -0.3030252712 -0.9466206994
17750193500.0 -0.3178183615 -0.9420274656
17800193200.0 -0.3319848571 -0.9362935753
17850192900.0 -0.3469242231 -0.9312771774
17900192600.0 -0.3621723453 -0.9252174966
17950192300.0 -0.3779655532 -0.9180038924
18000192000.0 -0.392238649 -0.9108490615
18050191700.0 -0.4062977171 -0.9030001519
18100191400.0 -0.4204591948 -0.8953283647
18150191100.0 -0.4354332339 -0.8871067466
18200190800.0 -0.4524185413 -0.8779674355
18250190500.0 -0.4695876238 -0.8684120138
18300190200.0 -0.4847273713 -0.8600315495
18350189900.0 -0.4999129802 -0.8512049586
18400189600.0 -0.5139247559 -0.8433074382
18450189300.0 -0.5271780112 -0.8349109547
18500189000.0 -0.5412102404 -0.8272058657
18550188700.0 -0.5535640353 -0.8192633315
18600188400.0 -0.5647084325 -0.8125622583
18650188100.0 -0.5761918785 -0.8063223279
18700187800.0 -0.5868754591 -0.799863148
18750187500.0 -0.5973109387 -0.7931762454
18800187200.0 -0.6080158208 -0.7862897552
18850186900.0 -0.6182644881 -0.7794254569
18900186600.0 -0.6284386283 -0.7719818286
18950186300.0 -0.6385180193 -0.7642765023
19000186000.0 -0.6458011415 -0.7582206787
19050185700.0 -0.6548695946 -0.751204621
19100185400.0 -0.665211645 -0.7427202802
19150185100.0 -0.6750602099 -0.7341693699
19200184800.0 -0.6842482452 -0.7257597116
19250184500.0 -0.6945544756 -0.7166921237
19300184200.0 -0.7065593202 -0.7067483069
19350183900.0 -0.7172157708 -0.697342851
19400183600.0 -0.7266628454 -0.6875617568
19450183300.0 -0.735500393 -0.6775511971
19500183000.0 -0.7438217452 -0.6675896919
19550182700.0 -0.7535591509 -0.6562508939
19600182400.0 -0.7636288891 -0.6452081295
19650182100.0 -0.7750641389 -0.6322360499
19700181800.0 -0.7854247868 -0.6189696428
19750181500.0 -0.7963117515 -0.6050504045
19800181200.0 -0.8064619856 -0.5900539638
19850180900.0 -0.8161919635 -0.5746075526
19900180600.0 -0.8239274518 -0.5601455792
19950180300.0 -0.8334052435 -0.5437175855
20000180000.0 -0.8261797103 -0.5460957396
20050179700.0 -0.8348670647 -0.5330789687
20100179400.0 -0.8430027209 -0.5193584984
20150179100.0 -0.8506534263 -0.506682584
20200178800.0 -0.8594006328 -0.49335725
20250178500.0 -0.8701699094 -0.4804888057
20300178200.0 -0.8792183327 -0.466026477
20350177900.0 -0.8877180652 -0.4517718561
20400177600.0 -0.8974614242 -0.437169643
20450177300.0 -0.9052671074 -0.4220815214
20500177000.0 -0.9135207878 -0.4083134962
20550176700.0 -0.9210777682 -0.3946304563
20600176400.0 -0.9283526317 -0.3820848184
20650176100.0 -0.9352016089 -0.369385399
20700175800.0 -0.9427577316 -0.3576024208
20750175500.0 -0.947854307 -0.3457731443
20800175200.0 -0.9533613147 -0.3353558536
20850174900.0 -0.9580229563 -0.3241374459
20900174600.0 -0.9613309639 -0.3119835825
20950174300.0 -0.9658816676 -0.3016776343
21000174000.0 -0.9694163902 -0.289574319
21050173700.0 -0.9721310258 -0.2786428669
21100173400.0 -0.9767552406 -0.2670058812
21150173100.0 -0.980234684 -0.2541538035
21200172800.0 -0.9844038254 -0.2410434152
21250172500.0 -0.987200099 -0.2272355525
21300172200.0 -0.9902299095 -0.2127753995
21350171900.0 -0.991381285 -0.1983173732
21400171600.0 -0.9928078438 -0.184060314
21450171300.0 -0.9925248109 -0.1701508789
21500171000.0 -0.9919468627 -0.1538591749
21550170700.0 -0.9926983694 -0.1391792238
21600170400.0 -0.9923465175 -0.1236484425
21650170100.0 -0.9924834081 -0.1078215629
21700169800.0 -0.9893169853 -0.0923284075
21750169500.0 -0.9884544748 -0.0756893187
21800169200.0 -0.9875664702 -0.0606648058
21850168900.0 -0.986469876 -0.0437244199
21900168600.0 -0.9848950427 -0.0269445427
21950168300.0 -0.9844209711 -0.0110649352
22000168000.0 -0.9836114087 0.0039481822
22050167700.0 -0.9831670385 0.0180847137
22100167400.0 -0.9832163019 0.0332264408
22150167100.0 -0.9838218709 0.04867672
22200166800.0 -0.9843460546 0.0651200611
22250166500.0 -0.9831188074 0.0821408797
22300166200.0 -0.9837175822 0.0992419528
22350165900.0 -0.982334446 0.1157580714
22400165600.0 -0.9800794956 0.1313304941
22450165300.0 -0.9779981591 0.1466898136
22500165000.0 -0.9755685717 0.1601133497
22550164700.0 -0.9755455868 0.175107438
22600164400.0 -0.9738555661 0.1907192459
22650164100.0 -0.9707986253 0.2046956577
22700163800.0 -0.9691369891 0.2211880674
22750163500.0 -0.9659144996 0.2364761495
22800163200.0 -0.9631099728 0.249648356
22850162900.0 -0.9607954871 0.2633264596
22900162600.0 -0.9593019779 0.2766942632
22950162300.0 -0.9582224476 0.2890256865
23000162000.0 -0.9575170144 0.3009990277
23050161700.0 -0.9553201607 0.3137249826
23100161400.0 -0.9526005041 0.3266710637
23150161100.0 -0.9508437028 0.3390367773
23200160800.0 -0.9470197644 0.3511386549
23250160500.0 -0.944156912 0.3627816028
23300160200.0 -0.941845928 0.3753331774
23350159900.0 -0.9377400565 0.3883250484
23400159600.0 -0.9339507089 0.4014824823
23450159300.0 -0.9289118171 0.4145807788
23500159000.0 -0.9242018558 0.427193847
23550158700.0 -0.9197430187 0.4410198463
23600158400.0 -0.9144605846 0.4542203172
23650158100.0 -0.9080541581 0.4682482994
23700157800.0 -0.900144185 0.4819532923
23750157500.0 -0.8917305614 0.4958860475
23800157200.0 -0.8825911146 0.5093697182
23850156900.0 -0.8738752488 0.5218415067
23900156600.0 -0.865303023 0.5344420219
23950156300.0 -0.8565784013 0.5469496182
24000156000.0 -0.846337096 0.55870989
24050155700.0 -0.8366973066 0.5700969879
24100155400.0 -0.826180625 0.5829758973
24150155100.0 -0.8155723024 0.5947106747
24200154800.0 -0.8047793937 0.6062625481
24250154500.0 -0.7932238396 0.6171835394
24300154200.0 -0.7820078772 0.6288382513
24350153900.0 -0.7704122897 0.6393330633
24400153600.0 -0.7583198843 0.6495839373
24450153300.0 -0.7464524582 0.6592243938
24500153000.0 -0.7344885253 0.6688748049
24550152700.0 -0.7238414107 0.678486394
24600152400.0 -0.7123515638 0.6879630371
24650152100.0 -0.7004004228 0.6963342662
