!Created with skrf (http://scikit-rf.org).
# Hz S RI R 50.0 
!freq ReS11 ImS11
300000.0 -0.983785414 -0.0955923682
50299700.0 -1.000027707 0.0165422978
100299400.0 -0.9980727106 0.0293620929
150299100.0 -1.002797226 0.0463249753
200298800.0 -0.9996697832 0.0594113314
250298500.0 -0.9972892676 0.0729735982
300298200.0 -0.9858287642 0.08879714
350297900.0 -0.9940303066 0.0996612017
400297600.0 -0.9932183333 0.1160542476
450297300.0 -0.9909929353 0.1298990244
500297000.0 -0.9893939671 0.1448193239
550296700.0 -0.9844663411 0.1574273371
600296400.0 -1.017112467 0.1906354091
650296100.0 -0.9819107857 0.1871865731
700295800.0 -0.9789830248 0.2018261667
750295500.0 -0.9760611179 0.2156767251
800295200.0 -0.9726731334 0.2296519514
850294900.0 -0.9694136431 0.2434654099
900294600.0 -0.9653961024 0.2571892115
950294300.0 -0.961698835 0.2709163164
1000294000.0 -0.9577461974 0.2851080428
1050293700.0 -0.953146147 0.2987055597
1100293400.0 -0.9489132221 0.3131593665
1150293100.0 -0.9449216873 0.3250083305
1200292800.0 -0.9397816552 0.3393228515
1250292500.0 -0.9342259582 0.3526181152
1300292200.0 -0.9283999624 0.3658457073
1350291900.0 -0.9230639922 0.3798040278
1400291600.0 -0.9175012785 0.3930609733
1450291300.0 -0.9120200535 0.4051892712
1500291000.0 -0.9058381156 0.4188038679
1550290700.0 -0.8993820156 0.4320664395
1600290400.0 -0.8930951778 0.4447598079
1650290100.0 -0.8863334792 0.4568449723
1700289800.0 -0.8795343734 0.470439921
1750289500.0 -0.872386827 0.4825706427
1800289200.0 -0.86519739 0.4954360826
1850288900.0 -0.8585971132 0.5068209136
1900288600.0 -0.8504573764 0.5199457055
1950288300.0 -0.8424398387 0.5325188989
2000288000.0 -0.8349786192 0.5438963858
2050287700.0 -0.8266011044 0.5562403958
2100287400.0 -0.8185068471 0.5679527662
2150287100.0 -0.8100359873 0.5801510455
2200286800.0 -0.8020684442 0.5902047334
2250286500.0 -0.7935443238 0.6022465529
2300286200.0 -0.7845424757 0.6139626971
2350285900.0 -0.7756097749 0.6249117352
2400285600.0 -0.7665740139 0.636117096
2450285300.0 -0.7580389669 0.6463723918
2500285000.0 -0.7483194247 0.6577207182
2550284700.0 -0.7390357396 0.6680559775
2600284400.0 -0.7297174823 0.6781695543
2650284100.0 -0.7211907025 0.6889139211
2700283800.0 -0.7101755351 0.6992752917
2750283500.0 -0.6998470055 0.7098972226
2800283200.0 -0.6902333119 0.7196375443
2850282900.0 -0.6796666597 0.7293451275
2900282600.0 -0.66961892 0.7389120681
2950282300.0 -0.6594041513 0.7481409962
3000282000.0 -0.6486532494 0.7574828263
3050281700.0 -0.6375153418 0.7668562329
3100281400.0 -0.6257947736 0.7760550057
3150281100.0 -0.6138874525 0.7855211246
3200280800.0 -0.6023381519 0.7938983864
3250280500.0 -0.5916746352 0.8016615004
3300280200.0 -0.5804692201 0.8095075959
3350279900.0 -0.5689674373 0.8169628916
3400279600.0 -0.5569773634 0.8247689591
3450279300.0 -0.5458199143 0.8317638988
3500279000.0 -0.5336921072 0.8389495449
3550278700.0 -0.5213962947 0.8462672051
3600278400.0 -0.5091945252 0.853449264
3650278100.0 -0.4957545568 0.8612350933
3700277800.0 -0.483797072 0.8674279789
3750277500.0 -0.4714633892 0.87402083
3800277200.0 -0.4589919204 0.8802087282
3850276900.0 -0.4467963132 0.8864924303
3900276600.0 -0.4357740334 0.8920707111
3950276300.0 -0.423348873 0.8980650837
4000276000.0 -0.4111085633 0.904069251
4050275700.0 -0.3980729675 0.9101894977
4100275400.0 -0.38661819 0.9157395904
4150275100.0 -0.3740541748 0.9211903522
4200274800.0 -0.3611114217 0.9267942272
4250274500.0 -0.348842201 0.931947255
4300274200.0 -0.3357329138 0.9372376241
4350273900.0 -0.3219144091 0.9423560161
4400273600.0 -0.3070753572 0.9476325416
4450273300.0 -0.2917365325 0.9527608435
4500273000.0 -0.2781838502 0.9569198854
4550272700.0 -0.2639938752 0.9612333741
4600272400.0 -0.2486467615 0.9653589812
4650272100.0 -0.2367674114 0.9685867139
4700271800.0 -0.2234374015 0.9717610943
4750271500.0 -0.2116743897 0.974758175
4800271200.0 -0.1992064642 0.9773797554
4850270900.0 -0.1854547113 0.9802711725
4900270600.0 -0.1715994164 0.9826648065
4950270300.0 -0.1574966216 0.985186404
5000270000.0 -0.1431329282 0.9872544978
5050269700.0 -0.129744404 0.9888054264
5100269400.0 -0.1162732025 0.9907155459
5150269100.0 -0.1030016749 0.9923055509
5200268800.0 -0.0894379167 0.9931123648
5250268500.0 -0.0766210865 0.9940206247
5300268200.0 -0.0633558171 0.9950152193
5350267900.0 -0.0513550348 0.9955976186
5400267600.0 -0.0351993639 0.9968653919
5450267300.0 -0.0221593826 0.9967555359
5500267000.0 -0.0069537246 0.9970763573
5550266700.0 0.0077736431 0.9974282902
5600266400.0 0.0232685685 0.9971055575
5650266100.0 0.0398053083 0.9969482219
5700265800.0 0.0543404716 0.9958704914
5750265500.0 0.0694904074 0.9953953184
5800265200.0 0.0833258438 0.9940028684
5850264900.0 0.0966342678 0.9932299108
5900264600.0 0.1131148334 0.9914312672
5950264300.0 0.1256253705 0.9898641507
6000264000.0 0.139528222 0.9880008933
6050263700.0 0.1520669768 0.9860947573
6100263400.0 0.1646644815 0.9844760172
6150263100.0 0.1794617701 0.9821219118
6200262800.0 0.1898742544 0.9803496694
6250262500.0 0.202676366 0.9776669351
6300262200.0 0.2154724661 0.9747741032
6350261900.0 0.2286007185 0.972168464
6400261600.0 0.2424320364 0.9686460845
6450261300.0 0.2537562917 0.965954946
6500261000.0 0.2663452712 0.9622374171
6550260700.0 0.2797933031 0.9585430162
6600260400.0 0.292841945 0.9543108921
6650260100.0 0.3068072054 0.9502394237
6700259800.0 0.3189308227 0.9458403478
6750259500.0 0.3326811171 0.9409654398
6800259200.0 0.3457763785 0.9361873564
6850258900.0 0.3575537506 0.9308393993
6900258600.0 0.3695867478 0.9260320651
6950258300.0 0.3823794221 0.9207427179
7000258000.0 0.3941175781 0.9152242348
7050257700.0 0.4064249647 0.9094016046
7100257400.0 0.4193361791 0.9030003446
7150257100.0 0.4296178055 0.8978964109
7200256800.0 0.44253231 0.8915106616
7250256500.0 0.4540631458 0.8849883611
7300256200.0 0.4670769329 0.8781940926
7350255900.0 0.4791158043 0.8712915355
7400255600.0 0.4922799385 0.8645405977
7450255300.0 0.5076327909 0.8554758993
7500255000.0 0.5196570939 0.8482989297
7550254700.0 0.5325256978 0.8400414827
7600254400.0 0.5457001783 0.8314856944
7650254100.0 0.5569094323 0.8235197419
7700253800.0 0.5690259437 0.8155876875
7750253500.0 0.580272311 0.8076580538
7800253200.0 0.5912168406 0.7998456691
7850252900.0 0.6008246435 0.792730805
7900252600.0 0.6126995101 0.7838872466
7950252300.0 0.6215510857 0.7771602741
8000252000.0 0.6316242939 0.7693556626
8050251700.0 0.6422454914 0.7609884085
8100251400.0 0.6523576088 0.7528209503
8150251100.0 0.662575117 0.7440871091
8200250800.0 0.6719687091 0.7360398303
8250250500.0 0.6812631467 0.7280540921
8300250200.0 0.6904278953 0.7193912158
8350249900.0 0.6991994277 0.710739831
8400249600.0 0.7077183764 0.7024735255
8450249300.0 0.7171110456 0.6933575496
8500249000.0 0.7254653537 0.6844984105
8550248700.0 0.7339412742 0.6754452117
8600248400.0 0.7423506767 0.6658578251
8650248100.0 0.7501124173 0.6564714688
8700247800.0 0.7594101066 0.6454577581
8750247500.0 0.7677536691 0.635469852
8800247200.0 0.7756572471 0.6250405364
8850246900.0 0.7845235729 0.6136833787
8900246600.0 0.7927748176 0.602649315
8950246300.0 0.8024810758 0.589701748
9000246000.0 0.8112229499 0.5773827943
9050245700.0 0.8204366869 0.5644013766
9100245400.0 0.8287007239 0.5518365738
9150245100.0 0.8381020555 0.5385571762
9200244800.0 0.8476781142 0.5233893825
9250244500.0 0.8570672024 0.5080782492
9300244200.0 0.8655501482 0.493325454
9350243900.0 0.873372279 0.4794043405
9400243600.0 0.880208169 0.4669101883
9450243300.0 0.8860263962 0.454953973
9500243000.0 0.8923099371 0.4425271776
9550242700.0 0.8963050468 0.4344453909
9600242400.0 0.9006258058 0.4264952789
9650242100.0 0.9038017772 0.4200403957
9700241800.0 0.9085345556 0.4115177721
9750241500.0 0.9123398478 0.4037895189
9800241200.0 0.9172729456 0.3941545076
9850240900.0 0.9227889576 0.3826536015
9900240600.0 0.9278304437 0.3715058378
9950240300.0 0.9346388829 0.3552073801
10000240000.0 0.9391174922 0.3434661192
10050239700.0 0.9447166066 0.3282973545
10100239400.0 0.9500554255 0.3128603357
10150239100.0 0.9544010518 0.2982425237
10200238800.0 0.9582641712 0.283327123
10250238500.0 0.9618923448 0.2700163247
10300238200.0 0.9650320023 0.2562209511
10350237900.0 0.9675858156 0.243077633
10400237600.0 0.9701772574 0.2297991811
10450237300.0 0.9729096227 0.2163126234
10500237000.0 0.9747141642 0.2044974949
10550236700.0 0.9775175952 0.1899200074
10600236400.0 0.9798881276 0.1766727674
10650236100.0 0.9812293485 0.1628682468
10700235800.0 0.9833097 0.1504906812
10750235500.0 0.9855891328 0.1372197756
10800235200.0 0.9877605252 0.1235626485
10850234900.0 0.9898207357 0.1090973888
10900234600.0 0.9919846439 0.0944243024
10950234300.0 0.9934576875 0.0812780381
11000234000.0 0.9952493244 0.0662215737
11050233700.0 0.9968539467 0.0500336276
11100233400.0 0.9980638093 0.0326159904
11150233100.0 0.999188142 0.0166856654
11200232800.0 0.9999776057 0.0010913983
11250232500.0 1.000432142 -0.0151828326
11300232200.0 1.001416959 -0.033021875
11350231900.0 1.001074078 -0.0497388392
11400231600.0 1.000755526 -0.0649532371
11450231300.0 1.000683165 -0.0800208772
11500231000.0 0.9989616382 -0.0972357138
11550230700.0 0.9975495935 -0.1104350003
11600230400.0 0.9956607374 -0.1227423092
11650230100.0 0.9939702774 -0.1347090626
11700229800.0 0.9918888529 -0.1500634184
11750229500.0 0.9893393828 -0.1643317664
11800229200.0 0.9869273833 -0.1779045824
11850228900.0 0.9835182264 -0.1910109661
11900228600.0 0.980190503 -0.2007998673
11950228300.0 0.9767168684 -0.2113207882
12000228000.0 0.9740908728 -0.2203576814
12050227700.0 0.9705594959 -0.2327615695
12100227400.0 0.9672163885 -0.2446069695
12150227100.0 0.9621039137 -0.2609895209
12200226800.0 0.9584767606 -0.2719554276
12250226500.0 0.9549764827 -0.2850937854
12300226200.0 0.9508279725 -0.2968610031
12350225900.0 0.9458695767 -0.3101763533
12400225600.0 0.9412299359 -0.3229497513
12450225300.0 0.9371064925 -0.3359029516
12500225000.0 0.9320560989 -0.3501184023
12550224700.0 0.9265349719 -0.3637340269
12600224400.0 0.9217127596 -0.3763872137
12650224100.0 0.9158890977 -0.3904664065
12700223800.0 0.9107318352 -0.4030872543
12750223500.0 0.905382898 -0.415829785
12800223200.0 0.9001680103 -0.4282492092
12850222900.0 0.8946484032 -0.4403694213
12900222600.0 0.8883193778 -0.4527880198
12950222300.0 0.8824258879 -0.4655492633
13000222000.0 0.8764242529 -0.4766665682
13050221700.0 0.869421492 -0.4899512058
13100221400.0 0.8627154725 -0.5018727527
13150221100.0 0.8559752741 -0.5143795659
13200220800.0 0.8486310765 -0.5258112149
13250220500.0 0.8413683635 -0.538032298
13300220200.0 0.8336633359 -0.5492854245
13350219900.0 0.8257940789 -0.5612248544
13400219600.0 0.8171325473 -0.5735266838
13450219300.0 0.8074561999 -0.5873075183
13500219000.0 0.7976635561 -0.600896661
13550218700.0 0.7870589758 -0.6135083002
13600218400.0 0.7768207365 -0.6260209209
13650218100.0 0.7667441908 -0.6373297149
13700217800.0 0.7560362341 -0.6500053492
13750217500.0 0.7466551706 -0.6614732776
13800217200.0 0.7342680959 -0.6731163509
13850216900.0 0.7235727219 -0.684356472
13900216600.0 0.7135194893 -0.6932802597
13950216300.0 0.7035107134 -0.7027421416
14000216000.0 0.6931243846 -0.7127605415
14050215700.0 0.6836928961 -0.7203516029
14100215400.0 0.6737788228 -0.729812952
14150215100.0 0.6650155847 -0.7381998279
14200214800.0 0.655679518 -0.7465811205
14250214500.0 0.6455102128 -0.7558645717
14300214200.0 0.6352460906 -0.7650384674
14350213900.0 0.6243318502 -0.7744005428
14400213600.0 0.6126594929 -0.7841588639
14450213300.0 0.5998327116 -0.7941031806
14500213000.0 0.5868762889 -0.8042932167
14550212700.0 0.5741926471 -0.8131990229
14600212400.0 0.5622147825 -0.8216480422
14650212100.0 0.5490586603 -0.8307371578
14700211800.0 0.5349392098 -0.8403797109
14750211500.0 0.522682427 -0.8481518079
14800211200.0 0.5103870664 -0.8562883329
14850210900.0 0.4985287697 -0.8635014038
14900210600.0 0.485177444 -0.8715500417
14950210300.0 0.4715596903 -0.8793498266
15000210000.0 0.4586529712 -0.886075383
15050209700.0 0.4463873113 -0.8923480181
15100209400.0 0.4331552669 -0.8981187328
15150209100.0 0.4207092584 -0.9041193103
15200208800.0 0.4071951512 -0.9091800378
15250208500.0 0.3960650443 -0.9142445434
15300208200.0 0.3838807985 -0.9191789393
15350207900.0 0.370217992 -0.9237639536
15400207600.0 0.3551607014 -0.9290634118
15450207300.0 0.3403711347 -0.9337492931
15500207000.0 0.3256175595 -0.9390968812
15550206700.0 0.3118547076 -0.9441569468
15600206400.0 0.2949323855 -0.9483192037
15650206100.0 0.2794041536 -0.9526733474
15700205800.0 0.2657566275 -0.9561072485
15750205500.0 0.2511726773 -0.959777364
15800205200.0 0.2368837519 -0.9631379218
15850204900.0 0.2226324613 -0.9664549161
15900204600.0 0.2077136589 -0.9698137475
15950204300.0 0.1936357174 -0.972768961
16000204000.0 0.1797366312 -0.9752491165
16050203700.0 0.1652402205 -0.9780611556
16100203400.0 0.1510841891 -0.9804062092
16150203100.0 0.1372396168 -0.982929871
16200202800.0 0.1233528978 -0.9846920509
16250202500.0 0.1080744389 -0.9866850515
16300202200.0 0.093082988 -0.9878487322
16350201900.0 0.0783575184 -0.9893741705
16400201600.0 0.0639339082 -0.9902819729
16450201300.0 0.0487443543 -0.9913499476
16500201000.0 0.0322151263 -0.9921076197
16550200700.0 0.0164981473 -0.9926719014
16600200400.0 0.0004770588 -0.9927466357
16650200100.0 -0.016044337 -0.9928068955
16700199800.0 -0.0319854821 -0.9924246986
16750199500.0 -0.051607736 -0.9917607153
16800199200.0 -0.0667243394 -0.9908937814
16850198900.0 -0.0822343654 -0.9894354863
16900198600.0 -0.0961978273 -0.9889495084
16950198300.0 -0.1096579764 -0.9876785868
17000198000.0 -0.1228856771 -0.9855771093
17050197700.0 -0.1362235983 -0.983505915
17100197400.0 -0.1487256364 -0.9816559615
17150197100.0 -0.1618349444 -0.9796530065
17200196800.0 -0.174416877 -0.9777076082
17250196500.0 -0.1873320279 -0.9750588248
17300196200.0 -0.1998661484 -0.9728513906
17350195900.0 -0.2118427075 -0.9704819214
17400195600.0 -0.2242273315 -0.9678859752
17450195300.0 -0.2373278075 -0.965159271
17500195000.0 -0.2506723711 -0.9617762813
17550194700.0 -0.2644912177 -0.9579815266
17600194400.0 -0.2784950571 -0.9539563897
17650194100.0 -0.2921536975 -0.9498003122
17700193800.0 -0.3048898184 -0.9459834779
17750193500.0 -0.3193759516 -0.9411765169
17800193200.0 -0.3339065915 -0.9360107561
17850192900.0 -0.3485284931 -0.9304867895
17900192600.0 -0.3631858532 -0.9247623437
17950192300.0 -0.3785060101 -0.9178104918
18000192000.0 -0.3932119425 -0.9104553095
18050191700.0 -0.4070440182 -0.9026333628
18100191400.0 -0.421289415 -0.8948948331
18150191100.0 -0.4360101885 -0.8871122237
18200190800.0 -0.4527540351 -0.8779599742
18250190500.0 -0.469747007 -0.8685623215
18300190200.0 -0.4850477693 -0.8598321326
18350189900.0 -0.499587518 -0.8512975151
18400189600.0 -0.5142520593 -0.843055501
18450189300.0 -0.5274085959 -0.8352518937
18500189000.0 -0.5406140543 -0.8270895804
18550188700.0 -0.5536656382 -0.8190049177
18600188400.0 -0.5655470033 -0.8119437247
18650188100.0 -0.5768368757 -0.8057106184
18700187800.0 -0.5876048929 -0.7987240516
18750187500.0 -0.5986447687 -0.7918525834
18800187200.0 -0.6094722639 -0.784540767
18850186900.0 -0.6200185078 -0.7774504371
18900186600.0 -0.6304207597 -0.769580336
18950186300.0 -0.6409198785 -0.7618659804
19000186000.0 -0.6482922385 -0.7554765984
19050185700.0 -0.6579618081 -0.7478399983
19100185400.0 -0.6680218662 -0.7391354624
19150185100.0 -0.6780186012 -0.7311547682
19200184800.0 -0.6875656739 -0.7222902864
19250184500.0 -0.6979593777 -0.7126830364
19300184200.0 -0.7097007137 -0.7030922475
19350183900.0 -0.7202090588 -0.69362242
19400183600.0 -0.729652657 -0.6829326384
19450183300.0 -0.7390566619 -0.6733313213
19500183000.0 -0.7462624941 -0.6636352562
19550182700.0 -0.7559477941 -0.6526994566
19600182400.0 -0.7664425125 -0.6411161207
19650182100.0 -0.7771397157 -0.6290292891
19700181800.0 -0.7876527895 -0.6160705884
19750181500.0 -0.7978350907 -0.602510953
19800181200.0 -0.8077779393 -0.5875329775
19850180900.0 -0.8173607412 -0.5725706797
19900180600.0 -0.8249449714 -0.5586319446
19950180300.0 -0.8340040867 -0.5422908565
20000180000.0 -0.8285386686 -0.5435790998
20050179700.0 -0.835346235 -0.5312837723
20100179400.0 -0.8442130419 -0.517456052
20150179100.0 -0.8523824382 -0.5054267311
20200178800.0 -0.8607441448 -0.492576539
20250178500.0 -0.8701840645 -0.4792276472
20300178200.0 -0.8790619267 -0.4645396197
20350177900.0 -0.8880288029 -0.4507172949
20400177600.0 -0.8968350865 -0.4354746126
20450177300.0 -0.904852667 -0.4214380676
20500177000.0 -0.9131394712 -0.4074973923
20550176700.0 -0.9203612095 -0.3935802261
20600176400.0 -0.9273965169 -0.3804042029
20650176100.0 -0.9346547293 -0.3684107194
20700175800.0 -0.9407286296 -0.3554151864
20750175500.0 -0.9474034299 -0.3439407561
20800175200.0 -0.9515414854 -0.3328353295
20850174900.0 -0.9573733872 -0.3214073745
20900174600.0 -0.9623227566 -0.3101640828
20950174300.0 -0.9669058567 -0.2980113257
21000174000.0 -0.9701626261 -0.2860707079
21050173700.0 -0.9718140391 -0.2748516182
21100173400.0 -0.9768101933 -0.2621749935
21150173100.0 -0.9805410415 -0.2502561497
21200172800.0 -0.9842260776 -0.2361996491
21250172500.0 -0.9872975822 -0.2222905595
21300172200.0 -0.9905554807 -0.2080654534
21350171900.0 -0.9915603286 -0.1939878101
21400171600.0 -0.9934646257 -0.1793145984
21450171300.0 -0.9936376769 -0.1648276641
21500171000.0 -0.993986752 -0.1503522792
21550170700.0 -0.9928498765 -0.1344036509
21600170400.0 -0.9933200469 -0.1192515119
21650170100.0 -0.9921318589 -0.1026279206
21700169800.0 -0.9909386423 -0.0885402966
21750169500.0 -0.9902637652 -0.0729996546
21800169200.0 -0.9892980354 -0.0570954142
21850168900.0 -0.9881574895 -0.0409061313
21900168600.0 -0.9863917904 -0.0245961863
21950168300.0 -0.9848007938 -0.0081802161
22000168000.0 -0.9835209105 0.0060200667
22050167700.0 -0.9829229705 0.020283916
22100167400.0 -0.9830893314 0.0352511772
22150167100.0 -0.9835377311 0.0507204079
22200166800.0 -0.984042565 0.0665983665
22250166500.0 -0.9825041121 0.0838857725
22300166200.0 -0.982012844 0.1006802322
22350165900.0 -0.9809043031 0.1167851202
22400165600.0 -0.9789523791 0.1326767267
22450165300.0 -0.977674758 0.1466417848
22500165000.0 -0.974623547 0.1607393921
22550164700.0 -0.9743142642 0.1759940487
22600164400.0 -0.9721628047 0.191674823
22650164100.0 -0.9701044883 0.2065372359
22700163800.0 -0.9670695003 0.2227749579
22750163500.0 -0.9645775452 0.2376831399
22800163200.0 -0.9621110275 0.2517888288
22850162900.0 -0.9595486047 0.2645844152
22900162600.0 -0.9581034703 0.2781236316
22950162300.0 -0.95676171 0.2909493881
23000162000.0 -0.9560451681 0.3026300292
23050161700.0 -0.953590515 0.3155360625
23100161400.0 -0.9516597952 0.3282371384
23150161100.0 -0.94896515 0.3407423962
23200160800.0 -0.9459402463 0.3524876893
23250160500.0 -0.9430282929 0.3647664049
23300160200.0 -0.940456187 0.37675395
23350159900.0 -0.9361758323 0.3894542514
23400159600.0 -0.9320807049 0.4026655325
23450159300.0 -0.9268057653 0.4154977746
23500159000.0 -0.9222779906 0.4277906071
23550158700.0 -0.9180132619 0.441710232
23600158400.0 -0.9126100124 0.4543807654
23650158100.0 -0.9062139285 0.4681029649
23700157800.0 -0.8985490846 0.4819155066
23750157500.0 -0.8900961523 0.495466768
23800157200.0 -0.881223006 0.5089519987
23850156900.0 -0.8724868104 0.5216259911
23900156600.0 -0.8628124926 0.5341013606
23950156300.0 -0.8541102931 0.5461304039
24000156000.0 -0.8449509101 0.5587375558
24050155700.0 -0.8346149663 0.5701127301
24100155400.0 -0.8245615881 0.5815600076
24150155100.0 -0.8139309958 0.593101072
24200154800.0 -0.8029859833 0.6048077223
24250154500.0 -0.7922295876 0.616979784
24300154200.0 -0.7803063547 0.6286736929
24350153900.0 -0.7687251892 0.6393879324
24400153600.0 -0.7565853614 0.649541986
24450153300.0 -0.7447106667 0.6595326442
24500153000.0 -0.7327418853 0.6697949579
24550152700.0 -0.7221728685 0.6793304779
24600152400.0 -0.7104904892 0.6888690886
24650152100.0 -0.6988026724 0.6973176999
