!Created with skrf (http://scikit-rf.org).
# Hz S RI R 50.0 
!freq ReS11 ImS11
300000.0 -0.9751208172 -0.1201411815
50299700.0 -1.000049063 0.0153866834
100299400.0 -0.9980478177 0.0283447459
150299100.0 -1.002816409 0.0450940602
200298800.0 -0.9995901247 0.0585640836
250298500.0 -0.9974931319 0.071850418
300298200.0 -0.9860219695 0.0877533977
350297900.0 -0.9941248252 0.0986767003
400297600.0 -0.9931247343 0.1151942304
450297300.0 -0.9909661586 0.1292490255
500297000.0 -0.989365305 0.1436567348
550296700.0 -0.9843004526 0.156079973
600296400.0 -1.017281402 0.1896405264
650296100.0 -0.981997271 0.1863643756
700295800.0 -0.9793676625 0.2004883478
750295500.0 -0.9764360561 0.2145221347
800295200.0 -0.973042178 0.2282939151
850294900.0 -0.9696099215 0.2422735955
900294600.0 -0.9658204072 0.2559699179
950294300.0 -0.9621680199 0.2697449585
1000294000.0 -0.9582730745 0.2836835162
1050293700.0 -0.9535465021 0.2974007587
1100293400.0 -0.9493734706 0.3120321732
1150293100.0 -0.945436337 0.3238466766
1200292800.0 -0.9400455637 0.3380388258
1250292500.0 -0.9348006112 0.3517436392
1300292200.0 -0.9288768168 0.3647762732
1350291900.0 -0.9235518726 0.3788937682
1400291600.0 -0.9178946462 0.3919181341
1450291300.0 -0.9124732845 0.4042683871
1500291000.0 -0.906090408 0.417796357
1550290700.0 -0.8995348035 0.4310377281
1600290400.0 -0.8934470769 0.4439684914
1650290100.0 -0.8867617268 0.4563000272
1700289800.0 -0.8799020496 0.4694961338
1750289500.0 -0.8727838038 0.481982931
1800289200.0 -0.8655926119 0.4948964826
1850288900.0 -0.8586751329 0.506115435
1900288600.0 -0.8509963163 0.5192087036
1950288300.0 -0.8429484055 0.5316702588
2000288000.0 -0.8354495555 0.5429742115
2050287700.0 -0.8271595724 0.5555666975
2100287400.0 -0.8192612502 0.5670995471
2150287100.0 -0.8107068618 0.5791235066
2200286800.0 -0.8029218823 0.5894631252
2250286500.0 -0.7941738841 0.6014679887
2300286200.0 -0.7851384637 0.6128799842
2350285900.0 -0.7764381867 0.6240630983
2400285600.0 -0.767674515 0.6350057694
2450285300.0 -0.759047258 0.6454266508
2500285000.0 -0.7492682783 0.6567521704
2550284700.0 -0.7403096627 0.6670099155
2600284400.0 -0.7310505044 0.6771906138
2650284100.0 -0.721914795 0.6876505442
2700283800.0 -0.7113381155 0.6981346386
2750283500.0 -0.7011622127 0.7087531529
2800283200.0 -0.6911979044 0.7183963913
2850282900.0 -0.6811825996 0.7283613968
2900282600.0 -0.670779382 0.738142465
2950282300.0 -0.6604118273 0.7472277334
3000282000.0 -0.6498782867 0.7566444648
3050281700.0 -0.6385105436 0.7660539115
3100281400.0 -0.6266430562 0.7753668437
3150281100.0 -0.6149415442 0.7847703947
3200280800.0 -0.6033132884 0.7930518085
3250280500.0 -0.5924544591 0.8007687771
3300280200.0 -0.5812983668 0.8088182255
3350279900.0 -0.5695803277 0.8164700875
3400279600.0 -0.5573352002 0.8240609579
3450279300.0 -0.5463461582 0.8312242134
3500279000.0 -0.5342918511 0.8384452746
3550278700.0 -0.5219517707 0.8456175638
3600278400.0 -0.5097689581 0.8526518729
3650278100.0 -0.4964425323 0.8602337025
3700277800.0 -0.4843782125 0.8669212863
3750277500.0 -0.4721382953 0.873209034
3800277200.0 -0.4598545042 0.880111421
3850276900.0 -0.4476040564 0.8858491462
3900276600.0 -0.4369819461 0.89141631
3950276300.0 -0.4247252219 0.8975679412
4000276000.0 -0.4126572357 0.9033919558
4050275700.0 -0.3999101936 0.9096060707
4100275400.0 -0.3884068936 0.9150993105
4150275100.0 -0.3758065869 0.9203882375
4200274800.0 -0.3628351772 0.9263331463
4250274500.0 -0.3506377876 0.9314947272
4300274200.0 -0.3375285551 0.9369062529
4350273900.0 -0.3234866043 0.9421257842
4400273600.0 -0.3088351079 0.9470321051
4450273300.0 -0.2935576925 0.9522330419
4500273000.0 -0.2800358005 0.9566645489
4550272700.0 -0.2658589585 0.9606914361
4600272400.0 -0.2503650156 0.9650421298
4650272100.0 -0.2385894273 0.9681135186
4700271800.0 -0.2253196069 0.9715936553
4750271500.0 -0.213651289 0.9744829819
4800271200.0 -0.2012924065 0.9771859385
4850270900.0 -0.1873694909 0.9799570442
4900270600.0 -0.1733002443 0.9824768604
4950270300.0 -0.1589697738 0.9849243848
5000270000.0 -0.1447456107 0.9870563851
5050269700.0 -0.1314314249 0.9887238582
5100269400.0 -0.1177041819 0.9903065239
5150269100.0 -0.1043624465 0.9922099265
5200268800.0 -0.0910207734 0.9925354126
5250268500.0 -0.0778382978 0.9937047698
5300268200.0 -0.064787799 0.9943446327
5350267900.0 -0.0524096593 0.9953281274
5400267600.0 -0.036055688 0.9965497705
5450267300.0 -0.0233797871 0.9966809837
5500267000.0 -0.0082271055 0.9970971147
5550266700.0 0.0068993202 0.9973522252
5600266400.0 0.0224602336 0.9972493233
5650266100.0 0.039168872 0.9973312189
5700265800.0 0.0537663535 0.9962541039
5750265500.0 0.0686586889 0.9956017724
5800265200.0 0.0825744802 0.994197269
5850264900.0 0.095694216 0.9933696968
5900264600.0 0.1124344054 0.991629522
5950264300.0 0.1245735171 0.9904682019
6000264000.0 0.1383875467 0.988447848
6050263700.0 0.1507676121 0.9869085982
6100263400.0 0.1632566131 0.9851214273
6150263100.0 0.1776251939 0.9828943744
6200262800.0 0.1880031849 0.9810210216
6250262500.0 0.2006090657 0.9784903888
6300262200.0 0.2134648645 0.9757728307
6350261900.0 0.2265380209 0.9728830652
6400261600.0 0.2402026461 0.9696801819
6450261300.0 0.2517403866 0.9667953747
6500261000.0 0.2645386828 0.9633850897
6550260700.0 0.2775774184 0.9592316494
6600260400.0 0.290957083 0.9554085189
6650260100.0 0.3050509352 0.9510542828
6700259800.0 0.3170653741 0.9468255964
6750259500.0 0.3305247217 0.9416209455
6800259200.0 0.3437367466 0.9367771412
6850258900.0 0.3560312759 0.9317926222
6900258600.0 0.3682014689 0.9266750464
6950258300.0 0.3805753662 0.9212295564
7000258000.0 0.3925206427 0.9160070767
7050257700.0 0.404702623 0.9098092499
7100257400.0 0.4175770744 0.9035537375
7150257100.0 0.4278895599 0.8983254297
7200256800.0 0.4409597573 0.8920362953
7250256500.0 0.452820369 0.8855948252
7300256200.0 0.4657225831 0.8789134745
7350255900.0 0.4782395536 0.8718990013
7400255600.0 0.4916609345 0.8644213874
7450255300.0 0.5069299918 0.8554500367
7500255000.0 0.5188928227 0.8485089383
7550254700.0 0.5323658279 0.8400410282
7600254400.0 0.5450943313 0.8317338817
7650254100.0 0.5562932098 0.8239678929
7700253800.0 0.568602169 0.8159742658
7750253500.0 0.5794618737 0.8082484933
7800253200.0 0.5900897929 0.8008115253
7850252900.0 0.6000519636 0.7935468241
7900252600.0 0.6115717523 0.7848304775
7950252300.0 0.6204548706 0.7784335534
8000252000.0 0.6306163721 0.7706448021
8050251700.0 0.6411368435 0.7624861465
8100251400.0 0.6513382306 0.754180328
8150251100.0 0.6612740348 0.745719343
8200250800.0 0.6705207976 0.7377043295
8250250500.0 0.6795540713 0.7298332867
8300250200.0 0.6888657032 0.7211990421
8350249900.0 0.6975223235 0.7125772544
8400249600.0 0.7062485507 0.7044041245
8450249300.0 0.7153521623 0.6953272626
8500249000.0 0.7239355119 0.6865690436
8550248700.0 0.7321713803 0.6773228833
8600248400.0 0.7405213423 0.6680456896
8650248100.0 0.7484170849 0.6584589176
8700247800.0 0.757918439 0.6471709353
8750247500.0 0.7661862655 0.63730027
8800247200.0 0.7742127848 0.6267252722
8850246900.0 0.7830701422 0.6153377942
8900246600.0 0.7914995348 0.6041146381
8950246300.0 0.8010735144 0.5909728902
9000246000.0 0.8105306245 0.5782755229
9050245700.0 0.8194684769 0.5653002258
9100245400.0 0.8278026576 0.5527591442
9150245100.0 0.8372556609 0.5391837756
9200244800.0 0.8470953083 0.5240808356
9250244500.0 0.8566857424 0.5087514854
9300244200.0 0.8651694364 0.4942318085
9350243900.0 0.8726153339 0.4803960583
9400243600.0 0.8793143757 0.4679417465
9450243300.0 0.8853021004 0.456336278
9500243000.0 0.8915450541 0.4443059057
9550242700.0 0.8954295656 0.4363392314
9600242400.0 0.8994445636 0.4293267254
9650242100.0 0.9031198828 0.4226240513
9700241800.0 0.9078228349 0.4142466891
9750241500.0 0.9116729648 0.4066356877
9800241200.0 0.9163021234 0.3976730286
9850240900.0 0.9219355887 0.3861094023
9900240600.0 0.9277532829 0.3745615571
9950240300.0 0.9345719895 0.3582828975
10000240000.0 0.9386828807 0.3467118677
10050239700.0 0.944564064 0.3312118278
10100239400.0 0.9494093947 0.3161001084
10150239100.0 0.9540066488 0.3014126276
10200238800.0 0.95811693 0.2864243916
10250238500.0 0.9615914122 0.2729162952
10300238200.0 0.9644858344 0.2589177261
10350237900.0 0.9671987401 0.2459263381
10400237600.0 0.9697536799 0.232924539
10450237300.0 0.9724744041 0.2191665192
10500237000.0 0.9748014725 0.2066550417
10550236700.0 0.9767392746 0.1929927549
10600236400.0 0.9789960525 0.1793323644
10650236100.0 0.9812478655 0.1640351155
10700235800.0 0.9835479204 0.151982015
10750235500.0 0.9855286441 0.1382826732
10800235200.0 0.9876090661 0.1243779772
10850234900.0 0.989369381 0.1102302165
10900234600.0 0.9917918188 0.0952230632
10950234300.0 0.9934448529 0.0820525732
11000234000.0 0.9951111559 0.0670157046
11050233700.0 0.9969280901 0.0508529726
11100233400.0 0.9983920095 0.033202178
11150233100.0 0.9995291095 0.01728676
11200232800.0 1.000023786 0.0017704796
11250232500.0 1.001365224 -0.0145613888
11300232200.0 1.001532148 -0.0322202958
11350231900.0 1.001941142 -0.047895184
11400231600.0 1.001050863 -0.0639457204
11450231300.0 1.000933422 -0.0788068755
11500231000.0 0.9996188648 -0.0952407432
11550230700.0 0.9985348861 -0.1080083418
11600230400.0 0.9971801749 -0.1212275987
11650230100.0 0.9952346097 -0.1324071516
11700229800.0 0.9935262824 -0.1469086434
11750229500.0 0.9908300515 -0.1614242823
11800229200.0 0.9884322384 -0.1753638338
11850228900.0 0.9849501687 -0.1875056431
11900228600.0 0.9813897286 -0.19729183
11950228300.0 0.9779039839 -0.2081288974
12000228000.0 0.9748694004 -0.2174290108
12050227700.0 0.9715685956 -0.2298041461
12100227400.0 0.9687308922 -0.2403240825
12150227100.0 0.9637632543 -0.2575678236
12200226800.0 0.9596191319 -0.2687341484
12250226500.0 0.9556876282 -0.2816517104
12300226200.0 0.951619443 -0.2935963405
12350225900.0 0.9463129597 -0.3079949733
12400225600.0 0.9421761905 -0.3205856655
12450225300.0 0.9379173828 -0.3333415937
12500225000.0 0.9323596147 -0.3481178536
12550224700.0 0.9270721012 -0.3620305424
12600224400.0 0.9221587869 -0.3746571968
12650224100.0 0.9162583313 -0.3892571397
12700223800.0 0.9111840816 -0.4020180896
12750223500.0 0.9053900253 -0.4153344461
12800223200.0 0.9001746811 -0.4276102411
12850222900.0 0.8948733404 -0.4398683959
12900222600.0 0.8895953344 -0.4517495839
12950222300.0 0.8828156016 -0.4652839519
13000222000.0 0.8767736009 -0.4760788319
13050221700.0 0.8702657867 -0.4890226277
13100221400.0 0.8635465742 -0.5006210689
13150221100.0 0.8570388704 -0.5128408472
13200220800.0 0.8498880112 -0.5245236419
13250220500.0 0.8425488357 -0.536725698
13300220200.0 0.8352199013 -0.5473653175
13350219900.0 0.8274837529 -0.5590379495
13400219600.0 0.8190429251 -0.5714970895
13450219300.0 0.8095142566 -0.5849261088
13500219000.0 0.7994451639 -0.5986998964
13550218700.0 0.7890829331 -0.611654882
13600218400.0 0.7789961151 -0.6232761524
13650218100.0 0.7702121759 -0.6345038507
13700217800.0 0.757989794 -0.6472423402
13750217500.0 0.7483890328 -0.6585363028
13800217200.0 0.737512147 -0.6697880758
13850216900.0 0.7259543385 -0.681641176
13900216600.0 0.7172473744 -0.6902736711
13950216300.0 0.7057793025 -0.7004646011
14000216000.0 0.6957088739 -0.7099504964
14050215700.0 0.6861498448 -0.7182591664
14100215400.0 0.6764884691 -0.7276924924
14150215100.0 0.6669034466 -0.7363713668
14200214800.0 0.6576252712 -0.7447482529
14250214500.0 0.6473859935 -0.7542085473
14300214200.0 0.636889027 -0.7635974311
14350213900.0 0.6258548679 -0.7730407935
14400213600.0 0.613814099 -0.7828596916
14450213300.0 0.6009271263 -0.7930579427
14500213000.0 0.5880072985 -0.8030448365
14550212700.0 0.5757643808 -0.8128538722
14600212400.0 0.5630657188 -0.8214611037
14650212100.0 0.5502388179 -0.8310163554
14700211800.0 0.5360212536 -0.8397000756
14750211500.0 0.5239515254 -0.8480794845
14800211200.0 0.5115457122 -0.8555643141
14850210900.0 0.4995980665 -0.8632666696
14900210600.0 0.4863888327 -0.8711989373
14950210300.0 0.4729718602 -0.8787125867
15000210000.0 0.4602742121 -0.8855206186
15050209700.0 0.4480793177 -0.8914105803
15100209400.0 0.4354307706 -0.8970405096
15150209100.0 0.4232880938 -0.9026666069
15200208800.0 0.4102333315 -0.9084863197
15250208500.0 0.399265339 -0.9134178687
15300208200.0 0.3862528478 -0.9173289019
15350207900.0 0.3733417167 -0.9222371851
15400207600.0 0.3588024778 -0.9273877426
15450207300.0 0.3452606607 -0.9327179431
15500207000.0 0.3305368192 -0.9370527877
15550206700.0 0.3150505886 -0.9428506733
15600206400.0 0.2993566461 -0.9470353741
15650206100.0 0.2834120523 -0.9515472043
15700205800.0 0.2695623458 -0.9547306952
15750205500.0 0.2548850877 -0.9584450841
15800205200.0 0.2405083167 -0.9619244286
15850204900.0 0.2260408734 -0.9654909327
15900204600.0 0.2109337936 -0.9689616983
15950204300.0 0.1966254656 -0.9720958264
16000204000.0 0.1823374794 -0.9750552401
16050203700.0 0.1677935433 -0.9782910121
16100203400.0 0.1531395777 -0.9797676285
16150203100.0 0.1385432819 -0.9828776537
16200202800.0 0.1243882583 -0.9848957727
16250202500.0 0.1096588795 -0.9863727942
16300202200.0 0.0945805577 -0.9879364102
16350201900.0 0.0794320861 -0.9889556402
16400201600.0 0.0647751296 -0.99001315
16450201300.0 0.0494036196 -0.9914750494
16500201000.0 0.0329947085 -0.9923648944
16550200700.0 0.0172001867 -0.9927951226
16600200400.0 0.0017465094 -0.9929289306
16650200100.0 -0.0143413547 -0.9928727715
16700199800.0 -0.0309443731 -0.9924810207
16750199500.0 -0.0495416156 -0.9914783742
16800199200.0 -0.0649461796 -0.990861145
16850198900.0 -0.0806266408 -0.9895213119
16900198600.0 -0.0943041246 -0.9886216196
16950198300.0 -0.1074754758 -0.9877802171
17000198000.0 -0.1204705501 -0.9865522367
17050197700.0 -0.1331810467 -0.9845003786
17100197400.0 -0.1465405613 -0.981868351
17150197100.0 -0.1590834963 -0.9807336286
17200196800.0 -0.171293533 -0.9782537584
17250196500.0 -0.1844801952 -0.9755138909
17300196200.0 -0.1965989077 -0.9735479338
17350195900.0 -0.208612835 -0.9712422463
17400195600.0 -0.22071915 -0.968660381
17450195300.0 -0.2338558253 -0.9658170088
17500195000.0 -0.2473085367 -0.9626330741
17550194700.0 -0.2613192419 -0.9589827607
17600194400.0 -0.2750757072 -0.9549851003
17650194100.0 -0.2886299455 -0.950957009
17700193800.0 -0.3022694522 -0.946683256
17750193500.0 -0.316470042 -0.9420743524
17800193200.0 -0.3310503379 -0.9368759553
17850192900.0 -0.3456523025 -0.9316622229
17900192600.0 -0.3611293373 -0.9251931624
17950192300.0 -0.3766088067 -0.9185467055
18000192000.0 -0.3914117638 -0.9113769188
18050191700.0 -0.4051878189 -0.9033615294
18100191400.0 -0.4195159467 -0.8957605425
18150191100.0 -0.4345568643 -0.8876509664
18200190800.0 -0.4512872067 -0.878613032
18250190500.0 -0.4684532269 -0.8691557737
18300190200.0 -0.483753165 -0.8606810705
18350189900.0 -0.4990603178 -0.8521149726
18400189600.0 -0.5129296832 -0.8441648917
18450189300.0 -0.5261240659 -0.8358226191
18500189000.0 -0.5396676639 -0.8282019751
18550188700.0 -0.552204601 -0.8205819777
18600188400.0 -0.5641977766 -0.8137561684
18650188100.0 -0.5755057792 -0.8069972623
18700187800.0 -0.586305622 -0.8006878788
18750187500.0 -0.5967345003 -0.7940630921
18800187200.0 -0.6069795769 -0.7872334212
18850186900.0 -0.6172358144 -0.7802509086
18900186600.0 -0.6275617491 -0.7730324945
18950186300.0 -0.6374439597 -0.7651015096
19000186000.0 -0.6448925553 -0.7587994678
19050185700.0 -0.6542702842 -0.7519289769
19100185400.0 -0.6641255015 -0.7435650238
19150185100.0 -0.673818553 -0.7347492301
19200184800.0 -0.6836001023 -0.7266767023
19250184500.0 -0.6934787341 -0.7179599288
19300184200.0 -0.7049194213 -0.7078485306
19350183900.0 -0.7157594799 -0.6982968048
19400183600.0 -0.7253946874 -0.688265325
19450183300.0 -0.7346134274 -0.6787483863
19500183000.0 -0.7424740027 -0.6680287127
19550182700.0 -0.7528816918 -0.6574990582
19600182400.0 -0.76303916 -0.6457371062
19650182100.0 -0.7742051801 -0.6336218537
19700181800.0 -0.7846870775 -0.6203273666
19750181500.0 -0.7951299786 -0.6061076943
19800181200.0 -0.8056061827 -0.5911457126
19850180900.0 -0.8152925068 -0.5757668296
19900180600.0 -0.8232559272 -0.5610060217
19950180300.0 -0.8326472139 -0.5447354394
20000180000.0 -0.8248794668 -0.5466539296
20050179700.0 -0.8333972055 -0.5341613866
20100179400.0 -0.8424807512 -0.5205916296
20150179100.0 -0.8504862608 -0.5077521694
20200178800.0 -0.8598280959 -0.4951882778
20250178500.0 -0.8691950168 -0.4817591151
20300178200.0 -0.8782817441 -0.4673473334
20350177900.0 -0.8875683561 -0.4526430604
20400177600.0 -0.8966831878 -0.4383510436
20450177300.0 -0.9048096349 -0.4240129451
20500177000.0 -0.9126396543 -0.4102092078
20550176700.0 -0.9207757716 -0.3964684232
20600176400.0 -0.9272392342 -0.3834852386
20650176100.0 -0.9340436604 -0.371145984
20700175800.0 -0.9409339116 -0.3596042781
20750175500.0 -0.9475499524 -0.3474969122
20800175200.0 -0.9515775759 -0.3370916089
20850174900.0 -0.9563450748 -0.3254752494
20900174600.0 -0.962202124 -0.314081812
20950174300.0 -0.9655525709 -0.3030224053
21000174000.0 -0.9696025964 -0.2917801339
21050173700.0 -0.9707996422 -0.2811637447
21100173400.0 -0.9762678731 -0.2691189699
21150173100.0 -0.9793598106 -0.2568385708
21200172800.0 -0.982803739 -0.2426116773
21250172500.0 -0.9861837231 -0.2294334426
21300172200.0 -0.9889629756 -0.2155070113
21350171900.0 -0.9911091151 -0.2013869617
21400171600.0 -0.9921677729 -0.1870568543
21450171300.0 -0.9925769323 -0.1719615759
21500171000.0 -0.9921479093 -0.1567936187
21550170700.0 -0.9931015923 -0.1419391722
21600170400.0 -0.9928908646 -0.1267683699
21650170100.0 -0.9910534723 -0.1095736518
21700169800.0 -0.9898798418 -0.0952579513
21750169500.0 -0.9889480241 -0.0788806531
21800169200.0 -0.9893565482 -0.0621362296
21850168900.0 -0.9868473432 -0.0457879099
21900168600.0 -0.9858719563 -0.0297824668
21950168300.0 -0.9852277477 -0.0138860323
22000168000.0 -0.9840130386 0.0025645624
22050167700.0 -0.9836747589 0.0161363454
22100167400.0 -0.983805042 0.0314141052
22150167100.0 -0.9843870833 0.0467817638
22200166800.0 -0.9849135418 0.0628501743
22250166500.0 -0.9853350295 0.0804611042
22300166200.0 -0.983803438 0.0967624915
22350165900.0 -0.9829712556 0.1137348425
22400165600.0 -0.980793039 0.1292414129
22450165300.0 -0.9788102832 0.1446234432
22500165000.0 -0.9775637668 0.1580243137
22550164700.0 -0.9759029425 0.1726109948
22600164400.0 -0.9740385779 0.1886021885
22650164100.0 -0.9719600998 0.2030555799
22700163800.0 -0.9695513544 0.2193330611
22750163500.0 -0.9666124063 0.2342997002
22800163200.0 -0.9642316656 0.247542904
22850162900.0 -0.9617653617 0.2608382301
22900162600.0 -0.9600593889 0.2742488286
22950162300.0 -0.9590393006 0.2870475887
23000162000.0 -0.95789762 0.2988919906
23050161700.0 -0.9555459997 0.3118448523
23100161400.0 -0.9533081066 0.3245011899
23150161100.0 -0.950478672 0.3370808097
23200160800.0 -0.947767499 0.3490420402
23250160500.0 -0.9451046745 0.3610060528
23300160200.0 -0.9430448705 0.3722391902
23350159900.0 -0.9383823334 0.3866011217
23400159600.0 -0.9340298697 0.3996328794
23450159300.0 -0.9286781533 0.4129203878
23500159000.0 -0.9247317709 0.4256872001
23550158700.0 -0.9202290966 0.438933474
23600158400.0 -0.9150693164 0.4523825091
23650158100.0 -0.9083148097 0.4664072719
23700157800.0 -0.9011288772 0.4804889807
23750157500.0 -0.8925195275 0.4945320784
23800157200.0 -0.8834358125 0.5081295955
23850156900.0 -0.8751686378 0.5205740649
23900156600.0 -0.8659888359 0.5330822328
23950156300.0 -0.8561834127 0.5459129604
24000156000.0 -0.8469236068 0.5569040407
24050155700.0 -0.8381209055 0.5701588078
24100155400.0 -0.8279094501 0.5812286294
24150155100.0 -0.8171425326 0.5934437721
24200154800.0 -0.8059829241 0.6041285054
24250154500.0 -0.7950715919 0.6163269023
24300154200.0 -0.7835635921 0.627591782
24350153900.0 -0.7719039836 0.6378628763
24400153600.0 -0.7595895101 0.6483980087
24450153300.0 -0.7478066372 0.6583278322
24500153000.0 -0.7364674273 0.6680947861
24550152700.0 -0.7246836926 0.6775120883
24600152400.0 -0.7133204624 0.6864420407
24650152100.0 -0.70178453 0.6952480202
