!Created with skrf (http://scikit-rf.org).
# Hz S RI R 50.0 
!freq ReS11 ImS11
300000.0 -0.9735191928 -0.1228039203
50299700.0 -0.9998584715 0.0151092384
100299400.0 -0.9980425691 0.0278486605
150299100.0 -1.002624256 0.0448162803
200298800.0 -0.9996748759 0.0581122285
250298500.0 -0.9972688759 0.0716671197
300298200.0 -0.9858370245 0.0875332964
350297900.0 -0.9938599438 0.0983751127
400297600.0 -0.9931790501 0.1148913661
450297300.0 -0.9911978493 0.1286328007
500297000.0 -0.9895881337 0.143279846
550296700.0 -0.9844291598 0.1558508329
600296400.0 -1.017208473 0.1889636669
650296100.0 -0.982210696 0.1859586319
700295800.0 -0.9791482029 0.1998479958
750295500.0 -0.976117811 0.2140718437
800295200.0 -0.9727080491 0.2283282732
850294900.0 -0.9695742608 0.2418583562
900294600.0 -0.9658177116 0.2556093412
950294300.0 -0.962195364 0.2693027647
1000294000.0 -0.9581695193 0.2833859483
1050293700.0 -0.9536661835 0.2972403489
1100293400.0 -0.949303119 0.3113850407
1150293100.0 -0.9455937124 0.3233612515
1200292800.0 -0.9400678767 0.3378635697
1250292500.0 -0.9347633437 0.3511384593
1300292200.0 -0.9290919181 0.3644047974
1350291900.0 -0.9232191366 0.3784548221
1400291600.0 -0.9179792003 0.3916947422
1450291300.0 -0.912591908 0.4038243236
1500291000.0 -0.9063254887 0.4172974304
1550290700.0 -0.8997516669 0.4308181313
1600290400.0 -0.8934459053 0.4435698705
1650290100.0 -0.8867516288 0.4557805064
1700289800.0 -0.879857366 0.469300687
1750289500.0 -0.8727748398 0.4814357869
1800289200.0 -0.8654745254 0.4944005417
1850288900.0 -0.8587392026 0.5058769139
1900288600.0 -0.8508995999 0.5187032854
1950288300.0 -0.8429038928 0.5312657058
2000288000.0 -0.835573389 0.5428147596
2050287700.0 -0.8272859995 0.5552961209
2100287400.0 -0.8193751837 0.5665633069
2150287100.0 -0.8109948985 0.5785952536
2200286800.0 -0.8030988602 0.5891790021
2250286500.0 -0.7939077834 0.6015031199
2300286200.0 -0.7852971042 0.6128279535
2350285900.0 -0.7769559819 0.6235322683
2400285600.0 -0.7680313941 0.6343377716
2450285300.0 -0.7592322437 0.6449704662
2500285000.0 -0.7491810578 0.6567482051
2550284700.0 -0.7400458999 0.6669326993
2600284400.0 -0.7309010985 0.6770394099
2650284100.0 -0.7221975465 0.6869034834
2700283800.0 -0.7118751565 0.6976253471
2750283500.0 -0.7015369612 0.7081744865
2800283200.0 -0.6917617617 0.7182217758
2850282900.0 -0.6811120309 0.7282337926
2900282600.0 -0.6706977013 0.737539781
2950282300.0 -0.660329395 0.7472683708
3000282000.0 -0.6495230446 0.7566977208
3050281700.0 -0.6383484295 0.7658591695
3100281400.0 -0.6267186626 0.775045114
3150281100.0 -0.6155242218 0.7839125538
3200280800.0 -0.6040378529 0.7923215505
3250280500.0 -0.5930243985 0.8003234301
3300280200.0 -0.5814251327 0.8083672154
3350279900.0 -0.5692782281 0.8164691696
3400279600.0 -0.5565531623 0.8245975995
3450279300.0 -0.5454949596 0.8317034516
3500279000.0 -0.5337028138 0.8386717799
3550278700.0 -0.5215785843 0.8455801257
3600278400.0 -0.5099523219 0.8524121117
3650278100.0 -0.4967761843 0.8600585462
3700277800.0 -0.4845576831 0.8665724897
3750277500.0 -0.4722109614 0.87319277
3800277200.0 -0.4598933407 0.8798468471
3850276900.0 -0.4474455635 0.8857400567
3900276600.0 -0.4369797722 0.8914731093
3950276300.0 -0.4246616709 0.8970991982
4000276000.0 -0.4129496455 0.9031612699
4050275700.0 -0.4002953451 0.9092009207
4100275400.0 -0.3891047878 0.9145068493
4150275100.0 -0.375909953 0.9203214029
4200274800.0 -0.3625698212 0.9263820911
4250274500.0 -0.3498758482 0.9314949937
4300274200.0 -0.3364979987 0.9370433953
4350273900.0 -0.3227068619 0.942126297
4400273600.0 -0.3076477379 0.9471772595
4450273300.0 -0.2929343886 0.9521455337
4500273000.0 -0.2796638407 0.9564993169
4550272700.0 -0.2660946896 0.9604329601
4600272400.0 -0.2509327349 0.9645373691
4650272100.0 -0.2394791518 0.9678947756
4700271800.0 -0.2265729019 0.9712426636
4750271500.0 -0.214874956 0.9740345877
4800271200.0 -0.2027379668 0.9766542029
4850270900.0 -0.1891244418 0.9795457676
4900270600.0 -0.1752662713 0.9820161357
4950270300.0 -0.16058679 0.9847063127
5000270000.0 -0.1460680621 0.98628913
5050269700.0 -0.1327121839 0.9881700903
5100269400.0 -0.1186922743 0.9899603886
5150269100.0 -0.1047033179 0.991792348
5200268800.0 -0.0910795858 0.9927675247
5250268500.0 -0.0781948735 0.9933621389
5300268200.0 -0.0646036368 0.9942432632
5350267900.0 -0.0514213878 0.9953881085
5400267600.0 -0.0355718446 0.9963188277
5450267300.0 -0.0219377445 0.9966711439
5500267000.0 -0.006920369 0.9969727484
5550266700.0 0.0082726822 0.9972578088
5600266400.0 0.0239436329 0.9972476741
5650266100.0 0.0408132204 0.9968206028
5700265800.0 0.0547801341 0.9960180914
5750265500.0 0.0698083951 0.9954337426
5800265200.0 0.0828926216 0.9936501974
5850264900.0 0.0963883019 0.9930674275
5900264600.0 0.1134085182 0.9916901301
5950264300.0 0.1246368072 0.9898358207
6000264000.0 0.1380859381 0.9880636778
6050263700.0 0.1500092645 0.9866240748
6100263400.0 0.16186624 0.9848741743
6150263100.0 0.1766224179 0.9823969651
6200262800.0 0.1863415484 0.9810970104
6250262500.0 0.1989132204 0.9786328953
6300262200.0 0.2111762023 0.9762352606
6350261900.0 0.2241471864 0.9733845682
6400261600.0 0.2379853151 0.9704046432
6450261300.0 0.2491295985 0.9678648239
6500261000.0 0.2618571753 0.9636734494
6550260700.0 0.2753379494 0.9601008553
6600260400.0 0.2887788734 0.9560744197
6650260100.0 0.303034735 0.9515533797
6700259800.0 0.3152327412 0.9470963669
6750259500.0 0.3287049582 0.942007222
6800259200.0 0.3422851312 0.9371921739
6850258900.0 0.3547817005 0.9319532917
6900258600.0 0.36752608 0.92686205
6950258300.0 0.3798633302 0.9214031972
7000258000.0 0.3914265716 0.9161800144
7050257700.0 0.4034390776 0.9102472691
7100257400.0 0.4168151057 0.9039805299
7150257100.0 0.4274808629 0.8986073519
7200256800.0 0.4406320398 0.8920998635
7250256500.0 0.4532557291 0.8852975251
7300256200.0 0.4661479579 0.8785201709
7350255900.0 0.4789353289 0.871500915
7400255600.0 0.4927639188 0.8639696107
7450255300.0 0.5084190326 0.8545422378
7500255000.0 0.5208812526 0.8471109481
7550254700.0 0.53552749 0.8382637802
7600254400.0 0.5478822099 0.8300272888
7650254100.0 0.5594824111 0.8218834595
7700253800.0 0.5707690775 0.8139406811
7750253500.0 0.5817297544 0.806399996
7800253200.0 0.592567864 0.7985691678
7850252900.0 0.60236556 0.7913435356
7900252600.0 0.6138269771 0.782605104
7950252300.0 0.6223754498 0.7761133367
8000252000.0 0.6322126305 0.76859363
8050251700.0 0.6424225815 0.7605136262
8100251400.0 0.6523904039 0.7524657412
8150251100.0 0.6623951277 0.7441704636
8200250800.0 0.6721416791 0.7357214967
8250250500.0 0.6809237294 0.7281199394
8300250200.0 0.6902208325 0.7196490171
8350249900.0 0.698791292 0.7106005385
8400249600.0 0.7071124405 0.7030058591
8450249300.0 0.7158737349 0.6940050504
8500249000.0 0.7245341886 0.6852377154
8550248700.0 0.7328361842 0.6761007308
8600248400.0 0.7412071781 0.6666692638
8650248100.0 0.7488157338 0.6572089031
8700247800.0 0.7579814509 0.6462197893
8750247500.0 0.766295913 0.6361097183
8800247200.0 0.774473495 0.6256703472
8850246900.0 0.7830670325 0.6144330808
8900246600.0 0.7913679156 0.6029486001
8950246300.0 0.8004146192 0.590389572
9000246000.0 0.8096250361 0.578113096
9050245700.0 0.8179773862 0.5658606181
9100245400.0 0.8259462871 0.5538279539
9150245100.0 0.8351089726 0.5409448601
9200244800.0 0.8444977004 0.5266732942
9250244500.0 0.853538026 0.5117250303
9300244200.0 0.8615909851 0.4982889958
9350243900.0 0.8692839314 0.4849561773
9400243600.0 0.8757658721 0.4733673343
9450243300.0 0.8813580445 0.4627725639
9500243000.0 0.887613743 0.450974126
9550242700.0 0.8915498364 0.4437306645
9600242400.0 0.895877082 0.4360612943
9650242100.0 0.8998798414 0.4290890108
9700241800.0 0.9048847239 0.4207768695
9750241500.0 0.909236336 0.4127033543
9800241200.0 0.9139058438 0.4035775996
9850240900.0 0.9198793253 0.3917043436
9900240600.0 0.9259439872 0.3801854804
9950240300.0 0.9329197307 0.3632752826
10000240000.0 0.9377190477 0.3511613654
10050239700.0 0.9442260771 0.3348481174
10100239400.0 0.9493679301 0.3188450228
10150239100.0 0.9540612123 0.3031583333
10200238800.0 0.9581888799 0.2873782764
10250238500.0 0.9614704769 0.2740545156
10300238200.0 0.9646888913 0.2601020663
10350237900.0 0.9674217229 0.2468742826
10400237600.0 0.9700332668 0.2334187748
10450237300.0 0.9727268209 0.2197687337
10500237000.0 0.9750745848 0.2070645259
10550236700.0 0.9773263232 0.1928763346
10600236400.0 0.9792302778 0.1789719694
10650236100.0 0.9816579216 0.1640305907
10700235800.0 0.9840364365 0.1517134923
10750235500.0 0.9857835576 0.1385629898
10800235200.0 0.9875864449 0.1244311741
10850234900.0 0.9900067288 0.1093954955
10900234600.0 0.9920205023 0.0944115078
10950234300.0 0.9937239003 0.0809400774
11000234000.0 0.9956588632 0.0654225442
11050233700.0 0.9974344009 0.048831917
11100233400.0 0.9988425437 0.0309400553
11150233100.0 0.999858166 0.0140932679
11200232800.0 1.000753916 -0.0019129953
11250232500.0 1.001761877 -0.0198754373
11300232200.0 1.001669007 -0.0382505084
11350231900.0 1.001800605 -0.0540733489
11400231600.0 1.00096574 -0.0695514411
11450231300.0 1.001008141 -0.0863430621
11500231000.0 0.9993234464 -0.1021343233
11550230700.0 0.998484848 -0.1144782036
11600230400.0 0.9966625947 -0.127942845
11650230100.0 0.9947805108 -0.1397937795
11700229800.0 0.9923246502 -0.1546679382
11750229500.0 0.9902346957 -0.1691065032
11800229200.0 0.9872796257 -0.1819462142
11850228900.0 0.9833896224 -0.1939110726
11900228600.0 0.9796914417 -0.2036736269
11950228300.0 0.9764094958 -0.2135740959
12000228000.0 0.9735677031 -0.2225359591
12050227700.0 0.9698159797 -0.2343980012
12100227400.0 0.9668339416 -0.2458996557
12150227100.0 0.9612870467 -0.2632891798
12200226800.0 0.9580912327 -0.2736150638
12250226500.0 0.9538782578 -0.2868243092
12300226200.0 0.9499247146 -0.2980607629
12350225900.0 0.9443691848 -0.3122421258
12400225600.0 0.9396482999 -0.3248042603
12450225300.0 0.9359322158 -0.3375036653
12500225000.0 0.9299945334 -0.3520250494
12550224700.0 0.9246702752 -0.3658687913
12600224400.0 0.919907157 -0.3785809362
12650224100.0 0.9140563874 -0.3929099023
12700223800.0 0.9087727473 -0.4055430574
12750223500.0 0.9032448078 -0.4186368981
12800223200.0 0.8979068916 -0.4312667609
12850222900.0 0.8925364882 -0.4433947663
12900222600.0 0.8867966245 -0.4554783148
12950222300.0 0.8809354085 -0.4682979347
13000222000.0 0.8750076876 -0.4797559122
13050221700.0 0.8682941064 -0.4924915868
13100221400.0 0.8616331122 -0.5046386956
13150221100.0 0.8544437927 -0.5164485454
13200220800.0 0.8473506554 -0.5288455408
13250220500.0 0.8402466554 -0.5406054369
13300220200.0 0.8325772557 -0.5516589692
13350219900.0 0.8243646094 -0.5635609398
13400219600.0 0.8161555021 -0.5753193614
13450219300.0 0.8071741811 -0.5883569071
13500219000.0 0.7970797585 -0.6017704079
13550218700.0 0.7869268087 -0.6138207169
13600218400.0 0.7768639446 -0.6257234535
13650218100.0 0.7674714821 -0.6365832617
13700217800.0 0.7572843609 -0.6483452664
13750217500.0 0.7473993172 -0.6597354437
13800217200.0 0.7363337823 -0.6703603062
13850216900.0 0.7259037229 -0.6819946208
13900216600.0 0.7163991326 -0.6902874344
13950216300.0 0.7044646073 -0.7005948441
14000216000.0 0.6948268863 -0.7093436482
14050215700.0 0.685638452 -0.7180475566
14100215400.0 0.6762943214 -0.726752136
14150215100.0 0.6671851402 -0.7353041514
14200214800.0 0.6577851534 -0.7442820651
14250214500.0 0.6473283125 -0.7537048048
14300214200.0 0.6369952367 -0.7630704736
14350213900.0 0.6258603486 -0.7727883242
14400213600.0 0.6142320711 -0.7826722869
14450213300.0 0.6010811975 -0.7927962369
14500213000.0 0.5879479774 -0.8030677845
14550212700.0 0.5758260471 -0.8123495297
14600212400.0 0.5634538906 -0.8208895632
14650212100.0 0.5503571013 -0.8294314275
14700211800.0 0.5369466272 -0.8393347788
14750211500.0 0.5247672429 -0.8471940219
14800211200.0 0.5117726336 -0.8556124824
14850210900.0 0.4995853446 -0.8631691072
14900210600.0 0.4862634854 -0.8712390493
14950210300.0 0.4730618131 -0.8786254162
15000210000.0 0.460357958 -0.8855255209
15050209700.0 0.4480712737 -0.8917703461
15100209400.0 0.4354750949 -0.8977583045
15150209100.0 0.4226333106 -0.9027889423
15200208800.0 0.4101799426 -0.9080565821
15250208500.0 0.399898691 -0.9130347914
15300208200.0 0.3865830151 -0.9177120688
15350207900.0 0.3734198793 -0.9224173325
15400207600.0 0.3587285736 -0.9277064785
15450207300.0 0.3439918421 -0.9321834446
15500207000.0 0.3301235073 -0.9375368839
15550206700.0 0.3152761502 -0.942363197
15600206400.0 0.299028311 -0.9464472044
15650206100.0 0.2835088915 -0.9509047175
15700205800.0 0.2700499814 -0.9543778829
15750205500.0 0.2557741212 -0.9580931775
15800205200.0 0.2417760212 -0.9613243695
15850204900.0 0.2277871702 -0.9647913263
15900204600.0 0.212638348 -0.9683545289
15950204300.0 0.1984958247 -0.9716999251
16000204000.0 0.1840995534 -0.9744406833
16050203700.0 0.1692840733 -0.9773059297
16100203400.0 0.1538353462 -0.9797985225
16150203100.0 0.1394392587 -0.9821914248
16200202800.0 0.1249227113 -0.984064998
16250202500.0 0.1105591484 -0.9857396374
16300202200.0 0.0946580896 -0.9876392465
16350201900.0 0.0795202978 -0.9891512112
16400201600.0 0.0650244388 -0.9900110391
16450201300.0 0.0496366989 -0.9910730358
16500201000.0 0.0323880922 -0.9918690743
16550200700.0 0.0161976414 -0.9923651761
16600200400.0 0.0005278568 -0.9926870758
16650200100.0 -0.0155637354 -0.9925474467
16700199800.0 -0.0318755093 -0.9919841033
16750199500.0 -0.0516027658 -0.9918940025
16800199200.0 -0.0677170451 -0.9900767447
16850198900.0 -0.0826021467 -0.9893687738
16900198600.0 -0.0962498058 -0.9885370091
16950198300.0 -0.1101138548 -0.9879032419
17000198000.0 -0.1235679423 -0.985366019
17050197700.0 -0.1362849239 -0.9840139001
17100197400.0 -0.1492180316 -0.9819674415
17150197100.0 -0.161996495 -0.9800077506
17200196800.0 -0.1746169333 -0.977695684
17250196500.0 -0.1873598402 -0.9754088263
17300196200.0 -0.1996121876 -0.9731241511
17350195900.0 -0.211398584 -0.9706478879
17400195600.0 -0.2234497519 -0.9682487725
17450195300.0 -0.2362572741 -0.9654814876
17500195000.0 -0.2496090476 -0.9619859889
17550194700.0 -0.2633807255 -0.9584549044
17600194400.0 -0.2769485153 -0.9542064749
17650194100.0 -0.2906072159 -0.9506338248
17700193800.0 -0.3035674555 -0.9458442819
17750193500.0 -0.317817115 -0.9415210087
17800193200.0 -0.331553768 -0.9365711145
17850192900.0 -0.3468801058 -0.9311028464
17900192600.0 -0.3618304989 -0.925158357
17950192300.0 -0.3775059943 -0.9178406572
18000192000.0 -0.3921819129 -0.9104194296
18050191700.0 -0.4061344846 -0.9026368351
18100191400.0 -0.4200649148 -0.8949122288
18150191100.0 -0.4348805967 -0.8870661858
18200190800.0 -0.4517776784 -0.8775543365
18250190500.0 -0.4687679044 -0.8684661929
18300190200.0 -0.4843667167 -0.8593689838
18350189900.0 -0.4995830727 -0.8512380093
18400189600.0 -0.5136747684 -0.8426681099
18450189300.0 -0.5272290777 -0.8344166875
18500189000.0 -0.5406985082 -0.8266850768
18550188700.0 -0.5535973541 -0.8190737582
18600188400.0 -0.5656453704 -0.8117972782
18650188100.0 -0.5769330698 -0.8054025216
18700187800.0 -0.5881107417 -0.7986346384
18750187500.0 -0.5990533025 -0.7920833273
18800187200.0 -0.6096300181 -0.7849706297
18850186900.0 -0.6197932258 -0.7781042959
18900186600.0 -0.6301523878 -0.7708014864
18950186300.0 -0.6401791422 -0.7631635768
19000186000.0 -0.6479565142 -0.7568035465
19050185700.0 -0.6573062335 -0.7496244084
19100185400.0 -0.6668882449 -0.7416741642
19150185100.0 -0.6771854575 -0.7334547992
19200184800.0 -0.6862208435 -0.7250742945
19250184500.0 -0.6967645143 -0.7155844777
19300184200.0 -0.7084170358 -0.7062451046
19350183900.0 -0.7190243753 -0.696587529
19400183600.0 -0.7289037288 -0.6866340081
19450183300.0 -0.7371379076 -0.6760043415
19500183000.0 -0.7459308453 -0.6663393988
19550182700.0 -0.7556305533 -0.6552889738
19600182400.0 -0.7658519313 -0.6439321344
19650182100.0 -0.7765035786 -0.6314510125
19700181800.0 -0.7870377323 -0.6184254943
19750181500.0 -0.7972085846 -0.6042175272
19800181200.0 -0.8074466984 -0.5892664483
19850180900.0 -0.816980047 -0.5740670581
19900180600.0 -0.8246890864 -0.5594710682
19950180300.0 -0.8336973488 -0.5431453756
20000180000.0 -0.8232693308 -0.547036302
20050179700.0 -0.8317827945 -0.5343621395
20100179400.0 -0.8402184092 -0.5211999811
20150179100.0 -0.8481939152 -0.5095191806
20200178800.0 -0.8566260046 -0.4974773924
20250178500.0 -0.8659758087 -0.4853740679
20300178200.0 -0.8757701038 -0.4714658205
20350177900.0 -0.8844108626 -0.4580648579
20400177600.0 -0.8937016813 -0.4434858554
20450177300.0 -0.9018617715 -0.4289132716
20500177000.0 -0.9100973344 -0.4151603778
20550176700.0 -0.9180441321 -0.4019417968
20600176400.0 -0.9247442656 -0.3886143601
20650176100.0 -0.9319840541 -0.375985781
20700175800.0 -0.9381298368 -0.3643956906
20750175500.0 -0.9452268456 -0.3529393413
20800175200.0 -0.949105451 -0.3418519461
20850174900.0 -0.9537789618 -0.3319171727
20900174600.0 -0.9572960976 -0.3206420761
20950174300.0 -0.961270982 -0.3099282223
21000174000.0 -0.9639238365 -0.2983662755
21050173700.0 -0.9664264979 -0.2892432699
21100173400.0 -0.9696677834 -0.2779444986
21150173100.0 -0.973145566 -0.2660156279
21200172800.0 -0.9771846638 -0.2536643617
21250172500.0 -0.9808016027 -0.2397336443
21300172200.0 -0.9844271408 -0.2253996861
21350171900.0 -0.9861479051 -0.2111467617
21400171600.0 -0.9876055123 -0.19706176
21450171300.0 -0.9894053749 -0.1828682563
21500171000.0 -0.9884908242 -0.1675832542
21550170700.0 -0.988334634 -0.1536736124
21600170400.0 -0.9899248765 -0.1379394022
21650170100.0 -0.9908781914 -0.1212860522
21700169800.0 -0.9896467063 -0.1055032489
21750169500.0 -0.9897479715 -0.0905028851
21800169200.0 -0.9899237134 -0.0740864406
21850168900.0 -0.9888084593 -0.0568487555
21900168600.0 -0.9897158955 -0.0405734046
21950168300.0 -0.9886336741 -0.0243390807
22000168000.0 -0.9887340098 -0.0103757162
22050167700.0 -0.9893361195 0.0048847445
22100167400.0 -0.9901786541 0.0199881161
22150167100.0 -0.9909689903 0.0362958725
22200166800.0 -0.9914884887 0.0530331029
22250166500.0 -0.9912461028 0.0694989979
22300166200.0 -0.9898395161 0.0865323122
22350165900.0 -0.9897698297 0.10194798
22400165600.0 -0.9874073178 0.1192041758
22450165300.0 -0.9860309779 0.1330271281
22500165000.0 -0.9850476383 0.1478918354
22550164700.0 -0.9828205005 0.1631109967
22600164400.0 -0.9804614544 0.1809174873
22650164100.0 -0.9780012802 0.1956057886
22700163800.0 -0.9745292436 0.2116709979
22750163500.0 -0.9714947101 0.2262319266
22800163200.0 -0.968919053 0.2395621339
22850162900.0 -0.9664974932 0.2532610413
22900162600.0 -0.9645802292 0.2669612147
22950162300.0 -0.9626581507 0.2807230235
23000162000.0 -0.9610143065 0.2934498957
23050161700.0 -0.9584140238 0.3071335235
23100161400.0 -0.9556100406 0.3204239561
23150161100.0 -0.9525797554 0.3332194164
23200160800.0 -0.9493534225 0.3456679566
23250160500.0 -0.9467067065 0.358599013
23300160200.0 -0.9440452345 0.3711009374
23350159900.0 -0.9404440826 0.3843858734
23400159600.0 -0.9349158857 0.3985596256
23450159300.0 -0.929923064 0.4124624684
23500159000.0 -0.9249238056 0.4260117452
23550158700.0 -0.9198802834 0.4403110719
23600158400.0 -0.9139712991 0.4541499308
23650158100.0 -0.9067726305 0.468723176
23700157800.0 -0.8982663657 0.4827636501
23750157500.0 -0.8891611842 0.4969477763
23800157200.0 -0.8792814223 0.5105950268
23850156900.0 -0.8698868436 0.5229015991
23900156600.0 -0.8602389211 0.5351551515
23950156300.0 -0.8495458933 0.5484054497
24000156000.0 -0.8408065573 0.5604640947
24050155700.0 -0.8299236095 0.5730704282
24100155400.0 -0.8197634329 0.5860416507
24150155100.0 -0.8088319763 0.5973664323
24200154800.0 -0.7975710461 0.6091142076
24250154500.0 -0.7870273407 0.6221937763
24300154200.0 -0.7747560088 0.6337001112
24350153900.0 -0.7630402507 0.6449075153
24400153600.0 -0.7502430618 0.655589103
24450153300.0 -0.7383041641 0.6659613306
24500153000.0 -0.7266129473 0.6757580566
24550152700.0 -0.7152003803 0.6856543352
24600152400.0 -0.7029346213 0.6950463222
