!Created with skrf (http://scikit-rf.org).
# Hz S RI R 50.0 
!freq ReS11 ImS11
300000.0 -0.9756901356 -0.1174548929
50299700.0 -0.9999365661 0.0154986354
100299400.0 -0.9980016606 0.0284408163
150299100.0 -1.002837138 0.0452545559
200298800.0 -0.9995358206 0.0585356963
250298500.0 -0.9974343841 0.0720973291
300298200.0 -0.9861047458 0.0879453861
350297900.0 -0.9940249303 0.0986622399
400297600.0 -0.993187671 0.1153816613
450297300.0 -0.9911443686 0.1290070221
500297000.0 -0.9895270607 0.1440746162
550296700.0 -0.9845756652 0.1563549559
600296400.0 -1.017423588 0.1898448301
650296100.0 -0.9821280185 0.1863615074
700295800.0 -0.9794347584 0.2005071827
750295500.0 -0.976207727 0.2145460163
800295200.0 -0.9730930488 0.2285732561
850294900.0 -0.9696602024 0.2425134437
900294600.0 -0.9659196213 0.2563489271
950294300.0 -0.9619732787 0.2698058411
1000294000.0 -0.9581689775 0.2840395147
1050293700.0 -0.9535907141 0.29778066
1100293400.0 -0.9492210396 0.3121298522
1150293100.0 -0.9453876862 0.3239969684
1200292800.0 -0.9401120557 0.3381696598
1250292500.0 -0.934536992 0.3518341735
1300292200.0 -0.9289969881 0.3649313568
1350291900.0 -0.9233622742 0.3789389873
1400291600.0 -0.9178218896 0.3921449861
1450291300.0 -0.9123254037 0.4045161491
1500291000.0 -0.9061641912 0.4178979053
1550290700.0 -0.899502176 0.4312481354
1600290400.0 -0.8935086432 0.4439961654
1650290100.0 -0.886765835 0.456433818
1700289800.0 -0.879742965 0.4696197736
1750289500.0 -0.8728090945 0.4820221862
1800289200.0 -0.8656050641 0.4946541435
1850288900.0 -0.8586318518 0.5062421337
1900288600.0 -0.8509099175 0.5191284897
1950288300.0 -0.8428459137 0.5316894189
2000288000.0 -0.8354173506 0.5432196193
2050287700.0 -0.8269761095 0.5554590866
2100287400.0 -0.8192460349 0.5672370004
2150287100.0 -0.8105080459 0.579171761
2200286800.0 -0.8029191605 0.5895904684
2250286500.0 -0.7940202866 0.6014048854
2300286200.0 -0.7851861012 0.6131990827
2350285900.0 -0.7762821138 0.6242412019
2400285600.0 -0.7674972175 0.6352125046
2450285300.0 -0.7590766712 0.6456587665
2500285000.0 -0.7492724089 0.6569248884
2550284700.0 -0.7403349857 0.6671013853
2600284400.0 -0.7308263562 0.677399018
2650284100.0 -0.721625934 0.687619843
2700283800.0 -0.7112756311 0.6983625416
2750283500.0 -0.7008816491 0.7088866774
2800283200.0 -0.691054166 0.7185539486
2850282900.0 -0.6810043674 0.7286670439
2900282600.0 -0.6705010133 0.7379817705
2950282300.0 -0.6603168496 0.7474645165
3000282000.0 -0.6497492113 0.7569166763
3050281700.0 -0.6385928051 0.7661326512
3100281400.0 -0.6265226978 0.7755469215
3150281100.0 -0.614877773 0.7846672038
3200280800.0 -0.6031545491 0.7933058869
3250280500.0 -0.5924093974 0.8010905234
3300280200.0 -0.5810578716 0.8087777902
3350279900.0 -0.5693596298 0.8163849814
3400279600.0 -0.5572713114 0.8241049888
3450279300.0 -0.5462832589 0.8311836062
3500279000.0 -0.5341225998 0.8382502903
3550278700.0 -0.5216448495 0.8457220122
3600278400.0 -0.5095690739 0.852963129
3650278100.0 -0.4966031188 0.8606072884
3700277800.0 -0.4842896773 0.867010751
3750277500.0 -0.4721116608 0.873223598
3800277200.0 -0.4596618553 0.8798550636
3850276900.0 -0.4475090278 0.8857907252
3900276600.0 -0.4368659678 0.8914956461
3950276300.0 -0.4240472458 0.8974452692
4000276000.0 -0.412186213 0.9036176961
4050275700.0 -0.3993127802 0.9097323827
4100275400.0 -0.3880650281 0.9151073002
4150275100.0 -0.3756691571 0.9206049123
4200274800.0 -0.3625122895 0.9262254732
4250274500.0 -0.3503618552 0.9312838644
4300274200.0 -0.3375662088 0.936820754
4350273900.0 -0.3235299824 0.9421571922
4400273600.0 -0.3087470813 0.9471070327
4450273300.0 -0.2932428624 0.9524986422
4500273000.0 -0.2797079547 0.9566654011
4550272700.0 -0.2656223284 0.9608714548
4600272400.0 -0.2501647232 0.965235582
4650272100.0 -0.238315324 0.9682614913
4700271800.0 -0.2252378815 0.971784809
4750271500.0 -0.21335245 0.974605219
4800271200.0 -0.2009034639 0.977321948
4850270900.0 -0.1870192265 0.9801301828
4900270600.0 -0.1732283781 0.9825040672
4950270300.0 -0.1587754765 0.9851356889
5000270000.0 -0.144523445 0.9866745173
5050269700.0 -0.1311733773 0.9886784646
5100269400.0 -0.1172886495 0.9904676135
5150269100.0 -0.1042583175 0.9918198687
5200268800.0 -0.0908276239 0.9929069374
5250268500.0 -0.0778855774 0.993730695
5300268200.0 -0.0646550968 0.9942592784
5350267900.0 -0.0523037413 0.9952962412
5400267600.0 -0.0362094126 0.9963317522
5450267300.0 -0.0229324741 0.9968551679
5500267000.0 -0.0078666541 0.997160229
5550266700.0 0.0071219473 0.9972290101
5600266400.0 0.0225238892 0.9971699248
5650266100.0 0.0391931894 0.9970755482
5700265800.0 0.0536196721 0.9958530584
5750265500.0 0.0687085221 0.9954474631
5800265200.0 0.0827256132 0.9940955549
5850264900.0 0.0963744168 0.9936164955
5900264600.0 0.1126085491 0.9917094451
5950264300.0 0.1253012161 0.9905469819
6000264000.0 0.1390168158 0.9883558485
6050263700.0 0.1510671132 0.9867298013
6100263400.0 0.1633369695 0.9850913466
6150263100.0 0.1781794891 0.9827503385
6200262800.0 0.188234098 0.9808819567
6250262500.0 0.2010176138 0.9783969642
6300262200.0 0.2137654213 0.9756954225
6350261900.0 0.2269214322 0.9728193292
6400261600.0 0.2407677068 0.9693910176
6450261300.0 0.2522293036 0.9667627898
6500261000.0 0.2647874687 0.9630660364
6550260700.0 0.2782545151 0.9593860523
6600260400.0 0.2912864827 0.9551921986
6650260100.0 0.3053529669 0.9508859983
6700259800.0 0.3173602566 0.9467490392
6750259500.0 0.3310523895 0.9417198911
6800259200.0 0.3440114751 0.9365624791
6850258900.0 0.3561436854 0.9316033998
6900258600.0 0.3686611243 0.9265544464
6950258300.0 0.3808173734 0.9211689009
7000258000.0 0.392702445 0.915794477
7050257700.0 0.405166336 0.9096782942
7100257400.0 0.4179040469 0.9034613548
7150257100.0 0.428407883 0.898234327
7200256800.0 0.4411600549 0.8916698798
7250256500.0 0.4529024558 0.8852924384
7300256200.0 0.4659675508 0.8786460329
7350255900.0 0.4782783356 0.8718162393
7400255600.0 0.4913915098 0.864506633
7450255300.0 0.5070283602 0.8553257028
7500255000.0 0.5187908397 0.8480329803
7550254700.0 0.532771904 0.8397080013
7600254400.0 0.5450978165 0.8318020045
7650254100.0 0.5569789435 0.8238967368
7700253800.0 0.5686172698 0.8156677922
7750253500.0 0.5798327051 0.8078568983
7800253200.0 0.5904137039 0.8003206487
7850252900.0 0.600178505 0.7933463339
7900252600.0 0.6118879117 0.7845593794
7950252300.0 0.6207403506 0.7781555591
8000252000.0 0.630902915 0.7703814729
8050251700.0 0.6415434056 0.7622397795
8100251400.0 0.6511388716 0.7541860008
8150251100.0 0.6617698394 0.7454061779
8200250800.0 0.6708682551 0.737478608
8250250500.0 0.679781267 0.729493605
8300250200.0 0.6891929336 0.720919169
8350249900.0 0.6980539222 0.7123712118
8400249600.0 0.7063028546 0.7041029845
8450249300.0 0.7155744625 0.6949964665
8500249000.0 0.7242933869 0.6861247692
8550248700.0 0.7324673191 0.6771594291
8600248400.0 0.7409658475 0.6675722407
8650248100.0 0.7485949092 0.6582119096
8700247800.0 0.7582052024 0.6469442367
8750247500.0 0.7664361597 0.6369073497
8800247200.0 0.7745440336 0.6266217066
8850246900.0 0.7832345369 0.6149481993
8900246600.0 0.7916571248 0.6036548248
8950246300.0 0.80153117 0.590787534
9000246000.0 0.8107538925 0.57795998
9050245700.0 0.8198947522 0.5647478764
9100245400.0 0.828619897 0.5523843509
9150245100.0 0.8378445858 0.5389868436
9200244800.0 0.8476060691 0.5235715907
9250244500.0 0.8568600883 0.508293464
9300244200.0 0.8654736432 0.4935579781
9350243900.0 0.8729944091 0.4797651008
9400243600.0 0.8796830374 0.4675462487
9450243300.0 0.8855620781 0.4556877731
9500243000.0 0.8918824472 0.4435426128
9550242700.0 0.8956275308 0.4360174826
9600242400.0 0.899437218 0.4287042603
9650242100.0 0.9032536145 0.4221923761
9700241800.0 0.9079229509 0.4139969835
9750241500.0 0.9120899525 0.4061686029
9800241200.0 0.9165449786 0.3973608888
9850240900.0 0.9218892866 0.3858423771
9900240600.0 0.9276530314 0.3740593863
9950240300.0 0.9344143071 0.3576821387
10000240000.0 0.938837136 0.3463494663
10050239700.0 0.9445700498 0.3310716355
10100239400.0 0.9497001561 0.3155499205
10150239100.0 0.9541839791 0.3008646315
10200238800.0 0.9581716514 0.2856922916
10250238500.0 0.9614253083 0.2723862102
10300238200.0 0.9646263841 0.2584378903
10350237900.0 0.9672167063 0.245278249
10400237600.0 0.9699561392 0.2322990434
10450237300.0 0.9724554506 0.2187039303
10500237000.0 0.9745739182 0.2062305317
10550236700.0 0.9772618858 0.1920885916
10600236400.0 0.9787881222 0.1788975498
10650236100.0 0.9812358352 0.1639830361
10700235800.0 0.9835202784 0.1517619691
10750235500.0 0.985891949 0.1382693789
10800235200.0 0.9875367815 0.1242563929
10850234900.0 0.9895771278 0.1091815591
10900234600.0 0.9917118841 0.0951220447
10950234300.0 0.9934079193 0.0818030059
11000234000.0 0.9951579082 0.0666406401
11050233700.0 0.9970304458 0.0504355016
11100233400.0 0.998387842 0.0331615708
11150233100.0 0.9997471031 0.0167478585
11200232800.0 0.9999061848 0.0013950797
11250232500.0 1.001630532 -0.0151423609
11300232200.0 1.001789472 -0.0332339269
11350231900.0 1.001311041 -0.0482869362
11400231600.0 1.001553833 -0.0650771906
11450231300.0 1.001120512 -0.0798312148
11500231000.0 1.000047785 -0.096097062
11550230700.0 0.9985389708 -0.108988506
11600230400.0 0.9970904423 -0.122038588
11650230100.0 0.9952266978 -0.1339781908
11700229800.0 0.9933725398 -0.1480887416
11750229500.0 0.9908802756 -0.1623216784
11800229200.0 0.9880885957 -0.1764181329
11850228900.0 0.9846308045 -0.1882797847
11900228600.0 0.9808964823 -0.198325772
11950228300.0 0.9777205835 -0.2088082874
12000228000.0 0.9748161993 -0.2178848866
12050227700.0 0.971724158 -0.230193745
12100227400.0 0.9678456805 -0.2420845796
12150227100.0 0.9632082142 -0.2583470859
12200226800.0 0.9595378436 -0.2685452295
12250226500.0 0.9558744999 -0.2820993343
12300226200.0 0.9512411319 -0.2940366135
12350225900.0 0.9462581643 -0.3080933006
12400225600.0 0.9418865149 -0.3208815267
12450225300.0 0.9376291196 -0.3338167364
12500225000.0 0.9321487435 -0.3483348918
12550224700.0 0.926985441 -0.3623806344
12600224400.0 0.9219880812 -0.3751033168
12650224100.0 0.9161613342 -0.3896058176
12700223800.0 0.9110089084 -0.4022524479
12750223500.0 0.9054941734 -0.4154422801
12800223200.0 0.8998991101 -0.4282454158
12850222900.0 0.8945491457 -0.4402591644
12900222600.0 0.8891292304 -0.4523388099
12950222300.0 0.882691593 -0.4651205356
13000222000.0 0.8767445747 -0.4767779277
13050221700.0 0.8697934356 -0.4890510408
13100221400.0 0.8636802658 -0.5008389732
13150221100.0 0.8567301716 -0.5131131149
13200220800.0 0.8493542785 -0.5247872264
13250220500.0 0.8424939875 -0.5371709073
13300220200.0 0.8350070834 -0.5479348124
13350219900.0 0.8270006602 -0.5596257246
13400219600.0 0.8186325949 -0.5720194947
13450219300.0 0.8090946342 -0.5855663094
13500219000.0 0.7991931324 -0.5994293693
13550218700.0 0.7887700306 -0.6119037781
13600218400.0 0.7787346226 -0.624098942
13650218100.0 0.7690128406 -0.6349241808
13700217800.0 0.7580254467 -0.6476217429
13750217500.0 0.7483451267 -0.6591969713
13800217200.0 0.7368520072 -0.6700539174
13850216900.0 0.7257947973 -0.6821993144
13900216600.0 0.7164833969 -0.6912803971
13950216300.0 0.7048660634 -0.7007798929
14000216000.0 0.6948683991 -0.7100564301
14050215700.0 0.6855287903 -0.7189057106
14100215400.0 0.675783729 -0.7276457219
14150215100.0 0.6666294674 -0.7363992071
14200214800.0 0.6571045505 -0.7451820958
14250214500.0 0.6469987688 -0.7545286012
14300214200.0 0.63652769 -0.7639438263
14350213900.0 0.6254174441 -0.7734448663
14400213600.0 0.6131101522 -0.7833701024
14450213300.0 0.6007559696 -0.7933459866
14500213000.0 0.5876872102 -0.8039490419
14550212700.0 0.5745814962 -0.8129310343
14600212400.0 0.5626624259 -0.8218429159
14650212100.0 0.5493108631 -0.8302771327
14700211800.0 0.5356848171 -0.8396592734
14750211500.0 0.5234408573 -0.8479874155
14800211200.0 0.5112485134 -0.8560330944
14850210900.0 0.4990100502 -0.86337915
14900210600.0 0.4858065321 -0.8713541742
14950210300.0 0.4723574819 -0.8791162829
15000210000.0 0.4597291202 -0.8857581059
15050209700.0 0.4472893065 -0.8921720712
15100209400.0 0.4343451171 -0.8977812579
15150209100.0 0.4220436387 -0.9029523866
15200208800.0 0.4092312777 -0.9086334835
15250208500.0 0.3980531245 -0.9130069533
15300208200.0 0.3858471156 -0.9180887974
15350207900.0 0.3725080064 -0.9229324249
15400207600.0 0.3581320952 -0.9282359861
15450207300.0 0.343764226 -0.9335189594
15500207000.0 0.3294291607 -0.9374496775
15550206700.0 0.3145025257 -0.9425077762
15600206400.0 0.2979458985 -0.947178715
15650206100.0 0.2827104102 -0.9511356453
15700205800.0 0.2686304994 -0.9550748043
15750205500.0 0.2539684989 -0.9586879558
15800205200.0 0.239469239 -0.9622265677
15850204900.0 0.2252153395 -0.9655988916
15900204600.0 0.2102264946 -0.9691548343
15950204300.0 0.1960372176 -0.9721628547
16000204000.0 0.1818199033 -0.9749519857
16050203700.0 0.1667725733 -0.9780380545
16100203400.0 0.152412297 -0.980216315
16150203100.0 0.1382776837 -0.982471993
16200202800.0 0.1239020703 -0.9847733942
16250202500.0 0.1092331536 -0.986458431
16300202200.0 0.0940013846 -0.9879689622
16350201900.0 0.0790563155 -0.9888636229
16400201600.0 0.0641606206 -0.9903254973
16450201300.0 0.0490119795 -0.9912889976
16500201000.0 0.0325254725 -0.9921054441
16550200700.0 0.0168140159 -0.9927236717
16600200400.0 0.0011360313 -0.9927263895
16650200100.0 -0.0151286158 -0.992779244
16700199800.0 -0.0308857904 -0.9924552873
16750199500.0 -0.0496933744 -0.9917355098
16800199200.0 -0.0658776298 -0.9906498057
16850198900.0 -0.0810750879 -0.9894590058
16900198600.0 -0.0949845883 -0.9883222236
16950198300.0 -0.108294725 -0.9876587711
17000198000.0 -0.1213852558 -0.9862497449
17050197700.0 -0.1337523884 -0.9842047706
17100197400.0 -0.1467035244 -0.9822263074
17150197100.0 -0.1594982817 -0.9799375276
17200196800.0 -0.1718716511 -0.9782104735
17250196500.0 -0.1849670141 -0.9758066573
17300196200.0 -0.1972164958 -0.9735027407
17350195900.0 -0.2089255856 -0.9712216575
17400195600.0 -0.2211657956 -0.9685943489
17450195300.0 -0.2342708832 -0.9658362422
17500195000.0 -0.247801582 -0.9623789425
17550194700.0 -0.2618737054 -0.9589500933
17600194400.0 -0.2757183094 -0.9550005118
17650194100.0 -0.2894405382 -0.9503144417
17700193800.0 -0.3025552477 -0.9466915306
17750193500.0 -0.316280113 -0.9419942478
17800193200.0 -0.3311976197 -0.9367635183
17850192900.0 -0.3462024396 -0.9314164761
17900192600.0 -0.3615877825 -0.92574039
17950192300.0 -0.3772131497 -0.9181957321
18000192000.0 -0.3918282744 -0.911385931
18050191700.0 -0.4056512715 -0.9031184278
18100191400.0 -0.4197568355 -0.8954940526
18150191100.0 -0.4349701982 -0.8874494251
18200190800.0 -0.4517948705 -0.8783034248
18250190500.0 -0.4686099185 -0.8687845985
18300190200.0 -0.4843424724 -0.8600906446
18350189900.0 -0.4990653289 -0.8515888924
18400189600.0 -0.5135882511 -0.8431572278
18450189300.0 -0.5270125545 -0.8357660195
18500189000.0 -0.5399462603 -0.8272275779
18550188700.0 -0.5530089882 -0.8196413577
18600188400.0 -0.5648262941 -0.8131058607
18650188100.0 -0.5756475434 -0.8067062092
18700187800.0 -0.5864336593 -0.8003381983
18750187500.0 -0.5970976014 -0.7935393433
18800187200.0 -0.6077222767 -0.7867766892
18850186900.0 -0.6176761043 -0.7797150396
18900186600.0 -0.6281506639 -0.7724562679
18950186300.0 -0.6383005214 -0.7645996133
19000186000.0 -0.6452763123 -0.7586249652
19050185700.0 -0.6548463874 -0.7511618805
19100185400.0 -0.6649740092 -0.7429206583
19150185100.0 -0.6748277683 -0.7342162743
19200184800.0 -0.6833727908 -0.7262480565
19250184500.0 -0.6943548852 -0.7167224282
19300184200.0 -0.7066505933 -0.707802046
19350183900.0 -0.716754796 -0.6972623196
19400183600.0 -0.7259392672 -0.6872770798
19450183300.0 -0.7352210832 -0.6777624292
19500183000.0 -0.7436677148 -0.6678632218
19550182700.0 -0.7534252593 -0.6564064895
19600182400.0 -0.7639238523 -0.6452803161
19650182100.0 -0.7748379195 -0.6328025698
19700181800.0 -0.785467232 -0.6194252483
19750181500.0 -0.7959570168 -0.6054311347
19800181200.0 -0.8063581376 -0.5904125268
19850180900.0 -0.8158116895 -0.5749985044
19900180600.0 -0.8236876023 -0.5603508539
19950180300.0 -0.8328950692 -0.5441503906
20000180000.0 -0.8257290141 -0.5464325168
20050179700.0 -0.8339371374 -0.5340047687
20100179400.0 -0.8427089027 -0.51888932
20150179100.0 -0.8506054666 -0.5075238905
20200178800.0 -0.8596091487 -0.4941754534
20250178500.0 -0.8694563378 -0.4810450816
20300178200.0 -0.8787613073 -0.4662989294
20350177900.0 -0.8874437569 -0.4519813186
20400177600.0 -0.8967635205 -0.4373303738
20450177300.0 -0.9049328869 -0.4230477156
20500177000.0 -0.9129063496 -0.409242953
20550176700.0 -0.9207843289 -0.3953778371
20600176400.0 -0.9279285359 -0.3825859582
20650176100.0 -0.9348488836 -0.370306696
20700175800.0 -0.9407337357 -0.3572904965
20750175500.0 -0.9479343041 -0.34641678
20800175200.0 -0.952526882 -0.3358113159
20850174900.0 -0.9569687021 -0.3249524872
20900174600.0 -0.96152202 -0.3135822923
20950174300.0 -0.9650713885 -0.3018388907
21000174000.0 -0.9691781295 -0.2903797797
21050173700.0 -0.972275093 -0.2798265579
21100173400.0 -0.9762503525 -0.2680421159
21150173100.0 -0.9801017261 -0.2557479557
21200172800.0 -0.983470874 -0.2419435223
21250172500.0 -0.9866860618 -0.2282708734
21300172200.0 -0.9893229293 -0.2144451975
21350171900.0 -0.9906636796 -0.1999053029
21400171600.0 -0.9921508378 -0.1855706928
21450171300.0 -0.9926435885 -0.1704902995
21500171000.0 -0.9924926869 -0.1560447971
21550170700.0 -0.9926752786 -0.1408392575
21600170400.0 -0.9923459836 -0.1241526245
21650170100.0 -0.9928231964 -0.1085896351
21700169800.0 -0.9910956534 -0.0949451334
21750169500.0 -0.9887402084 -0.0786012415
21800169200.0 -0.9885794692 -0.0616704009
21850168900.0 -0.9871989451 -0.0447917734
21900168600.0 -0.9852882557 -0.0279053003
21950168300.0 -0.9846768868 -0.0121732981
22000168000.0 -0.9837616592 0.0027938703
22050167700.0 -0.9835885572 0.0171238426
22100167400.0 -0.9835386726 0.0322228408
22150167100.0 -0.9841384783 0.0479802158
22200166800.0 -0.9844939502 0.0641375998
22250166500.0 -0.9835536875 0.0815218414
22300166200.0 -0.9833397808 0.0983838945
22350165900.0 -0.9825434656 0.1147472068
22400165600.0 -0.9801954632 0.1308052786
22450165300.0 -0.9784457922 0.1450459804
22500165000.0 -0.9770038918 0.1592999455
22550164700.0 -0.9748904142 0.1737218061
22600164400.0 -0.9741926874 0.1889004674
22650164100.0 -0.9722480816 0.2047507823
22700163800.0 -0.9683540207 0.220557649
22750163500.0 -0.9662881735 0.2360528916
22800163200.0 -0.9635509427 0.2485019858
22850162900.0 -0.9609987191 0.2620646125
22900162600.0 -0.9598799417 0.2756327768
22950162300.0 -0.9586179936 0.2882475752
23000162000.0 -0.9573849492 0.2999044715
23050161700.0 -0.9557507251 0.3123575774
23100161400.0 -0.9535625782 0.3251670885
23150161100.0 -0.9507614872 0.3379059909
23200160800.0 -0.9479263255 0.34968242
23250160500.0 -0.9452577489 0.3622229535
23300160200.0 -0.9422319789 0.37354881
23350159900.0 -0.9389271244 0.3875391173
23400159600.0 -0.9332294128 0.4003859056
23450159300.0 -0.9285133359 0.4139114031
23500159000.0 -0.9243664526 0.4269503052
23550158700.0 -0.9196285452 0.4401500591
23600158400.0 -0.9141599868 0.4534100211
23650158100.0 -0.9080612845 0.4674769377
23700157800.0 -0.9005286874 0.481356088
23750157500.0 -0.8916101716 0.4954269139
23800157200.0 -0.8830897886 0.5084921546
23850156900.0 -0.8739409622 0.5216172916
23900156600.0 -0.8653671447 0.5340636899
23950156300.0 -0.8565069731 0.5465341213
24000156000.0 -0.8466914643 0.5586065377
24050155700.0 -0.8360978055 0.5703796339
24100155400.0 -0.8263915442 0.5825459859
24150155100.0 -0.8157711337 0.5936294171
24200154800.0 -0.8052232945 0.6053814569
24250154500.0 -0.7933377257 0.6173499158
24300154200.0 -0.781996118 0.6288462466
24350153900.0 -0.7705101306 0.6394737205
24400153600.0 -0.7582964835 0.6495115186
24450153300.0 -0.746551107 0.6593919071
24500153000.0 -0.734750974 0.6689864364
24550152700.0 -0.7233870801 0.6790813522
24600152400.0 -0.7120244411 0.6878938215
24650152100.0 -0.6998362209 0.6959759529
