!Created with skrf (http://scikit-rf.org).
# Hz S RI R 50.0 
!freq ReS11 ImS11
300000.0 -0.9756467968 -0.1205717105
50299700.0 -0.999822957 0.0152863196
100299400.0 -0.9980206192 0.0281919722
150299100.0 -1.002745077 0.0450018696
200298800.0 -0.9996697031 0.0582837172
250298500.0 -0.9974174986 0.0718083855
300298200.0 -0.9860017571 0.0876549987
350297900.0 -0.9941144295 0.0985763115
400297600.0 -0.9931622358 0.1150397699
450297300.0 -0.9911674241 0.1288617177
500297000.0 -0.9894331131 0.1437280262
550296700.0 -0.984287146 0.1560634772
600296400.0 -1.01722673 0.1895226683
650296100.0 -0.982123639 0.1860511429
700295800.0 -0.9791786371 0.200408509
750295500.0 -0.9762334402 0.2142783152
800295200.0 -0.9731454959 0.2284313072
850294900.0 -0.9695716013 0.2422175125
900294600.0 -0.9659663403 0.2560914276
950294300.0 -0.9622047019 0.2695362518
1000294000.0 -0.9582278862 0.2836964404
1050293700.0 -0.9537118932 0.2975355894
1100293400.0 -0.9493495714 0.3118154096
1150293100.0 -0.9454040324 0.3237204563
1200292800.0 -0.9402527722 0.3381175658
1250292500.0 -0.9346011035 0.3516524749
1300292200.0 -0.9289269468 0.3648349109
1350291900.0 -0.9235368793 0.3787241411
1400291600.0 -0.9177404498 0.3918120229
1450291300.0 -0.9126316909 0.4043280393
1500291000.0 -0.9059547645 0.4174970202
1550290700.0 -0.8995500952 0.4310058707
1600290400.0 -0.8934534898 0.4439410428
1650290100.0 -0.8870351294 0.4562287719
1700289800.0 -0.8800770478 0.4693479937
1750289500.0 -0.8728165803 0.4819504789
1800289200.0 -0.8653983647 0.4947468088
1850288900.0 -0.8586951864 0.5060332291
1900288600.0 -0.8510272666 0.5188276937
1950288300.0 -0.8427746165 0.5314756315
2000288000.0 -0.8354393409 0.5428734052
2050287700.0 -0.8273736634 0.5553268361
2100287400.0 -0.8195220544 0.5669434467
2150287100.0 -0.8106991497 0.5792118803
2200286800.0 -0.8029702969 0.5894425146
2250286500.0 -0.7943191126 0.6014076133
2300286200.0 -0.7854354867 0.6129644437
2350285900.0 -0.7766883749 0.6238680355
2400285600.0 -0.7675625632 0.6349831374
2450285300.0 -0.7591087961 0.6452449573
2500285000.0 -0.7495364782 0.6567733407
2550284700.0 -0.7404192445 0.6668472471
2600284400.0 -0.7309520148 0.6770072327
2650284100.0 -0.7221403865 0.6876485324
2700283800.0 -0.7115751473 0.6982065814
2750283500.0 -0.7010313129 0.7083911416
2800283200.0 -0.6915117819 0.7184368409
2850282900.0 -0.6813942541 0.728357829
2900282600.0 -0.670791693 0.7380407369
2950282300.0 -0.6606907469 0.7474385356
3000282000.0 -0.6498852841 0.7565471359
3050281700.0 -0.6385746049 0.7658966677
3100281400.0 -0.6266846466 0.7751918839
3150281100.0 -0.6149036578 0.7846760676
3200280800.0 -0.6033517028 0.7931476309
3250280500.0 -0.5925459353 0.8007913309
3300280200.0 -0.5812406362 0.8087579403
3350279900.0 -0.5695834279 0.8164700859
3400279600.0 -0.5575581884 0.8242606195
3450279300.0 -0.5464055024 0.8313494345
3500279000.0 -0.5343399764 0.8383664179
3550278700.0 -0.5217771214 0.8455662891
3600278400.0 -0.5097486491 0.8525173145
3650278100.0 -0.4965370244 0.8604632649
3700277800.0 -0.4846265835 0.8667522554
3750277500.0 -0.4721497403 0.8732739841
3800277200.0 -0.4598184165 0.8798239007
3850276900.0 -0.4476644925 0.8856956638
3900276600.0 -0.4367886527 0.8912086973
3950276300.0 -0.424638786 0.8974072841
4000276000.0 -0.4125119334 0.9034882634
4050275700.0 -0.3997232231 0.9094523087
4100275400.0 -0.3883763488 0.9151720456
4150275100.0 -0.3759009698 0.9209308322
4200274800.0 -0.3629579239 0.926155932
4250274500.0 -0.3505674399 0.9317377901
4300274200.0 -0.3375512126 0.9365126962
4350273900.0 -0.3238652164 0.9417415096
4400273600.0 -0.3087854888 0.9472679718
4450273300.0 -0.2937047256 0.9524139845
4500273000.0 -0.2799140182 0.9565458449
4550272700.0 -0.2659072369 0.9607187055
4600272400.0 -0.2503709586 0.9649167822
4650272100.0 -0.2388252581 0.9681857675
4700271800.0 -0.2254010383 0.9714735405
4750271500.0 -0.2136441523 0.974501196
4800271200.0 -0.2013642597 0.9771062354
4850270900.0 -0.1873196121 0.9798653629
4900270600.0 -0.1736346467 0.9822617836
4950270300.0 -0.1592774154 0.9851149624
5000270000.0 -0.1448742066 0.9870063358
5050269700.0 -0.1311683939 0.9888633472
5100269400.0 -0.1178261277 0.9900681256
5150269100.0 -0.1044717794 0.9922410332
5200268800.0 -0.0909565731 0.9929942441
5250268500.0 -0.0777695872 0.9941769197
5300268200.0 -0.0647823016 0.9946337195
5350267900.0 -0.0527368001 0.9953200221
5400267600.0 -0.0363510371 0.9959192637
5450267300.0 -0.0233860315 0.9965303508
5500267000.0 -0.0080767581 0.9969413506
5550266700.0 0.0067652027 0.9972762502
5600266400.0 0.0224303329 0.997251906
5650266100.0 0.0391299994 0.9971657872
5700265800.0 0.053355689 0.9960897457
5750265500.0 0.06856237 0.9953378598
5800265200.0 0.0828451783 0.994284657
5850264900.0 0.0959961853 0.9935454026
5900264600.0 0.1122846582 0.9917288898
5950264300.0 0.1242631656 0.9903390765
6000264000.0 0.1383368247 0.9882301444
6050263700.0 0.1507533933 0.9871386915
6100263400.0 0.1632526386 0.9850839739
6150263100.0 0.1776164764 0.9827839375
6200262800.0 0.1880143531 0.9810963923
6250262500.0 0.2007488774 0.9785926175
6300262200.0 0.2134651988 0.9757701256
6350261900.0 0.2264830488 0.9729057891
6400261600.0 0.2403328098 0.9696451179
6450261300.0 0.2516596318 0.9667606067
6500261000.0 0.2648190331 0.9635593811
6550260700.0 0.2772799206 0.9592072515
6600260400.0 0.290682506 0.9552597405
6650260100.0 0.3051093252 0.9512464313
6700259800.0 0.316592481 0.9465538015
6750259500.0 0.3303991468 0.9417260558
6800259200.0 0.3438627373 0.936804172
6850258900.0 0.3557051272 0.9315402462
6900258600.0 0.3680101495 0.9265632435
6950258300.0 0.3807451141 0.9215133978
7000258000.0 0.3924340535 0.9159802081
7050257700.0 0.4047235218 0.909689869
7100257400.0 0.4175256899 0.9036729692
7150257100.0 0.4280253979 0.8984698202
7200256800.0 0.4408271452 0.8919009038
7250256500.0 0.4525960237 0.8854895579
7300256200.0 0.4655237475 0.8786770702
7350255900.0 0.4782703448 0.8717627087
7400255600.0 0.4914999253 0.8645166137
7450255300.0 0.506987282 0.8554585201
7500255000.0 0.5184584458 0.8486748159
7550254700.0 0.5323882038 0.840082861
7600254400.0 0.5452544603 0.8319173403
7650254100.0 0.5568396835 0.8241219671
7700253800.0 0.5685647698 0.8159300449
7750253500.0 0.5797448274 0.8083620268
7800253200.0 0.5903569961 0.8006665707
7850252900.0 0.6001107873 0.7935537524
7900252600.0 0.6117450636 0.7848175107
7950252300.0 0.6205261896 0.778319099
8000252000.0 0.6304371032 0.7707256365
8050251700.0 0.640848839 0.7623737803
8100251400.0 0.6512082877 0.7542590108
8150251100.0 0.6613077679 0.7456619898
8200250800.0 0.6706478244 0.7375918371
8250250500.0 0.6796846952 0.7298163152
8300250200.0 0.6887623466 0.7211278056
8350249900.0 0.6980391964 0.7125701255
8400249600.0 0.7059486745 0.7044227132
8450249300.0 0.7151705773 0.6952571496
8500249000.0 0.7239217869 0.6865154744
8550248700.0 0.7323476944 0.6774343109
8600248400.0 0.7406254493 0.6677346885
8650248100.0 0.7484359649 0.6583742453
8700247800.0 0.7578464968 0.6470989786
8750247500.0 0.7663565414 0.6369866329
8800247200.0 0.7742877295 0.6266794016
8850246900.0 0.7832891165 0.6149993225
8900246600.0 0.7914613461 0.6038317804
8950246300.0 0.8010486454 0.590866553
9000246000.0 0.8104580651 0.5781858287
9050245700.0 0.8195313211 0.5651755965
9100245400.0 0.8278706678 0.5526983619
9150245100.0 0.8374839518 0.5391873575
9200244800.0 0.8472707651 0.5241818574
9250244500.0 0.8565785962 0.5088158591
9300244200.0 0.8648070006 0.4942870377
9350243900.0 0.8726637986 0.4804487648
9400243600.0 0.8793057391 0.4681882762
9450243300.0 0.8852518301 0.4565935007
9500243000.0 0.8915486713 0.4443637034
9550242700.0 0.8953857805 0.4365810021
9600242400.0 0.8992554276 0.4295859187
9650242100.0 0.9029482419 0.4229975335
9700241800.0 0.9075945688 0.4146102398
9750241500.0 0.9114975741 0.4072058639
9800241200.0 0.9164071263 0.3976095776
9850240900.0 0.9221883257 0.3860217167
9900240600.0 0.9278761715 0.3743798987
9950240300.0 0.9343107994 0.3582702548
10000240000.0 0.9389088366 0.3469084909
10050239700.0 0.9445141891 0.3316377141
10100239400.0 0.9495011957 0.316119922
10150239100.0 0.9540187024 0.3011461042
10200238800.0 0.9582146018 0.2864406916
10250238500.0 0.9615196417 0.2729490849
10300238200.0 0.9645225635 0.2589744439
10350237900.0 0.9671757942 0.2457781522
10400237600.0 0.9699145106 0.2324102623
10450237300.0 0.9725217802 0.2187131852
10500237000.0 0.9745545771 0.2064350958
10550236700.0 0.9771465348 0.1923518555
10600236400.0 0.9790854928 0.179227106
10650236100.0 0.9813023889 0.1644266643
10700235800.0 0.9831074944 0.1524768832
10750235500.0 0.9856878059 0.1384604563
10800235200.0 0.987373203 0.1247501664
10850234900.0 0.9897510539 0.1096094539
10900234600.0 0.9919464427 0.0953207401
10950234300.0 0.9933854465 0.0820654405
11000234000.0 0.9952454128 0.0669302011
11050233700.0 0.9971327885 0.0504865458
11100233400.0 0.9985944563 0.0330395617
11150233100.0 0.9995712572 0.0173157893
11200232800.0 1.00075946 0.0015424914
11250232500.0 1.000861844 -0.014187504
11300232200.0 1.001826122 -0.0323814063
11350231900.0 1.001590069 -0.0486700234
11400231600.0 1.000941464 -0.0644678264
11450231300.0 1.001475424 -0.0794047753
11500231000.0 0.9995592979 -0.0959539083
11550230700.0 0.998410678 -0.1085349939
11600230400.0 0.9972136299 -0.1218210418
11650230100.0 0.9947309596 -0.1325316569
11700229800.0 0.9932670506 -0.1477016745
11750229500.0 0.9908753368 -0.1620536594
11800229200.0 0.9882171245 -0.1758484953
11850228900.0 0.9846591362 -0.1882201291
11900228600.0 0.9810461796 -0.1979268368
11950228300.0 0.9778452394 -0.2082504195
12000228000.0 0.9750516469 -0.2177253483
12050227700.0 0.9715478321 -0.2299295418
12100227400.0 0.9686083455 -0.2406978167
12150227100.0 0.9635762294 -0.2576754239
12200226800.0 0.959641189 -0.2689848726
12250226500.0 0.9556511569 -0.2813082417
12300226200.0 0.9512385842 -0.2937933012
12350225900.0 0.9463862189 -0.3079124905
12400225600.0 0.942107726 -0.320213838
12450225300.0 0.9376920579 -0.3337767353
12500225000.0 0.9323518264 -0.3480681549
12550224700.0 0.9266530235 -0.3620284912
12600224400.0 0.9220169274 -0.3749458644
12650224100.0 0.916276946 -0.3893406605
12700223800.0 0.9109644013 -0.4022014864
12750223500.0 0.9055669309 -0.4150925499
12800223200.0 0.900000715 -0.4278508549
12850222900.0 0.8945303679 -0.4401511683
12900222600.0 0.8891269068 -0.4518892807
12950222300.0 0.8829694282 -0.4641891242
13000222000.0 0.8768505368 -0.4762946176
13050221700.0 0.8701137445 -0.4890142222
13100221400.0 0.86361739 -0.5004397451
13150221100.0 0.8567524435 -0.5129093691
13200220800.0 0.8494906279 -0.5248880243
13250220500.0 0.8424745602 -0.5366961684
13300220200.0 0.8351288059 -0.5474739447
13350219900.0 0.8270634509 -0.5594097797
13400219600.0 0.8189344659 -0.5715293418
13450219300.0 0.8095829106 -0.5851221572
13500219000.0 0.7994106884 -0.5990299642
13550218700.0 0.788984534 -0.6118893934
13600218400.0 0.7795508242 -0.6231697669
13650218100.0 0.7694720077 -0.635024603
13700217800.0 0.7589753587 -0.6471603894
13750217500.0 0.7483587627 -0.6589163691
13800217200.0 0.7372994043 -0.6699686077
13850216900.0 0.726268488 -0.6815589112
13900216600.0 0.716548234 -0.6906078507
13950216300.0 0.7057945344 -0.7006761552
14000216000.0 0.6951975302 -0.7099919794
14050215700.0 0.6863976266 -0.718424836
14100215400.0 0.6761898339 -0.7273788318
14150215100.0 0.6671078032 -0.7358531945
14200214800.0 0.6576290737 -0.744806789
14250214500.0 0.6474317469 -0.7541887188
14300214200.0 0.6370003622 -0.7633819567
14350213900.0 0.6257731299 -0.7732977025
14400213600.0 0.6138711231 -0.7828256315
14450213300.0 0.6012911055 -0.7931949991
14500213000.0 0.5873462429 -0.8026699677
14550212700.0 0.5754605302 -0.8125461514
14600212400.0 0.5628845464 -0.8213858648
14650212100.0 0.5497257304 -0.8301592905
14700211800.0 0.5356644434 -0.8396815554
14750211500.0 0.5241165728 -0.8476818302
14800211200.0 0.5117891515 -0.8557535097
14850210900.0 0.4996540729 -0.8632167667
14900210600.0 0.4864315649 -0.8710275424
14950210300.0 0.4731682778 -0.8787119786
15000210000.0 0.4601157186 -0.885484964
15050209700.0 0.4480495374 -0.891761267
15100209400.0 0.435146143 -0.8974788976
15150209100.0 0.423304905 -0.9033783814
15200208800.0 0.4099609374 -0.9085651874
15250208500.0 0.3991425087 -0.913597522
15300208200.0 0.3868429118 -0.9177782569
15350207900.0 0.3738983853 -0.9221316283
15400207600.0 0.3591611967 -0.9275843327
15450207300.0 0.3443706004 -0.9329809047
15500207000.0 0.3297402815 -0.9372369031
15550206700.0 0.3149881598 -0.9421944526
15600206400.0 0.2990315887 -0.9470254175
15650206100.0 0.2836663767 -0.9518321039
15700205800.0 0.269115239 -0.9548860698
15750205500.0 0.2549169374 -0.9585719516
15800205200.0 0.2406024151 -0.962057133
15850204900.0 0.2260877024 -0.965405115
15900204600.0 0.2110252311 -0.9690739059
15950204300.0 0.1967450921 -0.9722200898
16000204000.0 0.1827002662 -0.9747227523
16050203700.0 0.1674578934 -0.9777569702
16100203400.0 0.153169061 -0.9801023723
16150203100.0 0.1384394503 -0.9823650896
16200202800.0 0.1244328292 -0.9845335111
16250202500.0 0.1098635258 -0.9860617555
16300202200.0 0.0944779815 -0.9881946454
16350201900.0 0.0794380735 -0.9891613436
16400201600.0 0.0648003473 -0.9900877066
16450201300.0 0.0493281238 -0.9912359936
16500201000.0 0.0329931427 -0.9921898986
16550200700.0 0.0173318652 -0.9927377024
16600200400.0 0.001483873 -0.992784255
16650200100.0 -0.0140918822 -0.9928430484
16700199800.0 -0.0309029372 -0.9923286294
16750199500.0 -0.0494087904 -0.9916571004
16800199200.0 -0.0652071799 -0.9909895681
16850198900.0 -0.0800743078 -0.9899765874
16900198600.0 -0.0941086721 -0.9889129295
16950198300.0 -0.1073384259 -0.9876114282
17000198000.0 -0.120662 -0.9866123251
17050197700.0 -0.1331326766 -0.9840794746
17100197400.0 -0.1462430819 -0.9818597032
17150197100.0 -0.1583836267 -0.9801276277
17200196800.0 -0.1710914869 -0.9782868866
17250196500.0 -0.184611848 -0.9757869894
17300196200.0 -0.1966139718 -0.9733024052
17350195900.0 -0.2084864494 -0.9711907206
17400195600.0 -0.2207998091 -0.9686500936
17450195300.0 -0.2339349184 -0.9660178626
17500195000.0 -0.2472687111 -0.9627311469
17550194700.0 -0.2612160302 -0.9589128302
17600194400.0 -0.2751087616 -0.9552279622
17650194100.0 -0.2887663291 -0.9510757817
17700193800.0 -0.3020447199 -0.9468791911
17750193500.0 -0.3162307856 -0.9422500556
17800193200.0 -0.3305471881 -0.9368684067
17850192900.0 -0.3457765509 -0.9315095833
17900192600.0 -0.361119999 -0.9257511033
17950192300.0 -0.3764993603 -0.918583194
18000192000.0 -0.3912074225 -0.91114739
18050191700.0 -0.4052940596 -0.9032553334
18100191400.0 -0.4196131378 -0.8956957089
18150191100.0 -0.4344497512 -0.8877296618
18200190800.0 -0.45142503 -0.8786274567
18250190500.0 -0.4685054151 -0.8690585523
18300190200.0 -0.4836037821 -0.8605706095
18350189900.0 -0.4987183738 -0.8518406258
18400189600.0 -0.5132572683 -0.8436828781
18450189300.0 -0.5268842431 -0.8361672456
18500189000.0 -0.5396986592 -0.8278687779
18550188700.0 -0.5524413953 -0.8201742919
18600188400.0 -0.5644122098 -0.8134122428
18650188100.0 -0.5751091457 -0.8071619516
18700187800.0 -0.58612934 -0.8007213736
18750187500.0 -0.5964515309 -0.7941643607
18800187200.0 -0.607241965 -0.7870622265
18850186900.0 -0.6172610438 -0.7800867576
18900186600.0 -0.6275554854 -0.772712351
18950186300.0 -0.6373422336 -0.765080696
19000186000.0 -0.6443736808 -0.7592937695
19050185700.0 -0.6539486801 -0.7515807134
19100185400.0 -0.6639864329 -0.7436731686
19150185100.0 -0.6742506931 -0.7351239129
19200184800.0 -0.6835508175 -0.7264912074
19250184500.0 -0.6937065197 -0.7175690201
19300184200.0 -0.7047846311 -0.7075777199
19350183900.0 -0.7164611027 -0.6982175305
19400183600.0 -0.7257808033 -0.6886169811
19450183300.0 -0.7343199633 -0.6782593018
19500183000.0 -0.743241764 -0.6681923134
19550182700.0 -0.7527210915 -0.6578467808
19600182400.0 -0.7627899542 -0.6458402312
19650182100.0 -0.7740788049 -0.6332221533
19700181800.0 -0.7843307737 -0.6200901499
19750181500.0 -0.7951062819 -0.6059732614
19800181200.0 -0.8057598782 -0.5909439017
19850180900.0 -0.8153330908 -0.5755226104
19900180600.0 -0.823187509 -0.5609697812
19950180300.0 -0.8326060468 -0.5444649929
20000180000.0 -0.8252824982 -0.5471116341
20050179700.0 -0.8332195948 -0.5338850454
20100179400.0 -0.8425956274 -0.5207649509
20150179100.0 -0.8499760553 -0.5081363041
20200178800.0 -0.8589845127 -0.4950548727
20250178500.0 -0.8683121297 -0.4814533428
20300178200.0 -0.8780746775 -0.467204969
20350177900.0 -0.8874314495 -0.4529675889
20400177600.0 -0.8963265373 -0.4387187525
20450177300.0 -0.9046367238 -0.4237832363
20500177000.0 -0.9124383331 -0.4101897012
20550176700.0 -0.9203278454 -0.396742519
20600176400.0 -0.9275258161 -0.3833683523
20650176100.0 -0.934066126 -0.3710831184
20700175800.0 -0.9401839546 -0.3593529945
20750175500.0 -0.9474010497 -0.3470682823
20800175200.0 -0.9519364996 -0.3363473027
20850174900.0 -0.956599133 -0.3256280388
20900174600.0 -0.9616125765 -0.314490882
20950174300.0 -0.9651930215 -0.303399967
21000174000.0 -0.9686811579 -0.2921693883
21050173700.0 -0.9719380016 -0.2804347633
21100173400.0 -0.974829325 -0.2693007119
21150173100.0 -0.9791726335 -0.2565655771
21200172800.0 -0.9826122223 -0.2433416897
21250172500.0 -0.98595184 -0.2297955575
21300172200.0 -0.989149407 -0.2157007025
21350171900.0 -0.9900478059 -0.2013470226
21400171600.0 -0.9915217004 -0.1871204352
21450171300.0 -0.9924606268 -0.1729136412
21500171000.0 -0.9923105523 -0.1564847696
21550170700.0 -0.9922460021 -0.1417610315
21600170400.0 -0.993579716 -0.125980718
21650170100.0 -0.9913716629 -0.1104262744
21700169800.0 -0.9890153756 -0.095244317
21750169500.0 -0.9885303002 -0.0793654236
21800169200.0 -0.9874090376 -0.0624008348
21850168900.0 -0.9873966556 -0.0450172835
21900168600.0 -0.9867860815 -0.0291690054
21950168300.0 -0.9848512967 -0.0135161899
22000168000.0 -0.9842867117 0.0010368372
22050167700.0 -0.9834532851 0.0156532028
22100167400.0 -0.9840434319 0.0311607174
22150167100.0 -0.9850000822 0.0464570998
22200166800.0 -0.985236055 0.0629043005
22250166500.0 -0.9845375563 0.0801766971
22300166200.0 -0.9838186849 0.096707867
22350165900.0 -0.9824465243 0.1128175431
22400165600.0 -0.980284092 0.1293420367
22450165300.0 -0.9796762956 0.1426317672
22500165000.0 -0.9770223978 0.1573238051
22550164700.0 -0.977199092 0.1730250758
22600164400.0 -0.9757659965 0.1885929584
22650164100.0 -0.9715506815 0.2033934848
22700163800.0 -0.9695917077 0.218973556
22750163500.0 -0.9663818769 0.2342511111
22800163200.0 -0.9636271023 0.247913672
22850162900.0 -0.9617586099 0.2608250957
22900162600.0 -0.9603053125 0.2741580061
22950162300.0 -0.9591435149 0.2871241954
23000162000.0 -0.957891726 0.2991252734
23050161700.0 -0.9559188021 0.3110997087
23100161400.0 -0.9537419998 0.3243701082
23150161100.0 -0.950328485 0.337057222
23200160800.0 -0.9478294062 0.3489390654
23250160500.0 -0.9451042702 0.3610501702
23300160200.0 -0.942627584 0.3722223108
23350159900.0 -0.9383193971 0.3860554151
23400159600.0 -0.9340340467 0.3991490218
23450159300.0 -0.9291724367 0.4129566302
23500159000.0 -0.9244392022 0.4256158862
23550158700.0 -0.9203260039 0.439063452
23600158400.0 -0.9146484388 0.452658183
23650158100.0 -0.9081903302 0.466828579
23700157800.0 -0.9007913611 0.4805571171
23750157500.0 -0.8918451801 0.4947473633
23800157200.0 -0.8830985158 0.5080995472
23850156900.0 -0.8750144499 0.5205807621
23900156600.0 -0.8646625384 0.5336912757
23950156300.0 -0.8560453022 0.5454541022
24000156000.0 -0.8468581195 0.5575925136
24050155700.0 -0.8372618296 0.568614367
24100155400.0 -0.8265805113 0.5816466926
24150155100.0 -0.8164399986 0.5930188919
24200154800.0 -0.8053603056 0.605085778
24250154500.0 -0.794077848 0.6163613398
24300154200.0 -0.7825797959 0.6280598864
24350153900.0 -0.770778192 0.6386476757
24400153600.0 -0.7584700244 0.6490303363
24450153300.0 -0.7471346509 0.6585005184
24500153000.0 -0.735313689 0.6682277718
24550152700.0 -0.7241882891 0.6783694645
24600152400.0 -0.7124875626 0.6875825861
24650152100.0 -0.6999910435 0.6958391817
