!Created with skrf (http://scikit-rf.org).
# Hz S RI R 50.0 
!freq ReS11 ImS11
300000.0 -0.9710494862 -0.123068455
50299700.0 -0.9999087241 0.0149007601
100299400.0 -0.9979306603 0.0279262626
150299100.0 -1.002618776 0.0448196354
200298800.0 -0.9995588524 0.0581177665
250298500.0 -0.9973887559 0.0715634869
300298200.0 -0.9858190676 0.0874388277
350297900.0 -0.9940580408 0.0984626823
400297600.0 -0.9932372913 0.1147864823
450297300.0 -0.9909398039 0.1285393373
500297000.0 -0.9894252206 0.1433112873
550296700.0 -0.9842209655 0.1558218444
600296400.0 -1.017395635 0.1892062009
650296100.0 -0.9822699357 0.185589102
700295800.0 -0.9792613874 0.1999036136
750295500.0 -0.9764018157 0.2137754757
800295200.0 -0.9729641232 0.2278338475
850294900.0 -0.9698002516 0.2419187944
900294600.0 -0.965798455 0.2556838027
950294300.0 -0.962293937 0.2692478069
1000294000.0 -0.9581285038 0.2832984537
1050293700.0 -0.9537198978 0.2969683333
1100293400.0 -0.9494297733 0.3115388645
1150293100.0 -0.9455910524 0.3234206537
1200292800.0 -0.9402947679 0.3378265504
1250292500.0 -0.9347670223 0.3511393821
1300292200.0 -0.9290331809 0.3643748955
1350291900.0 -0.9234925789 0.3784052676
1400291600.0 -0.9180297371 0.3915830802
1450291300.0 -0.9125800203 0.4038470465
1500291000.0 -0.9064593187 0.4172720943
1550290700.0 -0.8997929015 0.4306981272
1600290400.0 -0.8933509425 0.4436045949
1650290100.0 -0.8867571565 0.4557906687
1700289800.0 -0.8801053251 0.4690843375
1750289500.0 -0.8729284966 0.4814222979
1800289200.0 -0.8655135558 0.494208279
1850288900.0 -0.8590178388 0.5057642067
1900288600.0 -0.8508978089 0.5185985573
1950288300.0 -0.8428339047 0.5313713958
2000288000.0 -0.835487586 0.5428312869
2050287700.0 -0.8272968171 0.5554706453
2100287400.0 -0.8193241202 0.5662977474
2150287100.0 -0.8109779742 0.578631309
2200286800.0 -0.8028624697 0.5892730368
2250286500.0 -0.7940585443 0.6014296252
2300286200.0 -0.7851809898 0.6129207302
2350285900.0 -0.777076236 0.6233831852
2400285600.0 -0.7680340821 0.6342393035
2450285300.0 -0.7590795583 0.6450465736
2500285000.0 -0.749098079 0.6566246501
2550284700.0 -0.7402136199 0.6670321681
2600284400.0 -0.7310425816 0.6768545136
2650284100.0 -0.7223916809 0.687138533
2700283800.0 -0.7121949025 0.6975148291
2750283500.0 -0.7018316012 0.708509306
2800283200.0 -0.691787817 0.7179984216
2850282900.0 -0.6811391684 0.7281575156
2900282600.0 -0.6707125498 0.7379427762
2950282300.0 -0.6600688097 0.7472575275
3000282000.0 -0.6494728435 0.7568392162
3050281700.0 -0.6382901843 0.7658829801
3100281400.0 -0.626891579 0.7748466687
3150281100.0 -0.6155678451 0.783856002
3200280800.0 -0.604165642 0.7923016904
3250280500.0 -0.5931756007 0.8003997685
3300280200.0 -0.5814576791 0.808514807
3350279900.0 -0.5693067134 0.8166084387
3400279600.0 -0.5565821916 0.8244881296
3450279300.0 -0.5455271194 0.8315741787
3500279000.0 -0.5337231653 0.8384888382
3550278700.0 -0.5215618717 0.8456935318
3600278400.0 -0.5098480458 0.8523544657
3650278100.0 -0.4968410543 0.8600066799
3700277800.0 -0.4848460534 0.8663607619
3750277500.0 -0.4723763268 0.8731833934
3800277200.0 -0.459766308 0.8797461566
3850276900.0 -0.4477784757 0.8855672341
3900276600.0 -0.4368760308 0.891436624
3950276300.0 -0.4249733573 0.8972402984
4000276000.0 -0.4132407749 0.9030154273
4050275700.0 -0.4003640611 0.9092719053
4100275400.0 -0.3893106568 0.9146515242
4150275100.0 -0.3760371559 0.9204745203
4200274800.0 -0.3626269261 0.9265449718
4250274500.0 -0.3497924842 0.9314488597
4300274200.0 -0.336707914 0.937017372
4350273900.0 -0.3224623612 0.9420898406
4400273600.0 -0.3077221018 0.9471110027
4450273300.0 -0.2929260322 0.9523716792
4500273000.0 -0.2798574975 0.9564051161
4550272700.0 -0.2659986898 0.9606011612
4600272400.0 -0.2510298702 0.9647057246
4650272100.0 -0.2398229282 0.967858206
4700271800.0 -0.2266828846 0.9711819893
4750271500.0 -0.2151785476 0.9741125044
4800271200.0 -0.2031972541 0.9766994771
4850270900.0 -0.1892094965 0.9796053255
4900270600.0 -0.1753794042 0.9819664286
4950270300.0 -0.1609025813 0.9844158371
5000270000.0 -0.1463755631 0.9868083728
5050269700.0 -0.1328364773 0.9884089483
5100269400.0 -0.1188110767 0.9901626535
5150269100.0 -0.1048263303 0.9919134241
5200268800.0 -0.0913427143 0.992997742
5250268500.0 -0.0782927301 0.9935593462
5300268200.0 -0.0648788933 0.9943287501
5350267900.0 -0.0517551542 0.9951132303
5400267600.0 -0.0355271701 0.9965197922
5450267300.0 -0.022041005 0.9966840961
5500267000.0 -0.0068863433 0.9969996092
5550266700.0 0.0082345691 0.9971897398
5600266400.0 0.0240594565 0.9968865667
5650266100.0 0.0406882981 0.9969735224
5700265800.0 0.0547546212 0.9961345577
5750265500.0 0.0699699389 0.9951249165
5800265200.0 0.0834983535 0.9945785583
5850264900.0 0.096382577 0.993011907
5900264600.0 0.1131601223 0.9910053742
5950264300.0 0.1245315562 0.989746361
6000264000.0 0.1380033618 0.9879745917
6050263700.0 0.149893059 0.9863844821
6100263400.0 0.1617302584 0.9848255815
6150263100.0 0.176623659 0.9826214994
6200262800.0 0.1860830193 0.9810947518
6250262500.0 0.1987424975 0.9786376033
6300262200.0 0.2108814742 0.9762642763
6350261900.0 0.2236906122 0.9734390131
6400261600.0 0.2376149489 0.9702417634
6450261300.0 0.2487028758 0.9676994938
6500261000.0 0.2618892017 0.9640275637
6550260700.0 0.2750701069 0.9604369375
6600260400.0 0.2888068873 0.9561494015
6650260100.0 0.3029477523 0.9520109959
6700259800.0 0.3144465138 0.9474517357
6750259500.0 0.3284800207 0.9426118233
6800259200.0 0.3423356817 0.9374935734
6850258900.0 0.3549387989 0.9321218025
6900258600.0 0.3671017439 0.9268465632
6950258300.0 0.3796087206 0.9216033269
7000258000.0 0.3913311587 0.9162893856
7050257700.0 0.4031159787 0.9104519602
7100257400.0 0.4165576394 0.9040537152
7150257100.0 0.4274305467 0.89876748
7200256800.0 0.440672416 0.8921011495
7250256500.0 0.4533289099 0.8853967594
7300256200.0 0.4665347816 0.8789389616
7350255900.0 0.4788197194 0.8716425506
7400255600.0 0.493190093 0.8638587242
7450255300.0 0.5083385399 0.8547304959
7500255000.0 0.5210867609 0.8468815265
7550254700.0 0.5349211246 0.8379428829
7600254400.0 0.5477891372 0.8297306771
7650254100.0 0.5594275227 0.8219222584
7700253800.0 0.5715248899 0.8139165413
7750253500.0 0.582203505 0.8064530515
7800253200.0 0.5928051295 0.798310525
7850252900.0 0.6023558068 0.7911919429
7900252600.0 0.6139604629 0.7824677084
7950252300.0 0.6224224833 0.7760653846
8000252000.0 0.6322803937 0.7686052098
8050251700.0 0.6426235683 0.7603577877
8100251400.0 0.6527225981 0.7525147282
8150251100.0 0.6625801436 0.7439544537
8200250800.0 0.6719716687 0.7358161324
8250250500.0 0.6807328284 0.7279552018
8300250200.0 0.6899830221 0.7197086777
8350249900.0 0.6993386812 0.7107689505
8400249600.0 0.7072441703 0.7028652971
8450249300.0 0.716029113 0.6939961096
8500249000.0 0.7246011152 0.6852434603
8550248700.0 0.7327354192 0.6761686293
8600248400.0 0.7412117786 0.6666955075
8650248100.0 0.7487194915 0.6573730913
8700247800.0 0.7580718576 0.6462176346
8750247500.0 0.76625376 0.6361707096
8800247200.0 0.7742751393 0.6258039656
8850246900.0 0.7831203924 0.6146091069
8900246600.0 0.7914692869 0.6029452045
8950246300.0 0.8004394731 0.5904323162
9000246000.0 0.8091350727 0.5785337047
9050245700.0 0.8176295876 0.566280423
9100245400.0 0.8259208186 0.5541639059
9150245100.0 0.8344920157 0.5412182087
9200244800.0 0.8437567326 0.5270565158
9250244500.0 0.8531908054 0.5122119482
9300244200.0 0.8612670178 0.4986314626
9350243900.0 0.8689280806 0.4854580113
9400243600.0 0.8754708969 0.4739140389
9450243300.0 0.8810947553 0.4636190987
9500243000.0 0.8870394913 0.4520036706
9550242700.0 0.8911544406 0.4443694211
9600242400.0 0.8954407135 0.4367491731
9650242100.0 0.8995025186 0.4297956494
9700241800.0 0.9047571262 0.4210474074
9750241500.0 0.9087677585 0.4137557822
9800241200.0 0.9137651886 0.4041836249
9850240900.0 0.9197838541 0.3923719895
9900240600.0 0.925690786 0.3803795692
9950240300.0 0.9327893172 0.3636707219
10000240000.0 0.9378046151 0.3517635813
10050239700.0 0.9439939056 0.3351948109
10100239400.0 0.9493390903 0.3187603544
10150239100.0 0.9541420051 0.3032289048
10200238800.0 0.9583486092 0.2876113197
10250238500.0 0.9616898422 0.2742385285
10300238200.0 0.964615468 0.2604393517
10350237900.0 0.9675691053 0.2468378185
10400237600.0 0.9701982407 0.2333343272
10450237300.0 0.9728227545 0.2196883437
10500237000.0 0.974951155 0.2074081762
10550236700.0 0.9772445614 0.1931291611
10600236400.0 0.97975824 0.1789363734
10650236100.0 0.9812216932 0.165104124
10700235800.0 0.9839569999 0.1523801421
10750235500.0 0.9861450406 0.1386029863
10800235200.0 0.9878240695 0.1241426474
10850234900.0 0.9900174309 0.1095126255
10900234600.0 0.9920536244 0.0945480692
10950234300.0 0.9938323312 0.0811268978
11000234000.0 0.9956297763 0.0654234272
11050233700.0 0.9974235723 0.048602576
11100233400.0 0.9990729402 0.031120862
11150233100.0 1.00020505 0.0142184607
11200232800.0 1.00097781 -0.00169224
11250232500.0 1.001897523 -0.0195523511
11300232200.0 1.002055992 -0.0390034737
11350231900.0 1.001815276 -0.0537952994
11400231600.0 1.001463081 -0.0702823894
11450231300.0 1.000864168 -0.0855215378
11500231000.0 0.9996356351 -0.1021390537
11550230700.0 0.997815043 -0.1155923075
11600230400.0 0.9971198704 -0.1277049744
11650230100.0 0.9947009653 -0.1405877932
11700229800.0 0.9924397861 -0.1554719423
11750229500.0 0.9901771216 -0.1691789677
11800229200.0 0.9874208634 -0.1821972058
11850228900.0 0.983286985 -0.1941709264
11900228600.0 0.9797219698 -0.2039008892
11950228300.0 0.9763407845 -0.2138212963
12000228000.0 0.9736791619 -0.2220113208
12050227700.0 0.969838049 -0.2351145711
12100227400.0 0.9665494663 -0.2458405774
12150227100.0 0.961675065 -0.2623486035
12200226800.0 0.9577994316 -0.2741464214
12250226500.0 0.9537514894 -0.2866250012
12300226200.0 0.9487819045 -0.2983585816
12350225900.0 0.9444180016 -0.3126834821
12400225600.0 0.9404990844 -0.3246244061
12450225300.0 0.9354270806 -0.33778912
12500225000.0 0.9302522203 -0.3523974908
12550224700.0 0.9248531309 -0.366180341
12600224400.0 0.9198765972 -0.3785551764
12650224100.0 0.913974233 -0.3929343176
12700223800.0 0.9086156415 -0.4056090473
12750223500.0 0.9032069262 -0.41881137
12800223200.0 0.8978141578 -0.4311134351
12850222900.0 0.892496232 -0.4433461012
12900222600.0 0.8869282235 -0.4553354489
12950222300.0 0.8808172174 -0.4682884402
13000222000.0 0.8750373692 -0.4791971595
13050221700.0 0.8681173858 -0.4924877097
13100221400.0 0.861519895 -0.5047250365
13150221100.0 0.8546867057 -0.517031659
13200220800.0 0.8474500349 -0.5284356475
13250220500.0 0.8402935021 -0.5407627708
13300220200.0 0.8324565281 -0.5516622112
13350219900.0 0.8244637622 -0.5635444086
13400219600.0 0.8161787774 -0.5754963774
13450219300.0 0.8068555416 -0.5883201502
13500219000.0 0.7967245358 -0.6019299158
13550218700.0 0.7871490452 -0.6139474116
13600218400.0 0.7770374399 -0.6257346171
13650218100.0 0.7675549971 -0.6366689802
13700217800.0 0.7571824422 -0.6481910176
13750217500.0 0.7474606358 -0.659419752
13800217200.0 0.7363458577 -0.6700804412
13850216900.0 0.7249151605 -0.6813646323
13900216600.0 0.7162463213 -0.6908303692
13950216300.0 0.7056297445 -0.7003301932
14000216000.0 0.6947858264 -0.709515042
14050215700.0 0.6857608883 -0.7176750361
14100215400.0 0.6769242908 -0.7262962318
14150215100.0 0.6673936519 -0.7351570706
14200214800.0 0.6579727694 -0.7440297397
14250214500.0 0.64754715 -0.7534830035
14300214200.0 0.6370319523 -0.7628748846
14350213900.0 0.6256527786 -0.7726597346
14400213600.0 0.6143977091 -0.7826360394
14450213300.0 0.6013625432 -0.7923385658
14500213000.0 0.5882923812 -0.8023030389
14550212700.0 0.5758915229 -0.8119017297
14600212400.0 0.5633393349 -0.8210145498
14650212100.0 0.5506974342 -0.8291289651
14700211800.0 0.5370184101 -0.8389268147
14750211500.0 0.5249938493 -0.847253527
14800211200.0 0.5121808696 -0.8554023055
14850210900.0 0.4997887673 -0.862931924
14900210600.0 0.4865283323 -0.8711725747
14950210300.0 0.4732438741 -0.8787254742
15000210000.0 0.4605574772 -0.8855180362
15050209700.0 0.4484166321 -0.8914728395
15100209400.0 0.4355588713 -0.897389516
15150209100.0 0.4226033957 -0.9029607571
15200208800.0 0.4102503818 -0.9082134541
15250208500.0 0.3997577313 -0.9126460003
15300208200.0 0.3876668404 -0.917076755
15350207900.0 0.3744097183 -0.9222824478
15400207600.0 0.3599999688 -0.9279075317
15450207300.0 0.3450050542 -0.9322913436
15500207000.0 0.3309492576 -0.9373093554
15550206700.0 0.3154030446 -0.9421022522
15600206400.0 0.2994701063 -0.9467094586
15650206100.0 0.2839069714 -0.9510321417
15700205800.0 0.2700334891 -0.9544213794
15750205500.0 0.2563427988 -0.9577956337
15800205200.0 0.2422983397 -0.9611917581
15850204900.0 0.2281212262 -0.9646019886
15900204600.0 0.2129439445 -0.9684054742
15950204300.0 0.1984270996 -0.9713935576
16000204000.0 0.1842696433 -0.9746342251
16050203700.0 0.1691362679 -0.9775676412
16100203400.0 0.1543879711 -0.9796737266
16150203100.0 0.1394698176 -0.981865845
16200202800.0 0.1253915131 -0.9842253011
16250202500.0 0.1103966907 -0.9854720781
16300202200.0 0.0946120712 -0.9874000258
16350201900.0 0.0799156393 -0.9891639549
16400201600.0 0.0652350975 -0.9901106728
16450201300.0 0.0495599287 -0.9913413214
16500201000.0 0.0323754491 -0.9919557759
16550200700.0 0.0163024955 -0.992339476
16600200400.0 0.0005513744 -0.9926508958
16650200100.0 -0.0156355572 -0.9926352357
16700199800.0 -0.0319290882 -0.9924807668
16750199500.0 -0.0512783562 -0.9914108931
16800199200.0 -0.0668825672 -0.9907361258
16850198900.0 -0.0830500585 -0.9897605445
16900198600.0 -0.096575675 -0.9887340953
16950198300.0 -0.1106722887 -0.9876431005
17000198000.0 -0.1232510746 -0.985785938
17050197700.0 -0.1362590654 -0.9840170785
17100197400.0 -0.1493472402 -0.982088323
17150197100.0 -0.1620415416 -0.9803944441
17200196800.0 -0.1739352444 -0.9779401185
17250196500.0 -0.1873872056 -0.975660946
17300196200.0 -0.1993742993 -0.9729255254
17350195900.0 -0.2114989378 -0.9706214468
17400195600.0 -0.2234021447 -0.9680544655
17450195300.0 -0.2361161861 -0.9653329932
17500195000.0 -0.2493677862 -0.961894447
17550194700.0 -0.2632988881 -0.9584455461
17600194400.0 -0.2772992567 -0.9545057053
17650194100.0 -0.2906203923 -0.9502214078
17700193800.0 -0.3032903006 -0.9458836296
17750193500.0 -0.3180555383 -0.9417429819
17800193200.0 -0.3319286253 -0.9362275976
17850192900.0 -0.3467614711 -0.9315058083
17900192600.0 -0.3620306645 -0.9248536166
17950192300.0 -0.3774617606 -0.917779064
18000192000.0 -0.3922215038 -0.9105709312
18050191700.0 -0.4061021968 -0.9023756793
18100191400.0 -0.420124455 -0.8949184621
18150191100.0 -0.4350332594 -0.8869138488
18200190800.0 -0.4519599096 -0.8778185948
18250190500.0 -0.4688164446 -0.8685186135
18300190200.0 -0.4843501319 -0.8598301107
18350189900.0 -0.499410872 -0.851329271
18400189600.0 -0.5136946102 -0.8424124944
18450189300.0 -0.5277697172 -0.8345280918
18500189000.0 -0.5405929552 -0.8267514098
18550188700.0 -0.5534407899 -0.8191181142
18600188400.0 -0.5656561359 -0.8120680105
18650188100.0 -0.57665019 -0.8055060917
18700187800.0 -0.5878078351 -0.7987087347
18750187500.0 -0.5985369199 -0.7923309387
18800187200.0 -0.6094218625 -0.7852893559
18850186900.0 -0.619643726 -0.7782308842
18900186600.0 -0.6299265772 -0.770885975
18950186300.0 -0.6400445963 -0.7631841944
19000186000.0 -0.6477446684 -0.7568020527
19050185700.0 -0.6569360721 -0.7497166234
19100185400.0 -0.6668145724 -0.7414794378
19150185100.0 -0.6768540518 -0.7330923363
19200184800.0 -0.6858508771 -0.724766514
19250184500.0 -0.6964522886 -0.7154841245
19300184200.0 -0.7084787475 -0.7059019639
19350183900.0 -0.7193368793 -0.696338324
19400183600.0 -0.7288390867 -0.6862283002
19450183300.0 -0.7376423917 -0.6762428505
19500183000.0 -0.7462433402 -0.6659736394
19550182700.0 -0.7551909263 -0.6551260202
19600182400.0 -0.7661161454 -0.6432920759
19650182100.0 -0.7765225499 -0.6311938269
19700181800.0 -0.7870495865 -0.6181371561
19750181500.0 -0.7973894619 -0.6041115036
19800181200.0 -0.8075341254 -0.5891085958
19850180900.0 -0.8171025172 -0.5737637263
19900180600.0 -0.8246471959 -0.5591909216
19950180300.0 -0.8339213454 -0.5431243561
20000180000.0 -0.8230346506 -0.5460990587
20050179700.0 -0.8308973151 -0.534424964
20100179400.0 -0.8396350085 -0.5212398367
20150179100.0 -0.847907123 -0.50971726
20200178800.0 -0.8558210253 -0.4979151521
20250178500.0 -0.865228962 -0.4849106772
20300178200.0 -0.8753010179 -0.4716418165
20350177900.0 -0.8845855996 -0.4577852626
20400177600.0 -0.8936216155 -0.4431357593
20450177300.0 -0.9017372492 -0.4289861554
20500177000.0 -0.9099247541 -0.4152719709
20550176700.0 -0.9180752403 -0.4019458656
20600176400.0 -0.9251428339 -0.3887483939
20650176100.0 -0.9309343498 -0.3763323561
20700175800.0 -0.9381576338 -0.3647181955
20750175500.0 -0.9447479985 -0.3526572947
20800175200.0 -0.9490638352 -0.3418448245
20850174900.0 -0.9535102717 -0.3321653605
20900174600.0 -0.9580474725 -0.3211093088
20950174300.0 -0.9616672153 -0.3106307115
21000174000.0 -0.9633899907 -0.2989268305
21050173700.0 -0.9655637955 -0.2892494969
21100173400.0 -0.9686452886 -0.2788257329
21150173100.0 -0.9731106843 -0.2672247131
21200172800.0 -0.9768550226 -0.2535050657
21250172500.0 -0.9807634367 -0.2400086175
21300172200.0 -0.9840347331 -0.2256037556
21350171900.0 -0.9862342292 -0.2115534603
21400171600.0 -0.9886413162 -0.1974440656
21450171300.0 -0.9886805516 -0.1831959794
21500171000.0 -0.9891496614 -0.1684677362
21550170700.0 -0.9901119277 -0.1532812354
21600170400.0 -0.9905059098 -0.1378124953
21650170100.0 -0.9904317701 -0.1215723518
21700169800.0 -0.99049125 -0.1072342188
21750169500.0 -0.9894723664 -0.0897352415
21800169200.0 -0.991210164 -0.0752235468
21850168900.0 -0.9912541855 -0.0569469959
21900168600.0 -0.9890322107 -0.0406183169
21950168300.0 -0.9897137961 -0.0260431698
22000168000.0 -0.9891286046 -0.0104233687
22050167700.0 -0.9901782838 0.0040596526
22100167400.0 -0.9906201938 0.0196939549
22150167100.0 -0.9915578182 0.0357705041
22200166800.0 -0.9921041532 0.0525673455
22250166500.0 -0.9912445102 0.0693208704
22300166200.0 -0.9908155023 0.0852693005
22350165900.0 -0.9897180136 0.1022284172
22400165600.0 -0.9880369194 0.1186192421
22450165300.0 -0.9861824466 0.1330180141
22500165000.0 -0.9850328283 0.1461728275
22550164700.0 -0.9836920601 0.1631249685
22600164400.0 -0.9816108466 0.1804035438
22650164100.0 -0.9789282785 0.1955113238
22700163800.0 -0.9753398755 0.2115439007
22750163500.0 -0.9727378652 0.2264308642
22800163200.0 -0.9688092491 0.2394532435
22850162900.0 -0.9667848397 0.2531405857
22900162600.0 -0.9646652909 0.2670699678
22950162300.0 -0.9631622304 0.2806577209
23000162000.0 -0.9614071651 0.2933943743
23050161700.0 -0.9584083883 0.3069003338
23100161400.0 -0.9558135888 0.3202758705
23150161100.0 -0.9525858159 0.3334433716
23200160800.0 -0.949329459 0.3460261072
23250160500.0 -0.9473746656 0.3590638232
23300160200.0 -0.9443283061 0.3707863187
23350159900.0 -0.9408187051 0.3852662148
23400159600.0 -0.9355797597 0.3986170014
23450159300.0 -0.9300129574 0.4123710492
23500159000.0 -0.9248395019 0.4266577351
23550158700.0 -0.9199544084 0.4400495988
23600158400.0 -0.9138709641 0.4544234623
23650158100.0 -0.9067988543 0.4690165383
23700157800.0 -0.8981316718 0.4833956839
23750157500.0 -0.8887520056 0.4973312002
23800157200.0 -0.8785086695 0.5112218368
23850156900.0 -0.8692295006 0.523648563
23900156600.0 -0.8589701136 0.5363623173
23950156300.0 -0.8488110858 0.5497351199
24000156000.0 -0.839646842 0.5615016613
24050155700.0 -0.8287171506 0.5735452279
24100155400.0 -0.818594311 0.5863454319
24150155100.0 -0.8077192745 0.5981258916
24200154800.0 -0.7968497474 0.6098241633
24250154500.0 -0.7851686944 0.6226346533
24300154200.0 -0.7740352794 0.6345974507
24350153900.0 -0.7618429074 0.6457145497
24400153600.0 -0.7495193117 0.6563253512
24450153300.0 -0.7370676258 0.666477535
24500153000.0 -0.7252615012 0.6771033655
24550152700.0 -0.7142311315 0.6869170481
24600152400.0 -0.7021651099 0.6962273263
24650152100.0 -0.6901213112 0.7047482074
