!Created with skrf (http://scikit-rf.org).
# Hz S RI R 50.0 
!freq ReS11 ImS11
300000.0 -0.9747325273 -0.1246850645
50299700.0 -0.9997948552 0.0149054216
100299400.0 -0.9978690355 0.027849247
150299100.0 -1.002744008 0.0448835981
200298800.0 -0.9996340181 0.0580594624
250298500.0 -0.9975032348 0.0716336071
300298200.0 -0.9857963333 0.0874679547
350297900.0 -0.9939483045 0.0982023991
400297600.0 -0.9931702339 0.1148123258
450297300.0 -0.9909507885 0.1286137741
500297000.0 -0.9893714056 0.1434064868
550296700.0 -0.9841246155 0.1558517188
600296400.0 -1.017299007 0.1889785167
650296100.0 -0.982187146 0.1856183335
700295800.0 -0.979238328 0.2000328196
750295500.0 -0.9761306472 0.2139596254
800295200.0 -0.9729089586 0.2279796982
850294900.0 -0.9697133957 0.2417461251
900294600.0 -0.9656647678 0.2554023577
950294300.0 -0.9621043493 0.2692143727
1000294000.0 -0.9582447778 0.2831917391
1050293700.0 -0.9536511365 0.2968287424
1100293400.0 -0.9493345572 0.3114672352
1150293100.0 -0.9455748785 0.3232877363
1200292800.0 -0.9401425455 0.3375761103
1250292500.0 -0.9347836028 0.3511270402
1300292200.0 -0.9292162381 0.3644594935
1350291900.0 -0.9236325502 0.3784108186
1400291600.0 -0.9178630529 0.3915019643
1450291300.0 -0.9124791224 0.4039892589
1500291000.0 -0.9064283383 0.4172738037
1550290700.0 -0.8996162453 0.4305889021
1600290400.0 -0.893445705 0.443595329
1650290100.0 -0.8869363982 0.4557802417
1700289800.0 -0.8799560155 0.4691650362
1750289500.0 -0.8730295177 0.4814106559
1800289200.0 -0.8657492233 0.4942707607
1850288900.0 -0.8590756777 0.5057682816
1900288600.0 -0.8511424157 0.5187018249
1950288300.0 -0.8428101271 0.5310453752
2000288000.0 -0.8354314234 0.542744737
2050287700.0 -0.8270916265 0.5551639609
2100287400.0 -0.8193708854 0.5663117354
2150287100.0 -0.8108748522 0.578475313
2200286800.0 -0.8032440073 0.5892772131
2250286500.0 -0.794060648 0.6012331577
2300286200.0 -0.7852964419 0.612879146
2350285900.0 -0.7769839882 0.6232675509
2400285600.0 -0.7681291427 0.6343038513
2450285300.0 -0.7590670114 0.6449675904
2500285000.0 -0.7492384591 0.6565827839
2550284700.0 -0.7403302305 0.6670269358
2600284400.0 -0.7310124206 0.6769116737
2650284100.0 -0.7222453749 0.6871644557
2700283800.0 -0.7119182433 0.6974905408
2750283500.0 -0.7015838147 0.7082876494
2800283200.0 -0.6916478408 0.7178533438
2850282900.0 -0.6810087877 0.7281182791
2900282600.0 -0.6706423019 0.7375297294
2950282300.0 -0.6602551056 0.7474251067
3000282000.0 -0.6495828089 0.7565154673
3050281700.0 -0.6383746132 0.7658271866
3100281400.0 -0.6268567953 0.7751078488
3150281100.0 -0.6157772214 0.7838117907
3200280800.0 -0.6042364437 0.7921339127
3250280500.0 -0.5931160029 0.8002718158
3300280200.0 -0.5814568531 0.8083932003
3350279900.0 -0.5693604982 0.8165179604
3400279600.0 -0.5565736187 0.8246152706
3450279300.0 -0.5455238506 0.8316171706
3500279000.0 -0.5339355521 0.8384925632
3550278700.0 -0.5215944277 0.8456657453
3600278400.0 -0.5099731535 0.8524353604
3650278100.0 -0.4969864212 0.8599736851
3700277800.0 -0.4846910858 0.8663636698
3750277500.0 -0.4721692643 0.8730331316
3800277200.0 -0.4598347199 0.8794986184
3850276900.0 -0.4476524812 0.8854153426
3900276600.0 -0.4366790572 0.8912565238
3950276300.0 -0.4247943785 0.8971086284
4000276000.0 -0.4130779449 0.9028664034
4050275700.0 -0.4005374329 0.9090869023
4100275400.0 -0.389536763 0.9143098721
4150275100.0 -0.3762975703 0.9205039897
4200274800.0 -0.3627068738 0.9258058917
4250274500.0 -0.3501574063 0.9315013559
4300274200.0 -0.3366105483 0.9366262249
4350273900.0 -0.3223414957 0.9421215729
4400273600.0 -0.3077341954 0.9471804102
4450273300.0 -0.2929244832 0.9523632134
4500273000.0 -0.2797296563 0.9563326315
4550272700.0 -0.26604495 0.9606675027
4600272400.0 -0.25112911 0.9645265206
4650272100.0 -0.239777025 0.9678005946
4700271800.0 -0.2269296824 0.9711350303
4750271500.0 -0.2153734604 0.9739927452
4800271200.0 -0.2029616716 0.9766176853
4850270900.0 -0.1894555066 0.9793870652
4900270600.0 -0.1754399193 0.9818708761
4950270300.0 -0.1610922347 0.9844667024
5000270000.0 -0.1464343483 0.9866118116
5050269700.0 -0.1329461569 0.9881260836
5100269400.0 -0.1186794384 0.9898339432
5150269100.0 -0.1047204376 0.9918818544
5200268800.0 -0.0915378532 0.9928165068
5250268500.0 -0.078308707 0.9935721351
5300268200.0 -0.0645269003 0.994721117
5350267900.0 -0.0516982108 0.9951174719
5400267600.0 -0.03551365 0.9961778445
5450267300.0 -0.0222393958 0.9966284964
5500267000.0 -0.0068840768 0.9970702473
5550266700.0 0.008195317 0.9971493891
5600266400.0 0.0238518355 0.9970760457
5650266100.0 0.0408220974 0.9969869096
5700265800.0 0.0549117159 0.9958570218
5750265500.0 0.0698629252 0.9952941864
5800265200.0 0.0831239221 0.9939889886
5850264900.0 0.0964465772 0.9931622931
5900264600.0 0.1131391427 0.9912767422
5950264300.0 0.1245250548 0.9898524187
6000264000.0 0.1377473178 0.9876564994
6050263700.0 0.149679386 0.9867137615
6100263400.0 0.1615731278 0.9850666313
6150263100.0 0.1764283472 0.9825349298
6200262800.0 0.1858180772 0.9809155934
6250262500.0 0.1985928288 0.9787598246
6300262200.0 0.2108636492 0.9761610583
6350261900.0 0.2234396154 0.9734789554
6400261600.0 0.2374382313 0.9701416905
6450261300.0 0.2483411462 0.9677068713
6500261000.0 0.261822288 0.9642324845
6550260700.0 0.2753586177 0.9604998948
6600260400.0 0.2882498285 0.9560650676
6650260100.0 0.3029650534 0.9517661583
6700259800.0 0.3148909875 0.9475169258
6750259500.0 0.3285259843 0.9425949387
6800259200.0 0.3418896452 0.9372743689
6850258900.0 0.3543029485 0.9320163426
6900258600.0 0.3670717514 0.9267775229
6950258300.0 0.3795893084 0.9216775289
7000258000.0 0.3911671586 0.9162957274
7050257700.0 0.4030650044 0.9104822585
7100257400.0 0.41643811 0.9041671478
7150257100.0 0.4273422237 0.8987287341
7200256800.0 0.4402966266 0.8922835003
7250256500.0 0.4531244741 0.8856097872
7300256200.0 0.4659433102 0.8788453857
7350255900.0 0.4785462342 0.8717099836
7400255600.0 0.4926818532 0.8639309622
7450255300.0 0.5085565333 0.85474232
7500255000.0 0.5210568309 0.8471290428
7550254700.0 0.535132845 0.838056116
7600254400.0 0.5477225639 0.8300138108
7650254100.0 0.5594031717 0.8218772196
7700253800.0 0.5712447997 0.8140738525
7750253500.0 0.5820672753 0.8064295524
7800253200.0 0.592637498 0.7984448967
7850252900.0 0.6023686295 0.7912221382
7900252600.0 0.6139392173 0.782523274
7950252300.0 0.6222028769 0.7761542013
8000252000.0 0.6321941868 0.7686110521
8050251700.0 0.6425627367 0.7604767457
8100251400.0 0.6520629227 0.7525494802
8150251100.0 0.6624808408 0.7439813806
8200250800.0 0.6721026101 0.7358526915
8250250500.0 0.6808628364 0.7280486828
8300250200.0 0.6898120642 0.7196490787
8350249900.0 0.6991239893 0.7107190055
8400249600.0 0.7069609589 0.7028618674
8450249300.0 0.715961952 0.6942316872
8500249000.0 0.7245503375 0.68525815
8550248700.0 0.7326750777 0.6764035158
8600248400.0 0.7410335095 0.6666484942
8650248100.0 0.7486665233 0.6574302673
8700247800.0 0.7578148331 0.6463075086
8750247500.0 0.7663062606 0.6363153128
8800247200.0 0.7741156775 0.6260494869
8850246900.0 0.7828804448 0.6146317173
8900246600.0 0.7912623803 0.6033134651
8950246300.0 0.800308472 0.5906604053
9000246000.0 0.8090749366 0.5786363819
9050245700.0 0.8175146005 0.5661271236
9100245400.0 0.8258601129 0.5541506512
9150245100.0 0.834663426 0.5413628016
9200244800.0 0.844015141 0.5268813938
9250244500.0 0.8530227799 0.51251768
9300244200.0 0.8610314348 0.4990404488
9350243900.0 0.8686226064 0.4857651003
9400243600.0 0.8752946849 0.4741563843
9450243300.0 0.8806531202 0.4638768238
9500243000.0 0.8869103343 0.4521126062
9550242700.0 0.8911578071 0.4447486011
9600242400.0 0.8954091146 0.4371361052
9650242100.0 0.899604299 0.4299647396
9700241800.0 0.9045591627 0.4213918859
9750241500.0 0.9084333127 0.4138987317
9800241200.0 0.9136782251 0.4044357241
9850240900.0 0.9199006388 0.3926240712
9900240600.0 0.9258191811 0.3804879251
9950240300.0 0.9328265579 0.3638449998
10000240000.0 0.9378706189 0.3516897815
10050239700.0 0.9436828072 0.3353052923
10100239400.0 0.9495187589 0.3190205397
10150239100.0 0.9540230124 0.3034791919
10200238800.0 0.9581280419 0.2879458732
10250238500.0 0.9615034043 0.2744393835
10300238200.0 0.9646869186 0.2605163995
10350237900.0 0.967491242 0.24688911
10400237600.0 0.9699984758 0.2337358582
10450237300.0 0.9727754133 0.2198255275
10500237000.0 0.9748576684 0.2080486447
10550236700.0 0.9773994741 0.1929156263
10600236400.0 0.9794300946 0.1792476951
10650236100.0 0.9817931923 0.1644126347
10700235800.0 0.983565558 0.1526655796
10750235500.0 0.9859093451 0.138799218
10800235200.0 0.9881796938 0.1244815723
10850234900.0 0.9899854164 0.1096190922
10900234600.0 0.9923879693 0.0946304572
10950234300.0 0.9938443754 0.0811921316
11000234000.0 0.9955504151 0.0655637209
11050233700.0 0.9975252431 0.0488212323
11100233400.0 0.9987583032 0.0310954279
11150233100.0 1.000234997 0.0140397271
11200232800.0 1.000791747 -0.0015436089
11250232500.0 1.001846147 -0.0201459922
11300232200.0 1.00217525 -0.0383012385
11350231900.0 1.001884517 -0.0544298792
11400231600.0 1.001596153 -0.070359095
11450231300.0 1.000999325 -0.0862888431
11500231000.0 1.000099978 -0.1018971806
11550230700.0 0.9980312833 -0.1144791831
11600230400.0 0.9973918548 -0.1280907509
11650230100.0 0.9948300656 -0.1398926346
11700229800.0 0.9923693861 -0.1545142575
11750229500.0 0.9898962292 -0.1687479465
11800229200.0 0.9871408382 -0.18190036
11850228900.0 0.9836025438 -0.1938262299
11900228600.0 0.979729231 -0.2035794882
11950228300.0 0.9764849402 -0.2132473304
12000228000.0 0.9735788507 -0.2220199702
12050227700.0 0.9699419421 -0.2347717416
12100227400.0 0.9672577221 -0.2448553094
12150227100.0 0.9617479483 -0.2622668832
12200226800.0 0.9579150817 -0.2733702324
12250226500.0 0.9537686503 -0.2864634764
12300226200.0 0.9488154846 -0.2989731279
12350225900.0 0.9444526277 -0.3127894994
12400225600.0 0.9402145144 -0.3246168716
12450225300.0 0.9356275858 -0.3369349272
12500225000.0 0.9303928448 -0.3523554208
12550224700.0 0.9247730361 -0.3659132897
12600224400.0 0.9197390347 -0.3783980557
12650224100.0 0.9139129901 -0.3927305506
12700223800.0 0.9087096229 -0.4057317359
12750223500.0 0.9030118318 -0.4188499465
12800223200.0 0.8978668732 -0.4313274779
12850222900.0 0.8926278145 -0.4434166629
12900222600.0 0.8869831402 -0.4556351268
12950222300.0 0.8808475511 -0.4679217279
13000222000.0 0.8748630419 -0.4801274915
13050221700.0 0.8684995906 -0.4926405185
13100221400.0 0.8614232551 -0.5050312934
13150221100.0 0.8545522482 -0.5173485796
13200220800.0 0.8475207036 -0.5281798785
13250220500.0 0.8405146885 -0.5405532161
13300220200.0 0.8328280158 -0.5513542875
13350219900.0 0.8245002732 -0.5634313731
13400219600.0 0.8159264304 -0.5752160514
13450219300.0 0.8069960426 -0.5880173912
13500219000.0 0.7972628211 -0.6013657055
13550218700.0 0.7871900126 -0.6136759784
13600218400.0 0.7772183621 -0.6261041025
13650218100.0 0.7678697156 -0.637125704
13700217800.0 0.757609814 -0.6481823799
13750217500.0 0.7475519213 -0.6585997094
13800217200.0 0.7369923107 -0.6706009534
13850216900.0 0.7252747516 -0.6810749315
13900216600.0 0.7159558869 -0.6904168492
13950216300.0 0.7054979896 -0.6997905525
14000216000.0 0.6958286952 -0.7088118505
14050215700.0 0.6865918711 -0.7170475834
14100215400.0 0.6767613467 -0.7266885988
14150215100.0 0.6675575102 -0.7350761847
14200214800.0 0.6581442214 -0.7438473354
14250214500.0 0.647498391 -0.7533731865
14300214200.0 0.637146697 -0.763040966
14350213900.0 0.6259870673 -0.7725869977
14400213600.0 0.6145987206 -0.7821126531
14450213300.0 0.6013847169 -0.7922218389
14500213000.0 0.5884490078 -0.8022727272
14550212700.0 0.5758993417 -0.8119125486
14600212400.0 0.5633651796 -0.820184264
14650212100.0 0.5509444658 -0.8290115904
14700211800.0 0.5374555102 -0.838770328
14750211500.0 0.5250056379 -0.8471981795
14800211200.0 0.512388386 -0.8553086487
14850210900.0 0.500094957 -0.8630759285
14900210600.0 0.4867614098 -0.8709092308
14950210300.0 0.473638482 -0.8785073958
15000210000.0 0.4607481689 -0.8853338254
15050209700.0 0.4487059728 -0.8914179102
15100209400.0 0.435880702 -0.8970775411
15150209100.0 0.4236252527 -0.9023649742
15200208800.0 0.4109158622 -0.9079800127
15250208500.0 0.4000689912 -0.9121966442
15300208200.0 0.3880317715 -0.9166137644
15350207900.0 0.3753380987 -0.9212959455
15400207600.0 0.3589929564 -0.9265483619
15450207300.0 0.3452336195 -0.9327704526
15500207000.0 0.3306617822 -0.9372732254
15550206700.0 0.3160121408 -0.9420255552
15600206400.0 0.2996427669 -0.9461604686
15650206100.0 0.2840436467 -0.9508157522
15700205800.0 0.2705377617 -0.9543630019
15750205500.0 0.2565290851 -0.9576075415
15800205200.0 0.2424909058 -0.961053123
15850204900.0 0.2284885878 -0.9645835905
15900204600.0 0.213575408 -0.9681255691
15950204300.0 0.1989573138 -0.9713747213
16000204000.0 0.1847474094 -0.9741785823
16050203700.0 0.1697558352 -0.9772204539
16100203400.0 0.1544237323 -0.9797308905
16150203100.0 0.1400872776 -0.9820961465
16200202800.0 0.1254147624 -0.9840615497
16250202500.0 0.1106736594 -0.9857733295
16300202200.0 0.0950950021 -0.9875480634
16350201900.0 0.0801268659 -0.9892765568
16400201600.0 0.0655106224 -0.9900176733
16450201300.0 0.049886672 -0.9911920992
16500201000.0 0.03274934 -0.9920670801
16550200700.0 0.0167200402 -0.9924974908
16600200400.0 0.0007886246 -0.9925818882
16650200100.0 -0.0151971279 -0.9927213649
16700199800.0 -0.0319787177 -0.99231842
16750199500.0 -0.0504179598 -0.9915478189
16800199200.0 -0.0667674329 -0.9910904154
16850198900.0 -0.0823582219 -0.9892257095
16900198600.0 -0.0962382345 -0.9884907804
16950198300.0 -0.1102207568 -0.9868897142
17000198000.0 -0.1231571584 -0.9854643288
17050197700.0 -0.1359695681 -0.9837441065
17100197400.0 -0.1489701429 -0.9819117333
17150197100.0 -0.1616874945 -0.9797081222
17200196800.0 -0.1741495314 -0.9777842664
17250196500.0 -0.1872078876 -0.9751852758
17300196200.0 -0.1993394197 -0.973166272
17350195900.0 -0.2112946747 -0.9704951261
17400195600.0 -0.2232654272 -0.968198218
17450195300.0 -0.2360049007 -0.9653218977
17500195000.0 -0.2494478571 -0.9621110866
17550194700.0 -0.2629561532 -0.9585072294
17600194400.0 -0.2768948953 -0.9543193578
17650194100.0 -0.290409613 -0.9505679996
17700193800.0 -0.3033569494 -0.9462260061
17750193500.0 -0.3175480377 -0.9415549923
17800193200.0 -0.3316346995 -0.9363517434
17850192900.0 -0.3465700905 -0.9310357192
17900192600.0 -0.3617247242 -0.9247669998
17950192300.0 -0.3770360287 -0.9178637258
18000192000.0 -0.3917505806 -0.910468208
18050191700.0 -0.4058055864 -0.9025980093
18100191400.0 -0.4199216533 -0.8949471785
18150191100.0 -0.4348608264 -0.8870445024
18200190800.0 -0.4514775173 -0.877775433
18250190500.0 -0.46851128 -0.8683499442
18300190200.0 -0.4839714174 -0.8597146212
18350189900.0 -0.4990580337 -0.8511818431
18400189600.0 -0.5136227982 -0.843035031
18450189300.0 -0.5274892967 -0.834338792
18500189000.0 -0.540695482 -0.826385161
18550188700.0 -0.5535765547 -0.8191110174
18600188400.0 -0.5656284825 -0.812088997
18650188100.0 -0.5768428686 -0.8055467815
18700187800.0 -0.5876364801 -0.7988035138
18750187500.0 -0.5988055098 -0.7921502209
18800187200.0 -0.6094869759 -0.7852333024
18850186900.0 -0.6197401421 -0.7781540839
18900186600.0 -0.6298848191 -0.770953045
18950186300.0 -0.640117716 -0.7632097698
19000186000.0 -0.6475542853 -0.7573858594
19050185700.0 -0.6570219337 -0.7498253144
19100185400.0 -0.6670473078 -0.7415721322
19150185100.0 -0.6772671386 -0.7329156125
19200184800.0 -0.686829884 -0.7246744127
19250184500.0 -0.6964273284 -0.7154815893
19300184200.0 -0.7081117932 -0.7059169451
19350183900.0 -0.7191762258 -0.6964664881
19400183600.0 -0.7288756369 -0.6861435688
19450183300.0 -0.7371609473 -0.6766006639
19500183000.0 -0.7461553404 -0.6662582736
19550182700.0 -0.7555604013 -0.6551496597
19600182400.0 -0.7657976621 -0.6437962169
19650182100.0 -0.7764576923 -0.6316248787
19700181800.0 -0.7868632703 -0.618153846
19750181500.0 -0.7970054195 -0.6042764142
19800181200.0 -0.8072730307 -0.58931287
19850180900.0 -0.8167973957 -0.5742268922
19900180600.0 -0.8242294209 -0.5596766781
19950180300.0 -0.8334721738 -0.5434484498
20000180000.0 -0.8231905346 -0.5474298812
20050179700.0 -0.8308350961 -0.5343059057
20100179400.0 -0.839683423 -0.5216512398
20150179100.0 -0.8472277071 -0.5098918367
20200178800.0 -0.8559933594 -0.4977341839
20250178500.0 -0.865061562 -0.4862744279
20300178200.0 -0.8752756349 -0.47176172
20350177900.0 -0.8839715434 -0.4577215907
20400177600.0 -0.8933951203 -0.4438214235
20450177300.0 -0.9015233638 -0.4295760755
20500177000.0 -0.9100211114 -0.4158001554
20550176700.0 -0.9176825628 -0.4022244482
20600176400.0 -0.9245654587 -0.3891334193
20650176100.0 -0.9311735613 -0.3767631672
20700175800.0 -0.9380002635 -0.3648975794
20750175500.0 -0.9443102223 -0.3536241068
20800175200.0 -0.9494166627 -0.3425219494
20850174900.0 -0.9529728779 -0.3314503589
20900174600.0 -0.9570794128 -0.3213802029
20950174300.0 -0.9614429188 -0.310605137
21000174000.0 -0.9633054529 -0.2995878708
21050173700.0 -0.9655157808 -0.2897544307
21100173400.0 -0.9687928504 -0.2790112644
21150173100.0 -0.9726089474 -0.2668578355
21200172800.0 -0.9766588905 -0.2545565385
21250172500.0 -0.9804428523 -0.2402069851
21300172200.0 -0.9838108123 -0.2261274796
21350171900.0 -0.9856899502 -0.2121120766
21400171600.0 -0.9877868769 -0.1980715208
21450171300.0 -0.9894035191 -0.1836571324
21500171000.0 -0.9886947004 -0.1691296267
21550170700.0 -0.9898203071 -0.1541579523
21600170400.0 -0.9907930344 -0.1377219288
21650170100.0 -0.9906933595 -0.1233477387
21700169800.0 -0.9897875831 -0.1071526244
21750169500.0 -0.9904331196 -0.091029681
21800169200.0 -0.9903853464 -0.0753428157
21850168900.0 -0.9896292328 -0.0582589104
21900168600.0 -0.9897126474 -0.0418193049
21950168300.0 -0.9892050446 -0.0255073844
22000168000.0 -0.9891103588 -0.0109795252
22050167700.0 -0.9898818598 0.0034859881
22100167400.0 -0.9907799538 0.0193653057
22150167100.0 -0.9917494039 0.0351830871
22200166800.0 -0.9919019151 0.0519272749
22250166500.0 -0.991565738 0.0686347792
22300166200.0 -0.9911144796 0.084854438
22350165900.0 -0.9893140525 0.1022324234
22400165600.0 -0.9885626307 0.1182333591
22450165300.0 -0.9871155687 0.1327202555
22500165000.0 -0.9856827304 0.1460281834
22550164700.0 -0.9839692994 0.1628792788
22600164400.0 -0.9809974267 0.1796881955
22650164100.0 -0.9779323645 0.1962152419
22700163800.0 -0.9749601906 0.2113441002
22750163500.0 -0.9721905438 0.2254031656
22800163200.0 -0.9698496219 0.2395149538
22850162900.0 -0.9668619304 0.2524655322
22900162600.0 -0.9650362548 0.2663298838
22950162300.0 -0.9631186429 0.2801203249
23000162000.0 -0.9612830752 0.2930264523
23050161700.0 -0.9584876004 0.3061251198
23100161400.0 -0.955667804 0.31978415
23150161100.0 -0.952677337 0.3326827619
23200160800.0 -0.9499102803 0.3455375558
23250160500.0 -0.9469158104 0.3580165716
23300160200.0 -0.9443602156 0.3710884309
23350159900.0 -0.9404678353 0.3844902946
23400159600.0 -0.9347938101 0.3983936722
23450159300.0 -0.9296309228 0.4118171358
23500159000.0 -0.9249604609 0.4256368487
23550158700.0 -0.9202085066 0.4401438807
23600158400.0 -0.9139534104 0.4540132901
23650158100.0 -0.9065997527 0.4685701969
23700157800.0 -0.8981566295 0.4830171802
23750157500.0 -0.8883996222 0.4972195114
23800157200.0 -0.8791336381 0.5110253815
23850156900.0 -0.869295047 0.5234289495
23900156600.0 -0.8588972229 0.53681461
23950156300.0 -0.8494429208 0.5490194688
24000156000.0 -0.8404891253 0.5615909044
24050155700.0 -0.8287017804 0.5736303189
24100155400.0 -0.8190464244 0.5867621626
24150155100.0 -0.8079125023 0.5989790648
24200154800.0 -0.7969502748 0.6100347595
24250154500.0 -0.7857501864 0.6223166911
24300154200.0 -0.7741083759 0.634210609
24350153900.0 -0.7621505381 0.6457073335
24400153600.0 -0.7493543324 0.656309003
24450153300.0 -0.7373510307 0.6664491903
24500153000.0 -0.7254021761 0.6762177521
24550152700.0 -0.7138460672 0.6866783121
24600152400.0 -0.7019808302 0.6957371553
24650152100.0 -0.6902323411 0.704662321
