!Created with skrf (http://scikit-rf.org).
# Hz S RI R 50.0 
!freq ReS11 ImS11
300000.0 -0.9800846583 -0.0991064725
50299700.0 -1.000003855 0.0163823541
100299400.0 -0.9980917084 0.0290465028
150299100.0 -1.002651879 0.0459195634
200298800.0 -0.9995677704 0.0593132697
250298500.0 -0.9974370145 0.0729283963
300298200.0 -0.9861255447 0.0886491035
350297900.0 -0.9941510591 0.0995837029
400297600.0 -0.9932343589 0.11626084
450297300.0 -0.9910137554 0.1299308577
500297000.0 -0.9894950649 0.1446370175
550296700.0 -0.984266248 0.1571037274
600296400.0 -1.017180967 0.190609156
650296100.0 -0.9819526836 0.1870998359
700295800.0 -0.9791439459 0.2016285553
750295500.0 -0.9758879897 0.2153672249
800295200.0 -0.9725479709 0.2294190895
850294900.0 -0.9694315646 0.2434020415
900294600.0 -0.9655785552 0.2570739209
950294300.0 -0.9615594658 0.2709530916
1000294000.0 -0.9577382908 0.2848701737
1050293700.0 -0.953143388 0.298725872
1100293400.0 -0.9487010788 0.3130439714
1150293100.0 -0.9450552196 0.3250075593
1200292800.0 -0.9397592759 0.3392442647
1250292500.0 -0.9342930404 0.3526725675
1300292200.0 -0.9285467143 0.3657911428
1350291900.0 -0.9231046321 0.3799865432
1400291600.0 -0.9174727225 0.3929835847
1450291300.0 -0.9121212465 0.4053668011
1500291000.0 -0.9058267114 0.4186279696
1550290700.0 -0.8992126538 0.4321044937
1600290400.0 -0.8930532796 0.4449550719
1650290100.0 -0.8863476308 0.4570117759
1700289800.0 -0.879618666 0.47058844
1750289500.0 -0.8724370651 0.4828301636
1800289200.0 -0.8652263072 0.4957620138
1850288900.0 -0.8584620783 0.5069698004
1900288600.0 -0.8506279133 0.5201591667
1950288300.0 -0.8425124129 0.5324532383
2000288000.0 -0.8348866728 0.543854856
2050287700.0 -0.8268105152 0.5561990161
2100287400.0 -0.8187763396 0.5679337481
2150287100.0 -0.8099880139 0.5801081212
2200286800.0 -0.8023431455 0.5903218846
2250286500.0 -0.7933333323 0.6022174642
2300286200.0 -0.7845215115 0.6139317646
2350285900.0 -0.7756822741 0.625026917
2400285600.0 -0.766576572 0.6362948785
2450285300.0 -0.7580500332 0.646521155
2500285000.0 -0.7484410842 0.6578230827
2550284700.0 -0.7393887043 0.6678728221
2600284400.0 -0.7299310403 0.6783004871
2650284100.0 -0.7208969864 0.6888318987
2700283800.0 -0.7099162429 0.6990965681
2750283500.0 -0.6997751518 0.7098936684
2800283200.0 -0.6899111296 0.719626413
2850282900.0 -0.679737585 0.7292229532
2900282600.0 -0.6695401141 0.7390931972
2950282300.0 -0.6593351068 0.7479523412
3000282000.0 -0.6487563568 0.7575299061
3050281700.0 -0.6374698721 0.7668981169
3100281400.0 -0.625700507 0.7761939791
3150281100.0 -0.613887905 0.7855185938
3200280800.0 -0.6022005695 0.7937245745
3250280500.0 -0.5915298563 0.8014620469
3300280200.0 -0.5804715281 0.8093440068
3350279900.0 -0.5690147572 0.8171663225
3400279600.0 -0.5569471722 0.8246852823
3450279300.0 -0.5457243205 0.8319187011
3500279000.0 -0.5336547154 0.8387404351
3550278700.0 -0.5211214579 0.8461028195
3600278400.0 -0.5089846768 0.8534397819
3650278100.0 -0.4956954076 0.8609147524
3700277800.0 -0.4835968804 0.8674729078
3750277500.0 -0.4716829924 0.8740364923
3800277200.0 -0.459145404 0.8806472848
3850276900.0 -0.4467346948 0.8864103849
3900276600.0 -0.4357031861 0.8921433706
3950276300.0 -0.4232526724 0.8983050722
4000276000.0 -0.4113195499 0.9041123821
4050275700.0 -0.3981571163 0.9101496465
4100275400.0 -0.3869627014 0.9159004055
4150275100.0 -0.3739857187 0.9212688092
4200274800.0 -0.3609118006 0.9265540917
4250274500.0 -0.3485964454 0.9318938342
4300274200.0 -0.3358943251 0.9373067289
4350273900.0 -0.3221546319 0.942378562
4400273600.0 -0.3071119382 0.9476131199
4450273300.0 -0.2917009728 0.9529058151
4500273000.0 -0.2781465133 0.9569413354
4550272700.0 -0.2640896567 0.961127182
4600272400.0 -0.2485146552 0.9654561531
4650272100.0 -0.2367578813 0.9686460971
4700271800.0 -0.2235185678 0.9718925721
4750271500.0 -0.211788623 0.9747711371
4800271200.0 -0.1992477992 0.9775118285
4850270900.0 -0.1853987903 0.9802321948
4900270600.0 -0.1715677819 0.9826258418
4950270300.0 -0.1573048554 0.9851817204
5000270000.0 -0.1430601021 0.987406566
5050269700.0 -0.1297665284 0.9891272228
5100269400.0 -0.1163110979 0.9905156767
5150269100.0 -0.1029954321 0.9922910898
5200268800.0 -0.0896980539 0.9932010246
5250268500.0 -0.0764848862 0.9941254907
5300268200.0 -0.063469172 0.9948909963
5350267900.0 -0.0512564315 0.9954493115
5400267600.0 -0.0351734168 0.9964030428
5450267300.0 -0.0221850315 0.9967088771
5500267000.0 -0.0068754733 0.9972995627
5550266700.0 0.0077651696 0.9973549538
5600266400.0 0.023716094 0.9973674435
5650266100.0 0.0401922851 0.9971291094
5700265800.0 0.054315768 0.9962265612
5750265500.0 0.0699435753 0.99535269
5800265200.0 0.0835099983 0.9942350342
5850264900.0 0.0969484102 0.9932667774
5900264600.0 0.1132796529 0.9914056106
5950264300.0 0.1256654195 0.989726396
6000264000.0 0.1398034354 0.988162783
6050263700.0 0.1524869876 0.9867099319
6100263400.0 0.1646225366 0.984523535
6150263100.0 0.1793409549 0.9818195717
6200262800.0 0.1899683007 0.9801748385
6250262500.0 0.2025591085 0.9778295821
6300262200.0 0.2156081916 0.9750570564
6350261900.0 0.2286622056 0.972098774
6400261600.0 0.2424984601 0.9687337282
6450261300.0 0.2539753196 0.9657747254
6500261000.0 0.2667463808 0.9625803283
6550260700.0 0.2793226971 0.9585981566
6600260400.0 0.2930611012 0.954476771
6650260100.0 0.3072714501 0.9503060308
6700259800.0 0.3188444251 0.945968248
6750259500.0 0.3327757235 0.9411188384
6800259200.0 0.3460279359 0.9361664341
6850258900.0 0.3576360982 0.9308126719
6900258600.0 0.3698814666 0.9259853302
6950258300.0 0.3822526007 0.9208335815
7000258000.0 0.3940110696 0.9154213163
7050257700.0 0.406538941 0.909486801
7100257400.0 0.4192019928 0.9029636025
7150257100.0 0.4296793803 0.8977642336
7200256800.0 0.4423170036 0.8914300969
7250256500.0 0.4540156248 0.8852951844
7300256200.0 0.4669959729 0.878444318
7350255900.0 0.4796920401 0.8714627905
7400255600.0 0.4925732641 0.864274502
7450255300.0 0.5077102455 0.8552578713
7500255000.0 0.5193788084 0.8482118076
7550254700.0 0.5329287445 0.8395221818
7600254400.0 0.545586905 0.8310843016
7650254100.0 0.5572783445 0.8237164255
7700253800.0 0.5692264568 0.8152923416
7750253500.0 0.5804329351 0.8075789287
7800253200.0 0.5911611875 0.7996271974
7850252900.0 0.6009337478 0.7925742844
7900252600.0 0.612615663 0.783881168
7950252300.0 0.6216448585 0.7770959372
8000252000.0 0.6319061934 0.7691346174
8050251700.0 0.6426204569 0.7610060867
8100251400.0 0.6524426611 0.7528058335
8150251100.0 0.6626240682 0.744089105
8200250800.0 0.6718592209 0.7361614381
8250250500.0 0.6812297224 0.7282851661
8300250200.0 0.6906902097 0.7193271225
8350249900.0 0.6995839784 0.7107832378
8400249600.0 0.7075918638 0.7026300521
8450249300.0 0.7169158252 0.6935019223
8500249000.0 0.725535492 0.6846368167
8550248700.0 0.7338302937 0.675493871
8600248400.0 0.7421437213 0.6661513807
8650248100.0 0.7499635842 0.6568452209
8700247800.0 0.7594230717 0.6455935058
8750247500.0 0.7676363392 0.6355088937
8800247200.0 0.775749652 0.6254020429
8850246900.0 0.7840574802 0.6140954183
8900246600.0 0.7928966151 0.6027402172
8950246300.0 0.8026411239 0.5896157181
9000246000.0 0.8115787938 0.5771611839
9050245700.0 0.8208652983 0.5640619951
9100245400.0 0.8288931588 0.5516921451
9150245100.0 0.8385899086 0.5380269301
9200244800.0 0.8481083275 0.5229522421
9250244500.0 0.8574796847 0.5074991407
9300244200.0 0.8660265573 0.4928402497
9350243900.0 0.8735957032 0.4788657602
9400243600.0 0.8803251735 0.4663362755
9450243300.0 0.8864486199 0.4545196603
9500243000.0 0.8924964576 0.4421637221
9550242700.0 0.8964236238 0.4340851063
9600242400.0 0.9004378269 0.426556355
9650242100.0 0.9041713933 0.4198776095
9700241800.0 0.9088075484 0.411292802
9750241500.0 0.912666318 0.4038048275
9800241200.0 0.917277627 0.3946246896
9850240900.0 0.922694505 0.3828532121
9900240600.0 0.9282306925 0.3711346988
9950240300.0 0.9347745162 0.3554235617
10000240000.0 0.9397522784 0.3434999912
10050239700.0 0.9449724452 0.3284087501
10100239400.0 0.9499559392 0.3130812849
10150239100.0 0.9545370839 0.2980160966
10200238800.0 0.9585795519 0.2833723481
10250238500.0 0.9619527604 0.2700419095
10300238200.0 0.9649480491 0.2560759246
10350237900.0 0.9676709704 0.2432288588
10400237600.0 0.9702714569 0.2297837786
10450237300.0 0.9728057429 0.2167283073
10500237000.0 0.9749545008 0.2048986795
10550236700.0 0.9775443944 0.1905346743
10600236400.0 0.9792757701 0.1766860127
10650236100.0 0.9812453309 0.1626558462
10700235800.0 0.983820202 0.1501071475
10750235500.0 0.9860400886 0.1370993034
10800235200.0 0.9877813277 0.1237859491
10850234900.0 0.989853074 0.1084593179
10900234600.0 0.9917735457 0.0942509086
10950234300.0 0.9934226841 0.0810160984
11000234000.0 0.9951388481 0.0658953913
11050233700.0 0.9969813955 0.0496319593
11100233400.0 0.9984522496 0.0321664417
11150233100.0 0.9994261266 0.016234189
11200232800.0 1.000014089 0.0008435647
11250232500.0 1.0005222 -0.0161280995
11300232200.0 1.001330149 -0.0332279871
11350231900.0 1.001172651 -0.0486939256
11400231600.0 1.000627346 -0.0646563076
11450231300.0 1.000339926 -0.0797699185
11500231000.0 0.9994037363 -0.0971467187
11550230700.0 0.998206524 -0.1102035507
11600230400.0 0.9962381048 -0.1234397654
11650230100.0 0.9944258459 -0.134971146
11700229800.0 0.9923739388 -0.149950633
11750229500.0 0.9896930711 -0.1641860319
11800229200.0 0.9872187606 -0.1785197365
11850228900.0 0.9839200149 -0.1909078138
11900228600.0 0.9801894607 -0.2008030913
11950228300.0 0.9767974007 -0.2122344479
12000228000.0 0.9740842165 -0.2206217512
12050227700.0 0.9706157954 -0.232764
12100227400.0 0.9669925052 -0.2444608548
12150227100.0 0.9625156599 -0.2609892732
12200226800.0 0.9594110595 -0.2712532177
12250226500.0 0.9546078506 -0.2849540204
12300226200.0 0.9502767623 -0.2966136733
12350225900.0 0.9455857408 -0.3100745974
12400225600.0 0.9416259192 -0.3230383291
12450225300.0 0.9370959862 -0.3355401951
12500225000.0 0.9317797998 -0.3503681092
12550224700.0 0.9263204656 -0.3639387218
12600224400.0 0.9217261568 -0.3761947671
12650224100.0 0.9159748256 -0.3903080964
12700223800.0 0.9107007764 -0.4030674592
12750223500.0 0.9052734056 -0.4159227637
12800223200.0 0.9000643814 -0.4284427572
12850222900.0 0.8944028592 -0.440605048
12900222600.0 0.8886363914 -0.4527717399
12950222300.0 0.8821413262 -0.4656363153
13000222000.0 0.8761899716 -0.4775034307
13050221700.0 0.8697766644 -0.490284406
13100221400.0 0.8628145432 -0.5018009336
13150221100.0 0.855711844 -0.5147151215
13200220800.0 0.8487530238 -0.5258057548
13250220500.0 0.841253864 -0.5381939802
13300220200.0 0.8339052127 -0.5491723907
13350219900.0 0.8254780104 -0.5614097528
13400219600.0 0.8172076908 -0.5736986994
13450219300.0 0.8075396747 -0.5871231768
13500219000.0 0.7976695203 -0.6011544984
13550218700.0 0.7865445271 -0.6140593072
13600218400.0 0.776980624 -0.6257274995
13650218100.0 0.7671881164 -0.6373446301
13700217800.0 0.7557919039 -0.6500225314
13750217500.0 0.7458772956 -0.6618447399
13800217200.0 0.7351372834 -0.6725478661
13850216900.0 0.7239220422 -0.6839700151
13900216600.0 0.7134340224 -0.6933121468
13950216300.0 0.7030381552 -0.7028697031
14000216000.0 0.6929256079 -0.7128607037
14050215700.0 0.6840962811 -0.7208089603
14100215400.0 0.6741532229 -0.7301001836
14150215100.0 0.6649312602 -0.7382122618
14200214800.0 0.6554643499 -0.7466781809
14250214500.0 0.6453471609 -0.7559368818
14300214200.0 0.6349791692 -0.7648802275
14350213900.0 0.6240515872 -0.7746694131
14400213600.0 0.6121124814 -0.7839991376
14450213300.0 0.5994610189 -0.7942868108
14500213000.0 0.5863304123 -0.804113953
14550212700.0 0.5739990978 -0.8133810245
14600212400.0 0.5614536065 -0.8221704595
14650212100.0 0.5486093253 -0.831167797
14700211800.0 0.5347056277 -0.84031291
14750211500.0 0.5224431389 -0.8483770111
14800211200.0 0.5104989283 -0.8565458595
14850210900.0 0.4979351579 -0.863924117
14900210600.0 0.484784365 -0.8718103242
14950210300.0 0.4711207541 -0.8794996913
15000210000.0 0.4582457339 -0.8864324733
15050209700.0 0.4455640445 -0.8923113986
15100209400.0 0.4326209441 -0.8987979359
15150209100.0 0.4201456154 -0.9039075122
15200208800.0 0.4070552956 -0.909838495
15250208500.0 0.3959785523 -0.9144675797
15300208200.0 0.3833869383 -0.9188092333
15350207900.0 0.3703802041 -0.9235119
15400207600.0 0.355442878 -0.929683995
15450207300.0 0.3409549517 -0.9344125861
15500207000.0 0.3263744872 -0.9390034156
15550206700.0 0.3111410141 -0.9435956148
15600206400.0 0.2945305509 -0.9479280884
15650206100.0 0.2794167412 -0.9526416987
15700205800.0 0.2655445499 -0.9559749671
15750205500.0 0.2509905958 -0.9594709202
15800205200.0 0.2366378369 -0.9630211801
15850204900.0 0.222231265 -0.9664685914
15900204600.0 0.2074018247 -0.9699280381
15950204300.0 0.1934166841 -0.9729591484
16000204000.0 0.179376475 -0.9755259784
16050203700.0 0.164655546 -0.9781763829
16100203400.0 0.1507744146 -0.9802952407
16150203100.0 0.1361247974 -0.9824965371
16200202800.0 0.1223678029 -0.9847516813
16250202500.0 0.1077982912 -0.9863279709
16300202200.0 0.092815467 -0.9883027262
16350201900.0 0.0778920526 -0.9891212418
16400201600.0 0.0632397923 -0.9906932668
16450201300.0 0.0480667492 -0.9913474593
16500201000.0 0.0317783432 -0.9920685478
16550200700.0 0.0158408678 -0.9925222851
16600200400.0 0.000148395 -0.9927714084
16650200100.0 -0.0160307348 -0.9925421388
16700199800.0 -0.0326583894 -0.9920552819
16750199500.0 -0.0515768151 -0.9916678905
16800199200.0 -0.0677839433 -0.9904950267
16850198900.0 -0.0826830425 -0.9892210025
16900198600.0 -0.0968668709 -0.9881430845
16950198300.0 -0.1111894125 -0.9870388832
17000198000.0 -0.1236880266 -0.9852751521
17050197700.0 -0.1362441131 -0.9835049116
17100197400.0 -0.148958429 -0.9816258137
17150197100.0 -0.1618785555 -0.9792276799
17200196800.0 -0.1753647397 -0.977116803
17250196500.0 -0.1878652114 -0.9750408085
17300196200.0 -0.2002099588 -0.9728582529
17350195900.0 -0.212324236 -0.9705474157
17400195600.0 -0.2244845767 -0.967932871
17450195300.0 -0.2374027622 -0.9650678038
17500195000.0 -0.2509022486 -0.9616891811
17550194700.0 -0.2649646983 -0.958209631
17600194400.0 -0.2782964276 -0.9544237371
17650194100.0 -0.2922732673 -0.9499748422
17700193800.0 -0.3051129901 -0.9458230668
17750193500.0 -0.31953308 -0.9410367251
17800193200.0 -0.3339452617 -0.936109098
17850192900.0 -0.348707773 -0.9307174039
17900192600.0 -0.3634225635 -0.9246244891
17950192300.0 -0.3790362762 -0.9174065555
18000192000.0 -0.3934741353 -0.9104364539
18050191700.0 -0.4073245919 -0.902430319
18100191400.0 -0.4213641542 -0.8948954774
18150191100.0 -0.4363078577 -0.8869471635
18200190800.0 -0.4529267704 -0.8777876122
18250190500.0 -0.469774296 -0.8685873157
18300190200.0 -0.4850974355 -0.8594717451
18350189900.0 -0.5000662657 -0.8514359338
18400189600.0 -0.5143838793 -0.8432186436
18450189300.0 -0.5279754674 -0.8345152455
18500189000.0 -0.5411116052 -0.8268987085
18550188700.0 -0.5537334765 -0.8191610504
18600188400.0 -0.566112871 -0.8121494205
18650188100.0 -0.5771405373 -0.8051382623
18700187800.0 -0.588228749 -0.7985392391
18750187500.0 -0.5989112323 -0.7919235535
18800187200.0 -0.6098427632 -0.7845820303
18850186900.0 -0.6202514076 -0.7774596773
18900186600.0 -0.6307807324 -0.7696952104
18950186300.0 -0.6408220884 -0.7617604207
19000186000.0 -0.6485625224 -0.7555722004
19050185700.0 -0.6574225278 -0.7477072293
19100185400.0 -0.6681869196 -0.7394181972
19150185100.0 -0.6784053417 -0.7310637335
19200184800.0 -0.6874625775 -0.7228200884
19250184500.0 -0.6984199996 -0.7128149491
19300184200.0 -0.7099612923 -0.7034421909
19350183900.0 -0.7199752366 -0.6940610092
19400183600.0 -0.7296326501 -0.6839803625
19450183300.0 -0.738531462 -0.6734863287
19500183000.0 -0.7469759385 -0.6640641153
19550182700.0 -0.7563673784 -0.6530437249
19600182400.0 -0.7666300357 -0.6417806266
19650182100.0 -0.7774840087 -0.6292439699
19700181800.0 -0.7875741542 -0.6164559238
19750181500.0 -0.7981197454 -0.6024000142
19800181200.0 -0.8082049955 -0.587836142
19850180900.0 -0.8173311249 -0.5726468619
19900180600.0 -0.8250027308 -0.5583173859
19950180300.0 -0.8342750833 -0.5424279315
20000180000.0 -0.8272832289 -0.5443624577
20050179700.0 -0.8359912298 -0.5311192103
20100179400.0 -0.8438247892 -0.5176192121
20150179100.0 -0.8516221353 -0.5050312504
20200178800.0 -0.8606541906 -0.4928521395
20250178500.0 -0.8706484007 -0.479558181
20300178200.0 -0.8794132936 -0.4641840542
20350177900.0 -0.8876616 -0.4500310689
20400177600.0 -0.8973035769 -0.4355385999
20450177300.0 -0.905174873 -0.4211787031
20500177000.0 -0.9129081112 -0.4071637072
20550176700.0 -0.9209335775 -0.3938194125
20600176400.0 -0.9278599798 -0.3807256976
20650176100.0 -0.9342060421 -0.3680842076
20700175800.0 -0.9409350634 -0.3553060468
20750175500.0 -0.948238961 -0.3437407284
20800175200.0 -0.9527350655 -0.3332037383
20850174900.0 -0.9570061848 -0.3216938107
20900174600.0 -0.9618723149 -0.3090594542
20950174300.0 -0.9662639987 -0.2981626738
21000174000.0 -0.9695267004 -0.2861102366
21050173700.0 -0.9732135588 -0.2746179331
21100173400.0 -0.9766729425 -0.2625518885
21150173100.0 -0.9808961586 -0.2499934811
21200172800.0 -0.9846949572 -0.2364943891
21250172500.0 -0.9882058267 -0.22255773
21300172200.0 -0.9905813824 -0.2084538998
21350171900.0 -0.9921489802 -0.1932544169
21400171600.0 -0.9935771207 -0.1789322937
21450171300.0 -0.9942330454 -0.1650034495
21500171000.0 -0.9936420622 -0.1502476999
21550170700.0 -0.9932826004 -0.1344305324
21600170400.0 -0.9933867046 -0.11934474
21650170100.0 -0.9922281491 -0.1030985912
21700169800.0 -0.9903406986 -0.088660576
21750169500.0 -0.9895002825 -0.0729338059
21800169200.0 -0.9884927166 -0.0555087838
21850168900.0 -0.9872435531 -0.0401937491
21900168600.0 -0.9861338461 -0.0243106274
21950168300.0 -0.9836468081 -0.0085004531
22000168000.0 -0.9830194715 0.0065152429
22050167700.0 -0.9825996693 0.0209141352
22100167400.0 -0.982323692 0.0355749483
22150167100.0 -0.9830419849 0.0511715706
22200166800.0 -0.9828858772 0.0674679216
22250166500.0 -0.9825466809 0.0847492445
22300166200.0 -0.9812838164 0.1008930093
22350165900.0 -0.9803892454 0.1171054439
22400165600.0 -0.9784728697 0.1332358402
22450165300.0 -0.976586424 0.1480694116
22500165000.0 -0.9751246897 0.1618181067
22550164700.0 -0.9738576915 0.1764962131
22600164400.0 -0.9714083159 0.192191341
22650164100.0 -0.9694834299 0.2068931009
22700163800.0 -0.9675943989 0.2228844637
22750163500.0 -0.9645830491 0.238849643
22800163200.0 -0.9618423588 0.2517372931
22850162900.0 -0.9595687601 0.2653275478
22900162600.0 -0.9580478972 0.2785641529
22950162300.0 -0.9570164872 0.2912825142
23000162000.0 -0.9558834628 0.3029913456
23050161700.0 -0.953912302 0.3159659877
23100161400.0 -0.9511882729 0.3280287189
23150161100.0 -0.9487759409 0.3408846906
23200160800.0 -0.946016396 0.3528385124
23250160500.0 -0.9430071683 0.3643062296
23300160200.0 -0.9402295974 0.3757170691
23350159900.0 -0.9362023498 0.3897601342
23400159600.0 -0.9318675075 0.4020027941
23450159300.0 -0.9275241179 0.4154814503
23500159000.0 -0.9226187303 0.4286826095
23550158700.0 -0.9182492418 0.4413066635
23600158400.0 -0.9127386673 0.4545429878
23650158100.0 -0.9064478243 0.4683490365
23700157800.0 -0.8988471037 0.4818418057
23750157500.0 -0.8904913588 0.4961874288
23800157200.0 -0.8817971798 0.5090697488
23850156900.0 -0.8728394167 0.5219832534
23900156600.0 -0.8633853084 0.5337416495
23950156300.0 -0.8548330696 0.5466445171
24000156000.0 -0.8463107337 0.5580972754
24050155700.0 -0.8352242301 0.5702793009
24100155400.0 -0.8251944865 0.5819216503
24150155100.0 -0.8147774831 0.5936034056
24200154800.0 -0.8036420196 0.6047916635
24250154500.0 -0.7924034768 0.6168495342
24300154200.0 -0.7808936661 0.6282099055
24350153900.0 -0.7695198408 0.639170205
24400153600.0 -0.7570935562 0.6494213489
24450153300.0 -0.7454230438 0.6594260947
24500153000.0 -0.7339065364 0.6692197306
24550152700.0 -0.7224967033 0.67910846
24600152400.0 -0.7109439136 0.6889967696
24650152100.0 -0.6994034201 0.6967566572
