!Created with skrf (http://scikit-rf.org).
# Hz S RI R 50.0 
!freq ReS11 ImS11
300000.0 -0.9764763486 -0.1136328706
50299700.0 -1.000001466 0.0156665582
100299400.0 -0.998006663 0.028587247
150299100.0 -1.002773047 0.0454815119
200298800.0 -0.9996326473 0.058809077
250298500.0 -0.9975792021 0.0723159142
300298200.0 -0.9861371342 0.0881346964
350297900.0 -0.9939990257 0.0991381834
400297600.0 -0.9931163949 0.1159120357
450297300.0 -0.9908269745 0.1293677749
500297000.0 -0.9896164384 0.1442103396
550296700.0 -0.9843548794 0.1566642815
600296400.0 -1.017308013 0.189923264
650296100.0 -0.9822665113 0.1867269433
700295800.0 -0.9793524963 0.2009453102
750295500.0 -0.9762540983 0.2149816974
800295200.0 -0.9731042415 0.2290265945
850294900.0 -0.9695783312 0.2432317677
900294600.0 -0.965808746 0.2565058464
950294300.0 -0.9620961442 0.2704565493
1000294000.0 -0.9580015743 0.2843112639
1050293700.0 -0.9536786056 0.2981182655
1100293400.0 -0.9491981194 0.3125776718
1150293100.0 -0.9454149309 0.3245335715
1200292800.0 -0.9402122506 0.3387325198
1250292500.0 -0.934533605 0.3519741233
1300292200.0 -0.928726934 0.3653109598
1350291900.0 -0.9233286375 0.3793760106
1400291600.0 -0.9177483748 0.3925119863
1450291300.0 -0.9123492257 0.4048948135
1500291000.0 -0.9061867015 0.4182436514
1550290700.0 -0.8995884145 0.4314444197
1600290400.0 -0.8932115813 0.4445054437
1650290100.0 -0.8867230934 0.4566406323
1700289800.0 -0.8796479914 0.470022366
1750289500.0 -0.8726138907 0.4824049055
1800289200.0 -0.8655450374 0.4953292869
1850288900.0 -0.8586217862 0.5064100695
1900288600.0 -0.8509139921 0.5195700789
1950288300.0 -0.8425920209 0.5321110154
2000288000.0 -0.8351881764 0.5433724332
2050287700.0 -0.8268960441 0.5558569353
2100287400.0 -0.8188296514 0.567609326
2150287100.0 -0.8102786221 0.5796890278
2200286800.0 -0.8025917276 0.5899250756
2250286500.0 -0.7936759347 0.6019121275
2300286200.0 -0.7846315997 0.6134361319
2350285900.0 -0.7760668943 0.6246956297
2400285600.0 -0.7671252384 0.6356294373
2450285300.0 -0.7585192334 0.6461236391
2500285000.0 -0.7488475413 0.6571130056
2550284700.0 -0.739838964 0.6676995296
2600284400.0 -0.7306717054 0.6777307067
2650284100.0 -0.7213154754 0.6882702969
2700283800.0 -0.7106896737 0.6988064133
2750283500.0 -0.7005994962 0.7093652728
2800283200.0 -0.6909065297 0.7192350143
2850282900.0 -0.6805441577 0.7287770331
2900282600.0 -0.6703609623 0.7386282084
2950282300.0 -0.6600577818 0.747815354
3000282000.0 -0.6490623678 0.7571391495
3050281700.0 -0.6380778143 0.7664022271
3100281400.0 -0.626150611 0.7759175366
3150281100.0 -0.6144848597 0.7851029042
3200280800.0 -0.6027324942 0.7936334617
3250280500.0 -0.5920180904 0.8013009109
3300280200.0 -0.5807533455 0.8092120675
3350279900.0 -0.5690540788 0.8167131681
3400279600.0 -0.5569978541 0.8243655258
3450279300.0 -0.5459706522 0.8315553889
3500279000.0 -0.5339664452 0.838695534
3550278700.0 -0.5214858418 0.8458972779
3600278400.0 -0.5092679726 0.8529823906
3650278100.0 -0.4957973128 0.8608697606
3700277800.0 -0.4839835513 0.8672050421
3750277500.0 -0.4717081103 0.8737618326
3800277200.0 -0.4593666223 0.8802702724
3850276900.0 -0.4471476994 0.8862199429
3900276600.0 -0.436244669 0.8917334881
3950276300.0 -0.4236920062 0.8977133669
4000276000.0 -0.4118963406 0.9038448762
4050275700.0 -0.3987518473 0.909789638
4100275400.0 -0.3876107462 0.9154854338
4150275100.0 -0.3750320886 0.9208112464
4200274800.0 -0.3619223251 0.9264347407
4250274500.0 -0.3496550425 0.9314313927
4300274200.0 -0.3367606631 0.936889799
4350273900.0 -0.3229984299 0.9421585117
4400273600.0 -0.3081493372 0.9473877323
4450273300.0 -0.2926573663 0.9525756046
4500273000.0 -0.2789121475 0.9569624809
4550272700.0 -0.264794116 0.9611622611
4600272400.0 -0.2493824334 0.9654038872
4650272100.0 -0.2376341372 0.9685795549
4700271800.0 -0.2243777339 0.9718646113
4750271500.0 -0.2126701647 0.9746173711
4800271200.0 -0.2000799105 0.9774281766
4850270900.0 -0.1863665849 0.9801308902
4900270600.0 -0.1724233783 0.9826936194
4950270300.0 -0.1581416082 0.9851007773
5000270000.0 -0.1439849845 0.9871266606
5050269700.0 -0.1304318576 0.9888296184
5100269400.0 -0.1168521272 0.9905183785
5150269100.0 -0.1036780239 0.9920935048
5200268800.0 -0.0902408899 0.9926162957
5250268500.0 -0.0769725001 0.9941847069
5300268200.0 -0.0641295596 0.9946287425
5350267900.0 -0.0520504185 0.9954407178
5400267600.0 -0.0358378516 0.9962815752
5450267300.0 -0.022650674 0.9969482013
5500267000.0 -0.0075732613 0.9970279203
5550266700.0 0.0075242774 0.9973983266
5600266400.0 0.0230131149 0.9972723407
5650266100.0 0.0398357929 0.9969643597
5700265800.0 0.0540984858 0.9960492497
5750265500.0 0.0692477842 0.9953641149
5800265200.0 0.0833243421 0.994336132
5850264900.0 0.0964838942 0.9932782724
5900264600.0 0.112970928 0.9912247053
5950264300.0 0.1257760714 0.9903574458
6000264000.0 0.1393254969 0.9882087615
6050263700.0 0.1519655531 0.9866931031
6100263400.0 0.1642532228 0.9847269048
6150263100.0 0.1788410879 0.9825564437
6200262800.0 0.1891778418 0.9807385115
6250262500.0 0.2017537751 0.978335286
6300262200.0 0.2147540431 0.9754320573
6350261900.0 0.2277655617 0.9724810914
6400261600.0 0.2415487352 0.9691413197
6450261300.0 0.2529882034 0.9666287342
6500261000.0 0.2659308113 0.9631566646
6550260700.0 0.278696143 0.9589255218
6600260400.0 0.2919672721 0.9548628499
6650260100.0 0.3060286411 0.9506421785
6700259800.0 0.3178130282 0.9463503382
6750259500.0 0.3318343497 0.9411520577
6800259200.0 0.3449288052 0.9361827721
6850258900.0 0.3567232485 0.9308531102
6900258600.0 0.369006166 0.9261931873
6950258300.0 0.3813684897 0.920750852
7000258000.0 0.3935871286 0.9154408004
7050257700.0 0.4058467376 0.9094778824
7100257400.0 0.4186679762 0.9031361559
7150257100.0 0.4287659692 0.8977019422
7200256800.0 0.441866163 0.8915465525
7250256500.0 0.453621366 0.8854063711
7300256200.0 0.4666268289 0.8783690391
7350255900.0 0.4792314871 0.8713615749
7400255600.0 0.4922263989 0.8642182044
7450255300.0 0.5076297847 0.8552933057
7500255000.0 0.5191455649 0.8481431956
7550254700.0 0.5329561169 0.8394622525
7600254400.0 0.5458390353 0.8312071998
7650254100.0 0.5575419791 0.8232308003
7700253800.0 0.5692228391 0.8154367338
7750253500.0 0.5803691406 0.8078168358
7800253200.0 0.5911599078 0.7999017458
7850252900.0 0.600832035 0.7929057663
7900252600.0 0.6125725529 0.7840603229
7950252300.0 0.6213374874 0.7776358129
8000252000.0 0.6313020006 0.7700123501
8050251700.0 0.641818675 0.761695623
8100251400.0 0.6520000071 0.7535494967
8150251100.0 0.6622857803 0.7449039649
8200250800.0 0.6714078448 0.7368398395
8250250500.0 0.680040252 0.7291414067
8300250200.0 0.6896526284 0.7204881534
8350249900.0 0.6987844131 0.7116801059
8400249600.0 0.7068239634 0.7035797734
8450249300.0 0.7161427806 0.6943901419
8500249000.0 0.7244569598 0.6854440816
8550248700.0 0.7329186819 0.6765559321
8600248400.0 0.7413286915 0.6670020976
8650248100.0 0.749156865 0.6575165321
8700247800.0 0.7585147347 0.6465097731
8750247500.0 0.7670036501 0.6363825619
8800247200.0 0.7750780314 0.6258886222
8850246900.0 0.7840002077 0.6144310774
8900246600.0 0.7921721421 0.6033176912
8950246300.0 0.8019077943 0.5901765976
9000246000.0 0.811443672 0.5775163709
9050245700.0 0.8201927956 0.5643296144
9100245400.0 0.8286346639 0.551783141
9150245100.0 0.8385421636 0.5379863403
9200244800.0 0.8480210585 0.5228312738
9250244500.0 0.8575782961 0.5072109015
9300244200.0 0.8661925216 0.4925132471
9350243900.0 0.8737172423 0.4786329151
9400243600.0 0.880469445 0.4663510721
9450243300.0 0.886364798 0.4545833771
9500243000.0 0.892417321 0.4423026561
9550242700.0 0.8961418509 0.4348051348
9600242400.0 0.9000115289 0.4277075397
9650242100.0 0.9036484997 0.4209029008
9700241800.0 0.908266872 0.4128236714
9750241500.0 0.911970812 0.4053650076
9800241200.0 0.9167751558 0.3961949948
9850240900.0 0.922269593 0.3845232
9900240600.0 0.9282274153 0.3729632054
9950240300.0 0.9347156882 0.3563900223
10000240000.0 0.939272363 0.3449896985
10050239700.0 0.945085589 0.3296444834
10100239400.0 0.9497724294 0.3147826739
10150239100.0 0.9540173362 0.2995465191
10200238800.0 0.9586979431 0.2848114966
10250238500.0 0.9617640343 0.2712851597
10300238200.0 0.9648609798 0.2572823391
10350237900.0 0.9675577114 0.2442634657
10400237600.0 0.9699734828 0.2313198018
10450237300.0 0.9727775391 0.2175433732
10500237000.0 0.9744945411 0.2057105958
10550236700.0 0.976956066 0.1914554392
10600236400.0 0.9791704643 0.1781408315
10650236100.0 0.9810926165 0.163367311
10700235800.0 0.9832641495 0.1513323899
10750235500.0 0.9856998767 0.1380535548
10800235200.0 0.9879561996 0.1236438946
10850234900.0 0.9896209941 0.1093041505
10900234600.0 0.9917308371 0.0945304746
10950234300.0 0.9935036585 0.0815088327
11000234000.0 0.9953586 0.0660952518
11050233700.0 0.9970903608 0.0497454215
11100233400.0 0.9983793042 0.0321777881
11150233100.0 0.9993170763 0.0158795538
11200232800.0 1.000297869 0.001211888
11250232500.0 1.001259604 -0.0153633446
11300232200.0 1.001888753 -0.0334704433
11350231900.0 1.001365029 -0.0497758919
11400231600.0 1.001874811 -0.0649718352
11450231300.0 1.000843064 -0.079817957
11500231000.0 0.9998781789 -0.0976808718
11550230700.0 0.9985512027 -0.1111401027
11600230400.0 0.9969291509 -0.1227354904
11650230100.0 0.9945589965 -0.1344175315
11700229800.0 0.9926902555 -0.1490519782
11750229500.0 0.9903222482 -0.1634981581
11800229200.0 0.9876195717 -0.1772245302
11850228900.0 0.9842061957 -0.1898486128
11900228600.0 0.9806175945 -0.1995887362
11950228300.0 0.9774669053 -0.2097038925
12000228000.0 0.9748272244 -0.2185059863
12050227700.0 0.9710962374 -0.2311196577
12100227400.0 0.9678459579 -0.2428038872
12150227100.0 0.9627184321 -0.2590711683
12200226800.0 0.9596051112 -0.2695627686
12250226500.0 0.95534509 -0.2830885327
12300226200.0 0.9511791403 -0.2943395603
12350225900.0 0.9459952493 -0.3093629254
12400225600.0 0.9416727951 -0.3215236346
12450225300.0 0.9370089717 -0.3345212792
12500225000.0 0.9318051621 -0.3489057315
12550224700.0 0.9266222289 -0.3631757538
12600224400.0 0.9217786167 -0.375853798
12650224100.0 0.9159766021 -0.3900811902
12700223800.0 0.9107632085 -0.4029049368
12750223500.0 0.9053975025 -0.4156432285
12800223200.0 0.8998565436 -0.4284574242
12850222900.0 0.8945764621 -0.4402677854
12900222600.0 0.888676556 -0.4526069639
12950222300.0 0.8824909106 -0.4654196216
13000222000.0 0.8765270407 -0.4774655139
13050221700.0 0.8695627859 -0.4895412553
13100221400.0 0.8629371416 -0.5018096235
13150221100.0 0.8562243958 -0.5140398821
13200220800.0 0.8493289723 -0.5253782498
13250220500.0 0.8421641095 -0.5372739123
13300220200.0 0.8346897281 -0.5483934825
13350219900.0 0.8266311761 -0.5602235603
13400219600.0 0.8179308118 -0.5724922734
13450219300.0 0.808650043 -0.5862056561
13500219000.0 0.7986544793 -0.6000706225
13550218700.0 0.7878666994 -0.6126706002
13600218400.0 0.7778577182 -0.6250145238
13650218100.0 0.7681276794 -0.636358092
13700217800.0 0.7573728679 -0.648674495
13750217500.0 0.7473977833 -0.6598507442
13800217200.0 0.7354624966 -0.6723732607
13850216900.0 0.7243556827 -0.6830299301
13900216600.0 0.7154266876 -0.6921338622
13950216300.0 0.7042155187 -0.7023164273
14000216000.0 0.6942068508 -0.7118733569
14050215700.0 0.6840244436 -0.7199787158
14100215400.0 0.6748843297 -0.7292427286
14150215100.0 0.6655679562 -0.7375793116
14200214800.0 0.6562982483 -0.7459482741
14250214500.0 0.6461059484 -0.7553083394
14300214200.0 0.6356662355 -0.7643510448
14350213900.0 0.6246753964 -0.7739685376
14400213600.0 0.6128771247 -0.7836670164
14450213300.0 0.5997642924 -0.7939877021
14500213000.0 0.5864050864 -0.8038608988
14550212700.0 0.5739599878 -0.8133974375
14600212400.0 0.5617296921 -0.8220360683
14650212100.0 0.5486642618 -0.8305380446
14700211800.0 0.5350148383 -0.8398698442
14750211500.0 0.5223835711 -0.8485942042
14800211200.0 0.5103383148 -0.8563159383
14850210900.0 0.4983115048 -0.8639322091
14900210600.0 0.4847981374 -0.8718266144
14950210300.0 0.4714441973 -0.8794407544
15000210000.0 0.4584889385 -0.8861882765
15050209700.0 0.4463296912 -0.8925015051
15100209400.0 0.4335758284 -0.8985868386
15150209100.0 0.4216019416 -0.9038323572
15200208800.0 0.4080245469 -0.9093125831
15250208500.0 0.3961056906 -0.9132730787
15300208200.0 0.3846825161 -0.9185400111
15350207900.0 0.3712543907 -0.922989309
15400207600.0 0.356479731 -0.9286551518
15450207300.0 0.341756964 -0.9334179728
15500207000.0 0.3274106239 -0.9377458348
15550206700.0 0.3125240251 -0.9430405644
15600206400.0 0.2968292959 -0.9479027857
15650206100.0 0.281186707 -0.9519292254
15700205800.0 0.2671755368 -0.9556547387
15750205500.0 0.252561983 -0.9593148044
15800205200.0 0.2380573517 -0.9625227096
15850204900.0 0.2234803458 -0.9658609982
15900204600.0 0.2084714535 -0.9694429228
15950204300.0 0.1946264289 -0.9725648839
16000204000.0 0.1805826102 -0.9752037862
16050203700.0 0.1654506845 -0.9784493016
16100203400.0 0.1511400537 -0.9801406521
16150203100.0 0.1370445312 -0.9823422397
16200202800.0 0.1225125325 -0.9842979983
16250202500.0 0.1079396725 -0.9860820452
16300202200.0 0.0928172487 -0.9875290332
16350201900.0 0.077912381 -0.9891169068
16400201600.0 0.0633297896 -0.9903119457
16450201300.0 0.0480577277 -0.9911618906
16500201000.0 0.031296712 -0.9920029308
16550200700.0 0.0157299155 -0.9924650458
16600200400.0 7.22782e-05 -0.9927771006
16650200100.0 -0.0162048181 -0.9925026024
16700199800.0 -0.0324989386 -0.9921419014
16750199500.0 -0.0517512355 -0.9917364259
16800199200.0 -0.0672444413 -0.9899746068
16850198900.0 -0.0826605127 -0.9890452692
16900198600.0 -0.096172417 -0.9885823733
16950198300.0 -0.1099731458 -0.986855201
17000198000.0 -0.1222497453 -0.9861352498
17050197700.0 -0.1351972995 -0.9839181935
17100197400.0 -0.1487641196 -0.9818478151
17150197100.0 -0.1609217751 -0.9804681353
17200196800.0 -0.1737223978 -0.9777189593
17250196500.0 -0.1862148168 -0.9753281927
17300196200.0 -0.198608959 -0.9730326158
17350195900.0 -0.2104899255 -0.9709194478
17400195600.0 -0.2226441022 -0.9683836447
17450195300.0 -0.2356127232 -0.9655212972
17500195000.0 -0.2490461346 -0.9622062063
17550194700.0 -0.2631434934 -0.9586506052
17600194400.0 -0.2768886075 -0.9545606657
17650194100.0 -0.2905427558 -0.950270569
17700193800.0 -0.30368883 -0.9462050956
17750193500.0 -0.3181338937 -0.941265951
17800193200.0 -0.332591258 -0.9361786819
17850192900.0 -0.3474668161 -0.9309536097
17900192600.0 -0.3625854286 -0.9246727803
17950192300.0 -0.378289968 -0.9176358516
18000192000.0 -0.3926719051 -0.9105494059
18050191700.0 -0.4067256245 -0.9025955117
18100191400.0 -0.4209831612 -0.8949155891
18150191100.0 -0.4358833257 -0.8869234743
18200190800.0 -0.4527349368 -0.877622377
18250190500.0 -0.4699032091 -0.8682300761
18300190200.0 -0.4850431274 -0.8592179268
18350189900.0 -0.5003624709 -0.8509595805
18400189600.0 -0.5147054497 -0.8426090732
18450189300.0 -0.5283056831 -0.8344909472
18500189000.0 -0.5410661976 -0.8266128158
18550188700.0 -0.5537174638 -0.8191968239
18600188400.0 -0.5654883123 -0.8120149117
18650188100.0 -0.5767848744 -0.8059281603
18700187800.0 -0.5876387024 -0.7992730495
18750187500.0 -0.5980228049 -0.7928145336
18800187200.0 -0.60863626 -0.7857742183
18850186900.0 -0.6187135062 -0.7786588478
18900186600.0 -0.6289572901 -0.7714684007
18950186300.0 -0.6390903797 -0.7637339757
19000186000.0 -0.6463804018 -0.7576165831
19050185700.0 -0.655853906 -0.7503071589
19100185400.0 -0.6651918749 -0.7414519088
19150185100.0 -0.6755588514 -0.7332984308
19200184800.0 -0.6850781483 -0.7250517464
19250184500.0 -0.6952519623 -0.7158884531
19300184200.0 -0.7072294709 -0.7058044743
19350183900.0 -0.7179703824 -0.6966543175
19400183600.0 -0.727956345 -0.6866995124
19450183300.0 -0.7358727191 -0.6763164085
19500183000.0 -0.7448066134 -0.6667934677
19550182700.0 -0.7545926692 -0.6551613049
19600182400.0 -0.7643597739 -0.6442010086
19650182100.0 -0.7754581009 -0.6317349285
19700181800.0 -0.7861581118 -0.6186636357
19750181500.0 -0.7967711817 -0.6043504626
19800181200.0 -0.8071544721 -0.5893197845
19850180900.0 -0.8166270636 -0.5739158192
19900180600.0 -0.8244197701 -0.5595020176
19950180300.0 -0.8336330893 -0.5431601215
20000180000.0 -0.8270699086 -0.5458194313
20050179700.0 -0.8347079443 -0.5327738007
20100179400.0 -0.84237074 -0.5186102871
20150179100.0 -0.8512112823 -0.505904993
20200178800.0 -0.859990646 -0.4930712334
20250178500.0 -0.8696206748 -0.4798605303
20300178200.0 -0.8795656988 -0.4653527949
20350177900.0 -0.8883702135 -0.4504666896
20400177600.0 -0.8969852084 -0.4357885697
20450177300.0 -0.905651832 -0.4216765656
20500177000.0 -0.9134577999 -0.4075967566
20550176700.0 -0.9214709925 -0.3941469323
20600176400.0 -0.9289717589 -0.3811593767
20650176100.0 -0.9350363014 -0.3685399486
20700175800.0 -0.9418553876 -0.3568410444
20750175500.0 -0.9482047345 -0.3448750619
20800175200.0 -0.9532064267 -0.3342292275
20850174900.0 -0.9584047728 -0.323473026
20900174600.0 -0.9625100842 -0.3112772658
20950174300.0 -0.9665856896 -0.2995856677
21000174000.0 -0.9705991869 -0.2887388661
21050173700.0 -0.9726762993 -0.2774207942
21100173400.0 -0.9775719012 -0.2650144778
21150173100.0 -0.9808893767 -0.253154922
21200172800.0 -0.984439504 -0.2394078376
21250172500.0 -0.987883961 -0.2254870851
21300172200.0 -0.990604141 -0.2114885295
21350171900.0 -0.9919243467 -0.1968224279
21400171600.0 -0.9934056866 -0.1828468306
21450171300.0 -0.9936904522 -0.1690987537
21500171000.0 -0.9933335344 -0.1527268722
21550170700.0 -0.9930619105 -0.1385650175
21600170400.0 -0.9927035267 -0.1207374184
21650170100.0 -0.9917024668 -0.104662197
21700169800.0 -0.9898603226 -0.0904665412
21750169500.0 -0.9892421823 -0.0739717388
21800169200.0 -0.987979846 -0.0589292552
21850168900.0 -0.9866141446 -0.0417345729
21900168600.0 -0.9848867949 -0.025338385
21950168300.0 -0.9839064662 -0.0098238267
22000168000.0 -0.983272357 0.0050082616
22050167700.0 -0.9825749776 0.0191649852
22100167400.0 -0.9827131449 0.0343642608
22150167100.0 -0.9831133167 0.049400458
22200166800.0 -0.9838573471 0.0655057519
22250166500.0 -0.983566111 0.0834133954
22300166200.0 -0.9825891949 0.1005289087
22350165900.0 -0.9811506029 0.1164116712
22400165600.0 -0.9793057978 0.1325663041
22450165300.0 -0.9770775287 0.1469859515
22500165000.0 -0.9750322855 0.1606828453
22550164700.0 -0.9738143412 0.1759834497
22600164400.0 -0.97317568 0.1924614861
22650164100.0 -0.9700367967 0.2061938567
22700163800.0 -0.9677814919 0.2226469129
22750163500.0 -0.9652889612 0.2373459773
22800163200.0 -0.9624702321 0.2510188565
22850162900.0 -0.9604720854 0.2644117138
22900162600.0 -0.9584454389 0.2779376135
22950162300.0 -0.957614492 0.2906995463
23000162000.0 -0.9569492904 0.3023402776
23050161700.0 -0.9548484601 0.3150072216
23100161400.0 -0.9526191279 0.3275554889
23150161100.0 -0.9496018819 0.3402948366
23200160800.0 -0.9475050542 0.3524074177
23250160500.0 -0.9443937254 0.364406439
23300160200.0 -0.9412570819 0.3754579458
23350159900.0 -0.937735294 0.3892005141
23400159600.0 -0.9324544331 0.401517155
23450159300.0 -0.9277735285 0.4150177737
23500159000.0 -0.9238755082 0.4280685676
23550158700.0 -0.9192531709 0.4415213057
23600158400.0 -0.9142009374 0.4546718466
23650158100.0 -0.9076910011 0.4686183344
23700157800.0 -0.9001279598 0.4824249003
23750157500.0 -0.8918742568 0.496353542
23800157200.0 -0.8829279003 0.5094546337
23850156900.0 -0.8744084294 0.5222893102
23900156600.0 -0.8647876856 0.5345362958
23950156300.0 -0.8558973244 0.5469352881
24000156000.0 -0.8460109342 0.5590417843
24050155700.0 -0.83592119 0.5704038279
24100155400.0 -0.8268899595 0.5822165698
24150155100.0 -0.8153129755 0.5947345719
24200154800.0 -0.80551136 0.6054104647
24250154500.0 -0.7928616721 0.6175901579
24300154200.0 -0.7817632914 0.6290289663
24350153900.0 -0.7698516071 0.6399462667
24400153600.0 -0.7577536547 0.6500728473
24450153300.0 -0.745713568 0.65970687
24500153000.0 -0.7339989222 0.6690707237
24550152700.0 -0.7232306905 0.6788012376
24600152400.0 -0.7112023051 0.6874531853
24650152100.0 -0.6993551078 0.6958336587
