!Created with skrf (http://scikit-rf.org).
# Hz S RI R 50.0 
!freq ReS11 ImS11
300000.0 -0.9741400738 -0.1204846111
50299700.0 -0.9999977125 0.0149784336
100299400.0 -0.9980602784 0.0280168871
150299100.0 -1.002665096 0.0447668858
200298800.0 -0.9994598167 0.0580946079
250298500.0 -0.9973908611 0.0714922281
300298200.0 -0.9859161706 0.0874231051
350297900.0 -0.9940248435 0.0983142761
400297600.0 -0.9930668462 0.1147319367
450297300.0 -0.9907984973 0.1286041157
500297000.0 -0.9895276764 0.143326544
550296700.0 -0.9842448272 0.1557447278
600296400.0 -1.017316887 0.1889180926
650296100.0 -0.9821829411 0.1856646583
700295800.0 -0.9794988928 0.2000288312
750295500.0 -0.9761339598 0.2137977163
800295200.0 -0.9729255738 0.2278619584
850294900.0 -0.9696817251 0.2418257428
900294600.0 -0.9657682616 0.2554063424
950294300.0 -0.9620442795 0.2692446691
1000294000.0 -0.9581188085 0.2832561394
1050293700.0 -0.9537800255 0.2969920865
1100293400.0 -0.9494602266 0.3115626635
1150293100.0 -0.9456684562 0.3235305106
1200292800.0 -0.9402332639 0.3377429894
1250292500.0 -0.9345407083 0.3511061855
1300292200.0 -0.9290983987 0.3644138944
1350291900.0 -0.9235169424 0.3785220608
1400291600.0 -0.917897839 0.3916054261
1450291300.0 -0.9125685484 0.4040432393
1500291000.0 -0.9062581606 0.4173368217
1550290700.0 -0.8997010425 0.430680602
1600290400.0 -0.8932758748 0.4436523288
1650290100.0 -0.8868214461 0.4555249911
1700289800.0 -0.8797321055 0.4693542604
1750289500.0 -0.8729456909 0.4815540483
1800289200.0 -0.8655163638 0.4943400728
1850288900.0 -0.8585712996 0.5057069839
1900288600.0 -0.8509077972 0.5186417017
1950288300.0 -0.8427772003 0.5313812821
2000288000.0 -0.8354045335 0.5427593333
2050287700.0 -0.8270505771 0.5550792853
2100287400.0 -0.819366199 0.5664327124
2150287100.0 -0.8110221011 0.5787018986
2200286800.0 -0.8029947693 0.5892001158
2250286500.0 -0.7940736568 0.60137452
2300286200.0 -0.7853143132 0.6128594322
2350285900.0 -0.7768195761 0.6235565561
2400285600.0 -0.7678234791 0.6344243608
2450285300.0 -0.7592184471 0.645174684
2500285000.0 -0.7491122604 0.6566281641
2550284700.0 -0.7401694798 0.6668075713
2600284400.0 -0.7309823417 0.6769126191
2650284100.0 -0.7222438101 0.6871041604
2700283800.0 -0.7120416601 0.6974337687
2750283500.0 -0.7015615692 0.7082668157
2800283200.0 -0.6917835138 0.7181960758
2850282900.0 -0.6810655807 0.7281564874
2900282600.0 -0.6706999719 0.7374729589
2950282300.0 -0.6604711466 0.7472420445
3000282000.0 -0.6495773824 0.7567431744
3050281700.0 -0.6384517564 0.7658464556
3100281400.0 -0.626895922 0.7750089038
3150281100.0 -0.6156398265 0.7838871856
3200280800.0 -0.6042014143 0.7922674282
3250280500.0 -0.5930907105 0.8002021536
3300280200.0 -0.5814111847 0.8084572024
3350279900.0 -0.5695110888 0.8166604608
3400279600.0 -0.5567289429 0.8244805251
3450279300.0 -0.5459295654 0.8316209026
3500279000.0 -0.5340744611 0.8384413916
3550278700.0 -0.5215779752 0.8454668673
3600278400.0 -0.5098025209 0.8523083778
3650278100.0 -0.4968081868 0.8598324249
3700277800.0 -0.4846515399 0.8663920524
3750277500.0 -0.4722300922 0.8731949244
3800277200.0 -0.4596750507 0.8797365942
3850276900.0 -0.447726421 0.8856660905
3900276600.0 -0.4368945503 0.891195901
3950276300.0 -0.424742302 0.897183665
4000276000.0 -0.4130802732 0.9030001883
4050275700.0 -0.4002745508 0.9092240754
4100275400.0 -0.3892974135 0.9143958395
4150275100.0 -0.3762302155 0.9204437652
4200274800.0 -0.3625890016 0.9262177251
4250274500.0 -0.3501530036 0.9314124776
4300274200.0 -0.3369262295 0.9368299067
4350273900.0 -0.3229021731 0.9419670635
4400273600.0 -0.3079009224 0.9471298641
4450273300.0 -0.2929542815 0.9522308796
4500273000.0 -0.2797162317 0.9564591445
4550272700.0 -0.2661924438 0.9605706755
4600272400.0 -0.25101333 0.9646316371
4650272100.0 -0.2397616222 0.9678421459
4700271800.0 -0.2269397224 0.971114994
4750271500.0 -0.2150932858 0.9741336005
4800271200.0 -0.2028505592 0.9767063002
4850270900.0 -0.1890817987 0.9795975938
4900270600.0 -0.1753768147 0.9819986454
4950270300.0 -0.1607996569 0.9846001303
5000270000.0 -0.1462564241 0.9866882537
5050269700.0 -0.1327687839 0.9883098952
5100269400.0 -0.1186106075 0.9899725917
5150269100.0 -0.1048708797 0.9919838991
5200268800.0 -0.0911537198 0.9928202531
5250268500.0 -0.0781771026 0.9937541782
5300268200.0 -0.064762532 0.9944055713
5350267900.0 -0.0518246415 0.9953008613
5400267600.0 -0.035557487 0.9963648887
5450267300.0 -0.0223571771 0.9968638235
5500267000.0 -0.0070271167 0.996986225
5550266700.0 0.0079312858 0.9972873577
5600266400.0 0.0236926223 0.9971196445
5650266100.0 0.040344137 0.9968538565
5700265800.0 0.0544533176 0.9959869332
5750265500.0 0.0694434933 0.9950362252
5800265200.0 0.0831946251 0.9940972671
5850264900.0 0.0963794036 0.9933494812
5900264600.0 0.1131759267 0.9913286385
5950264300.0 0.1244711816 0.9898534807
6000264000.0 0.1379271474 0.9880267127
6050263700.0 0.1497408672 0.9864105065
6100263400.0 0.1619050316 0.985155769
6150263100.0 0.176616585 0.982611063
6200262800.0 0.1859644213 0.9810443503
6250262500.0 0.1987012269 0.9787139265
6300262200.0 0.2110084391 0.9761489878
6350261900.0 0.2238784416 0.9733894573
6400261600.0 0.2377156391 0.9701250572
6450261300.0 0.2487395855 0.9677528471
6500261000.0 0.2621321212 0.9640511144
6550260700.0 0.2749699393 0.9600951779
6600260400.0 0.2887060833 0.9558522581
6650260100.0 0.3030707024 0.9518300681
6700259800.0 0.3148309821 0.9475437232
6750259500.0 0.328638399 0.942513558
6800259200.0 0.342268783 0.9371678489
6850258900.0 0.3545932194 0.9319612197
6900258600.0 0.3671458909 0.9270229535
6950258300.0 0.3795670304 0.9215207135
7000258000.0 0.3913802693 0.9164278136
7050257700.0 0.4032989752 0.9103889975
7100257400.0 0.416698544 0.904084809
7150257100.0 0.4274130918 0.8985707894
7200256800.0 0.440412287 0.8921381535
7250256500.0 0.4531141875 0.885633098
7300256200.0 0.4660243321 0.8786291888
7350255900.0 0.4786005606 0.8718619993
7400255600.0 0.4927312446 0.8639766403
7450255300.0 0.5081200124 0.8550515006
7500255000.0 0.5210608916 0.8476284981
7550254700.0 0.5352483829 0.8384467596
7600254400.0 0.5474496085 0.8302701279
7650254100.0 0.559437605 0.8224223451
7700253800.0 0.5705671496 0.8141028348
7750253500.0 0.5819208081 0.8068542558
7800253200.0 0.5925022124 0.798868964
7850252900.0 0.6020910884 0.791528778
7900252600.0 0.6136538026 0.7828874991
7950252300.0 0.6219750659 0.7763799237
8000252000.0 0.6319170433 0.7687939967
8050251700.0 0.6422719452 0.760804967
8100251400.0 0.652093475 0.75288204
8150251100.0 0.6623562942 0.7442419491
8200250800.0 0.6714993793 0.7362657303
8250250500.0 0.6804207551 0.7283409942
8300250200.0 0.6895648665 0.7198351454
8350249900.0 0.698843394 0.7110535196
8400249600.0 0.7069380953 0.7030817725
8450249300.0 0.7156892928 0.6942280541
8500249000.0 0.7242303898 0.6853991775
8550248700.0 0.7326205649 0.6763675904
8600248400.0 0.740995856 0.6667884501
8650248100.0 0.7486109561 0.6574779662
8700247800.0 0.7580260976 0.646502165
8750247500.0 0.7664067981 0.6364408123
8800247200.0 0.774304518 0.6261172724
8850246900.0 0.7830661493 0.614671369
8900246600.0 0.7912681003 0.6032538179
8950246300.0 0.8007597221 0.5904486286
9000246000.0 0.8093985147 0.5784530719
9050245700.0 0.8177651737 0.5661169061
9100245400.0 0.8261952256 0.5541324579
9150245100.0 0.8349332062 0.5412612355
9200244800.0 0.8444756074 0.5267763894
9250244500.0 0.8537317205 0.5119669757
9300244200.0 0.861813795 0.4984634458
9350243900.0 0.8692642537 0.4853203564
9400243600.0 0.8757297941 0.4734856861
9450243300.0 0.8813399994 0.4630165128
9500243000.0 0.887575308 0.4512672501
9550242700.0 0.8916243626 0.443585483
9600242400.0 0.8959319007 0.4361216401
9650242100.0 0.8999635761 0.4292045596
9700241800.0 0.9050928947 0.4208361371
9750241500.0 0.9091240947 0.4130789056
9800241200.0 0.9142433309 0.4035315315
9850240900.0 0.919972014 0.3917751982
9900240600.0 0.9257869866 0.3798889401
9950240300.0 0.9328703083 0.3631059109
10000240000.0 0.9379251016 0.3512365192
10050239700.0 0.9437712897 0.3352712763
10100239400.0 0.9491862736 0.3189416183
10150239100.0 0.9538657648 0.3032489183
10200238800.0 0.9582778692 0.2877204629
10250238500.0 0.9616096398 0.2742078768
10300238200.0 0.9646308419 0.2603605811
10350237900.0 0.9674730666 0.2469872368
10400237600.0 0.9702252251 0.2333520786
10450237300.0 0.9727847229 0.2198049046
10500237000.0 0.9749537018 0.2078184553
10550236700.0 0.9774745807 0.1931181538
10600236400.0 0.9792468885 0.1791996997
10650236100.0 0.9813878104 0.1646650637
10700235800.0 0.984165523 0.1519753518
10750235500.0 0.9857253405 0.138831559
10800235200.0 0.9878952438 0.1245327392
10850234900.0 0.9901095793 0.1097148479
10900234600.0 0.9920865731 0.0948009786
10950234300.0 0.9938047396 0.0813297385
11000234000.0 0.9956148692 0.0656985662
11050233700.0 0.9973503558 0.0490333276
11100233400.0 0.9989087744 0.0317313201
11150233100.0 0.9999449826 0.0146610225
11200232800.0 1.001082504 -0.0013660982
11250232500.0 1.001503755 -0.0184835869
11300232200.0 1.001927579 -0.0376246896
11350231900.0 1.00174138 -0.0541855943
11400231600.0 1.001532771 -0.0693665308
11450231300.0 1.000793814 -0.0844573035
11500231000.0 0.9996529699 -0.1016700052
11550230700.0 0.9980813178 -0.1141329941
11600230400.0 0.9970169105 -0.1275142947
11650230100.0 0.9947094348 -0.1392741541
11700229800.0 0.9924598845 -0.1539107647
11750229500.0 0.9903844892 -0.1680985717
11800229200.0 0.9874973983 -0.1812941347
11850228900.0 0.9836495387 -0.1932753922
11900228600.0 0.9797799847 -0.202969155
11950228300.0 0.9767019125 -0.2127521156
12000228000.0 0.9741276043 -0.2216669789
12050227700.0 0.9699164039 -0.2346066239
12100227400.0 0.9670478327 -0.2454329781
12150227100.0 0.9620666446 -0.2619517405
12200226800.0 0.9579224909 -0.2732525933
12250226500.0 0.9545599777 -0.2850458015
12300226200.0 0.9496653926 -0.2973646252
12350225900.0 0.9449596583 -0.3125353372
12400225600.0 0.9400349223 -0.3246090111
12450225300.0 0.9363566235 -0.3363013109
12500225000.0 0.9302735109 -0.3517948273
12550224700.0 0.9251773375 -0.365425779
12600224400.0 0.9202018163 -0.3777926527
12650224100.0 0.9141471023 -0.3922621186
12700223800.0 0.9090334689 -0.4051461789
12750223500.0 0.9037974261 -0.418042609
12800223200.0 0.8983316269 -0.4305682783
12850222900.0 0.8927020084 -0.4432047433
12900222600.0 0.8869501011 -0.4547494522
12950222300.0 0.8813372387 -0.4677672935
13000222000.0 0.8754287569 -0.4791021746
13050221700.0 0.8688869272 -0.4919173609
13100221400.0 0.861642394 -0.5042671098
13150221100.0 0.8549121005 -0.5165262484
13200220800.0 0.8476705589 -0.5278872793
13250220500.0 0.8403923217 -0.5401584965
13300220200.0 0.832727021 -0.5509719349
13350219900.0 0.8247926567 -0.5629489392
13400219600.0 0.8163058102 -0.574858761
13450219300.0 0.8072790307 -0.5879099083
13500219000.0 0.7971186404 -0.6012317452
13550218700.0 0.7881207627 -0.6131980211
13600218400.0 0.7776649777 -0.6252864481
13650218100.0 0.7686192957 -0.6363002268
13700217800.0 0.7576674977 -0.6477250652
13750217500.0 0.7478749427 -0.6595453969
13800217200.0 0.7361732125 -0.6702878397
13850216900.0 0.7263009156 -0.6821219267
13900216600.0 0.716009817 -0.6899951418
13950216300.0 0.7052138999 -0.7004600898
14000216000.0 0.6958398094 -0.7090059912
14050215700.0 0.686311998 -0.7171592199
14100215400.0 0.6767832249 -0.726527665
14150215100.0 0.6677096682 -0.7351430561
14200214800.0 0.6583382257 -0.7439135845
14250214500.0 0.6478042129 -0.7534591861
14300214200.0 0.6374683417 -0.7627485567
14350213900.0 0.6262603602 -0.7725692389
14400213600.0 0.6144719125 -0.7821527022
14450213300.0 0.6011751968 -0.7925038253
14500213000.0 0.5885955981 -0.8021937808
14550212700.0 0.5760872153 -0.8117139845
14600212400.0 0.5634176736 -0.820743222
14650212100.0 0.5511787842 -0.8290568751
14700211800.0 0.5370406892 -0.8385682484
14750211500.0 0.5249982535 -0.8468366448
14800211200.0 0.5121790727 -0.8550520477
14850210900.0 0.4999407212 -0.8629258179
14900210600.0 0.4867771466 -0.8708856605
14950210300.0 0.4734490887 -0.878485381
15000210000.0 0.460844198 -0.8851273953
15050209700.0 0.4486590341 -0.8913077281
15100209400.0 0.4356917273 -0.8971175343
15150209100.0 0.4236647628 -0.9030870665
15200208800.0 0.4103991646 -0.9082057767
15250208500.0 0.3994170788 -0.9126687239
15300208200.0 0.3879601877 -0.9171921037
15350207900.0 0.3753192726 -0.9216656177
15400207600.0 0.359157062 -0.9274177759
15450207300.0 0.3450093005 -0.9326185683
15500207000.0 0.3306263642 -0.9370319221
15550206700.0 0.3157044638 -0.9422890614
15600206400.0 0.3001296439 -0.9466711815
15650206100.0 0.2843577526 -0.9509217511
15700205800.0 0.2708206208 -0.9543575526
15750205500.0 0.2566856396 -0.9577236953
15800205200.0 0.2426428368 -0.9612284139
15850204900.0 0.2282907203 -0.9647281091
15900204600.0 0.2133435366 -0.9683976087
15950204300.0 0.1989397302 -0.9713154568
16000204000.0 0.1844760453 -0.9745315242
16050203700.0 0.169376109 -0.9772166766
16100203400.0 0.1545144306 -0.9796580422
16150203100.0 0.1395000154 -0.9820730566
16200202800.0 0.1253379608 -0.9839002799
16250202500.0 0.1105152939 -0.9862455139
16300202200.0 0.0954820831 -0.9874205598
16350201900.0 0.0803714659 -0.9888726014
16400201600.0 0.0652492255 -0.9900537005
16450201300.0 0.049954915 -0.9912823665
16500201000.0 0.0329934552 -0.9920626514
16550200700.0 0.016902335 -0.992646029
16600200400.0 0.0009824083 -0.9926602623
16650200100.0 -0.015432975 -0.9927603818
16700199800.0 -0.0315840882 -0.9920356503
16750199500.0 -0.0504786483 -0.9916146607
16800199200.0 -0.0664365206 -0.9907472284
16850198900.0 -0.0816625112 -0.9896346402
16900198600.0 -0.0961548061 -0.988796167
16950198300.0 -0.1100494595 -0.9875758848
17000198000.0 -0.1231145885 -0.9858996867
17050197700.0 -0.1354739153 -0.9835979014
17100197400.0 -0.1482624004 -0.9821650982
17150197100.0 -0.1609480469 -0.9800475766
17200196800.0 -0.1737391607 -0.9778556601
17250196500.0 -0.1867098987 -0.9754597574
17300196200.0 -0.1991214337 -0.9733329279
17350195900.0 -0.2109691902 -0.9707647757
17400195600.0 -0.2228335132 -0.9681489362
17450195300.0 -0.2357405499 -0.965329677
17500195000.0 -0.2491061035 -0.9622027585
17550194700.0 -0.2630038076 -0.9584728541
17600194400.0 -0.2766072996 -0.9547336052
17650194100.0 -0.2901965073 -0.9504885989
17700193800.0 -0.3027869283 -0.9461647428
17750193500.0 -0.3175005715 -0.9416391786
17800193200.0 -0.3315728833 -0.9365197585
17850192900.0 -0.3461530901 -0.9308748505
17900192600.0 -0.3615981607 -0.9248776413
17950192300.0 -0.3769952109 -0.918084507
18000192000.0 -0.3920630411 -0.9107121182
18050191700.0 -0.4057039281 -0.9028898507
18100191400.0 -0.4198437525 -0.8951549269
18150191100.0 -0.4346462747 -0.8872309329
18200190800.0 -0.4514927666 -0.8779202162
18250190500.0 -0.4684477689 -0.8685585105
18300190200.0 -0.4842016922 -0.8598797848
18350189900.0 -0.4992868274 -0.8512500985
18400189600.0 -0.5133841658 -0.8429336479
18450189300.0 -0.5273995934 -0.8349428599
18500189000.0 -0.540715786 -0.8268515169
18550188700.0 -0.5537421851 -0.8189774767
18600188400.0 -0.5651518147 -0.8124952156
18650188100.0 -0.5763805828 -0.8056684833
18700187800.0 -0.5877170452 -0.7990178398
18750187500.0 -0.5986035607 -0.7925107078
18800187200.0 -0.6090501002 -0.7855384437
18850186900.0 -0.6191965892 -0.7787557844
18900186600.0 -0.6294482767 -0.7712420792
18950186300.0 -0.6397552097 -0.763550698
19000186000.0 -0.6471290766 -0.7573513504
19050185700.0 -0.6561790829 -0.7502474361
19100185400.0 -0.6669955033 -0.7421857299
19150185100.0 -0.6767355035 -0.7334095504
19200184800.0 -0.6860197294 -0.725229001
19250184500.0 -0.6968665397 -0.7160416765
19300184200.0 -0.7073731127 -0.7064922851
19350183900.0 -0.7182030988 -0.6964501249
19400183600.0 -0.7281419027 -0.6870919363
19450183300.0 -0.7371947817 -0.6766621971
19500183000.0 -0.7453761646 -0.6671299115
19550182700.0 -0.7551101453 -0.6556597388
19600182400.0 -0.7647327618 -0.6443802081
19650182100.0 -0.7757283938 -0.631762708
19700181800.0 -0.7861998852 -0.6184988459
19750181500.0 -0.7966544115 -0.6045330806
19800181200.0 -0.8069400654 -0.5896483523
19850180900.0 -0.8163940487 -0.5744566528
19900180600.0 -0.8239690918 -0.559748872
19950180300.0 -0.833421602 -0.5437550186
20000180000.0 -0.8239287585 -0.5472139282
20050179700.0 -0.8318405811 -0.5346809017
20100179400.0 -0.8398498286 -0.5208398052
20150179100.0 -0.8476338224 -0.5093878602
20200178800.0 -0.8564698545 -0.4974376563
20250178500.0 -0.8662494552 -0.4858209658
20300178200.0 -0.8754387109 -0.4712492429
20350177900.0 -0.8849184864 -0.4572893573
20400177600.0 -0.8937187503 -0.4430305965
20450177300.0 -0.9021533453 -0.4291116035
20500177000.0 -0.9101926195 -0.4152545294
20550176700.0 -0.9180422304 -0.4017590247
20600176400.0 -0.9248640777 -0.3884182639
20650176100.0 -0.9314786763 -0.3761768514
20700175800.0 -0.9388949897 -0.3637978462
20750175500.0 -0.9446577641 -0.3524373821
20800175200.0 -0.9488642084 -0.3425095101
20850174900.0 -0.9535915067 -0.3313692334
20900174600.0 -0.9589044125 -0.3204558104
20950174300.0 -0.9612759329 -0.3095113379
21000174000.0 -0.9646443317 -0.299267265
21050173700.0 -0.9663956257 -0.2885600717
21100173400.0 -0.9694676536 -0.2781093819
21150173100.0 -0.9735291828 -0.2658035535
21200172800.0 -0.9775416457 -0.2528062857
21250172500.0 -0.9809820638 -0.2386009866
21300172200.0 -0.984415488 -0.225113442
21350171900.0 -0.9866578355 -0.2102911882
21400171600.0 -0.9882917359 -0.1966146081
21450171300.0 -0.9896607132 -0.1828377064
21500171000.0 -0.9892202465 -0.1666375359
21550170700.0 -0.9900759217 -0.1527577297
21600170400.0 -0.9909049742 -0.1362651998
21650170100.0 -0.9922030721 -0.1207759133
21700169800.0 -0.9900475406 -0.1062738978
21750169500.0 -0.9896474859 -0.0892819213
21800169200.0 -0.9904510554 -0.0728902892
21850168900.0 -0.9897183048 -0.0565541231
21900168600.0 -0.9891502177 -0.0404198327
21950168300.0 -0.9896303603 -0.0248383522
22000168000.0 -0.9886634017 -0.0090993811
22050167700.0 -0.9891301773 0.005113648
22100167400.0 -0.9897825978 0.0205940929
22150167100.0 -0.9907971958 0.0365787531
22200166800.0 -0.99115586 0.0532624432
22250166500.0 -0.9902864617 0.0705296718
22300166200.0 -0.9893781789 0.0868712567
22350165900.0 -0.9892830501 0.1031085512
22400165600.0 -0.9869626618 0.1186597828
22450165300.0 -0.9849791542 0.1334387539
22500165000.0 -0.9847411742 0.1477455412
22550164700.0 -0.9823747589 0.1644705206
22600164400.0 -0.9801849439 0.179647412
22650164100.0 -0.9774723438 0.1956439712
22700163800.0 -0.9747956428 0.2118348315
22750163500.0 -0.97198739 0.2271685064
22800163200.0 -0.9684595061 0.2396358212
22850162900.0 -0.9659187129 0.2531149195
22900162600.0 -0.9644775708 0.2672121274
22950162300.0 -0.9625750855 0.2807819439
23000162000.0 -0.9607744092 0.2935044649
23050161700.0 -0.9586314715 0.306896498
23100161400.0 -0.9561467916 0.3204891799
23150161100.0 -0.9523190349 0.3332700383
23200160800.0 -0.9494063958 0.3457060161
23250160500.0 -0.9472979148 0.358353397
23300160200.0 -0.9439311467 0.3712652646
23350159900.0 -0.9399182891 0.3845853119
23400159600.0 -0.9349688509 0.398085073
23450159300.0 -0.9304544287 0.4123375073
23500159000.0 -0.9252156878 0.4254184469
23550158700.0 -0.9199185195 0.4399152653
23600158400.0 -0.9142017061 0.4538610907
23650158100.0 -0.9071317966 0.4683020964
23700157800.0 -0.8986678157 0.4822563412
23750157500.0 -0.8895238183 0.4965287462
23800157200.0 -0.8797934724 0.5106090578
23850156900.0 -0.8702673686 0.5230221018
23900156600.0 -0.8604376347 0.535141709
23950156300.0 -0.8503063984 0.5483192709
24000156000.0 -0.8401603871 0.5607949865
24050155700.0 -0.8303160038 0.572779623
24100155400.0 -0.8197740189 0.5851871368
24150155100.0 -0.8094373162 0.5967802983
24200154800.0 -0.7985270667 0.6088905015
24250154500.0 -0.787059479 0.6213607121
24300154200.0 -0.7751576889 0.6335688881
24350153900.0 -0.7631127 0.6448189542
24400153600.0 -0.7510534282 0.6551280642
24450153300.0 -0.7387931821 0.665187045
24500153000.0 -0.7275370812 0.6757134263
24550152700.0 -0.7151487993 0.6857962758
24600152400.0 -0.7038334655 0.694385908
