!Created with skrf (http://scikit-rf.org).
# Hz S RI R 50.0 
!freq ReS11 ImS11
300000.0 -0.9739323459 -0.1221491321
50299700.0 -0.999931752 0.0149836773
100299400.0 -0.9979958261 0.0279988963
150299100.0 -1.002730335 0.044741735
200298800.0 -0.9996396839 0.0581892361
250298500.0 -0.9971307757 0.0716772743
300298200.0 -0.9859883346 0.0872892886
350297900.0 -0.9941718557 0.0983199838
400297600.0 -0.993080844 0.1147727959
450297300.0 -0.9910368966 0.1288810734
500297000.0 -0.9893923301 0.1436280536
550296700.0 -0.9843137667 0.1558014897
600296400.0 -1.017257153 0.1894002631
650296100.0 -0.9823099597 0.1858117401
700295800.0 -0.9793973828 0.1998635725
750295500.0 -0.9761584535 0.2139922987
800295200.0 -0.9731306107 0.2281149604
850294900.0 -0.9697937993 0.241984145
900294600.0 -0.9657439758 0.2557254041
950294300.0 -0.9620426754 0.2693383465
1000294000.0 -0.9580099215 0.2834659994
1050293700.0 -0.9536068076 0.2969245402
1100293400.0 -0.9492463081 0.3115218159
1150293100.0 -0.9453569222 0.323482916
1200292800.0 -0.9402624495 0.3378787905
1250292500.0 -0.9347115318 0.3512989083
1300292200.0 -0.9290063249 0.3644589083
1350291900.0 -0.9235294791 0.3786551461
1400291600.0 -0.9179754285 0.39171251
1450291300.0 -0.9126377003 0.403939376
1500291000.0 -0.9062424121 0.4173044977
1550290700.0 -0.8997076262 0.4308326253
1600290400.0 -0.893380239 0.4436477844
1650290100.0 -0.8867880862 0.4557499702
1700289800.0 -0.8798597896 0.469424517
1750289500.0 -0.8729358106 0.4815516726
1800289200.0 -0.8655721261 0.4945606779
1850288900.0 -0.8587076741 0.5059203524
1900288600.0 -0.8510359346 0.5187930605
1950288300.0 -0.8428380593 0.5314282497
2000288000.0 -0.8351934919 0.5428459781
2050287700.0 -0.8269921037 0.5552315474
2100287400.0 -0.8194295344 0.5666880216
2150287100.0 -0.8108175941 0.5786822071
2200286800.0 -0.8030106186 0.5893829004
2250286500.0 -0.7940797105 0.6015438226
2300286200.0 -0.7851015546 0.6128808972
2350285900.0 -0.7769677255 0.6233773423
2400285600.0 -0.768005716 0.6345023408
2450285300.0 -0.7593081564 0.6449960432
2500285000.0 -0.7491062785 0.6567457455
2550284700.0 -0.740054061 0.6670026878
2600284400.0 -0.7307358153 0.6767545033
2650284100.0 -0.7223063112 0.6873004602
2700283800.0 -0.7118177486 0.697445029
2750283500.0 -0.7014921451 0.7082492757
2800283200.0 -0.6913535835 0.7181666793
2850282900.0 -0.6810569424 0.7284319041
2900282600.0 -0.6706620642 0.7381108442
2950282300.0 -0.6600741432 0.7472415397
3000282000.0 -0.6496406427 0.7568291102
3050281700.0 -0.6384432123 0.7658698555
3100281400.0 -0.6267642823 0.7751112718
3150281100.0 -0.6154192861 0.7840434472
3200280800.0 -0.6040318289 0.792347305
3250280500.0 -0.5929938858 0.8004074779
3300280200.0 -0.5814604755 0.8085602062
3350279900.0 -0.5693361348 0.8165677507
3400279600.0 -0.5565051991 0.8245229637
3450279300.0 -0.5456063131 0.831609279
3500279000.0 -0.5337664076 0.8384683735
3550278700.0 -0.5216210898 0.8457414807
3600278400.0 -0.5098521791 0.8525224263
3650278100.0 -0.4967317212 0.8599865305
3700277800.0 -0.4847402632 0.8666375863
3750277500.0 -0.4722530129 0.8732492769
3800277200.0 -0.4595585834 0.8798432708
3850276900.0 -0.44766568 0.8856500367
3900276600.0 -0.4366409527 0.8914580387
3950276300.0 -0.4248575129 0.8973744771
4000276000.0 -0.4131406127 0.9029801459
4050275700.0 -0.4002903902 0.9091896
4100275400.0 -0.3892254029 0.914586764
4150275100.0 -0.3761523579 0.9204770612
4200274800.0 -0.3627263674 0.926386939
4250274500.0 -0.3501254985 0.9316991257
4300274200.0 -0.3367317509 0.9370158198
4350273900.0 -0.3221897139 0.9418181562
4400273600.0 -0.3079031025 0.9473463464
4450273300.0 -0.2928050058 0.9521177165
4500273000.0 -0.279540207 0.9565371873
4550272700.0 -0.2659898814 0.9606496954
4600272400.0 -0.2509286732 0.9647233508
4650272100.0 -0.239563359 0.9678768524
4700271800.0 -0.22669732 0.9711239606
4750271500.0 -0.2148382175 0.9740148218
4800271200.0 -0.2027819152 0.9767338146
4850270900.0 -0.1889121669 0.9795045996
4900270600.0 -0.1752725543 0.9819647051
4950270300.0 -0.1605924852 0.9846417174
5000270000.0 -0.1459839799 0.98681728
5050269700.0 -0.1325730135 0.9886128204
5100269400.0 -0.1183672665 0.9901644732
5150269100.0 -0.1046402114 0.9919841082
5200268800.0 -0.0911379406 0.9929464822
5250268500.0 -0.0780684323 0.9939253572
5300268200.0 -0.064546214 0.9944268254
5350267900.0 -0.051749099 0.995222367
5400267600.0 -0.0354627156 0.9965462367
5450267300.0 -0.0220230046 0.9967559125
5500267000.0 -0.0067740482 0.9970026463
5550266700.0 0.0082652888 0.9973919027
5600266400.0 0.0238203906 0.9972164968
5650266100.0 0.040503941 0.996553893
5700265800.0 0.0548283172 0.9962190798
5750265500.0 0.0700246922 0.9952485426
5800265200.0 0.08337692 0.9941764115
5850264900.0 0.0965898933 0.9933341636
5900264600.0 0.1130799767 0.9914750701
5950264300.0 0.124752329 0.9897951029
6000264000.0 0.1380783403 0.9880122932
6050263700.0 0.1499868125 0.9867805097
6100263400.0 0.1617014782 0.9845982405
6150263100.0 0.176781034 0.9824873252
6200262800.0 0.1862585513 0.9808953795
6250262500.0 0.198841069 0.9785362456
6300262200.0 0.2112439506 0.9762821291
6350261900.0 0.2238974905 0.9734059377
6400261600.0 0.2378752712 0.9700991385
6450261300.0 0.2488194348 0.9676874055
6500261000.0 0.2623810532 0.9640473594
6550260700.0 0.2753563033 0.9601719944
6600260400.0 0.2889371003 0.9563213298
6650260100.0 0.3027705471 0.9515054624
6700259800.0 0.3146249086 0.9471367774
6750259500.0 0.328857376 0.9425646824
6800259200.0 0.3424568303 0.9374323107
6850258900.0 0.3549484914 0.9319521784
6900258600.0 0.3674196881 0.927039727
6950258300.0 0.379940816 0.9213668275
7000258000.0 0.3916024743 0.9161955395
7050257700.0 0.4033712057 0.9103490047
7100257400.0 0.4168549542 0.9039594559
7150257100.0 0.4274701075 0.8986663653
7200256800.0 0.4407438102 0.8921098233
7250256500.0 0.4529709478 0.8853092828
7300256200.0 0.4661384549 0.8784743125
7350255900.0 0.4788235332 0.8717151847
7400255600.0 0.4930181119 0.8636634652
7450255300.0 0.5085449155 0.854740527
7500255000.0 0.5209692654 0.8474709348
7550254700.0 0.5356605009 0.8380992439
7600254400.0 0.5479767196 0.8299303009
7650254100.0 0.5592733381 0.8220225265
7700253800.0 0.5711130191 0.8138503308
7750253500.0 0.5821661539 0.8064143929
7800253200.0 0.5925546124 0.7984628611
7850252900.0 0.6024248087 0.7912144092
7900252600.0 0.6140292911 0.7825368262
7950252300.0 0.6223007237 0.7761720836
8000252000.0 0.6320822375 0.7684181174
8050251700.0 0.6425678226 0.7603960994
8100251400.0 0.6527926922 0.7525139243
8150251100.0 0.6625063302 0.743887523
8200250800.0 0.6718044299 0.7356859973
8250250500.0 0.6810910119 0.7277941988
8300250200.0 0.6895272676 0.7194983689
8350249900.0 0.6993417627 0.7107426836
8400249600.0 0.7072868678 0.7026514025
8450249300.0 0.7157368178 0.6938737159
8500249000.0 0.7243490251 0.6851984075
8550248700.0 0.7329480048 0.6760621634
8600248400.0 0.7412498594 0.6666508903
8650248100.0 0.748777176 0.6574256725
8700247800.0 0.758074463 0.6462043883
8750247500.0 0.7664769133 0.6360620138
8800247200.0 0.7744106375 0.6260434186
8850246900.0 0.7831966248 0.6142821566
8900246600.0 0.791453932 0.6028360922
8950246300.0 0.8007001901 0.5903686696
9000246000.0 0.8093930081 0.5784359732
9050245700.0 0.8179691004 0.566042821
9100245400.0 0.8262171713 0.5536381287
9150245100.0 0.834878834 0.540918111
9200244800.0 0.8446773668 0.5264266263
9250244500.0 0.8534882655 0.5117574066
9300244200.0 0.8617466121 0.4983760637
9350243900.0 0.8691644364 0.4850696239
9400243600.0 0.8757896882 0.4731228158
9450243300.0 0.8813750791 0.4629048143
9500243000.0 0.8876637382 0.451135298
9550242700.0 0.89170203 0.4434734421
9600242400.0 0.8959424292 0.4360279802
9650242100.0 0.9001392641 0.4292002409
9700241800.0 0.90494886 0.4204683977
9750241500.0 0.9090942887 0.4128710692
9800241200.0 0.9141104986 0.4033734423
9850240900.0 0.9197549332 0.3918767588
9900240600.0 0.9255966566 0.3799796637
9950240300.0 0.9330080289 0.3631399797
10000240000.0 0.9378133105 0.3512353086
10050239700.0 0.9438711606 0.3348803279
10100239400.0 0.9494164361 0.3186566135
10150239100.0 0.9540728883 0.3028488304
10200238800.0 0.9583078975 0.2877043444
10250238500.0 0.9615862947 0.2739776824
10300238200.0 0.964682585 0.2600717546
10350237900.0 0.967468922 0.2467606102
10400237600.0 0.9700546552 0.2332051606
10450237300.0 0.9728230572 0.2193254789
10500237000.0 0.9750930841 0.2075649934
10550236700.0 0.9778899399 0.1924239153
10600236400.0 0.9796113361 0.1789893218
10650236100.0 0.9812883659 0.1645104914
10700235800.0 0.983904203 0.1519581332
10750235500.0 0.9861254404 0.1382612632
10800235200.0 0.9881803607 0.1238378151
10850234900.0 0.9901115032 0.109316804
10900234600.0 0.9921149984 0.0945901562
10950234300.0 0.9938973594 0.0809786472
11000234000.0 0.995641937 0.0652609891
11050233700.0 0.9973709351 0.0485994302
11100233400.0 0.9990778458 0.0307458479
11150233100.0 1.00000079 0.0138233679
11200232800.0 1.000994573 -0.0018725262
11250232500.0 1.001769179 -0.0200153105
11300232200.0 1.001833422 -0.0379927165
11350231900.0 1.002279703 -0.0549668277
11400231600.0 1.001479317 -0.0694007157
11450231300.0 1.001500517 -0.0862556475
11500231000.0 1.000206688 -0.1022136996
11550230700.0 0.9981548797 -0.1158363188
11600230400.0 0.9973230968 -0.1278876546
11650230100.0 0.994629178 -0.1402283556
11700229800.0 0.9927517143 -0.1544645899
11750229500.0 0.9901429197 -0.169109103
11800229200.0 0.9871966732 -0.1821316843
11850228900.0 0.9835677846 -0.1941193903
11900228600.0 0.9798705439 -0.2037297434
11950228300.0 0.9764046333 -0.2135994278
12000228000.0 0.9735677409 -0.2220936571
12050227700.0 0.9696260362 -0.2355422152
12100227400.0 0.9670278696 -0.2460091788
12150227100.0 0.9614581317 -0.2622322715
12200226800.0 0.9575901582 -0.2735883263
12250226500.0 0.953749903 -0.2861905708
12300226200.0 0.9488864091 -0.2988836758
12350225900.0 0.9446074175 -0.3133051597
12400225600.0 0.9404266621 -0.3246530001
12450225300.0 0.935906109 -0.3378641868
12500225000.0 0.9298969501 -0.3517915827
12550224700.0 0.9247060038 -0.3656529388
12600224400.0 0.9198818078 -0.378737663
12650224100.0 0.9138929039 -0.3928093792
12700223800.0 0.9086658466 -0.4057373903
12750223500.0 0.903098848 -0.4189422116
12800223200.0 0.8978142107 -0.4313200529
12850222900.0 0.8924816334 -0.4432790403
12900222600.0 0.8870545225 -0.4552281707
12950222300.0 0.8805869744 -0.468560395
13000222000.0 0.8749970685 -0.4802698271
13050221700.0 0.8682160715 -0.492750467
13100221400.0 0.8611295219 -0.504592222
13150221100.0 0.8540539425 -0.5167798108
13200220800.0 0.8476089267 -0.5285398636
13250220500.0 0.8402750952 -0.5407866611
13300220200.0 0.8326421424 -0.5515818965
13350219900.0 0.824376893 -0.5634889814
13400219600.0 0.8158722145 -0.575413695
13450219300.0 0.8067619623 -0.5885020877
13500219000.0 0.7973509595 -0.6015459879
13550218700.0 0.7870482756 -0.6140437871
13600218400.0 0.7770379846 -0.6259746231
13650218100.0 0.7678777463 -0.6368988427
13700217800.0 0.7572006053 -0.6483197741
13750217500.0 0.7476133667 -0.6590210537
13800217200.0 0.7366318679 -0.6713223777
13850216900.0 0.725194203 -0.6819885583
13900216600.0 0.7154114702 -0.6900808336
13950216300.0 0.7052573351 -0.7002551428
14000216000.0 0.6949288116 -0.7099731588
14050215700.0 0.685927823 -0.7173639406
14100215400.0 0.6761285515 -0.7265869057
14150215100.0 0.6672632475 -0.7353270002
14200214800.0 0.657727037 -0.7442819799
14250214500.0 0.647322565 -0.7538032715
14300214200.0 0.6369076589 -0.7631644937
14350213900.0 0.6258425987 -0.772720889
14400213600.0 0.6140137878 -0.7826635744
14450213300.0 0.6009251605 -0.7927001809
14500213000.0 0.5877177958 -0.803044838
14550212700.0 0.5756944299 -0.8120121681
14600212400.0 0.563465725 -0.8206840762
14650212100.0 0.5504578961 -0.829429917
14700211800.0 0.53656323 -0.8390048211
14750211500.0 0.5247407115 -0.8471578868
14800211200.0 0.5120920806 -0.8555080132
14850210900.0 0.4996078739 -0.8632286271
14900210600.0 0.4862759475 -0.8711458217
14950210300.0 0.4730235287 -0.8788080164
15000210000.0 0.4603716636 -0.8855955524
15050209700.0 0.4482148439 -0.8915512597
15100209400.0 0.4352443574 -0.8974125882
15150209100.0 0.4230970996 -0.9031994313
15200208800.0 0.4105984709 -0.9084080081
15250208500.0 0.399364789 -0.9129021272
15300208200.0 0.3872418841 -0.9171387566
15350207900.0 0.3733200729 -0.9219401761
15400207600.0 0.3586944791 -0.9279478494
15450207300.0 0.3435910377 -0.9327058256
15500207000.0 0.330117553 -0.9375604088
15550206700.0 0.3153649566 -0.9423577881
15600206400.0 0.2991474614 -0.946876192
15650206100.0 0.283536684 -0.9510023121
15700205800.0 0.2698112721 -0.9545411108
15750205500.0 0.2559958763 -0.9578963938
15800205200.0 0.2420034335 -0.9613280467
15850204900.0 0.2278880866 -0.9647387012
15900204600.0 0.2127623518 -0.9684298451
15950204300.0 0.1984079181 -0.9716717878
16000204000.0 0.1840438051 -0.9744501089
16050203700.0 0.1686417044 -0.977317751
16100203400.0 0.1540240418 -0.9798243665
16150203100.0 0.139114265 -0.9822162587
16200202800.0 0.1249024332 -0.9841154099
16250202500.0 0.1103696783 -0.9859773546
16300202200.0 0.0945104438 -0.9874193291
16350201900.0 0.0794488401 -0.9891715809
16400201600.0 0.0649327658 -0.9899959421
16450201300.0 0.0493328912 -0.9911133166
16500201000.0 0.0322446717 -0.9919044707
16550200700.0 0.0161691977 -0.9925301594
16600200400.0 0.0002948223 -0.9927518499
16650200100.0 -0.0159414195 -0.9925684956
16700199800.0 -0.0322055931 -0.9917469872
16750199500.0 -0.0511095725 -0.9912388608
16800199200.0 -0.0678308612 -0.990632176
16850198900.0 -0.0830902747 -0.9897511827
16900198600.0 -0.0972996124 -0.9887316104
16950198300.0 -0.1105177282 -0.987003311
17000198000.0 -0.1232679508 -0.9858702148
17050197700.0 -0.136602425 -0.9841216979
17100197400.0 -0.1493756359 -0.9821741798
17150197100.0 -0.1621092949 -0.9802405423
17200196800.0 -0.1748168897 -0.977577089
17250196500.0 -0.1874524735 -0.9753560826
17300196200.0 -0.1999054705 -0.9731261999
17350195900.0 -0.2118237244 -0.9707707132
17400195600.0 -0.2236452366 -0.9680306185
17450195300.0 -0.2363344065 -0.9653449207
17500195000.0 -0.2497780847 -0.9619395594
17550194700.0 -0.2635083484 -0.958530556
17600194400.0 -0.2774466898 -0.9543490423
17650194100.0 -0.2907872106 -0.9504361286
17700193800.0 -0.3036199316 -0.9463166479
17750193500.0 -0.3181943146 -0.9415400179
17800193200.0 -0.3319037 -0.9365094072
17850192900.0 -0.3469244198 -0.931247248
17900192600.0 -0.3621513182 -0.9248238635
17950192300.0 -0.3776748988 -0.9176769084
18000192000.0 -0.3924116088 -0.9105236503
18050191700.0 -0.4062035917 -0.9026199988
18100191400.0 -0.4203130447 -0.8949134869
18150191100.0 -0.4350607843 -0.8869677753
18200190800.0 -0.4519479412 -0.8777411312
18250190500.0 -0.4691645126 -0.8682348787
18300190200.0 -0.4843514168 -0.859330589
18350189900.0 -0.4999190148 -0.8507393601
18400189600.0 -0.5141753256 -0.8422273698
18450189300.0 -0.5278538522 -0.8347338129
18500189000.0 -0.5412472277 -0.8265308652
18550188700.0 -0.5541590379 -0.8187275343
18600188400.0 -0.565907296 -0.8118839089
18650188100.0 -0.57707554 -0.8051091559
18700187800.0 -0.5880948889 -0.7989938379
18750187500.0 -0.59890336 -0.7920328304
18800187200.0 -0.6095441057 -0.784984005
18850186900.0 -0.6197698624 -0.7780838928
18900186600.0 -0.6301535337 -0.770897124
18950186300.0 -0.6403360667 -0.7631921986
19000186000.0 -0.6478450829 -0.7568749447
19050185700.0 -0.6568364081 -0.7495741807
19100185400.0 -0.6666319756 -0.7412059171
19150185100.0 -0.6774136961 -0.7328983328
19200184800.0 -0.6862709285 -0.7248166817
19250184500.0 -0.6972982443 -0.7152171264
19300184200.0 -0.7082399361 -0.7059835157
19350183900.0 -0.719193275 -0.6970305253
19400183600.0 -0.728651331 -0.6863331834
19450183300.0 -0.7377073185 -0.6769542952
19500183000.0 -0.7458353792 -0.6661333424
19550182700.0 -0.755434614 -0.6550944226
19600182400.0 -0.7657990051 -0.6436592115
19650182100.0 -0.7765747797 -0.6313066567
19700181800.0 -0.7869754774 -0.618060397
19750181500.0 -0.7974169771 -0.6040756811
19800181200.0 -0.8074518416 -0.5890139368
19850180900.0 -0.8170340196 -0.5739008954
19900180600.0 -0.8244796116 -0.559080231
19950180300.0 -0.8338592307 -0.5430097468
20000180000.0 -0.8233082946 -0.5467506128
20050179700.0 -0.8319478362 -0.5344496081
20100179400.0 -0.8398653365 -0.5217032562
20150179100.0 -0.8475833012 -0.509864854
20200178800.0 -0.8563464179 -0.4984805244
20250178500.0 -0.8656529709 -0.4852787682
20300178200.0 -0.8752626574 -0.4717492475
20350177900.0 -0.8842279854 -0.4581240976
20400177600.0 -0.8934954844 -0.4429044763
20450177300.0 -0.9022316674 -0.4290163625
20500177000.0 -0.9100610791 -0.415242642
20550176700.0 -0.9180166086 -0.4014813285
20600176400.0 -0.9247072014 -0.3885473402
20650176100.0 -0.9316197982 -0.3764823979
20700175800.0 -0.9384914588 -0.364693828
20750175500.0 -0.9454335759 -0.3525221245
20800175200.0 -0.9490097373 -0.3424104115
20850174900.0 -0.9543906561 -0.33167576
20900174600.0 -0.9578014496 -0.3210156031
20950174300.0 -0.9619028511 -0.3093970928
21000174000.0 -0.9638195567 -0.2992876543
21050173700.0 -0.9657795994 -0.2897834767
21100173400.0 -0.9693620548 -0.278233257
21150173100.0 -0.9727479772 -0.2667353005
21200172800.0 -0.9772831958 -0.2530382987
21250172500.0 -0.9807779073 -0.2391416282
21300172200.0 -0.9840684284 -0.2255223118
21350171900.0 -0.9859681555 -0.2105189958
21400171600.0 -0.9887615965 -0.1968461665
21450171300.0 -0.989850105 -0.1828826929
21500171000.0 -0.9895635049 -0.1666120956
21550170700.0 -0.9896137719 -0.1533137357
21600170400.0 -0.9913807219 -0.1364422424
21650170100.0 -0.9910691158 -0.120856448
21700169800.0 -0.9901335057 -0.1064306856
21750169500.0 -0.9902978092 -0.0903612808
21800169200.0 -0.9903765578 -0.0734222569
21850168900.0 -0.989405376 -0.0566660127
21900168600.0 -0.989929789 -0.0398359982
21950168300.0 -0.9887065587 -0.024883983
22000168000.0 -0.9890478088 -0.0096953325
22050167700.0 -0.9895369956 0.0047780981
22100167400.0 -0.9902357387 0.0201223087
22150167100.0 -0.9913246211 0.0365238543
22200166800.0 -0.9919847506 0.0533306475
22250166500.0 -0.9910151703 0.0702439782
22300166200.0 -0.9905750524 0.0863975165
22350165900.0 -0.9892853453 0.10274279
22400165600.0 -0.9880850003 0.1178328644
22450165300.0 -0.9861762453 0.134094402
22500165000.0 -0.9843067712 0.1492518568
22550164700.0 -0.9824047694 0.1637575447
22600164400.0 -0.9822493568 0.1808629775
22650164100.0 -0.9779223162 0.1964576612
22700163800.0 -0.9752450319 0.2124962243
22750163500.0 -0.9721606433 0.2270349856
22800163200.0 -0.9691054466 0.2396681576
22850162900.0 -0.9660998567 0.2533226451
22900162600.0 -0.9645915127 0.2672151998
22950162300.0 -0.9624895982 0.2806607094
23000162000.0 -0.9609688944 0.2935628874
23050161700.0 -0.9584623502 0.306785768
23100161400.0 -0.9555544851 0.3202570681
23150161100.0 -0.9519209994 0.3335724437
23200160800.0 -0.9495427616 0.3463983506
23250160500.0 -0.9467463267 0.3593832412
23300160200.0 -0.944216963 0.3715195157
23350159900.0 -0.9399717146 0.3849942135
23400159600.0 -0.9353758646 0.3986365167
23450159300.0 -0.930278802 0.41309621
23500159000.0 -0.9251856649 0.4264449733
23550158700.0 -0.9203079408 0.4399785277
23600158400.0 -0.9142223687 0.4541274562
23650158100.0 -0.9068174411 0.4685080044
23700157800.0 -0.8984597678 0.4832373099
23750157500.0 -0.8889367178 0.4971862223
23800157200.0 -0.8793267576 0.5108486056
23850156900.0 -0.8693842876 0.5235348913
23900156600.0 -0.8601831866 0.5363707835
23950156300.0 -0.8495904914 0.5486573044
24000156000.0 -0.84009873 0.5611245616
24050155700.0 -0.830611273 0.5727750881
24100155400.0 -0.8197357239 0.5858086926
24150155100.0 -0.8088160474 0.5976600044
24200154800.0 -0.7975545891 0.6094466233
24250154500.0 -0.7863704791 0.6219276694
24300154200.0 -0.774666116 0.6335177454
24350153900.0 -0.762508813 0.6448321977
24400153600.0 -0.7502417262 0.6554286785
24450153300.0 -0.7380765207 0.6655870555
24500153000.0 -0.7262960356 0.6759868239
24550152700.0 -0.7149227614 0.6860568258
24600152400.0 -0.7031053097 0.6953624404
24650152100.0 -0.6912234605 0.7039094347
