!Created with skrf (http://scikit-rf.org).
# Hz S RI R 50.0 
!freq ReS11 ImS11
300000.0 -0.9729098614 -0.1214455748
50299700.0 -0.9998347848 0.0149246957
100299400.0 -0.997913502 0.0279896869
150299100.0 -1.002677736 0.0446246733
200298800.0 -0.999503901 0.0581690041
250298500.0 -0.9973874553 0.0715343265
300298200.0 -0.9860439479 0.0873875985
350297900.0 -0.9938934295 0.0982538173
400297600.0 -0.9931456881 0.1150233902
450297300.0 -0.9909090499 0.1286331193
500297000.0 -0.9892365453 0.1436106203
550296700.0 -0.9842758727 0.1556579041
600296400.0 -1.017193804 0.1888276024
650296100.0 -0.9820763772 0.1856986986
700295800.0 -0.979467981 0.1999240064
750295500.0 -0.9761990415 0.2139037817
800295200.0 -0.9730804878 0.2281530938
850294900.0 -0.969627996 0.2416537836
900294600.0 -0.9658326979 0.2555771064
950294300.0 -0.962135515 0.2693267658
1000294000.0 -0.9582041768 0.2830049713
1050293700.0 -0.9537012781 0.2968552918
1100293400.0 -0.9492830643 0.3111898236
1150293100.0 -0.945500512 0.3232821053
1200292800.0 -0.9403734275 0.3375764076
1250292500.0 -0.9347397344 0.3511082761
1300292200.0 -0.9289727247 0.3644133328
1350291900.0 -0.9234394698 0.3783238423
1400291600.0 -0.9180526534 0.3915464009
1450291300.0 -0.9125286642 0.4039480115
1500291000.0 -0.9061631629 0.4171791241
1550290700.0 -0.8997240954 0.4306572034
1600290400.0 -0.8935870788 0.443681889
1650290100.0 -0.8867948841 0.4557147721
1700289800.0 -0.8796762722 0.4691183243
1750289500.0 -0.8727230901 0.4815532016
1800289200.0 -0.8654445554 0.494369024
1850288900.0 -0.85884864 0.5055829167
1900288600.0 -0.8510336681 0.5186578535
1950288300.0 -0.8429708158 0.5311960988
2000288000.0 -0.8354326448 0.5427723264
2050287700.0 -0.8271920451 0.5553618672
2100287400.0 -0.8193869245 0.5664182248
2150287100.0 -0.8110392521 0.578597827
2200286800.0 -0.8028865374 0.5891652633
2250286500.0 -0.7939173963 0.6013418917
2300286200.0 -0.7853348778 0.6127364785
2350285900.0 -0.7769896864 0.6235827649
2400285600.0 -0.7681042694 0.6343132045
2450285300.0 -0.7593945522 0.6451433414
2500285000.0 -0.7490602875 0.656756927
2550284700.0 -0.7402159281 0.666787774
2600284400.0 -0.7308821985 0.6767280067
2650284100.0 -0.7222533399 0.6871120975
2700283800.0 -0.7118390495 0.697409198
2750283500.0 -0.7013050347 0.7080719883
2800283200.0 -0.6916088116 0.7180043231
2850282900.0 -0.6811787964 0.7284518057
2900282600.0 -0.6707032742 0.7377815834
2950282300.0 -0.6602348357 0.7471828618
3000282000.0 -0.6495649479 0.756695514
3050281700.0 -0.6384050414 0.7660495156
3100281400.0 -0.6270171441 0.7748564506
3150281100.0 -0.6157062348 0.7839675523
3200280800.0 -0.6042669715 0.7923244686
3250280500.0 -0.5931104125 0.8003521139
3300280200.0 -0.5814581496 0.8083965347
3350279900.0 -0.5695289863 0.8165067033
3400279600.0 -0.5564984311 0.8245417094
3450279300.0 -0.5457934902 0.8316570928
3500279000.0 -0.5338727513 0.8384152891
3550278700.0 -0.5218121254 0.8456529088
3600278400.0 -0.5099117222 0.8522837153
3650278100.0 -0.4969655164 0.8599009935
3700277800.0 -0.4846803932 0.8664815248
3750277500.0 -0.4723202119 0.8733792008
3800277200.0 -0.4597292326 0.879743563
3850276900.0 -0.4478532649 0.8855772394
3900276600.0 -0.4368624049 0.891133935
3950276300.0 -0.4249450321 0.8970252593
4000276000.0 -0.4131011798 0.9031449733
4050275700.0 -0.4006009501 0.9090307006
4100275400.0 -0.3893269833 0.9144586717
4150275100.0 -0.3764887397 0.9204962877
4200274800.0 -0.3626601706 0.926178896
4250274500.0 -0.3502352963 0.9314213022
4300274200.0 -0.3368947238 0.9366435895
4350273900.0 -0.3226444751 0.9419318045
4400273600.0 -0.308036818 0.9471949462
4450273300.0 -0.2928991683 0.9521361784
4500273000.0 -0.2798143129 0.9563898523
4550272700.0 -0.2660891677 0.9605795795
4600272400.0 -0.2511164326 0.9647834295
4650272100.0 -0.2397889387 0.9676456063
4700271800.0 -0.2267782635 0.9710816486
4750271500.0 -0.2151936641 0.9739051682
4800271200.0 -0.2029904773 0.9765746995
4850270900.0 -0.1891799602 0.9794487797
4900270600.0 -0.1754344934 0.9819705506
4950270300.0 -0.160861951 0.9846737117
5000270000.0 -0.1464216747 0.9868917244
5050269700.0 -0.1328829081 0.9881767365
5100269400.0 -0.1186906561 0.9902368864
5150269100.0 -0.1047985883 0.9915412815
5200268800.0 -0.0910684614 0.9925683907
5250268500.0 -0.0781943432 0.9935357016
5300268200.0 -0.0647025255 0.9944101479
5350267900.0 -0.0517877389 0.9951109075
5400267600.0 -0.0356695531 0.9961243865
5450267300.0 -0.0221121771 0.9966895073
5500267000.0 -0.007000471 0.9970785104
5550266700.0 0.0079167774 0.9970075083
5600266400.0 0.0239119096 0.9971561174
5650266100.0 0.0406469808 0.9970415544
5700265800.0 0.0546129106 0.9961367202
5750265500.0 0.0692687809 0.9947205571
5800265200.0 0.0832372744 0.9940008151
5850264900.0 0.0962799372 0.9933517509
5900264600.0 0.1129633941 0.9913801375
5950264300.0 0.1244082842 0.9900302817
6000264000.0 0.1378901895 0.9877225992
6050263700.0 0.149893994 0.9868100367
6100263400.0 0.1615998661 0.9846189091
6150263100.0 0.1767658812 0.9826917275
6200262800.0 0.1860715439 0.9809681527
6250262500.0 0.1987070213 0.9785818846
6300262200.0 0.2110781088 0.976124529
6350261900.0 0.2237615843 0.9734197151
6400261600.0 0.2377260174 0.9700766981
6450261300.0 0.2485437472 0.9676569641
6500261000.0 0.2619428975 0.9640821408
6550260700.0 0.2750456884 0.9602254551
6600260400.0 0.2883066323 0.9561311898
6650260100.0 0.3026996065 0.9517821729
6700259800.0 0.3149941598 0.9474655453
6750259500.0 0.3284493098 0.9423310678
6800259200.0 0.3419784721 0.937416046
6850258900.0 0.3546450435 0.9322964477
6900258600.0 0.367117781 0.9269798086
6950258300.0 0.3795970175 0.921665458
7000258000.0 0.3912756023 0.9163432721
7050257700.0 0.4030675833 0.9104675159
7100257400.0 0.4167191447 0.9041229407
7150257100.0 0.4273219855 0.8984919163
7200256800.0 0.4402177712 0.8921377323
7250256500.0 0.4529871059 0.8856049752
7300256200.0 0.4658573893 0.8787517419
7350255900.0 0.4786061372 0.8717005339
7400255600.0 0.4927827774 0.8641034616
7450255300.0 0.5082384379 0.8548033917
7500255000.0 0.5210000242 0.8474088761
7550254700.0 0.5354011025 0.8382721291
7600254400.0 0.5471207694 0.8297220414
7650254100.0 0.5589984497 0.8222634068
7700253800.0 0.570690461 0.8139889287
7750253500.0 0.582042054 0.8063874891
7800253200.0 0.5926343497 0.7985060212
7850252900.0 0.6022936237 0.7912325938
7900252600.0 0.6138224357 0.7826118873
7950252300.0 0.6222488269 0.7764262185
8000252000.0 0.6318733379 0.768775861
8050251700.0 0.6423356202 0.7606199774
8100251400.0 0.6521684616 0.7527477222
8150251100.0 0.662636322 0.7441215462
8200250800.0 0.6717356968 0.7360092777
8250250500.0 0.6810405197 0.728155284
8300250200.0 0.6897419544 0.7199156404
8350249900.0 0.6989066225 0.7107106712
8400249600.0 0.7071248286 0.7029511907
8450249300.0 0.7158718635 0.6942659703
8500249000.0 0.7245857946 0.6852234143
8550248700.0 0.7328626476 0.6763273962
8600248400.0 0.7410015826 0.6668741947
8650248100.0 0.7486996841 0.6572201694
8700247800.0 0.7579419061 0.6464842599
8750247500.0 0.7662168089 0.6362478602
8800247200.0 0.7741028283 0.626093038
8850246900.0 0.7829564364 0.6145575715
8900246600.0 0.7912067667 0.603183852
8950246300.0 0.8004904334 0.590435963
9000246000.0 0.8090341417 0.5789198211
9050245700.0 0.8171788581 0.5664706675
9100245400.0 0.8259897476 0.5542090229
9150245100.0 0.8346589223 0.5413150192
9200244800.0 0.8438724295 0.527092509
9250244500.0 0.8530054895 0.5122572956
9300244200.0 0.8609516197 0.498850398
9350243900.0 0.868832534 0.4856104421
9400243600.0 0.8757010213 0.4736392064
9450243300.0 0.8810527006 0.4633142854
9500243000.0 0.8872146562 0.4517704091
9550242700.0 0.8912111108 0.4442733742
9600242400.0 0.8956109191 0.4364628585
9650242100.0 0.8998520025 0.4298476431
9700241800.0 0.9049968777 0.4209418136
9750241500.0 0.9089846329 0.4130567224
9800241200.0 0.914271268 0.404021575
9850240900.0 0.9201032691 0.3920936896
9900240600.0 0.9256914688 0.380389977
9950240300.0 0.9331383817 0.3634647718
10000240000.0 0.9380920485 0.3513833646
10050239700.0 0.9440333863 0.3353503247
10100239400.0 0.949369873 0.3190053998
10150239100.0 0.9541776317 0.3032055734
10200238800.0 0.9582250724 0.2877768314
10250238500.0 0.9615849341 0.2743675317
10300238200.0 0.9647221308 0.2604698518
10350237900.0 0.9675963509 0.2470585009
10400237600.0 0.9700925859 0.2335536469
10450237300.0 0.9728843364 0.2196685578
10500237000.0 0.9748907182 0.2073769445
10550236700.0 0.9772919118 0.192978983
10600236400.0 0.9795419974 0.1785969335
10650236100.0 0.9812710587 0.1647728709
10700235800.0 0.9836830939 0.1526688956
10750235500.0 0.9858629818 0.1386266137
10800235200.0 0.9883392533 0.124058094
10850234900.0 0.9901109954 0.1097191449
10900234600.0 0.9921942633 0.0947314945
10950234300.0 0.9936808611 0.0810866145
11000234000.0 0.9955893333 0.0656613497
11050233700.0 0.9974966213 0.048825909
11100233400.0 0.9989037023 0.0312101945
11150233100.0 1.000240403 0.0141272987
11200232800.0 1.000821355 -0.0015573566
11250232500.0 1.002309266 -0.0193453245
11300232200.0 1.002434077 -0.0384037387
11350231900.0 1.001783294 -0.0546217636
11400231600.0 1.001665557 -0.0691259004
11450231300.0 1.000873976 -0.0859976567
11500231000.0 0.999802586 -0.1018325532
11550230700.0 0.9987364219 -0.1147663438
11600230400.0 0.9969229134 -0.1273868714
11650230100.0 0.9948104426 -0.139235939
11700229800.0 0.9926224312 -0.1544142672
11750229500.0 0.9904619946 -0.1685064128
11800229200.0 0.9873488846 -0.181905278
11850228900.0 0.9836535395 -0.1935875296
11900228600.0 0.9800540402 -0.2032431144
11950228300.0 0.9766849154 -0.2135550063
12000228000.0 0.9737490625 -0.2218895303
12050227700.0 0.9700059004 -0.2347361319
12100227400.0 0.9665859749 -0.245318884
12150227100.0 0.9617428409 -0.2620588743
12200226800.0 0.9580215056 -0.2724829172
12250226500.0 0.9534420342 -0.2864179305
12300226200.0 0.9493389855 -0.2986126818
12350225900.0 0.9443548243 -0.3128049091
12400225600.0 0.9399601489 -0.3241770391
12450225300.0 0.935551727 -0.3369659365
12500225000.0 0.9301293837 -0.3522238887
12550224700.0 0.9248631888 -0.3655233424
12600224400.0 0.9199085646 -0.3783880416
12650224100.0 0.9139799725 -0.3927655347
12700223800.0 0.908619252 -0.40552428
12750223500.0 0.9031772195 -0.4187970608
12800223200.0 0.8979244612 -0.4313307798
12850222900.0 0.8925169016 -0.4435407457
12900222600.0 0.8871891607 -0.4553762919
12950222300.0 0.8813534626 -0.4679739345
13000222000.0 0.8746061508 -0.4797013621
13050221700.0 0.8685900007 -0.4924432541
13100221400.0 0.861825432 -0.5046972501
13150221100.0 0.8541966928 -0.5165368256
13200220800.0 0.8476675643 -0.5284824526
13250220500.0 0.8403186211 -0.5406829165
13300220200.0 0.8327486654 -0.5515132547
13350219900.0 0.8246803675 -0.5633053359
13400219600.0 0.8163698891 -0.5752416166
13450219300.0 0.8070470785 -0.5884100227
13500219000.0 0.7972442451 -0.601470373
13550218700.0 0.7876422221 -0.613520728
13600218400.0 0.7771804854 -0.6255700677
13650218100.0 0.7682225123 -0.635701587
13700217800.0 0.7571488307 -0.6480844971
13750217500.0 0.7480653578 -0.6587586792
13800217200.0 0.7369150306 -0.6704619992
13850216900.0 0.7252310863 -0.6806884312
13900216600.0 0.7157082073 -0.6903286101
13950216300.0 0.7050453006 -0.7001596389
14000216000.0 0.6956769944 -0.7093546417
14050215700.0 0.6864118467 -0.7173582422
14100215400.0 0.6768316254 -0.7262721639
14150215100.0 0.6677450533 -0.7350179221
14200214800.0 0.6579910946 -0.7439863414
14250214500.0 0.6477216922 -0.7534098193
14300214200.0 0.637109079 -0.7629665918
14350213900.0 0.6258780175 -0.7727264376
14400213600.0 0.6145954636 -0.78231377
14450213300.0 0.601425717 -0.7921341418
14500213000.0 0.5882200996 -0.8022267405
14550212700.0 0.5760424113 -0.8117053269
14600212400.0 0.5631781036 -0.8208926961
14650212100.0 0.5509987615 -0.8292856228
14700211800.0 0.5367905678 -0.8389425366
14750211500.0 0.5250844651 -0.8471622967
14800211200.0 0.5123654104 -0.8552487247
14850210900.0 0.5002873741 -0.8630089261
14900210600.0 0.4866735377 -0.8709788129
14950210300.0 0.4735478135 -0.8786925728
15000210000.0 0.4607735763 -0.8854636972
15050209700.0 0.4482894498 -0.8914017617
15100209400.0 0.4356279595 -0.8976215598
15150209100.0 0.4230585048 -0.903223465
15200208800.0 0.4105989045 -0.908206711
15250208500.0 0.3997909068 -0.9124504924
15300208200.0 0.3882323829 -0.9176187812
15350207900.0 0.3747014542 -0.9221374682
15400207600.0 0.3588834429 -0.92730923
15450207300.0 0.3446058402 -0.9326681797
15500207000.0 0.3306958898 -0.937156171
15550206700.0 0.315964106 -0.9424789698
15600206400.0 0.2997392755 -0.9472235794
15650206100.0 0.2841974062 -0.9508844267
15700205800.0 0.269959705 -0.9540647798
15750205500.0 0.2561873329 -0.9578143019
15800205200.0 0.2423103997 -0.9611454166
15850204900.0 0.2281141715 -0.9645828916
15900204600.0 0.2132387003 -0.9684335082
15950204300.0 0.1984759575 -0.9715681937
16000204000.0 0.1844291886 -0.9744623053
16050203700.0 0.1688065849 -0.9776050042
16100203400.0 0.1542590783 -0.9798703656
16150203100.0 0.1392697949 -0.981785618
16200202800.0 0.1251090849 -0.9839796687
16250202500.0 0.1108758979 -0.9858349531
16300202200.0 0.0951814677 -0.9877120724
16350201900.0 0.0800823569 -0.9887861527
16400201600.0 0.0653573029 -0.9901282747
16450201300.0 0.0496748034 -0.9912628875
16500201000.0 0.0326718521 -0.9919601061
16550200700.0 0.0165303076 -0.9926093362
16600200400.0 0.0007899437 -0.9926807738
16650200100.0 -0.0153664266 -0.9927233965
16700199800.0 -0.0316898631 -0.9922780313
16750199500.0 -0.0513757716 -0.9914357404
16800199200.0 -0.06709016 -0.9904600059
16850198900.0 -0.0825456455 -0.9890155197
16900198600.0 -0.0962916321 -0.9886410578
16950198300.0 -0.110116963 -0.9878414099
17000198000.0 -0.1233078953 -0.9862441739
17050197700.0 -0.1361267827 -0.9838967302
17100197400.0 -0.1486400021 -0.982183584
17150197100.0 -0.1619099248 -0.980094823
17200196800.0 -0.174559096 -0.9777259126
17250196500.0 -0.1875827909 -0.9754464095
17300196200.0 -0.1996368355 -0.9729494669
17350195900.0 -0.2112392322 -0.9707338998
17400195600.0 -0.2232224725 -0.968066477
17450195300.0 -0.2361278684 -0.9652855284
17500195000.0 -0.2494056949 -0.9619276653
17550194700.0 -0.2631468476 -0.9585721615
17600194400.0 -0.2769329141 -0.9546466219
17650194100.0 -0.2904109803 -0.950655426
17700193800.0 -0.3034995611 -0.9466575594
17750193500.0 -0.3180209709 -0.9415094336
17800193200.0 -0.3320371089 -0.9367229835
17850192900.0 -0.3468580828 -0.9313172368
17900192600.0 -0.3613717844 -0.925222121
17950192300.0 -0.3772646761 -0.9179449226
18000192000.0 -0.3921351255 -0.9106060516
18050191700.0 -0.405887351 -0.9027604776
18100191400.0 -0.4200117003 -0.8950469846
18150191100.0 -0.4347696535 -0.8869840357
18200190800.0 -0.4515690853 -0.8778863378
18250190500.0 -0.4686360343 -0.8681233542
18300190200.0 -0.4842548913 -0.8598778324
18350189900.0 -0.4994058 -0.8513555885
18400189600.0 -0.5140682506 -0.8430228336
18450189300.0 -0.5271836756 -0.8349440689
18500189000.0 -0.5406675214 -0.8265250395
18550188700.0 -0.5533386508 -0.8191569471
18600188400.0 -0.565128361 -0.812356873
18650188100.0 -0.5766684736 -0.8054949922
18700187800.0 -0.5877195892 -0.7989235973
18750187500.0 -0.5986973444 -0.7923215191
18800187200.0 -0.6091705701 -0.78540937
18850186900.0 -0.619549415 -0.7784186197
18900186600.0 -0.6298011955 -0.7709234837
18950186300.0 -0.6401547173 -0.7631678434
19000186000.0 -0.6481459631 -0.7568897515
19050185700.0 -0.657093675 -0.7497783243
19100185400.0 -0.6667533929 -0.7415409981
19150185100.0 -0.6769205032 -0.7332289871
19200184800.0 -0.686063025 -0.7255888845
19250184500.0 -0.6964691977 -0.7162542729
19300184200.0 -0.7079836414 -0.707137923
19350183900.0 -0.7193775471 -0.6967836042
19400183600.0 -0.7280602555 -0.6868169262
19450183300.0 -0.7375422192 -0.6771542402
19500183000.0 -0.7455334704 -0.6662567633
19550182700.0 -0.7553794499 -0.6557265362
19600182400.0 -0.7655070404 -0.6440703258
19650182100.0 -0.7761458862 -0.6319433286
19700181800.0 -0.7865695281 -0.6183210245
19750181500.0 -0.7972254811 -0.6044486692
19800181200.0 -0.8071242502 -0.5895572676
19850180900.0 -0.8166264372 -0.5741741223
19900180600.0 -0.8244481998 -0.5598045111
19950180300.0 -0.8332139436 -0.5435205968
20000180000.0 -0.8231960528 -0.5469248373
20050179700.0 -0.8314596141 -0.5339311947
20100179400.0 -0.8400012626 -0.5213893261
20150179100.0 -0.8479322499 -0.5098418435
20200178800.0 -0.8557171308 -0.4981797909
20250178500.0 -0.8653368218 -0.4855038022
20300178200.0 -0.8752613189 -0.4715100456
20350177900.0 -0.884301915 -0.4580020482
20400177600.0 -0.8936894295 -0.4437010034
20450177300.0 -0.9019402186 -0.4293959873
20500177000.0 -0.9101206601 -0.4154885759
20550176700.0 -0.9179145685 -0.4018961507
20600176400.0 -0.9246012273 -0.3890588942
20650176100.0 -0.9313380021 -0.3765705665
20700175800.0 -0.9378672717 -0.3654584581
20750175500.0 -0.9443010352 -0.3536204955
20800175200.0 -0.9486226092 -0.3419781024
20850174900.0 -0.9536868139 -0.3316850163
20900174600.0 -0.9572702642 -0.320539447
20950174300.0 -0.9612155784 -0.3102676559
21000174000.0 -0.9641325977 -0.2990422195
21050173700.0 -0.9653535091 -0.2897763218
21100173400.0 -0.9690177751 -0.2787212167
21150173100.0 -0.9726213262 -0.2662288717
21200172800.0 -0.9767041177 -0.2534530141
21250172500.0 -0.9802423002 -0.239789033
21300172200.0 -0.9838349857 -0.2260951661
21350171900.0 -0.9862663216 -0.2121778842
21400171600.0 -0.9876383469 -0.1974100964
21450171300.0 -0.9885346725 -0.1839665173
21500171000.0 -0.9887593431 -0.1687660985
21550170700.0 -0.9896457829 -0.1527794093
21600170400.0 -0.9907274253 -0.1387069771
21650170100.0 -0.9903008482 -0.1227648255
21700169800.0 -0.990321798 -0.106668589
21750169500.0 -0.9900475603 -0.0911775894
21800169200.0 -0.9902617443 -0.0738618219
21850168900.0 -0.9896435327 -0.057739416
21900168600.0 -0.9893368819 -0.0412069131
21950168300.0 -0.9891315543 -0.025724711
22000168000.0 -0.9890939424 -0.0105606465
22050167700.0 -0.9894464559 0.0041848624
22100167400.0 -0.9901144155 0.0198506261
22150167100.0 -0.9914162904 0.0361253246
22200166800.0 -0.9915435907 0.0526391822
22250166500.0 -0.9910157739 0.0692525259
22300166200.0 -0.9903575254 0.086341873
22350165900.0 -0.9896438673 0.1017605281
22400165600.0 -0.987935638 0.1182443387
22450165300.0 -0.9862623588 0.1334115357
22500165000.0 -0.9847057647 0.1471359414
22550164700.0 -0.9830235656 0.1640530451
22600164400.0 -0.9816164782 0.1794703956
22650164100.0 -0.9776356266 0.1953943144
22700163800.0 -0.9747074189 0.2119661405
22750163500.0 -0.9723540291 0.2259012922
22800163200.0 -0.9691639971 0.2393575794
22850162900.0 -0.9664453894 0.2528865144
22900162600.0 -0.9647981104 0.2668001712
22950162300.0 -0.9630789092 0.2805184401
23000162000.0 -0.9610317992 0.2929335971
23050161700.0 -0.9583711225 0.3063963311
23100161400.0 -0.9553271945 0.320024974
23150161100.0 -0.9523920444 0.3326559233
23200160800.0 -0.9497415044 0.3460948785
23250160500.0 -0.9468302023 0.357858257
23300160200.0 -0.9438230699 0.3709753216
23350159900.0 -0.9403739823 0.3853055563
23400159600.0 -0.9355366369 0.3984965251
23450159300.0 -0.9299546902 0.4114287343
23500159000.0 -0.9248184664 0.4254071608
23550158700.0 -0.9203290518 0.4398008086
23600158400.0 -0.9138854164 0.4537724246
23650158100.0 -0.9069235837 0.4684460075
23700157800.0 -0.8984806524 0.4827223809
23750157500.0 -0.8888300857 0.4969604727
23800157200.0 -0.8789252006 0.5106004881
23850156900.0 -0.8699488697 0.5231973189
23900156600.0 -0.8595042567 0.5356690139
23950156300.0 -0.8499214885 0.5483917469
24000156000.0 -0.8395694496 0.5609800769
24050155700.0 -0.8290789232 0.5737626802
24100155400.0 -0.8200201237 0.585724652
24150155100.0 -0.8082147734 0.5977420537
24200154800.0 -0.7973091001 0.6091172196
24250154500.0 -0.7863821661 0.6216409663
24300154200.0 -0.774718777 0.6339135744
24350153900.0 -0.7630173396 0.6446653774
24400153600.0 -0.7503050394 0.6556180521
24450153300.0 -0.7385666149 0.6659242577
24500153000.0 -0.726359763 0.6759823948
24550152700.0 -0.715492074 0.6864443446
24600152400.0 -0.7030829966 0.6956491167
24650152100.0 -0.6906318866 0.7035314925
