!Created with skrf (http://scikit-rf.org).
# Hz S RI R 50.0 
!freq ReS11 ImS11
300000.0 -0.9748162204 -0.122979635
50299700.0 -0.9999692811 0.014865499
100299400.0 -0.9979704099 0.0277975352
150299100.0 -1.002749395 0.0446288239
200298800.0 -0.9995640916 0.0580713022
250298500.0 -0.9972825463 0.0716114664
300298200.0 -0.9858852407 0.0872782482
350297900.0 -0.9939259359 0.0982660334
400297600.0 -0.9932632788 0.1147516675
450297300.0 -0.9910111039 0.1285455895
500297000.0 -0.9893854117 0.1435627044
550296700.0 -0.9844549986 0.1558726066
600296400.0 -1.01728205 0.189183889
650296100.0 -0.9822052521 0.1855625928
700295800.0 -0.9792911063 0.1999372226
750295500.0 -0.9764520262 0.2138836444
800295200.0 -0.9730898645 0.2280334533
850294900.0 -0.9697248415 0.2418029691
900294600.0 -0.9657319358 0.2553102836
950294300.0 -0.9621003821 0.2692646852
1000294000.0 -0.9583106407 0.2832687751
1050293700.0 -0.9535485202 0.297115151
1100293400.0 -0.9492992758 0.3114410377
1150293100.0 -0.9455441048 0.3233435123
1200292800.0 -0.9401559571 0.3377038353
1250292500.0 -0.9347604089 0.3512662139
1300292200.0 -0.9288762302 0.3643844474
1350291900.0 -0.9234187743 0.3784718732
1400291600.0 -0.9180238592 0.3915753891
1450291300.0 -0.9125335062 0.4040052139
1500291000.0 -0.9062662975 0.4173949375
1550290700.0 -0.899694889 0.430670861
1600290400.0 -0.8934326297 0.4435780145
1650290100.0 -0.8867968207 0.455933012
1700289800.0 -0.8799421792 0.4692726146
1750289500.0 -0.8728842161 0.4816449255
1800289200.0 -0.8656067234 0.4943940404
1850288900.0 -0.8586940746 0.5057935668
1900288600.0 -0.8509429808 0.5187288653
1950288300.0 -0.842948184 0.531140939
2000288000.0 -0.835433051 0.5428690417
2050287700.0 -0.8272986114 0.5552852497
2100287400.0 -0.8194054148 0.5664551775
2150287100.0 -0.8109509442 0.5785973692
2200286800.0 -0.8031364226 0.5891487003
2250286500.0 -0.7941540138 0.6014476541
2300286200.0 -0.7852759337 0.6128660388
2350285900.0 -0.7768293833 0.6233186421
2400285600.0 -0.7679862484 0.6342850986
2450285300.0 -0.7591775417 0.6448853134
2500285000.0 -0.7491092638 0.6566371069
2550284700.0 -0.7399691649 0.6670456774
2600284400.0 -0.7312144733 0.6768099806
2650284100.0 -0.7223315976 0.687216576
2700283800.0 -0.7118451956 0.697373014
2750283500.0 -0.7015126993 0.7081120582
2800283200.0 -0.6917032666 0.7181135013
2850282900.0 -0.6811423846 0.7284048253
2900282600.0 -0.6706689833 0.7378288821
2950282300.0 -0.6602251766 0.7471190716
3000282000.0 -0.6495470048 0.7565142525
3050281700.0 -0.6383496104 0.7659712442
3100281400.0 -0.6269357993 0.7748657394
3150281100.0 -0.6156617276 0.7838406154
3200280800.0 -0.6043540027 0.7921891316
3250280500.0 -0.5931064082 0.8002893648
3300280200.0 -0.5815476538 0.8084409887
3350279900.0 -0.5693042116 0.8164865144
3400279600.0 -0.5568100738 0.8246091321
3450279300.0 -0.5455777204 0.8317593831
3500279000.0 -0.5337259632 0.8383741873
3550278700.0 -0.521450027 0.845505174
3600278400.0 -0.5098431196 0.8523847142
3650278100.0 -0.496764053 0.8599425496
3700277800.0 -0.4845728762 0.8666219962
3750277500.0 -0.4723265214 0.8732756916
3800277200.0 -0.4599047483 0.8797323817
3850276900.0 -0.4476957757 0.8854566001
3900276600.0 -0.4367253352 0.891405399
3950276300.0 -0.4248845867 0.8973948571
4000276000.0 -0.4131819808 0.9030926423
4050275700.0 -0.400516122 0.9091798271
4100275400.0 -0.3894959181 0.9147258438
4150275100.0 -0.3760353384 0.9205328732
4200274800.0 -0.3627675208 0.9261466401
4250274500.0 -0.3501830759 0.9316036001
4300274200.0 -0.3368211336 0.9367919905
4350273900.0 -0.3225004687 0.9420204847
4400273600.0 -0.3076721671 0.9474828314
4450273300.0 -0.2928274013 0.9521370786
4500273000.0 -0.2795751704 0.9563251042
4550272700.0 -0.2658235046 0.9607594468
4600272400.0 -0.2509334229 0.964632934
4650272100.0 -0.2398029209 0.9679227441
4700271800.0 -0.2268012592 0.9710673576
4750271500.0 -0.2152954869 0.9740572116
4800271200.0 -0.2029692643 0.9767515628
4850270900.0 -0.1892161958 0.9794398789
4900270600.0 -0.1754581701 0.9819931554
4950270300.0 -0.1608736066 0.9845807047
5000270000.0 -0.1463545386 0.9870234162
5050269700.0 -0.1328319356 0.9883274704
5100269400.0 -0.1187557822 0.9902063337
5150269100.0 -0.1047727702 0.9921808179
5200268800.0 -0.0914655855 0.9928607944
5250268500.0 -0.0781349371 0.9936962963
5300268200.0 -0.0645117492 0.9949120856
5350267900.0 -0.051639678 0.995294424
5400267600.0 -0.035429062 0.9963442857
5450267300.0 -0.0218998929 0.9968026666
5500267000.0 -0.0066926718 0.9969455193
5550266700.0 0.0081728906 0.9971230922
5600266400.0 0.0239820946 0.9973253524
5650266100.0 0.0406014955 0.9967160292
5700265800.0 0.0545316177 0.9960471243
5750265500.0 0.0698706739 0.9951753605
5800265200.0 0.0833083262 0.9939291564
5850264900.0 0.0964958229 0.9930766264
5900264600.0 0.1129859982 0.9913339628
5950264300.0 0.1244267583 0.9895936298
6000264000.0 0.1377114162 0.9877666024
6050263700.0 0.1496137893 0.9867065577
6100263400.0 0.161273181 0.9845625446
6150263100.0 0.1762963085 0.9825576638
6200262800.0 0.1860834061 0.9811770278
6250262500.0 0.1985508039 0.9788780291
6300262200.0 0.2107509697 0.9762890801
6350261900.0 0.2237389818 0.9735066608
6400261600.0 0.2375507892 0.9700527891
6450261300.0 0.2485224281 0.9677939889
6500261000.0 0.2619655617 0.9640007454
6550260700.0 0.2749125113 0.960073701
6600260400.0 0.2885819591 0.9559806844
6650260100.0 0.3028236778 0.9518547524
6700259800.0 0.3145377667 0.9471795779
6750259500.0 0.3286682563 0.942628345
6800259200.0 0.3420897558 0.9372625183
6850258900.0 0.3545682807 0.9319587626
6900258600.0 0.3671310971 0.926903472
6950258300.0 0.3796293535 0.9215728888
7000258000.0 0.3911810791 0.9162552872
7050257700.0 0.4030001613 0.9106271495
7100257400.0 0.4166980177 0.904133798
7150257100.0 0.4272642188 0.8986088195
7200256800.0 0.4403199403 0.8921413444
7250256500.0 0.4529118468 0.8854073563
7300256200.0 0.4658892937 0.8786430552
7350255900.0 0.4789813441 0.8715939633
7400255600.0 0.4927852993 0.8639580981
7450255300.0 0.5084472808 0.8546995841
7500255000.0 0.5212551721 0.8472448952
7550254700.0 0.5357791502 0.8380287301
7600254400.0 0.5478113763 0.829662569
7650254100.0 0.5596361398 0.8220538241
7700253800.0 0.5710708538 0.8138207887
7750253500.0 0.5820141244 0.8062395322
7800253200.0 0.5927863484 0.7984670852
7850252900.0 0.6025495309 0.7911348327
7900252600.0 0.6140630019 0.7823113827
7950252300.0 0.6223710547 0.7760856697
8000252000.0 0.6323638734 0.7685554666
8050251700.0 0.6427984445 0.7604791824
8100251400.0 0.6528841595 0.7524854536
8150251100.0 0.6628504685 0.7439941899
8200250800.0 0.6718787377 0.7357995382
8250250500.0 0.6809863583 0.7278922823
8300250200.0 0.6900050216 0.7197321594
8350249900.0 0.6993112752 0.7107480342
8400249600.0 0.7072689062 0.7028486446
8450249300.0 0.7160210686 0.694047595
8500249000.0 0.7244861072 0.6850965845
8550248700.0 0.7328571581 0.6762899459
8600248400.0 0.7410783405 0.6668496123
8650248100.0 0.7488455544 0.6573254888
8700247800.0 0.7579624365 0.6463525783
8750247500.0 0.7662793438 0.6361220417
8800247200.0 0.7741860907 0.626064191
8850246900.0 0.7828279719 0.6143766992
8900246600.0 0.7913543048 0.6031759719
8950246300.0 0.8004161814 0.5902224833
9000246000.0 0.8090677433 0.5786917754
9050245700.0 0.8175017019 0.5662411405
9100245400.0 0.8258373279 0.5542152998
9150245100.0 0.8347558734 0.5412468323
9200244800.0 0.8440351514 0.5269341666
9250244500.0 0.8528190474 0.5121459981
9300244200.0 0.8611794018 0.4985789807
9350243900.0 0.8688230068 0.4854485724
9400243600.0 0.8752735175 0.4739862766
9450243300.0 0.8809015701 0.4635912222
9500243000.0 0.8872124085 0.4519524799
9550242700.0 0.8911297334 0.4445639852
9600242400.0 0.8956384902 0.4368313515
9650242100.0 0.8995166329 0.4300743243
9700241800.0 0.9044268007 0.4214772649
9750241500.0 0.9090015897 0.4137980949
9800241200.0 0.9136895204 0.4044360963
9850240900.0 0.9196574976 0.3924625364
9900240600.0 0.9257248284 0.380605154
9950240300.0 0.9329858129 0.3635131766
10000240000.0 0.9380216834 0.3515058443
10050239700.0 0.9440867922 0.3351012358
10100239400.0 0.94954336 0.318938689
10150239100.0 0.9539664656 0.3032989634
10200238800.0 0.9583866688 0.2877551827
10250238500.0 0.9614936969 0.2743414513
10300238200.0 0.9648273175 0.2604001028
10350237900.0 0.9676415448 0.2469033776
10400237600.0 0.9702590524 0.2332086346
10450237300.0 0.9728504518 0.2197401308
10500237000.0 0.9747766254 0.2079577082
10550236700.0 0.9774816437 0.1927570367
10600236400.0 0.9795706509 0.1791001302
10650236100.0 0.981712596 0.1639911063
10700235800.0 0.9840401564 0.1518396374
10750235500.0 0.9860246658 0.1389499466
10800235200.0 0.9881034694 0.1242679884
10850234900.0 0.9899700279 0.1093020967
10900234600.0 0.992314918 0.0944464016
10950234300.0 0.9937336283 0.0809823751
11000234000.0 0.9956574894 0.0653894588
11050233700.0 0.9974474214 0.0487203095
11100233400.0 0.9988855396 0.0307540047
11150233100.0 1.000319692 0.0140901878
11200232800.0 1.001342548 -0.0015901839
11250232500.0 1.001906261 -0.0201611045
11300232200.0 1.00160505 -0.0385587957
11350231900.0 1.00230564 -0.0543158353
11400231600.0 1.001712846 -0.0705617805
11450231300.0 1.001190029 -0.0865809299
11500231000.0 0.9994677468 -0.1021137741
11550230700.0 0.9981759075 -0.1152227622
11600230400.0 0.9972085024 -0.1289659912
11650230100.0 0.9946076709 -0.1402336996
11700229800.0 0.9929075937 -0.1555624245
11750229500.0 0.9901202766 -0.1692214347
11800229200.0 0.9875118605 -0.1824175968
11850228900.0 0.9836518883 -0.1942090232
11900228600.0 0.9800384225 -0.20361408
11950228300.0 0.9765193654 -0.213619431
12000228000.0 0.9735547172 -0.2222919894
12050227700.0 0.9696125171 -0.2342932094
12100227400.0 0.9669069633 -0.2456922952
12150227100.0 0.9616062763 -0.2628543448
12200226800.0 0.9576867111 -0.2739682896
12250226500.0 0.9537878058 -0.2861987796
12300226200.0 0.9494889778 -0.2992204531
12350225900.0 0.9445779133 -0.3118361466
12400225600.0 0.9399972324 -0.3248486831
12450225300.0 0.9360845863 -0.3371288921
12500225000.0 0.9300615926 -0.3520809533
12550224700.0 0.9248367014 -0.3661347486
12600224400.0 0.9197018499 -0.3785098939
12650224100.0 0.9138923472 -0.3929155504
12700223800.0 0.9086498381 -0.4058068066
12750223500.0 0.9032040447 -0.4187502505
12800223200.0 0.8979028082 -0.4313800166
12850222900.0 0.8926165676 -0.4433096186
12900222600.0 0.887138075 -0.4555550378
12950222300.0 0.8806579926 -0.4684775366
13000222000.0 0.8748680736 -0.4797798186
13050221700.0 0.8683553382 -0.4926897326
13100221400.0 0.8612316666 -0.504628527
13150221100.0 0.8544320279 -0.5172633312
13200220800.0 0.8475243207 -0.5284548107
13250220500.0 0.8400624493 -0.5405551804
13300220200.0 0.8323615578 -0.551910694
13350219900.0 0.8243962931 -0.5637614285
13400219600.0 0.8158807281 -0.5755985717
13450219300.0 0.8068109364 -0.5885070451
13500219000.0 0.796759969 -0.6016368654
13550218700.0 0.7872292848 -0.6138800612
13600218400.0 0.7769133523 -0.6262186112
13650218100.0 0.7674957826 -0.6366357091
13700217800.0 0.7572210913 -0.6485829518
13750217500.0 0.7466735962 -0.6594172693
13800217200.0 0.7356451401 -0.6711415877
13850216900.0 0.7254577925 -0.6821111345
13900216600.0 0.7153999513 -0.6904398993
13950216300.0 0.704764022 -0.7003721558
14000216000.0 0.6950895334 -0.7095271561
14050215700.0 0.6855475145 -0.7176382664
14100215400.0 0.6766615622 -0.7265260819
14150215100.0 0.6674496078 -0.7351392135
14200214800.0 0.657985974 -0.7441174169
14250214500.0 0.6474179352 -0.75358262
14300214200.0 0.6369805472 -0.7628213601
14350213900.0 0.6258972246 -0.7726684712
14400213600.0 0.6140113596 -0.7822869221
14450213300.0 0.6009118504 -0.7922960153
14500213000.0 0.5878672199 -0.8023688208
14550212700.0 0.575864701 -0.811934442
14600212400.0 0.5635827882 -0.820872866
14650212100.0 0.5503524343 -0.8289574754
14700211800.0 0.537690774 -0.8385124812
14750211500.0 0.5250334283 -0.8472379704
14800211200.0 0.5123689985 -0.855429606
14850210900.0 0.5001757843 -0.8630834824
14900210600.0 0.4866637147 -0.8711187352
14950210300.0 0.4733810828 -0.8786264012
15000210000.0 0.4606919895 -0.885646195
15050209700.0 0.4481279436 -0.891515575
15100209400.0 0.4357211786 -0.8972198425
15150209100.0 0.4230424417 -0.9024545398
15200208800.0 0.410490307 -0.9080328408
15250208500.0 0.3999243768 -0.9126640869
15300208200.0 0.3872491179 -0.9172388834
15350207900.0 0.3744082084 -0.9215995463
15400207600.0 0.358797934 -0.9271758056
15450207300.0 0.3444072645 -0.9328417802
15500207000.0 0.3307455107 -0.9374596197
15550206700.0 0.3161580119 -0.9422349255
15600206400.0 0.299558002 -0.9466580236
15650206100.0 0.2839512886 -0.9513314399
15700205800.0 0.2704759975 -0.9542579857
15750205500.0 0.2561860139 -0.9577158544
15800205200.0 0.2424305724 -0.961032887
15850204900.0 0.2282204236 -0.9645655451
15900204600.0 0.2131512593 -0.968354214
15950204300.0 0.198857608 -0.9714022589
16000204000.0 0.184285189 -0.9744710235
16050203700.0 0.1687859769 -0.9773248033
16100203400.0 0.1542648932 -0.9796703571
16150203100.0 0.1395698634 -0.9819847166
16200202800.0 0.1253019711 -0.9844064113
16250202500.0 0.1099678266 -0.9856204747
16300202200.0 0.0948323115 -0.9879067047
16350201900.0 0.0796578655 -0.9887679151
16400201600.0 0.065088947 -0.9901309935
16450201300.0 0.0497230065 -0.9911765366
16500201000.0 0.0323924117 -0.992015956
16550200700.0 0.0162877481 -0.9924702974
16600200400.0 0.0005268316 -0.9927245258
16650200100.0 -0.0154101495 -0.9929071713
16700199800.0 -0.0320449803 -0.9923356595
16750199500.0 -0.0509711737 -0.9916231113
16800199200.0 -0.0666437543 -0.9906912541
16850198900.0 -0.0824255485 -0.9896486523
16900198600.0 -0.0964903514 -0.9882870315
16950198300.0 -0.1107161862 -0.9871373591
17000198000.0 -0.1239195523 -0.985851098
17050197700.0 -0.1359404217 -0.9842252588
17100197400.0 -0.1498582995 -0.9825848328
17150197100.0 -0.1623574644 -0.9799337572
17200196800.0 -0.1748426503 -0.9780513384
17250196500.0 -0.1876194731 -0.9755076519
17300196200.0 -0.1996443029 -0.9727510823
17350195900.0 -0.2116077112 -0.9704240332
17400195600.0 -0.2235201427 -0.9681770982
17450195300.0 -0.2362189353 -0.9654491999
17500195000.0 -0.2496908304 -0.9619319822
17550194700.0 -0.2634666872 -0.9584128639
17600194400.0 -0.2772849616 -0.9545510084
17650194100.0 -0.2907974442 -0.9504891421
17700193800.0 -0.3038601001 -0.9460925873
17750193500.0 -0.3179468422 -0.9413881903
17800193200.0 -0.3320434931 -0.936548804
17850192900.0 -0.3469138277 -0.9308182597
17900192600.0 -0.3619295634 -0.9250378827
17950192300.0 -0.3778043289 -0.9177576598
18000192000.0 -0.3924057754 -0.9105852972
18050191700.0 -0.4061562776 -0.9025627457
18100191400.0 -0.4202519302 -0.8949386221
18150191100.0 -0.4351512398 -0.8869481378
18200190800.0 -0.4519414253 -0.8777643908
18250190500.0 -0.4686626426 -0.8679951255
18300190200.0 -0.4843072111 -0.8593969247
18350189900.0 -0.4996988466 -0.8511701976
18400189600.0 -0.514296011 -0.8427138923
18450189300.0 -0.5272433225 -0.8344053751
18500189000.0 -0.5410783081 -0.8263603162
18550188700.0 -0.5536627651 -0.8189435756
18600188400.0 -0.5654593517 -0.8118814595
18650188100.0 -0.5768960396 -0.8052221553
18700187800.0 -0.5880574068 -0.7986510619
18750187500.0 -0.5989872435 -0.7921721286
18800187200.0 -0.6093596802 -0.7850785331
18850186900.0 -0.619841736 -0.7781166473
18900186600.0 -0.6300253587 -0.7709244773
18950186300.0 -0.6403488922 -0.7630797504
19000186000.0 -0.6476384693 -0.7567816541
19050185700.0 -0.6572719123 -0.7494677927
19100185400.0 -0.6665502779 -0.7414932655
19150185100.0 -0.677110652 -0.7330395985
19200184800.0 -0.6866720532 -0.7247433842
19250184500.0 -0.6965187937 -0.7153166051
19300184200.0 -0.7077537348 -0.7059818478
19350183900.0 -0.7188259817 -0.6965175483
19400183600.0 -0.7290816194 -0.6862399801
19450183300.0 -0.7371232411 -0.676598127
19500183000.0 -0.7464319262 -0.6665022949
19550182700.0 -0.7554198415 -0.6553760392
19600182400.0 -0.7657058509 -0.6435860329
19650182100.0 -0.7764375531 -0.631596823
19700181800.0 -0.787114576 -0.6180574195
19750181500.0 -0.7974062494 -0.6041238648
19800181200.0 -0.8074089879 -0.5893140778
19850180900.0 -0.817053558 -0.5738847644
19900180600.0 -0.8247449709 -0.5594417548
19950180300.0 -0.8339674807 -0.543281534
20000180000.0 -0.8242829314 -0.546331905
20050179700.0 -0.8314128722 -0.5342420602
20100179400.0 -0.8400189312 -0.521250534
20150179100.0 -0.8472868192 -0.5094904844
20200178800.0 -0.8561278546 -0.4976915021
20250178500.0 -0.8657001557 -0.4853277009
20300178200.0 -0.8752384826 -0.4723229316
20350177900.0 -0.884646563 -0.4578962983
20400177600.0 -0.8935220609 -0.4433948383
20450177300.0 -0.9019634084 -0.4293700547
20500177000.0 -0.9099619719 -0.4154229984
20550176700.0 -0.9181180825 -0.40165658
20600176400.0 -0.9249550943 -0.389075566
20650176100.0 -0.9310540168 -0.3767576029
20700175800.0 -0.9386251037 -0.3641842488
20750175500.0 -0.9444791758 -0.353052765
20800175200.0 -0.9487805298 -0.342020107
20850174900.0 -0.9530226049 -0.3314240043
20900174600.0 -0.9577425978 -0.3207722275
20950174300.0 -0.9604943631 -0.3102548976
21000174000.0 -0.9640005454 -0.3001510813
21050173700.0 -0.9655871184 -0.2901882468
21100173400.0 -0.9687341003 -0.2794175166
21150173100.0 -0.973011206 -0.2670883707
21200172800.0 -0.9767348813 -0.2533919826
21250172500.0 -0.9810265543 -0.2400371865
21300172200.0 -0.9839893844 -0.2259653901
21350171900.0 -0.9857437635 -0.2121195467
21400171600.0 -0.9879479847 -0.1976676537
21450171300.0 -0.9886954691 -0.183997336
21500171000.0 -0.9899651069 -0.1687159573
21550170700.0 -0.9896048997 -0.153730915
21600170400.0 -0.9902406116 -0.1368785925
21650170100.0 -0.9912615967 -0.1235929136
21700169800.0 -0.9901679571 -0.1078320099
21750169500.0 -0.9897717329 -0.091569784
21800169200.0 -0.9909184549 -0.0746350717
21850168900.0 -0.9901940388 -0.057457935
21900168600.0 -0.9893862169 -0.0413457366
21950168300.0 -0.9891710357 -0.0256315671
22000168000.0 -0.9890913925 -0.0104965371
22050167700.0 -0.9898254941 0.0040230269
22100167400.0 -0.9905753956 0.0197965585
22150167100.0 -0.9911490472 0.0358196643
22200166800.0 -0.9918710048 0.0520393053
22250166500.0 -0.9911447976 0.0695278048
22300166200.0 -0.99079446 0.085703473
22350165900.0 -0.9899573131 0.102471183
22400165600.0 -0.9876216926 0.1176343749
22450165300.0 -0.9870256064 0.1324702274
22500165000.0 -0.9844230899 0.1478385503
22550164700.0 -0.9834008084 0.163455039
22600164400.0 -0.9812971589 0.1795474248
22650164100.0 -0.9785839992 0.1958937722
22700163800.0 -0.9747746443 0.2117637756
22750163500.0 -0.9725156906 0.2261124282
22800163200.0 -0.9687938768 0.2387720751
22850162900.0 -0.9664935676 0.2532182071
22900162600.0 -0.9650181234 0.2673216991
22950162300.0 -0.9633318712 0.2806311198
23000162000.0 -0.9613189011 0.293425406
23050161700.0 -0.9584406453 0.3065331861
23100161400.0 -0.9553163871 0.3199984498
23150161100.0 -0.9526531165 0.3332212351
23200160800.0 -0.9501426946 0.3461289587
23250160500.0 -0.9463255775 0.3587045702
23300160200.0 -0.944102878 0.3714224535
23350159900.0 -0.9404771176 0.3849384459
23400159600.0 -0.9352685198 0.3986007221
23450159300.0 -0.9296589768 0.4127611444
23500159000.0 -0.9249054256 0.4255110347
23550158700.0 -0.9201140686 0.4405703469
23600158400.0 -0.913800043 0.4542514288
23650158100.0 -0.9067635234 0.4690441657
23700157800.0 -0.8980924965 0.4833462544
23750157500.0 -0.8886351021 0.4975207073
23800157200.0 -0.8786108498 0.5112041256
23850156900.0 -0.8694472191 0.5238352575
23900156600.0 -0.8591257917 0.536483122
23950156300.0 -0.8493935891 0.550053646
24000156000.0 -0.8402574072 0.561690586
24050155700.0 -0.8295959967 0.5739516767
24100155400.0 -0.818604965 0.5866237772
24150155100.0 -0.8080851499 0.5986105456
24200154800.0 -0.7970636284 0.6102530053
24250154500.0 -0.7859577201 0.6225612642
24300154200.0 -0.7739074165 0.6347088017
24350153900.0 -0.7617480383 0.6460525874
24400153600.0 -0.7493190846 0.6566223577
24450153300.0 -0.7370598054 0.6668357235
24500153000.0 -0.7256868015 0.6769957
24550152700.0 -0.7139237872 0.6867306798
24600152400.0 -0.7015967447 0.6962029776
24650152100.0 -0.6901506615 0.7047066844
