!Created with skrf (http://scikit-rf.org).
# Hz S RI R 50.0 
!freq ReS11 ImS11
300000.0 -0.9751635648 -0.1201384932
50299700.0 -0.9999929424 0.0153346799
100299400.0 -0.9980380232 0.0282326395
150299100.0 -1.002737532 0.0451653996
200298800.0 -0.9995875256 0.0583708633
250298500.0 -0.9974180459 0.0720105878
300298200.0 -0.9860228447 0.0876770068
350297900.0 -0.9940714953 0.0985807933
400297600.0 -0.9932722399 0.1154125554
450297300.0 -0.9911496016 0.1290560888
500297000.0 -0.9896823801 0.1436413552
550296700.0 -0.984655639 0.1563063027
600296400.0 -1.017310709 0.1895370855
650296100.0 -0.9822334202 0.1862340658
700295800.0 -0.979482848 0.2004585697
750295500.0 -0.9763388441 0.2144509027
800295200.0 -0.9731589849 0.2286495037
850294900.0 -0.9696858104 0.2423504109
900294600.0 -0.9658204424 0.2561567518
950294300.0 -0.9621649211 0.2697803591
1000294000.0 -0.9581063958 0.2837159043
1050293700.0 -0.9536325251 0.2974222289
1100293400.0 -0.9492925105 0.3119978588
1150293100.0 -0.9456517229 0.3238131738
1200292800.0 -0.9401528108 0.3381376998
1250292500.0 -0.9347774938 0.3514542763
1300292200.0 -0.9290037903 0.3648397794
1350291900.0 -0.9236021028 0.3786897645
1400291600.0 -0.9181420269 0.3920519872
1450291300.0 -0.9124953145 0.4042279927
1500291000.0 -0.9061434812 0.4176901394
1550290700.0 -0.8996807288 0.4309751698
1600290400.0 -0.8934264466 0.4438954547
1650290100.0 -0.8867922585 0.4561212345
1700289800.0 -0.8797526508 0.4694441213
1750289500.0 -0.8728416961 0.4818462474
1800289200.0 -0.8653765247 0.4947224342
1850288900.0 -0.8589597288 0.5062052025
1900288600.0 -0.8508557972 0.5191994262
1950288300.0 -0.8429309556 0.531659438
2000288000.0 -0.8354003034 0.5432630157
2050287700.0 -0.8271556808 0.5554848611
2100287400.0 -0.8192229848 0.5670217912
2150287100.0 -0.8105430239 0.5792195032
2200286800.0 -0.8029167666 0.5895495502
2250286500.0 -0.7940677945 0.6013777284
2300286200.0 -0.7853543587 0.6131535771
2350285900.0 -0.7763558553 0.623991368
2400285600.0 -0.7676412074 0.6349991669
2450285300.0 -0.7589086844 0.6453609916
2500285000.0 -0.7494515253 0.6566340669
2550284700.0 -0.7403863155 0.6668583083
2600284400.0 -0.730682582 0.676938977
2650284100.0 -0.7219104093 0.6877144659
2700283800.0 -0.711372474 0.6983927476
2750283500.0 -0.7011495336 0.7088926765
2800283200.0 -0.6911411218 0.7184696532
2850282900.0 -0.6809542805 0.7285691092
2900282600.0 -0.6707144784 0.7380364922
2950282300.0 -0.6606532501 0.7472694893
3000282000.0 -0.6497283271 0.7568008766
3050281700.0 -0.6385592308 0.7661593916
3100281400.0 -0.6267508905 0.7755079582
3150281100.0 -0.6148660518 0.7847605598
3200280800.0 -0.6033050567 0.7932016808
3250280500.0 -0.5923630676 0.8009701158
3300280200.0 -0.5811971587 0.8086693884
3350279900.0 -0.5695974299 0.8163648197
3400279600.0 -0.5573934232 0.8240371459
3450279300.0 -0.5461768359 0.830955635
3500279000.0 -0.5342735778 0.8382511499
3550278700.0 -0.5221143488 0.8456281503
3600278400.0 -0.5097102906 0.8526590087
3650278100.0 -0.496643375 0.8603179167
3700277800.0 -0.4842607268 0.8667385599
3750277500.0 -0.4725196051 0.8732427692
3800277200.0 -0.4597041558 0.8799262073
3850276900.0 -0.4475394852 0.8857234684
3900276600.0 -0.4367745454 0.8912738008
3950276300.0 -0.4245293457 0.8974964895
4000276000.0 -0.4125168327 0.9034915762
4050275700.0 -0.3996879073 0.9094985998
4100275400.0 -0.3886044661 0.9153099772
4150275100.0 -0.3758554885 0.9206032246
4200274800.0 -0.3628441501 0.9261167664
4250274500.0 -0.3505298521 0.9312654538
4300274200.0 -0.3377339423 0.9365793848
4350273900.0 -0.3237238745 0.9419071813
4400273600.0 -0.3086875409 0.9471005959
4450273300.0 -0.2934964512 0.9522330837
4500273000.0 -0.2801251678 0.9567672586
4550272700.0 -0.2658723535 0.96077677
4600272400.0 -0.2503556471 0.9651366556
4650272100.0 -0.2387355216 0.9683207116
4700271800.0 -0.2253280403 0.9715739416
4750271500.0 -0.2137674283 0.9744880299
4800271200.0 -0.201272309 0.9770547681
4850270900.0 -0.1873012932 0.9801050392
4900270600.0 -0.1733888814 0.9824375112
4950270300.0 -0.1591818051 0.984874467
5000270000.0 -0.1447897286 0.9873338647
5050269700.0 -0.1314223365 0.9887131572
5100269400.0 -0.1174768571 0.9902216748
5150269100.0 -0.1044411488 0.992018945
5200268800.0 -0.0910554031 0.9925399782
5250268500.0 -0.0779364768 0.9939788841
5300268200.0 -0.0644653154 0.9946858217
5350267900.0 -0.0524335402 0.9952224889
5400267600.0 -0.0361938144 0.9962568106
5450267300.0 -0.0233012488 0.9964354709
5500267000.0 -0.0077681816 0.996978433
5550266700.0 0.0067590554 0.9972379549
5600266400.0 0.0224895752 0.9971559252
5650266100.0 0.0391373048 0.9970699607
5700265800.0 0.0534829493 0.9961780417
5750265500.0 0.0687163589 0.9955255482
5800265200.0 0.0826413296 0.9943276249
5850264900.0 0.0957174981 0.9930881909
5900264600.0 0.1125439712 0.9919128043
5950264300.0 0.1245001327 0.9902780592
6000264000.0 0.1386928869 0.9885368734
6050263700.0 0.1509976206 0.9869486283
6100263400.0 0.1629753096 0.9851461149
6150263100.0 0.1776644176 0.9826436113
6200262800.0 0.1880621871 0.9810292846
6250262500.0 0.200547033 0.978577302
6300262200.0 0.2134503712 0.9756338789
6350261900.0 0.226629972 0.9729036231
6400261600.0 0.2404524248 0.9695054475
6450261300.0 0.2516926101 0.9668699919
6500261000.0 0.2645852849 0.9632485739
6550260700.0 0.2777650751 0.9594271288
6600260400.0 0.2907225447 0.9552975851
6650260100.0 0.3050012615 0.9510282491
6700259800.0 0.31687495 0.9467499042
6750259500.0 0.3304723102 0.9418741028
6800259200.0 0.343812359 0.9367794526
6850258900.0 0.3559377111 0.9315423513
6900258600.0 0.3680345714 0.9264294572
6950258300.0 0.380503871 0.9211732829
7000258000.0 0.3925682181 0.9159287019
7050257700.0 0.4048299475 0.9098954693
7100257400.0 0.4176376028 0.9034624299
7150257100.0 0.4279101211 0.8983136476
7200256800.0 0.440768104 0.8918731319
7250256500.0 0.4525854295 0.8855356045
7300256200.0 0.465832412 0.878825595
7350255900.0 0.4783702398 0.872043554
7400255600.0 0.4913551895 0.8647115403
7450255300.0 0.5067248862 0.8555169965
7500255000.0 0.5189375068 0.8486170275
7550254700.0 0.5324054117 0.8398722328
7600254400.0 0.5449543837 0.8315515104
7650254100.0 0.5564912586 0.8239370728
7700253800.0 0.5686131722 0.8160533569
7750253500.0 0.5796189511 0.8084103289
7800253200.0 0.5903106106 0.8006337249
7850252900.0 0.600156385 0.7932476174
7900252600.0 0.6118082457 0.7846853285
7950252300.0 0.6204776364 0.7782557447
8000252000.0 0.6306189404 0.7705285099
8050251700.0 0.6411069793 0.762503691
8100251400.0 0.6511958675 0.7543165326
8150251100.0 0.6613305612 0.7456210635
8200250800.0 0.6706715794 0.7376990421
8250250500.0 0.6797420553 0.7296584515
8300250200.0 0.6887021673 0.7211361062
8350249900.0 0.6982151778 0.7125534589
8400249600.0 0.70634397 0.7046510032
8450249300.0 0.7153561504 0.6951806959
8500249000.0 0.7238659509 0.6863421375
8550248700.0 0.731981408 0.6773272071
8600248400.0 0.7407090309 0.6678900475
8650248100.0 0.7484107855 0.6583416482
8700247800.0 0.7579845425 0.6471105032
8750247500.0 0.7661103227 0.6369989991
8800247200.0 0.7744335806 0.6267401613
8850246900.0 0.7830702463 0.6151515553
8900246600.0 0.7917131049 0.6039448455
8950246300.0 0.8015380442 0.5908586857
9000246000.0 0.8104764544 0.5783028262
9050245700.0 0.8196061241 0.5652648081
9100245400.0 0.827706498 0.5527266692
9150245100.0 0.8376818814 0.5393070919
9200244800.0 0.8471371704 0.5241809554
9250244500.0 0.8564815824 0.5087233408
9300244200.0 0.8648045478 0.4942288482
9350243900.0 0.8726995278 0.480257889
9400243600.0 0.8792914609 0.4680693216
9450243300.0 0.8852024299 0.4566407685
9500243000.0 0.8914813284 0.4442496587
9550242700.0 0.8953955053 0.436589867
9600242400.0 0.8993071205 0.4292832458
9650242100.0 0.9032204199 0.4225865165
9700241800.0 0.9073869894 0.4145723929
9750241500.0 0.9115128452 0.4070394499
9800241200.0 0.9162905228 0.3977056723
9850240900.0 0.9219984561 0.3861864337
9900240600.0 0.9277195697 0.3745846822
9950240300.0 0.9341430421 0.3586291767
10000240000.0 0.9390322015 0.3468003513
10050239700.0 0.9443700519 0.3314153845
10100239400.0 0.949806094 0.3162365153
10150239100.0 0.9538558054 0.30129583
10200238800.0 0.958094237 0.2862166658
10250238500.0 0.9615393036 0.2729314063
10300238200.0 0.9645456784 0.2589567228
10350237900.0 0.9671789262 0.2460331785
10400237600.0 0.9698014863 0.2325695221
10450237300.0 0.972655337 0.2188486156
10500237000.0 0.9746170782 0.2067454217
10550236700.0 0.9771531598 0.1923134464
10600236400.0 0.9790734037 0.1789812573
10650236100.0 0.9806364818 0.1643940975
10700235800.0 0.9834044245 0.1520845105
10750235500.0 0.9852460598 0.138460503
10800235200.0 0.9876294076 0.1249281305
10850234900.0 0.9895470705 0.1095822499
10900234600.0 0.991826242 0.0951351031
10950234300.0 0.9933424102 0.0819316471
11000234000.0 0.9952332046 0.066743024
11050233700.0 0.9969428332 0.0504099553
11100233400.0 0.9983846456 0.0328532048
11150233100.0 0.9995433907 0.0165234447
11200232800.0 1.00073467 0.0017516901
11250232500.0 1.001395484 -0.0146877418
11300232200.0 1.001469546 -0.0326132583
11350231900.0 1.001777089 -0.0480866887
11400231600.0 1.001546487 -0.0645485355
11450231300.0 1.000957197 -0.0797893808
11500231000.0 1.000020142 -0.0963601061
11550230700.0 0.9989735076 -0.1088612914
11600230400.0 0.9974944055 -0.1211590579
11650230100.0 0.9947860318 -0.132884869
11700229800.0 0.993217342 -0.1475620175
11750229500.0 0.9911913455 -0.1622872229
11800229200.0 0.9881995924 -0.1755963033
11850228900.0 0.9848306809 -0.1879258104
11900228600.0 0.98119606 -0.1976174263
11950228300.0 0.9778395967 -0.2080072077
12000228000.0 0.9752341026 -0.2171622266
12050227700.0 0.9715060658 -0.2298490082
12100227400.0 0.9680900731 -0.2410924013
12150227100.0 0.9631821044 -0.2577951452
12200226800.0 0.9601708654 -0.2685094392
12250226500.0 0.956172286 -0.2810479565
12300226200.0 0.9510112067 -0.2941821223
12350225900.0 0.9463463625 -0.307606637
12400225600.0 0.9421064532 -0.3207494849
12450225300.0 0.9381515397 -0.3334819614
12500225000.0 0.9326109383 -0.3482202815
12550224700.0 0.9272099815 -0.3621083507
12600224400.0 0.9221847379 -0.3749034003
12650224100.0 0.9162567042 -0.3894332349
12700223800.0 0.9110069829 -0.4020736004
12750223500.0 0.9056758739 -0.4150465125
12800223200.0 0.9002818159 -0.4277263478
12850222900.0 0.8946394062 -0.4404022658
12900222600.0 0.8888302861 -0.4525975335
12950222300.0 0.8829893085 -0.4651601547
13000222000.0 0.8768695805 -0.4755861768
13050221700.0 0.8705584842 -0.4891524562
13100221400.0 0.8634692709 -0.5011404959
13150221100.0 0.8564942194 -0.5133875617
13200220800.0 0.8498794157 -0.5245153486
13250220500.0 0.8427095378 -0.536515765
13300220200.0 0.8353155365 -0.5473538102
13350219900.0 0.8271460359 -0.5593580546
13400219600.0 0.8188152877 -0.5714814295
13450219300.0 0.8096496139 -0.5848739694
13500219000.0 0.7997826278 -0.598438357
13550218700.0 0.7894753018 -0.6116390676
13600218400.0 0.7793049098 -0.6237246768
13650218100.0 0.7694857296 -0.6347073732
13700217800.0 0.7587741216 -0.6469593844
13750217500.0 0.7489007406 -0.6574736481
13800217200.0 0.7372068962 -0.6698582837
13850216900.0 0.7268873275 -0.6814670375
13900216600.0 0.7167087956 -0.6902575898
13950216300.0 0.7054685569 -0.7006224679
14000216000.0 0.6957696759 -0.7096799688
14050215700.0 0.6863725478 -0.7177699518
14100215400.0 0.6759913608 -0.7276684234
14150215100.0 0.6668784621 -0.7361977447
14200214800.0 0.6576365415 -0.7447752916
14250214500.0 0.647213076 -0.7542053217
14300214200.0 0.6368121654 -0.7635838393
14350213900.0 0.6255764935 -0.7731396732
14400213600.0 0.6142827405 -0.7828199409
14450213300.0 0.6005156345 -0.7933202072
14500213000.0 0.5875670784 -0.8026960159
14550212700.0 0.5750637682 -0.812596723
14600212400.0 0.5622535993 -0.8212072251
14650212100.0 0.5498696479 -0.8304354562
14700211800.0 0.5361639749 -0.8400490554
14750211500.0 0.523936857 -0.8477350642
14800211200.0 0.5117050981 -0.8560078796
14850210900.0 0.4997823306 -0.8633716219
14900210600.0 0.4863663811 -0.8711848995
14950210300.0 0.4729724697 -0.8787111554
15000210000.0 0.4602307072 -0.8855508137
15050209700.0 0.4478667043 -0.8915963833
15100209400.0 0.4355870049 -0.8978296672
15150209100.0 0.4230716566 -0.9031471867
15200208800.0 0.4101560679 -0.9082081242
15250208500.0 0.3995627783 -0.9129609535
15300208200.0 0.3873232432 -0.9177022189
15350207900.0 0.3738055832 -0.9226848034
15400207600.0 0.3584114402 -0.9283594234
15450207300.0 0.3439896326 -0.9334609864
15500207000.0 0.3298209136 -0.9368291976
15550206700.0 0.3150629457 -0.9423416355
15600206400.0 0.2990063861 -0.9474465341
15650206100.0 0.2834878811 -0.9507327466
15700205800.0 0.2693981 -0.9546027331
15750205500.0 0.2546901874 -0.9584546919
15800205200.0 0.2403653197 -0.9619019031
15850204900.0 0.2259363387 -0.9653308304
15900204600.0 0.2108342853 -0.9690413314
15950204300.0 0.1966954399 -0.9719960929
16000204000.0 0.1824097724 -0.9749799099
16050203700.0 0.1672100157 -0.9781698567
16100203400.0 0.1530258963 -0.9804502798
16150203100.0 0.13859136 -0.9823737205
16200202800.0 0.1241871825 -0.9843633367
16250202500.0 0.1101338643 -0.9863876627
16300202200.0 0.0942266806 -0.9877752428
16350201900.0 0.0794160265 -0.9892037754
16400201600.0 0.0647262042 -0.9901283402
16450201300.0 0.0493609855 -0.9913128953
16500201000.0 0.0329401977 -0.9921540722
16550200700.0 0.0172838882 -0.9925700012
16600200400.0 0.0015398139 -0.9927923259
16650200100.0 -0.0143206251 -0.9928434298
16700199800.0 -0.0307980034 -0.9926003716
16750199500.0 -0.0492367126 -0.9915203986
16800199200.0 -0.0653575828 -0.99083909
16850198900.0 -0.0803202819 -0.9899514891
16900198600.0 -0.0937413365 -0.9886520209
16950198300.0 -0.1076741401 -0.9880787067
17000198000.0 -0.1206019507 -0.9857756676
17050197700.0 -0.1332148125 -0.9841032018
17100197400.0 -0.1458814563 -0.9822656626
17150197100.0 -0.1586931784 -0.9802070643
17200196800.0 -0.1712368108 -0.9780088999
17250196500.0 -0.1847346477 -0.975662357
17300196200.0 -0.1965377062 -0.9736094914
17350195900.0 -0.2086372522 -0.9711967772
17400195600.0 -0.2208313719 -0.9687102679
17450195300.0 -0.2337823244 -0.9659550119
17500195000.0 -0.2474393624 -0.9627461769
17550194700.0 -0.2613360587 -0.9589302718
17600194400.0 -0.2753242832 -0.9551029869
17650194100.0 -0.2890273994 -0.9505345584
17700193800.0 -0.3019239575 -0.9469289325
17750193500.0 -0.3164168103 -0.9421514187
17800193200.0 -0.3310104193 -0.9371250606
17850192900.0 -0.3459566924 -0.9316047667
17900192600.0 -0.3615145374 -0.9255995955
17950192300.0 -0.3765759554 -0.9185466188
18000192000.0 -0.3912223102 -0.9112443145
18050191700.0 -0.4051624111 -0.9033649339
18100191400.0 -0.4194828836 -0.8957063153
18150191100.0 -0.4344963612 -0.8877473674
18200190800.0 -0.4514138142 -0.8786922513
18250190500.0 -0.4681281703 -0.869200731
18300190200.0 -0.4837488813 -0.8603278959
18350189900.0 -0.4986824801 -0.85197435
18400189600.0 -0.5131507988 -0.8436750318
18450189300.0 -0.5263305594 -0.8358130929
18500189000.0 -0.5398816372 -0.8279007298
18550188700.0 -0.5525653466 -0.8203430735
18600188400.0 -0.5640166201 -0.8137911772
18650188100.0 -0.5751392769 -0.8070554961
18700187800.0 -0.5862904362 -0.800569334
18750187500.0 -0.5965253594 -0.7940761402
18800187200.0 -0.6071741285 -0.7871026272
18850186900.0 -0.6172902373 -0.7801174436
18900186600.0 -0.6274864673 -0.7727563344
18950186300.0 -0.6374123864 -0.7652517973
19000186000.0 -0.6449242605 -0.7590630805
19050185700.0 -0.6539028019 -0.751744097
19100185400.0 -0.6635449463 -0.7436794209
19150185100.0 -0.6742383049 -0.7348175269
19200184800.0 -0.6840342813 -0.726801907
19250184500.0 -0.6937284751 -0.7173827368
19300184200.0 -0.7052162435 -0.708073019
19350183900.0 -0.7155794036 -0.6985580937
19400183600.0 -0.7254795917 -0.6883755978
19450183300.0 -0.7345298506 -0.6781628835
19500183000.0 -0.7424830311 -0.6686319103
19550182700.0 -0.752346473 -0.6576910235
19600182400.0 -0.7627593694 -0.6457658401
19650182100.0 -0.7736673196 -0.6337491408
19700181800.0 -0.7844290444 -0.6203365936
19750181500.0 -0.795050107 -0.606012125
19800181200.0 -0.8053369715 -0.5909168199
19850180900.0 -0.8152451795 -0.5757314113
19900180600.0 -0.8231185753 -0.561131329
19950180300.0 -0.8323564077 -0.54480919
20000180000.0 -0.8251992963 -0.5471212887
20050179700.0 -0.8337047862 -0.5341497816
20100179400.0 -0.8418452312 -0.5200196429
20150179100.0 -0.8498318927 -0.5072606274
20200178800.0 -0.8589864655 -0.4951617813
20250178500.0 -0.8685969447 -0.481785958
20300178200.0 -0.8785939229 -0.4666124126
20350177900.0 -0.8875897212 -0.4527293098
20400177600.0 -0.8964157808 -0.4385393131
20450177300.0 -0.9048336674 -0.4235100082
20500177000.0 -0.9127034613 -0.4097150712
20550176700.0 -0.9206457561 -0.3964792799
20600176400.0 -0.9276129315 -0.383419325
20650176100.0 -0.9341110408 -0.3706609886
20700175800.0 -0.9407700649 -0.3589076018
20750175500.0 -0.9476170208 -0.347103468
20800175200.0 -0.951926044 -0.3376297366
20850174900.0 -0.9568479255 -0.3255075259
20900174600.0 -0.9622271632 -0.3141350478
20950174300.0 -0.9652749936 -0.3026565078
21000174000.0 -0.9686376708 -0.2917348806
21050173700.0 -0.9716602542 -0.2802750215
21100173400.0 -0.9758001486 -0.2688565323
21150173100.0 -0.9794886426 -0.2570076339
21200172800.0 -0.9832927335 -0.2433413311
21250172500.0 -0.9865118807 -0.2289889442
21300172200.0 -0.9888906286 -0.2157210297
21350171900.0 -0.9906335798 -0.2004635481
21400171600.0 -0.9915393026 -0.1860203659
21450171300.0 -0.9928642148 -0.1723576052
21500171000.0 -0.9922616373 -0.1572571484
21550170700.0 -0.9925598706 -0.1409388305
21600170400.0 -0.992317422 -0.1247582936
21650170100.0 -0.9912332346 -0.1097280594
21700169800.0 -0.9901330931 -0.0940399614
21750169500.0 -0.9883908408 -0.0788354956
21800169200.0 -0.9880096426 -0.062838802
21850168900.0 -0.9870453735 -0.0454987953
21900168600.0 -0.9859683967 -0.0290145714
21950168300.0 -0.9846652845 -0.0132942215
22000168000.0 -0.9836238299 0.0017978819
22050167700.0 -0.9838021687 0.0163901104
22100167400.0 -0.9839200501 0.0316439081
22150167100.0 -0.9844998688 0.0468478754
22200166800.0 -0.9846920562 0.0633623179
22250166500.0 -0.9848742822 0.0808661595
22300166200.0 -0.9840694979 0.0971008036
22350165900.0 -0.9824115246 0.1137409679
22400165600.0 -0.9811550235 0.1295835079
22450165300.0 -0.9786449909 0.1438355638
22500165000.0 -0.9766202508 0.1574977827
22550164700.0 -0.9757338716 0.1725624255
22600164400.0 -0.9745343159 0.1891798148
22650164100.0 -0.9723546575 0.2047049143
22700163800.0 -0.9697127281 0.2193402456
22750163500.0 -0.9670375451 0.2345599708
22800163200.0 -0.9644404307 0.2480713639
22850162900.0 -0.9616100823 0.2613887537
22900162600.0 -0.9600890336 0.2746599075
22950162300.0 -0.9588755223 0.287362695
23000162000.0 -0.9574282441 0.2994614643
23050161700.0 -0.9556096019 0.311783484
23100161400.0 -0.9537091667 0.3245264523
23150161100.0 -0.9505524679 0.336989933
23200160800.0 -0.9476900708 0.3493426838
23250160500.0 -0.9443526006 0.3608944179
23300160200.0 -0.942089605 0.37308515
23350159900.0 -0.9388870533 0.3868491944
23400159600.0 -0.9342677939 0.3997760751
23450159300.0 -0.929708442 0.4130284517
23500159000.0 -0.924452107 0.4260076453
23550158700.0 -0.9199473328 0.4396169868
23600158400.0 -0.9143940867 0.4528103178
23650158100.0 -0.9082863912 0.4669103459
23700157800.0 -0.9006078184 0.480533799
23750157500.0 -0.8924584614 0.4948356388
23800157200.0 -0.8835145593 0.5081877117
23850156900.0 -0.8747061409 0.5211383066
23900156600.0 -0.8659958376 0.5336536716
23950156300.0 -0.8558277714 0.5460957642
24000156000.0 -0.847760615 0.5573435478
24050155700.0 -0.8371677905 0.5699745263
24100155400.0 -0.8272978652 0.5824256768
24150155100.0 -0.8164463559 0.5936872171
24200154800.0 -0.8053376732 0.6045819375
24250154500.0 -0.7944387291 0.6165310851
24300154200.0 -0.7826252379 0.628407594
24350153900.0 -0.7709125337 0.6385922385
24400153600.0 -0.7591509599 0.6489368292
24450153300.0 -0.7472203697 0.6583208985
24500153000.0 -0.7358923344 0.6680400363
24550152700.0 -0.7245684255 0.6781161034
24600152400.0 -0.7128563211 0.686921014
