!Created with skrf (http://scikit-rf.org).
# Hz S RI R 50.0 
!freq ReS11 ImS11
300000.0 -0.9757079122 -0.115892671
50299700.0 -1.000167752 0.0156068831
100299400.0 -0.9979795383 0.0285232311
150299100.0 -1.002775145 0.0453370673
200298800.0 -0.9998259874 0.0586800454
250298500.0 -0.9976009891 0.0722485299
300298200.0 -0.9860475037 0.0878821237
350297900.0 -0.9941102334 0.0988474213
400297600.0 -0.9934446099 0.1154351571
450297300.0 -0.9910949961 0.1294786926
500297000.0 -0.9893036481 0.1440527224
550296700.0 -0.984400745 0.1565680889
600296400.0 -1.017401217 0.1899490266
650296100.0 -0.9824738997 0.1865654115
700295800.0 -0.9792612485 0.2008377386
750295500.0 -0.9763564161 0.2147625037
800295200.0 -0.9729275579 0.2288700954
850294900.0 -0.969730319 0.2428006158
900294600.0 -0.96580338 0.2563322279
950294300.0 -0.9622863731 0.2702040737
1000294000.0 -0.9580908835 0.2841331513
1050293700.0 -0.9534642218 0.2979658942
1100293400.0 -0.9492670026 0.3121398163
1150293100.0 -0.9455836825 0.3240701067
1200292800.0 -0.9401197166 0.3386470875
1250292500.0 -0.9346362905 0.3518632808
1300292200.0 -0.9289271882 0.3651427562
1350291900.0 -0.9234247533 0.3791972732
1400291600.0 -0.9178206271 0.3922690744
1450291300.0 -0.9124202565 0.4047978954
1500291000.0 -0.9060543561 0.4181238172
1550290700.0 -0.899500259 0.4314766935
1600290400.0 -0.8933990143 0.4442873834
1650290100.0 -0.8868177665 0.4565536341
1700289800.0 -0.8797500997 0.4698388705
1750289500.0 -0.8727507023 0.4823302641
1800289200.0 -0.8655957038 0.4951784631
1850288900.0 -0.8588539311 0.5063360239
1900288600.0 -0.8505627746 0.519400612
1950288300.0 -0.8428230227 0.532195952
2000288000.0 -0.8353450499 0.5434079809
2050287700.0 -0.8269128464 0.5557508657
2100287400.0 -0.8189301298 0.5674448381
2150287100.0 -0.8105850234 0.579540183
2200286800.0 -0.8028684169 0.5898427185
2250286500.0 -0.7938698336 0.6019757608
2300286200.0 -0.7850537528 0.6136774125
2350285900.0 -0.7761985018 0.6244092988
2400285600.0 -0.7672995932 0.6355542924
2450285300.0 -0.7587212233 0.6456874576
2500285000.0 -0.748782983 0.6571106999
2550284700.0 -0.7398961002 0.6674484022
2600284400.0 -0.7303551553 0.6774314053
2650284100.0 -0.7214435869 0.6879710984
2700283800.0 -0.7112751672 0.6985280532
2750283500.0 -0.700696229 0.7092672994
2800283200.0 -0.6909484234 0.7188149986
2850282900.0 -0.6808037972 0.7288082573
2900282600.0 -0.6704692149 0.7385372839
2950282300.0 -0.6601335943 0.7475914438
3000282000.0 -0.6492818609 0.7570469843
3050281700.0 -0.6383343613 0.7664202001
3100281400.0 -0.6262860265 0.7757241482
3150281100.0 -0.6145777898 0.7848704477
3200280800.0 -0.6029526981 0.7936674952
3250280500.0 -0.5920429641 0.8012744065
3300280200.0 -0.5806773476 0.8088668305
3350279900.0 -0.5693162747 0.8167701167
3400279600.0 -0.557291189 0.8243470312
3450279300.0 -0.5460560732 0.8315433069
3500279000.0 -0.5342133704 0.838582348
3550278700.0 -0.5214258413 0.8460809929
3600278400.0 -0.5094608425 0.8528095432
3650278100.0 -0.4958561882 0.8606578224
3700277800.0 -0.4840946536 0.8671240499
3750277500.0 -0.4718526063 0.8736356402
3800277200.0 -0.4594401499 0.8800144958
3850276900.0 -0.447310624 0.8859632501
3900276600.0 -0.4363723511 0.8916468524
3950276300.0 -0.4238005829 0.8975773263
4000276000.0 -0.4117231293 0.9037487068
4050275700.0 -0.3988039748 0.9097708431
4100275400.0 -0.3876420938 0.9153025984
4150275100.0 -0.3751207568 0.9209217828
4200274800.0 -0.3622840619 0.9262343647
4250274500.0 -0.3499091262 0.9316563064
4300274200.0 -0.3370703892 0.9368489604
4350273900.0 -0.3233196408 0.9419483062
4400273600.0 -0.3082034309 0.9473184504
4450273300.0 -0.2928154973 0.9524786192
4500273000.0 -0.2791301061 0.9567698073
4550272700.0 -0.2649994276 0.9611060055
4600272400.0 -0.2495104351 0.9652832323
4650272100.0 -0.2378557554 0.9684177219
4700271800.0 -0.2245567584 0.9717442666
4750271500.0 -0.2128347304 0.9745164347
4800271200.0 -0.2005335837 0.9773571395
4850270900.0 -0.1864102313 0.9802100722
4900270600.0 -0.1725884529 0.9825529743
4950270300.0 -0.1582749513 0.9850413284
5000270000.0 -0.1441894347 0.9873363197
5050269700.0 -0.1303892162 0.9887541863
5100269400.0 -0.1170359574 0.9902634547
5150269100.0 -0.1038818942 0.9918654604
5200268800.0 -0.0905810624 0.9933641681
5250268500.0 -0.077314673 0.9939800121
5300268200.0 -0.0643584067 0.994891026
5350267900.0 -0.0518604007 0.9955748475
5400267600.0 -0.0358314906 0.9963335653
5450267300.0 -0.0226508116 0.9968208486
5500267000.0 -0.0073834381 0.9970423092
5550266700.0 0.0073243754 0.9973012017
5600266400.0 0.0230052622 0.9974908781
5650266100.0 0.039701979 0.9970932127
5700265800.0 0.0542287328 0.9961473317
5750265500.0 0.0693332584 0.9952483296
5800265200.0 0.0830905589 0.9941228325
5850264900.0 0.0966578574 0.9933874161
5900264600.0 0.1128890781 0.991585475
5950264300.0 0.1254370559 0.9898956466
6000264000.0 0.1392876146 0.988442207
6050263700.0 0.1518450402 0.9866376937
6100263400.0 0.1639525911 0.9846209604
6150263100.0 0.1786055006 0.9823919108
6200262800.0 0.1888104664 0.9810524601
6250262500.0 0.2015772252 0.978446065
6300262200.0 0.2143621231 0.975603619
6350261900.0 0.2274657053 0.9726255645
6400261600.0 0.241084048 0.9691893029
6450261300.0 0.252679692 0.9666166416
6500261000.0 0.2655407289 0.9631744894
6550260700.0 0.2782270115 0.9590055014
6600260400.0 0.2920816582 0.9552452796
6650260100.0 0.3056821935 0.9506826777
6700259800.0 0.3179133234 0.9465076496
6750259500.0 0.3315697992 0.9414691235
6800259200.0 0.3447590825 0.9364683883
6850258900.0 0.3565164096 0.9311570998
6900258600.0 0.3686967433 0.9262933971
6950258300.0 0.3812339853 0.9210678136
7000258000.0 0.3931963889 0.9156081146
7050257700.0 0.4056132501 0.9096704218
7100257400.0 0.418301425 0.9031316036
7150257100.0 0.4287343504 0.8981345448
7200256800.0 0.4415579242 0.8917106358
7250256500.0 0.4533439286 0.8853613823
7300256200.0 0.4663935891 0.8784769314
7350255900.0 0.4792411827 0.871539198
7400255600.0 0.4920188638 0.864320559
7450255300.0 0.5075776662 0.8555178083
7500255000.0 0.5191400675 0.8480177224
7550254700.0 0.533192122 0.8396957267
7600254400.0 0.5459321752 0.8313986908
7650254100.0 0.5569488118 0.8235845859
7700253800.0 0.569378385 0.8155027973
7750253500.0 0.5802277679 0.8077716613
7800253200.0 0.5906990114 0.8000545365
7850252900.0 0.6006579848 0.7930127704
7900252600.0 0.6122679851 0.7843773536
7950252300.0 0.6211041777 0.7778363614
8000252000.0 0.6312469287 0.7700344799
8050251700.0 0.6417575577 0.7618289469
8100251400.0 0.6519205494 0.7535856715
8150251100.0 0.6617240739 0.7448805449
8200250800.0 0.6712676602 0.7370222032
8250250500.0 0.6802909128 0.7291283904
8300250200.0 0.6894213387 0.7203553524
8350249900.0 0.6984200101 0.7118038056
8400249600.0 0.7069537547 0.7038576427
8450249300.0 0.7157629823 0.6946300742
8500249000.0 0.7245316965 0.6858038518
8550248700.0 0.7326877356 0.6768439993
8600248400.0 0.7412425458 0.6673194862
8650248100.0 0.7488188395 0.657806525
8700247800.0 0.7584584719 0.6465145898
8750247500.0 0.7668571718 0.6364175733
8800247200.0 0.775079153 0.6259424375
8850246900.0 0.7838406002 0.6146366176
8900246600.0 0.792287716 0.603438397
8950246300.0 0.8019260661 0.5900377702
9000246000.0 0.8113705212 0.5775141308
9050245700.0 0.8202318776 0.5645039281
9100245400.0 0.8289776319 0.5519145784
9150245100.0 0.8383510989 0.5382621273
9200244800.0 0.8479533653 0.5229843246
9250244500.0 0.8576543766 0.5075316281
9300244200.0 0.8659905269 0.492823247
9350243900.0 0.8736097268 0.4788902289
9400243600.0 0.8804330913 0.4664652886
9450243300.0 0.8860185438 0.454916304
9500243000.0 0.8922205799 0.442835345
9550242700.0 0.8960103951 0.4352562011
9600242400.0 0.8999479682 0.4279705091
9650242100.0 0.9036064754 0.4213514127
9700241800.0 0.9083865276 0.413009802
9750241500.0 0.9120546878 0.4055590922
9800241200.0 0.9168820221 0.3964188772
9850240900.0 0.9221803792 0.3849952286
9900240600.0 0.9280298936 0.3733213847
9950240300.0 0.9348259345 0.3573112401
10000240000.0 0.9392633475 0.3454023978
10050239700.0 0.9449671652 0.3305711844
10100239400.0 0.9499297006 0.3148398804
10150239100.0 0.9541542261 0.2999059555
10200238800.0 0.9582295573 0.2850144415
10250238500.0 0.9618195055 0.271601935
10300238200.0 0.9650652315 0.2577088884
10350237900.0 0.9675318283 0.2446153557
10400237600.0 0.9698654542 0.231548072
10450237300.0 0.9725957158 0.2179087709
10500237000.0 0.9745903774 0.2055654157
10550236700.0 0.9770670226 0.1918855343
10600236400.0 0.9790448596 0.1780957348
10650236100.0 0.9812987033 0.1631759632
10700235800.0 0.9834509748 0.1511546724
10750235500.0 0.9857748503 0.1380180267
10800235200.0 0.9877563092 0.1236915103
10850234900.0 0.9895549952 0.1094002031
10900234600.0 0.9915877426 0.0947437861
10950234300.0 0.9935550126 0.0813285731
11000234000.0 0.9952287442 0.0662020506
11050233700.0 0.9972156398 0.0498989795
11100233400.0 0.9984337298 0.0326615328
11150233100.0 0.9998449632 0.0161276927
11200232800.0 1.000231392 0.0010493434
11250232500.0 1.00103096 -0.0161015023
11300232200.0 1.001813965 -0.0336255626
11350231900.0 1.001131945 -0.0492765167
11400231600.0 1.00116529 -0.0648790648
11450231300.0 1.001048653 -0.0799403029
11500231000.0 0.9996161791 -0.0958471474
11550230700.0 0.9978097812 -0.1101377353
11600230400.0 0.9970543149 -0.1223693328
11650230100.0 0.9949149953 -0.1339373548
11700229800.0 0.9931062095 -0.1489971714
11750229500.0 0.9904307459 -0.1634069316
11800229200.0 0.9878605146 -0.1775279362
11850228900.0 0.9842119845 -0.1896582668
11900228600.0 0.98097464 -0.1993029449
11950228300.0 0.9774810652 -0.2098386217
12000228000.0 0.9749726739 -0.21887702
12050227700.0 0.9704542094 -0.2323845264
12100227400.0 0.9677344557 -0.2433758714
12150227100.0 0.9628182433 -0.2595646143
12200226800.0 0.9595232613 -0.2699194967
12250226500.0 0.9550399483 -0.2828598131
12300226200.0 0.9508641258 -0.29501398
12350225900.0 0.9463882468 -0.3088128574
12400225600.0 0.9415211768 -0.3216512888
12450225300.0 0.9375259433 -0.3340474957
12500225000.0 0.9321839489 -0.3493659784
12550224700.0 0.9270019506 -0.3628264572
12600224400.0 0.9218242084 -0.3758433757
12650224100.0 0.9159863659 -0.3901262256
12700223800.0 0.9106720818 -0.402873273
12750223500.0 0.90531125 -0.4157544854
12800223200.0 0.8999721689 -0.4284928821
12850222900.0 0.8947422085 -0.4405167675
12900222600.0 0.8886498328 -0.4525740627
12950222300.0 0.882244229 -0.4659678696
13000222000.0 0.876898492 -0.4769438464
13050221700.0 0.8698570121 -0.4901841376
13100221400.0 0.8632917837 -0.5013673305
13150221100.0 0.8563317904 -0.5139052117
13200220800.0 0.8492625512 -0.5254078537
13250220500.0 0.8420578093 -0.5376614663
13300220200.0 0.834633926 -0.5487058153
13350219900.0 0.8264128268 -0.5606092967
13400219600.0 0.8179167618 -0.5731762652
13450219300.0 0.8086719079 -0.586337045
13500219000.0 0.7986990952 -0.5999580878
13550218700.0 0.7884287542 -0.6127230514
13600218400.0 0.7774184679 -0.6256884616
13650218100.0 0.7681632483 -0.6363507784
13700217800.0 0.7574975633 -0.6483540646
13750217500.0 0.746772368 -0.6601088401
13800217200.0 0.7361338274 -0.6716738349
13850216900.0 0.7244983118 -0.6828716971
13900216600.0 0.7147662047 -0.692427901
13950216300.0 0.7042998855 -0.7025489801
14000216000.0 0.6943577141 -0.7110956295
14050215700.0 0.6846092564 -0.7199184338
14100215400.0 0.6750544491 -0.7287948579
14150215100.0 0.6657877284 -0.7371261556
14200214800.0 0.656509645 -0.7458716623
14250214500.0 0.6462304458 -0.7550991774
14300214200.0 0.6358301501 -0.7643687275
14350213900.0 0.6249592411 -0.7741239763
14400213600.0 0.6131926072 -0.7835461785
14450213300.0 0.5998221187 -0.793923113
14500213000.0 0.5869896159 -0.8036504832
14550212700.0 0.5742465624 -0.8134876545
14600212400.0 0.5619123962 -0.8226405417
14650212100.0 0.5486944339 -0.830648545
14700211800.0 0.5341962814 -0.8404799705
14750211500.0 0.5225227492 -0.8489895201
14800211200.0 0.5104122377 -0.8564069301
14850210900.0 0.4982790552 -0.8637574064
14900210600.0 0.4849648033 -0.8720055414
14950210300.0 0.4712484447 -0.8793855485
15000210000.0 0.4584381276 -0.8863256611
15050209700.0 0.4461900652 -0.8923532719
15100209400.0 0.4337011642 -0.8983625437
15150209100.0 0.4212299138 -0.9036948343
15200208800.0 0.4084353988 -0.9092682098
15250208500.0 0.3973189109 -0.9142670956
15300208200.0 0.3849732898 -0.9184547073
15350207900.0 0.3720336145 -0.9227906938
15400207600.0 0.3571038395 -0.9285535988
15450207300.0 0.3429712164 -0.9335035636
15500207000.0 0.3284979727 -0.9385047135
15550206700.0 0.3123809168 -0.942570796
15600206400.0 0.2969034194 -0.9479628469
15650206100.0 0.2815008748 -0.9517404076
15700205800.0 0.2675185889 -0.9557341153
15750205500.0 0.2528930112 -0.958968277
15800205200.0 0.2384628847 -0.9625383803
15850204900.0 0.2239996245 -0.9658819406
15900204600.0 0.2090046702 -0.9694157562
15950204300.0 0.1950360668 -0.9724709637
16000204000.0 0.1811065438 -0.9754205796
16050203700.0 0.1657915197 -0.9782256154
16100203400.0 0.1518434415 -0.9803567357
16150203100.0 0.1371321775 -0.9828828835
16200202800.0 0.1229801498 -0.9845638473
16250202500.0 0.1083971931 -0.9862007931
16300202200.0 0.0927216942 -0.9875335914
16350201900.0 0.0782300376 -0.9894835936
16400201600.0 0.0634971366 -0.9902451929
16450201300.0 0.0481792565 -0.991268266
16500201000.0 0.0313980348 -0.9920590083
16550200700.0 0.015856325 -0.9926691594
16600200400.0 1.31326e-05 -0.9927156997
16650200100.0 -0.0161767133 -0.9924188481
16700199800.0 -0.032565653 -0.9923107797
16750199500.0 -0.0516930929 -0.9910310826
16800199200.0 -0.0671410612 -0.9903730278
16850198900.0 -0.0822037491 -0.9896171595
16900198600.0 -0.0958423437 -0.9886234594
16950198300.0 -0.1097018368 -0.9872787332
17000198000.0 -0.1222602573 -0.9860244515
17050197700.0 -0.1353943102 -0.9837979041
17100197400.0 -0.1485351101 -0.9819579316
17150197100.0 -0.1609595266 -0.9800124496
17200196800.0 -0.1731659971 -0.9780351352
17250196500.0 -0.1862403143 -0.9753978872
17300196200.0 -0.198397417 -0.973267771
17350195900.0 -0.2102647076 -0.9709484968
17400195600.0 -0.2223725343 -0.9684256603
17450195300.0 -0.2356375131 -0.965741279
17500195000.0 -0.2488983371 -0.9622655344
17550194700.0 -0.2632369494 -0.9585363226
17600194400.0 -0.2768689234 -0.9549627221
17650194100.0 -0.2905915384 -0.9509101559
17700193800.0 -0.3032819435 -0.9462665071
17750193500.0 -0.3181828298 -0.9415504551
17800193200.0 -0.332583547 -0.936469031
17850192900.0 -0.3475709022 -0.931147261
17900192600.0 -0.362606489 -0.9249139462
17950192300.0 -0.3781452728 -0.9176581339
18000192000.0 -0.3928296803 -0.9106992126
18050191700.0 -0.4066075905 -0.9025364686
18100191400.0 -0.4208834956 -0.8949508911
18150191100.0 -0.4358855281 -0.8867982497
18200190800.0 -0.4528066394 -0.8777104651
18250190500.0 -0.4698044767 -0.8678567004
18300190200.0 -0.4849285068 -0.8592383474
18350189900.0 -0.5000550941 -0.8508967926
18400189600.0 -0.5147310404 -0.841971198
18450189300.0 -0.5280820712 -0.8348483217
18500189000.0 -0.5408227776 -0.8264838542
18550188700.0 -0.553766057 -0.8191926963
18600188400.0 -0.5657026957 -0.8123969487
18650188100.0 -0.5765600315 -0.8061562613
18700187800.0 -0.5876794833 -0.7993871716
18750187500.0 -0.597997543 -0.7927943821
18800187200.0 -0.6086541899 -0.7858139126
18850186900.0 -0.6189585938 -0.7788602936
18900186600.0 -0.6291496103 -0.7715901074
18950186300.0 -0.6390292385 -0.7639661195
19000186000.0 -0.646059763 -0.7580507127
19050185700.0 -0.6559201533 -0.7505079922
19100185400.0 -0.6653521542 -0.7420491888
19150185100.0 -0.6754008479 -0.7339504576
19200184800.0 -0.6855407967 -0.7251549655
19250184500.0 -0.6956353035 -0.7157828196
19300184200.0 -0.7066043617 -0.7062696286
19350183900.0 -0.71747304 -0.6964985054
19400183600.0 -0.7270018197 -0.6865108329
19450183300.0 -0.7357506435 -0.6764119638
19500183000.0 -0.7444289884 -0.6667971773
19550182700.0 -0.7544568248 -0.6551746649
19600182400.0 -0.7648464511 -0.6442386909
19650182100.0 -0.7753519785 -0.631877926
19700181800.0 -0.7860986014 -0.6186514921
19750181500.0 -0.7966809325 -0.6042613575
19800181200.0 -0.8072352467 -0.5893617725
19850180900.0 -0.8169070694 -0.5738798561
19900180600.0 -0.8244835513 -0.5593534903
19950180300.0 -0.8338509699 -0.5431633424
20000180000.0 -0.8254752757 -0.5454346383
20050179700.0 -0.8347206708 -0.5333528302
20100179400.0 -0.844185798 -0.5186191462
20150179100.0 -0.8516667631 -0.5070938048
20200178800.0 -0.8601614324 -0.4940852471
20250178500.0 -0.8696316794 -0.4802529779
20300178200.0 -0.8786530633 -0.4652507556
20350177900.0 -0.8879512196 -0.4516342914
20400177600.0 -0.897117735 -0.4364473342
20450177300.0 -0.9054695254 -0.4225851451
20500177000.0 -0.9134190494 -0.4083695686
20550176700.0 -0.9214081645 -0.3951270205
20600176400.0 -0.9283796539 -0.3819658009
20650176100.0 -0.934720054 -0.3691993411
20700175800.0 -0.9411774044 -0.3573745128
20750175500.0 -0.9480855531 -0.3453133975
20800175200.0 -0.9533061664 -0.3353981004
20850174900.0 -0.9573190135 -0.3245587286
20900174600.0 -0.9620993244 -0.3126097763
20950174300.0 -0.9666491566 -0.3012767598
21000174000.0 -0.9698400141 -0.2899374562
21050173700.0 -0.9729027591 -0.2780283057
21100173400.0 -0.9768029547 -0.2664900109
21150173100.0 -0.9808732507 -0.2532239844
21200172800.0 -0.9840706464 -0.2405080192
21250172500.0 -0.9871697775 -0.2265287694
21300172200.0 -0.9900238695 -0.2129426431
21350171900.0 -0.9911115955 -0.1982669056
21400171600.0 -0.9931549513 -0.1838989608
21450171300.0 -0.9926962592 -0.1693325275
21500171000.0 -0.9937660176 -0.1537231216
21550170700.0 -0.9928048928 -0.1387145207
21600170400.0 -0.9920866369 -0.1233196062
21650170100.0 -0.9916273807 -0.1073547715
21700169800.0 -0.9903497625 -0.091997321
21750169500.0 -0.9887083738 -0.0762422493
21800169200.0 -0.988106124 -0.0593231482
21850168900.0 -0.9876617843 -0.041375516
21900168600.0 -0.9857700571 -0.0268904135
21950168300.0 -0.9848501845 -0.0110844158
22000168000.0 -0.9832696033 0.0040813874
22050167700.0 -0.9827743914 0.0181834038
22100167400.0 -0.9831481773 0.0334624795
22150167100.0 -0.9838855144 0.0488982027
22200166800.0 -0.9840262104 0.065107029
22250166500.0 -0.9834569644 0.0825284896
22300166200.0 -0.98273933 0.099207521
22350165900.0 -0.980853652 0.1160652929
22400165600.0 -0.9803531696 0.1308882028
22450165300.0 -0.9784621634 0.1465400293
22500165000.0 -0.975355824 0.159740199
22550164700.0 -0.9745548023 0.1754615129
22600164400.0 -0.9736039 0.1910857831
22650164100.0 -0.9709304546 0.205061057
22700163800.0 -0.9689583531 0.2215627699
22750163500.0 -0.965788494 0.2366026832
22800163200.0 -0.9629861692 0.2499410097
22850162900.0 -0.9605478066 0.2638385944
22900162600.0 -0.9590786747 0.2768164606
22950162300.0 -0.9578481366 0.2894952721
23000162000.0 -0.9567931061 0.3015499225
23050161700.0 -0.9553092256 0.3139609646
23100161400.0 -0.9526298094 0.3267865139
23150161100.0 -0.9500631862 0.3395262385
23200160800.0 -0.947350198 0.3514880132
23250160500.0 -0.9448669221 0.3632491684
23300160200.0 -0.9419169446 0.3753805934
23350159900.0 -0.9379848522 0.3888370382
23400159600.0 -0.9334229669 0.4013154578
23450159300.0 -0.9289881798 0.4143979867
23500159000.0 -0.9242756544 0.4277905238
23550158700.0 -0.9196551011 0.4406879928
23600158400.0 -0.9142562346 0.4540970213
23650158100.0 -0.9078633625 0.468099645
23700157800.0 -0.9005915873 0.4820344629
23750157500.0 -0.8917377175 0.4962849622
23800157200.0 -0.8829339252 0.5095079999
23850156900.0 -0.8741750795 0.5221359947
23900156600.0 -0.8651382665 0.5340417355
23950156300.0 -0.8554375111 0.54678571
24000156000.0 -0.8473515037 0.5590162765
24050155700.0 -0.8361085851 0.5706289328
24100155400.0 -0.8262291241 0.5827394603
24150155100.0 -0.8154658138 0.5935091583
24200154800.0 -0.8044622581 0.6058138556
24250154500.0 -0.7928363146 0.6176004209
24300154200.0 -0.7815911745 0.6287496574
24350153900.0 -0.7699349801 0.6400048809
24400153600.0 -0.7575396051 0.6496595214
24450153300.0 -0.7458140913 0.659618845
24500153000.0 -0.7344303687 0.6693888216
24550152700.0 -0.7231152626 0.6791888518
24600152400.0 -0.7114833732 0.6881394754
24650152100.0 -0.7000251367 0.6973271797
