!Created with skrf (http://scikit-rf.org).
# Hz S RI R 50.0 
!freq ReS11 ImS11
300000.0 -0.9778169361 -0.1130874596
50299700.0 -1.000110885 0.0157922
100299400.0 -0.9980177716 0.0287485597
150299100.0 -1.002877556 0.0454501751
200298800.0 -0.9996784195 0.0589488626
250298500.0 -0.9973053802 0.0724225045
300298200.0 -0.9860516709 0.0881623526
350297900.0 -0.9939612039 0.0991162431
400297600.0 -0.9932879506 0.1155076876
450297300.0 -0.9911209526 0.1294189224
500297000.0 -0.9896292769 0.1443228747
550296700.0 -0.9843201193 0.1565994885
600296400.0 -1.017276219 0.1900745322
650296100.0 -0.9821184766 0.1866932915
700295800.0 -0.9791214486 0.2009597574
750295500.0 -0.9763090883 0.2149878254
800295200.0 -0.9728455041 0.229067459
850294900.0 -0.9697202785 0.2429021346
900294600.0 -0.9659169123 0.2565942742
950294300.0 -0.9618980154 0.2704762109
1000294000.0 -0.958130123 0.2845932433
1050293700.0 -0.9536668988 0.2982699009
1100293400.0 -0.9495148176 0.312580322
1150293100.0 -0.945601425 0.3244002383
1200292800.0 -0.9400524701 0.3386885878
1250292500.0 -0.9345453178 0.3520106621
1300292200.0 -0.9289333874 0.3654823884
1350291900.0 -0.9234151255 0.3795320598
1400291600.0 -0.9178863797 0.3926268952
1450291300.0 -0.9122757976 0.40496414
1500291000.0 -0.9059865444 0.4182378572
1550290700.0 -0.8994201675 0.4316036952
1600290400.0 -0.8932815318 0.4446429149
1650290100.0 -0.8866979176 0.4565041239
1700289800.0 -0.8797433578 0.4699620767
1750289500.0 -0.8725894348 0.4824542266
1800289200.0 -0.8652775407 0.4952490053
1850288900.0 -0.8584646332 0.5066129584
1900288600.0 -0.8508855618 0.5195415889
1950288300.0 -0.8425738384 0.5322945639
2000288000.0 -0.8351340874 0.5435416998
2050287700.0 -0.8270349718 0.5559381938
2100287400.0 -0.8189930391 0.5676186223
2150287100.0 -0.8103292592 0.579519152
2200286800.0 -0.8025518853 0.5898234722
2250286500.0 -0.7938337355 0.6020740318
2300286200.0 -0.7847977801 0.6138014736
2350285900.0 -0.7761169598 0.6245761281
2400285600.0 -0.7671665161 0.6356813823
2450285300.0 -0.7584267447 0.6460622213
2500285000.0 -0.748797189 0.6572433805
2550284700.0 -0.739981561 0.6676199628
2600284400.0 -0.7306170326 0.6776564865
2650284100.0 -0.7216163645 0.6883244955
2700283800.0 -0.7108429172 0.6988980964
2750283500.0 -0.7005321994 0.7093322294
2800283200.0 -0.6905060587 0.719192293
2850282900.0 -0.6805636255 0.7290185636
2900282600.0 -0.6700811798 0.7383840725
2950282300.0 -0.660131159 0.7477195185
3000282000.0 -0.6492198082 0.7572438217
3050281700.0 -0.6381278101 0.7664950421
3100281400.0 -0.6262289286 0.775818637
3150281100.0 -0.6143818327 0.7853425094
3200280800.0 -0.6026301856 0.7937885673
3250280500.0 -0.5919380091 0.8013620611
3300280200.0 -0.5806790456 0.8091983434
3350279900.0 -0.5692115999 0.8169243086
3400279600.0 -0.5570995315 0.8243101503
3450279300.0 -0.5459930525 0.8316086698
3500279000.0 -0.5337037824 0.8386773365
3550278700.0 -0.5213049384 0.8457399569
3600278400.0 -0.5093166941 0.8530031542
3650278100.0 -0.4958713522 0.8606997388
3700277800.0 -0.4837793249 0.8671484373
3750277500.0 -0.4714612104 0.8736613328
3800277200.0 -0.4591577671 0.8800162698
3850276900.0 -0.4468261219 0.8860818626
3900276600.0 -0.4360168878 0.8916030001
3950276300.0 -0.423657672 0.897563064
4000276000.0 -0.4116981609 0.9038210494
4050275700.0 -0.398625296 0.9098739439
4100275400.0 -0.3874540608 0.9154426862
4150275100.0 -0.3748100357 0.9207630995
4200274800.0 -0.3620326868 0.9264277842
4250274500.0 -0.3495723782 0.9317203525
4300274200.0 -0.3365904705 0.9368011715
4350273900.0 -0.3228376584 0.9422171863
4400273600.0 -0.3079466978 0.9475795169
4450273300.0 -0.2926504885 0.952618814
4500273000.0 -0.2791004355 0.9569311112
4550272700.0 -0.2648388613 0.9611842095
4600272400.0 -0.2492787692 0.9653876496
4650272100.0 -0.2376663991 0.9686243342
4700271800.0 -0.2244306973 0.9718992494
4750271500.0 -0.212640503 0.9746821286
4800271200.0 -0.2002209279 0.9773482654
4850270900.0 -0.1862078913 0.9801975865
4900270600.0 -0.1723464818 0.9825988258
4950270300.0 -0.1579926269 0.9849870623
5000270000.0 -0.1439151998 0.9872674863
5050269700.0 -0.1302839388 0.9888739916
5100269400.0 -0.1166294695 0.9904800641
5150269100.0 -0.1035979569 0.9919542452
5200268800.0 -0.0902552204 0.9928011893
5250268500.0 -0.0770317282 0.9943420542
5300268200.0 -0.0641068855 0.9946897644
5350267900.0 -0.0518129045 0.9952589475
5400267600.0 -0.0357557802 0.9964051969
5450267300.0 -0.0225122366 0.9968364583
5500267000.0 -0.0076029581 0.9969630602
5550266700.0 0.0075946234 0.9971683004
5600266400.0 0.0230466788 0.9973243951
5650266100.0 0.0397042818 0.9968981739
5700265800.0 0.0541810587 0.995814846
5750265500.0 0.0695496311 0.9955426852
5800265200.0 0.0832638914 0.994298439
5850264900.0 0.0968302958 0.9931993805
5900264600.0 0.1133752196 0.9915447355
5950264300.0 0.125456242 0.9902333377
6000264000.0 0.1393725569 0.9878140572
6050263700.0 0.1518643248 0.9869750901
6100263400.0 0.1642150115 0.9846760063
6150263100.0 0.1787544655 0.9825527853
6200262800.0 0.1893154858 0.9806251647
6250262500.0 0.2019550185 0.9783418337
6300262200.0 0.2148378728 0.975354269
6350261900.0 0.227990551 0.9726342999
6400261600.0 0.2415970861 0.9691607962
6450261300.0 0.2530802368 0.9664244003
6500261000.0 0.2658715708 0.9628662909
6550260700.0 0.2791387734 0.9589811391
6600260400.0 0.2921530766 0.9550883122
6650260100.0 0.3060478184 0.9506776286
6700259800.0 0.3181276112 0.9462752861
6750259500.0 0.331681483 0.9410356694
6800259200.0 0.3447673718 0.9362415557
6850258900.0 0.3565337213 0.9309367438
6900258600.0 0.3691284882 0.9263466557
6950258300.0 0.3815886974 0.9209367099
7000258000.0 0.3935801964 0.9153933588
7050257700.0 0.4058898412 0.9093742303
7100257400.0 0.418453556 0.9030201209
7150257100.0 0.4291127458 0.8978849422
7200256800.0 0.4415875059 0.8914970368
7250256500.0 0.453618836 0.8850640462
7300256200.0 0.4663239361 0.8781804185
7350255900.0 0.4790776999 0.8715620183
7400255600.0 0.4923452287 0.8639265876
7450255300.0 0.5076503481 0.8551237051
7500255000.0 0.5189306614 0.8477175968
7550254700.0 0.5333504453 0.839544274
7600254400.0 0.5458697052 0.8310421684
7650254100.0 0.5573426504 0.8235384985
7700253800.0 0.5691123124 0.8154270946
7750253500.0 0.5805342994 0.8076451259
7800253200.0 0.5911192238 0.7998905762
7850252900.0 0.6007871845 0.7927874405
7900252600.0 0.612531947 0.784143096
7950252300.0 0.621339034 0.777412161
8000252000.0 0.6314771615 0.7697251644
8050251700.0 0.6418923504 0.7616908245
8100251400.0 0.6522674966 0.7534608015
8150251100.0 0.6618401444 0.7447944749
8200250800.0 0.6713214988 0.7369114232
8250250500.0 0.6804196795 0.7288712407
8300250200.0 0.6896428402 0.7201930011
8350249900.0 0.6986121097 0.7116517007
8400249600.0 0.7068037808 0.70345103
8450249300.0 0.7161424273 0.6942696609
8500249000.0 0.7247230885 0.685392873
8550248700.0 0.7329454197 0.6764322845
8600248400.0 0.7412545778 0.666978031
8650248100.0 0.7489891932 0.6575982589
8700247800.0 0.7586558922 0.6462958119
8750247500.0 0.7667466523 0.6363289809
8800247200.0 0.7751228458 0.6259090092
8850246900.0 0.7838649188 0.6144075018
8900246600.0 0.7924473244 0.6029525939
8950246300.0 0.8018513504 0.5902445762
9000246000.0 0.8110417437 0.5772012668
9050245700.0 0.8203721788 0.5641808135
9100245400.0 0.8289010179 0.5518174024
9150245100.0 0.838770133 0.5378369148
9200244800.0 0.8482229479 0.5225396082
9250244500.0 0.8576700498 0.5070804797
9300244200.0 0.8661913576 0.4922737055
9350243900.0 0.8736780102 0.4784292717
9400243600.0 0.8803285118 0.4661765415
9450243300.0 0.886273286 0.4545312646
9500243000.0 0.8926149276 0.4422400578
9550242700.0 0.8962729053 0.4347918624
9600242400.0 0.9000551244 0.4274309096
9650242100.0 0.9035410082 0.4210197225
9700241800.0 0.908306474 0.4126418314
9750241500.0 0.9118966722 0.4051572372
9800241200.0 0.9167785315 0.3963560143
9850240900.0 0.9225708955 0.3845837466
9900240600.0 0.9281813715 0.3727084545
9950240300.0 0.9346399518 0.3568969831
10000240000.0 0.9393811478 0.3450583931
10050239700.0 0.9447972778 0.3296553211
10100239400.0 0.9502421525 0.3140085935
10150239100.0 0.9542422227 0.2997890966
10200238800.0 0.9583820654 0.2845615304
10250238500.0 0.9617628156 0.2714008395
10300238200.0 0.9649104481 0.257156267
10350237900.0 0.967458182 0.2443651806
10400237600.0 0.970028019 0.2310302918
10450237300.0 0.9727187934 0.216994388
10500237000.0 0.9745496956 0.2052071905
10550236700.0 0.9773446964 0.1910864088
10600236400.0 0.9791672956 0.1775281384
10650236100.0 0.9816179412 0.1634508795
10700235800.0 0.9831266606 0.1512354293
10750235500.0 0.9856503114 0.1380202734
10800235200.0 0.9875319275 0.1235812077
10850234900.0 0.9895479624 0.1092842975
10900234600.0 0.9918230669 0.0943501642
10950234300.0 0.9934689651 0.0811218142
11000234000.0 0.995276685 0.0658890054
11050233700.0 0.9969799288 0.0494701825
11100233400.0 0.9983352791 0.0322492529
11150233100.0 0.9994645701 0.0160086872
11200232800.0 0.9996624057 0.0006484585
11250232500.0 1.000990486 -0.0158656197
11300232200.0 1.001300234 -0.0332469037
11350231900.0 1.001068692 -0.0488067421
11400231600.0 1.001358278 -0.0652945755
11450231300.0 1.000237883 -0.0800969008
11500231000.0 0.9999477706 -0.0973718304
11550230700.0 0.998237584 -0.1102938633
11600230400.0 0.9967719284 -0.1235668289
11650230100.0 0.9949308372 -0.1351418294
11700229800.0 0.9929006356 -0.1497124414
11750229500.0 0.9903261159 -0.1643421755
11800229200.0 0.9876712232 -0.1777669525
11850228900.0 0.9840334632 -0.1903264207
11900228600.0 0.9805331669 -0.1997919041
11950228300.0 0.9771839064 -0.2102475629
12000228000.0 0.9745645411 -0.2191523676
12050227700.0 0.9711486536 -0.2318646997
12100227400.0 0.9678530049 -0.2429502244
12150227100.0 0.9629182591 -0.2590857981
12200226800.0 0.9595718542 -0.2699225724
12250226500.0 0.9548368618 -0.2830719965
12300226200.0 0.9508833137 -0.2948598283
12350225900.0 0.9458423015 -0.3092716584
12400225600.0 0.9415294602 -0.322233935
12450225300.0 0.9376211897 -0.3350221296
12500225000.0 0.9316304059 -0.3492376121
12550224700.0 0.9267341751 -0.3631644352
12600224400.0 0.9217301446 -0.3759236148
12650224100.0 0.9159314899 -0.3901238746
12700223800.0 0.9106679848 -0.4030258644
12750223500.0 0.9051302562 -0.4159705511
12800223200.0 0.8999605014 -0.4286123064
12850222900.0 0.8942457313 -0.4411158825
12900222600.0 0.8885379787 -0.4525473786
12950222300.0 0.8825170022 -0.4654755493
13000222000.0 0.8762852604 -0.4769718434
13050221700.0 0.8697165581 -0.4896770392
13100221400.0 0.8634184992 -0.5013449489
13150221100.0 0.8561541826 -0.5141037809
13200220800.0 0.8490632863 -0.5257985034
13250220500.0 0.8419006235 -0.5375836406
13300220200.0 0.8343014346 -0.548547875
13350219900.0 0.8263064708 -0.5607400473
13400219600.0 0.8177860053 -0.5729019339
13450219300.0 0.8084424765 -0.5865367545
13500219000.0 0.7978249079 -0.600540328
13550218700.0 0.7877783611 -0.6131648245
13600218400.0 0.7778401438 -0.6253009552
13650218100.0 0.7677920832 -0.6364812841
13700217800.0 0.7560503207 -0.6493001916
13750217500.0 0.7464052007 -0.6601283049
13800217200.0 0.7360698713 -0.6713631513
13850216900.0 0.7248959173 -0.6831774859
13900216600.0 0.714578097 -0.691939297
13950216300.0 0.7036632434 -0.7032408767
14000216000.0 0.6938450264 -0.7116413221
14050215700.0 0.6842861394 -0.719926947
14100215400.0 0.6745594473 -0.7290939871
14150215100.0 0.6653716518 -0.7375272847
14200214800.0 0.6560636003 -0.745967468
14250214500.0 0.6458520849 -0.7552852433
14300214200.0 0.6354919693 -0.7646938169
14350213900.0 0.6242278731 -0.7742197174
14400213600.0 0.6128959238 -0.7839879577
14450213300.0 0.5994551441 -0.7942599937
14500213000.0 0.5863683217 -0.8038265113
14550212700.0 0.5736703737 -0.8134255974
14600212400.0 0.5616996963 -0.8225095395
14650212100.0 0.5478639054 -0.8310382786
14700211800.0 0.5346328334 -0.840453314
14750211500.0 0.5226226439 -0.8487293858
14800211200.0 0.5103841189 -0.856659407
14850210900.0 0.4978744521 -0.8640176647
14900210600.0 0.4846306768 -0.8719924853
14950210300.0 0.4711133529 -0.8796400026
15000210000.0 0.4582210854 -0.8864276747
15050209700.0 0.4460238211 -0.8923647166
15100209400.0 0.4331372959 -0.8986687404
15150209100.0 0.4206309248 -0.903815243
15200208800.0 0.4074275981 -0.9094360488
15250208500.0 0.3961482921 -0.9138538446
15300208200.0 0.3847718787 -0.9186315118
15350207900.0 0.3706564631 -0.9234168615
15400207600.0 0.3566232131 -0.9289027788
15450207300.0 0.3420090484 -0.9338537932
15500207000.0 0.3271365525 -0.9386258597
15550206700.0 0.312588439 -0.9430995686
15600206400.0 0.2959807256 -0.9477555312
15650206100.0 0.2808347898 -0.952015283
15700205800.0 0.2667425551 -0.9557009453
15750205500.0 0.2522031102 -0.9591407186
15800205200.0 0.237651589 -0.9625068314
15850204900.0 0.2233316511 -0.96610212
15900204600.0 0.2083888995 -0.9694742402
15950204300.0 0.1941959466 -0.9724347988
16000204000.0 0.1802242062 -0.9756623644
16050203700.0 0.1652061231 -0.977943158
16100203400.0 0.1507208665 -0.9801386644
16150203100.0 0.136586938 -0.9821848108
16200202800.0 0.1223267748 -0.9848212603
16250202500.0 0.1080494754 -0.9860352443
16300202200.0 0.0928899792 -0.9880373641
16350201900.0 0.0778519152 -0.9893644646
16400201600.0 0.0628520149 -0.9899248608
16450201300.0 0.0479301492 -0.9911452771
16500201000.0 0.0310863343 -0.9920410022
16550200700.0 0.0154717694 -0.9923706281
16600200400.0 -0.0003014499 -0.9926807935
16650200100.0 -0.0165950509 -0.992740752
16700199800.0 -0.032987856 -0.9921422738
16750199500.0 -0.0517730176 -0.9913025657
16800199200.0 -0.067686557 -0.9907520437
16850198900.0 -0.082741965 -0.9895742666
16900198600.0 -0.0962096621 -0.9880298029
16950198300.0 -0.1103612645 -0.9876733641
17000198000.0 -0.1230822788 -0.9854513689
17050197700.0 -0.1353911828 -0.9839305729
17100197400.0 -0.1482419653 -0.981441865
17150197100.0 -0.1611089777 -0.9798477026
17200196800.0 -0.1735178605 -0.9777793347
17250196500.0 -0.1865092152 -0.9755778038
17300196200.0 -0.1987905685 -0.9731367336
17350195900.0 -0.2106912484 -0.9707570344
17400195600.0 -0.2229296425 -0.9682027876
17450195300.0 -0.2361219477 -0.9654004817
17500195000.0 -0.2494101096 -0.9620725683
17550194700.0 -0.263185035 -0.9584558463
17600194400.0 -0.2772833564 -0.9544142381
17650194100.0 -0.2911164549 -0.9502873349
17700193800.0 -0.3038216169 -0.9458737954
17750193500.0 -0.3184344444 -0.9415599274
17800193200.0 -0.333056397 -0.9359491083
17850192900.0 -0.3478027302 -0.930699251
17900192600.0 -0.3630795269 -0.9245295076
17950192300.0 -0.3782669905 -0.9176614325
18000192000.0 -0.3930317502 -0.9105282275
18050191700.0 -0.4068990667 -0.9023478953
18100191400.0 -0.4210095632 -0.8947743037
18150191100.0 -0.4360767691 -0.8865699301
18200190800.0 -0.4533286537 -0.8774231958
18250190500.0 -0.4701543987 -0.8679723275
18300190200.0 -0.4852563078 -0.8591616204
18350189900.0 -0.5006043278 -0.8507217142
18400189600.0 -0.5148472857 -0.8423103011
18450189300.0 -0.5282164315 -0.8342681479
18500189000.0 -0.5413546223 -0.826321192
18550188700.0 -0.5541398258 -0.818481912
18600188400.0 -0.5655102161 -0.8118365317
18650188100.0 -0.5769511453 -0.8057035222
18700187800.0 -0.58762824 -0.7989335213
18750187500.0 -0.5983541653 -0.7923886038
18800187200.0 -0.6090511283 -0.7853620616
18850186900.0 -0.6193206047 -0.7784228903
18900186600.0 -0.6295963064 -0.7711546448
18950186300.0 -0.6397653072 -0.7634327273
19000186000.0 -0.6467656254 -0.757136953
19050185700.0 -0.6558430995 -0.7499348255
19100185400.0 -0.6661926287 -0.7416177948
19150185100.0 -0.6764651659 -0.7329817404
19200184800.0 -0.6856553163 -0.724932273
19250184500.0 -0.6959507502 -0.71535323
19300184200.0 -0.7068922845 -0.7057837343
19350183900.0 -0.7174816446 -0.6960617696
19400183600.0 -0.7285164287 -0.6866094922
19450183300.0 -0.7359284886 -0.6762013127
19500183000.0 -0.7452170375 -0.6667411247
19550182700.0 -0.7548076271 -0.6554701364
19600182400.0 -0.7651692329 -0.6437131001
19650182100.0 -0.7757124535 -0.6309470346
19700181800.0 -0.7867005381 -0.6179752351
19750181500.0 -0.7968682693 -0.603937147
19800181200.0 -0.8072485884 -0.5890016883
19850180900.0 -0.8168954726 -0.5735650893
19900180600.0 -0.8248957674 -0.5590516953
19950180300.0 -0.8339249243 -0.5426581019
20000180000.0 -0.826706372 -0.5452058521
20050179700.0 -0.8346095784 -0.5321212215
20100179400.0 -0.843190743 -0.518752804
20150179100.0 -0.8510894064 -0.5063408059
20200178800.0 -0.8603335793 -0.4935850551
20250178500.0 -0.8699427305 -0.4799226376
20300178200.0 -0.8796638546 -0.4658317959
20350177900.0 -0.8884256775 -0.4505504911
20400177600.0 -0.8973589803 -0.436050449
20450177300.0 -0.9054626214 -0.4218648821
20500177000.0 -0.9134460853 -0.4078865691
20550176700.0 -0.9214914594 -0.3942470037
20600176400.0 -0.9284478549 -0.3811040013
20650176100.0 -0.9351780937 -0.3688085576
20700175800.0 -0.9423191347 -0.3567125398
20750175500.0 -0.9488089399 -0.3459268942
20800175200.0 -0.9529975706 -0.3344707615
20850174900.0 -0.957611064 -0.3224219611
20900174600.0 -0.9621229577 -0.3114293877
20950174300.0 -0.9669903709 -0.2999189472
21000174000.0 -0.9700453892 -0.2880735971
21050173700.0 -0.9729820897 -0.2768258009
21100173400.0 -0.976796764 -0.2656937173
21150173100.0 -0.9809466448 -0.2531201758
21200172800.0 -0.9844435734 -0.2392816034
21250172500.0 -0.9876335829 -0.2258336516
21300172200.0 -0.9904311576 -0.211732691
21350171900.0 -0.9916641159 -0.1971320206
21400171600.0 -0.9935138882 -0.1832332177
21450171300.0 -0.9931101244 -0.1683847095
21500171000.0 -0.9933040891 -0.1526138255
21550170700.0 -0.9925687284 -0.137670943
21600170400.0 -0.9926753012 -0.1231749442
21650170100.0 -0.9923639417 -0.1064003538
21700169800.0 -0.9894719518 -0.0917636449
21750169500.0 -0.9897699422 -0.0756606271
21800169200.0 -0.9879423906 -0.059317599
21850168900.0 -0.986181454 -0.0422822917
21900168600.0 -0.9857309724 -0.0255870501
21950168300.0 -0.9838537262 -0.0098776148
22000168000.0 -0.9832463431 0.0048918584
22050167700.0 -0.9828225721 0.0184974425
22100167400.0 -0.9826500196 0.0342412951
22150167100.0 -0.9836062078 0.0495979396
22200166800.0 -0.9842029811 0.0657435597
22250166500.0 -0.9828496419 0.083223439
22300166200.0 -0.9817351068 0.0999378257
22350165900.0 -0.981951614 0.1156611639
22400165600.0 -0.979199762 0.1314369055
22450165300.0 -0.9776696202 0.1475296389
22500165000.0 -0.9756347131 0.1604100774
22550164700.0 -0.9749885786 0.1764994717
22600164400.0 -0.9727766622 0.1914842444
22650164100.0 -0.9709454592 0.2064949097
22700163800.0 -0.9681741422 0.222526331
22750163500.0 -0.9654056088 0.2378873618
22800163200.0 -0.9622613775 0.2509005709
22850162900.0 -0.9600918355 0.2639236096
22900162600.0 -0.9590008719 0.2777141799
22950162300.0 -0.9577901857 0.290323367
23000162000.0 -0.9564151569 0.3023539618
23050161700.0 -0.954516847 0.3145593942
23100161400.0 -0.9525443938 0.327772871
23150161100.0 -0.9498709926 0.3395215951
23200160800.0 -0.9467728616 0.3521922097
23250160500.0 -0.9443102723 0.3639543276
23300160200.0 -0.9415566897 0.3763082316
23350159900.0 -0.9379725441 0.3885662129
23400159600.0 -0.932483744 0.4017575194
23450159300.0 -0.9284505139 0.4150842031
23500159000.0 -0.9242292794 0.4283471332
23550158700.0 -0.9190147262 0.4416213884
23600158400.0 -0.9139709685 0.4546479527
23650158100.0 -0.9075577865 0.468599482
23700157800.0 -0.8999891124 0.4823501693
23750157500.0 -0.8912480349 0.4964661563
23800157200.0 -0.8824224565 0.509833941
23850156900.0 -0.8735252382 0.522302713
23900156600.0 -0.8643425348 0.534661946
23950156300.0 -0.8556024399 0.546916267
24000156000.0 -0.8461318245 0.5593130521
24050155700.0 -0.8360109111 0.5701166799
24100155400.0 -0.8259289365 0.5833106645
24150155100.0 -0.8155327692 0.5945982216
24200154800.0 -0.8044892756 0.6062777264
24250154500.0 -0.7929708209 0.6174562121
24300154200.0 -0.7818691576 0.6292499913
24350153900.0 -0.7698099024 0.6401384513
24400153600.0 -0.7575469093 0.6499101414
24450153300.0 -0.745918286 0.6597583107
24500153000.0 -0.7338566797 0.6692703918
24550152700.0 -0.7230429426 0.679392704
24600152400.0 -0.7113075989 0.6881211743
24650152100.0 -0.6997624279 0.6971089566
