!Created with skrf (http://scikit-rf.org).
# Hz S RI R 50.0 
!freq ReS11 ImS11
300000.0 -0.9742716215 -0.1193983202
50299700.0 -0.9999687152 0.0150597281
100299400.0 -0.9978837671 0.0280193155
150299100.0 -1.00276525 0.0450809777
200298800.0 -0.9996666214 0.0582100671
250298500.0 -0.9972872336 0.0718586871
300298200.0 -0.9859520087 0.0878190515
350297900.0 -0.9939228166 0.0985021302
400297600.0 -0.9931680231 0.1150969554
450297300.0 -0.9910544395 0.1291131522
500297000.0 -0.9894950062 0.1436403396
550296700.0 -0.9843842183 0.1561022957
600296400.0 -1.01727755 0.1894474584
650296100.0 -0.9820749953 0.1858318169
700295800.0 -0.9792141065 0.2002007766
750295500.0 -0.9764305982 0.2141164826
800295200.0 -0.9729779346 0.2284204414
850294900.0 -0.9694516191 0.2422551556
900294600.0 -0.9660011249 0.2559854514
950294300.0 -0.9619499336 0.2695655889
1000294000.0 -0.9582442322 0.2836380863
1050293700.0 -0.9535452925 0.2973940618
1100293400.0 -0.9493176655 0.3119909187
1150293100.0 -0.9455088414 0.3237967883
1200292800.0 -0.9401812903 0.3382050055
1250292500.0 -0.9345722876 0.3515313603
1300292200.0 -0.9290401536 0.3647746754
1350291900.0 -0.9235649821 0.3787803249
1400291600.0 -0.917933255 0.3918531384
1450291300.0 -0.9126079803 0.4042661067
1500291000.0 -0.9063101293 0.4177909695
1550290700.0 -0.8996981228 0.4311187052
1600290400.0 -0.8933375109 0.4438722823
1650290100.0 -0.8866940769 0.4559942394
1700289800.0 -0.8799611327 0.4695478192
1750289500.0 -0.872720271 0.4818295309
1800289200.0 -0.8655701211 0.4947820507
1850288900.0 -0.8586250454 0.5059836808
1900288600.0 -0.8510370239 0.5190363862
1950288300.0 -0.8429100106 0.5315373828
2000288000.0 -0.8353291776 0.5430205989
2050287700.0 -0.8273039089 0.5553826303
2100287400.0 -0.8191901771 0.5668308709
2150287100.0 -0.810640472 0.5790459869
2200286800.0 -0.8029904084 0.5892012897
2250286500.0 -0.7940984298 0.6015130621
2300286200.0 -0.7852241683 0.6129636235
2350285900.0 -0.7766076674 0.6239406056
2400285600.0 -0.7676081098 0.6348625213
2450285300.0 -0.7590909135 0.6452558473
2500285000.0 -0.7491463322 0.6567669428
2550284700.0 -0.7402676953 0.6668939705
2600284400.0 -0.731219181 0.6771411407
2650284100.0 -0.7221065954 0.6872898115
2700283800.0 -0.7112202287 0.6981250657
2750283500.0 -0.7011266632 0.7085974737
2800283200.0 -0.6913188748 0.7183519075
2850282900.0 -0.6812731271 0.7284131518
2900282600.0 -0.6708191076 0.7377758811
2950282300.0 -0.6606743462 0.747022402
3000282000.0 -0.6498684038 0.7567810128
3050281700.0 -0.6385671492 0.7660388275
3100281400.0 -0.6268004461 0.7752732799
3150281100.0 -0.6149934693 0.7846134657
3200280800.0 -0.6034662005 0.7931538714
3250280500.0 -0.5925052273 0.8009981184
3300280200.0 -0.5812133159 0.8086127432
3350279900.0 -0.5697476587 0.8165168753
3400279600.0 -0.5574994746 0.8239440344
3450279300.0 -0.5464833818 0.8310854628
3500279000.0 -0.5342889999 0.8381681449
3550278700.0 -0.5221835531 0.8456091055
3600278400.0 -0.5099398442 0.8525144906
3650278100.0 -0.4966258787 0.8603927405
3700277800.0 -0.4845059343 0.8667666278
3750277500.0 -0.4723205871 0.8732465206
3800277200.0 -0.4595884192 0.8797676658
3850276900.0 -0.4477116264 0.8856613546
3900276600.0 -0.4367694476 0.8914611725
3950276300.0 -0.4245663057 0.8975069203
4000276000.0 -0.4125967967 0.9034807935
4050275700.0 -0.3998415008 0.9091918995
4100275400.0 -0.3885606412 0.9149617709
4150275100.0 -0.3759470027 0.9204592259
4200274800.0 -0.3628284813 0.9260859472
4250274500.0 -0.3505868049 0.9313974954
4300274200.0 -0.3375845095 0.9367855665
4350273900.0 -0.323820133 0.9419503275
4400273600.0 -0.3089203391 0.9470581494
4450273300.0 -0.2937314765 0.9522551233
4500273000.0 -0.2799935304 0.9565885266
4550272700.0 -0.2659600366 0.960692204
4600272400.0 -0.2504031277 0.9650239866
4650272100.0 -0.2388656269 0.9682446781
4700271800.0 -0.2254573347 0.9714588232
4750271500.0 -0.2137376214 0.9744752318
4800271200.0 -0.2014237127 0.9772368453
4850270900.0 -0.1873889513 0.9800217089
4900270600.0 -0.1735671425 0.9824807087
4950270300.0 -0.159141879 0.9849253365
5000270000.0 -0.1448072833 0.9869375842
5050269700.0 -0.1314234723 0.9887439901
5100269400.0 -0.1176254983 0.9903912966
5150269100.0 -0.1044702074 0.992149488
5200268800.0 -0.0909752916 0.9931365309
5250268500.0 -0.0780772801 0.9939619068
5300268200.0 -0.0646267207 0.9948331365
5350267900.0 -0.0524315832 0.9949938994
5400267600.0 -0.0365292788 0.9966894428
5450267300.0 -0.0232811127 0.9966317265
5500267000.0 -0.00804528 0.9970225058
5550266700.0 0.0068669305 0.9974145288
5600266400.0 0.0224148175 0.9971473087
5650266100.0 0.0388860219 0.9968138037
5700265800.0 0.0533995703 0.9961122482
5750265500.0 0.0684459602 0.9952220367
5800265200.0 0.0824060569 0.9945032654
5850264900.0 0.0958061011 0.9931044998
5900264600.0 0.112402997 0.9917377493
5950264300.0 0.1244090368 0.9901432627
6000264000.0 0.1384021358 0.9884158976
6050263700.0 0.1507908647 0.9867560648
6100263400.0 0.1630560743 0.9851867546
6150263100.0 0.1775496183 0.982864052
6200262800.0 0.187784767 0.9808363507
6250262500.0 0.2006114685 0.9785878025
6300262200.0 0.2133175997 0.975638401
6350261900.0 0.2263482887 0.972945485
6400261600.0 0.2402138203 0.9696463952
6450261300.0 0.2515990047 0.9670126665
6500261000.0 0.2646109574 0.9633428741
6550260700.0 0.2773675164 0.9593199634
6600260400.0 0.2904955015 0.9554571306
6650260100.0 0.3045677333 0.9508244941
6700259800.0 0.3168070204 0.9468301459
6750259500.0 0.3303735425 0.9416842082
6800259200.0 0.3439896062 0.9371879322
6850258900.0 0.3555841359 0.9314988703
6900258600.0 0.3679423632 0.926518592
6950258300.0 0.3804965944 0.9213541406
7000258000.0 0.3924607351 0.9158595622
7050257700.0 0.4046991168 0.9097098154
7100257400.0 0.4174305189 0.9036366475
7150257100.0 0.4279681483 0.8982183859
7200256800.0 0.4408564114 0.8917869251
7250256500.0 0.4527342098 0.8855962512
7300256200.0 0.4656669126 0.8787640052
7350255900.0 0.4784372955 0.8720230287
7400255600.0 0.4911970574 0.8644432483
7450255300.0 0.5070081117 0.8558873395
7500255000.0 0.5187805659 0.8485608651
7550254700.0 0.5325253171 0.8400599801
7600254400.0 0.5453162136 0.8318060683
7650254100.0 0.5566712857 0.8239319931
7700253800.0 0.5685726745 0.8159342489
7750253500.0 0.5797269802 0.8081624502
7800253200.0 0.5903790969 0.8006774928
7850252900.0 0.6000459061 0.7935467055
7900252600.0 0.6114232926 0.7848196391
7950252300.0 0.6204062463 0.7783075374
8000252000.0 0.6306261459 0.7705513593
8050251700.0 0.6409287407 0.762342081
8100251400.0 0.651017586 0.7544271761
8150251100.0 0.6609697495 0.7456854324
8200250800.0 0.6703355005 0.7378818513
8250250500.0 0.6793586383 0.729781922
8300250200.0 0.6889095515 0.7212726462
8350249900.0 0.6981510125 0.7124752401
8400249600.0 0.7062067975 0.7044185584
8450249300.0 0.7152797023 0.6951483129
8500249000.0 0.7238100846 0.6865081329
8550248700.0 0.7321373901 0.6772426212
8600248400.0 0.740587866 0.667746027
8650248100.0 0.7484074596 0.6582285684
8700247800.0 0.7578349826 0.6470592797
8750247500.0 0.7660852788 0.6370373121
8800247200.0 0.7744563377 0.6265545529
8850246900.0 0.7834418526 0.6151417347
8900246600.0 0.7916162999 0.6037342513
8950246300.0 0.8013224655 0.5908292165
9000246000.0 0.8105679234 0.5782336096
9050245700.0 0.8192715247 0.5654002802
9100245400.0 0.8282744529 0.552989157
9150245100.0 0.8370844304 0.5393810902
9200244800.0 0.8469413094 0.5239945765
9250244500.0 0.8563347966 0.5089790095
9300244200.0 0.8649849372 0.4944487268
9350243900.0 0.8725785859 0.4805842857
9400243600.0 0.8793120361 0.4682492852
9450243300.0 0.8849548696 0.4568957707
9500243000.0 0.8913315442 0.4447580899
9550242700.0 0.8954401484 0.4369417122
9600242400.0 0.8992746869 0.4294414177
9650242100.0 0.9029042062 0.4230653509
9700241800.0 0.9074557511 0.4148503465
9750241500.0 0.9113001003 0.4072472302
9800241200.0 0.9162475827 0.3980862447
9850240900.0 0.9216722254 0.3863908649
9900240600.0 0.9274286041 0.374854786
9950240300.0 0.9341143305 0.3585401261
10000240000.0 0.9388534866 0.3473115336
10050239700.0 0.9444412756 0.3318924136
10100239400.0 0.9495687078 0.3161432211
10150239100.0 0.9538507719 0.3012697253
10200238800.0 0.9582436958 0.2862936522
10250238500.0 0.9614588094 0.2729502401
10300238200.0 0.9644765768 0.2589969041
10350237900.0 0.9670539714 0.2460211666
10400237600.0 0.9697570929 0.2324393868
10450237300.0 0.9725173393 0.219016962
10500237000.0 0.9744974705 0.2064801725
10550236700.0 0.9768284056 0.1927732459
10600236400.0 0.9794930431 0.178538069
10650236100.0 0.9811875881 0.1641729636
10700235800.0 0.9833825065 0.1516222198
10750235500.0 0.9856766177 0.1387886122
10800235200.0 0.9875111255 0.1249465071
10850234900.0 0.9894078763 0.109831242
10900234600.0 0.9916269757 0.0953801965
10950234300.0 0.9934191955 0.0819976014
11000234000.0 0.9951918177 0.0668938364
11050233700.0 0.9969934267 0.0504686688
11100233400.0 0.9983900309 0.0331182696
11150233100.0 0.9995277806 0.0167744876
11200232800.0 1.000480509 0.0018684297
11250232500.0 1.001175773 -0.0145316528
11300232200.0 1.002152781 -0.0327811567
11350231900.0 1.00192062 -0.047362302
11400231600.0 1.001841908 -0.0643326406
11450231300.0 1.000730582 -0.0788785467
11500231000.0 1.000237198 -0.0958034603
11550230700.0 0.9984818106 -0.1084563688
11600230400.0 0.9971415076 -0.1217837508
11650230100.0 0.9950237667 -0.1327518879
11700229800.0 0.993149569 -0.147970615
11750229500.0 0.9907478534 -0.1615765441
11800229200.0 0.9883270244 -0.1758249794
11850228900.0 0.9846064321 -0.1879069583
11900228600.0 0.9811373047 -0.1976616996
11950228300.0 0.9778995178 -0.2080939962
12000228000.0 0.9755338174 -0.2166848404
12050227700.0 0.9715519893 -0.2300250268
12100227400.0 0.9685913186 -0.240696323
12150227100.0 0.963120768 -0.2579899342
12200226800.0 0.9599307359 -0.2683791236
12250226500.0 0.9556473648 -0.2818947394
12300226200.0 0.9518487488 -0.2933476801
12350225900.0 0.9460451789 -0.3076569668
12400225600.0 0.9424000162 -0.3207770486
12450225300.0 0.9379919635 -0.333416911
12500225000.0 0.9322783984 -0.3481018342
12550224700.0 0.9267620242 -0.3620442882
12600224400.0 0.9221262335 -0.3749443173
12650224100.0 0.9161818014 -0.3891489258
12700223800.0 0.9109923057 -0.4022295024
12750223500.0 0.9053878638 -0.4152840056
12800223200.0 0.9000540834 -0.4275539841
12850222900.0 0.8945400597 -0.4396987612
12900222600.0 0.8890849595 -0.4516124415
12950222300.0 0.882529218 -0.4652959225
13000222000.0 0.87683435 -0.4759130455
13050221700.0 0.8699320585 -0.4896493023
13100221400.0 0.8632214381 -0.5010405397
13150221100.0 0.8565765061 -0.5130349799
13200220800.0 0.8498103924 -0.524466852
13250220500.0 0.8423878696 -0.5363608005
13300220200.0 0.835112326 -0.5473919594
13350219900.0 0.8272894636 -0.5595253818
13400219600.0 0.8187190089 -0.5715831032
13450219300.0 0.8094808362 -0.5848952771
13500219000.0 0.7991649792 -0.5989634116
13550218700.0 0.7892112168 -0.6113988906
13600218400.0 0.7794009585 -0.6238462647
13650218100.0 0.769561839 -0.6351803251
13700217800.0 0.758846199 -0.6470210514
13750217500.0 0.7485450287 -0.6580171999
13800217200.0 0.7373316865 -0.6699736307
13850216900.0 0.7276261125 -0.6813884701
13900216600.0 0.7162124656 -0.6900716775
13950216300.0 0.7057268784 -0.7005267617
14000216000.0 0.6960377046 -0.7097468002
14050215700.0 0.6862177857 -0.7183390873
14100215400.0 0.6764918125 -0.727724636
14150215100.0 0.6672770985 -0.7360525491
14200214800.0 0.657712259 -0.7447067045
14250214500.0 0.647380989 -0.7540098317
14300214200.0 0.6369313713 -0.7635262325
14350213900.0 0.6260483802 -0.7730300303
14400213600.0 0.6142931467 -0.7827376717
14450213300.0 0.600878566 -0.7929156304
14500213000.0 0.5878624222 -0.8030440956
14550212700.0 0.5756510494 -0.8120832643
14600212400.0 0.5624565239 -0.821141328
14650212100.0 0.5499636395 -0.8300882194
14700211800.0 0.53652122 -0.8393514045
14750211500.0 0.5241549333 -0.8474400552
14800211200.0 0.5115477842 -0.8556246946
14850210900.0 0.4995482377 -0.8630119817
14900210600.0 0.4864030606 -0.8710412463
14950210300.0 0.4728939634 -0.8786362879
15000210000.0 0.4603289863 -0.8854636711
15050209700.0 0.4477389339 -0.8916500632
15100209400.0 0.4350358224 -0.8976447325
15150209100.0 0.4231184635 -0.9031376785
15200208800.0 0.4103704023 -0.9079213335
15250208500.0 0.3994405881 -0.9127887705
15300208200.0 0.38662258 -0.9183526068
15350207900.0 0.3728809821 -0.9222965279
15400207600.0 0.3587192154 -0.9278457254
15450207300.0 0.3445727217 -0.9324243352
15500207000.0 0.3298342068 -0.9374307886
15550206700.0 0.3149392135 -0.942190565
15600206400.0 0.2989749112 -0.9466535499
15650206100.0 0.2833273382 -0.9509631134
15700205800.0 0.2697172965 -0.9547767675
15750205500.0 0.2551501231 -0.9584430201
15800205200.0 0.2408269053 -0.9618942007
15850204900.0 0.2262422672 -0.9653431276
15900204600.0 0.2112466793 -0.9690648798
15950204300.0 0.19711025 -0.9719199592
16000204000.0 0.1827532091 -0.9747278357
16050203700.0 0.1679951528 -0.9780202388
16100203400.0 0.153234679 -0.9797364533
16150203100.0 0.1386963687 -0.9824035852
16200202800.0 0.1245051727 -0.984412411
16250202500.0 0.1101485763 -0.9857716007
16300202200.0 0.0945044965 -0.9876848381
16350201900.0 0.0796134946 -0.9891806979
16400201600.0 0.0648103859 -0.9903598515
16450201300.0 0.0495307536 -0.9913579753
16500201000.0 0.032949194 -0.9920093042
16550200700.0 0.0173291867 -0.9926475894
16600200400.0 0.001649953 -0.9926982026
16650200100.0 -0.0146566579 -0.9925874916
16700199800.0 -0.0307170444 -0.9921673003
16750199500.0 -0.0495162905 -0.9919275145
16800199200.0 -0.0649352181 -0.9912445194
16850198900.0 -0.0800236531 -0.9898954738
16900198600.0 -0.0939406141 -0.9886526401
16950198300.0 -0.1073501842 -0.9880227297
17000198000.0 -0.1201543606 -0.9863797081
17050197700.0 -0.1333405325 -0.9842723448
17100197400.0 -0.146044005 -0.9823138354
17150197100.0 -0.1589708875 -0.9799278464
17200196800.0 -0.171434453 -0.9781056976
17250196500.0 -0.1844423274 -0.9759745406
17300196200.0 -0.1963990862 -0.9734712243
17350195900.0 -0.2083487062 -0.9712479064
17400195600.0 -0.2206735089 -0.9687538529
17450195300.0 -0.2337497474 -0.9661127272
17500195000.0 -0.2470372039 -0.962734448
17550194700.0 -0.2612319143 -0.9591085592
17600194400.0 -0.2753321783 -0.9552079124
17650194100.0 -0.288627754 -0.9510025966
17700193800.0 -0.3017557992 -0.9468807103
17750193500.0 -0.3159433503 -0.9420541463
17800193200.0 -0.3307365691 -0.9372566613
17850192900.0 -0.3455763766 -0.9314526827
17900192600.0 -0.3609868163 -0.9254661401
17950192300.0 -0.3765856566 -0.918492775
18000192000.0 -0.3910635111 -0.9114437805
18050191700.0 -0.4051259466 -0.9033120714
18100191400.0 -0.4194484867 -0.8958391568
18150191100.0 -0.4344869487 -0.8876959354
18200190800.0 -0.4512983687 -0.8785997368
18250190500.0 -0.4682235633 -0.8692684334
18300190200.0 -0.4836925143 -0.8602029487
18350189900.0 -0.4990506644 -0.8519141522
18400189600.0 -0.5134088317 -0.8440715875
18450189300.0 -0.5267642171 -0.8361400451
18500189000.0 -0.539666347 -0.8280081055
18550188700.0 -0.5521786943 -0.8204330875
18600188400.0 -0.564157053 -0.8132230308
18650188100.0 -0.5751009343 -0.8071758498
18700187800.0 -0.5858575481 -0.8006013859
18750187500.0 -0.5965817692 -0.7940847993
18800187200.0 -0.606853602 -0.7870884507
18850186900.0 -0.6173407394 -0.7802724067
18900186600.0 -0.6274139883 -0.7730729826
18950186300.0 -0.6374279993 -0.7653865063
19000186000.0 -0.6447213217 -0.7593333091
19050185700.0 -0.6538285957 -0.751837655
19100185400.0 -0.6636871267 -0.7440988195
19150185100.0 -0.6736086019 -0.7351252243
19200184800.0 -0.6835442887 -0.7267472126
19250184500.0 -0.693160414 -0.7177611041
19300184200.0 -0.7043402966 -0.7082108529
19350183900.0 -0.7155439779 -0.6985828757
19400183600.0 -0.7259125159 -0.6891808995
19450183300.0 -0.7345712663 -0.6782190526
19500183000.0 -0.7426373136 -0.6681180739
19550182700.0 -0.7519148758 -0.657942142
19600182400.0 -0.7627349184 -0.6458763323
19650182100.0 -0.7736756206 -0.6337422541
19700181800.0 -0.7844167132 -0.6201793725
19750181500.0 -0.7950604547 -0.606063352
19800181200.0 -0.8054030995 -0.5912414966
19850180900.0 -0.8151943512 -0.5759535577
19900180600.0 -0.8229946536 -0.5614172851
19950180300.0 -0.8323028238 -0.5448807977
20000180000.0 -0.8255428223 -0.5472227946
20050179700.0 -0.8337105949 -0.5337305724
20100179400.0 -0.8424217086 -0.5204414786
20150179100.0 -0.8501304722 -0.5084703869
20200178800.0 -0.8591232624 -0.4950387637
20250178500.0 -0.8681281914 -0.4819403306
20300178200.0 -0.8782696598 -0.4675301453
20350177900.0 -0.8873162304 -0.453023474
20400177600.0 -0.8962352835 -0.4386132939
20450177300.0 -0.9045977388 -0.424416855
20500177000.0 -0.9126230618 -0.4102703911
20550176700.0 -0.9204362288 -0.3969419591
20600176400.0 -0.9271819375 -0.3836690099
20650176100.0 -0.9340849254 -0.3713878428
20700175800.0 -0.9402545971 -0.3594447136
20750175500.0 -0.947200769 -0.3475103943
20800175200.0 -0.9522699549 -0.336991981
20850174900.0 -0.956907831 -0.326949786
20900174600.0 -0.9611247815 -0.314638242
20950174300.0 -0.9650353273 -0.3028824485
21000174000.0 -0.9682089025 -0.2920715024
21050173700.0 -0.9715621119 -0.2808721786
21100173400.0 -0.9753523161 -0.269573557
21150173100.0 -0.9793382975 -0.2566744508
21200172800.0 -0.9824610839 -0.2433098353
21250172500.0 -0.9856537257 -0.2299654541
21300172200.0 -0.988754693 -0.2158778453
21350171900.0 -0.9901734025 -0.2014460518
21400171600.0 -0.9919103211 -0.18743068
21450171300.0 -0.9922168139 -0.1722730128
21500171000.0 -0.9921772179 -0.1573865022
21550170700.0 -0.9924028748 -0.1426610752
21600170400.0 -0.991743273 -0.1266780163
21650170100.0 -0.9911001931 -0.1109286592
21700169800.0 -0.9900508169 -0.095057672
21750169500.0 -0.9896974453 -0.0782229785
21800169200.0 -0.9888958324 -0.0626723134
21850168900.0 -0.9866727386 -0.0461814064
21900168600.0 -0.9870057855 -0.0303224505
21950168300.0 -0.985012563 -0.0136049263
22000168000.0 -0.984369069 0.0008980557
22050167700.0 -0.9840092914 0.0151616974
22100167400.0 -0.984302439 0.0304839861
22150167100.0 -0.9847615032 0.0464341422
22200166800.0 -0.9856067854 0.0624292009
22250166500.0 -0.9849002261 0.0799883198
22300166200.0 -0.984344106 0.0968366695
22350165900.0 -0.9822456066 0.1126941685
22400165600.0 -0.981242713 0.1283396325
22450165300.0 -0.9794758172 0.1433569806
22500165000.0 -0.9775364875 0.1571954564
22550164700.0 -0.9762278772 0.1728560508
22600164400.0 -0.9746830164 0.1882139042
22650164100.0 -0.9728194574 0.2028898623
22700163800.0 -0.9692371683 0.2194916507
22750163500.0 -0.9667393207 0.2338491624
22800163200.0 -0.9640133677 0.2473485987
22850162900.0 -0.9615285576 0.2608060809
22900162600.0 -0.9602690759 0.2738841174
22950162300.0 -0.959319824 0.2866188372
23000162000.0 -0.9579408002 0.2987452005
23050161700.0 -0.9560787897 0.3110867881
23100161400.0 -0.9529649826 0.324094611
23150161100.0 -0.9499808534 0.3362924972
23200160800.0 -0.9477981962 0.3489466479
23250160500.0 -0.9451957303 0.3607033452
23300160200.0 -0.9426504906 0.3721243737
23350159900.0 -0.9387150321 0.3856404675
23400159600.0 -0.9336919914 0.3989994505
23450159300.0 -0.9294881391 0.4130363256
23500159000.0 -0.9241544743 0.4256460783
23550158700.0 -0.9200178727 0.4391935777
23600158400.0 -0.9149105341 0.4521817076
23650158100.0 -0.9085271041 0.4665649223
23700157800.0 -0.9009221224 0.4803496503
23750157500.0 -0.8924460661 0.4946396717
23800157200.0 -0.8833399517 0.5075924522
23850156900.0 -0.8747024632 0.5201023642
23900156600.0 -0.8652708827 0.533017804
23950156300.0 -0.8564154946 0.5448340165
24000156000.0 -0.8470522941 0.5576387681
24050155700.0 -0.8374543099 0.5686621369
24100155400.0 -0.8272694288 0.580958862
24150155100.0 -0.8167532338 0.5929711781
24200154800.0 -0.8051259463 0.6036494011
24250154500.0 -0.7942705793 0.616228415
24300154200.0 -0.7833928408 0.6280540912
24350153900.0 -0.7714379633 0.6382637607
24400153600.0 -0.759308611 0.6481950143
24450153300.0 -0.7472533872 0.6585751883
24500153000.0 -0.7359534957 0.6684000653
24550152700.0 -0.724682579 0.6778011542
24600152400.0 -0.7131484135 0.6873514463
24650152100.0 -0.7016786703 0.6955463522
