!Created with skrf (http://scikit-rf.org).
# Hz S RI R 50.0 
!freq ReS11 ImS11
300000.0 -0.9768496359 -0.113139431
50299700.0 -1.000004073 0.0158503179
100299400.0 -0.9980573707 0.0286673038
150299100.0 -1.002869214 0.0456449528
200298800.0 -0.9996699125 0.0588829274
250298500.0 -0.9974516704 0.0722506261
300298200.0 -0.9860017454 0.0883764256
350297900.0 -0.99420424 0.0990264765
400297600.0 -0.9931742024 0.1156815414
450297300.0 -0.9910303035 0.1294318575
500297000.0 -0.9894264601 0.1443569091
550296700.0 -0.984412038 0.1567518201
600296400.0 -1.017339664 0.1899420057
650296100.0 -0.9822811099 0.1868018724
700295800.0 -0.9793045474 0.201087602
750295500.0 -0.9763788029 0.2150981041
800295200.0 -0.9730704456 0.2291430291
850294900.0 -0.9696679363 0.2429488447
900294600.0 -0.9657244877 0.2565756673
950294300.0 -0.962023199 0.2702527639
1000294000.0 -0.9583910638 0.2843732726
1050293700.0 -0.9533561212 0.29815762
1100293400.0 -0.9492931514 0.3127568555
1150293100.0 -0.9453730446 0.3244859066
1200292800.0 -0.9400485909 0.3388493127
1250292500.0 -0.9345201103 0.3522120975
1300292200.0 -0.9288150677 0.3654165117
1350291900.0 -0.9232481146 0.3796426611
1400291600.0 -0.9177329417 0.3925751633
1450291300.0 -0.9122821361 0.4048404248
1500291000.0 -0.9060555595 0.4182081833
1550290700.0 -0.8994670206 0.4316803367
1600290400.0 -0.8933802334 0.4445408236
1650290100.0 -0.8865975735 0.456630102
1700289800.0 -0.8795241789 0.4699925934
1750289500.0 -0.8725530677 0.4824243886
1800289200.0 -0.8652231569 0.4952740645
1850288900.0 -0.8584382499 0.5065685878
1900288600.0 -0.8509088987 0.5197017563
1950288300.0 -0.8428058844 0.5321773424
2000288000.0 -0.8350792029 0.5435285822
2050287700.0 -0.8269770934 0.5557692854
2100287400.0 -0.8189866105 0.5676761785
2150287100.0 -0.8105737344 0.5796431237
2200286800.0 -0.802573956 0.5900276914
2250286500.0 -0.7936344408 0.6021138004
2300286200.0 -0.7848456048 0.6136320815
2350285900.0 -0.7761350922 0.6247010408
2400285600.0 -0.7671339069 0.6357203575
2450285300.0 -0.7584799262 0.6459352477
2500285000.0 -0.7489117167 0.6574356843
2550284700.0 -0.7398377692 0.6675999862
2600284400.0 -0.7305437203 0.6778218592
2650284100.0 -0.721450979 0.6882429583
2700283800.0 -0.7109514836 0.6990482505
2750283500.0 -0.7003594444 0.7096161141
2800283200.0 -0.6908639271 0.7189705136
2850282900.0 -0.6805267057 0.7289391551
2900282600.0 -0.669945011 0.738461357
2950282300.0 -0.6600916882 0.7477698573
3000282000.0 -0.6493870163 0.7570422009
3050281700.0 -0.6381815502 0.7663871138
3100281400.0 -0.6261069967 0.775888437
3150281100.0 -0.6143146757 0.7852947126
3200280800.0 -0.6026446556 0.7937851446
3250280500.0 -0.5920060187 0.8015108661
3300280200.0 -0.5808301079 0.8093288445
3350279900.0 -0.5692741624 0.8165932088
3400279600.0 -0.5571197079 0.8243365374
3450279300.0 -0.5459000916 0.8315746613
3500279000.0 -0.5337794832 0.8386574585
3550278700.0 -0.5214682906 0.8457348744
3600278400.0 -0.5091801476 0.8532743137
3650278100.0 -0.4957940578 0.8606718034
3700277800.0 -0.4838666472 0.8673496767
3750277500.0 -0.4717090649 0.8738524982
3800277200.0 -0.4588929335 0.8802739047
3850276900.0 -0.4469802021 0.8859608931
3900276600.0 -0.436160272 0.8916227559
3950276300.0 -0.4236995864 0.8981454737
4000276000.0 -0.4116413395 0.9039126866
4050275700.0 -0.3988410639 0.9100473406
4100275400.0 -0.3873039777 0.9152952413
4150275100.0 -0.3748589598 0.9209846242
4200274800.0 -0.3619782981 0.926377295
4250274500.0 -0.349654795 0.9319664552
4300274200.0 -0.3368620731 0.9369059222
4350273900.0 -0.3228710186 0.9423177308
4400273600.0 -0.3080838498 0.9473697634
4450273300.0 -0.2925420248 0.9526630558
4500273000.0 -0.278941478 0.9568730916
4550272700.0 -0.2648377999 0.9610599403
4600272400.0 -0.2493426593 0.9653674076
4650272100.0 -0.2376074318 0.968547009
4700271800.0 -0.2241969901 0.9719503531
4750271500.0 -0.2125813979 0.9747205754
4800271200.0 -0.2001484904 0.9773800048
4850270900.0 -0.1861445222 0.9803334746
4900270600.0 -0.1722356324 0.9827284367
4950270300.0 -0.1579776433 0.9852039333
5000270000.0 -0.1437578501 0.9872758779
5050269700.0 -0.1302989657 0.9889461217
5100269400.0 -0.1167337013 0.9905455049
5150269100.0 -0.1034646528 0.9921731017
5200268800.0 -0.0900849918 0.9928817288
5250268500.0 -0.0772197719 0.9936368254
5300268200.0 -0.0639587754 0.9946866329
5350267900.0 -0.052103228 0.9951150148
5400267600.0 -0.0355994665 0.9962359858
5450267300.0 -0.0225850538 0.9969183596
5500267000.0 -0.0074922382 0.9971052082
5550266700.0 0.00779896 0.997397562
5600266400.0 0.0231597195 0.9973506535
5650266100.0 0.0396646715 0.9967276822
5700265800.0 0.0541606628 0.996218066
5750265500.0 0.0694651258 0.9951622148
5800265200.0 0.0835831515 0.9943555309
5850264900.0 0.0967718436 0.9933974334
5900264600.0 0.1129873178 0.9913903834
5950264300.0 0.1252749998 0.9897175372
6000264000.0 0.1396360737 0.9882979614
6050263700.0 0.152025455 0.9866475885
6100263400.0 0.1644946519 0.9848590417
6150263100.0 0.1786551265 0.9823441144
6200262800.0 0.1893901909 0.9806233133
6250262500.0 0.2021045437 0.9780609225
6300262200.0 0.2148760582 0.9754954438
6350261900.0 0.228032391 0.972381345
6400261600.0 0.2417978715 0.9691049656
6450261300.0 0.2531627523 0.9664534678
6500261000.0 0.2657562915 0.9627468586
6550260700.0 0.2788281556 0.958852821
6600260400.0 0.292132559 0.9548406161
6650260100.0 0.3062619547 0.9505495784
6700259800.0 0.3179492484 0.9461388092
6750259500.0 0.3320443503 0.9413193077
6800259200.0 0.3448807198 0.9361224685
6850258900.0 0.3567809372 0.9310851903
6900258600.0 0.3691819879 0.9261827806
6950258300.0 0.3816200069 0.9207317187
7000258000.0 0.3937428611 0.9154657709
7050257700.0 0.4059791885 0.9093460461
7100257400.0 0.4185037195 0.9031076827
7150257100.0 0.4289489967 0.8978459263
7200256800.0 0.4417954308 0.8913636055
7250256500.0 0.453555656 0.8851102613
7300256200.0 0.4670887769 0.8784527212
7350255900.0 0.4789319669 0.8714274498
7400255600.0 0.4922575343 0.8640649302
7450255300.0 0.5077035253 0.855369518
7500255000.0 0.5194757127 0.848342108
7550254700.0 0.5330666407 0.839808483
7600254400.0 0.5460960896 0.8314005883
7650254100.0 0.5575684729 0.8237237633
7700253800.0 0.5691622647 0.8154371613
7750253500.0 0.5805151071 0.8078332415
7800253200.0 0.5913010234 0.8002339676
7850252900.0 0.6007023432 0.7929225456
7900252600.0 0.6124329554 0.7841600723
7950252300.0 0.6212614373 0.7776416234
8000252000.0 0.6313797941 0.7697955884
8050251700.0 0.6418766559 0.7616257638
8100251400.0 0.6520806632 0.7534304628
8150251100.0 0.6619100644 0.7447418553
8200250800.0 0.6714387261 0.7369952307
8250250500.0 0.680353917 0.7288625872
8300250200.0 0.6897114031 0.7203837154
8350249900.0 0.6985505651 0.7116277566
8400249600.0 0.7072671257 0.7034676627
8450249300.0 0.7162159332 0.6943092008
8500249000.0 0.7248879104 0.6854075531
8550248700.0 0.7328030896 0.6764419539
8600248400.0 0.7416185503 0.6669005102
8650248100.0 0.7490539386 0.6575468765
8700247800.0 0.7588319473 0.6463503539
8750247500.0 0.76698799 0.6361200188
8800247200.0 0.7750266269 0.6258690909
8850246900.0 0.7840932766 0.6143117545
8900246600.0 0.7922997379 0.6032989271
8950246300.0 0.8023225034 0.5898411125
9000246000.0 0.8113067989 0.5772577865
9050245700.0 0.8204751216 0.5643419351
9100245400.0 0.8292815653 0.551612672
9150245100.0 0.8382811306 0.5380990213
9200244800.0 0.8483918204 0.5224705896
9250244500.0 0.8576756464 0.5069534852
9300244200.0 0.8662825846 0.4923568681
9350243900.0 0.8740267802 0.4782681127
9400243600.0 0.8805019279 0.465977681
9450243300.0 0.8865884474 0.4541117921
9500243000.0 0.8927352394 0.4419206793
9550242700.0 0.8964598057 0.4344191943
9600242400.0 0.9002753484 0.4268663018
9650242100.0 0.904081525 0.4204177633
9700241800.0 0.9085207655 0.4121776973
9750241500.0 0.9125015471 0.4048692993
9800241200.0 0.9169851337 0.3957607809
9850240900.0 0.9224539887 0.3844226542
9900240600.0 0.9280194413 0.3727014362
9950240300.0 0.9345434379 0.3562618405
10000240000.0 0.9391464334 0.345060995
10050239700.0 0.9451937802 0.3295618036
10100239400.0 0.9496353743 0.314027589
10150239100.0 0.9542728476 0.2994829749
10200238800.0 0.9584204696 0.2843847941
10250238500.0 0.9616962819 0.2710191593
10300238200.0 0.9648208067 0.257185711
10350237900.0 0.9674659603 0.244045897
10400237600.0 0.9700901801 0.23091686
10450237300.0 0.9727281696 0.2173647583
10500237000.0 0.9747137145 0.2057129202
10550236700.0 0.9769030613 0.1909598969
10600236400.0 0.9792509595 0.1774004328
10650236100.0 0.9813081755 0.1630145798
10700235800.0 0.9841197431 0.1502086108
10750235500.0 0.9856923272 0.1383550358
10800235200.0 0.9875309021 0.1237356583
10850234900.0 0.9896980366 0.1092341391
10900234600.0 0.991563673 0.0944165284
10950234300.0 0.9933166622 0.0811998063
11000234000.0 0.9952103665 0.0660723413
11050233700.0 0.997024465 0.0496494714
11100233400.0 0.9984414888 0.0323279794
11150233100.0 0.9995807272 0.0160398183
11200232800.0 1.000331372 0.000768101
11250232500.0 1.000780675 -0.0152827687
11300232200.0 1.001773451 -0.0335858802
11350231900.0 1.000915134 -0.0496987164
11400231600.0 1.000587592 -0.0651489798
11450231300.0 1.000689975 -0.0799971889
11500231000.0 0.9994612352 -0.0973915718
11550230700.0 0.998178257 -0.1101836441
11600230400.0 0.997068626 -0.1231850651
11650230100.0 0.9945522076 -0.1343958535
11700229800.0 0.992401273 -0.1491802061
11750229500.0 0.990173289 -0.1638585651
11800229200.0 0.987694574 -0.1779072891
11850228900.0 0.9841243714 -0.1900014084
11900228600.0 0.9806189444 -0.1998443634
11950228300.0 0.9774775683 -0.2100866795
12000228000.0 0.9746844161 -0.2190543849
12050227700.0 0.9707789955 -0.232095425
12100227400.0 0.9675592624 -0.2428301379
12150227100.0 0.9628150512 -0.2595358255
12200226800.0 0.9589369853 -0.2709680379
12250226500.0 0.9555497224 -0.2825463663
12300226200.0 0.9513534359 -0.2954929379
12350225900.0 0.9458938228 -0.3095494406
12400225600.0 0.9420364345 -0.3216534539
12450225300.0 0.9375073863 -0.3349159668
12500225000.0 0.9320237981 -0.3492180736
12550224700.0 0.9267835485 -0.3629913282
12600224400.0 0.9217821737 -0.375863479
12650224100.0 0.9160506343 -0.3903041446
12700223800.0 0.9107377901 -0.403036886
12750223500.0 0.9051896208 -0.4160324479
12800223200.0 0.8999900521 -0.4285263256
12850222900.0 0.8943056615 -0.4407829097
12900222600.0 0.8887036538 -0.4524764751
12950222300.0 0.8820723802 -0.465576434
13000222000.0 0.8764190381 -0.477003007
13050221700.0 0.86967818 -0.4900617509
13100221400.0 0.8629772404 -0.5021051273
13150221100.0 0.8560563797 -0.5141184871
13200220800.0 0.8490479624 -0.5250478593
13250220500.0 0.841879505 -0.5376947012
13300220200.0 0.8343217127 -0.5488458551
13350219900.0 0.8262736834 -0.5607292994
13400219600.0 0.8177724192 -0.572974812
13450219300.0 0.808150807 -0.5866027265
13500219000.0 0.7982143049 -0.6002386224
13550218700.0 0.7874703921 -0.6134040514
13600218400.0 0.7773047139 -0.6256876573
13650218100.0 0.7679337682 -0.6373094687
13700217800.0 0.7562831157 -0.6491960745
13750217500.0 0.7477047768 -0.6602868103
13800217200.0 0.7358202324 -0.6725683386
13850216900.0 0.7245138744 -0.683634527
13900216600.0 0.7147327808 -0.6925917945
13950216300.0 0.7038110869 -0.7027050849
14000216000.0 0.6938594095 -0.7118095495
14050215700.0 0.6842721297 -0.7202186056
14100215400.0 0.6742802067 -0.7293564697
14150215100.0 0.6654502853 -0.7378332416
14200214800.0 0.6561836365 -0.7461223861
14250214500.0 0.6458916606 -0.7554068993
14300214200.0 0.6354887007 -0.7646971918
14350213900.0 0.6244932445 -0.7741910947
14400213600.0 0.6126273169 -0.7838794529
14450213300.0 0.599580939 -0.7941170199
14500213000.0 0.5863889446 -0.8039166662
14550212700.0 0.5736723823 -0.813516823
14600212400.0 0.5615931709 -0.822227368
14650212100.0 0.5484670673 -0.8308735612
14700211800.0 0.5343166115 -0.8407070229
14750211500.0 0.5223848945 -0.8487701095
14800211200.0 0.5099286549 -0.856375938
14850210900.0 0.4977390506 -0.8642575994
14900210600.0 0.4845823279 -0.8719930959
14950210300.0 0.4709142798 -0.8796168707
15000210000.0 0.458075897 -0.8865136313
15050209700.0 0.4457857771 -0.8925698046
15100209400.0 0.4333673544 -0.8986332617
15150209100.0 0.4204863168 -0.9039326886
15200208800.0 0.4079120248 -0.9096736229
15250208500.0 0.3963790489 -0.9142189929
15300208200.0 0.3846255148 -0.9179785397
15350207900.0 0.3707511072 -0.9232572799
15400207600.0 0.3560988516 -0.9288277153
15450207300.0 0.3420172852 -0.9337439139
15500207000.0 0.3269090928 -0.9380099756
15550206700.0 0.3121522365 -0.9436755528
15600206400.0 0.2959734106 -0.9473691878
15650206100.0 0.2806178753 -0.9524254274
15700205800.0 0.2667068891 -0.9559055195
15750205500.0 0.2519358837 -0.9592204111
15800205200.0 0.2373799805 -0.962672606
15850204900.0 0.2232141055 -0.9661344124
15900204600.0 0.2082501936 -0.9695489529
15950204300.0 0.1939717925 -0.9726968452
16000204000.0 0.1799912617 -0.975203777
16050203700.0 0.1653260291 -0.9779024773
16100203400.0 0.1509086826 -0.9805583096
16150203100.0 0.1359597349 -0.9823201622
16200202800.0 0.1226807336 -0.9846306586
16250202500.0 0.1076333178 -0.9860828081
16300202200.0 0.0923015813 -0.9879309162
16350201900.0 0.0773111047 -0.9888096539
16400201600.0 0.0626196002 -0.9902360859
16450201300.0 0.047435254 -0.9911570562
16500201000.0 0.0309635941 -0.9918479446
16550200700.0 0.0155139895 -0.9924590978
16600200400.0 -0.0002936947 -0.9927147499
16650200100.0 -0.0168035476 -0.9923676068
16700199800.0 -0.0332619689 -0.9921584732
16750199500.0 -0.0522405686 -0.9912974477
16800199200.0 -0.067517907 -0.9903477072
16850198900.0 -0.0831778981 -0.98960517
16900198600.0 -0.0972832917 -0.9886178916
16950198300.0 -0.1101864403 -0.9873139753
17000198000.0 -0.1227246255 -0.9861450573
17050197700.0 -0.1358689194 -0.983648174
17100197400.0 -0.1482603207 -0.9812115651
17150197100.0 -0.1610671504 -0.9799130625
17200196800.0 -0.1741654679 -0.9777693884
17250196500.0 -0.1868141793 -0.9753014346
17300196200.0 -0.1989530797 -0.973183807
17350195900.0 -0.210742816 -0.9707223818
17400195600.0 -0.222854865 -0.968371662
17450195300.0 -0.2359403365 -0.9654180956
17500195000.0 -0.249480584 -0.9622125802
17550194700.0 -0.263218116 -0.9584661134
17600194400.0 -0.2771562727 -0.9546231976
17650194100.0 -0.2908362895 -0.9504476963
17700193800.0 -0.3039129008 -0.9462454436
17750193500.0 -0.3182404327 -0.9414083831
17800193200.0 -0.3330464643 -0.9363772889
17850192900.0 -0.3479735646 -0.9308394118
17900192600.0 -0.363179624 -0.9249041496
17950192300.0 -0.3784295625 -0.9174340785
18000192000.0 -0.3929956865 -0.9102890854
18050191700.0 -0.4069672888 -0.9023048899
18100191400.0 -0.4211117358 -0.8946567231
18150191100.0 -0.4361615194 -0.8865750234
18200190800.0 -0.4530073573 -0.8773142142
18250190500.0 -0.4699801883 -0.8677119153
18300190200.0 -0.4858379296 -0.8589360237
18350189900.0 -0.500657116 -0.8504860369
18400189600.0 -0.5152746695 -0.8422278538
18450189300.0 -0.527821252 -0.8343628131
18500189000.0 -0.5412242905 -0.8265974253
18550188700.0 -0.5542822958 -0.818925807
18600188400.0 -0.5655604698 -0.8122319319
18650188100.0 -0.5768361093 -0.8060121878
18700187800.0 -0.5875724032 -0.7993178056
18750187500.0 -0.5982338308 -0.7925341875
18800187200.0 -0.608542755 -0.7856643231
18850186900.0 -0.6189965871 -0.778616636
18900186600.0 -0.629223285 -0.7712889894
18950186300.0 -0.6392662065 -0.7637246318
19000186000.0 -0.6463928994 -0.7572184877
19050185700.0 -0.6557141189 -0.7502657228
19100185400.0 -0.665991706 -0.7421243655
19150185100.0 -0.6759668805 -0.7331735141
19200184800.0 -0.6852260492 -0.7244541548
19250184500.0 -0.6957313855 -0.7150354839
19300184200.0 -0.7067648953 -0.7056344298
19350183900.0 -0.7171709344 -0.6962238978
19400183600.0 -0.7274067388 -0.6860174116
19450183300.0 -0.736294589 -0.6763343547
19500183000.0 -0.7450823243 -0.6662969937
19550182700.0 -0.7544598007 -0.6551984984
19600182400.0 -0.7650214365 -0.6430563444
19650182100.0 -0.7756864635 -0.6311969087
19700181800.0 -0.7861614522 -0.6177837771
19750181500.0 -0.7969083828 -0.6038152505
19800181200.0 -0.8072415623 -0.5888214124
19850180900.0 -0.8168740697 -0.5735448997
19900180600.0 -0.8248837764 -0.5590816433
19950180300.0 -0.8336331496 -0.5428436909
20000180000.0 -0.8265037752 -0.5447949015
20050179700.0 -0.8351361274 -0.5317603027
20100179400.0 -0.8440262071 -0.5175736824
20150179100.0 -0.8515763359 -0.5060421347
20200178800.0 -0.86023601 -0.4928540926
20250178500.0 -0.8701009032 -0.4794729098
20300178200.0 -0.8791327551 -0.4653797487
20350177900.0 -0.8881876483 -0.4506420221
20400177600.0 -0.8974460751 -0.4359543629
20450177300.0 -0.9058074109 -0.4215748422
20500177000.0 -0.913730474 -0.4076677845
20550176700.0 -0.9213653625 -0.3938811024
20600176400.0 -0.9287574153 -0.3810907619
20650176100.0 -0.9352363347 -0.3683901095
20700175800.0 -0.9418768224 -0.3562474307
20750175500.0 -0.9482267521 -0.3455616885
20800175200.0 -0.9530396625 -0.3338115399
20850174900.0 -0.957215283 -0.3230123283
20900174600.0 -0.9627786711 -0.3109046845
20950174300.0 -0.9666216754 -0.2996850063
21000174000.0 -0.9709233856 -0.2880519162
21050173700.0 -0.9729226933 -0.2771152731
21100173400.0 -0.9772474174 -0.2646572918
21150173100.0 -0.9809975206 -0.2519493125
21200172800.0 -0.984747749 -0.2387793639
21250172500.0 -0.9878683128 -0.2247386408
21300172200.0 -0.9906578884 -0.2110515052
21350171900.0 -0.9920735998 -0.1963664818
21400171600.0 -0.9938438747 -0.182397465
21450171300.0 -0.993818307 -0.1678183431
21500171000.0 -0.9932118789 -0.1518627157
21550170700.0 -0.993966055 -0.1372203217
21600170400.0 -0.9938391783 -0.1214675323
21650170100.0 -0.992144925 -0.104945068
21700169800.0 -0.9898191314 -0.0905415563
21750169500.0 -0.9887159693 -0.0745143805
21800169200.0 -0.9877670888 -0.0581146898
21850168900.0 -0.9875372817 -0.0410472703
21900168600.0 -0.9859448995 -0.0248083753
21950168300.0 -0.9836288615 -0.0094852284
22000168000.0 -0.9826857543 0.0059368697
22050167700.0 -0.982519298 0.019713573
22100167400.0 -0.982395218 0.034551147
22150167100.0 -0.9834284372 0.0501376307
22200166800.0 -0.9833850524 0.0668277388
22250166500.0 -0.9829788804 0.0832323709
22300166200.0 -0.9821186437 0.1004548106
22350165900.0 -0.9804060605 0.116393688
22400165600.0 -0.9787536465 0.132599624
22450165300.0 -0.9761359869 0.1471318673
22500165000.0 -0.9757377816 0.1603159146
22550164700.0 -0.9735113281 0.17670615
22600164400.0 -0.9721987958 0.1923638461
22650164100.0 -0.9703552524 0.2067546576
22700163800.0 -0.9668749067 0.2218970761
22750163500.0 -0.9653108481 0.2377280825
22800163200.0 -0.9620827138 0.2513477286
22850162900.0 -0.9605428887 0.2646975535
22900162600.0 -0.9587192034 0.2779442449
22950162300.0 -0.9577110237 0.2909083689
23000162000.0 -0.9566122569 0.3024609369
23050161700.0 -0.9542982005 0.3148048942
23100161400.0 -0.9524876709 0.3279831168
23150161100.0 -0.9503164997 0.3397601742
23200160800.0 -0.9464313241 0.3516764798
23250160500.0 -0.9443499242 0.3636697658
23300160200.0 -0.9410888529 0.3753561154
23350159900.0 -0.9378876374 0.3893561639
23400159600.0 -0.9330990458 0.4023148677
23450159300.0 -0.9286325003 0.4150448477
23500159000.0 -0.9236000813 0.4279407881
23550158700.0 -0.9196301427 0.4417461732
23600158400.0 -0.9139518034 0.454896943
23650158100.0 -0.9076745193 0.4686699604
23700157800.0 -0.8999782086 0.4826614011
23750157500.0 -0.8915196537 0.4961892184
23800157200.0 -0.8829798541 0.5100153298
23850156900.0 -0.8736270622 0.5223235843
23900156600.0 -0.8644022209 0.5344091927
23950156300.0 -0.8554771289 0.5471615712
24000156000.0 -0.8467978303 0.5591726481
24050155700.0 -0.8364929851 0.5709804009
24100155400.0 -0.8264162258 0.5827758962
24150155100.0 -0.8157690878 0.5944977183
24200154800.0 -0.8038258525 0.6057777327
24250154500.0 -0.7922507033 0.6175888688
24300154200.0 -0.7815377776 0.6288314445
24350153900.0 -0.7693628158 0.6396350392
24400153600.0 -0.7573126617 0.6501334092
24450153300.0 -0.7453481031 0.6600476806
24500153000.0 -0.7338962419 0.6696091958
24550152700.0 -0.7222686654 0.6795924836
24600152400.0 -0.7114653547 0.6875112721
24650152100.0 -0.6993629265 0.6969046376
