!Created with skrf (http://scikit-rf.org).
# Hz S RI R 50.0 
!freq ReS11 ImS11
300000.0 -0.9759655948 -0.1171483049
50299700.0 -0.9999301471 0.0154988725
100299400.0 -0.9978269981 0.028351319
150299100.0 -1.002639908 0.045312404
200298800.0 -0.9998029564 0.0584948816
250298500.0 -0.9973410401 0.0720058975
300298200.0 -0.9861031096 0.0878209678
350297900.0 -0.9939633877 0.0989052336
400297600.0 -0.9933512346 0.1153533131
450297300.0 -0.9909564388 0.1292368378
500297000.0 -0.9896104447 0.1439162373
550296700.0 -0.9843903653 0.1564424743
600296400.0 -1.017342527 0.1895854298
650296100.0 -0.9822355908 0.1864087915
700295800.0 -0.9792974187 0.200605069
750295500.0 -0.9762762577 0.2144234784
800295200.0 -0.9730054121 0.2286882488
850294900.0 -0.9694514484 0.2425539633
900294600.0 -0.9658110026 0.2561702306
950294300.0 -0.9620184608 0.2697450652
1000294000.0 -0.9582578964 0.2837781657
1050293700.0 -0.9536871973 0.2977070547
1100293400.0 -0.9492205701 0.3121641551
1150293100.0 -0.9453303199 0.3239744173
1200292800.0 -0.9400752245 0.3383035841
1250292500.0 -0.9346022845 0.3517506199
1300292200.0 -0.9289686882 0.3649227556
1350291900.0 -0.9235143345 0.3790345378
1400291600.0 -0.9178191558 0.3921605172
1450291300.0 -0.9124564549 0.4046000137
1500291000.0 -0.9060809747 0.4179518451
1550290700.0 -0.899688194 0.4312889435
1600290400.0 -0.8935565513 0.4441155966
1650290100.0 -0.8869091562 0.4562619504
1700289800.0 -0.8799413762 0.4696568286
1750289500.0 -0.8726907303 0.4820305169
1800289200.0 -0.8652820237 0.4949017091
1850288900.0 -0.8587272872 0.5061795505
1900288600.0 -0.8509916458 0.5192586927
1950288300.0 -0.8427333719 0.5318509486
2000288000.0 -0.835382126 0.5431621236
2050287700.0 -0.8270938153 0.5553234266
2100287400.0 -0.8191610926 0.5671648805
2150287100.0 -0.8106081584 0.5790782495
2200286800.0 -0.8028816672 0.5894003353
2250286500.0 -0.7940864678 0.6015661662
2300286200.0 -0.7850985821 0.613184493
2350285900.0 -0.7764521776 0.6239838791
2400285600.0 -0.7674080703 0.6352019701
2450285300.0 -0.7589444159 0.6456286823
2500285000.0 -0.7491624052 0.6569028738
2550284700.0 -0.7402701945 0.6672178034
2600284400.0 -0.7307375269 0.6772889997
2650284100.0 -0.7218894906 0.6878986106
2700283800.0 -0.7113856781 0.6984000058
2750283500.0 -0.7008516794 0.7090320233
2800283200.0 -0.6911927329 0.7185144722
2850282900.0 -0.6811025619 0.7283578737
2900282600.0 -0.670618067 0.7379791484
2950282300.0 -0.66059446 0.7472599478
3000282000.0 -0.6497158225 0.756944547
3050281700.0 -0.6385451242 0.7661644246
3100281400.0 -0.6265864529 0.7753842452
3150281100.0 -0.6147695462 0.7848386106
3200280800.0 -0.6031234962 0.7932205489
3250280500.0 -0.5923776806 0.8009140059
3300280200.0 -0.5810074645 0.8089483768
3350279900.0 -0.569498903 0.8166103652
3400279600.0 -0.5574433044 0.8240565724
3450279300.0 -0.5462433114 0.8310569772
3500279000.0 -0.5343422917 0.8383629221
3550278700.0 -0.5219311393 0.845852706
3600278400.0 -0.5096298529 0.8526616264
3650278100.0 -0.4964205376 0.8604237288
3700277800.0 -0.4844116989 0.8667787494
3750277500.0 -0.4721104379 0.8733659844
3800277200.0 -0.4595134262 0.8798926893
3850276900.0 -0.447544381 0.8858629044
3900276600.0 -0.4367279544 0.8913703026
3950276300.0 -0.4243748157 0.8974389918
4000276000.0 -0.4122124928 0.9034170167
4050275700.0 -0.3996649958 0.9094775953
4100275400.0 -0.3882941384 0.9152197842
4150275100.0 -0.3756494184 0.9207860371
4200274800.0 -0.3625109131 0.9262461329
4250274500.0 -0.3502998811 0.9312966927
4300274200.0 -0.3375693158 0.9365915074
4350273900.0 -0.3238973499 0.9418001871
4400273600.0 -0.3089352387 0.9470825821
4450273300.0 -0.2933621413 0.9523758072
4500273000.0 -0.2798578545 0.9567405167
4550272700.0 -0.2656646636 0.960927809
4600272400.0 -0.2501898476 0.9650652663
4650272100.0 -0.2384878693 0.9683526749
4700271800.0 -0.2252031014 0.9715198133
4750271500.0 -0.2134646588 0.9746658618
4800271200.0 -0.2010558049 0.977170403
4850270900.0 -0.18691475 0.980061078
4900270600.0 -0.173245706 0.9822781884
4950270300.0 -0.1589471045 0.9850788557
5000270000.0 -0.1446880778 0.9869697957
5050269700.0 -0.1311489429 0.9885324026
5100269400.0 -0.1175362003 0.9903914784
5150269100.0 -0.1042116765 0.991797818
5200268800.0 -0.0907035326 0.9930377291
5250268500.0 -0.0778280596 0.9938695577
5300268200.0 -0.0647160375 0.9944681369
5350267900.0 -0.0523821369 0.9953081906
5400267600.0 -0.0364076518 0.996502476
5450267300.0 -0.0231542697 0.9965774135
5500267000.0 -0.0080272773 0.9969334904
5550266700.0 0.0069395988 0.9972034252
5600266400.0 0.0223289794 0.9972294219
5650266100.0 0.0388689978 0.9969009917
5700265800.0 0.053272144 0.99611051
5750265500.0 0.0688435275 0.9954152949
5800265200.0 0.0826619563 0.9943660363
5850264900.0 0.0956979489 0.9932343157
5900264600.0 0.1127114524 0.9918559816
5950264300.0 0.1243346748 0.9902258239
6000264000.0 0.1384061778 0.9882817133
6050263700.0 0.1506991736 0.9867720833
6100263400.0 0.1630519626 0.9851242371
6150263100.0 0.1779284533 0.9827842633
6200262800.0 0.1883633427 0.9809479489
6250262500.0 0.2009975298 0.9784144236
6300262200.0 0.2137715832 0.9757347842
6350261900.0 0.2269065583 0.9728205033
6400261600.0 0.2407603178 0.9695509123
6450261300.0 0.2520184651 0.9666347391
6500261000.0 0.2650070842 0.9630820093
6550260700.0 0.2778130391 0.9593148751
6600260400.0 0.2909328022 0.9552560616
6650260100.0 0.3050469361 0.9506869502
6700259800.0 0.3174644498 0.946683801
6750259500.0 0.3307809828 0.9414431988
6800259200.0 0.3440812931 0.9366137278
6850258900.0 0.3561152616 0.9315280862
6900258600.0 0.3682444803 0.9264662192
6950258300.0 0.3807044123 0.9212971613
7000258000.0 0.3928567669 0.9157538588
7050257700.0 0.4050701993 0.909799988
7100257400.0 0.4176804978 0.9033921346
7150257100.0 0.4282973721 0.8980469036
7200256800.0 0.4410133464 0.8917345689
7250256500.0 0.4528233031 0.885387777
7300256200.0 0.4661019423 0.8789280733
7350255900.0 0.4781808869 0.8717197143
7400255600.0 0.4918732495 0.8645347178
7450255300.0 0.5070496093 0.8557444889
7500255000.0 0.5188622422 0.8486007793
7550254700.0 0.5326217045 0.8399106451
7600254400.0 0.5453758332 0.8316986164
7650254100.0 0.5567012313 0.8239567456
7700253800.0 0.5684971173 0.8158794036
7750253500.0 0.5797106847 0.8084186072
7800253200.0 0.5902277624 0.8006504982
7850252900.0 0.6000544655 0.793409154
7900252600.0 0.6117534973 0.7848960626
7950252300.0 0.6205135086 0.7783294536
8000252000.0 0.6306389048 0.7706885646
8050251700.0 0.6411314778 0.7623643392
8100251400.0 0.6510975065 0.7544445899
8150251100.0 0.6613367422 0.7455437295
8200250800.0 0.6706310736 0.7377200662
8250250500.0 0.679286607 0.729686066
8300250200.0 0.6888015303 0.721171513
8350249900.0 0.6980542093 0.712408562
8400249600.0 0.7066479226 0.704390959
8450249300.0 0.7153414377 0.6951452777
8500249000.0 0.7240958156 0.6862605337
8550248700.0 0.7321618828 0.6774440256
8600248400.0 0.7405803133 0.6677617781
8650248100.0 0.7484760897 0.6582501688
8700247800.0 0.7580296267 0.647191134
8750247500.0 0.7661162351 0.6368789388
8800247200.0 0.7746464411 0.626467686
8850246900.0 0.7833121846 0.6149906608
8900246600.0 0.7915252145 0.6037731527
8950246300.0 0.8011254583 0.5908384563
9000246000.0 0.8106545016 0.5782272099
9050245700.0 0.8195095485 0.5650713158
9100245400.0 0.8281604974 0.5527653582
9150245100.0 0.8374949192 0.5390898441
9200244800.0 0.8476927828 0.5237672589
9250244500.0 0.8567284505 0.5083899329
9300244200.0 0.8651806858 0.4936367528
9350243900.0 0.8728757981 0.4799173752
9400243600.0 0.8797488252 0.4674989163
9450243300.0 0.8855928408 0.4560375065
9500243000.0 0.8919244798 0.4436220482
9550242700.0 0.8955736745 0.4360643422
9600242400.0 0.899599403 0.4288766049
9650242100.0 0.9031604874 0.4222243926
9700241800.0 0.9075290921 0.4141770863
9750241500.0 0.9116467154 0.4064832122
9800241200.0 0.9163863622 0.3974426952
9850240900.0 0.921918726 0.3856803421
9900240600.0 0.9281625584 0.3737659054
9950240300.0 0.9344704661 0.3580874589
10000240000.0 0.9389162931 0.3465871355
10050239700.0 0.9450639555 0.3308795466
10100239400.0 0.949616487 0.3157498435
10150239100.0 0.9541424384 0.3008054092
10200238800.0 0.9581370984 0.2858111312
10250238500.0 0.9614625545 0.2725411831
10300238200.0 0.9646049795 0.2586136818
10350237900.0 0.9672341832 0.2455155734
10400237600.0 0.96979211 0.2324569249
10450237300.0 0.972504244 0.2186189606
10500237000.0 0.9746354509 0.2061971638
10550236700.0 0.9770293051 0.1925801055
10600236400.0 0.9791959181 0.1785300359
10650236100.0 0.9812092874 0.1637570702
10700235800.0 0.983665295 0.1518283042
10750235500.0 0.9860285795 0.1384269105
10800235200.0 0.9876006332 0.1242979035
10850234900.0 0.9896236229 0.1098883694
10900234600.0 0.9916467948 0.0952540204
10950234300.0 0.9934742634 0.081799474
11000234000.0 0.9952360319 0.0668788393
11050233700.0 0.9969131139 0.0503737437
11100233400.0 0.9985185769 0.0327861756
11150233100.0 0.9996404312 0.0168310788
11200232800.0 1.000086131 0.0017154242
11250232500.0 1.000971897 -0.0149219303
11300232200.0 1.00188055 -0.0327468888
11350231900.0 1.001542303 -0.0484114409
11400231600.0 1.001505374 -0.0641286913
11450231300.0 1.001440016 -0.0792776319
11500231000.0 0.999347112 -0.095843468
11550230700.0 0.998664269 -0.1093351287
11600230400.0 0.9971841651 -0.121511831
11650230100.0 0.9949228294 -0.1331631391
11700229800.0 0.9928991799 -0.1476055445
11750229500.0 0.9906509664 -0.1619718201
11800229200.0 0.9880751897 -0.1756967703
11850228900.0 0.9843895054 -0.1879196031
11900228600.0 0.981063242 -0.1977001055
11950228300.0 0.9780905446 -0.2082555581
12000228000.0 0.975159948 -0.2168779376
12050227700.0 0.971200347 -0.23051947
12100227400.0 0.9682882068 -0.240643829
12150227100.0 0.9634693443 -0.2575704746
12200226800.0 0.9592173958 -0.2698470559
12250226500.0 0.9558352881 -0.2808655553
12300226200.0 0.9515973918 -0.2934771907
12350225900.0 0.947234781 -0.3072696057
12400225600.0 0.9421014561 -0.32067005
12450225300.0 0.9379539858 -0.3328278432
12500225000.0 0.9325761944 -0.3478504884
12550224700.0 0.92704311 -0.3617275344
12600224400.0 0.922019399 -0.3749096706
12650224100.0 0.9163481575 -0.3894454206
12700223800.0 0.9109330257 -0.4021176417
12750223500.0 0.9054887121 -0.4152404569
12800223200.0 0.9001611186 -0.4277049657
12850222900.0 0.8952070387 -0.440064486
12900222600.0 0.8889114475 -0.4523848913
12950222300.0 0.8827079063 -0.4649289718
13000222000.0 0.8772435247 -0.4772242113
13050221700.0 0.8703716791 -0.4887435048
13100221400.0 0.8633885412 -0.5006832914
13150221100.0 0.856982409 -0.5130528554
13200220800.0 0.8497967532 -0.5247864529
13250220500.0 0.8427006219 -0.5365761093
13300220200.0 0.8353522748 -0.5475181252
13350219900.0 0.8272081806 -0.5593344658
13400219600.0 0.8186965904 -0.5714476182
13450219300.0 0.8094608741 -0.5852151133
13500219000.0 0.7990802839 -0.5988847352
13550218700.0 0.7889853592 -0.6120520727
13600218400.0 0.77918616 -0.6238736673
13650218100.0 0.7693177965 -0.6347578217
13700217800.0 0.7585073796 -0.6466411535
13750217500.0 0.7476341951 -0.658531784
13800217200.0 0.7373808056 -0.6699835585
13850216900.0 0.7256769709 -0.6815559369
13900216600.0 0.7160899202 -0.6905008678
13950216300.0 0.705247208 -0.7009964409
14000216000.0 0.6953951168 -0.7107408148
14050215700.0 0.6856542399 -0.7188161208
14100215400.0 0.6757425287 -0.7278978721
14150215100.0 0.6668212601 -0.7363195909
14200214800.0 0.6571298898 -0.7451865357
14250214500.0 0.646980873 -0.7543733765
14300214200.0 0.6366025626 -0.7637171396
14350213900.0 0.6252612025 -0.7734974675
14400213600.0 0.6134021798 -0.7832044357
14450213300.0 0.6005136595 -0.7938232379
14500213000.0 0.587695775 -0.8034117619
14550212700.0 0.5748974064 -0.8125469916
14600212400.0 0.5623224726 -0.8213835809
14650212100.0 0.5496947433 -0.8302264158
14700211800.0 0.5357679454 -0.8391741476
14750211500.0 0.5236528989 -0.8481612426
14800211200.0 0.5113707509 -0.8558315213
14850210900.0 0.4990621164 -0.8636808612
14900210600.0 0.4861158168 -0.8711412118
14950210300.0 0.4725099093 -0.8789934279
15000210000.0 0.4599143907 -0.8858140937
15050209700.0 0.4476565358 -0.8918997464
15100209400.0 0.4347261311 -0.8978291295
15150209100.0 0.4229443661 -0.9032569962
15200208800.0 0.4094628659 -0.9088109205
15250208500.0 0.3985218817 -0.9129806448
15300208200.0 0.3866793866 -0.9171872855
15350207900.0 0.3731511329 -0.9223792119
15400207600.0 0.3588173822 -0.9283560422
15450207300.0 0.3442829935 -0.9327471433
15500207000.0 0.3290323288 -0.9372676424
15550206700.0 0.3141319543 -0.9421901238
15600206400.0 0.2989956702 -0.9476847053
15650206100.0 0.2826748969 -0.9514987225
15700205800.0 0.2684896603 -0.9552927318
15750205500.0 0.2541369627 -0.9585923117
15800205200.0 0.2399574182 -0.9619841723
15850204900.0 0.2255033912 -0.9656188606
15900204600.0 0.2102604058 -0.9693213498
15950204300.0 0.196379762 -0.9721898946
16000204000.0 0.1821394388 -0.9754087238
16050203700.0 0.166925813 -0.9780925587
16100203400.0 0.1523374822 -0.9802296068
16150203100.0 0.1381775529 -0.9824810428
16200202800.0 0.1239242484 -0.9848023888
16250202500.0 0.109212493 -0.9862268611
16300202200.0 0.0939445401 -0.9874018588
16350201900.0 0.0789879956 -0.9893202045
16400201600.0 0.0644282442 -0.9902649748
16450201300.0 0.0493069608 -0.9912491304
16500201000.0 0.0325933985 -0.9920483504
16550200700.0 0.0170312577 -0.9925916441
16600200400.0 0.0013392816 -0.9927614254
16650200100.0 -0.0149182199 -0.992440502
16700199800.0 -0.0309242948 -0.9921377292
16750199500.0 -0.0497071463 -0.9915115624
16800199200.0 -0.0652730101 -0.9909300782
16850198900.0 -0.0805266323 -0.9899693678
16900198600.0 -0.0940555135 -0.988644058
16950198300.0 -0.1076760649 -0.9882447585
17000198000.0 -0.120930452 -0.9860828582
17050197700.0 -0.1332515572 -0.9842147071
17100197400.0 -0.1465975806 -0.9821884748
17150197100.0 -0.15934899 -0.9799800629
17200196800.0 -0.1719847416 -0.9782154167
17250196500.0 -0.1847845342 -0.9756770644
17300196200.0 -0.1969657094 -0.9736411467
17350195900.0 -0.2088612694 -0.9711879486
17400195600.0 -0.2211438649 -0.9686142503
17450195300.0 -0.2341852696 -0.965825329
17500195000.0 -0.2476655704 -0.9626036349
17550194700.0 -0.2617194514 -0.9588068697
17600194400.0 -0.2758516426 -0.9547662142
17650194100.0 -0.2889689396 -0.9510521627
17700193800.0 -0.3025060303 -0.9467137549
17750193500.0 -0.3168612302 -0.941947703
17800193200.0 -0.3311457517 -0.9372991184
17850192900.0 -0.3460086681 -0.9314803573
17900192600.0 -0.3615558223 -0.9255280315
17950192300.0 -0.3767081058 -0.9182705814
18000192000.0 -0.391641444 -0.9110538323
18050191700.0 -0.405502446 -0.9031688494
18100191400.0 -0.4198137703 -0.895422755
18150191100.0 -0.4348015514 -0.8875770265
18200190800.0 -0.4515045737 -0.8781184205
18250190500.0 -0.4686880238 -0.8688617835
18300190200.0 -0.484188917 -0.8604156657
18350189900.0 -0.4993706599 -0.8520897513
18400189600.0 -0.5133902593 -0.843155431
18450189300.0 -0.5263367365 -0.8358946439
18500189000.0 -0.5400989537 -0.8276225966
18550188700.0 -0.5525161349 -0.8199029064
18600188400.0 -0.5644571579 -0.8134260749
18650188100.0 -0.5757692105 -0.8066146648
18700187800.0 -0.5858487112 -0.8003534054
18750187500.0 -0.5966078674 -0.7939233747
18800187200.0 -0.6073892587 -0.7868213711
18850186900.0 -0.6176311488 -0.7796928431
18900186600.0 -0.6278201372 -0.7725156576
18950186300.0 -0.63777973 -0.7646649729
19000186000.0 -0.6451179116 -0.7583344751
19050185700.0 -0.6542561563 -0.7514809932
19100185400.0 -0.6641930659 -0.7433097059
19150185100.0 -0.6745988618 -0.7342736349
19200184800.0 -0.6831297874 -0.7260788601
19250184500.0 -0.6940650111 -0.7169110644
19300184200.0 -0.7051532565 -0.7078003872
19350183900.0 -0.7164568564 -0.6978769042
19400183600.0 -0.7267316493 -0.6879011233
19450183300.0 -0.7348506163 -0.6781782377
19500183000.0 -0.7435310906 -0.6677388893
19550182700.0 -0.7531536485 -0.6574334626
19600182400.0 -0.7630503179 -0.6457802127
19650182100.0 -0.7741833174 -0.632897496
19700181800.0 -0.7849631344 -0.6197407601
19750181500.0 -0.795433154 -0.605589465
19800181200.0 -0.8058235477 -0.5904868257
19850180900.0 -0.8158331171 -0.5750442736
19900180600.0 -0.8234235609 -0.5604443407
19950180300.0 -0.8326678678 -0.5443226274
20000180000.0 -0.8250513628 -0.5460880025
20050179700.0 -0.8340314593 -0.5329760519
20100179400.0 -0.8426811774 -0.5189436399
20150179100.0 -0.8511104254 -0.507410564
20200178800.0 -0.8596416372 -0.4941274482
20250178500.0 -0.8692530372 -0.480983801
20300178200.0 -0.8784487174 -0.4664410922
20350177900.0 -0.8881757992 -0.4519933372
20400177600.0 -0.8970624504 -0.4371854858
20450177300.0 -0.9051118075 -0.4226851723
20500177000.0 -0.9131394999 -0.4090557121
20550176700.0 -0.9208217538 -0.3956339988
20600176400.0 -0.9282144059 -0.3824775215
20650176100.0 -0.9346919901 -0.3698425022
20700175800.0 -0.9412602528 -0.3581986343
20750175500.0 -0.9477774891 -0.3469744913
20800175200.0 -0.9523693515 -0.335217087
20850174900.0 -0.9571882442 -0.3253272228
20900174600.0 -0.9617572659 -0.3128069675
20950174300.0 -0.966642025 -0.3015960097
21000174000.0 -0.969255441 -0.2898260245
21050173700.0 -0.9727529755 -0.2804227964
21100173400.0 -0.9766056686 -0.2672543863
21150173100.0 -0.9800331807 -0.2553488926
21200172800.0 -0.9837161365 -0.2418028929
21250172500.0 -0.9864566719 -0.2280947703
21300172200.0 -0.9896365307 -0.2138705445
21350171900.0 -0.9912098167 -0.1999610702
21400171600.0 -0.9923524984 -0.1851031329
21450171300.0 -0.9923032479 -0.1699812896
21500171000.0 -0.9925460174 -0.1555050909
21550170700.0 -0.9922919543 -0.1399602405
21600170400.0 -0.9924765407 -0.1248528172
21650170100.0 -0.9915550087 -0.1086628784
21700169800.0 -0.9918290427 -0.0927632151
21750169500.0 -0.9889638326 -0.0771087346
21800169200.0 -0.9882028497 -0.0611979662
21850168900.0 -0.9872843786 -0.0450026184
21900168600.0 -0.9855436556 -0.0279583683
21950168300.0 -0.9846883011 -0.012701086
22000168000.0 -0.9836702547 0.0033051174
22050167700.0 -0.983715607 0.0169706154
22100167400.0 -0.9836371245 0.0326483744
22150167100.0 -0.9840710122 0.0475067697
22200166800.0 -0.9849925537 0.0640003791
22250166500.0 -0.9835962298 0.0810462854
22300166200.0 -0.9838554343 0.0977327428
22350165900.0 -0.9815682256 0.1141944385
22400165600.0 -0.9808242343 0.1298347494
22450165300.0 -0.9789528031 0.144963154
22500165000.0 -0.9766499999 0.1595474301
22550164700.0 -0.9754197131 0.1739291942
22600164400.0 -0.9737037398 0.1893475849
22650164100.0 -0.9720345913 0.2047370376
22700163800.0 -0.9695262395 0.2201281453
22750163500.0 -0.9667827295 0.2354715292
22800163200.0 -0.9633755547 0.2485598641
22850162900.0 -0.9614249171 0.2622523601
22900162600.0 -0.9596830456 0.2756895747
22950162300.0 -0.9584629755 0.2882133502
23000162000.0 -0.957500662 0.3001388839
23050161700.0 -0.955523475 0.3128299557
23100161400.0 -0.9531657166 0.3250667194
23150161100.0 -0.9504184197 0.3382985782
23200160800.0 -0.9471215454 0.3499734244
23250160500.0 -0.9445249126 0.3621766472
23300160200.0 -0.9419810576 0.3745000433
23350159900.0 -0.9385763446 0.3873372087
23400159600.0 -0.933666017 0.4001989517
23450159300.0 -0.9286424156 0.413845827
23500159000.0 -0.9243768847 0.4265428917
23550158700.0 -0.9195200327 0.4402329638
23600158400.0 -0.914465029 0.4533244701
23650158100.0 -0.9081298826 0.4673293376
23700157800.0 -0.9007332746 0.4812711518
23750157500.0 -0.8920411281 0.4953141722
23800157200.0 -0.883116959 0.5084032968
23850156900.0 -0.8746685825 0.5214707916
23900156600.0 -0.8648397877 0.5341476838
23950156300.0 -0.8570526432 0.5452827348
24000156000.0 -0.8468113465 0.5589842424
24050155700.0 -0.8372230218 0.5702170666
24100155400.0 -0.8267679708 0.5819228747
24150155100.0 -0.8164807809 0.5937005666
24200154800.0 -0.8059635491 0.6047260763
24250154500.0 -0.7945420675 0.6167655746
24300154200.0 -0.7831548844 0.6276811489
24350153900.0 -0.7712138002 0.6385294458
24400153600.0 -0.7591059326 0.6489953639
24450153300.0 -0.747169962 0.6586071152
24500153000.0 -0.7356753914 0.6682146344
24550152700.0 -0.7244075667 0.6777187449
24600152400.0 -0.7127141429 0.6869431086
24650152100.0 -0.7014835893 0.6947890152
