!Created with skrf (http://scikit-rf.org).
# Hz S RI R 50.0 
!freq ReS11 ImS11
300000.0 -0.9770076423 -0.1139369635
50299700.0 -1.0000585 0.0158936588
100299400.0 -0.9980784016 0.0287547914
150299100.0 -1.003043872 0.045595149
200298800.0 -0.999666819 0.0589247381
250298500.0 -0.9975750418 0.0722472855
300298200.0 -0.9860295527 0.0881948449
350297900.0 -0.9941708621 0.0992309889
400297600.0 -0.9933245827 0.1157606511
450297300.0 -0.9912387986 0.1295675938
500297000.0 -0.9894550637 0.1443529007
550296700.0 -0.9845191418 0.1567467156
600296400.0 -1.017340222 0.190170234
650296100.0 -0.9822740671 0.1865668346
700295800.0 -0.9793153879 0.200902199
750295500.0 -0.9763462514 0.2150840233
800295200.0 -0.9729007349 0.2287944962
850294900.0 -0.9697533273 0.2430431088
900294600.0 -0.9656415004 0.2567932844
950294300.0 -0.9620176054 0.2704057903
1000294000.0 -0.9580813852 0.2843470502
1050293700.0 -0.9536120497 0.2980949642
1100293400.0 -0.9491504136 0.312566622
1150293100.0 -0.9452827295 0.3243290051
1200292800.0 -0.940074491 0.3387807577
1250292500.0 -0.9344730037 0.3521487607
1300292200.0 -0.9289103814 0.3654333916
1350291900.0 -0.9232628204 0.379274441
1400291600.0 -0.9178483926 0.3924999615
1450291300.0 -0.9122174014 0.4049158492
1500291000.0 -0.9058933822 0.4181504342
1550290700.0 -0.8995618635 0.4316023345
1600290400.0 -0.8930825333 0.4444764448
1650290100.0 -0.8866737504 0.4564154485
1700289800.0 -0.8797464513 0.4699766934
1750289500.0 -0.8727837836 0.4822850192
1800289200.0 -0.8652782426 0.4951205303
1850288900.0 -0.8583882465 0.5066241056
1900288600.0 -0.8508052707 0.519724497
1950288300.0 -0.8427197238 0.5319823566
2000288000.0 -0.8350609783 0.5433741862
2050287700.0 -0.8268372587 0.5558325894
2100287400.0 -0.8189025261 0.567715847
2150287100.0 -0.8103374436 0.5794565378
2200286800.0 -0.8025098316 0.5898661342
2250286500.0 -0.7937672629 0.6020119496
2300286200.0 -0.7848465405 0.6136000819
2350285900.0 -0.7760726494 0.6244273153
2400285600.0 -0.7671543423 0.6357463229
2450285300.0 -0.7585892661 0.6459179946
2500285000.0 -0.7489919067 0.6574524732
2550284700.0 -0.7397334077 0.6675495369
2600284400.0 -0.7304278669 0.6778362473
2650284100.0 -0.7212119902 0.6881836158
2700283800.0 -0.7106801725 0.6988973231
2750283500.0 -0.7005767828 0.7094374637
2800283200.0 -0.6906097998 0.7191591765
2850282900.0 -0.6807156429 0.7290033756
2900282600.0 -0.6701848363 0.7384256407
2950282300.0 -0.6600382447 0.7478337592
3000282000.0 -0.6491683396 0.7573242897
3050281700.0 -0.6381800249 0.7666673961
3100281400.0 -0.6262863964 0.7759193493
3150281100.0 -0.6142941897 0.7852588609
3200280800.0 -0.6028396382 0.7937307502
3250280500.0 -0.5919774051 0.801353323
3300280200.0 -0.5808549316 0.809295298
3350279900.0 -0.5693244007 0.8167475343
3400279600.0 -0.5572893847 0.8244519575
3450279300.0 -0.5460099347 0.8313154979
3500279000.0 -0.5336621532 0.8385725435
3550278700.0 -0.5215435086 0.8460682359
3600278400.0 -0.5092565436 0.8530904076
3650278100.0 -0.4959029929 0.8607927846
3700277800.0 -0.4839172059 0.86735759
3750277500.0 -0.4717004228 0.8738208277
3800277200.0 -0.4591138029 0.8803685285
3850276900.0 -0.4471897626 0.8860961547
3900276600.0 -0.4360928788 0.8916822251
3950276300.0 -0.4238096475 0.8978020996
4000276000.0 -0.4116839508 0.9038699446
4050275700.0 -0.3988116882 0.9098554444
4100275400.0 -0.3876597812 0.9152393672
4150275100.0 -0.3748085157 0.9207888971
4200274800.0 -0.3618644951 0.9263589313
4250274500.0 -0.3497984993 0.9316607408
4300274200.0 -0.3369382526 0.9368769459
4350273900.0 -0.3229412325 0.9420865392
4400273600.0 -0.3077991907 0.9472449136
4450273300.0 -0.2926368816 0.9523845847
4500273000.0 -0.2789001221 0.9568419736
4550272700.0 -0.2649134346 0.9610627435
4600272400.0 -0.2493264577 0.9652149532
4650272100.0 -0.237660584 0.9684385386
4700271800.0 -0.2243404435 0.9718882395
4750271500.0 -0.2126353476 0.9746947796
4800271200.0 -0.2002404086 0.9773817516
4850270900.0 -0.1863794608 0.9802487755
4900270600.0 -0.1724826274 0.9826365824
4950270300.0 -0.157972978 0.9851496453
5000270000.0 -0.1437776494 0.98710432
5050269700.0 -0.1303932065 0.9888909246
5100269400.0 -0.1167233424 0.9905554035
5150269100.0 -0.1037002943 0.9921023402
5200268800.0 -0.0901186642 0.9929999015
5250268500.0 -0.0772223422 0.9940424682
5300268200.0 -0.0642164972 0.9946195115
5350267900.0 -0.0518430312 0.995170184
5400267600.0 -0.0356929491 0.9963822488
5450267300.0 -0.0225567039 0.9967612008
5500267000.0 -0.0075135382 0.9972447098
5550266700.0 0.0075221523 0.9971992171
5600266400.0 0.0231454128 0.9972789245
5650266100.0 0.0398879121 0.9969853363
5700265800.0 0.0542287608 0.9961531557
5750265500.0 0.0693710389 0.9952581009
5800265200.0 0.0835217478 0.9943837889
5850264900.0 0.0966760058 0.9932572324
5900264600.0 0.1135057092 0.9916646955
5950264300.0 0.1253816606 0.9901036249
6000264000.0 0.1393144617 0.9881858402
6050263700.0 0.1518517746 0.9863630708
6100263400.0 0.1641686999 0.9849917133
6150263100.0 0.1785971052 0.9821960104
6200262800.0 0.1891378996 0.9806566646
6250262500.0 0.2019295287 0.9780787414
6300262200.0 0.2147589412 0.9753122326
6350261900.0 0.2279873833 0.9724377939
6400261600.0 0.2416183751 0.9691644798
6450261300.0 0.2531112599 0.9664650136
6500261000.0 0.265829888 0.9629414815
6550260700.0 0.2788983226 0.9589084461
6600260400.0 0.2919512736 0.9549671592
6650260100.0 0.305622533 0.9505078042
6700259800.0 0.3180022516 0.9464136375
6750259500.0 0.3322306507 0.9413832793
6800259200.0 0.3448714938 0.9362239521
6850258900.0 0.356950083 0.9311928066
6900258600.0 0.3690102109 0.9264073641
6950258300.0 0.3814545337 0.9210539826
7000258000.0 0.393678133 0.9153745223
7050257700.0 0.4058700046 0.90947181
7100257400.0 0.4186312491 0.9032891546
7150257100.0 0.428882337 0.8978290429
7200256800.0 0.4415340258 0.8914768215
7250256500.0 0.4535447019 0.8852684477
7300256200.0 0.4663309101 0.8782501991
7350255900.0 0.4789291398 0.8715354796
7400255600.0 0.4926439344 0.8643826842
7450255300.0 0.5077796373 0.855256956
7500255000.0 0.5192020373 0.8482652854
7550254700.0 0.5332048922 0.8397287714
7600254400.0 0.5455706791 0.8312060051
7650254100.0 0.5569893991 0.8234405161
7700253800.0 0.5692639078 0.8156900244
7750253500.0 0.5803868765 0.8077983356
7800253200.0 0.5910366127 0.7999203619
7850252900.0 0.6006476405 0.7929765548
7900252600.0 0.6123195416 0.7842233857
7950252300.0 0.6212839749 0.7776303128
8000252000.0 0.6312022349 0.7699748117
8050251700.0 0.6417357497 0.7618428948
8100251400.0 0.6517870834 0.7536326118
8150251100.0 0.6624079335 0.7448413942
8200250800.0 0.6711756762 0.7368917513
8250250500.0 0.6803393699 0.7287863412
8300250200.0 0.689682277 0.7201998779
8350249900.0 0.698491798 0.7115668867
8400249600.0 0.7067260927 0.7037242708
8450249300.0 0.7158809281 0.6943797912
8500249000.0 0.7247326628 0.6855744988
8550248700.0 0.7330575125 0.6766900472
8600248400.0 0.7413017638 0.6672875022
8650248100.0 0.749049801 0.6577245226
8700247800.0 0.7584559211 0.6465124657
8750247500.0 0.766826274 0.6363102292
8800247200.0 0.774838329 0.6260086827
8850246900.0 0.7835931312 0.6144380783
8900246600.0 0.7921173577 0.603295748
8950246300.0 0.8020229659 0.5902964017
9000246000.0 0.8113646917 0.5772161945
9050245700.0 0.8204745111 0.5643736113
9100245400.0 0.8289907717 0.5519506281
9150245100.0 0.8383725836 0.538120935
9200244800.0 0.8481150716 0.5225872972
9250244500.0 0.8574609953 0.5071096508
9300244200.0 0.866337548 0.4925867524
9350243900.0 0.873652703 0.4785613004
9400243600.0 0.8803596441 0.4662587844
9450243300.0 0.8862873029 0.4545760252
9500243000.0 0.8924914697 0.442499037
9550242700.0 0.8961666219 0.4347284301
9600242400.0 0.9001877688 0.4273699313
9650242100.0 0.9037195676 0.4210453328
9700241800.0 0.9082456188 0.4125042852
9750241500.0 0.912111059 0.4053444657
9800241200.0 0.9169412694 0.3959674688
9850240900.0 0.9221627606 0.3845340265
9900240600.0 0.9282075744 0.3726611987
9950240300.0 0.9348693414 0.3564941899
10000240000.0 0.9392821743 0.345224188
10050239700.0 0.9445662556 0.3302291022
10100239400.0 0.950041876 0.314634129
10150239100.0 0.954378657 0.2995395782
10200238800.0 0.9582849192 0.2846685063
10250238500.0 0.9619362892 0.2712575731
10300238200.0 0.9647985766 0.2572279673
10350237900.0 0.9673785712 0.2443500437
10400237600.0 0.9699466352 0.2309998993
10450237300.0 0.9725697486 0.2178944682
10500237000.0 0.9747098569 0.205489585
10550236700.0 0.9773173936 0.1909740204
10600236400.0 0.9792210249 0.1777723041
10650236100.0 0.9814509254 0.1631092639
10700235800.0 0.9836844388 0.1511312398
10750235500.0 0.985590307 0.137926561
10800235200.0 0.9874840874 0.1238081462
10850234900.0 0.9897110836 0.1088366912
10900234600.0 0.9918440157 0.0944394467
10950234300.0 0.993450879 0.0813522647
11000234000.0 0.9952267221 0.066210484
11050233700.0 0.9969757188 0.0498656203
11100233400.0 0.9985206182 0.0322138546
11150233100.0 0.9995206249 0.0160595606
11200232800.0 1.000076955 0.0009736788
11250232500.0 1.001399997 -0.0160218509
11300232200.0 1.001931333 -0.0337223081
11350231900.0 1.001250561 -0.0492091519
11400231600.0 1.002417311 -0.0649258009
11450231300.0 1.000964834 -0.0808684558
11500231000.0 0.9999003117 -0.0973899446
11550230700.0 0.9984004662 -0.1094918186
11600230400.0 0.9972606186 -0.122730906
11650230100.0 0.9949977581 -0.1345526175
11700229800.0 0.992518355 -0.1491614699
11750229500.0 0.9905835734 -0.1635995292
11800229200.0 0.9877121671 -0.1771431452
11850228900.0 0.9842307356 -0.1898058758
11900228600.0 0.9806286783 -0.1992488298
11950228300.0 0.9773463984 -0.2095716308
12000228000.0 0.9743886177 -0.2189624306
12050227700.0 0.9706728295 -0.2316283521
12100227400.0 0.9678093585 -0.2428404175
12150227100.0 0.9629284891 -0.259214036
12200226800.0 0.9593824504 -0.2701667212
12250226500.0 0.9555566235 -0.2818947129
12300226200.0 0.9510064494 -0.2945318682
12350225900.0 0.9458506416 -0.3090293926
12400225600.0 0.9416810869 -0.3219196078
12450225300.0 0.9372688957 -0.3344962309
12500225000.0 0.9321631438 -0.3491742866
12550224700.0 0.926848388 -0.3627193306
12600224400.0 0.9218633029 -0.3756966051
12650224100.0 0.9161536011 -0.3900588305
12700223800.0 0.9106643334 -0.4028523487
12750223500.0 0.905271689 -0.415723606
12800223200.0 0.8999087513 -0.4283496846
12850222900.0 0.8944222625 -0.4401988938
12900222600.0 0.8888670968 -0.4524094492
12950222300.0 0.8822498014 -0.4656895791
13000222000.0 0.8768706845 -0.4768186925
13050221700.0 0.8697685821 -0.4896798745
13100221400.0 0.8629609651 -0.5014391545
13150221100.0 0.8562216284 -0.5136357007
13200220800.0 0.8494871515 -0.5250718279
13250220500.0 0.8421275691 -0.5375540274
13300220200.0 0.8346167145 -0.5483159653
13350219900.0 0.8265746244 -0.5603762429
13400219600.0 0.8182184041 -0.5723589213
13450219300.0 0.8087679336 -0.5861022551
13500219000.0 0.7985266355 -0.599912823
13550218700.0 0.7882152027 -0.612978798
13600218400.0 0.7781345133 -0.6252961081
13650218100.0 0.7680298873 -0.6363637809
13700217800.0 0.7571583264 -0.6483994025
13750217500.0 0.7475868547 -0.6599588128
13800217200.0 0.7360838444 -0.6718457721
13850216900.0 0.7252162948 -0.6823385982
13900216600.0 0.7146454763 -0.6924577853
13950216300.0 0.7042859181 -0.7023404224
14000216000.0 0.6938920986 -0.7111671151
14050215700.0 0.6846682296 -0.7195455397
14100215400.0 0.6748071988 -0.7293023452
14150215100.0 0.6653974017 -0.7373310625
14200214800.0 0.6563883876 -0.7458801199
14250214500.0 0.6459266778 -0.7553136676
14300214200.0 0.6356953092 -0.7645577214
14350213900.0 0.6244908914 -0.773951188
14400213600.0 0.6124024988 -0.7839800479
14450213300.0 0.5999008683 -0.794205142
14500213000.0 0.586716944 -0.8038694538
14550212700.0 0.5733863855 -0.8131733286
14600212400.0 0.5613948782 -0.8219788341
14650212100.0 0.5484405601 -0.8310271159
14700211800.0 0.5345433352 -0.8403344615
14750211500.0 0.5226840802 -0.8486202088
14800211200.0 0.5103580578 -0.8564891141
14850210900.0 0.4981036007 -0.8637977246
14900210600.0 0.484871395 -0.8719149154
14950210300.0 0.4713157058 -0.8795248891
15000210000.0 0.4585133198 -0.8863719875
15050209700.0 0.4458359604 -0.8924982561
15100209400.0 0.4332929111 -0.8983449062
15150209100.0 0.4210655882 -0.9039268377
15200208800.0 0.4082190818 -0.9092414324
15250208500.0 0.3969100105 -0.9129406757
15300208200.0 0.3841991181 -0.9183383676
15350207900.0 0.3713891453 -0.9232948639
15400207600.0 0.356625982 -0.9280800457
15450207300.0 0.3422547695 -0.933578095
15500207000.0 0.3274219955 -0.9378491151
15550206700.0 0.3125127508 -0.9438079494
15600206400.0 0.2965599265 -0.9477379834
15650206100.0 0.281034515 -0.9519721679
15700205800.0 0.2667200844 -0.9556767637
15750205500.0 0.2523992326 -0.9591090675
15800205200.0 0.2377672429 -0.9625655714
15850204900.0 0.2234435387 -0.9658535056
15900204600.0 0.2085847368 -0.969630679
15950204300.0 0.1944323914 -0.9727276803
16000204000.0 0.1803995123 -0.9754958808
16050203700.0 0.1654819808 -0.9785166787
16100203400.0 0.151065794 -0.9803215967
16150203100.0 0.1365608544 -0.9826238535
16200202800.0 0.122776399 -0.9844810894
16250202500.0 0.1084574782 -0.9860634937
16300202200.0 0.0927282533 -0.9876425182
16350201900.0 0.077762585 -0.9889925746
16400201600.0 0.0630967927 -0.990292989
16450201300.0 0.0477425008 -0.9911588364
16500201000.0 0.0311540211 -0.9919394455
16550200700.0 0.0156068561 -0.9925554525
16600200400.0 9.5526e-06 -0.992625313
16650200100.0 -0.0162376574 -0.9926278256
16700199800.0 -0.0328573981 -0.9918577516
16750199500.0 -0.0515840607 -0.9917469364
16800199200.0 -0.0670667806 -0.9905739394
16850198900.0 -0.0823525163 -0.9895803806
16900198600.0 -0.096530831 -0.9884712755
16950198300.0 -0.1098962382 -0.9873205945
17000198000.0 -0.1228861117 -0.9858857637
17050197700.0 -0.135680169 -0.9838539997
17100197400.0 -0.1483566098 -0.9818866108
17150197100.0 -0.1603609734 -0.9800427077
17200196800.0 -0.173863281 -0.9779401091
17250196500.0 -0.1866666685 -0.9753808562
17300196200.0 -0.1988141343 -0.9730529908
17350195900.0 -0.210616803 -0.9707419868
17400195600.0 -0.2227356751 -0.9682166132
17450195300.0 -0.2359010113 -0.9655286882
17500195000.0 -0.2494290078 -0.9620962882
17550194700.0 -0.2633932261 -0.9584115244
17600194400.0 -0.2771596917 -0.9541946626
17650194100.0 -0.2906606563 -0.9504569049
17700193800.0 -0.3037342099 -0.9461849949
17750193500.0 -0.3182858654 -0.9415626565
17800193200.0 -0.3323875801 -0.9364747899
17850192900.0 -0.3478970925 -0.93094483
17900192600.0 -0.3627458676 -0.924578428
17950192300.0 -0.3782475634 -0.9173920566
18000192000.0 -0.3928813708 -0.9103472836
18050191700.0 -0.406780696 -0.9023460787
18100191400.0 -0.4210641624 -0.8948263457
18150191100.0 -0.4360386267 -0.8867181473
18200190800.0 -0.4529753896 -0.8774851743
18250190500.0 -0.4697280972 -0.8679814525
18300190200.0 -0.4855162068 -0.859434756
18350189900.0 -0.5001488954 -0.8507632496
18400189600.0 -0.5143204893 -0.842661659
18450189300.0 -0.5280809554 -0.8344229787
18500189000.0 -0.5413637437 -0.8267141295
18550188700.0 -0.5541069316 -0.8194082378
18600188400.0 -0.5652986831 -0.8121880581
18650188100.0 -0.576889922 -0.8057997855
18700187800.0 -0.5870393718 -0.7991000297
18750187500.0 -0.5978838619 -0.7926020545
18800187200.0 -0.6087369586 -0.7856681656
18850186900.0 -0.6186701248 -0.7787208561
18900186600.0 -0.6289756759 -0.7711161316
18950186300.0 -0.6391542774 -0.7635069145
19000186000.0 -0.6463838598 -0.7574613498
19050185700.0 -0.6555870056 -0.7497889906
19100185400.0 -0.6655295939 -0.741805124
19150185100.0 -0.6758437285 -0.7330332445
19200184800.0 -0.6848434145 -0.7249037033
19250184500.0 -0.6957643448 -0.7159388993
19300184200.0 -0.7071620813 -0.7058298212
19350183900.0 -0.7176528401 -0.6964461256
19400183600.0 -0.7271978619 -0.6867355928
19450183300.0 -0.7362926347 -0.6761733561
19500183000.0 -0.7447908298 -0.6663873763
19550182700.0 -0.7546774479 -0.6552068005
19600182400.0 -0.7650124471 -0.6437745745
19650182100.0 -0.7756011198 -0.6314171005
19700181800.0 -0.786452009 -0.6181176555
19750181500.0 -0.7969174812 -0.6040197674
19800181200.0 -0.8072054238 -0.5889858933
19850180900.0 -0.8168041693 -0.573740482
19900180600.0 -0.8245262273 -0.5591650996
19950180300.0 -0.8339740108 -0.5428355823
20000180000.0 -0.8267335166 -0.5446804588
20050179700.0 -0.8341707129 -0.5318642214
20100179400.0 -0.8435211123 -0.5187286413
20150179100.0 -0.8516120225 -0.5060022898
20200178800.0 -0.8607480802 -0.4926427565
20250178500.0 -0.8696912014 -0.4799021631
20300178200.0 -0.8794559259 -0.4650995857
20350177900.0 -0.8886953546 -0.4507006389
20400177600.0 -0.8973937291 -0.4360041486
20450177300.0 -0.9057165223 -0.4215692674
20500177000.0 -0.9135142103 -0.4076533893
20550176700.0 -0.9213897413 -0.3940942404
20600176400.0 -0.9285187983 -0.3810288719
20650176100.0 -0.9347220411 -0.368491387
20700175800.0 -0.9417547348 -0.3564736578
20750175500.0 -0.9487817181 -0.3449430199
20800175200.0 -0.9531439247 -0.3342915043
20850174900.0 -0.9575851098 -0.3231512481
20900174600.0 -0.9627951995 -0.3113512698
20950174300.0 -0.9675184114 -0.2995939445
21000174000.0 -0.9699059077 -0.2880663428
21050173700.0 -0.9737095032 -0.2781793212
21100173400.0 -0.9774631218 -0.2658475506
21150173100.0 -0.9811874247 -0.252596995
21200172800.0 -0.9844372846 -0.2387179829
21250172500.0 -0.9875924967 -0.2252377747
21300172200.0 -0.9907180896 -0.2113732907
21350171900.0 -0.9925013737 -0.1963494997
21400171600.0 -0.9935218274 -0.1828845963
21450171300.0 -0.993066685 -0.1680381338
21500171000.0 -0.9935199025 -0.1529110741
21550170700.0 -0.9930164626 -0.1376210547
21600170400.0 -0.9932404743 -0.1218405882
21650170100.0 -0.9920760093 -0.1054678515
21700169800.0 -0.9901255808 -0.0906366611
21750169500.0 -0.9892025397 -0.0744113164
21800169200.0 -0.9879101925 -0.0585627435
21850168900.0 -0.987421765 -0.0409438382
21900168600.0 -0.9857655734 -0.025623616
21950168300.0 -0.9842878109 -0.0095269826
22000168000.0 -0.9826521786 0.005586662
22050167700.0 -0.9823515122 0.0198704988
22100167400.0 -0.9824451437 0.0346697409
22150167100.0 -0.9830436905 0.0501700057
22200166800.0 -0.9837983057 0.0665961014
22250166500.0 -0.9831522899 0.0829370395
22300166200.0 -0.9829411865 0.0994892133
22350165900.0 -0.9811689302 0.1171669511
22400165600.0 -0.978785705 0.1314949186
22450165300.0 -0.9774057668 0.1481374949
22500165000.0 -0.975072862 0.1614875377
22550164700.0 -0.9745462789 0.1768819371
22600164400.0 -0.9727284818 0.1913264271
22650164100.0 -0.9703986891 0.2065450978
22700163800.0 -0.9678617899 0.2232553727
22750163500.0 -0.9655211901 0.2377292159
22800163200.0 -0.9624932744 0.2512095409
22850162900.0 -0.9603172665 0.2646247663
22900162600.0 -0.9588102382 0.2780303517
22950162300.0 -0.9576072027 0.2905845404
23000162000.0 -0.9566867012 0.3026478999
23050161700.0 -0.9545207633 0.3152837743
23100161400.0 -0.9518070965 0.3277169553
23150161100.0 -0.9500161431 0.339772275
23200160800.0 -0.947141944 0.3527852313
23250160500.0 -0.943775419 0.3632171409
23300160200.0 -0.9413755195 0.3761690933
23350159900.0 -0.9369982866 0.3894740346
23400159600.0 -0.9334570648 0.4021651171
23450159300.0 -0.9276751392 0.4151394463
23500159000.0 -0.9238800607 0.4280781544
23550158700.0 -0.9192655317 0.4413421278
23600158400.0 -0.9138556268 0.4548720645
23650158100.0 -0.907726709 0.4685907253
23700157800.0 -0.9001117387 0.482580414
23750157500.0 -0.891590452 0.4965483696
23800157200.0 -0.8828207561 0.5099191092
23850156900.0 -0.8734903419 0.5230164242
23900156600.0 -0.8644054594 0.5347994962
23950156300.0 -0.8557706604 0.5473335197
24000156000.0 -0.846156189 0.5589095589
24050155700.0 -0.8361065832 0.5702825212
24100155400.0 -0.8268993818 0.5829071945
24150155100.0 -0.8151800872 0.595229459
24200154800.0 -0.8040668131 0.6054568448
24250154500.0 -0.7930176788 0.6177114082
24300154200.0 -0.7816706198 0.6291723191
24350153900.0 -0.7694960188 0.6401317765
24400153600.0 -0.7574629039 0.6499974101
24450153300.0 -0.7455803943 0.6602119194
24500153000.0 -0.7341455003 0.6692195207
24550152700.0 -0.7229434205 0.6798072604
24600152400.0 -0.7116731659 0.6882837279
24650152100.0 -0.7001481636 0.6962946273
