!Created with skrf (http://scikit-rf.org).
# Hz S RI R 50.0 
!freq ReS11 ImS11
300000.0 -0.9758577757 -0.1187793552
50299700.0 -1.000053139 0.0152893189
100299400.0 -0.9980715177 0.0283246446
150299100.0 -1.002782503 0.0452395094
200298800.0 -0.999553246 0.0584774603
250298500.0 -0.9974949011 0.0719493068
300298200.0 -0.9860647014 0.0876012299
350297900.0 -0.9940640665 0.0986251047
400297600.0 -0.9934838889 0.1151306267
450297300.0 -0.9911898851 0.1287807048
500297000.0 -0.9894305448 0.1437282746
550296700.0 -0.9842352434 0.1561274251
600296400.0 -1.017240142 0.1895553014
650296100.0 -0.9823422112 0.1860172125
700295800.0 -0.9792858521 0.2002478285
750295500.0 -0.9763331005 0.2144592848
800295200.0 -0.9730265464 0.2283753164
850294900.0 -0.9697339769 0.2422820953
900294600.0 -0.9658339305 0.2557786971
950294300.0 -0.9619373952 0.269815251
1000294000.0 -0.958325291 0.2835044522
1050293700.0 -0.9536287395 0.2975361057
1100293400.0 -0.9491642325 0.3118663112
1150293100.0 -0.9455701562 0.3239943325
1200292800.0 -0.9401287682 0.3381571123
1250292500.0 -0.9348409299 0.3517060798
1300292200.0 -0.9289974175 0.3647933378
1350291900.0 -0.923431535 0.3789306054
1400291600.0 -0.9178336144 0.3918428797
1450291300.0 -0.9125241034 0.4044165051
1500291000.0 -0.9061897101 0.4177053551
1550290700.0 -0.8997036715 0.4311559665
1600290400.0 -0.8935818309 0.4440679467
1650290100.0 -0.8870777131 0.4562745306
1700289800.0 -0.8798437197 0.4695645552
1750289500.0 -0.8728776382 0.4818204301
1800289200.0 -0.8654079989 0.4947795215
1850288900.0 -0.8587841868 0.5059420118
1900288600.0 -0.8510207073 0.5190365533
1950288300.0 -0.8430088835 0.5316115007
2000288000.0 -0.8354877019 0.5430598161
2050287700.0 -0.8271377797 0.5551003811
2100287400.0 -0.819152041 0.566934068
2150287100.0 -0.8107083305 0.5790744126
2200286800.0 -0.8031232736 0.5894572621
2250286500.0 -0.7939794297 0.6014862225
2300286200.0 -0.7852152576 0.6130414653
2350285900.0 -0.7765492638 0.6240589712
2400285600.0 -0.7676962191 0.6350143067
2450285300.0 -0.7590324021 0.6454157388
2500285000.0 -0.749476781 0.6568306351
2550284700.0 -0.7405299283 0.6671335733
2600284400.0 -0.7309778986 0.6773404204
2650284100.0 -0.7221585444 0.6876730643
2700283800.0 -0.7114101444 0.698295187
2750283500.0 -0.7014515584 0.7088622374
2800283200.0 -0.6915916501 0.7184729529
2850282900.0 -0.6809610126 0.7285095819
2900282600.0 -0.6707525045 0.7379500322
2950282300.0 -0.66067608 0.7472684332
3000282000.0 -0.6498705988 0.7567523106
3050281700.0 -0.6386828308 0.7660278758
3100281400.0 -0.6266444978 0.7752874465
3150281100.0 -0.6150127548 0.7847277575
3200280800.0 -0.6033351998 0.7932154352
3250280500.0 -0.5925148889 0.8008880158
3300280200.0 -0.5813173999 0.8088053021
3350279900.0 -0.569696956 0.8164559387
3400279600.0 -0.557483128 0.8239842629
3450279300.0 -0.54642325 0.8313979458
3500279000.0 -0.534309518 0.8381790458
3550278700.0 -0.5221416562 0.8455666544
3600278400.0 -0.5097304116 0.8528107835
3650278100.0 -0.4968374805 0.860597701
3700277800.0 -0.4843825635 0.8667943022
3750277500.0 -0.4722778685 0.8734058769
3800277200.0 -0.4596067975 0.8798088515
3850276900.0 -0.4477035696 0.885395255
3900276600.0 -0.4369455162 0.8913647083
3950276300.0 -0.4246076315 0.8975866244
4000276000.0 -0.4122819192 0.9035071814
4050275700.0 -0.3996001721 0.9095067573
4100275400.0 -0.388554298 0.9152019379
4150275100.0 -0.3759737392 0.9206595656
4200274800.0 -0.3627358924 0.9263305719
4250274500.0 -0.3502674913 0.9314066392
4300274200.0 -0.3374532652 0.9370108659
4350273900.0 -0.3236259295 0.9419168258
4400273600.0 -0.3089994358 0.947169836
4450273300.0 -0.2937254515 0.9520576857
4500273000.0 -0.2798820948 0.9565455337
4550272700.0 -0.2658609522 0.9607271987
4600272400.0 -0.2503259764 0.9650818714
4650272100.0 -0.2388010733 0.9682314591
4700271800.0 -0.2254155262 0.9716140954
4750271500.0 -0.2137833793 0.9744498848
4800271200.0 -0.2012520847 0.9771455038
4850270900.0 -0.1873041162 0.979917791
4900270600.0 -0.1733931967 0.9825744568
4950270300.0 -0.1591828697 0.984825408
5000270000.0 -0.1449308371 0.9871830053
5050269700.0 -0.1314392369 0.9885006555
5100269400.0 -0.117748034 0.9904162756
5150269100.0 -0.1042470625 0.9920864226
5200268800.0 -0.091323229 0.9932002338
5250268500.0 -0.0779581535 0.9938560321
5300268200.0 -0.0647690272 0.9947858159
5350267900.0 -0.0524280971 0.9951620049
5400267600.0 -0.0364417724 0.996631136
5450267300.0 -0.0231298619 0.996721725
5500267000.0 -0.0079421164 0.9969418613
5550266700.0 0.0067284585 0.9972102521
5600266400.0 0.0223578544 0.9974774894
5650266100.0 0.0388151406 0.9968363108
5700265800.0 0.0534668645 0.99625033
5750265500.0 0.0682876574 0.9953407515
5800265200.0 0.0826188526 0.9945811083
5850264900.0 0.0956408656 0.9935213178
5900264600.0 0.1123843249 0.9913644619
5950264300.0 0.1243397873 0.9902081577
6000264000.0 0.1383356353 0.9885478722
6050263700.0 0.1507401175 0.9868947957
6100263400.0 0.1629136519 0.9849925613
6150263100.0 0.1775349035 0.982942468
6200262800.0 0.1880366258 0.9807679629
6250262500.0 0.2006081607 0.9784727346
6300262200.0 0.2134058627 0.9758904957
6350261900.0 0.2263869365 0.9729409164
6400261600.0 0.2401999851 0.9694775708
6450261300.0 0.2515887247 0.9668479198
6500261000.0 0.2642493946 0.9632466242
6550260700.0 0.277449084 0.959417888
6600260400.0 0.2908618102 0.9553988532
6650260100.0 0.3047480102 0.9511276541
6700259800.0 0.316711454 0.94658878
6750259500.0 0.3303233867 0.9417494376
6800259200.0 0.3437439788 0.9367675466
6850258900.0 0.3561310129 0.9318189464
6900258600.0 0.3680753177 0.9266000806
6950258300.0 0.3803463043 0.9211547235
7000258000.0 0.3925638417 0.9158378852
7050257700.0 0.4047809674 0.9098417524
7100257400.0 0.4175850611 0.9035817848
7150257100.0 0.4279012635 0.8983189743
7200256800.0 0.4408941298 0.8920070242
7250256500.0 0.4526947501 0.8854395959
7300256200.0 0.4657484282 0.8788068355
7350255900.0 0.4778149367 0.8716934167
7400255600.0 0.4913931241 0.8648735901
7450255300.0 0.5070194404 0.8559884946
7500255000.0 0.5185910937 0.8486462093
7550254700.0 0.5321728299 0.8400649397
7600254400.0 0.5448875624 0.8318207165
7650254100.0 0.5565680389 0.8238055777
7700253800.0 0.5683751644 0.8159532462
7750253500.0 0.5796819551 0.808490827
7800253200.0 0.59041893 0.8007007506
7850252900.0 0.6000865274 0.7934657497
7900252600.0 0.6117978311 0.7849890966
7950252300.0 0.6204934224 0.7781673753
8000252000.0 0.6306692697 0.7707131296
8050251700.0 0.6410253547 0.76252546
8100251400.0 0.651217703 0.7543016846
8150251100.0 0.6612924831 0.7458408328
8200250800.0 0.6706286527 0.7377766563
8250250500.0 0.6795122353 0.7297974936
8300250200.0 0.6884300567 0.7211762814
8350249900.0 0.6980384122 0.7126949879
8400249600.0 0.7060057451 0.7043546967
8450249300.0 0.7153765474 0.6954713281
8500249000.0 0.7240594163 0.6864647705
8550248700.0 0.7322530638 0.6773304326
8600248400.0 0.7404942564 0.6679457494
8650248100.0 0.7484824082 0.6584714667
8700247800.0 0.7578110121 0.6473075934
8750247500.0 0.7661655366 0.637153695
8800247200.0 0.774370864 0.6266638611
8850246900.0 0.7830715421 0.6152581661
8900246600.0 0.791415488 0.6039044881
8950246300.0 0.801281971 0.5909506025
9000246000.0 0.8106927353 0.5783580957
9050245700.0 0.8197429538 0.5652221347
9100245400.0 0.8281788046 0.5527407741
9150245100.0 0.8373861952 0.5391226709
9200244800.0 0.8471935977 0.5241153284
9250244500.0 0.8567626644 0.5087546843
9300244200.0 0.864838223 0.4942807599
9350243900.0 0.872672049 0.480456819
9400243600.0 0.8794803443 0.4681242321
9450243300.0 0.8852329112 0.4565420348
9500243000.0 0.8914411495 0.4443674773
9550242700.0 0.8953923885 0.4366269162
9600242400.0 0.8991335383 0.4293683607
9650242100.0 0.9027184028 0.4229132819
9700241800.0 0.9077139116 0.4144428732
9750241500.0 0.9116512022 0.4069261937
9800241200.0 0.9161104506 0.3978561809
9850240900.0 0.9220088272 0.3863068377
9900240600.0 0.9276445056 0.3745369752
9950240300.0 0.9339941093 0.3584493092
10000240000.0 0.9392836285 0.3470132156
10050239700.0 0.9443324508 0.3317200219
10100239400.0 0.9495446396 0.3163160197
10150239100.0 0.9539737423 0.3013747286
10200238800.0 0.9581807615 0.2865267479
10250238500.0 0.961560817 0.2730320844
10300238200.0 0.9646330524 0.2590436475
10350237900.0 0.9671586252 0.2461756598
10400237600.0 0.9695938699 0.2328546648
10450237300.0 0.9724806908 0.2190371118
10500237000.0 0.9747330271 0.2066624264
10550236700.0 0.9769806548 0.1928521596
10600236400.0 0.9789809812 0.1789306875
10650236100.0 0.9814490533 0.1638154701
10700235800.0 0.9834539255 0.1520769002
10750235500.0 0.9854877866 0.1389661388
10800235200.0 0.9876056486 0.1242491874
10850234900.0 0.9895824974 0.1097436933
10900234600.0 0.9917918306 0.0951212321
10950234300.0 0.9934599789 0.0820334763
11000234000.0 0.995073428 0.0668187516
11050233700.0 0.9969661643 0.0505722064
11100233400.0 0.9983328911 0.033443281
11150233100.0 0.9995146009 0.0168607406
11200232800.0 1.000112306 0.0016576489
11250232500.0 1.001207673 -0.0145101366
11300232200.0 1.000795114 -0.0318992219
11350231900.0 1.002072393 -0.0484481592
11400231600.0 1.001419755 -0.0639027146
11450231300.0 1.00115725 -0.079476541
11500231000.0 1.000049889 -0.0950682191
11550230700.0 0.9984759429 -0.1084025018
11600230400.0 0.9974898795 -0.1216745622
11650230100.0 0.9951393029 -0.1331803959
11700229800.0 0.9929546738 -0.1475991511
11750229500.0 0.9905774683 -0.1613482876
11800229200.0 0.9883777076 -0.1759922308
11850228900.0 0.9847404672 -0.1881217294
11900228600.0 0.9810546501 -0.1979698086
11950228300.0 0.9778693428 -0.2080988411
12000228000.0 0.9751799464 -0.2167484483
12050227700.0 0.971533701 -0.230078195
12100227400.0 0.9685836959 -0.2415626101
12150227100.0 0.9635293915 -0.2572416097
12200226800.0 0.9596250137 -0.2688278687
12250226500.0 0.9556458678 -0.2818353944
12300226200.0 0.9517927677 -0.2943279802
12350225900.0 0.9459737188 -0.3077726954
12400225600.0 0.9421896861 -0.3204806057
12450225300.0 0.9377758401 -0.3336630568
12500225000.0 0.9324566931 -0.3484556285
12550224700.0 0.9269476739 -0.3621860577
12600224400.0 0.9219597259 -0.3751372489
12650224100.0 0.9162658992 -0.389476377
12700223800.0 0.9109382447 -0.4023063988
12750223500.0 0.9056447559 -0.415059951
12800223200.0 0.9001488236 -0.4276824937
12850222900.0 0.8946767243 -0.4401679635
12900222600.0 0.8890839567 -0.4524245114
12950222300.0 0.8828387558 -0.4649479286
13000222000.0 0.8768916215 -0.4766413704
13050221700.0 0.8703725406 -0.4890690127
13100221400.0 0.8638023353 -0.5010826972
13150221100.0 0.8564882751 -0.5137412631
13200220800.0 0.8497420232 -0.5248025468
13250220500.0 0.8423208855 -0.5369195552
13300220200.0 0.835196751 -0.5477884783
13350219900.0 0.8270964251 -0.5593650284
13400219600.0 0.8188497121 -0.571493305
13450219300.0 0.8094757872 -0.5849981296
13500219000.0 0.7988367557 -0.5991258107
13550218700.0 0.7891619224 -0.6116551284
13600218400.0 0.7794416333 -0.6234896687
13650218100.0 0.7693369373 -0.6346784727
13700217800.0 0.7586187949 -0.6468338714
13750217500.0 0.7483831796 -0.6589473508
13800217200.0 0.7376357233 -0.6699535558
13850216900.0 0.7263446422 -0.681754587
13900216600.0 0.7164418608 -0.6910774505
13950216300.0 0.7059194928 -0.7006752958
14000216000.0 0.6953425349 -0.709509282
14050215700.0 0.685936646 -0.7183761429
14100215400.0 0.6760872612 -0.7275399887
14150215100.0 0.6670398723 -0.736192441
14200214800.0 0.6577994156 -0.7448005885
14250214500.0 0.6473680272 -0.7540901396
14300214200.0 0.6368999062 -0.7635130711
14350213900.0 0.625838205 -0.773216217
14400213600.0 0.6141205374 -0.7830624016
14450213300.0 0.6008817787 -0.7930440643
14500213000.0 0.5878404293 -0.8027557832
14550212700.0 0.5753690022 -0.8130092986
14600212400.0 0.5625345413 -0.8212287094
14650212100.0 0.5498927348 -0.8297714467
14700211800.0 0.5360669846 -0.8394483925
14750211500.0 0.5242004957 -0.8476340573
14800211200.0 0.5114766854 -0.8557099724
14850210900.0 0.499679092 -0.8631703462
14900210600.0 0.4863190435 -0.8710628561
14950210300.0 0.4728245026 -0.8786762497
15000210000.0 0.4604417847 -0.8854664902
15050209700.0 0.4482461045 -0.8920641281
15100209400.0 0.4350806214 -0.8974795795
15150209100.0 0.4227006973 -0.9033807597
15200208800.0 0.4101873472 -0.9082352148
15250208500.0 0.3985323233 -0.9130059234
15300208200.0 0.3862845104 -0.9172209843
15350207900.0 0.3731889157 -0.9225114908
15400207600.0 0.3581524758 -0.9280606364
15450207300.0 0.3451618432 -0.9330202222
15500207000.0 0.3297337204 -0.9375387323
15550206700.0 0.3146314253 -0.942069579
15600206400.0 0.2989219012 -0.9467419851
15650206100.0 0.2833265512 -0.9511098794
15700205800.0 0.2694016374 -0.9550878392
15750205500.0 0.2549177384 -0.9583473257
15800205200.0 0.2405669103 -0.9620107813
15850204900.0 0.2261676392 -0.9653388683
15900204600.0 0.2110932689 -0.9691027824
15950204300.0 0.1967014352 -0.9720573323
16000204000.0 0.1827670754 -0.9747938051
16050203700.0 0.1679699743 -0.9779299319
16100203400.0 0.1530105992 -0.9796314014
16150203100.0 0.1384587835 -0.9825872156
16200202800.0 0.1243646163 -0.9844423345
16250202500.0 0.1101395656 -0.98597979
16300202200.0 0.0943047823 -0.9877193047
16350201900.0 0.0795507699 -0.9889190435
16400201600.0 0.0647128701 -0.9903684636
16450201300.0 0.0493597846 -0.9910319164
16500201000.0 0.0327168296 -0.9921037875
16550200700.0 0.0172833882 -0.9925147952
16600200400.0 0.001274478 -0.992722967
16650200100.0 -0.0144797503 -0.9927468638
16700199800.0 -0.0308371553 -0.9924196234
16750199500.0 -0.0493907378 -0.9915969065
16800199200.0 -0.0651299148 -0.9908873761
16850198900.0 -0.0801007027 -0.9899535189
16900198600.0 -0.0946128211 -0.9884393019
16950198300.0 -0.1071064314 -0.988064851
17000198000.0 -0.1202684744 -0.9860826934
17050197700.0 -0.1332847164 -0.9843813389
17100197400.0 -0.1458433339 -0.9815145109
17150197100.0 -0.1593054267 -0.9802184734
17200196800.0 -0.1720724995 -0.9779092662
17250196500.0 -0.1844074931 -0.9757379203
17300196200.0 -0.1965967188 -0.9734565852
17350195900.0 -0.2084517619 -0.9711128691
17400195600.0 -0.2207881486 -0.9687179179
17450195300.0 -0.2339443467 -0.9658311086
17500195000.0 -0.2473966837 -0.9627362475
17550194700.0 -0.2612700215 -0.9588878161
17600194400.0 -0.275412048 -0.9551912148
17650194100.0 -0.2892129238 -0.9509970634
17700193800.0 -0.3017922508 -0.9467438785
17750193500.0 -0.3166492737 -0.9420478602
17800193200.0 -0.3309696139 -0.9371851777
17850192900.0 -0.3461847854 -0.9319137619
17900192600.0 -0.3608379544 -0.9253262217
17950192300.0 -0.3767678463 -0.9184946701
18000192000.0 -0.3914930348 -0.9112300959
18050191700.0 -0.4055529255 -0.9033284207
18100191400.0 -0.4196084756 -0.8957523851
18150191100.0 -0.434558704 -0.8877822152
18200190800.0 -0.4515305026 -0.8786237374
18250190500.0 -0.4683007185 -0.869053932
18300190200.0 -0.4842292819 -0.8600705357
18350189900.0 -0.4990138203 -0.8518569118
18400189600.0 -0.5134523107 -0.8433455075
18450189300.0 -0.5268472432 -0.8357594332
18500189000.0 -0.5402099098 -0.827907817
18550188700.0 -0.5527619358 -0.8201140007
18600188400.0 -0.5645695833 -0.8131352626
18650188100.0 -0.575878631 -0.8070177007
18700187800.0 -0.5865751585 -0.8005852979
18750187500.0 -0.5969392668 -0.7939581875
18800187200.0 -0.6074913022 -0.7870261113
18850186900.0 -0.6177329726 -0.779989265
18900186600.0 -0.6279315579 -0.7726656394
18950186300.0 -0.6379354712 -0.7650274354
19000186000.0 -0.6450898809 -0.7590889411
19050185700.0 -0.654191283 -0.7516384066
19100185400.0 -0.6639463213 -0.7436732432
19150185100.0 -0.6745772001 -0.7347739936
19200184800.0 -0.6843225382 -0.725953449
19250184500.0 -0.6938366672 -0.7172764094
19300184200.0 -0.7054830403 -0.7081325072
19350183900.0 -0.7168744605 -0.6979349513
19400183600.0 -0.7263743028 -0.6884744687
19450183300.0 -0.7344498117 -0.6784336412
19500183000.0 -0.743193501 -0.6683130329
19550182700.0 -0.7528329015 -0.6568234964
19600182400.0 -0.7637895308 -0.6459495494
19650182100.0 -0.7744023286 -0.6333932641
19700181800.0 -0.7847646674 -0.6198786525
19750181500.0 -0.7955587212 -0.6057554399
19800181200.0 -0.8058214338 -0.5909097275
19850180900.0 -0.815675039 -0.5756141658
19900180600.0 -0.8236062122 -0.5609184459
19950180300.0 -0.8324911257 -0.5446931361
20000180000.0 -0.8256695626 -0.5464839504
20050179700.0 -0.8336458951 -0.5334230581
20100179400.0 -0.8420645385 -0.5203987626
20150179100.0 -0.8499229476 -0.5076439524
20200178800.0 -0.8593242584 -0.4954154815
20250178500.0 -0.8692337833 -0.4811629707
20300178200.0 -0.8779481501 -0.4671537976
20350177900.0 -0.8872947828 -0.4528333926
20400177600.0 -0.8962035389 -0.4382520055
20450177300.0 -0.904647896 -0.424136385
20500177000.0 -0.9125231612 -0.4099687013
20550176700.0 -0.9205114566 -0.3968323266
20600176400.0 -0.9276981467 -0.3836903458
20650176100.0 -0.9337030178 -0.3714371502
20700175800.0 -0.9406909983 -0.3592085011
20750175500.0 -0.9469077318 -0.3479428493
20800175200.0 -0.9521497493 -0.3366609819
20850174900.0 -0.9578201722 -0.3264913657
20900174600.0 -0.9615834943 -0.3148550987
20950174300.0 -0.9652567225 -0.3030704023
21000174000.0 -0.9685822362 -0.2926574484
21050173700.0 -0.9718115513 -0.2810390691
21100173400.0 -0.9750894812 -0.2692355973
21150173100.0 -0.9792180222 -0.2568235304
21200172800.0 -0.982697296 -0.2437825039
21250172500.0 -0.9859338855 -0.2295377798
21300172200.0 -0.988654993 -0.2160218219
21350171900.0 -0.9905384451 -0.2012345071
21400171600.0 -0.992144995 -0.1875997886
21450171300.0 -0.9923912249 -0.1726978791
21500171000.0 -0.992450776 -0.1567748158
21550170700.0 -0.9920183126 -0.1422003087
21600170400.0 -0.991653221 -0.1259757859
21650170100.0 -0.9915224778 -0.1102857063
21700169800.0 -0.9899453398 -0.0948951263
21750169500.0 -0.9898055769 -0.0788546746
21800169200.0 -0.9897566679 -0.0625432159
21850168900.0 -0.9886615747 -0.0458950315
21900168600.0 -0.986235456 -0.0294579069
21950168300.0 -0.9851395582 -0.0138950433
22000168000.0 -0.9840856562 0.0010209719
22050167700.0 -0.9841754315 0.0155147395
22100167400.0 -0.9842655881 0.0309217974
22150167100.0 -0.98461367 0.0463909806
22200166800.0 -0.9856958551 0.062645338
22250166500.0 -0.9848798784 0.0799216551
22300166200.0 -0.9831976926 0.0964219103
22350165900.0 -0.9831028968 0.1124440935
22400165600.0 -0.9808421274 0.1283090989
22450165300.0 -0.9794439641 0.1436332848
22500165000.0 -0.9773965015 0.156626101
22550164700.0 -0.9766124547 0.1729457054
22600164400.0 -0.975246087 0.1882566013
22650164100.0 -0.9712417498 0.2025448554
22700163800.0 -0.9691143505 0.2193682396
22750163500.0 -0.9671857246 0.2344732936
22800163200.0 -0.9642914838 0.2472520859
22850162900.0 -0.9618784954 0.26043661
22900162600.0 -0.9601719807 0.2738914911
22950162300.0 -0.9592490437 0.2866438341
23000162000.0 -0.9578140317 0.298593105
23050161700.0 -0.9559751913 0.3109835521
23100161400.0 -0.9536738283 0.3244263369
23150161100.0 -0.9515286136 0.3366199542
23200160800.0 -0.9483746077 0.3486126018
23250160500.0 -0.9454042332 0.3610366297
23300160200.0 -0.9423192797 0.3733838137
23350159900.0 -0.9379420458 0.3863132424
23400159600.0 -0.9341578744 0.3995478445
23450159300.0 -0.929308927 0.4124374095
23500159000.0 -0.9245930425 0.4263349798
23550158700.0 -0.9202402188 0.4391821337
23600158400.0 -0.9145031209 0.452644977
23650158100.0 -0.9083111016 0.4666725175
23700157800.0 -0.9007938182 0.4805986148
23750157500.0 -0.8921003337 0.4947239308
23800157200.0 -0.8832556457 0.5079091733
23850156900.0 -0.8753116545 0.5207253459
23900156600.0 -0.8655169957 0.5336818633
23950156300.0 -0.8558431769 0.5462164008
24000156000.0 -0.8471808071 0.5575411981
24050155700.0 -0.8365845079 0.5696218591
24100155400.0 -0.8273262805 0.5813455597
24150155100.0 -0.8159951027 0.5936012143
24200154800.0 -0.8051627387 0.6051396446
24250154500.0 -0.7939176147 0.6162029591
24300154200.0 -0.783249212 0.6282605754
24350153900.0 -0.7711840745 0.6385245747
24400153600.0 -0.7586370927 0.6490733451
24450153300.0 -0.7467781264 0.6588764661
24500153000.0 -0.7355709764 0.6688471821
24550152700.0 -0.7248602929 0.6780714307
24600152400.0 -0.7124255861 0.6879766353
24650152100.0 -0.7011724942 0.696174467
