!Created with skrf (http://scikit-rf.org).
# Hz S RI R 50.0 
!freq ReS11 ImS11
300000.0 -0.9747047203 -0.1203369397
50299700.0 -0.9999967155 0.0153116174
100299400.0 -0.998053946 0.0283044537
150299100.0 -1.002829873 0.045131031
200298800.0 -0.999496344 0.058364778
250298500.0 -0.9973292624 0.0718629999
300298200.0 -0.9858723691 0.0877340419
350297900.0 -0.9938851216 0.0986205636
400297600.0 -0.9932910299 0.1151526842
450297300.0 -0.991110801 0.1290218935
500297000.0 -0.9894043163 0.1437019928
550296700.0 -0.9843785581 0.1561965212
600296400.0 -1.017545195 0.1893930388
650296100.0 -0.9822147091 0.186058796
700295800.0 -0.979270084 0.2002750827
750295500.0 -0.9763473639 0.2143375132
800295200.0 -0.9730687117 0.2284291345
850294900.0 -0.9695656496 0.2424109054
900294600.0 -0.9657808184 0.2560469208
950294300.0 -0.962014004 0.2696445002
1000294000.0 -0.9579702735 0.2835988873
1050293700.0 -0.9535969428 0.2973623362
1100293400.0 -0.9493640052 0.3117740287
1150293100.0 -0.9456222555 0.3236664521
1200292800.0 -0.9402769676 0.3381307334
1250292500.0 -0.9347951209 0.3514093243
1300292200.0 -0.9289374787 0.3647279531
1350291900.0 -0.9233928242 0.3787247618
1400291600.0 -0.9178660457 0.3918586835
1450291300.0 -0.9124017465 0.4043440768
1500291000.0 -0.9062016435 0.4177922088
1550290700.0 -0.899706089 0.4309695476
1600290400.0 -0.8934808987 0.4438898658
1650290100.0 -0.8868501461 0.4560803023
1700289800.0 -0.8799873332 0.4694052819
1750289500.0 -0.8728660642 0.4818172411
1800289200.0 -0.865662088 0.4945905019
1850288900.0 -0.8588267921 0.505969461
1900288600.0 -0.850963531 0.519136662
1950288300.0 -0.8429602389 0.5316495306
2000288000.0 -0.835498832 0.5430205133
2050287700.0 -0.8273385958 0.5552307458
2100287400.0 -0.8193931977 0.56702519
2150287100.0 -0.8106238412 0.5787827969
2200286800.0 -0.8028681562 0.5894249017
2250286500.0 -0.7942011817 0.6013339157
2300286200.0 -0.785156655 0.6130953877
2350285900.0 -0.7768106601 0.6239167676
2400285600.0 -0.7675883495 0.6348521384
2450285300.0 -0.7589124919 0.6454405239
2500285000.0 -0.7495031466 0.6566955515
2550284700.0 -0.7402534555 0.6668862206
2600284400.0 -0.7311410839 0.6769805527
2650284100.0 -0.7222785505 0.6875747415
2700283800.0 -0.7114970884 0.6979830382
2750283500.0 -0.7011034303 0.7086291864
2800283200.0 -0.6914853376 0.7186986365
2850282900.0 -0.6810438485 0.7281722543
2900282600.0 -0.6708299548 0.7377711195
2950282300.0 -0.6606774428 0.7471474369
3000282000.0 -0.6498963886 0.75671846
3050281700.0 -0.6387410747 0.7658288049
3100281400.0 -0.6268372288 0.7752868844
3150281100.0 -0.6150863977 0.7846280661
3200280800.0 -0.6033906553 0.79315527
3250280500.0 -0.5925878937 0.8008294171
3300280200.0 -0.5812706283 0.8086611913
3350279900.0 -0.5695801524 0.8164242461
3400279600.0 -0.5575937076 0.8240547981
3450279300.0 -0.5465656918 0.8311792548
3500279000.0 -0.534194814 0.8383648043
3550278700.0 -0.5219600214 0.8453669926
3600278400.0 -0.5098702325 0.8527166094
3650278100.0 -0.4964668951 0.8602508647
3700277800.0 -0.4845368377 0.8667947545
3750277500.0 -0.472211806 0.8731961195
3800277200.0 -0.4599938592 0.879713538
3850276900.0 -0.4479024409 0.8859009672
3900276600.0 -0.4368874284 0.8911531137
3950276300.0 -0.4245531232 0.8973941827
4000276000.0 -0.4123635106 0.9034871114
4050275700.0 -0.3998297856 0.9095357205
4100275400.0 -0.3886643143 0.914711113
4150275100.0 -0.3760295508 0.9207407
4200274800.0 -0.3628895273 0.926139678
4250274500.0 -0.3505715688 0.9313568266
4300274200.0 -0.3376036228 0.9367659412
4350273900.0 -0.3236458277 0.9421686059
4400273600.0 -0.3089016942 0.9472835495
4450273300.0 -0.2937290681 0.9522701004
4500273000.0 -0.2800064044 0.9566423253
4550272700.0 -0.2660446788 0.960754103
4600272400.0 -0.2505834343 0.9650388354
4650272100.0 -0.2387273236 0.9682426267
4700271800.0 -0.2254579769 0.9715916103
4750271500.0 -0.2137745237 0.9742822801
4800271200.0 -0.2012790152 0.9772172265
4850270900.0 -0.1873544187 0.9798105823
4900270600.0 -0.1735159303 0.9824505351
4950270300.0 -0.1592984837 0.984958367
5000270000.0 -0.1449533496 0.9870643072
5050269700.0 -0.1316984355 0.9885886781
5100269400.0 -0.1177042169 0.9904252673
5150269100.0 -0.1041510307 0.9920518327
5200268800.0 -0.0910652145 0.992678459
5250268500.0 -0.077833526 0.9939072766
5300268200.0 -0.0648724172 0.9943111541
5350267900.0 -0.0525453286 0.9951291303
5400267600.0 -0.0362218618 0.9963989096
5450267300.0 -0.0233290117 0.9967462486
5500267000.0 -0.008214861 0.9970816979
5550266700.0 0.0069171995 0.9972482791
5600266400.0 0.022162525 0.9969953805
5650266100.0 0.038876862 0.9970193742
5700265800.0 0.0532451198 0.9961869451
5750265500.0 0.0683883428 0.9954452019
5800265200.0 0.082474854 0.9945247961
5850264900.0 0.0957890336 0.9937495881
5900264600.0 0.112145647 0.99166339
5950264300.0 0.1242731921 0.9901201176
6000264000.0 0.1382857046 0.9885167728
6050263700.0 0.1505894941 0.9869498594
6100263400.0 0.16305086 0.985084097
6150263100.0 0.1775409839 0.9827675835
6200262800.0 0.1878127063 0.9809732225
6250262500.0 0.2007633088 0.9783671636
6300262200.0 0.2134708154 0.975743223
6350261900.0 0.226224165 0.9729267719
6400261600.0 0.240268523 0.9697905384
6450261300.0 0.2516762818 0.9668593831
6500261000.0 0.2642984639 0.9632195347
6550260700.0 0.277392525 0.959347982
6600260400.0 0.2906842454 0.9551996085
6650260100.0 0.304692312 0.9508883664
6700259800.0 0.3166431581 0.9467791373
6750259500.0 0.3308982437 0.9420663961
6800259200.0 0.3435929891 0.9367607679
6850258900.0 0.3558404209 0.9315964855
6900258600.0 0.3678351085 0.9265837763
6950258300.0 0.3805382968 0.9214512888
7000258000.0 0.3925125544 0.9158805029
7050257700.0 0.4046109926 0.9099631363
7100257400.0 0.4175670157 0.9036423159
7150257100.0 0.427907991 0.8981703972
7200256800.0 0.4406517203 0.8919052173
7250256500.0 0.4524959326 0.8854624053
7300256200.0 0.4658024789 0.8788662261
7350255900.0 0.4779674206 0.871974037
7400255600.0 0.491504956 0.8649699266
7450255300.0 0.5065967266 0.8556921228
7500255000.0 0.519020819 0.8485535954
7550254700.0 0.5325721445 0.839958804
7600254400.0 0.5452649605 0.8316672772
7650254100.0 0.5565397951 0.8238762449
7700253800.0 0.5684735869 0.8158884171
7750253500.0 0.5796923257 0.8082963227
7800253200.0 0.5903236979 0.8006967208
7850252900.0 0.6001064593 0.7935913237
7900252600.0 0.6116671911 0.7846523617
7950252300.0 0.6203343245 0.7784423698
8000252000.0 0.6303585614 0.7706514106
8050251700.0 0.64125673 0.7624530078
8100251400.0 0.6508410767 0.7543287388
8150251100.0 0.661184852 0.7456285863
8200250800.0 0.670482868 0.7376492571
8250250500.0 0.680095081 0.7296188228
8300250200.0 0.6888178598 0.7210740504
8350249900.0 0.6978905545 0.7124074043
8400249600.0 0.7061362774 0.7043185992
8450249300.0 0.715139588 0.6950006285
8500249000.0 0.7237715928 0.686303902
8550248700.0 0.7322293942 0.6771259014
8600248400.0 0.7407816111 0.6676521953
8650248100.0 0.7483919538 0.6582547853
8700247800.0 0.7579480398 0.6470833154
8750247500.0 0.7662928176 0.6368585593
8800247200.0 0.7744076137 0.626592738
8850246900.0 0.7831346008 0.6151633674
8900246600.0 0.7915122344 0.6040309323
8950246300.0 0.8008921532 0.5910584107
9000246000.0 0.8102431208 0.5779861958
9050245700.0 0.8193140504 0.5653157008
9100245400.0 0.8281364687 0.5529781871
9150245100.0 0.8371108894 0.539391838
9200244800.0 0.8472635278 0.5241334405
9250244500.0 0.8564119743 0.5088964245
9300244200.0 0.8647045867 0.4945943493
9350243900.0 0.8724286608 0.4808961451
9400243600.0 0.8790711028 0.4683966586
9450243300.0 0.8850861365 0.4569708646
9500243000.0 0.8913060508 0.4448696322
9550242700.0 0.8950189094 0.4371229519
9600242400.0 0.8990341601 0.4296786915
9650242100.0 0.9025882095 0.4231930396
9700241800.0 0.9072892245 0.4148943716
9750241500.0 0.9114857724 0.4072094684
9800241200.0 0.9163524065 0.3979114486
9850240900.0 0.9217381629 0.3866507197
9900240600.0 0.9275619662 0.3747530305
9950240300.0 0.9341786688 0.3587345222
10000240000.0 0.9385582069 0.3467899683
10050239700.0 0.944514013 0.3318387123
10100239400.0 0.9493628827 0.3165540204
10150239100.0 0.9540160359 0.301422333
10200238800.0 0.9579321205 0.2863484818
10250238500.0 0.961402152 0.2728881688
10300238200.0 0.9645937211 0.2589356478
10350237900.0 0.9671884363 0.2459491283
10400237600.0 0.9696348712 0.2328663178
10450237300.0 0.9724062425 0.2191861206
10500237000.0 0.9747332185 0.2069579801
10550236700.0 0.9769391837 0.1928451251
10600236400.0 0.9793697133 0.1785923703
10650236100.0 0.9809118652 0.1640760996
10700235800.0 0.9829453005 0.1523409896
10750235500.0 0.9856570133 0.1385308269
10800235200.0 0.9873643589 0.1246360371
10850234900.0 0.9895573705 0.1096015596
10900234600.0 0.9914026048 0.0953179689
10950234300.0 0.9933335961 0.081903017
11000234000.0 0.9952095204 0.0667630205
11050233700.0 0.9970114543 0.0503516635
11100233400.0 0.9983688737 0.0330170962
11150233100.0 0.9995964509 0.0167344317
11200232800.0 1.000290556 0.0014875079
11250232500.0 1.001552953 -0.0150220979
11300232200.0 1.00185859 -0.0327518191
11350231900.0 1.001822705 -0.048963543
11400231600.0 1.001501528 -0.0642792133
11450231300.0 1.001228823 -0.0792815341
11500231000.0 1.000190481 -0.0960200541
11550230700.0 0.998991609 -0.1089608282
11600230400.0 0.9974146175 -0.1222069676
11650230100.0 0.9951227497 -0.1332669799
11700229800.0 0.993030878 -0.1481753882
11750229500.0 0.9908346295 -0.1620880086
11800229200.0 0.9882487819 -0.1757500611
11850228900.0 0.9845450461 -0.188353078
11900228600.0 0.9808889907 -0.1980953826
11950228300.0 0.9775073849 -0.2083066612
12000228000.0 0.9752001969 -0.2174624343
12050227700.0 0.9714746579 -0.2303288483
12100227400.0 0.9681570818 -0.2409759989
12150227100.0 0.9633405927 -0.2588168105
12200226800.0 0.9596000981 -0.26889309
12250226500.0 0.9560171379 -0.2821623515
12300226200.0 0.9514227727 -0.2940906935
12350225900.0 0.9463479136 -0.3081702139
12400225600.0 0.9418035539 -0.3210067622
12450225300.0 0.9376516172 -0.3335240268
12500225000.0 0.9323248808 -0.3485639197
12550224700.0 0.9266489031 -0.3619433573
12600224400.0 0.9219875035 -0.3750531996
12650224100.0 0.9161554311 -0.3894969068
12700223800.0 0.9108613603 -0.4022732397
12750223500.0 0.9052709521 -0.4153451049
12800223200.0 0.8999960376 -0.4280121119
12850222900.0 0.8945943333 -0.43984608
12900222600.0 0.8890993883 -0.4520942001
12950222300.0 0.8827524571 -0.4647429944
13000222000.0 0.876951142 -0.4758561217
13050221700.0 0.8705504087 -0.4888328428
13100221400.0 0.8635752789 -0.501242924
13150221100.0 0.8568776415 -0.5129790029
13200220800.0 0.8495282847 -0.5248181683
13250220500.0 0.8424640316 -0.5368415959
13300220200.0 0.8349760602 -0.5477172124
13350219900.0 0.8270808208 -0.5594562443
13400219600.0 0.8186972381 -0.5718542047
13450219300.0 0.8094213228 -0.5853398437
13500219000.0 0.7990804169 -0.5992642297
13550218700.0 0.7894136005 -0.6118380699
13600218400.0 0.7789745451 -0.6237623376
13650218100.0 0.7690537283 -0.6347024269
13700217800.0 0.7585513647 -0.6467253455
13750217500.0 0.7483949552 -0.6586011747
13800217200.0 0.7375529991 -0.6699369961
13850216900.0 0.7255201527 -0.6816666618
13900216600.0 0.7162941206 -0.6902827484
13950216300.0 0.7056597741 -0.7005768024
14000216000.0 0.6956957809 -0.7099547292
14050215700.0 0.6862692247 -0.7181165921
14100215400.0 0.6763786461 -0.7275858515
14150215100.0 0.6673000367 -0.7360402597
14200214800.0 0.6576653901 -0.7445959825
14250214500.0 0.6472724204 -0.7541504566
14300214200.0 0.6368548135 -0.7634522243
14350213900.0 0.6257077247 -0.7731505006
14400213600.0 0.6136362009 -0.7830960568
14450213300.0 0.6008854074 -0.7932927939
14500213000.0 0.5875924316 -0.8027003527
14550212700.0 0.5752106634 -0.812528875
14600212400.0 0.5628587501 -0.821409814
14650212100.0 0.5499064795 -0.8303516371
14700211800.0 0.5359194946 -0.8395001143
14750211500.0 0.5238986423 -0.848329369
14800211200.0 0.5113097214 -0.8557132601
14850210900.0 0.4996043932 -0.8633228201
14900210600.0 0.4861636524 -0.8711680145
14950210300.0 0.4728844613 -0.878611052
15000210000.0 0.460395653 -0.8855973567
15050209700.0 0.4477968085 -0.891774332
15100209400.0 0.4351871134 -0.8976311324
15150209100.0 0.423041574 -0.9032611626
15200208800.0 0.4102502472 -0.9083362222
15250208500.0 0.3986921377 -0.9130038475
15300208200.0 0.3865842005 -0.9177884198
15350207900.0 0.3737650071 -0.9220803123
15400207600.0 0.3587485765 -0.9278576759
15450207300.0 0.343349951 -0.933379004
15500207000.0 0.329993028 -0.9368707769
15550206700.0 0.3151367923 -0.9422851455
15600206400.0 0.2996341176 -0.9469005275
15650206100.0 0.28365089 -0.9512167274
15700205800.0 0.2697415983 -0.9549220525
15750205500.0 0.2550033707 -0.9580708132
15800205200.0 0.2408191113 -0.9619051113
15850204900.0 0.2261826353 -0.9653360263
15900204600.0 0.2110795459 -0.9689764625
15950204300.0 0.1969796759 -0.9719022906
16000204000.0 0.1829515852 -0.9749011679
16050203700.0 0.1680585202 -0.9780146199
16100203400.0 0.1530981114 -0.9796938146
16150203100.0 0.1388236799 -0.9825625106
16200202800.0 0.1246890046 -0.9844099678
16250202500.0 0.1098641042 -0.9862387816
16300202200.0 0.0941209014 -0.9877398848
16350201900.0 0.0793374478 -0.9895335888
16400201600.0 0.0646917584 -0.9903302847
16450201300.0 0.0496522765 -0.9914630261
16500201000.0 0.0330121604 -0.9921660714
16550200700.0 0.0172185643 -0.99248994
16600200400.0 0.0016382459 -0.9929388765
16650200100.0 -0.0145111796 -0.9924684082
16700199800.0 -0.030557143 -0.9926548993
16750199500.0 -0.0494498541 -0.9918027881
16800199200.0 -0.0652941049 -0.9903903212
16850198900.0 -0.0798680507 -0.9896557206
16900198600.0 -0.0940416724 -0.9889054136
16950198300.0 -0.1067546552 -0.9878578145
17000198000.0 -0.1205824578 -0.986721497
17050197700.0 -0.1334481339 -0.9841628539
17100197400.0 -0.1463656654 -0.982083583
17150197100.0 -0.1592073645 -0.9799760527
17200196800.0 -0.1716227143 -0.9780068365
17250196500.0 -0.1847023249 -0.9757700679
17300196200.0 -0.1966067474 -0.9735477461
17350195900.0 -0.2086389972 -0.9712430183
17400195600.0 -0.2207312011 -0.968845213
17450195300.0 -0.2338876302 -0.9659580777
17500195000.0 -0.2471711558 -0.9626893807
17550194700.0 -0.2611001454 -0.9591063339
17600194400.0 -0.2750977437 -0.9548101288
17650194100.0 -0.2888208654 -0.9510734937
17700193800.0 -0.3019307289 -0.9465946204
17750193500.0 -0.3162738802 -0.9425485627
17800193200.0 -0.3309229396 -0.936915458
17850192900.0 -0.3462561714 -0.9319147132
17900192600.0 -0.3611046912 -0.925394888
17950192300.0 -0.3765570699 -0.9184947625
18000192000.0 -0.3913184467 -0.9113678888
18050191700.0 -0.4049454917 -0.9033853444
18100191400.0 -0.4194009313 -0.8958373551
18150191100.0 -0.434493179 -0.8877631551
18200190800.0 -0.4515548781 -0.8784656872
18250190500.0 -0.4684933904 -0.8690532345
18300190200.0 -0.483727432 -0.8603994378
18350189900.0 -0.4991300281 -0.8523995051
18400189600.0 -0.5134285548 -0.8438141598
18450189300.0 -0.5266157425 -0.8359479976
18500189000.0 -0.5397139602 -0.8283412943
18550188700.0 -0.5524736814 -0.8202004903
18600188400.0 -0.5646035112 -0.8135666038
18650188100.0 -0.5751378897 -0.8072480109
18700187800.0 -0.5860365923 -0.800599114
18750187500.0 -0.5967189376 -0.7940092051
18800187200.0 -0.6070989252 -0.7872756455
18850186900.0 -0.6174288172 -0.7801157142
18900186600.0 -0.627842202 -0.7727420415
18950186300.0 -0.6375172631 -0.7650239069
19000186000.0 -0.6445768518 -0.7589040643
19050185700.0 -0.6542447241 -0.7517612108
19100185400.0 -0.6644033923 -0.7438655464
19150185100.0 -0.6739795576 -0.7349281565
19200184800.0 -0.6833886948 -0.726907353
19250184500.0 -0.693444593 -0.7176732155
19300184200.0 -0.7050800009 -0.7081968414
19350183900.0 -0.7165526407 -0.6984573076
19400183600.0 -0.7253591501 -0.6880043582
19450183300.0 -0.7340900359 -0.6783746328
19500183000.0 -0.7423460151 -0.6685276925
19550182700.0 -0.7532408095 -0.657787027
19600182400.0 -0.7632487891 -0.6460816955
19650182100.0 -0.7739187761 -0.6336368656
19700181800.0 -0.7843909842 -0.6200855454
19750181500.0 -0.7951142448 -0.6060617466
19800181200.0 -0.8054162008 -0.5909768916
19850180900.0 -0.8154770383 -0.5758606264
19900180600.0 -0.8231585031 -0.5612566333
19950180300.0 -0.8326025053 -0.5448558059
20000180000.0 -0.8251630712 -0.547145074
20050179700.0 -0.8340014293 -0.5340018498
20100179400.0 -0.8423446658 -0.5208405855
20150179100.0 -0.8501428482 -0.5077006159
20200178800.0 -0.8586877731 -0.4953761816
20250178500.0 -0.8689517238 -0.4821137332
20300178200.0 -0.8785371506 -0.4674573885
20350177900.0 -0.887181231 -0.4529424979
20400177600.0 -0.8963510174 -0.4387236749
20450177300.0 -0.9045632431 -0.424279088
20500177000.0 -0.9126136877 -0.4103879119
20550176700.0 -0.9205136866 -0.3970794403
20600176400.0 -0.9275797066 -0.3834422292
20650176100.0 -0.9335626029 -0.3715304317
20700175800.0 -0.9408415903 -0.3595778804
20750175500.0 -0.9473661009 -0.3474810463
20800175200.0 -0.9514026457 -0.3371359986
20850174900.0 -0.9559717695 -0.3261967835
20900174600.0 -0.9612195253 -0.3149097369
20950174300.0 -0.9651887943 -0.3039948061
21000174000.0 -0.9685821363 -0.2927336098
21050173700.0 -0.9707704189 -0.2813889983
21100173400.0 -0.975713919 -0.2700524315
21150173100.0 -0.9790853624 -0.2578433998
21200172800.0 -0.9829167214 -0.2437857733
21250172500.0 -0.985851944 -0.2301829903
21300172200.0 -0.9883544493 -0.2161073526
21350171900.0 -0.9899781861 -0.201821897
21400171600.0 -0.9916962507 -0.1874967326
21450171300.0 -0.9921204562 -0.1727045976
21500171000.0 -0.9924285111 -0.1571830338
21550170700.0 -0.9924901982 -0.1421710501
21600170400.0 -0.9914374714 -0.126488875
21650170100.0 -0.9913854559 -0.1108098064
21700169800.0 -0.9905365585 -0.095768163
21750169500.0 -0.989043317 -0.0793542074
21800169200.0 -0.988115674 -0.0631403167
21850168900.0 -0.9878398002 -0.0462289036
21900168600.0 -0.9860465659 -0.029715479
21950168300.0 -0.9854084556 -0.0143738373
22000168000.0 -0.9844611559 0.0005367803
22050167700.0 -0.9841995451 0.0149918576
22100167400.0 -0.9845118098 0.0305151364
22150167100.0 -0.9848474033 0.0457608082
22200166800.0 -0.9856335262 0.0620767141
22250166500.0 -0.9850149859 0.079883926
22300166200.0 -0.9841208427 0.0961043272
22350165900.0 -0.982080162 0.1126763712
22400165600.0 -0.9816386081 0.1290151224
22450165300.0 -0.9800290255 0.1438958861
22500165000.0 -0.9774050975 0.1576376474
22550164700.0 -0.9766908435 0.1722713734
22600164400.0 -0.9739372708 0.1878307174
22650164100.0 -0.9721993609 0.2023838114
22700163800.0 -0.9701321838 0.2183034543
22750163500.0 -0.9673270252 0.2339483528
22800163200.0 -0.9640103639 0.2469551857
22850162900.0 -0.9621309157 0.2605376016
22900162600.0 -0.9603950351 0.2738725729
22950162300.0 -0.9593200602 0.2863680317
23000162000.0 -0.9581289567 0.2988703891
23050161700.0 -0.9560613449 0.3110724981
23100161400.0 -0.9538660513 0.3242806012
23150161100.0 -0.9507322532 0.3366917705
23200160800.0 -0.9479658828 0.3486211876
23250160500.0 -0.9451196355 0.3603405821
23300160200.0 -0.9421168583 0.3728725539
23350159900.0 -0.9386485613 0.3861260085
23400159600.0 -0.9346473857 0.3988419055
23450159300.0 -0.9292393221 0.4124655439
23500159000.0 -0.9250306643 0.4256336673
23550158700.0 -0.9201149816 0.4393944267
23600158400.0 -0.9149839811 0.4524638603
23650158100.0 -0.9083661115 0.4666440388
23700157800.0 -0.9007949189 0.480245191
23750157500.0 -0.8923156572 0.4946826884
23800157200.0 -0.8831266161 0.5081885777
23850156900.0 -0.8751915709 0.5204025724
23900156600.0 -0.8655713983 0.532985484
23950156300.0 -0.8556538312 0.5454207071
24000156000.0 -0.8473352078 0.557647425
24050155700.0 -0.8362873468 0.5697696197
24100155400.0 -0.8277101871 0.5818691852
24150155100.0 -0.8169422696 0.5933645474
24200154800.0 -0.8053035423 0.604534777
24250154500.0 -0.7942846856 0.616641624
24300154200.0 -0.7826090651 0.6279712605
24350153900.0 -0.7709388887 0.6385772152
24400153600.0 -0.7587190873 0.6488685995
24450153300.0 -0.7473361887 0.6587261637
24500153000.0 -0.7354524305 0.6685483417
24550152700.0 -0.7243370096 0.6783640011
24600152400.0 -0.7129172311 0.6869998844
24650152100.0 -0.7017107067 0.6958228894
