!Created with skrf (http://scikit-rf.org).
# Hz S RI R 50.0 
!freq ReS11 ImS11
300000.0 -0.9746997358 -0.1179686677
50299700.0 -1.000093258 0.0153449077
100299400.0 -0.9979267325 0.0282901483
150299100.0 -1.002903704 0.0451790269
200298800.0 -0.9997043862 0.0583899129
250298500.0 -0.9973204832 0.071821762
300298200.0 -0.9859956549 0.0877868855
350297900.0 -0.9938608379 0.0986866529
400297600.0 -0.9932040192 0.115051516
450297300.0 -0.9910311621 0.1289174768
500297000.0 -0.9895204538 0.1438032841
550296700.0 -0.9843030605 0.1560390714
600296400.0 -1.017194373 0.1895421979
650296100.0 -0.9823010119 0.1861736727
700295800.0 -0.9792203128 0.2002557292
750295500.0 -0.9762580811 0.2144336235
800295200.0 -0.9730266433 0.2285521158
850294900.0 -0.9696056994 0.24250401
900294600.0 -0.9658558018 0.255952261
950294300.0 -0.9619919943 0.2697762878
1000294000.0 -0.9581393514 0.2837399123
1050293700.0 -0.953540952 0.2974784227
1100293400.0 -0.9492936048 0.3119164546
1150293100.0 -0.9454326176 0.3238623588
1200292800.0 -0.9401164573 0.3380540542
1250292500.0 -0.9346373575 0.3515652469
1300292200.0 -0.9290915035 0.3647745856
1350291900.0 -0.9234230136 0.3788915911
1400291600.0 -0.9179829004 0.3919099716
1450291300.0 -0.9123684203 0.4042475892
1500291000.0 -0.9062299478 0.4175712694
1550290700.0 -0.8996333761 0.4309471068
1600290400.0 -0.8933969478 0.4438591063
1650290100.0 -0.8868718565 0.4561214739
1700289800.0 -0.8798594329 0.4694087334
1750289500.0 -0.8727848006 0.4819364526
1800289200.0 -0.8655871937 0.4947659856
1850288900.0 -0.8585084613 0.5061275693
1900288600.0 -0.8509561241 0.5193462365
1950288300.0 -0.8429959064 0.5314455318
2000288000.0 -0.8355646512 0.5430372283
2050287700.0 -0.8272967296 0.5551894879
2100287400.0 -0.819232192 0.566984714
2150287100.0 -0.8106221158 0.5788972692
2200286800.0 -0.803072482 0.5893556082
2250286500.0 -0.7941893491 0.6013273381
2300286200.0 -0.7852763178 0.613131547
2350285900.0 -0.7764496167 0.6240821246
2400285600.0 -0.767560644 0.6348637973
2450285300.0 -0.7590237384 0.6454290928
2500285000.0 -0.7493311971 0.6565088635
2550284700.0 -0.7404859685 0.666949093
2600284400.0 -0.7308856484 0.6773190806
2650284100.0 -0.721918736 0.6873549209
2700283800.0 -0.7114803349 0.6980531266
2750283500.0 -0.7007105842 0.708523601
2800283200.0 -0.6913837249 0.718465626
2850282900.0 -0.6810405797 0.7283689645
2900282600.0 -0.6707284593 0.7377979965
2950282300.0 -0.6603431407 0.74710721
3000282000.0 -0.6498925281 0.7568017641
3050281700.0 -0.6385361576 0.7659946345
3100281400.0 -0.6267351046 0.775281473
3150281100.0 -0.6149683246 0.7846696854
3200280800.0 -0.6032797457 0.7931783861
3250280500.0 -0.5924898417 0.8009421689
3300280200.0 -0.5811129634 0.8088378832
3350279900.0 -0.5695908886 0.8162291301
3400279600.0 -0.5574595783 0.8240440461
3450279300.0 -0.5461270055 0.831105914
3500279000.0 -0.5343591884 0.8382344698
3550278700.0 -0.5220167228 0.8455527602
3600278400.0 -0.509588871 0.8527637034
3650278100.0 -0.4966873727 0.8604680496
3700277800.0 -0.4845104611 0.8666295931
3750277500.0 -0.4722212226 0.8730952018
3800277200.0 -0.4596483283 0.8797486563
3850276900.0 -0.4475843888 0.885628049
3900276600.0 -0.4369647987 0.8912252777
3950276300.0 -0.4246114129 0.8974152208
4000276000.0 -0.4124749579 0.9037673322
4050275700.0 -0.3995131996 0.9095331312
4100275400.0 -0.3884199107 0.9149267817
4150275100.0 -0.3757741298 0.9207882128
4200274800.0 -0.3628265005 0.9261564893
4250274500.0 -0.3504980807 0.9312805855
4300274200.0 -0.3374460129 0.9366677973
4350273900.0 -0.3235241387 0.941756395
4400273600.0 -0.3088221547 0.9470549153
4450273300.0 -0.2936579989 0.9522553664
4500273000.0 -0.2797793382 0.956624767
4550272700.0 -0.2658003742 0.9608797049
4600272400.0 -0.2504394679 0.9651104779
4650272100.0 -0.2386010083 0.968126157
4700271800.0 -0.2253518823 0.9715144617
4750271500.0 -0.2137577842 0.9745641696
4800271200.0 -0.2012098219 0.9771543285
4850270900.0 -0.1873644869 0.9798834789
4900270600.0 -0.1734168542 0.982342503
4950270300.0 -0.1590625947 0.9849995297
5000270000.0 -0.1449491346 0.9870320648
5050269700.0 -0.1312365831 0.9886773924
5100269400.0 -0.1175536256 0.9904007967
5150269100.0 -0.1044088322 0.9920358063
5200268800.0 -0.090881376 0.9927275805
5250268500.0 -0.0779546178 0.9937560445
5300268200.0 -0.0648510012 0.9944304492
5350267900.0 -0.0524826177 0.9953856072
5400267600.0 -0.0362359491 0.9962773191
5450267300.0 -0.023250694 0.9965547467
5500267000.0 -0.0079124225 0.9970187926
5550266700.0 0.0068648823 0.9972108476
5600266400.0 0.0224897128 0.9972835126
5650266100.0 0.0391211569 0.9967469268
5700265800.0 0.0533814624 0.996264573
5750265500.0 0.0688358479 0.9956090074
5800265200.0 0.08255634 0.9942190363
5850264900.0 0.0959287674 0.9937884527
5900264600.0 0.1123866861 0.9917077386
5950264300.0 0.1243160325 0.9902548372
6000264000.0 0.1384585132 0.9886258451
6050263700.0 0.1506838033 0.9868329641
6100263400.0 0.1630734666 0.9851803654
6150263100.0 0.1774906576 0.9828929074
6200262800.0 0.1880549113 0.9809590218
6250262500.0 0.2004430713 0.9784927088
6300262200.0 0.2133819126 0.9758604021
6350261900.0 0.2264140295 0.972940599
6400261600.0 0.2401715662 0.9694460938
6450261300.0 0.2518363573 0.9669688346
6500261000.0 0.2643904076 0.9632944755
6550260700.0 0.2778698365 0.9597187264
6600260400.0 0.2907725637 0.9553283891
6650260100.0 0.3049706681 0.9509114122
6700259800.0 0.3168521371 0.9467511011
6750259500.0 0.3307701278 0.9418672412
6800259200.0 0.3436517957 0.9367720249
6850258900.0 0.3557946391 0.9316000925
6900258600.0 0.3680704907 0.926622819
6950258300.0 0.3805748094 0.9212646447
7000258000.0 0.3924009497 0.9159101037
7050257700.0 0.4047288167 0.9096930484
7100257400.0 0.4174442067 0.9036522256
7150257100.0 0.4278403432 0.8982396228
7200256800.0 0.4407817341 0.8918705201
7250256500.0 0.4526821259 0.8856265206
7300256200.0 0.4656135684 0.8787235968
7350255900.0 0.4782035871 0.8721497463
7400255600.0 0.4914747999 0.8645831456
7450255300.0 0.5069768378 0.8558054245
7500255000.0 0.5182240366 0.848301874
7550254700.0 0.5324625606 0.8399328175
7600254400.0 0.5449901075 0.8317103364
7650254100.0 0.5563207487 0.8238778008
7700253800.0 0.5686716377 0.8159324912
7750253500.0 0.5795897064 0.8081239533
7800253200.0 0.590334735 0.80033988
7850252900.0 0.6000399125 0.7934315221
7900252600.0 0.6118504287 0.7847903852
7950252300.0 0.6205030605 0.7782308542
8000252000.0 0.6307372204 0.770517602
8050251700.0 0.6409687839 0.7623998886
8100251400.0 0.651190472 0.7541961778
8150251100.0 0.6613449761 0.745585822
8200250800.0 0.6706624571 0.7376653942
8250250500.0 0.6797759097 0.7297407275
8300250200.0 0.6890574222 0.7210233573
8350249900.0 0.6979575257 0.7124482581
8400249600.0 0.7058440328 0.7044178974
8450249300.0 0.715182118 0.6950868975
8500249000.0 0.7238418597 0.6864360835
8550248700.0 0.7320680011 0.6771981901
8600248400.0 0.7407326518 0.6678193323
8650248100.0 0.748357691 0.6583342673
8700247800.0 0.7577343993 0.6471585552
8750247500.0 0.7661127605 0.6371164707
8800247200.0 0.7742065955 0.6267160828
8850246900.0 0.7830942745 0.6153016722
8900246600.0 0.7914990921 0.6040584182
8950246300.0 0.8012238886 0.5907011198
9000246000.0 0.8103193109 0.5782387173
9050245700.0 0.8196368388 0.5652098205
9100245400.0 0.8279515241 0.5528343578
9150245100.0 0.837170704 0.539255669
9200244800.0 0.8473650953 0.5242219006
9250244500.0 0.8566597435 0.5088263445
9300244200.0 0.8647918761 0.4942518588
9350243900.0 0.8727811812 0.4804111181
9400243600.0 0.8792149869 0.4682491947
9450243300.0 0.8851004172 0.4564853556
9500243000.0 0.8913260687 0.4444261328
9550242700.0 0.8950795091 0.4369440728
9600242400.0 0.899153715 0.4295869439
9650242100.0 0.9029000808 0.4229579907
9700241800.0 0.9073255402 0.4147467669
9750241500.0 0.9116015427 0.4071866216
9800241200.0 0.9160069823 0.3979459905
9850240900.0 0.9217197504 0.3864190756
9900240600.0 0.9272487698 0.3749305488
9950240300.0 0.9343540367 0.3583773304
10000240000.0 0.9389009369 0.3467804114
10050239700.0 0.9445485008 0.331700518
10100239400.0 0.9496169411 0.3163004499
10150239100.0 0.9540538725 0.3013630086
10200238800.0 0.9581090722 0.2863557913
10250238500.0 0.9615113829 0.2729293664
10300238200.0 0.9644723613 0.2590338764
10350237900.0 0.9671745188 0.2458921201
10400237600.0 0.9695181434 0.2328870322
10450237300.0 0.9725941644 0.2190097547
10500237000.0 0.9746043362 0.2069356678
10550236700.0 0.9769885694 0.1922116033
10600236400.0 0.9790128309 0.1785764321
10650236100.0 0.9810234537 0.1639087726
10700235800.0 0.9835077377 0.1521177992
10750235500.0 0.9855422244 0.1384342086
10800235200.0 0.9877699289 0.1244517376
10850234900.0 0.9895432698 0.1100866121
10900234600.0 0.9919799911 0.0951419806
10950234300.0 0.9934028981 0.0818843253
11000234000.0 0.9951236684 0.0668037907
11050233700.0 0.997002562 0.0505590699
11100233400.0 0.9985047039 0.0330254917
11150233100.0 0.999648941 0.0168619676
11200232800.0 1.00034189 0.0018765314
11250232500.0 1.001200547 -0.01441105
11300232200.0 1.001628601 -0.033069804
11350231900.0 1.001655758 -0.048674842
11400231600.0 1.001835669 -0.0653110864
11450231300.0 1.001459568 -0.0803442482
11500231000.0 0.9996289316 -0.0956215982
11550230700.0 0.9985928344 -0.1096618759
11600230400.0 0.9974077644 -0.1213064431
11650230100.0 0.9949246892 -0.1332908115
11700229800.0 0.9931779681 -0.1479305865
11750229500.0 0.9909078059 -0.1621175007
11800229200.0 0.9883155386 -0.1757680318
11850228900.0 0.9847397896 -0.1883054122
11900228600.0 0.9812492382 -0.1976047088
11950228300.0 0.977493415 -0.2085006811
12000228000.0 0.9752522503 -0.2170269731
12050227700.0 0.9719113529 -0.2297045365
12100227400.0 0.9681283686 -0.2417464401
12150227100.0 0.9631551451 -0.2575799875
12200226800.0 0.9602451458 -0.2687687989
12250226500.0 0.956175728 -0.2807098528
12300226200.0 0.9513741065 -0.2936993866
12350225900.0 0.9466188219 -0.3073950664
12400225600.0 0.9419111722 -0.3206403488
12450225300.0 0.9380277834 -0.3332149871
12500225000.0 0.9325741222 -0.3481787975
12550224700.0 0.9271891751 -0.3621980877
12600224400.0 0.9221629512 -0.3749340962
12650224100.0 0.916150581 -0.3894887832
12700223800.0 0.9109631164 -0.4021884123
12750223500.0 0.9054331007 -0.4153870046
12800223200.0 0.9000209086 -0.427961974
12850222900.0 0.8947114473 -0.4398359426
12900222600.0 0.8890591573 -0.4520009884
12950222300.0 0.8828393449 -0.4648342874
13000222000.0 0.8770537634 -0.4768361451
13050221700.0 0.8700120217 -0.489146921
13100221400.0 0.8634447431 -0.5014565416
13150221100.0 0.8568004743 -0.5130987044
13200220800.0 0.8494227496 -0.5246935
13250220500.0 0.8425298822 -0.5368771136
13300220200.0 0.8351633583 -0.547711392
13350219900.0 0.8271854794 -0.5594394969
13400219600.0 0.8186815179 -0.5714851689
13450219300.0 0.8093042901 -0.5851613457
13500219000.0 0.7992319106 -0.5988263829
13550218700.0 0.7890478173 -0.6118065969
13600218400.0 0.7792834988 -0.6237544708
13650218100.0 0.7694941713 -0.6351599914
13700217800.0 0.758591447 -0.6472722752
13750217500.0 0.7478777313 -0.6591413191
13800217200.0 0.7369990766 -0.670198626
13850216900.0 0.7258440997 -0.6812017951
13900216600.0 0.7163033633 -0.6909987699
13950216300.0 0.7054545473 -0.7011952041
14000216000.0 0.695105538 -0.7100277857
14050215700.0 0.6862310683 -0.7180007971
14100215400.0 0.6763237954 -0.7274368558
14150215100.0 0.6671039838 -0.7360328475
14200214800.0 0.6575644637 -0.7447766947
14250214500.0 0.6472309022 -0.7540723602
14300214200.0 0.6368823557 -0.7635019198
14350213900.0 0.6260642441 -0.7729169418
14400213600.0 0.6140528276 -0.7829363707
14450213300.0 0.6011992119 -0.7931279619
14500213000.0 0.5875997748 -0.8030693854
14550212700.0 0.5752373881 -0.8128130951
14600212400.0 0.5622658264 -0.8210847417
14650212100.0 0.549730051 -0.8296855893
14700211800.0 0.5364199827 -0.8400764583
14750211500.0 0.524220682 -0.8480882613
14800211200.0 0.5117700882 -0.8558174251
14850210900.0 0.499601767 -0.8633348039
14900210600.0 0.4862755259 -0.8711357517
14950210300.0 0.4730565663 -0.8787968189
15000210000.0 0.460338068 -0.8856979722
15050209700.0 0.4480810852 -0.8919110272
15100209400.0 0.4353146757 -0.8974664802
15150209100.0 0.4226159666 -0.9029766327
15200208800.0 0.4106586788 -0.9080955869
15250208500.0 0.3986243972 -0.9133973054
15300208200.0 0.3865786782 -0.9183256724
15350207900.0 0.3737248954 -0.9218982036
15400207600.0 0.3587603648 -0.9279401767
15450207300.0 0.3448696578 -0.9327824594
15500207000.0 0.330263556 -0.9378607274
15550206700.0 0.3149593853 -0.9423263466
15600206400.0 0.2991813996 -0.9469892355
15650206100.0 0.2832810506 -0.9513055611
15700205800.0 0.2694359882 -0.9549719969
15750205500.0 0.2548662199 -0.9584636095
15800205200.0 0.2405279397 -0.9618133207
15850204900.0 0.2260435953 -0.9654039763
15900204600.0 0.2110656144 -0.9690700778
15950204300.0 0.1967209484 -0.9720262996
16000204000.0 0.1824855458 -0.9750774108
16050203700.0 0.1677453636 -0.9778188105
16100203400.0 0.1527714849 -0.980224911
16150203100.0 0.1382118798 -0.9822930922
16200202800.0 0.1245480581 -0.9844642219
16250202500.0 0.1094835719 -0.9862855915
16300202200.0 0.0944066461 -0.9877703103
16350201900.0 0.0793172927 -0.9891744376
16400201600.0 0.0650228203 -0.9903418032
16450201300.0 0.0494126252 -0.9910221047
16500201000.0 0.0328416795 -0.9921769687
16550200700.0 0.0172522724 -0.9927048942
16600200400.0 0.0016246645 -0.9929107935
16650200100.0 -0.0147639988 -0.992640412
16700199800.0 -0.030726824 -0.992091002
16750199500.0 -0.0494135145 -0.9919097
16800199200.0 -0.0650866726 -0.9905577357
16850198900.0 -0.0801701701 -0.989286657
16900198600.0 -0.0943003968 -0.988447411
16950198300.0 -0.1082183436 -0.9876839818
17000198000.0 -0.1205098044 -0.9859957012
17050197700.0 -0.1332341312 -0.9841716391
17100197400.0 -0.1463485848 -0.9820298042
17150197100.0 -0.158557777 -0.9803571147
17200196800.0 -0.1716265926 -0.9784806895
17250196500.0 -0.1844573691 -0.9757425093
17300196200.0 -0.1967035516 -0.9734945441
17350195900.0 -0.2085596752 -0.9710428063
17400195600.0 -0.2208951125 -0.9686733906
17450195300.0 -0.2339275772 -0.966021885
17500195000.0 -0.2472077713 -0.9626466458
17550194700.0 -0.2614705087 -0.9590254481
17600194400.0 -0.2748675572 -0.9551393401
17650194100.0 -0.2889150026 -0.9509632158
17700193800.0 -0.3019352737 -0.9469975464
17750193500.0 -0.316718772 -0.9420342639
17800193200.0 -0.330847967 -0.9369290859
17850192900.0 -0.3460968355 -0.9315648463
17900192600.0 -0.3611962681 -0.9255991793
17950192300.0 -0.3768109563 -0.9181999179
18000192000.0 -0.3913529958 -0.9111251968
18050191700.0 -0.4052212457 -0.9033605486
18100191400.0 -0.4195592202 -0.8956162698
18150191100.0 -0.4345378014 -0.8876253098
18200190800.0 -0.451416592 -0.8785181061
18250190500.0 -0.4684631982 -0.8687258861
18300190200.0 -0.4835757729 -0.8604963405
18350189900.0 -0.4991663174 -0.852576745
18400189600.0 -0.5131769463 -0.8439739946
18450189300.0 -0.5264954721 -0.8362610739
18500189000.0 -0.5400838937 -0.8279260326
18550188700.0 -0.5524653527 -0.820270937
18600188400.0 -0.5641926643 -0.8132540684
18650188100.0 -0.5752731746 -0.8071309179
18700187800.0 -0.5858652962 -0.8007700512
18750187500.0 -0.5964535185 -0.7940238729
18800187200.0 -0.6071086102 -0.7870711542
18850186900.0 -0.6173245255 -0.7802715007
18900186600.0 -0.6276996231 -0.7728368131
18950186300.0 -0.6377650542 -0.7653044659
19000186000.0 -0.6448773725 -0.7588261116
19050185700.0 -0.6539491601 -0.752038086
19100185400.0 -0.6639029523 -0.7430712095
19150185100.0 -0.6737752744 -0.7348426387
19200184800.0 -0.6836105997 -0.7266296835
19250184500.0 -0.6935726775 -0.7174207032
19300184200.0 -0.7049608945 -0.708113895
19350183900.0 -0.7160726861 -0.6977004117
19400183600.0 -0.7255715466 -0.6885243124
19450183300.0 -0.7348926112 -0.6781314936
19500183000.0 -0.7419595381 -0.6683901772
19550182700.0 -0.7523700638 -0.6575429162
19600182400.0 -0.7630097583 -0.6456840233
19650182100.0 -0.7738514826 -0.6333107872
19700181800.0 -0.7848292158 -0.6198491343
19750181500.0 -0.7952294658 -0.6057498036
19800181200.0 -0.8057068581 -0.5907396737
19850180900.0 -0.8154928537 -0.5755682355
19900180600.0 -0.8233996282 -0.5610909367
19950180300.0 -0.832729789 -0.5444711055
20000180000.0 -0.8253316883 -0.5463191198
20050179700.0 -0.8331886068 -0.533965372
20100179400.0 -0.8421424395 -0.5198389959
20150179100.0 -0.8504493741 -0.5075272597
20200178800.0 -0.8589196557 -0.494657518
20250178500.0 -0.8688977857 -0.481724781
20300178200.0 -0.8787976976 -0.4671048403
20350177900.0 -0.8875451293 -0.4531589985
20400177600.0 -0.8962274732 -0.4387699451
20450177300.0 -0.9047522668 -0.4236794586
20500177000.0 -0.9126261224 -0.4100812131
20550176700.0 -0.9204732584 -0.3965313891
20600176400.0 -0.9272508361 -0.3834290367
20650176100.0 -0.9341635937 -0.3714643233
20700175800.0 -0.9406048215 -0.3591241972
20750175500.0 -0.9470286944 -0.3478648985
20800175200.0 -0.9512270283 -0.3368327997
20850174900.0 -0.9562100601 -0.3253572088
20900174600.0 -0.9622824822 -0.3141181342
20950174300.0 -0.9646697566 -0.3029524925
21000174000.0 -0.9689573922 -0.2907691677
21050173700.0 -0.9719948107 -0.280806464
21100173400.0 -0.9755585419 -0.2691817931
21150173100.0 -0.9793892506 -0.2567614725
21200172800.0 -0.9829707692 -0.2432802625
21250172500.0 -0.9862808964 -0.2295193179
21300172200.0 -0.9889378656 -0.2159844332
21350171900.0 -0.9903655156 -0.2014511878
21400171600.0 -0.9918851417 -0.1863676403
21450171300.0 -0.9921506194 -0.1725011555
21500171000.0 -0.9921427207 -0.157414322
21550170700.0 -0.9923554757 -0.1411101744
21600170400.0 -0.9918236106 -0.1264145752
21650170100.0 -0.9914751864 -0.1105635347
21700169800.0 -0.9901542507 -0.0947734562
21750169500.0 -0.9879388952 -0.0784974899
21800169200.0 -0.9886765958 -0.0628274678
21850168900.0 -0.9880742575 -0.0456255059
21900168600.0 -0.9854203719 -0.0293104349
21950168300.0 -0.9854735277 -0.0135150082
22000168000.0 -0.983904647 0.0012871468
22050167700.0 -0.9840900409 0.0156329436
22100167400.0 -0.9840220619 0.0311051365
22150167100.0 -0.9849708525 0.0463242667
22200166800.0 -0.9854201989 0.0623613161
22250166500.0 -0.9847616124 0.0803572235
22300166200.0 -0.9837305118 0.096990917
22350165900.0 -0.9827527185 0.113540071
22400165600.0 -0.9811281264 0.129685013
22450165300.0 -0.9800294505 0.1435978223
22500165000.0 -0.9772015558 0.1577714357
22550164700.0 -0.9760527254 0.1735695463
22600164400.0 -0.9738956846 0.1876946229
22650164100.0 -0.9719047285 0.2037001856
22700163800.0 -0.9695434186 0.2185917361
22750163500.0 -0.9665534551 0.2343061095
22800163200.0 -0.9641464142 0.2479886491
22850162900.0 -0.9616724229 0.2609870554
22900162600.0 -0.9600336334 0.274236216
22950162300.0 -0.9593509718 0.2869671396
23000162000.0 -0.957925996 0.2990919797
23050161700.0 -0.9558420939 0.311612012
23100161400.0 -0.9538943918 0.3244784513
23150161100.0 -0.9503404002 0.336673322
23200160800.0 -0.9477583994 0.3487595843
23250160500.0 -0.9456526393 0.3613247493
23300160200.0 -0.9421985532 0.3728533005
23350159900.0 -0.9385127391 0.3863961552
23400159600.0 -0.933931869 0.3993198602
23450159300.0 -0.9295945797 0.4121519109
23500159000.0 -0.9244630239 0.4257786089
23550158700.0 -0.9201147592 0.4389678068
23600158400.0 -0.9146718581 0.4526640859
23650158100.0 -0.9085412143 0.4664768737
23700157800.0 -0.9007279421 0.4806288476
23750157500.0 -0.8919134604 0.4948553243
23800157200.0 -0.8835045023 0.5083400047
23850156900.0 -0.8751696079 0.5208949288
23900156600.0 -0.8653972993 0.5336670386
23950156300.0 -0.8558341088 0.5456032045
24000156000.0 -0.8476008692 0.5579572181
24050155700.0 -0.836504909 0.5697692577
24100155400.0 -0.8269077089 0.5814534593
24150155100.0 -0.8168969434 0.5936249799
24200154800.0 -0.8055774342 0.6048186588
24250154500.0 -0.7941945801 0.6160080702
24300154200.0 -0.7826168063 0.6277817336
24350153900.0 -0.7711653299 0.6385267667
24400153600.0 -0.7586652458 0.6487926245
24450153300.0 -0.746996887 0.658680658
24500153000.0 -0.7355278844 0.6683359439
24550152700.0 -0.7243692412 0.6781379072
24600152400.0 -0.712784962 0.6871187618
24650152100.0 -0.7009630632 0.6951695711
