!Created with skrf (http://scikit-rf.org).
# Hz S RI R 50.0 
!freq ReS11 ImS11
300000.0 -0.9733782381 -0.1222982028
50299700.0 -0.9999611032 0.0150982073
100299400.0 -0.997955124 0.027952923
150299100.0 -1.002733698 0.04485541
200298800.0 -0.9994829087 0.0581362175
250298500.0 -0.9972858767 0.0716942386
300298200.0 -0.985848515 0.0873959358
350297900.0 -0.994002971 0.0983516038
400297600.0 -0.9931716039 0.1149241033
450297300.0 -0.9910600952 0.1286464644
500297000.0 -0.9894805893 0.1436042
550296700.0 -0.9844664096 0.1558791509
600296400.0 -1.017078672 0.1890873945
650296100.0 -0.9819375449 0.1860353819
700295800.0 -0.9791641504 0.2000861419
750295500.0 -0.9763619943 0.2140661616
800295200.0 -0.9729352015 0.2281477967
850294900.0 -0.9695639758 0.2419254624
900294600.0 -0.9657888124 0.2555828342
950294300.0 -0.9619890794 0.2693883669
1000294000.0 -0.9581451538 0.2835025494
1050293700.0 -0.9536260589 0.2972090249
1100293400.0 -0.9491464608 0.3116170476
1150293100.0 -0.9454119226 0.3235221355
1200292800.0 -0.9400842414 0.3378582073
1250292500.0 -0.934765945 0.3512170291
1300292200.0 -0.9289171743 0.3643152842
1350291900.0 -0.9234663755 0.3785703788
1400291600.0 -0.9179077535 0.3916432127
1450291300.0 -0.9124025774 0.4041223009
1500291000.0 -0.9063566444 0.4174197645
1550290700.0 -0.8997299716 0.4308308071
1600290400.0 -0.8934686115 0.4436025114
1650290100.0 -0.8869224793 0.4559325594
1700289800.0 -0.8800217323 0.4693747163
1750289500.0 -0.8728378257 0.4814688852
1800289200.0 -0.865639319 0.4943838317
1850288900.0 -0.8586557528 0.5058023049
1900288600.0 -0.8511844744 0.5188978529
1950288300.0 -0.8428519856 0.5315892503
2000288000.0 -0.8355058464 0.54286779
2050287700.0 -0.8272143277 0.5552806642
2100287400.0 -0.8194782479 0.5666790868
2150287100.0 -0.8109250193 0.5787004564
2200286800.0 -0.8030455825 0.5892848935
2250286500.0 -0.7940001376 0.6014471405
2300286200.0 -0.7852824899 0.6131043757
2350285900.0 -0.7767439554 0.6235363736
2400285600.0 -0.7678426191 0.6345350123
2450285300.0 -0.7591445235 0.6453755195
2500285000.0 -0.7492578634 0.6566690221
2550284700.0 -0.7401780402 0.6668849947
2600284400.0 -0.7310557417 0.6770755952
2650284100.0 -0.7223705929 0.687173641
2700283800.0 -0.7117148261 0.6976925801
2750283500.0 -0.7014411257 0.7082496939
2800283200.0 -0.6912808179 0.7182351118
2850282900.0 -0.6810128086 0.7280649175
2900282600.0 -0.670622407 0.7377964389
2950282300.0 -0.66029107 0.7472650559
3000282000.0 -0.6496092823 0.7566319609
3050281700.0 -0.6382751311 0.7659271438
3100281400.0 -0.626838843 0.7750087013
3150281100.0 -0.6154689265 0.7840199146
3200280800.0 -0.6039699827 0.7925622796
3250280500.0 -0.5929029347 0.8002786743
3300280200.0 -0.5814486372 0.808562602
3350279900.0 -0.5692987574 0.8163400732
3400279600.0 -0.5568588418 0.8244750197
3450279300.0 -0.5457182206 0.8316550934
3500279000.0 -0.5339209165 0.8386030345
3550278700.0 -0.5216815761 0.8455509592
3600278400.0 -0.5097166222 0.8523797477
3650278100.0 -0.4967757228 0.8601556216
3700277800.0 -0.4848141339 0.8665889306
3750277500.0 -0.4722341799 0.8732102011
3800277200.0 -0.4597998753 0.8795511985
3850276900.0 -0.4476819192 0.8857476278
3900276600.0 -0.4368611222 0.8913195949
3950276300.0 -0.4247301877 0.8970970128
4000276000.0 -0.4127997083 0.9032109192
4050275700.0 -0.400115413 0.9092526139
4100275400.0 -0.3890888549 0.9147448204
4150275100.0 -0.3760020814 0.9204675236
4200274800.0 -0.3624342427 0.9260207417
4250274500.0 -0.3502956046 0.9313741024
4300274200.0 -0.3369573886 0.9368192653
4350273900.0 -0.3227821417 0.9420444431
4400273600.0 -0.3081594835 0.9471507017
4450273300.0 -0.2929819702 0.9522140988
4500273000.0 -0.2796472249 0.9566100054
4550272700.0 -0.266019333 0.9607007518
4600272400.0 -0.2509568196 0.9647429921
4650272100.0 -0.2393388177 0.9678906177
4700271800.0 -0.2263369068 0.9713038599
4750271500.0 -0.2147299767 0.9741399652
4800271200.0 -0.2023981333 0.9768263141
4850270900.0 -0.1885739573 0.9796070179
4900270600.0 -0.174809426 0.9820609867
4950270300.0 -0.1603240499 0.9845277968
5000270000.0 -0.1459874983 0.9865263607
5050269700.0 -0.1324931053 0.9881594693
5100269400.0 -0.1184805298 0.9904538669
5150269100.0 -0.1045191798 0.9921267797
5200268800.0 -0.0911739072 0.9928072397
5250268500.0 -0.078077254 0.9937996575
5300268200.0 -0.0646599396 0.9942217551
5350267900.0 -0.0518514209 0.9951643896
5400267600.0 -0.0356907208 0.9961116201
5450267300.0 -0.0223029859 0.9969783966
5500267000.0 -0.0071375993 0.9969870271
5550266700.0 0.0077985816 0.9970264244
5600266400.0 0.0236380565 0.9970908672
5650266100.0 0.040227541 0.9967935224
5700265800.0 0.0543425162 0.996067738
5750265500.0 0.0695346578 0.995480748
5800265200.0 0.0830423696 0.9945316238
5850264900.0 0.0962658072 0.9931068516
5900264600.0 0.1130221254 0.9917765657
5950264300.0 0.1245923379 0.9898388392
6000264000.0 0.1382120499 0.9877584339
6050263700.0 0.1500795621 0.9869650465
6100263400.0 0.1621972528 0.984878859
6150263100.0 0.1769421881 0.982594445
6200262800.0 0.1866097205 0.9812397562
6250262500.0 0.1991815286 0.9786950627
6300262200.0 0.2116578595 0.9760401015
6350261900.0 0.2244711902 0.9732673586
6400261600.0 0.2382495982 0.9700669181
6450261300.0 0.2493292731 0.9672488921
6500261000.0 0.2626732075 0.9637188026
6550260700.0 0.275997554 0.9600340908
6600260400.0 0.2894279187 0.9559326178
6650260100.0 0.303427827 0.951517774
6700259800.0 0.3153483497 0.9469992127
6750259500.0 0.329160065 0.942343893
6800259200.0 0.3428252844 0.9371463585
6850258900.0 0.3549323233 0.9319130174
6900258600.0 0.3675980458 0.9268274661
6950258300.0 0.380131254 0.9214027895
7000258000.0 0.3916222315 0.916053884
7050257700.0 0.4035465281 0.9101362897
7100257400.0 0.417025883 0.9037780554
7150257100.0 0.427502905 0.8983721158
7200256800.0 0.4405250522 0.892117579
7250256500.0 0.4530776454 0.8855010417
7300256200.0 0.466179481 0.8786051929
7350255900.0 0.4788120583 0.8719008066
7400255600.0 0.4924562455 0.8642269072
7450255300.0 0.5080737328 0.8550853127
7500255000.0 0.5200678393 0.8476019318
7550254700.0 0.5342113515 0.838611122
7600254400.0 0.5470602442 0.8303725301
7650254100.0 0.5585682613 0.822656167
7700253800.0 0.5702807372 0.8144055375
7750253500.0 0.5814843748 0.8069768007
7800253200.0 0.5920085446 0.7989932945
7850252900.0 0.6017269175 0.7918322319
7900252600.0 0.6131560375 0.7832021492
7950252300.0 0.6217852725 0.7767413226
8000252000.0 0.6317194335 0.7692348543
8050251700.0 0.6422808004 0.7607913968
8100251400.0 0.6520914779 0.7529954199
8150251100.0 0.6621425248 0.7444567102
8200250800.0 0.6715852318 0.7362520904
8250250500.0 0.6804830838 0.7284113497
8300250200.0 0.6896904567 0.7200574373
8350249900.0 0.6987228411 0.7112724417
8400249600.0 0.7070427432 0.7032320543
8450249300.0 0.7157508724 0.694402152
8500249000.0 0.7244314452 0.6855653722
8550248700.0 0.7325092674 0.6765472294
8600248400.0 0.7409655333 0.6669082499
8650248100.0 0.7486494591 0.6576736164
8700247800.0 0.7580369378 0.6464323504
8750247500.0 0.7662031287 0.6363196126
8800247200.0 0.7739879569 0.6260775087
8850246900.0 0.7831766143 0.6147713666
8900246600.0 0.791435691 0.6032975483
8950246300.0 0.8006211627 0.5905922592
9000246000.0 0.8092444479 0.5783781824
9050245700.0 0.8181005053 0.5660139908
9100245400.0 0.8266282324 0.5538434154
9150245100.0 0.8356621164 0.540709173
9200244800.0 0.8450414609 0.5262435495
9250244500.0 0.8541799605 0.5111823426
9300244200.0 0.8622750743 0.4973741197
9350243900.0 0.8700594676 0.4841200702
9400243600.0 0.8765673537 0.4722595405
9450243300.0 0.8823033425 0.4615253659
9500243000.0 0.8884629955 0.4495356527
9550242700.0 0.8922879625 0.4421638533
9600242400.0 0.8962646816 0.4348097511
9650242100.0 0.9007089158 0.427841102
9700241800.0 0.9051085981 0.4192892341
9750241500.0 0.9095175853 0.4117414877
9800241200.0 0.9145981672 0.4021531801
9850240900.0 0.9203790093 0.3905984012
9900240600.0 0.9262941159 0.3789415777
9950240300.0 0.9331380631 0.3621959016
10000240000.0 0.9380481267 0.3506512754
10050239700.0 0.9438545554 0.3343915419
10100239400.0 0.9493347757 0.3183858329
10150239100.0 0.9541020767 0.3027412369
10200238800.0 0.9581965277 0.2875699222
10250238500.0 0.9614169851 0.2738759983
10300238200.0 0.964569478 0.2601029655
10350237900.0 0.9674773209 0.2465595473
10400237600.0 0.9699531601 0.2333773041
10450237300.0 0.9727611876 0.2195471773
10500237000.0 0.9748809567 0.2075309252
10550236700.0 0.9771432103 0.1925984996
10600236400.0 0.979327886 0.1793780473
10650236100.0 0.9814623545 0.1640430935
10700235800.0 0.9841052486 0.151876041
10750235500.0 0.9860158241 0.1382519315
10800235200.0 0.9879817047 0.1244465303
10850234900.0 0.9898058753 0.1100623481
10900234600.0 0.992042467 0.0948138432
10950234300.0 0.9936858799 0.0814209141
11000234000.0 0.9954849568 0.065919136
11050233700.0 0.9972637937 0.0492270513
11100233400.0 0.9988605257 0.0315196451
11150233100.0 1.000149457 0.0148453868
11200232800.0 1.000590869 -0.0009688684
11250232500.0 1.001962331 -0.018426458
11300232200.0 1.002295518 -0.0367199355
11350231900.0 1.001695956 -0.053026143
11400231600.0 1.00171021 -0.0686591366
11450231300.0 1.001019911 -0.0847826422
11500231000.0 0.9997117702 -0.1007998741
11550230700.0 0.9980943228 -0.1134738285
11600230400.0 0.9970322516 -0.1261256188
11650230100.0 0.9945612814 -0.1380543101
11700229800.0 0.9927275317 -0.1532336213
11750229500.0 0.990265812 -0.1669754287
11800229200.0 0.9876329608 -0.1807223957
11850228900.0 0.9837316977 -0.1923465844
11900228600.0 0.980080986 -0.2020890691
11950228300.0 0.976761564 -0.2121653579
12000228000.0 0.9738726381 -0.2210523457
12050227700.0 0.970259591 -0.2335555495
12100227400.0 0.9673608086 -0.2446824105
12150227100.0 0.962172664 -0.2610633961
12200226800.0 0.9585501435 -0.2728348569
12250226500.0 0.9541307861 -0.285387441
12300226200.0 0.950123641 -0.2974057234
12350225900.0 0.945407263 -0.3109453142
12400225600.0 0.9408045077 -0.3244537099
12450225300.0 0.9364191047 -0.3367756618
12500225000.0 0.9309025944 -0.3509920872
12550224700.0 0.9252086923 -0.3646878967
12600224400.0 0.9205178832 -0.3773985164
12650224100.0 0.9146344426 -0.3918860761
12700223800.0 0.9093406409 -0.4046391189
12750223500.0 0.9035891986 -0.417893972
12800223200.0 0.898726165 -0.4301890089
12850222900.0 0.8934131505 -0.4421510945
12900222600.0 0.8875204108 -0.4544037009
12950222300.0 0.8816723527 -0.4670675553
13000222000.0 0.875661413 -0.4786913901
13050221700.0 0.8687282238 -0.4916137973
13100221400.0 0.8616393969 -0.5036851727
13150221100.0 0.8553453725 -0.5157079864
13200220800.0 0.8481077953 -0.5271901899
13250220500.0 0.8407819994 -0.5396250697
13300220200.0 0.8333586366 -0.5505001636
13350219900.0 0.8251134609 -0.5625389825
13400219600.0 0.8168713421 -0.5743255835
13450219300.0 0.8074133421 -0.5875793259
13500219000.0 0.797522976 -0.600802305
13550218700.0 0.7879892842 -0.6132376294
13600218400.0 0.7776110667 -0.6252265104
13650218100.0 0.767986994 -0.6360792157
13700217800.0 0.7572039207 -0.6486193659
13750217500.0 0.7477864106 -0.6588747692
13800217200.0 0.7367677873 -0.6703384214
13850216900.0 0.7256988628 -0.6816853763
13900216600.0 0.7157507456 -0.6907708281
13950216300.0 0.7052631638 -0.7001802012
14000216000.0 0.6952413677 -0.7090914448
14050215700.0 0.686072418 -0.7180026689
14100215400.0 0.6765172584 -0.7270398983
14150215100.0 0.6673957142 -0.7354229621
14200214800.0 0.6578690713 -0.7441891402
14250214500.0 0.6474444246 -0.7536382281
14300214200.0 0.6372266956 -0.7630988871
14350213900.0 0.6260695943 -0.772798539
14400213600.0 0.6142151688 -0.7824947559
14450213300.0 0.6012764033 -0.7927856681
14500213000.0 0.5879473157 -0.802570717
14550212700.0 0.5760911918 -0.812220227
14600212400.0 0.563569621 -0.8202856757
14650212100.0 0.5507484396 -0.8295452677
14700211800.0 0.536677925 -0.8389961783
14750211500.0 0.5252222969 -0.847085386
14800211200.0 0.5119977704 -0.8552049959
14850210900.0 0.5000111138 -0.8630685765
14900210600.0 0.4865549546 -0.8710411372
14950210300.0 0.4731219629 -0.8787608952
15000210000.0 0.4604768079 -0.8853907949
15050209700.0 0.4485080209 -0.8914440463
15100209400.0 0.435760673 -0.8971855445
15150209100.0 0.4234028197 -0.9028533402
15200208800.0 0.4109292755 -0.9084725378
15250208500.0 0.3989153721 -0.91340065
15300208200.0 0.3871595769 -0.9172711072
15350207900.0 0.3743781367 -0.9215486861
15400207600.0 0.3593720879 -0.9271225008
15450207300.0 0.3443899516 -0.9316577174
15500207000.0 0.330113804 -0.9367225599
15550206700.0 0.3159723141 -0.9424692818
15600206400.0 0.298909295 -0.9466773959
15650206100.0 0.2836919501 -0.9509028601
15700205800.0 0.2703151841 -0.9543677895
15750205500.0 0.2562813159 -0.9577292577
15800205200.0 0.2420325698 -0.9614141256
15850204900.0 0.2277460603 -0.9648392905
15900204600.0 0.2126938665 -0.9684130835
15950204300.0 0.1982163556 -0.9717387425
16000204000.0 0.1839084722 -0.9746066583
16050203700.0 0.1691096938 -0.9777441979
16100203400.0 0.1540619969 -0.9793539358
16150203100.0 0.1395340517 -0.9821235667
16200202800.0 0.1250153709 -0.9842830654
16250202500.0 0.110621807 -0.9862117062
16300202200.0 0.0948150953 -0.9872296494
16350201900.0 0.0798603843 -0.9888121199
16400201600.0 0.0652574001 -0.9900869623
16450201300.0 0.0498433718 -0.9911640115
16500201000.0 0.0328253623 -0.9919984521
16550200700.0 0.016786587 -0.9926104544
16600200400.0 0.0009360483 -0.9928076416
16650200100.0 -0.0150809496 -0.992519324
16700199800.0 -0.0314808875 -0.9923229883
16750199500.0 -0.050204913 -0.991190785
16800199200.0 -0.0658433366 -0.9906759317
16850198900.0 -0.0811898389 -0.9891431143
16900198600.0 -0.095996026 -0.9884337788
16950198300.0 -0.1091470639 -0.9878117775
17000198000.0 -0.1227504282 -0.9864549678
17050197700.0 -0.1355468027 -0.9842043133
17100197400.0 -0.1476212694 -0.9816873502
17150197100.0 -0.1608218926 -0.9804012911
17200196800.0 -0.1733768813 -0.9777469196
17250196500.0 -0.1865012016 -0.9758356353
17300196200.0 -0.1986492671 -0.9731289622
17350195900.0 -0.2102584285 -0.9708757463
17400195600.0 -0.2223805488 -0.968404406
17450195300.0 -0.235315898 -0.9655982715
17500195000.0 -0.2486750559 -0.9621679653
17550194700.0 -0.2623462937 -0.9586764063
17600194400.0 -0.2765992611 -0.9546955879
17650194100.0 -0.2901373517 -0.9507123717
17700193800.0 -0.3028857174 -0.9469518693
17750193500.0 -0.3169753538 -0.9422789794
17800193200.0 -0.3311088807 -0.936715108
17850192900.0 -0.3464975449 -0.9312074197
17900192600.0 -0.3612618072 -0.9250587107
17950192300.0 -0.3769186618 -0.9182126609
18000192000.0 -0.3916285609 -0.9109500157
18050191700.0 -0.4054962164 -0.9029869136
18100191400.0 -0.4197098322 -0.8952233157
18150191100.0 -0.4345461515 -0.8873218526
18200190800.0 -0.4513532942 -0.8781430632
18250190500.0 -0.468568382 -0.8689505101
18300190200.0 -0.4840016234 -0.8602407013
18350189900.0 -0.4993141311 -0.8518462625
18400189600.0 -0.5137579567 -0.8432658529
18450189300.0 -0.5274048138 -0.8349772645
18500189000.0 -0.5398975891 -0.8270487219
18550188700.0 -0.5532996219 -0.8198053719
18600188400.0 -0.5648969721 -0.8124575341
18650188100.0 -0.576221571 -0.8060166197
18700187800.0 -0.5871604187 -0.7995332546
18750187500.0 -0.5982368204 -0.7927373285
18800187200.0 -0.6087337902 -0.7859610172
18850186900.0 -0.6190189135 -0.7789243318
18900186600.0 -0.6293730698 -0.7715216167
18950186300.0 -0.6395265048 -0.7638836214
19000186000.0 -0.647013444 -0.7577882309
19050185700.0 -0.6561997395 -0.7501621182
19100185400.0 -0.6663812077 -0.7421821086
19150185100.0 -0.675340234 -0.7335408
19200184800.0 -0.6859219001 -0.7255746399
19250184500.0 -0.695817835 -0.7163830526
19300184200.0 -0.7071844566 -0.7061421418
19350183900.0 -0.718327875 -0.6972496312
19400183600.0 -0.7278612169 -0.6870759519
19450183300.0 -0.7363669769 -0.6774881495
19500183000.0 -0.7448537942 -0.6668483643
19550182700.0 -0.7543021248 -0.6560285686
19600182400.0 -0.7652517879 -0.644570012
19650182100.0 -0.7755225722 -0.6325177413
19700181800.0 -0.7860801027 -0.6188830574
19750181500.0 -0.7966427175 -0.604729724
19800181200.0 -0.8067887107 -0.589826452
19850180900.0 -0.8162633841 -0.5744349573
19900180600.0 -0.8238109645 -0.5602449283
19950180300.0 -0.8335167671 -0.543484312
20000180000.0 -0.8237857097 -0.546822794
20050179700.0 -0.8325488698 -0.5337545008
20100179400.0 -0.8404185632 -0.5212696479
20150179100.0 -0.8483411189 -0.5093185703
20200178800.0 -0.8564544782 -0.4968585739
20250178500.0 -0.8663514273 -0.4846778189
20300178200.0 -0.8759817135 -0.470318106
20350177900.0 -0.8856925977 -0.4566746543
20400177600.0 -0.8941134047 -0.4423350412
20450177300.0 -0.9025876034 -0.4280141272
20500177000.0 -0.9107306886 -0.4140355677
20550176700.0 -0.918257458 -0.4003523381
20600176400.0 -0.9254151596 -0.3874064666
20650176100.0 -0.9316807951 -0.3750556178
20700175800.0 -0.9389905278 -0.3631229728
20750175500.0 -0.9457781723 -0.3522478821
20800175200.0 -0.9503196668 -0.3415025567
20850174900.0 -0.9539642665 -0.3313225005
20900174600.0 -0.9593222639 -0.3203901718
20950174300.0 -0.9619800875 -0.3090918237
21000174000.0 -0.9650048695 -0.2974269712
21050173700.0 -0.9668626254 -0.2878577655
21100173400.0 -0.9703446895 -0.2762038163
21150173100.0 -0.9748744071 -0.2647346617
21200172800.0 -0.978766272 -0.2509273016
21250172500.0 -0.9819085588 -0.2372524902
21300172200.0 -0.9851826766 -0.2230791461
21350171900.0 -0.9869353276 -0.2089853658
21400171600.0 -0.9889083184 -0.1948558544
21450171300.0 -0.989615514 -0.1802165032
21500171000.0 -0.9902217147 -0.1645627559
21550170700.0 -0.9901029248 -0.1502924444
21600170400.0 -0.9913131871 -0.1353764128
21650170100.0 -0.991580184 -0.1179387864
21700169800.0 -0.9908464276 -0.1041527269
21750169500.0 -0.9884241847 -0.0879780836
21800169200.0 -0.9895981802 -0.0712802709
21850168900.0 -0.9901299124 -0.0545624771
21900168600.0 -0.9888168475 -0.0378937347
21950168300.0 -0.988306481 -0.0221717738
22000168000.0 -0.9880181566 -0.0076229786
22050167700.0 -0.9883455218 0.0079048586
22100167400.0 -0.9891500477 0.0228788909
22150167100.0 -0.9897569303 0.0393163494
22200166800.0 -0.9903510028 0.0551121435
22250166500.0 -0.9896713606 0.0723951746
22300166200.0 -0.9888866003 0.0881395155
22350165900.0 -0.9879575166 0.105634353
22400165600.0 -0.985873498 0.1207303906
22450165300.0 -0.9837458113 0.1355000465
22500165000.0 -0.9824679637 0.1501941359
22550164700.0 -0.9816142364 0.1663257257
22600164400.0 -0.9788961613 0.1810151484
22650164100.0 -0.9770669107 0.1971322811
22700163800.0 -0.973825142 0.2133993418
22750163500.0 -0.9704010389 0.227886368
22800163200.0 -0.967734299 0.2415229113
22850162900.0 -0.9652509621 0.2549754446
22900162600.0 -0.963534898 0.2688379388
22950162300.0 -0.9618810738 0.2820144609
23000162000.0 -0.9603864649 0.2945177537
23050161700.0 -0.9577118922 0.3076563649
23100161400.0 -0.9550567359 0.3213773769
23150161100.0 -0.9521570894 0.3340470618
23200160800.0 -0.9493050638 0.3466031849
23250160500.0 -0.947247027 0.3586531595
23300160200.0 -0.9434938384 0.3716246039
23350159900.0 -0.9396144993 0.3853814441
23400159600.0 -0.9351661666 0.3988969995
23450159300.0 -0.9301846069 0.4121418402
23500159000.0 -0.9252448423 0.4259024268
23550158700.0 -0.9204786824 0.4396020469
23600158400.0 -0.914501637 0.4535817368
23650158100.0 -0.9073484733 0.4680781357
23700157800.0 -0.898939699 0.4824778105
23750157500.0 -0.8896618417 0.4962803649
23800157200.0 -0.8800783012 0.5097943827
23850156900.0 -0.8709806529 0.5228393151
23900156600.0 -0.8612231992 0.535229192
23950156300.0 -0.8513328599 0.5478047554
24000156000.0 -0.8421534023 0.5602075573
24050155700.0 -0.8311563408 0.5719708853
24100155400.0 -0.8221638453 0.5846786884
24150155100.0 -0.8106562017 0.5963454078
24200154800.0 -0.7994593645 0.60798836
24250154500.0 -0.78835039 0.6202504105
24300154200.0 -0.7771063765 0.6328109852
24350153900.0 -0.7648673288 0.6435084315
24400153600.0 -0.7524903841 0.6538107421
24450153300.0 -0.7406398582 0.6644360581
24500153000.0 -0.7289695032 0.6741708668
24550152700.0 -0.7173168041 0.6839881555
24600152400.0 -0.7056155748 0.6936579868
24650152100.0 -0.6937825468 0.7019713041
