!Created with skrf (http://scikit-rf.org).
# Hz S RI R 50.0 
!freq ReS11 ImS11
300000.0 -0.9820420043 -0.0974509443
50299700.0 -1.00003572 0.0163575563
100299400.0 -0.9981183285 0.0293779167
150299100.0 -1.002833645 0.0459607978
200298800.0 -0.9995937777 0.0593435814
250298500.0 -0.9975324295 0.0730622542
300298200.0 -0.9858415658 0.0887942771
350297900.0 -0.9941845238 0.0995565367
400297600.0 -0.9930563523 0.1162992689
450297300.0 -0.9909721373 0.1300298314
500297000.0 -0.9892861344 0.1448440428
550296700.0 -0.9842637723 0.1572084563
600296400.0 -1.016873225 0.1907197729
650296100.0 -0.9818917012 0.1872907857
700295800.0 -0.9790284263 0.2016551645
750295500.0 -0.9759731874 0.2155895228
800295200.0 -0.9726884003 0.2296348019
850294900.0 -0.9691425372 0.2435009384
900294600.0 -0.9653047123 0.2571993758
950294300.0 -0.9618447228 0.2708775555
1000294000.0 -0.9577829322 0.2847761266
1050293700.0 -0.9532789145 0.2986872625
1100293400.0 -0.9488852151 0.3130720592
1150293100.0 -0.9450347951 0.3250999332
1200292800.0 -0.9398184505 0.339130822
1250292500.0 -0.9342056989 0.3526481806
1300292200.0 -0.9286478253 0.3659756151
1350291900.0 -0.9230360129 0.3797806824
1400291600.0 -0.9175011274 0.3929927044
1450291300.0 -0.9120403705 0.4053156607
1500291000.0 -0.9057404146 0.4186517852
1550290700.0 -0.899344211 0.4319626567
1600290400.0 -0.8930074039 0.4448582297
1650290100.0 -0.8864246049 0.456992395
1700289800.0 -0.8794681477 0.4705324794
1750289500.0 -0.8724176493 0.4826034007
1800289200.0 -0.8651958388 0.495664879
1850288900.0 -0.8585362329 0.5067766289
1900288600.0 -0.85046923 0.5198595306
1950288300.0 -0.8422399034 0.5325337897
2000288000.0 -0.8349192819 0.5437592836
2050287700.0 -0.8265326295 0.5561401988
2100287400.0 -0.8188256923 0.5679006136
2150287100.0 -0.8100943266 0.580138985
2200286800.0 -0.802401909 0.5903752441
2250286500.0 -0.7935086464 0.6024338738
2300286200.0 -0.7845336956 0.6140620613
2350285900.0 -0.7756976531 0.6250630156
2400285600.0 -0.7666109471 0.6359992234
2450285300.0 -0.7581214634 0.6464822615
2500285000.0 -0.7482518061 0.6576989949
2550284700.0 -0.7391790837 0.6680323838
2600284400.0 -0.7297885862 0.6782170117
2650284100.0 -0.7209319902 0.6888617152
2700283800.0 -0.7101381772 0.6991060959
2750283500.0 -0.7000124862 0.7097950787
2800283200.0 -0.6899790628 0.719309898
2850282900.0 -0.6799513727 0.72933713
2900282600.0 -0.669520793 0.7388568494
2950282300.0 -0.659628841 0.7481524002
3000282000.0 -0.6487463604 0.7574114964
3050281700.0 -0.6376736419 0.7668124221
3100281400.0 -0.6259275771 0.7760995297
3150281100.0 -0.6139486155 0.7854699736
3200280800.0 -0.6023763301 0.7940385934
3250280500.0 -0.5915152035 0.8016938758
3300280200.0 -0.580557234 0.8094147631
3350279900.0 -0.5688396982 0.8169584014
3400279600.0 -0.5568577991 0.824737107
3450279300.0 -0.5456740805 0.8317121834
3500279000.0 -0.5336805711 0.8389499941
3550278700.0 -0.5214323895 0.8462992488
3600278400.0 -0.5090132442 0.8533953267
3650278100.0 -0.4957700995 0.861136219
3700277800.0 -0.4836472915 0.8673927274
3750277500.0 -0.4715172736 0.8739289061
3800277200.0 -0.4588397869 0.8804689272
3850276900.0 -0.4469001522 0.8865197343
3900276600.0 -0.43585677 0.8919714672
3950276300.0 -0.4231494082 0.898184615
4000276000.0 -0.4110904854 0.9041156776
4050275700.0 -0.3978881472 0.9101842336
4100275400.0 -0.3867642961 0.9155182522
4150275100.0 -0.3741253164 0.9211121362
4200274800.0 -0.3611359601 0.9267928738
4250274500.0 -0.3485681216 0.9319517159
4300274200.0 -0.3356254085 0.9370926316
4350273900.0 -0.3218804994 0.9423028876
4400273600.0 -0.3069825281 0.9477016374
4450273300.0 -0.2917753216 0.952759605
4500273000.0 -0.2782201344 0.9568543611
4550272700.0 -0.26395966 0.9611893906
4600272400.0 -0.2485465187 0.9653680469
4650272100.0 -0.2368518854 0.9685329038
4700271800.0 -0.2233293762 0.9718825729
4750271500.0 -0.2118103936 0.9748296374
4800271200.0 -0.1992242756 0.9774024806
4850270900.0 -0.1853313549 0.9802248614
4900270600.0 -0.1715000437 0.9827140546
4950270300.0 -0.1574262859 0.9852156629
5000270000.0 -0.1429886075 0.9872285739
5050269700.0 -0.1295834399 0.9887514835
5100269400.0 -0.1162726826 0.9906239219
5150269100.0 -0.1030401446 0.9921644921
5200268800.0 -0.0896712589 0.9927971674
5250268500.0 -0.0767127749 0.9939651672
5300268200.0 -0.0634401712 0.9945064958
5350267900.0 -0.0510797444 0.9951447675
5400267600.0 -0.0350846428 0.996609365
5450267300.0 -0.0221989962 0.996743077
5500267000.0 -0.0068546275 0.997079825
5550266700.0 0.007848337 0.9973600509
5600266400.0 0.0233431466 0.9974749108
5650266100.0 0.0397105924 0.9964637244
5700265800.0 0.0544957488 0.996144583
5750265500.0 0.0697672418 0.9953388698
5800265200.0 0.0836798136 0.9943659102
5850264900.0 0.0968644359 0.9931879614
5900264600.0 0.1134449342 0.9914485567
5950264300.0 0.1255248107 0.9898138974
6000264000.0 0.1396450955 0.9879037684
6050263700.0 0.1522393725 0.9864111746
6100263400.0 0.1647386596 0.984270825
6150263100.0 0.1795717925 0.982178782
6200262800.0 0.1901471395 0.9803173034
6250262500.0 0.2026773281 0.9777422158
6300262200.0 0.2156911931 0.9749196503
6350261900.0 0.2285927 0.971948727
6400261600.0 0.2425278311 0.9686531867
6450261300.0 0.2538203385 0.9658806526
6500261000.0 0.2668562984 0.9625486058
6550260700.0 0.2797678886 0.9585659747
6600260400.0 0.2929689072 0.9544848993
6650260100.0 0.3066870146 0.9501858398
6700259800.0 0.3187935935 0.9457440765
6750259500.0 0.3323929798 0.9409741966
6800259200.0 0.345656533 0.9361310055
6850258900.0 0.3575393665 0.9309308894
6900258600.0 0.3697737783 0.9261397556
6950258300.0 0.3821153641 0.9205913149
7000258000.0 0.394312077 0.9152317175
7050257700.0 0.4065434121 0.9093113704
7100257400.0 0.4191823328 0.9029381577
7150257100.0 0.4296365458 0.8977099608
7200256800.0 0.4424292232 0.8915757251
7250256500.0 0.4539610138 0.8851559164
7300256200.0 0.4673585633 0.8784101868
7350255900.0 0.4793784705 0.871423868
7400255600.0 0.4927959153 0.864334597
7450255300.0 0.5073335345 0.8551606496
7500255000.0 0.5200447329 0.848341136
7550254700.0 0.5329774044 0.8395806864
7600254400.0 0.5458103415 0.8314694189
7650254100.0 0.5572183635 0.8234354093
7700253800.0 0.5693398295 0.8154827899
7750253500.0 0.5804059553 0.8076822657
7800253200.0 0.5910379305 0.7997795031
7850252900.0 0.6009800149 0.7924561148
7900252600.0 0.6126640659 0.7838836946
7950252300.0 0.6216839709 0.77719791
8000252000.0 0.6318700785 0.7692224357
8050251700.0 0.6424393227 0.7607873018
8100251400.0 0.6524310392 0.7527132285
8150251100.0 0.6628138833 0.7438604564
8200250800.0 0.6719109011 0.7359794148
8250250500.0 0.6808588627 0.728039663
8300250200.0 0.6900162729 0.7193113725
8350249900.0 0.6997162895 0.710527676
8400249600.0 0.7079684927 0.7023230379
8450249300.0 0.7171069301 0.6933632692
8500249000.0 0.7253115343 0.6843510759
8550248700.0 0.7336560993 0.6754904687
8600248400.0 0.7421325648 0.6657275799
8650248100.0 0.7498502647 0.6564993264
8700247800.0 0.759481268 0.6453529181
8750247500.0 0.7676413453 0.6353741157
8800247200.0 0.7758509809 0.6251689261
8850246900.0 0.7844436161 0.6138759938
8900246600.0 0.7926018527 0.6027154909
8950246300.0 0.8021226205 0.5895913273
9000246000.0 0.8113405657 0.5772558288
9050245700.0 0.8204206411 0.5642101191
9100245400.0 0.8290171275 0.5516066393
9150245100.0 0.8384310254 0.5381315614
9200244800.0 0.8481167992 0.5233408693
9250244500.0 0.8573378383 0.5076853515
9300244200.0 0.8659204616 0.4931694087
9350243900.0 0.8735196879 0.4792078676
9400243600.0 0.8803907981 0.4665230118
9450243300.0 0.8862042655 0.4546514862
9500243000.0 0.8925604039 0.442226695
9550242700.0 0.8963370852 0.4340811306
9600242400.0 0.9004573317 0.4263414822
9650242100.0 0.9040936119 0.4197908861
9700241800.0 0.9087226275 0.4113142306
9750241500.0 0.9124372385 0.4037083105
9800241200.0 0.9172220262 0.3942241028
9850240900.0 0.9227017252 0.382608578
9900240600.0 0.9280220379 0.3711115368
9950240300.0 0.9348140782 0.3551448083
10000240000.0 0.9391587234 0.3432122728
10050239700.0 0.9450675168 0.3280299558
10100239400.0 0.950369928 0.3125997488
10150239100.0 0.9543481039 0.2983281283
10200238800.0 0.9583302239 0.2834217905
10250238500.0 0.9617772655 0.2699161319
10300238200.0 0.9650611519 0.2560088729
10350237900.0 0.9676023839 0.2430459779
10400237600.0 0.9702179951 0.2299003618
10450237300.0 0.9727440296 0.2164645823
10500237000.0 0.9751937156 0.2042276043
10550236700.0 0.977276619 0.1904034414
10600236400.0 0.9795967202 0.1773286126
10650236100.0 0.9819974917 0.1624065169
10700235800.0 0.9838371937 0.1507045433
10750235500.0 0.9861670789 0.1371506311
10800235200.0 0.9881660651 0.1228769107
10850234900.0 0.9893565407 0.1090209867
10900234600.0 0.9919948054 0.0941532588
10950234300.0 0.9933201309 0.0811260805
11000234000.0 0.9951715278 0.0660405164
11050233700.0 0.9969776077 0.0498002874
11100233400.0 0.9982465326 0.0323007641
11150233100.0 0.9990587893 0.0161985286
11200232800.0 1.000056923 0.0004657467
11250232500.0 1.000587112 -0.0156263455
11300232200.0 1.001515213 -0.0332113741
11350231900.0 1.001356646 -0.0491191474
11400231600.0 1.00117152 -0.065218173
11450231300.0 1.000094136 -0.0803659117
11500231000.0 0.9993607452 -0.0971078441
11550230700.0 0.9976882188 -0.1107247673
11600230400.0 0.9961300785 -0.123320129
11650230100.0 0.994490075 -0.1348522811
11700229800.0 0.9919514331 -0.1491424637
11750229500.0 0.9897725819 -0.1647147937
11800229200.0 0.9872156616 -0.1785161107
11850228900.0 0.9837382366 -0.1912225363
11900228600.0 0.980000891 -0.2009778516
11950228300.0 0.976739304 -0.2116834616
12000228000.0 0.9737675516 -0.2210971206
12050227700.0 0.9707589472 -0.2332084996
12100227400.0 0.9674346161 -0.2443973219
12150227100.0 0.9624448507 -0.2611649041
12200226800.0 0.9592494907 -0.2711749884
12250226500.0 0.9548195004 -0.2852779557
12300226200.0 0.9506763874 -0.2970066982
12350225900.0 0.9456390077 -0.3097404931
12400225600.0 0.9416908426 -0.3225394325
12450225300.0 0.9369041303 -0.3356983346
12500225000.0 0.931858259 -0.3502583147
12550224700.0 0.9267835764 -0.3638269949
12600224400.0 0.9217942726 -0.3761373085
12650224100.0 0.9159506787 -0.3904276045
12700223800.0 0.9107103902 -0.4032292225
12750223500.0 0.9052322436 -0.4160069144
12800223200.0 0.8999536992 -0.4282919735
12850222900.0 0.8944741455 -0.4406602385
12900222600.0 0.8886890705 -0.4525453493
12950222300.0 0.8824896214 -0.46597269
13000222000.0 0.8760988899 -0.4772124943
13050221700.0 0.8698219613 -0.4898204718
13100221400.0 0.8627964839 -0.5018674726
13150221100.0 0.8556481316 -0.5141036647
13200220800.0 0.8484844175 -0.5257265704
13250220500.0 0.8410909814 -0.5386219179
13300220200.0 0.8337462076 -0.5493455117
13350219900.0 0.8254987151 -0.5615309023
13400219600.0 0.8171012012 -0.5738204128
13450219300.0 0.8074795054 -0.5875607849
13500219000.0 0.797095602 -0.6012174477
13550218700.0 0.7870282972 -0.614310132
13600218400.0 0.7766471474 -0.6267746307
13650218100.0 0.7668276494 -0.6379452556
13700217800.0 0.7558298782 -0.6501664333
13750217500.0 0.7457271139 -0.6608742604
13800217200.0 0.7341382125 -0.6726628706
13850216900.0 0.724118018 -0.6846158104
13900216600.0 0.7140397761 -0.6933119701
13950216300.0 0.7030320644 -0.7041352561
14000216000.0 0.6932187 -0.7123981169
14050215700.0 0.683490189 -0.7210848728
14100215400.0 0.6737212692 -0.7302426908
14150215100.0 0.6645055262 -0.7383393321
14200214800.0 0.6553121972 -0.7469393573
14250214500.0 0.6452633233 -0.7559582734
14300214200.0 0.6351186204 -0.7652288165
14350213900.0 0.624192565 -0.7745007054
14400213600.0 0.6122088873 -0.7841755719
14450213300.0 0.5994220679 -0.7941085701
14500213000.0 0.586294482 -0.8040760766
14550212700.0 0.5740292395 -0.8134470035
14600212400.0 0.5613261377 -0.8217833047
14650212100.0 0.548475446 -0.83072785
14700211800.0 0.5343653799 -0.8405287438
14750211500.0 0.5224660808 -0.8483935708
14800211200.0 0.5101653956 -0.8565276427
14850210900.0 0.4980095322 -0.8638996571
14900210600.0 0.484561553 -0.8717625624
14950210300.0 0.4709898779 -0.8794989821
15000210000.0 0.4578899441 -0.8865107367
15050209700.0 0.445557209 -0.8927404655
15100209400.0 0.4331175389 -0.898692694
15150209100.0 0.420274914 -0.9045441013
15200208800.0 0.4070616563 -0.9093865989
15250208500.0 0.3956782447 -0.9150167266
15300208200.0 0.3827731252 -0.9193238406
15350207900.0 0.3694501829 -0.9238261778
15400207600.0 0.3550701153 -0.9296400215
15450207300.0 0.3412125499 -0.9342018924
15500207000.0 0.3255114501 -0.9388108564
15550206700.0 0.311021025 -0.9435300495
15600206400.0 0.2951638778 -0.9484327046
15650206100.0 0.2794300619 -0.9525804013
15700205800.0 0.2654414586 -0.9561877647
15750205500.0 0.2510946684 -0.9595879407
15800205200.0 0.2365119101 -0.9631687435
15850204900.0 0.2224362655 -0.9663487243
15900204600.0 0.2073341007 -0.9698571852
15950204300.0 0.1935036873 -0.9726627795
16000204000.0 0.1793748223 -0.9754583109
16050203700.0 0.1649628625 -0.978204442
16100203400.0 0.1507914101 -0.9799340735
16150203100.0 0.1362707362 -0.9825559472
16200202800.0 0.1222559815 -0.9848736479
16250202500.0 0.1076201097 -0.9861269439
16300202200.0 0.0924467539 -0.9876661263
16350201900.0 0.0781379741 -0.9890691748
16400201600.0 0.0632975724 -0.9905814141
16450201300.0 0.0479714125 -0.991500109
16500201000.0 0.0315943049 -0.9920778017
16550200700.0 0.0159254342 -0.9925418605
16600200400.0 -0.0001023212 -0.9928344421
16650200100.0 -0.0162068779 -0.9927160462
16700199800.0 -0.0326509916 -0.9921648821
16750199500.0 -0.052094916 -0.9915358755
16800199200.0 -0.0676852405 -0.9905120767
16850198900.0 -0.0828966829 -0.9894260399
16900198600.0 -0.0965321006 -0.9887611176
16950198300.0 -0.109780967 -0.986900091
17000198000.0 -0.1234261457 -0.9858537188
17050197700.0 -0.1367997201 -0.9838881268
17100197400.0 -0.1497791541 -0.9816369494
17150197100.0 -0.1621485914 -0.9796808383
17200196800.0 -0.1746407288 -0.9774088972
17250196500.0 -0.1877224291 -0.9749545523
17300196200.0 -0.2000873708 -0.9727578878
17350195900.0 -0.2118302097 -0.9704578753
17400195600.0 -0.2242400353 -0.9678020448
17450195300.0 -0.2374841178 -0.9651113522
17500195000.0 -0.2506180638 -0.9616905005
17550194700.0 -0.2646363539 -0.9582924335
17600194400.0 -0.2786145919 -0.9542258652
17650194100.0 -0.2921748285 -0.9498817792
17700193800.0 -0.304981013 -0.9456721835
17750193500.0 -0.3197521367 -0.9409834914
17800193200.0 -0.3338125157 -0.9356323182
17850192900.0 -0.3489698464 -0.9304770777
17900192600.0 -0.3636422074 -0.9242820296
17950192300.0 -0.3789848822 -0.9175693488
18000192000.0 -0.3935218997 -0.9105161809
18050191700.0 -0.4073058084 -0.9026191578
18100191400.0 -0.4214188983 -0.8948787535
18150191100.0 -0.4363841185 -0.8869022326
18200190800.0 -0.4530529002 -0.8778079824
18250190500.0 -0.469684632 -0.8682008115
18300190200.0 -0.4850426694 -0.8594227355
18350189900.0 -0.5004231634 -0.8512122029
18400189600.0 -0.514819643 -0.8426228311
18450189300.0 -0.5281144164 -0.8345870454
18500189000.0 -0.5410003013 -0.8265222289
18550188700.0 -0.5539194041 -0.8189075781
18600188400.0 -0.5661587415 -0.8118639541
18650188100.0 -0.5770411704 -0.8051814449
18700187800.0 -0.5882423851 -0.7985992455
18750187500.0 -0.5990553755 -0.791488462
18800187200.0 -0.6097204976 -0.7845011861
18850186900.0 -0.6201835014 -0.7772669437
18900186600.0 -0.6305151254 -0.7695711872
18950186300.0 -0.6408582668 -0.7616673589
19000186000.0 -0.6484497362 -0.7553347241
19050185700.0 -0.6577866263 -0.7476270967
19100185400.0 -0.667817307 -0.7392918606
19150185100.0 -0.6780917548 -0.7307115204
19200184800.0 -0.6871703351 -0.7219092525
19250184500.0 -0.6976107484 -0.7127581823
19300184200.0 -0.7095752438 -0.7037053936
19350183900.0 -0.7201776235 -0.6939777282
19400183600.0 -0.7299836388 -0.6838451349
19450183300.0 -0.7384380523 -0.6735247295
19500183000.0 -0.7462217744 -0.6637335059
19550182700.0 -0.7567643416 -0.6533362329
19600182400.0 -0.7662683128 -0.6414588196
19650182100.0 -0.7770003268 -0.6291026791
19700181800.0 -0.7873069684 -0.6164590027
19750181500.0 -0.7976446959 -0.6024198772
19800181200.0 -0.8077670972 -0.5877282163
19850180900.0 -0.8174545735 -0.5727931326
19900180600.0 -0.8251775592 -0.558484682
19950180300.0 -0.8339468483 -0.5424387089
20000180000.0 -0.8277139538 -0.5442997641
20050179700.0 -0.8354558184 -0.5312841055
20100179400.0 -0.8432378092 -0.5184408514
20150179100.0 -0.8525185545 -0.5051027065
20200178800.0 -0.8610042934 -0.4920957783
20250178500.0 -0.8702736887 -0.4793647744
20300178200.0 -0.8795636267 -0.4645189364
20350177900.0 -0.8882766498 -0.4499636921
20400177600.0 -0.8969750981 -0.4357603525
20450177300.0 -0.9054935305 -0.4211916281
20500177000.0 -0.9131217932 -0.4073184359
20550176700.0 -0.920775525 -0.3937317062
20600176400.0 -0.9278529567 -0.3800697545
20650176100.0 -0.9344109848 -0.3680419105
20700175800.0 -0.9410715888 -0.3560188761
20750175500.0 -0.9477732711 -0.3437782219
20800175200.0 -0.9530402007 -0.3323133017
20850174900.0 -0.9580555015 -0.322042936
20900174600.0 -0.9616437367 -0.3105263263
20950174300.0 -0.9667744388 -0.2974291842
21000174000.0 -0.9693871267 -0.2854551723
21050173700.0 -0.9730127706 -0.2746831579
21100173400.0 -0.9764724908 -0.2624275749
21150173100.0 -0.9807471459 -0.2498032369
21200172800.0 -0.9841724258 -0.2365132599
21250172500.0 -0.9875030136 -0.2223972709
21300172200.0 -0.990424394 -0.2081880907
21350171900.0 -0.9914418834 -0.194141407
21400171600.0 -0.9936862665 -0.179537911
21450171300.0 -0.9930885496 -0.165100768
21500171000.0 -0.9932514082 -0.1509714522
21550170700.0 -0.9934490558 -0.1356678209
21600170400.0 -0.9932550913 -0.1191766581
21650170100.0 -0.9927105003 -0.1031621262
21700169800.0 -0.9904711854 -0.0875022087
21750169500.0 -0.9891099626 -0.0730503312
21800169200.0 -0.9881341463 -0.0575481644
21850168900.0 -0.988131693 -0.0407565238
21900168600.0 -0.9853049657 -0.0240213567
21950168300.0 -0.9844667826 -0.0081922918
22000168000.0 -0.9831005366 0.0067372421
22050167700.0 -0.9828625626 0.0203275714
22100167400.0 -0.9826483092 0.0355002523
22150167100.0 -0.9833156601 0.0506370161
22200166800.0 -0.9831927533 0.0665752534
22250166500.0 -0.9827584417 0.0835273262
22300166200.0 -0.9820545879 0.1003203827
22350165900.0 -0.9807413897 0.1167986372
22400165600.0 -0.9785506891 0.132444419
22450165300.0 -0.9772650542 0.1472990446
22500165000.0 -0.9741683113 0.1610301353
22550164700.0 -0.9740318754 0.176475286
22600164400.0 -0.9718191261 0.191941498
22650164100.0 -0.9698716868 0.2063392324
22700163800.0 -0.9675028509 0.2222775874
22750163500.0 -0.9649546099 0.2381798654
22800163200.0 -0.9617593108 0.2510720974
22850162900.0 -0.9595597363 0.2648489316
22900162600.0 -0.9580898449 0.2782702833
22950162300.0 -0.9568918808 0.2913421725
23000162000.0 -0.95590498 0.3028165259
23050161700.0 -0.953736219 0.3152157533
23100161400.0 -0.9511979433 0.3279776975
23150161100.0 -0.9491736084 0.3402487085
23200160800.0 -0.9456822653 0.3529752046
23250160500.0 -0.9430823003 0.3644222542
23300160200.0 -0.9403667687 0.375983476
23350159900.0 -0.9367919678 0.3892714608
23400159600.0 -0.9322890308 0.4024080453
23450159300.0 -0.9272158575 0.4159375843
23500159000.0 -0.9224063314 0.4278098897
23550158700.0 -0.9182533234 0.4415659213
23600158400.0 -0.912962686 0.4543691097
23650158100.0 -0.9066037728 0.4680020124
23700157800.0 -0.8990777601 0.4817598645
23750157500.0 -0.8904638353 0.4955281684
23800157200.0 -0.8817856675 0.5085912666
23850156900.0 -0.8727708975 0.5214234617
23900156600.0 -0.8632524745 0.5335049208
23950156300.0 -0.8547670951 0.5459701935
24000156000.0 -0.845524204 0.5575129458
24050155700.0 -0.8346580518 0.5701704566
24100155400.0 -0.8251102913 0.581601128
24150155100.0 -0.8150143167 0.5938855271
24200154800.0 -0.8031900136 0.6047399468
24250154500.0 -0.7917181401 0.6165953516
24300154200.0 -0.7809167057 0.6282847853
24350153900.0 -0.7692328634 0.6387920934
24400153600.0 -0.7566931842 0.649491921
24450153300.0 -0.7448373427 0.659630828
24500153000.0 -0.7337535017 0.6687818683
24550152700.0 -0.7222014842 0.6792458692
24600152400.0 -0.7106940025 0.6887204987
24650152100.0 -0.6988567687 0.6968193008
