!Created with skrf (http://scikit-rf.org).
# Hz S RI R 50.0 
!freq ReS11 ImS11
300000.0 -0.9916976928 -0.058455646
50299700.0 -0.999640532 0.016286482
100299400.0 -0.9975550341 0.0291344331
150299100.0 -1.002419313 0.0459918153
200298800.0 -0.9991625357 0.0592482613
250298500.0 -0.9969762125 0.0728260624
300298200.0 -0.9853667525 0.0884192029
350297900.0 -0.9934178039 0.0993042233
400297600.0 -0.9925184379 0.1160207182
450297300.0 -0.990283778 0.1296418029
500297000.0 -0.9885155118 0.1441958284
550296700.0 -0.9833335322 0.1566071853
600296400.0 -1.016160151 0.1899438537
650296100.0 -0.9812135782 0.1864653078
700295800.0 -0.9781704402 0.2008524342
750295500.0 -0.9752191155 0.2147725639
800295200.0 -0.971849663 0.2289913194
850294900.0 -0.968495393 0.2425448384
900294600.0 -0.9645286972 0.2561429049
950294300.0 -0.9610903688 0.2698859876
1000294000.0 -0.9568911203 0.2839632962
1050293700.0 -0.9524700599 0.2977109991
1100293400.0 -0.9483205524 0.312156513
1150293100.0 -0.9445232895 0.3239732529
1200292800.0 -0.9390931257 0.3382150173
1250292500.0 -0.9337203827 0.351494853
1300292200.0 -0.928315383 0.3647191834
1350291900.0 -0.9226535571 0.3787244015
1400291600.0 -0.9171949421 0.3917821098
1450291300.0 -0.9117096969 0.4041229958
1500291000.0 -0.9055715683 0.4175017505
1550290700.0 -0.8992025953 0.4308835924
1600290400.0 -0.8930522445 0.4436583282
1650290100.0 -0.8863647031 0.4556835219
1700289800.0 -0.8794878666 0.4691210836
1750289500.0 -0.8725602078 0.4813079115
1800289200.0 -0.8652221453 0.4941999404
1850288900.0 -0.8585765305 0.5054368856
1900288600.0 -0.8507785453 0.5185200828
1950288300.0 -0.8427909022 0.5311673728
2000288000.0 -0.8352341029 0.5425280434
2050287700.0 -0.8270022093 0.5547803757
2100287400.0 -0.8190641703 0.5664699296
2150287100.0 -0.8105981181 0.5786687448
2200286800.0 -0.8025575471 0.5890044547
2250286500.0 -0.793949033 0.6009852135
2300286200.0 -0.7849045956 0.6124023981
2350285900.0 -0.7762117403 0.6235361364
2400285600.0 -0.7670139808 0.6347719244
2450285300.0 -0.7583275263 0.6450530113
2500285000.0 -0.7486895381 0.6561890477
2550284700.0 -0.7395777459 0.6666591434
2600284400.0 -0.7301299739 0.6768599352
2650284100.0 -0.7215393363 0.6873074001
2700283800.0 -0.7106898383 0.6974996833
2750283500.0 -0.7007647363 0.7081842578
2800283200.0 -0.6907350824 0.7179376943
2850282900.0 -0.6803260493 0.7276516871
2900282600.0 -0.6702210337 0.7373545697
2950282300.0 -0.6600891631 0.7464042305
3000282000.0 -0.6492480531 0.7560428535
3050281700.0 -0.6384558465 0.7652317789
3100281400.0 -0.6268877146 0.7741625212
3150281100.0 -0.615341851 0.7834996419
3200280800.0 -0.6037775754 0.7921644736
3250280500.0 -0.592987114 0.7998766111
3300280200.0 -0.5816752362 0.8079325833
3350279900.0 -0.5701652278 0.815411415
3400279600.0 -0.5582899084 0.8233804429
3450279300.0 -0.5472359405 0.8307971101
3500279000.0 -0.535133945 0.8379859912
3550278700.0 -0.5232281164 0.8452556463
3600278400.0 -0.5111375118 0.852146217
3650278100.0 -0.4975601562 0.8600859032
3700277800.0 -0.486080292 0.8665709562
3750277500.0 -0.4736969249 0.873166669
3800277200.0 -0.4611472856 0.8798432689
3850276900.0 -0.4486635318 0.8857004291
3900276600.0 -0.4375647669 0.8916233288
3950276300.0 -0.4248115381 0.8978569925
4000276000.0 -0.4128175398 0.9036749577
4050275700.0 -0.3996762505 0.9098619926
4100275400.0 -0.3880398432 0.9153301992
4150275100.0 -0.3752950167 0.9206765289
4200274800.0 -0.3618480354 0.9261534611
4250274500.0 -0.3495131453 0.9312158111
4300274200.0 -0.336659998 0.9365810086
4350273900.0 -0.3230780735 0.9415745131
4400273600.0 -0.3086067782 0.9464751747
4450273300.0 -0.2938021999 0.951393941
4500273000.0 -0.2804570972 0.9557343095
4550272700.0 -0.2667829874 0.959916998
4600272400.0 -0.2512683506 0.9641716909
4650272100.0 -0.2391640651 0.96729915
4700271800.0 -0.2258324066 0.9706118677
4750271500.0 -0.2136071157 0.9736545737
4800271200.0 -0.2007665294 0.9762851353
4850270900.0 -0.1869553679 0.9792308195
4900270600.0 -0.1733142872 0.981533129
4950270300.0 -0.1595822956 0.9840152873
5000270000.0 -0.145360527 0.9860663214
5050269700.0 -0.1318779932 0.9878345813
5100269400.0 -0.1181034351 0.9895144289
5150269100.0 -0.1047863857 0.9910432561
5200268800.0 -0.0914813285 0.9924376784
5250268500.0 -0.0783762781 0.9932996831
5300268200.0 -0.0649787484 0.9944311165
5350267900.0 -0.0526565346 0.9948196208
5400267600.0 -0.0367815521 0.9963225344
5450267300.0 -0.0240035929 0.9961668335
5500267000.0 -0.0094429654 0.9965491318
5550266700.0 0.0047366871 0.9968548818
5600266400.0 0.0199178802 0.996859045
5650266100.0 0.0360597931 0.9965521406
5700265800.0 0.050150192 0.9956024078
5750265500.0 0.0650076497 0.994871677
5800265200.0 0.0790678559 0.994397038
5850264900.0 0.0921361376 0.9932032812
5900264600.0 0.1088122581 0.9916868368
5950264300.0 0.1209435933 0.9896384407
6000264000.0 0.1351738264 0.9878789152
6050263700.0 0.1478690991 0.9864681782
6100263400.0 0.1605991326 0.9845266438
6150263100.0 0.1757469001 0.9819907074
6200262800.0 0.1862988955 0.9800324393
6250262500.0 0.1994130474 0.9774123469
6300262200.0 0.2122660654 0.9746928391
6350261900.0 0.2253152 0.9718584801
6400261600.0 0.2395487641 0.9684101935
6450261300.0 0.2510675501 0.9657253676
6500261000.0 0.2641994945 0.9623919166
6550260700.0 0.2766345298 0.9580409146
6600260400.0 0.2901859521 0.9543998159
6650260100.0 0.3037937896 0.9500538927
6700259800.0 0.3161617602 0.9459883271
6750259500.0 0.3297055972 0.9414658429
6800259200.0 0.3426897976 0.9364082263
6850258900.0 0.3547097235 0.9313338303
6900258600.0 0.3670152467 0.9264283949
6950258300.0 0.3798807227 0.9214613644
7000258000.0 0.3915733199 0.9161450648
7050257700.0 0.4037258637 0.9104056868
7100257400.0 0.4170927191 0.9040561342
7150257100.0 0.4274266648 0.8988347106
7200256800.0 0.4402234602 0.8926687444
7250256500.0 0.4519832857 0.8868376373
7300256200.0 0.4649839465 0.8800741758
7350255900.0 0.4769122436 0.8733315907
7400255600.0 0.48887549 0.8664038313
7450255300.0 0.5036454031 0.8580482182
7500255000.0 0.5152260665 0.8511812961
7550254700.0 0.5280149149 0.843029861
7600254400.0 0.5404998457 0.8351151134
7650254100.0 0.551948406 0.8273538549
7700253800.0 0.5642210154 0.8195380723
7750253500.0 0.5753469685 0.811673659
7800253200.0 0.586536809 0.803575692
7850252900.0 0.5962194164 0.7964749114
7900252600.0 0.6081452929 0.7874998098
7950252300.0 0.6173319166 0.7804924796
8000252000.0 0.6277719754 0.7725330989
8050251700.0 0.6384006214 0.7640944145
8100251400.0 0.6483386293 0.7558374988
8150251100.0 0.6590207882 0.7469715253
8200250800.0 0.6682072508 0.7386901621
8250250500.0 0.6779276858 0.7302746643
8300250200.0 0.6873725876 0.721479588
8350249900.0 0.6965465718 0.7128700036
8400249600.0 0.7050271252 0.7045866691
8450249300.0 0.7143073425 0.6950379575
8500249000.0 0.7231606594 0.685867596
8550248700.0 0.7322155678 0.6764069012
8600248400.0 0.7408394526 0.6667790545
8650248100.0 0.7486247226 0.6576918028
8700247800.0 0.7579934706 0.6465166242
8750247500.0 0.7664144174 0.6365934634
8800247200.0 0.7745891791 0.6263083244
8850246900.0 0.7830151812 0.61535282
8900246600.0 0.7912875648 0.6045343309
8950246300.0 0.8006410546 0.5921001719
9000246000.0 0.8094903404 0.5802082287
9050245700.0 0.8176209781 0.5681852413
9100245400.0 0.826119891 0.5558652036
9150245100.0 0.8350450636 0.5431393491
9200244800.0 0.8436883908 0.529744577
9250244500.0 0.8526478199 0.5154094013
9300244200.0 0.8604937175 0.502154106
9350243900.0 0.8680907092 0.4886459759
9400243600.0 0.8753558532 0.4757376715
9450243300.0 0.8814696385 0.4635494107
9500243000.0 0.888362786 0.4502944344
9550242700.0 0.8933032817 0.4404844654
9600242400.0 0.898005695 0.4310817056
9650242100.0 0.9021072888 0.4227813787
9700241800.0 0.9066839558 0.4138151801
9750241500.0 0.9110607004 0.4047061791
9800241200.0 0.9162488098 0.3946587954
9850240900.0 0.9212991167 0.382889118
9900240600.0 0.9265443642 0.3723103928
9950240300.0 0.9327638148 0.3566914519
10000240000.0 0.9373353106 0.3444952414
10050239700.0 0.9432262726 0.3300591177
10100239400.0 0.9477146766 0.3155337732
10150239100.0 0.9520589762 0.3016223202
10200238800.0 0.9562686876 0.2867399996
10250238500.0 0.9598947202 0.2734246062
10300238200.0 0.9637094153 0.2595040719
10350237900.0 0.9661589585 0.2464445616
10400237600.0 0.9691543819 0.2333651613
10450237300.0 0.972155048 0.2192648472
10500237000.0 0.9745375286 0.2074250875
10550236700.0 0.9769655025 0.1939859892
10600236400.0 0.9793806845 0.1806652544
10650236100.0 0.9812999199 0.1661661811
10700235800.0 0.9837027001 0.1530625301
10750235500.0 0.985368993 0.1407711921
10800235200.0 0.9874959278 0.1265951395
10850234900.0 0.98933362 0.1123481301
10900234600.0 0.9915258204 0.0978185284
10950234300.0 0.9930007158 0.0848373576
11000234000.0 0.9944898817 0.0703994766
11050233700.0 0.9960665219 0.0552704154
11100233400.0 0.9972632269 0.0387092387
11150233100.0 0.9983365501 0.0230637375
11200232800.0 0.9989094927 0.0088098688
11250232500.0 0.9996826993 -0.0073740131
11300232200.0 1.000395731 -0.0241715238
11350231900.0 0.9999006961 -0.0393706912
11400231600.0 0.9996795748 -0.0548940113
11450231300.0 0.9984849568 -0.0686127435
11500231000.0 0.9981766958 -0.0859264467
11550230700.0 0.9962101581 -0.0989501306
11600230400.0 0.9958483351 -0.1130081521
11650230100.0 0.9934358851 -0.1252386229
11700229800.0 0.9915349856 -0.1396681356
11750229500.0 0.9892080657 -0.1543449017
11800229200.0 0.9867853258 -0.1681657046
11850228900.0 0.9837305784 -0.1815710637
11900228600.0 0.9804566643 -0.1929223285
11950228300.0 0.9773552303 -0.2041995252
12000228000.0 0.974481875 -0.2147680779
12050227700.0 0.9712670608 -0.2275715556
12100227400.0 0.9687027271 -0.238715748
12150227100.0 0.9634807005 -0.2555767428
12200226800.0 0.9596940721 -0.2671156823
12250226500.0 0.9562043788 -0.2799998104
12300226200.0 0.9521063353 -0.2924178712
12350225900.0 0.9474809386 -0.3059298039
12400225600.0 0.9432973501 -0.3185104364
12450225300.0 0.9389061288 -0.3302907875
12500225000.0 0.9339467824 -0.3455291759
12550224700.0 0.9286573616 -0.358763409
12600224400.0 0.9240242611 -0.3712123275
12650224100.0 0.9182240468 -0.3855084728
12700223800.0 0.9130175795 -0.3980473325
12750223500.0 0.9075393766 -0.4109026162
12800223200.0 0.9022413852 -0.423322833
12850222900.0 0.8968630332 -0.4354442942
12900222600.0 0.8907454511 -0.4477117252
12950222300.0 0.8841701106 -0.4609498521
13000222000.0 0.8782397535 -0.4728283219
13050221700.0 0.8713618228 -0.4854635137
13100221400.0 0.8645475735 -0.4972223509
13150221100.0 0.8575905976 -0.5099382721
13200220800.0 0.8505615067 -0.5217393804
13250220500.0 0.8431756618 -0.534104374
13300220200.0 0.8356733495 -0.5450177466
13350219900.0 0.8274365911 -0.5572986883
13400219600.0 0.8193331953 -0.5691291273
13450219300.0 0.8101548521 -0.5823692863
13500219000.0 0.800680565 -0.5952413983
13550218700.0 0.7902666274 -0.6082485817
13600218400.0 0.7815003085 -0.6194330449
13650218100.0 0.7717908677 -0.6313165141
13700217800.0 0.7610792564 -0.6435485099
13750217500.0 0.7512413588 -0.6548830791
13800217200.0 0.7407002466 -0.6668116971
13850216900.0 0.7298748288 -0.678533724
13900216600.0 0.7205856953 -0.6875144332
13950216300.0 0.7092984401 -0.6975401815
14000216000.0 0.6995430001 -0.707642421
14050215700.0 0.6899075784 -0.7157920161
14100215400.0 0.6799244381 -0.7254276778
14150215100.0 0.6702608941 -0.7346500317
14200214800.0 0.6609777113 -0.7429090795
14250214500.0 0.6506540603 -0.7523474763
14300214200.0 0.6401347586 -0.7618452192
14350213900.0 0.629373752 -0.7710907551
14400213600.0 0.6181513409 -0.7804174771
14450213300.0 0.6057483167 -0.7899878163
14500213000.0 0.5934961405 -0.7990919737
14550212700.0 0.5811390322 -0.8086607923
14600212400.0 0.5694355677 -0.817262285
14650212100.0 0.5563663136 -0.8261752948
14700211800.0 0.5422958035 -0.8349422276
14750211500.0 0.5301403833 -0.8430385874
14800211200.0 0.5180270875 -0.8513914833
14850210900.0 0.5060313294 -0.8588321067
14900210600.0 0.4928600903 -0.8667440956
14950210300.0 0.479339196 -0.8745232905
15000210000.0 0.4666222374 -0.8815999773
15050209700.0 0.4539248584 -0.8881375557
15100209400.0 0.4407593886 -0.8941860867
15150209100.0 0.4284002399 -0.9000949329
15200208800.0 0.4151773571 -0.9061538367
15250208500.0 0.402685953 -0.9113859499
15300208200.0 0.3895510455 -0.9161550507
15350207900.0 0.3766995022 -0.9212605976
15400207600.0 0.3626719516 -0.9271351289
15450207300.0 0.3475758133 -0.9320905271
15500207000.0 0.3335319608 -0.9371625461
15550206700.0 0.3190606973 -0.9415324969
15600206400.0 0.3033138221 -0.9462410573
15650206100.0 0.2892020856 -0.9509424709
15700205800.0 0.2748786102 -0.9548015068
15750205500.0 0.2603519849 -0.9583293384
15800205200.0 0.2463637892 -0.9618629523
15850204900.0 0.2322149435 -0.9652811377
15900204600.0 0.2174264997 -0.968674003
15950204300.0 0.2033688688 -0.9718507615
16000204000.0 0.1892759006 -0.97477868
16050203700.0 0.1747696502 -0.9777382832
16100203400.0 0.1608308299 -0.980140467
16150203100.0 0.1462791306 -0.9821219657
16200202800.0 0.1321973562 -0.9846618769
16250202500.0 0.1179646094 -0.985853636
16300202200.0 0.1022835038 -0.9877313052
16350201900.0 0.0876723957 -0.9890777579
16400201600.0 0.0732122176 -0.9905194343
16450201300.0 0.05839593 -0.9915394419
16500201000.0 0.04199603 -0.9924465351
16550200700.0 0.0266475232 -0.9931108663
16600200400.0 0.010814189 -0.9934656082
16650200100.0 -0.0050944656 -0.9935921024
16700199800.0 -0.0209775135 -0.9935807498
16750199500.0 -0.0392293206 -0.9932766115
16800199200.0 -0.0550724821 -0.9923875014
16850198900.0 -0.0702774378 -0.990710042
16900198600.0 -0.0844337711 -0.9903891824
16950198300.0 -0.0990291131 -0.9886305538
17000198000.0 -0.1124063888 -0.9876195495
17050197700.0 -0.1257334801 -0.9853546328
17100197400.0 -0.139203245 -0.9835362015
17150197100.0 -0.1526197267 -0.981428309
17200196800.0 -0.1663812273 -0.9794708947
17250196500.0 -0.1797463369 -0.9768174144
17300196200.0 -0.1925756463 -0.9746575477
17350195900.0 -0.2052107797 -0.9721172261
17400195600.0 -0.2179489541 -0.969407255
17450195300.0 -0.2310493697 -0.9664848047
17500195000.0 -0.2448101772 -0.963284397
17550194700.0 -0.2585103016 -0.9594877403
17600194400.0 -0.2726161412 -0.9556058038
17650194100.0 -0.2865942828 -0.9514965947
17700193800.0 -0.2991920542 -0.9476146972
17750193500.0 -0.313509714 -0.9429135222
17800193200.0 -0.3272959342 -0.9383990563
17850192900.0 -0.341596881 -0.9330889062
17900192600.0 -0.3563808402 -0.9272950665
17950192300.0 -0.3713893887 -0.9207551918
18000192000.0 -0.386192047 -0.9140075579
18050191700.0 -0.3999325442 -0.9067373118
18100191400.0 -0.4142393371 -0.8995007743
18150191100.0 -0.4286266882 -0.8921597667
18200190800.0 -0.4445033227 -0.883927105
18250190500.0 -0.4606263175 -0.87513212
18300190200.0 -0.4759512869 -0.8670502042
18350189900.0 -0.4907276223 -0.8589284558
18400189600.0 -0.5054686396 -0.8510399376
18450189300.0 -0.5186144369 -0.8434429503
18500189000.0 -0.5319908542 -0.8353854873
18550188700.0 -0.5448247871 -0.8273611473
18600188400.0 -0.5571540916 -0.8195126268
18650188100.0 -0.5691749406 -0.8127388934
18700187800.0 -0.5802589878 -0.8051172786
18750187500.0 -0.5914569702 -0.7979898054
18800187200.0 -0.6025941923 -0.7901956623
18850186900.0 -0.6132686147 -0.7826695833
18900186600.0 -0.6237739604 -0.77469788
18950186300.0 -0.6346337667 -0.7661120814
19000186000.0 -0.6430724454 -0.7588995806
19050185700.0 -0.6527333716 -0.7511541884
19100185400.0 -0.6627170536 -0.7425609073
19150185100.0 -0.6737189936 -0.7339223637
19200184800.0 -0.6834293613 -0.7245969777
19250184500.0 -0.6930283843 -0.7145673382
19300184200.0 -0.7045971146 -0.7052832096
19350183900.0 -0.7145209163 -0.6961330209
19400183600.0 -0.7239343298 -0.6861604202
19450183300.0 -0.733101594 -0.6753182006
19500183000.0 -0.7416910485 -0.6655220012
19550182700.0 -0.7513872014 -0.6547168375
19600182400.0 -0.7608715329 -0.6434857015
19650182100.0 -0.7710894198 -0.6322156068
19700181800.0 -0.7807805635 -0.6199363936
19750181500.0 -0.7905777281 -0.6068030555
19800181200.0 -0.800779947 -0.5929020652
19850180900.0 -0.8102793148 -0.5787409957
19900180600.0 -0.8181382139 -0.5656468272
19950180300.0 -0.8279089814 -0.5504241925
20000180000.0 -0.8256015693 -0.5477329201
20050179700.0 -0.8347281568 -0.5344558523
20100179400.0 -0.8422168284 -0.520731149
20150179100.0 -0.8513069905 -0.5085792523
20200178800.0 -0.8588744187 -0.4961949423
20250178500.0 -0.8676915741 -0.4833902415
20300178200.0 -0.8760021204 -0.4696627832
20350177900.0 -0.884437445 -0.4557165944
20400177600.0 -0.8928471423 -0.4416174902
20450177300.0 -0.9008182408 -0.4276899471
20500177000.0 -0.9082766299 -0.4141171754
20550176700.0 -0.9153685301 -0.4007818462
20600176400.0 -0.9217442273 -0.3871352561
20650176100.0 -0.9288391515 -0.3743524403
20700175800.0 -0.9347974115 -0.3623490446
20750175500.0 -0.9417255289 -0.350252336
20800175200.0 -0.9459835805 -0.3379088713
20850174900.0 -0.9506785514 -0.3261005517
20900174600.0 -0.9553554632 -0.3138825176
20950174300.0 -0.9595400563 -0.3014152988
21000174000.0 -0.9631970238 -0.2895923048
21050173700.0 -0.9663773292 -0.2779349902
21100173400.0 -0.9706046011 -0.2659257381
21150173100.0 -0.9748236795 -0.2527138673
21200172800.0 -0.9778100846 -0.2394190349
21250172500.0 -0.9812339416 -0.2251524227
21300172200.0 -0.9838704266 -0.2108975555
21350171900.0 -0.9866561497 -0.1973697868
21400171600.0 -0.9885493633 -0.1824198977
21450171300.0 -0.9901245771 -0.1684877053
21500171000.0 -0.9898925172 -0.1531762962
21550170700.0 -0.9898047528 -0.1385270981
21600170400.0 -0.9930960308 -0.1226437682
21650170100.0 -0.9916754248 -0.1070751741
21700169800.0 -0.9901675813 -0.0924219228
21750169500.0 -0.9904899862 -0.0778052594
21800169200.0 -0.9906963424 -0.0617291142
21850168900.0 -0.9895599732 -0.0459283095
21900168600.0 -0.9880828391 -0.0294996428
21950168300.0 -0.987354445 -0.0146586455
22000168000.0 -0.9869159355 0.0004784047
22050167700.0 -0.9861357884 0.0140885033
22100167400.0 -0.9860462636 0.0294520839
22150167100.0 -0.9862273839 0.0444884765
22200166800.0 -0.9857849421 0.0599651603
22250166500.0 -0.9853686991 0.0764669042
22300166200.0 -0.984819201 0.0921834896
22350165900.0 -0.9838264385 0.1076788302
22400165600.0 -0.9804009734 0.1243184662
22450165300.0 -0.9799898504 0.1380186105
22500165000.0 -0.9771166038 0.1520592746
22550164700.0 -0.976301965 0.1670269491
22600164400.0 -0.9737968249 0.1819105856
22650164100.0 -0.9720943394 0.1949476121
22700163800.0 -0.9687692151 0.2113591299
22750163500.0 -0.9671904781 0.2264954449
22800163200.0 -0.964161045 0.2391478308
22850162900.0 -0.9616799193 0.2528309377
22900162600.0 -0.9597565477 0.2659546679
22950162300.0 -0.9578244423 0.2795162645
23000162000.0 -0.9562719937 0.291562881
23050161700.0 -0.9531760274 0.3045058692
23100161400.0 -0.9510089356 0.3174046307
23150161100.0 -0.9478719878 0.3291666924
23200160800.0 -0.9446990277 0.3424944866
23250160500.0 -0.942200862 0.3537944443
23300160200.0 -0.939203175 0.3661869566
23350159900.0 -0.9348279504 0.3791046913
23400159600.0 -0.9308512493 0.392067452
23450159300.0 -0.9258999896 0.4049914685
23500159000.0 -0.9209846068 0.4175568933
23550158700.0 -0.9164048918 0.4305203493
23600158400.0 -0.91127726 0.4430943867
23650158100.0 -0.9053421691 0.4562268749
23700157800.0 -0.8982087541 0.4694588888
23750157500.0 -0.8900110661 0.4829224266
23800157200.0 -0.882130455 0.4957520603
23850156900.0 -0.8741473221 0.5081171145
23900156600.0 -0.8653130431 0.5206777577
23950156300.0 -0.8562977293 0.532994776
24000156000.0 -0.8480940018 0.5453689813
24050155700.0 -0.8389067633 0.5569531959
24100155400.0 -0.828974951 0.5688709152
24150155100.0 -0.8193069226 0.5805569347
24200154800.0 -0.8100010327 0.592298099
24250154500.0 -0.7985180373 0.6039090446
24300154200.0 -0.7885353379 0.6153167653
24350153900.0 -0.7774685554 0.6263753457
24400153600.0 -0.7662789129 0.6371324508
24450153300.0 -0.7550835464 0.6476604593
24500153000.0 -0.7439304901 0.6577859045
24550152700.0 -0.7330716798 0.6678461801
24600152400.0 -0.7231372656 0.6779597757
24650152100.0 -0.7118992766 0.6877003744
