!Created with skrf (http://scikit-rf.org).
# Hz S RI R 50.0 
!freq ReS11 ImS11
300000.0 -0.9743490552 -0.1190108429
50299700.0 -1.000179553 0.0154310626
100299400.0 -0.9978384833 0.0283587228
150299100.0 -1.002846794 0.0452236262
200298800.0 -0.9995327786 0.0584208333
250298500.0 -0.9974285173 0.0720979859
300298200.0 -0.9861355993 0.0876877438
350297900.0 -0.9940621148 0.0986520687
400297600.0 -0.9933339253 0.1152976209
450297300.0 -0.9908292136 0.1290185756
500297000.0 -0.9894674339 0.14377715
550296700.0 -0.9844724279 0.1562990062
600296400.0 -1.01734205 0.1896403084
650296100.0 -0.9821399975 0.1862276497
700295800.0 -0.9793857285 0.2005077995
750295500.0 -0.9763642367 0.2144216434
800295200.0 -0.9729930758 0.2286899953
850294900.0 -0.9696432619 0.2423212364
900294600.0 -0.9659155847 0.2559836019
950294300.0 -0.9619747088 0.2696169477
1000294000.0 -0.9582837828 0.2836779602
1050293700.0 -0.9537344642 0.297548412
1100293400.0 -0.9494902956 0.3119294691
1150293100.0 -0.9454590198 0.3238930201
1200292800.0 -0.9402057179 0.3382823078
1250292500.0 -0.9345890695 0.3515016975
1300292200.0 -0.9289798298 0.364821551
1350291900.0 -0.9234515454 0.3790121903
1400291600.0 -0.9179244382 0.3920775898
1450291300.0 -0.9123832174 0.4043921057
1500291000.0 -0.9063463588 0.4175810564
1550290700.0 -0.8997442434 0.4310317786
1600290400.0 -0.8934944453 0.4440203829
1650290100.0 -0.8866409588 0.4561790738
1700289800.0 -0.8797043624 0.469460866
1750289500.0 -0.8727764147 0.4818625231
1800289200.0 -0.8655906995 0.4949003606
1850288900.0 -0.8587689449 0.5060784145
1900288600.0 -0.8508637973 0.5191252257
1950288300.0 -0.8428267769 0.5317872948
2000288000.0 -0.835322166 0.5431205957
2050287700.0 -0.8270278728 0.5555681683
2100287400.0 -0.8190881063 0.5669570356
2150287100.0 -0.8105921456 0.5792449279
2200286800.0 -0.8028722816 0.5895138747
2250286500.0 -0.7940401609 0.6015740252
2300286200.0 -0.7851781421 0.6130729784
2350285900.0 -0.7763987729 0.6239606961
2400285600.0 -0.7674623824 0.6348427511
2450285300.0 -0.7590881298 0.6454410457
2500285000.0 -0.7491194973 0.6567612409
2550284700.0 -0.7403247559 0.6668973694
2600284400.0 -0.7308151944 0.6771469656
2650284100.0 -0.7216997929 0.6876665831
2700283800.0 -0.7110832652 0.698362653
2750283500.0 -0.7009140528 0.7087696131
2800283200.0 -0.691193821 0.7185884752
2850282900.0 -0.6809931251 0.7284271141
2900282600.0 -0.6708096105 0.7380774801
2950282300.0 -0.6603441923 0.7474290307
3000282000.0 -0.6496417238 0.7567556313
3050281700.0 -0.6384182354 0.7660912734
3100281400.0 -0.6266772228 0.775330638
3150281100.0 -0.6148621414 0.7847394466
3200280800.0 -0.6032463153 0.7933164656
3250280500.0 -0.5923520977 0.8008781006
3300280200.0 -0.5811606219 0.8090532235
3350279900.0 -0.5695444072 0.8164116146
3400279600.0 -0.5573144368 0.8241749005
3450279300.0 -0.5462987392 0.831361365
3500279000.0 -0.5342387198 0.8383217341
3550278700.0 -0.521827038 0.8457794929
3600278400.0 -0.5096848491 0.8527451447
3650278100.0 -0.4963934011 0.8602762809
3700277800.0 -0.4842392253 0.8666786845
3750277500.0 -0.472192714 0.8736388993
3800277200.0 -0.459720667 0.8800699227
3850276900.0 -0.4476754952 0.8858894506
3900276600.0 -0.4369347567 0.8914612593
3950276300.0 -0.4243985584 0.8974991509
4000276000.0 -0.4124999445 0.9034924043
4050275700.0 -0.3996583496 0.9096330048
4100275400.0 -0.3883208403 0.9147498827
4150275100.0 -0.3757619865 0.9209158648
4200274800.0 -0.3626836504 0.9261372636
4250274500.0 -0.3505324368 0.9314174174
4300274200.0 -0.3376279691 0.9367693708
4350273900.0 -0.3236058164 0.9419597434
4400273600.0 -0.3086050154 0.9471533707
4450273300.0 -0.2932884995 0.9522016532
4500273000.0 -0.2797707754 0.9566810786
4550272700.0 -0.2656624699 0.9609086782
4600272400.0 -0.250285536 0.9650369529
4650272100.0 -0.2385035011 0.9681377978
4700271800.0 -0.2253058978 0.9716662396
4750271500.0 -0.2137535367 0.9744395333
4800271200.0 -0.2011240432 0.9772001704
4850270900.0 -0.1872049284 0.9799317747
4900270600.0 -0.1733955359 0.9822811624
4950270300.0 -0.1592050917 0.9849564166
5000270000.0 -0.1446670446 0.987150367
5050269700.0 -0.1312816691 0.9885761842
5100269400.0 -0.1175159544 0.9902736405
5150269100.0 -0.1042197905 0.9920462535
5200268800.0 -0.0909534832 0.9932759788
5250268500.0 -0.0778256116 0.9940093679
5300268200.0 -0.0647195912 0.994567459
5350267900.0 -0.0523847879 0.9950504764
5400267600.0 -0.0362179961 0.9962430292
5450267300.0 -0.023044259 0.9968406294
5500267000.0 -0.0078935155 0.9970145532
5550266700.0 0.006890178 0.9972927938
5600266400.0 0.0224981626 0.9972560029
5650266100.0 0.0390730964 0.9969226868
5700265800.0 0.0534148583 0.9959466671
5750265500.0 0.068652206 0.9954710768
5800265200.0 0.0827107314 0.9943367802
5850264900.0 0.0959099122 0.9931629892
5900264600.0 0.1125609475 0.991701757
5950264300.0 0.1244804761 0.9899776315
6000264000.0 0.1383744859 0.9884802383
6050263700.0 0.1508245003 0.9866500727
6100263400.0 0.163021771 0.9850148602
6150263100.0 0.1775804182 0.9826326204
6200262800.0 0.1881778916 0.9809242576
6250262500.0 0.2007686626 0.9784527062
6300262200.0 0.2136284637 0.975616687
6350261900.0 0.226521611 0.9728764233
6400261600.0 0.2405252055 0.9695693233
6450261300.0 0.2517394185 0.9669635779
6500261000.0 0.264478249 0.96345238
6550260700.0 0.2774445868 0.959367483
6600260400.0 0.2909617814 0.9554895781
6650260100.0 0.3047742459 0.9509695876
6700259800.0 0.3165720275 0.9466775488
6750259500.0 0.3305568008 0.9416169675
6800259200.0 0.3436025142 0.9365316022
6850258900.0 0.3558437812 0.9313078287
6900258600.0 0.3680196121 0.9265887386
6950258300.0 0.3807698863 0.9213517742
7000258000.0 0.3925318399 0.9159407671
7050257700.0 0.4049244345 0.9098244088
7100257400.0 0.4176958279 0.9035086439
7150257100.0 0.428132203 0.8981671072
7200256800.0 0.4407267127 0.8918387467
7250256500.0 0.4526395584 0.8854871995
7300256200.0 0.4656426917 0.8785782728
7350255900.0 0.4779678506 0.8716473209
7400255600.0 0.4916141401 0.8646244566
7450255300.0 0.5072673401 0.8555779712
7500255000.0 0.5188383152 0.8486409771
7550254700.0 0.5324996658 0.8401897411
7600254400.0 0.5456107381 0.8316354831
7650254100.0 0.5567589075 0.8237008928
7700253800.0 0.5688438067 0.8160091776
7750253500.0 0.5797422071 0.8081303774
7800253200.0 0.5901984853 0.8005017307
7850252900.0 0.6002144057 0.7932947293
7900252600.0 0.6118573051 0.7846230697
7950252300.0 0.6205955761 0.7781593347
8000252000.0 0.6308076066 0.7704315258
8050251700.0 0.6414263645 0.7622303675
8100251400.0 0.6511838194 0.7541679243
8150251100.0 0.6613840895 0.7455605278
8200250800.0 0.6706908517 0.7376798116
8250250500.0 0.6794823409 0.7297562285
8300250200.0 0.6891172884 0.7209669597
8350249900.0 0.6984201732 0.7123156496
8400249600.0 0.7064473532 0.704411131
8450249300.0 0.7152866013 0.6951034543
8500249000.0 0.723977995 0.6861961361
8550248700.0 0.7323669391 0.6772114364
8600248400.0 0.7405456533 0.6676554146
8650248100.0 0.7485644326 0.6582481008
8700247800.0 0.7579727871 0.6469566183
8750247500.0 0.7662167334 0.6369462405
8800247200.0 0.7745573305 0.6267456591
8850246900.0 0.78317959 0.6151818875
8900246600.0 0.7916860747 0.6037138457
8950246300.0 0.8009893716 0.5908564844
9000246000.0 0.8103074437 0.5780011162
9050245700.0 0.8194149242 0.5651619495
9100245400.0 0.8281715428 0.5525538627
9150245100.0 0.8371983373 0.5392505224
9200244800.0 0.8469465817 0.5240257047
9250244500.0 0.8565737761 0.508574826
9300244200.0 0.8648275752 0.4942856932
9350243900.0 0.8724978225 0.4805210071
9400243600.0 0.8793087526 0.4682076908
9450243300.0 0.8851192112 0.4565465136
9500243000.0 0.8912602197 0.444472524
9550242700.0 0.8951851095 0.4368394915
9600242400.0 0.8990671935 0.429564052
9650242100.0 0.9030575294 0.4229555705
9700241800.0 0.9076203366 0.4145110578
9750241500.0 0.911602544 0.4074564963
9800241200.0 0.9162087953 0.3978049442
9850240900.0 0.9218474857 0.3861429793
9900240600.0 0.9275070284 0.374903396
9950240300.0 0.9341166993 0.358619498
10000240000.0 0.938991398 0.347140638
10050239700.0 0.9446168173 0.3316685408
10100239400.0 0.9498436369 0.3159193526
10150239100.0 0.9540780114 0.3012568546
10200238800.0 0.9581419966 0.2863303812
10250238500.0 0.9614415311 0.2729204333
10300238200.0 0.9645294082 0.2590025955
10350237900.0 0.9672092221 0.2458109809
10400237600.0 0.969687957 0.2326989482
10450237300.0 0.9725720451 0.2184966503
10500237000.0 0.9746307757 0.2062820471
10550236700.0 0.976969443 0.1924833358
10600236400.0 0.9788978544 0.1790213592
10650236100.0 0.9811167025 0.1642628666
10700235800.0 0.9835739046 0.1519776363
10750235500.0 0.9856190351 0.1385388288
10800235200.0 0.9876632271 0.1243212755
10850234900.0 0.9894546602 0.1097101029
10900234600.0 0.9917652209 0.0950832209
10950234300.0 0.9935208357 0.0818335045
11000234000.0 0.9951993545 0.066711773
11050233700.0 0.9970797938 0.0501908387
11100233400.0 0.998460674 0.0329689715
11150233100.0 0.9993501065 0.0165842348
11200232800.0 1.000073932 0.001265253
11250232500.0 1.001677665 -0.0153116554
11300232200.0 1.000996693 -0.0318940677
11350231900.0 1.001486722 -0.0497031649
11400231600.0 1.001517701 -0.0638977219
11450231300.0 1.001491011 -0.0798131801
11500231000.0 0.9998041463 -0.095361441
11550230700.0 0.9983863407 -0.1094952326
11600230400.0 0.9974390354 -0.121765885
11650230100.0 0.9950673411 -0.1333804938
11700229800.0 0.9928320675 -0.1477080615
11750229500.0 0.990922607 -0.1624547843
11800229200.0 0.9881038576 -0.1760168697
11850228900.0 0.9844542575 -0.1883604857
11900228600.0 0.9808566387 -0.1981068703
11950228300.0 0.9780419729 -0.2079126236
12000228000.0 0.9752862742 -0.2166759254
12050227700.0 0.971208033 -0.2304390163
12100227400.0 0.9686338906 -0.241515609
12150227100.0 0.9632540009 -0.2583059258
12200226800.0 0.9601672201 -0.2685792789
12250226500.0 0.9557272032 -0.2816049374
12300226200.0 0.9517494114 -0.2938993712
12350225900.0 0.9462616955 -0.308236028
12400225600.0 0.9425171663 -0.3200123245
12450225300.0 0.9377701077 -0.3335116587
12500225000.0 0.9323812988 -0.3485447082
12550224700.0 0.9268957517 -0.3622197119
12600224400.0 0.921984067 -0.3750877356
12650224100.0 0.9160384956 -0.389511625
12700223800.0 0.9108892823 -0.4023751102
12750223500.0 0.9054443068 -0.415457695
12800223200.0 0.9002497874 -0.4278644357
12850222900.0 0.8948006125 -0.4402121083
12900222600.0 0.888789574 -0.4521959479
12950222300.0 0.8828627376 -0.4651704838
13000222000.0 0.8768820404 -0.4762344272
13050221700.0 0.8702076854 -0.4892436029
13100221400.0 0.8634292438 -0.5009539641
13150221100.0 0.8563780887 -0.5130761341
13200220800.0 0.8494673733 -0.5251151514
13250220500.0 0.8423341126 -0.5370357673
13300220200.0 0.834995351 -0.5479045724
13350219900.0 0.8270396585 -0.5596560436
13400219600.0 0.8185979046 -0.5718171763
13450219300.0 0.8092821374 -0.5851558825
13500219000.0 0.7991970752 -0.599018876
13550218700.0 0.7890882678 -0.6117149029
13600218400.0 0.7790855956 -0.6237092552
13650218100.0 0.7692802963 -0.6352642426
13700217800.0 0.7579790481 -0.6472956474
13750217500.0 0.7482405675 -0.6577029267
13800217200.0 0.7375446171 -0.6708285735
13850216900.0 0.7261113637 -0.6817244231
13900216600.0 0.7160479007 -0.6905441059
13950216300.0 0.7057582594 -0.7007870121
14000216000.0 0.6956623705 -0.7093263256
14050215700.0 0.6858095249 -0.7187539263
14100215400.0 0.6761864056 -0.7277841795
14150215100.0 0.666702016 -0.7362259853
14200214800.0 0.6574929031 -0.7447859034
14250214500.0 0.6472017006 -0.754216746
14300214200.0 0.6367950109 -0.7636800935
14350213900.0 0.6257292894 -0.7732556909
14400213600.0 0.613663256 -0.7831767479
14450213300.0 0.6005873851 -0.7933353187
14500213000.0 0.5877892711 -0.8036899962
14550212700.0 0.5751028059 -0.8126578987
14600212400.0 0.5628114018 -0.8213840594
14650212100.0 0.55029991 -0.830579491
14700211800.0 0.5361257133 -0.839533019
14750211500.0 0.523945105 -0.8478969488
14800211200.0 0.5114366882 -0.8560787879
14850210900.0 0.4994977126 -0.8632058528
14900210600.0 0.4862162778 -0.8712441838
14950210300.0 0.4729193032 -0.878771948
15000210000.0 0.4601802011 -0.8857412469
15050209700.0 0.4481721674 -0.8917739825
15100209400.0 0.43556167 -0.8977947802
15150209100.0 0.4222511132 -0.9032818251
15200208800.0 0.4100685178 -0.9085828461
15250208500.0 0.3989081194 -0.9131580738
15300208200.0 0.386481515 -0.9174959499
15350207900.0 0.373071927 -0.9226557954
15400207600.0 0.3586183745 -0.9284195337
15450207300.0 0.3444734973 -0.9326770848
15500207000.0 0.3301824302 -0.9376899913
15550206700.0 0.3149595357 -0.9422746071
15600206400.0 0.2988958446 -0.9467529753
15650206100.0 0.2831624755 -0.951102226
15700205800.0 0.2692637323 -0.9551367849
15750205500.0 0.2546597771 -0.9584480354
15800205200.0 0.2402091885 -0.9620075731
15850204900.0 0.2259272817 -0.9653456834
15900204600.0 0.2107181684 -0.9688495536
15950204300.0 0.1963919077 -0.9722079998
16000204000.0 0.1824977591 -0.974710407
16050203700.0 0.1674274623 -0.9779244327
16100203400.0 0.1527575408 -0.9801897238
16150203100.0 0.1384591076 -0.9824005392
16200202800.0 0.1243411104 -0.9846887146
16250202500.0 0.1097320301 -0.9861655916
16300202200.0 0.0943739231 -0.9874638615
16350201900.0 0.0790834052 -0.9891881122
16400201600.0 0.0647280396 -0.9905172801
16450201300.0 0.0493833558 -0.9912637189
16500201000.0 0.0327075518 -0.99210289
16550200700.0 0.0170507656 -0.9926119444
16600200400.0 0.0013481936 -0.9928119679
16650200100.0 -0.0146872849 -0.9929695771
16700199800.0 -0.0310400978 -0.9926200169
16750199500.0 -0.0495465959 -0.9917803944
16800199200.0 -0.0650163981 -0.9908955189
16850198900.0 -0.08041279 -0.9897654444
16900198600.0 -0.0941120263 -0.9888290588
16950198300.0 -0.1078740777 -0.9874129008
17000198000.0 -0.1207569846 -0.9859640209
17050197700.0 -0.13318989 -0.984005331
17100197400.0 -0.1464819498 -0.9818814571
17150197100.0 -0.1593507414 -0.9801020234
17200196800.0 -0.1719330127 -0.9783338864
17250196500.0 -0.1844562445 -0.9758376052
17300196200.0 -0.1968859336 -0.9734891773
17350195900.0 -0.2091039498 -0.9712252962
17400195600.0 -0.2212170231 -0.9686898046
17450195300.0 -0.2344313718 -0.9658906681
17500195000.0 -0.2476780622 -0.9624834588
17550194700.0 -0.2616632886 -0.9587570697
17600194400.0 -0.275475418 -0.954907378
17650194100.0 -0.2893215088 -0.9504343821
17700193800.0 -0.3020568674 -0.9470268146
17750193500.0 -0.3164633762 -0.9422102867
17800193200.0 -0.330977487 -0.936723388
17850192900.0 -0.3463030604 -0.9315293905
17900192600.0 -0.3611681158 -0.9253185415
17950192300.0 -0.3766606942 -0.9183161183
18000192000.0 -0.391625709 -0.9110137188
18050191700.0 -0.4055138686 -0.9030967422
18100191400.0 -0.4197100589 -0.8955714878
18150191100.0 -0.434713962 -0.8875638575
18200190800.0 -0.4517478742 -0.8785366349
18250190500.0 -0.4686228016 -0.8690110063
18300190200.0 -0.4838228797 -0.8601124079
18350189900.0 -0.4990282152 -0.8517600841
18400189600.0 -0.513531507 -0.8435749663
18450189300.0 -0.5269903032 -0.8356812901
18500189000.0 -0.5397403427 -0.8275538663
18550188700.0 -0.5527505046 -0.8201841158
18600188400.0 -0.5643792006 -0.8133915965
18650188100.0 -0.5753854994 -0.806997423
18700187800.0 -0.5861864994 -0.8002503632
18750187500.0 -0.5967610581 -0.7938974171
18800187200.0 -0.6074919568 -0.7867043719
18850186900.0 -0.6175696512 -0.7799375053
18900186600.0 -0.6279145237 -0.7725173443
18950186300.0 -0.6379930498 -0.7647265966
19000186000.0 -0.6450144448 -0.7587930006
19050185700.0 -0.6544823669 -0.7517295235
19100185400.0 -0.6640530443 -0.7431979114
19150185100.0 -0.6746980578 -0.734134187
19200184800.0 -0.6833365886 -0.7265164081
19250184500.0 -0.6938520998 -0.7172483353
19300184200.0 -0.7054222401 -0.7073600535
19350183900.0 -0.7162867344 -0.697613649
19400183600.0 -0.7262554563 -0.6882454333
19450183300.0 -0.7350792199 -0.6778329063
19500183000.0 -0.743135496 -0.6685350044
19550182700.0 -0.7526527642 -0.6575855401
19600182400.0 -0.7635107794 -0.6451554379
19650182100.0 -0.7744431741 -0.6332560447
19700181800.0 -0.7850868532 -0.6197960725
19750181500.0 -0.7954848904 -0.6055732834
19800181200.0 -0.8057807807 -0.5906937064
19850180900.0 -0.8156594261 -0.5753973961
19900180600.0 -0.8233254283 -0.5609178947
19950180300.0 -0.8327541656 -0.5442682979
20000180000.0 -0.8255499654 -0.5468026412
20050179700.0 -0.8341323473 -0.5335456213
20100179400.0 -0.8428518092 -0.5202847997
20150179100.0 -0.8507399781 -0.5078663095
20200178800.0 -0.8595942775 -0.4949514571
20250178500.0 -0.8691071255 -0.4816686464
20300178200.0 -0.8780302505 -0.467213299
20350177900.0 -0.8872908281 -0.4532802576
20400177600.0 -0.8962457231 -0.438474022
20450177300.0 -0.9045634475 -0.4238860661
20500177000.0 -0.9124850552 -0.4102166565
20550176700.0 -0.9205011149 -0.3965957047
20600176400.0 -0.9276281846 -0.3834460439
20650176100.0 -0.9335285899 -0.3711966609
20700175800.0 -0.9401713727 -0.3592509778
20750175500.0 -0.9474337583 -0.347655695
20800175200.0 -0.9523240034 -0.3365735688
20850174900.0 -0.9569635007 -0.3262584455
20900174600.0 -0.9615911058 -0.3152147524
20950174300.0 -0.9658095778 -0.30256756
21000174000.0 -0.9684784693 -0.2913933406
21050173700.0 -0.9716199691 -0.2807660684
21100173400.0 -0.9754676173 -0.2692158502
21150173100.0 -0.9793019717 -0.2565014883
21200172800.0 -0.9831646841 -0.2431389675
21250172500.0 -0.9863307686 -0.2291872664
21300172200.0 -0.9893101867 -0.2154584167
21350171900.0 -0.9908237085 -0.2009073857
21400171600.0 -0.9917838553 -0.1868107374
21450171300.0 -0.992621743 -0.1722685774
21500171000.0 -0.9924245525 -0.1565834181
21550170700.0 -0.9925638925 -0.1416331141
21600170400.0 -0.991964978 -0.1257452405
21650170100.0 -0.9921454982 -0.1103312494
21700169800.0 -0.9908679473 -0.0937734177
21750169500.0 -0.9885357649 -0.0783420759
21800169200.0 -0.9885467907 -0.0621693768
21850168900.0 -0.9881764266 -0.0463447172
21900168600.0 -0.9864293427 -0.0292966832
21950168300.0 -0.9848535877 -0.0127844125
22000168000.0 -0.9838196198 0.0018484617
22050167700.0 -0.9841124963 0.0160044378
22100167400.0 -0.9840958846 0.0310910464
22150167100.0 -0.9848433147 0.0468135237
22200166800.0 -0.985512877 0.0625066662
22250166500.0 -0.9842014104 0.0803976777
22300166200.0 -0.984449384 0.0963042162
22350165900.0 -0.9823431896 0.1129344127
22400165600.0 -0.9813388015 0.1281696594
22450165300.0 -0.9785005733 0.144019494
22500165000.0 -0.9764920039 0.1583341693
22550164700.0 -0.9760684223 0.1722992329
22600164400.0 -0.9752922569 0.1885365592
22650164100.0 -0.9722618196 0.204253131
22700163800.0 -0.9691752857 0.2203586475
22750163500.0 -0.9666341936 0.2343867697
22800163200.0 -0.9641805237 0.2483326914
22850162900.0 -0.9615084085 0.2611029194
22900162600.0 -0.9600907791 0.2744943671
22950162300.0 -0.959059996 0.2871614222
23000162000.0 -0.9578175581 0.2990025821
23050161700.0 -0.9556536454 0.3120092276
23100161400.0 -0.9532899277 0.3248417228
23150161100.0 -0.9505190924 0.3371874619
23200160800.0 -0.9481449965 0.3494231354
23250160500.0 -0.9447449484 0.3608782362
23300160200.0 -0.9434123055 0.3732301287
23350159900.0 -0.9393936999 0.3861315101
23400159600.0 -0.9342190472 0.3995418331
23450159300.0 -0.9291987738 0.4127693869
23500159000.0 -0.9250005292 0.4263775079
23550158700.0 -0.9204045169 0.4395427471
23600158400.0 -0.9146557494 0.4528267806
23650158100.0 -0.9082299765 0.4670197906
23700157800.0 -0.9006437946 0.4809259557
23750157500.0 -0.8921405929 0.4948692311
23800157200.0 -0.8829841928 0.5086513045
23850156900.0 -0.8746691659 0.5210419826
23900156600.0 -0.8649340877 0.5334575376
23950156300.0 -0.8550862745 0.5458267007
24000156000.0 -0.8473657226 0.5579099656
24050155700.0 -0.8370787186 0.568968782
24100155400.0 -0.8274414885 0.5815297037
24150155100.0 -0.8161667162 0.5938566723
24200154800.0 -0.8046682371 0.6046593034
24250154500.0 -0.7939278276 0.6166588244
24300154200.0 -0.7824774469 0.6281688692
24350153900.0 -0.7706859314 0.6389671954
24400153600.0 -0.7583683745 0.6488901225
24450153300.0 -0.7465861179 0.6589053311
24500153000.0 -0.7350921541 0.6685108145
24550152700.0 -0.7237032293 0.6781219264
24600152400.0 -0.712163079 0.6870919187
24650152100.0 -0.7005891017 0.6959997466
