!Created with skrf (http://scikit-rf.org).
# Hz S RI R 50.0 
!freq ReS11 ImS11
300000.0 -0.9771944778 -0.1140868213
50299700.0 -1.000032753 0.0156900982
100299400.0 -0.9981072957 0.0286512889
150299100.0 -1.003032599 0.0456168395
200298800.0 -0.9996490313 0.0589833258
250298500.0 -0.9975106581 0.072369456
300298200.0 -0.9860565398 0.0879723468
350297900.0 -0.9940255904 0.0989942286
400297600.0 -0.9931659117 0.1157340344
450297300.0 -0.9910771518 0.1294982874
500297000.0 -0.9894228204 0.1441990336
550296700.0 -0.9844257982 0.1566632008
600296400.0 -1.017256284 0.1899593221
650296100.0 -0.9822716003 0.186508946
700295800.0 -0.9792882031 0.2010011773
750295500.0 -0.9764036762 0.2150168489
800295200.0 -0.9728504951 0.2291580071
850294900.0 -0.9695451475 0.2429463109
900294600.0 -0.9659116616 0.256648225
950294300.0 -0.9619342578 0.2703386973
1000294000.0 -0.9581970413 0.2844808688
1050293700.0 -0.9535609022 0.2981237898
1100293400.0 -0.9492947159 0.3126841308
1150293100.0 -0.9453751186 0.3245322974
1200292800.0 -0.9401586205 0.3388082602
1250292500.0 -0.9346842702 0.3521788363
1300292200.0 -0.9288674709 0.3653882735
1350291900.0 -0.9232134319 0.3793820813
1400291600.0 -0.9179237475 0.3924825154
1450291300.0 -0.9123289075 0.4048325322
1500291000.0 -0.9060246059 0.418134355
1550290700.0 -0.89955893 0.4315244022
1600290400.0 -0.8933515024 0.4444762556
1650290100.0 -0.8865539961 0.4563964354
1700289800.0 -0.8797753915 0.4700696923
1750289500.0 -0.8727555534 0.4822817017
1800289200.0 -0.8652875969 0.4951807905
1850288900.0 -0.8584625792 0.5064921834
1900288600.0 -0.8505953878 0.5195466454
1950288300.0 -0.8425720842 0.5320648702
2000288000.0 -0.8352665667 0.5437119723
2050287700.0 -0.8269648587 0.5558145149
2100287400.0 -0.8189940051 0.5674891375
2150287100.0 -0.8102634846 0.5796668
2200286800.0 -0.8026874453 0.5898827748
2250286500.0 -0.7939872214 0.602001324
2300286200.0 -0.7847636059 0.6135673893
2350285900.0 -0.7762095212 0.6245285322
2400285600.0 -0.7673081945 0.6355996953
2450285300.0 -0.7586395636 0.6458085182
2500285000.0 -0.7487657209 0.6572600229
2550284700.0 -0.7398704332 0.6677138332
2600284400.0 -0.7307031177 0.6777895668
2650284100.0 -0.7215579502 0.6881800742
2700283800.0 -0.7110789576 0.6987545217
2750283500.0 -0.7007703841 0.7095267
2800283200.0 -0.6908910823 0.7189480459
2850282900.0 -0.6806546457 0.728851124
2900282600.0 -0.6702274044 0.7385960014
2950282300.0 -0.6600443239 0.7477322243
3000282000.0 -0.6492700165 0.7570377233
3050281700.0 -0.6381407816 0.7664505868
3100281400.0 -0.6263014544 0.7759165879
3150281100.0 -0.6142052498 0.7851393603
3200280800.0 -0.6026885941 0.7936134089
3250280500.0 -0.5919515077 0.8014409575
3300280200.0 -0.5808178065 0.8092241229
3350279900.0 -0.5691746744 0.8167441768
3400279600.0 -0.5570004565 0.8242422407
3450279300.0 -0.5459184319 0.8315128422
3500279000.0 -0.5337479383 0.8384536402
3550278700.0 -0.5216225707 0.8460020149
3600278400.0 -0.5091693292 0.8531069605
3650278100.0 -0.4960316964 0.8607745392
3700277800.0 -0.4839470815 0.8671020224
3750277500.0 -0.4716356054 0.8736822334
3800277200.0 -0.4590166657 0.8803264073
3850276900.0 -0.4469494133 0.8862331134
3900276600.0 -0.4360505887 0.8917984902
3950276300.0 -0.4236593707 0.8978247636
4000276000.0 -0.4115958973 0.9038423105
4050275700.0 -0.3986487584 0.9099638574
4100275400.0 -0.387657957 0.9151477375
4150275100.0 -0.3752270057 0.9210657853
4200274800.0 -0.3618351313 0.9264223741
4250274500.0 -0.3497878833 0.9314940451
4300274200.0 -0.3367566993 0.9368887389
4350273900.0 -0.3229139191 0.9420961037
4400273600.0 -0.3080384717 0.947414761
4450273300.0 -0.2927344717 0.9524006797
4500273000.0 -0.2790403756 0.9570478961
4550272700.0 -0.2648274436 0.961211406
4600272400.0 -0.2493326723 0.9652544995
4650272100.0 -0.2376753371 0.9685737618
4700271800.0 -0.2243221672 0.9718280506
4750271500.0 -0.2127887931 0.9746198047
4800271200.0 -0.2000534997 0.9775258412
4850270900.0 -0.1862678424 0.9803090675
4900270600.0 -0.1725588277 0.982658476
4950270300.0 -0.1580710411 0.9852575083
5000270000.0 -0.1438864461 0.9871796282
5050269700.0 -0.1303173641 0.9889977783
5100269400.0 -0.1167832096 0.9906451514
5150269100.0 -0.1035953069 0.992481018
5200268800.0 -0.0903392704 0.9928176772
5250268500.0 -0.0772631926 0.9937773843
5300268200.0 -0.0641357367 0.9947090936
5350267900.0 -0.0519282347 0.9953958626
5400267600.0 -0.03564811 0.9963440718
5450267300.0 -0.0227286581 0.9966824128
5500267000.0 -0.0074030955 0.9971415825
5550266700.0 0.0076487392 0.9972569328
5600266400.0 0.0230940989 0.9972076977
5650266100.0 0.0396835553 0.9969921269
5700265800.0 0.0541624927 0.9962827352
5750265500.0 0.0693903727 0.9955065668
5800265200.0 0.0831624413 0.9941241061
5850264900.0 0.0969613699 0.9934718928
5900264600.0 0.1130466361 0.9913070458
5950264300.0 0.1253575415 0.9898125694
6000264000.0 0.139274431 0.9883330108
6050263700.0 0.1519173726 0.9866467225
6100263400.0 0.1643353871 0.9850904224
6150263100.0 0.1790948876 0.9823599382
6200262800.0 0.1891786991 0.980753586
6250262500.0 0.2018999185 0.9782173568
6300262200.0 0.2146233663 0.9754658328
6350261900.0 0.2278365852 0.9725715834
6400261600.0 0.241528096 0.9691268643
6450261300.0 0.2527988451 0.9665929146
6500261000.0 0.2658966167 0.9630689756
6550260700.0 0.278532323 0.9588698936
6600260400.0 0.2921174828 0.9548703965
6650260100.0 0.3058571521 0.9506915493
6700259800.0 0.3182551735 0.9465307588
6750259500.0 0.3317443212 0.9413276705
6800259200.0 0.3447411962 0.936498981
6850258900.0 0.3570162738 0.9314023976
6900258600.0 0.3691621329 0.9262819205
6950258300.0 0.381406085 0.9208879694
7000258000.0 0.3935304318 0.915427711
7050257700.0 0.4057493449 0.9094142174
7100257400.0 0.4185136533 0.903245292
7150257100.0 0.4288453041 0.8980662838
7200256800.0 0.4416648742 0.8914850541
7250256500.0 0.4537453328 0.8852860145
7300256200.0 0.4667247878 0.8783952699
7350255900.0 0.4789905185 0.8715994945
7400255600.0 0.4921852064 0.8643631831
7450255300.0 0.5075219368 0.8552448607
7500255000.0 0.519410088 0.848408471
7550254700.0 0.532845022 0.8396928526
7600254400.0 0.5451945221 0.8312626855
7650254100.0 0.5573087222 0.8235612118
7700253800.0 0.5690451991 0.8157301893
7750253500.0 0.5804434274 0.8078598151
7800253200.0 0.5910422108 0.8001408292
7850252900.0 0.6007427535 0.792952056
7900252600.0 0.6123333528 0.7842326724
7950252300.0 0.6211749874 0.7777828342
8000252000.0 0.6310807712 0.7699706332
8050251700.0 0.6417294784 0.7617145866
8100251400.0 0.6519537645 0.7537064756
8150251100.0 0.6618140514 0.744883822
8200250800.0 0.671154845 0.7369284207
8250250500.0 0.6800992967 0.7289874902
8300250200.0 0.6899227225 0.7204269191
8350249900.0 0.6987993587 0.7118321661
8400249600.0 0.706956534 0.7037167201
8450249300.0 0.7161322989 0.6943682629
8500249000.0 0.7245237616 0.6856294828
8550248700.0 0.7327364066 0.6767057196
8600248400.0 0.7410559538 0.6670891644
8650248100.0 0.7490969933 0.6578523731
8700247800.0 0.7584568027 0.6465187348
8750247500.0 0.7668550698 0.6362866911
8800247200.0 0.7749926189 0.6260151292
8850246900.0 0.7837100334 0.6145778362
8900246600.0 0.7922473868 0.6031798625
8950246300.0 0.8020233763 0.5902013846
9000246000.0 0.8113983377 0.5774810435
9050245700.0 0.8201064785 0.5643155609
9100245400.0 0.828931533 0.551989864
9150245100.0 0.8382259882 0.5383247714
9200244800.0 0.8480500838 0.5230272282
9250244500.0 0.8575828565 0.5071695381
9300244200.0 0.8660911973 0.4924168199
9350243900.0 0.8738568053 0.4786897952
9400243600.0 0.8802844162 0.4664230799
9450243300.0 0.8862489276 0.4546213329
9500243000.0 0.8925260496 0.4424756234
9550242700.0 0.896313563 0.4346132614
9600242400.0 0.900218016 0.4273966039
9650242100.0 0.9036973111 0.4210543421
9700241800.0 0.9080036244 0.4129217684
9750241500.0 0.9118897381 0.4055146334
9800241200.0 0.9167635878 0.3961735643
9850240900.0 0.9227945877 0.3842639252
9900240600.0 0.9278189077 0.3728753799
9950240300.0 0.9345115952 0.3568927394
10000240000.0 0.9390168756 0.345557045
10050239700.0 0.9446359452 0.3300104501
10100239400.0 0.9499154969 0.3143409328
10150239100.0 0.9541120583 0.299803286
10200238800.0 0.9586069356 0.2847690035
10250238500.0 0.9617354267 0.2712544772
10300238200.0 0.9648284659 0.2575042232
10350237900.0 0.967470255 0.2444042968
10400237600.0 0.969907876 0.2314611524
10450237300.0 0.9728077098 0.2175486919
10500237000.0 0.9747585857 0.2058022171
10550236700.0 0.9771215203 0.1910063573
10600236400.0 0.9791662126 0.1780545448
10650236100.0 0.9811850014 0.1631006695
10700235800.0 0.983687574 0.1509739792
10750235500.0 0.9859221935 0.1380870706
10800235200.0 0.9876896098 0.1238763151
10850234900.0 0.9897637556 0.1090270429
10900234600.0 0.9915524196 0.0947021432
10950234300.0 0.993589719 0.0813155068
11000234000.0 0.9953061556 0.0661674415
11050233700.0 0.997174063 0.0499284063
11100233400.0 0.9986018272 0.0324516705
11150233100.0 0.9994844053 0.0163437583
11200232800.0 0.9999791308 0.0010477712
11250232500.0 1.00135657 -0.0160103093
11300232200.0 1.002136102 -0.033545444
11350231900.0 1.001800294 -0.0492684714
11400231600.0 1.00198127 -0.064954052
11450231300.0 1.000391766 -0.0812598045
11500231000.0 0.9999538134 -0.0972962151
11550230700.0 0.9975910749 -0.1102806564
11600230400.0 0.9967440641 -0.1232019603
11650230100.0 0.9949120749 -0.1343658502
11700229800.0 0.9925666474 -0.1481644698
11750229500.0 0.990591825 -0.1634400236
11800229200.0 0.9880346029 -0.1773376152
11850228900.0 0.9843327239 -0.1896033641
11900228600.0 0.9805808636 -0.1992354226
11950228300.0 0.9772320754 -0.2099804505
12000228000.0 0.9745307068 -0.2182194711
12050227700.0 0.9712429691 -0.2312878986
12100227400.0 0.9677276336 -0.2430681077
12150227100.0 0.9627872062 -0.2588321308
12200226800.0 0.9596027093 -0.2691106551
12250226500.0 0.9551195052 -0.2829417468
12300226200.0 0.951636054 -0.2941673508
12350225900.0 0.9459653907 -0.3093299441
12400225600.0 0.9420241463 -0.321621236
12450225300.0 0.9374715811 -0.3346145396
12500225000.0 0.9322551734 -0.3490968544
12550224700.0 0.9269575239 -0.3628057861
12600224400.0 0.9219312194 -0.3758810969
12650224100.0 0.9160889277 -0.3901267054
12700223800.0 0.9108698468 -0.4027020055
12750223500.0 0.9052422525 -0.4157551204
12800223200.0 0.8999055791 -0.4279838436
12850222900.0 0.8945744021 -0.4403548647
12900222600.0 0.888767494 -0.4525021772
12950222300.0 0.8829141224 -0.4656461463
13000222000.0 0.8767443193 -0.4765156561
13050221700.0 0.8696832347 -0.4895557862
13100221400.0 0.8632300064 -0.5014720574
13150221100.0 0.856351948 -0.5138011055
13200220800.0 0.8496148441 -0.5253601744
13250220500.0 0.8418864813 -0.5375010377
13300220200.0 0.8343512411 -0.5485036609
13350219900.0 0.8265298048 -0.5603119516
13400219600.0 0.8178931483 -0.5727480803
13450219300.0 0.8083602615 -0.5863708417
13500219000.0 0.7983520127 -0.6000983865
13550218700.0 0.7879475605 -0.6131842583
13600218400.0 0.7773944193 -0.6254305061
13650218100.0 0.7679472454 -0.6361258078
13700217800.0 0.7571564565 -0.6489145685
13750217500.0 0.7475767309 -0.6603073715
13800217200.0 0.7353795761 -0.6720715871
13850216900.0 0.7248697259 -0.6831280261
13900216600.0 0.7154143027 -0.6918258662
13950216300.0 0.7043068145 -0.7023380467
14000216000.0 0.6946085629 -0.7114420778
14050215700.0 0.6846744295 -0.720064929
14100215400.0 0.674466832 -0.729061459
14150215100.0 0.6656641454 -0.7375905729
14200214800.0 0.6563225747 -0.7460738896
14250214500.0 0.6462012134 -0.7552438096
14300214200.0 0.6359613135 -0.7643647697
14350213900.0 0.6250064525 -0.7736945802
14400213600.0 0.6130670564 -0.7836557033
14450213300.0 0.5999228848 -0.7938279942
14500213000.0 0.5866476863 -0.8035029653
14550212700.0 0.5744094109 -0.8131413917
14600212400.0 0.5619090004 -0.8217283221
14650212100.0 0.5484841821 -0.8304053283
14700211800.0 0.5343900954 -0.8403289088
14750211500.0 0.5228810294 -0.848155625
14800211200.0 0.510385984 -0.8564182219
14850210900.0 0.4980755478 -0.8639312409
14900210600.0 0.485045124 -0.8717886706
14950210300.0 0.4715121938 -0.8793747827
15000210000.0 0.4588140524 -0.8864291134
15050209700.0 0.4463466786 -0.8924718761
15100209400.0 0.4335049808 -0.8983028003
15150209100.0 0.4214279265 -0.9038600313
15200208800.0 0.4078314281 -0.9089451283
15250208500.0 0.3970917868 -0.9136593627
15300208200.0 0.3845593865 -0.9190072824
15350207900.0 0.3720157303 -0.9228322366
15400207600.0 0.356747538 -0.9287643348
15450207300.0 0.3423339779 -0.9333135
15500207000.0 0.3276920213 -0.9376310739
15550206700.0 0.3121520714 -0.9439141592
15600206400.0 0.2965315353 -0.9476097037
15650206100.0 0.28104773 -0.9521852611
15700205800.0 0.2671007097 -0.955353804
15750205500.0 0.2525119927 -0.9591093627
15800205200.0 0.2381980257 -0.9627441954
15850204900.0 0.2237498527 -0.9660241327
15900204600.0 0.2087263519 -0.9694898449
15950204300.0 0.1945146368 -0.9724551177
16000204000.0 0.180530397 -0.9753587365
16050203700.0 0.1658583967 -0.9784877062
16100203400.0 0.1510292213 -0.9800312134
16150203100.0 0.1367942972 -0.9822240233
16200202800.0 0.1223618447 -0.9841099271
16250202500.0 0.1077569283 -0.9860961491
16300202200.0 0.09268012 -0.9877260911
16350201900.0 0.0777117366 -0.9893439897
16400201600.0 0.0632836471 -0.9902226535
16450201300.0 0.0479341263 -0.991188732
16500201000.0 0.0314582939 -0.9919948571
16550200700.0 0.0157738747 -0.9924531234
16600200400.0 7.59253e-05 -0.9927364555
16650200100.0 -0.0161967177 -0.9924862802
16700199800.0 -0.0326649677 -0.9923113844
16750199500.0 -0.0515455193 -0.9917689095
16800199200.0 -0.0667526291 -0.9902817584
16850198900.0 -0.0823698266 -0.9894296887
16900198600.0 -0.096248927 -0.988552047
16950198300.0 -0.109321256 -0.9880054867
17000198000.0 -0.1225424611 -0.9861137796
17050197700.0 -0.1353834305 -0.9838360092
17100197400.0 -0.1480387148 -0.9816981812
17150197100.0 -0.1604366873 -0.9801682696
17200196800.0 -0.173246717 -0.9776295758
17250196500.0 -0.1865833567 -0.9755034131
17300196200.0 -0.1985136268 -0.9730793765
17350195900.0 -0.2103839055 -0.9708196451
17400195600.0 -0.222503495 -0.9683623679
17450195300.0 -0.235746386 -0.965463392
17500195000.0 -0.2492198387 -0.962319874
17550194700.0 -0.2629330314 -0.9583769136
17600194400.0 -0.2769098621 -0.9546430593
17650194100.0 -0.2906708036 -0.9503205517
17700193800.0 -0.30368482 -0.9466715236
17750193500.0 -0.3181594465 -0.9416015284
17800193200.0 -0.332655804 -0.9363313776
17850192900.0 -0.347657843 -0.9307786129
17900192600.0 -0.3627405551 -0.9246010181
17950192300.0 -0.3778833886 -0.9179344638
18000192000.0 -0.3927915144 -0.9106396653
18050191700.0 -0.4065456675 -0.9025846137
18100191400.0 -0.4209391702 -0.8949254646
18150191100.0 -0.4359643198 -0.8867128128
18200190800.0 -0.4526851813 -0.8773683361
18250190500.0 -0.469712735 -0.868153445
18300190200.0 -0.485051356 -0.859277169
18350189900.0 -0.5001758098 -0.8514425514
18400189600.0 -0.5150760416 -0.8424257016
18450189300.0 -0.5278959972 -0.8346356876
18500189000.0 -0.5411883003 -0.8267591821
18550188700.0 -0.5538209714 -0.8189342363
18600188400.0 -0.565462535 -0.8123087552
18650188100.0 -0.576710153 -0.8054877255
18700187800.0 -0.5873325245 -0.7990993612
18750187500.0 -0.5981043178 -0.7927956909
18800187200.0 -0.6083843876 -0.7858619183
18850186900.0 -0.6186720532 -0.77902853
18900186600.0 -0.6289052824 -0.7713950818
18950186300.0 -0.6388591403 -0.7641252457
19000186000.0 -0.6461412586 -0.7573798337
19050185700.0 -0.6554644815 -0.7506102342
19100185400.0 -0.665119451 -0.7421773474
19150185100.0 -0.6754850345 -0.7336635898
19200184800.0 -0.6850658999 -0.725235702
19250184500.0 -0.6953563061 -0.7159212411
19300184200.0 -0.706423007 -0.7063748431
19350183900.0 -0.7177188228 -0.6965479465
19400183600.0 -0.7269252252 -0.6865600815
19450183300.0 -0.7360470349 -0.6767162843
19500183000.0 -0.7441875426 -0.666363673
19550182700.0 -0.7540416817 -0.656002657
19600182400.0 -0.7646404208 -0.6439698435
19650182100.0 -0.7756293432 -0.6313334012
19700181800.0 -0.7862795148 -0.6180468654
19750181500.0 -0.7968005116 -0.6041259434
19800181200.0 -0.8070540197 -0.5890795947
19850180900.0 -0.8166510122 -0.5737333067
19900180600.0 -0.8244629043 -0.5592883534
19950180300.0 -0.8335325784 -0.5428501024
20000180000.0 -0.8267861698 -0.5450987321
20050179700.0 -0.8348797264 -0.5331996613
20100179400.0 -0.8433561561 -0.5187482257
20150179100.0 -0.8516212545 -0.506101182
20200178800.0 -0.860650353 -0.4931853275
20250178500.0 -0.8702113638 -0.4805795636
20300178200.0 -0.8787785168 -0.4650762251
20350177900.0 -0.8887374698 -0.4508336878
20400177600.0 -0.8972124485 -0.4359631067
20450177300.0 -0.9055596499 -0.421544235
20500177000.0 -0.9136280122 -0.4078157818
20550176700.0 -0.9214988331 -0.3942137961
20600176400.0 -0.9282017339 -0.3808482314
20650176100.0 -0.9350532755 -0.3686688381
20700175800.0 -0.9412606236 -0.356591962
20750175500.0 -0.9482298675 -0.3440626772
20800175200.0 -0.952813845 -0.3338490977
20850174900.0 -0.9581139292 -0.3232259059
20900174600.0 -0.9623920349 -0.3116232723
20950174300.0 -0.966297848 -0.3006141764
21000174000.0 -0.9698025117 -0.2887809548
21050173700.0 -0.9730816945 -0.2781715455
21100173400.0 -0.9777113795 -0.2656916422
21150173100.0 -0.9806713102 -0.2527292943
21200172800.0 -0.9848537602 -0.2391833173
21250172500.0 -0.9873814873 -0.225839093
21300172200.0 -0.9903528225 -0.2113507251
21350171900.0 -0.9915497406 -0.1969648976
21400171600.0 -0.993327907 -0.1826399604
21450171300.0 -0.9940549155 -0.1676728786
21500171000.0 -0.993055321 -0.1527776541
21550170700.0 -0.9933682582 -0.1371784621
21600170400.0 -0.9924871481 -0.121997603
21650170100.0 -0.991978065 -0.1060239801
21700169800.0 -0.9909283985 -0.0912085332
21750169500.0 -0.989211875 -0.0752895073
21800169200.0 -0.988548084 -0.0582396631
21850168900.0 -0.9871996801 -0.0416708583
21900168600.0 -0.9848358846 -0.0255450329
21950168300.0 -0.9839881631 -0.0094040424
22000168000.0 -0.9832543111 0.0047670108
22050167700.0 -0.9829759094 0.0192222932
22100167400.0 -0.9827039088 0.0344025811
22150167100.0 -0.9831245153 0.0498943396
22200166800.0 -0.9834273444 0.065361408
22250166500.0 -0.9834793891 0.0832061043
22300166200.0 -0.9828286565 0.099627189
22350165900.0 -0.9821315449 0.1171111811
22400165600.0 -0.9792102568 0.1327358967
22450165300.0 -0.9773025021 0.1477376333
22500165000.0 -0.9750450226 0.1603402146
22550164700.0 -0.9745619988 0.1764875597
22600164400.0 -0.9731620825 0.1918973789
22650164100.0 -0.9702177236 0.2058765905
22700163800.0 -0.9674457037 0.2219733766
22750163500.0 -0.9656726977 0.2384014327
22800163200.0 -0.9624664346 0.2507517152
22850162900.0 -0.9605676387 0.264340448
22900162600.0 -0.9590215725 0.2773815082
22950162300.0 -0.9581099934 0.2901622919
23000162000.0 -0.9570181475 0.3023070406
23050161700.0 -0.9545767479 0.3147234431
23100161400.0 -0.9529371372 0.3271616924
23150161100.0 -0.9496462772 0.3396101903
23200160800.0 -0.9467954251 0.35247555
23250160500.0 -0.944875021 0.3643836538
23300160200.0 -0.9411976142 0.3761299836
23350159900.0 -0.9379841939 0.3882573475
23400159600.0 -0.9337034938 0.4023848844
23450159300.0 -0.928543637 0.4155919903
23500159000.0 -0.9242283837 0.4281122862
23550158700.0 -0.9194802432 0.4416464006
23600158400.0 -0.9140361335 0.454746539
23650158100.0 -0.9078328912 0.4687607759
23700157800.0 -0.9001278249 0.4827047145
23750157500.0 -0.8916851129 0.4961264201
23800157200.0 -0.8825978341 0.5097377185
23850156900.0 -0.8740069991 0.5226420036
23900156600.0 -0.8649684671 0.5350346647
23950156300.0 -0.8554381114 0.5470439986
24000156000.0 -0.8457374105 0.5595410517
24050155700.0 -0.8359223954 0.5705870652
24100155400.0 -0.8261366581 0.5825683641
24150155100.0 -0.8154015966 0.5943197956
24200154800.0 -0.8040948721 0.6058437556
24250154500.0 -0.7927057247 0.6179180445
24300154200.0 -0.7814341617 0.6290692934
24350153900.0 -0.7700190251 0.6394549614
24400153600.0 -0.7577374965 0.6498452649
24450153300.0 -0.7459418671 0.6601374395
24500153000.0 -0.7345798478 0.6696364041
24550152700.0 -0.7228447245 0.6789352497
24600152400.0 -0.7116149182 0.6887994705
24650152100.0 -0.6997607945 0.6969594769
