!Created with skrf (http://scikit-rf.org).
# Hz S RI R 50.0 
!freq ReS11 ImS11
300000.0 -0.9934550729 -0.0460158449
50299700.0 -0.9993391919 0.0162389808
100299400.0 -0.9973376718 0.028954459
150299100.0 -1.002168202 0.0456790096
200298800.0 -0.999077299 0.0590714566
250298500.0 -0.9965515433 0.072540035
300298200.0 -0.9851509977 0.0883191462
350297900.0 -0.9931513787 0.0990185162
400297600.0 -0.9919807495 0.1154713421
450297300.0 -0.9899114841 0.129382339
500297000.0 -0.9883065299 0.1438947857
550296700.0 -0.9829989702 0.1562848113
600296400.0 -1.015861318 0.1895100856
650296100.0 -0.981010595 0.1861176721
700295800.0 -0.9780814283 0.2001500298
750295500.0 -0.9748809198 0.2141529727
800295200.0 -0.971452042 0.2281893085
850294900.0 -0.9682446888 0.2417317853
900294600.0 -0.9645823201 0.2555809756
950294300.0 -0.9607559501 0.2692917521
1000294000.0 -0.9567158943 0.2831436394
1050293700.0 -0.9522851781 0.2970065555
1100293400.0 -0.9479326912 0.3114152062
1150293100.0 -0.9442817363 0.3231117743
1200292800.0 -0.9391784854 0.3372896631
1250292500.0 -0.9335252164 0.350835014
1300292200.0 -0.9279590433 0.3639910233
1350291900.0 -0.9226425328 0.3780836269
1400291600.0 -0.9170452048 0.3911285196
1450291300.0 -0.9117048727 0.4033451335
1500291000.0 -0.9055809023 0.41652169
1550290700.0 -0.8992336154 0.4300360954
1600290400.0 -0.8929103355 0.4428209079
1650290100.0 -0.8865661118 0.4547791138
1700289800.0 -0.879548791 0.4684006361
1750289500.0 -0.8728769803 0.4806018509
1800289200.0 -0.8654312872 0.4933056934
1850288900.0 -0.858650273 0.5046699268
1900288600.0 -0.8509859487 0.5178285365
1950288300.0 -0.8428359501 0.5302480904
2000288000.0 -0.8355698075 0.5416714633
2050287700.0 -0.8273629045 0.553996298
2100287400.0 -0.8194908613 0.5656005208
2150287100.0 -0.8108170814 0.5776488896
2200286800.0 -0.8030905906 0.5881538074
2250286500.0 -0.794399026 0.600136376
2300286200.0 -0.7855680085 0.6114750768
2350285900.0 -0.7767879126 0.6225412256
2400285600.0 -0.7676457601 0.6336188787
2450285300.0 -0.7588203777 0.6441228976
2500285000.0 -0.7494431317 0.6550700124
2550284700.0 -0.7403251866 0.6655217871
2600284400.0 -0.7308947665 0.6758579034
2650284100.0 -0.7220016461 0.6861435296
2700283800.0 -0.7112653568 0.696573026
2750283500.0 -0.701274409 0.707269005
2800283200.0 -0.6912667718 0.7167066605
2850282900.0 -0.6810127904 0.7265599538
2900282600.0 -0.6707653869 0.7364867406
2950282300.0 -0.6606933066 0.7455502896
3000282000.0 -0.6497740973 0.7548952674
3050281700.0 -0.6388700572 0.7639791603
3100281400.0 -0.6277930007 0.7731736385
3150281100.0 -0.6164644683 0.7820957176
3200280800.0 -0.60460507 0.7909192099
3250280500.0 -0.5938411054 0.7989078588
3300280200.0 -0.5824574673 0.8071679253
3350279900.0 -0.5711942938 0.8145495095
3400279600.0 -0.5588150607 0.8224154495
3450279300.0 -0.5478651251 0.8300515936
3500279000.0 -0.5361732348 0.8372974718
3550278700.0 -0.5238766149 0.8445724906
3600278400.0 -0.5122605485 0.8515738471
3650278100.0 -0.4989185144 0.8592915849
3700277800.0 -0.4870497051 0.8659480608
3750277500.0 -0.4749678913 0.8725914565
3800277200.0 -0.4622691004 0.8794856146
3850276900.0 -0.4498498781 0.8854557666
3900276600.0 -0.4387479774 0.8912602922
3950276300.0 -0.4259969303 0.8974053622
4000276000.0 -0.4138504881 0.903408744
4050275700.0 -0.4003114671 0.9095034687
4100275400.0 -0.389216121 0.9149056613
4150275100.0 -0.3763455241 0.9205262192
4200274800.0 -0.3627006006 0.9258729532
4250274500.0 -0.3506426518 0.9309750983
4300274200.0 -0.337741435 0.9361012945
4350273900.0 -0.3241500637 0.9410757959
4400273600.0 -0.3100273199 0.9461583731
4450273300.0 -0.2953021957 0.9510058171
4500273000.0 -0.2819827593 0.95511444
4550272700.0 -0.2685830864 0.9592443394
4600272400.0 -0.2531180232 0.9635004484
4650272100.0 -0.2408693064 0.9666064578
4700271800.0 -0.2276050962 0.9700785849
4750271500.0 -0.2151246918 0.9730022288
4800271200.0 -0.2020069136 0.9757145033
4850270900.0 -0.1883104712 0.9785878941
4900270600.0 -0.1747289485 0.9810719907
4950270300.0 -0.1610679125 0.9834818704
5000270000.0 -0.1470075242 0.9856415766
5050269700.0 -0.1336149955 0.9874737391
5100269400.0 -0.1197456919 0.9892397561
5150269100.0 -0.1062772381 0.9905635444
5200268800.0 -0.0927999535 0.9920114629
5250268500.0 -0.0795322043 0.9932307002
5300268200.0 -0.066174204 0.9942959542
5350267900.0 -0.0539039942 0.9945975554
5400267600.0 -0.0378854114 0.995809977
5450267300.0 -0.0253847854 0.9960595301
5500267000.0 -0.0109367741 0.9964835316
5550266700.0 0.0030598411 0.9966861638
5600266400.0 0.0181855744 0.9966878867
5650266100.0 0.033756844 0.9961625835
5700265800.0 0.0480343089 0.9954513341
5750265500.0 0.0624743881 0.9951671897
5800265200.0 0.0761082045 0.9937472577
5850264900.0 0.0896191374 0.9928999322
5900264600.0 0.1059458678 0.9913610077
5950264300.0 0.1181555065 0.9894472165
6000264000.0 0.1321515285 0.9881338282
6050263700.0 0.1448232392 0.9863059873
6100263400.0 0.1583609031 0.9846246443
6150263100.0 0.1732172995 0.9820893105
6200262800.0 0.1840213716 0.9801517268
6250262500.0 0.1971419995 0.9775270471
6300262200.0 0.2099999009 0.9748047976
6350261900.0 0.2230635079 0.9719998029
6400261600.0 0.2373082759 0.968617756
6450261300.0 0.2489694441 0.9658264258
6500261000.0 0.261966501 0.9624388112
6550260700.0 0.2750510785 0.9586534422
6600260400.0 0.2879820754 0.9545877931
6650260100.0 0.3016844008 0.9503572129
6700259800.0 0.3139643683 0.9461496756
6750259500.0 0.3273992251 0.9418127136
6800259200.0 0.340812993 0.936839798
6850258900.0 0.3527033191 0.9317448378
6900258600.0 0.3653531233 0.926971486
6950258300.0 0.3779362009 0.9218786016
7000258000.0 0.390097668 0.9166544107
7050257700.0 0.4020146098 0.9109276168
7100257400.0 0.4154716845 0.9046749088
7150257100.0 0.4258887977 0.8997529503
7200256800.0 0.4387689716 0.8933898124
7250256500.0 0.4501179392 0.8873082368
7300256200.0 0.4632879454 0.8808910853
7350255900.0 0.4750123033 0.873816051
7400255600.0 0.4869868783 0.8678114713
7450255300.0 0.501597896 0.8595934134
7500255000.0 0.5126557481 0.852597532
7550254700.0 0.5257130979 0.8447425861
7600254400.0 0.5378160287 0.8369643966
7650254100.0 0.549796253 0.8295260667
7700253800.0 0.5614963508 0.82158414
7750253500.0 0.5726345964 0.8137515198
7800253200.0 0.5842018841 0.8054977425
7850252900.0 0.5938365566 0.7985533197
7900252600.0 0.6056020602 0.789832522
7950252300.0 0.6149251774 0.7825857458
8000252000.0 0.6253880514 0.7745245147
8050251700.0 0.6359598931 0.7663079428
8100251400.0 0.6459451744 0.75790359
8150251100.0 0.6564716153 0.7486584743
8200250800.0 0.6664310206 0.7406370213
8250250500.0 0.6756988159 0.7323549038
8300250200.0 0.6853766877 0.7233580906
8350249900.0 0.694510123 0.714396135
8400249600.0 0.7032373218 0.7060012251
8450249300.0 0.7128539987 0.6965834372
8500249000.0 0.7218724758 0.6872574056
8550248700.0 0.7309207166 0.6775958098
8600248400.0 0.739826091 0.6678529919
8650248100.0 0.7475997292 0.6584009947
8700247800.0 0.7569399951 0.6475582747
8750247500.0 0.7653778814 0.637717664
8800247200.0 0.7734430503 0.6273374327
8850246900.0 0.782342776 0.6162899174
8900246600.0 0.7905717607 0.6052206197
8950246300.0 0.7995506138 0.5934967377
9000246000.0 0.8081169776 0.5818496665
9050245700.0 0.8168318244 0.570123422
9100245400.0 0.8248351364 0.5579020064
9150245100.0 0.8333251832 0.5455458988
9200244800.0 0.8414669466 0.5328767392
9250244500.0 0.8505400322 0.5189224091
9300244200.0 0.8579067832 0.506146382
9350243900.0 0.8655474957 0.4929366759
9400243600.0 0.872514211 0.4804616199
9450243300.0 0.8786671031 0.4687396402
9500243000.0 0.8857353725 0.4555528386
9550242700.0 0.8911485277 0.4450452318
9600242400.0 0.896263419 0.4346532291
9650242100.0 0.9008089427 0.4259919859
9700241800.0 0.9060159942 0.4160314412
9750241500.0 0.910436304 0.4064558251
9800241200.0 0.9152542381 0.3958308079
9850240900.0 0.9206458021 0.383913729
9900240600.0 0.9253445075 0.3737128814
9950240300.0 0.9314166555 0.3589270582
10000240000.0 0.9363503411 0.346384947
10050239700.0 0.9416584393 0.3323888134
10100239400.0 0.9466417998 0.3179335097
10150239100.0 0.9510457942 0.3039155977
10200238800.0 0.9553224054 0.2892808378
10250238500.0 0.9590580822 0.2758179511
10300238200.0 0.9625838244 0.2619747054
10350237900.0 0.9655378301 0.24904001
10400237600.0 0.9685814645 0.2356839496
10450237300.0 0.9716051057 0.2221071258
10500237000.0 0.9741766849 0.2095107758
10550236700.0 0.9766344394 0.1957883153
10600236400.0 0.97895835 0.1826247595
10650236100.0 0.9814281964 0.1678038007
10700235800.0 0.98355557 0.1555309664
10750235500.0 0.9857914945 0.1421074718
10800235200.0 0.987619206 0.1280104051
10850234900.0 0.989066363 0.114438743
10900234600.0 0.9912994961 0.1000016766
10950234300.0 0.992645553 0.0868313106
11000234000.0 0.9943365377 0.0726555611
11050233700.0 0.9956565899 0.0578951443
11100233400.0 0.9967688187 0.0418703013
11150233100.0 0.9978244398 0.0263152806
11200232800.0 0.9982620591 0.0119848807
11250232500.0 0.9991833863 -0.003038617
11300232200.0 0.9990193361 -0.0193617286
11350231900.0 0.9991225794 -0.034224082
11400231600.0 0.9988470863 -0.0499844016
11450231300.0 0.9982194293 -0.0645223475
11500231000.0 0.9977658064 -0.0794305309
11550230700.0 0.9964459246 -0.094752617
11600230400.0 0.9945904183 -0.1068119815
11650230100.0 0.9934195296 -0.1196255955
11700229800.0 0.9913323078 -0.1341037035
11750229500.0 0.9893645402 -0.1484148398
11800229200.0 0.9870766876 -0.1620228088
11850228900.0 0.9840521144 -0.1758359616
11900228600.0 0.9811182583 -0.1875570545
11950228300.0 0.9781537188 -0.2000533319
12000228000.0 0.9755151363 -0.2104515132
12050227700.0 0.9719451143 -0.2232859312
12100227400.0 0.9695120851 -0.2342587751
12150227100.0 0.9644363514 -0.2522634847
12200226800.0 0.961642958 -0.2629329875
12250226500.0 0.9569439481 -0.2767445778
12300226200.0 0.9531183776 -0.2877844255
12350225900.0 0.947920174 -0.3032974
12400225600.0 0.9447516477 -0.3156152228
12450225300.0 0.9406768432 -0.3278717624
12500225000.0 0.9353487886 -0.3417918734
12550224700.0 0.9301550647 -0.3559213575
12600224400.0 0.925328029 -0.3683607594
12650224100.0 0.9196254278 -0.3825179398
12700223800.0 0.91447692 -0.395151014
12750223500.0 0.9090401893 -0.4079998763
12800223200.0 0.9031747289 -0.4210015645
12850222900.0 0.8981593472 -0.4326319913
12900222600.0 0.8919174657 -0.4453505344
12950222300.0 0.8857709647 -0.4585717149
13000222000.0 0.8796329869 -0.4701016689
13050221700.0 0.8728090862 -0.4830520073
13100221400.0 0.8660480997 -0.4947058984
13150221100.0 0.8587210571 -0.5071756779
13200220800.0 0.8517496987 -0.5191928823
13250220500.0 0.8444272086 -0.531219863
13300220200.0 0.8369678404 -0.5425242842
13350219900.0 0.8289885835 -0.5548990432
13400219600.0 0.8208495264 -0.5667748317
13450219300.0 0.8119140193 -0.5792852515
13500219000.0 0.8028339865 -0.5922806769
13550218700.0 0.7933164408 -0.6046866814
13600218400.0 0.7836158237 -0.6163994433
13650218100.0 0.7750711088 -0.6270841538
13700217800.0 0.7644947241 -0.6395615381
13750217500.0 0.7541384079 -0.6507868812
13800217200.0 0.7436688246 -0.6624408452
13850216900.0 0.7334744961 -0.6746473298
13900216600.0 0.7243453103 -0.6836717308
13950216300.0 0.7131260723 -0.6947606361
14000216000.0 0.7029714702 -0.7038894058
14050215700.0 0.693897081 -0.7125932903
14100215400.0 0.6835342264 -0.7223988016
14150215100.0 0.6739130465 -0.7315974328
14200214800.0 0.6644334762 -0.7404588131
14250214500.0 0.6538873277 -0.7499750001
14300214200.0 0.6433927537 -0.7594196769
14350213900.0 0.6325770291 -0.7690383744
14400213600.0 0.6212255837 -0.7780387817
14450213300.0 0.6090965448 -0.787442428
14500213000.0 0.5970117537 -0.7968851455
14550212700.0 0.5846570717 -0.8061889594
14600212400.0 0.5726640737 -0.8146563541
14650212100.0 0.5603912411 -0.8231162065
14700211800.0 0.5471810413 -0.8324419992
14750211500.0 0.5345794664 -0.8407902531
14800211200.0 0.5223266727 -0.848646564
14850210900.0 0.5101027147 -0.8562263165
14900210600.0 0.4971572921 -0.8641466559
14950210300.0 0.4840282567 -0.8717505779
15000210000.0 0.4712618532 -0.8788384672
15050209700.0 0.4583893657 -0.8852663879
15100209400.0 0.4452627579 -0.8913868936
15150209100.0 0.4329077552 -0.8977204628
15200208800.0 0.4201960131 -0.9032696119
15250208500.0 0.4080475243 -0.9093829758
15300208200.0 0.3941478774 -0.9142958574
15350207900.0 0.3816295804 -0.9191464733
15400207600.0 0.3673298671 -0.9250270592
15450207300.0 0.3525818069 -0.9304340915
15500207000.0 0.3385358652 -0.935466797
15550206700.0 0.3247710242 -0.9405352928
15600206400.0 0.309664747 -0.9450375518
15650206100.0 0.2946401278 -0.9496434119
15700205800.0 0.280514411 -0.9534853121
15750205500.0 0.2664554068 -0.9571358439
15800205200.0 0.2522339736 -0.9607940789
15850204900.0 0.2382017759 -0.964386629
15900204600.0 0.2232538899 -0.9682249615
15950204300.0 0.2093512628 -0.9713028822
16000204000.0 0.1952078121 -0.9744290907
16050203700.0 0.1807243878 -0.9773829752
16100203400.0 0.1663163288 -0.9794071562
16150203100.0 0.1518750058 -0.9822195007
16200202800.0 0.1378564923 -0.9839229417
16250202500.0 0.1231674054 -0.9856301004
16300202200.0 0.1081581259 -0.9877679845
16350201900.0 0.0930710533 -0.9890653142
16400201600.0 0.0783210346 -0.9906159469
16450201300.0 0.0634883671 -0.9917604671
16500201000.0 0.0474695577 -0.9927829706
16550200700.0 0.0322033701 -0.9934241877
16600200400.0 0.0166255448 -0.9939386206
16650200100.0 0.0008934712 -0.9937545736
16700199800.0 -0.0147299086 -0.9940627057
16750199500.0 -0.0321052952 -0.9939200081
16800199200.0 -0.0475022039 -0.9934073706
16850198900.0 -0.0627463105 -0.9914995529
16900198600.0 -0.0778849724 -0.9909577785
16950198300.0 -0.0923458126 -0.9898147338
17000198000.0 -0.1057958807 -0.9885595277
17050197700.0 -0.1194075468 -0.9869468012
17100197400.0 -0.1331879362 -0.9847716201
17150197100.0 -0.1475685767 -0.9830338203
17200196800.0 -0.1604747166 -0.9809022182
17250196500.0 -0.1743074078 -0.9781493189
17300196200.0 -0.1875790076 -0.9757402293
17350195900.0 -0.2005405396 -0.9732065818
17400195600.0 -0.2133972318 -0.9705151889
17450195300.0 -0.2268245768 -0.9677130938
17500195000.0 -0.2401927212 -0.9643446791
17550194700.0 -0.2541415985 -0.9611246098
17600194400.0 -0.2683652791 -0.9570360194
17650194100.0 -0.2820856285 -0.9530981754
17700193800.0 -0.2952372541 -0.9489714349
17750193500.0 -0.3093224912 -0.9446555333
17800193200.0 -0.3231394046 -0.9399215974
17850192900.0 -0.3377733596 -0.9347205674
17900192600.0 -0.3523340666 -0.929471661
17950192300.0 -0.3670295803 -0.9226761333
18000192000.0 -0.381716542 -0.9162025809
18050191700.0 -0.3957040016 -0.9090907239
18100191400.0 -0.4100010896 -0.9022848535
18150191100.0 -0.4241043971 -0.8951302189
18200190800.0 -0.4394563123 -0.8872711648
18250190500.0 -0.4555216061 -0.878834944
18300190200.0 -0.4704041553 -0.8709851609
18350189900.0 -0.4852612094 -0.8631409688
18400189600.0 -0.4997816063 -0.8555963685
18450189300.0 -0.5131857629 -0.8475094824
18500189000.0 -0.5266897069 -0.8394203262
18550188700.0 -0.5395376476 -0.8315122949
18600188400.0 -0.5516940858 -0.8240183362
18650188100.0 -0.5639196519 -0.8164513588
18700187800.0 -0.575250363 -0.8095708965
18750187500.0 -0.5869727537 -0.8018931186
18800187200.0 -0.5978141801 -0.7940710383
18850186900.0 -0.6087202343 -0.786370256
18900186600.0 -0.6191113078 -0.7784975272
18950186300.0 -0.6302303724 -0.7696860244
19000186000.0 -0.6389797471 -0.7621832552
19050185700.0 -0.6494406612 -0.7542429142
19100185400.0 -0.6596516023 -0.7456835542
19150185100.0 -0.6702505107 -0.7366748826
19200184800.0 -0.6789885612 -0.7278278178
19250184500.0 -0.6891822781 -0.7177345343
19300184200.0 -0.7006981989 -0.708455653
19350183900.0 -0.7116329813 -0.6983363271
19400183600.0 -0.7205193161 -0.6886344802
19450183300.0 -0.7301393806 -0.6781121284
19500183000.0 -0.7386542347 -0.6683145608
19550182700.0 -0.7479360732 -0.6573265415
19600182400.0 -0.757340741 -0.6460973381
19650182100.0 -0.7675422932 -0.634414607
19700181800.0 -0.7776067022 -0.6222888191
19750181500.0 -0.7871748702 -0.6099340139
19800181200.0 -0.7969648339 -0.5961898533
19850180900.0 -0.8065743748 -0.5827183604
19900180600.0 -0.8148302501 -0.5696616357
19950180300.0 -0.8244258155 -0.5546190403
20000180000.0 -0.824472665 -0.5501625067
20050179700.0 -0.8337151386 -0.5376676438
20100179400.0 -0.8411902183 -0.5241413722
20150179100.0 -0.8500892513 -0.5111241338
20200178800.0 -0.8570681767 -0.4988751898
20250178500.0 -0.8669915147 -0.486177801
20300178200.0 -0.8748515415 -0.472601593
20350177900.0 -0.883361368 -0.4584612794
20400177600.0 -0.8907080866 -0.4451650393
20450177300.0 -0.8983119063 -0.4313191971
20500177000.0 -0.9054132818 -0.418065489
20550176700.0 -0.9127237153 -0.4045210973
20600176400.0 -0.9194187696 -0.391358077
20650176100.0 -0.9255797819 -0.378763017
20700175800.0 -0.932452679 -0.3660154076
20750175500.0 -0.9382379169 -0.3534489471
20800175200.0 -0.9428120815 -0.3428366066
20850174900.0 -0.9488228794 -0.3290891027
20900174600.0 -0.9520375665 -0.3177073945
20950174300.0 -0.9574140114 -0.3057531023
21000174000.0 -0.9603367868 -0.2925945832
21050173700.0 -0.9631544552 -0.2809632725
21100173400.0 -0.9674535971 -0.2686823695
21150173100.0 -0.9708977684 -0.2552784525
21200172800.0 -0.9748345288 -0.2415897889
21250172500.0 -0.9773685983 -0.2279839177
21300172200.0 -0.9812301045 -0.2147913739
21350171900.0 -0.9836517169 -0.2005996005
21400171600.0 -0.9854811204 -0.1861733684
21450171300.0 -0.9861629266 -0.1712110112
21500171000.0 -0.9876946401 -0.1566774776
21550170700.0 -0.9885166179 -0.1421606484
21600170400.0 -0.9904112463 -0.1260812389
21650170100.0 -0.992000352 -0.1107988025
21700169800.0 -0.9902053769 -0.0970044432
21750169500.0 -0.9898368349 -0.0806700059
21800169200.0 -0.990304504 -0.0651535597
21850168900.0 -0.9897998646 -0.0495569719
21900168600.0 -0.9899017896 -0.0341355768
21950168300.0 -0.988881779 -0.0187130166
22000168000.0 -0.9883401096 -0.0041420704
22050167700.0 -0.9882444165 0.0102474172
22100167400.0 -0.9878828152 0.0253849128
22150167100.0 -0.9880757106 0.0402575277
22200166800.0 -0.9878152725 0.0554435757
22250166500.0 -0.9868856059 0.0716335
22300166200.0 -0.9865459729 0.0870207638
22350165900.0 -0.9847136436 0.102889423
22400165600.0 -0.9842733696 0.1180674059
22450165300.0 -0.9816503126 0.1323770809
22500165000.0 -0.9792434296 0.1457465883
22550164700.0 -0.9787242903 0.1612898052
22600164400.0 -0.9769663456 0.1753408811
22650164100.0 -0.9741230951 0.189801087
22700163800.0 -0.9717800442 0.2045516598
22750163500.0 -0.9687521218 0.2195066519
22800163200.0 -0.965889781 0.2324687505
22850162900.0 -0.9631522721 0.2457762183
22900162600.0 -0.9613139222 0.2593018037
22950162300.0 -0.9590584864 0.272596678
23000162000.0 -0.9571352163 0.2847362104
23050161700.0 -0.954145011 0.297687719
23100161400.0 -0.9513094526 0.3108145376
23150161100.0 -0.9483559879 0.3236147582
23200160800.0 -0.9449294753 0.3363423645
23250160500.0 -0.9411522787 0.3483707411
23300160200.0 -0.9387551518 0.3598699108
23350159900.0 -0.9342900136 0.3735862858
23400159600.0 -0.9301518267 0.3858944835
23450159300.0 -0.9254981781 0.3984704041
23500159000.0 -0.9203127768 0.4116432736
23550158700.0 -0.9161067087 0.4246365282
23600158400.0 -0.91056482 0.4369569567
23650158100.0 -0.9046087561 0.4502428983
23700157800.0 -0.8979443133 0.4634718233
23750157500.0 -0.8902372164 0.4766725053
23800157200.0 -0.8822214835 0.4892452254
23850156900.0 -0.8744287016 0.5020738434
23900156600.0 -0.8668801819 0.5145740407
23950156300.0 -0.857638157 0.5266703052
24000156000.0 -0.8499286311 0.5389339773
24050155700.0 -0.8406413084 0.5504450367
24100155400.0 -0.831434306 0.5621187121
24150155100.0 -0.8218656147 0.5741975326
24200154800.0 -0.8128018763 0.5856089537
24250154500.0 -0.8019464686 0.5968689834
24300154200.0 -0.7924511755 0.6086151853
24350153900.0 -0.7823377735 0.6201187662
24400153600.0 -0.771200041 0.6308580188
24450153300.0 -0.7603944133 0.6414549878
24500153000.0 -0.7497461158 0.6515197269
24550152700.0 -0.7398025715 0.6622840977
24600152400.0 -0.7294597413 0.6720761244
24650152100.0 -0.7185572708 0.6810599041
