!Created with skrf (http://scikit-rf.org).
# Hz S RI R 50.0 
!freq ReS11 ImS11
300000.0 -0.9796850802 -0.1010424617
50299700.0 -1.000039214 0.0162652167
100299400.0 -0.9981002427 0.0291560837
150299100.0 -1.002828424 0.0458711878
200298800.0 -0.9996481432 0.0593548993
250298500.0 -0.9974695744 0.0726461856
300298200.0 -0.9861033894 0.0886340041
350297900.0 -0.9941572187 0.0995458249
400297600.0 -0.9933344366 0.1160969308
450297300.0 -0.9911130038 0.1299414927
500297000.0 -0.9892716308 0.1446074782
550296700.0 -0.9841440353 0.1571830378
600296400.0 -1.017021172 0.1909004644
650296100.0 -0.982067423 0.1870222581
700295800.0 -0.97925284 0.2014247126
750295500.0 -0.9760930067 0.2155318525
800295200.0 -0.9728331315 0.2294564725
850294900.0 -0.969462772 0.2432835803
900294600.0 -0.9655707347 0.2571971322
950294300.0 -0.961849494 0.2707822163
1000294000.0 -0.9577762371 0.2848820696
1050293700.0 -0.9532807895 0.2986562809
1100293400.0 -0.9489137207 0.3130375486
1150293100.0 -0.9450224436 0.3249547762
1200292800.0 -0.939815758 0.3391490786
1250292500.0 -0.9345143178 0.3525410139
1300292200.0 -0.928707958 0.3659918974
1350291900.0 -0.9230628522 0.3799883421
1400291600.0 -0.9174870932 0.3929884845
1450291300.0 -0.9120400066 0.4052686291
1500291000.0 -0.9057478326 0.4185059345
1550290700.0 -0.8993368742 0.4319766338
1600290400.0 -0.8930412892 0.4448913749
1650290100.0 -0.8864298736 0.4568512056
1700289800.0 -0.8795876362 0.4703372437
1750289500.0 -0.8725700713 0.4827759225
1800289200.0 -0.8652267834 0.4954734252
1850288900.0 -0.8584421832 0.5068890295
1900288600.0 -0.8507027353 0.5198240555
1950288300.0 -0.8425422224 0.5323772366
2000288000.0 -0.8349250918 0.5437535837
2050287700.0 -0.8267985358 0.5561166591
2100287400.0 -0.8189319038 0.5677450457
2150287100.0 -0.8101270488 0.5800262366
2200286800.0 -0.802348717 0.5902796483
2250286500.0 -0.7934537246 0.6022546372
2300286200.0 -0.7843705369 0.6140338795
2350285900.0 -0.7757399848 0.6248731933
2400285600.0 -0.7666822961 0.6359742105
2450285300.0 -0.7582580977 0.6463872598
2500285000.0 -0.7483087249 0.6576410586
2550284700.0 -0.7394728878 0.667954142
2600284400.0 -0.7300621899 0.6782515301
2650284100.0 -0.7210445802 0.6887422083
2700283800.0 -0.7103347062 0.6992084494
2750283500.0 -0.6997746668 0.7095873627
2800283200.0 -0.6902004978 0.719295873
2850282900.0 -0.6802116971 0.7293426395
2900282600.0 -0.669723961 0.7386650392
2950282300.0 -0.6597366678 0.7479156692
3000282000.0 -0.6489751056 0.7575136559
3050281700.0 -0.6376594159 0.7666741102
3100281400.0 -0.6258944797 0.7760694714
3150281100.0 -0.6139923882 0.7853519838
3200280800.0 -0.6024057649 0.79386504
3250280500.0 -0.5915690924 0.8017156499
3300280200.0 -0.5804680339 0.8093911408
3350279900.0 -0.5689935303 0.8169508831
3400279600.0 -0.5569771907 0.8245599992
3450279300.0 -0.5457865243 0.8317748749
3500279000.0 -0.5339628149 0.8388661992
3550278700.0 -0.5214265236 0.8462323787
3600278400.0 -0.5091392023 0.8535270604
3650278100.0 -0.4958863014 0.8610308467
3700277800.0 -0.4836401137 0.8673496138
3750277500.0 -0.471495057 0.8738806952
3800277200.0 -0.4590064683 0.8805373117
3850276900.0 -0.4465816128 0.8864355659
3900276600.0 -0.4358315404 0.8920549168
3950276300.0 -0.4232368258 0.8982199918
4000276000.0 -0.4112634303 0.9040829443
4050275700.0 -0.3983001629 0.9099512134
4100275400.0 -0.3870640984 0.9155672102
4150275100.0 -0.3742289837 0.9212227946
4200274800.0 -0.3613344774 0.9266211994
4250274500.0 -0.3489635258 0.9316654776
4300274200.0 -0.3357430989 0.9371637688
4350273900.0 -0.3221173637 0.9422488292
4400273600.0 -0.3074070839 0.9474125928
4450273300.0 -0.2919774232 0.9525583778
4500273000.0 -0.2783303338 0.9569384178
4550272700.0 -0.2641627624 0.9608063058
4600272400.0 -0.2486518446 0.9650983838
4650272100.0 -0.236864582 0.9684170073
4700271800.0 -0.2235651674 0.9719726118
4750271500.0 -0.211920236 0.9748450278
4800271200.0 -0.1993845156 0.9773023485
4850270900.0 -0.1855609463 0.9804145253
4900270600.0 -0.1717711258 0.9825676187
4950270300.0 -0.1575546312 0.9852628995
5000270000.0 -0.1431704145 0.9873871174
5050269700.0 -0.1298728632 0.9889726895
5100269400.0 -0.1160991791 0.9904594251
5150269100.0 -0.1031652304 0.9925117907
5200268800.0 -0.0898691159 0.9929774345
5250268500.0 -0.0767683359 0.9939373826
5300268200.0 -0.0636684598 0.9946411534
5350267900.0 -0.0515808107 0.9954131267
5400267600.0 -0.0353684556 0.9967179564
5450267300.0 -0.0223406372 0.9967083827
5500267000.0 -0.0070977917 0.997120564
5550266700.0 0.0077061561 0.9973469261
5600266400.0 0.0234890211 0.9974403563
5650266100.0 0.0398240789 0.9970348818
5700265800.0 0.0543263737 0.9959270325
5750265500.0 0.0698637117 0.9955806869
5800265200.0 0.0830204264 0.9936664416
5850264900.0 0.0970865666 0.9932851507
5900264600.0 0.1133313903 0.991530636
5950264300.0 0.1257759936 0.9898685547
6000264000.0 0.1396485929 0.9877318932
6050263700.0 0.1523977822 0.986586117
6100263400.0 0.1646795428 0.9844761958
6150263100.0 0.1794499071 0.9820541473
6200262800.0 0.1900653185 0.9803475594
6250262500.0 0.2026152486 0.9776601612
6300262200.0 0.2154100162 0.9751504847
6350261900.0 0.228684409 0.9721582696
6400261600.0 0.2421767173 0.9687919149
6450261300.0 0.2536749015 0.9659223703
6500261000.0 0.2664157079 0.9626645517
6550260700.0 0.2793471634 0.9586949784
6600260400.0 0.2928817881 0.9546896333
6650260100.0 0.3066639091 0.9501839337
6700259800.0 0.3182530358 0.9458577528
6750259500.0 0.3324403511 0.9410730458
6800259200.0 0.3454666509 0.9360303417
6850258900.0 0.3573901705 0.930927822
6900258600.0 0.3695352908 0.9260745257
6950258300.0 0.3819397105 0.9207988127
7000258000.0 0.3940156423 0.9153397431
7050257700.0 0.406463503 0.9093471618
7100257400.0 0.4189923674 0.9029503783
7150257100.0 0.4294448267 0.8978598751
7200256800.0 0.4419282442 0.8914134024
7250256500.0 0.4538521188 0.8849184321
7300256200.0 0.466649793 0.8780180746
7350255900.0 0.4791918176 0.8713003953
7400255600.0 0.4922506877 0.8641863031
7450255300.0 0.5079736357 0.8552754634
7500255000.0 0.5191099193 0.8481418684
7550254700.0 0.5330964549 0.8396889951
7600254400.0 0.545644124 0.8310126844
7650254100.0 0.5573920058 0.8232703962
7700253800.0 0.5692741485 0.8153168852
7750253500.0 0.5806839523 0.807593044
7800253200.0 0.5912119745 0.7996942453
7850252900.0 0.6011695171 0.792736512
7900252600.0 0.6127530927 0.783848755
7950252300.0 0.6216212805 0.7772141762
8000252000.0 0.6318477225 0.769306653
8050251700.0 0.642414892 0.7610949468
8100251400.0 0.6522822529 0.7530860967
8150251100.0 0.6627485839 0.7441513146
8200250800.0 0.6719724794 0.7361231254
8250250500.0 0.6808047208 0.7281928471
8300250200.0 0.6906258594 0.7197823447
8350249900.0 0.6992993334 0.711031493
8400249600.0 0.7072901344 0.7029892047
8450249300.0 0.7166159622 0.6936574632
8500249000.0 0.7250474157 0.6847304617
8550248700.0 0.7334995939 0.6757269213
8600248400.0 0.7420970973 0.6663049232
8650248100.0 0.7497486656 0.6568777466
8700247800.0 0.7591220934 0.6457238181
8750247500.0 0.767428337 0.6358143503
8800247200.0 0.7753396935 0.6254243698
8850246900.0 0.7841884698 0.6142067146
8900246600.0 0.7924934762 0.6028545235
8950246300.0 0.8021440986 0.5898053256
9000246000.0 0.8114928714 0.5769699428
9050245700.0 0.8203725046 0.564248761
9100245400.0 0.8289165762 0.5519151199
9150245100.0 0.8382257278 0.5381271162
9200244800.0 0.8478115135 0.5228730311
9250244500.0 0.8577914474 0.507229955
9300244200.0 0.8659070617 0.4927269059
9350243900.0 0.8737778858 0.4787174497
9400243600.0 0.8804028392 0.4662244806
9450243300.0 0.8862599243 0.4543243837
9500243000.0 0.8925591575 0.4418727656
9550242700.0 0.8964314071 0.4341969115
9600242400.0 0.9003191629 0.4264625993
9650242100.0 0.9039392915 0.4198964236
9700241800.0 0.9086868073 0.4113934243
9750241500.0 0.912386694 0.4041495448
9800241200.0 0.9170084024 0.3949657113
9850240900.0 0.922776323 0.3830493162
9900240600.0 0.9283845772 0.3715290721
9950240300.0 0.9347082967 0.3552664714
10000240000.0 0.9393261295 0.3439941224
10050239700.0 0.9446296483 0.3289057269
10100239400.0 0.950159481 0.3132960493
10150239100.0 0.9541752194 0.2987419462
10200238800.0 0.958701674 0.2835395903
10250238500.0 0.9617916049 0.2704308805
10300238200.0 0.9650827993 0.2563895413
10350237900.0 0.9675599969 0.2434099699
10400237600.0 0.9701875768 0.23017939
10450237300.0 0.9729210999 0.2167476246
10500237000.0 0.9751972279 0.2043054253
10550236700.0 0.9768971763 0.1908291208
10600236400.0 0.9794181835 0.1770324428
10650236100.0 0.9814325217 0.1627401032
10700235800.0 0.9833283628 0.1506993314
10750235500.0 0.9857972572 0.1374194063
10800235200.0 0.9877901805 0.1238006599
10850234900.0 0.9898079633 0.1087162891
10900234600.0 0.9917465447 0.0942578887
10950234300.0 0.9933826627 0.0810512221
11000234000.0 0.9951862088 0.0660308305
11050233700.0 0.9969513958 0.0497064829
11100233400.0 0.998383252 0.0321912843
11150233100.0 0.9995511458 0.0160806095
11200232800.0 1.000005668 0.0012556853
11250232500.0 1.001040842 -0.0156126864
11300232200.0 1.001231003 -0.0327241307
11350231900.0 1.001648548 -0.0498245006
11400231600.0 1.001326956 -0.0654172113
11450231300.0 1.000291353 -0.0800397665
11500231000.0 0.998758543 -0.0967107602
11550230700.0 0.9976124056 -0.1103207851
11600230400.0 0.9963788511 -0.1233822855
11650230100.0 0.9943168772 -0.1346603686
11700229800.0 0.9924146224 -0.1500510544
11750229500.0 0.990153255 -0.1647495373
11800229200.0 0.9872072998 -0.1782051564
11850228900.0 0.9836095847 -0.1907831375
11900228600.0 0.9802801064 -0.2006217427
11950228300.0 0.9769292414 -0.2106550721
12000228000.0 0.9740478797 -0.2200932527
12050227700.0 0.970718234 -0.2324513915
12100227400.0 0.967318313 -0.2443413043
12150227100.0 0.9617893735 -0.261103196
12200226800.0 0.9591288392 -0.2714491417
12250226500.0 0.9550491363 -0.2837109726
12300226200.0 0.9508714788 -0.2963255186
12350225900.0 0.9458190554 -0.3098371013
12400225600.0 0.9413496317 -0.322352538
12450225300.0 0.9370363291 -0.3353349147
12500225000.0 0.931738648 -0.349856569
12550224700.0 0.9265843279 -0.3634733222
12600224400.0 0.9218116053 -0.3760872162
12650224100.0 0.9158193778 -0.3903590311
12700223800.0 0.9105907366 -0.4030773449
12750223500.0 0.9052617408 -0.4158600366
12800223200.0 0.9001247628 -0.4283957418
12850222900.0 0.8945552238 -0.4407333895
12900222600.0 0.8886769754 -0.4530201171
12950222300.0 0.8826356815 -0.4654434883
13000222000.0 0.8765833466 -0.4766160422
13050221700.0 0.8696755676 -0.4896984904
13100221400.0 0.8626515662 -0.5018378393
13150221100.0 0.8558863308 -0.5141588092
13200220800.0 0.8489131569 -0.5256659711
13250220500.0 0.8413680473 -0.5381253795
13300220200.0 0.8339174558 -0.5490016588
13350219900.0 0.8258002463 -0.5611668844
13400219600.0 0.8172882772 -0.5733133761
13450219300.0 0.807887597 -0.5868482081
13500219000.0 0.7977565247 -0.6007387214
13550218700.0 0.7871057559 -0.6134328981
13600218400.0 0.7767428564 -0.6263138115
13650218100.0 0.7682657086 -0.6370624408
13700217800.0 0.7559749095 -0.6496971282
13750217500.0 0.7463491944 -0.6608745072
13800217200.0 0.7346831477 -0.6726274759
13850216900.0 0.7238198396 -0.6843834461
13900216600.0 0.7137480759 -0.6925449633
13950216300.0 0.7035137223 -0.7033486756
14000216000.0 0.6934234722 -0.7124231835
14050215700.0 0.6836303777 -0.7206989063
14100215400.0 0.6741940446 -0.7295713234
14150215100.0 0.66495507 -0.7381497119
14200214800.0 0.6555963039 -0.746653719
14250214500.0 0.6455043793 -0.7558567236
14300214200.0 0.6351036603 -0.7650320335
14350213900.0 0.6240639065 -0.7746899652
14400213600.0 0.6126629411 -0.7842249289
14450213300.0 0.599715273 -0.7943414693
14500213000.0 0.586229796 -0.8041780194
14550212700.0 0.5740232512 -0.8129799066
14600212400.0 0.5618194193 -0.8218426951
14650212100.0 0.5486723658 -0.8304600953
14700211800.0 0.5346279577 -0.8401909766
14750211500.0 0.5225493279 -0.8484848738
14800211200.0 0.5098835589 -0.8565756851
14850210900.0 0.498029185 -0.8639987493
14900210600.0 0.4846203563 -0.8718610339
14950210300.0 0.4710568654 -0.8796387807
15000210000.0 0.4582158201 -0.8862527913
15050209700.0 0.4457896948 -0.8925897894
15100209400.0 0.432604365 -0.8983769383
15150209100.0 0.4204485705 -0.9040898152
15200208800.0 0.4071623242 -0.9099412536
15250208500.0 0.3964916768 -0.9142018129
15300208200.0 0.3843008957 -0.9198450083
15350207900.0 0.3706775915 -0.9239310715
15400207600.0 0.3549786997 -0.929043012
15450207300.0 0.3403708546 -0.9340018821
15500207000.0 0.3267237895 -0.9384040751
15550206700.0 0.311921028 -0.9432916909
15600206400.0 0.2954989551 -0.9478818551
15650206100.0 0.279636645 -0.9525853335
15700205800.0 0.2655231825 -0.9559819465
15750205500.0 0.2510155676 -0.9593156741
15800205200.0 0.2368073074 -0.9629229152
15850204900.0 0.2223171104 -0.9662684402
15900204600.0 0.2073191897 -0.9699046666
15950204300.0 0.1934131344 -0.9728918013
16000204000.0 0.1795429805 -0.975302803
16050203700.0 0.1650293889 -0.9784546111
16100203400.0 0.1507096516 -0.9808919032
16150203100.0 0.1362932713 -0.9824603391
16200202800.0 0.1220788022 -0.9850262229
16250202500.0 0.1076310663 -0.986182756
16300202200.0 0.0924130094 -0.9879597188
16350201900.0 0.0779003524 -0.9893408716
16400201600.0 0.0634200794 -0.9905774865
16450201300.0 0.0482807092 -0.9912228218
16500201000.0 0.0315357443 -0.9921281978
16550200700.0 0.0157670236 -0.9925358309
16600200400.0 9.80188e-05 -0.9926400783
16650200100.0 -0.016178213 -0.9925257269
16700199800.0 -0.0329884199 -0.9922463858
16750199500.0 -0.0518433655 -0.9913088782
16800199200.0 -0.0678055747 -0.990539304
16850198900.0 -0.0830689482 -0.9891420316
16900198600.0 -0.0969271066 -0.9877228563
16950198300.0 -0.1104293772 -0.9869020471
17000198000.0 -0.1234179334 -0.9857417384
17050197700.0 -0.1356647546 -0.9831244532
17100197400.0 -0.1488258769 -0.9814371725
17150197100.0 -0.1618407369 -0.9793026434
17200196800.0 -0.1743273537 -0.9775449806
17250196500.0 -0.1874889743 -0.9748797609
17300196200.0 -0.1998763981 -0.9727037236
17350195900.0 -0.2117704751 -0.9703897206
17400195600.0 -0.2240520232 -0.9678646035
17450195300.0 -0.2371008437 -0.9652331736
17500195000.0 -0.2503383418 -0.9619271688
17550194700.0 -0.2643961246 -0.9583377251
17600194400.0 -0.2782900048 -0.9539609338
17650194100.0 -0.291966453 -0.9500708336
17700193800.0 -0.3048732635 -0.9458481907
17750193500.0 -0.3192867976 -0.9415472196
17800193200.0 -0.3334354913 -0.9359210257
17850192900.0 -0.34823519 -0.9306714679
17900192600.0 -0.3631761561 -0.9244728164
17950192300.0 -0.3788162085 -0.9176394962
18000192000.0 -0.3934323399 -0.9105960396
18050191700.0 -0.4071021923 -0.9023593368
18100191400.0 -0.4212829615 -0.8948136834
18150191100.0 -0.4362042685 -0.886882769
18200190800.0 -0.453062949 -0.8777317606
18250190500.0 -0.4696399955 -0.8680712791
18300190200.0 -0.4850438549 -0.8593359611
18350189900.0 -0.5001677248 -0.8506098539
18400189600.0 -0.5145613205 -0.842618689
18450189300.0 -0.5282136191 -0.8342870442
18500189000.0 -0.5413542676 -0.826580836
18550188700.0 -0.5542059913 -0.8189579569
18600188400.0 -0.5658996862 -0.8115500084
18650188100.0 -0.5768460929 -0.8053312983
18700187800.0 -0.5874202481 -0.7987436746
18750187500.0 -0.5986215708 -0.7920001828
18800187200.0 -0.6095774797 -0.7848041947
18850186900.0 -0.6199873765 -0.7775700474
18900186600.0 -0.6303803575 -0.7699672554
18950186300.0 -0.6406714774 -0.7622107269
19000186000.0 -0.6476402573 -0.7559908489
19050185700.0 -0.657538599 -0.7486261152
19100185400.0 -0.6670815672 -0.7396997209
19150185100.0 -0.6775229876 -0.7317908762
19200184800.0 -0.6873194739 -0.7232067023
19250184500.0 -0.697354137 -0.7135962058
19300184200.0 -0.7087775469 -0.7043305342
19350183900.0 -0.7192610297 -0.6942073372
19400183600.0 -0.7292005306 -0.6843308193
19450183300.0 -0.7383581696 -0.6742237243
19500183000.0 -0.746101344 -0.6647139866
19550182700.0 -0.7558357022 -0.653821085
19600182400.0 -0.7659100545 -0.6422214122
19650182100.0 -0.777100911 -0.6300851481
19700181800.0 -0.7873277077 -0.6169560054
19750181500.0 -0.7977564191 -0.6028615872
19800181200.0 -0.8078310935 -0.5880597931
19850180900.0 -0.817374184 -0.5727461597
19900180600.0 -0.8249300745 -0.5584894944
19950180300.0 -0.8343114218 -0.5424762135
20000180000.0 -0.8278674184 -0.5439937326
20050179700.0 -0.8352253809 -0.530859129
20100179400.0 -0.843865894 -0.5173254114
20150179100.0 -0.8516181184 -0.5063462438
20200178800.0 -0.8608378792 -0.491886008
20250178500.0 -0.8705801418 -0.4797444344
20300178200.0 -0.8792403267 -0.4651678259
20350177900.0 -0.8882381737 -0.449818166
20400177600.0 -0.8969512564 -0.4355585595
20450177300.0 -0.9051478662 -0.4211391963
20500177000.0 -0.9131699308 -0.407435204
20550176700.0 -0.921268308 -0.3935734287
20600176400.0 -0.9277134177 -0.3800926742
20650176100.0 -0.9347448339 -0.3681461394
20700175800.0 -0.9417016802 -0.3559083827
20750175500.0 -0.948268895 -0.3437640878
20800175200.0 -0.9530886912 -0.3327038693
20850174900.0 -0.9576083712 -0.3213608538
20900174600.0 -0.9633815093 -0.3098625073
20950174300.0 -0.9664747312 -0.2977285355
21000174000.0 -0.9697325823 -0.2869863788
21050173700.0 -0.9730020178 -0.2752191477
21100173400.0 -0.9770903076 -0.2627443615
21150173100.0 -0.9813114456 -0.250679964
21200172800.0 -0.9845680977 -0.2365845637
21250172500.0 -0.9880646994 -0.2229018088
21300172200.0 -0.9905845265 -0.2090713732
21350171900.0 -0.9923878052 -0.1945494254
21400171600.0 -0.9929867084 -0.1802080738
21450171300.0 -0.9939676949 -0.1663124551
21500171000.0 -0.993660717 -0.1504253283
21550170700.0 -0.9934337417 -0.1341702035
21600170400.0 -0.9930222443 -0.1196771361
21650170100.0 -0.9922030051 -0.1030008076
21700169800.0 -0.9899249531 -0.0889635025
21750169500.0 -0.9893237705 -0.0729155308
21800169200.0 -0.9886662989 -0.0578425641
21850168900.0 -0.9882295196 -0.0405862965
21900168600.0 -0.9851452433 -0.0245866655
21950168300.0 -0.9839459592 -0.008686964
22000168000.0 -0.9831000138 0.0059029987
22050167700.0 -0.9826717291 0.0207821409
22100167400.0 -0.982307289 0.0357862104
22150167100.0 -0.9829416039 0.0508838938
22200166800.0 -0.9835970324 0.0678032391
22250166500.0 -0.9831483675 0.0842544659
22300166200.0 -0.9821896158 0.1004562191
22350165900.0 -0.9804628178 0.116564173
22400165600.0 -0.9794729993 0.1320604995
22450165300.0 -0.9775689422 0.1474600208
22500165000.0 -0.9753060456 0.1610568245
22550164700.0 -0.9745443895 0.176565864
22600164400.0 -0.9721423548 0.193028839
22650164100.0 -0.9700427206 0.2065253655
22700163800.0 -0.9675446308 0.223360295
22750163500.0 -0.9650450497 0.2381496375
22800163200.0 -0.9616086568 0.2509912889
22850162900.0 -0.9595883122 0.2652080298
22900162600.0 -0.9581025126 0.2786355715
22950162300.0 -0.9571716186 0.2912495259
23000162000.0 -0.9562072088 0.3033458632
23050161700.0 -0.9541088814 0.3154605688
23100161400.0 -0.9518110048 0.3281071998
23150161100.0 -0.9487595875 0.3405245054
23200160800.0 -0.9464360352 0.3535425632
23250160500.0 -0.9436863947 0.3649271217
23300160200.0 -0.9406433236 0.3771929537
23350159900.0 -0.9371770039 0.3893294934
23400159600.0 -0.9320387686 0.4025663616
23450159300.0 -0.9275985459 0.4161272507
23500159000.0 -0.9229635177 0.4281577127
23550158700.0 -0.9181965471 0.4418732391
23600158400.0 -0.9132569162 0.4549019772
23650158100.0 -0.9064933628 0.4687118344
23700157800.0 -0.8991946808 0.4821515225
23750157500.0 -0.8907340023 0.4963609739
23800157200.0 -0.8820641444 0.5094999626
23850156900.0 -0.8729617798 0.5225601822
23900156600.0 -0.8640940233 0.5346727473
23950156300.0 -0.853893394 0.5466417239
24000156000.0 -0.8451187451 0.5591160956
24050155700.0 -0.8347201299 0.5702618387
24100155400.0 -0.8255065612 0.5817358487
24150155100.0 -0.8148082407 0.5939192529
24200154800.0 -0.8039538526 0.605440924
24250154500.0 -0.7923054338 0.6171733269
24300154200.0 -0.7807195514 0.6292339187
24350153900.0 -0.7689356194 0.6397420113
24400153600.0 -0.7570070271 0.6498984759
24450153300.0 -0.7453618728 0.6599420005
24500153000.0 -0.7339495915 0.6697001756
24550152700.0 -0.7222748634 0.6792703424
24600152400.0 -0.7109192568 0.6881509245
24650152100.0 -0.6992166933 0.6970294869
