!Created with skrf (http://scikit-rf.org).
# Hz S RI R 50.0 
!freq ReS11 ImS11
300000.0 -0.9743728605 -0.1203048339
50299700.0 -0.9998577763 0.0150651636
100299400.0 -0.9979405478 0.028004131
150299100.0 -1.002709013 0.044944929
200298800.0 -0.9995469092 0.0582659378
250298500.0 -0.9972991539 0.0716627732
300298200.0 -0.9859825645 0.0874384345
350297900.0 -0.9940817802 0.0983098269
400297600.0 -0.993248905 0.1150398333
450297300.0 -0.9908413778 0.1286184327
500297000.0 -0.9894195132 0.1436101344
550296700.0 -0.9842087619 0.1557617947
600296400.0 -1.017431972 0.1890933308
650296100.0 -0.9822529474 0.1858568906
700295800.0 -0.9792308359 0.2000241988
750295500.0 -0.9760483556 0.2141064477
800295200.0 -0.9728526426 0.2281928605
850294900.0 -0.9696353989 0.2418599384
900294600.0 -0.9658370782 0.2558020254
950294300.0 -0.9621052847 0.269409896
1000294000.0 -0.9579169229 0.2833844604
1050293700.0 -0.9535881336 0.297179997
1100293400.0 -0.9494289504 0.3116717983
1150293100.0 -0.9454511 0.3236530979
1200292800.0 -0.9400308803 0.3379605098
1250292500.0 -0.9345361458 0.3513096407
1300292200.0 -0.9289009384 0.3646315206
1350291900.0 -0.923514667 0.3786477778
1400291600.0 -0.917919649 0.3917184072
1450291300.0 -0.9126828886 0.4041703229
1500291000.0 -0.9061621333 0.4176319428
1550290700.0 -0.8997723195 0.4307429472
1600290400.0 -0.8934671545 0.4437331405
1650290100.0 -0.8867243981 0.455903203
1700289800.0 -0.8798691129 0.4693453321
1750289500.0 -0.8726862671 0.4815412051
1800289200.0 -0.8654967454 0.4944326138
1850288900.0 -0.8584940141 0.5057430555
1900288600.0 -0.8510862542 0.5189098363
1950288300.0 -0.8429658139 0.5314232306
2000288000.0 -0.8353090508 0.5429939172
2050287700.0 -0.8269351466 0.5552070929
2100287400.0 -0.8191616395 0.5666496765
2150287100.0 -0.8107584462 0.5786831206
2200286800.0 -0.8029166465 0.5891245183
2250286500.0 -0.7941874377 0.6014983804
2300286200.0 -0.7852837644 0.6129291492
2350285900.0 -0.7768915762 0.6235009657
2400285600.0 -0.7676000639 0.6345792465
2450285300.0 -0.7589824727 0.6452229995
2500285000.0 -0.7492154658 0.6565732458
2550284700.0 -0.7402594184 0.667082355
2600284400.0 -0.7309767715 0.67698483
2650284100.0 -0.7223374038 0.6872622803
2700283800.0 -0.7118500246 0.6976408865
2750283500.0 -0.701602873 0.7083081588
2800283200.0 -0.6915114049 0.718149694
2850282900.0 -0.6812069012 0.728409256
2900282600.0 -0.6704822384 0.7376101427
2950282300.0 -0.660345689 0.7471536912
3000282000.0 -0.6495672694 0.7564866034
3050281700.0 -0.6386237696 0.7659716368
3100281400.0 -0.6269117745 0.7750071499
3150281100.0 -0.6153085951 0.7842063354
3200280800.0 -0.6039621994 0.7925643186
3250280500.0 -0.5928661694 0.8004956265
3300280200.0 -0.5814464199 0.8085287309
3350279900.0 -0.5692458447 0.8164222707
3400279600.0 -0.5568209573 0.8242272083
3450279300.0 -0.5458159216 0.8314263187
3500279000.0 -0.5341968549 0.8384834557
3550278700.0 -0.5214686617 0.8454946501
3600278400.0 -0.5096339877 0.8520899104
3650278100.0 -0.496704894 0.8601922796
3700277800.0 -0.4847894591 0.8666539521
3750277500.0 -0.4724118852 0.8732874644
3800277200.0 -0.4596638264 0.8798672811
3850276900.0 -0.4479312716 0.8856625692
3900276600.0 -0.4367869239 0.8915462428
3950276300.0 -0.4247030124 0.8974371327
4000276000.0 -0.4129066765 0.9033671832
4050275700.0 -0.3999847599 0.9093822098
4100275400.0 -0.3891864019 0.9147527951
4150275100.0 -0.3760211227 0.9206843163
4200274800.0 -0.3626699563 0.9260082144
4250274500.0 -0.3501149018 0.9316831861
4300274200.0 -0.3369476474 0.9367763945
4350273900.0 -0.3227209008 0.9419856527
4400273600.0 -0.3082191048 0.9472991365
4450273300.0 -0.2931772461 0.9522499724
4500273000.0 -0.2799131275 0.9566750801
4550272700.0 -0.2659942547 0.9607233971
4600272400.0 -0.2506782499 0.964715188
4650272100.0 -0.2393049246 0.9679377613
4700271800.0 -0.2263387969 0.971228886
4750271500.0 -0.2146150256 0.9740133742
4800271200.0 -0.2023239148 0.976723167
4850270900.0 -0.1884300498 0.9796776947
4900270600.0 -0.174590481 0.9821865477
4950270300.0 -0.1601827131 0.984691165
5000270000.0 -0.1457608713 0.9866654404
5050269700.0 -0.1323608345 0.9883984374
5100269400.0 -0.1180897749 0.990255306
5150269100.0 -0.1046281048 0.9917279979
5200268800.0 -0.0911635523 0.9927707168
5250268500.0 -0.0781685409 0.9936965929
5300268200.0 -0.0645016491 0.994434669
5350267900.0 -0.0516220212 0.9950803604
5400267600.0 -0.0357428176 0.9961581745
5450267300.0 -0.0224708599 0.9966902436
5500267000.0 -0.007131235 0.9968960161
5550266700.0 0.0077767302 0.9972088897
5600266400.0 0.0237571658 0.997100171
5650266100.0 0.0400096933 0.9970128773
5700265800.0 0.0543907345 0.995859466
5750265500.0 0.0695438836 0.9952815853
5800265200.0 0.083026462 0.994078417
5850264900.0 0.0960831289 0.9930230445
5900264600.0 0.1127961519 0.9910385467
5950264300.0 0.124670244 0.9898493286
6000264000.0 0.1383100708 0.9883130887
6050263700.0 0.149795749 0.986599049
6100263400.0 0.1623545754 0.9849447134
6150263100.0 0.1768446637 0.9827600626
6200262800.0 0.1868255211 0.9810987886
6250262500.0 0.1994605282 0.9785665461
6300262200.0 0.2118172215 0.9759231621
6350261900.0 0.2246508286 0.9731914329
6400261600.0 0.2387168771 0.9698765368
6450261300.0 0.2497846197 0.9675074625
6500261000.0 0.2630494571 0.9638209023
6550260700.0 0.2760318758 0.9598809847
6600260400.0 0.2896838193 0.955837393
6650260100.0 0.3035156108 0.9514630457
6700259800.0 0.3156382693 0.9473525158
6750259500.0 0.3293601647 0.9421646549
6800259200.0 0.3427056485 0.9368634192
6850258900.0 0.354886306 0.9316382751
6900258600.0 0.367569669 0.9268782015
6950258300.0 0.3800407276 0.9215376749
7000258000.0 0.3917454834 0.9160235543
7050257700.0 0.4039012608 0.9102030837
7100257400.0 0.4170902114 0.9038902326
7150257100.0 0.427617585 0.8984386506
7200256800.0 0.4405622223 0.8920940511
7250256500.0 0.4527718313 0.8855198874
7300256200.0 0.465785415 0.8787457765
7350255900.0 0.4785880701 0.8717314201
7400255600.0 0.4921743396 0.8640688919
7450255300.0 0.5079809163 0.8553097258
7500255000.0 0.5201737211 0.8476025948
7550254700.0 0.5345091566 0.8387233353
7600254400.0 0.5469127528 0.8304761454
7650254100.0 0.5585629467 0.8226682784
7700253800.0 0.5700952492 0.8144248708
7750253500.0 0.5813103289 0.8069968367
7800253200.0 0.5919732084 0.799135359
7850252900.0 0.6015539981 0.7919973665
7900252600.0 0.6130407972 0.783355335
7950252300.0 0.6216556946 0.7767857541
8000252000.0 0.6316547052 0.7693112095
8050251700.0 0.6421980407 0.7609624773
8100251400.0 0.6520305302 0.753114725
8150251100.0 0.6622808343 0.7445421013
8200250800.0 0.6716175781 0.7363313699
8250250500.0 0.6805160975 0.7283923911
8300250200.0 0.6895514754 0.7200817036
8350249900.0 0.6988011568 0.7112557234
8400249600.0 0.7067438151 0.7033009064
8450249300.0 0.7154685284 0.6944428013
8500249000.0 0.7244626244 0.6855737855
8550248700.0 0.7326048477 0.6764161522
8600248400.0 0.7411041552 0.6669000353
8650248100.0 0.7487554877 0.6575427722
8700247800.0 0.7581391613 0.6464874134
8750247500.0 0.7663787405 0.6363342126
8800247200.0 0.7742759612 0.6259814396
8850246900.0 0.7830309824 0.61465838
8900246600.0 0.7914724463 0.603214926
8950246300.0 0.8010117088 0.5902869998
9000246000.0 0.8096513963 0.5782306272
9050245700.0 0.8184018221 0.5656681061
9100245400.0 0.826700384 0.5534148677
9150245100.0 0.8359188306 0.5403658677
9200244800.0 0.8451635337 0.5258567999
9250244500.0 0.8544367994 0.5108705402
9300244200.0 0.8626864773 0.4970869988
9350243900.0 0.8702175287 0.4836670672
9400243600.0 0.8768008141 0.4719437199
9450243300.0 0.8825747225 0.4611014398
9500243000.0 0.8887119592 0.4491569694
9550242700.0 0.8926812018 0.4416324884
9600242400.0 0.8965995879 0.4341637287
9650242100.0 0.9008093882 0.4273644194
9700241800.0 0.9056958192 0.4187101959
9750241500.0 0.9096535059 0.4111979533
9800241200.0 0.9146179078 0.4020984001
9850240900.0 0.9205801329 0.3899551174
9900240600.0 0.9262598503 0.3784576637
9950240300.0 0.9333923153 0.3617546279
10000240000.0 0.9380724996 0.3498219531
10050239700.0 0.9441634233 0.3339638164
10100239400.0 0.9496169872 0.3176400022
10150239100.0 0.9538345488 0.3025461482
10200238800.0 0.9583889193 0.2870847395
10250238500.0 0.9614279865 0.2737667578
10300238200.0 0.9647037192 0.2597065892
10350237900.0 0.9674348292 0.2467313107
10400237600.0 0.9700450557 0.2330032031
10450237300.0 0.9728555259 0.2191760476
10500237000.0 0.975077349 0.2067344268
10550236700.0 0.9773571833 0.1928809297
10600236400.0 0.9796139051 0.1786188779
10650236100.0 0.9817772123 0.1641060756
10700235800.0 0.9837918437 0.1517937803
10750235500.0 0.9857468505 0.1387321806
10800235200.0 0.9881658532 0.1238808109
10850234900.0 0.9899703521 0.1094057315
10900234600.0 0.9921621502 0.0946376632
10950234300.0 0.9935362302 0.0812426631
11000234000.0 0.9954533901 0.0658502657
11050233700.0 0.9972650698 0.0493912242
11100233400.0 0.9989394078 0.0315234813
11150233100.0 0.9998437899 0.0148610134
11200232800.0 1.000457311 -0.0002558532
11250232500.0 1.001325857 -0.0176134436
11300232200.0 1.001572341 -0.0360501529
11350231900.0 1.002540073 -0.0522981354
11400231600.0 1.001966536 -0.0674270527
11450231300.0 1.001627497 -0.0844214069
11500231000.0 0.9997819639 -0.0991132763
11550230700.0 0.9986336528 -0.1135959656
11600230400.0 0.9972380599 -0.1263211132
11650230100.0 0.9946361864 -0.1378447183
11700229800.0 0.9927204013 -0.1529589285
11750229500.0 0.990321527 -0.1668226479
11800229200.0 0.987514705 -0.180259348
11850228900.0 0.9838128825 -0.1922875655
11900228600.0 0.9802454294 -0.2020581473
11950228300.0 0.9767281069 -0.2120516781
12000228000.0 0.9744289985 -0.2203608942
12050227700.0 0.9704466288 -0.2335352933
12100227400.0 0.9670020585 -0.2446573971
12150227100.0 0.9625475898 -0.2613299817
12200226800.0 0.957866863 -0.2727865877
12250226500.0 0.9542792473 -0.2845143807
12300226200.0 0.9504572938 -0.2977268114
12350225900.0 0.9448476724 -0.3111053185
12400225600.0 0.941189193 -0.3234923398
12450225300.0 0.9365187291 -0.336137084
12500225000.0 0.9309894679 -0.3511780764
12550224700.0 0.9256422271 -0.364627621
12600224400.0 0.920585265 -0.3773029954
12650224100.0 0.9147156261 -0.3917711276
12700223800.0 0.9093714565 -0.4047102458
12750223500.0 0.9039253468 -0.4175936676
12800223200.0 0.8985474508 -0.4299652952
12850222900.0 0.8930715834 -0.4421750912
12900222600.0 0.8878279376 -0.4541291391
12950222300.0 0.881120506 -0.4669868985
13000222000.0 0.8759349728 -0.478117913
13050221700.0 0.8689566643 -0.491481176
13100221400.0 0.862137329 -0.5031134025
13150221100.0 0.8550111258 -0.5155260499
13200220800.0 0.8483659913 -0.5272794656
13250220500.0 0.8409657387 -0.5397455724
13300220200.0 0.8333573656 -0.5501664611
13350219900.0 0.8253960505 -0.5622855411
13400219600.0 0.8168996023 -0.5741847825
13450219300.0 0.8077916297 -0.5873501548
13500219000.0 0.7973401563 -0.6004323284
13550218700.0 0.7881669038 -0.6128334501
13600218400.0 0.7780537957 -0.6247726505
13650218100.0 0.7678527664 -0.6355428826
13700217800.0 0.7575856412 -0.6482188343
13750217500.0 0.7481815672 -0.6591135817
13800217200.0 0.7368226882 -0.6704475678
13850216900.0 0.725428177 -0.6813790463
13900216600.0 0.7159880025 -0.6906299152
13950216300.0 0.7053021379 -0.7002089734
14000216000.0 0.6958202706 -0.7096735136
14050215700.0 0.6864080009 -0.7179119683
14100215400.0 0.6763822504 -0.7268976271
14150215100.0 0.6670022431 -0.7353613885
14200214800.0 0.6576764132 -0.7442395574
14250214500.0 0.647445842 -0.7537381116
14300214200.0 0.6368847999 -0.7631804197
14350213900.0 0.6258875187 -0.7728070525
14400213600.0 0.6139815226 -0.7828540596
14450213300.0 0.60120964 -0.7926369445
14500213000.0 0.5883494036 -0.8026057429
14550212700.0 0.575267117 -0.8119717149
14600212400.0 0.5636657828 -0.8205652341
14650212100.0 0.5501936377 -0.8293852325
14700211800.0 0.5367279187 -0.8387790936
14750211500.0 0.5247796109 -0.8475746586
14800211200.0 0.5120930897 -0.8556323758
14850210900.0 0.4999505742 -0.8632838389
14900210600.0 0.486509464 -0.8710788702
14950210300.0 0.4731026794 -0.8788168095
15000210000.0 0.4605309113 -0.8854794271
15050209700.0 0.4481665193 -0.8916650909
15100209400.0 0.4357290179 -0.8974432087
15150209100.0 0.4232036454 -0.9030559779
15200208800.0 0.4100769054 -0.9084943273
15250208500.0 0.3994956559 -0.9131502013
15300208200.0 0.3872550824 -0.9178342148
15350207900.0 0.3734254926 -0.9218557393
15400207600.0 0.3587381577 -0.9272673323
15450207300.0 0.3444609249 -0.9324730171
15500207000.0 0.3299102028 -0.9373024442
15550206700.0 0.3150333179 -0.9424101725
15600206400.0 0.2994734307 -0.9465209807
15650206100.0 0.2838033792 -0.951068383
15700205800.0 0.2699892374 -0.9547579306
15750205500.0 0.2557780738 -0.9579370703
15800205200.0 0.2417072784 -0.9614603221
15850204900.0 0.227320868 -0.9648826939
15900204600.0 0.2123514831 -0.9686306525
15950204300.0 0.1982885583 -0.9718927568
16000204000.0 0.1835777797 -0.9748073003
16050203700.0 0.1683940425 -0.9773250664
16100203400.0 0.15410001 -0.9796829526
16150203100.0 0.1394523504 -0.9820472304
16200202800.0 0.1248349303 -0.9843248318
16250202500.0 0.1101993977 -0.9858987155
16300202200.0 0.0952661689 -0.9877673192
16350201900.0 0.0798217462 -0.9889143322
16400201600.0 0.0649141444 -0.990156808
16450201300.0 0.0496104394 -0.9913632565
16500201000.0 0.0326828347 -0.9920425326
16550200700.0 0.0166867687 -0.9924623825
16600200400.0 0.0008019007 -0.992797358
16650200100.0 -0.0152425315 -0.9928193369
16700199800.0 -0.0316131226 -0.9922663379
16750199500.0 -0.0510907509 -0.9916016262
16800199200.0 -0.0662242549 -0.9910061718
16850198900.0 -0.0822715176 -0.9898443984
16900198600.0 -0.09671921 -0.988417168
16950198300.0 -0.1096068612 -0.9873323799
17000198000.0 -0.1228685682 -0.9867634596
17050197700.0 -0.1352040638 -0.9839105377
17100197400.0 -0.1484389202 -0.9820662625
17150197100.0 -0.1611286231 -0.9802441195
17200196800.0 -0.1732953403 -0.9782468692
17250196500.0 -0.1864853185 -0.9754182504
17300196200.0 -0.1984821754 -0.9731951029
17350195900.0 -0.2105990565 -0.9709480675
17400195600.0 -0.2225736211 -0.9683607583
17450195300.0 -0.2354547701 -0.9656117474
17500195000.0 -0.2489130429 -0.9622669815
17550194700.0 -0.2627866143 -0.9587720299
17600194400.0 -0.27639015 -0.9547881989
17650194100.0 -0.2900837081 -0.9506020922
17700193800.0 -0.3028658058 -0.946544569
17750193500.0 -0.3174478651 -0.9413460488
17800193200.0 -0.3314543137 -0.9370558179
17850192900.0 -0.3461396081 -0.9311066543
17900192600.0 -0.3614177304 -0.9248958393
17950192300.0 -0.3772474103 -0.9177402685
18000192000.0 -0.3920823879 -0.9108906009
18050191700.0 -0.4058217421 -0.9029908366
18100191400.0 -0.4199784153 -0.8951755835
18150191100.0 -0.434798893 -0.8870734512
18200190800.0 -0.4517033906 -0.8781034622
18250190500.0 -0.4686235027 -0.8686972355
18300190200.0 -0.4841165269 -0.8595331744
18350189900.0 -0.4995175945 -0.8517027769
18400189600.0 -0.5138802893 -0.8428291641
18450189300.0 -0.5269754726 -0.835139471
18500189000.0 -0.5408263851 -0.8265748403
18550188700.0 -0.5535471423 -0.8194072143
18600188400.0 -0.5651157029 -0.8124585949
18650188100.0 -0.5766309423 -0.8059927583
18700187800.0 -0.5874803958 -0.7993393043
18750187500.0 -0.5982944859 -0.7925929715
18800187200.0 -0.6090058288 -0.7856233079
18850186900.0 -0.6190187907 -0.7787791423
18900186600.0 -0.6293160447 -0.7715233355
18950186300.0 -0.6396416076 -0.7636739034
19000186000.0 -0.6470099951 -0.7575283574
19050185700.0 -0.6561866983 -0.7503974269
19100185400.0 -0.666082678 -0.74232059
19150185100.0 -0.6762933737 -0.7340424255
19200184800.0 -0.6850964282 -0.7256905053
19250184500.0 -0.6955830929 -0.716581136
19300184200.0 -0.7076877822 -0.7068366543
19350183900.0 -0.7179679731 -0.6966364604
19400183600.0 -0.7276829863 -0.6874626826
19450183300.0 -0.736618212 -0.6772378062
19500183000.0 -0.7445009661 -0.667336217
19550182700.0 -0.754556215 -0.6563352759
19600182400.0 -0.764245262 -0.644382852
19650182100.0 -0.7753903358 -0.6318914663
19700181800.0 -0.7861097763 -0.6186307411
19750181500.0 -0.7966050813 -0.6046809361
19800181200.0 -0.8066900786 -0.5898786204
19850180900.0 -0.8163118936 -0.5746809042
19900180600.0 -0.8237665131 -0.5602809445
19950180300.0 -0.833430991 -0.5436105178
20000180000.0 -0.8240317178 -0.546459692
20050179700.0 -0.8326505514 -0.5337526013
20100179400.0 -0.8403659988 -0.5205209789
20150179100.0 -0.8487034602 -0.5096602988
20200178800.0 -0.8575566572 -0.497448489
20250178500.0 -0.8666905614 -0.48466009
20300178200.0 -0.876225359 -0.4704148097
20350177900.0 -0.8855552169 -0.4564049323
20400177600.0 -0.8941698008 -0.4419020552
20450177300.0 -0.90284888 -0.427653275
20500177000.0 -0.9109770108 -0.4136556524
20550176700.0 -0.9189453613 -0.4000827262
20600176400.0 -0.9258930464 -0.387177325
20650176100.0 -0.9327814709 -0.3749389581
20700175800.0 -0.9386139231 -0.3630817528
20750175500.0 -0.9459811914 -0.3516838768
20800175200.0 -0.9495289293 -0.3404589586
20850174900.0 -0.9545105442 -0.3303162033
20900174600.0 -0.9587892025 -0.3186292263
20950174300.0 -0.9614374184 -0.3073575639
21000174000.0 -0.965419617 -0.2968205179
21050173700.0 -0.9680572953 -0.2866130557
21100173400.0 -0.9714218142 -0.2750620715
21150173100.0 -0.9753134176 -0.2631753049
21200172800.0 -0.978996447 -0.2496714718
21250172500.0 -0.9823464388 -0.2365055817
21300172200.0 -0.9857363894 -0.2228945075
21350171900.0 -0.9876680945 -0.2081007294
21400171600.0 -0.9901119844 -0.1939691379
21450171300.0 -0.9902595312 -0.1800353766
21500171000.0 -0.9903716105 -0.1638223842
21550170700.0 -0.9907798484 -0.1491953454
21600170400.0 -0.9917860581 -0.1336035721
21650170100.0 -0.9910506633 -0.1182157496
21700169800.0 -0.9901796365 -0.1026565416
21750169500.0 -0.9903183765 -0.0866558492
21800169200.0 -0.9892275111 -0.0693695457
21850168900.0 -0.9885619611 -0.0537043667
21900168600.0 -0.9882249271 -0.0373707446
21950168300.0 -0.9877871871 -0.0215033324
22000168000.0 -0.9876095261 -0.0060180498
22050167700.0 -0.9878317459 0.0082594797
22100167400.0 -0.9885501045 0.0237281798
22150167100.0 -0.9892211082 0.0395546798
22200166800.0 -0.9896311933 0.0560504724
22250166500.0 -0.989331211 0.0727065893
22300166200.0 -0.988489973 0.0901084788
22350165900.0 -0.9868943961 0.1059375342
22400165600.0 -0.9857012153 0.1213910845
22450165300.0 -0.9842228806 0.1371901621
22500165000.0 -0.9821092478 0.1522279373
22550164700.0 -0.9810471914 0.1669352714
22600164400.0 -0.978353819 0.1832081786
22650164100.0 -0.9759838787 0.1976890855
22700163800.0 -0.9730573308 0.2144174365
22750163500.0 -0.9706012301 0.2290411322
22800163200.0 -0.9674160789 0.2422044973
22850162900.0 -0.9651209378 0.2558488707
22900162600.0 -0.9633234527 0.2694818445
22950162300.0 -0.9615805424 0.2829660155
23000162000.0 -0.9602012514 0.295076159
23050161700.0 -0.9578477868 0.3084680918
23100161400.0 -0.9551961826 0.3214980726
23150161100.0 -0.9516774406 0.3347536052
23200160800.0 -0.9496956981 0.3472089453
23250160500.0 -0.9459118668 0.3595679947
23300160200.0 -0.9430661153 0.3722736134
23350159900.0 -0.9397017572 0.3859166364
23400159600.0 -0.9345490178 0.3987467752
23450159300.0 -0.9300582842 0.4124847981
23500159000.0 -0.9248617038 0.4261153517
23550158700.0 -0.9202519135 0.4399538783
23600158400.0 -0.914154683 0.4537931149
23650158100.0 -0.9073337119 0.4683658355
23700157800.0 -0.8992963205 0.4821658923
23750157500.0 -0.8901045071 0.4967114858
23800157200.0 -0.8803130408 0.509817885
23850156900.0 -0.8707852371 0.5231171053
23900156600.0 -0.8612760594 0.5356523554
23950156300.0 -0.8516731294 0.5479502235
24000156000.0 -0.8429328785 0.5596982766
24050155700.0 -0.8320124233 0.5723425627
24100155400.0 -0.8224102532 0.5840306361
24150155100.0 -0.8103141611 0.5966782277
24200154800.0 -0.7997373081 0.6084720376
24250154500.0 -0.788835411 0.6201519944
24300154200.0 -0.7775385986 0.6325016433
24350153900.0 -0.7657542235 0.642977924
24400153600.0 -0.7526642985 0.653585564
24450153300.0 -0.7405488839 0.6639942915
24500153000.0 -0.7293972131 0.6736802288
24550152700.0 -0.7178996209 0.683649717
24600152400.0 -0.706364694 0.6927100779
24650152100.0 -0.6943677004 0.701742064
