!Created with skrf (http://scikit-rf.org).
# Hz S RI R 50.0 
!freq ReS11 ImS11
300000.0 -0.9726647979 -0.1193378717
50299700.0 -0.9998908793 0.0151783851
100299400.0 -0.9979196199 0.0279507716
150299100.0 -1.002551218 0.0450103925
200298800.0 -0.9995861112 0.0581355724
250298500.0 -0.997424579 0.0716536743
300298200.0 -0.9860578214 0.0875084045
350297900.0 -0.9939334475 0.0985621729
400297600.0 -0.9930991731 0.1150594452
450297300.0 -0.9907285913 0.1290703113
500297000.0 -0.9893779597 0.1436734453
550296700.0 -0.9840712653 0.1560389605
600296400.0 -1.017127348 0.1894005407
650296100.0 -0.982196439 0.1857862489
700295800.0 -0.9791426331 0.2002013042
750295500.0 -0.9763167249 0.2141562288
800295200.0 -0.9729057518 0.2280341593
850294900.0 -0.9698247828 0.2420140196
900294600.0 -0.9658891338 0.2557303095
950294300.0 -0.9622932996 0.269317362
1000294000.0 -0.9581572687 0.28321763
1050293700.0 -0.953548595 0.2972370138
1100293400.0 -0.9490906032 0.3116699961
1150293100.0 -0.9455313745 0.3234557492
1200292800.0 -0.940242949 0.3379641848
1250292500.0 -0.9348173593 0.351365579
1300292200.0 -0.928956482 0.3645027569
1350291900.0 -0.9235285449 0.3785425344
1400291600.0 -0.9180991763 0.3917566688
1450291300.0 -0.9125020049 0.4040163354
1500291000.0 -0.9062803312 0.4175117122
1550290700.0 -0.8996808234 0.4307086615
1600290400.0 -0.8935471298 0.4437552647
1650290100.0 -0.8868432676 0.4557374564
1700289800.0 -0.8797925425 0.4693084097
1750289500.0 -0.8726533413 0.4816548879
1800289200.0 -0.8654903409 0.4945259932
1850288900.0 -0.8584865104 0.5058377785
1900288600.0 -0.8511843863 0.5187981256
1950288300.0 -0.8427954962 0.5311916415
2000288000.0 -0.8354393004 0.5430006632
2050287700.0 -0.8272757694 0.5552589148
2100287400.0 -0.8192854527 0.5664762242
2150287100.0 -0.8108585459 0.5785931948
2200286800.0 -0.802959721 0.5891486499
2250286500.0 -0.7940390554 0.6012572148
2300286200.0 -0.7852105279 0.6128760931
2350285900.0 -0.7767125838 0.6235428814
2400285600.0 -0.7676818897 0.634600605
2450285300.0 -0.7591116807 0.6451612066
2500285000.0 -0.7490731457 0.6565450306
2550284700.0 -0.739961035 0.6670157986
2600284400.0 -0.7307919846 0.6769713014
2650284100.0 -0.7218992397 0.6872860966
2700283800.0 -0.7116702699 0.6976440945
2750283500.0 -0.7014411079 0.7086008974
2800283200.0 -0.6915034961 0.7183259766
2850282900.0 -0.6810570702 0.7283152546
2900282600.0 -0.6707212277 0.7378604374
2950282300.0 -0.6602537557 0.74731063
3000282000.0 -0.6494414421 0.7565680319
3050281700.0 -0.6384201822 0.7659004463
3100281400.0 -0.626845702 0.7751318022
3150281100.0 -0.6152116859 0.7841800819
3200280800.0 -0.6039955887 0.7925915511
3250280500.0 -0.5926976988 0.8003659871
3300280200.0 -0.5812128657 0.8084147204
3350279900.0 -0.5694299146 0.8163102777
3400279600.0 -0.5568417807 0.8244516735
3450279300.0 -0.5457168333 0.8314204724
3500279000.0 -0.5339008258 0.8384666185
3550278700.0 -0.5217823307 0.8457166904
3600278400.0 -0.5096508778 0.852490724
3650278100.0 -0.4966766575 0.8600509678
3700277800.0 -0.4845949605 0.8665803675
3750277500.0 -0.4721202899 0.8733276959
3800277200.0 -0.4595731133 0.8796587499
3850276900.0 -0.4478279928 0.8856910751
3900276600.0 -0.4370165534 0.8912263318
3950276300.0 -0.4246314117 0.8976313863
4000276000.0 -0.4127439134 0.9032168528
4050275700.0 -0.3999655915 0.9094714866
4100275400.0 -0.3889446209 0.9146607728
4150275100.0 -0.3759238 0.9206148991
4200274800.0 -0.3627199038 0.9261512753
4250274500.0 -0.350122917 0.931223936
4300274200.0 -0.3368728513 0.9369200451
4350273900.0 -0.3229198189 0.9420133275
4400273600.0 -0.3079873103 0.947190871
4450273300.0 -0.2930635458 0.9520117752
4500273000.0 -0.2798223476 0.9564134599
4550272700.0 -0.2659144819 0.9604793193
4600272400.0 -0.2507421201 0.9647344822
4650272100.0 -0.2393235171 0.9678836169
4700271800.0 -0.2262208052 0.9712430181
4750271500.0 -0.214551036 0.9743291038
4800271200.0 -0.2022812177 0.97682085
4850270900.0 -0.1883798338 0.9796316728
4900270600.0 -0.1746166396 0.981921222
4950270300.0 -0.1601199829 0.9845956433
5000270000.0 -0.1458522428 0.9866040044
5050269700.0 -0.1324059582 0.9884006893
5100269400.0 -0.1181891199 0.9901009488
5150269100.0 -0.1043395334 0.9916464585
5200268800.0 -0.0910082379 0.9927085089
5250268500.0 -0.0781628576 0.9936228679
5300268200.0 -0.0644619042 0.9944159304
5350267900.0 -0.0520266285 0.9950586616
5400267600.0 -0.0355112035 0.9960693119
5450267300.0 -0.0223816395 0.9966687718
5500267000.0 -0.0071764189 0.9970277942
5550266700.0 0.0078393913 0.9970748405
5600266400.0 0.0235663687 0.9970971468
5650266100.0 0.0400815804 0.9967453135
5700265800.0 0.0543849875 0.9955548139
5750265500.0 0.0695562134 0.9953394411
5800265200.0 0.0830313908 0.9943658722
5850264900.0 0.0964166049 0.9932381193
5900264600.0 0.1127876317 0.9913777934
5950264300.0 0.124419342 0.9894673673
6000264000.0 0.1379837659 0.9882728599
6050263700.0 0.150165771 0.9865847023
6100263400.0 0.1623314099 0.9848608603
6150263100.0 0.1769456125 0.9826402638
6200262800.0 0.1865986551 0.9809168809
6250262500.0 0.199303469 0.9786767512
6300262200.0 0.211861123 0.9760852152
6350261900.0 0.224850982 0.9732456267
6400261600.0 0.238608452 0.9699074246
6450261300.0 0.2496562194 0.967454373
6500261000.0 0.2629378961 0.963820644
6550260700.0 0.2759009661 0.9600158406
6600260400.0 0.2892880147 0.9556247098
6650260100.0 0.3034955726 0.9514384268
6700259800.0 0.3154903308 0.9469927317
6750259500.0 0.3292156347 0.9421426396
6800259200.0 0.3428912101 0.9371801139
6850258900.0 0.3551475637 0.9317631398
6900258600.0 0.3674368125 0.9267291958
6950258300.0 0.3799645198 0.9213759955
7000258000.0 0.3919490691 0.9161237248
7050257700.0 0.4036987468 0.910285121
7100257400.0 0.4169035073 0.9039500264
7150257100.0 0.4276077115 0.8986972824
7200256800.0 0.4406651322 0.8919920241
7250256500.0 0.4531457689 0.8854434299
7300256200.0 0.465828059 0.8785549397
7350255900.0 0.4784177667 0.8717392268
7400255600.0 0.4922339297 0.8639713149
7450255300.0 0.5081303182 0.8549393696
7500255000.0 0.5206561382 0.8477646481
7550254700.0 0.5344881187 0.8387420551
7600254400.0 0.5468405952 0.8302800592
7650254100.0 0.558297194 0.8226717894
7700253800.0 0.5699289429 0.814634116
7750253500.0 0.5812061371 0.8068881507
7800253200.0 0.5918699994 0.7990846625
7850252900.0 0.6017740784 0.7920293781
7900252600.0 0.6131335494 0.7833759135
7950252300.0 0.6217578184 0.7767595749
8000252000.0 0.6317128776 0.7691417015
8050251700.0 0.6419618413 0.7610299974
8100251400.0 0.6520751453 0.7530822478
8150251100.0 0.661882387 0.7444860776
8200250800.0 0.6711182905 0.7363697037
8250250500.0 0.6804670882 0.7284305583
8300250200.0 0.6897277093 0.7200781324
8350249900.0 0.6986324231 0.7112333091
8400249600.0 0.7070360527 0.7033663341
8450249300.0 0.715723833 0.6943600748
8500249000.0 0.7243361506 0.6853293949
8550248700.0 0.732798699 0.6763783475
8600248400.0 0.7410371559 0.6668248531
8650248100.0 0.7487114587 0.6575093225
8700247800.0 0.758053077 0.6462954481
8750247500.0 0.7663762987 0.6362402944
8800247200.0 0.7740943229 0.6259968402
8850246900.0 0.7830690439 0.6144987315
8900246600.0 0.7914586292 0.6033686726
8950246300.0 0.8008313334 0.5905056505
9000246000.0 0.8097300247 0.5782044536
9050245700.0 0.8183822314 0.5656757881
9100245400.0 0.8268777816 0.5534520768
9150245100.0 0.835684444 0.5403173588
9200244800.0 0.845173542 0.5259402864
9250244500.0 0.8544500519 0.5109155682
9300244200.0 0.8624838874 0.4971006353
9350243900.0 0.8701153275 0.4837050664
9400243600.0 0.8767510538 0.471811908
9450243300.0 0.8825897095 0.4608483054
9500243000.0 0.8888433012 0.4491939615
9550242700.0 0.892533519 0.4415603782
9600242400.0 0.8967878299 0.4339891573
9650242100.0 0.9010937972 0.4271644621
9700241800.0 0.9056133403 0.4187367667
9750241500.0 0.9098887148 0.4109167986
9800241200.0 0.9147819716 0.4016414239
9850240900.0 0.9206324092 0.3900080029
9900240600.0 0.9265542239 0.3783709265
9950240300.0 0.9332531338 0.3619483711
10000240000.0 0.9381614649 0.3497054638
10050239700.0 0.944223291 0.3338363747
10100239400.0 0.9492370822 0.3179027282
10150239100.0 0.9540944539 0.3025021881
10200238800.0 0.9582665324 0.2872846747
10250238500.0 0.9615438716 0.273670915
10300238200.0 0.9646465764 0.259829178
10350237900.0 0.9673141236 0.2465129828
10400237600.0 0.9698147463 0.2331512495
10450237300.0 0.9726963264 0.2190979292
10500237000.0 0.974964834 0.2066969706
10550236700.0 0.9773979292 0.1927573157
10600236400.0 0.9789929639 0.1791031858
10650236100.0 0.9816261046 0.16436068
10700235800.0 0.9838593361 0.1516991746
10750235500.0 0.9856673421 0.1386970847
10800235200.0 0.9883923292 0.1241283058
10850234900.0 0.9898693414 0.1093324426
10900234600.0 0.9920699279 0.0946467537
10950234300.0 0.993640866 0.0813079633
11000234000.0 0.9954964267 0.0659762879
11050233700.0 0.997249018 0.0493331513
11100233400.0 0.998767903 0.031579088
11150233100.0 0.9996996621 0.0150671327
11200232800.0 1.000383599 -0.0005794119
11250232500.0 1.001710925 -0.0184015364
11300232200.0 1.001918612 -0.0362305477
11350231900.0 1.002272734 -0.0528802576
11400231600.0 1.001591811 -0.0680268183
11450231300.0 1.001081967 -0.0835560719
11500231000.0 0.9987366928 -0.1000832704
11550230700.0 0.9985245734 -0.1132648886
11600230400.0 0.9967934544 -0.125838358
11650230100.0 0.9947121665 -0.1377192159
11700229800.0 0.9926419899 -0.1525600797
11750229500.0 0.9903558115 -0.1670596882
11800229200.0 0.987513439 -0.1802214875
11850228900.0 0.9837920013 -0.1921273724
11900228600.0 0.9799721236 -0.2019432102
11950228300.0 0.9770015337 -0.2117603252
12000228000.0 0.9736855298 -0.2212125543
12050227700.0 0.9700392094 -0.2336471343
12100227400.0 0.9673091264 -0.2442605114
12150227100.0 0.9619207321 -0.2615856161
12200226800.0 0.9575693203 -0.2723677544
12250226500.0 0.9544048792 -0.2848900495
12300226200.0 0.9498442222 -0.297665152
12350225900.0 0.9451691006 -0.3113493829
12400225600.0 0.9411992795 -0.3238625785
12450225300.0 0.9364804055 -0.3362354289
12500225000.0 0.9308319623 -0.3510750642
12550224700.0 0.9254198172 -0.3646305774
12600224400.0 0.9204472173 -0.3771104946
12650224100.0 0.914659446 -0.3918075393
12700223800.0 0.9093666251 -0.4046046335
12750223500.0 0.9039184862 -0.4176375971
12800223200.0 0.8986801754 -0.4301139485
12850222900.0 0.8933641238 -0.4424775207
12900222600.0 0.8879737934 -0.4541365759
12950222300.0 0.8816324428 -0.4672003284
13000222000.0 0.8753828386 -0.4788200383
13050221700.0 0.8687263992 -0.4912965777
13100221400.0 0.8618700171 -0.5035708933
13150221100.0 0.855075723 -0.5155525367
13200220800.0 0.8481746194 -0.5271397824
13250220500.0 0.8408851829 -0.5393181248
13300220200.0 0.8331941664 -0.5503059224
13350219900.0 0.8251885048 -0.5623640197
13400219600.0 0.8168199173 -0.5742319012
13450219300.0 0.8071565978 -0.5875532984
13500219000.0 0.7974131444 -0.6008152899
13550218700.0 0.7878836673 -0.6135478629
13600218400.0 0.7778504223 -0.6251818689
13650218100.0 0.7683793295 -0.6359904254
13700217800.0 0.7576417106 -0.647536026
13750217500.0 0.7481041821 -0.6588307793
13800217200.0 0.7359972289 -0.6702661493
13850216900.0 0.7256405154 -0.6821023241
13900216600.0 0.7161095713 -0.6903233824
13950216300.0 0.7050497538 -0.7003507142
14000216000.0 0.6952818912 -0.7098343911
14050215700.0 0.6858455214 -0.7179420595
14100215400.0 0.6762129218 -0.7266767658
14150215100.0 0.6672975877 -0.7355215623
14200214800.0 0.6578174801 -0.7442385354
14250214500.0 0.647326555 -0.75382786
14300214200.0 0.6368206439 -0.7632924804
14350213900.0 0.6257850172 -0.7726828448
14400213600.0 0.6138365818 -0.7825155804
14450213300.0 0.6007293554 -0.7929997556
14500213000.0 0.5879081924 -0.8025118644
14550212700.0 0.5754668294 -0.8120636338
14600212400.0 0.5628334213 -0.8206602203
14650212100.0 0.550079833 -0.8295666708
14700211800.0 0.5361119132 -0.8390193743
14750211500.0 0.524584504 -0.8473109697
14800211200.0 0.5121777856 -0.8553571659
14850210900.0 0.4998422514 -0.8632158867
14900210600.0 0.4863205709 -0.8708931789
14950210300.0 0.4730280518 -0.8786534016
15000210000.0 0.4603387143 -0.8854361233
15050209700.0 0.4480219043 -0.8917414883
15100209400.0 0.4352742411 -0.8970396018
15150209100.0 0.4229361695 -0.9029588992
15200208800.0 0.410258763 -0.9089818732
15250208500.0 0.3991677669 -0.9128218893
15300208200.0 0.3868224561 -0.9175204358
15350207900.0 0.3735619289 -0.9223747072
15400207600.0 0.3586468173 -0.9273183388
15450207300.0 0.3444149436 -0.9329461995
15500207000.0 0.3299350045 -0.9371282778
15550206700.0 0.3154922056 -0.9424714719
15600206400.0 0.2993235424 -0.9469916789
15650206100.0 0.2831642917 -0.9509498888
15700205800.0 0.2697749726 -0.954345762
15750205500.0 0.2556429703 -0.9579777941
15800205200.0 0.2414109829 -0.961605596
15850204900.0 0.2273739548 -0.9650209805
15900204600.0 0.2124236453 -0.9686156843
15950204300.0 0.1978580269 -0.971893603
16000204000.0 0.1837026879 -0.9745154617
16050203700.0 0.1683412606 -0.9776415025
16100203400.0 0.1538029792 -0.9795373467
16150203100.0 0.1391903564 -0.9821509136
16200202800.0 0.1250633211 -0.9842151048
16250202500.0 0.1099070686 -0.985856834
16300202200.0 0.0943398158 -0.9873151184
16350201900.0 0.0795151697 -0.9892222528
16400201600.0 0.0651084502 -0.9900031699
16450201300.0 0.0495112959 -0.9910646037
16500201000.0 0.0325288769 -0.9919119557
16550200700.0 0.016434004 -0.9924822041
16600200400.0 0.0005056623 -0.9926205404
16650200100.0 -0.015290434 -0.9924983617
16700199800.0 -0.0316591663 -0.9920731655
16750199500.0 -0.0509088672 -0.9921910914
16800199200.0 -0.0669050127 -0.990734476
16850198900.0 -0.0819336253 -0.9896729807
16900198600.0 -0.0963581552 -0.9884933532
16950198300.0 -0.1101029303 -0.9873599018
17000198000.0 -0.1220732495 -0.9859239305
17050197700.0 -0.1354084088 -0.984199655
17100197400.0 -0.1484501119 -0.9815287963
17150197100.0 -0.1614276279 -0.980115305
17200196800.0 -0.1741068364 -0.9780735576
17250196500.0 -0.1867329665 -0.9754423408
17300196200.0 -0.1987426612 -0.9733577921
17350195900.0 -0.2106086503 -0.9708975989
17400195600.0 -0.2226186585 -0.9683350095
17450195300.0 -0.2356639066 -0.9656181567
17500195000.0 -0.2488330938 -0.962231443
17550194700.0 -0.2627977987 -0.9586410865
17600194400.0 -0.276631469 -0.9548373108
17650194100.0 -0.2900755142 -0.9507061797
17700193800.0 -0.3030103486 -0.9461882404
17750193500.0 -0.317610593 -0.9417005985
17800193200.0 -0.3316564059 -0.9367548845
17850192900.0 -0.3463173844 -0.9311328251
17900192600.0 -0.3613264531 -0.9249174991
17950192300.0 -0.3771069273 -0.9179460266
18000192000.0 -0.3918087605 -0.9107102484
18050191700.0 -0.4056205363 -0.9029787114
18100191400.0 -0.4199182036 -0.895099893
18150191100.0 -0.4347913378 -0.8871722683
18200190800.0 -0.4518021251 -0.8778823881
18250190500.0 -0.4687022542 -0.8684621932
18300190200.0 -0.4843129113 -0.8595431328
18350189900.0 -0.4992937362 -0.851181919
18400189600.0 -0.5135992859 -0.8430392567
18450189300.0 -0.5268296866 -0.8346065771
18500189000.0 -0.5408234162 -0.8269352649
18550188700.0 -0.553252624 -0.8191484762
18600188400.0 -0.5650515442 -0.812388642
18650188100.0 -0.5763536661 -0.8058512847
18700187800.0 -0.5873107004 -0.7992712464
18750187500.0 -0.5985772045 -0.7926002819
18800187200.0 -0.6091016188 -0.7856456942
18850186900.0 -0.6192985873 -0.7787392538
18900186600.0 -0.6296397494 -0.7713537114
18950186300.0 -0.6394836831 -0.7637400499
19000186000.0 -0.6471349407 -0.7575938345
19050185700.0 -0.6567290937 -0.7499557309
19100185400.0 -0.6661351462 -0.741948275
19150185100.0 -0.676562511 -0.7335968922
19200184800.0 -0.6862220646 -0.7253474199
19250184500.0 -0.6964733919 -0.7162565694
19300184200.0 -0.7077452141 -0.7062140496
19350183900.0 -0.7185514673 -0.6962659281
19400183600.0 -0.7283637949 -0.6875323728
19450183300.0 -0.7364357791 -0.6771960597
19500183000.0 -0.7452734289 -0.66670704
19550182700.0 -0.7546025795 -0.6553597243
19600182400.0 -0.7649682917 -0.6442836402
19650182100.0 -0.7760279157 -0.6317319144
19700181800.0 -0.7862482244 -0.6186045806
19750181500.0 -0.7968151183 -0.6044448621
19800181200.0 -0.8070225347 -0.5895393791
19850180900.0 -0.8166502734 -0.5742769486
19900180600.0 -0.8241955248 -0.5598909262
19950180300.0 -0.833338139 -0.5434608942
20000180000.0 -0.8241253521 -0.5465600037
20050179700.0 -0.8324731946 -0.5334165358
20100179400.0 -0.8400570952 -0.5201574916
20150179100.0 -0.8496089749 -0.5086747995
20200178800.0 -0.8572578408 -0.4969718621
20250178500.0 -0.8666205101 -0.4840924587
20300178200.0 -0.8761777011 -0.4697322935
20350177900.0 -0.8856980453 -0.4566207469
20400177600.0 -0.8943485476 -0.4420621371
20450177300.0 -0.9027202467 -0.427464535
20500177000.0 -0.91105918 -0.4136184732
20550176700.0 -0.9186857264 -0.4001805946
20600176400.0 -0.9255727088 -0.3874315737
20650176100.0 -0.9316942534 -0.3748484228
20700175800.0 -0.9391672573 -0.3633482151
20750175500.0 -0.9450803946 -0.3515053519
20800175200.0 -0.9504362828 -0.3397030113
20850174900.0 -0.9542117458 -0.3297993618
20900174600.0 -0.9589801473 -0.3185213238
20950174300.0 -0.9626681889 -0.3074105599
21000174000.0 -0.9646074179 -0.2962910439
21050173700.0 -0.9668393763 -0.2863884607
21100173400.0 -0.9707577573 -0.2749761633
21150173100.0 -0.9744073346 -0.2631978205
21200172800.0 -0.9783769056 -0.2501385236
21250172500.0 -0.9818505384 -0.236512612
21300172200.0 -0.9853147205 -0.2223355904
21350171900.0 -0.9876605671 -0.2083052565
21400171600.0 -0.9895133885 -0.1940531595
21450171300.0 -0.9903760584 -0.1793464108
21500171000.0 -0.9907359612 -0.1645188439
21550170700.0 -0.9901000038 -0.1493867267
21600170400.0 -0.9913297255 -0.134506061
21650170100.0 -0.9909386373 -0.1187856505
21700169800.0 -0.9903220755 -0.1028911298
21750169500.0 -0.9894193125 -0.0864505195
21800169200.0 -0.9900343049 -0.0708257044
21850168900.0 -0.9887287199 -0.0536678075
21900168600.0 -0.9883394748 -0.037101286
21950168300.0 -0.9884038155 -0.0220295696
22000168000.0 -0.9874295466 -0.0067024254
22050167700.0 -0.9878236392 0.0081252302
22100167400.0 -0.9886213293 0.0234932115
22150167100.0 -0.9894029087 0.0394145956
22200166800.0 -0.9897611389 0.0558920401
22250166500.0 -0.9890985368 0.0734989033
22300166200.0 -0.9884675161 0.0892954575
22350165900.0 -0.9874597982 0.1066365135
22400165600.0 -0.9865129897 0.1214981803
22450165300.0 -0.9844900245 0.1368828885
22500165000.0 -0.9822543541 0.1512825311
22550164700.0 -0.9810179511 0.1665063484
22600164400.0 -0.9784943646 0.1827482452
22650164100.0 -0.9767653532 0.1975514287
22700163800.0 -0.9734131553 0.2146591986
22750163500.0 -0.9704252686 0.228462776
22800163200.0 -0.9675839266 0.2418418746
22850162900.0 -0.9646028727 0.2555799932
22900162600.0 -0.963205597 0.2691698872
22950162300.0 -0.9617720204 0.282528411
23000162000.0 -0.9600583677 0.2951431833
23050161700.0 -0.957677059 0.3083168527
23100161400.0 -0.954780595 0.3217271892
23150161100.0 -0.952134995 0.3343094592
23200160800.0 -0.9492999657 0.346722201
23250160500.0 -0.9464364633 0.3587212229
23300160200.0 -0.9431932472 0.3712821802
23350159900.0 -0.9387147626 0.3858027423
23400159600.0 -0.9341980153 0.3986813469
23450159300.0 -0.9296773335 0.4125042248
23500159000.0 -0.9249879515 0.4259442059
23550158700.0 -0.9201664821 0.4396089724
23600158400.0 -0.9143089465 0.4534588222
23650158100.0 -0.9075623678 0.4679309914
23700157800.0 -0.8991426852 0.4822303496
23750157500.0 -0.8897172769 0.4962751013
23800157200.0 -0.880232286 0.5099612769
23850156900.0 -0.8712733947 0.522362277
23900156600.0 -0.8607808167 0.5343802513
23950156300.0 -0.8517895628 0.5475460103
24000156000.0 -0.8423597607 0.5599716939
24050155700.0 -0.8316985883 0.5713996812
24100155400.0 -0.8224139372 0.5848598919
24150155100.0 -0.8112294811 0.5958757221
24200154800.0 -0.8001695487 0.6077815673
24250154500.0 -0.7882118886 0.620020827
24300154200.0 -0.7771166174 0.6317638437
24350153900.0 -0.7652798167 0.6427499416
24400153600.0 -0.7528190981 0.6537015398
24450153300.0 -0.7406376398 0.6635023196
24500153000.0 -0.7294479587 0.6736070069
24550152700.0 -0.7179152089 0.6838305971
24600152400.0 -0.7064122785 0.6929946769
24650152100.0 -0.6947111713 0.7009385918
