!Created with skrf (http://scikit-rf.org).
# Hz S RI R 50.0 
!freq ReS11 ImS11
300000.0 -0.9750287237 -0.1185784872
50299700.0 -1.000091027 0.0153699934
100299400.0 -0.9980534535 0.0283179115
150299100.0 -1.002776227 0.0452819936
200298800.0 -0.9995672416 0.0585317014
250298500.0 -0.9973287971 0.0719415371
300298200.0 -0.9859725799 0.0878442667
350297900.0 -0.9942171394 0.0986784967
400297600.0 -0.9931991976 0.1153184322
450297300.0 -0.9911249615 0.1292416432
500297000.0 -0.9897253863 0.1437661237
550296700.0 -0.9840970329 0.1561197891
600296400.0 -1.017296964 0.1895355426
650296100.0 -0.9823479813 0.1862123676
700295800.0 -0.9792169771 0.2004321135
750295500.0 -0.976181143 0.2145085504
800295200.0 -0.9728401898 0.2285717095
850294900.0 -0.9697009206 0.2423690584
900294600.0 -0.9659242474 0.2561376575
950294300.0 -0.9621151718 0.2697978508
1000294000.0 -0.9580758485 0.2836506252
1050293700.0 -0.9537044114 0.2977661823
1100293400.0 -0.9492969538 0.3120813256
1150293100.0 -0.9454935486 0.3240881067
1200292800.0 -0.9401870409 0.3380788531
1250292500.0 -0.9346285028 0.3518355823
1300292200.0 -0.9289440261 0.3648638804
1350291900.0 -0.9234470929 0.379081186
1400291600.0 -0.9178365758 0.3920716067
1450291300.0 -0.9123750222 0.4043921068
1500291000.0 -0.9062234877 0.4177949913
1550290700.0 -0.8998085763 0.4310886626
1600290400.0 -0.8934498035 0.4440545939
1650290100.0 -0.8867476036 0.4562608681
1700289800.0 -0.8798554587 0.4698615779
1750289500.0 -0.872824412 0.4821534473
1800289200.0 -0.8654476188 0.4949833013
1850288900.0 -0.8588283544 0.5063579407
1900288600.0 -0.8507847504 0.5190809067
1950288300.0 -0.8429273195 0.5317910084
2000288000.0 -0.8352945569 0.5431554929
2050287700.0 -0.8271530423 0.555539739
2100287400.0 -0.8192708728 0.5673381135
2150287100.0 -0.8105810114 0.5792597333
2200286800.0 -0.8029257859 0.5895931117
2250286500.0 -0.7940547676 0.6015484302
2300286200.0 -0.7852900875 0.6132106544
2350285900.0 -0.7765011399 0.6240442211
2400285600.0 -0.7673771374 0.6351603233
2450285300.0 -0.7588159592 0.6455625509
2500285000.0 -0.7491990393 0.6568643544
2550284700.0 -0.7401740117 0.6672195649
2600284400.0 -0.7310799368 0.6771765677
2650284100.0 -0.721881953 0.6878855653
2700283800.0 -0.7112464459 0.6984091397
2750283500.0 -0.7009503467 0.7086666537
2800283200.0 -0.6911207372 0.7186155937
2850282900.0 -0.6811761731 0.7284182828
2900282600.0 -0.6707403185 0.738081578
2950282300.0 -0.6606065328 0.747595119
3000282000.0 -0.6495187234 0.7566499494
3050281700.0 -0.6384514851 0.7660469771
3100281400.0 -0.6266377683 0.7755299319
3150281100.0 -0.6149043745 0.7847842682
3200280800.0 -0.6031282456 0.7932663844
3250280500.0 -0.5925075532 0.8008955025
3300280200.0 -0.5811727723 0.8088875866
3350279900.0 -0.5695712114 0.8164538064
3400279600.0 -0.5572819727 0.824312206
3450279300.0 -0.5462629396 0.8312764022
3500279000.0 -0.534251575 0.8384218911
3550278700.0 -0.5217172826 0.8457563552
3600278400.0 -0.5096892668 0.8530161693
3650278100.0 -0.496348883 0.8605458789
3700277800.0 -0.484579246 0.8669802546
3750277500.0 -0.4721836115 0.8735110775
3800277200.0 -0.4596316524 0.8800360033
3850276900.0 -0.4476119773 0.8858480604
3900276600.0 -0.4366620835 0.8914938121
3950276300.0 -0.4245065865 0.8975579198
4000276000.0 -0.4124273054 0.9035310899
4050275700.0 -0.3994041469 0.9095948593
4100275400.0 -0.38821526 0.914820125
4150275100.0 -0.3756796777 0.9207538427
4200274800.0 -0.3624929454 0.9263170346
4250274500.0 -0.3502315408 0.9316258624
4300274200.0 -0.3372532513 0.936772991
4350273900.0 -0.323490715 0.9419901496
4400273600.0 -0.3087321459 0.9471868585
4450273300.0 -0.2935988854 0.9524143362
4500273000.0 -0.279706416 0.9567231987
4550272700.0 -0.2655850301 0.9608484631
4600272400.0 -0.2502204163 0.9651033555
4650272100.0 -0.2385739059 0.9683943394
4700271800.0 -0.225111701 0.9716385205
4750271500.0 -0.2134562446 0.9745447617
4800271200.0 -0.2011568273 0.9771605904
4850270900.0 -0.1871495599 0.9799845002
4900270600.0 -0.1731595654 0.9825633639
4950270300.0 -0.1587893641 0.985173934
5000270000.0 -0.1446915952 0.9869750507
5050269700.0 -0.1311990766 0.9888438087
5100269400.0 -0.1175919847 0.9901353381
5150269100.0 -0.1039276233 0.9917619741
5200268800.0 -0.0906838555 0.9930837931
5250268500.0 -0.0776764368 0.9939258814
5300268200.0 -0.0646137759 0.9947209006
5350267900.0 -0.052151465 0.9953664482
5400267600.0 -0.0361188371 0.9962948776
5450267300.0 -0.0228791356 0.9966966705
5500267000.0 -0.0079389356 0.9970245239
5550266700.0 0.0070373187 0.9974018773
5600266400.0 0.0226453776 0.9974144312
5650266100.0 0.0391832308 0.9971737546
5700265800.0 0.0536200723 0.9964327567
5750265500.0 0.068798227 0.9955849974
5800265200.0 0.0827859948 0.9943107292
5850264900.0 0.095556312 0.9934054483
5900264600.0 0.1125592354 0.9911898958
5950264300.0 0.1243553234 0.9898517209
6000264000.0 0.1383868171 0.9882886294
6050263700.0 0.1511457208 0.987314733
6100263400.0 0.1632928328 0.9850343402
6150263100.0 0.1780042443 0.9828061515
6200262800.0 0.1882170907 0.9808750038
6250262500.0 0.2008172877 0.978571515
6300262200.0 0.2138000146 0.9758114939
6350261900.0 0.2266968989 0.9727558368
6400261600.0 0.2405796887 0.9695721707
6450261300.0 0.2518173971 0.9668460761
6500261000.0 0.2650720703 0.9633115651
6550260700.0 0.2776475254 0.9593709303
6600260400.0 0.2913015858 0.955464454
6650260100.0 0.3050509586 0.9510930549
6700259800.0 0.3173251596 0.9467528231
6750259500.0 0.3307667294 0.9415144619
6800259200.0 0.3438543793 0.93645378
6850258900.0 0.356126829 0.9314734399
6900258600.0 0.3682008945 0.9265057535
6950258300.0 0.3807156923 0.9212831747
7000258000.0 0.3929354836 0.9157273305
7050257700.0 0.4050279484 0.9097195051
7100257400.0 0.417764991 0.9035921106
7150257100.0 0.4281836039 0.898218272
7200256800.0 0.4408286668 0.8916334666
7250256500.0 0.4525510699 0.8851478872
7300256200.0 0.4661095744 0.878575427
7350255900.0 0.4781763001 0.871700399
7400255600.0 0.4916496242 0.8646368363
7450255300.0 0.5067531675 0.8555314764
7500255000.0 0.5188748895 0.8485357392
7550254700.0 0.5323579247 0.8397406517
7600254400.0 0.5453381993 0.8316278165
7650254100.0 0.5570172443 0.8238305849
7700253800.0 0.5686493744 0.8156450951
7750253500.0 0.5798484906 0.808156591
7800253200.0 0.5906101334 0.8003471665
7850252900.0 0.6001963169 0.7933701287
7900252600.0 0.6118126318 0.7847501748
7950252300.0 0.6206901265 0.7782378375
8000252000.0 0.6308919507 0.7703343379
8050251700.0 0.6413288377 0.7621822981
8100251400.0 0.651414688 0.7541457463
8150251100.0 0.6616881366 0.7455216021
8200250800.0 0.6708391968 0.737360899
8250250500.0 0.679958813 0.7295058007
8300250200.0 0.6890243571 0.7209861386
8350249900.0 0.6979010952 0.7123637661
8400249600.0 0.7063590769 0.7039992299
8450249300.0 0.715575082 0.6948877749
8500249000.0 0.7241980111 0.6860802011
8550248700.0 0.7323553455 0.6771277912
8600248400.0 0.7408351645 0.6674363174
8650248100.0 0.7486821639 0.6581185362
8700247800.0 0.7581459924 0.6469703263
8750247500.0 0.7664523546 0.636696306
8800247200.0 0.7745781669 0.626385948
8850246900.0 0.7836503487 0.6148211775
8900246600.0 0.7920117462 0.603618013
8950246300.0 0.8012330357 0.5905758956
9000246000.0 0.8106198461 0.5778515548
9050245700.0 0.8197068265 0.5650901142
9100245400.0 0.8284172394 0.5523464405
9150245100.0 0.8377020045 0.5389515223
9200244800.0 0.8474477922 0.5238489194
9250244500.0 0.8567091182 0.5085333946
9300244200.0 0.8651470246 0.4939511034
9350243900.0 0.8730197276 0.4800608346
9400243600.0 0.8796724128 0.4677167197
9450243300.0 0.8852887332 0.4563108185
9500243000.0 0.8917309943 0.4440062436
9550242700.0 0.8954264901 0.4364073548
9600242400.0 0.899512658 0.429028425
9650242100.0 0.9030918074 0.4224344776
9700241800.0 0.907688717 0.4140130859
9750241500.0 0.9118785867 0.4067495057
9800241200.0 0.9164976142 0.3975276197
9850240900.0 0.921986426 0.3861045998
9900240600.0 0.927404593 0.3746251099
9950240300.0 0.9340252566 0.3584151823
10000240000.0 0.9387469928 0.3468607747
10050239700.0 0.9447040707 0.3312643897
10100239400.0 0.9496154127 0.3158264076
10150239100.0 0.9539094144 0.3010346321
10200238800.0 0.9582017445 0.285914385
10250238500.0 0.9615181334 0.2725822053
10300238200.0 0.9646849594 0.2587530026
10350237900.0 0.9673368387 0.2454593391
10400237600.0 0.9700184365 0.2320591517
10450237300.0 0.9726092357 0.2187369004
10500237000.0 0.9746278212 0.2062419084
10550236700.0 0.9768416106 0.1926881045
10600236400.0 0.9796743068 0.1782478497
10650236100.0 0.9812219348 0.1637200292
10700235800.0 0.9834824896 0.1515978479
10750235500.0 0.9858772674 0.1387913595
10800235200.0 0.9878584321 0.1243626335
10850234900.0 0.9894803992 0.1097773192
10900234600.0 0.9918214677 0.0950752354
10950234300.0 0.9932176825 0.0817360812
11000234000.0 0.9951468383 0.0664980244
11050233700.0 0.9970461702 0.050141713
11100233400.0 0.9984722831 0.0328134841
11150233100.0 0.9993119388 0.016770663
11200232800.0 1.000210383 0.0015572488
11250232500.0 1.001342454 -0.0154005029
11300232200.0 1.001778406 -0.0331643988
11350231900.0 1.001876142 -0.0494405
11400231600.0 1.001358069 -0.0648342519
11450231300.0 1.001114751 -0.0795675843
11500231000.0 0.9999622067 -0.0958461588
11550230700.0 0.9985890846 -0.1096364419
11600230400.0 0.9966461555 -0.1215765862
11650230100.0 0.9949014931 -0.1335541784
11700229800.0 0.9929202075 -0.148005329
11750229500.0 0.9909851901 -0.1626332678
11800229200.0 0.9881814432 -0.176202031
11850228900.0 0.9847096679 -0.188766887
11900228600.0 0.9808797283 -0.1985251289
11950228300.0 0.9778086052 -0.2085656613
12000228000.0 0.9749313701 -0.2180799514
12050227700.0 0.9715061881 -0.2297098991
12100227400.0 0.9682043531 -0.2414869096
12150227100.0 0.9631396027 -0.2582605683
12200226800.0 0.9597446058 -0.269001001
12250226500.0 0.955493932 -0.2822184057
12300226200.0 0.9511321339 -0.294274576
12350225900.0 0.9462437276 -0.3089874416
12400225600.0 0.9421796972 -0.3211816914
12450225300.0 0.93774788 -0.3339874931
12500225000.0 0.9324504567 -0.3487313719
12550224700.0 0.9267415147 -0.362471559
12600224400.0 0.9220263239 -0.3753337097
12650224100.0 0.9161688916 -0.3896284445
12700223800.0 0.9109007648 -0.4024176355
12750223500.0 0.905321369 -0.4156077528
12800223200.0 0.8999505796 -0.4282182351
12850222900.0 0.8947964967 -0.4398882616
12900222600.0 0.8892921284 -0.452820504
12950222300.0 0.8825594393 -0.4654873156
13000222000.0 0.8767216549 -0.4769891483
13050221700.0 0.870204333 -0.4884190404
13100221400.0 0.8637240097 -0.5013072834
13150221100.0 0.8566285449 -0.5138668802
13200220800.0 0.8496297378 -0.5251017804
13250220500.0 0.8421756637 -0.5375186004
13300220200.0 0.8349035937 -0.5479489313
13350219900.0 0.8270197456 -0.5597272655
13400219600.0 0.8186944087 -0.5719784762
13450219300.0 0.8089831879 -0.5856619611
13500219000.0 0.7989963864 -0.5992874642
13550218700.0 0.78855177 -0.6123755524
13600218400.0 0.7788293409 -0.6241975683
13650218100.0 0.7690793613 -0.635335575
13700217800.0 0.7574378068 -0.6478436
13750217500.0 0.7493392853 -0.6583769001
13800217200.0 0.7372585786 -0.6703405475
13850216900.0 0.7260605448 -0.6817765024
13900216600.0 0.716271553 -0.6911411298
13950216300.0 0.7051354334 -0.7014984666
14000216000.0 0.6952980375 -0.7104145247
14050215700.0 0.685843341 -0.7184332727
14100215400.0 0.6757693575 -0.7279291657
14150215100.0 0.6667073423 -0.7363775676
14200214800.0 0.6572498133 -0.7451008655
14250214500.0 0.6469407365 -0.7545457226
14300214200.0 0.6366435382 -0.763773571
14350213900.0 0.6256682241 -0.7733884045
14400213600.0 0.6137438914 -0.7831928436
14450213300.0 0.6007020384 -0.7932316096
14500213000.0 0.5876774726 -0.8036352743
14550212700.0 0.5748718504 -0.8128100052
14600212400.0 0.5621267898 -0.8219868252
14650212100.0 0.5493470528 -0.8297116519
14700211800.0 0.5359735852 -0.8399188612
14750211500.0 0.5238171837 -0.8480778055
14800211200.0 0.5116012809 -0.8560259201
14850210900.0 0.4991457428 -0.8636625989
14900210600.0 0.485931017 -0.8714155972
14950210300.0 0.4726651163 -0.8790754992
15000210000.0 0.4598998069 -0.8858980651
15050209700.0 0.4475934182 -0.8921809861
15100209400.0 0.4350757775 -0.8979689964
15150209100.0 0.4224372335 -0.9032685637
15200208800.0 0.4096403316 -0.9088176958
15250208500.0 0.3983000781 -0.9134230708
15300208200.0 0.385886663 -0.917692673
15350207900.0 0.3732219895 -0.9230658857
15400207600.0 0.3582666696 -0.928323905
15450207300.0 0.3446057458 -0.9333010076
15500207000.0 0.3295303363 -0.9377805
15550206700.0 0.3141128769 -0.9427022692
15600206400.0 0.2984035886 -0.9474330607
15650206100.0 0.2823196885 -0.9518067621
15700205800.0 0.2687067458 -0.9552056102
15750205500.0 0.2544196418 -0.9587123623
15800205200.0 0.2400517428 -0.9621701706
15850204900.0 0.2255691592 -0.9656132282
15900204600.0 0.2104994885 -0.9691354922
15950204300.0 0.1963777313 -0.9720456476
16000204000.0 0.181997715 -0.9749427385
16050203700.0 0.1669800694 -0.9779782796
16100203400.0 0.1523824176 -0.9802358638
16150203100.0 0.1382584476 -0.9826846402
16200202800.0 0.1233314258 -0.9849686476
16250202500.0 0.1095164591 -0.9861441382
16300202200.0 0.0938775743 -0.9878597116
16350201900.0 0.0791693525 -0.9890439864
16400201600.0 0.0643799229 -0.990331841
16450201300.0 0.0489626686 -0.9915302486
16500201000.0 0.0323357131 -0.9921467385
16550200700.0 0.016778905 -0.9926356947
16600200400.0 0.0010365876 -0.9928172682
16650200100.0 -0.0152279438 -0.9925693596
16700199800.0 -0.0316727433 -0.9925208373
16750199500.0 -0.0504878962 -0.9918329545
16800199200.0 -0.0657452953 -0.9910350538
16850198900.0 -0.0811674716 -0.9895818807
16900198600.0 -0.094492454 -0.9889942393
16950198300.0 -0.108618469 -0.9873556647
17000198000.0 -0.1212338614 -0.9862846483
17050197700.0 -0.1340807723 -0.9844473543
17100197400.0 -0.1468188755 -0.9822396458
17150197100.0 -0.1594527653 -0.9802624842
17200196800.0 -0.1724752121 -0.9784036655
17250196500.0 -0.1850984283 -0.9754001749
17300196200.0 -0.1971413299 -0.9735900505
17350195900.0 -0.20903072 -0.9710511603
17400195600.0 -0.2212595238 -0.9688586049
17450195300.0 -0.2344751401 -0.9659023594
17500195000.0 -0.2479303436 -0.9624839662
17550194700.0 -0.2616451578 -0.9587590969
17600194400.0 -0.2759182815 -0.9550521981
17650194100.0 -0.2892332159 -0.9508424128
17700193800.0 -0.3023492172 -0.9467146278
17750193500.0 -0.316443785 -0.942347003
17800193200.0 -0.3312204715 -0.9368309199
17850192900.0 -0.3462857377 -0.9312739124
17900192600.0 -0.3613395933 -0.9252537336
17950192300.0 -0.3768977055 -0.9183284951
18000192000.0 -0.3916340117 -0.911116224
18050191700.0 -0.4055914605 -0.9032807884
18100191400.0 -0.4197706311 -0.8955961338
18150191100.0 -0.4349504359 -0.887549874
18200190800.0 -0.4517107874 -0.8784765202
18250190500.0 -0.4685243479 -0.8689334147
18300190200.0 -0.4841329489 -0.860392703
18350189900.0 -0.4992250075 -0.8518670648
18400189600.0 -0.513423917 -0.8433614725
18450189300.0 -0.5272296488 -0.8353835726
18500189000.0 -0.5400500733 -0.827496825
18550188700.0 -0.5526609072 -0.8200497193
18600188400.0 -0.564319245 -0.8133979009
18650188100.0 -0.5758668173 -0.8071910796
18700187800.0 -0.5866591343 -0.800154983
18750187500.0 -0.5971965623 -0.7937007119
18800187200.0 -0.6075779943 -0.7869316876
18850186900.0 -0.6177738913 -0.7799589308
18900186600.0 -0.6279410601 -0.7725419461
18950186300.0 -0.6380994786 -0.7651637771
19000186000.0 -0.64532657 -0.7586894053
19050185700.0 -0.6544969939 -0.7516328077
19100185400.0 -0.6646730727 -0.7432134885
19150185100.0 -0.6750981802 -0.7349779288
19200184800.0 -0.6838582046 -0.727000384
19250184500.0 -0.6941430812 -0.7175409768
19300184200.0 -0.7053235391 -0.7077288628
19350183900.0 -0.7165247516 -0.6982391686
19400183600.0 -0.7258488594 -0.6878369783
19450183300.0 -0.7352212352 -0.6777332278
19500183000.0 -0.7433828192 -0.6681255817
19550182700.0 -0.7529967151 -0.6570369225
19600182400.0 -0.763284122 -0.6455494691
19650182100.0 -0.7742191151 -0.6331523217
19700181800.0 -0.7850274546 -0.6199135828
19750181500.0 -0.7955558876 -0.6056646841
19800181200.0 -0.806069821 -0.590590132
19850180900.0 -0.8156927768 -0.5753787644
19900180600.0 -0.8235851169 -0.5605291925
19950180300.0 -0.8328694381 -0.5446396098
20000180000.0 -0.82561025 -0.5468745365
20050179700.0 -0.834208973 -0.5330119933
20100179400.0 -0.8426570152 -0.5207401449
20150179100.0 -0.8506979424 -0.5074628643
20200178800.0 -0.8595360252 -0.494580862
20250178500.0 -0.8687493967 -0.4811585892
20300178200.0 -0.878184994 -0.4674007434
20350177900.0 -0.8871974057 -0.452379317
20400177600.0 -0.8962536934 -0.4381302739
20450177300.0 -0.904783415 -0.4235679131
20500177000.0 -0.9129106787 -0.4096529836
20550176700.0 -0.9205692519 -0.3962702835
20600176400.0 -0.9277821459 -0.3825800109
20650176100.0 -0.9344183358 -0.3708319035
20700175800.0 -0.9416284731 -0.358890449
20750175500.0 -0.9480304229 -0.3471042366
20800175200.0 -0.9523248109 -0.3370364555
20850174900.0 -0.9569308246 -0.3247169576
20900174600.0 -0.9615220312 -0.3144311662
20950174300.0 -0.9654918839 -0.3027641446
21000174000.0 -0.9693919217 -0.2904474862
21050173700.0 -0.9719041405 -0.2804779116
21100173400.0 -0.97610379 -0.2679239887
21150173100.0 -0.9794347119 -0.2556518626
21200172800.0 -0.983370085 -0.2426680984
21250172500.0 -0.9865339514 -0.2288019254
21300172200.0 -0.9893377967 -0.2152019732
21350171900.0 -0.990756841 -0.2000843357
21400171600.0 -0.9925688648 -0.186253514
21450171300.0 -0.992994107 -0.1718780742
21500171000.0 -0.9921517247 -0.1556977065
21550170700.0 -0.9927222042 -0.1407165466
21600170400.0 -0.9925402041 -0.1253879056
21650170100.0 -0.9925892257 -0.1085342317
21700169800.0 -0.9901712057 -0.0951905067
21750169500.0 -0.9891751277 -0.0783725482
21800169200.0 -0.9887517952 -0.0626632744
21850168900.0 -0.9867807331 -0.0446996642
21900168600.0 -0.9856457085 -0.028499182
21950168300.0 -0.9853759391 -0.0131601262
22000168000.0 -0.9838908236 0.002033893
22050167700.0 -0.9837894312 0.0162944039
22100167400.0 -0.9838437261 0.0316431462
22150167100.0 -0.9842752221 0.0472301602
22200166800.0 -0.9853585259 0.0637105937
22250166500.0 -0.9843976068 0.0808116674
22300166200.0 -0.9839985709 0.0976749128
22350165900.0 -0.982614789 0.1137825619
22400165600.0 -0.9806918065 0.1289813331
22450165300.0 -0.9787046999 0.1453083517
22500165000.0 -0.977032245 0.1581853531
22550164700.0 -0.9767179717 0.1733978974
22600164400.0 -0.9741491829 0.1886444216
22650164100.0 -0.9721067805 0.2033827341
22700163800.0 -0.9689158334 0.2191742687
22750163500.0 -0.967278547 0.2346695865
22800163200.0 -0.9640486448 0.2477919093
22850162900.0 -0.9614256616 0.2613948199
22900162600.0 -0.9600379788 0.274740347
22950162300.0 -0.9591352442 0.2876163907
23000162000.0 -0.9578962915 0.2993652339
23050161700.0 -0.955732666 0.3119356935
23100161400.0 -0.95343064 0.3249604703
23150161100.0 -0.9505912386 0.3376059565
23200160800.0 -0.9472046258 0.3491161104
23250160500.0 -0.9442449003 0.3614768319
23300160200.0 -0.9418690978 0.3738160738
23350159900.0 -0.9383505859 0.3861240956
23400159600.0 -0.9343299893 0.4006635968
23450159300.0 -0.928977518 0.4135620483
23500159000.0 -0.9243591198 0.4262774478
23550158700.0 -0.92032249 0.4394684324
23600158400.0 -0.9146567932 0.4530972434
23650158100.0 -0.9082074216 0.4669063649
23700157800.0 -0.9006001035 0.4809498094
23750157500.0 -0.8921403467 0.4953380626
23800157200.0 -0.8834682131 0.5082900587
23850156900.0 -0.8745976029 0.521045753
23900156600.0 -0.8652937771 0.5335287568
23950156300.0 -0.8557957702 0.5456025526
24000156000.0 -0.8469921743 0.5582210755
24050155700.0 -0.8371515469 0.5699766236
24100155400.0 -0.8266350082 0.5815503016
24150155100.0 -0.8162336045 0.5930224492
24200154800.0 -0.8050317182 0.6051717103
24250154500.0 -0.7940469388 0.6171805606
24300154200.0 -0.7830844945 0.6282633099
24350153900.0 -0.7709987139 0.6387147616
24400153600.0 -0.7583881486 0.6488758374
24450153300.0 -0.746814382 0.6590399444
24500153000.0 -0.735350698 0.6687937983
24550152700.0 -0.7238022632 0.6781152818
24600152400.0 -0.7120245921 0.6872621325
24650152100.0 -0.6995805377 0.6956923484
