!Created with skrf (http://scikit-rf.org).
# Hz S RI R 50.0 
!freq ReS11 ImS11
300000.0 -0.9733690581 -0.1205004754
50299700.0 -0.9999256623 0.0151977325
100299400.0 -0.9979180438 0.0280404467
150299100.0 -1.002614918 0.0449511628
200298800.0 -0.9994197315 0.05826
250298500.0 -0.9972300363 0.0717722085
300298200.0 -0.9860378018 0.0875097168
350297900.0 -0.9940119883 0.0984472182
400297600.0 -0.9931427344 0.1150011889
450297300.0 -0.9910294645 0.1286173153
500297000.0 -0.9893885982 0.1434446092
550296700.0 -0.9844278922 0.1559553851
600296400.0 -1.017226486 0.1893015108
650296100.0 -0.9820891632 0.185673371
700295800.0 -0.9791952446 0.2002612947
750295500.0 -0.9762857659 0.2142110366
800295200.0 -0.9729648771 0.228177252
850294900.0 -0.9695289216 0.2419784949
900294600.0 -0.9659066457 0.2557104447
950294300.0 -0.962036917 0.2695177516
1000294000.0 -0.9581156111 0.2833567608
1050293700.0 -0.9536310028 0.2972336557
1100293400.0 -0.9492760975 0.3116720588
1150293100.0 -0.9455299381 0.32347729
1200292800.0 -0.9402735369 0.3376661005
1250292500.0 -0.9345891256 0.3513105238
1300292200.0 -0.9288552081 0.3645481814
1350291900.0 -0.9235043363 0.378664033
1400291600.0 -0.9180176423 0.3916097531
1450291300.0 -0.9124601195 0.4042561432
1500291000.0 -0.9061749552 0.4172986909
1550290700.0 -0.8996270319 0.4306631846
1600290400.0 -0.8935734743 0.4436672783
1650290100.0 -0.8866868937 0.4557175945
1700289800.0 -0.8797901883 0.4692904778
1750289500.0 -0.8726736404 0.4816065634
1800289200.0 -0.8654641122 0.4945518896
1850288900.0 -0.8587259339 0.5058417575
1900288600.0 -0.8510858026 0.5189467932
1950288300.0 -0.8428421199 0.5313389511
2000288000.0 -0.8356192439 0.5430633275
2050287700.0 -0.8271380866 0.5552998469
2100287400.0 -0.81926899 0.5668106194
2150287100.0 -0.8108342489 0.5785550409
2200286800.0 -0.8030142756 0.5892049472
2250286500.0 -0.7940339481 0.6014812887
2300286200.0 -0.7852736443 0.6128803795
2350285900.0 -0.7767878468 0.623410802
2400285600.0 -0.7679437405 0.6347600561
2450285300.0 -0.7589080265 0.6452369922
2500285000.0 -0.7492268214 0.6567569865
2550284700.0 -0.7401172164 0.6669351946
2600284400.0 -0.731096653 0.6769095913
2650284100.0 -0.7222025373 0.6871712917
2700283800.0 -0.7116743393 0.6974963012
2750283500.0 -0.7016541629 0.7084737674
2800283200.0 -0.6914053599 0.7184040018
2850282900.0 -0.6811375704 0.7280769568
2900282600.0 -0.6706068211 0.7376760876
2950282300.0 -0.6602170579 0.7471759478
3000282000.0 -0.649695956 0.7566072354
3050281700.0 -0.6384941092 0.7660581556
3100281400.0 -0.6268576529 0.7750861062
3150281100.0 -0.6155208369 0.784035095
3200280800.0 -0.6039020162 0.7924876992
3250280500.0 -0.5928748965 0.8006102878
3300280200.0 -0.5813516086 0.808659123
3350279900.0 -0.5693827958 0.8165329348
3400279600.0 -0.5567708569 0.8243284737
3450279300.0 -0.5457514096 0.8315674957
3500279000.0 -0.5340157093 0.8384741971
3550278700.0 -0.5218702141 0.8456213674
3600278400.0 -0.5097057469 0.8523236003
3650278100.0 -0.496502332 0.8600616798
3700277800.0 -0.4845012869 0.8664460198
3750277500.0 -0.4723251431 0.8732546433
3800277200.0 -0.4598152292 0.879605933
3850276900.0 -0.4474878979 0.885659619
3900276600.0 -0.436917091 0.8914452745
3950276300.0 -0.4247793424 0.8973637957
4000276000.0 -0.4127065102 0.9033471854
4050275700.0 -0.4001691611 0.9091876103
4100275400.0 -0.3890316193 0.9145952256
4150275100.0 -0.3758091648 0.9204627614
4200274800.0 -0.3626559852 0.9261841048
4250274500.0 -0.3499437273 0.9315407748
4300274200.0 -0.336978511 0.9366225969
4350273900.0 -0.322820973 0.942182348
4400273600.0 -0.3080045959 0.947065588
4450273300.0 -0.2931670464 0.952270135
4500273000.0 -0.2797121807 0.9564604647
4550272700.0 -0.266017322 0.9606950382
4600272400.0 -0.2509530981 0.9647128856
4650272100.0 -0.2394070305 0.9680635318
4700271800.0 -0.2264113027 0.9711243825
4750271500.0 -0.2146217802 0.974134767
4800271200.0 -0.2023702904 0.976796973
4850270900.0 -0.1885782006 0.9798463946
4900270600.0 -0.1748543431 0.9819620938
4950270300.0 -0.1602447033 0.9847979842
5000270000.0 -0.1457863298 0.986762252
5050269700.0 -0.1325209799 0.9884318065
5100269400.0 -0.1182749949 0.989835918
5150269100.0 -0.104582286 0.99185582
5200268800.0 -0.0912865237 0.9928376304
5250268500.0 -0.0781276485 0.9935857948
5300268200.0 -0.0646338264 0.9945102273
5350267900.0 -0.0519725957 0.9950502538
5400267600.0 -0.0358113839 0.9963378951
5450267300.0 -0.0226511321 0.9968229063
5500267000.0 -0.0071716425 0.9969995901
5550266700.0 0.0078034971 0.9972836471
5600266400.0 0.0233735816 0.9970806895
5650266100.0 0.0399128524 0.9966662321
5700265800.0 0.0542016727 0.9957999448
5750265500.0 0.0691895798 0.995247298
5800265200.0 0.0828858185 0.9940140757
5850264900.0 0.0962010467 0.9932475527
5900264600.0 0.112738286 0.9914821884
5950264300.0 0.1247126723 0.9900991334
6000264000.0 0.1379055064 0.9880029671
6050263700.0 0.1498602734 0.9867696853
6100263400.0 0.1620658459 0.9849437163
6150263100.0 0.1768419332 0.9825681419
6200262800.0 0.18672263 0.9810531488
6250262500.0 0.1993943054 0.9787326624
6300262200.0 0.2117002515 0.9759924399
6350261900.0 0.2246377558 0.9732606895
6400261600.0 0.2384281725 0.9699704211
6450261300.0 0.2495123897 0.9673275171
6500261000.0 0.2626736108 0.9636019883
6550260700.0 0.2754849501 0.9596271319
6600260400.0 0.2893038042 0.9556995192
6650260100.0 0.3034455023 0.9514336285
6700259800.0 0.3157233156 0.9471802618
6750259500.0 0.3292198167 0.9422957987
6800259200.0 0.3426802332 0.9370540829
6850258900.0 0.3550577234 0.9317833847
6900258600.0 0.3675915871 0.9267008795
6950258300.0 0.379937628 0.9216842026
7000258000.0 0.3917151479 0.9160241094
7050257700.0 0.4037884057 0.9101575407
7100257400.0 0.417027372 0.9038228455
7150257100.0 0.4275820092 0.8983376833
7200256800.0 0.440658578 0.8921611104
7250256500.0 0.4529007518 0.8855038936
7300256200.0 0.4658050225 0.8786465723
7350255900.0 0.4785794892 0.8717930335
7400255600.0 0.4928077347 0.8643441679
7450255300.0 0.5081895701 0.8552292955
7500255000.0 0.52029792 0.8474543006
7550254700.0 0.5344404388 0.838734
7600254400.0 0.5467400266 0.8304879726
7650254100.0 0.5582481933 0.8228142285
7700253800.0 0.5702136262 0.8148950921
7750253500.0 0.5813204737 0.8070271346
7800253200.0 0.5919299008 0.7992615787
7850252900.0 0.6016181604 0.7921879606
7900252600.0 0.6131526687 0.7832518766
7950252300.0 0.62158354 0.7769577964
8000252000.0 0.6315411028 0.7692557964
8050251700.0 0.6423244873 0.7610343351
8100251400.0 0.6521944375 0.7530064468
8150251100.0 0.6619352266 0.7446242172
8200250800.0 0.6714440511 0.7363486658
8250250500.0 0.6803367576 0.728569202
8300250200.0 0.6890433802 0.7201976144
8350249900.0 0.6984711731 0.7112311798
8400249600.0 0.7065561528 0.7031247381
8450249300.0 0.7156362351 0.6941777458
8500249000.0 0.7241962314 0.685574168
8550248700.0 0.7326667034 0.6765559299
8600248400.0 0.7409092328 0.6668927044
8650248100.0 0.7486970056 0.6576644522
8700247800.0 0.7580586436 0.6464313397
8750247500.0 0.7663463063 0.6364334823
8800247200.0 0.7742816412 0.6260405265
8850246900.0 0.7832439597 0.6145909111
8900246600.0 0.7915443104 0.6032451311
8950246300.0 0.800652811 0.5906012085
9000246000.0 0.8094887469 0.5783255736
9050245700.0 0.8179603535 0.5662157683
9100245400.0 0.8266162578 0.5536389531
9150245100.0 0.8356696 0.5408379953
9200244800.0 0.8450982257 0.5260854615
9250244500.0 0.8541833183 0.5109954438
9300244200.0 0.8623493782 0.4972077278
9350243900.0 0.8700620834 0.4838401281
9400243600.0 0.8766406344 0.4719414353
9450243300.0 0.8823161572 0.4610758642
9500243000.0 0.888710456 0.4492636263
9550242700.0 0.8925699718 0.4417544468
9600242400.0 0.8967092015 0.4344143221
9650242100.0 0.9008891178 0.4273453637
9700241800.0 0.9057253989 0.4189392509
9750241500.0 0.9096190188 0.4113344919
9800241200.0 0.9147908713 0.4016658342
9850240900.0 0.9208089308 0.3898863447
9900240600.0 0.9263200281 0.3783158805
9950240300.0 0.9334407115 0.3616369923
10000240000.0 0.9380271209 0.3500877036
10050239700.0 0.9441127667 0.3338878881
10100239400.0 0.9492079661 0.3181266832
10150239100.0 0.9538574136 0.3026932094
10200238800.0 0.9580693228 0.2871879157
10250238500.0 0.9615263169 0.2739269869
10300238200.0 0.9644930306 0.2597273053
10350237900.0 0.9673395231 0.2466560835
10400237600.0 0.9700704772 0.2330525566
10450237300.0 0.9723818285 0.2196554262
10500237000.0 0.9747708587 0.2076673149
10550236700.0 0.9774432255 0.1925665505
10600236400.0 0.9794473202 0.1788514438
10650236100.0 0.9814475375 0.1641706274
10700235800.0 0.9837727494 0.1518167954
10750235500.0 0.9855602452 0.1389448462
10800235200.0 0.9878657649 0.1240888029
10850234900.0 0.990082071 0.1093673221
10900234600.0 0.991730682 0.095001108
10950234300.0 0.9937153763 0.081254366
11000234000.0 0.9954464645 0.0659766594
11050233700.0 0.997282932 0.0494094648
11100233400.0 0.9989710463 0.0318793005
11150233100.0 0.9999941935 0.0150044398
11200232800.0 1.000396519 -0.0001336239
11250232500.0 1.001704518 -0.01732402
11300232200.0 1.00252511 -0.0366512346
11350231900.0 1.001975593 -0.0525640634
11400231600.0 1.001253156 -0.0685300561
11450231300.0 1.001557726 -0.0827422092
11500231000.0 0.9998630669 -0.1005086944
11550230700.0 0.9980996098 -0.1131913106
11600230400.0 0.996668356 -0.1252801134
11650230100.0 0.9948254098 -0.1375665575
11700229800.0 0.9925997406 -0.1524729954
11750229500.0 0.9902151826 -0.1663502504
11800229200.0 0.9876484956 -0.1801688883
11850228900.0 0.9837395382 -0.1922038242
11900228600.0 0.9802317017 -0.2016575163
11950228300.0 0.9766578505 -0.2119577795
12000228000.0 0.9740677161 -0.2206147606
12050227700.0 0.9702390017 -0.233347102
12100227400.0 0.9671613304 -0.2437939593
12150227100.0 0.9623145205 -0.2613601049
12200226800.0 0.9586146845 -0.2721975089
12250226500.0 0.9543859882 -0.2839290842
12300226200.0 0.9500987914 -0.297306587
12350225900.0 0.9455809229 -0.3109469763
12400225600.0 0.9412534196 -0.3238525949
12450225300.0 0.9362558267 -0.3361429944
12500225000.0 0.9305407545 -0.350523045
12550224700.0 0.9256124853 -0.3645561803
12600224400.0 0.9206231741 -0.3775221876
12650224100.0 0.914663794 -0.3917262279
12700223800.0 0.9094936967 -0.4045045458
12750223500.0 0.9038255126 -0.4176636713
12800223200.0 0.8988487467 -0.4298632097
12850222900.0 0.8932808487 -0.4423545118
12900222600.0 0.8878964615 -0.454091241
12950222300.0 0.8815245854 -0.4672829114
13000222000.0 0.87511886 -0.47910385
13050221700.0 0.8688930779 -0.4913185518
13100221400.0 0.8619936248 -0.5036996998
13150221100.0 0.855246931 -0.5155101167
13200220800.0 0.8481003922 -0.5273525621
13250220500.0 0.8411315776 -0.5393569661
13300220200.0 0.8335996899 -0.5502272896
13350219900.0 0.8252803148 -0.5622437376
13400219600.0 0.8169809476 -0.5740304059
13450219300.0 0.8077635631 -0.5870869392
13500219000.0 0.7977117887 -0.6008073335
13550218700.0 0.7876188859 -0.6130490225
13600218400.0 0.7778582088 -0.6249303669
13650218100.0 0.7680972142 -0.635511069
13700217800.0 0.7573082142 -0.6477775746
13750217500.0 0.7478995741 -0.6585354473
13800217200.0 0.7363359509 -0.6701412866
13850216900.0 0.7258244092 -0.6813676652
13900216600.0 0.7160980049 -0.6905555379
13950216300.0 0.7051815883 -0.7003330477
14000216000.0 0.6958293116 -0.709487188
14050215700.0 0.6862712741 -0.71818623
14100215400.0 0.6763991924 -0.7268929699
14150215100.0 0.6672282338 -0.7355753972
14200214800.0 0.6578946452 -0.744280762
14250214500.0 0.6475202023 -0.753692198
14300214200.0 0.6370295242 -0.7630435419
14350213900.0 0.6256943052 -0.7727633594
14400213600.0 0.6137368363 -0.782623902
14450213300.0 0.6009499737 -0.7928085351
14500213000.0 0.5880287163 -0.8024159725
14550212700.0 0.5758364987 -0.8117669324
14600212400.0 0.5637606292 -0.820773395
14650212100.0 0.5511340957 -0.8294847818
14700211800.0 0.5368885184 -0.8389553437
14750211500.0 0.5245530581 -0.8472131293
14800211200.0 0.5117548075 -0.8555129511
14850210900.0 0.5000581446 -0.8631977575
14900210600.0 0.4866376847 -0.8709779104
14950210300.0 0.4732217395 -0.878733169
15000210000.0 0.4605672815 -0.8854301687
15050209700.0 0.4482849913 -0.8914629324
15100209400.0 0.435167304 -0.8974115781
15150209100.0 0.4233278756 -0.9028674972
15200208800.0 0.4111585339 -0.9080775088
15250208500.0 0.3992688359 -0.9129406156
15300208200.0 0.3867345703 -0.9176677317
15350207900.0 0.3732602183 -0.9218845384
15400207600.0 0.3594835873 -0.927603584
15450207300.0 0.3440603141 -0.9328986306
15500207000.0 0.3302113841 -0.9368449023
15550206700.0 0.3146217858 -0.9425535618
15600206400.0 0.2994073559 -0.9471971086
15650206100.0 0.2838460706 -0.951314076
15700205800.0 0.2700711574 -0.954468709
15750205500.0 0.2559559165 -0.9580603993
15800205200.0 0.2418543781 -0.9614608544
15850204900.0 0.2275411055 -0.9648918151
15900204600.0 0.2126368529 -0.9687828101
15950204300.0 0.1983602166 -0.9717886687
16000204000.0 0.1837471523 -0.9746033247
16050203700.0 0.1685906338 -0.9777849194
16100203400.0 0.1540145715 -0.9796744889
16150203100.0 0.1393350705 -0.9821086883
16200202800.0 0.1251094805 -0.9839859623
16250202500.0 0.1101295783 -0.9861456874
16300202200.0 0.0942118233 -0.9875434813
16350201900.0 0.0799266946 -0.9886139374
16400201600.0 0.0650695295 -0.9902244073
16450201300.0 0.0495779207 -0.9910869387
16500201000.0 0.0326965776 -0.9920729674
16550200700.0 0.0168237025 -0.9926880402
16600200400.0 0.0009503192 -0.9928035468
16650200100.0 -0.0149557839 -0.9926937194
16700199800.0 -0.0315727454 -0.9921585775
16750199500.0 -0.0502952775 -0.991336894
16800199200.0 -0.0665484672 -0.9909580591
16850198900.0 -0.0816170924 -0.9898556049
16900198600.0 -0.0961463013 -0.9882465526
16950198300.0 -0.1095379122 -0.9871048769
17000198000.0 -0.1223305881 -0.9857909942
17050197700.0 -0.1355395411 -0.9842017923
17100197400.0 -0.1480651206 -0.9819950512
17150197100.0 -0.1606409896 -0.9804847809
17200196800.0 -0.1735851004 -0.9778589769
17250196500.0 -0.1863914841 -0.9758070427
17300196200.0 -0.1986302965 -0.9735314926
17350195900.0 -0.2106801863 -0.9708756895
17400195600.0 -0.2224040533 -0.968359362
17450195300.0 -0.2355466487 -0.9655147859
17500195000.0 -0.2488248531 -0.9620883476
17550194700.0 -0.2626717687 -0.958841148
17600194400.0 -0.2761598199 -0.9548647314
17650194100.0 -0.2898879593 -0.95051065
17700193800.0 -0.3031811007 -0.9463604638
17750193500.0 -0.3172837857 -0.9417973979
17800193200.0 -0.3314609459 -0.9364637999
17850192900.0 -0.3463708667 -0.931299122
17900192600.0 -0.3616618557 -0.9251921121
17950192300.0 -0.3771163133 -0.9179604743
18000192000.0 -0.3918633985 -0.9107199932
18050191700.0 -0.4056556621 -0.9028555307
18100191400.0 -0.4197159627 -0.8952037195
18150191100.0 -0.4346915296 -0.8872408631
18200190800.0 -0.4517067378 -0.8781385948
18250190500.0 -0.4685752883 -0.868561139
18300190200.0 -0.4838902764 -0.8597065772
18350189900.0 -0.4990110294 -0.8513359672
18400189600.0 -0.513963535 -0.8434092095
18450189300.0 -0.5271941004 -0.8354516803
18500189000.0 -0.5410741666 -0.8273517783
18550188700.0 -0.5534016686 -0.8191636238
18600188400.0 -0.5648872972 -0.8124585903
18650188100.0 -0.5763955135 -0.8060206746
18700187800.0 -0.5873100765 -0.7994953702
18750187500.0 -0.5983400098 -0.7926280233
18800187200.0 -0.6088062178 -0.7856587163
18850186900.0 -0.6192148944 -0.778754604
18900186600.0 -0.6294420884 -0.7714376856
18950186300.0 -0.6395490022 -0.763766975
19000186000.0 -0.6470789582 -0.7578372538
19050185700.0 -0.6561207389 -0.7504367533
19100185400.0 -0.6657405746 -0.7425755436
19150185100.0 -0.6759420831 -0.7340021391
19200184800.0 -0.6860242711 -0.7258997188
19250184500.0 -0.6962563742 -0.7169133157
19300184200.0 -0.7075028762 -0.7067239449
19350183900.0 -0.7182922228 -0.6982155653
19400183600.0 -0.7275733532 -0.6869793827
19450183300.0 -0.7370924669 -0.6771017947
19500183000.0 -0.7450603672 -0.6667346226
19550182700.0 -0.754644467 -0.6561769013
19600182400.0 -0.7645276298 -0.6448210626
19650182100.0 -0.7756214715 -0.6321934524
19700181800.0 -0.786076425 -0.618946571
19750181500.0 -0.796399989 -0.6050455962
19800181200.0 -0.8066406639 -0.5898147878
19850180900.0 -0.8162977757 -0.574395407
19900180600.0 -0.8238044927 -0.5602147562
19950180300.0 -0.833164376 -0.5438987301
20000180000.0 -0.8242515549 -0.5468713292
20050179700.0 -0.8321500126 -0.5338169754
20100179400.0 -0.8400667789 -0.520760635
20150179100.0 -0.8479057902 -0.5081758114
20200178800.0 -0.8565384027 -0.4974815047
20250178500.0 -0.8660574443 -0.4839878958
20300178200.0 -0.8759128533 -0.4707829822
20350177900.0 -0.8855082614 -0.4561002131
20400177600.0 -0.8942729515 -0.4417588436
20450177300.0 -0.9026631613 -0.4278692328
20500177000.0 -0.9106113702 -0.4136536845
20550176700.0 -0.9187373907 -0.400555389
20600176400.0 -0.9254607434 -0.3871856191
20650176100.0 -0.9322901177 -0.3752995026
20700175800.0 -0.9392023289 -0.3636047425
20750175500.0 -0.9460988458 -0.351585933
20800175200.0 -0.949407306 -0.3408292992
20850174900.0 -0.9545364977 -0.3304672954
20900174600.0 -0.9587239553 -0.3191380691
20950174300.0 -0.9616881932 -0.3082546305
21000174000.0 -0.965160955 -0.2976186736
21050173700.0 -0.9675779288 -0.2866288662
21100173400.0 -0.9711076971 -0.2764139137
21150173100.0 -0.97433373 -0.2635927706
21200172800.0 -0.9786341618 -0.250469768
21250172500.0 -0.9821651171 -0.2368585076
21300172200.0 -0.9853089358 -0.2229108664
21350171900.0 -0.987336726 -0.2082882183
21400171600.0 -0.9891786411 -0.1938159942
21450171300.0 -0.9894750817 -0.1797002412
21500171000.0 -0.9902230702 -0.1648799631
21550170700.0 -0.9896673567 -0.1497144534
21600170400.0 -0.9906691535 -0.1335387341
21650170100.0 -0.9905923418 -0.1184508056
21700169800.0 -0.9901117299 -0.1023385059
21750169500.0 -0.9898222922 -0.0861645567
21800169200.0 -0.9898924951 -0.0704403894
21850168900.0 -0.9894367658 -0.0535705446
21900168600.0 -0.9879996801 -0.0372570565
21950168300.0 -0.9875779935 -0.0215288197
22000168000.0 -0.9873157717 -0.0062195147
22050167700.0 -0.9877253808 0.0080969744
22100167400.0 -0.9884720206 0.0234503295
22150167100.0 -0.9889966268 0.039109621
22200166800.0 -0.9897588986 0.0560965653
22250166500.0 -0.9892590831 0.0731884348
22300166200.0 -0.9876189862 0.0890049914
22350165900.0 -0.9872963798 0.1059943212
22400165600.0 -0.9856671402 0.1218751322
22450165300.0 -0.9848176229 0.1365408404
22500165000.0 -0.9813896324 0.1501753636
22550164700.0 -0.9805233463 0.166178471
22600164400.0 -0.978784112 0.18216599
22650164100.0 -0.9770410005 0.1977074406
22700163800.0 -0.9735724862 0.2134719526
22750163500.0 -0.970636739 0.2286411532
22800163200.0 -0.9677287515 0.2419037283
22850162900.0 -0.9651560025 0.2551046606
22900162600.0 -0.963216505 0.2689983828
22950162300.0 -0.9617576738 0.2823797209
23000162000.0 -0.9602056496 0.2946920194
23050161700.0 -0.957725655 0.3074386623
23100161400.0 -0.9552232501 0.3213905581
23150161100.0 -0.9524158334 0.3338836506
23200160800.0 -0.9491104814 0.3468116272
23250160500.0 -0.9464548549 0.3589828436
23300160200.0 -0.9431783412 0.3716059954
23350159900.0 -0.9397615357 0.3850913061
23400159600.0 -0.9352676551 0.3988002734
23450159300.0 -0.9295361499 0.4122657342
23500159000.0 -0.9251931254 0.426087528
23550158700.0 -0.9203652154 0.4395594962
23600158400.0 -0.9142013663 0.4535734729
23650158100.0 -0.9071961051 0.4679463
23700157800.0 -0.8992484264 0.4820259886
23750157500.0 -0.89030471 0.4962151318
23800157200.0 -0.8805189736 0.509641096
23850156900.0 -0.8709330127 0.5223573717
23900156600.0 -0.8609789838 0.5347651655
23950156300.0 -0.8520510263 0.547861971
24000156000.0 -0.8429441048 0.5598648042
24050155700.0 -0.8325063671 0.5721064971
24100155400.0 -0.8226058152 0.5838064506
24150155100.0 -0.8114171693 0.5967204172
24200154800.0 -0.8005692204 0.608003354
24250154500.0 -0.7886041949 0.6201296633
24300154200.0 -0.7773702256 0.6320255222
24350153900.0 -0.7656581269 0.6427440214
24400153600.0 -0.7529961607 0.6532765263
24450153300.0 -0.7413024985 0.6636298331
24500153000.0 -0.7295454786 0.673061719
24550152700.0 -0.7186078673 0.6832725636
24600152400.0 -0.7062088483 0.6924392989
24650152100.0 -0.6944667748 0.7011022986
