!Created with skrf (http://scikit-rf.org).
# Hz S RI R 50.0 
!freq ReS11 ImS11
300000.0 -0.9760854157 -0.1175943093
50299700.0 -1.000057248 0.0154686604
100299400.0 -0.9980373626 0.0282237418
150299100.0 -1.002806219 0.0452861407
200298800.0 -0.9996988751 0.0585923908
250298500.0 -0.9975651702 0.0721586435
300298200.0 -0.9859071057 0.087861813
350297900.0 -0.9940033476 0.0988929449
400297600.0 -0.9931060943 0.1154673748
450297300.0 -0.9911598102 0.1291923591
500297000.0 -0.9894149518 0.1440938228
550296700.0 -0.984359306 0.156391841
600296400.0 -1.017100661 0.1898656997
650296100.0 -0.9822836203 0.1863212648
700295800.0 -0.9792435047 0.2007010988
750295500.0 -0.9762571412 0.2144065858
800295200.0 -0.9730139905 0.228696111
850294900.0 -0.9696677611 0.2425296923
900294600.0 -0.965793568 0.2561829867
950294300.0 -0.9621512481 0.2699807332
1000294000.0 -0.9581278162 0.2838889719
1050293700.0 -0.9533935051 0.2978228232
1100293400.0 -0.9490487729 0.3121397167
1150293100.0 -0.9454224454 0.324009855
1200292800.0 -0.9401538471 0.3384487276
1250292500.0 -0.9347697509 0.3518431002
1300292200.0 -0.9289412618 0.3650407324
1350291900.0 -0.9234196588 0.3791015192
1400291600.0 -0.9178866332 0.3921775457
1450291300.0 -0.9124386148 0.4045102412
1500291000.0 -0.9061847546 0.4179457139
1550290700.0 -0.8996279825 0.4311386125
1600290400.0 -0.8935181831 0.4441467174
1650290100.0 -0.886627649 0.4562501814
1700289800.0 -0.8797705755 0.4696369018
1750289500.0 -0.8729687593 0.4821188312
1800289200.0 -0.8655242236 0.4949857276
1850288900.0 -0.858674856 0.5062078198
1900288600.0 -0.8509832036 0.5192468073
1950288300.0 -0.8430409089 0.5318923648
2000288000.0 -0.8353507324 0.5433029292
2050287700.0 -0.8271529964 0.5555649521
2100287400.0 -0.8191876497 0.5673072107
2150287100.0 -0.8105935124 0.5791397014
2200286800.0 -0.8026986778 0.589723138
2250286500.0 -0.7941095075 0.6017692537
2300286200.0 -0.7850274916 0.6133540028
2350285900.0 -0.7763688476 0.624337664
2400285600.0 -0.7675364513 0.6352921122
2450285300.0 -0.7587863438 0.6455379289
2500285000.0 -0.7490793033 0.6568581989
2550284700.0 -0.7402570295 0.6672780929
2600284400.0 -0.730793969 0.6774601802
2650284100.0 -0.7219683945 0.6880328734
2700283800.0 -0.7114042224 0.6984551788
2750283500.0 -0.7008165068 0.7088481888
2800283200.0 -0.6909767159 0.7186743721
2850282900.0 -0.6811149719 0.7286637301
2900282600.0 -0.6704496259 0.7381134125
2950282300.0 -0.6604658843 0.7472784166
3000282000.0 -0.6495179571 0.756822892
3050281700.0 -0.6385735976 0.7663016129
3100281400.0 -0.6265997898 0.7756598563
3150281100.0 -0.6146639393 0.7848780289
3200280800.0 -0.6030406691 0.7932691383
3250280500.0 -0.5923057327 0.8012268465
3300280200.0 -0.5810341818 0.8087949125
3350279900.0 -0.5694895422 0.8165453307
3400279600.0 -0.5572112468 0.8241968269
3450279300.0 -0.5463666053 0.8313896731
3500279000.0 -0.5341873201 0.8382408031
3550278700.0 -0.5218289256 0.8458386809
3600278400.0 -0.5094045618 0.8528814736
3650278100.0 -0.4961817208 0.8605907808
3700277800.0 -0.4843102164 0.8670437466
3750277500.0 -0.472049418 0.873612156
3800277200.0 -0.4594587944 0.8800510292
3850276900.0 -0.4475129387 0.8859243616
3900276600.0 -0.4368007578 0.8914517928
3950276300.0 -0.4242526279 0.8975174598
4000276000.0 -0.4121845378 0.9035439199
4050275700.0 -0.3993847334 0.9096030937
4100275400.0 -0.3882132678 0.9151874433
4150275100.0 -0.3755502233 0.9209868974
4200274800.0 -0.362526461 0.9262944329
4250274500.0 -0.3499576289 0.9314766911
4300274200.0 -0.3372399442 0.9366653237
4350273900.0 -0.3233739777 0.9417887386
4400273600.0 -0.3084900973 0.947210414
4450273300.0 -0.2932624861 0.9525666732
4500273000.0 -0.2796546431 0.9566350548
4550272700.0 -0.2653732478 0.9610571544
4600272400.0 -0.2499998956 0.9652456035
4650272100.0 -0.2382420476 0.9683877048
4700271800.0 -0.2249986793 0.9716364438
4750271500.0 -0.2131924411 0.9746045195
4800271200.0 -0.2006442483 0.9773256514
4850270900.0 -0.1868372806 0.9801108539
4900270600.0 -0.1730236773 0.9825885251
4950270300.0 -0.1586504499 0.9849337961
5000270000.0 -0.1444758092 0.9872329064
5050269700.0 -0.1309938091 0.9885227563
5100269400.0 -0.1173723752 0.9907497986
5150269100.0 -0.1038505793 0.9919853403
5200268800.0 -0.0907706659 0.9932606429
5250268500.0 -0.077744289 0.9939846803
5300268200.0 -0.0647010758 0.9947970871
5350267900.0 -0.0522398646 0.9951287783
5400267600.0 -0.0362368404 0.996227177
5450267300.0 -0.0229687925 0.996632215
5500267000.0 -0.0078411607 0.9970308181
5550266700.0 0.0071534985 0.9972357789
5600266400.0 0.0225231396 0.9972920918
5650266100.0 0.0390201192 0.9968573891
5700265800.0 0.0535693245 0.9962075624
5750265500.0 0.0688019887 0.9956511454
5800265200.0 0.0829746919 0.9945548683
5850264900.0 0.0962257664 0.993757135
5900264600.0 0.1127610087 0.9916285813
5950264300.0 0.1245414943 0.9897663264
6000264000.0 0.138694404 0.9880634461
6050263700.0 0.1514338058 0.9868282919
6100263400.0 0.1637324939 0.9847428089
6150263100.0 0.1780764451 0.9825883566
6200262800.0 0.188728589 0.9811094043
6250262500.0 0.2012286266 0.9784204703
6300262200.0 0.2140051079 0.9755601616
6350261900.0 0.2272032422 0.972765894
6400261600.0 0.240913344 0.9693796773
6450261300.0 0.2522217895 0.9666349548
6500261000.0 0.2650472778 0.9632299289
6550260700.0 0.2782220284 0.9591878366
6600260400.0 0.2915143588 0.9551486917
6650260100.0 0.3052844292 0.9507829908
6700259800.0 0.3172449865 0.9464643207
6750259500.0 0.3311993831 0.9416733591
6800259200.0 0.3442825622 0.936579104
6850258900.0 0.356526485 0.9315762773
6900258600.0 0.3684345699 0.9264107387
6950258300.0 0.3810151663 0.9212545491
7000258000.0 0.3929783098 0.9158263938
7050257700.0 0.4050494948 0.9096617397
7100257400.0 0.4179601962 0.9035043409
7150257100.0 0.4280529405 0.8981952114
7200256800.0 0.4411711004 0.8916278487
7250256500.0 0.4529131649 0.8856361943
7300256200.0 0.4661113026 0.8788216107
7350255900.0 0.4781196294 0.8715446198
7400255600.0 0.491556877 0.8643452106
7450255300.0 0.5072077075 0.8555904639
7500255000.0 0.5186991353 0.8485639818
7550254700.0 0.5323209089 0.8399569407
7600254400.0 0.5449757842 0.83169019
7650254100.0 0.556512929 0.8240689836
7700253800.0 0.5685512045 0.8158628437
7750253500.0 0.5797448847 0.8081518387
7800253200.0 0.5904369696 0.8004684035
7850252900.0 0.6003313584 0.7934204276
7900252600.0 0.6118410512 0.7845903255
7950252300.0 0.6205823723 0.7781018533
8000252000.0 0.6308799205 0.770360001
8050251700.0 0.6414644594 0.7623019329
8100251400.0 0.6511727492 0.7541561744
8150251100.0 0.6615424132 0.7454085529
8200250800.0 0.6709276018 0.7374993144
8250250500.0 0.6797831911 0.7295504876
8300250200.0 0.6888514617 0.7208489907
8350249900.0 0.698054351 0.7123413708
8400249600.0 0.7064316127 0.7041505425
8450249300.0 0.7154503492 0.6948489354
8500249000.0 0.7242911572 0.6862655856
8550248700.0 0.7325127903 0.6771287097
8600248400.0 0.740798137 0.667565299
8650248100.0 0.748725652 0.6580532169
8700247800.0 0.7582863939 0.6468400717
8750247500.0 0.7665375787 0.6368414681
8800247200.0 0.7746537633 0.6265200319
8850246900.0 0.78335843 0.6147667945
8900246600.0 0.7920213775 0.6039079093
8950246300.0 0.8017515072 0.5905006728
9000246000.0 0.8109134668 0.5777168229
9050245700.0 0.819956785 0.5647621294
9100245400.0 0.8285103975 0.5523478942
9150245100.0 0.8377880357 0.5386201645
9200244800.0 0.8475354109 0.5236551381
9250244500.0 0.8569810339 0.507726725
9300244200.0 0.8655061709 0.4932815812
9350243900.0 0.8732357743 0.4795926835
9400243600.0 0.8800438805 0.4670497928
9450243300.0 0.8858324697 0.4554662653
9500243000.0 0.8921123852 0.4433900423
9550242700.0 0.8958013914 0.4355759666
9600242400.0 0.8999318727 0.4282776475
9650242100.0 0.903462238 0.42200391
9700241800.0 0.9080404119 0.4137145884
9750241500.0 0.9121242814 0.4061179019
9800241200.0 0.9166999122 0.3967276986
9850240900.0 0.9222622137 0.3853804844
9900240600.0 0.9279517879 0.3735117346
9950240300.0 0.934690448 0.3576165069
10000240000.0 0.9389453926 0.3461601983
10050239700.0 0.9446694096 0.3309094799
10100239400.0 0.9498417579 0.3154303063
10150239100.0 0.9539770662 0.3005658996
10200238800.0 0.9584511775 0.2854670798
10250238500.0 0.9615626717 0.2721538906
10300238200.0 0.9647807421 0.2583590706
10350237900.0 0.9673277099 0.2452901979
10400237600.0 0.9700456463 0.2320150042
10450237300.0 0.9727654842 0.2181380019
10500237000.0 0.9746615197 0.2064821004
10550236700.0 0.9771508558 0.1922602756
10600236400.0 0.979243786 0.1784847765
10650236100.0 0.9814986204 0.1636567387
10700235800.0 0.9835179176 0.1515032744
10750235500.0 0.9857354217 0.1384320741
10800235200.0 0.9880553172 0.1239975747
10850234900.0 0.9897049104 0.1095037242
10900234600.0 0.9917487979 0.0947725723
10950234300.0 0.9934222401 0.0816480507
11000234000.0 0.9953322825 0.0664430754
11050233700.0 0.996992971 0.0500378194
11100233400.0 0.9984571041 0.0325876702
11150233100.0 0.9995286572 0.0166072997
11200232800.0 1.000561263 0.0009683704
11250232500.0 1.001362904 -0.0156375068
11300232200.0 1.001783987 -0.0336398571
11350231900.0 1.001878916 -0.0489249672
11400231600.0 1.001678609 -0.0639435326
11450231300.0 1.001138693 -0.0801374493
11500231000.0 0.9996593008 -0.096177075
11550230700.0 0.9985517682 -0.1092545599
11600230400.0 0.9973210017 -0.1224111012
11650230100.0 0.9951711858 -0.1333680654
11700229800.0 0.9927795318 -0.1480559674
11750229500.0 0.9907196692 -0.1627008287
11800229200.0 0.9878561183 -0.1764696251
11850228900.0 0.9846873161 -0.1885824952
11900228600.0 0.9811220052 -0.1983654127
11950228300.0 0.9778091685 -0.2089338777
12000228000.0 0.9750507736 -0.2182462351
12050227700.0 0.9712891459 -0.2309861668
12100227400.0 0.968033424 -0.2420248517
12150227100.0 0.9631622798 -0.2586839556
12200226800.0 0.9597570556 -0.2694142037
12250226500.0 0.9558744175 -0.2822115286
12300226200.0 0.9514479416 -0.2944027236
12350225900.0 0.9455643013 -0.3087167761
12400225600.0 0.9423754508 -0.3211525059
12450225300.0 0.9376547019 -0.3332773763
12500225000.0 0.9319562127 -0.3487653004
12550224700.0 0.9269292718 -0.3624414093
12600224400.0 0.9219124592 -0.3753169076
12650224100.0 0.916131742 -0.3898022143
12700223800.0 0.9109061691 -0.4025253386
12750223500.0 0.9051440181 -0.4156795011
12800223200.0 0.9001282765 -0.4280987351
12850222900.0 0.894884001 -0.4405351667
12900222600.0 0.8889420286 -0.4528463943
12950222300.0 0.8826023689 -0.4650398679
13000222000.0 0.8767616469 -0.4763223278
13050221700.0 0.8703113678 -0.4894242243
13100221400.0 0.8635178363 -0.5011123595
13150221100.0 0.8562450645 -0.5138100168
13200220800.0 0.8496531771 -0.5251101511
13250220500.0 0.8425472868 -0.5371627416
13300220200.0 0.8348166589 -0.5478115178
13350219900.0 0.8270188339 -0.559702326
13400219600.0 0.8185574905 -0.5719660477
13450219300.0 0.8092181781 -0.5856301927
13500219000.0 0.7988848481 -0.5997985712
13550218700.0 0.7889980163 -0.6118981938
13600218400.0 0.778271673 -0.6242293102
13650218100.0 0.7692697407 -0.6352120372
13700217800.0 0.7578219069 -0.6475778347
13750217500.0 0.7481717381 -0.6595044286
13800217200.0 0.7367829147 -0.6705218819
13850216900.0 0.7251562489 -0.6824801826
13900216600.0 0.7161305496 -0.6917676475
13950216300.0 0.7050125754 -0.7015438649
14000216000.0 0.6950473358 -0.7106183903
14050215700.0 0.6852619867 -0.7190844456
14100215400.0 0.6753607497 -0.7282044776
14150215100.0 0.666259051 -0.7366775501
14200214800.0 0.6569357106 -0.745411746
14250214500.0 0.6467159382 -0.7546739485
14300214200.0 0.636247745 -0.7641031606
14350213900.0 0.6249047123 -0.7738546918
14400213600.0 0.6133224907 -0.7834192578
14450213300.0 0.600201877 -0.7937748746
14500213000.0 0.5869030853 -0.8037077678
14550212700.0 0.5746608621 -0.8131465631
14600212400.0 0.5624841693 -0.821880382
14650212100.0 0.549606274 -0.8305780536
14700211800.0 0.5354618227 -0.8399845447
14750211500.0 0.5233774967 -0.8482625699
14800211200.0 0.5112511601 -0.8564786304
14850210900.0 0.4989279854 -0.8636942554
14900210600.0 0.4854836227 -0.871627195
14950210300.0 0.4722108438 -0.8791994153
15000210000.0 0.459320241 -0.8860455255
15050209700.0 0.4472253111 -0.8922683821
15100209400.0 0.4345004527 -0.898050436
15150209100.0 0.4220753575 -0.9032377685
15200208800.0 0.4091748178 -0.9087043778
15250208500.0 0.3985944939 -0.9138004672
15300208200.0 0.3854283723 -0.9180026864
15350207900.0 0.3725182787 -0.922399914
15400207600.0 0.3579663213 -0.9278316017
15450207300.0 0.343365111 -0.9325865027
15500207000.0 0.329124317 -0.9379218543
15550206700.0 0.3139762225 -0.9430728865
15600206400.0 0.2980078663 -0.9474418256
15650206100.0 0.2821373157 -0.9518677045
15700205800.0 0.2687537699 -0.9550119481
15750205500.0 0.2538146199 -0.958762476
15800205200.0 0.239378025 -0.9620839119
15850204900.0 0.224838075 -0.9656687777
15900204600.0 0.209942659 -0.9693576551
15950204300.0 0.1956744408 -0.9724208598
16000204000.0 0.1812932874 -0.9751037005
16050203700.0 0.1665780628 -0.9781530287
16100203400.0 0.1522898739 -0.9798687542
16150203100.0 0.1376310009 -0.9830429158
16200202800.0 0.1235053884 -0.9847054822
16250202500.0 0.1091512889 -0.9865733
16300202200.0 0.0931250809 -0.987892348
16350201900.0 0.078815812 -0.9895061965
16400201600.0 0.0640336608 -0.9903028233
16450201300.0 0.0486933049 -0.9914033795
16500201000.0 0.0321599348 -0.992258211
16550200700.0 0.0164205125 -0.9927189892
16600200400.0 0.0008137089 -0.9926700005
16650200100.0 -0.0152912014 -0.9929824496
16700199800.0 -0.0317658535 -0.9922397935
16750199500.0 -0.0502065902 -0.9913954409
16800199200.0 -0.0660033325 -0.9905883071
16850198900.0 -0.0814840987 -0.9899998494
16900198600.0 -0.0953231522 -0.9884454235
16950198300.0 -0.1084210707 -0.9877079814
17000198000.0 -0.1222991395 -0.9858591114
17050197700.0 -0.1338460958 -0.9840812496
17100197400.0 -0.1470344264 -0.9820061099
17150197100.0 -0.1598923014 -0.9801549113
17200196800.0 -0.1723024238 -0.9778876197
17250196500.0 -0.1855884295 -0.9758280963
17300196200.0 -0.1973348603 -0.9734882542
17350195900.0 -0.2093231801 -0.971085222
17400195600.0 -0.2214562946 -0.9686867494
17450195300.0 -0.2345716117 -0.9658086908
17500195000.0 -0.2479280313 -0.9624029677
17550194700.0 -0.262182379 -0.9587294493
17600194400.0 -0.275892195 -0.9548432784
17650194100.0 -0.2893759496 -0.9509610581
17700193800.0 -0.3026065756 -0.9466836232
17750193500.0 -0.317136872 -0.9422401711
17800193200.0 -0.3314811109 -0.9372633599
17850192900.0 -0.3467539508 -0.9316034712
17900192600.0 -0.3615580033 -0.9253509624
17950192300.0 -0.3774985905 -0.9181892921
18000192000.0 -0.3919781413 -0.9109095912
18050191700.0 -0.4059675563 -0.9030635446
18100191400.0 -0.4200984704 -0.8954163984
18150191100.0 -0.4350358598 -0.8874072783
18200190800.0 -0.452156752 -0.878108576
18250190500.0 -0.4689028196 -0.8685472793
18300190200.0 -0.4844121614 -0.8601380861
18350189900.0 -0.4995239327 -0.8515551558
18400189600.0 -0.514066967 -0.8433723818
18450189300.0 -0.5270193414 -0.8353631739
18500189000.0 -0.540302953 -0.8269756106
18550188700.0 -0.5530704339 -0.819736239
18600188400.0 -0.5649496296 -0.8134467436
18650188100.0 -0.5759933733 -0.8067639864
18700187800.0 -0.5865654375 -0.8000141392
18750187500.0 -0.5971983237 -0.7935071448
18800187200.0 -0.6078322469 -0.7866540651
18850186900.0 -0.6179568063 -0.7796551884
18900186600.0 -0.6282144541 -0.7724340987
18950186300.0 -0.6379163724 -0.7647123137
19000186000.0 -0.6452497149 -0.7587243098
19050185700.0 -0.6545466466 -0.751280304
19100185400.0 -0.6647377043 -0.7428126272
19150185100.0 -0.6745038016 -0.7349619851
19200184800.0 -0.6843810423 -0.7264056731
19250184500.0 -0.6940711058 -0.7166964141
19300184200.0 -0.7059934208 -0.7070114467
19350183900.0 -0.716709475 -0.6978094328
19400183600.0 -0.7267075212 -0.687685578
19450183300.0 -0.7354548553 -0.6778824753
19500183000.0 -0.7433589759 -0.6682798224
19550182700.0 -0.7532860598 -0.6569039516
19600182400.0 -0.7634006762 -0.64511344
19650182100.0 -0.7747309605 -0.6327457328
19700181800.0 -0.7850375535 -0.6195010191
19750181500.0 -0.7957663034 -0.605381687
19800181200.0 -0.8062642323 -0.590404153
19850180900.0 -0.8159961461 -0.5749016415
19900180600.0 -0.8237825024 -0.5604429566
19950180300.0 -0.8329909188 -0.5440479829
20000180000.0 -0.8255240658 -0.5465392229
20050179700.0 -0.8342256723 -0.5327045989
20100179400.0 -0.8428124037 -0.5190057651
20150179100.0 -0.8515486895 -0.5067654722
20200178800.0 -0.8593941355 -0.4938067706
20250178500.0 -0.8687810827 -0.480599183
20300178200.0 -0.8785766019 -0.4656621417
20350177900.0 -0.8883236686 -0.4519293324
20400177600.0 -0.8970701044 -0.4369331751
20450177300.0 -0.9048299498 -0.4225563681
20500177000.0 -0.9131364384 -0.4089088428
20550176700.0 -0.9209027219 -0.3953021223
20600176400.0 -0.9279704978 -0.3820298412
20650176100.0 -0.9348469674 -0.369843714
20700175800.0 -0.9411411143 -0.3583079918
20750175500.0 -0.9488079071 -0.345961628
20800175200.0 -0.9535348164 -0.3354904303
20850174900.0 -0.9577486512 -0.3237624863
20900174600.0 -0.962356573 -0.3129016254
20950174300.0 -0.9661930615 -0.3013801866
21000174000.0 -0.9696581669 -0.2900480886
21050173700.0 -0.9720528319 -0.2791346976
21100173400.0 -0.9769466815 -0.2670462194
21150173100.0 -0.9802903167 -0.2545819553
21200172800.0 -0.9842321623 -0.2410481411
21250172500.0 -0.987115893 -0.2278221363
21300172200.0 -0.9900162488 -0.2132366005
21350171900.0 -0.9913145407 -0.1992415233
21400171600.0 -0.9926442018 -0.1844348795
21450171300.0 -0.9932900149 -0.1700119579
21500171000.0 -0.9917900829 -0.1550823923
21550170700.0 -0.9926266818 -0.1402986992
21600170400.0 -0.9930765456 -0.1234360196
21650170100.0 -0.9914784149 -0.1088432202
21700169800.0 -0.9895089154 -0.0921024863
21750169500.0 -0.9893476262 -0.0768464821
21800169200.0 -0.9884241198 -0.0605647044
21850168900.0 -0.9870124345 -0.0429256435
21900168600.0 -0.9850739731 -0.0272263706
21950168300.0 -0.9840343589 -0.0115462604
22000168000.0 -0.9836462571 0.0035975773
22050167700.0 -0.9832827452 0.0177112506
22100167400.0 -0.9831890068 0.0329163041
22150167100.0 -0.9841769419 0.0488567602
22200166800.0 -0.9843282135 0.0649068781
22250166500.0 -0.983675742 0.0823146357
22300166200.0 -0.9831023962 0.0988669903
22350165900.0 -0.9811707531 0.1156106748
22400165600.0 -0.979639478 0.1306846065
22450165300.0 -0.977361031 0.1463123728
22500165000.0 -0.9767755941 0.1604780479
22550164700.0 -0.9743436094 0.1750363538
22600164400.0 -0.9736961329 0.1906702228
22650164100.0 -0.9704143948 0.2051125464
22700163800.0 -0.9682437928 0.2215533318
22750163500.0 -0.9659917574 0.2361809972
22800163200.0 -0.9636018747 0.2489942285
22850162900.0 -0.9612333966 0.2623927824
22900162600.0 -0.9597967214 0.2758558957
22950162300.0 -0.9585554851 0.2884910952
23000162000.0 -0.9572214726 0.3008157375
23050161700.0 -0.9551560861 0.3131628535
23100161400.0 -0.9527925173 0.3254973817
23150161100.0 -0.9499696598 0.3384481288
23200160800.0 -0.9471125294 0.3507792013
23250160500.0 -0.9443730527 0.3617444708
23300160200.0 -0.9424441757 0.3741326518
23350159900.0 -0.9388623083 0.3870806679
23400159600.0 -0.9335543339 0.4007796287
23450159300.0 -0.9284357267 0.4140281805
23500159000.0 -0.9244126244 0.4265012033
23550158700.0 -0.919802939 0.4403961361
23600158400.0 -0.9146002061 0.4534464535
23650158100.0 -0.9079299069 0.4674032244
23700157800.0 -0.9004269135 0.4814068971
23750157500.0 -0.8921184164 0.4955338526
23800157200.0 -0.8828181787 0.5088477965
23850156900.0 -0.8746305471 0.5213191161
23900156600.0 -0.8645882448 0.5335464485
23950156300.0 -0.8555507487 0.5463811892
24000156000.0 -0.8467321692 0.5581018349
24050155700.0 -0.8368805604 0.5701917766
24100155400.0 -0.8269327922 0.5823482648
24150155100.0 -0.8165499537 0.5937337444
24200154800.0 -0.8053095365 0.6051816194
24250154500.0 -0.7941768191 0.6167875544
24300154200.0 -0.7827950529 0.6282812774
24350153900.0 -0.7704652848 0.6391334948
24400153600.0 -0.7587772646 0.6491171546
24450153300.0 -0.7468589649 0.6589025482
24500153000.0 -0.7352385844 0.6683943466
24550152700.0 -0.7241386982 0.6784519159
24600152400.0 -0.7120625777 0.6872501845
24650152100.0 -0.7001750013 0.6959048854
