!Created with skrf (http://scikit-rf.org).
# Hz S RI R 50.0 
!freq ReS11 ImS11
300000.0 -0.9828779114 -0.0953553898
50299700.0 -1.000001981 0.0164726964
100299400.0 -0.9979606482 0.0293499368
150299100.0 -1.00289561 0.0461026417
200298800.0 -0.9996770102 0.0595151684
250298500.0 -0.9974410117 0.0730701997
300298200.0 -0.9859780272 0.0887554641
350297900.0 -0.9939731165 0.0995931056
400297600.0 -0.9930219154 0.1162923368
450297300.0 -0.9910616117 0.1300543687
500297000.0 -0.9894136212 0.1448232041
550296700.0 -0.9841459986 0.1572424309
600296400.0 -1.017061178 0.1905874399
650296100.0 -0.9820377877 0.1873508163
700295800.0 -0.9791672039 0.2018481507
750295500.0 -0.9759127762 0.2154431703
800295200.0 -0.9727135135 0.2295622362
850294900.0 -0.9694280396 0.2434935712
900294600.0 -0.9653405743 0.2573206968
950294300.0 -0.9617913303 0.2711016675
1000294000.0 -0.9576702948 0.2849145838
1050293700.0 -0.9531751004 0.2987272771
1100293400.0 -0.9490011268 0.3131810512
1150293100.0 -0.9450682212 0.3249731964
1200292800.0 -0.9396806931 0.3394246041
1250292500.0 -0.9341647509 0.3527490644
1300292200.0 -0.9284190407 0.365987489
1350291900.0 -0.9230433941 0.3798979028
1400291600.0 -0.917374187 0.3929678753
1450291300.0 -0.9119189895 0.4053371392
1500291000.0 -0.9057925169 0.4187708811
1550290700.0 -0.8991344258 0.4320454616
1600290400.0 -0.8931247609 0.4447721558
1650290100.0 -0.8863280274 0.4570307255
1700289800.0 -0.879625404 0.4703423035
1750289500.0 -0.8725273088 0.4826633142
1800289200.0 -0.8651989586 0.4955844461
1850288900.0 -0.8582799613 0.5067057329
1900288600.0 -0.8505805392 0.5200041109
1950288300.0 -0.8424643239 0.5325230911
2000288000.0 -0.8348927747 0.544158303
2050287700.0 -0.8267079042 0.556281025
2100287400.0 -0.8186953655 0.5678932856
2150287100.0 -0.8100643716 0.5801087474
2200286800.0 -0.8023275509 0.5903310513
2250286500.0 -0.7933511145 0.6025019124
2300286200.0 -0.7844771967 0.614177684
2350285900.0 -0.775903746 0.6251497403
2400285600.0 -0.7664669701 0.6359705962
2450285300.0 -0.7579929214 0.6463825148
2500285000.0 -0.7484014833 0.6578829829
2550284700.0 -0.7391788482 0.6682160168
2600284400.0 -0.7298111158 0.6781452687
2650284100.0 -0.7207954836 0.6887413878
2700283800.0 -0.7100672404 0.6993617675
2750283500.0 -0.6998847123 0.7099674482
2800283200.0 -0.6901151786 0.7197513372
2850282900.0 -0.6799158103 0.7292593209
2900282600.0 -0.6693233601 0.7388488767
2950282300.0 -0.6593023764 0.7482674559
3000282000.0 -0.6486121744 0.7576303953
3050281700.0 -0.6373535057 0.7666988467
3100281400.0 -0.6257640301 0.7762650978
3150281100.0 -0.613904755 0.7853568725
3200280800.0 -0.6024085191 0.7939293849
3250280500.0 -0.5914715689 0.8016386996
3300280200.0 -0.5804245358 0.8093432365
3350279900.0 -0.5690056912 0.8171206692
3400279600.0 -0.5570375722 0.8247105023
3450279300.0 -0.5457309991 0.8317037688
3500279000.0 -0.5337819578 0.8391000745
3550278700.0 -0.521299562 0.8462345861
3600278400.0 -0.5091399382 0.8536578675
3650278100.0 -0.4958659033 0.8610496658
3700277800.0 -0.4838549737 0.8676290528
3750277500.0 -0.4713771214 0.8738188882
3800277200.0 -0.4590206821 0.880644306
3850276900.0 -0.4466205819 0.8866584617
3900276600.0 -0.4356868805 0.8921786866
3950276300.0 -0.4230461365 0.8982804662
4000276000.0 -0.4112030677 0.9041617546
4050275700.0 -0.3981872674 0.9104431807
4100275400.0 -0.3868209091 0.9154936844
4150275100.0 -0.3740414989 0.9214567879
4200274800.0 -0.3606837232 0.926773859
4250274500.0 -0.3489197931 0.932104488
4300274200.0 -0.3355898632 0.9371852705
4350273900.0 -0.321938005 0.9424416511
4400273600.0 -0.307042792 0.9475711268
4450273300.0 -0.2917470169 0.9524110276
4500273000.0 -0.2782238533 0.9569952844
4550272700.0 -0.2638954957 0.9612079074
4600272400.0 -0.2484575272 0.9653467631
4650272100.0 -0.2368484794 0.968524885
4700271800.0 -0.2234553898 0.9718941867
4750271500.0 -0.2116596753 0.9747552413
4800271200.0 -0.199114693 0.9775591595
4850270900.0 -0.1853107143 0.9802747762
4900270600.0 -0.1716169775 0.9827084183
4950270300.0 -0.1574211643 0.9853634968
5000270000.0 -0.1432251644 0.9874014064
5050269700.0 -0.1298816573 0.9887959409
5100269400.0 -0.1162107502 0.9905383955
5150269100.0 -0.10288166 0.9920828063
5200268800.0 -0.0898283683 0.993069217
5250268500.0 -0.0768872967 0.9939962251
5300268200.0 -0.0636874164 0.9946679107
5350267900.0 -0.0513360065 0.9956855304
5400267600.0 -0.035458122 0.9964297723
5450267300.0 -0.0222890377 0.9969153777
5500267000.0 -0.0071849144 0.9969485784
5550266700.0 0.007792557 0.9973837048
5600266400.0 0.023347768 0.9971340808
5650266100.0 0.0395627236 0.9969700627
5700265800.0 0.0542228645 0.9963363639
5750265500.0 0.0694725014 0.9951830782
5800265200.0 0.0834405408 0.9942690927
5850264900.0 0.0966762038 0.9933871934
5900264600.0 0.1133239925 0.9912977124
5950264300.0 0.1255303721 0.9895741715
6000264000.0 0.139815641 0.9879199655
6050263700.0 0.1522833686 0.9863223934
6100263400.0 0.1646111736 0.9844583612
6150263100.0 0.1793767407 0.9820578565
6200262800.0 0.1898391238 0.9802625107
6250262500.0 0.2026179351 0.9777355982
6300262200.0 0.2156455675 0.9749189607
6350261900.0 0.2286451038 0.972053088
6400261600.0 0.2425298563 0.9686380787
6450261300.0 0.2539378097 0.9659816534
6500261000.0 0.2665072501 0.9621804469
6550260700.0 0.2796376664 0.9583991091
6600260400.0 0.2927881292 0.954148972
6650260100.0 0.3068700249 0.9500113055
6700259800.0 0.3188637064 0.9459003347
6750259500.0 0.3327741845 0.9410324102
6800259200.0 0.3451782145 0.9356681782
6850258900.0 0.3577617961 0.9309359966
6900258600.0 0.3698510942 0.9261357364
6950258300.0 0.3823573228 0.9205238648
7000258000.0 0.39422396 0.9151999452
7050257700.0 0.4065333305 0.9093016369
7100257400.0 0.4192252255 0.9031325826
7150257100.0 0.429472529 0.8977908916
7200256800.0 0.4421973596 0.8914735582
7250256500.0 0.4541801174 0.8852209711
7300256200.0 0.4668868508 0.878268425
7350255900.0 0.4795699333 0.8715804999
7400255600.0 0.4924663244 0.8643980374
7450255300.0 0.5077197162 0.8555411783
7500255000.0 0.5191597687 0.8482064202
7550254700.0 0.5330144038 0.8398464194
7600254400.0 0.5454794963 0.8315699922
7650254100.0 0.5569852812 0.8237730942
7700253800.0 0.5691174783 0.8157574794
7750253500.0 0.5801551604 0.8077821624
7800253200.0 0.5909854067 0.7999990325
7850252900.0 0.6007379318 0.7928985689
7900252600.0 0.6126141239 0.7839709092
7950252300.0 0.6215296837 0.7773861266
8000252000.0 0.6317260558 0.769381414
8050251700.0 0.6421928481 0.7610281563
8100251400.0 0.6525716717 0.7528579884
8150251100.0 0.6623431341 0.7440503201
8200250800.0 0.6717652818 0.736013651
8250250500.0 0.6808085707 0.7278719664
8300250200.0 0.6904682941 0.7191376581
8350249900.0 0.6994972503 0.710633617
8400249600.0 0.7076290759 0.7025683607
8450249300.0 0.7169164013 0.6930969457
8500249000.0 0.7254606382 0.6845248318
8550248700.0 0.7339729022 0.6752386967
8600248400.0 0.7423352866 0.6659286574
8650248100.0 0.7500767985 0.6564886596
8700247800.0 0.7594993403 0.6452706554
8750247500.0 0.7674759966 0.635371345
8800247200.0 0.7755469009 0.6251763377
8850246900.0 0.7844365733 0.6137821626
8900246600.0 0.7927718929 0.6028663811
8950246300.0 0.8022124396 0.5898718158
9000246000.0 0.8115108488 0.5773937722
9050245700.0 0.8207237188 0.5643509317
9100245400.0 0.8291288773 0.5519268412
9150245100.0 0.838196507 0.53857035
9200244800.0 0.8479445279 0.5234265781
9250244500.0 0.8570474419 0.5080708704
9300244200.0 0.8656430911 0.4934828696
9350243900.0 0.8733440207 0.4796815453
9400243600.0 0.8800594991 0.4670070011
9450243300.0 0.8860565968 0.4549613602
9500243000.0 0.8923544692 0.4426534157
9550242700.0 0.8962533132 0.4344015712
9600242400.0 0.9001685609 0.426563142
9650242100.0 0.9040048466 0.4198113207
9700241800.0 0.9085274943 0.4116542685
9750241500.0 0.9123903416 0.4035334191
9800241200.0 0.9173202321 0.3943161334
9850240900.0 0.9227152303 0.3826891933
9900240600.0 0.9283595522 0.3710696475
9950240300.0 0.934820519 0.3550803128
10000240000.0 0.9392761143 0.3436619956
10050239700.0 0.9452242734 0.3282377615
10100239400.0 0.9500279088 0.312887213
10150239100.0 0.9542301434 0.2983120942
10200238800.0 0.958617529 0.2834147286
10250238500.0 0.9618929352 0.2701441817
10300238200.0 0.9649521264 0.2560515569
10350237900.0 0.9676583709 0.2431487335
10400237600.0 0.9703450075 0.2300120337
10450237300.0 0.9730943666 0.216350327
10500237000.0 0.975213887 0.2048665386
10550236700.0 0.9777182222 0.1904698402
10600236400.0 0.9793821536 0.1771330282
10650236100.0 0.9818037832 0.1620508608
10700235800.0 0.9837572211 0.1505750331
10750235500.0 0.9858439675 0.1374188854
10800235200.0 0.9876573092 0.1239245797
10850234900.0 0.9894188797 0.109041941
10900234600.0 0.9917644576 0.0943094935
10950234300.0 0.9935872067 0.0811544487
11000234000.0 0.9952160977 0.0662267771
11050233700.0 0.9969211473 0.0501233437
11100233400.0 0.9983691766 0.0324900449
11150233100.0 0.9992911853 0.016634002
11200232800.0 0.9997647802 0.0016521436
11250232500.0 1.000942929 -0.0151613752
11300232200.0 1.001253185 -0.0329576285
11350231900.0 1.001374929 -0.0491910886
11400231600.0 1.00074861 -0.0646242066
11450231300.0 1.000533364 -0.0796161314
11500231000.0 0.998834891 -0.096125403
11550230700.0 0.9976779217 -0.1093788026
11600230400.0 0.9963948034 -0.1228151401
11650230100.0 0.994157572 -0.1344764363
11700229800.0 0.9918578238 -0.1496503873
11750229500.0 0.989539507 -0.1642531621
11800229200.0 0.9869905987 -0.1778841744
11850228900.0 0.9832291308 -0.1909855642
11900228600.0 0.9801870119 -0.2005014953
11950228300.0 0.9766284442 -0.2117441425
12000228000.0 0.9741086059 -0.2206434638
12050227700.0 0.9708584012 -0.2325778554
12100227400.0 0.9669464031 -0.2446820583
12150227100.0 0.9626527562 -0.2609066532
12200226800.0 0.9588387116 -0.2716450635
12250226500.0 0.9555557103 -0.2838716296
12300226200.0 0.9512981828 -0.2967103968
12350225900.0 0.9459956028 -0.3103282927
12400225600.0 0.9414990762 -0.3227797504
12450225300.0 0.9374494171 -0.3352341066
12500225000.0 0.931841606 -0.3498227086
12550224700.0 0.9266043371 -0.3636454848
12600224400.0 0.9218297789 -0.3763779018
12650224100.0 0.9159384601 -0.3903528148
12700223800.0 0.9106536726 -0.4030834693
12750223500.0 0.9053728036 -0.4157579036
12800223200.0 0.8999721731 -0.4284442525
12850222900.0 0.8945639597 -0.4406060126
12900222600.0 0.8887728388 -0.4522290863
12950222300.0 0.8825452452 -0.4656989251
13000222000.0 0.8766626738 -0.4769471238
13050221700.0 0.8692805523 -0.4900000885
13100221400.0 0.862748593 -0.5020717095
13150221100.0 0.8557562034 -0.5140329934
13200220800.0 0.8484862337 -0.5256655798
13250220500.0 0.8412934447 -0.5383291398
13300220200.0 0.8337014724 -0.5493354094
13350219900.0 0.8253967925 -0.5615496847
13400219600.0 0.8170976643 -0.5737113731
13450219300.0 0.807346129 -0.5872077237
13500219000.0 0.7974102049 -0.6014894595
13550218700.0 0.7867191501 -0.6141072162
13600218400.0 0.7771212539 -0.6265907156
13650218100.0 0.7669680888 -0.6376435576
13700217800.0 0.7562779915 -0.6498478486
13750217500.0 0.7463623961 -0.6616222586
13800217200.0 0.7355593434 -0.67283927
13850216900.0 0.723971361 -0.6843380894
13900216600.0 0.7141540356 -0.6936253752
13950216300.0 0.702548513 -0.7034337793
14000216000.0 0.6941064304 -0.7126875169
14050215700.0 0.683995239 -0.7208333207
14100215400.0 0.6739260521 -0.7298787238
14150215100.0 0.6648191547 -0.7382513346
14200214800.0 0.6555505011 -0.7467895184
14250214500.0 0.6454048408 -0.755935531
14300214200.0 0.6352185735 -0.7650881245
14350213900.0 0.6243713396 -0.7743273207
14400213600.0 0.612536399 -0.7839263083
14450213300.0 0.5996563021 -0.7941485276
14500213000.0 0.586688931 -0.8039531641
14550212700.0 0.5745326825 -0.8128765554
14600212400.0 0.5616989968 -0.8219875143
14650212100.0 0.5485938462 -0.8306708535
14700211800.0 0.5348096064 -0.8402762968
14750211500.0 0.5228546276 -0.8480353601
14800211200.0 0.5104612903 -0.8561832045
14850210900.0 0.4981251095 -0.8636219727
14900210600.0 0.484902218 -0.8716799879
14950210300.0 0.47137351 -0.8793012673
15000210000.0 0.4583898201 -0.8861918183
15050209700.0 0.4458699534 -0.8923135475
15100209400.0 0.4330607725 -0.8985573096
15150209100.0 0.4208068903 -0.9034928464
15200208800.0 0.40742675 -0.9091896825
15250208500.0 0.3954813179 -0.9144816139
15300208200.0 0.3836377314 -0.9191269497
15350207900.0 0.3707230229 -0.9235980595
15400207600.0 0.3552960375 -0.9296131718
15450207300.0 0.3406706881 -0.9345384478
15500207000.0 0.3255702354 -0.9393354741
15550206700.0 0.3108121334 -0.943846165
15600206400.0 0.295302094 -0.9481934382
15650206100.0 0.2794218255 -0.9526142438
15700205800.0 0.2654933691 -0.9558567655
15750205500.0 0.2511657602 -0.9596669436
15800205200.0 0.2366602065 -0.9631548718
15850204900.0 0.2224425446 -0.9664747559
15900204600.0 0.2076414247 -0.9698782199
15950204300.0 0.1937221665 -0.9726098552
16000204000.0 0.1799577329 -0.9757071118
16050203700.0 0.1650172179 -0.9782216439
16100203400.0 0.1510564996 -0.9801090619
16150203100.0 0.1365012503 -0.9826139843
16200202800.0 0.1226840003 -0.9846433147
16250202500.0 0.1084188527 -0.9865571481
16300202200.0 0.0932685203 -0.9879817347
16350201900.0 0.0783468804 -0.9894324275
16400201600.0 0.0639629286 -0.9903095641
16450201300.0 0.0486757295 -0.9912610034
16500201000.0 0.0320515998 -0.9920908704
16550200700.0 0.0164395023 -0.9926991191
16600200400.0 0.0004787504 -0.9926962702
16650200100.0 -0.0158974626 -0.992606094
16700199800.0 -0.032072868 -0.9922305832
16750199500.0 -0.0508225665 -0.9917640019
16800199200.0 -0.0670772067 -0.9904734815
16850198900.0 -0.0827049454 -0.9898962247
16900198600.0 -0.0960982352 -0.9893240888
16950198300.0 -0.1105906693 -0.987410436
17000198000.0 -0.1230971026 -0.9853819855
17050197700.0 -0.1359810199 -0.9839511457
17100197400.0 -0.1493250925 -0.9820194424
17150197100.0 -0.1621153761 -0.9794352396
17200196800.0 -0.1750285247 -0.9774718184
17250196500.0 -0.1878231303 -0.9751361662
17300196200.0 -0.2000247354 -0.9727393399
17350195900.0 -0.2118728499 -0.9703642317
17400195600.0 -0.2242663954 -0.9677858047
17450195300.0 -0.2373039598 -0.9649680519
17500195000.0 -0.25084667 -0.9616823388
17550194700.0 -0.2646198171 -0.9580044092
17600194400.0 -0.2783100236 -0.9542625635
17650194100.0 -0.2918627473 -0.949887113
17700193800.0 -0.3044373225 -0.9458607594
17750193500.0 -0.3195423413 -0.9411449123
17800193200.0 -0.333503396 -0.9360059223
17850192900.0 -0.3480741323 -0.9307234173
17900192600.0 -0.36341185 -0.9246545522
17950192300.0 -0.3784692756 -0.9177855309
18000192000.0 -0.3932326614 -0.9104651638
18050191700.0 -0.4071320274 -0.9026827395
18100191400.0 -0.4212061515 -0.8951726638
18150191100.0 -0.4359987419 -0.8871879394
18200190800.0 -0.4526670595 -0.8779566851
18250190500.0 -0.4696263216 -0.8683959441
18300190200.0 -0.4845257523 -0.8598177018
18350189900.0 -0.4998989187 -0.8515891927
18400189600.0 -0.5141730438 -0.8432114028
18450189300.0 -0.5275049352 -0.835226462
18500189000.0 -0.5410156268 -0.8269379666
18550188700.0 -0.5535264972 -0.8193736779
18600188400.0 -0.5655413389 -0.8121616875
18650188100.0 -0.5767615636 -0.8054325987
18700187800.0 -0.5877648467 -0.7986929908
18750187500.0 -0.5988620618 -0.7919480792
18800187200.0 -0.6098711461 -0.7845616758
18850186900.0 -0.6200215854 -0.7771629011
18900186600.0 -0.630391014 -0.7697049869
18950186300.0 -0.6408091461 -0.761704301
19000186000.0 -0.6484980722 -0.7552129374
19050185700.0 -0.6580365227 -0.7473912984
19100185400.0 -0.6680699469 -0.7388460363
19150185100.0 -0.6780873006 -0.7309115287
19200184800.0 -0.6878488091 -0.722048392
19250184500.0 -0.6977922662 -0.7126505182
19300184200.0 -0.7092493121 -0.7031784142
19350183900.0 -0.7198005187 -0.6928589355
19400183600.0 -0.7303087122 -0.684080767
19450183300.0 -0.739190709 -0.6731175381
19500183000.0 -0.7470509399 -0.6636665429
19550182700.0 -0.7564088413 -0.6527125424
19600182400.0 -0.7667002636 -0.6411082126
19650182100.0 -0.7770765094 -0.6293544725
19700181800.0 -0.7874381332 -0.6161441761
19750181500.0 -0.7977694112 -0.6022730105
19800181200.0 -0.807781141 -0.5876678769
19850180900.0 -0.8171966289 -0.5727694971
19900180600.0 -0.8250618682 -0.558712204
19950180300.0 -0.8339895473 -0.5427225452
20000180000.0 -0.8285717463 -0.5434643529
20050179700.0 -0.8360778771 -0.531525249
20100179400.0 -0.8443249835 -0.5168463373
20150179100.0 -0.8522062731 -0.5049842464
20200178800.0 -0.860734046 -0.4927657658
20250178500.0 -0.8696998423 -0.4786763286
20300178200.0 -0.879201346 -0.4646649071
20350177900.0 -0.8880611757 -0.4499916681
20400177600.0 -0.8966001098 -0.4357417838
20450177300.0 -0.9048705169 -0.4211726182
20500177000.0 -0.9127485858 -0.4075196042
20550176700.0 -0.9204615216 -0.3937649222
20600176400.0 -0.9273384459 -0.3801859471
20650176100.0 -0.933915822 -0.3682421008
20700175800.0 -0.9405641389 -0.3558870146
20750175500.0 -0.9477756831 -0.3438104554
20800175200.0 -0.9519212425 -0.3322696456
20850174900.0 -0.9580241664 -0.3221634332
20900174600.0 -0.9614479541 -0.3092361749
20950174300.0 -0.9657807519 -0.2977272914
21000174000.0 -0.9699212601 -0.2856020982
21050173700.0 -0.9716886392 -0.2743792714
21100173400.0 -0.9766163508 -0.2627814462
21150173100.0 -0.9808869571 -0.2491965081
21200172800.0 -0.9842634117 -0.2355392192
21250172500.0 -0.9870710227 -0.2222969062
21300172200.0 -0.9902502746 -0.208141594
21350171900.0 -0.9921380973 -0.1936557318
21400171600.0 -0.993475134 -0.1794421505
21450171300.0 -0.9933430643 -0.1647483748
21500171000.0 -0.9931182725 -0.1490689374
21550170700.0 -0.9930117996 -0.1338475871
21600170400.0 -0.9929306555 -0.1185098301
21650170100.0 -0.9919429637 -0.1035103256
21700169800.0 -0.9910379134 -0.088326424
21750169500.0 -0.9905845466 -0.0717833844
21800169200.0 -0.9879355687 -0.0563268901
21850168900.0 -0.9873643924 -0.0406523027
21900168600.0 -0.9859995745 -0.02375625
21950168300.0 -0.9845947508 -0.0088354671
22000168000.0 -0.9833541487 0.0064700833
22050167700.0 -0.982970116 0.020772921
22100167400.0 -0.9827957897 0.0354181933
22150167100.0 -0.9833723604 0.0509980361
22200166800.0 -0.9832819914 0.0664932375
22250166500.0 -0.9825549744 0.083751537
22300166200.0 -0.9824528098 0.1002403565
22350165900.0 -0.9811172122 0.11624816
22400165600.0 -0.9783678048 0.1325494867
22450165300.0 -0.9765388211 0.1470915762
22500165000.0 -0.9743474418 0.1609322232
22550164700.0 -0.9745286715 0.1756532587
22600164400.0 -0.9723783452 0.1916478308
22650164100.0 -0.9699986028 0.2063740395
22700163800.0 -0.9679540673 0.2225200781
22750163500.0 -0.9643537166 0.2370956114
22800163200.0 -0.9617602949 0.2514225521
22850162900.0 -0.9596038671 0.2645729401
22900162600.0 -0.9580345867 0.277992258
22950162300.0 -0.9570948195 0.2907390821
23000162000.0 -0.9560561061 0.3026977917
23050161700.0 -0.9536589693 0.3153062009
23100161400.0 -0.9511118645 0.3279751912
23150161100.0 -0.9477620874 0.3403416401
23200160800.0 -0.9458606872 0.3528948674
23250160500.0 -0.9420374883 0.3649674196
23300160200.0 -0.9402110274 0.3764910461
23350159900.0 -0.9365803499 0.3895261241
23400159600.0 -0.9318600017 0.4023746886
23450159300.0 -0.9269793309 0.4155234409
23500159000.0 -0.9225961851 0.4281545984
23550158700.0 -0.9180184062 0.4411548367
23600158400.0 -0.9125140335 0.4539570591
23650158100.0 -0.9060261976 0.4678225832
23700157800.0 -0.8987647655 0.4814120229
23750157500.0 -0.8903281114 0.4953084981
23800157200.0 -0.8811402142 0.5085905748
23850156900.0 -0.872872341 0.5210511371
23900156600.0 -0.863983027 0.5331952677
23950156300.0 -0.8540432204 0.5458678002
24000156000.0 -0.8447566596 0.5569364534
24050155700.0 -0.8346367561 0.5695293054
24100155400.0 -0.8248467723 0.5811164454
24150155100.0 -0.8146309554 0.5931797605
24200154800.0 -0.8034077209 0.6045185547
24250154500.0 -0.7920143677 0.6166304705
24300154200.0 -0.7805165324 0.6281458535
24350153900.0 -0.769134819 0.6390476543
24400153600.0 -0.7567991331 0.6490356886
24450153300.0 -0.7450579146 0.6595660702
24500153000.0 -0.7335399912 0.668915072
24550152700.0 -0.722354551 0.678863205
24600152400.0 -0.7108332732 0.688353122
24650152100.0 -0.6997947095 0.6967603576
