!Created with skrf (http://scikit-rf.org).
# Hz S RI R 50.0 
!freq ReS11 ImS11
300000.0 -0.9803729295 -0.1004684272
50299700.0 -1.000072674 0.0162527665
100299400.0 -0.998082502 0.0291142722
150299100.0 -1.00294885 0.0459873621
200298800.0 -0.999475917 0.0592691763
250298500.0 -0.9974380895 0.0729086293
300298200.0 -0.9860565643 0.088605975
350297900.0 -0.9938252497 0.0994457656
400297600.0 -0.9932722115 0.116379026
450297300.0 -0.9910164852 0.129935483
500297000.0 -0.9895395685 0.1445726921
550296700.0 -0.9843283444 0.1571820343
600296400.0 -1.017105043 0.1905343408
650296100.0 -0.9820091933 0.1873345229
700295800.0 -0.9791213264 0.2015212466
750295500.0 -0.9760496964 0.2155428231
800295200.0 -0.9727659618 0.2294302934
850294900.0 -0.9693253187 0.2434308695
900294600.0 -0.9655354343 0.25697731
950294300.0 -0.9616973245 0.2708053039
1000294000.0 -0.957960824 0.2849012554
1050293700.0 -0.9532390551 0.2986552632
1100293400.0 -0.9489187527 0.3129121442
1150293100.0 -0.9449984651 0.3249814015
1200292800.0 -0.9398242357 0.3391516953
1250292500.0 -0.9343556479 0.3525474733
1300292200.0 -0.928460758 0.3658038518
1350291900.0 -0.9229893226 0.3797319338
1400291600.0 -0.9175834383 0.3928916417
1450291300.0 -0.9120999576 0.4051941512
1500291000.0 -0.9057992597 0.4187254586
1550290700.0 -0.8992983944 0.4320521389
1600290400.0 -0.8930166995 0.4447388834
1650290100.0 -0.8864246765 0.4568994072
1700289800.0 -0.879432583 0.4704168071
1750289500.0 -0.8723846757 0.4826250009
1800289200.0 -0.8653317866 0.4956853846
1850288900.0 -0.8584291078 0.5066000932
1900288600.0 -0.8505973589 0.519791808
1950288300.0 -0.8423735268 0.5325781972
2000288000.0 -0.8351359328 0.5438077243
2050287700.0 -0.8267990299 0.5563445371
2100287400.0 -0.8186651175 0.5679462494
2150287100.0 -0.8102275411 0.580001183
2200286800.0 -0.8022790958 0.5903103734
2250286500.0 -0.7934841622 0.6023593319
2300286200.0 -0.7844839269 0.6139594288
2350285900.0 -0.7756716751 0.6251197194
2400285600.0 -0.7667223365 0.6360026149
2450285300.0 -0.7580988115 0.6462168372
2500285000.0 -0.7484292117 0.6576302096
2550284700.0 -0.7392265634 0.6679515168
2600284400.0 -0.7301596463 0.678062884
2650284100.0 -0.7206656569 0.6885588968
2700283800.0 -0.710251145 0.699067409
2750283500.0 -0.6998001796 0.7096364215
2800283200.0 -0.6901828866 0.7195191102
2850282900.0 -0.6802701311 0.7294403273
2900282600.0 -0.6697819679 0.7390204016
2950282300.0 -0.6595892975 0.7480342179
3000282000.0 -0.6487867417 0.7575759768
3050281700.0 -0.637678556 0.766776833
3100281400.0 -0.6259758646 0.7761947471
3150281100.0 -0.6139950621 0.7855978506
3200280800.0 -0.6024697205 0.7938535392
3250280500.0 -0.5917337351 0.8016273679
3300280200.0 -0.5806073802 0.8095035426
3350279900.0 -0.5689366321 0.816842288
3400279600.0 -0.5569089666 0.8246922059
3450279300.0 -0.5458656136 0.8319342928
3500279000.0 -0.5339621324 0.8390616636
3550278700.0 -0.5212595553 0.8463300497
3600278400.0 -0.5090311229 0.8532907597
3650278100.0 -0.4957844127 0.8612197937
3700277800.0 -0.4836007963 0.8674255691
3750277500.0 -0.4716954737 0.8742005454
3800277200.0 -0.4588307678 0.8802919786
3850276900.0 -0.4466292083 0.8864031996
3900276600.0 -0.435710519 0.8920075507
3950276300.0 -0.4232434347 0.8979649316
4000276000.0 -0.4111429423 0.9040547938
4050275700.0 -0.3980116627 0.9101501248
4100275400.0 -0.3865771431 0.9154349519
4150275100.0 -0.3741478324 0.9212767831
4200274800.0 -0.3612372902 0.9266294876
4250274500.0 -0.3488666059 0.9317942186
4300274200.0 -0.3361881354 0.936875305
4350273900.0 -0.3221195077 0.9423330993
4400273600.0 -0.3071728244 0.9474592885
4450273300.0 -0.2917912972 0.9524828581
4500273000.0 -0.2782300623 0.9568793779
4550272700.0 -0.2641502523 0.9613237921
4600272400.0 -0.2486545959 0.9653725528
4650272100.0 -0.2368325891 0.9686028429
4700271800.0 -0.2236296417 0.9719329168
4750271500.0 -0.2117642009 0.9747506146
4800271200.0 -0.1993924074 0.9773733295
4850270900.0 -0.1854769711 0.9802010031
4900270600.0 -0.1717520904 0.982589068
4950270300.0 -0.1574768608 0.985366282
5000270000.0 -0.1433718335 0.9871730553
5050269700.0 -0.1300052346 0.9891021743
5100269400.0 -0.1162210417 0.9906455283
5150269100.0 -0.1030943044 0.9922575499
5200268800.0 -0.0896310367 0.9933132953
5250268500.0 -0.0767601231 0.9943120288
5300268200.0 -0.0635462887 0.9950896114
5350267900.0 -0.051621865 0.9954415132
5400267600.0 -0.0352388896 0.9967418181
5450267300.0 -0.022146836 0.9967134366
5500267000.0 -0.0070635145 0.9971050921
5550266700.0 0.0075908728 0.9971895559
5600266400.0 0.0233313479 0.9972054486
5650266100.0 0.0399352205 0.9969663124
5700265800.0 0.0542777621 0.9962112839
5750265500.0 0.0698669499 0.9953346248
5800265200.0 0.0833846528 0.9938266083
5850264900.0 0.0969794343 0.9933526898
5900264600.0 0.1138389999 0.9913079737
5950264300.0 0.1256044918 0.9898133654
6000264000.0 0.1397890977 0.9882052176
6050263700.0 0.1522199388 0.9863090822
6100263400.0 0.16453058 0.9847426183
6150263100.0 0.1792689067 0.9822335449
6200262800.0 0.1897521777 0.9803397846
6250262500.0 0.2025780567 0.977886489
6300262200.0 0.2154850844 0.9751621033
6350261900.0 0.2284747886 0.972146506
6400261600.0 0.2421360523 0.9687835235
6450261300.0 0.2538520427 0.9661820375
6500261000.0 0.2665769289 0.9626037774
6550260700.0 0.2798237786 0.9588566171
6600260400.0 0.2929848191 0.9545458532
6650260100.0 0.3067536573 0.9501778972
6700259800.0 0.3189658362 0.945875723
6750259500.0 0.3326174735 0.9412609474
6800259200.0 0.3458054602 0.9361260595
6850258900.0 0.3577185865 0.9311466
6900258600.0 0.3694976332 0.9259657001
6950258300.0 0.3821077058 0.9206939544
7000258000.0 0.394045416 0.9151825167
7050257700.0 0.4063030632 0.9092244872
7100257400.0 0.4191275293 0.9031569082
7150257100.0 0.4291609762 0.8977871529
7200256800.0 0.4420454748 0.8913020466
7250256500.0 0.4534989291 0.8849654469
7300256200.0 0.4673014168 0.8783039344
7350255900.0 0.4793701717 0.8715005539
7400255600.0 0.4922685603 0.8642612451
7450255300.0 0.5080891046 0.8555034769
7500255000.0 0.5193137591 0.8482075257
7550254700.0 0.5332154586 0.8398430604
7600254400.0 0.5457339247 0.8312606507
7650254100.0 0.5571707044 0.8235632695
7700253800.0 0.5692101798 0.8154927058
7750253500.0 0.5806098344 0.807578341
7800253200.0 0.5911517805 0.7997772378
7850252900.0 0.6009068655 0.7926490731
7900252600.0 0.6127032893 0.783859879
7950252300.0 0.6214611231 0.7773123138
8000252000.0 0.6318319029 0.7694813341
8050251700.0 0.6421575358 0.7611116008
8100251400.0 0.6525294116 0.7528723247
8150251100.0 0.6626596851 0.7441392833
8200250800.0 0.6718833736 0.7360772341
8250250500.0 0.6807904111 0.7282671336
8300250200.0 0.6902797049 0.7195067844
8350249900.0 0.6991760017 0.7109258152
8400249600.0 0.7078123834 0.7028641139
8450249300.0 0.7166634132 0.6936086271
8500249000.0 0.725471852 0.6845376952
8550248700.0 0.7336322501 0.6756666933
8600248400.0 0.7419497889 0.6660943612
8650248100.0 0.7496661958 0.65689981
8700247800.0 0.759216266 0.6458024963
8750247500.0 0.7675270099 0.6355814194
8800247200.0 0.7755828109 0.6252301838
8850246900.0 0.7842285134 0.6139482014
8900246600.0 0.7930161276 0.602592626
8950246300.0 0.8021471904 0.5897156291
9000246000.0 0.8116442994 0.5770829481
9050245700.0 0.8205853877 0.5642069185
9100245400.0 0.8289740205 0.5518023925
9150245100.0 0.8386723572 0.5380856335
9200244800.0 0.8481154673 0.5227853701
9250244500.0 0.8574014282 0.5071865897
9300244200.0 0.8658118815 0.4925452706
9350243900.0 0.8736723001 0.4788755057
9400243600.0 0.8803734462 0.4662115024
9450243300.0 0.8862898345 0.4543440971
9500243000.0 0.8925518127 0.4419310072
9550242700.0 0.8964041798 0.434050489
9600242400.0 0.9003101415 0.4265578631
9650242100.0 0.904006972 0.4198185485
9700241800.0 0.9085852167 0.4114517741
9750241500.0 0.9121876032 0.4040594454
9800241200.0 0.9171632771 0.3946404064
9850240900.0 0.9227961971 0.382791169
9900240600.0 0.9282974445 0.37129853
9950240300.0 0.9349871718 0.3552900723
10000240000.0 0.9391616711 0.3441498066
10050239700.0 0.9450424952 0.3286533261
10100239400.0 0.9503163393 0.3129340556
10150239100.0 0.9545306782 0.2983496825
10200238800.0 0.9584915752 0.2837775544
10250238500.0 0.9619264609 0.2703656865
10300238200.0 0.9649738052 0.2563040798
10350237900.0 0.9676822691 0.2432886398
10400237600.0 0.9702506149 0.2299392491
10450237300.0 0.9730290815 0.2162507185
10500237000.0 0.9748837756 0.2045577755
10550236700.0 0.9769052115 0.1907521237
10600236400.0 0.9794400831 0.1768425512
10650236100.0 0.9813118739 0.1629321487
10700235800.0 0.9837402747 0.1504472859
10750235500.0 0.9862441806 0.1373557339
10800235200.0 0.9877778921 0.1232673731
10850234900.0 0.989658657 0.1087922468
10900234600.0 0.9918980184 0.0941620127
10950234300.0 0.9934892836 0.0809645036
11000234000.0 0.9952754525 0.0659600867
11050233700.0 0.9969661103 0.0497766725
11100233400.0 0.9983994583 0.0322658775
11150233100.0 0.9993070079 0.0159467407
11200232800.0 0.9999061681 0.0007977936
11250232500.0 1.000803723 -0.0160488126
11300232200.0 1.001025715 -0.0331760027
11350231900.0 1.00121298 -0.0489496885
11400231600.0 1.001458833 -0.0653931497
11450231300.0 0.9998851361 -0.080393184
11500231000.0 0.9994565191 -0.0978218268
11550230700.0 0.9984744383 -0.1110505549
11600230400.0 0.996700646 -0.1228718592
11650230100.0 0.9945633555 -0.1343176536
11700229800.0 0.9925588919 -0.1499634147
11750229500.0 0.9902938576 -0.1644881272
11800229200.0 0.987343934 -0.1783841669
11850228900.0 0.9839872096 -0.1909339489
11900228600.0 0.9802946463 -0.2006903602
11950228300.0 0.976772533 -0.2114256618
12000228000.0 0.9743677187 -0.2203180852
12050227700.0 0.9707604167 -0.2330282308
12100227400.0 0.9673308439 -0.2445188474
12150227100.0 0.9624239084 -0.2606996734
12200226800.0 0.9588911867 -0.2714775423
12250226500.0 0.9545637599 -0.2840863054
12300226200.0 0.9507489167 -0.296241772
12350225900.0 0.9456296446 -0.3101560791
12400225600.0 0.9414558336 -0.3227906352
12450225300.0 0.9374233541 -0.3353510777
12500225000.0 0.9316733626 -0.3499957774
12550224700.0 0.926629169 -0.3634218884
12600224400.0 0.9217200923 -0.3762523172
12650224100.0 0.9158228015 -0.3905754121
12700223800.0 0.9105701921 -0.4032332821
12750223500.0 0.905193102 -0.4161350704
12800223200.0 0.8998755214 -0.4286057829
12850222900.0 0.8943274905 -0.4410502042
12900222600.0 0.8887901351 -0.4530257618
12950222300.0 0.882081654 -0.4656883232
13000222000.0 0.876415656 -0.4775408684
13050221700.0 0.8694146863 -0.4896704769
13100221400.0 0.8630867496 -0.5015926042
13150221100.0 0.8560735642 -0.5140404202
13200220800.0 0.8488975324 -0.5256728536
13250220500.0 0.8414550314 -0.5381376875
13300220200.0 0.8339460196 -0.549514164
13350219900.0 0.8259454234 -0.5612514713
13400219600.0 0.8173556119 -0.5736098404
13450219300.0 0.8076366323 -0.5871763186
13500219000.0 0.7976750368 -0.6010484059
13550218700.0 0.7870241556 -0.6141690773
13600218400.0 0.7770119125 -0.6262919764
13650218100.0 0.7674135352 -0.6374810835
13700217800.0 0.7557033439 -0.6500095298
13750217500.0 0.746098887 -0.6605301726
13800217200.0 0.7346743983 -0.6728822642
13850216900.0 0.7233793661 -0.6838906141
13900216600.0 0.7137001972 -0.6932081631
13950216300.0 0.7038448742 -0.7038145588
14000216000.0 0.6934841104 -0.713009228
14050215700.0 0.6835199773 -0.7208400193
14100215400.0 0.6737599881 -0.72979443
14150215100.0 0.6647558438 -0.738054038
14200214800.0 0.6555012629 -0.7467544046
14250214500.0 0.6453767467 -0.7558173293
14300214200.0 0.6350863544 -0.7649938563
14350213900.0 0.6241403928 -0.7744339916
14400213600.0 0.6122710677 -0.7841727488
14450213300.0 0.5994234202 -0.79438665
14500213000.0 0.5868579133 -0.8042006131
14550212700.0 0.5737280942 -0.8134568206
14600212400.0 0.5612582674 -0.8219046059
14650212100.0 0.5487282214 -0.8304981372
14700211800.0 0.5343217792 -0.8406482352
14750211500.0 0.5223423197 -0.8484421235
14800211200.0 0.5103610676 -0.8566981485
14850210900.0 0.4977596015 -0.8640713117
14900210600.0 0.4846915257 -0.871803811
14950210300.0 0.4712972897 -0.8798255683
15000210000.0 0.4582831234 -0.8865711389
15050209700.0 0.4456766425 -0.8926279377
15100209400.0 0.4328824732 -0.8985669917
15150209100.0 0.4201842595 -0.9043998015
15200208800.0 0.4070067084 -0.9094538571
15250208500.0 0.395336831 -0.9143427115
15300208200.0 0.3834343839 -0.9184449563
15350207900.0 0.3704925603 -0.9238345709
15400207600.0 0.3555924167 -0.9290739034
15450207300.0 0.3399620932 -0.9344320017
15500207000.0 0.3253529693 -0.9388600312
15550206700.0 0.3111588604 -0.9437345999
15600206400.0 0.2950348303 -0.9479877321
15650206100.0 0.2793680958 -0.9526361085
15700205800.0 0.2656203849 -0.9560893451
15750205500.0 0.251035019 -0.9595608757
15800205200.0 0.2366139482 -0.9629231823
15850204900.0 0.2224437234 -0.9663537532
15900204600.0 0.2074658593 -0.9698774389
15950204300.0 0.1934282741 -0.9728161945
16000204000.0 0.1794394767 -0.9753825048
16050203700.0 0.1649501792 -0.9781380476
16100203400.0 0.1504655514 -0.9801813321
16150203100.0 0.1364947547 -0.9828597446
16200202800.0 0.1222457364 -0.9850344393
16250202500.0 0.107870467 -0.9862278319
16300202200.0 0.0923052182 -0.9879265208
16350201900.0 0.0778086655 -0.9888910806
16400201600.0 0.0631445479 -0.9903060039
16450201300.0 0.0480465223 -0.9912478713
16500201000.0 0.031567917 -0.9921729741
16550200700.0 0.0157580753 -0.9924954557
16600200400.0 7.09215e-05 -0.9925407749
16650200100.0 -0.0162345207 -0.9923340722
16700199800.0 -0.0326410124 -0.9919286964
16750199500.0 -0.0518829954 -0.9914352435
16800199200.0 -0.0677572033 -0.9908614741
16850198900.0 -0.0824779061 -0.9897355465
16900198600.0 -0.0965978331 -0.9878746668
16950198300.0 -0.1100870637 -0.9870605014
17000198000.0 -0.1233515223 -0.9861678398
17050197700.0 -0.1365388969 -0.9832981376
17100197400.0 -0.1493282433 -0.9814713529
17150197100.0 -0.1618541326 -0.9800401805
17200196800.0 -0.1752796244 -0.9774582459
17250196500.0 -0.1876308539 -0.9748694486
17300196200.0 -0.1998901098 -0.9727504639
17350195900.0 -0.2119426311 -0.9704841233
17400195600.0 -0.2240622759 -0.9680733493
17450195300.0 -0.2371820988 -0.9653666815
17500195000.0 -0.2507267745 -0.9620300311
17550194700.0 -0.2648032523 -0.9583384323
17600194400.0 -0.2783421316 -0.9543557218
17650194100.0 -0.2918699611 -0.9502435831
17700193800.0 -0.3051900463 -0.9460848934
17750193500.0 -0.3193010939 -0.9416002367
17800193200.0 -0.3333770539 -0.9360899288
17850192900.0 -0.3483120907 -0.9310157742
17900192600.0 -0.3634443512 -0.9249770398
17950192300.0 -0.3788737573 -0.9177977324
18000192000.0 -0.3934163846 -0.9104347311
18050191700.0 -0.407280642 -0.9025671868
18100191400.0 -0.4213409112 -0.8951020323
18150191100.0 -0.4361185431 -0.8870388113
18200190800.0 -0.4529361507 -0.8778516104
18250190500.0 -0.469741998 -0.86851644
18300190200.0 -0.4850486415 -0.859248237
18350189900.0 -0.5003909753 -0.85111588
18400189600.0 -0.5146238963 -0.8425707024
18450189300.0 -0.5278475316 -0.8349210648
18500189000.0 -0.5410541102 -0.8266517303
18550188700.0 -0.5543594389 -0.8189272382
18600188400.0 -0.5656542655 -0.8122526222
18650188100.0 -0.577188193 -0.8053037584
18700187800.0 -0.5880775949 -0.7987763931
18750187500.0 -0.5987744732 -0.791845578
18800187200.0 -0.6096628471 -0.7846797304
18850186900.0 -0.6199459015 -0.7773666813
18900186600.0 -0.6303645146 -0.7699566941
18950186300.0 -0.6403968533 -0.7621449688
19000186000.0 -0.6483783561 -0.7556016374
19050185700.0 -0.6578342423 -0.7482939078
19100185400.0 -0.6678808168 -0.7399603143
19150185100.0 -0.6771986488 -0.7312179398
19200184800.0 -0.6871887004 -0.7233166779
19250184500.0 -0.6978112681 -0.7138548981
19300184200.0 -0.7090947461 -0.7034999614
19350183900.0 -0.7197093492 -0.6941698332
19400183600.0 -0.729531289 -0.6847162644
19450183300.0 -0.7382966574 -0.674726391
19500183000.0 -0.7466067702 -0.664362931
19550182700.0 -0.7560246423 -0.6537586888
19600182400.0 -0.766317514 -0.6423395332
19650182100.0 -0.7770009783 -0.6300673745
19700181800.0 -0.7872570784 -0.6168894287
19750181500.0 -0.7977579486 -0.6029224529
19800181200.0 -0.8078176441 -0.5882559293
19850180900.0 -0.8171874173 -0.5730633986
19900180600.0 -0.824822758 -0.5587097844
19950180300.0 -0.8343516636 -0.5425019861
20000180000.0 -0.8271021752 -0.5441094141
20050179700.0 -0.8355209498 -0.5309225858
20100179400.0 -0.8434525308 -0.517885844
20150179100.0 -0.8516708779 -0.5066819632
20200178800.0 -0.860608415 -0.4930363827
20250178500.0 -0.8691857114 -0.479183844
20300178200.0 -0.8798620252 -0.4645677219
20350177900.0 -0.8877365423 -0.4504577875
20400177600.0 -0.8967870416 -0.4358393338
20450177300.0 -0.9053232083 -0.421399093
20500177000.0 -0.9131157768 -0.4073832588
20550176700.0 -0.9210978873 -0.3938587472
20600176400.0 -0.9281276472 -0.3801767523
20650176100.0 -0.9342370176 -0.3677009003
20700175800.0 -0.9416600789 -0.3558974032
20750175500.0 -0.9474754735 -0.3439525433
20800175200.0 -0.9529527083 -0.3330846231
20850174900.0 -0.9581790594 -0.3211680107
20900174600.0 -0.9617604423 -0.310415854
20950174300.0 -0.9662430905 -0.2982440456
21000174000.0 -0.9701848702 -0.2863567771
21050173700.0 -0.9736031237 -0.2751363408
21100173400.0 -0.97726895 -0.2636053363
21150173100.0 -0.9814365891 -0.2502650592
21200172800.0 -0.9850211348 -0.2370587357
21250172500.0 -0.9877563859 -0.22319194
21300172200.0 -0.9909959984 -0.208757616
21350171900.0 -0.992347018 -0.1945120989
21400171600.0 -0.9932382662 -0.180032861
21450171300.0 -0.9931622879 -0.1657547912
21500171000.0 -0.9929329883 -0.1500875747
21550170700.0 -0.9930691781 -0.1355717335
21600170400.0 -0.9934169995 -0.1191762779
21650170100.0 -0.9919055769 -0.1032858586
21700169800.0 -0.9902941065 -0.0886286485
21750169500.0 -0.9897487134 -0.0727947419
21800169200.0 -0.9885726274 -0.0576365728
21850168900.0 -0.9869321514 -0.0405992979
21900168600.0 -0.9853908797 -0.0241110726
21950168300.0 -0.983791796 -0.0085857355
22000168000.0 -0.9829130065 0.0061626307
22050167700.0 -0.9828312617 0.020695065
22100167400.0 -0.9824148942 0.0356126135
22150167100.0 -0.9831547735 0.0510395818
22200166800.0 -0.9833641235 0.0673264609
22250166500.0 -0.9828932351 0.084156711
22300166200.0 -0.9823541482 0.1015447574
22350165900.0 -0.9797499395 0.1166583839
22400165600.0 -0.9786985059 0.1331583262
22450165300.0 -0.9759333917 0.147629068
22500165000.0 -0.9746607952 0.1613065334
22550164700.0 -0.9739422583 0.1765055126
22600164400.0 -0.9724907157 0.1919752414
22650164100.0 -0.9694549056 0.2070936915
22700163800.0 -0.9665476458 0.2226413545
22750163500.0 -0.9647394097 0.2384347971
22800163200.0 -0.9619814419 0.2518287634
22850162900.0 -0.9593494716 0.2648436199
22900162600.0 -0.9581432425 0.2785239044
22950162300.0 -0.9567945191 0.2914122256
23000162000.0 -0.9561605296 0.3026846499
23050161700.0 -0.954472433 0.3158204528
23100161400.0 -0.9517486449 0.3277423469
23150161100.0 -0.9488087971 0.3411045546
23200160800.0 -0.9464630271 0.3529883434
23250160500.0 -0.9431545221 0.3648025443
23300160200.0 -0.9407432051 0.376147562
23350159900.0 -0.9369760069 0.3900811799
23400159600.0 -0.9326691445 0.4025198492
23450159300.0 -0.9274735292 0.4152099681
23500159000.0 -0.922768953 0.4281715442
23550158700.0 -0.9180439826 0.4415988158
23600158400.0 -0.912811559 0.4545304063
23650158100.0 -0.9066339271 0.468417126
23700157800.0 -0.8992021787 0.4822096854
23750157500.0 -0.8906867138 0.4958821776
23800157200.0 -0.8817728122 0.509392878
23850156900.0 -0.8730037287 0.5219923418
23900156600.0 -0.8638929449 0.5344915484
23950156300.0 -0.8547157422 0.5463028173
24000156000.0 -0.8450306468 0.5579340977
24050155700.0 -0.8359049317 0.5701781276
24100155400.0 -0.8251032451 0.5818121631
24150155100.0 -0.8148028013 0.5941875211
24200154800.0 -0.8039020439 0.6056775121
24250154500.0 -0.7921435177 0.6170796996
24300154200.0 -0.7813788042 0.6287898677
24350153900.0 -0.7693603134 0.6393208236
24400153600.0 -0.7570257781 0.6498714
24450153300.0 -0.7451012058 0.6597130665
24500153000.0 -0.7339723189 0.6696083265
24550152700.0 -0.7222000641 0.6793812271
24600152400.0 -0.7108941976 0.6882448294
24650152100.0 -0.6995040009 0.6970750678
