!Created with skrf (http://scikit-rf.org).
# Hz S RI R 50.0 
!freq ReS11 ImS11
300000.0 -0.9777933777 -0.1122655168
50299700.0 -1.000196803 0.015790779
100299400.0 -0.9981446641 0.0287497341
150299100.0 -1.002946372 0.0455083188
200298800.0 -0.9997836986 0.0590060749
250298500.0 -0.9975917097 0.0724562071
300298200.0 -0.9859862935 0.0882075734
350297900.0 -0.9941561761 0.0991113287
400297600.0 -0.9934556178 0.1156245661
450297300.0 -0.9910408803 0.129618795
500297000.0 -0.9895388152 0.1444586011
550296700.0 -0.9843953311 0.1566329188
600296400.0 -1.017435269 0.1900621708
650296100.0 -0.9822123592 0.1867410382
700295800.0 -0.9792639977 0.2010098002
750295500.0 -0.9762079876 0.2149800268
800295200.0 -0.9729045878 0.2293556343
850294900.0 -0.9696952259 0.2429691996
900294600.0 -0.9656924928 0.2567904147
950294300.0 -0.9618446758 0.2704881913
1000294000.0 -0.9581150753 0.284358606
1050293700.0 -0.953585317 0.2981900435
1100293400.0 -0.9492131587 0.3124933733
1150293100.0 -0.9454864334 0.3244788597
1200292800.0 -0.9400798928 0.3388307215
1250292500.0 -0.9346348055 0.3522314161
1300292200.0 -0.9286962529 0.3654270156
1350291900.0 -0.923206571 0.3794639603
1400291600.0 -0.917747879 0.3926226745
1450291300.0 -0.9123244245 0.4050002624
1500291000.0 -0.9061228699 0.4182428443
1550290700.0 -0.8995950938 0.4315050696
1600290400.0 -0.893130725 0.4445522519
1650290100.0 -0.8866155257 0.456733944
1700289800.0 -0.8797166676 0.4700860505
1750289500.0 -0.872617451 0.4825849978
1800289200.0 -0.8652464663 0.4951823221
1850288900.0 -0.8585877137 0.5067322692
1900288600.0 -0.8506976949 0.5198257436
1950288300.0 -0.8425970582 0.5323602768
2000288000.0 -0.835294629 0.5437887723
2050287700.0 -0.8268663023 0.555927694
2100287400.0 -0.8188076224 0.5675912849
2150287100.0 -0.8103728667 0.5796666653
2200286800.0 -0.8026252044 0.5900986411
2250286500.0 -0.7936385725 0.6020488029
2300286200.0 -0.7847157959 0.613660995
2350285900.0 -0.7760107338 0.6249774365
2400285600.0 -0.7669722312 0.6357624168
2450285300.0 -0.7582269606 0.6461515572
2500285000.0 -0.7488180118 0.6575129603
2550284700.0 -0.7396002766 0.6675257956
2600284400.0 -0.7302948751 0.6777377202
2650284100.0 -0.7213885566 0.6884658885
2700283800.0 -0.7105184715 0.6988211287
2750283500.0 -0.7004878844 0.7094991508
2800283200.0 -0.6906859056 0.7191241108
2850282900.0 -0.6803692194 0.7289884613
2900282600.0 -0.6698243624 0.7386888717
2950282300.0 -0.6598634192 0.7477691576
3000282000.0 -0.6491977653 0.7571527631
3050281700.0 -0.6381299459 0.7667114582
3100281400.0 -0.6262357095 0.7760539408
3150281100.0 -0.6142170816 0.7852765552
3200280800.0 -0.6025744969 0.7938314749
3250280500.0 -0.5918232411 0.801589825
3300280200.0 -0.5806172446 0.8092952449
3350279900.0 -0.5690003993 0.8168025125
3400279600.0 -0.5568709159 0.824424343
3450279300.0 -0.5458522654 0.8316147044
3500279000.0 -0.5338115806 0.8387972766
3550278700.0 -0.521275935 0.8461432014
3600278400.0 -0.5089833642 0.8531968428
3650278100.0 -0.4958290938 0.8609045133
3700277800.0 -0.4838503927 0.8672847732
3750277500.0 -0.471468783 0.8738636382
3800277200.0 -0.4590604096 0.8802221212
3850276900.0 -0.4469922912 0.8863985248
3900276600.0 -0.4360698084 0.8917474022
3950276300.0 -0.423266936 0.8979777463
4000276000.0 -0.4116691863 0.903938931
4050275700.0 -0.3985808007 0.9099400676
4100275400.0 -0.3875115951 0.9152598234
4150275100.0 -0.3746115251 0.9210072008
4200274800.0 -0.3617936973 0.9263653334
4250274500.0 -0.3494447271 0.9314786902
4300274200.0 -0.3365670733 0.9370145222
4350273900.0 -0.3228321273 0.9422013907
4400273600.0 -0.3077049997 0.947215993
4450273300.0 -0.2926917695 0.9525127181
4500273000.0 -0.2787683699 0.9569617982
4550272700.0 -0.2646151997 0.9612123856
4600272400.0 -0.2491314204 0.9653209689
4650272100.0 -0.2373570046 0.9686690083
4700271800.0 -0.2240812799 0.9717681817
4750271500.0 -0.212311247 0.9748888756
4800271200.0 -0.1999735012 0.9775731989
4850270900.0 -0.1859680652 0.9802343086
4900270600.0 -0.1722229209 0.9827115419
4950270300.0 -0.157827999 0.9853710082
5000270000.0 -0.1436591015 0.9874006371
5050269700.0 -0.1300188976 0.9888340515
5100269400.0 -0.1166798297 0.9902175004
5150269100.0 -0.10334387 0.9922197361
5200268800.0 -0.0898921243 0.9928392675
5250268500.0 -0.0769154497 0.9940261945
5300268200.0 -0.0640036143 0.9948938025
5350267900.0 -0.0517941248 0.9956368538
5400267600.0 -0.0354190172 0.9965693074
5450267300.0 -0.0225593548 0.9967810064
5500267000.0 -0.0071061311 0.9970818119
5550266700.0 0.0080032855 0.997393853
5600266400.0 0.0233054162 0.9974323933
5650266100.0 0.0399424158 0.9968376632
5700265800.0 0.0545038673 0.9960256643
5750265500.0 0.0697903079 0.9953157374
5800265200.0 0.0836059458 0.9946170332
5850264900.0 0.0969790172 0.9935339479
5900264600.0 0.1133732563 0.9917970084
5950264300.0 0.12559269 0.9901591797
6000264000.0 0.1395442391 0.9877724875
6050263700.0 0.1522375118 0.9868757211
6100263400.0 0.16476009 0.9848230774
6150263100.0 0.1791523861 0.9823673819
6200262800.0 0.1892667295 0.9804378206
6250262500.0 0.2022336045 0.978164189
6300262200.0 0.2149824848 0.9754415661
6350261900.0 0.2281012354 0.9724327398
6400261600.0 0.2421230374 0.9690436912
6450261300.0 0.2531298782 0.9663955008
6500261000.0 0.2659968414 0.9627537745
6550260700.0 0.2790129254 0.9589119892
6600260400.0 0.292496695 0.9549140596
6650260100.0 0.306371803 0.9502648198
6700259800.0 0.3184308711 0.9462921351
6750259500.0 0.3320064952 0.9411118134
6800259200.0 0.3452441558 0.936430559
6850258900.0 0.3571326216 0.9312359375
6900258600.0 0.3691640492 0.9260179791
6950258300.0 0.3815600022 0.9207947475
7000258000.0 0.3937067886 0.9155418912
7050257700.0 0.4062675406 0.9094479594
7100257400.0 0.4188856718 0.903121639
7150257100.0 0.429191409 0.8978273071
7200256800.0 0.4417951375 0.891244843
7250256500.0 0.4537835508 0.8848446366
7300256200.0 0.4672541129 0.8784667241
7350255900.0 0.4791490143 0.8712458649
7400255600.0 0.4926106332 0.8642269606
7450255300.0 0.5074853894 0.8548640185
7500255000.0 0.5191975104 0.8482056366
7550254700.0 0.5331984313 0.839520774
7600254400.0 0.5462253561 0.8312010528
7650254100.0 0.557412584 0.8234303091
7700253800.0 0.5695150257 0.8154101481
7750253500.0 0.5805780988 0.8076074655
7800253200.0 0.5912487815 0.7999465071
7850252900.0 0.6008533511 0.7928475704
7900252600.0 0.6127089035 0.7838490153
7950252300.0 0.6214753119 0.7773927904
8000252000.0 0.6315586647 0.7697140456
8050251700.0 0.642308139 0.7612393271
8100251400.0 0.6521234953 0.7532369842
8150251100.0 0.6622887387 0.7444163298
8200250800.0 0.6717136532 0.7367337035
8250250500.0 0.6806909148 0.7286667759
8300250200.0 0.6897765432 0.7200954568
8350249900.0 0.6987143873 0.7112183827
8400249600.0 0.7071428151 0.7033052371
8450249300.0 0.7165325287 0.6940447151
8500249000.0 0.7248711547 0.6854237969
8550248700.0 0.7331621319 0.6762723248
8600248400.0 0.7417205617 0.666690343
8650248100.0 0.749460935 0.6573361107
8700247800.0 0.7587595991 0.6461956398
8750247500.0 0.7672048865 0.636053585
8800247200.0 0.7753413462 0.6256893517
8850246900.0 0.7843726632 0.6142453314
8900246600.0 0.7926882541 0.6028595875
8950246300.0 0.8022267382 0.5898650047
9000246000.0 0.8118532016 0.5769311675
9050245700.0 0.8209396354 0.5640933615
9100245400.0 0.8292891117 0.5514948288
9150245100.0 0.838464663 0.5377436998
9200244800.0 0.8486822971 0.5223715485
9250244500.0 0.8576457291 0.5068562767
9300244200.0 0.8663764541 0.4922223172
9350243900.0 0.8740596996 0.478306139
9400243600.0 0.8806892189 0.4658437522
9450243300.0 0.8865744486 0.4538578022
9500243000.0 0.892794088 0.4419053711
9550242700.0 0.8964799305 0.434198582
9600242400.0 0.9004070362 0.4269826173
9650242100.0 0.9039602521 0.4205468898
9700241800.0 0.9082481825 0.4121238196
9750241500.0 0.9124414917 0.4046850915
9800241200.0 0.9170265194 0.3957485257
9850240900.0 0.922684672 0.3838827905
9900240600.0 0.928139534 0.372410616
9950240300.0 0.9347678222 0.3562827192
10000240000.0 0.9397107368 0.3442970531
10050239700.0 0.9449732471 0.3295275625
10100239400.0 0.950208174 0.3139006849
10150239100.0 0.9544160511 0.2991104384
10200238800.0 0.9584780764 0.2842776229
10250238500.0 0.9617837683 0.2708697399
10300238200.0 0.964944856 0.2571859288
10350237900.0 0.9676733754 0.243871663
10400237600.0 0.9700338087 0.2307379117
10450237300.0 0.9728234362 0.2173765744
10500237000.0 0.9748923846 0.2048536758
10550236700.0 0.9774278421 0.1911481124
10600236400.0 0.9793122123 0.1773514918
10650236100.0 0.9813743782 0.1628712682
10700235800.0 0.9838119956 0.1504181893
10750235500.0 0.9859492346 0.1375386207
10800235200.0 0.9881412955 0.1233976411
10850234900.0 0.9892881136 0.1087733324
10900234600.0 0.9917567976 0.0942036359
10950234300.0 0.9935022616 0.0809109735
11000234000.0 0.9952262601 0.0657876538
11050233700.0 0.9971461105 0.0494643807
11100233400.0 0.9984908535 0.0323074371
11150233100.0 0.9993372327 0.0156802025
11200232800.0 1.000445947 0.0008257804
11250232500.0 1.001142082 -0.0156304535
11300232200.0 1.001965687 -0.034065477
11350231900.0 1.001576122 -0.049578876
11400231600.0 1.001194202 -0.0656153245
11450231300.0 1.000734223 -0.0808974419
11500231000.0 0.999625565 -0.0972909892
11550230700.0 0.9985819365 -0.1109056007
11600230400.0 0.9965803401 -0.1236850072
11650230100.0 0.9947819904 -0.134378489
11700229800.0 0.9930024965 -0.1493083049
11750229500.0 0.9903130056 -0.1641573806
11800229200.0 0.98780203 -0.1782890216
11850228900.0 0.9840686971 -0.1906344269
11900228600.0 0.9808181521 -0.2003721592
11950228300.0 0.9774529834 -0.2103644924
12000228000.0 0.9745753999 -0.2197195056
12050227700.0 0.9708665668 -0.232571589
12100227400.0 0.9673526538 -0.2437673476
12150227100.0 0.9631351398 -0.2601008802
12200226800.0 0.9594710248 -0.2707202795
12250226500.0 0.9552747517 -0.2832372591
12300226200.0 0.9510023592 -0.29569396
12350225900.0 0.9456650161 -0.3096092104
12400225600.0 0.9419064039 -0.3221310494
12450225300.0 0.9370302552 -0.3348416854
12500225000.0 0.931668956 -0.3498166398
12550224700.0 0.9266714362 -0.3633649618
12600224400.0 0.9216501491 -0.3761066325
12650224100.0 0.915951091 -0.3903367005
12700223800.0 0.9105887919 -0.4030731171
12750223500.0 0.9052420152 -0.4159998718
12800223200.0 0.8998384137 -0.4284934222
12850222900.0 0.8946587637 -0.440780036
12900222600.0 0.8886407933 -0.452774208
12950222300.0 0.88250131 -0.4658471683
13000222000.0 0.8763461988 -0.4773440997
13050221700.0 0.8695497903 -0.48968886
13100221400.0 0.86296822 -0.5017868538
13150221100.0 0.8559772174 -0.5140316692
13200220800.0 0.8487598296 -0.5259647341
13250220500.0 0.8415912844 -0.5380136393
13300220200.0 0.8342305764 -0.5489601294
13350219900.0 0.8261941028 -0.5608733441
13400219600.0 0.8175626825 -0.573228138
13450219300.0 0.8085098709 -0.5868659284
13500219000.0 0.7979349927 -0.6012496421
13550218700.0 0.7875640966 -0.6137645261
13600218400.0 0.7774552333 -0.6263650246
13650218100.0 0.7674564432 -0.6370440025
13700217800.0 0.7564034858 -0.6496063766
13750217500.0 0.7466606495 -0.6610414341
13800217200.0 0.7352524056 -0.6728066802
13850216900.0 0.7244177302 -0.6840027567
13900216600.0 0.7148570786 -0.6922254049
13950216300.0 0.7033916069 -0.7030964209
14000216000.0 0.6936993828 -0.7123760728
14050215700.0 0.6839822131 -0.7204675254
14100215400.0 0.674199182 -0.7295282963
14150215100.0 0.6654025405 -0.7376382149
14200214800.0 0.6558070557 -0.7462603372
14250214500.0 0.6456640257 -0.7555538567
14300214200.0 0.6354796598 -0.7647114992
14350213900.0 0.6241606902 -0.7742886881
14400213600.0 0.6123711082 -0.7838105928
14450213300.0 0.5991766303 -0.7941656431
14500213000.0 0.5859436206 -0.8043590622
14550212700.0 0.5739010159 -0.8133120563
14600212400.0 0.5609531491 -0.8221706706
14650212100.0 0.54837783 -0.8311292915
14700211800.0 0.5339708216 -0.840711932
14750211500.0 0.5223078165 -0.8486367581
14800211200.0 0.5094466112 -0.8568669008
14850210900.0 0.497772849 -0.8642352951
14900210600.0 0.4841817843 -0.8721603325
14950210300.0 0.4707484333 -0.8797715514
15000210000.0 0.4580813524 -0.8866741671
15050209700.0 0.4457349198 -0.8927646747
15100209400.0 0.433177392 -0.898578813
15150209100.0 0.4205938028 -0.9038574086
15200208800.0 0.4080502242 -0.9091438487
15250208500.0 0.3959318958 -0.9139258496
15300208200.0 0.3846289346 -0.9188166922
15350207900.0 0.3706212297 -0.9233077311
15400207600.0 0.3560007337 -0.9291349842
15450207300.0 0.3419136508 -0.9336764614
15500207000.0 0.3266767452 -0.9387427161
15550206700.0 0.3120966376 -0.9432140392
15600206400.0 0.2957549974 -0.9478069268
15650206100.0 0.2799565324 -0.9520492502
15700205800.0 0.2661351776 -0.9558233733
15750205500.0 0.251750381 -0.9593459308
15800205200.0 0.2371068164 -0.9627730951
15850204900.0 0.2228240838 -0.9662371151
15900204600.0 0.2078887876 -0.9696977772
15950204300.0 0.1937968626 -0.9725092812
16000204000.0 0.1796412477 -0.9753938859
16050203700.0 0.1646882803 -0.9780845907
16100203400.0 0.1505261941 -0.9802942568
16150203100.0 0.1359586286 -0.9825909301
16200202800.0 0.1216307258 -0.9842151942
16250202500.0 0.1079909277 -0.986131457
16300202200.0 0.0923882972 -0.9877664391
16350201900.0 0.0769354597 -0.9891406502
16400201600.0 0.0623888964 -0.9901241535
16450201300.0 0.0474633524 -0.991203704
16500201000.0 0.0307982726 -0.9919299189
16550200700.0 0.0150718861 -0.992398425
16600200400.0 -0.0007598912 -0.9925695086
16650200100.0 -0.0168328157 -0.9928645966
16700199800.0 -0.0332555357 -0.9918232022
16750199500.0 -0.0517428272 -0.9914268515
16800199200.0 -0.0678724562 -0.990760732
16850198900.0 -0.0831076465 -0.9896806133
16900198600.0 -0.096908167 -0.9887266069
16950198300.0 -0.1105377544 -0.9873153215
17000198000.0 -0.1234425491 -0.9858446513
17050197700.0 -0.1359113749 -0.9842509201
17100197400.0 -0.1490507995 -0.9821317586
17150197100.0 -0.1612334409 -0.9799455261
17200196800.0 -0.1740300647 -0.9774259821
17250196500.0 -0.1868028862 -0.9755221468
17300196200.0 -0.1991949429 -0.9729870646
17350195900.0 -0.2110368574 -0.9709055415
17400195600.0 -0.2232321477 -0.9681927597
17450195300.0 -0.2363515286 -0.9656333459
17500195000.0 -0.2496659612 -0.9620838015
17550194700.0 -0.2634888319 -0.9584780437
17600194400.0 -0.2779295423 -0.9544582566
17650194100.0 -0.2911414155 -0.9502989083
17700193800.0 -0.3044337413 -0.9457018493
17750193500.0 -0.3188459125 -0.9416917583
17800193200.0 -0.3333369594 -0.936130775
17850192900.0 -0.3480859884 -0.9304953236
17900192600.0 -0.3634116963 -0.9249650993
17950192300.0 -0.3787092574 -0.9177008215
18000192000.0 -0.39360945 -0.9104032111
18050191700.0 -0.4073536126 -0.9025840172
18100191400.0 -0.4215907706 -0.8946747882
18150191100.0 -0.4366194019 -0.8865878423
18200190800.0 -0.4535691781 -0.8771898017
18250190500.0 -0.470466377 -0.8675952112
18300190200.0 -0.4857654198 -0.8587807106
18350189900.0 -0.5005955705 -0.8506757964
18400189600.0 -0.5153233114 -0.8421991131
18450189300.0 -0.5286785545 -0.8341254673
18500189000.0 -0.5421377257 -0.8262688197
18550188700.0 -0.5547549978 -0.8186400575
18600188400.0 -0.5662532636 -0.8117300924
18650188100.0 -0.5773460576 -0.8057794213
18700187800.0 -0.5881057456 -0.7989375488
18750187500.0 -0.5988300119 -0.7923430836
18800187200.0 -0.6092685464 -0.7851886817
18850186900.0 -0.6195065267 -0.7782037326
18900186600.0 -0.6297652805 -0.77095135
18950186300.0 -0.6398707336 -0.7629081806
19000186000.0 -0.6475552028 -0.7568741082
19050185700.0 -0.6566282688 -0.7495842908
19100185400.0 -0.6662559951 -0.7413559746
19150185100.0 -0.6765909615 -0.7328739121
19200184800.0 -0.686256266 -0.723885854
19250184500.0 -0.696236401 -0.7151266674
19300184200.0 -0.7081469817 -0.70573435
19350183900.0 -0.7184399214 -0.6962946903
19400183600.0 -0.7280126489 -0.6863114354
19450183300.0 -0.7369425708 -0.6756359615
19500183000.0 -0.745122849 -0.6658204631
19550182700.0 -0.7550396968 -0.6549999037
19600182400.0 -0.7650350026 -0.6435821461
19650182100.0 -0.7763227871 -0.6309564214
19700181800.0 -0.7868863748 -0.6179252396
19750181500.0 -0.7971127987 -0.6039223813
19800181200.0 -0.8076135933 -0.5888838969
19850180900.0 -0.8171462794 -0.5737035053
19900180600.0 -0.8248854069 -0.5589483657
19950180300.0 -0.8339801121 -0.5426695271
20000180000.0 -0.8265736547 -0.546242295
20050179700.0 -0.8345700032 -0.5321907858
20100179400.0 -0.843273922 -0.5185853274
20150179100.0 -0.8514420125 -0.5061221644
20200178800.0 -0.8603712505 -0.4933557003
20250178500.0 -0.8702933195 -0.480207663
20300178200.0 -0.8800024839 -0.4656242326
20350177900.0 -0.888502561 -0.450901363
20400177600.0 -0.8973407156 -0.4361244612
20450177300.0 -0.9058714521 -0.4216325959
20500177000.0 -0.9135535882 -0.4077010501
20550176700.0 -0.9214093605 -0.3940745631
20600176400.0 -0.9284376181 -0.380814509
20650176100.0 -0.9353126417 -0.3685699995
20700175800.0 -0.9421463397 -0.3572019802
20750175500.0 -0.9482005528 -0.3448688323
20800175200.0 -0.9535010268 -0.3333194504
20850174900.0 -0.958727277 -0.322795258
20900174600.0 -0.9616038178 -0.3108680649
20950174300.0 -0.9673582122 -0.2986365357
21000174000.0 -0.9706864093 -0.2879223404
21050173700.0 -0.9729208218 -0.2779752746
21100173400.0 -0.9777403211 -0.2646990217
21150173100.0 -0.9814556578 -0.2519244568
21200172800.0 -0.9847433118 -0.2391078435
21250172500.0 -0.9880570105 -0.2253384241
21300172200.0 -0.9904704102 -0.2105612546
21350171900.0 -0.9921368889 -0.19668485
21400171600.0 -0.9937245374 -0.1826966118
21450171300.0 -0.9935876685 -0.1678849164
21500171000.0 -0.9938922183 -0.1529468517
21550170700.0 -0.9934094007 -0.1375621934
21600170400.0 -0.9940128679 -0.1215161597
21650170100.0 -0.9921825631 -0.1059083304
21700169800.0 -0.9901121977 -0.0916015947
21750169500.0 -0.9881312637 -0.0746949651
21800169200.0 -0.9878367026 -0.0583715245
21850168900.0 -0.9865386496 -0.0419176496
21900168600.0 -0.9845255596 -0.0247430757
21950168300.0 -0.9839228909 -0.0094210241
22000168000.0 -0.9828598371 0.0051463503
22050167700.0 -0.9827545168 0.0191682118
22100167400.0 -0.982723939 0.0348334736
22150167100.0 -0.9829989033 0.0498643292
22200166800.0 -0.9837927666 0.0664838044
22250166500.0 -0.9826165716 0.0838021234
22300166200.0 -0.9824802468 0.0999257457
22350165900.0 -0.9813896514 0.1163777835
22400165600.0 -0.978292751 0.1320263434
22450165300.0 -0.9764580637 0.1479889925
22500165000.0 -0.9758004392 0.1602758821
22550164700.0 -0.9744227473 0.1761823698
22600164400.0 -0.9729183031 0.192613745
22650164100.0 -0.970747736 0.2060713072
22700163800.0 -0.9674145693 0.2226912468
22750163500.0 -0.9651891072 0.2374392271
22800163200.0 -0.9627090663 0.2513129144
22850162900.0 -0.9599729056 0.2646056478
22900162600.0 -0.9589049649 0.2777830754
22950162300.0 -0.957770003 0.2904694419
23000162000.0 -0.9566393034 0.3026817434
23050161700.0 -0.9551305588 0.3150662852
23100161400.0 -0.9521365379 0.3273528108
23150161100.0 -0.9495312066 0.3396449232
23200160800.0 -0.946532988 0.3520035961
23250160500.0 -0.943225939 0.3638519267
23300160200.0 -0.9418881553 0.3760939442
23350159900.0 -0.9381519402 0.3881730172
23400159600.0 -0.9329070828 0.4019707238
23450159300.0 -0.9285465555 0.4148947571
23500159000.0 -0.9238325438 0.4282239415
23550158700.0 -0.9195195453 0.441209097
23600158400.0 -0.9140643254 0.4546473634
23650158100.0 -0.9076075222 0.4684523953
23700157800.0 -0.900052657 0.4823415222
23750157500.0 -0.8916146096 0.4962704383
23800157200.0 -0.883107204 0.5094389804
23850156900.0 -0.874193154 0.5220734535
23900156600.0 -0.8647288506 0.5346304646
23950156300.0 -0.8552260543 0.5473189574
24000156000.0 -0.845986551 0.5592449435
24050155700.0 -0.8363765345 0.5710297622
24100155400.0 -0.826690821 0.5827608964
24150155100.0 -0.8155334366 0.5942934565
24200154800.0 -0.8043791164 0.6059596431
24250154500.0 -0.7932003355 0.6182205355
24300154200.0 -0.7815815846 0.6289358335
24350153900.0 -0.7695827763 0.639546947
24400153600.0 -0.7575245009 0.6497532292
24450153300.0 -0.7455601108 0.6597145952
24500153000.0 -0.7342023038 0.6694588419
24550152700.0 -0.7231646682 0.6791788897
24600152400.0 -0.7118423328 0.6879084054
24650152100.0 -0.7001578199 0.6970813141
