!Created with skrf (http://scikit-rf.org).
# Hz S RI R 50.0 
!freq ReS11 ImS11
300000.0 -0.9787905533 -0.1110201773
50299700.0 -1.00019879 0.0159660135
100299400.0 -0.9979842373 0.0288823483
150299100.0 -1.002863839 0.0456412201
200298800.0 -0.9996775715 0.0589510885
250298500.0 -0.9975579059 0.0724422396
300298200.0 -0.9860282562 0.0882052781
350297900.0 -0.9939977695 0.0991165524
400297600.0 -0.9932842567 0.1158947708
450297300.0 -0.9910277019 0.1294078626
500297000.0 -0.9894491537 0.1442862899
550296700.0 -0.9843835282 0.1568608193
600296400.0 -1.017348605 0.1902361042
650296100.0 -0.9821491636 0.1868657086
700295800.0 -0.9794651592 0.201091358
750295500.0 -0.9761992406 0.2152481367
800295200.0 -0.9729928712 0.2291209658
850294900.0 -0.9696144547 0.2428320019
900294600.0 -0.965864383 0.2568842353
950294300.0 -0.9621956823 0.2704816794
1000294000.0 -0.9579446184 0.2845576625
1050293700.0 -0.9534773867 0.2981775773
1100293400.0 -0.9491220516 0.3126548809
1150293100.0 -0.9454227871 0.3245023341
1200292800.0 -0.9399635556 0.3388101879
1250292500.0 -0.9345338155 0.3523683493
1300292200.0 -0.928868615 0.3655067557
1350291900.0 -0.9232606116 0.3794995844
1400291600.0 -0.9177449955 0.3926744832
1450291300.0 -0.9122900323 0.4050031569
1500291000.0 -0.9057557362 0.418346553
1550290700.0 -0.8993960072 0.4316723877
1600290400.0 -0.8931045922 0.4445622075
1650290100.0 -0.8865214778 0.4568595486
1700289800.0 -0.8797497966 0.470143982
1750289500.0 -0.872554124 0.4824932648
1800289200.0 -0.8653399788 0.4952986178
1850288900.0 -0.8584670941 0.5065166341
1900288600.0 -0.8507298821 0.5196343535
1950288300.0 -0.8425121192 0.5323268235
2000288000.0 -0.8349390843 0.5437434569
2050287700.0 -0.8269275914 0.5559325014
2100287400.0 -0.8188693564 0.5676597164
2150287100.0 -0.8102403142 0.5797103172
2200286800.0 -0.8025082079 0.5902329272
2250286500.0 -0.7936775821 0.6021076659
2300286200.0 -0.7848352492 0.6137260242
2350285900.0 -0.7758137859 0.6247356011
2400285600.0 -0.7670361819 0.6356525823
2450285300.0 -0.7584498399 0.6461937983
2500285000.0 -0.7485300808 0.6574278604
2550284700.0 -0.7397910762 0.6679377838
2600284400.0 -0.7302401199 0.6778788574
2650284100.0 -0.7211386586 0.6883507096
2700283800.0 -0.7108302376 0.6989662423
2750283500.0 -0.7003658768 0.7095879639
2800283200.0 -0.690477662 0.7191604065
2850282900.0 -0.6801031708 0.7289128664
2900282600.0 -0.6700339794 0.738608021
2950282300.0 -0.6599261759 0.7478222238
3000282000.0 -0.6491561133 0.7573893413
3050281700.0 -0.6380516307 0.7666007982
3100281400.0 -0.6261169243 0.7759939206
3150281100.0 -0.6142334737 0.7854030033
3200280800.0 -0.602379474 0.7939123984
3250280500.0 -0.5918313474 0.8013296736
3300280200.0 -0.5806924291 0.8093218714
3350279900.0 -0.569081071 0.8167023043
3400279600.0 -0.5569775623 0.8243489515
3450279300.0 -0.5458407958 0.8317197297
3500279000.0 -0.5338180372 0.838986272
3550278700.0 -0.5213613788 0.8461452219
3600278400.0 -0.5091271261 0.8531077545
3650278100.0 -0.495715235 0.8607997264
3700277800.0 -0.4836957239 0.8673714417
3750277500.0 -0.4716201881 0.8739084479
3800277200.0 -0.458986599 0.8803020101
3850276900.0 -0.4470321822 0.8862457977
3900276600.0 -0.4359748986 0.8918674412
3950276300.0 -0.4234965292 0.8978409123
4000276000.0 -0.4113553377 0.9040344108
4050275700.0 -0.39859305 0.9099092153
4100275400.0 -0.3873068792 0.9155440111
4150275100.0 -0.3747888069 0.9210651235
4200274800.0 -0.3617138384 0.9264150885
4250274500.0 -0.3495041751 0.9316960954
4300274200.0 -0.336406659 0.9370019603
4350273900.0 -0.322646315 0.9422033377
4400273600.0 -0.3077998418 0.9475436012
4450273300.0 -0.2924069725 0.952535312
4500273000.0 -0.2786107227 0.9568254909
4550272700.0 -0.2645280711 0.9610990401
4600272400.0 -0.2491012026 0.9652395621
4650272100.0 -0.2372977099 0.9686042804
4700271800.0 -0.2240316216 0.9719392863
4750271500.0 -0.2124393113 0.9747207558
4800271200.0 -0.1999424369 0.9774945651
4850270900.0 -0.1860448275 0.9802382174
4900270600.0 -0.1719688974 0.9827046984
4950270300.0 -0.1578877257 0.985145583
5000270000.0 -0.1435089326 0.9873232711
5050269700.0 -0.130010825 0.9889779864
5100269400.0 -0.116604756 0.9908498405
5150269100.0 -0.103222808 0.9920409987
5200268800.0 -0.090030365 0.9935088121
5250268500.0 -0.0772951568 0.9939104868
5300268200.0 -0.0635841483 0.9946612199
5350267900.0 -0.0518667376 0.9951642133
5400267600.0 -0.0353129354 0.9964228356
5450267300.0 -0.0222163558 0.9968005913
5500267000.0 -0.0071698781 0.9971675241
5550266700.0 0.0079794233 0.9974647958
5600266400.0 0.0234219543 0.9973093008
5650266100.0 0.0397546674 0.9969608203
5700265800.0 0.0544653095 0.9963081764
5750265500.0 0.0697820284 0.9953388286
5800265200.0 0.083833058 0.9944915802
5850264900.0 0.0970212272 0.9932367207
5900264600.0 0.1138723912 0.9912703782
5950264300.0 0.1255872776 0.989811388
6000264000.0 0.1398151633 0.9881270726
6050263700.0 0.1521229385 0.9863709601
6100263400.0 0.1645172644 0.9845431693
6150263100.0 0.179007619 0.9823456311
6200262800.0 0.1892924331 0.9806717055
6250262500.0 0.202145617 0.9781447891
6300262200.0 0.2150606328 0.9753523444
6350261900.0 0.2280911502 0.972377346
6400261600.0 0.241943403 0.9690725416
6450261300.0 0.253388978 0.9664747591
6500261000.0 0.2660968428 0.9630004532
6550260700.0 0.278701781 0.9586664175
6600260400.0 0.2924269744 0.9552374788
6650260100.0 0.3066404723 0.9506690342
6700259800.0 0.3180062424 0.9461007446
6750259500.0 0.3324191349 0.9413551505
6800259200.0 0.3454482585 0.9364242643
6850258900.0 0.3570699359 0.9311045004
6900258600.0 0.3692413619 0.9261881237
6950258300.0 0.3818935556 0.9208873087
7000258000.0 0.3937765873 0.9154631097
7050257700.0 0.4061172092 0.9094110961
7100257400.0 0.4188257042 0.9030414062
7150257100.0 0.4291175437 0.897785452
7200256800.0 0.4421022613 0.8913366903
7250256500.0 0.4540680025 0.8852651554
7300256200.0 0.4667206766 0.8782988177
7350255900.0 0.4793055071 0.8714308943
7400255600.0 0.4922515999 0.8642562601
7450255300.0 0.5079539082 0.8550876195
7500255000.0 0.5193952679 0.8480986241
7550254700.0 0.5331461406 0.8395674589
7600254400.0 0.545949366 0.8309686286
7650254100.0 0.5576787582 0.8234175022
7700253800.0 0.5692511196 0.8150778893
7750253500.0 0.5809260493 0.8075461359
7800253200.0 0.5912400952 0.7997086332
7850252900.0 0.6011664489 0.7928284464
7900252600.0 0.6126254015 0.7838073395
7950252300.0 0.6216770577 0.7773029896
8000252000.0 0.6315330709 0.7696546201
8050251700.0 0.642264031 0.761394764
8100251400.0 0.6523464839 0.7532069461
8150251100.0 0.6626178587 0.7443917507
8200250800.0 0.6719623827 0.7365059487
8250250500.0 0.6802663107 0.7287054885
8300250200.0 0.6897174409 0.7200408831
8350249900.0 0.6989958051 0.7113491951
8400249600.0 0.7075339315 0.7032155482
8450249300.0 0.7162327584 0.693966029
8500249000.0 0.7249458772 0.685154638
8550248700.0 0.733186337 0.6763371075
8600248400.0 0.7415624023 0.6665690005
8650248100.0 0.7493725499 0.6573517301
8700247800.0 0.7588819645 0.6460480913
8750247500.0 0.7671110159 0.6360193295
8800247200.0 0.7751636263 0.6257986224
8850246900.0 0.7840233022 0.6141551815
8900246600.0 0.7928255501 0.6026878991
8950246300.0 0.8020650374 0.5899753522
9000246000.0 0.8113687975 0.5770921844
9050245700.0 0.8209322979 0.5638988176
9100245400.0 0.8291567372 0.55170678
9150245100.0 0.8384725468 0.5380185873
9200244800.0 0.8484016367 0.5223638132
9250244500.0 0.8580801115 0.5068952074
9300244200.0 0.8659985164 0.4923961491
9350243900.0 0.8739311052 0.4782275319
9400243600.0 0.8804678637 0.4659402035
9450243300.0 0.8864016419 0.4543055168
9500243000.0 0.8927870931 0.4420868674
9550242700.0 0.8966480133 0.434357789
9600242400.0 0.900303382 0.4268932464
9650242100.0 0.9037218998 0.420841119
9700241800.0 0.9085043751 0.4122521725
9750241500.0 0.9121018772 0.4050959547
9800241200.0 0.9170660093 0.3955771802
9850240900.0 0.9227319585 0.3839472641
9900240600.0 0.9283671813 0.3723153061
9950240300.0 0.9349568077 0.3564422089
10000240000.0 0.9396684897 0.3446659227
10050239700.0 0.9448717558 0.3296868432
10100239400.0 0.9502156784 0.3138190264
10150239100.0 0.9545348991 0.2993691687
10200238800.0 0.9584940071 0.2842347441
10250238500.0 0.9618209033 0.2708482147
10300238200.0 0.9649427682 0.2569204502
10350237900.0 0.9676206764 0.2439663652
10400237600.0 0.9699594535 0.230912616
10450237300.0 0.9728551823 0.2171357657
10500237000.0 0.9749521741 0.2051158243
10550236700.0 0.9773065913 0.1909535875
10600236400.0 0.979494448 0.1769016326
10650236100.0 0.9816075696 0.1627707317
10700235800.0 0.9836935613 0.1507430262
10750235500.0 0.9858610384 0.1374915273
10800235200.0 0.988144112 0.1235405169
10850234900.0 0.9898528001 0.1089200984
10900234600.0 0.9917505648 0.094367826
10950234300.0 0.9934057508 0.0811382166
11000234000.0 0.9952482932 0.065944124
11050233700.0 0.9971414527 0.0496776685
11100233400.0 0.998442617 0.0321523778
11150233100.0 0.9995170052 0.0156992219
11200232800.0 1.000095823 0.0006097881
11250232500.0 1.001115671 -0.0157841602
11300232200.0 1.002048147 -0.0339250236
11350231900.0 1.001739333 -0.0498477648
11400231600.0 1.001347953 -0.0643286194
11450231300.0 1.000826505 -0.0800281842
11500231000.0 0.9997816477 -0.0971890209
11550230700.0 0.9978084658 -0.1103725637
11600230400.0 0.9967744243 -0.1239626222
11650230100.0 0.9945496854 -0.1351468353
11700229800.0 0.9926567706 -0.1497310037
11750229500.0 0.990446788 -0.1644385874
11800229200.0 0.9875121999 -0.178240092
11850228900.0 0.984039842 -0.1903725964
11900228600.0 0.9806798288 -0.2001162877
11950228300.0 0.9772423095 -0.2107571738
12000228000.0 0.9746052889 -0.2199956645
12050227700.0 0.9705426567 -0.2324032009
12100227400.0 0.9677775788 -0.243563491
12150227100.0 0.962599229 -0.2607533105
12200226800.0 0.9592014145 -0.2706476827
12250226500.0 0.9554251116 -0.2832093038
12300226200.0 0.9510656514 -0.2954044457
12350225900.0 0.945617357 -0.309621346
12400225600.0 0.9422702076 -0.3224587228
12450225300.0 0.9374914645 -0.3345469828
12500225000.0 0.9316013701 -0.3492873993
12550224700.0 0.9266604571 -0.3633599799
12600224400.0 0.9216883358 -0.3760398646
12650224100.0 0.9158256589 -0.3903627102
12700223800.0 0.9106100602 -0.4030100563
12750223500.0 0.9053319824 -0.4159787987
12800223200.0 0.8998151825 -0.4283255707
12850222900.0 0.8946135794 -0.4408703934
12900222600.0 0.8886792836 -0.4525594851
12950222300.0 0.8824744627 -0.4653337165
13000222000.0 0.8763699803 -0.4769575354
13050221700.0 0.8695472176 -0.4898989627
13100221400.0 0.8626173786 -0.5019467113
13150221100.0 0.8559877862 -0.5141623373
13200220800.0 0.8491758034 -0.5260460978
13250220500.0 0.8415952757 -0.5378945341
13300220200.0 0.8341599899 -0.5488405536
13350219900.0 0.8262180327 -0.5607577437
13400219600.0 0.8177710019 -0.5732602169
13450219300.0 0.8079569796 -0.5870472318
13500219000.0 0.7979892553 -0.6006796349
13550218700.0 0.787484582 -0.6138102086
13600218400.0 0.7774356709 -0.6255633316
13650218100.0 0.7678095229 -0.6367048824
13700217800.0 0.7557014425 -0.6499871087
13750217500.0 0.7463105734 -0.660470483
13800217200.0 0.7356887765 -0.671649402
13850216900.0 0.7245605627 -0.6833410653
13900216600.0 0.7145704549 -0.6929762514
13950216300.0 0.703515199 -0.7028814509
14000216000.0 0.6933742 -0.7126685313
14050215700.0 0.684224617 -0.7208033205
14100215400.0 0.6741810908 -0.7295651001
14150215100.0 0.6650073027 -0.737933115
14200214800.0 0.6557278214 -0.7463948461
14250214500.0 0.6455200879 -0.7556827006
14300214200.0 0.6351567978 -0.7647756059
14350213900.0 0.6243372706 -0.7744281155
14400213600.0 0.612412436 -0.7836080983
14450213300.0 0.5991954875 -0.7944208345
14500213000.0 0.5863242259 -0.8039623214
14550212700.0 0.573647098 -0.8136101657
14600212400.0 0.5616008749 -0.8217096473
14650212100.0 0.5483598369 -0.831154124
14700211800.0 0.5343397332 -0.8405009267
14750211500.0 0.5221344078 -0.8485946913
14800211200.0 0.5099026191 -0.8567454643
14850210900.0 0.4975998395 -0.8642448759
14900210600.0 0.4842939957 -0.8721745491
14950210300.0 0.4708547836 -0.8796853253
15000210000.0 0.4580699484 -0.8867194404
15050209700.0 0.4457037546 -0.8927685607
15100209400.0 0.4328277248 -0.8986548655
15150209100.0 0.420550064 -0.9039372441
15200208800.0 0.4078040488 -0.9095186007
15250208500.0 0.3959145087 -0.9138888907
15300208200.0 0.3841119551 -0.9193329751
15350207900.0 0.3708076571 -0.9237159067
15400207600.0 0.3558313295 -0.9290177467
15450207300.0 0.3412206832 -0.9338666723
15500207000.0 0.326712116 -0.9392913442
15550206700.0 0.312077156 -0.9433961448
15600206400.0 0.2957550452 -0.9481230032
15650206100.0 0.2806057847 -0.9521396331
15700205800.0 0.2663724056 -0.9557945291
15750205500.0 0.2518375091 -0.9592011966
15800205200.0 0.2374687994 -0.9627293271
15850204900.0 0.2229641838 -0.966006264
15900204600.0 0.2078664029 -0.9697545289
15950204300.0 0.1939160432 -0.9726027457
16000204000.0 0.179826569 -0.9752118967
16050203700.0 0.1651114897 -0.9779583353
16100203400.0 0.1507495794 -0.9801072664
16150203100.0 0.1366753843 -0.9824767347
16200202800.0 0.1224136689 -0.9845521659
16250202500.0 0.1072151139 -0.9862075737
16300202200.0 0.0924927944 -0.987546625
16350201900.0 0.0774702678 -0.9887981839
16400201600.0 0.0629224691 -0.9904089297
16450201300.0 0.0476320525 -0.99122253
16500201000.0 0.0311085954 -0.9919325676
16550200700.0 0.0152329593 -0.9923935273
16600200400.0 -0.0004339136 -0.9926471658
16650200100.0 -0.016628647 -0.9925849143
16700199800.0 -0.0333533178 -0.992223359
16750199500.0 -0.0521081535 -0.9915807706
16800199200.0 -0.0677310753 -0.9909005983
16850198900.0 -0.0833426674 -0.9890259482
16900198600.0 -0.096732233 -0.9884235624
16950198300.0 -0.1107091021 -0.9866056424
17000198000.0 -0.1236172498 -0.9860051103
17050197700.0 -0.1357474819 -0.9839547088
17100197400.0 -0.149008575 -0.9817041657
17150197100.0 -0.1609477286 -0.9799721281
17200196800.0 -0.1740980083 -0.9777324321
17250196500.0 -0.1870327814 -0.9753245176
17300196200.0 -0.1990540076 -0.9730942823
17350195900.0 -0.2108088601 -0.9707163314
17400195600.0 -0.2231244904 -0.9682132189
17450195300.0 -0.2361013349 -0.965458575
17500195000.0 -0.2495900836 -0.9620522209
17550194700.0 -0.2636729164 -0.9584898729
17600194400.0 -0.2775088353 -0.9545597099
17650194100.0 -0.2908868447 -0.9504400548
17700193800.0 -0.3043742035 -0.9460345388
17750193500.0 -0.3187164029 -0.9415245209
17800193200.0 -0.3332327333 -0.9361166031
17850192900.0 -0.3480648369 -0.9305033808
17900192600.0 -0.3629874484 -0.9249490753
17950192300.0 -0.3785974627 -0.9175556925
18000192000.0 -0.3933853582 -0.910494856
18050191700.0 -0.4072182054 -0.9023318053
18100191400.0 -0.421379966 -0.8946664744
18150191100.0 -0.4365357034 -0.886515633
18200190800.0 -0.4534252403 -0.8773025814
18250190500.0 -0.4702812095 -0.867860369
18300190200.0 -0.4858998883 -0.8592074599
18350189900.0 -0.5006928017 -0.85068041
18400189600.0 -0.515294016 -0.8418397075
18450189300.0 -0.5285831854 -0.8340910325
18500189000.0 -0.5419404097 -0.8262742518
18550188700.0 -0.5544437524 -0.8189884088
18600188400.0 -0.5660074672 -0.8121200608
18650188100.0 -0.5770776271 -0.8056696916
18700187800.0 -0.587919731 -0.7987867465
18750187500.0 -0.5985759 -0.7923410907
18800187200.0 -0.6092345687 -0.7852674331
18850186900.0 -0.6193772946 -0.7783734867
18900186600.0 -0.6297748449 -0.7707593952
18950186300.0 -0.6399029053 -0.7630610747
19000186000.0 -0.6474649208 -0.7568087835
19050185700.0 -0.6562828316 -0.7497246744
19100185400.0 -0.6659127653 -0.7409878112
19150185100.0 -0.6766190012 -0.7326155871
19200184800.0 -0.6854877076 -0.7240146282
19250184500.0 -0.696434607 -0.7158231303
19300184200.0 -0.7077213585 -0.7052384684
19350183900.0 -0.718680777 -0.6960645261
19400183600.0 -0.7278765184 -0.6865032958
19450183300.0 -0.7364440459 -0.675623838
19500183000.0 -0.7446696602 -0.6661960133
19550182700.0 -0.7552346438 -0.6548110477
19600182400.0 -0.7652816944 -0.6434471406
19650182100.0 -0.7763063183 -0.631244545
19700181800.0 -0.7866579898 -0.6179132427
19750181500.0 -0.797425967 -0.6035866619
19800181200.0 -0.807689323 -0.5887378713
19850180900.0 -0.8171954298 -0.5733550664
19900180600.0 -0.824949248 -0.5588168543
19950180300.0 -0.8340256908 -0.5424936961
20000180000.0 -0.8265329821 -0.5452488374
20050179700.0 -0.8353761986 -0.5324759713
20100179400.0 -0.8434119965 -0.5180026467
20150179100.0 -0.8512664464 -0.5053679609
20200178800.0 -0.8602453695 -0.4936263966
20250178500.0 -0.8698246138 -0.4794874142
20300178200.0 -0.8793482452 -0.4648913033
20350177900.0 -0.8889695869 -0.4507220721
20400177600.0 -0.8974064762 -0.4359868139
20450177300.0 -0.9057034966 -0.4218125337
20500177000.0 -0.913564699 -0.4078746915
20550176700.0 -0.9217501912 -0.394287904
20600176400.0 -0.9288222024 -0.3812732392
20650176100.0 -0.9350578254 -0.3686049504
20700175800.0 -0.9419047613 -0.3567785252
20750175500.0 -0.9481732478 -0.3456048627
20800175200.0 -0.952391314 -0.3338482102
20850174900.0 -0.9574564665 -0.3223394991
20900174600.0 -0.9626083828 -0.3109962243
20950174300.0 -0.9662932296 -0.2991283376
21000174000.0 -0.970451147 -0.2884808225
21050173700.0 -0.9726428388 -0.2776075754
21100173400.0 -0.9773461815 -0.2655193092
21150173100.0 -0.9810203731 -0.2528096276
21200172800.0 -0.9844690801 -0.2392945407
21250172500.0 -0.9876615906 -0.2250240477
21300172200.0 -0.9903765386 -0.2109049023
21350171900.0 -0.9922473077 -0.1965134012
21400171600.0 -0.9935454952 -0.182553003
21450171300.0 -0.9932331292 -0.1676942752
21500171000.0 -0.99312245 -0.1522910795
21550170700.0 -0.9929688168 -0.1371268566
21600170400.0 -0.9932989468 -0.1220184218
21650170100.0 -0.9920738984 -0.1045137969
21700169800.0 -0.9909546088 -0.0906295077
21750169500.0 -0.9890023352 -0.0748452676
21800169200.0 -0.9883561032 -0.0585755171
21850168900.0 -0.9872013018 -0.0419099332
21900168600.0 -0.9859161718 -0.0260154618
21950168300.0 -0.9843837281 -0.0098074963
22000168000.0 -0.9835335793 0.0049042926
22050167700.0 -0.982737267 0.0192560806
22100167400.0 -0.9828715407 0.0343140574
22150167100.0 -0.9834345107 0.0497461951
22200166800.0 -0.9837471398 0.0659437296
22250166500.0 -0.9832959166 0.0832329878
22300166200.0 -0.9822847285 0.0995253604
22350165900.0 -0.9808828704 0.1166771809
22400165600.0 -0.9789274628 0.1317426994
22450165300.0 -0.9773766672 0.1476992576
22500165000.0 -0.9752320901 0.1597302148
22550164700.0 -0.973894532 0.1758730671
22600164400.0 -0.9726875916 0.1913775736
22650164100.0 -0.9705500405 0.2071101983
22700163800.0 -0.9678093291 0.2223229541
22750163500.0 -0.9659116999 0.2376799518
22800163200.0 -0.9623161581 0.2509810836
22850162900.0 -0.9599590013 0.2648981509
22900162600.0 -0.9585419821 0.2779545429
22950162300.0 -0.9579086589 0.2905787804
23000162000.0 -0.9567218341 0.3020811224
23050161700.0 -0.9546632367 0.3144454454
23100161400.0 -0.9521199219 0.3277481206
23150161100.0 -0.9494323112 0.3402545335
23200160800.0 -0.9460318171 0.3522490562
23250160500.0 -0.9448183889 0.3639792223
23300160200.0 -0.942059661 0.3757288876
23350159900.0 -0.9376625279 0.3893130439
23400159600.0 -0.9331875488 0.4023558421
23450159300.0 -0.9286446253 0.415661082
23500159000.0 -0.9241835406 0.4282095167
23550158700.0 -0.9194851372 0.4417978836
23600158400.0 -0.9139059472 0.4546613712
23650158100.0 -0.9075026514 0.4687255051
23700157800.0 -0.9000465291 0.4826711783
23750157500.0 -0.8910550592 0.4966790138
23800157200.0 -0.8825137729 0.5096814081
23850156900.0 -0.8736618162 0.5220203684
23900156600.0 -0.8644794719 0.5346721979
23950156300.0 -0.8553595027 0.547026269
24000156000.0 -0.8464341334 0.5595655889
24050155700.0 -0.8356285 0.5719541259
24100155400.0 -0.8262650137 0.5832291927
24150155100.0 -0.8152227919 0.594513342
24200154800.0 -0.8040852347 0.6058947196
24250154500.0 -0.7929833636 0.617836363
24300154200.0 -0.7812669393 0.6294617079
24350153900.0 -0.7695715311 0.6397065343
24400153600.0 -0.7572887216 0.6499818409
24450153300.0 -0.7451056953 0.6601148682
24500153000.0 -0.7335936409 0.669750867
24550152700.0 -0.7226107431 0.6794129466
24600152400.0 -0.7109118389 0.6883385582
24650152100.0 -0.7000130093 0.6972881367
