!Created with skrf (http://scikit-rf.org).
# Hz S RI R 50.0 
!freq ReS11 ImS11
300000.0 -0.9770021141 -0.1200922389
50299700.0 -0.9998794996 0.0152221123
100299400.0 -0.9979401368 0.0281129118
150299100.0 -1.002820953 0.0450180342
200298800.0 -0.999569406 0.0584119105
250298500.0 -0.997411705 0.0719622451
300298200.0 -0.9861250887 0.0876447047
350297900.0 -0.993919874 0.0986099326
400297600.0 -0.9932046433 0.1151322952
450297300.0 -0.9910951234 0.1290383162
500297000.0 -0.9893833186 0.1436171229
550296700.0 -0.9842828903 0.1560653246
600296400.0 -1.017415511 0.1893899203
650296100.0 -0.9822373856 0.1861338899
700295800.0 -0.9793309729 0.2003724958
750295500.0 -0.9763197761 0.2144742344
800295200.0 -0.9728291237 0.2284034945
850294900.0 -0.9695697403 0.2421107777
900294600.0 -0.9660048993 0.2558482988
950294300.0 -0.962004575 0.2697350891
1000294000.0 -0.958027503 0.2836385915
1050293700.0 -0.9535851393 0.2975525994
1100293400.0 -0.949282401 0.3118730668
1150293100.0 -0.9454644746 0.32375452
1200292800.0 -0.9402271244 0.3381758379
1250292500.0 -0.9345065352 0.3515903
1300292200.0 -0.9289961656 0.3647037215
1350291900.0 -0.9232409075 0.3787867818
1400291600.0 -0.9180405318 0.3919164613
1450291300.0 -0.9125741059 0.4042370548
1500291000.0 -0.9063511053 0.4176311957
1550290700.0 -0.8997172189 0.4309655035
1600290400.0 -0.8934345639 0.4439727116
1650290100.0 -0.8868166932 0.4562046748
1700289800.0 -0.8799792153 0.4696126428
1750289500.0 -0.8726775679 0.4818082483
1800289200.0 -0.8656865083 0.4947555416
1850288900.0 -0.858748001 0.5059566831
1900288600.0 -0.851101989 0.5190864009
1950288300.0 -0.8428609508 0.5315650224
2000288000.0 -0.835595193 0.5430919766
2050287700.0 -0.8272316185 0.5553370333
2100287400.0 -0.8192391149 0.5669022564
2150287100.0 -0.8107493973 0.5789185169
2200286800.0 -0.8030393525 0.589139711
2250286500.0 -0.7938992661 0.6013252271
2300286200.0 -0.7852677909 0.6130607061
2350285900.0 -0.7765776623 0.6238789912
2400285600.0 -0.7675526769 0.6350538891
2450285300.0 -0.7590620185 0.6452644649
2500285000.0 -0.7492361098 0.6567959559
2550284700.0 -0.7404031618 0.6668392883
2600284400.0 -0.7310930107 0.6769865537
2650284100.0 -0.7219785803 0.6876969601
2700283800.0 -0.7114094593 0.6983090781
2750283500.0 -0.7012378739 0.708803889
2800283200.0 -0.6913194718 0.718440337
2850282900.0 -0.681197024 0.7285203642
2900282600.0 -0.6706533991 0.7380168548
2950282300.0 -0.6605537353 0.7473224579
3000282000.0 -0.6498719262 0.7564964671
3050281700.0 -0.638627234 0.7659044149
3100281400.0 -0.6268271499 0.7752615047
3150281100.0 -0.614987422 0.7846609342
3200280800.0 -0.6033593646 0.792987507
3250280500.0 -0.5925165927 0.8008184118
3300280200.0 -0.5812568486 0.8086151649
3350279900.0 -0.5698270087 0.81631471
3400279600.0 -0.5573591641 0.8241952175
3450279300.0 -0.546481736 0.8310955509
3500279000.0 -0.5342733039 0.8382198495
3550278700.0 -0.5218370182 0.8457284742
3600278400.0 -0.5098451114 0.8524288555
3650278100.0 -0.4965533328 0.8604759634
3700277800.0 -0.4844633398 0.8666774652
3750277500.0 -0.4721726627 0.8730325506
3800277200.0 -0.4599015756 0.8796331137
3850276900.0 -0.448002341 0.8855381933
3900276600.0 -0.4369270706 0.8911081456
3950276300.0 -0.4243424323 0.8975536443
4000276000.0 -0.4125866688 0.9034570725
4050275700.0 -0.3996726487 0.9094171008
4100275400.0 -0.3886332215 0.9150608264
4150275100.0 -0.3756728186 0.9204584667
4200274800.0 -0.3628671054 0.9260862181
4250274500.0 -0.3505321025 0.9315545742
4300274200.0 -0.3376206982 0.9368574606
4350273900.0 -0.3236779279 0.9421607325
4400273600.0 -0.3089751897 0.947164951
4450273300.0 -0.2936371874 0.9521718342
4500273000.0 -0.2800158249 0.9568011594
4550272700.0 -0.2659321854 0.9607313159
4600272400.0 -0.2504129182 0.9649917458
4650272100.0 -0.2387610838 0.9682198225
4700271800.0 -0.2255199577 0.971637243
4750271500.0 -0.2137303567 0.9743299465
4800271200.0 -0.201314837 0.9771169803
4850270900.0 -0.1874743912 0.9799042073
4900270600.0 -0.1734235598 0.9825279322
4950270300.0 -0.1590583549 0.9848794084
5000270000.0 -0.1448654053 0.9872839385
5050269700.0 -0.1313610647 0.9886255226
5100269400.0 -0.1175630869 0.9905274067
5150269100.0 -0.1043756844 0.9919556696
5200268800.0 -0.0909893525 0.9930969846
5250268500.0 -0.0778591976 0.9941036693
5300268200.0 -0.0646863667 0.9945987956
5350267900.0 -0.0526350695 0.9953302488
5400267600.0 -0.0363377005 0.9963067865
5450267300.0 -0.0231646826 0.9966047607
5500267000.0 -0.0080317538 0.9971495171
5550266700.0 0.0068448487 0.9973371435
5600266400.0 0.0224538158 0.9974341828
5650266100.0 0.0390021143 0.9968240344
5700265800.0 0.0535660826 0.9962048618
5750265500.0 0.0683495098 0.9949740738
5800265200.0 0.0823088386 0.9944411537
5850264900.0 0.0955946802 0.993118577
5900264600.0 0.1120874122 0.9918152015
5950264300.0 0.1242380596 0.9899847256
6000264000.0 0.1384130915 0.9882292702
6050263700.0 0.1505486714 0.986570564
6100263400.0 0.1628946516 0.9853033402
6150263100.0 0.177654986 0.9826156896
6200262800.0 0.1878423237 0.9809650849
6250262500.0 0.2006743829 0.9784158824
6300262200.0 0.2134741534 0.9757021961
6350261900.0 0.226454396 0.9728920482
6400261600.0 0.2403296443 0.9695095464
6450261300.0 0.2516406302 0.9668717921
6500261000.0 0.2644482003 0.9634433415
6550260700.0 0.2773478256 0.9593147183
6600260400.0 0.2907925155 0.9551920271
6650260100.0 0.3046603533 0.9506957183
6700259800.0 0.3168346506 0.9466428365
6750259500.0 0.3306817489 0.9415928701
6800259200.0 0.3441586795 0.9369737083
6850258900.0 0.3557987669 0.9313304479
6900258600.0 0.3679602564 0.9266391295
6950258300.0 0.3806490081 0.9212333371
7000258000.0 0.3925615052 0.9157409068
7050257700.0 0.4047958527 0.909874699
7100257400.0 0.4175403267 0.9034846061
7150257100.0 0.4281209826 0.8982926713
7200256800.0 0.4409813308 0.892032504
7250256500.0 0.4531704249 0.885563703
7300256200.0 0.4657061051 0.8783542742
7350255900.0 0.4784190004 0.8716567495
7400255600.0 0.4916691082 0.8646133046
7450255300.0 0.5072010094 0.8559387994
7500255000.0 0.5187974447 0.8484507026
7550254700.0 0.5318390117 0.8399727643
7600254400.0 0.5452381791 0.8317728906
7650254100.0 0.5561344822 0.8240198484
7700253800.0 0.5683661126 0.815957752
7750253500.0 0.5794957488 0.8082411118
7800253200.0 0.5903555084 0.8005854469
7850252900.0 0.5998957461 0.7937173205
7900252600.0 0.6116355941 0.78486391
7950252300.0 0.6204437974 0.7783127627
8000252000.0 0.6306010429 0.7707276888
8050251700.0 0.6411519712 0.7624728351
8100251400.0 0.651113735 0.7543468201
8150251100.0 0.6611886039 0.7455439463
8200250800.0 0.6705561917 0.7376002175
8250250500.0 0.6795980099 0.7298872963
8300250200.0 0.6891905062 0.7212410795
8350249900.0 0.6977019476 0.712432094
8400249600.0 0.7060922632 0.7045946317
8450249300.0 0.7154989137 0.6951645226
8500249000.0 0.7240691627 0.6863075318
8550248700.0 0.7320838586 0.6771628057
8600248400.0 0.7405810878 0.6677490554
8650248100.0 0.7484248458 0.6583839928
8700247800.0 0.7578320354 0.6470458315
8750247500.0 0.7662603906 0.6370268075
8800247200.0 0.7741455703 0.6266377366
8850246900.0 0.783438529 0.6152032533
8900246600.0 0.791690715 0.6038083162
8950246300.0 0.8012818851 0.5908847741
9000246000.0 0.8104553177 0.5780014962
9050245700.0 0.8195941605 0.5651649159
9100245400.0 0.8279454966 0.552862604
9150245100.0 0.8374970306 0.5392385693
9200244800.0 0.8470768625 0.5242931453
9250244500.0 0.8565091401 0.5088407167
9300244200.0 0.8648780812 0.4943545608
9350243900.0 0.8727136087 0.4806108156
9400243600.0 0.8795080274 0.4680983183
9450243300.0 0.8852148794 0.456674877
9500243000.0 0.8913968525 0.4445613049
9550242700.0 0.8953942509 0.4367747067
9600242400.0 0.8992789742 0.4294975958
9650242100.0 0.9027761653 0.423033659
9700241800.0 0.9077919395 0.4145429842
9750241500.0 0.9113845547 0.4071876204
9800241200.0 0.9161334181 0.3980654713
9850240900.0 0.9218762956 0.3863759243
9900240600.0 0.9274608403 0.3746466221
9950240300.0 0.9341092066 0.3586006353
10000240000.0 0.9388792417 0.3469715737
10050239700.0 0.9445494615 0.33147964
10100239400.0 0.9493569709 0.3160624128
10150239100.0 0.9537361503 0.3011900421
10200238800.0 0.9582260701 0.2861101787
10250238500.0 0.961470677 0.2729341427
10300238200.0 0.9645890058 0.25884802
10350237900.0 0.9671492391 0.2457762466
10400237600.0 0.9696882024 0.2326864788
10450237300.0 0.9725359527 0.2189822
10500237000.0 0.9744591522 0.207039951
10550236700.0 0.9764930805 0.1930979748
10600236400.0 0.9790986884 0.1787491454
10650236100.0 0.981248415 0.1641484929
10700235800.0 0.9835689278 0.1518524992
10750235500.0 0.985850542 0.1380387857
10800235200.0 0.9876815086 0.12417798
10850234900.0 0.9896449044 0.109848383
10900234600.0 0.9918737201 0.09523623
10950234300.0 0.9934819027 0.082032389
11000234000.0 0.9951591023 0.0670055398
11050233700.0 0.9969985488 0.050576014
11100233400.0 0.9983776703 0.0333131266
11150233100.0 0.9993900667 0.0172247482
11200232800.0 1.000157348 0.0019726891
11250232500.0 1.001131864 -0.014689097
11300232200.0 1.001236412 -0.0323553933
11350231900.0 1.002289577 -0.0479693298
11400231600.0 1.001376565 -0.0639321119
11450231300.0 1.001150398 -0.0794813237
11500231000.0 1.000422861 -0.09546571
11550230700.0 0.9985030777 -0.108949023
11600230400.0 0.9975412999 -0.1216065959
11650230100.0 0.9948420658 -0.1319142958
11700229800.0 0.9932284173 -0.1475291691
11750229500.0 0.9908404728 -0.1617846044
11800229200.0 0.9880453583 -0.1755149358
11850228900.0 0.9847334201 -0.1878213696
11900228600.0 0.9812012303 -0.1975391462
11950228300.0 0.9775023564 -0.2083684139
12000228000.0 0.9749989923 -0.2173474237
12050227700.0 0.9713781749 -0.2300173001
12100227400.0 0.9683878478 -0.2413236815
12150227100.0 0.9630060734 -0.2582057187
12200226800.0 0.9605799479 -0.2682469298
12250226500.0 0.9559866387 -0.2816736378
12300226200.0 0.9514447898 -0.2939404912
12350225900.0 0.9462888278 -0.307387353
12400225600.0 0.9422643396 -0.3211918713
12450225300.0 0.9378736282 -0.3333676312
12500225000.0 0.932601069 -0.3484474957
12550224700.0 0.9269318215 -0.3622019259
12600224400.0 0.9221449765 -0.3748354394
12650224100.0 0.9163090289 -0.3892886385
12700223800.0 0.9109533439 -0.4022147914
12750223500.0 0.9055010644 -0.4152640018
12800223200.0 0.900312784 -0.4275761965
12850222900.0 0.895130953 -0.4398910145
12900222600.0 0.8893672735 -0.4518802506
12950222300.0 0.8827131697 -0.4650541623
13000222000.0 0.8769935572 -0.476336228
13050221700.0 0.8700730424 -0.4887158128
13100221400.0 0.8630720778 -0.5011827141
13150221100.0 0.856746775 -0.5132502375
13200220800.0 0.8498982232 -0.5245211837
13250220500.0 0.8426630187 -0.5368541084
13300220200.0 0.8350439324 -0.5474926845
13350219900.0 0.8271249638 -0.5596053662
13400219600.0 0.81896454 -0.5716469956
13450219300.0 0.8092863352 -0.5851559682
13500219000.0 0.7995590473 -0.5988746917
13550218700.0 0.7893052771 -0.6114716896
13600218400.0 0.7788517742 -0.6241288874
13650218100.0 0.7691805866 -0.6347446341
13700217800.0 0.7588568557 -0.6471667527
13750217500.0 0.7492641672 -0.658672759
13800217200.0 0.7366199595 -0.6702714139
13850216900.0 0.7264004523 -0.6819680664
13900216600.0 0.7170333186 -0.6909926093
13950216300.0 0.7060226184 -0.6999984664
14000216000.0 0.6955021605 -0.71008578
14050215700.0 0.6862929473 -0.7186451778
14100215400.0 0.676305281 -0.7276846403
14150215100.0 0.6668001204 -0.736105934
14200214800.0 0.6577223415 -0.7446359593
14250214500.0 0.6474767985 -0.7541605402
14300214200.0 0.6369482203 -0.7634261658
14350213900.0 0.6258339879 -0.7729379921
14400213600.0 0.6140534674 -0.782685543
14450213300.0 0.6009981588 -0.7928458393
14500213000.0 0.5879789752 -0.8029667549
14550212700.0 0.5750715039 -0.8120540032
14600212400.0 0.563009199 -0.8210011593
14650212100.0 0.5502066596 -0.8297385074
14700211800.0 0.5361502872 -0.8397750737
14750211500.0 0.5237296651 -0.8480541904
14800211200.0 0.5114810376 -0.8559395137
14850210900.0 0.4993575497 -0.8631497045
14900210600.0 0.4862389721 -0.8711756285
14950210300.0 0.4728272916 -0.8787195237
15000210000.0 0.460231293 -0.8856546552
15050209700.0 0.4477511637 -0.89163539
15100209400.0 0.4352452075 -0.8981270154
15150209100.0 0.422980975 -0.902755345
15200208800.0 0.4099434696 -0.908217622
15250208500.0 0.3988391287 -0.9130730622
15300208200.0 0.3867467495 -0.918025129
15350207900.0 0.3743352136 -0.9222202596
15400207600.0 0.3592882773 -0.9280974274
15450207300.0 0.34494129 -0.9329324946
15500207000.0 0.330510523 -0.9370214956
15550206700.0 0.3154570774 -0.9427489129
15600206400.0 0.2989445397 -0.9473158597
15650206100.0 0.2834342294 -0.9513741621
15700205800.0 0.269638286 -0.9549831263
15750205500.0 0.2550638794 -0.9583485798
15800205200.0 0.240635427 -0.9619947258
15850204900.0 0.2262890271 -0.9653907424
15900204600.0 0.2111351327 -0.9690879917
15950204300.0 0.1971493633 -0.9720032686
16000204000.0 0.1829679643 -0.9747610718
16050203700.0 0.1677417266 -0.9776862043
16100203400.0 0.1530566626 -0.9799667763
16150203100.0 0.1390193138 -0.9825361848
16200202800.0 0.1247156757 -0.9845155452
16250202500.0 0.1100518503 -0.9863225614
16300202200.0 0.0941237681 -0.9876022899
16350201900.0 0.0795918273 -0.989452096
16400201600.0 0.0651034954 -0.990278936
16450201300.0 0.0494714841 -0.9912372596
16500201000.0 0.0327362949 -0.9920440633
16550200700.0 0.017205213 -0.9926487123
16600200400.0 0.0017293138 -0.992722829
16650200100.0 -0.0144764904 -0.992766175
16700199800.0 -0.0306619259 -0.9929036183
16750199500.0 -0.0496532536 -0.9922038564
16800199200.0 -0.0653377349 -0.990638109
16850198900.0 -0.0798188277 -0.9902453169
16900198600.0 -0.0945357041 -0.9886065027
16950198300.0 -0.1076346672 -0.9875779331
17000198000.0 -0.1203387287 -0.9864542585
17050197700.0 -0.1329774489 -0.9843423803
17100197400.0 -0.146333391 -0.9817944163
17150197100.0 -0.1581551852 -0.9799707232
17200196800.0 -0.1714412157 -0.9778134307
17250196500.0 -0.1844579094 -0.9758524089
17300196200.0 -0.1967700181 -0.9735671102
17350195900.0 -0.2085020665 -0.9711843135
17400195600.0 -0.2206359866 -0.9688939482
17450195300.0 -0.2337165914 -0.9659540675
17500195000.0 -0.2470713857 -0.9627401791
17550194700.0 -0.2610283086 -0.9591711302
17600194400.0 -0.275083112 -0.9549986564
17650194100.0 -0.2887283325 -0.9506449997
17700193800.0 -0.3019657615 -0.9466807421
17750193500.0 -0.3159491459 -0.941993693
17800193200.0 -0.3306342007 -0.9371545036
17850192900.0 -0.3455695732 -0.9315859886
17900192600.0 -0.3606244256 -0.9256740998
17950192300.0 -0.3765419841 -0.9184895265
18000192000.0 -0.3913847299 -0.9110987235
18050191700.0 -0.4052033711 -0.9032454303
18100191400.0 -0.4195028997 -0.8957119413
18150191100.0 -0.4344858344 -0.8876919676
18200190800.0 -0.4515109932 -0.8784850907
18250190500.0 -0.4683287006 -0.8691317429
18300190200.0 -0.4836531785 -0.860872607
18350189900.0 -0.4989728759 -0.8521336992
18400189600.0 -0.5130874627 -0.8439621413
18450189300.0 -0.5266533669 -0.8364742672
18500189000.0 -0.5396211828 -0.8277582929
18550188700.0 -0.5524885105 -0.8205150361
18600188400.0 -0.5645839622 -0.8134734569
18650188100.0 -0.5752562488 -0.8070364953
18700187800.0 -0.586068539 -0.8006748861
18750187500.0 -0.59657684 -0.7939581631
18800187200.0 -0.6071649095 -0.7872015543
18850186900.0 -0.6173602957 -0.780204261
18900186600.0 -0.6273896148 -0.7729099464
18950186300.0 -0.6375517226 -0.7653329995
19000186000.0 -0.6447288018 -0.7593354829
19050185700.0 -0.6542872716 -0.7518623672
19100185400.0 -0.6641078395 -0.7435430022
19150185100.0 -0.6739511223 -0.7348584596
19200184800.0 -0.6835583312 -0.7269558115
19250184500.0 -0.6930647931 -0.7178948176
19300184200.0 -0.7053196152 -0.7083061078
19350183900.0 -0.715573892 -0.6980645289
19400183600.0 -0.7253861373 -0.6890773207
19450183300.0 -0.7340569809 -0.6783652271
19500183000.0 -0.742498076 -0.6687069956
19550182700.0 -0.7524411834 -0.6576595055
19600182400.0 -0.7629034172 -0.64595207
19650182100.0 -0.7735732135 -0.6337525308
19700181800.0 -0.7843138308 -0.6202336238
19750181500.0 -0.7949095602 -0.6059318295
19800181200.0 -0.8052955943 -0.5911137755
19850180900.0 -0.8152314086 -0.5756523964
19900180600.0 -0.8227991746 -0.5611002752
19950180300.0 -0.8325240589 -0.5447097938
20000180000.0 -0.8251794183 -0.5478115786
20050179700.0 -0.8344529147 -0.5345570379
20100179400.0 -0.8421620889 -0.5200245412
20150179100.0 -0.8506054659 -0.5091483281
20200178800.0 -0.8584213485 -0.4947222505
20250178500.0 -0.8689483162 -0.4815393056
20300178200.0 -0.8784322375 -0.4672312653
20350177900.0 -0.8874791569 -0.4529578176
20400177600.0 -0.8958805507 -0.4384571761
20450177300.0 -0.9045868666 -0.4241689353
20500177000.0 -0.9125011912 -0.4104199914
20550176700.0 -0.9207027303 -0.3967166851
20600176400.0 -0.9277734731 -0.3836529366
20650176100.0 -0.933795213 -0.3714033233
20700175800.0 -0.9407221218 -0.3595200098
20750175500.0 -0.947171856 -0.3473056494
20800175200.0 -0.9516507279 -0.3370485544
20850174900.0 -0.9572763778 -0.3261221621
20900174600.0 -0.9614454018 -0.3150624595
20950174300.0 -0.9654403503 -0.3032186191
21000174000.0 -0.9688105224 -0.2917704838
21050173700.0 -0.9711783973 -0.2809362123
21100173400.0 -0.975385395 -0.2694659565
21150173100.0 -0.9792917238 -0.2568633864
21200172800.0 -0.9826717548 -0.242991423
21250172500.0 -0.9856968234 -0.2296589248
21300172200.0 -0.9894117548 -0.2157529751
21350171900.0 -0.9899634732 -0.2013873792
21400171600.0 -0.9914737973 -0.1869032934
21450171300.0 -0.9922809232 -0.1726407857
21500171000.0 -0.9916281501 -0.1564863752
21550170700.0 -0.9920311741 -0.1415507245
21600170400.0 -0.9923690014 -0.1259777
21650170100.0 -0.9918485858 -0.1102360266
21700169800.0 -0.9907085291 -0.0951680292
21750169500.0 -0.9887648458 -0.0779428551
21800169200.0 -0.9883097871 -0.0629735877
21850168900.0 -0.9872150984 -0.0469205132
21900168600.0 -0.9856559921 -0.029923102
21950168300.0 -0.9850843563 -0.0138413912
22000168000.0 -0.9843048311 0.001281349
22050167700.0 -0.9842646253 0.0154899956
22100167400.0 -0.9839919707 0.0306140783
22150167100.0 -0.9847743369 0.0461133549
22200166800.0 -0.9854733797 0.0626311529
22250166500.0 -0.985021155 0.0798347405
22300166200.0 -0.9843215697 0.0969295252
22350165900.0 -0.9825655214 0.1124171232
22400165600.0 -0.9809254961 0.1283061615
22450165300.0 -0.9796045795 0.1431790225
22500165000.0 -0.9776580015 0.1579367055
22550164700.0 -0.9762517864 0.1719555956
22600164400.0 -0.9747256685 0.1882218197
22650164100.0 -0.9735991431 0.2020725492
22700163800.0 -0.9696154198 0.2185204351
22750163500.0 -0.9666935299 0.2342112315
22800163200.0 -0.9639455906 0.247184769
22850162900.0 -0.961656022 0.2605198696
22900162600.0 -0.9603147015 0.2737674452
22950162300.0 -0.9593182419 0.286511922
23000162000.0 -0.9583098644 0.2985406653
23050161700.0 -0.9558811152 0.3112693651
23100161400.0 -0.953468436 0.3237703401
23150161100.0 -0.9508682349 0.3367915811
23200160800.0 -0.9478239038 0.3491609848
23250160500.0 -0.9448379461 0.3603604888
23300160200.0 -0.9427246071 0.3735018283
23350159900.0 -0.938345649 0.3860663036
23400159600.0 -0.9342749412 0.3991385284
23450159300.0 -0.9292895184 0.4127847723
23500159000.0 -0.924767361 0.4251712271
23550158700.0 -0.9198875855 0.4389692308
23600158400.0 -0.9148880995 0.4526216813
23650158100.0 -0.9086324961 0.4662946453
23700157800.0 -0.9009134313 0.4801868573
23750157500.0 -0.8924367617 0.4942760959
23800157200.0 -0.883460302 0.5074546487
23850156900.0 -0.8750707799 0.5204911317
23900156600.0 -0.8654884926 0.5329320772
23950156300.0 -0.8565724604 0.5448670995
24000156000.0 -0.8474935359 0.5570950268
24050155700.0 -0.8376459142 0.5691960602
24100155400.0 -0.8274618535 0.5811937014
24150155100.0 -0.8165424768 0.5925892257
24200154800.0 -0.8060742556 0.6045825409
24250154500.0 -0.7950468388 0.6161648217
24300154200.0 -0.7834545604 0.6275513112
24350153900.0 -0.7708842631 0.6380461799
24400153600.0 -0.7590570402 0.6487256567
24450153300.0 -0.7476110296 0.658359215
24500153000.0 -0.7359979911 0.6679578587
24550152700.0 -0.7249139259 0.6776118361
24600152400.0 -0.7135833859 0.6866147944
24650152100.0 -0.7015614039 0.695676311
