!Created with skrf (http://scikit-rf.org).
# Hz S RI R 50.0 
!freq ReS11 ImS11
300000.0 -0.9741171313 -0.1206809378
50299700.0 -0.9998494428 0.0150193455
100299400.0 -0.9979334513 0.0279694673
150299100.0 -1.002659343 0.0449841291
200298800.0 -0.9994254288 0.0582150848
250298500.0 -0.9974322515 0.0717455798
300298200.0 -0.98601777 0.0874068751
350297900.0 -0.9939670029 0.0982732238
400297600.0 -0.9932385168 0.1149368361
450297300.0 -0.9909258269 0.1287583627
500297000.0 -0.9893882146 0.1434825864
550296700.0 -0.9845970199 0.1559328311
600296400.0 -1.017308528 0.1892924974
650296100.0 -0.9820826745 0.1858910482
700295800.0 -0.9792116693 0.2001111627
750295500.0 -0.976417387 0.21406449
800295200.0 -0.9732209475 0.2279697717
850294900.0 -0.9695498497 0.2417553631
900294600.0 -0.965876968 0.2555353033
950294300.0 -0.9621958887 0.2693520874
1000294000.0 -0.9582837419 0.2832079393
1050293700.0 -0.9535974873 0.297020997
1100293400.0 -0.949358318 0.3115779379
1150293100.0 -0.9454674139 0.3235173007
1200292800.0 -0.9402260658 0.3378472696
1250292500.0 -0.9346234233 0.3511310915
1300292200.0 -0.9288366683 0.3644426529
1350291900.0 -0.92354387 0.3785867677
1400291600.0 -0.9180751565 0.391551893
1450291300.0 -0.9125291195 0.4040992443
1500291000.0 -0.9061003268 0.4175033147
1550290700.0 -0.8996866136 0.4306016728
1600290400.0 -0.89342958 0.4434911897
1650290100.0 -0.8869399677 0.4558113549
1700289800.0 -0.8797255836 0.4693199436
1750289500.0 -0.8731142957 0.4814600013
1800289200.0 -0.8655738739 0.49448655
1850288900.0 -0.8585748824 0.5057646523
1900288600.0 -0.8509810136 0.5188398421
1950288300.0 -0.8429926441 0.5313732115
2000288000.0 -0.8352437002 0.5427623911
2050287700.0 -0.8271851279 0.5554271486
2100287400.0 -0.8193633107 0.5664866294
2150287100.0 -0.8109207825 0.5785920009
2200286800.0 -0.8029114263 0.5890780588
2250286500.0 -0.7940464442 0.6014104857
2300286200.0 -0.7853483706 0.6127597712
2350285900.0 -0.7768139007 0.6233351859
2400285600.0 -0.7679225423 0.6343803974
2450285300.0 -0.7592222986 0.6451989276
2500285000.0 -0.7491698827 0.6564970483
2550284700.0 -0.740008445 0.6670009009
2600284400.0 -0.7308398878 0.6770213885
2650284100.0 -0.7223781694 0.6871310344
2700283800.0 -0.711600219 0.6975238855
2750283500.0 -0.7015167346 0.7081909103
2800283200.0 -0.69156286 0.7182798239
2850282900.0 -0.6813305831 0.7281545115
2900282600.0 -0.6705664053 0.7377697532
2950282300.0 -0.6602792289 0.7473897487
3000282000.0 -0.6496083929 0.7568677767
3050281700.0 -0.6384690706 0.7659027233
3100281400.0 -0.626869697 0.774990964
3150281100.0 -0.6155257564 0.7839739624
3200280800.0 -0.6041811598 0.7924334647
3250280500.0 -0.5930227453 0.8002915833
3300280200.0 -0.5813902632 0.8084767622
3350279900.0 -0.5692124832 0.8165730289
3400279600.0 -0.5566780981 0.8247187957
3450279300.0 -0.5454439728 0.8315994455
3500279000.0 -0.5338704877 0.8383334364
3550278700.0 -0.5216211124 0.8454168927
3600278400.0 -0.5099461529 0.8524592641
3650278100.0 -0.4969011799 0.8599076504
3700277800.0 -0.4844881769 0.8663699494
3750277500.0 -0.4721487395 0.8730924672
3800277200.0 -0.459757565 0.8797307865
3850276900.0 -0.4475992299 0.8856495689
3900276600.0 -0.4367651863 0.8913130522
3950276300.0 -0.4245203809 0.8973601877
4000276000.0 -0.4130543317 0.9032424542
4050275700.0 -0.4003871508 0.9092213667
4100275400.0 -0.3892793248 0.9146255546
4150275100.0 -0.3760195509 0.9206239572
4200274800.0 -0.3625934084 0.9260780558
4250274500.0 -0.3499533142 0.9312659699
4300274200.0 -0.3366787247 0.9367359848
4350273900.0 -0.3226405526 0.9418844176
4400273600.0 -0.3079485576 0.9471120141
4450273300.0 -0.2927721587 0.9522304289
4500273000.0 -0.2796531562 0.9564536418
4550272700.0 -0.266086255 0.9605228849
4600272400.0 -0.2507676574 0.964774848
4650272100.0 -0.239598684 0.9677248529
4700271800.0 -0.2265300628 0.9711145316
4750271500.0 -0.2149799565 0.9739951431
4800271200.0 -0.2027451187 0.9767675119
4850270900.0 -0.1889534929 0.9795633988
4900270600.0 -0.1751802261 0.9819549884
4950270300.0 -0.1606326785 0.9846733362
5000270000.0 -0.1459960211 0.9866867044
5050269700.0 -0.132826188 0.9883374953
5100269400.0 -0.11829979 0.9898482545
5150269100.0 -0.1046296467 0.9918563184
5200268800.0 -0.091280608 0.9927115826
5250268500.0 -0.0778595367 0.9935934679
5300268200.0 -0.0644455837 0.9945631117
5350267900.0 -0.0517116747 0.9952916686
5400267600.0 -0.0354376547 0.996387298
5450267300.0 -0.02228016 0.9967126831
5500267000.0 -0.006757766 0.997010301
5550266700.0 0.007974671 0.9973005618
5600266400.0 0.0237459691 0.9972122801
5650266100.0 0.0405846191 0.9966456479
5700265800.0 0.054813222 0.9960358905
5750265500.0 0.0696806765 0.9954830954
5800265200.0 0.0833683313 0.9941088926
5850264900.0 0.0965269934 0.9934083787
5900264600.0 0.1131499296 0.9918390135
5950264300.0 0.124736251 0.9894449699
6000264000.0 0.1382147127 0.9879830625
6050263700.0 0.1497720975 0.9863209292
6100263400.0 0.1621185027 0.9849388505
6150263100.0 0.1762973247 0.9825393194
6200262800.0 0.186325725 0.9809833936
6250262500.0 0.198800471 0.9784737085
6300262200.0 0.2112057918 0.9761157373
6350261900.0 0.2242465601 0.9733642476
6400261600.0 0.2379190495 0.9702326047
6450261300.0 0.2487271319 0.9675770794
6500261000.0 0.2623275976 0.9637846087
6550260700.0 0.2752127458 0.9600511028
6600260400.0 0.288699414 0.9558649366
6650260100.0 0.3028843699 0.9516752655
6700259800.0 0.3150836342 0.9473172732
6750259500.0 0.3290909814 0.9425168583
6800259200.0 0.3421690107 0.9371169314
6850258900.0 0.3548972739 0.9319482314
6900258600.0 0.3673083342 0.9266915122
6950258300.0 0.3799399049 0.9215478089
7000258000.0 0.3914488343 0.9162827258
7050257700.0 0.4033171794 0.9102858546
7100257400.0 0.4166532202 0.9038027807
7150257100.0 0.4275810458 0.8984619027
7200256800.0 0.4405859563 0.8919074605
7250256500.0 0.4530467041 0.885532835
7300256200.0 0.4659604907 0.8787196166
7350255900.0 0.4789870048 0.871707936
7400255600.0 0.4931192307 0.8638242419
7450255300.0 0.5081420319 0.8548632075
7500255000.0 0.5205924966 0.8474828105
7550254700.0 0.5350853951 0.838247433
7600254400.0 0.5479815577 0.8301653424
7650254100.0 0.5591709361 0.8224688384
7700253800.0 0.5710810375 0.8143880222
7750253500.0 0.5816106417 0.8066942331
7800253200.0 0.5923234786 0.7986703615
7850252900.0 0.6020572058 0.7914685028
7900252600.0 0.6135515595 0.7827540059
7950252300.0 0.6220248105 0.7763933177
8000252000.0 0.6319615432 0.768783292
8050251700.0 0.6425440966 0.7606631829
8100251400.0 0.6524403221 0.7527491392
8150251100.0 0.6624089197 0.7442929757
8200250800.0 0.6720904685 0.7360073251
8250250500.0 0.6803447129 0.7280930726
8300250200.0 0.6895878047 0.7198512646
8350249900.0 0.6987002013 0.7108677428
8400249600.0 0.7070980609 0.7029087902
8450249300.0 0.7157974967 0.6941015136
8500249000.0 0.7245071408 0.6852921979
8550248700.0 0.7327045357 0.6761801887
8600248400.0 0.7410667396 0.6666940788
8650248100.0 0.7486729552 0.6572555178
8700247800.0 0.7582037928 0.6462274755
8750247500.0 0.7663486699 0.6361117225
8800247200.0 0.7742145635 0.6257254658
8850246900.0 0.7832030091 0.6146166892
8900246600.0 0.791384396 0.603116057
8950246300.0 0.8007700096 0.5903915964
9000246000.0 0.8093763219 0.5783646015
9050245700.0 0.8177709393 0.5659369385
9100245400.0 0.8260079652 0.5540748364
9150245100.0 0.8352333255 0.5408012689
9200244800.0 0.8443785161 0.5264198833
9250244500.0 0.8536963662 0.5116775351
9300244200.0 0.8618974514 0.4981903865
9350243900.0 0.869447859 0.4849015464
9400243600.0 0.8758926126 0.4731246196
9450243300.0 0.8815107553 0.4626857794
9500243000.0 0.8878460861 0.4507429901
9550242700.0 0.8917109064 0.4433110165
9600242400.0 0.8961058267 0.4357183771
9650242100.0 0.9000372846 0.4286446622
9700241800.0 0.9049759861 0.4204723504
9750241500.0 0.9092141968 0.4127038451
9800241200.0 0.9141863029 0.4030943033
9850240900.0 0.9199831135 0.391333274
9900240600.0 0.9260372265 0.3794609251
9950240300.0 0.933085106 0.3627238609
10000240000.0 0.9379232586 0.3509151663
10050239700.0 0.9440974722 0.3347372661
10100239400.0 0.9490358418 0.3186732232
10150239100.0 0.9538909714 0.3032067083
10200238800.0 0.9583168633 0.2875098414
10250238500.0 0.9615754642 0.2740935782
10300238200.0 0.9647376779 0.2599963693
10350237900.0 0.9675607847 0.2467371508
10400237600.0 0.9700069367 0.2331266824
10450237300.0 0.9727258681 0.2197645212
10500237000.0 0.9748977744 0.2071246075
10550236700.0 0.9772534985 0.1927933319
10600236400.0 0.9796607887 0.1785027027
10650236100.0 0.9814996195 0.1644116036
10700235800.0 0.983408286 0.1527728058
10750235500.0 0.9855325147 0.139116838
10800235200.0 0.988039495 0.1241464412
10850234900.0 0.9897663588 0.1094172851
10900234600.0 0.9919573654 0.0944890539
10950234300.0 0.993602091 0.0810911237
11000234000.0 0.9955694877 0.0655547043
11050233700.0 0.9972049531 0.0490635415
11100233400.0 0.998719678 0.031282659
11150233100.0 0.9998669859 0.014505349
11200232800.0 1.000435444 -0.0016398468
11250232500.0 1.001413944 -0.019428087
11300232200.0 1.002064633 -0.0375646431
11350231900.0 1.002314206 -0.0546130649
11400231600.0 1.001602874 -0.069041539
11450231300.0 1.000778138 -0.0852170617
11500231000.0 0.9996488354 -0.1013459701
11550230700.0 0.9979862387 -0.1135841417
11600230400.0 0.9966130732 -0.1273159212
11650230100.0 0.9946006851 -0.1393316941
11700229800.0 0.9928290933 -0.1538973007
11750229500.0 0.9903338992 -0.1681930576
11800229200.0 0.9873646207 -0.181325701
11850228900.0 0.9839207021 -0.1933413291
11900228600.0 0.9797220737 -0.2032742583
11950228300.0 0.9762678527 -0.2134161024
12000228000.0 0.9738006478 -0.2218389529
12050227700.0 0.9702788178 -0.2342550858
12100227400.0 0.9668936421 -0.2452615788
12150227100.0 0.9613652786 -0.2631274068
12200226800.0 0.9582462435 -0.2734542155
12250226500.0 0.9537795011 -0.2855299863
12300226200.0 0.9493141349 -0.2983749477
12350225900.0 0.9441478434 -0.3122434102
12400225600.0 0.9409424154 -0.3236834323
12450225300.0 0.935665977 -0.3372401533
12500225000.0 0.9302067439 -0.3515273271
12550224700.0 0.9251160096 -0.365786903
12600224400.0 0.9200820052 -0.3781914214
12650224100.0 0.91414391 -0.3923785392
12700223800.0 0.9089263729 -0.4051985652
12750223500.0 0.9033601045 -0.4184628872
12800223200.0 0.8980688378 -0.4309323619
12850222900.0 0.8925860704 -0.4434213891
12900222600.0 0.8873983531 -0.4550705082
12950222300.0 0.8811957687 -0.4676225399
13000222000.0 0.8752420818 -0.4787558875
13050221700.0 0.8680855272 -0.4925516736
13100221400.0 0.8617425764 -0.504147868
13150221100.0 0.8545015345 -0.5168673849
13200220800.0 0.8476233368 -0.527926453
13250220500.0 0.840238584 -0.5404801456
13300220200.0 0.8327878647 -0.55115244
13350219900.0 0.8247369095 -0.5632628885
13400219600.0 0.8164019282 -0.5750464319
13450219300.0 0.8068120734 -0.5881311062
13500219000.0 0.797315578 -0.6012612686
13550218700.0 0.7871472987 -0.6137128649
13600218400.0 0.776992355 -0.625492333
13650218100.0 0.7677397992 -0.63722768
13700217800.0 0.7574774515 -0.6481402512
13750217500.0 0.7474474171 -0.6593544289
13800217200.0 0.7366022812 -0.6703564223
13850216900.0 0.7257536573 -0.6818741795
13900216600.0 0.7165366937 -0.6897042366
13950216300.0 0.7050966242 -0.7001836557
14000216000.0 0.6957959909 -0.7095540355
14050215700.0 0.6860429205 -0.7173770834
14100215400.0 0.6765737692 -0.7265317927
14150215100.0 0.667117627 -0.7352749912
14200214800.0 0.6577894286 -0.7442620106
14250214500.0 0.6474495497 -0.7536722363
14300214200.0 0.6370749592 -0.7630250619
14350213900.0 0.6257814193 -0.7725519491
14400213600.0 0.6142061596 -0.7823718673
14450213300.0 0.6009210738 -0.7927321038
14500213000.0 0.588219334 -0.8023253365
14550212700.0 0.5757977883 -0.8120496853
14600212400.0 0.5631299116 -0.8205086443
14650212100.0 0.5505730049 -0.8295537048
14700211800.0 0.5373548284 -0.8390545764
14750211500.0 0.5248726916 -0.8473274192
14800211200.0 0.512026998 -0.8556745097
14850210900.0 0.4998036494 -0.8630972523
14900210600.0 0.4863560111 -0.8711813502
14950210300.0 0.4731627394 -0.8786196354
15000210000.0 0.4605927521 -0.8854149853
15050209700.0 0.4483222883 -0.8913007146
15100209400.0 0.4357032922 -0.8971615803
15150209100.0 0.4230487012 -0.9027135969
15200208800.0 0.4107152662 -0.9078696861
15250208500.0 0.3995447537 -0.9121482608
15300208200.0 0.3878904097 -0.9176542391
15350207900.0 0.3747786502 -0.9222499191
15400207600.0 0.3589768584 -0.9275241009
15450207300.0 0.3451580701 -0.9334007606
15500207000.0 0.3305611841 -0.9371594722
15550206700.0 0.31573729 -0.9419736199
15600206400.0 0.2993305611 -0.9465255229
15650206100.0 0.2836260033 -0.9511964822
15700205800.0 0.2704280839 -0.9542538625
15750205500.0 0.2563923505 -0.9578532933
15800205200.0 0.2420682726 -0.9612541363
15850204900.0 0.2279953892 -0.9648192627
15900204600.0 0.2129371562 -0.9684503332
15950204300.0 0.1987416913 -0.9713377247
16000204000.0 0.1844212115 -0.974306127
16050203700.0 0.1690187922 -0.977406348
16100203400.0 0.1540755985 -0.9797585707
16150203100.0 0.1396785116 -0.9823749478
16200202800.0 0.1256066592 -0.9839570754
16250202500.0 0.1102977909 -0.9858559648
16300202200.0 0.0950763947 -0.9875021388
16350201900.0 0.0797527638 -0.9887633449
16400201600.0 0.0649335585 -0.9900821396
16450201300.0 0.049726472 -0.9909687898
16500201000.0 0.0327277312 -0.9919011626
16550200700.0 0.0165838503 -0.9924554371
16600200400.0 0.0006452083 -0.9927192788
16650200100.0 -0.015545989 -0.9927739454
16700199800.0 -0.0319008546 -0.9919672846
16750199500.0 -0.0506083718 -0.9913863686
16800199200.0 -0.06710585 -0.9911507083
16850198900.0 -0.0826195809 -0.9893782287
16900198600.0 -0.0966308266 -0.9886738591
16950198300.0 -0.1106276448 -0.9876061687
17000198000.0 -0.1230050164 -0.9858610771
17050197700.0 -0.1355488603 -0.9837938588
17100197400.0 -0.1490975304 -0.9818746244
17150197100.0 -0.1615427568 -0.979922115
17200196800.0 -0.1744398912 -0.9781027072
17250196500.0 -0.1872382436 -0.9755983938
17300196200.0 -0.1994397725 -0.9732457738
17350195900.0 -0.2112957229 -0.9707081107
17400195600.0 -0.2231540749 -0.9682942558
17450195300.0 -0.2362387415 -0.9654663968
17500195000.0 -0.2491780102 -0.9621304045
17550194700.0 -0.2631146152 -0.958701255
17600194400.0 -0.2768323114 -0.9544826379
17650194100.0 -0.2905670775 -0.9503548816
17700193800.0 -0.3035534746 -0.9461667331
17750193500.0 -0.3175634342 -0.9416345965
17800193200.0 -0.3315265584 -0.9366471841
17850192900.0 -0.3468766908 -0.931186651
17900192600.0 -0.3616345487 -0.9252088351
17950192300.0 -0.3770699106 -0.9180457303
18000192000.0 -0.3918891737 -0.9106704624
18050191700.0 -0.4058404431 -0.9025665332
18100191400.0 -0.4198845565 -0.8949947534
18150191100.0 -0.4347740767 -0.8870444705
18200190800.0 -0.4518249592 -0.8779193202
18250190500.0 -0.4684627873 -0.8685580345
18300190200.0 -0.484018085 -0.8595699776
18350189900.0 -0.4993805686 -0.8511636756
18400189600.0 -0.5134185821 -0.8429793692
18450189300.0 -0.5268238569 -0.8352355795
18500189000.0 -0.540414174 -0.8266372928
18550188700.0 -0.5532302105 -0.8191359316
18600188400.0 -0.5651722039 -0.8123923352
18650188100.0 -0.5768267055 -0.8056470525
18700187800.0 -0.5880381753 -0.7990040346
18750187500.0 -0.5986308453 -0.792360849
18800187200.0 -0.6092159412 -0.7854079188
18850186900.0 -0.6196909726 -0.7783303541
18900186600.0 -0.6299043079 -0.7708904262
18950186300.0 -0.6403472825 -0.7629872295
19000186000.0 -0.6475720298 -0.7568944766
19050185700.0 -0.6569194172 -0.7497307326
19100185400.0 -0.6669099062 -0.741621877
19150185100.0 -0.6765163765 -0.7328725243
19200184800.0 -0.6865650661 -0.7247709421
19250184500.0 -0.6964672355 -0.7161768044
19300184200.0 -0.7081366083 -0.7065347549
19350183900.0 -0.7191230163 -0.6964098782
19400183600.0 -0.7290005208 -0.68632688
19450183300.0 -0.7371884723 -0.6761087355
19500183000.0 -0.7456412049 -0.6665030988
19550182700.0 -0.7556476715 -0.6554796454
19600182400.0 -0.7659222669 -0.643996672
19650182100.0 -0.776273156 -0.6316783296
19700181800.0 -0.7864585405 -0.61843503
19750181500.0 -0.7971896021 -0.6044127188
19800181200.0 -0.8071123157 -0.5895245239
19850180900.0 -0.8166591722 -0.5743200057
19900180600.0 -0.8245754559 -0.5597211248
19950180300.0 -0.833473674 -0.5437156689
20000180000.0 -0.8235044364 -0.5469461869
20050179700.0 -0.8312202578 -0.5342997428
20100179400.0 -0.8402550057 -0.520516889
20150179100.0 -0.8481045932 -0.5093336758
20200178800.0 -0.8567010985 -0.4983037583
20250178500.0 -0.8658747562 -0.4847847996
20300178200.0 -0.8754258824 -0.4713783633
20350177900.0 -0.8845967719 -0.4571068246
20400177600.0 -0.8936990635 -0.442678559
20450177300.0 -0.9021984015 -0.4287379089
20500177000.0 -0.91019648 -0.4147884678
20550176700.0 -0.9180261537 -0.4013058088
20600176400.0 -0.9252417712 -0.3883958232
20650176100.0 -0.9316272551 -0.376425471
20700175800.0 -0.9378903826 -0.3641024188
20750175500.0 -0.9446203121 -0.3530939032
20800175200.0 -0.9489002886 -0.341024147
20850174900.0 -0.9549018457 -0.3310875201
20900174600.0 -0.9581537164 -0.3200822652
20950174300.0 -0.9617392425 -0.309226532
21000174000.0 -0.964455885 -0.2981095098
21050173700.0 -0.9662790148 -0.2886263933
21100173400.0 -0.9697555664 -0.2777644582
21150173100.0 -0.973304528 -0.2657261477
21200172800.0 -0.9778917722 -0.2522150752
21250172500.0 -0.980651124 -0.2386895588
21300172200.0 -0.9841334953 -0.2251533355
21350171900.0 -0.9867849251 -0.2105431068
21400171600.0 -0.988952829 -0.196290125
21450171300.0 -0.9889983456 -0.182306956
21500171000.0 -0.9897754741 -0.1660156876
21550170700.0 -0.990012179 -0.1522581306
21600170400.0 -0.9906958254 -0.1361228818
21650170100.0 -0.991099852 -0.1205248305
21700169800.0 -0.9907618777 -0.1061637283
21750169500.0 -0.9909169347 -0.0899349855
21800169200.0 -0.9905587939 -0.0735055545
21850168900.0 -0.9901406667 -0.0556539161
21900168600.0 -0.9893400501 -0.0400886102
21950168300.0 -0.9888928745 -0.0245748632
22000168000.0 -0.9886398371 -0.0092904182
22050167700.0 -0.9894448902 0.0053070785
22100167400.0 -0.9897799711 0.020789891
22150167100.0 -0.9905547949 0.0368207624
22200166800.0 -0.9911461855 0.0537570868
22250166500.0 -0.9902957649 0.0706725437
22300166200.0 -0.9896039292 0.0873591361
22350165900.0 -0.9884848358 0.103402643
22400165600.0 -0.9868019072 0.1187741884
22450165300.0 -0.986019305 0.1339421052
22500165000.0 -0.9840838731 0.1482917354
22550164700.0 -0.9821502423 0.1640585323
22600164400.0 -0.9801317142 0.1804986543
22650164100.0 -0.977510515 0.1956447413
22700163800.0 -0.974219457 0.2123091576
22750163500.0 -0.9711096138 0.2266213755
22800163200.0 -0.968472614 0.2398385778
22850162900.0 -0.9659970429 0.2534979788
22900162600.0 -0.964222248 0.2676020056
22950162300.0 -0.9626871154 0.2810035553
23000162000.0 -0.9604559424 0.2936067155
23050161700.0 -0.9581771401 0.3067440239
23100161400.0 -0.9558164061 0.3201895992
23150161100.0 -0.9521235425 0.3338369725
23200160800.0 -0.9491873264 0.3459119055
23250160500.0 -0.946918814 0.3586660753
23300160200.0 -0.94439831 0.3706777962
23350159900.0 -0.9399553132 0.3846786662
23400159600.0 -0.9352290931 0.3982695318
23450159300.0 -0.9300719915 0.4124434466
23500159000.0 -0.9250366387 0.4259324154
23550158700.0 -0.9201315496 0.4399167735
23600158400.0 -0.9138820344 0.4535540539
23650158100.0 -0.9070155893 0.4683245313
23700157800.0 -0.8986687124 0.4824507893
23750157500.0 -0.8894975854 0.4965882042
23800157200.0 -0.8795987492 0.5102685236
23850156900.0 -0.8701151146 0.5225814432
23900156600.0 -0.8600768573 0.5358843594
23950156300.0 -0.8504185886 0.5482283672
24000156000.0 -0.8412551451 0.5600462395
24050155700.0 -0.8307092537 0.5724519473
24100155400.0 -0.8199878027 0.5854431164
24150155100.0 -0.8099400421 0.5963469267
24200154800.0 -0.7985310825 0.6085029557
24250154500.0 -0.7869109097 0.620862821
24300154200.0 -0.7761172498 0.6330984524
24350153900.0 -0.7637091562 0.6437871555
24400153600.0 -0.7513674932 0.6548291856
24450153300.0 -0.7395501205 0.6648898521
24500153000.0 -0.7277864265 0.6746217969
24550152700.0 -0.716160343 0.6850845713
24600152400.0 -0.7048947088 0.6945068464
24650152100.0 -0.6918855554 0.7027462931
