!Created with skrf (http://scikit-rf.org).
# Hz S RI R 50.0 
!freq ReS11 ImS11
300000.0 -0.9744604977 -0.1211979201
50299700.0 -0.9998134306 0.0151757066
100299400.0 -0.9979094695 0.0279973937
150299100.0 -1.002877375 0.0448202547
200298800.0 -0.9996212104 0.0582217443
250298500.0 -0.9973953328 0.0717051051
300298200.0 -0.9858537744 0.0875770393
350297900.0 -0.9939553228 0.0985008146
400297600.0 -0.9929744051 0.114810897
450297300.0 -0.9909079302 0.1288765069
500297000.0 -0.9894692127 0.1434009422
550296700.0 -0.9841448104 0.1558161131
600296400.0 -1.017333243 0.1892682889
650296100.0 -0.9821816 0.1861015667
700295800.0 -0.9792821222 0.1997984697
750295500.0 -0.9764360788 0.2141441297
800295200.0 -0.9728828897 0.2281065163
850294900.0 -0.9697157032 0.2418026179
900294600.0 -0.9657170742 0.2556425334
950294300.0 -0.9620442417 0.2694381925
1000294000.0 -0.9581056717 0.2834848436
1050293700.0 -0.9536740965 0.2971964241
1100293400.0 -0.9493260701 0.3115809323
1150293100.0 -0.9453746017 0.3233914609
1200292800.0 -0.9401241949 0.3377400389
1250292500.0 -0.9346817349 0.3512027798
1300292200.0 -0.9290434269 0.364434703
1350291900.0 -0.9235328828 0.3783090775
1400291600.0 -0.9180942541 0.391792187
1450291300.0 -0.9124203186 0.4039978972
1500291000.0 -0.9061717267 0.4173330062
1550290700.0 -0.8995735446 0.4306988047
1600290400.0 -0.893458406 0.4436063612
1650290100.0 -0.8865988242 0.4558219632
1700289800.0 -0.8798229422 0.4691041793
1750289500.0 -0.8726854509 0.4813768986
1800289200.0 -0.8655351725 0.4943038118
1850288900.0 -0.8588878169 0.5058759395
1900288600.0 -0.8509803958 0.5185406424
1950288300.0 -0.8428183434 0.5312472027
2000288000.0 -0.8355393033 0.5429172292
2050287700.0 -0.8273114915 0.5551626009
2100287400.0 -0.8194430764 0.5667296729
2150287100.0 -0.8108233733 0.5786136036
2200286800.0 -0.8030738569 0.5893754218
2250286500.0 -0.7940939787 0.6015503856
2300286200.0 -0.7851595192 0.6128663389
2350285900.0 -0.7768710371 0.6235059664
2400285600.0 -0.767879648 0.6345117739
2450285300.0 -0.7590761982 0.6451711961
2500285000.0 -0.7492356101 0.6564175436
2550284700.0 -0.7402239513 0.6670370665
2600284400.0 -0.7309673844 0.6768963187
2650284100.0 -0.7223824131 0.6873573711
2700283800.0 -0.7117637626 0.6976020405
2750283500.0 -0.7014692339 0.7083699216
2800283200.0 -0.6914947741 0.718049757
2850282900.0 -0.681006574 0.728089433
2900282600.0 -0.670842679 0.7378108378
2950282300.0 -0.6602614683 0.7470603425
3000282000.0 -0.6495970281 0.7567796877
3050281700.0 -0.6384828909 0.7658857505
3100281400.0 -0.6268148598 0.7751038961
3150281100.0 -0.6155458979 0.7840126844
3200280800.0 -0.6039390482 0.7923959271
3250280500.0 -0.5928283703 0.8003455057
3300280200.0 -0.5814797215 0.8083890988
3350279900.0 -0.5693690099 0.8164665359
3400279600.0 -0.5569583266 0.824304486
3450279300.0 -0.5456684785 0.8314038032
3500279000.0 -0.5339369736 0.8380823769
3550278700.0 -0.5217237044 0.8457019711
3600278400.0 -0.5099917477 0.8523847706
3650278100.0 -0.4965831936 0.8600238772
3700277800.0 -0.4844491089 0.8662095659
3750277500.0 -0.4723963992 0.8731889013
3800277200.0 -0.4599545189 0.879552359
3850276900.0 -0.4479072455 0.885372786
3900276600.0 -0.4368443488 0.8912764036
3950276300.0 -0.4246470278 0.8972088293
4000276000.0 -0.413202627 0.9029568154
4050275700.0 -0.4002818852 0.9094444643
4100275400.0 -0.3892138365 0.9149650063
4150275100.0 -0.3763926846 0.92055992
4200274800.0 -0.3628352721 0.9261597237
4250274500.0 -0.3502306073 0.9312392894
4300274200.0 -0.3371626493 0.936701195
4350273900.0 -0.3228619774 0.9420507107
4400273600.0 -0.3082004763 0.9472072849
4450273300.0 -0.2932095168 0.9521754275
4500273000.0 -0.2799167341 0.9565527878
4550272700.0 -0.2660291764 0.9605540522
4600272400.0 -0.2509491638 0.9647257345
4650272100.0 -0.2396775527 0.9680109095
4700271800.0 -0.2264783764 0.9712352365
4750271500.0 -0.2148029481 0.974031358
4800271200.0 -0.2025711866 0.9766927665
4850270900.0 -0.1887249315 0.9795275992
4900270600.0 -0.1748910012 0.9819772268
4950270300.0 -0.1605445758 0.9845452126
5000270000.0 -0.1459611224 0.9866545616
5050269700.0 -0.1324590883 0.9882316792
5100269400.0 -0.1183147925 0.9900632836
5150269100.0 -0.1045921941 0.9917805804
5200268800.0 -0.0912664679 0.9925101233
5250268500.0 -0.0782026115 0.9936678114
5300268200.0 -0.0646698457 0.9942067448
5350267900.0 -0.0518780991 0.9952745832
5400267600.0 -0.0357013119 0.995948914
5450267300.0 -0.0223971736 0.9965919421
5500267000.0 -0.0072301898 0.9969433095
5550266700.0 0.0075037458 0.9970916768
5600266400.0 0.0235531083 0.9972024205
5650266100.0 0.0398561627 0.9966433096
5700265800.0 0.0543089265 0.9957130493
5750265500.0 0.0693648645 0.9954894501
5800265200.0 0.0829548302 0.9939809888
5850264900.0 0.0960363837 0.9930391332
5900264600.0 0.1125056093 0.9913147795
5950264300.0 0.1246019446 0.989767807
6000264000.0 0.1378318233 0.9881270953
6050263700.0 0.1501428665 0.9872745332
6100263400.0 0.1622149057 0.9850178178
6150263100.0 0.1770269087 0.9827394554
6200262800.0 0.1864430878 0.9808878429
6250262500.0 0.1990589604 0.9787026726
6300262200.0 0.2115675684 0.9761143881
6350261900.0 0.2243916632 0.9731692706
6400261600.0 0.2380713775 0.9699688015
6450261300.0 0.2495399272 0.9674259873
6500261000.0 0.2627144607 0.9640658926
6550260700.0 0.2756560605 0.9599866194
6600260400.0 0.28868618 0.9558738361
6650260100.0 0.3031900232 0.9514746506
6700259800.0 0.3154775563 0.9472404869
6750259500.0 0.3291043194 0.9422602763
6800259200.0 0.3426195801 0.9373129926
6850258900.0 0.3547690347 0.9319703727
6900258600.0 0.367517101 0.9267004573
6950258300.0 0.3798035002 0.9214852233
7000258000.0 0.3915177663 0.9160914958
7050257700.0 0.403527549 0.9103468413
7100257400.0 0.416858589 0.9038584554
7150257100.0 0.4274247579 0.8984966053
7200256800.0 0.44075236 0.8919976433
7250256500.0 0.4528193964 0.8856518909
7300256200.0 0.465917412 0.8790393963
7350255900.0 0.478600243 0.8717713783
7400255600.0 0.4925737966 0.8645155581
7450255300.0 0.5083546029 0.8553385107
7500255000.0 0.5199660474 0.8474597946
7550254700.0 0.53422086 0.8387078841
7600254400.0 0.5470464241 0.8304071711
7650254100.0 0.5582994658 0.8226040576
7700253800.0 0.5703116666 0.8146321315
7750253500.0 0.5813967329 0.8069483161
7800253200.0 0.5920233667 0.7992169572
7850252900.0 0.6016721544 0.7920001069
7900252600.0 0.6131790247 0.783298327
7950252300.0 0.6216353991 0.7769395458
8000252000.0 0.631695089 0.7693088417
8050251700.0 0.6419291625 0.7611068743
8100251400.0 0.6516476753 0.7530985631
8150251100.0 0.6621964173 0.7446185787
8200250800.0 0.6717177261 0.7363060494
8250250500.0 0.6803353988 0.728574939
8300250200.0 0.6896072244 0.7202181017
8350249900.0 0.6984782223 0.711223952
8400249600.0 0.7068055556 0.7034493019
8450249300.0 0.7158374237 0.6943289666
8500249000.0 0.7242019254 0.6856502243
8550248700.0 0.7325612398 0.6765620442
8600248400.0 0.7408885287 0.6671897467
8650248100.0 0.7485848084 0.6576057775
8700247800.0 0.7578906476 0.64657093
8750247500.0 0.7662221822 0.6362967417
8800247200.0 0.7741574355 0.6262915505
8850246900.0 0.7831238261 0.6144751005
8900246600.0 0.7913698827 0.6033205204
8950246300.0 0.8005699911 0.5904520631
9000246000.0 0.8096997703 0.5784879936
9050245700.0 0.8178491289 0.5661917252
9100245400.0 0.8265115082 0.5538679906
9150245100.0 0.8355758774 0.5407283877
9200244800.0 0.845261428 0.5261813502
9250244500.0 0.8539505463 0.5114963706
9300244200.0 0.8623954616 0.4977896602
9350243900.0 0.869857929 0.4844076205
9400243600.0 0.8763975041 0.4725495023
9450243300.0 0.8819956896 0.4618619572
9500243000.0 0.8882967596 0.4502358446
9550242700.0 0.8920477695 0.4425255277
9600242400.0 0.8963192578 0.4349991845
9650242100.0 0.9004060867 0.4280692619
9700241800.0 0.9053192005 0.4196216853
9750241500.0 0.9095253115 0.4118284473
9800241200.0 0.9143576238 0.4024403615
9850240900.0 0.9201996644 0.390873139
9900240600.0 0.9260923086 0.3790540934
9950240300.0 0.9331802193 0.3624570205
10000240000.0 0.9376884142 0.3504585829
10050239700.0 0.9438029214 0.3343493655
10100239400.0 0.9494135393 0.3179819796
10150239100.0 0.9539566092 0.3027667803
10200238800.0 0.9580866733 0.2876077293
10250238500.0 0.9614320598 0.2739771849
10300238200.0 0.9647062902 0.2600957474
10350237900.0 0.9673209926 0.2468102861
10400237600.0 0.9699234259 0.2334180426
10450237300.0 0.9727574747 0.219407626
10500237000.0 0.9748751509 0.2074614414
10550236700.0 0.9774570649 0.1927487857
10600236400.0 0.9793179247 0.1792352738
10650236100.0 0.981886337 0.1643531393
10700235800.0 0.9837488222 0.1523823979
10750235500.0 0.9853902451 0.1389778386
10800235200.0 0.9880601982 0.1243737856
10850234900.0 0.9898898532 0.1098296936
10900234600.0 0.992056188 0.0946611009
10950234300.0 0.9938135557 0.0812963406
11000234000.0 0.9955072794 0.0659130239
11050233700.0 0.9972185436 0.0493713142
11100233400.0 0.9988925401 0.0319236874
11150233100.0 0.9999523604 0.0149208019
11200232800.0 1.00047238 -0.0004151835
11250232500.0 1.001869838 -0.0183158401
11300232200.0 1.001979101 -0.0363976032
11350231900.0 1.00201049 -0.0522653545
11400231600.0 1.001496452 -0.0682066597
11450231300.0 1.001032894 -0.0838748088
11500231000.0 1.000325711 -0.1010716218
11550230700.0 0.998006122 -0.1136715215
11600230400.0 0.9966592603 -0.1263281583
11650230100.0 0.9947657809 -0.1380917257
11700229800.0 0.9926635191 -0.1525030438
11750229500.0 0.9900923176 -0.1668176186
11800229200.0 0.9875546763 -0.1805480651
11850228900.0 0.9839342208 -0.1924943407
11900228600.0 0.9800173265 -0.2018840069
11950228300.0 0.9764896203 -0.2123002163
12000228000.0 0.973754357 -0.221230611
12050227700.0 0.9705429676 -0.2337224511
12100227400.0 0.9674135578 -0.2448212959
12150227100.0 0.9621488883 -0.2617151238
12200226800.0 0.9586704564 -0.27178108
12250226500.0 0.9538955319 -0.2845509273
12300226200.0 0.9506824305 -0.2965558397
12350225900.0 0.9443982124 -0.3119054796
12400225600.0 0.9409612002 -0.3237964283
12450225300.0 0.9359861032 -0.3360894521
12500225000.0 0.9304217169 -0.3515102632
12550224700.0 0.9252249286 -0.3651443115
12600224400.0 0.9203381858 -0.3774648697
12650224100.0 0.9146816449 -0.3918693258
12700223800.0 0.9091807926 -0.4047193838
12750223500.0 0.9038182705 -0.4176718071
12800223200.0 0.8985096441 -0.4301077228
12850222900.0 0.8931060672 -0.4425809433
12900222600.0 0.8878713547 -0.4544756694
12950222300.0 0.8814279103 -0.4671971472
13000222000.0 0.8753254332 -0.4786543683
13050221700.0 0.8686007522 -0.4910936043
13100221400.0 0.8618773623 -0.5030687653
13150221100.0 0.855349971 -0.5163262831
13200220800.0 0.8481322738 -0.5272126456
13250220500.0 0.840735391 -0.5394021222
13300220200.0 0.8333272747 -0.550259644
13350219900.0 0.8252235836 -0.5623549053
13400219600.0 0.8168709479 -0.574252945
13450219300.0 0.8077847104 -0.587202566
13500219000.0 0.7977043181 -0.6004659829
13550218700.0 0.7881770196 -0.6131742788
13600218400.0 0.777151935 -0.6252089893
13650218100.0 0.7691226984 -0.6355705309
13700217800.0 0.7585032582 -0.6476878464
13750217500.0 0.7469584939 -0.6591961091
13800217200.0 0.7368209292 -0.6700208727
13850216900.0 0.7259223989 -0.681132123
13900216600.0 0.7164138103 -0.6898882541
13950216300.0 0.7051334502 -0.7000321002
14000216000.0 0.6951584139 -0.7093583939
14050215700.0 0.6864734092 -0.7168482802
14100215400.0 0.6766927362 -0.7267101182
14150215100.0 0.6673438069 -0.7352274186
14200214800.0 0.6580045566 -0.7441419879
14250214500.0 0.6475681258 -0.7535371235
14300214200.0 0.6370954228 -0.7630334462
14350213900.0 0.6260343104 -0.7725525239
14400213600.0 0.6143539995 -0.7824526651
14450213300.0 0.6009721202 -0.7926607995
14500213000.0 0.5885436068 -0.8023139465
14550212700.0 0.575914315 -0.8123028765
14600212400.0 0.5635059381 -0.820901681
14650212100.0 0.5511907683 -0.8293419339
14700211800.0 0.5367879037 -0.8388390719
14750211500.0 0.5246435276 -0.8471586003
14800211200.0 0.5127422113 -0.855066693
14850210900.0 0.500126367 -0.8630339117
14900210600.0 0.4865721979 -0.8709937907
14950210300.0 0.4732941316 -0.8785763968
15000210000.0 0.4607959685 -0.8852171928
15050209700.0 0.4485430354 -0.8915842379
15100209400.0 0.4358258138 -0.8974565547
15150209100.0 0.4235396414 -0.902682604
15200208800.0 0.4106253861 -0.9082032212
15250208500.0 0.3996741314 -0.9121805941
15300208200.0 0.3871636605 -0.9167525547
15350207900.0 0.3733908385 -0.922492131
15400207600.0 0.3594457786 -0.9274382412
15450207300.0 0.3445639656 -0.932747833
15500207000.0 0.3309779604 -0.9375708602
15550206700.0 0.316142674 -0.942296297
15600206400.0 0.2992680131 -0.9464680721
15650206100.0 0.2839556479 -0.9506413393
15700205800.0 0.2703798409 -0.9543995136
15750205500.0 0.2562235232 -0.9576947027
15800205200.0 0.242141105 -0.9612643016
15850204900.0 0.2278826813 -0.9648804329
15900204600.0 0.2128614605 -0.9683798249
15950204300.0 0.1986504942 -0.971479337
16000204000.0 0.1841258834 -0.9745417587
16050203700.0 0.1686632002 -0.977752616
16100203400.0 0.1544095252 -0.9794620502
16150203100.0 0.139232218 -0.9822331844
16200202800.0 0.1255663011 -0.9840867772
16250202500.0 0.1104869393 -0.9861287581
16300202200.0 0.0950297142 -0.9873533826
16350201900.0 0.0800325771 -0.9887527316
16400201600.0 0.0653765151 -0.9901343069
16450201300.0 0.0497129928 -0.9912439496
16500201000.0 0.0328015557 -0.9919681066
16550200700.0 0.0169128788 -0.9925348574
16600200400.0 0.000951354 -0.9926612087
16650200100.0 -0.0151076942 -0.9926839103
16700199800.0 -0.031410765 -0.9923056929
16750199500.0 -0.0500777969 -0.9921549338
16800199200.0 -0.0663866051 -0.9906442524
16850198900.0 -0.0815276384 -0.9893700736
16900198600.0 -0.0958745968 -0.9890923309
16950198300.0 -0.1099277212 -0.9871390641
17000198000.0 -0.1220671319 -0.9855878046
17050197700.0 -0.1353640987 -0.984277647
17100197400.0 -0.1483602871 -0.9817734969
17150197100.0 -0.1605777629 -0.9797825922
17200196800.0 -0.173683045 -0.9780904092
17250196500.0 -0.1863002203 -0.9754729002
17300196200.0 -0.1985735063 -0.9730643277
17350195900.0 -0.2104737432 -0.9707715175
17400195600.0 -0.2225728439 -0.9682153276
17450195300.0 -0.2355122752 -0.9654909109
17500195000.0 -0.2486123448 -0.962192319
17550194700.0 -0.2626046604 -0.9587067454
17600194400.0 -0.2764630182 -0.9547619879
17650194100.0 -0.2900365979 -0.9505314176
17700193800.0 -0.3026794933 -0.9462642531
17750193500.0 -0.3171889578 -0.9418876487
17800193200.0 -0.3315663432 -0.9364511219
17850192900.0 -0.3461887632 -0.9310863875
17900192600.0 -0.3613970577 -0.9250009313
17950192300.0 -0.3769520251 -0.9178448419
18000192000.0 -0.3918796475 -0.9109725495
18050191700.0 -0.405614665 -0.902796292
18100191400.0 -0.4197788958 -0.8950962731
18150191100.0 -0.4347387044 -0.8872475097
18200190800.0 -0.4516224921 -0.8781169726
18250190500.0 -0.4683207035 -0.8686113109
18300190200.0 -0.4838514635 -0.8595596418
18350189900.0 -0.4992590627 -0.8514831399
18400189600.0 -0.5137096795 -0.8428253293
18450189300.0 -0.5270929477 -0.8352783242
18500189000.0 -0.5400499194 -0.8272529644
18550188700.0 -0.5531942785 -0.8189742258
18600188400.0 -0.5655860864 -0.8124207219
18650188100.0 -0.5764359465 -0.8059368155
18700187800.0 -0.5877753857 -0.7993159303
18750187500.0 -0.5985635068 -0.7925086334
18800187200.0 -0.6087461367 -0.7857304829
18850186900.0 -0.6190641775 -0.778747859
18900186600.0 -0.629413372 -0.7715188982
18950186300.0 -0.6396192264 -0.7635988358
19000186000.0 -0.6471091107 -0.7573487944
19050185700.0 -0.6558106155 -0.7502573116
19100185400.0 -0.6663670402 -0.7416618118
19150185100.0 -0.6760262137 -0.7338115764
19200184800.0 -0.6857170727 -0.7255960563
19250184500.0 -0.6959073735 -0.7154649924
19300184200.0 -0.70756411 -0.7070058545
19350183900.0 -0.7186351388 -0.6965556842
19400183600.0 -0.7272439437 -0.6869070952
19450183300.0 -0.7371054324 -0.677219999
19500183000.0 -0.7454907549 -0.666760104
19550182700.0 -0.7548635574 -0.6558272178
19600182400.0 -0.7647282153 -0.6443386272
19650182100.0 -0.7757363769 -0.6319813278
19700181800.0 -0.786249334 -0.6188154924
19750181500.0 -0.796488429 -0.6048466606
19800181200.0 -0.8065951474 -0.5897327922
19850180900.0 -0.8163514473 -0.5745023133
19900180600.0 -0.8238213435 -0.5599816214
19950180300.0 -0.8332641048 -0.5435879579
20000180000.0 -0.8240112864 -0.5470874689
20050179700.0 -0.8319417991 -0.5345864301
20100179400.0 -0.840754229 -0.5212641074
20150179100.0 -0.8484524952 -0.5094719053
20200178800.0 -0.8567821833 -0.4970991385
20250178500.0 -0.8660444612 -0.484691486
20300178200.0 -0.875858354 -0.4707965355
20350177900.0 -0.8847500073 -0.4565659661
20400177600.0 -0.8943495484 -0.4424443961
20450177300.0 -0.9024637436 -0.4281067377
20500177000.0 -0.91065113 -0.4142147092
20550176700.0 -0.9183126891 -0.4005459726
20600176400.0 -0.9256442708 -0.3875517601
20650176100.0 -0.9321582109 -0.3757254376
20700175800.0 -0.938304331 -0.364421654
20750175500.0 -0.9445800202 -0.3518488241
20800175200.0 -0.949587315 -0.3408936329
20850174900.0 -0.954104019 -0.3308103163
20900174600.0 -0.9589575477 -0.3198304018
20950174300.0 -0.9628783107 -0.3084573376
21000174000.0 -0.9652388444 -0.2969706248
21050173700.0 -0.9673318794 -0.2867533601
21100173400.0 -0.9707498374 -0.2761214031
21150173100.0 -0.9741142613 -0.2643963733
21200172800.0 -0.9786700836 -0.2513037331
21250172500.0 -0.9818907878 -0.2371777533
21300172200.0 -0.9858029732 -0.2232131283
21350171900.0 -0.9870045971 -0.2089733529
21400171600.0 -0.989109229 -0.19472118
21450171300.0 -0.989563321 -0.1807451072
21500171000.0 -0.9895938263 -0.1648810527
21550170700.0 -0.990232702 -0.1499893765
21600170400.0 -0.9910847792 -0.1342845158
21650170100.0 -0.9897597476 -0.1189278505
21700169800.0 -0.9910315592 -0.1049008623
21750169500.0 -0.9904043632 -0.0882195298
21800169200.0 -0.9900379218 -0.0714860525
21850168900.0 -0.9897137781 -0.0541897804
21900168600.0 -0.9885791077 -0.0379523883
21950168300.0 -0.9883811427 -0.0229330141
22000168000.0 -0.9882122155 -0.0077070738
22050167700.0 -0.9880550469 0.0071448675
22100167400.0 -0.9886008292 0.0225706692
22150167100.0 -0.9897968313 0.0384046258
22200166800.0 -0.9904564554 0.0546200663
22250166500.0 -0.9897230244 0.0729143782
22300166200.0 -0.9890516984 0.0888844959
22350165900.0 -0.9880416279 0.1048856291
22400165600.0 -0.9859055081 0.1202864649
22450165300.0 -0.9840887256 0.1363626563
22500165000.0 -0.9829811087 0.1498970458
22550164700.0 -0.9808888764 0.1654599929
22600164400.0 -0.9792349965 0.1816582237
22650164100.0 -0.9764439058 0.1967442811
22700163800.0 -0.9735292956 0.2128400142
22750163500.0 -0.9714072999 0.2281487497
22800163200.0 -0.9680701399 0.2407475392
22850162900.0 -0.9654846148 0.2547803113
22900162600.0 -0.9636333484 0.2687274984
22950162300.0 -0.9617803266 0.2819723474
23000162000.0 -0.9601346001 0.2945444694
23050161700.0 -0.9577575363 0.3080160182
23100161400.0 -0.9547689847 0.3206660548
23150161100.0 -0.9514997296 0.3341576933
23200160800.0 -0.9496350124 0.3471016308
23250160500.0 -0.9465843497 0.3585304719
23300160200.0 -0.944113387 0.3717212813
23350159900.0 -0.9400035027 0.3843916601
23400159600.0 -0.9343152765 0.3981733305
23450159300.0 -0.9300505014 0.4121381564
23500159000.0 -0.9247866659 0.4258847788
23550158700.0 -0.9202187896 0.4396137263
23600158400.0 -0.9142840413 0.4534442497
23650158100.0 -0.9072904707 0.4679873842
23700157800.0 -0.8990652232 0.4818571451
23750157500.0 -0.890017382 0.4961296519
23800157200.0 -0.8803396956 0.5099611696
23850156900.0 -0.8712174107 0.5223291993
23900156600.0 -0.8618611965 0.5352882944
23950156300.0 -0.8511140858 0.5475492789
24000156000.0 -0.8424652089 0.5606482201
24050155700.0 -0.8310471646 0.5716201067
24100155400.0 -0.8216790314 0.5843932351
24150155100.0 -0.8103395454 0.5964904942
24200154800.0 -0.7995652248 0.6076723545
24250154500.0 -0.7884057496 0.6201403436
24300154200.0 -0.776964978 0.6319146204
24350153900.0 -0.7649787649 0.6431058466
24400153600.0 -0.7524664936 0.6534632212
24450153300.0 -0.7406684642 0.6638377356
24500153000.0 -0.7289288843 0.6739597837
24550152700.0 -0.7174609976 0.6837505476
24600152400.0 -0.7057000018 0.6932717894
24650152100.0 -0.6937406626 0.7017854383
