!Created with skrf (http://scikit-rf.org).
# Hz S RI R 50.0 
!freq ReS11 ImS11
300000.0 -0.9753685363 -0.1200901441
50299700.0 -0.999988508 0.0153285571
100299400.0 -0.9981416618 0.0281696092
150299100.0 -1.002827184 0.0450556336
200298800.0 -0.9996069327 0.0583507014
250298500.0 -0.9973045878 0.0717894663
300298200.0 -0.9858766328 0.0875864159
350297900.0 -0.994030211 0.0985941067
400297600.0 -0.993073985 0.1151291741
450297300.0 -0.991104662 0.1289294923
500297000.0 -0.9895029429 0.143595454
550296700.0 -0.9844687184 0.1562207252
600296400.0 -1.017218683 0.1893196942
650296100.0 -0.9821210178 0.185867305
700295800.0 -0.9793301956 0.2004491701
750295500.0 -0.9765103246 0.2143263443
800295200.0 -0.9729941694 0.2285084307
850294900.0 -0.9697991621 0.2421831818
900294600.0 -0.9656655538 0.2559419097
950294300.0 -0.9622597234 0.2695899813
1000294000.0 -0.9582992339 0.2836689862
1050293700.0 -0.9536510448 0.2974200527
1100293400.0 -0.9493785163 0.3118518513
1150293100.0 -0.9455294098 0.3235705148
1200292800.0 -0.9401784928 0.3381006236
1250292500.0 -0.9346053881 0.3514192085
1300292200.0 -0.9290567444 0.364691757
1350291900.0 -0.9234190085 0.3788486642
1400291600.0 -0.9180826903 0.3919536784
1450291300.0 -0.9125662814 0.4042800321
1500291000.0 -0.9061366747 0.4175656743
1550290700.0 -0.899677214 0.4309159556
1600290400.0 -0.8934346964 0.4438852851
1650290100.0 -0.8867843063 0.4560243325
1700289800.0 -0.8799028062 0.4694765382
1750289500.0 -0.8728924955 0.4817486433
1800289200.0 -0.8655040932 0.4943356817
1850288900.0 -0.8586809785 0.5058602574
1900288600.0 -0.8511174961 0.5188714066
1950288300.0 -0.8428663644 0.53142384
2000288000.0 -0.835445653 0.5429390752
2050287700.0 -0.8273422876 0.5553820078
2100287400.0 -0.8192236227 0.566874915
2150287100.0 -0.8106934221 0.5789719601
2200286800.0 -0.8030253552 0.589281669
2250286500.0 -0.7941190504 0.6013090229
2300286200.0 -0.785264312 0.6129669756
2350285900.0 -0.7764615092 0.6239160092
2400285600.0 -0.7676041346 0.6347236032
2450285300.0 -0.758896823 0.6453479141
2500285000.0 -0.7493189979 0.6567334924
2550284700.0 -0.7404904555 0.6667677462
2600284400.0 -0.7312655653 0.6770124675
2650284100.0 -0.722104641 0.6873930546
2700283800.0 -0.7113240379 0.6980099277
2750283500.0 -0.7011448254 0.7086370245
2800283200.0 -0.6914469273 0.7185830439
2850282900.0 -0.6812092254 0.7283731741
2900282600.0 -0.6709601358 0.7378032347
2950282300.0 -0.6606587153 0.747094483
3000282000.0 -0.6497938427 0.7564948273
3050281700.0 -0.6386575035 0.7657620108
3100281400.0 -0.626822356 0.7752663485
3150281100.0 -0.6150428288 0.7846165157
3200280800.0 -0.6034536876 0.7930038098
3250280500.0 -0.5926297589 0.8007368875
3300280200.0 -0.5813662691 0.8086262288
3350279900.0 -0.5697720979 0.816244593
3400279600.0 -0.5576980152 0.8241190137
3450279300.0 -0.5464667832 0.8311104725
3500279000.0 -0.5345263398 0.8382423719
3550278700.0 -0.5219697016 0.8454527849
3600278400.0 -0.509869802 0.8527553849
3650278100.0 -0.4966316795 0.8602368031
3700277800.0 -0.4843925851 0.8666906993
3750277500.0 -0.4725836877 0.873124353
3800277200.0 -0.4599444352 0.8798660946
3850276900.0 -0.447767279 0.8855810477
3900276600.0 -0.4369737048 0.8913875358
3950276300.0 -0.4246496719 0.8973908027
4000276000.0 -0.4125697857 0.9035039536
4050275700.0 -0.3999409256 0.9093669924
4100275400.0 -0.3885957257 0.9146280349
4150275100.0 -0.3760766215 0.9208204013
4200274800.0 -0.3627637132 0.9260888575
4250274500.0 -0.3506420311 0.9313553141
4300274200.0 -0.337737671 0.9367190044
4350273900.0 -0.3239858158 0.9418937874
4400273600.0 -0.3088748822 0.9472480616
4450273300.0 -0.293737795 0.9523806627
4500273000.0 -0.2800717314 0.9565566378
4550272700.0 -0.2661402893 0.9607844352
4600272400.0 -0.2505778766 0.9650331734
4650272100.0 -0.2388276948 0.968193613
4700271800.0 -0.2257081308 0.9714686407
4750271500.0 -0.2140384329 0.9743599941
4800271200.0 -0.2013612606 0.9771782013
4850270900.0 -0.187481832 0.9798610659
4900270600.0 -0.1736311738 0.9823201527
4950270300.0 -0.1592364363 0.9849459533
5000270000.0 -0.1449436544 0.9869186598
5050269700.0 -0.13167148 0.9886762219
5100269400.0 -0.1178025589 0.9902611189
5150269100.0 -0.1045053757 0.9916130068
5200268800.0 -0.0910480471 0.9925659438
5250268500.0 -0.0780342683 0.9939941979
5300268200.0 -0.0649233107 0.9945645033
5350267900.0 -0.0525373496 0.9951763993
5400267600.0 -0.0363649563 0.9962761669
5450267300.0 -0.0233500331 0.9966577032
5500267000.0 -0.0080588524 0.9971908287
5550266700.0 0.006823225 0.9973192616
5600266400.0 0.0225359415 0.9972371126
5650266100.0 0.0392750934 0.9972215441
5700265800.0 0.0535099841 0.9959226149
5750265500.0 0.0682632917 0.9955578226
5800265200.0 0.0823903847 0.9946472745
5850264900.0 0.095377399 0.9937050164
5900264600.0 0.1118901437 0.9917048478
5950264300.0 0.1238810572 0.9899915785
6000264000.0 0.1379719444 0.9882617363
6050263700.0 0.1506236627 0.986821784
6100263400.0 0.162669391 0.9848783184
6150263100.0 0.1774187597 0.9827829884
6200262800.0 0.187670896 0.9808750843
6250262500.0 0.2004703197 0.9785677736
6300262200.0 0.2131585432 0.9758276566
6350261900.0 0.2263153974 0.9731058996
6400261600.0 0.2398512396 0.969605528
6450261300.0 0.2515054758 0.9668483583
6500261000.0 0.2642147421 0.9634208987
6550260700.0 0.2775443244 0.9596790624
6600260400.0 0.2907973291 0.9553509829
6650260100.0 0.3045364775 0.95089885
6700259800.0 0.3165314073 0.9468280444
6750259500.0 0.3304410937 0.9418248629
6800259200.0 0.3438147244 0.9370333505
6850258900.0 0.355415927 0.9316375214
6900258600.0 0.3677626375 0.9265223477
6950258300.0 0.3803201704 0.9214264613
7000258000.0 0.3923237018 0.9160585561
7050257700.0 0.404542904 0.9099179297
7100257400.0 0.4174527912 0.903604803
7150257100.0 0.4277852113 0.898286421
7200256800.0 0.4405887494 0.8918596365
7250256500.0 0.4525881562 0.8857305607
7300256200.0 0.4657618505 0.8788703291
7350255900.0 0.4780716931 0.8720913889
7400255600.0 0.4918668682 0.8647107411
7450255300.0 0.5067813841 0.8559094625
7500255000.0 0.5184364452 0.8487716574
7550254700.0 0.5325550198 0.8399869078
7600254400.0 0.5451767016 0.8317312532
7650254100.0 0.5564646924 0.8240592956
7700253800.0 0.568169168 0.8161654231
7750253500.0 0.5792970339 0.808236961
7800253200.0 0.5900925114 0.800697713
7850252900.0 0.5998803298 0.793618226
7900252600.0 0.6114349242 0.7849683845
7950252300.0 0.6204400935 0.7783906329
8000252000.0 0.6304261171 0.7705979075
8050251700.0 0.640945626 0.7625071276
8100251400.0 0.651327064 0.7542509267
8150251100.0 0.6611787699 0.7457819899
8200250800.0 0.6703406671 0.7377979853
8250250500.0 0.6794801496 0.7298214204
8300250200.0 0.6886997792 0.7212708446
8350249900.0 0.6980229746 0.7125927111
8400249600.0 0.7062022643 0.7046311512
8450249300.0 0.7150442106 0.695303365
8500249000.0 0.7238333787 0.6864387341
8550248700.0 0.7320334002 0.6773635546
8600248400.0 0.7406019846 0.667952089
8650248100.0 0.7482719868 0.6585151284
8700247800.0 0.7579647102 0.6471360515
8750247500.0 0.7659940617 0.6373515978
8800247200.0 0.7741293216 0.6267509787
8850246900.0 0.783244842 0.6153134273
8900246600.0 0.7914629856 0.6038352862
8950246300.0 0.8010582461 0.5910313124
9000246000.0 0.8104962601 0.5784895853
9050245700.0 0.8194627523 0.5655244135
9100245400.0 0.8277835856 0.5531855599
9150245100.0 0.8370760021 0.5394518776
9200244800.0 0.8467108655 0.5245275665
9250244500.0 0.8565616744 0.5091230328
9300244200.0 0.8646225053 0.494640844
9350243900.0 0.8725266144 0.480800192
9400243600.0 0.8791680963 0.4685090517
9450243300.0 0.8850692964 0.4570708524
9500243000.0 0.8912654461 0.4448653614
9550242700.0 0.8950226888 0.4372216412
9600242400.0 0.8990345747 0.4298122006
9650242100.0 0.9027512416 0.4233403043
9700241800.0 0.9075941331 0.4150140667
9750241500.0 0.9113573166 0.4074958532
9800241200.0 0.9163995629 0.3980791362
9850240900.0 0.9218843123 0.3865219041
9900240600.0 0.9272459182 0.3750943352
9950240300.0 0.9340373335 0.3589862955
10000240000.0 0.9382704531 0.3475853897
10050239700.0 0.9447314253 0.3319831236
10100239400.0 0.9494360407 0.3168298746
10150239100.0 0.9539025723 0.3017161462
10200238800.0 0.9580871368 0.2865094789
10250238500.0 0.9613840663 0.2731991131
10300238200.0 0.9645156561 0.2592609471
10350237900.0 0.9671684888 0.2463360917
10400237600.0 0.9696476821 0.2331659404
10450237300.0 0.9726057541 0.2188587336
10500237000.0 0.9744509352 0.207084657
10550236700.0 0.9768096351 0.1931008988
10600236400.0 0.9795131365 0.1792376003
10650236100.0 0.9810639466 0.1645751174
10700235800.0 0.9831026789 0.1519724162
10750235500.0 0.9856309748 0.1384262718
10800235200.0 0.9879800373 0.1245024107
10850234900.0 0.989694745 0.1100956517
10900234600.0 0.9917980808 0.0953065555
10950234300.0 0.993537766 0.0820414659
11000234000.0 0.9952270653 0.0670543026
11050233700.0 0.9969643876 0.0508814783
11100233400.0 0.9983567885 0.0332572414
11150233100.0 0.999374452 0.0173096492
11200232800.0 1.000384607 0.0019142044
11250232500.0 1.00144815 -0.0143303309
11300232200.0 1.00177303 -0.0325350037
11350231900.0 1.001930461 -0.0487734039
11400231600.0 1.001469886 -0.0629476498
11450231300.0 1.000768337 -0.0785100016
11500231000.0 0.9997236961 -0.0945048092
11550230700.0 0.9986791389 -0.1083377087
11600230400.0 0.9975344435 -0.1215824101
11650230100.0 0.9954738034 -0.1329306641
11700229800.0 0.993105028 -0.1467482285
11750229500.0 0.9909219624 -0.1613941259
11800229200.0 0.9883465722 -0.1755484816
11850228900.0 0.9847725458 -0.1878094957
11900228600.0 0.9811134102 -0.1977605929
11950228300.0 0.9777149545 -0.2084430623
12000228000.0 0.9751558516 -0.2172395295
12050227700.0 0.9717247315 -0.2292431222
12100227400.0 0.96866757 -0.2407229479
12150227100.0 0.9632635385 -0.2580237606
12200226800.0 0.9597363547 -0.2683949835
12250226500.0 0.9553226839 -0.2812942734
12300226200.0 0.9512704379 -0.2937247014
12350225900.0 0.9468546924 -0.3077282495
12400225600.0 0.9423981514 -0.3208945545
12450225300.0 0.9378968721 -0.3333116612
12500225000.0 0.9322878926 -0.3479921185
12550224700.0 0.9271689161 -0.3620767284
12600224400.0 0.921953466 -0.3749716398
12650224100.0 0.9163291878 -0.3894666459
12700223800.0 0.9109929492 -0.4022486059
12750223500.0 0.9054353034 -0.4151201751
12800223200.0 0.9001182678 -0.4280850267
12850222900.0 0.894949118 -0.4400824451
12900222600.0 0.8889377924 -0.4521570819
12950222300.0 0.8830858244 -0.4644767307
13000222000.0 0.8772236432 -0.4759735838
13050221700.0 0.8701144582 -0.4892699938
13100221400.0 0.8634657512 -0.5009337374
13150221100.0 0.8567882313 -0.5133400909
13200220800.0 0.8499102748 -0.5246066813
13250220500.0 0.8425873747 -0.5371493204
13300220200.0 0.8352488992 -0.547376947
13350219900.0 0.8272962403 -0.5595280983
13400219600.0 0.8189442994 -0.5715320965
13450219300.0 0.8095479392 -0.5850327176
13500219000.0 0.799805382 -0.5985359058
13550218700.0 0.7895852164 -0.6117050104
13600218400.0 0.779171609 -0.6236601681
13650218100.0 0.7694401862 -0.6346345268
13700217800.0 0.7582674487 -0.6471522534
13750217500.0 0.7489387656 -0.6577942841
13800217200.0 0.7375207384 -0.6701643953
13850216900.0 0.7262441164 -0.6808754673
13900216600.0 0.7170863487 -0.6902520043
13950216300.0 0.7061392223 -0.6998966791
14000216000.0 0.696097316 -0.7099458192
14050215700.0 0.6862342917 -0.718105857
14100215400.0 0.6765379436 -0.7271836916
14150215100.0 0.6673238001 -0.7359150645
14200214800.0 0.6577451146 -0.7445254519
14250214500.0 0.6476034266 -0.7540288378
14300214200.0 0.6370477644 -0.7633522007
14350213900.0 0.6259758194 -0.7729627668
14400213600.0 0.6138823675 -0.7828973547
14450213300.0 0.6009335231 -0.7930095871
14500213000.0 0.5879466678 -0.8030283308
14550212700.0 0.575125388 -0.8126831734
14600212400.0 0.5634795503 -0.821418154
14650212100.0 0.5499985004 -0.8298650474
14700211800.0 0.5362787852 -0.8394726687
14750211500.0 0.5242403223 -0.8471720179
14800211200.0 0.5117087594 -0.8557353036
14850210900.0 0.4998646548 -0.8633408054
14900210600.0 0.4864655085 -0.8710930797
14950210300.0 0.4732036628 -0.878725617
15000210000.0 0.4605665687 -0.8853359438
15050209700.0 0.4480454254 -0.8914406578
15100209400.0 0.4352527292 -0.8976601593
15150209100.0 0.4229933403 -0.9030425408
15200208800.0 0.4102215133 -0.9086900482
15250208500.0 0.3986520046 -0.9128845554
15300208200.0 0.3866424459 -0.9172929063
15350207900.0 0.3737495754 -0.9217492847
15400207600.0 0.3596266984 -0.9279869239
15450207300.0 0.343949138 -0.9330201052
15500207000.0 0.3299598528 -0.9370314206
15550206700.0 0.315061279 -0.9425747566
15600206400.0 0.2992720315 -0.9472459421
15650206100.0 0.2836643018 -0.9513290048
15700205800.0 0.2694510264 -0.955196457
15750205500.0 0.2549425 -0.9584791319
15800205200.0 0.2407317256 -0.961980814
15850204900.0 0.2263502159 -0.9653735933
15900204600.0 0.2112498432 -0.9691214714
15950204300.0 0.196882004 -0.9720531009
16000204000.0 0.1826878028 -0.9749797129
16050203700.0 0.1676118232 -0.9779246694
16100203400.0 0.153352312 -0.9799441092
16150203100.0 0.1386661853 -0.9823874471
16200202800.0 0.1251393186 -0.9848641577
16250202500.0 0.1101359993 -0.9864923321
16300202200.0 0.0943127939 -0.9878723791
16350201900.0 0.0798479459 -0.9889949723
16400201600.0 0.0650666977 -0.9900971676
16450201300.0 0.0495886779 -0.9912087971
16500201000.0 0.0330825734 -0.9922874992
16550200700.0 0.0174178792 -0.9926584992
16600200400.0 0.0016365424 -0.9926678796
16650200100.0 -0.0142892348 -0.9928754474
16700199800.0 -0.0305074571 -0.9921734918
16750199500.0 -0.0487718404 -0.9919230252
16800199200.0 -0.0648849436 -0.9905840188
16850198900.0 -0.0798612631 -0.989735121
16900198600.0 -0.0943914243 -0.9886570325
16950198300.0 -0.1072956367 -0.9876184317
17000198000.0 -0.1207941808 -0.98598993
17050197700.0 -0.1333043382 -0.9838873336
17100197400.0 -0.1461585217 -0.9824646125
17150197100.0 -0.1584094216 -0.9802926138
17200196800.0 -0.1712449925 -0.9780906673
17250196500.0 -0.1845947067 -0.975708689
17300196200.0 -0.1964365935 -0.9735071236
17350195900.0 -0.2083838423 -0.9712625671
17400195600.0 -0.2205762768 -0.9688675272
17450195300.0 -0.2336791619 -0.9660699731
17500195000.0 -0.2470439196 -0.9625419958
17550194700.0 -0.2609256834 -0.9592812444
17600194400.0 -0.2749990436 -0.9551414935
17650194100.0 -0.288843436 -0.9512410914
17700193800.0 -0.3017657042 -0.9469062311
17750193500.0 -0.3162217556 -0.9421386728
17800193200.0 -0.3309378759 -0.9370754629
17850192900.0 -0.3454581396 -0.931710372
17900192600.0 -0.3610013433 -0.9255412909
17950192300.0 -0.3763929787 -0.9186294152
18000192000.0 -0.3910618783 -0.9114416067
18050191700.0 -0.4051544993 -0.9033750702
18100191400.0 -0.4193407525 -0.8956693647
18150191100.0 -0.4342067666 -0.8878200989
18200190800.0 -0.4511972216 -0.8787395117
18250190500.0 -0.4678373522 -0.8694281551
18300190200.0 -0.4838829501 -0.8601006067
18350189900.0 -0.4987007337 -0.8524740703
18400189600.0 -0.5131257963 -0.8439519632
18450189300.0 -0.526698655 -0.8356581856
18500189000.0 -0.5399883159 -0.8282066027
18550188700.0 -0.5524612947 -0.8206535098
18600188400.0 -0.5640475352 -0.8136177285
18650188100.0 -0.5754941863 -0.8069743811
18700187800.0 -0.5857303425 -0.8009153633
18750187500.0 -0.5964532098 -0.7944672015
18800187200.0 -0.6069870703 -0.7873052079
18850186900.0 -0.6171094992 -0.780393657
18900186600.0 -0.627507218 -0.7730733203
18950186300.0 -0.6373268329 -0.7653437288
19000186000.0 -0.6446847662 -0.7591154212
19050185700.0 -0.6540582941 -0.7520719695
19100185400.0 -0.6635024168 -0.7435795194
19150185100.0 -0.6742010941 -0.7354505498
19200184800.0 -0.6831380598 -0.7268580587
19250184500.0 -0.6933288868 -0.717675208
19300184200.0 -0.7050624219 -0.7083207647
19350183900.0 -0.7159339931 -0.6988360428
19400183600.0 -0.7253745834 -0.6882784529
19450183300.0 -0.7346667085 -0.6789915788
19500183000.0 -0.7423154152 -0.6691781454
19550182700.0 -0.7520866117 -0.6575879747
19600182400.0 -0.7627271735 -0.646309406
19650182100.0 -0.773725825 -0.6333609014
19700181800.0 -0.7843503729 -0.6202585614
19750181500.0 -0.7950132936 -0.6061699202
19800181200.0 -0.8054138187 -0.5912019041
19850180900.0 -0.8151909147 -0.5758879724
19900180600.0 -0.823148954 -0.5613797872
19950180300.0 -0.832477674 -0.5448065111
20000180000.0 -0.8253170151 -0.5477814259
20050179700.0 -0.8329395551 -0.5339763416
20100179400.0 -0.8418420198 -0.5197278435
20150179100.0 -0.8505721664 -0.5079144019
20200178800.0 -0.8591574555 -0.4957661626
20250178500.0 -0.8686427582 -0.4816323415
20300178200.0 -0.8781908361 -0.467661847
20350177900.0 -0.8871127455 -0.4533336614
20400177600.0 -0.8963079953 -0.438777866
20450177300.0 -0.9045997385 -0.4244005825
20500177000.0 -0.9124490699 -0.4104944278
20550176700.0 -0.9202812929 -0.3968969887
20600176400.0 -0.9272637416 -0.3839992945
20650176100.0 -0.9340962638 -0.3717942665
20700175800.0 -0.9407982534 -0.3606596276
20750175500.0 -0.9464232615 -0.3485398694
20800175200.0 -0.9513393211 -0.3383136204
20850174900.0 -0.9564357667 -0.3265955137
20900174600.0 -0.9605499146 -0.315346654
20950174300.0 -0.9655174498 -0.3033458596
21000174000.0 -0.9687014586 -0.2929328205
21050173700.0 -0.9705448244 -0.2819842617
21100173400.0 -0.9751306384 -0.2698718794
21150173100.0 -0.979673499 -0.2575616658
21200172800.0 -0.9825897187 -0.2437377602
21250172500.0 -0.9860714982 -0.2301671024
21300172200.0 -0.9886962532 -0.2164195309
21350171900.0 -0.9904023977 -0.2020530278
21400171600.0 -0.9918140375 -0.1874779352
21450171300.0 -0.9921684914 -0.1723163483
21500171000.0 -0.9922505509 -0.1569017247
21550170700.0 -0.9922265065 -0.1419562086
21600170400.0 -0.9919981162 -0.1270333404
21650170100.0 -0.9917220497 -0.1112844798
21700169800.0 -0.989450157 -0.0957976132
21750169500.0 -0.9891083328 -0.0793838478
21800169200.0 -0.987738786 -0.0629830559
21850168900.0 -0.9879512151 -0.0469177405
21900168600.0 -0.9862716882 -0.0304260392
21950168300.0 -0.9849151361 -0.0147097138
22000168000.0 -0.984329294 0.0006629207
22050167700.0 -0.9841282198 0.0148257374
22100167400.0 -0.9842418667 0.0302570293
22150167100.0 -0.9849064269 0.0455553384
22200166800.0 -0.9853915272 0.0619651173
22250166500.0 -0.9852649836 0.0795459862
22300166200.0 -0.9843324155 0.0962011712
22350165900.0 -0.9832594177 0.1122164261
22400165600.0 -0.9813682624 0.1291596809
22450165300.0 -0.9794077622 0.1427564726
22500165000.0 -0.9784915537 0.1566428274
22550164700.0 -0.9761516466 0.1725080964
22600164400.0 -0.9749859621 0.1881235265
22650164100.0 -0.9723567824 0.2019980171
22700163800.0 -0.9700107549 0.2182773959
22750163500.0 -0.9675416385 0.2335423634
22800163200.0 -0.9644452222 0.2469714312
22850162900.0 -0.962052911 0.2598644831
22900162600.0 -0.9605738773 0.2733696164
22950162300.0 -0.9592695039 0.2863141086
23000162000.0 -0.957998321 0.2981871825
23050161700.0 -0.9557275542 0.3108205823
23100161400.0 -0.954229899 0.3238180491
23150161100.0 -0.9509984765 0.3362862252
23200160800.0 -0.9482174396 0.3487930318
23250160500.0 -0.9454725109 0.3603851513
23300160200.0 -0.9424422607 0.3729041344
23350159900.0 -0.9389326071 0.3858449712
23400159600.0 -0.9346170427 0.3992060565
23450159300.0 -0.9294218316 0.4125931087
23500159000.0 -0.9251473066 0.4255617059
23550158700.0 -0.9202655818 0.4388398325
23600158400.0 -0.9149055552 0.4524671675
23650158100.0 -0.908618326 0.4664266185
23700157800.0 -0.9009106927 0.4802007882
23750157500.0 -0.892348806 0.4942654473
23800157200.0 -0.883415395 0.5076232084
23850156900.0 -0.8745203885 0.5204739242
23900156600.0 -0.8652812851 0.5333060999
23950156300.0 -0.8563925787 0.5454915317
24000156000.0 -0.8466673127 0.5571181147
24050155700.0 -0.8375226056 0.5697783591
24100155400.0 -0.8276133402 0.5819334759
24150155100.0 -0.8162676581 0.5925612628
24200154800.0 -0.8052003364 0.6045029155
24250154500.0 -0.794379081 0.6166862965
24300154200.0 -0.7832597338 0.6276009105
24350153900.0 -0.7709123918 0.6383671449
24400153600.0 -0.7586817183 0.6488128693
24450153300.0 -0.7471881348 0.6584912047
24500153000.0 -0.7356179171 0.6679147081
24550152700.0 -0.724479272 0.6776675378
24600152400.0 -0.7129163669 0.6867626577
24650152100.0 -0.7019665171 0.6953497403
