!Created with skrf (http://scikit-rf.org).
# Hz S RI R 50.0 
!freq ReS11 ImS11
300000.0 -0.9729774474 -0.1211402553
50299700.0 -0.9999598364 0.0149972532
100299400.0 -0.997852612 0.0281669241
150299100.0 -1.00278908 0.0446954638
200298800.0 -0.9995943269 0.0579691333
250298500.0 -0.9975957487 0.0716295396
300298200.0 -0.9857546048 0.0873794816
350297900.0 -0.9939937093 0.0982406308
400297600.0 -0.9930354471 0.1148900954
450297300.0 -0.9909269701 0.1288138581
500297000.0 -0.9892255787 0.1436200521
550296700.0 -0.9840986165 0.1559956062
600296400.0 -1.017355349 0.1892497998
650296100.0 -0.9819603352 0.1858476149
700295800.0 -0.9795422926 0.1999188344
750295500.0 -0.9761961132 0.214164009
800295200.0 -0.9729501017 0.2281458325
850294900.0 -0.9694314933 0.2419458213
900294600.0 -0.9657557825 0.2556293833
950294300.0 -0.9621333799 0.2693938049
1000294000.0 -0.9579453861 0.2832842281
1050293700.0 -0.9536466545 0.2972266825
1100293400.0 -0.9493546573 0.311610386
1150293100.0 -0.9453873781 0.3235552127
1200292800.0 -0.9401618914 0.3377378226
1250292500.0 -0.9347409633 0.3512042026
1300292200.0 -0.9289711022 0.3643313922
1350291900.0 -0.9233937792 0.3786306639
1400291600.0 -0.9180412853 0.3915029946
1450291300.0 -0.9126495651 0.4040635807
1500291000.0 -0.9062679194 0.4174561504
1550290700.0 -0.8995282162 0.4306591237
1600290400.0 -0.89348024 0.443616809
1650290100.0 -0.8869642616 0.455871649
1700289800.0 -0.8798638984 0.4691236461
1750289500.0 -0.8729444415 0.4816171447
1800289200.0 -0.8657077953 0.4943090466
1850288900.0 -0.8586585018 0.5057416088
1900288600.0 -0.850968037 0.5186902599
1950288300.0 -0.8430615811 0.5314508372
2000288000.0 -0.8353962498 0.5427923964
2050287700.0 -0.8272323387 0.5552811894
2100287400.0 -0.8192954382 0.5667098809
2150287100.0 -0.8108036405 0.578692587
2200286800.0 -0.8028598554 0.5891249171
2250286500.0 -0.7939679093 0.601485919
2300286200.0 -0.7850522605 0.6130153217
2350285900.0 -0.7769169669 0.6235634357
2400285600.0 -0.7678008799 0.6343724134
2450285300.0 -0.7590130334 0.6450428538
2500285000.0 -0.7490671438 0.656666316
2550284700.0 -0.7400863899 0.6670877668
2600284400.0 -0.7311117462 0.6771079709
2650284100.0 -0.7222339479 0.6871249389
2700283800.0 -0.7119084562 0.6975375978
2750283500.0 -0.7014977875 0.7082428266
2800283200.0 -0.6916978745 0.7182261183
2850282900.0 -0.6811996897 0.7282187694
2900282600.0 -0.6706837695 0.7375788235
2950282300.0 -0.6604258449 0.7473321302
3000282000.0 -0.6495376541 0.7565294846
3050281700.0 -0.6383810192 0.7659428982
3100281400.0 -0.6268613992 0.7750674001
3150281100.0 -0.6154561082 0.7839630182
3200280800.0 -0.6040339256 0.7923466242
3250280500.0 -0.593125242 0.8004370739
3300280200.0 -0.5814056035 0.8084510738
3350279900.0 -0.5692577394 0.8165451229
3400279600.0 -0.5567852397 0.8245234088
3450279300.0 -0.5455625814 0.8314773482
3500279000.0 -0.5337985551 0.8385412135
3550278700.0 -0.5217837887 0.845713016
3600278400.0 -0.5098812069 0.8525387048
3650278100.0 -0.496831358 0.8599879005
3700277800.0 -0.4846472566 0.8665051073
3750277500.0 -0.4721028841 0.8733101109
3800277200.0 -0.4597625274 0.8799629395
3850276900.0 -0.447518557 0.8857589475
3900276600.0 -0.4368011589 0.8911790613
3950276300.0 -0.4248156521 0.89727887
4000276000.0 -0.4130590818 0.9031009784
4050275700.0 -0.400407225 0.9093896766
4100275400.0 -0.3891852229 0.9144695157
4150275100.0 -0.375939997 0.9206462289
4200274800.0 -0.3625278376 0.9263052629
4250274500.0 -0.3499568451 0.9313431992
4300274200.0 -0.3367501898 0.9367240401
4350273900.0 -0.3224005474 0.9421656943
4400273600.0 -0.3077016289 0.9472175069
4450273300.0 -0.2929145237 0.9521942034
4500273000.0 -0.2796382219 0.9565490787
4550272700.0 -0.2661872549 0.9605246317
4600272400.0 -0.2509219956 0.9646776695
4650272100.0 -0.2395715983 0.9679640131
4700271800.0 -0.2265231168 0.9711454487
4750271500.0 -0.2149355116 0.9739505813
4800271200.0 -0.2026860716 0.9767233643
4850270900.0 -0.1888710675 0.9796594312
4900270600.0 -0.175171196 0.9820025501
4950270300.0 -0.1605030086 0.9845141611
5000270000.0 -0.1461537203 0.9866020523
5050269700.0 -0.1326336281 0.988045982
5100269400.0 -0.1185424578 0.9901279907
5150269100.0 -0.1046543531 0.9917591685
5200268800.0 -0.091239735 0.9927641634
5250268500.0 -0.0781607195 0.9936975164
5300268200.0 -0.0645299117 0.9946620062
5350267900.0 -0.0517208398 0.9954561902
5400267600.0 -0.0356059673 0.9963791971
5450267300.0 -0.0223107855 0.996539547
5500267000.0 -0.0069583146 0.9970907774
5550266700.0 0.0079039503 0.9971079699
5600266400.0 0.0238644517 0.9972522365
5650266100.0 0.0401491121 0.9965434087
5700265800.0 0.0544914556 0.9958501542
5750265500.0 0.0696355169 0.9953154069
5800265200.0 0.0830732867 0.9940634445
5850264900.0 0.0962745758 0.9934195543
5900264600.0 0.1130560412 0.9914766223
5950264300.0 0.124386573 0.9899794593
6000264000.0 0.1379931452 0.9883227874
6050263700.0 0.1501286824 0.9866446572
6100263400.0 0.1621907428 0.9849592444
6150263100.0 0.1763663407 0.9824328772
6200262800.0 0.186171496 0.9808474324
6250262500.0 0.1989514143 0.978578437
6300262200.0 0.2112480544 0.9760913516
6350261900.0 0.2241339916 0.9735012936
6400261600.0 0.238035358 0.9701000813
6450261300.0 0.2490214033 0.9675262714
6500261000.0 0.262371671 0.9641004131
6550260700.0 0.2752591678 0.959896094
6600260400.0 0.2890760329 0.9559969172
6650260100.0 0.3027999969 0.9514895764
6700259800.0 0.3154528841 0.9475139917
6750259500.0 0.3286962199 0.9423502224
6800259200.0 0.3425200049 0.9372986122
6850258900.0 0.3547501017 0.9319140319
6900258600.0 0.3673087089 0.9270436333
6950258300.0 0.3797912371 0.9214637829
7000258000.0 0.3913922812 0.9162020486
7050257700.0 0.4033691152 0.9103816229
7100257400.0 0.4168377657 0.9040994539
7150257100.0 0.4276060009 0.8985814505
7200256800.0 0.4402868675 0.8920932048
7250256500.0 0.4530383551 0.8855672958
7300256200.0 0.4660740691 0.8787263455
7350255900.0 0.4790665955 0.8718110873
7400255600.0 0.4922618143 0.8638917428
7450255300.0 0.5084998364 0.8549841568
7500255000.0 0.5205738272 0.8474273029
7550254700.0 0.5348113389 0.8383024517
7600254400.0 0.547058734 0.8300749261
7650254100.0 0.5591173181 0.8222508359
7700253800.0 0.5704622026 0.8139446782
7750253500.0 0.5816704208 0.8065875781
7800253200.0 0.5923887311 0.7988699233
7850252900.0 0.6020204807 0.7916127522
7900252600.0 0.6137290569 0.7827573628
7950252300.0 0.6221412301 0.7762714637
8000252000.0 0.6321668259 0.7687664773
8050251700.0 0.6424956214 0.7607287647
8100251400.0 0.6525375129 0.7527856968
8150251100.0 0.6622701712 0.7443058043
8200250800.0 0.671692503 0.7360938692
8250250500.0 0.6806811903 0.7280658027
8300250200.0 0.6898919368 0.719873641
8350249900.0 0.6991601544 0.7109254495
8400249600.0 0.7072199382 0.7029817363
8450249300.0 0.7158130424 0.6942917863
8500249000.0 0.7245711488 0.6853603445
8550248700.0 0.7326272893 0.676381891
8600248400.0 0.7410228411 0.6667181254
8650248100.0 0.7487390026 0.6575112934
8700247800.0 0.7580105602 0.6463398634
8750247500.0 0.7663689279 0.636390994
8800247200.0 0.7742686383 0.6259877544
8850246900.0 0.7830069127 0.6144059166
8900246600.0 0.7915682213 0.6029783616
8950246300.0 0.8006487449 0.5904578037
9000246000.0 0.8094760507 0.5785414202
9050245700.0 0.8178342213 0.5662476374
9100245400.0 0.8260681543 0.5539046364
9150245100.0 0.8354689255 0.5410018036
9200244800.0 0.8443436764 0.5266404405
9250244500.0 0.8535382138 0.5116292025
9300244200.0 0.8615180725 0.4981910394
9350243900.0 0.8693021804 0.4848717327
9400243600.0 0.8759460968 0.4730641102
9450243300.0 0.881457175 0.4625540995
9500243000.0 0.8878023117 0.4506908405
9550242700.0 0.891941015 0.4432558884
9600242400.0 0.8960946892 0.4356766687
9650242100.0 0.9002346037 0.4287090285
9700241800.0 0.9050911509 0.4202737889
9750241500.0 0.9091209532 0.4127078444
9800241200.0 0.9143538751 0.403237432
9850240900.0 0.9201247627 0.3914280125
9900240600.0 0.9261988645 0.3796945004
9950240300.0 0.9329524801 0.3630046508
10000240000.0 0.9383158548 0.3508228137
10050239700.0 0.9442068884 0.3348974098
10100239400.0 0.9494931333 0.3184688143
10150239100.0 0.9541395352 0.3032499153
10200238800.0 0.9584670442 0.2877157881
10250238500.0 0.9616105383 0.2741616166
10300238200.0 0.9647320359 0.2602433041
10350237900.0 0.9673228151 0.2470214765
10400237600.0 0.9699655306 0.2331394547
10450237300.0 0.9727538083 0.2192568935
10500237000.0 0.9748465285 0.2073321709
10550236700.0 0.9777386001 0.1920561151
10600236400.0 0.9800051306 0.179067543
10650236100.0 0.9817539911 0.1646939857
10700235800.0 0.9837886315 0.1521269708
10750235500.0 0.985695242 0.1383975019
10800235200.0 0.9875995723 0.1243787676
10850234900.0 0.9900441325 0.1093618056
10900234600.0 0.9919973127 0.0948694361
10950234300.0 0.99383519 0.0812502022
11000234000.0 0.995608435 0.065645298
11050233700.0 0.9972509107 0.0487681811
11100233400.0 0.9986900098 0.0314533026
11150233100.0 0.999842253 0.0147757458
11200232800.0 1.000395311 -0.0015230356
11250232500.0 1.001902357 -0.0193441498
11300232200.0 1.00238241 -0.0373733366
11350231900.0 1.001616328 -0.0536362628
11400231600.0 1.001632245 -0.069660925
11450231300.0 1.000905522 -0.0845289998
11500231000.0 0.9999235379 -0.1019440417
11550230700.0 0.9981454476 -0.1149731749
11600230400.0 0.9961782358 -0.1272115164
11650230100.0 0.9948001276 -0.13893444
11700229800.0 0.9927085036 -0.1542346911
11750229500.0 0.9903090372 -0.1683783449
11800229200.0 0.987757583 -0.181515656
11850228900.0 0.9837647701 -0.1930930008
11900228600.0 0.9802453259 -0.2023732744
11950228300.0 0.9766115207 -0.2132394018
12000228000.0 0.9735477527 -0.2217983202
12050227700.0 0.9700639394 -0.2342721674
12100227400.0 0.9671512272 -0.2454742425
12150227100.0 0.9619414767 -0.262037454
12200226800.0 0.9587242188 -0.2730183681
12250226500.0 0.9535129231 -0.2862324467
12300226200.0 0.9493121442 -0.2980415642
12350225900.0 0.9444970744 -0.3124506004
12400225600.0 0.9401257679 -0.3244225239
12450225300.0 0.9358425777 -0.3368522576
12500225000.0 0.9305329154 -0.3517886227
12550224700.0 0.9248657734 -0.3651620993
12600224400.0 0.9200828455 -0.3781032698
12650224100.0 0.9142261748 -0.3924230368
12700223800.0 0.9090269666 -0.4052769942
12750223500.0 0.9034488295 -0.4183464749
12800223200.0 0.8978622778 -0.4314141503
12850222900.0 0.8929689894 -0.4430263711
12900222600.0 0.887396696 -0.454896388
12950222300.0 0.8811884463 -0.4677669405
13000222000.0 0.8750506073 -0.4792775904
13050221700.0 0.8682567366 -0.4919090315
13100221400.0 0.8612246682 -0.5046315247
13150221100.0 0.8545372803 -0.5166966182
13200220800.0 0.8478702023 -0.5278132291
13250220500.0 0.8404319678 -0.5401402001
13300220200.0 0.8330521801 -0.5512799832
13350219900.0 0.8248874184 -0.5630823479
13400219600.0 0.8164263436 -0.5748527302
13450219300.0 0.807193165 -0.5880191351
13500219000.0 0.797228902 -0.6013742758
13550218700.0 0.7878269854 -0.6133559248
13600218400.0 0.7777711087 -0.6253941582
13650218100.0 0.7681134111 -0.636149369
13700217800.0 0.7576903383 -0.6483141187
13750217500.0 0.747718242 -0.6586969659
13800217200.0 0.7363970593 -0.6700149742
13850216900.0 0.725244694 -0.6816652051
13900216600.0 0.7159193158 -0.6907828578
13950216300.0 0.7049138458 -0.7002655019
14000216000.0 0.6956586623 -0.7096632637
14050215700.0 0.6860688465 -0.7179880227
14100215400.0 0.6761928347 -0.7264695355
14150215100.0 0.6671802466 -0.7355626924
14200214800.0 0.6577475487 -0.7442488165
14250214500.0 0.6474751532 -0.7535659234
14300214200.0 0.636961214 -0.763161728
14350213900.0 0.6259363615 -0.7728777094
14400213600.0 0.6140779662 -0.7824605109
14450213300.0 0.6009060131 -0.7928278631
14500213000.0 0.5879182861 -0.802407001
14550212700.0 0.5756675911 -0.811842804
14600212400.0 0.5633835328 -0.8207879072
14650212100.0 0.5508079003 -0.8294167544
14700211800.0 0.5369841666 -0.8386873684
14750211500.0 0.5247863519 -0.8475597775
14800211200.0 0.5124083229 -0.8553512614
14850210900.0 0.5000370841 -0.8631017845
14900210600.0 0.4865672314 -0.8711981676
14950210300.0 0.4732689617 -0.8788111323
15000210000.0 0.4604689083 -0.8855038869
15050209700.0 0.4484736922 -0.8914774608
15100209400.0 0.4353653371 -0.8975854121
15150209100.0 0.4232373069 -0.9026568285
15200208800.0 0.4108069131 -0.9084401
15250208500.0 0.3995505504 -0.9130322877
15300208200.0 0.3871067147 -0.9173566467
15350207900.0 0.3742765399 -0.9222436315
15400207600.0 0.3589050496 -0.9274908222
15450207300.0 0.3445252675 -0.9327283709
15500207000.0 0.3304189378 -0.9373038766
15550206700.0 0.3153751864 -0.9419191246
15600206400.0 0.2994533126 -0.9465646953
15650206100.0 0.2836706835 -0.9512724858
15700205800.0 0.2703701132 -0.9542678359
15750205500.0 0.2559355182 -0.9578814488
15800205200.0 0.2418411894 -0.9613799869
15850204900.0 0.22771091 -0.9647802
15900204600.0 0.2125613411 -0.9684255694
15950204300.0 0.198277368 -0.9716151587
16000204000.0 0.183990446 -0.9745512315
16050203700.0 0.1688568622 -0.9774918621
16100203400.0 0.1541200089 -0.9800668995
16150203100.0 0.1392452295 -0.982385441
16200202800.0 0.1250114939 -0.9839710062
16250202500.0 0.1100427006 -0.9860880662
16300202200.0 0.0949413703 -0.9876688254
16350201900.0 0.0796703616 -0.9892501452
16400201600.0 0.0650439743 -0.9902733447
16450201300.0 0.0496462462 -0.9913489748
16500201000.0 0.0324046633 -0.9920693232
16550200700.0 0.0164467491 -0.9925483196
16600200400.0 0.0006364811 -0.9925701727
16650200100.0 -0.0157948061 -0.9926207415
16700199800.0 -0.0319594809 -0.9922818933
16750199500.0 -0.0512626609 -0.9914179074
16800199200.0 -0.0671259363 -0.9906473032
16850198900.0 -0.0824708673 -0.9896545117
16900198600.0 -0.0961982884 -0.9889676523
16950198300.0 -0.1097885344 -0.9871640832
17000198000.0 -0.1235083813 -0.9852649591
17050197700.0 -0.1362524055 -0.9833523503
17100197400.0 -0.1491963104 -0.9817980119
17150197100.0 -0.1618637872 -0.9800246365
17200196800.0 -0.17420196 -0.9781450781
17250196500.0 -0.1873890346 -0.9755532845
17300196200.0 -0.1995900964 -0.9730792865
17350195900.0 -0.2111765544 -0.9707909444
17400195600.0 -0.2232891274 -0.9682207104
17450195300.0 -0.236059469 -0.9653545115
17500195000.0 -0.2493093673 -0.9619361285
17550194700.0 -0.2631037941 -0.9585507905
17600194400.0 -0.2773618853 -0.9546088264
17650194100.0 -0.2904934188 -0.950463009
17700193800.0 -0.303285964 -0.9465789739
17750193500.0 -0.3176015353 -0.9416949172
17800193200.0 -0.3319878418 -0.9365329009
17850192900.0 -0.346518411 -0.9315683445
17900192600.0 -0.3616011898 -0.9253500384
17950192300.0 -0.3773923775 -0.9182357953
18000192000.0 -0.392122679 -0.9107792504
18050191700.0 -0.4057787241 -0.9027876785
18100191400.0 -0.4200517278 -0.8952137614
18150191100.0 -0.4349452819 -0.8871848718
18200190800.0 -0.4517196767 -0.8781029367
18250190500.0 -0.4686379047 -0.8684475861
18300190200.0 -0.4844679853 -0.8596512456
18350189900.0 -0.4994044144 -0.8515859049
18400189600.0 -0.5143225467 -0.8427697817
18450189300.0 -0.5272709979 -0.8347229108
18500189000.0 -0.5407170789 -0.8267629705
18550188700.0 -0.5532335789 -0.8191667647
18600188400.0 -0.5654639222 -0.8120352706
18650188100.0 -0.576796569 -0.8058497557
18700187800.0 -0.587780507 -0.7988568573
18750187500.0 -0.5984721362 -0.7922509359
18800187200.0 -0.6092972467 -0.7853342102
18850186900.0 -0.6197513612 -0.7784270555
18900186600.0 -0.6298530773 -0.7708859707
18950186300.0 -0.6399503644 -0.7633024537
19000186000.0 -0.6473937848 -0.7573949673
19050185700.0 -0.6570960289 -0.7499639734
19100185400.0 -0.6667661579 -0.7418778715
19150185100.0 -0.6765702237 -0.733544274
19200184800.0 -0.6859064272 -0.7255832556
19250184500.0 -0.6966927533 -0.7168012114
19300184200.0 -0.7076292016 -0.7069220969
19350183900.0 -0.7186617282 -0.6974726865
19400183600.0 -0.7282884898 -0.6878132429
19450183300.0 -0.7368964813 -0.6765435041
19500183000.0 -0.7456970276 -0.6667762182
19550182700.0 -0.7550833351 -0.6557339912
19600182400.0 -0.7652316189 -0.6443414904
19650182100.0 -0.7761155647 -0.6318587977
19700181800.0 -0.7865239417 -0.6187960556
19750181500.0 -0.7967431387 -0.6045553394
19800181200.0 -0.8070550457 -0.5896609786
19850180900.0 -0.8164654114 -0.5744587457
19900180600.0 -0.824137058 -0.5599241192
19950180300.0 -0.8333128008 -0.543343315
20000180000.0 -0.8233865525 -0.547474667
20050179700.0 -0.8309653366 -0.5339233405
20100179400.0 -0.84022606 -0.5216061066
20150179100.0 -0.8478770939 -0.5097645427
20200178800.0 -0.856641717 -0.497201654
20250178500.0 -0.8662958039 -0.4850789138
20300178200.0 -0.8752121432 -0.471261849
20350177900.0 -0.8847133639 -0.4575136989
20400177600.0 -0.893691191 -0.4427895273
20450177300.0 -0.9022734871 -0.4291916086
20500177000.0 -0.9101367399 -0.4150860352
20550176700.0 -0.9182321646 -0.4015066413
20600176400.0 -0.9254301636 -0.3884846692
20650176100.0 -0.9315360866 -0.3758825754
20700175800.0 -0.9381361565 -0.3643283051
20750175500.0 -0.9449835042 -0.3520524919
20800175200.0 -0.9491444284 -0.3414289475
20850174900.0 -0.9548528481 -0.3311884176
20900174600.0 -0.9585808878 -0.3198623069
20950174300.0 -0.9622243139 -0.3096841672
21000174000.0 -0.9648540947 -0.2989630965
21050173700.0 -0.9657613039 -0.2886038349
21100173400.0 -0.9702017356 -0.2777804863
21150173100.0 -0.9735540255 -0.2656977577
21200172800.0 -0.9776038874 -0.2524728023
21250172500.0 -0.9813882494 -0.2384350022
21300172200.0 -0.984390307 -0.2245178725
21350171900.0 -0.9865346388 -0.2105473548
21400171600.0 -0.9881219109 -0.1960777186
21450171300.0 -0.9891042375 -0.1824373622
21500171000.0 -0.9899478895 -0.1671370921
21550170700.0 -0.9903111045 -0.151990637
21600170400.0 -0.9902286278 -0.1363263187
21650170100.0 -0.9911516427 -0.1215805626
21700169800.0 -0.9890279482 -0.1057218185
21750169500.0 -0.9897082904 -0.0891809645
21800169200.0 -0.9905642269 -0.0726975382
21850168900.0 -0.9902006016 -0.0566192077
21900168600.0 -0.9888807861 -0.0392936717
21950168300.0 -0.9885460299 -0.0236155916
22000168000.0 -0.9888395998 -0.008887939
22050167700.0 -0.9889842642 0.0054645031
22100167400.0 -0.990057937 0.0210523605
22150167100.0 -0.990810087 0.0369467551
22200166800.0 -0.9916013521 0.0532941369
22250166500.0 -0.9903053053 0.0707272044
22300166200.0 -0.9900303524 0.0872217808
22350165900.0 -0.9886804395 0.1028234693
22400165600.0 -0.9870928725 0.1190081525
22450165300.0 -0.9862932975 0.1340928472
22500165000.0 -0.9835351984 0.1480369509
22550164700.0 -0.9822118404 0.1642975946
22600164400.0 -0.9800570094 0.1809274278
22650164100.0 -0.9776295512 0.1955837073
22700163800.0 -0.9743058603 0.212058457
22750163500.0 -0.9714129327 0.2268973136
22800163200.0 -0.9685695626 0.2399641425
22850162900.0 -0.9658188589 0.2537013653
22900162600.0 -0.9643432488 0.2670906224
22950162300.0 -0.9626533372 0.2809052835
23000162000.0 -0.9606493775 0.2932944114
23050161700.0 -0.9583175102 0.3066843576
23100161400.0 -0.955004194 0.320438451
23150161100.0 -0.9524378039 0.33311242
23200160800.0 -0.9495899211 0.346161729
23250160500.0 -0.9469453636 0.3585458363
23300160200.0 -0.9447786202 0.3708956104
23350159900.0 -0.9399652241 0.3849120434
23400159600.0 -0.9353252961 0.3977715882
23450159300.0 -0.9293796271 0.4122975701
23500159000.0 -0.9245576378 0.4256515678
23550158700.0 -0.9203396756 0.4399150638
23600158400.0 -0.914275595 0.4538217175
23650158100.0 -0.9070797803 0.4681570895
23700157800.0 -0.898618542 0.4823493482
23750157500.0 -0.8892967035 0.4967130908
23800157200.0 -0.8799730359 0.5097451324
23850156900.0 -0.8700745349 0.5231020241
23900156600.0 -0.8603979216 0.5358806646
23950156300.0 -0.8517364456 0.5481413855
24000156000.0 -0.8412888734 0.5600245557
24050155700.0 -0.8306764863 0.5727188535
24100155400.0 -0.8204104487 0.5858875573
24150155100.0 -0.8094214724 0.5974884474
24200154800.0 -0.7988873326 0.608927418
24250154500.0 -0.7875556699 0.6213598359
24300154200.0 -0.7756743214 0.6332902679
24350153900.0 -0.7636575223 0.6444815178
24400153600.0 -0.7513579123 0.6551605247
24450153300.0 -0.7395213012 0.6651718628
24500153000.0 -0.7275807961 0.6747628883
24550152700.0 -0.7163214959 0.68496144
24600152400.0 -0.7044656187 0.6942300819
24650152100.0 -0.6921569489 0.7030513706
