!Created with skrf (http://scikit-rf.org).
# Hz S RI R 50.0 
!freq ReS11 ImS11
300000.0 -0.973605394 -0.1192335308
50299700.0 -1.00002535 0.0153649969
100299400.0 -0.9980314073 0.0281728183
150299100.0 -1.002755015 0.0450936134
200298800.0 -0.999616843 0.0582696722
250298500.0 -0.9974614821 0.0719596508
300298200.0 -0.9858128708 0.0877044444
350297900.0 -0.9938823188 0.0985016717
400297600.0 -0.9930827176 0.1151955357
450297300.0 -0.9909928501 0.1289347337
500297000.0 -0.9893198238 0.1436511863
550296700.0 -0.9843822238 0.156012822
600296400.0 -1.017493066 0.1894645825
650296100.0 -0.9822097539 0.1861533959
700295800.0 -0.9792965805 0.2004045345
750295500.0 -0.9764516056 0.2143401844
800295200.0 -0.9730973523 0.2284780139
850294900.0 -0.9695630902 0.2420062305
900294600.0 -0.9659189252 0.2560264063
950294300.0 -0.9622133155 0.2696637398
1000294000.0 -0.9582016161 0.2836795935
1050293700.0 -0.9536691178 0.297447945
1100293400.0 -0.9493584102 0.3119014892
1150293100.0 -0.9455020409 0.3237248919
1200292800.0 -0.9401851968 0.338093363
1250292500.0 -0.9347597252 0.3514156262
1300292200.0 -0.9290775402 0.3647378064
1350291900.0 -0.9233448758 0.3787093748
1400291600.0 -0.9180585959 0.3917978945
1450291300.0 -0.9124033968 0.4042446673
1500291000.0 -0.906108153 0.4176694953
1550290700.0 -0.8995176526 0.4310140194
1600290400.0 -0.8934149847 0.4439913957
1650290100.0 -0.8867959198 0.4561394617
1700289800.0 -0.8799025746 0.469547069
1750289500.0 -0.8727040724 0.4816150072
1800289200.0 -0.8655920826 0.4945805927
1850288900.0 -0.8588122732 0.5059678204
1900288600.0 -0.8509866907 0.5190840224
1950288300.0 -0.8427815749 0.5315028662
2000288000.0 -0.8352597924 0.5429138735
2050287700.0 -0.8273241457 0.5553602835
2100287400.0 -0.8192546339 0.5669810084
2150287100.0 -0.8106474179 0.5789174332
2200286800.0 -0.802863415 0.5893921843
2250286500.0 -0.7939925967 0.6014744262
2300286200.0 -0.7851512927 0.6130584813
2350285900.0 -0.7765499037 0.6239749518
2400285600.0 -0.7676390327 0.6349967016
2450285300.0 -0.7591399285 0.6452045615
2500285000.0 -0.7493393408 0.6566988818
2550284700.0 -0.7402574177 0.6668850187
2600284400.0 -0.7309770958 0.677205145
2650284100.0 -0.7221047888 0.6874750143
2700283800.0 -0.7116277177 0.6981268632
2750283500.0 -0.7013772098 0.7087300304
2800283200.0 -0.6915272219 0.7185324542
2850282900.0 -0.6811288865 0.7282035476
2900282600.0 -0.6707609561 0.738047927
2950282300.0 -0.6606205605 0.7470975727
3000282000.0 -0.6498710846 0.7566470105
3050281700.0 -0.6385926424 0.7659504339
3100281400.0 -0.6268187461 0.7751780576
3150281100.0 -0.6149953471 0.7846373954
3200280800.0 -0.6034093399 0.7929703369
3250280500.0 -0.592552113 0.8007053605
3300280200.0 -0.5813023692 0.8087481927
3350279900.0 -0.5696713298 0.8162650055
3400279600.0 -0.5573762791 0.8240494241
3450279300.0 -0.5464077169 0.8313359829
3500279000.0 -0.5342834951 0.838132419
3550278700.0 -0.521842372 0.8454589797
3600278400.0 -0.5097867956 0.8528394281
3650278100.0 -0.4965228777 0.8600593014
3700277800.0 -0.4845164129 0.8668644752
3750277500.0 -0.4722011922 0.8733435555
3800277200.0 -0.4598361118 0.8798211048
3850276900.0 -0.4476618287 0.8857980832
3900276600.0 -0.4369919222 0.8912414904
3950276300.0 -0.4245519248 0.8973079766
4000276000.0 -0.4125904935 0.9032581057
4050275700.0 -0.3996328904 0.9093434292
4100275400.0 -0.3885745682 0.9149858313
4150275100.0 -0.3758527849 0.9204792531
4200274800.0 -0.3627353196 0.926199426
4250274500.0 -0.3504920231 0.9313679289
4300274200.0 -0.3376430566 0.9367297853
4350273900.0 -0.3236763029 0.9417442369
4400273600.0 -0.3089669659 0.9471909571
4450273300.0 -0.2935661183 0.9522571652
4500273000.0 -0.2801112069 0.9566779221
4550272700.0 -0.2656962116 0.9608165511
4600272400.0 -0.2504316897 0.9651648264
4650272100.0 -0.2386506285 0.9682812974
4700271800.0 -0.2254539516 0.9715107496
4750271500.0 -0.2139121783 0.9743358276
4800271200.0 -0.2014364937 0.9772315222
4850270900.0 -0.1874342004 0.9797960364
4900270600.0 -0.1735634813 0.9821964956
4950270300.0 -0.1590125096 0.9849873569
5000270000.0 -0.1448869408 0.9868967949
5050269700.0 -0.1315549127 0.9885031665
5100269400.0 -0.1177063867 0.9903163032
5150269100.0 -0.1043828989 0.9919122565
5200268800.0 -0.0910717087 0.9929855436
5250268500.0 -0.0780689778 0.9942072893
5300268200.0 -0.0649245954 0.9943240831
5350267900.0 -0.0526406747 0.9952326317
5400267600.0 -0.036289951 0.996527757
5450267300.0 -0.0231220605 0.9965614216
5500267000.0 -0.0079425342 0.9968088982
5550266700.0 0.0067851818 0.9972877178
5600266400.0 0.0225366787 0.997206273
5650266100.0 0.0389231254 0.9970278879
5700265800.0 0.0534486259 0.9962349747
5750265500.0 0.0687630815 0.9954295934
5800265200.0 0.0823121854 0.994332625
5850264900.0 0.0958177549 0.9936300028
5900264600.0 0.1124337685 0.9917428019
5950264300.0 0.1243982383 0.990199671
6000264000.0 0.1382947166 0.9882152796
6050263700.0 0.150386099 0.9870007339
6100263400.0 0.1629412442 0.9850955364
6150263100.0 0.1777715155 0.9829840491
6200262800.0 0.1877876498 0.9810600493
6250262500.0 0.200458126 0.9784667541
6300262200.0 0.2133287165 0.9758665342
6350261900.0 0.2263085978 0.9728705388
6400261600.0 0.2400476846 0.9695703299
6450261300.0 0.2515051074 0.9669938481
6500261000.0 0.2641796684 0.9633885752
6550260700.0 0.2774831851 0.9593076231
6600260400.0 0.2909796606 0.9555292915
6650260100.0 0.3049419544 0.9512740477
6700259800.0 0.3169728389 0.9466827034
6750259500.0 0.3306221176 0.9417652125
6800259200.0 0.3439006662 0.9368487596
6850258900.0 0.3558956856 0.9316131817
6900258600.0 0.3679146171 0.9266564321
6950258300.0 0.3804928743 0.9213598783
7000258000.0 0.3923444973 0.9159793789
7050257700.0 0.4046040109 0.909809005
7100257400.0 0.4175213354 0.9036526077
7150257100.0 0.4279415222 0.8984086298
7200256800.0 0.4407595506 0.8918948751
7250256500.0 0.4526077797 0.885557509
7300256200.0 0.4660734796 0.8788524723
7350255900.0 0.4785342186 0.8722161834
7400255600.0 0.4913923977 0.8646899136
7450255300.0 0.5067740877 0.8554609861
7500255000.0 0.5181776566 0.848429903
7550254700.0 0.5319015344 0.8397942165
7600254400.0 0.5453279122 0.8318243974
7650254100.0 0.5568597919 0.8239800003
7700253800.0 0.5684246513 0.8160174031
7750253500.0 0.5797854935 0.8083112822
7800253200.0 0.5904845456 0.8004694241
7850252900.0 0.6001370483 0.7935073327
7900252600.0 0.6117847947 0.7849238316
7950252300.0 0.6204833389 0.7782608298
8000252000.0 0.6306903584 0.770547898
8050251700.0 0.6411407239 0.7622223851
8100251400.0 0.6513562667 0.7543184052
8150251100.0 0.6610695567 0.7458271914
8200250800.0 0.6704301578 0.7376871704
8250250500.0 0.6792731361 0.7296608184
8300250200.0 0.6890915827 0.7212805279
8350249900.0 0.6979512507 0.7127491941
8400249600.0 0.7061455902 0.704502224
8450249300.0 0.7153410284 0.6951910297
8500249000.0 0.7240631218 0.6861922889
8550248700.0 0.7322774756 0.6773028062
8600248400.0 0.7406724896 0.6678112588
8650248100.0 0.7482820506 0.6583217161
8700247800.0 0.7577930182 0.6472182978
8750247500.0 0.7662984072 0.6370495547
8800247200.0 0.7744220959 0.6265741931
8850246900.0 0.7832510824 0.6153089807
8900246600.0 0.7916985982 0.603958187
8950246300.0 0.801064605 0.5907585946
9000246000.0 0.8103623638 0.5780729633
9050245700.0 0.819440959 0.5653044696
9100245400.0 0.8276391405 0.5529835881
9150245100.0 0.8370892026 0.5394017617
9200244800.0 0.8467974163 0.524410002
9250244500.0 0.8562058967 0.5088432993
9300244200.0 0.8646815566 0.4943468332
9350243900.0 0.8726538778 0.4805507233
9400243600.0 0.8791176068 0.4683291096
9450243300.0 0.8852214183 0.4567945826
9500243000.0 0.8912551814 0.4446614338
9550242700.0 0.8951594212 0.4371094866
9600242400.0 0.8990577262 0.4297702703
9650242100.0 0.9024962741 0.4233560276
9700241800.0 0.9076422032 0.4148108857
9750241500.0 0.9113416554 0.40720072
9800241200.0 0.9161006957 0.3981866573
9850240900.0 0.9220597706 0.3863783113
9900240600.0 0.9275644889 0.3750135082
9950240300.0 0.9340329114 0.3588645753
10000240000.0 0.9389548213 0.3470743415
10050239700.0 0.9447232436 0.3314868329
10100239400.0 0.9494073445 0.3162730139
10150239100.0 0.9538669766 0.3013828657
10200238800.0 0.9581941252 0.2864255354
10250238500.0 0.9614343455 0.2731409749
10300238200.0 0.9644283568 0.2592421868
10350237900.0 0.9672695903 0.2459691805
10400237600.0 0.9697498156 0.2327839643
10450237300.0 0.9725425319 0.2192808829
10500237000.0 0.9745595983 0.2067797842
10550236700.0 0.9770141869 0.1924734853
10600236400.0 0.978937358 0.1791935124
10650236100.0 0.981298658 0.1644173162
10700235800.0 0.9835591892 0.1521817472
10750235500.0 0.9853707394 0.1390555683
10800235200.0 0.9879376658 0.1250196833
10850234900.0 0.9895423305 0.1098592767
10900234600.0 0.9913713186 0.0956620609
10950234300.0 0.993392831 0.0820245078
11000234000.0 0.9951275872 0.0667992712
11050233700.0 0.9969783388 0.0505382798
11100233400.0 0.9984000068 0.0332296766
11150233100.0 0.9995197815 0.0172171363
11200232800.0 1.000539852 0.0014912326
11250232500.0 1.001040018 -0.0148114757
11300232200.0 1.001967344 -0.0322321177
11350231900.0 1.002299013 -0.0480775571
11400231600.0 1.001896904 -0.064245262
11450231300.0 1.001127608 -0.0790662567
11500231000.0 1.000148406 -0.0958531707
11550230700.0 0.9984838674 -0.1085361163
11600230400.0 0.9970744162 -0.1221793387
11650230100.0 0.9953471676 -0.1326364076
11700229800.0 0.9932625477 -0.1481504589
11750229500.0 0.9912705468 -0.1621259298
11800229200.0 0.9883259639 -0.1756642211
11850228900.0 0.9847080542 -0.188002711
11900228600.0 0.9811145576 -0.1975757435
11950228300.0 0.9779063876 -0.2081096622
12000228000.0 0.9751286602 -0.2171365482
12050227700.0 0.9711686016 -0.2305834445
12100227400.0 0.9677711275 -0.2418391921
12150227100.0 0.9630409229 -0.2582962898
12200226800.0 0.9596987072 -0.2685892437
12250226500.0 0.9560582686 -0.2816652507
12300226200.0 0.9521980574 -0.2934997931
12350225900.0 0.946495439 -0.3079577825
12400225600.0 0.941947838 -0.3209079902
12450225300.0 0.9378121668 -0.3332166419
12500225000.0 0.9322557212 -0.3486714168
12550224700.0 0.927019225 -0.362094676
12600224400.0 0.9221548192 -0.3751914636
12650224100.0 0.9163441567 -0.389277445
12700223800.0 0.9109862364 -0.4022823307
12750223500.0 0.9053756907 -0.4153423498
12800223200.0 0.9001774735 -0.4278779404
12850222900.0 0.8948533389 -0.4399632235
12900222600.0 0.8891363437 -0.4524283377
12950222300.0 0.882690629 -0.4652943473
13000222000.0 0.8767981604 -0.47666809
13050221700.0 0.8697525245 -0.4894497772
13100221400.0 0.8631905574 -0.5009535743
13150221100.0 0.8564694036 -0.5131830413
13200220800.0 0.8494935744 -0.5245387945
13250220500.0 0.8425874685 -0.5369011328
13300220200.0 0.8350714924 -0.5478146209
13350219900.0 0.8271212593 -0.5595697737
13400219600.0 0.8188833317 -0.571550469
13450219300.0 0.8095035305 -0.5851858028
13500219000.0 0.7993724512 -0.5992116489
13550218700.0 0.789028848 -0.6120167727
13600218400.0 0.779065513 -0.6239764527
13650218100.0 0.7695334696 -0.6342095548
13700217800.0 0.7586870986 -0.6473171441
13750217500.0 0.7482431148 -0.6588097477
13800217200.0 0.7372112148 -0.6699529461
13850216900.0 0.727086447 -0.6805734027
13900216600.0 0.7163652197 -0.6905312096
13950216300.0 0.7058326659 -0.7005366604
14000216000.0 0.6956182508 -0.7098272358
14050215700.0 0.6860613811 -0.7181979338
14100215400.0 0.6761529498 -0.7271441388
14150215100.0 0.6671382315 -0.736019081
14200214800.0 0.6577185522 -0.744785646
14250214500.0 0.6472692141 -0.7540845016
14300214200.0 0.6371012863 -0.7634165986
14350213900.0 0.6258038688 -0.7728191525
14400213600.0 0.6139955914 -0.7829412944
14450213300.0 0.6011851816 -0.7931159361
14500213000.0 0.5878067757 -0.8030070072
14550212700.0 0.5753770842 -0.8126823888
14600212400.0 0.5629511512 -0.8212512199
14650212100.0 0.5502724898 -0.8294082403
14700211800.0 0.5361557833 -0.8395441197
14750211500.0 0.5242034462 -0.8477976595
14800211200.0 0.5118567617 -0.8555897609
14850210900.0 0.4995625421 -0.8632537152
14900210600.0 0.4862503969 -0.8711294153
14950210300.0 0.4730758283 -0.8788818931
15000210000.0 0.4603476566 -0.8853796278
15050209700.0 0.4481889059 -0.8916570209
15100209400.0 0.43525743 -0.8981931199
15150209100.0 0.4231880157 -0.9027922546
15200208800.0 0.4100232557 -0.9084894952
15250208500.0 0.3992278478 -0.9129056552
15300208200.0 0.3868403 -0.9171819402
15350207900.0 0.3733772399 -0.9224062087
15400207600.0 0.3594835936 -0.9279758455
15450207300.0 0.3447276446 -0.9325936117
15500207000.0 0.3297978975 -0.9377993603
15550206700.0 0.3157332014 -0.9422424797
15600206400.0 0.2994375648 -0.947020226
15650206100.0 0.2835368687 -0.9514446951
15700205800.0 0.2695799001 -0.9547281081
15750205500.0 0.2551283846 -0.9584359166
15800205200.0 0.2407670109 -0.961952691
15850204900.0 0.2262680625 -0.9654065857
15900204600.0 0.2112126354 -0.9690250053
15950204300.0 0.1970575119 -0.971697734
16000204000.0 0.1825107648 -0.9749536044
16050203700.0 0.1677651422 -0.9778104291
16100203400.0 0.153694113 -0.9800658364
16150203100.0 0.138694109 -0.982462983
16200202800.0 0.1244748017 -0.9845569658
16250202500.0 0.1098857397 -0.9861369681
16300202200.0 0.0946228811 -0.9877692292
16350201900.0 0.0793734239 -0.9892619849
16400201600.0 0.064966616 -0.9901391554
16450201300.0 0.0497610831 -0.9911465086
16500201000.0 0.0329787765 -0.9921726083
16550200700.0 0.017286845 -0.9925373333
16600200400.0 0.0015731481 -0.9926814273
16650200100.0 -0.0142144935 -0.9928033483
16700199800.0 -0.0308016538 -0.9922091427
16750199500.0 -0.0489717853 -0.9916759907
16800199200.0 -0.0652510643 -0.9913733786
16850198900.0 -0.0797008962 -0.9895387618
16900198600.0 -0.0943238189 -0.9881889422
16950198300.0 -0.1074691097 -0.9877050705
17000198000.0 -0.1212465689 -0.9861732302
17050197700.0 -0.1330181574 -0.9848908471
17100197400.0 -0.1458244822 -0.9820052007
17150197100.0 -0.1587921079 -0.9799430822
17200196800.0 -0.1713613022 -0.9781468767
17250196500.0 -0.184457056 -0.9759486732
17300196200.0 -0.1966337952 -0.9735963284
17350195900.0 -0.2085718878 -0.9711573477
17400195600.0 -0.2206770744 -0.9688034846
17450195300.0 -0.2337548034 -0.9658819992
17500195000.0 -0.2471749779 -0.9626989764
17550194700.0 -0.2610293543 -0.9590215096
17600194400.0 -0.2754564767 -0.9550819571
17650194100.0 -0.288515332 -0.9510565541
17700193800.0 -0.3015633427 -0.9465923003
17750193500.0 -0.3161312803 -0.9424096787
17800193200.0 -0.3306696535 -0.9374140798
17850192900.0 -0.3455658671 -0.9319078633
17900192600.0 -0.3610557449 -0.9257074726
17950192300.0 -0.3765034242 -0.9184500196
18000192000.0 -0.391223118 -0.9113226955
18050191700.0 -0.4052952178 -0.9033904911
18100191400.0 -0.419487622 -0.8955995517
18150191100.0 -0.434352531 -0.8876984759
18200190800.0 -0.4512578445 -0.8785778953
18250190500.0 -0.468374406 -0.8690710514
18300190200.0 -0.4836966902 -0.8604223389
18350189900.0 -0.4988450284 -0.85203988
18400189600.0 -0.5130998258 -0.8437684898
18450189300.0 -0.5269213771 -0.8357139633
18500189000.0 -0.5398471387 -0.8279330493
18550188700.0 -0.5524260746 -0.8204392872
18600188400.0 -0.5641660641 -0.8138254056
18650188100.0 -0.5753463932 -0.8072896864
18700187800.0 -0.5860900956 -0.8005708784
18750187500.0 -0.596645991 -0.7939032411
18800187200.0 -0.6071348225 -0.7869816299
18850186900.0 -0.6174226085 -0.7801842306
18900186600.0 -0.6273715575 -0.7728934982
18950186300.0 -0.6376253257 -0.7652727236
19000186000.0 -0.6449360586 -0.7589795459
19050185700.0 -0.6537099851 -0.7516238786
19100185400.0 -0.6639847034 -0.7437032055
19150185100.0 -0.6742075622 -0.735287721
19200184800.0 -0.6837394316 -0.7269711734
19250184500.0 -0.6928472726 -0.7178485329
19300184200.0 -0.7049594587 -0.7083678654
19350183900.0 -0.715739357 -0.698920509
19400183600.0 -0.7256045484 -0.6884781767
19450183300.0 -0.7346313053 -0.678515076
19500183000.0 -0.7430139753 -0.6684726108
19550182700.0 -0.7529272524 -0.657903525
19600182400.0 -0.7628098191 -0.6459857547
19650182100.0 -0.773888996 -0.6334850192
19700181800.0 -0.7845072961 -0.6201960716
19750181500.0 -0.7950019877 -0.6062563536
19800181200.0 -0.805567129 -0.5911966904
19850180900.0 -0.8150339032 -0.5756615307
19900180600.0 -0.822955515 -0.5612147597
19950180300.0 -0.8323583306 -0.5450104045
20000180000.0 -0.8251035811 -0.5471559554
20050179700.0 -0.8339853228 -0.5339368143
20100179400.0 -0.8420143041 -0.5200001492
20150179100.0 -0.8504937676 -0.508482056
20200178800.0 -0.8588753455 -0.4959747986
20250178500.0 -0.8680916941 -0.4817766025
20300178200.0 -0.8788969917 -0.4673100576
20350177900.0 -0.8871538746 -0.4533032605
20400177600.0 -0.8962683162 -0.4388916653
20450177300.0 -0.9045452342 -0.4244134186
20500177000.0 -0.9123337617 -0.410249059
20550176700.0 -0.9203899585 -0.3970285052
20600176400.0 -0.9271153602 -0.3838079641
20650176100.0 -0.9342762183 -0.3717090735
20700175800.0 -0.9406352889 -0.3593065694
20750175500.0 -0.9470232103 -0.3483081593
20800175200.0 -0.9518644787 -0.3376149574
20850174900.0 -0.9569175553 -0.3257632346
20900174600.0 -0.9616208563 -0.3146222055
20950174300.0 -0.9657103219 -0.3038690581
21000174000.0 -0.9680823341 -0.2919774152
21050173700.0 -0.9711322695 -0.2817032891
21100173400.0 -0.9753270484 -0.2696658992
21150173100.0 -0.9786463874 -0.2572210681
21200172800.0 -0.9827124754 -0.2438590136
21250172500.0 -0.9855945276 -0.2303039476
21300172200.0 -0.9886383222 -0.2161181178
21350171900.0 -0.9905188318 -0.2013168082
21400171600.0 -0.9919226181 -0.1873362238
21450171300.0 -0.9915779957 -0.172576513
21500171000.0 -0.9916097458 -0.1570581627
21550170700.0 -0.9913741928 -0.1418486144
21600170400.0 -0.9924176129 -0.1271224888
21650170100.0 -0.9910295074 -0.1113608699
21700169800.0 -0.990630564 -0.0948382176
21750169500.0 -0.9898670859 -0.0795575474
21800169200.0 -0.9889318233 -0.0617172149
21850168900.0 -0.9873142224 -0.0461812762
21900168600.0 -0.9856034422 -0.0299345076
21950168300.0 -0.9848789252 -0.0137196179
22000168000.0 -0.9839978771 0.0008279837
22050167700.0 -0.9839096138 0.0153631141
22100167400.0 -0.9844089494 0.0308670589
22150167100.0 -0.9849131377 0.0460389766
22200166800.0 -0.9850589932 0.0627355094
22250166500.0 -0.9849015295 0.0800069351
22300166200.0 -0.9836843025 0.0966541709
22350165900.0 -0.9824362431 0.1128994089
22400165600.0 -0.9815448436 0.1294053459
22450165300.0 -0.9796320582 0.1430131876
22500165000.0 -0.9776383924 0.1566484731
22550164700.0 -0.9764430008 0.1721057076
22600164400.0 -0.9748591321 0.1874139214
22650164100.0 -0.9728232098 0.2024518815
22700163800.0 -0.9700019045 0.2182793131
22750163500.0 -0.9669948894 0.2340804164
22800163200.0 -0.9643063346 0.2471037512
22850162900.0 -0.9618863732 0.2603379939
22900162600.0 -0.9604492465 0.2738818937
22950162300.0 -0.9591515493 0.2864504109
23000162000.0 -0.9579525566 0.2982688963
23050161700.0 -0.9560489211 0.3112790009
23100161400.0 -0.9536214313 0.3241135774
23150161100.0 -0.9512641197 0.3361807193
23200160800.0 -0.9478986298 0.3489210881
23250160500.0 -0.9449361507 0.3608364193
23300160200.0 -0.94256213 0.3728428115
23350159900.0 -0.9392611367 0.386364779
23400159600.0 -0.9337679095 0.3994404269
23450159300.0 -0.929643189 0.4123374468
23500159000.0 -0.9246527853 0.4255799319
23550158700.0 -0.9202726109 0.4392023452
23600158400.0 -0.914919342 0.4524312186
23650158100.0 -0.9084267294 0.4667520037
23700157800.0 -0.9008894483 0.480584056
23750157500.0 -0.8921431978 0.4946225617
23800157200.0 -0.8835768562 0.5078842431
23850156900.0 -0.8744557517 0.520542389
23900156600.0 -0.8657760183 0.5334572468
23950156300.0 -0.8563184312 0.5457535179
24000156000.0 -0.8471033279 0.5579536107
24050155700.0 -0.8373676245 0.5695632952
24100155400.0 -0.8277953505 0.5821967434
24150155100.0 -0.8161331532 0.5930879137
24200154800.0 -0.8056781003 0.604139689
24250154500.0 -0.79402589 0.6162208634
24300154200.0 -0.7830300134 0.627866774
24350153900.0 -0.7714861319 0.6386847026
24400153600.0 -0.7585715777 0.6489573258
24450153300.0 -0.7468895374 0.6587950503
24500153000.0 -0.7359160012 0.6687941178
24550152700.0 -0.7242649645 0.6780486097
24600152400.0 -0.7129443339 0.6870686088
24650152100.0 -0.7011390723 0.6956122955
