!Created with skrf (http://scikit-rf.org).
# Hz S RI R 50.0 
!freq ReS11 ImS11
300000.0 -0.9749581809 -0.116019885
50299700.0 -0.9999009231 0.0157330316
100299400.0 -0.9980040585 0.0287099117
150299100.0 -1.002785576 0.0454280685
200298800.0 -0.9996841097 0.0589804382
250298500.0 -0.9974092408 0.0723680831
300298200.0 -0.9859065291 0.0882118531
350297900.0 -0.9941072042 0.0990329071
400297600.0 -0.9931724524 0.1154756954
450297300.0 -0.9911113673 0.1295832946
500297000.0 -0.9897535842 0.1440913969
550296700.0 -0.9844630491 0.1565216804
600296400.0 -1.017269413 0.1900870795
650296100.0 -0.9823104641 0.1866275224
700295800.0 -0.9791778664 0.2006957795
750295500.0 -0.9763110405 0.2148613351
800295200.0 -0.9730263134 0.2290161226
850294900.0 -0.9696909122 0.2428113268
900294600.0 -0.9659551231 0.2564931645
950294300.0 -0.9618955763 0.2702322104
1000294000.0 -0.9579198323 0.2843149253
1050293700.0 -0.9535758558 0.2980304158
1100293400.0 -0.9492162265 0.3122914842
1150293100.0 -0.945353454 0.3243525779
1200292800.0 -0.9400752314 0.3386723339
1250292500.0 -0.9344507984 0.3521834186
1300292200.0 -0.9288607853 0.3653034678
1350291900.0 -0.9233494308 0.3793749753
1400291600.0 -0.9178449604 0.3924743868
1450291300.0 -0.912307413 0.4047702194
1500291000.0 -0.9060584912 0.4181402955
1550290700.0 -0.8993918348 0.4316651811
1600290400.0 -0.8932712067 0.4443993056
1650290100.0 -0.8865770071 0.4566760955
1700289800.0 -0.8798443398 0.469969274
1750289500.0 -0.8727249026 0.4825316579
1800289200.0 -0.8652203098 0.4951974601
1850288900.0 -0.8584567684 0.5064891768
1900288600.0 -0.8508344866 0.5193805829
1950288300.0 -0.8425393971 0.5319570839
2000288000.0 -0.8352528752 0.5434917866
2050287700.0 -0.8271659555 0.5558722024
2100287400.0 -0.8190395791 0.56740937
2150287100.0 -0.8105299422 0.5796035827
2200286800.0 -0.8027751705 0.5896540836
2250286500.0 -0.7937934047 0.6020337439
2300286200.0 -0.7850763103 0.6135503202
2350285900.0 -0.7761153057 0.6245452088
2400285600.0 -0.7670989288 0.6354618048
2450285300.0 -0.7585302225 0.646015715
2500285000.0 -0.7487936525 0.6572793965
2550284700.0 -0.7400398945 0.6675792791
2600284400.0 -0.7308030134 0.6777560673
2650284100.0 -0.7213159469 0.6879172019
2700283800.0 -0.7108010322 0.6989600701
2750283500.0 -0.7006876564 0.7094924259
2800283200.0 -0.6908808604 0.7191612215
2850282900.0 -0.6806316545 0.7289472826
2900282600.0 -0.6703015404 0.7384582015
2950282300.0 -0.6601544324 0.7476521186
3000282000.0 -0.6494199319 0.7571355675
3050281700.0 -0.6381724262 0.7664485488
3100281400.0 -0.626269978 0.7758800745
3150281100.0 -0.6144177865 0.7852576206
3200280800.0 -0.6026728406 0.7936960014
3250280500.0 -0.5919592765 0.8012548724
3300280200.0 -0.5807978302 0.8092185004
3350279900.0 -0.5692255108 0.8167054304
3400279600.0 -0.5571905796 0.8244628819
3450279300.0 -0.5457387725 0.8315027049
3500279000.0 -0.5341018325 0.838621923
3550278700.0 -0.5215770477 0.8459084806
3600278400.0 -0.5092940368 0.8530267993
3650278100.0 -0.496105235 0.8607390884
3700277800.0 -0.4837160439 0.8670963245
3750277500.0 -0.4718184818 0.8735334189
3800277200.0 -0.4591102898 0.8803989759
3850276900.0 -0.4471607409 0.8861319842
3900276600.0 -0.436410483 0.8917442665
3950276300.0 -0.423726715 0.8975296683
4000276000.0 -0.4119430026 0.9037583466
4050275700.0 -0.3988108441 0.9097713407
4100275400.0 -0.3877950912 0.9149971745
4150275100.0 -0.3751648006 0.9208621003
4200274800.0 -0.3621217327 0.9264576799
4250274500.0 -0.3497659257 0.9312303599
4300274200.0 -0.3369943905 0.9365187673
4350273900.0 -0.323051655 0.9421117039
4400273600.0 -0.3080852154 0.9474768685
4450273300.0 -0.2929764434 0.9525089875
4500273000.0 -0.278954835 0.9569715613
4550272700.0 -0.2649655489 0.9612104861
4600272400.0 -0.2493652393 0.965285052
4650272100.0 -0.2376245694 0.9684773489
4700271800.0 -0.2243552656 0.9718620582
4750271500.0 -0.2127397007 0.9746192314
4800271200.0 -0.2002703607 0.9775183576
4850270900.0 -0.1863196053 0.9801531691
4900270600.0 -0.1725277728 0.9824273323
4950270300.0 -0.1581053088 0.9853585659
5000270000.0 -0.144017592 0.987206983
5050269700.0 -0.1304914442 0.988693659
5100269400.0 -0.1167566627 0.9906910239
5150269100.0 -0.1034530118 0.9920108517
5200268800.0 -0.0901876842 0.9930556085
5250268500.0 -0.0771656743 0.993987273
5300268200.0 -0.0640028758 0.9949831724
5350267900.0 -0.0520946533 0.9954690862
5400267600.0 -0.0356824241 0.9963687821
5450267300.0 -0.0225830406 0.9967293621
5500267000.0 -0.0073743736 0.9972618139
5550266700.0 0.0075469696 0.9972294106
5600266400.0 0.0231689787 0.9975323485
5650266100.0 0.0396068125 0.9971028007
5700265800.0 0.0542542835 0.9963533111
5750265500.0 0.0693062277 0.9953374699
5800265200.0 0.0833810337 0.9943376817
5850264900.0 0.0965294265 0.9934076298
5900264600.0 0.113279923 0.9917066374
5950264300.0 0.1253721904 0.990147838
6000264000.0 0.1392738446 0.9877621672
6050263700.0 0.1517757776 0.9867153966
6100263400.0 0.1640450371 0.9847526056
6150263100.0 0.1788157497 0.9823921248
6200262800.0 0.1888456005 0.9807191879
6250262500.0 0.2017558042 0.9781857838
6300262200.0 0.2144450622 0.975463274
6350261900.0 0.2277465433 0.9726240085
6400261600.0 0.24146426 0.9692995804
6450261300.0 0.2528082799 0.966646615
6500261000.0 0.2656890416 0.9627039474
6550260700.0 0.2786831274 0.9591450471
6600260400.0 0.2919294493 0.9549253127
6650260100.0 0.3057263993 0.9506835785
6700259800.0 0.318059657 0.946518581
6750259500.0 0.331678416 0.9413703468
6800259200.0 0.3446617596 0.9362493069
6850258900.0 0.3570739718 0.9315339271
6900258600.0 0.368783044 0.9263928555
6950258300.0 0.3812921787 0.9208275067
7000258000.0 0.3933389591 0.9154694062
7050257700.0 0.4056788972 0.909460714
7100257400.0 0.4184848124 0.9033692225
7150257100.0 0.4287170848 0.8978137774
7200256800.0 0.4414520543 0.8915839859
7250256500.0 0.4536301491 0.8854693872
7300256200.0 0.4666410947 0.8782297383
7350255900.0 0.4789917093 0.8714760533
7400255600.0 0.4923267489 0.8642266324
7450255300.0 0.5073682859 0.8552066008
7500255000.0 0.5189834169 0.8482734415
7550254700.0 0.5328181736 0.8396923893
7600254400.0 0.5456746463 0.831456946
7650254100.0 0.5572975025 0.8236609712
7700253800.0 0.5690643395 0.8155908947
7750253500.0 0.5803378204 0.8077036557
7800253200.0 0.5910941645 0.7999581816
7850252900.0 0.6006277168 0.792965997
7900252600.0 0.6124742668 0.7840558112
7950252300.0 0.6212343714 0.7776890768
8000252000.0 0.6312769683 0.7697197113
8050251700.0 0.6419372026 0.7616215215
8100251400.0 0.6519131249 0.7535213983
8150251100.0 0.6622973917 0.7449196682
8200250800.0 0.6714016969 0.7368504705
8250250500.0 0.6803699994 0.7289240472
8300250200.0 0.6897723602 0.7204438523
8350249900.0 0.6985384725 0.7116938974
8400249600.0 0.7064725792 0.7038900157
8450249300.0 0.7161423549 0.6945102315
8500249000.0 0.7246995665 0.6856415694
8550248700.0 0.7328382888 0.6765949711
8600248400.0 0.7413678396 0.6672969768
8650248100.0 0.7490256456 0.6577676525
8700247800.0 0.7585976514 0.6465258208
8750247500.0 0.7668775523 0.6365229732
8800247200.0 0.7751263501 0.6259959069
8850246900.0 0.7840380426 0.6145078628
8900246600.0 0.7921031451 0.6032163818
8950246300.0 0.8017053063 0.5901669318
9000246000.0 0.811353427 0.577523922
9050245700.0 0.8202821585 0.5646305706
9100245400.0 0.8285236734 0.5520088557
9150245100.0 0.8383560852 0.5383825505
9200244800.0 0.848295826 0.5228975755
9250244500.0 0.8577325896 0.5072000901
9300244200.0 0.8660314056 0.492554981
9350243900.0 0.8737229014 0.4786011454
9400243600.0 0.8803755286 0.4664616388
9450243300.0 0.8861850793 0.4545919328
9500243000.0 0.8923842295 0.4426185871
9550242700.0 0.8959847886 0.4347475109
9600242400.0 0.89994865 0.4275864722
9650242100.0 0.9036062991 0.421406188
9700241800.0 0.9080483253 0.413017182
9750241500.0 0.9119261292 0.4055467148
9800241200.0 0.9168836195 0.39649858
9850240900.0 0.9222514054 0.3848065252
9900240600.0 0.9280248712 0.3730463438
9950240300.0 0.9347504795 0.3568464153
10000240000.0 0.9395020774 0.3452483562
10050239700.0 0.9446134671 0.3299636726
10100239400.0 0.9498134892 0.3147622476
10150239100.0 0.9542619942 0.2997755125
10200238800.0 0.9583293915 0.2849010338
10250238500.0 0.9616037315 0.2717008306
10300238200.0 0.9648868974 0.2575620682
10350237900.0 0.9675381172 0.2446958456
10400237600.0 0.9700778724 0.231167325
10450237300.0 0.9726644597 0.2177651507
10500237000.0 0.9748175382 0.20587842
10550236700.0 0.9773740311 0.1913374659
10600236400.0 0.9789950787 0.1780723833
10650236100.0 0.9814854088 0.1632845251
10700235800.0 0.9833024195 0.1512455868
10750235500.0 0.9860360358 0.1377988814
10800235200.0 0.987501004 0.1241495825
10850234900.0 0.9898654276 0.1091309656
10900234600.0 0.9918584644 0.0944458066
10950234300.0 0.9934891547 0.0812750015
11000234000.0 0.9952319265 0.0662806732
11050233700.0 0.9970188577 0.0498241308
11100233400.0 0.9985016206 0.0324051304
11150233100.0 0.9994110658 0.0162103737
11200232800.0 1.000338288 0.0011471386
11250232500.0 1.001579124 -0.0150088931
11300232200.0 1.001731056 -0.0326226638
11350231900.0 1.00163018 -0.0497362365
11400231600.0 1.001710533 -0.0644633676
11450231300.0 1.000783622 -0.0808084762
11500231000.0 1.00007845 -0.0968904486
11550230700.0 0.9985665289 -0.1099867991
11600230400.0 0.9968463186 -0.1230610455
11650230100.0 0.9949562653 -0.1344641539
11700229800.0 0.9929194206 -0.1487310922
11750229500.0 0.990482261 -0.1632613161
11800229200.0 0.9880538746 -0.1773933561
11850228900.0 0.9844275055 -0.1897444562
11900228600.0 0.9806844536 -0.1994629037
11950228300.0 0.9775156862 -0.209927814
12000228000.0 0.9748652851 -0.2188101901
12050227700.0 0.9714313647 -0.2314183461
12100227400.0 0.9677651188 -0.2428713877
12150227100.0 0.9631551401 -0.2586859467
12200226800.0 0.959291588 -0.2686398509
12250226500.0 0.95537213 -0.2829008162
12300226200.0 0.9511655506 -0.295314192
12350225900.0 0.9466941087 -0.3085910779
12400225600.0 0.941976458 -0.3216993201
12450225300.0 0.9372983262 -0.3344846858
12500225000.0 0.9318651073 -0.3492439094
12550224700.0 0.9265808126 -0.3629863622
12600224400.0 0.9218052067 -0.3758315381
12650224100.0 0.9159576482 -0.3901781099
12700223800.0 0.9107829521 -0.4029254592
12750223500.0 0.9052164265 -0.4158968693
12800223200.0 0.8998892458 -0.4285085416
12850222900.0 0.894343428 -0.4407400855
12900222600.0 0.8891239118 -0.4524385224
12950222300.0 0.8824831748 -0.4655172126
13000222000.0 0.8768229613 -0.4766719914
13050221700.0 0.8693783364 -0.4900687861
13100221400.0 0.8632656746 -0.5014138241
13150221100.0 0.8565128741 -0.5140718925
13200220800.0 0.849220588 -0.5256212755
13250220500.0 0.8421789619 -0.537853385
13300220200.0 0.8345951755 -0.5484502349
13350219900.0 0.8264617387 -0.5605901992
13400219600.0 0.8182462799 -0.572525333
13450219300.0 0.8085608811 -0.5862591867
13500219000.0 0.7987183136 -0.6002245629
13550218700.0 0.7883335026 -0.613128236
13600218400.0 0.778059076 -0.6253859626
13650218100.0 0.7685016501 -0.6360826478
13700217800.0 0.7578776278 -0.6483692105
13750217500.0 0.7474433167 -0.6596202543
13800217200.0 0.7359806037 -0.6710852944
13850216900.0 0.7254577062 -0.6834872484
13900216600.0 0.714891303 -0.6913435661
13950216300.0 0.704268686 -0.7028469824
14000216000.0 0.6942493987 -0.7114230474
14050215700.0 0.6849444157 -0.7199487995
14100215400.0 0.6743873811 -0.7290232553
14150215100.0 0.6656801519 -0.7375963565
14200214800.0 0.6562032831 -0.7457649875
14250214500.0 0.6460692613 -0.7551876806
14300214200.0 0.6358352076 -0.7644318982
14350213900.0 0.6245919538 -0.7740814239
14400213600.0 0.6128352098 -0.7839910849
14450213300.0 0.59987413 -0.7941410033
14500213000.0 0.5863486341 -0.8038045348
14550212700.0 0.5740577819 -0.8133542954
14600212400.0 0.5616799285 -0.8221463363
14650212100.0 0.5482882694 -0.8308189031
14700211800.0 0.5346840586 -0.8405132516
14750211500.0 0.5225726996 -0.8483648681
14800211200.0 0.5102395179 -0.8565654325
14850210900.0 0.4983492684 -0.8639602048
14900210600.0 0.4849043042 -0.8719162099
14950210300.0 0.4714233189 -0.8794616172
15000210000.0 0.4585094718 -0.8862891341
15050209700.0 0.4463980157 -0.892501528
15100209400.0 0.4338097776 -0.8984456459
15150209100.0 0.4212795192 -0.9038691694
15200208800.0 0.4077608085 -0.9093622572
15250208500.0 0.397473715 -0.9136028777
15300208200.0 0.3853893976 -0.9181804096
15350207900.0 0.3724468453 -0.9230504256
15400207600.0 0.3568102737 -0.9273706977
15450207300.0 0.3427828138 -0.9333636255
15500207000.0 0.3281699299 -0.9383931672
15550206700.0 0.3127094527 -0.9433366001
15600206400.0 0.2964739386 -0.947510487
15650206100.0 0.2805879132 -0.9521289606
15700205800.0 0.2671752386 -0.9554079194
15750205500.0 0.2524443349 -0.9590562429
15800205200.0 0.2381725629 -0.9625828172
15850204900.0 0.2237066437 -0.9659313711
15900204600.0 0.2084900377 -0.9695337548
15950204300.0 0.1947697639 -0.9725009526
16000204000.0 0.1805416257 -0.9753743828
16050203700.0 0.1656773856 -0.9780230329
16100203400.0 0.1509397998 -0.9804356673
16150203100.0 0.1369879504 -0.9826813936
16200202800.0 0.1226599031 -0.9843060774
16250202500.0 0.1078955957 -0.9861908296
16300202200.0 0.0927030664 -0.9878577101
16350201900.0 0.0779453289 -0.9894733075
16400201600.0 0.0629884691 -0.990197794
16450201300.0 0.0480814233 -0.9911139012
16500201000.0 0.0314587843 -0.9921795583
16550200700.0 0.0157111787 -0.992480035
16600200400.0 -9.64233e-05 -0.9928775271
16650200100.0 -0.0160960857 -0.9925729317
16700199800.0 -0.0327973534 -0.9923541828
16750199500.0 -0.0517064043 -0.9909644186
16800199200.0 -0.0672974411 -0.9902530928
16850198900.0 -0.0822127407 -0.9893309514
16900198600.0 -0.0961479446 -0.9877312075
16950198300.0 -0.1088117501 -0.9873515662
17000198000.0 -0.1231596035 -0.9854311388
17050197700.0 -0.1345214653 -0.9839913422
17100197400.0 -0.1476092347 -0.9819141502
17150197100.0 -0.1606424764 -0.9799679169
17200196800.0 -0.1736687253 -0.9774914256
17250196500.0 -0.1865308208 -0.9753886421
17300196200.0 -0.198575804 -0.9732511686
17350195900.0 -0.2103523249 -0.9708368419
17400195600.0 -0.2224676909 -0.9681816002
17450195300.0 -0.2357094621 -0.9655636668
17500195000.0 -0.2492476962 -0.962268339
17550194700.0 -0.2627905685 -0.9585790186
17600194400.0 -0.2768781064 -0.9546319695
17650194100.0 -0.2906106045 -0.9504178272
17700193800.0 -0.3032215389 -0.9462267359
17750193500.0 -0.3181260877 -0.941647964
17800193200.0 -0.3324314859 -0.9362866447
17850192900.0 -0.3474710988 -0.9312031856
17900192600.0 -0.3625969526 -0.9249958491
17950192300.0 -0.3782668379 -0.9178660911
18000192000.0 -0.3928650578 -0.9106591114
18050191700.0 -0.406682479 -0.9026307483
18100191400.0 -0.4207761564 -0.895054078
18150191100.0 -0.4358549934 -0.8869426217
18200190800.0 -0.4529297141 -0.8775374042
18250190500.0 -0.4698029631 -0.8681777639
18300190200.0 -0.4850833152 -0.8590967871
18350189900.0 -0.5002733136 -0.8512711686
18400189600.0 -0.5142838767 -0.8425761405
18450189300.0 -0.5276719691 -0.8346795722
18500189000.0 -0.5410777332 -0.8265066188
18550188700.0 -0.553529291 -0.8191684631
18600188400.0 -0.5655176227 -0.8126233352
18650188100.0 -0.5767679745 -0.8060669737
18700187800.0 -0.5874608318 -0.7992763966
18750187500.0 -0.5979705637 -0.7929526701
18800187200.0 -0.6084737126 -0.7858816197
18850186900.0 -0.6186476468 -0.7787465426
18900186600.0 -0.6290114935 -0.7713662396
18950186300.0 -0.6389766322 -0.7636426871
19000186000.0 -0.6464228868 -0.7572973076
19050185700.0 -0.6556380976 -0.7502260636
19100185400.0 -0.6655444132 -0.7415906309
19150185100.0 -0.6758949013 -0.7334114597
19200184800.0 -0.6853166299 -0.7248436833
19250184500.0 -0.6957769937 -0.71571459
19300184200.0 -0.7065061546 -0.7059369371
19350183900.0 -0.7172635662 -0.695887586
19400183600.0 -0.7274699181 -0.6870473254
19450183300.0 -0.736203564 -0.6766006124
19500183000.0 -0.744399966 -0.6667879282
19550182700.0 -0.7542793596 -0.655509069
19600182400.0 -0.7648392017 -0.6440712856
19650182100.0 -0.7753452052 -0.6317062958
19700181800.0 -0.7859593714 -0.618423557
19750181500.0 -0.7966576482 -0.6043084292
19800181200.0 -0.8070992557 -0.5896156737
19850180900.0 -0.8166255428 -0.5740764628
19900180600.0 -0.8244597178 -0.5595017251
19950180300.0 -0.8336959344 -0.5431001289
20000180000.0 -0.8263058333 -0.545138046
20050179700.0 -0.8350195082 -0.5317429339
20100179400.0 -0.8431806622 -0.5175524248
20150179100.0 -0.8517721306 -0.5062109568
20200178800.0 -0.8599787067 -0.4942278697
20250178500.0 -0.8698636041 -0.4795406922
20300178200.0 -0.8794850368 -0.4652472964
20350177900.0 -0.8880336469 -0.4507869358
20400177600.0 -0.8968918455 -0.4363496917
20450177300.0 -0.9056044467 -0.4219734041
20500177000.0 -0.9133818971 -0.40808113
20550176700.0 -0.9212593649 -0.394077344
20600176400.0 -0.9279416814 -0.3813662725
20650176100.0 -0.9351353898 -0.369282307
20700175800.0 -0.9413807488 -0.3571593683
20750175500.0 -0.9480684927 -0.3457043987
20800175200.0 -0.9529626367 -0.3347031431
20850174900.0 -0.9584108616 -0.3235264285
20900174600.0 -0.9620065843 -0.312264615
20950174300.0 -0.9657147884 -0.2997100807
21000174000.0 -0.9696463162 -0.2887051167
21050173700.0 -0.9730076421 -0.2785548667
21100173400.0 -0.9770259244 -0.2665516951
21150173100.0 -0.9809011397 -0.2532616544
21200172800.0 -0.9845345576 -0.239984716
21250172500.0 -0.9875826145 -0.2261557978
21300172200.0 -0.9899581008 -0.2121204408
21350171900.0 -0.9923967893 -0.1975902175
21400171600.0 -0.9932001179 -0.1838245073
21450171300.0 -0.9933471669 -0.1689000743
21500171000.0 -0.9930568552 -0.1541497735
21550170700.0 -0.9929660621 -0.1388953122
21600170400.0 -0.9930863337 -0.1228095455
21650170100.0 -0.9921830767 -0.1070644798
21700169800.0 -0.9899342926 -0.0911970554
21750169500.0 -0.989617746 -0.0753942125
21800169200.0 -0.9886554235 -0.0586929624
21850168900.0 -0.9871040507 -0.0423839057
21900168600.0 -0.9854745075 -0.0267230643
21950168300.0 -0.9840736322 -0.0106191582
22000168000.0 -0.9833338803 0.0048786268
22050167700.0 -0.9829028589 0.0186538053
22100167400.0 -0.9827791987 0.0340030432
22150167100.0 -0.9837048056 0.0494857625
22200166800.0 -0.9835290022 0.065392554
22250166500.0 -0.9828105912 0.0828508431
22300166200.0 -0.9830254085 0.1000989398
22350165900.0 -0.9806511031 0.1159998189
22400165600.0 -0.9790627857 0.1323600531
22450165300.0 -0.9772257307 0.1472968421
22500165000.0 -0.9756068539 0.1597319485
22550164700.0 -0.9748219447 0.1754432915
22600164400.0 -0.9729445529 0.1910811308
22650164100.0 -0.9698078143 0.2060156147
22700163800.0 -0.9679359167 0.2222152925
22750163500.0 -0.9652593146 0.2369595232
22800163200.0 -0.9630720314 0.2506713455
22850162900.0 -0.9606187244 0.264005562
22900162600.0 -0.9590088746 0.2772999629
22950162300.0 -0.9578732262 0.2901235109
23000162000.0 -0.9571551166 0.3017163914
23050161700.0 -0.9549764095 0.3145704529
23100161400.0 -0.9529481466 0.3276147735
23150161100.0 -0.9499012345 0.3394276378
23200160800.0 -0.9473032486 0.3516708726
23250160500.0 -0.9447403118 0.3635682889
23300160200.0 -0.9421126079 0.3757411584
23350159900.0 -0.9378873336 0.3885501076
23400159600.0 -0.9332753021 0.4018185645
23450159300.0 -0.9284195453 0.4152032019
23500159000.0 -0.9238169045 0.4276910618
23550158700.0 -0.9195782448 0.4414604362
23600158400.0 -0.9140622277 0.4543708653
23650158100.0 -0.9075395817 0.4685288419
23700157800.0 -0.9003814148 0.4824052626
23750157500.0 -0.8916582024 0.4961470523
23800157200.0 -0.8822763291 0.509537965
23850156900.0 -0.873957101 0.5224152012
23900156600.0 -0.8647234443 0.53461239
23950156300.0 -0.8548801768 0.5474759926
24000156000.0 -0.846019206 0.5597542659
24050155700.0 -0.8358808715 0.5708457686
24100155400.0 -0.8257038703 0.5829688576
24150155100.0 -0.8154964895 0.5944108318
24200154800.0 -0.8046297567 0.6060155236
24250154500.0 -0.7926685144 0.6176167115
24300154200.0 -0.7817237084 0.6292260287
24350153900.0 -0.7695305152 0.6399484418
24400153600.0 -0.7577810636 0.6503043604
24450153300.0 -0.7456946639 0.6599451273
24500153000.0 -0.7341548732 0.6696231595
24550152700.0 -0.7225421599 0.679213035
24600152400.0 -0.7112251436 0.6881190321
24650152100.0 -0.698837939 0.6963210473
