!Created with skrf (http://scikit-rf.org).
# Hz S RI R 50.0 
!freq ReS11 ImS11
300000.0 -0.9758288741 -0.1173808128
50299700.0 -1.000163821 0.0155472656
100299400.0 -0.9980868575 0.0284472165
150299100.0 -1.002904023 0.0452733402
200298800.0 -0.9997739882 0.0584050699
250298500.0 -0.997499331 0.0721737232
300298200.0 -0.9859228141 0.0878968776
350297900.0 -0.9941674005 0.0987917863
400297600.0 -0.9932868026 0.1154627866
450297300.0 -0.9911862465 0.1292227873
500297000.0 -0.9893829453 0.1440919105
550296700.0 -0.9843662627 0.1564600325
600296400.0 -1.017439498 0.1898857983
650296100.0 -0.9820715392 0.1861630562
700295800.0 -0.9793934915 0.2006488442
750295500.0 -0.9764418394 0.2147231962
800295200.0 -0.9730577119 0.2287402685
850294900.0 -0.9695667371 0.2426826025
900294600.0 -0.9656664607 0.2563729391
950294300.0 -0.9620172595 0.2700121702
1000294000.0 -0.9581459917 0.2838957274
1050293700.0 -0.9534650768 0.2976944159
1100293400.0 -0.9492796325 0.312255018
1150293100.0 -0.9454639773 0.3241899829
1200292800.0 -0.9402558155 0.338491988
1250292500.0 -0.9346041575 0.3519684277
1300292200.0 -0.9289728056 0.3649581386
1350291900.0 -0.9233436286 0.3791353621
1400291600.0 -0.9179327515 0.39224804
1450291300.0 -0.9125197971 0.4045199241
1500291000.0 -0.906124109 0.4179962137
1550290700.0 -0.8996654427 0.4312753548
1600290400.0 -0.8933674034 0.4443052722
1650290100.0 -0.8867839182 0.4564172384
1700289800.0 -0.8798707732 0.469744829
1750289500.0 -0.8729179693 0.4820894947
1800289200.0 -0.8653134854 0.4950878619
1850288900.0 -0.8584838733 0.506388124
1900288600.0 -0.850783337 0.5194281681
1950288300.0 -0.8426196797 0.5317775313
2000288000.0 -0.8354018667 0.5432870995
2050287700.0 -0.8271134294 0.55567944
2100287400.0 -0.8192891962 0.5673157846
2150287100.0 -0.8104942223 0.5794615374
2200286800.0 -0.8027772695 0.589861537
2250286500.0 -0.7939854492 0.6015523035
2300286200.0 -0.7849892159 0.6134927845
2350285900.0 -0.776354589 0.6242377973
2400285600.0 -0.7672641359 0.6352996687
2450285300.0 -0.7589156576 0.6457536858
2500285000.0 -0.7492564826 0.6570697251
2550284700.0 -0.7400596589 0.6672486482
2600284400.0 -0.7307305766 0.6776292519
2650284100.0 -0.7217842235 0.6879908306
2700283800.0 -0.7110620561 0.698341607
2750283500.0 -0.7009082587 0.708978404
2800283200.0 -0.6910899149 0.7185688778
2850282900.0 -0.6807958784 0.7286931532
2900282600.0 -0.6705137232 0.7382527998
2950282300.0 -0.6603989797 0.7475104393
3000282000.0 -0.6495919852 0.7570139824
3050281700.0 -0.6383972073 0.7661882525
3100281400.0 -0.626383526 0.7756567843
3150281100.0 -0.6147694664 0.7848224198
3200280800.0 -0.6028705723 0.7933953195
3250280500.0 -0.5922240536 0.8011577208
3300280200.0 -0.5810152239 0.8089654589
3350279900.0 -0.5694373582 0.8164838564
3400279600.0 -0.5573209773 0.8242697385
3450279300.0 -0.546198445 0.8313092257
3500279000.0 -0.5340748825 0.838485894
3550278700.0 -0.5217243151 0.845965119
3600278400.0 -0.5095675681 0.852997025
3650278100.0 -0.4961494382 0.8605290995
3700277800.0 -0.4841865137 0.8670014326
3750277500.0 -0.472112249 0.8734637932
3800277200.0 -0.4595267174 0.8800951118
3850276900.0 -0.4473604451 0.8859103983
3900276600.0 -0.4365487837 0.8916853043
3950276300.0 -0.4242444831 0.8976736323
4000276000.0 -0.4120027363 0.90379686
4050275700.0 -0.3993499321 0.9096551771
4100275400.0 -0.3880741775 0.9150884583
4150275100.0 -0.3754827606 0.9205649332
4200274800.0 -0.3623579149 0.9262294122
4250274500.0 -0.3502352585 0.9313237902
4300274200.0 -0.3372891364 0.9367345811
4350273900.0 -0.3233612031 0.9421002973
4400273600.0 -0.3086601774 0.9472661907
4450273300.0 -0.2932171364 0.9524452182
4500273000.0 -0.2795305634 0.9568236433
4550272700.0 -0.2653502114 0.9608938357
4600272400.0 -0.2499349765 0.9652722045
4650272100.0 -0.2381014744 0.9683755061
4700271800.0 -0.2248611522 0.9717898266
4750271500.0 -0.2133836906 0.9745325943
4800271200.0 -0.2007292784 0.9773085295
4850270900.0 -0.1868798376 0.9801361035
4900270600.0 -0.1728259514 0.9825506234
4950270300.0 -0.1586198932 0.9850452849
5000270000.0 -0.144525215 0.9868876952
5050269700.0 -0.1308847399 0.988732574
5100269400.0 -0.1171513716 0.9907180102
5150269100.0 -0.1039300656 0.9919467292
5200268800.0 -0.0907009394 0.9930685279
5250268500.0 -0.0776364192 0.9942243228
5300268200.0 -0.0646105273 0.9948163124
5350267900.0 -0.0521072782 0.9954277226
5400267600.0 -0.036286212 0.9963060616
5450267300.0 -0.0231939342 0.9966307089
5500267000.0 -0.007713639 0.9972661082
5550266700.0 0.0071969634 0.9972932431
5600266400.0 0.0225758879 0.9972692329
5650266100.0 0.0391235424 0.9969671798
5700265800.0 0.0537811126 0.9961982553
5750265500.0 0.0689100692 0.9955069734
5800265200.0 0.0825017314 0.9942202107
5850264900.0 0.0961756309 0.9937462805
5900264600.0 0.1128891129 0.9918222931
5950264300.0 0.124807333 0.9900319774
6000264000.0 0.1387508335 0.9883117739
6050263700.0 0.151169857 0.9869627627
6100263400.0 0.1639335045 0.9852664504
6150263100.0 0.1781424495 0.9824136342
6200262800.0 0.1885982215 0.9807486244
6250262500.0 0.2012664343 0.9785464126
6300262200.0 0.2141769677 0.9757158105
6350261900.0 0.2271115659 0.9727621893
6400261600.0 0.241092705 0.9694822449
6450261300.0 0.252238751 0.9667191487
6500261000.0 0.2651487371 0.963209059
6550260700.0 0.2779690584 0.9593231895
6600260400.0 0.2914293255 0.955282851
6650260100.0 0.305586633 0.9509030954
6700259800.0 0.3171614335 0.9466450844
6750259500.0 0.3312253319 0.9414122156
6800259200.0 0.3446204315 0.9369479752
6850258900.0 0.3566469592 0.9316387722
6900258600.0 0.3681963306 0.9263135899
6950258300.0 0.3811917558 0.9211400249
7000258000.0 0.3929181666 0.915630677
7050257700.0 0.4052690597 0.9097684225
7100257400.0 0.417980366 0.9034138523
7150257100.0 0.4284176444 0.8982351421
7200256800.0 0.4412703514 0.8917936287
7250256500.0 0.4530795239 0.8852397633
7300256200.0 0.4660590594 0.878510298
7350255900.0 0.4785483425 0.8718309256
7400255600.0 0.4920701113 0.8647872836
7450255300.0 0.5077451319 0.8554757189
7500255000.0 0.519458004 0.8484755458
7550254700.0 0.5327799315 0.8400542832
7600254400.0 0.5453911489 0.8314950676
7650254100.0 0.5570282374 0.8236959777
7700253800.0 0.5687709505 0.8158039923
7750253500.0 0.5801246252 0.8080519972
7800253200.0 0.5908848643 0.8004093352
7850252900.0 0.600472511 0.7932530597
7900252600.0 0.6120974362 0.7845347465
7950252300.0 0.6209805237 0.7780287053
8000252000.0 0.6310996985 0.770384499
8050251700.0 0.6414745838 0.76199059
8100251400.0 0.6517157778 0.753885905
8150251100.0 0.6616953635 0.7452917374
8200250800.0 0.6710924203 0.7375826977
8250250500.0 0.6798355623 0.729446897
8300250200.0 0.6889709915 0.7209803341
8350249900.0 0.6981960815 0.7122729781
8400249600.0 0.7067997297 0.7042518771
8450249300.0 0.7158013038 0.6949131909
8500249000.0 0.7240867335 0.6861661207
8550248700.0 0.7324861796 0.6770014227
8600248400.0 0.7408508046 0.6677456424
8650248100.0 0.7487389905 0.6580780404
8700247800.0 0.7583026892 0.6468676703
8750247500.0 0.7665321289 0.6367902768
8800247200.0 0.7745646325 0.6263138789
8850246900.0 0.7835386763 0.6148533585
8900246600.0 0.7920404829 0.6036538804
8950246300.0 0.8016842931 0.5905091306
9000246000.0 0.8112036423 0.5776023576
9050245700.0 0.819811346 0.564858967
9100245400.0 0.8282353107 0.5523618977
9150245100.0 0.8377937787 0.5386618708
9200244800.0 0.8474726551 0.52343338
9250244500.0 0.8572106348 0.5078170569
9300244200.0 0.8656058838 0.4931856389
9350243900.0 0.8733587064 0.4793505276
9400243600.0 0.8799268106 0.4669395262
9450243300.0 0.8860578715 0.4553297556
9500243000.0 0.892246991 0.4432142178
9550242700.0 0.8957708803 0.4357069755
9600242400.0 0.8997522465 0.4284066342
9650242100.0 0.903432433 0.4218152824
9700241800.0 0.9081661297 0.4138076645
9750241500.0 0.9118260327 0.4063134088
9800241200.0 0.9166673585 0.3967623515
9850240900.0 0.9223866905 0.3853834378
9900240600.0 0.9281455177 0.3735976822
9950240300.0 0.9345855127 0.3576177274
10000240000.0 0.9387233324 0.3462137264
10050239700.0 0.9449656341 0.3308416265
10100239400.0 0.9496351356 0.3155175007
10150239100.0 0.9542493097 0.3003199917
10200238800.0 0.9583133398 0.2855237996
10250238500.0 0.9616208034 0.2721710194
10300238200.0 0.9648017691 0.2582438252
10350237900.0 0.9673418238 0.2450823016
10400237600.0 0.9698755991 0.2320149446
10450237300.0 0.9727189633 0.2183711147
10500237000.0 0.974736004 0.2060505494
10550236700.0 0.9772094369 0.1917257674
10600236400.0 0.9794433654 0.1783188836
10650236100.0 0.9812845143 0.1636871853
10700235800.0 0.9834350587 0.1515162999
10750235500.0 0.9859794403 0.1378642295
10800235200.0 0.9877355913 0.1241343549
10850234900.0 0.9896214142 0.109141193
10900234600.0 0.9918157843 0.0946733176
10950234300.0 0.9935177084 0.0815152094
11000234000.0 0.9953630144 0.0663282339
11050233700.0 0.9970864242 0.0500940419
11100233400.0 0.9984652347 0.0327747325
11150233100.0 0.9995300504 0.0159908026
11200232800.0 1.000405063 0.0010396872
11250232500.0 1.000696286 -0.0157152491
11300232200.0 1.001799694 -0.0335197582
11350231900.0 1.002156384 -0.0499155754
11400231600.0 1.001253194 -0.0650985079
11450231300.0 1.001021793 -0.0805699329
11500231000.0 0.9999630168 -0.0965550824
11550230700.0 0.9989784034 -0.1101330655
11600230400.0 0.9969460154 -0.1226020692
11650230100.0 0.9948775599 -0.1341902527
11700229800.0 0.9932059279 -0.1481491152
11750229500.0 0.990682536 -0.1630336929
11800229200.0 0.9880510433 -0.1767685295
11850228900.0 0.9845507662 -0.1890005467
11900228600.0 0.9811102464 -0.1988003876
11950228300.0 0.9779051549 -0.2090046508
12000228000.0 0.9748137086 -0.2185642774
12050227700.0 0.9715421737 -0.2307358845
12100227400.0 0.9682105102 -0.2425378587
12150227100.0 0.9634408699 -0.2585247091
12200226800.0 0.9592248203 -0.2695914482
12250226500.0 0.95544839 -0.2824445323
12300226200.0 0.9510858991 -0.2943919431
12350225900.0 0.946095149 -0.3083092379
12400225600.0 0.9418641592 -0.321295012
12450225300.0 0.9372821787 -0.3346256206
12500225000.0 0.9321896503 -0.3483739359
12550224700.0 0.9267616471 -0.3625756423
12600224400.0 0.9218380232 -0.3753716528
12650224100.0 0.916237949 -0.3899243085
12700223800.0 0.9107391238 -0.4025656559
12750223500.0 0.9052830747 -0.4157759865
12800223200.0 0.9000148294 -0.4282555026
12850222900.0 0.894579583 -0.440568302
12900222600.0 0.8887583435 -0.4526836009
12950222300.0 0.8828238498 -0.4658713483
13000222000.0 0.876822396 -0.4763776606
13050221700.0 0.8702439847 -0.4892141995
13100221400.0 0.8635553635 -0.501292255
13150221100.0 0.8565851753 -0.5137418612
13200220800.0 0.8497778403 -0.525080295
13250220500.0 0.8421834053 -0.5372621423
13300220200.0 0.8348203341 -0.5479811061
13350219900.0 0.826973512 -0.5600256797
13400219600.0 0.8181584535 -0.5722231281
13450219300.0 0.8092252531 -0.5858687261
13500219000.0 0.7987536067 -0.5996795243
13550218700.0 0.7880397668 -0.6128559505
13600218400.0 0.7788174384 -0.6244928908
13650218100.0 0.7684350296 -0.6357757041
13700217800.0 0.7576157557 -0.6479520541
13750217500.0 0.7475822 -0.659936471
13800217200.0 0.7366938472 -0.6705470248
13850216900.0 0.7249992354 -0.6819885384
13900216600.0 0.715926372 -0.691407325
13950216300.0 0.7051364171 -0.7013249813
14000216000.0 0.6946469099 -0.7111595885
14050215700.0 0.6852769243 -0.7188891179
14100215400.0 0.6754877961 -0.7285809329
14150215100.0 0.6660066809 -0.7367537059
14200214800.0 0.6570697693 -0.7455531686
14250214500.0 0.6466522482 -0.7547735258
14300214200.0 0.6362752825 -0.7640633934
14350213900.0 0.6251424716 -0.7737175822
14400213600.0 0.613320495 -0.783350924
14450213300.0 0.6003893791 -0.7937684847
14500213000.0 0.5870328908 -0.8033157913
14550212700.0 0.5744328586 -0.8131427001
14600212400.0 0.5623343682 -0.8216085493
14650212100.0 0.5485132346 -0.8305454231
14700211800.0 0.5351756318 -0.8400573426
14750211500.0 0.523286622 -0.8483998156
14800211200.0 0.5109312691 -0.85656214
14850210900.0 0.4988288011 -0.8637601027
14900210600.0 0.4856727148 -0.8717220202
14950210300.0 0.4721150476 -0.87929938
15000210000.0 0.4591384098 -0.8861127073
15050209700.0 0.4468237558 -0.8921564067
15100209400.0 0.4337715224 -0.8983436771
15150209100.0 0.4213154858 -0.903633895
15200208800.0 0.4091192022 -0.908737722
15250208500.0 0.3973872766 -0.9132829011
15300208200.0 0.3854884904 -0.9183776243
15350207900.0 0.3732725088 -0.9229688958
15400207600.0 0.3577071607 -0.9275935159
15450207300.0 0.3430851971 -0.9326861192
15500207000.0 0.3287167766 -0.9376878769
15550206700.0 0.3135799583 -0.9433037195
15600206400.0 0.2980067472 -0.9474227674
15650206100.0 0.2820471874 -0.9518473151
15700205800.0 0.2678799776 -0.9551874281
15750205500.0 0.2537162997 -0.9586846563
15800205200.0 0.2390107227 -0.9623759335
15850204900.0 0.2246927008 -0.9656482566
15900204600.0 0.2096469682 -0.9693377494
15950204300.0 0.1956209705 -0.9724065254
16000204000.0 0.1814536809 -0.9751558706
16050203700.0 0.1664286372 -0.9779453363
16100203400.0 0.1519378274 -0.9800580833
16150203100.0 0.1373589077 -0.982644341
16200202800.0 0.1235817223 -0.9847942661
16250202500.0 0.1088078586 -0.9862466209
16300202200.0 0.0929693331 -0.9881520983
16350201900.0 0.0784239835 -0.9892640207
16400201600.0 0.0637957239 -0.9904637282
16450201300.0 0.0484779791 -0.9912815076
16500201000.0 0.0318870028 -0.9922091503
16550200700.0 0.0162541554 -0.9927737189
16600200400.0 0.0005426617 -0.9928259668
16650200100.0 -0.0156839267 -0.9926485866
16700199800.0 -0.031943206 -0.9925309235
16750199500.0 -0.0508090643 -0.9917882959
16800199200.0 -0.066614081 -0.9911891585
16850198900.0 -0.0818070787 -0.9893437886
16900198600.0 -0.0957172652 -0.9886205659
16950198300.0 -0.1084417349 -0.9873887449
17000198000.0 -0.1224739706 -0.9859886744
17050197700.0 -0.1345893629 -0.9843187246
17100197400.0 -0.1469715019 -0.9822059873
17150197100.0 -0.1598307602 -0.9799130986
17200196800.0 -0.1728158087 -0.9782154121
17250196500.0 -0.1858861018 -0.9752800988
17300196200.0 -0.1976795539 -0.9732148578
17350195900.0 -0.2097417261 -0.9709947712
17400195600.0 -0.2220556576 -0.9684703456
17450195300.0 -0.2349031799 -0.9657458628
17500195000.0 -0.2484686753 -0.9623045993
17550194700.0 -0.2627723433 -0.9586437673
17600194400.0 -0.2760865862 -0.9548592972
17650194100.0 -0.2899957578 -0.9509536725
17700193800.0 -0.3029993993 -0.9463008751
17750193500.0 -0.3172346616 -0.9421356972
17800193200.0 -0.3322666822 -0.9365931106
17850192900.0 -0.3469732359 -0.9314257445
17900192600.0 -0.3623873533 -0.9254797748
17950192300.0 -0.3775133428 -0.9181817828
18000192000.0 -0.3922627244 -0.9110050439
18050191700.0 -0.4060864774 -0.9030148127
18100191400.0 -0.4203479358 -0.8953624981
18150191100.0 -0.435512643 -0.8874315876
18200190800.0 -0.4522121545 -0.8779778293
18250190500.0 -0.4693453792 -0.8685112605
18300190200.0 -0.484487184 -0.8599777231
18350189900.0 -0.4995964132 -0.8520026722
18400189600.0 -0.5136482081 -0.8433216582
18450189300.0 -0.5271657634 -0.8351199388
18500189000.0 -0.540677191 -0.8268262615
18550188700.0 -0.5532267585 -0.8196062091
18600188400.0 -0.5650671245 -0.813144307
18650188100.0 -0.5763137537 -0.8065566354
18700187800.0 -0.5869848415 -0.7995794354
18750187500.0 -0.597745187 -0.7932516909
18800187200.0 -0.6083918195 -0.7862676216
18850186900.0 -0.6183935692 -0.7793772194
18900186600.0 -0.6286881829 -0.7721088633
18950186300.0 -0.6385381814 -0.7643463103
19000186000.0 -0.6462831579 -0.7583731983
19050185700.0 -0.6550876698 -0.7508859962
19100185400.0 -0.6651658328 -0.7430264042
19150185100.0 -0.6752911187 -0.7339551553
19200184800.0 -0.6847113595 -0.7258897682
19250184500.0 -0.69463593 -0.7163490933
19300184200.0 -0.7060202073 -0.7072198039
19350183900.0 -0.7178175127 -0.6975360705
19400183600.0 -0.726667292 -0.6868247071
19450183300.0 -0.7353844834 -0.6778283971
19500183000.0 -0.7442446132 -0.6673976381
19550182700.0 -0.7537587745 -0.6564567485
19600182400.0 -0.7640442212 -0.6450676716
19650182100.0 -0.7753403921 -0.6322867152
19700181800.0 -0.785796197 -0.6194446355
19750181500.0 -0.7963559447 -0.6052459721
19800181200.0 -0.8066660974 -0.5901529593
19850180900.0 -0.816276212 -0.5746661761
19900180600.0 -0.8239295868 -0.5604986195
19950180300.0 -0.8330560286 -0.5439713973
20000180000.0 -0.8268660201 -0.5463988393
20050179700.0 -0.8339872172 -0.5326100635
20100179400.0 -0.8426018791 -0.5194000691
20150179100.0 -0.8507514382 -0.5062435668
20200178800.0 -0.8600153488 -0.4942843221
20250178500.0 -0.8699104401 -0.48103611
20300178200.0 -0.8784270999 -0.4658802642
20350177900.0 -0.8878670498 -0.4515369682
20400177600.0 -0.8966792403 -0.4372861879
20450177300.0 -0.9052591681 -0.4225755331
20500177000.0 -0.9132938261 -0.4088075239
20550176700.0 -0.9207864119 -0.3950843058
20600176400.0 -0.9278109106 -0.3822431331
20650176100.0 -0.9344324096 -0.3698626461
20700175800.0 -0.9413154738 -0.3579197934
20750175500.0 -0.9474130813 -0.3470417175
20800175200.0 -0.9529842581 -0.3349926316
20850174900.0 -0.9572904211 -0.3241398261
20900174600.0 -0.96261102 -0.3127384468
20950174300.0 -0.9666111707 -0.3019257493
21000174000.0 -0.9693374233 -0.2899090392
21050173700.0 -0.9721095188 -0.2783572425
21100173400.0 -0.976887239 -0.2673293134
21150173100.0 -0.9809745554 -0.2544357064
21200172800.0 -0.9843761482 -0.2407143652
21250172500.0 -0.986975291 -0.2277476669
21300172200.0 -0.9900952332 -0.2130836519
21350171900.0 -0.9914648512 -0.1989627325
21400171600.0 -0.9933498471 -0.1849124092
21450171300.0 -0.9928747206 -0.1700218421
21500171000.0 -0.9932121753 -0.1547411719
21550170700.0 -0.9932556981 -0.1399014477
21600170400.0 -0.9930971304 -0.1236084765
21650170100.0 -0.9907365278 -0.1079311844
21700169800.0 -0.9900958692 -0.091968839
21750169500.0 -0.9887439877 -0.0766216547
21800169200.0 -0.9885738674 -0.0600452766
21850168900.0 -0.9875014794 -0.0425496782
21900168600.0 -0.9854303525 -0.0268912323
21950168300.0 -0.9839569503 -0.0115322913
22000168000.0 -0.9834912179 0.0035820098
22050167700.0 -0.9832829465 0.0179602791
22100167400.0 -0.9834795598 0.0326743558
22150167100.0 -0.983946339 0.0486872646
22200166800.0 -0.9843115786 0.0647664294
22250166500.0 -0.9835284442 0.0820044373
22300166200.0 -0.9832342079 0.0991296478
22350165900.0 -0.9814161428 0.1150727106
22400165600.0 -0.9802897916 0.1312687862
22450165300.0 -0.977368936 0.1463697822
22500165000.0 -0.9760800951 0.1594334288
22550164700.0 -0.9756774802 0.1746994746
22600164400.0 -0.9745167193 0.1907790556
22650164100.0 -0.9715370693 0.2056491466
22700163800.0 -0.9690951215 0.2218262826
22750163500.0 -0.9660760862 0.2365775225
22800163200.0 -0.9633720347 0.2496240557
22850162900.0 -0.9607267454 0.2631433748
22900162600.0 -0.9598184956 0.2763841901
22950162300.0 -0.958646325 0.2887791846
23000162000.0 -0.9576848491 0.301028186
23050161700.0 -0.955562156 0.31374638
23100161400.0 -0.9533156754 0.3254160162
23150161100.0 -0.9502360815 0.3379849313
23200160800.0 -0.9476247648 0.3511807903
23250160500.0 -0.9448204408 0.3630467591
23300160200.0 -0.9421584829 0.3747656982
23350159900.0 -0.9381799817 0.387795038
23400159600.0 -0.9331503223 0.4011194569
23450159300.0 -0.9292491866 0.4135359715
23500159000.0 -0.9242580507 0.4268165994
23550158700.0 -0.9200421306 0.4403236179
23600158400.0 -0.9145239216 0.4537281665
23650158100.0 -0.9080320847 0.4677868545
23700157800.0 -0.9005257328 0.4816745557
23750157500.0 -0.8917259032 0.4956575745
23800157200.0 -0.8829940691 0.5091295783
23850156900.0 -0.8742966066 0.5215237211
23900156600.0 -0.8646067452 0.5344430497
23950156300.0 -0.8561179485 0.5467381782
24000156000.0 -0.8471844495 0.5584952862
24050155700.0 -0.836667687 0.5699781148
24100155400.0 -0.8265544262 0.5827570608
24150155100.0 -0.8157376873 0.5943216503
24200154800.0 -0.8057261718 0.6051991092
24250154500.0 -0.793821864 0.6173242287
24300154200.0 -0.7821615774 0.6286868384
24350153900.0 -0.7705500138 0.6395103995
24400153600.0 -0.7581969458 0.6496578306
24450153300.0 -0.7464974203 0.6594237482
24500153000.0 -0.7354029954 0.6692140509
24550152700.0 -0.724066054 0.6788339106
24600152400.0 -0.7119221081 0.6879363478
24650152100.0 -0.6999266528 0.696086504
