!Created with skrf (http://scikit-rf.org).
# Hz S RI R 50.0 
!freq ReS11 ImS11
300000.0 -0.9728760331 -0.1218040633
50299700.0 -1.000058937 0.0152382443
100299400.0 -0.9980435599 0.0281093078
150299100.0 -1.002794924 0.0449219695
200298800.0 -0.9996521525 0.0583062026
250298500.0 -0.9973466886 0.071881834
300298200.0 -0.9860883139 0.0874757262
350297900.0 -0.9939835462 0.0984338137
400297600.0 -0.993208881 0.1151164848
450297300.0 -0.9912329381 0.1289378288
500297000.0 -0.9895822287 0.1435539163
550296700.0 -0.9840199958 0.1561490738
600296400.0 -1.017055198 0.1892775669
650296100.0 -0.9820225393 0.1860774566
700295800.0 -0.9794035714 0.2003123841
750295500.0 -0.9762886874 0.2142638526
800295200.0 -0.9730662644 0.2282726382
850294900.0 -0.9698184479 0.2422051681
900294600.0 -0.9657058799 0.2559936078
950294300.0 -0.9620678591 0.2695057719
1000294000.0 -0.9581255396 0.2835631222
1050293700.0 -0.9536335492 0.2972566265
1100293400.0 -0.9494211861 0.3118625893
1150293100.0 -0.9455377868 0.3236074015
1200292800.0 -0.9401778577 0.3380142655
1250292500.0 -0.9348199386 0.3514983693
1300292200.0 -0.9289920506 0.3647388428
1350291900.0 -0.92347661 0.3787734908
1400291600.0 -0.917860591 0.3917372329
1450291300.0 -0.9123795194 0.4042084821
1500291000.0 -0.9061361113 0.4175623298
1550290700.0 -0.8996692631 0.4308226892
1600290400.0 -0.8934548447 0.4439019742
1650290100.0 -0.8868508747 0.4559997985
1700289800.0 -0.8798592912 0.4693730802
1750289500.0 -0.8727834759 0.481808493
1800289200.0 -0.8656292078 0.4946717133
1850288900.0 -0.8587047193 0.5059678279
1900288600.0 -0.8510312669 0.5190420704
1950288300.0 -0.8429715517 0.5314482111
2000288000.0 -0.8354410668 0.5429568201
2050287700.0 -0.8272025446 0.5553398773
2100287400.0 -0.8192732605 0.5667925889
2150287100.0 -0.8107496603 0.5787432901
2200286800.0 -0.8029782788 0.5891130896
2250286500.0 -0.794267706 0.6014350947
2300286200.0 -0.7852462298 0.6129093292
2350285900.0 -0.7767207223 0.6237894938
2400285600.0 -0.7678810117 0.6347257682
2450285300.0 -0.7591385738 0.6452768688
2500285000.0 -0.7493229475 0.6567363464
2550284700.0 -0.740333268 0.6667909372
2600284400.0 -0.7309843801 0.6770044133
2650284100.0 -0.7222782031 0.6875341404
2700283800.0 -0.7115484354 0.6979535055
2750283500.0 -0.7012720603 0.7084669513
2800283200.0 -0.6915627467 0.7183969486
2850282900.0 -0.681182816 0.7279671826
2900282600.0 -0.6708596626 0.7378591126
2950282300.0 -0.6605459109 0.7471660158
3000282000.0 -0.6497390348 0.7566477733
3050281700.0 -0.6385657091 0.7658824282
3100281400.0 -0.626797264 0.7752857222
3150281100.0 -0.6151899991 0.7844166146
3200280800.0 -0.6036222164 0.7929105041
3250280500.0 -0.5926615085 0.8005855685
3300280200.0 -0.5812570325 0.8085611828
3350279900.0 -0.569576098 0.8165422096
3400279600.0 -0.5573785396 0.8240590646
3450279300.0 -0.5462139846 0.8311424898
3500279000.0 -0.534298724 0.8382276012
3550278700.0 -0.521866359 0.8454250242
3600278400.0 -0.509786575 0.8526597947
3650278100.0 -0.4964792554 0.8602239824
3700277800.0 -0.4844905448 0.8666536362
3750277500.0 -0.4721838777 0.8731861064
3800277200.0 -0.4598757569 0.8798574466
3850276900.0 -0.4478643737 0.8858546393
3900276600.0 -0.4369031025 0.891415196
3950276300.0 -0.4247533075 0.8974488645
4000276000.0 -0.4125046206 0.9032313326
4050275700.0 -0.3998878043 0.9093996092
4100275400.0 -0.3884897279 0.9147851341
4150275100.0 -0.3760279684 0.9206140759
4200274800.0 -0.3628075382 0.9260113855
4250274500.0 -0.3506442395 0.9311779321
4300274200.0 -0.3374696437 0.9364671447
4350273900.0 -0.3236287802 0.9418486632
4400273600.0 -0.3086576275 0.9473082134
4450273300.0 -0.2937726923 0.9521874414
4500273000.0 -0.2800721821 0.9565071262
4550272700.0 -0.2659448513 0.9605570987
4600272400.0 -0.2506684447 0.9648771666
4650272100.0 -0.2390509143 0.9680913259
4700271800.0 -0.2257496435 0.9715733086
4750271500.0 -0.2140710794 0.9743894497
4800271200.0 -0.2016608169 0.9769135024
4850270900.0 -0.187885854 0.9798080305
4900270600.0 -0.1739592213 0.9823186072
4950270300.0 -0.1595539132 0.9849587498
5000270000.0 -0.1451051534 0.9868747094
5050269700.0 -0.1315411759 0.9883240216
5100269400.0 -0.1179014481 0.9903765652
5150269100.0 -0.1045916112 0.9916834867
5200268800.0 -0.0911775589 0.9929709485
5250268500.0 -0.0779861088 0.9940131022
5300268200.0 -0.0648583239 0.9944042386
5350267900.0 -0.0525258043 0.9954727626
5400267600.0 -0.0359584444 0.9965483451
5450267300.0 -0.0230426918 0.9967253585
5500267000.0 -0.0078470827 0.9973485853
5550266700.0 0.0071542415 0.9973910966
5600266400.0 0.0227026315 0.9972350787
5650266100.0 0.0392447378 0.9969559694
5700265800.0 0.0537966198 0.9962377274
5750265500.0 0.0687652466 0.9955266625
5800265200.0 0.0825356904 0.9938623879
5850264900.0 0.0958350618 0.9934246458
5900264600.0 0.1122468261 0.9916069178
5950264300.0 0.1244524445 0.990145023
6000264000.0 0.1379679895 0.9881347
6050263700.0 0.1505155378 0.9867864824
6100263400.0 0.1629244586 0.9850420042
6150263100.0 0.1774311545 0.9829586923
6200262800.0 0.1875155691 0.9810827943
6250262500.0 0.2001423929 0.9785566557
6300262200.0 0.2128598412 0.975916715
6350261900.0 0.2260310983 0.9730921443
6400261600.0 0.2397500288 0.9697448838
6450261300.0 0.2508148852 0.9670894991
6500261000.0 0.26393518 0.9635803542
6550260700.0 0.2767274971 0.9594086142
6600260400.0 0.2904587173 0.955509863
6650260100.0 0.3043716285 0.9510429597
6700259800.0 0.3163379286 0.9466364517
6750259500.0 0.3299330604 0.9417855878
6800259200.0 0.3436117571 0.937036662
6850258900.0 0.3556206124 0.9314980508
6900258600.0 0.3673497528 0.926463125
6950258300.0 0.3804331661 0.9214002129
7000258000.0 0.392147988 0.915919515
7050257700.0 0.4045798845 0.9100775145
7100257400.0 0.4172211576 0.9036444762
7150257100.0 0.4278728782 0.8985503859
7200256800.0 0.4404831952 0.8918575695
7250256500.0 0.4527365712 0.8856227884
7300256200.0 0.4658641693 0.8786683835
7350255900.0 0.4779912541 0.871865039
7400255600.0 0.4915479868 0.8645231589
7450255300.0 0.5073295189 0.8556606575
7500255000.0 0.5194964802 0.8484120203
7550254700.0 0.5327710941 0.8396560262
7600254400.0 0.5456725372 0.8315691773
7650254100.0 0.5568676481 0.8236042149
7700253800.0 0.5693631859 0.8156177496
7750253500.0 0.5800802429 0.8079049104
7800253200.0 0.5908040856 0.8001850829
7850252900.0 0.6004178025 0.7931491415
7900252600.0 0.6120016083 0.7842973142
7950252300.0 0.6207752296 0.7780348769
8000252000.0 0.630721702 0.7702304394
8050251700.0 0.6413008084 0.7622172353
8100251400.0 0.6514224307 0.7540193385
8150251100.0 0.661451928 0.7454017314
8200250800.0 0.6705530678 0.7373640889
8250250500.0 0.6795143073 0.7295644155
8300250200.0 0.6890424044 0.7209748169
8350249900.0 0.6980334579 0.7120943167
8400249600.0 0.7066265025 0.7042004915
8450249300.0 0.7153734094 0.6951401439
8500249000.0 0.7240499533 0.686222906
8550248700.0 0.7323664935 0.6772672308
8600248400.0 0.740721998 0.6675999112
8650248100.0 0.7484510306 0.6583590346
8700247800.0 0.7579813026 0.6470083119
8750247500.0 0.766304014 0.6368381264
8800247200.0 0.7744529077 0.6267125716
8850246900.0 0.7833180441 0.6150841239
8900246600.0 0.7916157983 0.6038798299
8950246300.0 0.8009989227 0.5908550557
9000246000.0 0.8099400251 0.5785621532
9050245700.0 0.8193982266 0.5654080135
9100245400.0 0.8274983598 0.5530890918
9150245100.0 0.8368706618 0.5396688049
9200244800.0 0.846653245 0.5244776074
9250244500.0 0.8559113335 0.5095121177
9300244200.0 0.8645257854 0.4951335072
9350243900.0 0.8720041091 0.4812818615
9400243600.0 0.8785216369 0.4692448728
9450243300.0 0.8843710898 0.4578286657
9500243000.0 0.8906622 0.4456644521
9550242700.0 0.8944555051 0.4381324612
9600242400.0 0.8985634353 0.4307974301
9650242100.0 0.9023148821 0.4242072866
9700241800.0 0.9070562143 0.4158639928
9750241500.0 0.9112588105 0.4082211369
9800241200.0 0.9157680916 0.3988006046
9850240900.0 0.9216090384 0.3873720591
9900240600.0 0.9275157435 0.3756600525
9950240300.0 0.9341636489 0.3594042975
10000240000.0 0.9384734491 0.3481284947
10050239700.0 0.9446784588 0.3320840283
10100239400.0 0.9495383493 0.3168310471
10150239100.0 0.9539105065 0.3018555048
10200238800.0 0.9581272805 0.2867955147
10250238500.0 0.9615290553 0.2731873949
10300238200.0 0.9644790091 0.259477827
10350237900.0 0.9673627151 0.2461531267
10400237600.0 0.9698742432 0.2327548206
10450237300.0 0.9724550219 0.2193537755
10500237000.0 0.974287141 0.2075026496
10550236700.0 0.9769758857 0.192485926
10600236400.0 0.9791755886 0.179474584
10650236100.0 0.9809544549 0.1644965708
10700235800.0 0.9835702725 0.1517589321
10750235500.0 0.9858276041 0.1387780348
10800235200.0 0.9877473667 0.1247783467
10850234900.0 0.9896660673 0.1098779315
10900234600.0 0.9919072299 0.0950962649
10950234300.0 0.9935681442 0.0818492621
11000234000.0 0.9952234525 0.066679136
11050233700.0 0.9970877054 0.0500587654
11100233400.0 0.9985400358 0.0328199905
11150233100.0 1.000007399 0.016614715
11200232800.0 1.000573537 0.0013683509
11250232500.0 1.001466061 -0.0152018648
11300232200.0 1.001337833 -0.0335539898
11350231900.0 1.001747292 -0.0495955315
11400231600.0 1.001198913 -0.0644785163
11450231300.0 1.000858036 -0.0801200283
11500231000.0 0.9994399983 -0.0969535214
11550230700.0 0.9989728813 -0.1096460421
11600230400.0 0.9971107701 -0.1225126406
11650230100.0 0.9950074437 -0.1342943846
11700229800.0 0.9929925902 -0.149379018
11750229500.0 0.9906681933 -0.1634153645
11800229200.0 0.9880550397 -0.1771465277
11850228900.0 0.9841020464 -0.1893826003
11900228600.0 0.980930081 -0.1988345218
11950228300.0 0.9773408482 -0.2092827126
12000228000.0 0.9751059202 -0.2180882035
12050227700.0 0.9716319881 -0.2308864633
12100227400.0 0.9681487676 -0.2421350504
12150227100.0 0.963027376 -0.2589828762
12200226800.0 0.9594647367 -0.2700153564
12250226500.0 0.9551152328 -0.2821669403
12300226200.0 0.9512394515 -0.295292148
12350225900.0 0.9462618068 -0.308593754
12400225600.0 0.9419940046 -0.3212094576
12450225300.0 0.9376033601 -0.3341668302
12500225000.0 0.932096 -0.3489319864
12550224700.0 0.9266671724 -0.3626697346
12600224400.0 0.9216211082 -0.3756527214
12650224100.0 0.9158137489 -0.3900263211
12700223800.0 0.910671165 -0.4028157648
12750223500.0 0.9050066224 -0.4157590682
12800223200.0 0.8996649562 -0.428343213
12850222900.0 0.8945947083 -0.4404860279
12900222600.0 0.8886712813 -0.4529731267
12950222300.0 0.8823158995 -0.4653995443
13000222000.0 0.8769363193 -0.4762949325
13050221700.0 0.8698446467 -0.4898093639
13100221400.0 0.8630498476 -0.5019593281
13150221100.0 0.85617121 -0.5137962972
13200220800.0 0.849042893 -0.5252592398
13250220500.0 0.8423787764 -0.5374866916
13300220200.0 0.8349086515 -0.5482513972
13350219900.0 0.8267692154 -0.5601638157
13400219600.0 0.8183938894 -0.5724321653
13450219300.0 0.8093972928 -0.5856589456
13500219000.0 0.7988426702 -0.5995628076
13550218700.0 0.788837368 -0.6119324656
13600218400.0 0.7788337659 -0.6238386918
13650218100.0 0.7694607161 -0.6348117834
13700217800.0 0.7586333694 -0.6467960066
13750217500.0 0.7480430991 -0.658499502
13800217200.0 0.7382902469 -0.6697197022
13850216900.0 0.7261874836 -0.6818140045
13900216600.0 0.7170112084 -0.6899230783
13950216300.0 0.7051754633 -0.7004730404
14000216000.0 0.695948005 -0.7099636062
14050215700.0 0.6864236643 -0.7181336359
14100215400.0 0.6762381746 -0.7274886168
14150215100.0 0.6673790246 -0.7359771012
14200214800.0 0.6577919124 -0.7446034248
14250214500.0 0.6475090107 -0.7539270162
14300214200.0 0.6368530562 -0.7633129238
14350213900.0 0.6259226919 -0.7727466945
14400213600.0 0.61395483 -0.782559613
14450213300.0 0.6009478038 -0.7930473845
14500213000.0 0.5881630141 -0.8029010079
14550212700.0 0.5755620432 -0.8120564484
14600212400.0 0.5632488528 -0.8208876281
14650212100.0 0.5501489635 -0.8299938327
14700211800.0 0.5360805242 -0.8396837609
14750211500.0 0.5241580213 -0.8477254034
14800211200.0 0.5119563114 -0.8557352135
14850210900.0 0.4997047255 -0.8631582833
14900210600.0 0.4865289246 -0.8711539208
14950210300.0 0.4729774519 -0.878772165
15000210000.0 0.4601373557 -0.8856085325
15050209700.0 0.4478244 -0.8919357138
15100209400.0 0.4355681176 -0.8978225948
15150209100.0 0.4230021218 -0.9030726367
15200208800.0 0.4103973446 -0.9085977522
15250208500.0 0.398600729 -0.9129012342
15300208200.0 0.3866204983 -0.9171652815
15350207900.0 0.3734430433 -0.9227761657
15400207600.0 0.3590601939 -0.9278796768
15450207300.0 0.3455465245 -0.9326729354
15500207000.0 0.3300756153 -0.938004583
15550206700.0 0.3155450735 -0.9428863678
15600206400.0 0.2994348953 -0.9466962205
15650206100.0 0.2832569339 -0.9512314223
15700205800.0 0.2698489594 -0.9550649262
15750205500.0 0.2555569112 -0.9581387697
15800205200.0 0.2408676487 -0.9619342384
15850204900.0 0.2267354517 -0.9652116144
15900204600.0 0.2116539216 -0.9688004813
15950204300.0 0.1970668373 -0.9719233388
16000204000.0 0.1829757258 -0.9748508357
16050203700.0 0.1680875464 -0.9778655755
16100203400.0 0.1532292689 -0.9795296744
16150203100.0 0.1390683258 -0.982449477
16200202800.0 0.1251220653 -0.9840707897
16250202500.0 0.1097476804 -0.9861467203
16300202200.0 0.0942862769 -0.9877153623
16350201900.0 0.0792796158 -0.9889797209
16400201600.0 0.0647099999 -0.9903415132
16450201300.0 0.0494303866 -0.9914939487
16500201000.0 0.0327795617 -0.9920992901
16550200700.0 0.0169207542 -0.9927326889
16600200400.0 0.0011780278 -0.9929175262
16650200100.0 -0.0145270577 -0.992873675
16700199800.0 -0.0312624452 -0.9925827452
16750199500.0 -0.0496897783 -0.9917277086
16800199200.0 -0.0653103258 -0.9907657267
16850198900.0 -0.0804966283 -0.9896891954
16900198600.0 -0.0950320526 -0.989092099
16950198300.0 -0.108854803 -0.9880996759
17000198000.0 -0.1208723517 -0.9865013479
17050197700.0 -0.133829051 -0.9842831057
17100197400.0 -0.146138497 -0.9827784261
17150197100.0 -0.1589422157 -0.9800097955
17200196800.0 -0.1720589882 -0.9782513321
17250196500.0 -0.1846093479 -0.9758034037
17300196200.0 -0.1968368201 -0.9734446878
17350195900.0 -0.208879682 -0.9712812326
17400195600.0 -0.2210701229 -0.9687094233
17450195300.0 -0.2342005784 -0.9659197945
17500195000.0 -0.2472903767 -0.9626505713
17550194700.0 -0.2612050155 -0.9591887415
17600194400.0 -0.2749485057 -0.9550462277
17650194100.0 -0.289119415 -0.950797951
17700193800.0 -0.3022146531 -0.9467881431
17750193500.0 -0.3163115207 -0.9421690687
17800193200.0 -0.3308586062 -0.9373641121
17850192900.0 -0.3458640586 -0.9315513311
17900192600.0 -0.36068479 -0.9251801889
17950192300.0 -0.376781678 -0.9184655238
18000192000.0 -0.3914395172 -0.9111061913
18050191700.0 -0.4053602305 -0.9032126893
18100191400.0 -0.4195961861 -0.8955940102
18150191100.0 -0.4344372265 -0.8876870258
18200190800.0 -0.4514725651 -0.878405922
18250190500.0 -0.4683498888 -0.8691092187
18300190200.0 -0.4837491938 -0.8602657766
18350189900.0 -0.4989756919 -0.8519331036
18400189600.0 -0.5133798038 -0.8439463798
18450189300.0 -0.5267121857 -0.8358456671
18500189000.0 -0.5398195934 -0.8279097482
18550188700.0 -0.5528396723 -0.8204806538
18600188400.0 -0.5643931726 -0.813384057
18650188100.0 -0.5754903467 -0.8071641443
18700187800.0 -0.5863132513 -0.800413731
18750187500.0 -0.596810356 -0.7938288487
18800187200.0 -0.6074304202 -0.7869239583
18850186900.0 -0.6176935464 -0.7801356695
18900186600.0 -0.62775344 -0.7726094069
18950186300.0 -0.6376406787 -0.7649523793
19000186000.0 -0.6452688614 -0.7586129696
19050185700.0 -0.653723662 -0.7518724174
19100185400.0 -0.6645195095 -0.7434479662
19150185100.0 -0.6740886558 -0.7349703695
19200184800.0 -0.6838731103 -0.7267731694
19250184500.0 -0.6940362518 -0.717993277
19300184200.0 -0.7055745678 -0.7074966233
19350183900.0 -0.7168065203 -0.6983740232
19400183600.0 -0.7263575494 -0.6886881187
19450183300.0 -0.7349318677 -0.6780637852
19500183000.0 -0.7432057243 -0.6675922139
19550182700.0 -0.7528459302 -0.6571868521
19600182400.0 -0.7633611335 -0.6457671881
19650182100.0 -0.7744182903 -0.63315631
19700181800.0 -0.7849592132 -0.6198138239
19750181500.0 -0.7954594857 -0.6059637465
19800181200.0 -0.8057053895 -0.5909293323
19850180900.0 -0.8155848036 -0.5753239305
19900180600.0 -0.8233340393 -0.5610153682
19950180300.0 -0.8327143299 -0.5443756258
20000180000.0 -0.8247510958 -0.5478895272
20050179700.0 -0.8330889422 -0.533616467
20100179400.0 -0.8418381689 -0.5200360295
20150179100.0 -0.8497796261 -0.5075509766
20200178800.0 -0.8579034096 -0.4958556754
20250178500.0 -0.8680417564 -0.4827082296
20300178200.0 -0.8777646136 -0.4684126516
20350177900.0 -0.8869204453 -0.454012779
20400177600.0 -0.8958537753 -0.4393055636
20450177300.0 -0.9040635196 -0.4251188892
20500177000.0 -0.9121961499 -0.4111600141
20550176700.0 -0.920033691 -0.3976625336
20600176400.0 -0.9272201789 -0.3847069273
20650176100.0 -0.9341415696 -0.3722480228
20700175800.0 -0.9404140163 -0.3611599857
20750175500.0 -0.9457746805 -0.3487823748
20800175200.0 -0.9521688747 -0.3377136512
20850174900.0 -0.9559610684 -0.3272048574
20900174600.0 -0.9609257297 -0.3164690448
20950174300.0 -0.9646045807 -0.304793607
21000174000.0 -0.9679878445 -0.2931994136
21050173700.0 -0.9700485484 -0.2832368523
21100173400.0 -0.9740746193 -0.2707308361
21150173100.0 -0.9782655411 -0.2587880107
21200172800.0 -0.9814473507 -0.2453931267
21250172500.0 -0.9851933991 -0.2316470762
21300172200.0 -0.9880444947 -0.2177363585
21350171900.0 -0.9898099702 -0.2033586842
21400171600.0 -0.9914249817 -0.1886940064
21450171300.0 -0.9920461449 -0.1748545112
21500171000.0 -0.9919358153 -0.1596797842
21550170700.0 -0.9910788407 -0.1438973665
21600170400.0 -0.9920161523 -0.1290501512
21650170100.0 -0.9915818943 -0.1120763455
21700169800.0 -0.9899415616 -0.0980937912
21750169500.0 -0.9887834538 -0.0810281694
21800169200.0 -0.9890356026 -0.065557822
21850168900.0 -0.9879382187 -0.0481910819
21900168600.0 -0.9870547547 -0.03234055
21950168300.0 -0.9860747921 -0.0161504174
22000168000.0 -0.9852771075 -0.0011102933
22050167700.0 -0.9848864676 0.0131353227
22100167400.0 -0.9853092078 0.0286799391
22150167100.0 -0.9863276883 0.0442760959
22200166800.0 -0.9863911781 0.0604368723
22250166500.0 -0.9859205366 0.0775867955
22300166200.0 -0.9853063838 0.0949921332
22350165900.0 -0.9845813986 0.1111768734
22400165600.0 -0.9814920779 0.1269918015
22450165300.0 -0.9800033904 0.1423369985
22500165000.0 -0.9786745326 0.1554852636
22550164700.0 -0.9770935452 0.1704716609
22600164400.0 -0.9755034017 0.1862976731
22650164100.0 -0.9733151993 0.2018772369
22700163800.0 -0.9700923664 0.2177072125
22750163500.0 -0.967866581 0.2326256644
22800163200.0 -0.9651120967 0.2456141668
22850162900.0 -0.9626856777 0.2591726665
22900162600.0 -0.9610550584 0.2725112425
22950162300.0 -0.9597917335 0.2855300744
23000162000.0 -0.9581393013 0.297829424
23050161700.0 -0.9563116192 0.3105525484
23100161400.0 -0.953853571 0.3233339169
23150161100.0 -0.9513333855 0.335705298
23200160800.0 -0.9473746055 0.3488852774
23250160500.0 -0.9452182322 0.3608762088
23300160200.0 -0.9431174625 0.3724532345
23350159900.0 -0.9391771195 0.3854889294
23400159600.0 -0.9347942337 0.3987257907
23450159300.0 -0.9293150465 0.4123112308
23500159000.0 -0.924757241 0.4254251098
23550158700.0 -0.9203412218 0.439258174
23600158400.0 -0.9146628941 0.4525100397
23650158100.0 -0.9080579155 0.4668838718
23700157800.0 -0.900435579 0.4807409474
23750157500.0 -0.8918073314 0.4947024888
23800157200.0 -0.8827319582 0.5082072122
23850156900.0 -0.8736341147 0.5212317572
23900156600.0 -0.8644664679 0.5337682986
23950156300.0 -0.855147786 0.5462475711
24000156000.0 -0.8464680477 0.5584701702
24050155700.0 -0.8361111774 0.5701228043
24100155400.0 -0.8256637712 0.5822279741
24150155100.0 -0.815048307 0.5942543407
24200154800.0 -0.8042299875 0.6045408585
24250154500.0 -0.7926944112 0.6173079923
24300154200.0 -0.7811672082 0.6294657509
24350153900.0 -0.7696234573 0.6399729427
24400153600.0 -0.7570733739 0.6502306327
24450153300.0 -0.7454333274 0.6600182321
24500153000.0 -0.7336606457 0.669754748
24550152700.0 -0.7224395466 0.6792720462
24600152400.0 -0.7108890876 0.688525684
24650152100.0 -0.698994541 0.6970223287
