!Created with skrf (http://scikit-rf.org).
# Hz S RI R 50.0 
!freq ReS11 ImS11
300000.0 -0.9730916455 -0.1245739239
50299700.0 -0.9999310547 0.0149700984
100299400.0 -0.9979578688 0.0279344962
150299100.0 -1.002617866 0.0447245347
200298800.0 -0.9995573458 0.0580428915
250298500.0 -0.9972709469 0.071532778
300298200.0 -0.9859834631 0.0873794275
350297900.0 -0.9939606071 0.0983354345
400297600.0 -0.9930277817 0.1148831104
450297300.0 -0.9909546141 0.1287136385
500297000.0 -0.9892831229 0.1434703211
550296700.0 -0.9842635368 0.1559813122
600296400.0 -1.017230681 0.1891265199
650296100.0 -0.9820271831 0.1856829769
700295800.0 -0.9794346844 0.2000818929
750295500.0 -0.976185117 0.2140377781
800295200.0 -0.9729295762 0.2277925143
850294900.0 -0.969648737 0.2419629519
900294600.0 -0.9658558261 0.2555347815
950294300.0 -0.9621027612 0.2693420051
1000294000.0 -0.9582251247 0.2832607288
1050293700.0 -0.9536058103 0.2971540506
1100293400.0 -0.9495473756 0.3113440758
1150293100.0 -0.9455695174 0.3234941896
1200292800.0 -0.9401642248 0.3375850302
1250292500.0 -0.934824483 0.3511262978
1300292200.0 -0.9291389185 0.3645175956
1350291900.0 -0.9235127485 0.3784165877
1400291600.0 -0.9178567856 0.3916004353
1450291300.0 -0.9125122082 0.4038772765
1500291000.0 -0.90617477 0.41736965
1550290700.0 -0.8996522591 0.4305284887
1600290400.0 -0.8934182773 0.4435466574
1650290100.0 -0.8867227773 0.4556361441
1700289800.0 -0.8796963545 0.4692091071
1750289500.0 -0.8728397047 0.4814346428
1800289200.0 -0.8654281653 0.4945071011
1850288900.0 -0.8587640936 0.5056194788
1900288600.0 -0.8511393949 0.51879333
1950288300.0 -0.8428972846 0.5312025662
2000288000.0 -0.8352936258 0.5426547761
2050287700.0 -0.827141824 0.5553021624
2100287400.0 -0.8194063942 0.5665188902
2150287100.0 -0.810965716 0.5786176424
2200286800.0 -0.8029818916 0.5892269009
2250286500.0 -0.7940292867 0.6013025633
2300286200.0 -0.7853255097 0.6128255784
2350285900.0 -0.7767948075 0.6233486066
2400285600.0 -0.7680830915 0.6343998601
2450285300.0 -0.7592012424 0.6450464645
2500285000.0 -0.7491759649 0.656687977
2550284700.0 -0.7399349033 0.6670176969
2600284400.0 -0.7308889853 0.6767874264
2650284100.0 -0.7223295132 0.6870499859
2700283800.0 -0.7120044058 0.6976783982
2750283500.0 -0.7013664223 0.7081984691
2800283200.0 -0.6917850238 0.7179948789
2850282900.0 -0.6809688882 0.7283662449
2900282600.0 -0.6708406927 0.7380228121
2950282300.0 -0.6602125881 0.7473863244
3000282000.0 -0.6495337051 0.7566828422
3050281700.0 -0.6382741807 0.7659090085
3100281400.0 -0.62672102 0.7750061634
3150281100.0 -0.6153912012 0.7839455829
3200280800.0 -0.6041146812 0.7923349259
3250280500.0 -0.5929591227 0.8003109598
3300280200.0 -0.5813527749 0.8084546866
3350279900.0 -0.5690127222 0.8164403529
3400279600.0 -0.5566354787 0.8246156121
3450279300.0 -0.5454143559 0.8316588446
3500279000.0 -0.5336990145 0.8383804233
3550278700.0 -0.5214733272 0.84561031
3600278400.0 -0.5099144256 0.8526846171
3650278100.0 -0.4965896532 0.8597510312
3700277800.0 -0.4845191592 0.8662945238
3750277500.0 -0.4720592325 0.8731993942
3800277200.0 -0.4595331826 0.8797127059
3850276900.0 -0.4476032298 0.8854749884
3900276600.0 -0.4366557906 0.8912273502
3950276300.0 -0.4247650668 0.8972642152
4000276000.0 -0.4129156257 0.9030102344
4050275700.0 -0.4003099059 0.9088955442
4100275400.0 -0.3893165063 0.9145619444
4150275100.0 -0.376031717 0.920293176
4200274800.0 -0.3626806833 0.9262798736
4250274500.0 -0.3500066035 0.931261225
4300274200.0 -0.3366832427 0.9365503436
4350273900.0 -0.3224475691 0.9419307048
4400273600.0 -0.3076241085 0.9474281034
4450273300.0 -0.2926776375 0.9521351788
4500273000.0 -0.2795655634 0.9563447082
4550272700.0 -0.2660189468 0.9603914846
4600272400.0 -0.2507923872 0.9646407377
4650272100.0 -0.2396993853 0.9678330201
4700271800.0 -0.2267386913 0.971155638
4750271500.0 -0.2151407378 0.9740844282
4800271200.0 -0.2029429231 0.9766852833
4850270900.0 -0.1891622888 0.9795503807
4900270600.0 -0.175178624 0.9817179784
4950270300.0 -0.1607570199 0.9845577368
5000270000.0 -0.1459569488 0.986502112
5050269700.0 -0.1326122857 0.9878609161
5100269400.0 -0.1185256595 0.9898552066
5150269100.0 -0.1043768334 0.9917938588
5200268800.0 -0.0913081839 0.9927243204
5250268500.0 -0.0783049005 0.9938004306
5300268200.0 -0.0644402489 0.9944446671
5350267900.0 -0.0516986418 0.9953497269
5400267600.0 -0.0356067094 0.9961550321
5450267300.0 -0.022026068 0.9965846739
5500267000.0 -0.0067052486 0.9969550848
5550266700.0 0.00817141 0.9972322718
5600266400.0 0.0239825719 0.9972364771
5650266100.0 0.0407809922 0.9969556833
5700265800.0 0.054798037 0.9956687999
5750265500.0 0.069979326 0.9952535372
5800265200.0 0.0834477875 0.9940530332
5850264900.0 0.0967734455 0.9930995226
5900264600.0 0.1127721934 0.9909570118
5950264300.0 0.1247885802 0.9894307763
6000264000.0 0.1381223698 0.9877149217
6050263700.0 0.1497840579 0.9865529841
6100263400.0 0.1620053892 0.9848321533
6150263100.0 0.176563183 0.9826753465
6200262800.0 0.1861255977 0.9809279866
6250262500.0 0.198810663 0.9786349054
6300262200.0 0.2109774568 0.9760365963
6350261900.0 0.2239076122 0.9733492689
6400261600.0 0.23765134 0.9701464073
6450261300.0 0.2488404601 0.9677745613
6500261000.0 0.2620364357 0.9640397697
6550260700.0 0.2751875173 0.9600968499
6600260400.0 0.288624471 0.9561887053
6650260100.0 0.3030110441 0.951612303
6700259800.0 0.3148619175 0.9475146884
6750259500.0 0.3286926983 0.9423088066
6800259200.0 0.3420268458 0.9373675423
6850258900.0 0.3546260703 0.9318861225
6900258600.0 0.3669120408 0.926713461
6950258300.0 0.3797257122 0.9216806016
7000258000.0 0.3913802159 0.9163760244
7050257700.0 0.40312667 0.9104569557
7100257400.0 0.4167664801 0.9039541087
7150257100.0 0.4273871242 0.8987560386
7200256800.0 0.4405914483 0.8921664677
7250256500.0 0.4531080085 0.8855633656
7300256200.0 0.4662496225 0.8786060077
7350255900.0 0.4793069032 0.8716664451
7400255600.0 0.4930322731 0.8639866812
7450255300.0 0.5083081196 0.854662671
7500255000.0 0.5213766109 0.8470393818
7550254700.0 0.5356576695 0.8378566282
7600254400.0 0.5482469515 0.8299598414
7650254100.0 0.5593919302 0.8217726289
7700253800.0 0.5712687792 0.8137202609
7750253500.0 0.582069425 0.806186781
7800253200.0 0.5928556626 0.7984624448
7850252900.0 0.6024346152 0.7910946099
7900252600.0 0.6139280989 0.7823171309
7950252300.0 0.6224830398 0.7759889374
8000252000.0 0.6322288077 0.7685739975
8050251700.0 0.6425723363 0.7604951982
8100251400.0 0.6526432384 0.7523582758
8150251100.0 0.6625761075 0.7442260818
8200250800.0 0.6720110691 0.7355658185
8250250500.0 0.6809378047 0.7279297532
8300250200.0 0.6898220048 0.7194503037
8350249900.0 0.6993215799 0.7108624275
8400249600.0 0.707223679 0.7028823141
8450249300.0 0.7160357964 0.6939315848
8500249000.0 0.7242582773 0.6849111487
8550248700.0 0.7327675584 0.6761608719
8600248400.0 0.741239042 0.6667819088
8650248100.0 0.7485923602 0.6572676771
8700247800.0 0.7579137131 0.6463066381
8750247500.0 0.7662228453 0.6361814118
8800247200.0 0.7743715976 0.6259682453
8850246900.0 0.7830968119 0.6143769748
8900246600.0 0.7914949049 0.6030649754
8950246300.0 0.8006458776 0.5903824455
9000246000.0 0.8094428303 0.5783398561
9050245700.0 0.8175292548 0.5660743818
9100245400.0 0.8260903774 0.5537941149
9150245100.0 0.8346858219 0.5410885905
9200244800.0 0.8441320337 0.526787793
9250244500.0 0.8533560704 0.5119308118
9300244200.0 0.8611557712 0.4985706871
9350243900.0 0.869011487 0.4853338598
9400243600.0 0.8754016445 0.4735976209
9450243300.0 0.8811039943 0.4632752729
9500243000.0 0.8873446802 0.4516245458
9550242700.0 0.8914167102 0.4441726106
9600242400.0 0.8955705229 0.4365435403
9650242100.0 0.8998768292 0.4295550434
9700241800.0 0.9047552235 0.4209629296
9750241500.0 0.9088041604 0.4136458161
9800241200.0 0.9141759469 0.4038060583
9850240900.0 0.9197103986 0.3921922008
9900240600.0 0.9256195502 0.3803356207
9950240300.0 0.9327438238 0.3635906342
10000240000.0 0.9380350135 0.3514096445
10050239700.0 0.9438988892 0.3353927846
10100239400.0 0.9491276077 0.3188101951
10150239100.0 0.954093462 0.303382804
10200238800.0 0.9583150822 0.2876005576
10250238500.0 0.9617138898 0.274271873
10300238200.0 0.9647978327 0.2603840751
10350237900.0 0.9676856788 0.2468219441
10400237600.0 0.9702221528 0.2333554454
10450237300.0 0.9728087701 0.2198428467
10500237000.0 0.9752440518 0.2068821136
10550236700.0 0.9773586135 0.1930820895
10600236400.0 0.9797954347 0.178841745
10650236100.0 0.9813769449 0.1647346268
10700235800.0 0.9838766781 0.1524360386
10750235500.0 0.9861583239 0.1388730639
10800235200.0 0.9882094058 0.1241217916
10850234900.0 0.9895692854 0.1095589067
10900234600.0 0.9920520795 0.0944448682
10950234300.0 0.9936798838 0.0809874188
11000234000.0 0.9955788837 0.0653246155
11050233700.0 0.9972546629 0.0485905106
11100233400.0 0.9989451906 0.030743848
11150233100.0 0.9998976603 0.0140112283
11200232800.0 1.00078825 -0.002232738
11250232500.0 1.001238681 -0.0197492809
11300232200.0 1.002512738 -0.0390577119
11350231900.0 1.0019949 -0.0544109857
11400231600.0 1.001957435 -0.0701931246
11450231300.0 1.001220002 -0.0865177166
11500231000.0 0.9993499775 -0.1020856285
11550230700.0 0.997771631 -0.1144007923
11600230400.0 0.9972461259 -0.1281052501
11650230100.0 0.9948135789 -0.1403327223
11700229800.0 0.9924610845 -0.1549194794
11750229500.0 0.9900432691 -0.169216409
11800229200.0 0.9873124366 -0.1820256362
11850228900.0 0.9835056651 -0.1941140747
11900228600.0 0.9797682048 -0.2039069831
11950228300.0 0.976442429 -0.2136115607
12000228000.0 0.9737383177 -0.2221644223
12050227700.0 0.9697812771 -0.2356909742
12100227400.0 0.9673349568 -0.2453481223
12150227100.0 0.9615292681 -0.2630576625
12200226800.0 0.957135443 -0.2742266745
12250226500.0 0.9535423523 -0.2870004355
12300226200.0 0.9495171722 -0.2981925315
12350225900.0 0.9445642118 -0.3118811691
12400225600.0 0.9399311638 -0.3249490359
12450225300.0 0.9357933794 -0.3375257705
12500225000.0 0.9300516035 -0.3522887046
12550224700.0 0.9245374275 -0.366053209
12600224400.0 0.9198099807 -0.3785678929
12650224100.0 0.913972011 -0.3928124721
12700223800.0 0.9087226226 -0.4057215257
12750223500.0 0.903083206 -0.4188385833
12800223200.0 0.8979185186 -0.4315484486
12850222900.0 0.8923119367 -0.4436962824
12900222600.0 0.8869741674 -0.4550999568
12950222300.0 0.880515596 -0.468531128
13000222000.0 0.8750670201 -0.4798173925
13050221700.0 0.8680232284 -0.4925396725
13100221400.0 0.8612969906 -0.5052925405
13150221100.0 0.854296312 -0.5174154016
13200220800.0 0.8472213269 -0.5287781694
13250220500.0 0.8399800851 -0.5406073813
13300220200.0 0.8326707064 -0.5516609249
13350219900.0 0.8245472897 -0.5634184092
13400219600.0 0.8158570664 -0.575474764
13450219300.0 0.8069540121 -0.5881898511
13500219000.0 0.7972114507 -0.6017379395
13550218700.0 0.7872951682 -0.6137505354
13600218400.0 0.7772560466 -0.625561222
13650218100.0 0.7677395817 -0.6362605604
13700217800.0 0.757605007 -0.6480736838
13750217500.0 0.7471460628 -0.659464765
13800217200.0 0.7368861076 -0.6697032697
13850216900.0 0.7252034744 -0.6814259544
13900216600.0 0.715012379 -0.6908599908
13950216300.0 0.7047709158 -0.7001736763
14000216000.0 0.6951520927 -0.7102191138
14050215700.0 0.6858397563 -0.7176397624
14100215400.0 0.6763784223 -0.726856827
14150215100.0 0.6674477568 -0.7351295384
14200214800.0 0.6577456432 -0.744120144
14250214500.0 0.6474405718 -0.7536491848
14300214200.0 0.6366787997 -0.7632187791
14350213900.0 0.6260149593 -0.7727675537
14400213600.0 0.6135833702 -0.7821392502
14450213300.0 0.6010539098 -0.792764663
14500213000.0 0.5882229349 -0.8023950741
14550212700.0 0.5756874464 -0.8117953221
14600212400.0 0.5636925096 -0.8208758352
14650212100.0 0.5507657988 -0.8292752388
14700211800.0 0.5369088634 -0.8387466292
14750211500.0 0.5249579013 -0.8477281589
14800211200.0 0.5123595208 -0.8553773313
14850210900.0 0.499906219 -0.8633264583
14900210600.0 0.4865570228 -0.8711849885
14950210300.0 0.4730726006 -0.878661667
15000210000.0 0.4606612888 -0.8853760252
15050209700.0 0.4482996427 -0.8914462688
15100209400.0 0.4350204272 -0.8974652314
15150209100.0 0.4238298531 -0.9028211315
15200208800.0 0.4106888858 -0.9080686391
15250208500.0 0.3993467348 -0.9125707605
15300208200.0 0.3873546069 -0.9177945767
15350207900.0 0.374464866 -0.9220302269
15400207600.0 0.3595518506 -0.9278703992
15450207300.0 0.3444200086 -0.9318938342
15500207000.0 0.3302276745 -0.9362625611
15550206700.0 0.3157973199 -0.9423893368
15600206400.0 0.2992814134 -0.9461351415
15650206100.0 0.2832134418 -0.9506159431
15700205800.0 0.2701129108 -0.9541862048
15750205500.0 0.256123417 -0.957912799
15800205200.0 0.2422319228 -0.9610075178
15850204900.0 0.2279150051 -0.9647261016
15900204600.0 0.2128832941 -0.9682595315
15950204300.0 0.1987260194 -0.9714393948
16000204000.0 0.1837973596 -0.974301413
16050203700.0 0.1689902315 -0.9776275215
16100203400.0 0.1543580183 -0.9795259377
16150203100.0 0.1395576649 -0.9822924489
16200202800.0 0.1253472003 -0.9845344001
16250202500.0 0.1103570291 -0.986014615
16300202200.0 0.0947353899 -0.9875756577
16350201900.0 0.0795278 -0.9891901871
16400201600.0 0.0649051562 -0.9899942505
16450201300.0 0.0495748826 -0.9912362498
16500201000.0 0.0323496751 -0.9920739308
16550200700.0 0.0162649152 -0.9925638316
16600200400.0 0.0002774338 -0.9927590061
16650200100.0 -0.0157380554 -0.9925902405
16700199800.0 -0.0322830952 -0.9923145175
16750199500.0 -0.0512638347 -0.9918661787
16800199200.0 -0.0667250721 -0.9899747402
16850198900.0 -0.0823338015 -0.9899899032
16900198600.0 -0.096855163 -0.9886573386
16950198300.0 -0.1106825778 -0.9874935784
17000198000.0 -0.1237780528 -0.985901088
17050197700.0 -0.13659422 -0.9838727519
17100197400.0 -0.1489723329 -0.9818919241
17150197100.0 -0.1616392286 -0.9796441627
17200196800.0 -0.1746258405 -0.9777155403
17250196500.0 -0.1877205087 -0.9753087966
17300196200.0 -0.1996617979 -0.9729397464
17350195900.0 -0.211665896 -0.9704749789
17400195600.0 -0.2236188752 -0.9679686939
17450195300.0 -0.2363650014 -0.9651815619
17500195000.0 -0.2496396574 -0.9619666001
17550194700.0 -0.2633741603 -0.9583615724
17600194400.0 -0.2771576588 -0.9546448969
17650194100.0 -0.2909591922 -0.950094766
17700193800.0 -0.3038113889 -0.9457294011
17750193500.0 -0.3181081147 -0.941456426
17800193200.0 -0.3319373937 -0.9365800417
17850192900.0 -0.3471321973 -0.9309358936
17900192600.0 -0.3617947421 -0.9254108915
17950192300.0 -0.3777678104 -0.9178893966
18000192000.0 -0.3920157631 -0.9106054043
18050191700.0 -0.4060868036 -0.9026255739
18100191400.0 -0.4200986964 -0.8949044831
18150191100.0 -0.4350431651 -0.8869471101
18200190800.0 -0.4517664628 -0.8777062099
18250190500.0 -0.4689337574 -0.868296871
18300190200.0 -0.4844391839 -0.8597602994
18350189900.0 -0.4995564232 -0.8509670221
18400189600.0 -0.5141863628 -0.8424546296
18450189300.0 -0.5277661962 -0.8340985741
18500189000.0 -0.5408252147 -0.8266426238
18550188700.0 -0.5537261925 -0.8184520598
18600188400.0 -0.565976611 -0.8121015711
18650188100.0 -0.5769074098 -0.8053100781
18700187800.0 -0.5882782708 -0.7986007422
18750187500.0 -0.5991165085 -0.7918890811
18800187200.0 -0.609610781 -0.7848450878
18850186900.0 -0.6200011743 -0.7779781841
18900186600.0 -0.6302971242 -0.7706325336
18950186300.0 -0.6404768914 -0.7629700441
19000186000.0 -0.6476842968 -0.7570053081
19050185700.0 -0.6573037294 -0.7499434561
19100185400.0 -0.6670361205 -0.7413193088
19150185100.0 -0.6776306565 -0.7330424116
19200184800.0 -0.686983606 -0.7242462518
19250184500.0 -0.6968052279 -0.715286863
19300184200.0 -0.7087513065 -0.7061084429
19350183900.0 -0.7194381963 -0.6967599182
19400183600.0 -0.7291508569 -0.6864017817
19450183300.0 -0.737593272 -0.6763222092
19500183000.0 -0.7459650683 -0.6662438145
19550182700.0 -0.7556650748 -0.6557948406
19600182400.0 -0.7659323307 -0.6436563304
19650182100.0 -0.776468421 -0.6314872817
19700181800.0 -0.7868841158 -0.6182756333
19750181500.0 -0.79716857 -0.6042260509
19800181200.0 -0.8074888793 -0.5893328302
19850180900.0 -0.8168866239 -0.5738965641
19900180600.0 -0.8246137346 -0.5596325408
19950180300.0 -0.8338292863 -0.5430988926
20000180000.0 -0.8229743985 -0.5467753406
20050179700.0 -0.8309169915 -0.5350974911
20100179400.0 -0.8402134409 -0.5207401649
20150179100.0 -0.8475533949 -0.5095911008
20200178800.0 -0.8555621802 -0.4974246935
20250178500.0 -0.8657110397 -0.4853024231
20300178200.0 -0.8753018082 -0.4711336979
20350177900.0 -0.884258053 -0.4579226626
20400177600.0 -0.8934163657 -0.4436804242
20450177300.0 -0.902099688 -0.4291790318
20500177000.0 -0.909911366 -0.4154308821
20550176700.0 -0.9180702011 -0.4018829643
20600176400.0 -0.9248089106 -0.388755256
20650176100.0 -0.931127477 -0.3765288329
20700175800.0 -0.9383419514 -0.3646780666
20750175500.0 -0.9441673653 -0.3542045615
20800175200.0 -0.9489761156 -0.3420429712
20850174900.0 -0.9535826479 -0.3313844312
20900174600.0 -0.9578769543 -0.320625939
20950174300.0 -0.9615366706 -0.3100541664
21000174000.0 -0.9636763297 -0.2983229796
21050173700.0 -0.9664288538 -0.2897767371
21100173400.0 -0.9689501754 -0.278193166
21150173100.0 -0.9730543535 -0.2668155021
21200172800.0 -0.9765395378 -0.2534762742
21250172500.0 -0.9807318597 -0.2394780263
21300172200.0 -0.9841784053 -0.2253154597
21350171900.0 -0.9860119459 -0.21109737
21400171600.0 -0.9881926698 -0.196882797
21450171300.0 -0.9886379347 -0.1832830066
21500171000.0 -0.9891185458 -0.1687574394
21550170700.0 -0.9895648635 -0.1529166884
21600170400.0 -0.9903005764 -0.1377020279
21650170100.0 -0.9907013819 -0.1211818177
21700169800.0 -0.990810219 -0.1069238681
21750169500.0 -0.9903119957 -0.0912553899
21800169200.0 -0.9899801007 -0.0742903208
21850168900.0 -0.9900650701 -0.0565806409
21900168600.0 -0.9893047181 -0.0411678472
21950168300.0 -0.9891632811 -0.025452998
22000168000.0 -0.9890206305 -0.0099798364
22050167700.0 -0.9895301898 0.0039619431
22100167400.0 -0.9906361508 0.0199364663
22150167100.0 -0.9914469147 0.0356568805
22200166800.0 -0.9917918246 0.0523667775
22250166500.0 -0.9910726092 0.0701140744
22300166200.0 -0.9906990579 0.0865572296
22350165900.0 -0.9896742229 0.1025999041
22400165600.0 -0.9870123427 0.1180759128
22450165300.0 -0.9857775907 0.1326744076
22500165000.0 -0.9841178478 0.1478205216
22550164700.0 -0.9831881677 0.1647463053
22600164400.0 -0.9810065133 0.1804416359
22650164100.0 -0.9786727253 0.1954473756
22700163800.0 -0.9752709656 0.2115354131
22750163500.0 -0.9724239063 0.2267199557
22800163200.0 -0.9692406649 0.2398652444
22850162900.0 -0.9666995245 0.2527878571
22900162600.0 -0.9646921362 0.2667939449
22950162300.0 -0.9630669077 0.2805631604
23000162000.0 -0.9611095435 0.2937458659
23050161700.0 -0.9588098737 0.3064196383
23100161400.0 -0.9555785134 0.3208405534
23150161100.0 -0.9533792956 0.3338151322
23200160800.0 -0.9494634396 0.3463796958
23250160500.0 -0.9470626155 0.3584196066
23300160200.0 -0.9441286062 0.3711785639
23350159900.0 -0.9406897188 0.3850783236
23400159600.0 -0.935679215 0.3986778534
23450159300.0 -0.9299301213 0.4124670733
23500159000.0 -0.9247923026 0.4259175435
23550158700.0 -0.9202787368 0.4401896062
23600158400.0 -0.9139318366 0.4541997705
23650158100.0 -0.906649326 0.4689418858
23700157800.0 -0.8983374209 0.4832493381
23750157500.0 -0.8886826832 0.4976596098
23800157200.0 -0.8791251221 0.5111609934
23850156900.0 -0.8695337731 0.5238563424
23900156600.0 -0.8593023699 0.536490215
23950156300.0 -0.8495905489 0.5493362481
24000156000.0 -0.8401773187 0.560539308
24050155700.0 -0.8299358192 0.5741750409
24100155400.0 -0.8183862244 0.5863852074
24150155100.0 -0.8081202493 0.5990300342
24200154800.0 -0.7969349869 0.6102109686
24250154500.0 -0.7860019867 0.6221088491
24300154200.0 -0.7739580436 0.6344448828
24350153900.0 -0.7620552655 0.6457123264
24400153600.0 -0.7494628623 0.6562478153
24450153300.0 -0.7376123071 0.6667692833
24500153000.0 -0.7261567986 0.6767306356
24550152700.0 -0.7140892009 0.686730363
24600152400.0 -0.7027477075 0.6956654259
24650152100.0 -0.690449765 0.7043468452
