!Created with skrf (http://scikit-rf.org).
# Hz S RI R 50.0 
!freq ReS11 ImS11
300000.0 -0.9727670204 -0.1215673612
50299700.0 -0.9998642313 0.015023197
100299400.0 -0.9978845246 0.0280396506
150299100.0 -1.002707891 0.0448212387
200298800.0 -0.9994848722 0.0580380243
250298500.0 -0.9973297655 0.0715020747
300298200.0 -0.9858456767 0.0874197813
350297900.0 -0.9936664182 0.0982337818
400297600.0 -0.9929605474 0.1148542664
450297300.0 -0.9909799565 0.128732391
500297000.0 -0.9895740254 0.1434135609
550296700.0 -0.9842111212 0.1558936977
600296400.0 -1.017188169 0.1892004141
650296100.0 -0.9822181863 0.1857309884
700295800.0 -0.9791003391 0.1999443486
750295500.0 -0.9761062915 0.2139395111
800295200.0 -0.9728339281 0.2282733753
850294900.0 -0.9698127976 0.2418253488
900294600.0 -0.9656694722 0.2555425365
950294300.0 -0.9621079064 0.2692671789
1000294000.0 -0.9581816416 0.2831231393
1050293700.0 -0.9536534111 0.2972083429
1100293400.0 -0.9491616725 0.3115239372
1150293100.0 -0.9455255585 0.323355243
1200292800.0 -0.9403258027 0.3375650518
1250292500.0 -0.9347934021 0.3512051968
1300292200.0 -0.92878473 0.3643876605
1350291900.0 -0.9234894204 0.3784568598
1400291600.0 -0.9179361613 0.3917319799
1450291300.0 -0.9124075006 0.4040159661
1500291000.0 -0.9062572783 0.4172607895
1550290700.0 -0.8996934303 0.430731708
1600290400.0 -0.893298597 0.4436859748
1650290100.0 -0.8868715029 0.4557304019
1700289800.0 -0.8797846612 0.4692591276
1750289500.0 -0.8728506418 0.481522555
1800289200.0 -0.8655495003 0.4942614068
1850288900.0 -0.8586767274 0.5057168345
1900288600.0 -0.8509299536 0.5185971455
1950288300.0 -0.8427857422 0.5313558343
2000288000.0 -0.8353965739 0.5429099472
2050287700.0 -0.8271516839 0.5552704639
2100287400.0 -0.8193514299 0.5665780662
2150287100.0 -0.810766054 0.57856198
2200286800.0 -0.8029118957 0.5890161571
2250286500.0 -0.7941397217 0.6014047315
2300286200.0 -0.7855761415 0.6128858406
2350285900.0 -0.7769840989 0.6234248585
2400285600.0 -0.7680095923 0.634183898
2450285300.0 -0.759160671 0.6451389063
2500285000.0 -0.7490634063 0.6566061552
2550284700.0 -0.740236294 0.6670710804
2600284400.0 -0.7310034129 0.6766901086
2650284100.0 -0.7226964551 0.6867939305
2700283800.0 -0.7118989462 0.6973508069
2750283500.0 -0.7015044474 0.7077005829
2800283200.0 -0.6917806574 0.7180622756
2850282900.0 -0.6811707534 0.7282041412
2900282600.0 -0.670791537 0.7378352885
2950282300.0 -0.6604002915 0.7472647347
3000282000.0 -0.649357253 0.7566786088
3050281700.0 -0.6381662983 0.7658874604
3100281400.0 -0.6268836595 0.7750753066
3150281100.0 -0.6156730891 0.7839489799
3200280800.0 -0.6042032563 0.7923286452
3250280500.0 -0.5931143878 0.8002134892
3300280200.0 -0.5813434243 0.8084634607
3350279900.0 -0.5692048888 0.8164515348
3400279600.0 -0.5565852024 0.8245744595
3450279300.0 -0.5455119763 0.8315022765
3500279000.0 -0.5336516871 0.8384991403
3550278700.0 -0.521476349 0.8457869967
3600278400.0 -0.5098638893 0.8524382716
3650278100.0 -0.4964252956 0.8598425251
3700277800.0 -0.4847496482 0.8664334856
3750277500.0 -0.4723435253 0.873363233
3800277200.0 -0.4596190509 0.8796407605
3850276900.0 -0.4476993531 0.8856387823
3900276600.0 -0.436867449 0.8912806177
3950276300.0 -0.4249241787 0.8971489596
4000276000.0 -0.412975284 0.9030498895
4050275700.0 -0.4003379568 0.909035463
4100275400.0 -0.3891926429 0.9145156997
4150275100.0 -0.3760416938 0.9204398188
4200274800.0 -0.3624628464 0.9257973559
4250274500.0 -0.3500025484 0.9316175951
4300274200.0 -0.3365759033 0.9367557108
4350273900.0 -0.3224608061 0.9422765933
4400273600.0 -0.3077783264 0.947063585
4450273300.0 -0.2928356044 0.9522183358
4500273000.0 -0.2797892741 0.956471918
4550272700.0 -0.2659873103 0.9606865572
4600272400.0 -0.2509420345 0.9646415752
4650272100.0 -0.2396196305 0.9679624828
4700271800.0 -0.2266394585 0.9711679188
4750271500.0 -0.2150243503 0.9739394626
4800271200.0 -0.2029709607 0.9766474329
4850270900.0 -0.1888727065 0.9795715664
4900270600.0 -0.1752954818 0.9817709006
4950270300.0 -0.1605821948 0.984418883
5000270000.0 -0.1461453655 0.9865562137
5050269700.0 -0.1328356954 0.9881865908
5100269400.0 -0.1184176781 0.9898381661
5150269100.0 -0.1046663159 0.9918752414
5200268800.0 -0.0915538626 0.9929086042
5250268500.0 -0.078193282 0.9939838204
5300268200.0 -0.0644674141 0.9946415991
5350267900.0 -0.0518493311 0.9951606382
5400267600.0 -0.0354626491 0.9963071891
5450267300.0 -0.0221484398 0.9966614928
5500267000.0 -0.0067692174 0.9968892815
5550266700.0 0.0081869796 0.997013556
5600266400.0 0.0237998327 0.9971280342
5650266100.0 0.0402021184 0.9966017489
5700265800.0 0.0546562812 0.9958979683
5750265500.0 0.0698830712 0.9950631022
5800265200.0 0.0832784909 0.9940809047
5850264900.0 0.0967280081 0.993523904
5900264600.0 0.1130723129 0.9913010877
5950264300.0 0.124572086 0.9898732869
6000264000.0 0.1383127409 0.9879772586
6050263700.0 0.1498076739 0.9865272504
6100263400.0 0.1619687253 0.9849600508
6150263100.0 0.1766974231 0.9826372891
6200262800.0 0.1861104372 0.9811311582
6250262500.0 0.1989029232 0.978591342
6300262200.0 0.2111387254 0.9760732309
6350261900.0 0.2238317216 0.9732722295
6400261600.0 0.2378518656 0.9700783018
6450261300.0 0.248900372 0.9675602352
6500261000.0 0.2620174629 0.9641013351
6550260700.0 0.2754212866 0.9599859471
6600260400.0 0.2889280389 0.9558794858
6650260100.0 0.3030679172 0.9515912413
6700259800.0 0.3145763068 0.9469751311
6750259500.0 0.3286316061 0.9422383832
6800259200.0 0.3422468765 0.9371488844
6850258900.0 0.3549643811 0.9321191312
6900258600.0 0.3673061255 0.926975426
6950258300.0 0.3797539001 0.9216012172
7000258000.0 0.3913079488 0.9163282266
7050257700.0 0.4032897648 0.9101970814
7100257400.0 0.4168154435 0.9037941104
7150257100.0 0.4273569517 0.8986176506
7200256800.0 0.4403936317 0.8918697901
7250256500.0 0.4529008391 0.8855111507
7300256200.0 0.4660430091 0.8789674857
7350255900.0 0.4786825364 0.8718237411
7400255600.0 0.4930179474 0.8642558017
7450255300.0 0.5086660483 0.8548246061
7500255000.0 0.5214725567 0.8477485396
7550254700.0 0.5353022006 0.8382525406
7600254400.0 0.5478400828 0.829870641
7650254100.0 0.55938754 0.8219456414
7700253800.0 0.5711364895 0.8140597647
7750253500.0 0.5817822293 0.8063782842
7800253200.0 0.5925920141 0.7984299935
7850252900.0 0.6023634237 0.7912096441
7900252600.0 0.6138008683 0.7825375671
7950252300.0 0.622349735 0.7762547636
8000252000.0 0.6321699305 0.7686783904
8050251700.0 0.6428384454 0.7604063829
8100251400.0 0.6520982217 0.7524545007
8150251100.0 0.6625767199 0.7439962899
8200250800.0 0.6718951817 0.7357465281
8250250500.0 0.680530552 0.7278926391
8300250200.0 0.6897739575 0.7196375812
8350249900.0 0.6990665898 0.7105781206
8400249600.0 0.7070330762 0.702784081
8450249300.0 0.7160629671 0.6939873999
8500249000.0 0.7244173858 0.6851693446
8550248700.0 0.733071259 0.676213108
8600248400.0 0.7412142353 0.6666793664
8650248100.0 0.7487310535 0.6573208084
8700247800.0 0.7580830192 0.6460916306
8750247500.0 0.76626923 0.6360849267
8800247200.0 0.7741476004 0.6258338783
8850246900.0 0.7830937714 0.6143462646
8900246600.0 0.7910999271 0.6031465178
8950246300.0 0.8008020528 0.5902017969
9000246000.0 0.8095963325 0.5784525469
9050245700.0 0.8175126596 0.5659777372
9100245400.0 0.8260601567 0.5538484112
9150245100.0 0.8345730539 0.5409464737
9200244800.0 0.8441757571 0.5267242896
9250244500.0 0.8529468501 0.5121069548
9300244200.0 0.861376565 0.4985360665
9350243900.0 0.8689752607 0.4850839216
9400243600.0 0.8756326721 0.4734719984
9450243300.0 0.8810708049 0.4630401238
9500243000.0 0.8873607516 0.4512773933
9550242700.0 0.8916130107 0.4437773862
9600242400.0 0.8957747909 0.4362427377
9650242100.0 0.8998704585 0.4291473503
9700241800.0 0.9048759978 0.4207292149
9750241500.0 0.9091131359 0.4131652689
9800241200.0 0.9141074374 0.4035750929
9850240900.0 0.9199526914 0.3916072453
9900240600.0 0.9259687662 0.3797841197
9950240300.0 0.9332382749 0.3631300219
10000240000.0 0.9380990851 0.3509359059
10050239700.0 0.9439473582 0.3351470165
10100239400.0 0.949491317 0.318469622
10150239100.0 0.9539262874 0.3035043452
10200238800.0 0.9582336428 0.2877169231
10250238500.0 0.9614225177 0.2741182712
10300238200.0 0.9648156859 0.2602265434
10350237900.0 0.9674778863 0.2468922675
10400237600.0 0.9700321856 0.2334223353
10450237300.0 0.9729022868 0.219672731
10500237000.0 0.9750201159 0.2071796139
10550236700.0 0.9773722605 0.1926731924
10600236400.0 0.9794871716 0.1793158156
10650236100.0 0.9812587718 0.1646132977
10700235800.0 0.9838690345 0.1523335932
10750235500.0 0.9858235303 0.1392513072
10800235200.0 0.9878377628 0.1244140089
10850234900.0 0.9896049383 0.1096827624
10900234600.0 0.9917680809 0.0946928303
10950234300.0 0.993815485 0.0809737237
11000234000.0 0.9955589117 0.065487009
11050233700.0 0.9974532682 0.0487866701
11100233400.0 0.9985984482 0.0309176634
11150233100.0 0.9999334381 0.014076035
11200232800.0 1.000899315 -0.0022404477
11250232500.0 1.001924527 -0.0197068246
11300232200.0 1.001609165 -0.0375573202
11350231900.0 1.001933981 -0.0547049777
11400231600.0 1.002220541 -0.0703742054
11450231300.0 1.001248628 -0.0850791788
11500231000.0 0.9993270407 -0.1016411356
11550230700.0 0.9985570784 -0.1152792705
11600230400.0 0.9973763365 -0.1279086436
11650230100.0 0.9947153819 -0.1393504435
11700229800.0 0.9925987564 -0.1548350967
11750229500.0 0.9901999708 -0.1687320928
11800229200.0 0.987436246 -0.1818407602
11850228900.0 0.9833105702 -0.1937668717
11900228600.0 0.9799478233 -0.2032634251
11950228300.0 0.9763222518 -0.213582932
12000228000.0 0.9736596553 -0.2218743983
12050227700.0 0.9699487119 -0.2348299064
12100227400.0 0.9664954326 -0.2455603939
12150227100.0 0.9617813302 -0.2625178883
12200226800.0 0.9575323525 -0.2734820761
12250226500.0 0.954290368 -0.2864851319
12300226200.0 0.9500827628 -0.2984772125
12350225900.0 0.9445419894 -0.3120137152
12400225600.0 0.940048421 -0.324398174
12450225300.0 0.9356493328 -0.3370129783
12500225000.0 0.9300602488 -0.3520255236
12550224700.0 0.9246051551 -0.3657734715
12600224400.0 0.9198079765 -0.3784210131
12650224100.0 0.914050219 -0.3928404755
12700223800.0 0.9087791625 -0.405500793
12750223500.0 0.9032970042 -0.4185173915
12800223200.0 0.8981589549 -0.4312464549
12850222900.0 0.8927180558 -0.4431578516
12900222600.0 0.8870217933 -0.4553657056
12950222300.0 0.880984702 -0.4679973242
13000222000.0 0.8753943453 -0.4803591115
13050221700.0 0.8682100882 -0.4922218818
13100221400.0 0.8614454911 -0.5048515502
13150221100.0 0.8548158171 -0.5164413989
13200220800.0 0.847575852 -0.5282908005
13250220500.0 0.8403270306 -0.5406419317
13300220200.0 0.8326148683 -0.5515646413
13350219900.0 0.8245492645 -0.5632757974
13400219600.0 0.8162934115 -0.5751888674
13450219300.0 0.8066754243 -0.5882416382
13500219000.0 0.7970359987 -0.6015058551
13550218700.0 0.7874296864 -0.6138045836
13600218400.0 0.7775223498 -0.6257659271
13650218100.0 0.7680190151 -0.6362194471
13700217800.0 0.7570438422 -0.6479115568
13750217500.0 0.7478369185 -0.658908607
13800217200.0 0.7368425153 -0.6702072902
13850216900.0 0.7255006528 -0.681674027
13900216600.0 0.7159744267 -0.6895215703
13950216300.0 0.7052061937 -0.6998703159
14000216000.0 0.6951942066 -0.7095572244
14050215700.0 0.6857992262 -0.7176507531
14100215400.0 0.6762461048 -0.7265530321
14150215100.0 0.6673088515 -0.7354434769
14200214800.0 0.6578376357 -0.7441889265
14250214500.0 0.6474509441 -0.7536343178
14300214200.0 0.6369121333 -0.7629982031
14350213900.0 0.6258876984 -0.7727318574
14400213600.0 0.6140491931 -0.7823965169
14450213300.0 0.6012130684 -0.7925498402
14500213000.0 0.5882766287 -0.8026840903
14550212700.0 0.5755377473 -0.8118923306
14600212400.0 0.5636070951 -0.8204633355
14650212100.0 0.5509193736 -0.82900166
14700211800.0 0.53705383 -0.8389570425
14750211500.0 0.5247677614 -0.8471639847
14800211200.0 0.5121578051 -0.8552054321
14850210900.0 0.499520954 -0.8630116503
14900210600.0 0.4866470408 -0.8711082639
14950210300.0 0.4733142986 -0.8786155007
15000210000.0 0.4605382327 -0.8853264611
15050209700.0 0.4484256023 -0.8914505336
15100209400.0 0.4357268288 -0.8975546677
15150209100.0 0.423160392 -0.9030123078
15200208800.0 0.4107526715 -0.9080447254
15250208500.0 0.3997264491 -0.9123034481
15300208200.0 0.3876062801 -0.9171532969
15350207900.0 0.3740232789 -0.9225172131
15400207600.0 0.3596702958 -0.9271785841
15450207300.0 0.3448554936 -0.9324996235
15500207000.0 0.3302432562 -0.9372077968
15550206700.0 0.3147968423 -0.941651254
15600206400.0 0.2994449457 -0.946781642
15650206100.0 0.2837252622 -0.9507620482
15700205800.0 0.270347483 -0.9541091239
15750205500.0 0.2562840392 -0.9576488348
15800205200.0 0.2422927689 -0.961240377
15850204900.0 0.2279535959 -0.9646466403
15900204600.0 0.2130309239 -0.968354456
15950204300.0 0.1984725119 -0.9714460738
16000204000.0 0.1843038701 -0.9743598113
16050203700.0 0.1692522443 -0.9774221268
16100203400.0 0.1543505607 -0.9796382526
16150203100.0 0.1393216174 -0.9821199389
16200202800.0 0.1250809642 -0.9844621584
16250202500.0 0.1103671146 -0.985769904
16300202200.0 0.0944804319 -0.9872908517
16350201900.0 0.0797522339 -0.989141717
16400201600.0 0.0654711117 -0.9896662566
16450201300.0 0.0497437774 -0.9912591153
16500201000.0 0.0325320265 -0.9920079886
16550200700.0 0.0164471551 -0.9924908987
16600200400.0 0.0006693733 -0.992755998
16650200100.0 -0.0154085166 -0.9925583262
16700199800.0 -0.0316982301 -0.9919833256
16750199500.0 -0.0507921552 -0.9913059997
16800199200.0 -0.0675686143 -0.9906141082
16850198900.0 -0.0828104025 -0.9893190785
16900198600.0 -0.0967634966 -0.9878767118
16950198300.0 -0.1104847418 -0.987606923
17000198000.0 -0.1232277881 -0.986170097
17050197700.0 -0.1363540073 -0.9833829611
17100197400.0 -0.1492333868 -0.9819763927
17150197100.0 -0.1614427255 -0.9799810809
17200196800.0 -0.1747593801 -0.9777930661
17250196500.0 -0.1874029555 -0.9753820971
17300196200.0 -0.199583229 -0.9729671066
17350195900.0 -0.2113373006 -0.970638271
17400195600.0 -0.2233020589 -0.9680123568
17450195300.0 -0.2360703577 -0.9653673148
17500195000.0 -0.2494041428 -0.9621181983
17550194700.0 -0.263234183 -0.9584469642
17600194400.0 -0.2772256689 -0.9543630312
17650194100.0 -0.2903850516 -0.9507899485
17700193800.0 -0.3035796741 -0.9466400167
17750193500.0 -0.3176575735 -0.9418415963
17800193200.0 -0.3316588283 -0.9365139223
17850192900.0 -0.3468700309 -0.931065192
17900192600.0 -0.3620091423 -0.9249626633
17950192300.0 -0.3772451652 -0.9177787928
18000192000.0 -0.3921368069 -0.9106558148
18050191700.0 -0.4059010419 -0.9027038
18100191400.0 -0.4200289204 -0.8949542054
18150191100.0 -0.4348099345 -0.8869462291
18200190800.0 -0.4516886778 -0.8779208389
18250190500.0 -0.4686478649 -0.8685337388
18300190200.0 -0.4841807918 -0.8594597721
18350189900.0 -0.4992095435 -0.8512757207
18400189600.0 -0.514145079 -0.8426415184
18450189300.0 -0.5275662819 -0.8347812529
18500189000.0 -0.5409184414 -0.8264996372
18550188700.0 -0.5533707977 -0.818802736
18600188400.0 -0.5658141536 -0.8120326131
18650188100.0 -0.5769721884 -0.8055143775
18700187800.0 -0.5881848222 -0.7985676214
18750187500.0 -0.5991102338 -0.7921466157
18800187200.0 -0.6096340933 -0.7850494048
18850186900.0 -0.6198201156 -0.7782902468
18900186600.0 -0.6300317963 -0.7710485671
18950186300.0 -0.6404071027 -0.7631447766
19000186000.0 -0.6478119756 -0.7568272772
19050185700.0 -0.6569712095 -0.7499124636
19100185400.0 -0.667122178 -0.7414680167
19150185100.0 -0.6771104416 -0.7330898731
19200184800.0 -0.687047105 -0.7251255669
19250184500.0 -0.6970226111 -0.7154656084
19300184200.0 -0.7074602217 -0.7066278503
19350183900.0 -0.7187793422 -0.6961260018
19400183600.0 -0.7286501088 -0.686787205
19450183300.0 -0.7376602896 -0.6756592789
19500183000.0 -0.7459966997 -0.6666329518
19550182700.0 -0.7558920189 -0.655373511
19600182400.0 -0.7658688275 -0.6438638453
19650182100.0 -0.7762716645 -0.6315793088
19700181800.0 -0.786769949 -0.6182745728
19750181500.0 -0.797284013 -0.6043423701
19800181200.0 -0.8072403434 -0.5894121598
19850180900.0 -0.816918758 -0.5740778686
19900180600.0 -0.8243268585 -0.5596048625
19950180300.0 -0.8337235087 -0.5431400993
20000180000.0 -0.8237798498 -0.5473621735
20050179700.0 -0.8315232169 -0.5348293032
20100179400.0 -0.8399595138 -0.5215562701
20150179100.0 -0.8477857997 -0.509349122
20200178800.0 -0.8559910261 -0.4975444012
20250178500.0 -0.8659167183 -0.4858376474
20300178200.0 -0.8753372765 -0.4718445625
20350177900.0 -0.8849031608 -0.4573862448
20400177600.0 -0.8933969874 -0.4435495949
20450177300.0 -0.9018902875 -0.4291906994
20500177000.0 -0.9101609282 -0.4153477473
20550176700.0 -0.9179757011 -0.4017654111
20600176400.0 -0.9248353872 -0.3886525972
20650176100.0 -0.9312729276 -0.3764097663
20700175800.0 -0.9379485854 -0.3640559554
20750175500.0 -0.94426706 -0.3531786262
20800175200.0 -0.9493171116 -0.3420638922
20850174900.0 -0.9531835625 -0.3322210592
20900174600.0 -0.9579984001 -0.3209987954
20950174300.0 -0.9614477306 -0.3084770445
21000174000.0 -0.9640620246 -0.2995673025
21050173700.0 -0.9654198158 -0.2890059847
21100173400.0 -0.968713004 -0.2784224843
21150173100.0 -0.9732199745 -0.2664823689
21200172800.0 -0.9772200184 -0.253756473
21250172500.0 -0.9808084612 -0.2396707488
21300172200.0 -0.9838009885 -0.2257993345
21350171900.0 -0.9860128249 -0.211305912
21400171600.0 -0.9879189646 -0.1969248854
21450171300.0 -0.9882230922 -0.182916269
21500171000.0 -0.988478748 -0.1685229491
21550170700.0 -0.9897844155 -0.1539894889
21600170400.0 -0.9903869594 -0.1385031447
21650170100.0 -0.9911129584 -0.1220567461
21700169800.0 -0.9895829922 -0.1061499075
21750169500.0 -0.9897951111 -0.0905000387
21800169200.0 -0.9898222229 -0.0740819696
21850168900.0 -0.9904203588 -0.0572893932
21900168600.0 -0.9900153196 -0.0404757699
21950168300.0 -0.9885216996 -0.0253826849
22000168000.0 -0.9889188307 -0.0103409233
22050167700.0 -0.9894475116 0.0040768251
22100167400.0 -0.9899324949 0.0201110476
22150167100.0 -0.9911590477 0.0363164285
22200166800.0 -0.9919066237 0.052911175
22250166500.0 -0.9906859468 0.0698322678
22300166200.0 -0.9903150737 0.0862479411
22350165900.0 -0.9894592466 0.1032980234
22400165600.0 -0.9877972244 0.1178721805
22450165300.0 -0.9860294812 0.1330631357
22500165000.0 -0.9841833249 0.1471498555
22550164700.0 -0.9838093227 0.1634921976
22600164400.0 -0.9800907392 0.1800425071
22650164100.0 -0.9778264592 0.1954432372
22700163800.0 -0.9747113992 0.2109343578
22750163500.0 -0.9722012209 0.2262352854
22800163200.0 -0.9694699983 0.2398782573
22850162900.0 -0.9661196878 0.2530833424
22900162600.0 -0.9644547865 0.2667896735
22950162300.0 -0.9625657762 0.280676334
23000162000.0 -0.9612646543 0.2930619445
23050161700.0 -0.9583614101 0.3063207332
23100161400.0 -0.9555055691 0.320634461
23150161100.0 -0.9525152141 0.3335179384
23200160800.0 -0.9498978429 0.3462804082
23250160500.0 -0.9471461097 0.358149941
23300160200.0 -0.944353628 0.371021998
23350159900.0 -0.9400664364 0.38472813
23400159600.0 -0.9355978958 0.3984181151
23450159300.0 -0.9298916374 0.4122726536
23500159000.0 -0.9252481137 0.4252599438
23550158700.0 -0.9203223681 0.4399027874
23600158400.0 -0.9142008477 0.4540719774
23650158100.0 -0.9069303808 0.4685387708
23700157800.0 -0.8986240054 0.4828923333
23750157500.0 -0.8890597785 0.4966666966
23800157200.0 -0.8796944389 0.5103274874
23850156900.0 -0.8697635764 0.5232494695
23900156600.0 -0.8597200656 0.5362746388
23950156300.0 -0.850276993 0.548523247
24000156000.0 -0.8406634872 0.5604869165
24050155700.0 -0.8299323487 0.5736788775
24100155400.0 -0.819358886 0.5855118504
24150155100.0 -0.8087223314 0.5972019846
24200154800.0 -0.7981245523 0.6094395646
24250154500.0 -0.7861906184 0.621763222
24300154200.0 -0.7750242197 0.6337150887
24350153900.0 -0.763219418 0.644910735
24400153600.0 -0.7503423246 0.655178339
24450153300.0 -0.7384536045 0.6656982744
24500153000.0 -0.7266455862 0.6754536962
24550152700.0 -0.7151291589 0.6857806922
24600152400.0 -0.7034859942 0.6952680188
24650152100.0 -0.6904119089 0.7034243137
