!Created with skrf (http://scikit-rf.org).
# Hz S RI R 50.0 
!freq ReS11 ImS11
300000.0 -1.002672715 0.0388997937
50299700.0 -0.9973555476 0.0151869365
100299400.0 -0.9955018835 0.0271086485
150299100.0 -1.000223165 0.043742966
200298800.0 -0.9967896228 0.056972467
250298500.0 -0.9943046505 0.0700540649
300298200.0 -0.9824972046 0.0854313246
350297900.0 -0.9902985048 0.0960679412
400297600.0 -0.9893312604 0.1121179446
450297300.0 -0.9868390228 0.1254838686
500297000.0 -0.9850956798 0.1395887012
550296700.0 -0.979992748 0.1517098811
600296400.0 -1.012619921 0.1844996455
650296100.0 -0.9776194436 0.1808855463
700295800.0 -0.9748367905 0.194658179
750295500.0 -0.9718873776 0.208318991
800295200.0 -0.9686623473 0.2220210163
850294900.0 -0.9653484281 0.2354122842
900294600.0 -0.9617103284 0.2491307103
950294300.0 -0.9582360881 0.2623541451
1000294000.0 -0.9544853379 0.2762597116
1050293700.0 -0.9503278383 0.2896693821
1100293400.0 -0.9462025564 0.3042094926
1150293100.0 -0.9424941887 0.3157751647
1200292800.0 -0.9375662073 0.3299103238
1250292500.0 -0.9324698055 0.3434369893
1300292200.0 -0.9269365086 0.3565957107
1350291900.0 -0.9216919387 0.3706662179
1400291600.0 -0.9167995344 0.3835380828
1450291300.0 -0.9115246807 0.3957259812
1500291000.0 -0.9055898693 0.4091618086
1550290700.0 -0.8994224941 0.4222787969
1600290400.0 -0.8934331759 0.4353487583
1650290100.0 -0.8873264425 0.4469466016
1700289800.0 -0.8805669057 0.4605660197
1750289500.0 -0.8740055064 0.4727075348
1800289200.0 -0.867195244 0.4854162816
1850288900.0 -0.8610738628 0.4966298433
1900288600.0 -0.8535158119 0.5094876291
1950288300.0 -0.8460167458 0.5217080197
2000288000.0 -0.8386415309 0.5333231419
2050287700.0 -0.8308762338 0.5457858659
2100287400.0 -0.8235789148 0.5567683028
2150287100.0 -0.8150632187 0.5689335857
2200286800.0 -0.8075792082 0.57981288
2250286500.0 -0.7991786313 0.5914095388
2300286200.0 -0.7909762959 0.602380749
2350285900.0 -0.7826281994 0.613118746
2400285600.0 -0.773628769 0.6244152514
2450285300.0 -0.7642735611 0.6354629949
2500285000.0 -0.7555045026 0.6458397362
2550284700.0 -0.7463597203 0.6560852623
2600284400.0 -0.7359992953 0.6671352661
2650284100.0 -0.7275391446 0.6767429245
2700283800.0 -0.7177385676 0.6868077404
2750283500.0 -0.7079718052 0.6968257808
2800283200.0 -0.6975256167 0.7066197283
2850282900.0 -0.6868942661 0.7167892363
2900282600.0 -0.6765525648 0.7264901351
2950282300.0 -0.6663651831 0.7356421408
3000282000.0 -0.655744046 0.745352439
3050281700.0 -0.6447759158 0.7547064112
3100281400.0 -0.6344680859 0.7633808484
3150281100.0 -0.6249015642 0.7716041561
3200280800.0 -0.6136820314 0.7806447269
3250280500.0 -0.6022701932 0.7897609628
3300280200.0 -0.5899262133 0.7995602559
3350279900.0 -0.5790186777 0.8075284274
3400279600.0 -0.5671058483 0.816293349
3450279300.0 -0.5553122071 0.8251744076
3500279000.0 -0.5434709677 0.8332571153
3550278700.0 -0.5314499993 0.84137019
3600278400.0 -0.5213709869 0.8478626971
3650278100.0 -0.5084058975 0.8561211273
3700277800.0 -0.4966676869 0.8632689477
3750277500.0 -0.4844913021 0.8700147217
3800277200.0 -0.4720064332 0.8772067912
3850276900.0 -0.4593643213 0.8834685409
3900276600.0 -0.4474060481 0.8897640309
3950276300.0 -0.4339597959 0.8964591718
4000276000.0 -0.4219715685 0.9022673858
4050275700.0 -0.4085705331 0.9081539932
4100275400.0 -0.3972474088 0.9132071086
4150275100.0 -0.3836644802 0.9188754722
4200274800.0 -0.3694910453 0.9240326409
4250274500.0 -0.3580474995 0.9286516018
4300274200.0 -0.3451818393 0.9333167315
4350273900.0 -0.3314809607 0.9378836095
4400273600.0 -0.3193591334 0.9415549185
4450273300.0 -0.3071558588 0.9456983854
4500273000.0 -0.2951081183 0.9494381534
4550272700.0 -0.2837447726 0.9529009989
4600272400.0 -0.2698063233 0.9567531537
4650272100.0 -0.2575257956 0.9601009041
4700271800.0 -0.2443539794 0.9632337532
4750271500.0 -0.2302019592 0.9666558231
4800271200.0 -0.215119663 0.9700504093
4850270900.0 -0.2011685614 0.9729639728
4900270600.0 -0.1877874771 0.9755346206
4950270300.0 -0.1752771809 0.9778761919
5000270000.0 -0.1619305961 0.980048286
5050269700.0 -0.1480354419 0.9820598403
5100269400.0 -0.1332511815 0.984206605
5150269100.0 -0.118953063 0.986249569
5200268800.0 -0.104651618 0.987760869
5250268500.0 -0.0915996582 0.9892164917
5300268200.0 -0.0766990748 0.990131982
5350267900.0 -0.0630904172 0.9910888842
5400267600.0 -0.0469447889 0.9924525827
5450267300.0 -0.034716364 0.9927932376
5500267000.0 -0.0203425732 0.9930253727
5550266700.0 -0.0094105204 0.9930193909
5600266400.0 0.0043093425 0.9929424986
5650266100.0 0.0174500436 0.9925628236
5700265800.0 0.0299236348 0.9921466281
5750265500.0 0.0421707388 0.9916096687
5800265200.0 0.0546685944 0.9910865269
5850264900.0 0.0680365009 0.9907282402
5900264600.0 0.0829130557 0.9896946681
5950264300.0 0.0935090938 0.9884731257
6000264000.0 0.1064092027 0.9872363837
6050263700.0 0.1190608405 0.9866363185
6100263400.0 0.1330581498 0.9844607048
6150263100.0 0.1494614306 0.982620984
6200262800.0 0.1605486216 0.9805280195
6250262500.0 0.1747198466 0.9782597732
6300262200.0 0.1880465901 0.9756444618
6350261900.0 0.2011964386 0.9732970353
6400261600.0 0.2164969142 0.9698847491
6450261300.0 0.2290321854 0.967025255
6500261000.0 0.2429316603 0.9637732502
6550260700.0 0.2566249232 0.9600480006
6600260400.0 0.2691785783 0.9566596901
6650260100.0 0.2826354243 0.9530653898
6700259800.0 0.2953499957 0.9493441357
6750259500.0 0.3075316533 0.9449337789
6800259200.0 0.3211775271 0.9406424319
6850258900.0 0.333801191 0.9361118546
6900258600.0 0.3474257346 0.9319865401
6950258300.0 0.3607571986 0.9265937378
7000258000.0 0.3734974786 0.9217098587
7050257700.0 0.3843168122 0.9172533183
7100257400.0 0.3988400594 0.9114152459
7150257100.0 0.4106252951 0.9062599375
7200256800.0 0.424768685 0.9006280458
7250256500.0 0.4369895904 0.8948841008
7300256200.0 0.4501830416 0.8884799621
7350255900.0 0.4626109399 0.8821830354
7400255600.0 0.4717242577 0.8773430519
7450255300.0 0.4840096825 0.8711749831
7500255000.0 0.4948206294 0.8646179853
7550254700.0 0.5047500086 0.8589594818
7600254400.0 0.5155238577 0.8530529863
7650254100.0 0.5257556118 0.8465641715
7700253800.0 0.5371710265 0.8398406867
7750253500.0 0.5478782722 0.8325292028
7800253200.0 0.5604646715 0.8241444661
7850252900.0 0.5690923396 0.8180950899
7900252600.0 0.580738055 0.8101201751
7950252300.0 0.5917267737 0.8022906247
8000252000.0 0.6028548833 0.7937027465
8050251700.0 0.6140795124 0.7849170134
8100251400.0 0.623465508 0.7772864241
8150251100.0 0.6345360589 0.7677547241
8200250800.0 0.6445900842 0.7594737991
8250250500.0 0.655651395 0.7500700553
8300250200.0 0.6661688831 0.7401839996
8350249900.0 0.675737687 0.7313090807
8400249600.0 0.6858695605 0.7217836145
8450249300.0 0.6967021981 0.7111239556
8500249000.0 0.7070934385 0.7007103611
8550248700.0 0.7182561234 0.6891518017
8600248400.0 0.7287159943 0.6780002335
8650248100.0 0.7369669746 0.6689024622
8700247800.0 0.7463262767 0.6586364487
8750247500.0 0.7556365753 0.6480519766
8800247200.0 0.7654682185 0.6368051726
8850246900.0 0.774448765 0.6259081164
8900246600.0 0.7827916077 0.6148990534
8950246300.0 0.7914005116 0.603801571
9000246000.0 0.7984671815 0.5948216808
9050245700.0 0.8046590736 0.5861488149
9100245400.0 0.8131935125 0.5742842011
9150245100.0 0.8204211058 0.5637467774
9200244800.0 0.8251068266 0.5569206787
9250244500.0 0.831156307 0.5476586047
9300244200.0 0.8360372817 0.5397707203
9350243900.0 0.8423745656 0.5301556815
9400243600.0 0.8492720421 0.5188465731
9450243300.0 0.8539021052 0.5111678695
9500243000.0 0.8601214214 0.5014826959
9550242700.0 0.8678123797 0.4888480201
9600242400.0 0.8758063558 0.4747861793
9650242100.0 0.8836786313 0.460154374
9700241800.0 0.8908817495 0.4460697306
9750241500.0 0.8989383005 0.4295064991
9800241200.0 0.9077089129 0.4098117811
9850240900.0 0.914107275 0.394505361
9900240600.0 0.9179974441 0.3849909545
9950240300.0 0.9229649779 0.3718528919
10000240000.0 0.9284190208 0.3577544372
10050239700.0 0.9329493452 0.3457793034
10100239400.0 0.9365264925 0.3347465487
10150239100.0 0.9407500528 0.3232633437
10200238800.0 0.945160195 0.3100787344
10250238500.0 0.9493846795 0.2973390438
10300238200.0 0.9537687354 0.2846350578
10350237900.0 0.9574359943 0.2721086394
10400237600.0 0.9611934264 0.2590651867
10450237300.0 0.9655766581 0.2452039498
10500237000.0 0.9694294409 0.2308985486
10550236700.0 0.9725327073 0.217929956
10600236400.0 0.9759750953 0.2047879577
10650236100.0 0.9787207167 0.1885301688
10700235800.0 0.9822824111 0.173034601
10750235500.0 0.9844070563 0.15991802
10800235200.0 0.9864113271 0.1466727238
10850234900.0 0.9880607829 0.1336437113
10900234600.0 0.9899218046 0.1201637063
10950234300.0 0.9912021436 0.1052267271
11000234000.0 0.9920701836 0.0917433568
11050233700.0 0.9926683692 0.0801293788
11100233400.0 0.9931757748 0.0668868929
11150233100.0 0.9942203598 0.0543790015
11200232800.0 0.9941425697 0.0431216414
11250232500.0 0.9938931754 0.0303258027
11300232200.0 0.9940901846 0.0187766229
11350231900.0 0.9938715585 0.0066321662
11400231600.0 0.9930978493 -0.0057560779
11450231300.0 0.9926618401 -0.0170328903
11500231000.0 0.9917775726 -0.0272926776
11550230700.0 0.9916806628 -0.0398248138
11600230400.0 0.9916067577 -0.0553725489
11650230100.0 0.9897107387 -0.0674101035
11700229800.0 0.9890488239 -0.0820795116
11750229500.0 0.9880693373 -0.0950463515
11800229200.0 0.9864930645 -0.1053413758
11850228900.0 0.9854162598 -0.1199593755
11900228600.0 0.9842098599 -0.1362828576
11950228300.0 0.9825903407 -0.1531140486
12000228000.0 0.9805050771 -0.1695207414
12050227700.0 0.9784040615 -0.1834820678
12100227400.0 0.9762964407 -0.195837137
12150227100.0 0.9729548625 -0.2144376551
12200226800.0 0.9702934792 -0.2268431231
12250226500.0 0.9669685855 -0.2418427022
12300226200.0 0.9641973566 -0.2547346414
12350225900.0 0.9595126817 -0.2714384504
12400225600.0 0.9556111432 -0.2871934532
12450225300.0 0.9517527064 -0.2997416218
12500225000.0 0.9468249171 -0.314225442
12550224700.0 0.9412683428 -0.3299132834
12600224400.0 0.9374091378 -0.3409193441
12650224100.0 0.9323231017 -0.3541933486
12700223800.0 0.9275539835 -0.366503378
12750223500.0 0.9220127391 -0.3796136921
12800223200.0 0.9159017567 -0.3938909775
12850222900.0 0.9099683025 -0.4069660294
12900222600.0 0.9038593484 -0.4197315421
12950222300.0 0.8968376014 -0.43404477
13000222000.0 0.8901488533 -0.447293613
13050221700.0 0.8836866539 -0.4601390057
13100221400.0 0.8770362206 -0.472389879
13150221100.0 0.8706508203 -0.4847332678
13200220800.0 0.8630845783 -0.4973669051
13250220500.0 0.8563254539 -0.5096766581
13300220200.0 0.8491179281 -0.5215322414
13350219900.0 0.84067375 -0.5355120062
13400219600.0 0.8334144123 -0.5469588083
13450219300.0 0.8269029864 -0.5570599584
13500219000.0 0.8199549892 -0.5663834812
13550218700.0 0.81290127 -0.5769178406
13600218400.0 0.8056847829 -0.5869116622
13650218100.0 0.7987897512 -0.5961905017
13700217800.0 0.7909312549 -0.6069773436
13750217500.0 0.7838564186 -0.6173249751
13800217200.0 0.774462202 -0.6291217329
13850216900.0 0.7664537944 -0.6396577081
13900216600.0 0.7590943677 -0.6481105349
13950216300.0 0.7489363838 -0.6599990348
14000216000.0 0.7395577817 -0.670801773
14050215700.0 0.7300516234 -0.6808962754
14100215400.0 0.7178633106 -0.69429563
14150215100.0 0.7059030835 -0.7066789198
14200214800.0 0.6945105026 -0.7177407231
14250214500.0 0.6821430138 -0.7294161595
14300214200.0 0.6695224336 -0.7410258901
14350213900.0 0.6578511583 -0.7511022637
14400213600.0 0.6472419243 -0.7599263603
14450213300.0 0.6375430849 -0.7681651957
14500213000.0 0.6277198998 -0.7763726892
14550212700.0 0.6171653828 -0.784987175
14600212400.0 0.6057967409 -0.7929688729
14650212100.0 0.5957527706 -0.8001198493
14700211800.0 0.5850959909 -0.8076057496
14750211500.0 0.5737473365 -0.8154832052
14800211200.0 0.5615904837 -0.8236167382
14850210900.0 0.550682866 -0.8309859432
14900210600.0 0.5390491653 -0.8385103602
14950210300.0 0.527717494 -0.8456428875
15000210000.0 0.5161950252 -0.8526136009
15050209700.0 0.5032918609 -0.8604992023
15100209400.0 0.49054623 -0.8677168764
15150209100.0 0.4782415529 -0.8746841601
15200208800.0 0.4657383484 -0.882124903
15250208500.0 0.4520141064 -0.8896544955
15300208200.0 0.4367434624 -0.8974170406
15350207900.0 0.4236550812 -0.9036743696
15400207600.0 0.4116795622 -0.9104268057
15450207300.0 0.3983203184 -0.9159549959
15500207000.0 0.3857903318 -0.9209822298
15550206700.0 0.3736132484 -0.9271011829
15600206400.0 0.3610648634 -0.9321554493
15650206100.0 0.3478508431 -0.9375126175
15700205800.0 0.3342803107 -0.9428538129
15750205500.0 0.3192814992 -0.9482638528
15800205200.0 0.3053420728 -0.952912016
15850204900.0 0.2914187873 -0.957293698
15900204600.0 0.2751745774 -0.9623105832
15950204300.0 0.2601490945 -0.9663567317
16000204000.0 0.2443863839 -0.9705403763
16050203700.0 0.2295323907 -0.9743319482
16100203400.0 0.2152330306 -0.9768552958
16150203100.0 0.1998078737 -0.980655624
16200202800.0 0.1835381192 -0.9830893939
16250202500.0 0.168590984 -0.9850479868
16300202200.0 0.1539691092 -0.9877916928
16350201900.0 0.1383972526 -0.9898905874
16400201600.0 0.1233698714 -0.9912211812
16450201300.0 0.1100518349 -0.9928786984
16500201000.0 0.0962574019 -0.9942793763
16550200700.0 0.08272267 -0.9955144132
16600200400.0 0.0685376417 -0.9967058787
16650200100.0 0.0533725114 -0.9978614253
16700199800.0 0.0410349081 -0.9983798397
16750199500.0 0.0293841201 -0.9989477373
16800199200.0 0.0182089644 -0.9994629557
16850198900.0 0.0060726953 -0.999304627
16900198600.0 -0.0070748275 -0.9999363469
16950198300.0 -0.0213655514 -0.999220161
17000198000.0 -0.0365487817 -0.9982067846
17050197700.0 -0.0519223962 -0.9979855656
17100197400.0 -0.0695004885 -0.9966214333
17150197100.0 -0.0868596042 -0.9958999145
17200196800.0 -0.1023088249 -0.9941670756
17250196500.0 -0.1182638294 -0.9920301875
17300196200.0 -0.1353767446 -0.9897654032
17350195900.0 -0.1536730691 -0.9871101264
17400195600.0 -0.170886983 -0.9841502391
17450195300.0 -0.1873111702 -0.9811998723
17500195000.0 -0.2037007488 -0.9778170457
17550194700.0 -0.2194224832 -0.9745411944
17600194400.0 -0.2347729424 -0.9713167527
17650194100.0 -0.2505900052 -0.9678362974
17700193800.0 -0.2651729344 -0.9632265419
17750193500.0 -0.2798419578 -0.959579082
17800193200.0 -0.2938626353 -0.9551038176
17850192900.0 -0.3084314974 -0.9508265369
17900192600.0 -0.3212512987 -0.9466689332
17950192300.0 -0.3349834542 -0.9412382987
18000192000.0 -0.3488964725 -0.9363789013
18050191700.0 -0.362658294 -0.9310410289
18100191400.0 -0.3762722295 -0.9264109733
18150191100.0 -0.3886504051 -0.921346096
18200190800.0 -0.400025706 -0.9163765513
18250190500.0 -0.4109564766 -0.9115559621
18300190200.0 -0.4230841405 -0.9066538637
18350189900.0 -0.4347821917 -0.9017912163
18400189600.0 -0.4464397938 -0.8963164288
18450189300.0 -0.4574145817 -0.8910737935
18500189000.0 -0.468084722 -0.8849671941
18550188700.0 -0.4793370244 -0.8789950944
18600188400.0 -0.4911720511 -0.8715268508
18650188100.0 -0.5041981765 -0.8632289679
18700187800.0 -0.5168445178 -0.8551421659
18750187500.0 -0.5291955383 -0.8470688439
18800187200.0 -0.5418123041 -0.8376302913
18850186900.0 -0.5547801564 -0.828355357
18900186600.0 -0.5664361717 -0.8194035093
18950186300.0 -0.5797465897 -0.809347527
19000186000.0 -0.5936239356 -0.7987094946
19050185700.0 -0.6088834643 -0.7889777495
19100185400.0 -0.6219391381 -0.7785456602
19150185100.0 -0.6352484455 -0.7678280604
19200184800.0 -0.6486492719 -0.7566755206
19250184500.0 -0.6616763822 -0.7455160181
19300184200.0 -0.6729351376 -0.7349451123
19350183900.0 -0.6862984591 -0.7239855675
19400183600.0 -0.6980325787 -0.712800264
19450183300.0 -0.7107621876 -0.7001628955
19500183000.0 -0.7232912624 -0.6879189993
19550182700.0 -0.7354844021 -0.6751459042
19600182400.0 -0.7462014462 -0.6630264564
19650182100.0 -0.7565586873 -0.6508926373
19700181800.0 -0.7665470028 -0.6386312069
19750181500.0 -0.7753278544 -0.6269469895
19800181200.0 -0.7837721024 -0.6155551864
19850180900.0 -0.7922434849 -0.604523439
19900180600.0 -0.7994555185 -0.5948128104
19950180300.0 -0.8087436297 -0.583767914
20000180000.0 -0.823102844 -0.5667209281
20050179700.0 -0.8312636676 -0.5550988404
20100179400.0 -0.8399994915 -0.543465313
20150179100.0 -0.8480635217 -0.5308244627
20200178800.0 -0.8549741102 -0.5181408173
20250178500.0 -0.8603268775 -0.5069263767
20300178200.0 -0.8664583227 -0.4949603591
20350177900.0 -0.8710015537 -0.4846258433
20400177600.0 -0.8748455379 -0.4740162375
20450177300.0 -0.8798263267 -0.4629440759
20500177000.0 -0.8842455872 -0.4517261462
20550176700.0 -0.8883528956 -0.4399174891
20600176400.0 -0.893002475 -0.427944185
20650176100.0 -0.8974403952 -0.4150986384
20700175800.0 -0.9031222197 -0.4016947662
20750175500.0 -0.9085157214 -0.3888326051
20800175200.0 -0.9124156065 -0.3749582951
20850174900.0 -0.9167657788 -0.3600858145
20900174600.0 -0.9218933875 -0.3459035481
20950174300.0 -0.9263053877 -0.3311905424
21000174000.0 -0.9314355738 -0.3154755577
21050173700.0 -0.9355365026 -0.3005608444
21100173400.0 -0.9410974488 -0.2839494281
21150173100.0 -0.9445725288 -0.2677629222
21200172800.0 -0.9478745351 -0.2510680477
21250172500.0 -0.9515966748 -0.2356830898
21300172200.0 -0.9550505868 -0.2208039094
21350171900.0 -0.9587559129 -0.2064270529
21400171600.0 -0.9625475726 -0.1908929825
21450171300.0 -0.9660175761 -0.1762520484
21500171000.0 -0.9689538727 -0.1614487253
21550170700.0 -0.9737027733 -0.1477611574
21600170400.0 -0.9782952487 -0.1345190255
21650170100.0 -0.9825610157 -0.1204375014
21700169800.0 -0.9861913784 -0.1073637518
21750169500.0 -0.9903862373 -0.0910504648
21800169200.0 -0.9932406017 -0.0776540447
21850168900.0 -0.9962888844 -0.0649557932
21900168600.0 -0.999669767 -0.0535379914
21950168300.0 -1.00291493 -0.0406058905
22000168000.0 -1.005816014 -0.0270139493
22050167700.0 -1.007633258 -0.0128102113
22100167400.0 -1.008540287 0.0025554188
22150167100.0 -1.008504699 0.0172154898
22200166800.0 -1.007437977 0.0298260876
22250166500.0 -1.005687245 0.0420111438
22300166200.0 -1.006076888 0.0539414128
22350165900.0 -1.005087053 0.0651130203
22400165600.0 -1.004854297 0.0773381149
22450165300.0 -1.00324041 0.0896831258
22500165000.0 -1.001569369 0.1019641509
22550164700.0 -0.9998460436 0.1155767748
22600164400.0 -0.9979575937 0.1288553403
22650164100.0 -0.9948137569 0.1374219034
22700163800.0 -0.9925140482 0.1487317334
22750163500.0 -0.9900878001 0.1615126169
22800163200.0 -0.9863428052 0.1733869319
22850162900.0 -0.9825261855 0.1854629179
22900162600.0 -0.9790031429 0.1989948712
22950162300.0 -0.9735070019 0.2135028446
23000162000.0 -0.9671308019 0.2274285244
23050161700.0 -0.9601001646 0.2428750217
23100161400.0 -0.9542428185 0.2576773149
23150161100.0 -0.9487255711 0.2713823328
23200160800.0 -0.9424640013 0.2867607875
23250160500.0 -0.9349304151 0.3027105018
23300160200.0 -0.9283432141 0.3182191767
23350159900.0 -0.9214191663 0.3342563877
23400159600.0 -0.914633638 0.3469155717
23450159300.0 -0.9087783516 0.3596905926
23500159000.0 -0.9027850704 0.3732988556
23550158700.0 -0.8962159549 0.3871325789
23600158400.0 -0.8889888504 0.3994880319
23650158100.0 -0.8822165911 0.4117544456
23700157800.0 -0.8759570017 0.4230270799
23750157500.0 -0.8701270566 0.4340396135
23800157200.0 -0.8655316938 0.4450316753
23850156900.0 -0.8614912993 0.4549878457
23900156600.0 -0.8564833061 0.4665281346
23950156300.0 -0.8522848319 0.4780612694
24000156000.0 -0.8474129207 0.4882778682
24050155700.0 -0.8424749475 0.4986859879
24100155400.0 -0.8380849999 0.5092457113
24150155100.0 -0.8331791283 0.5192238256
24200154800.0 -0.8286739384 0.528680307
24250154500.0 -0.8248415511 0.538687626
24300154200.0 -0.8207043806 0.5485836193
24350153900.0 -0.816005523 0.5587702671
24400153600.0 -0.8112048715 0.5686963741
24450153300.0 -0.806008277 0.5790711059
24500153000.0 -0.800172543 0.5888922741
24550152700.0 -0.794196057 0.5992398382
24600152400.0 -0.7874414068 0.6090597773
24650152100.0 -0.7807535891 0.6195018901
