!Created with skrf (http://scikit-rf.org).
# Hz S RI R 50.0 
!freq ReS11 ImS11
300000.0 -0.9725756713 -0.1255193433
50299700.0 -0.9998811668 0.0150174536
100299400.0 -0.9979698556 0.0277387468
150299100.0 -1.002702176 0.0448577914
200298800.0 -0.9995895629 0.0582084548
250298500.0 -0.99725774 0.0715828635
300298200.0 -0.9859140351 0.0872125982
350297900.0 -0.9938764708 0.0981814368
400297600.0 -0.9931213963 0.1148950488
450297300.0 -0.9909381389 0.1285891681
500297000.0 -0.9893227764 0.1433868094
550296700.0 -0.984188601 0.1560048477
600296400.0 -1.01707737 0.1890501326
650296100.0 -0.9820508192 0.1855582218
700295800.0 -0.9791140717 0.199798894
750295500.0 -0.9763033946 0.213954942
800295200.0 -0.972741442 0.2281003838
850294900.0 -0.969677517 0.2416477735
900294600.0 -0.9658666432 0.2555011025
950294300.0 -0.9620989306 0.2692020813
1000294000.0 -0.9583573017 0.2832399348
1050293700.0 -0.9537328336 0.2970349543
1100293400.0 -0.9494493252 0.3113723436
1150293100.0 -0.9456906709 0.3232769266
1200292800.0 -0.9402442964 0.3374839977
1250292500.0 -0.9346660035 0.3511641077
1300292200.0 -0.9290625723 0.3642819627
1350291900.0 -0.923465546 0.378370811
1400291600.0 -0.9179731101 0.3915819609
1450291300.0 -0.912470377 0.4037853678
1500291000.0 -0.906238232 0.4172072144
1550290700.0 -0.8995383925 0.4305487376
1600290400.0 -0.8935271695 0.4435453799
1650290100.0 -0.8868831073 0.4557774269
1700289800.0 -0.8799442778 0.4692113847
1750289500.0 -0.8729976718 0.4813195805
1800289200.0 -0.8655663179 0.494435694
1850288900.0 -0.8588137323 0.5056774444
1900288600.0 -0.8511548952 0.5186680854
1950288300.0 -0.8430022703 0.5313435382
2000288000.0 -0.8353610291 0.542756643
2050287700.0 -0.8271451943 0.5551364506
2100287400.0 -0.8193039987 0.5664162225
2150287100.0 -0.8107696095 0.5785461974
2200286800.0 -0.8031040501 0.5891080218
2250286500.0 -0.7941758859 0.6013325596
2300286200.0 -0.78521702 0.6128040715
2350285900.0 -0.7769818613 0.6234253034
2400285600.0 -0.7681684004 0.6343849785
2450285300.0 -0.7591888728 0.6450750059
2500285000.0 -0.7491134542 0.6566379343
2550284700.0 -0.7402672643 0.6668031735
2600284400.0 -0.73124626 0.6768993939
2650284100.0 -0.7222922987 0.6870118448
2700283800.0 -0.7117481794 0.6973511156
2750283500.0 -0.7016590939 0.7079389216
2800283200.0 -0.691674445 0.7180468373
2850282900.0 -0.6810783474 0.7281761149
2900282600.0 -0.6708772516 0.7377257929
2950282300.0 -0.6604621285 0.7471060055
3000282000.0 -0.6495247611 0.7565371642
3050281700.0 -0.6383421897 0.7657202598
3100281400.0 -0.626879639 0.7748824663
3150281100.0 -0.6157265798 0.7837850603
3200280800.0 -0.604313512 0.7921303862
3250280500.0 -0.5931102257 0.8002022709
3300280200.0 -0.5814782822 0.8083230506
3350279900.0 -0.5692770871 0.8164423735
3400279600.0 -0.5565782653 0.8244757018
3450279300.0 -0.5454682293 0.8316464139
3500279000.0 -0.5338929452 0.8384379141
3550278700.0 -0.5218357833 0.8457705173
3600278400.0 -0.5098242859 0.8522366876
3650278100.0 -0.4968075636 0.8597392055
3700277800.0 -0.4848250087 0.8665569566
3750277500.0 -0.4722690545 0.873321037
3800277200.0 -0.4597129424 0.8795712485
3850276900.0 -0.4478437199 0.8857528595
3900276600.0 -0.436937395 0.8911766243
3950276300.0 -0.424780432 0.8969641481
4000276000.0 -0.413100497 0.9031114695
4050275700.0 -0.4005402372 0.9091024036
4100275400.0 -0.3895042669 0.9145196462
4150275100.0 -0.3763635134 0.9204788549
4200274800.0 -0.362759472 0.9263585098
4250274500.0 -0.3501160476 0.9313298524
4300274200.0 -0.3367570304 0.9367599748
4350273900.0 -0.3225072813 0.942012188
4400273600.0 -0.3078042478 0.9472837578
4450273300.0 -0.2928247755 0.9521233719
4500273000.0 -0.2796713194 0.9562358866
4550272700.0 -0.2661865877 0.9603963092
4600272400.0 -0.2512259618 0.9647082686
4650272100.0 -0.2399103433 0.9678251626
4700271800.0 -0.2270343343 0.9710377348
4750271500.0 -0.2153330133 0.974035317
4800271200.0 -0.2031782033 0.9765394904
4850270900.0 -0.1894209948 0.9793677037
4900270600.0 -0.1754203498 0.9818171062
4950270300.0 -0.1608604892 0.9844789285
5000270000.0 -0.1466023195 0.986899398
5050269700.0 -0.1331287375 0.9882160346
5100269400.0 -0.1189317856 0.9898073615
5150269100.0 -0.1048066799 0.9915561306
5200268800.0 -0.0913756673 0.9927422391
5250268500.0 -0.0784000071 0.9939691932
5300268200.0 -0.064604889 0.9944645998
5350267900.0 -0.0517775336 0.9954146203
5400267600.0 -0.0356181514 0.9963111108
5450267300.0 -0.02216619 0.9965625382
5500267000.0 -0.0068448753 0.9970827378
5550266700.0 0.0081373866 0.9974147044
5600266400.0 0.023879576 0.9973005326
5650266100.0 0.0405136752 0.996789829
5700265800.0 0.0544401487 0.9956696893
5750265500.0 0.0697504841 0.9949650352
5800265200.0 0.0829163552 0.993609599
5850264900.0 0.0962995228 0.9931302899
5900264600.0 0.1129843257 0.9913557648
5950264300.0 0.1247476082 0.9902472948
6000264000.0 0.1379169866 0.987975246
6050263700.0 0.1496559673 0.9866596904
6100263400.0 0.161555108 0.984848401
6150263100.0 0.1761299046 0.9824969012
6200262800.0 0.1856583873 0.9813010794
6250262500.0 0.1983710304 0.9788348563
6300262200.0 0.2107175164 0.976148001
6350261900.0 0.2233265698 0.9735857937
6400261600.0 0.2373260937 0.9703007224
6450261300.0 0.2483770575 0.9678753924
6500261000.0 0.2615180234 0.964113697
6550260700.0 0.2748590978 0.9600965056
6600260400.0 0.2884624611 0.9561718714
6650260100.0 0.3023743357 0.952047421
6700259800.0 0.3145562761 0.9473144538
6750259500.0 0.3280983277 0.9421930924
6800259200.0 0.3420986522 0.9375203631
6850258900.0 0.3543565699 0.9321901914
6900258600.0 0.3666624205 0.9269583626
6950258300.0 0.3794902633 0.9218424777
7000258000.0 0.390735582 0.9162004473
7050257700.0 0.4030217097 0.9105042276
7100257400.0 0.4163650351 0.9042080468
7150257100.0 0.4271541619 0.8985787616
7200256800.0 0.4404647689 0.892232652
7250256500.0 0.4530785177 0.8856084538
7300256200.0 0.4656492747 0.878652833
7350255900.0 0.4786618412 0.8718833234
7400255600.0 0.4929903734 0.8641362488
7450255300.0 0.5082307493 0.8549919004
7500255000.0 0.5213999411 0.8474466638
7550254700.0 0.5355677217 0.8381861626
7600254400.0 0.5479622474 0.8300838686
7650254100.0 0.5595528212 0.8221422957
7700253800.0 0.5709680258 0.8141052013
7750253500.0 0.5821052769 0.8063305314
7800253200.0 0.592727183 0.7986506703
7850252900.0 0.602450014 0.7913210668
7900252600.0 0.6137420619 0.7826195883
7950252300.0 0.6221157087 0.7763015383
8000252000.0 0.6320289875 0.7685611016
8050251700.0 0.6426489474 0.7605012815
8100251400.0 0.6522898927 0.7523780898
8150251100.0 0.6624459677 0.7440985465
8200250800.0 0.6717582728 0.7358604152
8250250500.0 0.6803961611 0.7281599824
8300250200.0 0.6899655895 0.7196938812
8350249900.0 0.6988659534 0.7108589285
8400249600.0 0.7070719429 0.7028463718
8450249300.0 0.7158542674 0.6942668014
8500249000.0 0.7243857458 0.6853598128
8550248700.0 0.7326451914 0.6763830288
8600248400.0 0.7408651384 0.6666870953
8650248100.0 0.7486037127 0.6575112073
8700247800.0 0.7578999279 0.6463424625
8750247500.0 0.7661400182 0.636264722
8800247200.0 0.7741660394 0.6260794514
8850246900.0 0.7828378883 0.6147036029
8900246600.0 0.7915147978 0.6030752149
8950246300.0 0.8004764997 0.5905759941
9000246000.0 0.8089682211 0.5786498794
9050245700.0 0.8173369731 0.5665269357
9100245400.0 0.8259186502 0.5542050562
9150245100.0 0.8344217742 0.5414076807
9200244800.0 0.8442069322 0.5270457151
9250244500.0 0.8532432231 0.5124615359
9300244200.0 0.8610868877 0.4990112613
9350243900.0 0.8687997922 0.4856836019
9400243600.0 0.8751508496 0.4741131221
9450243300.0 0.8806811128 0.463709412
9500243000.0 0.8870980628 0.4521297376
9550242700.0 0.8911373223 0.4446853957
9600242400.0 0.8952217777 0.437066293
9650242100.0 0.8995445658 0.4301391369
9700241800.0 0.90429288 0.4216763699
9750241500.0 0.9087524078 0.4140055056
9800241200.0 0.9137868879 0.4043554512
9850240900.0 0.9198563308 0.3924041822
9900240600.0 0.9256122689 0.3804951544
9950240300.0 0.9327851062 0.3639601743
10000240000.0 0.9376647255 0.3515524104
10050239700.0 0.9436617539 0.3356808256
10100239400.0 0.9491743434 0.3190561682
10150239100.0 0.9539304808 0.303467265
10200238800.0 0.9581234265 0.2879366017
10250238500.0 0.9614955321 0.2745471752
10300238200.0 0.9647951648 0.2605582777
10350237900.0 0.9674835893 0.2471197981
10400237600.0 0.9700114234 0.2338557
10450237300.0 0.9729155469 0.2201860699
10500237000.0 0.9748776266 0.207756994
10550236700.0 0.9774894507 0.1928091383
10600236400.0 0.9790570226 0.1791151046
10650236100.0 0.9812844275 0.1646737446
10700235800.0 0.9839216089 0.1522942216
10750235500.0 0.9858478726 0.1392059027
10800235200.0 0.9879832393 0.1243635455
10850234900.0 0.9900455155 0.1097002334
10900234600.0 0.9923278126 0.0947255939
10950234300.0 0.9939516265 0.0810978316
11000234000.0 0.9956873261 0.0657396304
11050233700.0 0.9975335098 0.0487996382
11100233400.0 0.9988585715 0.0314412445
11150233100.0 1.000208258 0.0139662849
11200232800.0 1.000809307 -0.0012753597
11250232500.0 1.001894339 -0.0200878447
11300232200.0 1.001569505 -0.0382181763
11350231900.0 1.001768332 -0.0540285498
11400231600.0 1.001987333 -0.0710166519
11450231300.0 1.000922959 -0.0856407031
11500231000.0 0.9996940955 -0.1017228988
11550230700.0 0.9980989092 -0.1148612324
11600230400.0 0.9971424461 -0.1285929457
11650230100.0 0.9948446856 -0.139493905
11700229800.0 0.9926606793 -0.1547818248
11750229500.0 0.9900299532 -0.1691228989
11800229200.0 0.9873652744 -0.1820304209
11850228900.0 0.9833847841 -0.1938662533
11900228600.0 0.9799507832 -0.2033584776
11950228300.0 0.9764820117 -0.2131843689
12000228000.0 0.9734624211 -0.2222804584
12050227700.0 0.9698302818 -0.2350624557
12100227400.0 0.9670821605 -0.2456259511
12150227100.0 0.9618335638 -0.262232785
12200226800.0 0.9576917692 -0.2733960379
12250226500.0 0.9536096436 -0.2863639939
12300226200.0 0.9494927831 -0.2984090215
12350225900.0 0.944030847 -0.3123748383
12400225600.0 0.9402572506 -0.3249588388
12450225300.0 0.9357665828 -0.3369433106
12500225000.0 0.9302869357 -0.3520422601
12550224700.0 0.9247595945 -0.3656911326
12600224400.0 0.9198523112 -0.3781592103
12650224100.0 0.9139439481 -0.3926156859
12700223800.0 0.9087691106 -0.4055456389
12750223500.0 0.9032677772 -0.4186518656
12800223200.0 0.8977589261 -0.4312357131
12850222900.0 0.892732922 -0.4433052957
12900222600.0 0.8874780494 -0.4552950489
12950222300.0 0.8810563024 -0.4681225641
13000222000.0 0.8747682687 -0.4793592367
13050221700.0 0.8680833568 -0.4924536976
13100221400.0 0.8612825894 -0.5044353742
13150221100.0 0.8544405367 -0.5171059977
13200220800.0 0.8477164654 -0.5278932881
13250220500.0 0.8402514169 -0.5403684673
13300220200.0 0.8327597448 -0.5510922699
13350219900.0 0.8245301067 -0.5633741295
13400219600.0 0.8161669008 -0.5751239092
13450219300.0 0.8067629874 -0.5881975641
13500219000.0 0.7971751628 -0.6009607958
13550218700.0 0.7872142695 -0.6136696842
13600218400.0 0.7776913727 -0.6255338788
13650218100.0 0.7689378977 -0.6354119174
13700217800.0 0.7571541633 -0.6482179926
13750217500.0 0.7473005517 -0.6585440561
13800217200.0 0.7368180672 -0.6699231899
13850216900.0 0.7256910682 -0.6814275571
13900216600.0 0.715742989 -0.689807417
13950216300.0 0.7056968838 -0.7001583571
14000216000.0 0.6951586773 -0.7086932171
14050215700.0 0.6862328785 -0.7169596002
14100215400.0 0.6764834347 -0.7261507185
14150215100.0 0.6677125435 -0.734638176
14200214800.0 0.6581519566 -0.7437211699
14250214500.0 0.6478730541 -0.7532912088
14300214200.0 0.6372893383 -0.7626737365
14350213900.0 0.6262889263 -0.7725359163
14400213600.0 0.614540892 -0.7822727955
14450213300.0 0.6012675953 -0.7921599333
14500213000.0 0.5884373151 -0.802336194
14550212700.0 0.5762856616 -0.8117504151
14600212400.0 0.5634388258 -0.820372102
14650212100.0 0.5514413221 -0.8290467052
14700211800.0 0.5373714549 -0.8384640865
14750211500.0 0.5253172485 -0.8470644342
14800211200.0 0.5122383121 -0.8551306287
14850210900.0 0.5000236349 -0.8628406864
14900210600.0 0.4868083367 -0.8708619498
14950210300.0 0.4735224302 -0.8784731629
15000210000.0 0.4608889474 -0.8852907736
15050209700.0 0.4489590642 -0.8911759379
15100209400.0 0.436054725 -0.8970090588
15150209100.0 0.4236287752 -0.9022649207
15200208800.0 0.4103458913 -0.9074350928
15250208500.0 0.4001592356 -0.9131881678
15300208200.0 0.3873744525 -0.917115367
15350207900.0 0.3749310451 -0.9213903509
15400207600.0 0.3602349909 -0.9271122359
15450207300.0 0.3450137058 -0.932089708
15500207000.0 0.3311614412 -0.937049939
15550206700.0 0.3160872174 -0.9419040266
15600206400.0 0.2998366813 -0.9464823097
15650206100.0 0.2834730439 -0.9503994619
15700205800.0 0.2707361645 -0.9542354829
15750205500.0 0.2566636962 -0.9576137287
15800205200.0 0.2424894497 -0.9611552046
15850204900.0 0.22844208 -0.9644329081
15900204600.0 0.213539375 -0.968156443
15950204300.0 0.1988241959 -0.9712569047
16000204000.0 0.1847294855 -0.9742229303
16050203700.0 0.1695360292 -0.9775426925
16100203400.0 0.1543959998 -0.9798077436
16150203100.0 0.1396902621 -0.9821938961
16200202800.0 0.1252433063 -0.984096438
16250202500.0 0.1103947823 -0.9858013448
16300202200.0 0.0954392891 -0.9873081049
16350201900.0 0.0799879392 -0.9889689301
16400201600.0 0.0655086773 -0.9902301464
16450201300.0 0.0501199493 -0.9909706967
16500201000.0 0.0329116635 -0.9919749712
16550200700.0 0.0167065927 -0.9924198714
16600200400.0 0.0008398095 -0.9925934591
16650200100.0 -0.0153907757 -0.992672073
16700199800.0 -0.031833469 -0.9919709462
16750199500.0 -0.0508478258 -0.9914176255
16800199200.0 -0.0665216783 -0.990663131
16850198900.0 -0.0817960671 -0.9894212883
16900198600.0 -0.0968045624 -0.988591522
16950198300.0 -0.1092188776 -0.9869534804
17000198000.0 -0.1230877262 -0.9860232159
17050197700.0 -0.1351170727 -0.9844090946
17100197400.0 -0.1488286618 -0.9821468893
17150197100.0 -0.16131551 -0.9802187035
17200196800.0 -0.1740209839 -0.9780908906
17250196500.0 -0.1871211187 -0.9752874802
17300196200.0 -0.199440672 -0.9729833096
17350195900.0 -0.2112356622 -0.9706895092
17400195600.0 -0.2231829259 -0.968051815
17450195300.0 -0.2360783868 -0.9652196945
17500195000.0 -0.2491645487 -0.9619308213
17550194700.0 -0.2631263421 -0.9582998983
17600194400.0 -0.2768028467 -0.954761246
17650194100.0 -0.2905475013 -0.9503982369
17700193800.0 -0.3034723548 -0.94617892
17750193500.0 -0.3177896611 -0.9413689625
17800193200.0 -0.3315805389 -0.9362938008
17850192900.0 -0.3465477273 -0.9312385095
17900192600.0 -0.3615656973 -0.9248905821
17950192300.0 -0.3772506029 -0.9179043019
18000192000.0 -0.39162546 -0.9105974322
18050191700.0 -0.4058429557 -0.9026586112
18100191400.0 -0.4197814295 -0.8949406356
18150191100.0 -0.4347337242 -0.8870678786
18200190800.0 -0.4514648992 -0.8778246271
18250190500.0 -0.4683656859 -0.8684157878
18300190200.0 -0.4841350821 -0.8594071458
18350189900.0 -0.4990460051 -0.8511630205
18400189600.0 -0.5138978604 -0.8430200713
18450189300.0 -0.5273386628 -0.8351183274
18500189000.0 -0.5406891884 -0.8267129165
18550188700.0 -0.5536839592 -0.8189680649
18600188400.0 -0.5652817956 -0.8121457333
18650188100.0 -0.5765585974 -0.8057177922
18700187800.0 -0.5874024796 -0.7990768943
18750187500.0 -0.5984277198 -0.792382373
18800187200.0 -0.6091936309 -0.7852956904
18850186900.0 -0.619293788 -0.7785990579
18900186600.0 -0.6295467859 -0.7711137302
18950186300.0 -0.6398402201 -0.7634724643
19000186000.0 -0.6471237866 -0.7570917685
19050185700.0 -0.6564044258 -0.750203738
19100185400.0 -0.6667493058 -0.7416309108
19150185100.0 -0.6766472272 -0.7336562426
19200184800.0 -0.6866106932 -0.7247970501
19250184500.0 -0.6964314247 -0.7149660455
19300184200.0 -0.7078252779 -0.7060630782
19350183900.0 -0.7187925425 -0.6970317026
19400183600.0 -0.7286802377 -0.6868692475
19450183300.0 -0.737409191 -0.6764162173
19500183000.0 -0.7457643663 -0.6662430911
19550182700.0 -0.7557060086 -0.6559775435
19600182400.0 -0.7658018297 -0.6439594537
19650182100.0 -0.7761527859 -0.6316349059
19700181800.0 -0.7868962405 -0.6187163016
19750181500.0 -0.7969345956 -0.6044236038
19800181200.0 -0.8071633742 -0.5894787347
19850180900.0 -0.8167645718 -0.5742468151
19900180600.0 -0.8245620159 -0.5595497167
19950180300.0 -0.8337584871 -0.5431936086
20000180000.0 -0.8233638693 -0.5467969403
20050179700.0 -0.8308796344 -0.5341555008
20100179400.0 -0.8394629493 -0.5214057306
20150179100.0 -0.8471906592 -0.5097147312
20200178800.0 -0.8553149085 -0.4986833284
20250178500.0 -0.8656217869 -0.4853917028
20300178200.0 -0.8750738779 -0.4718540963
20350177900.0 -0.8843163021 -0.457764871
20400177600.0 -0.8933633566 -0.4436773326
20450177300.0 -0.9017862425 -0.429646429
20500177000.0 -0.9100099422 -0.4154617156
20550176700.0 -0.91759018 -0.4020160196
20600176400.0 -0.9247807073 -0.3892548539
20650176100.0 -0.9310412433 -0.376684372
20700175800.0 -0.9383017208 -0.3653224844
20750175500.0 -0.9456544638 -0.3531150235
20800175200.0 -0.9489318391 -0.3422897561
20850174900.0 -0.9541051682 -0.3324359829
20900174600.0 -0.9574364427 -0.3207325646
20950174300.0 -0.9608858965 -0.3094898822
21000174000.0 -0.9642793745 -0.2992130933
21050173700.0 -0.9653606676 -0.2899471391
21100173400.0 -0.968748895 -0.2790656858
21150173100.0 -0.972602464 -0.267768614
21200172800.0 -0.9765438746 -0.2541671299
21250172500.0 -0.9802469596 -0.2404486504
21300172200.0 -0.9836389272 -0.2263159111
21350171900.0 -0.9861145325 -0.2122182093
21400171600.0 -0.9881214376 -0.1981873828
21450171300.0 -0.9882244072 -0.1834658185
21500171000.0 -0.988847579 -0.1688306599
21550170700.0 -0.9898460219 -0.1538473064
21600170400.0 -0.9900186075 -0.1372820639
21650170100.0 -0.990342978 -0.1233590442
21700169800.0 -0.9908308511 -0.1068137909
21750169500.0 -0.990177476 -0.0904486183
21800169200.0 -0.9897947033 -0.0742471305
21850168900.0 -0.990579848 -0.0580730086
21900168600.0 -0.9898933057 -0.0421076436
21950168300.0 -0.9895304676 -0.0264233927
22000168000.0 -0.9895115553 -0.0110827131
22050167700.0 -0.9901933558 0.0036969573
22100167400.0 -0.990699562 0.0192072577
22150167100.0 -0.991713759 0.0354543138
22200166800.0 -0.9916735814 0.0522809158
22250166500.0 -0.9916330803 0.0689316728
22300166200.0 -0.9914451701 0.0860617931
22350165900.0 -0.989392345 0.102082465
22400165600.0 -0.9891459862 0.1178130707
22450165300.0 -0.9869858643 0.132613395
22500165000.0 -0.9848700629 0.1474306458
22550164700.0 -0.9837836454 0.1630329259
22600164400.0 -0.980268832 0.1792739263
22650164100.0 -0.9787571395 0.196090684
22700163800.0 -0.9752164321 0.2109683507
22750163500.0 -0.9723566561 0.2263035233
22800163200.0 -0.9692890009 0.2389981899
22850162900.0 -0.966522885 0.2526136711
22900162600.0 -0.9648724055 0.2668232406
22950162300.0 -0.9631837325 0.2802275853
23000162000.0 -0.9615134113 0.292814996
23050161700.0 -0.9587651607 0.3067753594
23100161400.0 -0.9559245929 0.3199762347
23150161100.0 -0.9528186795 0.333100783
23200160800.0 -0.9500407764 0.3459955774
23250160500.0 -0.9471363929 0.359035366
23300160200.0 -0.9446932444 0.3716250817
23350159900.0 -0.9402632788 0.3851556445
23400159600.0 -0.9351417287 0.3993108632
23450159300.0 -0.9302677545 0.4122145524
23500159000.0 -0.9254895434 0.4264296392
23550158700.0 -0.9200593575 0.4401447975
23600158400.0 -0.9140468031 0.4542294225
23650158100.0 -0.9066614179 0.4688305094
23700157800.0 -0.8982365762 0.4832349361
23750157500.0 -0.8885111933 0.4976815925
23800157200.0 -0.8786410748 0.5108177505
23850156900.0 -0.8692419919 0.5239475646
23900156600.0 -0.8587747178 0.5369237081
23950156300.0 -0.8490365438 0.5486267514
24000156000.0 -0.8392846532 0.5617123667
24050155700.0 -0.8294612306 0.5739183095
24100155400.0 -0.8182079285 0.5858837552
24150155100.0 -0.8080764348 0.5980168925
24200154800.0 -0.796773474 0.610025614
24250154500.0 -0.785764016 0.6225012214
24300154200.0 -0.7737943988 0.6344852308
24350153900.0 -0.7616332691 0.6460088497
24400153600.0 -0.7492734409 0.6565265467
24450153300.0 -0.7369864965 0.6668400325
24500153000.0 -0.7255362066 0.6769408378
24550152700.0 -0.7139747819 0.6869167245
24600152400.0 -0.7019358427 0.6965414957
24650152100.0 -0.690493209 0.7041944041
