!Created with skrf (http://scikit-rf.org).
# Hz S RI R 50.0 
!freq ReS11 ImS11
300000.0 -0.9775647469 -0.1099326128
50299700.0 -1.000140014 0.015985154
100299400.0 -0.9979899374 0.0288567413
150299100.0 -1.002812621 0.045776281
200298800.0 -0.9996296195 0.0590754052
250298500.0 -0.9974730648 0.0725658804
300298200.0 -0.9860834486 0.0883088026
350297900.0 -0.9938974695 0.0991181622
400297600.0 -0.9933889665 0.1159637719
450297300.0 -0.9911094979 0.1297531424
500297000.0 -0.9893550816 0.1444997924
550296700.0 -0.9843563147 0.1568578324
600296400.0 -1.017148667 0.1902638568
650296100.0 -0.9821130153 0.1868805905
700295800.0 -0.9791422139 0.2011974717
750295500.0 -0.9763763001 0.2151216612
800295200.0 -0.972856784 0.2293943731
850294900.0 -0.9696173134 0.2431177646
900294600.0 -0.9657388073 0.2568879249
950294300.0 -0.9621196154 0.2707093502
1000294000.0 -0.9579363052 0.284602418
1050293700.0 -0.9535111102 0.2980945286
1100293400.0 -0.9491123473 0.3127419433
1150293100.0 -0.9452649906 0.3245851285
1200292800.0 -0.9400325604 0.3389138512
1250292500.0 -0.934569199 0.352399179
1300292200.0 -0.9286805038 0.3656403101
1350291900.0 -0.9231557853 0.3795486516
1400291600.0 -0.9177367771 0.3926522083
1450291300.0 -0.9119751885 0.4049802367
1500291000.0 -0.9059733061 0.4185544247
1550290700.0 -0.8994775643 0.4317068859
1600290400.0 -0.8932181111 0.4444671852
1650290100.0 -0.8864122697 0.4570210576
1700289800.0 -0.8797765197 0.4702000476
1750289500.0 -0.8725703205 0.4826240349
1800289200.0 -0.8652649798 0.495488676
1850288900.0 -0.8585253044 0.506752419
1900288600.0 -0.8506185439 0.5197902301
1950288300.0 -0.8424623108 0.5322018001
2000288000.0 -0.8350372102 0.5436345741
2050287700.0 -0.8268881858 0.5558894371
2100287400.0 -0.8189003052 0.5676239972
2150287100.0 -0.8101622063 0.579746751
2200286800.0 -0.8025345409 0.5900218046
2250286500.0 -0.7936243737 0.6020464244
2300286200.0 -0.7846126464 0.6137607313
2350285900.0 -0.7756909568 0.6248078001
2400285600.0 -0.7670985728 0.6357220774
2450285300.0 -0.7582931542 0.6462871903
2500285000.0 -0.7485495767 0.6572488619
2550284700.0 -0.7396027307 0.667686091
2600284400.0 -0.7301399958 0.6777211337
2650284100.0 -0.7212555963 0.6886671587
2700283800.0 -0.7104800987 0.6989776694
2750283500.0 -0.7001168616 0.7095124833
2800283200.0 -0.6906062756 0.7191421781
2850282900.0 -0.6803293014 0.7289261014
2900282600.0 -0.6701306163 0.7388481133
2950282300.0 -0.65996056 0.7478825062
3000282000.0 -0.6491135811 0.7573332488
3050281700.0 -0.6380546351 0.7666761098
3100281400.0 -0.6260925652 0.7759008352
3150281100.0 -0.6140762225 0.7853276661
3200280800.0 -0.6025529955 0.7938632694
3250280500.0 -0.5918289581 0.8014823821
3300280200.0 -0.5804658504 0.8093222967
3350279900.0 -0.5690975385 0.8168614212
3400279600.0 -0.5569911089 0.8243887301
3450279300.0 -0.5459381722 0.8317045031
3500279000.0 -0.53386281 0.8388804309
3550278700.0 -0.5214880795 0.8459202359
3600278400.0 -0.5092498141 0.8532418134
3650278100.0 -0.496020123 0.8608476643
3700277800.0 -0.4835853717 0.8674180484
3750277500.0 -0.4717360619 0.8738710328
3800277200.0 -0.4590498511 0.880362212
3850276900.0 -0.4469073461 0.886381878
3900276600.0 -0.4359107918 0.8918702124
3950276300.0 -0.4232949333 0.8978998276
4000276000.0 -0.4114320986 0.9038487315
4050275700.0 -0.3985935008 0.9101060021
4100275400.0 -0.3871921914 0.9155490492
4150275100.0 -0.3745281637 0.9211366486
4200274800.0 -0.3615944079 0.9265932056
4250274500.0 -0.3494017586 0.9319508103
4300274200.0 -0.3363504369 0.936786973
4350273900.0 -0.3225636153 0.9424347858
4400273600.0 -0.3078040422 0.9475040268
4450273300.0 -0.2922885 0.9524784131
4500273000.0 -0.278674129 0.9568298537
4550272700.0 -0.2643603282 0.9611547309
4600272400.0 -0.24899435 0.9652782669
4650272100.0 -0.2372767007 0.9686208013
4700271800.0 -0.2240604189 0.9719586513
4750271500.0 -0.2121786584 0.9746523624
4800271200.0 -0.1998047182 0.9775067469
4850270900.0 -0.1857841931 0.9802022846
4900270600.0 -0.1722052327 0.9827407694
4950270300.0 -0.157734639 0.9853518665
5000270000.0 -0.1435722301 0.9873918453
5050269700.0 -0.1301487 0.9891127494
5100269400.0 -0.1164661625 0.9906435073
5150269100.0 -0.1034809961 0.9919648311
5200268800.0 -0.0899820468 0.9930578872
5250268500.0 -0.0769902984 0.9944850897
5300268200.0 -0.0638199839 0.9947166857
5350267900.0 -0.0516917396 0.9953313133
5400267600.0 -0.0355166052 0.996704896
5450267300.0 -0.0224531665 0.996711168
5500267000.0 -0.0071342209 0.9971093262
5550266700.0 0.0079752625 0.997322641
5600266400.0 0.0233877722 0.9971831736
5650266100.0 0.0400181903 0.9969476386
5700265800.0 0.0542931025 0.9959108312
5750265500.0 0.0697181546 0.9954251149
5800265200.0 0.0838162809 0.9945733453
5850264900.0 0.0969541378 0.9933459179
5900264600.0 0.1136425797 0.9919166366
5950264300.0 0.1255475911 0.990012649
6000264000.0 0.1394827249 0.9878786568
6050263700.0 0.1520124612 0.9866592284
6100263400.0 0.1646438177 0.9847532313
6150263100.0 0.1789694082 0.9822860532
6200262800.0 0.1895625056 0.9804737528
6250262500.0 0.2022240503 0.978027139
6300262200.0 0.2150216977 0.9754256082
6350261900.0 0.2281106361 0.9722609852
6400261600.0 0.2420636256 0.9689378324
6450261300.0 0.2534244702 0.9662025561
6500261000.0 0.2662657686 0.9630668469
6550260700.0 0.2788925817 0.9588238558
6600260400.0 0.292540563 0.9550428957
6650260100.0 0.3061725105 0.9504363376
6700259800.0 0.3183914407 0.9462001525
6750259500.0 0.3322564078 0.9411999794
6800259200.0 0.3451752507 0.9362861706
6850258900.0 0.3568071813 0.9309275944
6900258600.0 0.3693293299 0.9262113215
6950258300.0 0.3816864525 0.9207216599
7000258000.0 0.3939404195 0.9153367764
7050257700.0 0.4060314494 0.909372129
7100257400.0 0.4187978287 0.9032219896
7150257100.0 0.4289399078 0.8977851177
7200256800.0 0.442042559 0.8914298199
7250256500.0 0.4538812071 0.885236551
7300256200.0 0.4666950117 0.8783642806
7350255900.0 0.4791654539 0.8713795753
7400255600.0 0.492143574 0.8640010722
7450255300.0 0.5079033686 0.855293741
7500255000.0 0.5190875234 0.8481435767
7550254700.0 0.5330000927 0.8396031867
7600254400.0 0.5454904397 0.8311507981
7650254100.0 0.5574620159 0.8236385693
7700253800.0 0.5693633505 0.8153966551
7750253500.0 0.5801512316 0.8074533288
7800253200.0 0.5909326441 0.799888162
7850252900.0 0.6008211418 0.7928076158
7900252600.0 0.6125911533 0.7841202662
7950252300.0 0.6213112546 0.7773854891
8000252000.0 0.631518005 0.7697531043
8050251700.0 0.64203583 0.761414755
8100251400.0 0.6526416974 0.7531632441
8150251100.0 0.6623954134 0.7443826666
8200250800.0 0.67185978 0.7367287388
8250250500.0 0.6804511996 0.7286752879
8300250200.0 0.6901527158 0.7201844266
8350249900.0 0.6991733532 0.7113845549
8400249600.0 0.70711039 0.7031663182
8450249300.0 0.7165604419 0.6940367504
8500249000.0 0.7250867892 0.685208611
8550248700.0 0.7332665329 0.6762446217
8600248400.0 0.7415496025 0.666778913
8650248100.0 0.7492195825 0.6572728729
8700247800.0 0.7588622798 0.6461357574
8750247500.0 0.7670587206 0.6358376325
8800247200.0 0.7754023624 0.6256647085
8850246900.0 0.7839375727 0.6144667378
8900246600.0 0.7926888941 0.6029596201
8950246300.0 0.8021537842 0.5900074051
9000246000.0 0.8114151979 0.5771473042
9050245700.0 0.820412452 0.5640226408
9100245400.0 0.8290096727 0.5516489367
9150245100.0 0.8384041185 0.5380534872
9200244800.0 0.8482704785 0.522719552
9250244500.0 0.8577227288 0.5071078441
9300244200.0 0.8660861812 0.4921825411
9350243900.0 0.8739109693 0.4784766182
9400243600.0 0.8804024286 0.4660435887
9450243300.0 0.8863896069 0.4541838214
9500243000.0 0.8928433405 0.4419138366
9550242700.0 0.8964494408 0.4343876885
9600242400.0 0.900325695 0.4268769316
9650242100.0 0.9039678275 0.420163179
9700241800.0 0.908480953 0.412201481
9750241500.0 0.9122191105 0.4047421289
9800241200.0 0.916925187 0.3955259948
9850240900.0 0.922584003 0.3840800841
9900240600.0 0.927978687 0.3725006094
9950240300.0 0.9348909414 0.3560862002
10000240000.0 0.9395361801 0.3446773612
10050239700.0 0.9449887379 0.3295165064
10100239400.0 0.9500725388 0.3137358013
10150239100.0 0.9544206562 0.29934244
10200238800.0 0.9585607679 0.2842837657
10250238500.0 0.9619543619 0.2710118115
10300238200.0 0.9649152184 0.2570072684
10350237900.0 0.9675665646 0.2438439794
10400237600.0 0.9702926226 0.2306515799
10450237300.0 0.9728494335 0.2170680395
10500237000.0 0.9747653709 0.2053199012
10550236700.0 0.9770962672 0.1911649709
10600236400.0 0.979056835 0.1781090139
10650236100.0 0.9815129393 0.1630093219
10700235800.0 0.9838693939 0.1505169899
10750235500.0 0.985732217 0.1377399754
10800235200.0 0.987993274 0.1234949373
10850234900.0 0.9896634871 0.1090133991
10900234600.0 0.9918499414 0.0942144966
10950234300.0 0.9936147876 0.0808587941
11000234000.0 0.9951830346 0.0660177429
11050233700.0 0.9969932916 0.0496282852
11100233400.0 0.9984261315 0.0322176138
11150233100.0 0.9994364038 0.0160932191
11200232800.0 1.000343921 0.0008948007
11250232500.0 1.001101706 -0.0157722344
11300232200.0 1.00172935 -0.0339967913
11350231900.0 1.001881072 -0.0496338405
11400231600.0 1.000564846 -0.0647747199
11450231300.0 1.000950264 -0.0803258921
11500231000.0 0.999583961 -0.0974601507
11550230700.0 0.9979597359 -0.1107439711
11600230400.0 0.9965453825 -0.1231054763
11650230100.0 0.9951786952 -0.1346732187
11700229800.0 0.992778032 -0.1497243219
11750229500.0 0.9903229352 -0.1637053566
11800229200.0 0.9876506032 -0.1782466618
11850228900.0 0.9841035289 -0.1901579383
11900228600.0 0.9808295358 -0.2003187381
11950228300.0 0.9774290334 -0.2105707536
12000228000.0 0.974421502 -0.2194768919
12050227700.0 0.9706053862 -0.232794635
12100227400.0 0.9674430513 -0.2436263353
12150227100.0 0.9628198079 -0.2596601302
12200226800.0 0.9589384953 -0.2709333168
12250226500.0 0.9555903568 -0.2829105537
12300226200.0 0.9508864509 -0.2949680796
12350225900.0 0.9460892634 -0.3092334544
12400225600.0 0.9412426119 -0.322120399
12450225300.0 0.9374135385 -0.3351305415
12500225000.0 0.9319827855 -0.3499145557
12550224700.0 0.9265960074 -0.3630285007
12600224400.0 0.9218460792 -0.3758918135
12650224100.0 0.9159804652 -0.3904482813
12700223800.0 0.9107655009 -0.4030057347
12750223500.0 0.9051114179 -0.4160897303
12800223200.0 0.9000422339 -0.4282582786
12850222900.0 0.8946406806 -0.4407629168
12900222600.0 0.8888424193 -0.4528477825
12950222300.0 0.8827199885 -0.4652359509
13000222000.0 0.8770200554 -0.476624453
13050221700.0 0.8698342073 -0.4899837426
13100221400.0 0.8631180692 -0.5013027824
13150221100.0 0.8564654637 -0.5139624269
13200220800.0 0.8489936933 -0.5254524417
13250220500.0 0.8418945044 -0.5378199723
13300220200.0 0.8344618799 -0.5484973445
13350219900.0 0.8263615268 -0.560669801
13400219600.0 0.8177593095 -0.5729462804
13450219300.0 0.8085277894 -0.5867785326
13500219000.0 0.7973820292 -0.6010336546
13550218700.0 0.7872729326 -0.6134466484
13600218400.0 0.7774423437 -0.6260078259
13650218100.0 0.7677747442 -0.6368604709
13700217800.0 0.7563792807 -0.648926723
13750217500.0 0.7463249004 -0.6609397677
13800217200.0 0.7355593847 -0.6718577847
13850216900.0 0.7240929203 -0.6838129132
13900216600.0 0.7143776182 -0.6923309444
13950216300.0 0.7032682061 -0.7022240232
14000216000.0 0.6933061749 -0.712652635
14050215700.0 0.6838005644 -0.7201682234
14100215400.0 0.6744142333 -0.7290676214
14150215100.0 0.6652842328 -0.7378742666
14200214800.0 0.6558009756 -0.7465306211
14250214500.0 0.6456660483 -0.7555691457
14300214200.0 0.6351193417 -0.7647328231
14350213900.0 0.624288507 -0.7742741122
14400213600.0 0.6123320728 -0.7841411079
14450213300.0 0.599894806 -0.7943361291
14500213000.0 0.5865983146 -0.803898249
14550212700.0 0.5739081317 -0.8136714069
14600212400.0 0.5615596654 -0.8220364553
14650212100.0 0.5486441922 -0.8311763563
14700211800.0 0.5342435127 -0.840167482
14750211500.0 0.5224541424 -0.8488982773
14800211200.0 0.5101094112 -0.8564222433
14850210900.0 0.4980871448 -0.8642597993
14900210600.0 0.4847729299 -0.8719756154
14950210300.0 0.4710757186 -0.8797656762
15000210000.0 0.4580090198 -0.8865171341
15050209700.0 0.4456750696 -0.8924931902
15100209400.0 0.4328712733 -0.8984675254
15150209100.0 0.4206410514 -0.9038660966
15200208800.0 0.4068255639 -0.9093621485
15250208500.0 0.3962246848 -0.9136118381
15300208200.0 0.3840683376 -0.9187654424
15350207900.0 0.3707924941 -0.922681045
15400207600.0 0.3560840332 -0.9290757153
15450207300.0 0.3415510213 -0.9338429863
15500207000.0 0.3264751799 -0.9382259924
15550206700.0 0.3119179954 -0.9431601879
15600206400.0 0.2960088515 -0.9476568744
15650206100.0 0.2801121779 -0.9521027425
15700205800.0 0.2662901442 -0.9558485959
15750205500.0 0.2514444574 -0.9592661987
15800205200.0 0.2371561387 -0.9627614569
15850204900.0 0.2226788202 -0.9661747179
15900204600.0 0.2077628069 -0.9696718714
15950204300.0 0.1937725875 -0.972614818
16000204000.0 0.1798857474 -0.9754770565
16050203700.0 0.1651785183 -0.9782660575
16100203400.0 0.150690424 -0.9802361407
16150203100.0 0.1359684238 -0.9825914227
16200202800.0 0.1222373884 -0.9849199874
16250202500.0 0.1079391971 -0.9865754795
16300202200.0 0.0922814664 -0.9875194538
16350201900.0 0.0777937013 -0.9891318249
16400201600.0 0.062836372 -0.990414984
16450201300.0 0.0478759811 -0.991275427
16500201000.0 0.0311027674 -0.9919713908
16550200700.0 0.0156291459 -0.992532013
16600200400.0 -0.00047123 -0.9926643474
16650200100.0 -0.0164338456 -0.992719251
16700199800.0 -0.0331843185 -0.9922283733
16750199500.0 -0.051766399 -0.9917126152
16800199200.0 -0.0674025101 -0.9907007197
16850198900.0 -0.0823931279 -0.9893803306
16900198600.0 -0.0963232125 -0.9881009122
16950198300.0 -0.110263957 -0.9872420844
17000198000.0 -0.1229501063 -0.985524607
17050197700.0 -0.1356379997 -0.9844717961
17100197400.0 -0.1483783543 -0.9816887943
17150197100.0 -0.1611538371 -0.9799270172
17200196800.0 -0.1738256362 -0.9774073082
17250196500.0 -0.1868149329 -0.9752096502
17300196200.0 -0.1990411699 -0.9728451878
17350195900.0 -0.2109010242 -0.9706784344
17400195600.0 -0.223333315 -0.9681287224
17450195300.0 -0.2362824599 -0.9653124605
17500195000.0 -0.2495447194 -0.9620980389
17550194700.0 -0.2636894582 -0.958151211
17600194400.0 -0.2776635538 -0.9545735316
17650194100.0 -0.2913495594 -0.9503881241
17700193800.0 -0.3041869809 -0.94632577
17750193500.0 -0.3189214064 -0.9414545591
17800193200.0 -0.3329143716 -0.9365856662
17850192900.0 -0.3477839026 -0.9308489622
17900192600.0 -0.3629662425 -0.924801413
17950192300.0 -0.3785866944 -0.917628436
18000192000.0 -0.3933025044 -0.9104745759
18050191700.0 -0.4069033147 -0.9026235553
18100191400.0 -0.4213531565 -0.8949980845
18150191100.0 -0.4361601649 -0.8868564451
18200190800.0 -0.4530968789 -0.8776771248
18250190500.0 -0.470030595 -0.8684933021
18300190200.0 -0.4853525485 -0.859302514
18350189900.0 -0.5002167664 -0.8508993624
18400189600.0 -0.5151080298 -0.8425521778
18450189300.0 -0.5282517852 -0.8342781983
18500189000.0 -0.5411056812 -0.8264055086
18550188700.0 -0.5538385167 -0.8188022554
18600188400.0 -0.5658513022 -0.811999823
18650188100.0 -0.5769575545 -0.8054663296
18700187800.0 -0.5878929705 -0.7988061159
18750187500.0 -0.5984303281 -0.7923365973
18800187200.0 -0.6090509238 -0.7851620079
18850186900.0 -0.6196134927 -0.7781484044
18900186600.0 -0.6299756254 -0.7706056454
18950186300.0 -0.6401678028 -0.7626311991
19000186000.0 -0.6475133799 -0.7563722265
19050185700.0 -0.65638564 -0.7492941353
19100185400.0 -0.6664427936 -0.7411633109
19150185100.0 -0.676930052 -0.7321340653
19200184800.0 -0.6863781974 -0.7238472251
19250184500.0 -0.6966071141 -0.7148138064
19300184200.0 -0.7080828809 -0.7050958488
19350183900.0 -0.7188773597 -0.6951140735
19400183600.0 -0.7282808807 -0.6858707036
19450183300.0 -0.7372227332 -0.6754410741
19500183000.0 -0.7453974574 -0.6655311608
19550182700.0 -0.7555733489 -0.6548346926
19600182400.0 -0.7657350807 -0.6433027992
19650182100.0 -0.7762715325 -0.6306543521
19700181800.0 -0.7871396444 -0.6175208686
19750181500.0 -0.7972246134 -0.6035205093
19800181200.0 -0.8073981219 -0.588719898
19850180900.0 -0.8171175243 -0.5732242603
19900180600.0 -0.8249370001 -0.5588068285
19950180300.0 -0.8341727291 -0.5429150078
20000180000.0 -0.8267911787 -0.54484949
20050179700.0 -0.8355628935 -0.5315645368
20100179400.0 -0.8432272349 -0.5179207495
20150179100.0 -0.852099921 -0.5057861324
20200178800.0 -0.8601916801 -0.4918972057
20250178500.0 -0.8699600965 -0.4787452662
20300178200.0 -0.8795400619 -0.4645043114
20350177900.0 -0.888559103 -0.4501332816
20400177600.0 -0.8974112784 -0.4355802717
20450177300.0 -0.905432955 -0.421238928
20500177000.0 -0.9132283199 -0.4072745931
20550176700.0 -0.9213707813 -0.3937228433
20600176400.0 -0.9285268019 -0.3806047801
20650176100.0 -0.935166285 -0.3678008681
20700175800.0 -0.9419997919 -0.355955264
20750175500.0 -0.9487965078 -0.3440901967
20800175200.0 -0.9525190298 -0.3332436323
20850174900.0 -0.958718453 -0.3222522466
20900174600.0 -0.9633831099 -0.3110878764
20950174300.0 -0.9665232825 -0.2980884352
21000174000.0 -0.9708293826 -0.2873728809
21050173700.0 -0.9736085623 -0.2762893359
21100173400.0 -0.9778580233 -0.2635834077
21150173100.0 -0.9812350383 -0.2514353887
21200172800.0 -0.9850121884 -0.2380083313
21250172500.0 -0.98781616 -0.224574546
21300172200.0 -0.990805229 -0.2101040785
21350171900.0 -0.9923934206 -0.1959409908
21400171600.0 -0.9938423525 -0.1811079121
21450171300.0 -0.9931971378 -0.16755683
21500171000.0 -0.993613634 -0.1522050811
21550170700.0 -0.9934298363 -0.1362742783
21600170400.0 -0.9935603194 -0.1205890307
21650170100.0 -0.9918498596 -0.1046850874
21700169800.0 -0.9899989699 -0.0909278916
21750169500.0 -0.9900440373 -0.0739883325
21800169200.0 -0.9872446216 -0.0570356847
21850168900.0 -0.9869633145 -0.0405642986
21900168600.0 -0.9853743056 -0.0251451975
21950168300.0 -0.9845137998 -0.0091539524
22000168000.0 -0.9828142106 0.0062190461
22050167700.0 -0.9823387946 0.0200311321
22100167400.0 -0.9823943181 0.0354035581
22150167100.0 -0.9829321326 0.0506311889
22200166800.0 -0.9835111717 0.0667719711
22250166500.0 -0.9828693512 0.0835700164
22300166200.0 -0.981918463 0.0997597374
22350165900.0 -0.9806556313 0.1173310202
22400165600.0 -0.979793589 0.1333170388
22450165300.0 -0.9779507323 0.1476233533
22500165000.0 -0.9754903103 0.1609060771
22550164700.0 -0.9740408975 0.1764676693
22600164400.0 -0.9724936592 0.1927273917
22650164100.0 -0.9711432638 0.2063473358
22700163800.0 -0.9678670366 0.2230806859
22750163500.0 -0.9650464043 0.2386700383
22800163200.0 -0.9617187697 0.2514579932
22850162900.0 -0.9601930014 0.2651777218
22900162600.0 -0.9588078097 0.2786687848
22950162300.0 -0.957696249 0.2910028342
23000162000.0 -0.9561195146 0.3026384505
23050161700.0 -0.9545698613 0.3152493645
23100161400.0 -0.9522324956 0.3280605621
23150161100.0 -0.9497918057 0.3406319729
23200160800.0 -0.9456628409 0.3524005372
23250160500.0 -0.9434059873 0.3642987894
23300160200.0 -0.9416117713 0.3758424683
23350159900.0 -0.937161354 0.3896928938
23400159600.0 -0.9323703546 0.4016054351
23450159300.0 -0.9282814135 0.4156055769
23500159000.0 -0.9232687776 0.4280860749
23550158700.0 -0.9190518999 0.4415533042
23600158400.0 -0.9136744766 0.4547053973
23650158100.0 -0.9070736141 0.4686997163
23700157800.0 -0.8994022791 0.4825628955
23750157500.0 -0.891313332 0.4967398728
23800157200.0 -0.8824614066 0.5096359622
23850156900.0 -0.8732104541 0.5221009366
23900156600.0 -0.8638294934 0.5348075186
23950156300.0 -0.8553722228 0.5470687441
24000156000.0 -0.8452966681 0.5600040225
24050155700.0 -0.8354595815 0.5708142369
24100155400.0 -0.8255644749 0.5830313771
24150155100.0 -0.8148565209 0.5951970156
24200154800.0 -0.8038824696 0.6057863082
24250154500.0 -0.7922973989 0.6179791741
24300154200.0 -0.7814447265 0.6293613534
24350153900.0 -0.7691880851 0.6398788246
24400153600.0 -0.7570571693 0.6504356645
24450153300.0 -0.745240786 0.6601599155
24500153000.0 -0.7335944454 0.6697467484
24550152700.0 -0.7225931053 0.6799474245
24600152400.0 -0.7113227133 0.6886130181
24650152100.0 -0.6987290055 0.6969976061
