!Created with skrf (http://scikit-rf.org).
# Hz S RI R 50.0 
!freq ReS11 ImS11
300000.0 -0.9755182199 -0.1215035341
50299700.0 -0.9998831473 0.0151773939
100299400.0 -0.9980402624 0.0280920904
150299100.0 -1.00283308 0.0450017954
200298800.0 -0.9995159713 0.0582860897
250298500.0 -0.9974528368 0.0718442526
300298200.0 -0.9858156415 0.0876028618
350297900.0 -0.9939893406 0.0983635583
400297600.0 -0.9930999343 0.115062321
450297300.0 -0.9909653898 0.1288422075
500297000.0 -0.9895176346 0.1433647854
550296700.0 -0.9842443517 0.1558599635
600296400.0 -1.017149095 0.1893037681
650296100.0 -0.9821579453 0.1859065425
700295800.0 -0.97945437 0.2000616267
750295500.0 -0.9762193848 0.2141390357
800295200.0 -0.9728415589 0.2281809718
850294900.0 -0.9696156241 0.2418963043
900294600.0 -0.9658421254 0.255815808
950294300.0 -0.9622033093 0.2694111346
1000294000.0 -0.958326389 0.2833056756
1050293700.0 -0.9535035798 0.2970555328
1100293400.0 -0.9492798308 0.3116734253
1150293100.0 -0.945369639 0.3235907652
1200292800.0 -0.940083934 0.3377841169
1250292500.0 -0.9346554651 0.351350443
1300292200.0 -0.9291518209 0.3645600486
1350291900.0 -0.9232992408 0.3785627203
1400291600.0 -0.91789597 0.3917618304
1450291300.0 -0.9123414817 0.4040859487
1500291000.0 -0.9062490951 0.4173635872
1550290700.0 -0.8996006409 0.4308971823
1600290400.0 -0.8933092721 0.4438331565
1650290100.0 -0.8867866589 0.4558762482
1700289800.0 -0.8799015011 0.4692997553
1750289500.0 -0.8727457771 0.481729835
1800289200.0 -0.8653426811 0.4944872852
1850288900.0 -0.8586318219 0.5060574398
1900288600.0 -0.8509458426 0.5188948737
1950288300.0 -0.8429768829 0.5314936463
2000288000.0 -0.8355481613 0.5428884441
2050287700.0 -0.827076917 0.555189365
2100287400.0 -0.8192553694 0.5667612244
2150287100.0 -0.8109229543 0.5788756107
2200286800.0 -0.8029343132 0.589138704
2250286500.0 -0.7940064874 0.6013131977
2300286200.0 -0.7851200788 0.61284803
2350285900.0 -0.7768173482 0.6236949354
2400285600.0 -0.767800622 0.634404854
2450285300.0 -0.7591715751 0.6451606409
2500285000.0 -0.7491465491 0.6566626376
2550284700.0 -0.7403119972 0.6670185375
2600284400.0 -0.7310452298 0.6770710644
2650284100.0 -0.7221258164 0.6872446486
2700283800.0 -0.7117968056 0.6977298215
2750283500.0 -0.7013855106 0.7084277933
2800283200.0 -0.6913935658 0.7181033138
2850282900.0 -0.6811473834 0.7281428256
2900282600.0 -0.6706644241 0.737870447
2950282300.0 -0.660339281 0.7473235934
3000282000.0 -0.6495284949 0.7567840853
3050281700.0 -0.6385429484 0.765975576
3100281400.0 -0.6267140687 0.7751394747
3150281100.0 -0.6153013403 0.7842301015
3200280800.0 -0.6038979841 0.7925589486
3250280500.0 -0.5928446166 0.8005637085
3300280200.0 -0.5812786254 0.808678816
3350279900.0 -0.5693250635 0.8163405142
3400279600.0 -0.5568442594 0.8244211346
3450279300.0 -0.5456644703 0.8314437954
3500279000.0 -0.5339279982 0.8383970505
3550278700.0 -0.521792112 0.845707987
3600278400.0 -0.5099647998 0.8524349325
3650278100.0 -0.4967092157 0.8601439346
3700277800.0 -0.4845774243 0.8666553961
3750277500.0 -0.4721682258 0.8733461172
3800277200.0 -0.4596447273 0.8799016004
3850276900.0 -0.4474426036 0.8856186408
3900276600.0 -0.4369567087 0.8912465971
3950276300.0 -0.4245098917 0.897081629
4000276000.0 -0.4129216107 0.903336161
4050275700.0 -0.4001956005 0.9093958636
4100275400.0 -0.3889426926 0.914541688
4150275100.0 -0.3758410323 0.9204595137
4200274800.0 -0.3625629303 0.9261540494
4250274500.0 -0.3501954434 0.9316825072
4300274200.0 -0.3370474415 0.9365290067
4350273900.0 -0.3227258077 0.9421288452
4400273600.0 -0.3082348488 0.947300797
4450273300.0 -0.2929776673 0.9521160351
4500273000.0 -0.2796357562 0.9566476984
4550272700.0 -0.2659920691 0.9606829777
4600272400.0 -0.250611036 0.9647345834
4650272100.0 -0.239335624 0.967971793
4700271800.0 -0.2262419003 0.9712198678
4750271500.0 -0.2146047469 0.9740959327
4800271200.0 -0.2022862654 0.9768211594
4850270900.0 -0.1884660598 0.9797025627
4900270600.0 -0.1746955569 0.9820506085
4950270300.0 -0.1603124195 0.9848230638
5000270000.0 -0.1457492298 0.986940352
5050269700.0 -0.1321372294 0.9882947979
5100269400.0 -0.1182578712 0.9900477536
5150269100.0 -0.1046098031 0.9917756461
5200268800.0 -0.0911878081 0.992739948
5250268500.0 -0.0780002726 0.9938627039
5300268200.0 -0.0643128496 0.9946050296
5350267900.0 -0.0517598679 0.9951131861
5400267600.0 -0.0357702674 0.9960440618
5450267300.0 -0.0223925958 0.9964555643
5500267000.0 -0.0069881036 0.9969637376
5550266700.0 0.0078188374 0.9972492886
5600266400.0 0.0235928283 0.9972987714
5650266100.0 0.0400897687 0.9966522882
5700265800.0 0.0542597391 0.9956247521
5750265500.0 0.0693610741 0.9949547092
5800265200.0 0.0834967751 0.9948616267
5850264900.0 0.0964649181 0.9932283395
5900264600.0 0.1127639917 0.9916725962
5950264300.0 0.1243775272 0.9896821504
6000264000.0 0.138229894 0.9882851517
6050263700.0 0.1503394336 0.9870064791
6100263400.0 0.1623012517 0.9846763342
6150263100.0 0.1768522282 0.9824806307
6200262800.0 0.1865179119 0.9808898785
6250262500.0 0.199296357 0.9787587461
6300262200.0 0.2119130429 0.9760077968
6350261900.0 0.2248676473 0.9732462551
6400261600.0 0.2386898301 0.9699282092
6450261300.0 0.2498352095 0.9674179937
6500261000.0 0.2628042367 0.9639917483
6550260700.0 0.2758722571 0.9599263307
6600260400.0 0.2894088119 0.9555531007
6650260100.0 0.3032754086 0.9511773509
6700259800.0 0.3156323134 0.9470714996
6750259500.0 0.3291792703 0.9421210186
6800259200.0 0.3424781557 0.9367899421
6850258900.0 0.3550955095 0.9316524939
6900258600.0 0.3675580644 0.9267735494
6950258300.0 0.3800142084 0.9213221814
7000258000.0 0.3916456303 0.9159597705
7050257700.0 0.4037346849 0.9100636669
7100257400.0 0.4169042512 0.9037308162
7150257100.0 0.4277122195 0.8984254639
7200256800.0 0.4406561378 0.8919269139
7250256500.0 0.4531006054 0.8853426085
7300256200.0 0.4659707558 0.8784344452
7350255900.0 0.4786689638 0.8717329757
7400255600.0 0.4923498142 0.8639703029
7450255300.0 0.5080732071 0.8551438501
7500255000.0 0.5203625432 0.8475621557
7550254700.0 0.5344758554 0.8388217234
7600254400.0 0.5466711756 0.8303721006
7650254100.0 0.5584382652 0.8226232694
7700253800.0 0.5703497141 0.8147987935
7750253500.0 0.5812965543 0.8068873921
7800253200.0 0.5921419684 0.7992798387
7850252900.0 0.6016056337 0.7920734124
7900252600.0 0.6131609995 0.7833593485
7950252300.0 0.6216465975 0.7768878434
8000252000.0 0.631545915 0.7691022169
8050251700.0 0.6419688021 0.760945582
8100251400.0 0.6521563399 0.7531632444
8150251100.0 0.6619949475 0.7445873149
8200250800.0 0.6714102941 0.7363575235
8250250500.0 0.6805648515 0.7284188428
8300250200.0 0.6893552965 0.720082876
8350249900.0 0.6991446796 0.7112396553
8400249600.0 0.7067386171 0.7032682739
8450249300.0 0.7154523532 0.6941825636
8500249000.0 0.7245791696 0.6853990295
8550248700.0 0.732613319 0.676405479
8600248400.0 0.7409441756 0.6668741697
8650248100.0 0.7487055552 0.6574942145
8700247800.0 0.7579002085 0.6465099035
8750247500.0 0.7663040229 0.6363042293
8800247200.0 0.774265854 0.6259974388
8850246900.0 0.7828164701 0.6147163858
8900246600.0 0.7917076406 0.6030917544
8950246300.0 0.8005759455 0.5905207396
9000246000.0 0.8099457807 0.57815435
9050245700.0 0.8181626926 0.5658545849
9100245400.0 0.8271012284 0.5535919843
9150245100.0 0.8354917842 0.5405222528
9200244800.0 0.8452240905 0.5259211405
9250244500.0 0.8544863798 0.5109391636
9300244200.0 0.8627100156 0.4971410109
9350243900.0 0.8702904429 0.4836306904
9400243600.0 0.8768516955 0.4718214118
9450243300.0 0.8823087228 0.4610994119
9500243000.0 0.8887279599 0.4491524852
9550242700.0 0.8926319345 0.4415930807
9600242400.0 0.8969223622 0.4341102471
9650242100.0 0.9006706211 0.4273594075
9700241800.0 0.9057172935 0.4188952133
9750241500.0 0.9096926068 0.4113666449
9800241200.0 0.9147066714 0.4015898484
9850240900.0 0.9204890669 0.3901549286
9900240600.0 0.9263921997 0.3783717436
9950240300.0 0.9331360477 0.3619673946
10000240000.0 0.938023634 0.3497978619
10050239700.0 0.9442287341 0.3334872302
10100239400.0 0.9495046735 0.3178347033
10150239100.0 0.9539690172 0.3025045815
10200238800.0 0.9582120415 0.2873067068
10250238500.0 0.9614826312 0.2739341378
10300238200.0 0.9646081843 0.2597869724
10350237900.0 0.967424407 0.2466111777
10400237600.0 0.9701165282 0.2329307883
10450237300.0 0.9724738812 0.2196917445
10500237000.0 0.974866648 0.2068052627
10550236700.0 0.9775193627 0.1924741083
10600236400.0 0.9794848352 0.1787235442
10650236100.0 0.9811648169 0.1647310966
10700235800.0 0.9838115643 0.1518614067
10750235500.0 0.98606518 0.1385598818
10800235200.0 0.9879599186 0.1243267623
10850234900.0 0.989832301 0.1093816408
10900234600.0 0.9919557269 0.0948166542
10950234300.0 0.993743694 0.0812399528
11000234000.0 0.9954857671 0.0659481483
11050233700.0 0.9973205402 0.0492711009
11100233400.0 0.9986611423 0.0318176417
11150233100.0 1.0000417 0.0151494433
11200232800.0 1.000830199 -0.0006450514
11250232500.0 1.00118612 -0.0178402892
11300232200.0 1.002211746 -0.0368362966
11350231900.0 1.002344976 -0.0523158954
11400231600.0 1.001303795 -0.0676481868
11450231300.0 1.000780807 -0.0828552392
11500231000.0 0.9989034038 -0.0995758911
11550230700.0 0.9979406692 -0.1131775365
11600230400.0 0.9970234222 -0.1255693829
11650230100.0 0.994584677 -0.1373461053
11700229800.0 0.9927577205 -0.1524258906
11750229500.0 0.9902645782 -0.1665998049
11800229200.0 0.9874226056 -0.179930115
11850228900.0 0.9838167174 -0.1919312659
11900228600.0 0.9801427012 -0.2016286391
11950228300.0 0.9766597995 -0.2120426182
12000228000.0 0.9740481566 -0.2204726482
12050227700.0 0.9700712084 -0.233149785
12100227400.0 0.9669428723 -0.2448008275
12150227100.0 0.9622862958 -0.2609764482
12200226800.0 0.9590369631 -0.2717406958
12250226500.0 0.9540380644 -0.2850884947
12300226200.0 0.9501452279 -0.2976482399
12350225900.0 0.9451438572 -0.3109842902
12400225600.0 0.9407134509 -0.3234878991
12450225300.0 0.9364826798 -0.3356416902
12500225000.0 0.9308880889 -0.350844002
12550224700.0 0.9254171242 -0.3645828143
12600224400.0 0.9204998261 -0.3773565717
12650224100.0 0.9147229099 -0.3918597844
12700223800.0 0.9093769198 -0.4045776489
12750223500.0 0.9038767868 -0.4176352225
12800223200.0 0.8986857208 -0.4300778306
12850222900.0 0.8933481446 -0.4424115063
12900222600.0 0.8874220599 -0.4542223858
12950222300.0 0.8814311114 -0.4670789187
13000222000.0 0.8754052598 -0.478330723
13050221700.0 0.8687472663 -0.4914455672
13100221400.0 0.8619987291 -0.5033972099
13150221100.0 0.8550039243 -0.5156876619
13200220800.0 0.8481124361 -0.5275766763
13250220500.0 0.8409975387 -0.5395413812
13300220200.0 0.8335018686 -0.5502090954
13350219900.0 0.8252583542 -0.5621213394
13400219600.0 0.8170294755 -0.574116519
13450219300.0 0.8073721433 -0.5873049385
13500219000.0 0.7980965651 -0.6004655073
13550218700.0 0.7875194351 -0.6134547595
13600218400.0 0.7779966654 -0.6252820866
13650218100.0 0.7683156192 -0.6359877369
13700217800.0 0.7578382481 -0.647459296
13750217500.0 0.7478665579 -0.6588098134
13800217200.0 0.7360190736 -0.6714136202
13850216900.0 0.7255806247 -0.6809914267
13900216600.0 0.7159382941 -0.690845681
13950216300.0 0.7052599817 -0.7004642808
14000216000.0 0.695624745 -0.709895785
14050215700.0 0.6861123815 -0.7177909484
14100215400.0 0.6764697022 -0.7267735219
14150215100.0 0.6674934934 -0.7357566261
14200214800.0 0.6577024799 -0.7443666107
14250214500.0 0.6474137384 -0.7537474254
14300214200.0 0.6369739097 -0.7630609289
14350213900.0 0.625908477 -0.772823198
14400213600.0 0.6140026968 -0.7825313373
14450213300.0 0.6010945636 -0.7927085293
14500213000.0 0.5878939584 -0.8026028451
14550212700.0 0.5753504201 -0.8120751152
14600212400.0 0.562779189 -0.8205841923
14650212100.0 0.5507989587 -0.8296471097
14700211800.0 0.5365331392 -0.8389851887
14750211500.0 0.5243782203 -0.8471318681
14800211200.0 0.5119429007 -0.8556745236
14850210900.0 0.499817408 -0.8631508163
14900210600.0 0.4863919506 -0.8710212238
14950210300.0 0.4733148769 -0.8788200808
15000210000.0 0.4603809664 -0.8855386258
15050209700.0 0.4477757597 -0.8916351751
15100209400.0 0.4356060239 -0.8971275959
15150209100.0 0.4230465098 -0.902879671
15200208800.0 0.4099502822 -0.9083371574
15250208500.0 0.3991745806 -0.9128307279
15300208200.0 0.3867431164 -0.9175342916
15350207900.0 0.3742963935 -0.9225270532
15400207600.0 0.3589235364 -0.9277809619
15450207300.0 0.3445286805 -0.9319059626
15500207000.0 0.3303043049 -0.9372285969
15550206700.0 0.3155003368 -0.9430004
15600206400.0 0.2996782477 -0.9467624841
15650206100.0 0.2838086605 -0.9508300147
15700205800.0 0.2700316139 -0.9546358313
15750205500.0 0.2558984065 -0.9581182334
15800205200.0 0.2417695531 -0.9615048632
15850204900.0 0.2273964691 -0.9648843866
15900204600.0 0.2123317967 -0.9686315877
15950204300.0 0.198295998 -0.9715120584
16000204000.0 0.1840164158 -0.9748098049
16050203700.0 0.1688018786 -0.9775365959
16100203400.0 0.1536672643 -0.9798284882
16150203100.0 0.1392754911 -0.982038895
16200202800.0 0.124877434 -0.9841158011
16250202500.0 0.1103843227 -0.9855681598
16300202200.0 0.0946712135 -0.9873693862
16350201900.0 0.0796462398 -0.988750466
16400201600.0 0.0649350239 -0.9900789987
16450201300.0 0.0498513653 -0.9910284043
16500201000.0 0.0327433335 -0.992014203
16550200700.0 0.016726172 -0.9923724749
16600200400.0 0.0010631909 -0.9926967141
16650200100.0 -0.0154087092 -0.9925788309
16700199800.0 -0.0317162615 -0.9920460182
16750199500.0 -0.0502318777 -0.9917783348
16800199200.0 -0.0661824296 -0.990348102
16850198900.0 -0.0818443879 -0.9897211373
16900198600.0 -0.0958128434 -0.9889130758
16950198300.0 -0.1097229545 -0.9874597797
17000198000.0 -0.1225009492 -0.9856354098
17050197700.0 -0.1354468152 -0.9838137668
17100197400.0 -0.1480260264 -0.9821718951
17150197100.0 -0.160613684 -0.9797182741
17200196800.0 -0.1734512233 -0.977694562
17250196500.0 -0.1861507228 -0.9754944229
17300196200.0 -0.1987081843 -0.9732257578
17350195900.0 -0.2104916919 -0.9708578604
17400195600.0 -0.2224850231 -0.9684680188
17450195300.0 -0.2354632341 -0.9655934455
17500195000.0 -0.2487654731 -0.9619716054
17550194700.0 -0.2625407413 -0.9585705711
17600194400.0 -0.2764847641 -0.9549231702
17650194100.0 -0.2900387127 -0.950774063
17700193800.0 -0.3027799285 -0.9460978781
17750193500.0 -0.317242424 -0.9416847396
17800193200.0 -0.3315656353 -0.9364586551
17850192900.0 -0.3462351432 -0.9311170702
17900192600.0 -0.3616562733 -0.9252774951
17950192300.0 -0.3769611873 -0.917896311
18000192000.0 -0.3918684177 -0.9107556671
18050191700.0 -0.4058485235 -0.9028503268
18100191400.0 -0.4198445186 -0.8952521893
18150191100.0 -0.4348074303 -0.8871053684
18200190800.0 -0.4515623879 -0.8779499478
18250190500.0 -0.4686769929 -0.8684338648
18300190200.0 -0.4840578374 -0.8599262166
18350189900.0 -0.4994804961 -0.8512175771
18400189600.0 -0.5134969615 -0.8430239724
18450189300.0 -0.5271494415 -0.8347370466
18500189000.0 -0.5404175087 -0.8272502949
18550188700.0 -0.5536164897 -0.8190990884
18600188400.0 -0.5654563265 -0.8127485305
18650188100.0 -0.5763956772 -0.8061026818
18700187800.0 -0.5873846165 -0.7993614998
18750187500.0 -0.5983734353 -0.7928892387
18800187200.0 -0.6088052979 -0.7858470535
18850186900.0 -0.6189243248 -0.7789294639
18900186600.0 -0.6293078759 -0.7713467586
18950186300.0 -0.6393847673 -0.7638920184
19000186000.0 -0.6468162188 -0.7577996515
19050185700.0 -0.6561438401 -0.7505227966
19100185400.0 -0.6660815859 -0.7419036328
19150185100.0 -0.6762745292 -0.7336819096
19200184800.0 -0.6851569497 -0.725234603
19250184500.0 -0.6953868761 -0.7161055684
19300184200.0 -0.7072670418 -0.7066757754
19350183900.0 -0.7172753959 -0.6968066513
19400183600.0 -0.7275504908 -0.686821397
19450183300.0 -0.7360984497 -0.6770311746
19500183000.0 -0.7449250771 -0.666836879
19550182700.0 -0.7550196608 -0.6560929012
19600182400.0 -0.765314522 -0.6442430543
19650182100.0 -0.7751947942 -0.6321434302
19700181800.0 -0.7861336754 -0.618642652
19750181500.0 -0.7964936399 -0.6046013353
19800181200.0 -0.8067000344 -0.5897510323
19850180900.0 -0.8164392734 -0.5744481076
19900180600.0 -0.8241686498 -0.5598145056
19950180300.0 -0.8335167944 -0.5436977598
20000180000.0 -0.8246010513 -0.5462083307
20050179700.0 -0.8315800476 -0.5340621001
20100179400.0 -0.8412930639 -0.5208802675
20150179100.0 -0.8491117728 -0.5091553087
20200178800.0 -0.8570282073 -0.4974289593
20250178500.0 -0.8667020843 -0.4846534786
20300178200.0 -0.8769077237 -0.4704509441
20350177900.0 -0.8853095159 -0.4563901229
20400177600.0 -0.8944287525 -0.4418675635
20450177300.0 -0.9029544578 -0.4276369571
20500177000.0 -0.9110382561 -0.413475853
20550176700.0 -0.9185218733 -0.4001960657
20600176400.0 -0.9256552598 -0.3873252341
20650176100.0 -0.9325045264 -0.375135427
20700175800.0 -0.9387856212 -0.3626997212
20750175500.0 -0.9454089425 -0.3519613231
20800175200.0 -0.9500523551 -0.3405629992
20850174900.0 -0.9549945635 -0.3296205964
20900174600.0 -0.9586983262 -0.3192221306
20950174300.0 -0.962342714 -0.3066339547
21000174000.0 -0.9655252011 -0.2970990016
21050173700.0 -0.9673404541 -0.2871873243
21100173400.0 -0.9707052386 -0.2755583007
21150173100.0 -0.9747321719 -0.2635892646
21200172800.0 -0.9785463818 -0.2499706829
21250172500.0 -0.9821943382 -0.2365845287
21300172200.0 -0.9852937858 -0.2221927005
21350171900.0 -0.9874407245 -0.2080322452
21400171600.0 -0.989775535 -0.1939942861
21450171300.0 -0.9901209763 -0.1800817277
21500171000.0 -0.9899588937 -0.1638717931
21550170700.0 -0.9904714218 -0.1501500116
21600170400.0 -0.9913076313 -0.1336470537
21650170100.0 -0.9915895995 -0.1181298463
21700169800.0 -0.9912757842 -0.1024024859
21750169500.0 -0.9894519716 -0.0864233818
21800169200.0 -0.9898696375 -0.0694376208
21850168900.0 -0.9890358112 -0.055031874
21900168600.0 -0.9885369491 -0.0369754
21950168300.0 -0.9871082679 -0.0212934233
22000168000.0 -0.9875551684 -0.006336898
22050167700.0 -0.9876769904 0.007834731
22100167400.0 -0.9887203282 0.0234566568
22150167100.0 -0.989340246 0.0396217227
22200166800.0 -0.9901330731 0.0558222296
22250166500.0 -0.9890336929 0.0731682818
22300166200.0 -0.9880806707 0.0894276314
22350165900.0 -0.987250226 0.1062410801
22400165600.0 -0.9851770327 0.1212402311
22450165300.0 -0.9843931796 0.1367393657
22500165000.0 -0.9819262341 0.1500123263
22550164700.0 -0.9813124518 0.1658115035
22600164400.0 -0.9790430448 0.1823117248
22650164100.0 -0.9757970449 0.1977869187
22700163800.0 -0.9736686537 0.214009613
22750163500.0 -0.9707868671 0.2286249557
22800163200.0 -0.9670913461 0.2420502181
22850162900.0 -0.9649870247 0.255500844
22900162600.0 -0.9631577888 0.2692739332
22950162300.0 -0.9615210831 0.2827418651
23000162000.0 -0.9600385449 0.2950827191
23050161700.0 -0.9575593701 0.3081302547
23100161400.0 -0.9544230811 0.3216406732
23150161100.0 -0.9515679409 0.3350794445
23200160800.0 -0.9491217563 0.3473448255
23250160500.0 -0.9462585743 0.3591227912
23300160200.0 -0.9431201825 0.3723699093
23350159900.0 -0.9397414551 0.3855317616
23400159600.0 -0.9348557945 0.3988060008
23450159300.0 -0.9296176195 0.4128897945
23500159000.0 -0.9245607651 0.426048456
23550158700.0 -0.9198586883 0.440145621
23600158400.0 -0.9144197673 0.4535260303
23650158100.0 -0.9073907618 0.4680143818
23700157800.0 -0.8990958244 0.4821609527
23750157500.0 -0.8900325156 0.4965548702
23800157200.0 -0.8806795071 0.5096613221
23850156900.0 -0.8712983459 0.5222646051
23900156600.0 -0.8613546412 0.5353826149
23950156300.0 -0.8517718036 0.5480724918
24000156000.0 -0.8428994818 0.560055269
24050155700.0 -0.8316125526 0.5726520933
24100155400.0 -0.8210651216 0.5846123513
24150155100.0 -0.8110819761 0.5961731716
24200154800.0 -0.8001979075 0.6084324573
24250154500.0 -0.7880204931 0.6200101506
24300154200.0 -0.7774058541 0.6317332117
24350153900.0 -0.7653689253 0.6426104237
24400153600.0 -0.7528948328 0.6535467695
24450153300.0 -0.7407031429 0.6635868455
24500153000.0 -0.7291857806 0.6734646415
24550152700.0 -0.7182795316 0.6833515225
24600152400.0 -0.7062650703 0.692956807
24650152100.0 -0.6940626 0.7008982779
