!Created with skrf (http://scikit-rf.org).
# Hz S RI R 50.0 
!freq ReS11 ImS11
300000.0 -0.9748834949 -0.1202248462
50299700.0 -1.000022252 0.015275128
100299400.0 -0.9978906477 0.0281199127
150299100.0 -1.002641884 0.0449848533
200298800.0 -0.9995188384 0.0583791856
250298500.0 -0.9975132121 0.0716313762
300298200.0 -0.9858251672 0.0877203543
350297900.0 -0.9940029914 0.0985292992
400297600.0 -0.9931942169 0.1152743305
450297300.0 -0.9910743982 0.1288618371
500297000.0 -0.989502293 0.1435291345
550296700.0 -0.9843657441 0.1559989214
600296400.0 -1.017226861 0.1894754945
650296100.0 -0.9822863616 0.1859402326
700295800.0 -0.9794315704 0.2000816816
750295500.0 -0.9762721424 0.2142743487
800295200.0 -0.9729869647 0.2281710188
850294900.0 -0.9695364784 0.24213255
900294600.0 -0.9658512711 0.2560228855
950294300.0 -0.9623085781 0.2695066953
1000294000.0 -0.9580860874 0.2836012428
1050293700.0 -0.9537958431 0.2972945841
1100293400.0 -0.9494042616 0.3118569317
1150293100.0 -0.9456537747 0.3237209176
1200292800.0 -0.9402659316 0.3379640286
1250292500.0 -0.9348293116 0.3515588971
1300292200.0 -0.9290687679 0.3646479543
1350291900.0 -0.9234716501 0.3788062144
1400291600.0 -0.9180875241 0.3919536862
1450291300.0 -0.912649566 0.4040600711
1500291000.0 -0.9061476037 0.4175964027
1550290700.0 -0.8997215909 0.4309432083
1600290400.0 -0.8935474455 0.4437681264
1650290100.0 -0.886796445 0.4560429957
1700289800.0 -0.879814764 0.4693951403
1750289500.0 -0.8728864526 0.4816964531
1800289200.0 -0.8656536765 0.4945191873
1850288900.0 -0.85869967 0.5059375776
1900288600.0 -0.8510041342 0.5191253669
1950288300.0 -0.8430323365 0.5314704672
2000288000.0 -0.8355620664 0.5430010461
2050287700.0 -0.8272837766 0.5552608512
2100287400.0 -0.8193413625 0.566909214
2150287100.0 -0.8109477898 0.5789960079
2200286800.0 -0.8031774533 0.5892688903
2250286500.0 -0.7944179211 0.6012662648
2300286200.0 -0.7853445337 0.6131464268
2350285900.0 -0.7766591146 0.6239273135
2400285600.0 -0.7675836163 0.6348332204
2450285300.0 -0.7592561898 0.6452131619
2500285000.0 -0.7494880782 0.6566410519
2550284700.0 -0.7403250275 0.6671152333
2600284400.0 -0.7311375307 0.6769476357
2650284100.0 -0.7220353726 0.6875362203
2700283800.0 -0.711736022 0.697985226
2750283500.0 -0.701398229 0.7085392254
2800283200.0 -0.69141781 0.7181912738
2850282900.0 -0.6812593518 0.728296461
2900282600.0 -0.6708997486 0.7382495765
2950282300.0 -0.6605724102 0.7470589466
3000282000.0 -0.6498816113 0.7565703019
3050281700.0 -0.63875503 0.7660765027
3100281400.0 -0.6269638084 0.7750913682
3150281100.0 -0.6149298326 0.7845006024
3200280800.0 -0.6034874202 0.7928941791
3250280500.0 -0.5927486796 0.8007849294
3300280200.0 -0.5813613553 0.8086793597
3350279900.0 -0.5696450548 0.8162911535
3400279600.0 -0.557444351 0.8240042831
3450279300.0 -0.5462921677 0.8312376448
3500279000.0 -0.534423358 0.8382589204
3550278700.0 -0.5221228901 0.845757005
3600278400.0 -0.5098605748 0.8525630162
3650278100.0 -0.496719102 0.8601219319
3700277800.0 -0.4844234619 0.8665659849
3750277500.0 -0.4723697328 0.8732016987
3800277200.0 -0.4599094032 0.879805967
3850276900.0 -0.4476381578 0.8857101842
3900276600.0 -0.4370774883 0.891388711
3950276300.0 -0.4243203986 0.8972671389
4000276000.0 -0.4127079668 0.9033642946
4050275700.0 -0.4000467066 0.9096108032
4100275400.0 -0.3887493575 0.9148687437
4150275100.0 -0.3760313531 0.920607377
4200274800.0 -0.3629886065 0.9263200923
4250274500.0 -0.3505514116 0.9313600223
4300274200.0 -0.3375563315 0.9367722188
4350273900.0 -0.3238207399 0.941953562
4400273600.0 -0.3087818326 0.9472431376
4450273300.0 -0.2935440061 0.9524002773
4500273000.0 -0.2800843411 0.9565459354
4550272700.0 -0.2661961678 0.9608305204
4600272400.0 -0.2506045164 0.9650176433
4650272100.0 -0.2389915983 0.9682345092
4700271800.0 -0.2258050002 0.9714716651
4750271500.0 -0.2140918286 0.9743106746
4800271200.0 -0.2014641609 0.9771763142
4850270900.0 -0.1877234362 0.9799475349
4900270600.0 -0.1738030672 0.9822852233
4950270300.0 -0.1594857324 0.9849546
5000270000.0 -0.1451555362 0.9867314186
5050269700.0 -0.1317345529 0.9887036357
5100269400.0 -0.118027356 0.9902247101
5150269100.0 -0.1044060756 0.9920968963
5200268800.0 -0.0911449755 0.9928357006
5250268500.0 -0.0780914856 0.9938716344
5300268200.0 -0.0647870613 0.9945203583
5350267900.0 -0.0526531685 0.9950312567
5400267600.0 -0.0364148594 0.9963723249
5450267300.0 -0.0230379959 0.996567592
5500267000.0 -0.0081024231 0.9969513079
5550266700.0 0.0069122127 0.9973199086
5600266400.0 0.0224865216 0.9972169651
5650266100.0 0.038919882 0.9970613161
5700265800.0 0.0533595768 0.9958435524
5750265500.0 0.0685918914 0.9951805334
5800265200.0 0.0826870211 0.9944477902
5850264900.0 0.0958035472 0.9934582169
5900264600.0 0.1118954165 0.9913145555
5950264300.0 0.1243630876 0.9900869142
6000264000.0 0.1379593232 0.9879743957
6050263700.0 0.1506849392 0.9870077359
6100263400.0 0.1627457566 0.9852859463
6150263100.0 0.1772036957 0.9826634005
6200262800.0 0.187500855 0.9809290403
6250262500.0 0.2001356025 0.9787703848
6300262200.0 0.2129690031 0.9760511116
6350261900.0 0.2259246876 0.9730591344
6400261600.0 0.2396715508 0.9696087739
6450261300.0 0.2511398242 0.9670797052
6500261000.0 0.2638222211 0.9631586432
6550260700.0 0.2770771955 0.9597340528
6600260400.0 0.2903872688 0.9554833473
6650260100.0 0.3045205837 0.9514998058
6700259800.0 0.3165419288 0.9470010455
6750259500.0 0.3299811491 0.9415300459
6800259200.0 0.343360703 0.9368803181
6850258900.0 0.3553567811 0.9314397247
6900258600.0 0.3678196564 0.926747958
6950258300.0 0.3805618274 0.9214351325
7000258000.0 0.3922654785 0.9157701795
7050257700.0 0.4044229654 0.9099322902
7100257400.0 0.4173911473 0.9035648153
7150257100.0 0.4277889494 0.8982771795
7200256800.0 0.4406494289 0.8919138881
7250256500.0 0.4525354327 0.885459625
7300256200.0 0.4657411367 0.8789062339
7350255900.0 0.4780491587 0.8718200852
7400255600.0 0.4916351868 0.8647281931
7450255300.0 0.5070874939 0.855629703
7500255000.0 0.5188893055 0.8487235414
7550254700.0 0.5324475772 0.8395650367
7600254400.0 0.5452698264 0.8315864166
7650254100.0 0.5571141974 0.8239258646
7700253800.0 0.5689039779 0.8158251378
7750253500.0 0.5799138714 0.8082246245
7800253200.0 0.5903578651 0.8003408076
7850252900.0 0.6001486089 0.7934415675
7900252600.0 0.6117036484 0.7847323441
7950252300.0 0.6205392531 0.7781163118
8000252000.0 0.6306637368 0.7705448879
8050251700.0 0.6413811009 0.7622528661
8100251400.0 0.6510187953 0.7543016546
8150251100.0 0.661203908 0.7456156376
8200250800.0 0.6707641388 0.7376043796
8250250500.0 0.6795738726 0.7296730243
8300250200.0 0.6892824401 0.7210146897
8350249900.0 0.6979040174 0.7125388276
8400249600.0 0.706264091 0.7042914558
8450249300.0 0.715349364 0.6953361775
8500249000.0 0.7237824424 0.6865043462
8550248700.0 0.7323388944 0.6773642143
8600248400.0 0.7406034904 0.6677193639
8650248100.0 0.7483950911 0.6583028999
8700247800.0 0.7578342351 0.6470761434
8750247500.0 0.7662553923 0.636837393
8800247200.0 0.774395362 0.626791525
8850246900.0 0.7827048526 0.6152529699
8900246600.0 0.7912899846 0.6038144371
8950246300.0 0.8010054834 0.5911347894
9000246000.0 0.8101685608 0.5786035505
9050245700.0 0.8189619682 0.5656211082
9100245400.0 0.8276392091 0.5529164749
9150245100.0 0.8369435145 0.5396841318
9200244800.0 0.8466115634 0.5247591724
9250244500.0 0.8558335415 0.5094568591
9300244200.0 0.8641223507 0.4950193559
9350243900.0 0.87208537 0.4814446968
9400243600.0 0.8787070446 0.4691039961
9450243300.0 0.884661444 0.4577404774
9500243000.0 0.8908750963 0.4455433605
9550242700.0 0.8947680991 0.4380224172
9600242400.0 0.8985996306 0.4305033626
9650242100.0 0.9024591211 0.4238482664
9700241800.0 0.9071038498 0.4160505067
9750241500.0 0.9109774184 0.4081486122
9800241200.0 0.9159948045 0.3986977046
9850240900.0 0.9216523446 0.3872450262
9900240600.0 0.927413454 0.375630849
9950240300.0 0.9341279104 0.3594805617
10000240000.0 0.9383456273 0.3480974865
10050239700.0 0.9442790044 0.3323689671
10100239400.0 0.9493926277 0.3166765154
10150239100.0 0.9538420161 0.3018526381
10200238800.0 0.9579574935 0.2867635073
10250238500.0 0.9614737427 0.2732893835
10300238200.0 0.9644697874 0.2591693035
10350237900.0 0.9672838966 0.2461744358
10400237600.0 0.969935212 0.2327635276
10450237300.0 0.9726264408 0.2192737777
10500237000.0 0.9748354721 0.2066661244
10550236700.0 0.9769106842 0.1925835497
10600236400.0 0.9793571856 0.1782834862
10650236100.0 0.9812170265 0.1645690208
10700235800.0 0.9833992535 0.1519009158
10750235500.0 0.9859186214 0.1389776249
10800235200.0 0.9879051078 0.1246057589
10850234900.0 0.9898948262 0.1097830797
10900234600.0 0.9918547153 0.0952325255
10950234300.0 0.9934289285 0.0820564843
11000234000.0 0.995267422 0.066893071
11050233700.0 0.9970686946 0.0503406471
11100233400.0 0.9982822057 0.0332318778
11150233100.0 0.9996159041 0.0169622248
11200232800.0 1.000565404 0.0014297857
11250232500.0 1.001081259 -0.0155488723
11300232200.0 1.001720131 -0.0335703195
11350231900.0 1.001840036 -0.0489669236
11400231600.0 1.001657657 -0.0646243956
11450231300.0 1.001436389 -0.0802099853
11500231000.0 0.9998074157 -0.0965003626
11550230700.0 0.9982039617 -0.1088592966
11600230400.0 0.9966985419 -0.122482647
11650230100.0 0.9952197699 -0.1332901508
11700229800.0 0.9931962594 -0.1484902543
11750229500.0 0.9904604506 -0.1625469558
11800229200.0 0.9882613627 -0.1762399501
11850228900.0 0.9846276189 -0.1884857346
11900228600.0 0.9812078435 -0.1982810393
11950228300.0 0.977641375 -0.2086605956
12000228000.0 0.9750246535 -0.2178502996
12050227700.0 0.9717131665 -0.2302090387
12100227400.0 0.9684006284 -0.2415325275
12150227100.0 0.9628410422 -0.2589359827
12200226800.0 0.9595827461 -0.2697812246
12250226500.0 0.9552294718 -0.282251958
12300226200.0 0.9515085023 -0.2939684372
12350225900.0 0.9466346888 -0.3075484548
12400225600.0 0.9414813373 -0.3211207
12450225300.0 0.9374059056 -0.3340291877
12500225000.0 0.9324309615 -0.3485466504
12550224700.0 0.9266282138 -0.3625700086
12600224400.0 0.9217844616 -0.3751285444
12650224100.0 0.9160043019 -0.3896283334
12700223800.0 0.9108572115 -0.4024345285
12750223500.0 0.9053137351 -0.4153619221
12800223200.0 0.8997617539 -0.4280336804
12850222900.0 0.8947553785 -0.4405355624
12900222600.0 0.8891755071 -0.4519774656
12950222300.0 0.8824693897 -0.4653173655
13000222000.0 0.8765856495 -0.4764678907
13050221700.0 0.8698586448 -0.4900186066
13100221400.0 0.8635027387 -0.5015771761
13150221100.0 0.8565481257 -0.5138913496
13200220800.0 0.8496039367 -0.5246280481
13250220500.0 0.8423690057 -0.5372797489
13300220200.0 0.8349647217 -0.5480101313
13350219900.0 0.8270000837 -0.559845669
13400219600.0 0.8187139336 -0.5717960029
13450219300.0 0.8095444286 -0.5850489664
13500219000.0 0.7990651576 -0.5990178127
13550218700.0 0.7893567473 -0.6117576351
13600218400.0 0.7786642732 -0.6239464779
13650218100.0 0.7696657556 -0.6352297027
13700217800.0 0.757981505 -0.6476610067
13750217500.0 0.748702711 -0.6579946468
13800217200.0 0.7373796733 -0.669757089
13850216900.0 0.7264031482 -0.6811538681
13900216600.0 0.7167262952 -0.6903861208
13950216300.0 0.7061017653 -0.7003560458
14000216000.0 0.6963876288 -0.7095632057
14050215700.0 0.6868037317 -0.7179249557
14100215400.0 0.6766375455 -0.727181754
14150215100.0 0.6675930915 -0.7356229961
14200214800.0 0.6580874354 -0.7443628121
14250214500.0 0.6476737766 -0.7538850862
14300214200.0 0.6371252554 -0.7633474082
14350213900.0 0.6260252269 -0.7727504229
14400213600.0 0.6138839524 -0.7827233405
14450213300.0 0.6013381351 -0.7931877913
14500213000.0 0.5878200446 -0.8025512431
14550212700.0 0.5755710672 -0.8126210412
14600212400.0 0.5627677645 -0.8212517301
14650212100.0 0.5499258694 -0.82955999
14700211800.0 0.5361026775 -0.8396073509
14750211500.0 0.5243573564 -0.8476345392
14800211200.0 0.5122725058 -0.8555662963
14850210900.0 0.4999468883 -0.8631471956
14900210600.0 0.4866738913 -0.8709337224
14950210300.0 0.4733823021 -0.8785516888
15000210000.0 0.4607581416 -0.8853175624
15050209700.0 0.4481317675 -0.8912946502
15100209400.0 0.4356341119 -0.8976123048
15150209100.0 0.4232802273 -0.9030239042
15200208800.0 0.4103657649 -0.9083174788
15250208500.0 0.3992120681 -0.9127151778
15300208200.0 0.3875526286 -0.9173861245
15350207900.0 0.3740129221 -0.9225121157
15400207600.0 0.3596324336 -0.927584717
15450207300.0 0.344483725 -0.9325367785
15500207000.0 0.3306934478 -0.9372191951
15550206700.0 0.3156173655 -0.9423082151
15600206400.0 0.2992048845 -0.9470136353
15650206100.0 0.2838620917 -0.9511727394
15700205800.0 0.2695736687 -0.9548272896
15750205500.0 0.255586656 -0.9583642636
15800205200.0 0.2411235542 -0.961862916
15850204900.0 0.2268088156 -0.9654651946
15900204600.0 0.2115646323 -0.9689043705
15950204300.0 0.1973773762 -0.9718384802
16000204000.0 0.1831572895 -0.974897473
16050203700.0 0.1684692854 -0.9779785699
16100203400.0 0.1535251844 -0.9801949714
16150203100.0 0.1390881584 -0.9823608397
16200202800.0 0.1252110176 -0.9844609234
16250202500.0 0.1097651241 -0.9858559247
16300202200.0 0.0944394966 -0.9878159426
16350201900.0 0.0795506735 -0.9890082798
16400201600.0 0.0651254025 -0.9903259794
16450201300.0 0.0497598895 -0.9912937668
16500201000.0 0.0330264206 -0.9921694276
16550200700.0 0.0172260659 -0.9925556464
16600200400.0 0.0013835022 -0.9926980218
16650200100.0 -0.014497021 -0.9924585853
16700199800.0 -0.0308818309 -0.9927965974
16750199500.0 -0.0495189904 -0.9915960995
16800199200.0 -0.0653524156 -0.9915095035
16850198900.0 -0.0806752295 -0.9891695302
16900198600.0 -0.0940017121 -0.9887946249
16950198300.0 -0.107311223 -0.9877925519
17000198000.0 -0.1209086365 -0.9866034322
17050197700.0 -0.1331894444 -0.9842010327
17100197400.0 -0.1460492489 -0.9824201329
17150197100.0 -0.1589742423 -0.9804149502
17200196800.0 -0.1716888246 -0.9783545319
17250196500.0 -0.1848967205 -0.9757574759
17300196200.0 -0.1967566796 -0.9734777635
17350195900.0 -0.2088388782 -0.971289902
17400195600.0 -0.2210240602 -0.9689324497
17450195300.0 -0.233916861 -0.9659878734
17500195000.0 -0.2474443664 -0.9627996826
17550194700.0 -0.2613607763 -0.9590970279
17600194400.0 -0.2750808099 -0.9552980393
17650194100.0 -0.2888584832 -0.9508883646
17700193800.0 -0.3023847714 -0.9465965792
17750193500.0 -0.3163635916 -0.9425703795
17800193200.0 -0.3306332568 -0.9371433527
17850192900.0 -0.3459335189 -0.9311521847
17900192600.0 -0.3609873477 -0.9255376959
17950192300.0 -0.3764483718 -0.9183980045
18000192000.0 -0.3913823899 -0.9112127718
18050191700.0 -0.4051788385 -0.9032278605
18100191400.0 -0.4194474519 -0.8956175258
18150191100.0 -0.4344546536 -0.8877012244
18200190800.0 -0.4513353204 -0.8786868041
18250190500.0 -0.4680680183 -0.8691090941
18300190200.0 -0.4833892997 -0.8604337705
18350189900.0 -0.4990156774 -0.8521158197
18400189600.0 -0.5130838472 -0.8437958088
18450189300.0 -0.5262687521 -0.8358126641
18500189000.0 -0.5399564242 -0.8279793668
18550188700.0 -0.5519761264 -0.8205714885
18600188400.0 -0.5642545251 -0.8139829611
18650188100.0 -0.5751288623 -0.8070068186
18700187800.0 -0.5860583959 -0.8006507242
18750187500.0 -0.5968322824 -0.7940265577
18800187200.0 -0.6073996762 -0.7869816348
18850186900.0 -0.6176324484 -0.7800594926
18900186600.0 -0.627632157 -0.7728807926
18950186300.0 -0.6379236004 -0.7650863432
19000186000.0 -0.6447929993 -0.7591006298
19050185700.0 -0.6543475932 -0.7517470134
19100185400.0 -0.6641926859 -0.7436372852
19150185100.0 -0.6741297773 -0.7351029096
19200184800.0 -0.6840362684 -0.726812851
19250184500.0 -0.6933215294 -0.7177502642
19300184200.0 -0.7053265509 -0.7078042901
19350183900.0 -0.7157880061 -0.6990030658
19400183600.0 -0.7255039141 -0.6882963098
19450183300.0 -0.734593255 -0.678548193
19500183000.0 -0.7428668244 -0.6681444385
19550182700.0 -0.7531416887 -0.657238588
19600182400.0 -0.7634289946 -0.6456079904
19650182100.0 -0.7740127152 -0.6336013825
19700181800.0 -0.784672272 -0.6200364154
19750181500.0 -0.79554369 -0.6059268189
19800181200.0 -0.8057063507 -0.590990071
19850180900.0 -0.8153324451 -0.5756544473
19900180600.0 -0.8232086732 -0.5609646566
19950180300.0 -0.8324141818 -0.5446399716
20000180000.0 -0.8254049644 -0.5479314318
20050179700.0 -0.8328328723 -0.5332246204
20100179400.0 -0.8424303917 -0.5203173081
20150179100.0 -0.8498215207 -0.5088354948
20200178800.0 -0.858523452 -0.4964456703
20250178500.0 -0.8682466926 -0.4818520984
20300178200.0 -0.8779062943 -0.4672530273
20350177900.0 -0.8869662543 -0.4534880241
20400177600.0 -0.896306025 -0.4389501268
20450177300.0 -0.9040712343 -0.4247628226
20500177000.0 -0.9123063143 -0.4108158674
20550176700.0 -0.9201739548 -0.3972057803
20600176400.0 -0.9271148249 -0.3839567701
20650176100.0 -0.9337942114 -0.3722418603
20700175800.0 -0.9404986951 -0.3602671502
20750175500.0 -0.9472202453 -0.3485707825
20800175200.0 -0.9515053986 -0.3379527705
20850174900.0 -0.9569528185 -0.3264958162
20900174600.0 -0.9612891026 -0.314664228
20950174300.0 -0.9645863354 -0.3043390063
21000174000.0 -0.9681516087 -0.2923275409
21050173700.0 -0.9704749166 -0.2823860853
21100173400.0 -0.9745548653 -0.2706616495
21150173100.0 -0.9786873491 -0.258578577
21200172800.0 -0.9821332606 -0.2448940977
21250172500.0 -0.9854692958 -0.2311328042
21300172200.0 -0.988757866 -0.2169931588
21350171900.0 -0.9899310906 -0.2024300562
21400171600.0 -0.9911909546 -0.1877758809
21450171300.0 -0.9925617744 -0.1738000137
21500171000.0 -0.9918025817 -0.1584714319
21550170700.0 -0.9919994747 -0.1434223784
21600170400.0 -0.9916948653 -0.1273913902
21650170100.0 -0.9910961474 -0.1129032499
21700169800.0 -0.9904339628 -0.0977319132
21750169500.0 -0.9890934353 -0.0814445744
21800169200.0 -0.9889235375 -0.0640478724
21850168900.0 -0.9878830549 -0.0471359161
21900168600.0 -0.9859468294 -0.0311187074
21950168300.0 -0.9852104523 -0.0149860018
22000168000.0 -0.9845890812 -0.000339495
22050167700.0 -0.9846269986 0.0137741679
22100167400.0 -0.9845702742 0.0291647563
22150167100.0 -0.9856930129 0.0447706882
22200166800.0 -0.9856187597 0.0613759393
22250166500.0 -0.9855220336 0.0789955586
22300166200.0 -0.9850483394 0.095344687
22350165900.0 -0.9836230243 0.1109241804
22400165600.0 -0.9820547771 0.1271917706
22450165300.0 -0.9796602675 0.14188246
22500165000.0 -0.9787607693 0.156073809
22550164700.0 -0.9765149339 0.1716452826
22600164400.0 -0.9750636844 0.1877392533
22650164100.0 -0.9733262003 0.2021436416
22700163800.0 -0.9702120069 0.2182459143
22750163500.0 -0.9676381574 0.2329741829
22800163200.0 -0.9653573179 0.246588945
22850162900.0 -0.9619597931 0.2595179771
22900162600.0 -0.9608949754 0.2730079937
22950162300.0 -0.9598529887 0.2859019437
23000162000.0 -0.9585012528 0.2979450321
23050161700.0 -0.9564137403 0.3105729706
23100161400.0 -0.9541046936 0.3238108248
23150161100.0 -0.9512105532 0.3361756175
23200160800.0 -0.9483651326 0.3483803465
23250160500.0 -0.9452940529 0.3601130726
23300160200.0 -0.9429683527 0.3727475493
23350159900.0 -0.9383167842 0.3858853396
23400159600.0 -0.9340502229 0.3984835747
23450159300.0 -0.9294090803 0.4120206893
23500159000.0 -0.9243691059 0.4258107983
23550158700.0 -0.9201560042 0.4391326804
23600158400.0 -0.9148061913 0.4527281894
23650158100.0 -0.9080472433 0.4668605734
23700157800.0 -0.9004267812 0.4809392507
23750157500.0 -0.8916537941 0.4952259392
23800157200.0 -0.8827265763 0.508198567
23850156900.0 -0.8739787314 0.5210108762
23900156600.0 -0.8646031017 0.5337663339
23950156300.0 -0.8550832814 0.5457965611
24000156000.0 -0.8458080364 0.5583457567
24050155700.0 -0.8355639919 0.5707178576
24100155400.0 -0.8259061951 0.5819270766
24150155100.0 -0.8160147213 0.5943183929
24200154800.0 -0.8043242558 0.6052653142
24250154500.0 -0.7928240032 0.6175896377
24300154200.0 -0.7814598414 0.6287974393
24350153900.0 -0.7702095059 0.6393512667
24400153600.0 -0.7573918194 0.6500422666
24450153300.0 -0.7462339597 0.6598580767
24500153000.0 -0.7341647367 0.6695748069
24550152700.0 -0.7233782443 0.6795554758
24600152400.0 -0.711397421 0.6881123682
24650152100.0 -0.6997959047 0.6970085303
