!Created with skrf (http://scikit-rf.org).
# Hz S RI R 50.0 
!freq ReS11 ImS11
300000.0 -0.9748869844 -0.1225135823
50299700.0 -0.9999432005 0.0150601093
100299400.0 -0.9979028419 0.0281182127
150299100.0 -1.002650715 0.0448099929
200298800.0 -0.9994517824 0.0580658244
250298500.0 -0.9975240745 0.0716525378
300298200.0 -0.9859780417 0.0874673282
350297900.0 -0.9939258521 0.0983706869
400297600.0 -0.9929570582 0.1149182564
450297300.0 -0.9910426584 0.1286444302
500297000.0 -0.9892382778 0.1434100844
550296700.0 -0.9842924741 0.1556397368
600296400.0 -1.017062361 0.1892550134
650296100.0 -0.9822537206 0.1855379922
700295800.0 -0.9790597194 0.2000507426
750295500.0 -0.976427685 0.2140096039
800295200.0 -0.9728809785 0.228082097
850294900.0 -0.9696637296 0.2418025807
900294600.0 -0.9660661221 0.2556781394
950294300.0 -0.9620704467 0.2692425864
1000294000.0 -0.9581933798 0.2832939835
1050293700.0 -0.9537837724 0.2970229826
1100293400.0 -0.9494003893 0.3115063215
1150293100.0 -0.945451165 0.3233940101
1200292800.0 -0.9401430184 0.337738522
1250292500.0 -0.9344561049 0.3512666276
1300292200.0 -0.9288771246 0.3644991814
1350291900.0 -0.9233458855 0.3784863419
1400291600.0 -0.917911167 0.3915814199
1450291300.0 -0.9124789861 0.4040503943
1500291000.0 -0.9061938286 0.4173569605
1550290700.0 -0.8996196499 0.4308600347
1600290400.0 -0.8932961652 0.4437420893
1650290100.0 -0.8867789957 0.4556987652
1700289800.0 -0.8800200119 0.4693441367
1750289500.0 -0.872954534 0.4815234899
1800289200.0 -0.8656250619 0.4945748425
1850288900.0 -0.8588374941 0.50571645
1900288600.0 -0.8510480476 0.5185823943
1950288300.0 -0.8427612049 0.5312050209
2000288000.0 -0.8355626732 0.5428349045
2050287700.0 -0.8271535351 0.5554415794
2100287400.0 -0.8193920901 0.5665954715
2150287100.0 -0.8107646262 0.5786994577
2200286800.0 -0.8029735882 0.5892361255
2250286500.0 -0.7941274891 0.6015270818
2300286200.0 -0.7852800051 0.6128789907
2350285900.0 -0.7767478873 0.6236646629
2400285600.0 -0.7679982092 0.6343866696
2450285300.0 -0.7591390125 0.6451535807
2500285000.0 -0.7492070258 0.6566622426
2550284700.0 -0.7401476207 0.6670988396
2600284400.0 -0.7309815077 0.6770483084
2650284100.0 -0.7223011093 0.6873663988
2700283800.0 -0.7118575047 0.6975077917
2750283500.0 -0.701622682 0.7083486562
2800283200.0 -0.6915577963 0.7181678432
2850282900.0 -0.6812018585 0.728452713
2900282600.0 -0.670531474 0.737876627
2950282300.0 -0.6602499777 0.7473427096
3000282000.0 -0.6494787414 0.7566566607
3050281700.0 -0.6384163192 0.7660297731
3100281400.0 -0.6268788619 0.7750785726
3150281100.0 -0.615560198 0.7839993569
3200280800.0 -0.6041373808 0.7925159479
3250280500.0 -0.5929950879 0.8004323842
3300280200.0 -0.5813796524 0.8084617959
3350279900.0 -0.5692545866 0.816266194
3400279600.0 -0.5567852994 0.8246534479
3450279300.0 -0.5455315248 0.8315517587
3500279000.0 -0.533807401 0.8384563626
3550278700.0 -0.5217783907 0.8456081408
3600278400.0 -0.5098043569 0.8523867327
3650278100.0 -0.4967738194 0.8598609933
3700277800.0 -0.4846713371 0.8665818884
3750277500.0 -0.4721542375 0.8730615005
3800277200.0 -0.4598786654 0.8797640471
3850276900.0 -0.4477484948 0.8856377058
3900276600.0 -0.4368856097 0.8913682184
3950276300.0 -0.424944134 0.897159089
4000276000.0 -0.4131229751 0.9030244143
4050275700.0 -0.4002781177 0.9092286136
4100275400.0 -0.3892884656 0.9145049641
4150275100.0 -0.3760119424 0.9206957072
4200274800.0 -0.3628184375 0.9261925296
4250274500.0 -0.3500332515 0.9316570845
4300274200.0 -0.3367496412 0.9369335794
4350273900.0 -0.3226468799 0.9420951471
4400273600.0 -0.3078022749 0.9472187726
4450273300.0 -0.2930563456 0.9520703948
4500273000.0 -0.2797270945 0.956481211
4550272700.0 -0.2661136099 0.9605053947
4600272400.0 -0.2509817892 0.9647328837
4650272100.0 -0.2396740636 0.9678126959
4700271800.0 -0.2267798344 0.9710514691
4750271500.0 -0.2148819685 0.9739449314
4800271200.0 -0.2028361927 0.9766802144
4850270900.0 -0.1889567378 0.9795435235
4900270600.0 -0.1751561829 0.9819181618
4950270300.0 -0.1604790681 0.9845245214
5000270000.0 -0.1463131563 0.9865389179
5050269700.0 -0.1328528093 0.9882279319
5100269400.0 -0.1185847739 0.9899836322
5150269100.0 -0.1046477798 0.9919473363
5200268800.0 -0.0912468837 0.9926924148
5250268500.0 -0.0781700845 0.9936300803
5300268200.0 -0.0647142042 0.9947930395
5350267900.0 -0.051685296 0.9951923651
5400267600.0 -0.0356027192 0.9962875482
5450267300.0 -0.022251205 0.9967307997
5500267000.0 -0.0069950157 0.9969439181
5550266700.0 0.0080366514 0.9971728977
5600266400.0 0.023814302 0.9971066351
5650266100.0 0.040371932 0.9968336788
5700265800.0 0.0544392995 0.996021871
5750265500.0 0.0696752329 0.9952945978
5800265200.0 0.0832988092 0.99449767
5850264900.0 0.0964302852 0.9931009544
5900264600.0 0.1126958776 0.9911483076
5950264300.0 0.1242140041 0.9896325642
6000264000.0 0.1379936429 0.9878267099
6050263700.0 0.1497512012 0.9868570024
6100263400.0 0.1620387658 0.9849031839
6150263100.0 0.1766541604 0.9826720769
6200262800.0 0.1862718583 0.9809776786
6250262500.0 0.1989711733 0.9786172206
6300262200.0 0.2110165463 0.9761756934
6350261900.0 0.2239482449 0.9732654346
6400261600.0 0.237961041 0.9702129318
6450261300.0 0.2487939097 0.9676649338
6500261000.0 0.2623380517 0.9641917793
6550260700.0 0.2751720077 0.9599485552
6600260400.0 0.2888282937 0.9558384158
6650260100.0 0.3026558003 0.951563158
6700259800.0 0.3148159352 0.9472872972
6750259500.0 0.3286680114 0.9422611392
6800259200.0 0.3423258711 0.9373561231
6850258900.0 0.3547330008 0.9320260437
6900258600.0 0.3671399974 0.9268362044
6950258300.0 0.3793923888 0.9214846606
7000258000.0 0.3914040441 0.9162171545
7050257700.0 0.403236185 0.9102804391
7100257400.0 0.4167558339 0.9039415646
7150257100.0 0.4272114484 0.8984697345
7200256800.0 0.4406284714 0.891954313
7250256500.0 0.4531958709 0.8853793385
7300256200.0 0.4657782136 0.8784355909
7350255900.0 0.4790074921 0.8719042271
7400255600.0 0.4929027001 0.8640458917
7450255300.0 0.5085082838 0.8551809458
7500255000.0 0.520810416 0.8474679618
7550254700.0 0.5351184089 0.8383462865
7600254400.0 0.5475584445 0.8301327343
7650254100.0 0.5591603912 0.8221014545
7700253800.0 0.5709198809 0.8142898293
7750253500.0 0.5813513256 0.8066392752
7800253200.0 0.5922354352 0.798720021
7850252900.0 0.6020127888 0.7915249205
7900252600.0 0.6136153428 0.7829887084
7950252300.0 0.6220334268 0.7763989245
8000252000.0 0.6318649407 0.7687515457
8050251700.0 0.642328853 0.7607917034
8100251400.0 0.652373687 0.7528002068
8150251100.0 0.6623407896 0.7443272171
8200250800.0 0.6717918894 0.736072386
8250250500.0 0.6808532272 0.7281064615
8300250200.0 0.6897604489 0.7198112923
8350249900.0 0.6987861422 0.7111078673
8400249600.0 0.7070253101 0.702955874
8450249300.0 0.7159053464 0.6942440349
8500249000.0 0.7245171961 0.6852600399
8550248700.0 0.7326304871 0.6763468135
8600248400.0 0.7408246154 0.666799766
8650248100.0 0.7486074363 0.6574154662
8700247800.0 0.757951221 0.6462746307
8750247500.0 0.7661276879 0.6363752106
8800247200.0 0.7742626361 0.6259697648
8850246900.0 0.7831868978 0.6146108448
8900246600.0 0.7911084209 0.6030636071
8950246300.0 0.8006184787 0.5905569429
9000246000.0 0.8092748093 0.5784745998
9050245700.0 0.8181627907 0.5661126602
9100245400.0 0.8262413162 0.5539017706
9150245100.0 0.8350301339 0.540931215
9200244800.0 0.8444054187 0.5266289868
9250244500.0 0.8535724383 0.5118072233
9300244200.0 0.8616682003 0.4983641352
9350243900.0 0.8693555956 0.4850590214
9400243600.0 0.8758224835 0.4733243961
9450243300.0 0.8814390665 0.4627342871
9500243000.0 0.8876388942 0.4510583482
9550242700.0 0.8916219182 0.4434972829
9600242400.0 0.8958495319 0.4359327711
9650242100.0 0.9000151649 0.4289410297
9700241800.0 0.905120672 0.4203655726
9750241500.0 0.9092811022 0.4127388614
9800241200.0 0.9141670738 0.4033504201
9850240900.0 0.9199489057 0.3917815608
9900240600.0 0.9259403212 0.3797169792
9950240300.0 0.9330009637 0.3629289626
10000240000.0 0.9377639043 0.3508356747
10050239700.0 0.9438370006 0.3348295979
10100239400.0 0.9491746888 0.3185456794
10150239100.0 0.9539023301 0.3031720367
10200238800.0 0.9582141917 0.2876015621
10250238500.0 0.9615182986 0.2740980079
10300238200.0 0.964630487 0.2600882438
10350237900.0 0.9673408117 0.2468572917
10400237600.0 0.9699718628 0.2336270395
10450237300.0 0.9726630056 0.2197847413
10500237000.0 0.9749555541 0.2074816194
10550236700.0 0.977384473 0.1930994861
10600236400.0 0.9796167386 0.1789925162
10650236100.0 0.9817762117 0.1639838616
10700235800.0 0.9840772607 0.151809409
10750235500.0 0.9856571489 0.1387890102
10800235200.0 0.9878450661 0.124509447
10850234900.0 0.989694535 0.1095291053
10900234600.0 0.9919868662 0.0947736659
10950234300.0 0.9936642823 0.0813266185
11000234000.0 0.9955794536 0.0657803513
11050233700.0 0.9974666892 0.0489484321
11100233400.0 0.9988874235 0.0314522617
11150233100.0 1.000095553 0.0146262713
11200232800.0 1.000968549 -0.0015988191
11250232500.0 1.001736356 -0.0187413721
11300232200.0 1.002055084 -0.0376582092
11350231900.0 1.002150094 -0.0532695342
11400231600.0 1.001653262 -0.0688744648
11450231300.0 1.00159366 -0.0854994024
11500231000.0 1.000267245 -0.1013038785
11550230700.0 0.9983872199 -0.1139004507
11600230400.0 0.9967143989 -0.1273939255
11650230100.0 0.995041221 -0.1396609945
11700229800.0 0.992092628 -0.1537965914
11750229500.0 0.9902148045 -0.1680795365
11800229200.0 0.9872544216 -0.1812977377
11850228900.0 0.983673243 -0.1934755501
11900228600.0 0.9798388055 -0.2029406551
11950228300.0 0.9767049879 -0.2132818428
12000228000.0 0.9742180903 -0.2209847647
12050227700.0 0.9700174733 -0.2342125035
12100227400.0 0.9665141784 -0.2457392596
12150227100.0 0.9620586641 -0.2622112178
12200226800.0 0.9578373921 -0.2737243846
12250226500.0 0.9538165321 -0.2864739245
12300226200.0 0.9498541633 -0.2985229588
12350225900.0 0.944358749 -0.3117063307
12400225600.0 0.9402364695 -0.3243178869
12450225300.0 0.9356206111 -0.3367449741
12500225000.0 0.9303097712 -0.3516369034
12550224700.0 0.9247711795 -0.365558788
12600224400.0 0.9201665484 -0.3780395551
12650224100.0 0.9142264993 -0.3923842882
12700223800.0 0.9090653264 -0.4051425451
12750223500.0 0.9034105795 -0.4183698211
12800223200.0 0.8981196797 -0.4311139837
12850222900.0 0.8927496334 -0.4429751236
12900222600.0 0.8870643719 -0.4548689223
12950222300.0 0.8814179091 -0.4671439192
13000222000.0 0.8753236909 -0.4795774736
13050221700.0 0.8678021607 -0.4929964516
13100221400.0 0.8616317487 -0.504574096
13150221100.0 0.8545596015 -0.5163924697
13200220800.0 0.8476750237 -0.5281001209
13250220500.0 0.8403271026 -0.5402217691
13300220200.0 0.8326749615 -0.5510936806
13350219900.0 0.8247581589 -0.5631352225
13400219600.0 0.8163785734 -0.5748630179
13450219300.0 0.806963549 -0.5879065966
13500219000.0 0.7970498415 -0.6011907951
13550218700.0 0.787414106 -0.613450493
13600218400.0 0.7774676243 -0.6254671523
13650218100.0 0.7681098362 -0.6362534253
13700217800.0 0.757304668 -0.6483962417
13750217500.0 0.7470279665 -0.6595487902
13800217200.0 0.7366463885 -0.6704518398
13850216900.0 0.7253601591 -0.6813232905
13900216600.0 0.7163458471 -0.6900766648
13950216300.0 0.7052440711 -0.7002131827
14000216000.0 0.6950811698 -0.7092736235
14050215700.0 0.686034303 -0.7170362103
14100215400.0 0.676786121 -0.726797346
14150215100.0 0.6674827071 -0.735220821
14200214800.0 0.6579428177 -0.7441047459
14250214500.0 0.6475828379 -0.7534957947
14300214200.0 0.6371280553 -0.7630529282
14350213900.0 0.6261713755 -0.7726271949
14400213600.0 0.6142277129 -0.7823088422
14450213300.0 0.6011856093 -0.7925645778
14500213000.0 0.5880444285 -0.8022239288
14550212700.0 0.5759555331 -0.8116260885
14600212400.0 0.5635684656 -0.8205890576
14650212100.0 0.550898948 -0.8293641078
14700211800.0 0.5369450341 -0.8388644256
14750211500.0 0.5251002897 -0.8473306967
14800211200.0 0.5118477057 -0.8554359908
14850210900.0 0.4999832242 -0.8632934828
14900210600.0 0.4867152297 -0.8709149597
14950210300.0 0.4732599734 -0.8784801646
15000210000.0 0.4606910151 -0.8854217041
15050209700.0 0.448201001 -0.8912847416
15100209400.0 0.435469089 -0.897270041
15150209100.0 0.4232778273 -0.9030984493
15200208800.0 0.4107294467 -0.9081546144
15250208500.0 0.3992472164 -0.9130483881
15300208200.0 0.387662554 -0.9171215566
15350207900.0 0.3741634382 -0.9220140864
15400207600.0 0.3598078825 -0.9277752474
15450207300.0 0.3447464591 -0.9314906731
15500207000.0 0.3304554013 -0.937370066
15550206700.0 0.3157374418 -0.9417230072
15600206400.0 0.2997817087 -0.9470643808
15650206100.0 0.2837494729 -0.950610424
15700205800.0 0.27056754 -0.9543025809
15750205500.0 0.2564092628 -0.9577927403
15800205200.0 0.2425241835 -0.9613737835
15850204900.0 0.2280852197 -0.9648295377
15900204600.0 0.2130260426 -0.9683723498
15950204300.0 0.1988321131 -0.9715765182
16000204000.0 0.1844910316 -0.9746844155
16050203700.0 0.1693224539 -0.9773699597
16100203400.0 0.1541534646 -0.9799189479
16150203100.0 0.1393593841 -0.9820351098
16200202800.0 0.1250633297 -0.984552206
16250202500.0 0.1102075875 -0.9856477571
16300202200.0 0.0949530308 -0.987350434
16350201900.0 0.0805177592 -0.9888242255
16400201600.0 0.0650646331 -0.9901050598
16450201300.0 0.0498259647 -0.9911415327
16500201000.0 0.0327215428 -0.9920243397
16550200700.0 0.0167795805 -0.992596409
16600200400.0 0.0009443992 -0.9926154427
16650200100.0 -0.0151328598 -0.9925213181
16700199800.0 -0.0315031314 -0.9923634779
16750199500.0 -0.0509968806 -0.9915590871
16800199200.0 -0.067008918 -0.9908738411
16850198900.0 -0.0826557912 -0.9897142999
16900198600.0 -0.0966891286 -0.9887481225
16950198300.0 -0.1099998437 -0.9879917393
17000198000.0 -0.1232676144 -0.9856767775
17050197700.0 -0.1355251681 -0.9836105431
17100197400.0 -0.1490200217 -0.982177264
17150197100.0 -0.1607751816 -0.9798447081
17200196800.0 -0.1740565024 -0.97760207
17250196500.0 -0.1868713131 -0.97575304
17300196200.0 -0.1989734772 -0.9730189252
17350195900.0 -0.2108839501 -0.9707840703
17400195600.0 -0.2229034392 -0.9683022773
17450195300.0 -0.2356106356 -0.9655566386
17500195000.0 -0.249164129 -0.9621373462
17550194700.0 -0.2629527702 -0.9586384569
17600194400.0 -0.277091926 -0.954677236
17650194100.0 -0.2906695658 -0.950499726
17700193800.0 -0.3029798011 -0.9464819017
17750193500.0 -0.3172111027 -0.9417230978
17800193200.0 -0.3316421407 -0.9365208917
17850192900.0 -0.3466109225 -0.9312107839
17900192600.0 -0.3615931239 -0.9249921737
17950192300.0 -0.3771474947 -0.9178739686
18000192000.0 -0.3918830425 -0.9107733206
18050191700.0 -0.4057809241 -0.9026936833
18100191400.0 -0.4199103476 -0.8951166141
18150191100.0 -0.4347292061 -0.887196782
18200190800.0 -0.4515638367 -0.8778520846
18250190500.0 -0.4688079217 -0.8685120842
18300190200.0 -0.4842944979 -0.8596407793
18350189900.0 -0.4991257889 -0.8515755877
18400189600.0 -0.5137327013 -0.842801195
18450189300.0 -0.5271647379 -0.8344677227
18500189000.0 -0.5402890254 -0.8269533783
18550188700.0 -0.5535105298 -0.8192489641
18600188400.0 -0.565323729 -0.8120786854
18650188100.0 -0.5765983605 -0.8057853984
18700187800.0 -0.5874850702 -0.7991749718
18750187500.0 -0.5985530999 -0.7926598283
18800187200.0 -0.6092027416 -0.7854970727
18850186900.0 -0.6192616255 -0.7786235901
18900186600.0 -0.6296143343 -0.7712559937
18950186300.0 -0.6398759509 -0.7635908131
19000186000.0 -0.6471264904 -0.7572508747
19050185700.0 -0.6569114705 -0.7501370198
19100185400.0 -0.6663430717 -0.7420191471
19150185100.0 -0.6769962416 -0.7337992356
19200184800.0 -0.6869343284 -0.7248180853
19250184500.0 -0.6961886706 -0.7158584234
19300184200.0 -0.7076542801 -0.706310619
19350183900.0 -0.7187307776 -0.6974907167
19400183600.0 -0.7282839761 -0.6874738564
19450183300.0 -0.7374334917 -0.6766614741
19500183000.0 -0.7453757918 -0.6665860761
19550182700.0 -0.7555542079 -0.6556970615
19600182400.0 -0.7651694373 -0.6439289241
19650182100.0 -0.775764292 -0.6319643061
19700181800.0 -0.786478732 -0.6183008032
19750181500.0 -0.7968227872 -0.6042986565
19800181200.0 -0.8070553845 -0.5894456618
19850180900.0 -0.8164166928 -0.5740398327
19900180600.0 -0.8244442915 -0.5597770411
19950180300.0 -0.8333570152 -0.5432831973
20000180000.0 -0.8232638173 -0.5472723244
20050179700.0 -0.8313363107 -0.5343358426
20100179400.0 -0.8404166695 -0.5209794246
20150179100.0 -0.8477643485 -0.5094142953
20200178800.0 -0.8565234945 -0.4977255255
20250178500.0 -0.8661052791 -0.4852857521
20300178200.0 -0.8758291916 -0.4712519186
20350177900.0 -0.8845754437 -0.4577120316
20400177600.0 -0.8937608597 -0.4430548717
20450177300.0 -0.9020548614 -0.4291054844
20500177000.0 -0.9101741912 -0.4151843436
20550176700.0 -0.9179889101 -0.4014655218
20600176400.0 -0.9250451889 -0.3884739061
20650176100.0 -0.9314933397 -0.376255835
20700175800.0 -0.9380240545 -0.3647658693
20750175500.0 -0.9445403577 -0.3520894782
20800175200.0 -0.9488441223 -0.3421561196
20850174900.0 -0.953357434 -0.3318170334
20900174600.0 -0.9578346224 -0.321040316
20950174300.0 -0.9607271077 -0.3091824072
21000174000.0 -0.9646978316 -0.2988402237
21050173700.0 -0.9647170244 -0.2881458817
21100173400.0 -0.968877036 -0.2774546823
21150173100.0 -0.9731133423 -0.2659355772
21200172800.0 -0.9769404387 -0.2526695832
21250172500.0 -0.9809103625 -0.2389456385
21300172200.0 -0.984334284 -0.2247567982
21350171900.0 -0.9859515289 -0.2104968887
21400171600.0 -0.988322469 -0.1967135598
21450171300.0 -0.9889430563 -0.1824933501
21500171000.0 -0.9895314171 -0.1668136489
21550170700.0 -0.9896076814 -0.1524959525
21600170400.0 -0.9896453903 -0.1366263775
21650170100.0 -0.9909441124 -0.1206294659
21700169800.0 -0.9903072059 -0.1053017958
21750169500.0 -0.9900073253 -0.0895778897
21800169200.0 -0.9900324058 -0.0726592222
21850168900.0 -0.9903634335 -0.0561413536
21900168600.0 -0.9893286961 -0.0400087342
21950168300.0 -0.9886628819 -0.0247022937
22000168000.0 -0.9886158615 -0.0094047875
22050167700.0 -0.9892306253 0.005070627
22100167400.0 -0.9899662882 0.0207244705
22150167100.0 -0.990641959 0.0368071693
22200166800.0 -0.9912392958 0.0534367979
22250166500.0 -0.9903973993 0.0699401126
22300166200.0 -0.9899331519 0.0872386327
22350165900.0 -0.9894070868 0.102889132
22400165600.0 -0.9879221302 0.1189790466
22450165300.0 -0.9857239558 0.1339778512
22500165000.0 -0.9840718952 0.1484914139
22550164700.0 -0.9829864416 0.1637272415
22600164400.0 -0.9808175113 0.1815456071
22650164100.0 -0.9770995238 0.1958204325
22700163800.0 -0.9739417645 0.212209741
22750163500.0 -0.9715942722 0.2265122435
22800163200.0 -0.9682199837 0.2400835332
22850162900.0 -0.9659017194 0.2532469897
22900162600.0 -0.9640737144 0.2670534158
22950162300.0 -0.9627251801 0.2810025926
23000162000.0 -0.9605361598 0.2934353619
23050161700.0 -0.9584444584 0.3069482852
23100161400.0 -0.9553086113 0.3204857659
23150161100.0 -0.9525946016 0.3330412966
23200160800.0 -0.9493919693 0.3458944818
23250160500.0 -0.9461052477 0.3585562098
23300160200.0 -0.9435080373 0.3715291587
23350159900.0 -0.9393342241 0.385056999
23400159600.0 -0.93521858 0.3980526153
23450159300.0 -0.9299663113 0.411888834
23500159000.0 -0.9252108009 0.425589778
23550158700.0 -0.9204037389 0.4399481132
23600158400.0 -0.9142035298 0.4537168917
23650158100.0 -0.9069337127 0.4683648665
23700157800.0 -0.8987968892 0.4825374587
23750157500.0 -0.8896118008 0.4965369918
23800157200.0 -0.8796615621 0.5101766581
23850156900.0 -0.8701898368 0.5230153407
23900156600.0 -0.8599729149 0.5352560012
23950156300.0 -0.8507672905 0.5479685128
24000156000.0 -0.8410087931 0.5604431831
24050155700.0 -0.8303389157 0.5734517398
24100155400.0 -0.8198734987 0.5854668357
24150155100.0 -0.809249619 0.5978631445
24200154800.0 -0.7978403975 0.608738958
24250154500.0 -0.7869969161 0.6216859406
24300154200.0 -0.7756152809 0.6335882396
24350153900.0 -0.7636512334 0.6444048968
24400153600.0 -0.7511879352 0.6547193115
24450153300.0 -0.7389318235 0.6653370252
24500153000.0 -0.7276426132 0.6750966986
24550152700.0 -0.7161846131 0.6856324965
24600152400.0 -0.7038990227 0.694407766
24650152100.0 -0.6920072231 0.703860889
