!Created with skrf (http://scikit-rf.org).
# Hz S RI R 50.0 
!freq ReS11 ImS11
300000.0 -0.981081539 -0.0997391857
50299700.0 -0.9999679752 0.0163084164
100299400.0 -0.9980256622 0.0292764368
150299100.0 -1.002789904 0.0459890852
200298800.0 -0.9996494123 0.0594359151
250298500.0 -0.9974049983 0.0728852942
300298200.0 -0.9859546849 0.0888158536
350297900.0 -0.9939712563 0.0995722379
400297600.0 -0.9931617668 0.1159647948
450297300.0 -0.9909524696 0.1298748908
500297000.0 -0.9895101362 0.1448229358
550296700.0 -0.9841580401 0.1570857499
600296400.0 -1.017038419 0.1905585828
650296100.0 -0.9819250112 0.1872051538
700295800.0 -0.9792709551 0.2013925661
750295500.0 -0.9760008009 0.2156838834
800295200.0 -0.9725163078 0.2296774504
850294900.0 -0.9693239634 0.24345354
900294600.0 -0.9654283973 0.2572662541
950294300.0 -0.9616617974 0.2708745069
1000294000.0 -0.9577717002 0.2846787265
1050293700.0 -0.9530592247 0.2985956407
1100293400.0 -0.9487796203 0.3129253385
1150293100.0 -0.9450152336 0.3249144913
1200292800.0 -0.9397256537 0.3392748688
1250292500.0 -0.9342671668 0.3525262279
1300292200.0 -0.9286277381 0.3658594601
1350291900.0 -0.9228980531 0.3798401946
1400291600.0 -0.9176770968 0.3929032054
1450291300.0 -0.9119995481 0.4052594468
1500291000.0 -0.9058406885 0.4185346952
1550290700.0 -0.8991806056 0.4318765911
1600290400.0 -0.8931149373 0.4447265131
1650290100.0 -0.8865542144 0.4569245707
1700289800.0 -0.8794602143 0.4704148204
1750289500.0 -0.8723548853 0.4827380483
1800289200.0 -0.8650512722 0.4956603895
1850288900.0 -0.8581866756 0.5067949763
1900288600.0 -0.8504421932 0.5199510464
1950288300.0 -0.8423170564 0.5325181422
2000288000.0 -0.8350533618 0.5438620296
2050287700.0 -0.8267332653 0.5562056447
2100287400.0 -0.8187552288 0.5679114885
2150287100.0 -0.8101368077 0.5799175064
2200286800.0 -0.8023797002 0.5903077229
2250286500.0 -0.7935825313 0.602210206
2300286200.0 -0.7845758771 0.6140149525
2350285900.0 -0.7757317308 0.6250618356
2400285600.0 -0.7667593703 0.6359550705
2450285300.0 -0.7581532162 0.6464326099
2500285000.0 -0.7482598674 0.6577529978
2550284700.0 -0.7393320095 0.6679396037
2600284400.0 -0.7298551254 0.6778947773
2650284100.0 -0.7208724205 0.6886511548
2700283800.0 -0.7101144043 0.698975823
2750283500.0 -0.7000407134 0.7096522343
2800283200.0 -0.6900940099 0.7196229417
2850282900.0 -0.6798073259 0.7291335815
2900282600.0 -0.6695269482 0.7389559728
2950282300.0 -0.6595180821 0.7479035971
3000282000.0 -0.6487788111 0.7576162933
3050281700.0 -0.6376318817 0.7668820635
3100281400.0 -0.6257339542 0.7761375971
3150281100.0 -0.6139389577 0.7855398423
3200280800.0 -0.6023075903 0.7939737994
3250280500.0 -0.5916528322 0.8016409642
3300280200.0 -0.5805896991 0.809491812
3350279900.0 -0.5688271535 0.817136298
3400279600.0 -0.5569109813 0.824646601
3450279300.0 -0.545655845 0.8317678632
3500279000.0 -0.5337287926 0.8388236918
3550278700.0 -0.5211394759 0.8463627651
3600278400.0 -0.5090207568 0.8533782143
3650278100.0 -0.495836722 0.8612916035
3700277800.0 -0.4837629576 0.867470371
3750277500.0 -0.4716117202 0.8739769428
3800277200.0 -0.4588984444 0.88065641
3850276900.0 -0.4469849085 0.8863000811
3900276600.0 -0.4357946775 0.892158675
3950276300.0 -0.4235315547 0.8981530945
4000276000.0 -0.4112169486 0.9039820721
4050275700.0 -0.3979704966 0.9102819292
4100275400.0 -0.386643402 0.9159162435
4150275100.0 -0.3743291058 0.9212225726
4200274800.0 -0.3613935216 0.9266559129
4250274500.0 -0.3487263634 0.9319589434
4300274200.0 -0.3360291721 0.9370410675
4350273900.0 -0.3222330141 0.9422366939
4400273600.0 -0.3072912949 0.9474659049
4450273300.0 -0.2918886835 0.9525827188
4500273000.0 -0.2782824695 0.9571063345
4550272700.0 -0.264056798 0.9611510527
4600272400.0 -0.2485889054 0.9654092096
4650272100.0 -0.2368253885 0.9686460751
4700271800.0 -0.2235106812 0.9718808051
4750271500.0 -0.2116678553 0.9746592423
4800271200.0 -0.1992209415 0.9774512776
4850270900.0 -0.1853243906 0.9802893789
4900270600.0 -0.1714861913 0.9826861004
4950270300.0 -0.1573943315 0.9853614412
5000270000.0 -0.1431394207 0.9872034102
5050269700.0 -0.1297863232 0.9891734016
5100269400.0 -0.1160588543 0.9906246893
5150269100.0 -0.1030344395 0.9921084604
5200268800.0 -0.0894430882 0.9932267269
5250268500.0 -0.0768173741 0.9940626201
5300268200.0 -0.0635799411 0.9948211566
5350267900.0 -0.0514674682 0.9951725205
5400267600.0 -0.0351026351 0.9964594298
5450267300.0 -0.0220367075 0.9969251103
5500267000.0 -0.0069352847 0.9970574513
5550266700.0 0.0078562967 0.997196059
5600266400.0 0.0232757351 0.9971053691
5650266100.0 0.0400070771 0.9966295929
5700265800.0 0.0545562147 0.9959903139
5750265500.0 0.0695053709 0.9955049637
5800265200.0 0.0839180253 0.99434969
5850264900.0 0.0968670714 0.9932651237
5900264600.0 0.1133107355 0.9911915694
5950264300.0 0.1258243688 0.9895824714
6000264000.0 0.1397531654 0.9879530725
6050263700.0 0.1523199567 0.9863815521
6100263400.0 0.1646785324 0.984489652
6150263100.0 0.1794545878 0.9822095424
6200262800.0 0.1900446974 0.9803668899
6250262500.0 0.2025807648 0.9777097928
6300262200.0 0.2155297477 0.9749725122
6350261900.0 0.2286228646 0.9721951703
6400261600.0 0.2425122176 0.9686433287
6450261300.0 0.2537410418 0.9659066777
6500261000.0 0.2669463846 0.9626621605
6550260700.0 0.2793171137 0.9584820916
6600260400.0 0.2929996999 0.9543942388
6650260100.0 0.3068253069 0.9501810661
6700259800.0 0.3186141021 0.9458818507
6750259500.0 0.3327333318 0.9411670444
6800259200.0 0.3457089918 0.9362097064
6850258900.0 0.3575568664 0.9309976054
6900258600.0 0.3698885272 0.9261909878
6950258300.0 0.3822848697 0.9206888493
7000258000.0 0.3942170766 0.915391032
7050257700.0 0.4064018101 0.9092666635
7100257400.0 0.4191399192 0.9029565328
7150257100.0 0.4294530753 0.897913094
7200256800.0 0.442324316 0.8914623453
7250256500.0 0.4538058549 0.8849363296
7300256200.0 0.4670964582 0.8782814807
7350255900.0 0.4793782773 0.8713575116
7400255600.0 0.4925714289 0.8643085403
7450255300.0 0.5077521822 0.855124341
7500255000.0 0.5196133228 0.8485394358
7550254700.0 0.5327036952 0.839615832
7600254400.0 0.5457395254 0.8313744765
7650254100.0 0.5572894655 0.8235935094
7700253800.0 0.5690017369 0.815430814
7750253500.0 0.5804316461 0.8075203313
7800253200.0 0.5912545473 0.799787228
7850252900.0 0.6009879963 0.7926705772
7900252600.0 0.6127590917 0.7837296146
7950252300.0 0.6215030568 0.7773223929
8000252000.0 0.6318381727 0.7694417866
8050251700.0 0.6424010233 0.7611363575
8100251400.0 0.6526740595 0.7527665109
8150251100.0 0.6623196593 0.7443529286
8200250800.0 0.6717806157 0.7361883665
8250250500.0 0.6810385817 0.7281809203
8300250200.0 0.6902803628 0.7195193827
8350249900.0 0.6994060322 0.7108627623
8400249600.0 0.7075825666 0.702902765
8450249300.0 0.7168108875 0.6935921215
8500249000.0 0.7253243702 0.684716196
8550248700.0 0.7336598761 0.6757012191
8600248400.0 0.7421627822 0.6661152358
8650248100.0 0.7499318992 0.6566662768
8700247800.0 0.7593081516 0.6456841711
8750247500.0 0.767541768 0.6356661519
8800247200.0 0.7756391275 0.6253943231
8850246900.0 0.7845749901 0.6137740681
8900246600.0 0.7928496228 0.6026558358
8950246300.0 0.802568858 0.5896769355
9000246000.0 0.8118881031 0.5767825331
9050245700.0 0.8205933567 0.5641500926
9100245400.0 0.8290004127 0.5516531002
9150245100.0 0.8386794964 0.5380078247
9200244800.0 0.8484038666 0.5228340259
9250244500.0 0.8576848722 0.5072648149
9300244200.0 0.866108653 0.4927719563
9350243900.0 0.8739061657 0.4787717716
9400243600.0 0.8805572551 0.4662100641
9450243300.0 0.8864681443 0.454302846
9500243000.0 0.8927615889 0.4418353023
9550242700.0 0.8966630925 0.4338607779
9600242400.0 0.9006338451 0.4262499494
9650242100.0 0.9042170325 0.419772922
9700241800.0 0.908895009 0.4113815312
9750241500.0 0.9126788363 0.4036732539
9800241200.0 0.9170591241 0.394529142
9850240900.0 0.9229215693 0.3831234685
9900240600.0 0.9281309072 0.3715725473
9950240300.0 0.9348938618 0.3553417919
10000240000.0 0.9391857133 0.3435310303
10050239700.0 0.9452481075 0.3284814002
10100239400.0 0.9500672573 0.3131487779
10150239100.0 0.9542263114 0.2986612998
10200238800.0 0.9586264312 0.2836290158
10250238500.0 0.9617944198 0.2701914752
10300238200.0 0.9650056453 0.2562854736
10350237900.0 0.9676271202 0.2433836523
10400237600.0 0.9701677388 0.2302540462
10450237300.0 0.9728996645 0.2165759586
10500237000.0 0.974997933 0.2043930605
10550236700.0 0.9771022519 0.1903404945
10600236400.0 0.9796297116 0.1770118146
10650236100.0 0.9812792767 0.1626117682
10700235800.0 0.9834018682 0.1507986975
10750235500.0 0.9857888734 0.1371870281
10800235200.0 0.9880824231 0.123350752
10850234900.0 0.9895487303 0.1088332925
10900234600.0 0.9916384579 0.0942858519
10950234300.0 0.9934066217 0.0808021956
11000234000.0 0.9953082193 0.0658439859
11050233700.0 0.9969947345 0.0496318188
11100233400.0 0.9981288992 0.0322047171
11150233100.0 0.9993588074 0.0162074106
11200232800.0 0.9997913556 0.0005405679
11250232500.0 1.001244784 -0.0157204567
11300232200.0 1.001153997 -0.0334423496
11350231900.0 1.001590308 -0.0494559552
11400231600.0 1.000831138 -0.0644153046
11450231300.0 1.000546515 -0.0803055798
11500231000.0 0.9988967526 -0.0974654461
11550230700.0 0.9977121578 -0.1099716603
11600230400.0 0.9966970555 -0.1242121706
11650230100.0 0.9946809848 -0.1346737457
11700229800.0 0.9922692617 -0.14913512
11750229500.0 0.9898439087 -0.1640823652
11800229200.0 0.987411437 -0.1786713048
11850228900.0 0.9835886975 -0.1909431241
11900228600.0 0.9804611057 -0.2008151602
11950228300.0 0.9768470193 -0.2112769478
12000228000.0 0.9743107253 -0.2202032462
12050227700.0 0.9710247566 -0.2328044234
12100227400.0 0.9675302622 -0.2436872586
12150227100.0 0.9623865331 -0.2603565431
12200226800.0 0.9591064127 -0.2708726089
12250226500.0 0.9547504445 -0.2848365754
12300226200.0 0.9511227702 -0.2961225081
12350225900.0 0.9457787993 -0.3098463824
12400225600.0 0.9418640598 -0.3224546361
12450225300.0 0.9375674913 -0.3350111668
12500225000.0 0.9318990039 -0.3500241573
12550224700.0 0.9265745075 -0.3634269618
12600224400.0 0.921678606 -0.3760416966
12650224100.0 0.915951035 -0.3902887615
12700223800.0 0.9108045109 -0.4029005132
12750223500.0 0.9050542376 -0.4161872394
12800223200.0 0.8999244002 -0.4287862853
12850222900.0 0.8945979688 -0.440689016
12900222600.0 0.8885953411 -0.4530314838
12950222300.0 0.8823988517 -0.4658371049
13000222000.0 0.8764201746 -0.4772693942
13050221700.0 0.8697239599 -0.4896321024
13100221400.0 0.8627656007 -0.5018995966
13150221100.0 0.856238509 -0.5142994284
13200220800.0 0.8490646401 -0.5259388012
13250220500.0 0.841449544 -0.5382820516
13300220200.0 0.8340985596 -0.5490076602
13350219900.0 0.8259834076 -0.5611737674
13400219600.0 0.8175299945 -0.5733597158
13450219300.0 0.808033113 -0.5869610087
13500219000.0 0.7975310888 -0.6010942333
13550218700.0 0.7874026276 -0.6138460073
13600218400.0 0.7770309749 -0.6260027337
13650218100.0 0.7674734628 -0.6366970341
13700217800.0 0.7560710211 -0.6493809501
13750217500.0 0.7462253525 -0.6608066745
13800217200.0 0.7350805939 -0.6727928703
13850216900.0 0.7235515037 -0.6838048223
13900216600.0 0.7143238588 -0.6928941341
13950216300.0 0.7028386733 -0.7033709309
14000216000.0 0.6927669904 -0.7128341169
14050215700.0 0.6837355788 -0.7207314997
14100215400.0 0.6738035847 -0.7301350301
14150215100.0 0.6648287829 -0.7383416506
14200214800.0 0.6555187623 -0.7467418589
14250214500.0 0.6453075142 -0.7559105515
14300214200.0 0.6350658938 -0.7650251177
14350213900.0 0.6241351716 -0.774510393
14400213600.0 0.6124599226 -0.7839365103
14450213300.0 0.5994559361 -0.7940375274
14500213000.0 0.5870006174 -0.8040726115
14550212700.0 0.5740289528 -0.8133579135
14600212400.0 0.5618011351 -0.8218818931
14650212100.0 0.5483628456 -0.8309386141
14700211800.0 0.5341864013 -0.8398913666
14750211500.0 0.5226240414 -0.848109126
14800211200.0 0.5100305872 -0.8563674933
14850210900.0 0.4980216573 -0.8639381578
14900210600.0 0.4845438635 -0.8718673151
14950210300.0 0.470920606 -0.8798486166
15000210000.0 0.4580400638 -0.8865869539
15050209700.0 0.4453597338 -0.8926814268
15100209400.0 0.4329688062 -0.898579815
15150209100.0 0.4201274599 -0.9041326624
15200208800.0 0.407323817 -0.9098895137
15250208500.0 0.395843464 -0.9144710637
15300208200.0 0.3829431982 -0.9191118472
15350207900.0 0.36930453 -0.9242272361
15400207600.0 0.3547484944 -0.9292488398
15450207300.0 0.3401077026 -0.9342348325
15500207000.0 0.3258300842 -0.93877478
15550206700.0 0.3104516731 -0.9437441235
15600206400.0 0.295318643 -0.9480215489
15650206100.0 0.2797392189 -0.9529075557
15700205800.0 0.265433329 -0.9567053085
15750205500.0 0.250880977 -0.9595839389
15800205200.0 0.2364501594 -0.9629961133
15850204900.0 0.2222815161 -0.9664640802
15900204600.0 0.2074206562 -0.9700823105
15950204300.0 0.1933884454 -0.972807625
16000204000.0 0.1797613671 -0.9755648657
16050203700.0 0.1647278165 -0.9780578031
16100203400.0 0.1505872238 -0.9803230635
16150203100.0 0.1369512093 -0.9823124202
16200202800.0 0.1223965949 -0.9841586365
16250202500.0 0.1078127185 -0.9862034338
16300202200.0 0.0922413141 -0.9880854031
16350201900.0 0.0776767055 -0.9895479742
16400201600.0 0.0633383552 -0.9902700158
16450201300.0 0.0481387869 -0.9912058789
16500201000.0 0.0313784272 -0.9919561777
16550200700.0 0.0157730654 -0.9925379034
16600200400.0 -6.96341e-05 -0.9926109103
16650200100.0 -0.0164985715 -0.9924821056
16700199800.0 -0.0329014068 -0.992018192
16750199500.0 -0.0516382886 -0.9916542655
16800199200.0 -0.0676265634 -0.9911528058
16850198900.0 -0.0825246089 -0.9892976692
16900198600.0 -0.0966256517 -0.9886023483
16950198300.0 -0.1096659126 -0.9874479705
17000198000.0 -0.1235241659 -0.9854107271
17050197700.0 -0.1362821004 -0.9836841187
17100197400.0 -0.1494471015 -0.9815288793
17150197100.0 -0.1616161327 -0.9796710105
17200196800.0 -0.1746028975 -0.9776237732
17250196500.0 -0.1871760401 -0.9750298659
17300196200.0 -0.1998649752 -0.9728497799
17350195900.0 -0.2115809552 -0.9706952594
17400195600.0 -0.2240012046 -0.9681350586
17450195300.0 -0.2372141363 -0.9651860161
17500195000.0 -0.2505418002 -0.9618320669
17550194700.0 -0.2644776607 -0.9582929657
17600194400.0 -0.2781957709 -0.9542590516
17650194100.0 -0.2916327669 -0.9504835146
17700193800.0 -0.3047768486 -0.9460368753
17750193500.0 -0.3194074588 -0.9415823525
17800193200.0 -0.3335084428 -0.9356865885
17850192900.0 -0.3482784384 -0.9307565094
17900192600.0 -0.3634637371 -0.9248713161
17950192300.0 -0.3787464113 -0.9176187847
18000192000.0 -0.3933658559 -0.9103311099
18050191700.0 -0.4070492728 -0.9026004789
18100191400.0 -0.4212368306 -0.8949672722
18150191100.0 -0.436111249 -0.8869250018
18200190800.0 -0.4529069054 -0.8778921143
18250190500.0 -0.4697817095 -0.8684984083
18300190200.0 -0.4851217119 -0.8594989112
18350189900.0 -0.5000070572 -0.8511377378
18400189600.0 -0.5146579601 -0.8428923659
18450189300.0 -0.5278554563 -0.8347661297
18500189000.0 -0.5414477832 -0.8267958841
18550188700.0 -0.5542041928 -0.8188530078
18600188400.0 -0.5656775213 -0.8122138655
18650188100.0 -0.5768164153 -0.8053202098
18700187800.0 -0.5876266744 -0.7987475997
18750187500.0 -0.5987135891 -0.7917041929
18800187200.0 -0.6093878807 -0.7846167148
18850186900.0 -0.6200803462 -0.7774925306
18900186600.0 -0.6304770076 -0.7699303842
18950186300.0 -0.6403746046 -0.7618766188
19000186000.0 -0.6483640165 -0.7558106819
19050185700.0 -0.6574791236 -0.7480571074
19100185400.0 -0.6677535206 -0.7403217359
19150185100.0 -0.6783797641 -0.7312316378
19200184800.0 -0.6870444728 -0.7227526905
19250184500.0 -0.6974481124 -0.7130644917
19300184200.0 -0.7085987562 -0.7040241722
19350183900.0 -0.7197783841 -0.6943361178
19400183600.0 -0.7296585871 -0.6847170472
19450183300.0 -0.7382578395 -0.674771726
19500183000.0 -0.7467454496 -0.6641202487
19550182700.0 -0.7562426536 -0.6536892325
19600182400.0 -0.7664870905 -0.6419971552
19650182100.0 -0.7769401892 -0.629521043
19700181800.0 -0.7876907379 -0.6166701502
19750181500.0 -0.7977353727 -0.6027711856
19800181200.0 -0.8078835875 -0.5881514422
19850180900.0 -0.8174052098 -0.572873667
19900180600.0 -0.8250214028 -0.5584757371
19950180300.0 -0.8341640641 -0.542300584
20000180000.0 -0.8279391701 -0.5445722515
20050179700.0 -0.835386324 -0.5314485479
20100179400.0 -0.8434604407 -0.5181344907
20150179100.0 -0.8517399646 -0.5050745009
20200178800.0 -0.8604367382 -0.4924117682
20250178500.0 -0.8704881293 -0.4792561548
20300178200.0 -0.8789566978 -0.464057422
20350177900.0 -0.8881130092 -0.4501873875
20400177600.0 -0.896927709 -0.4356448494
20450177300.0 -0.9053944884 -0.4212066112
20500177000.0 -0.9132086839 -0.407138296
20550176700.0 -0.9208863026 -0.3936467072
20600176400.0 -0.9281376036 -0.3802942953
20650176100.0 -0.9351948876 -0.3677036199
20700175800.0 -0.9416610661 -0.3558120234
20750175500.0 -0.9476479728 -0.3436452799
20800175200.0 -0.9524057248 -0.3329938376
20850174900.0 -0.9577289047 -0.3213667745
20900174600.0 -0.9625532753 -0.3097344286
20950174300.0 -0.9664753326 -0.2984450646
21000174000.0 -0.970172208 -0.2865271899
21050173700.0 -0.9728719475 -0.2748775268
21100173400.0 -0.9773067622 -0.2632422695
21150173100.0 -0.9811339494 -0.2503811076
21200172800.0 -0.9846323 -0.2367483502
21250172500.0 -0.98808056 -0.2230157788
21300172200.0 -0.9907210445 -0.2083195952
21350171900.0 -0.9917581075 -0.1943180431
21400171600.0 -0.9937599704 -0.1804047736
21450171300.0 -0.9934126202 -0.1651927536
21500171000.0 -0.9939041929 -0.1507738567
21550170700.0 -0.9934950627 -0.1345579574
21600170400.0 -0.9928360852 -0.1187307446
21650170100.0 -0.9925645868 -0.1036480601
21700169800.0 -0.990806733 -0.0893750306
21750169500.0 -0.9896865023 -0.0727001509
21800169200.0 -0.9874010374 -0.0564903006
21850168900.0 -0.987361505 -0.0399304431
21900168600.0 -0.9860835709 -0.024293281
21950168300.0 -0.984190932 -0.0078493765
22000168000.0 -0.9830530104 0.0065594468
22050167700.0 -0.9825307257 0.0212516788
22100167400.0 -0.982439352 0.0359550037
22150167100.0 -0.9829494305 0.051254358
22200166800.0 -0.983485809 0.0671094867
22250166500.0 -0.9828405318 0.0840524413
22300166200.0 -0.9825724175 0.1007300869
22350165900.0 -0.9812472781 0.1175499695
22400165600.0 -0.9797915677 0.1329507428
22450165300.0 -0.9768345918 0.1474910953
22500165000.0 -0.9754933091 0.1615224104
22550164700.0 -0.9730692691 0.1752933435
22600164400.0 -0.9724362172 0.1922023489
22650164100.0 -0.9697707816 0.2072134296
22700163800.0 -0.9677190701 0.2234154746
22750163500.0 -0.9655483711 0.2386601445
22800163200.0 -0.9620204163 0.2517596688
22850162900.0 -0.9594534417 0.2653200716
22900162600.0 -0.9584748511 0.2789297219
22950162300.0 -0.9571443166 0.2914126433
23000162000.0 -0.9562181498 0.3031196186
23050161700.0 -0.9540279898 0.3158559282
23100161400.0 -0.9516604847 0.3277390345
23150161100.0 -0.9495753592 0.3401874628
23200160800.0 -0.9464568969 0.3526139159
23250160500.0 -0.9436086294 0.3644216227
23300160200.0 -0.9406877485 0.3768849668
23350159900.0 -0.9375929303 0.389128914
23400159600.0 -0.931823217 0.402163533
23450159300.0 -0.9276110637 0.4154953952
23500159000.0 -0.9229768876 0.4286462957
23550158700.0 -0.9183730474 0.4414846413
23600158400.0 -0.9130851495 0.4544890322
23650158100.0 -0.906475568 0.4684797449
23700157800.0 -0.8993088893 0.4821104906
23750157500.0 -0.8905380246 0.4961089647
23800157200.0 -0.8816678826 0.5095505856
23850156900.0 -0.8734911601 0.5214931775
23900156600.0 -0.8641124972 0.5347983866
23950156300.0 -0.854222309 0.5457168092
24000156000.0 -0.8455156692 0.5584596533
24050155700.0 -0.835499541 0.5709858473
24100155400.0 -0.8256233873 0.5829501159
24150155100.0 -0.8144654721 0.5939458497
24200154800.0 -0.8040446422 0.6056506994
24250154500.0 -0.7921454801 0.6174936039
24300154200.0 -0.7812178878 0.6293350746
24350153900.0 -0.7690142489 0.6397434561
24400153600.0 -0.7573723455 0.6500101573
24450153300.0 -0.7450313968 0.6600901328
24500153000.0 -0.7333401206 0.6697070574
24550152700.0 -0.7224509976 0.6796269481
24600152400.0 -0.7110750979 0.6885067886
