!Created with skrf (http://scikit-rf.org).
# Hz S RI R 50.0 
!freq ReS11 ImS11
300000.0 -0.9743163957 -0.1225461685
50299700.0 -0.9999188475 0.0149517696
100299400.0 -0.9981417746 0.0280544717
150299100.0 -1.002593836 0.0448857446
200298800.0 -0.9994813606 0.0581793051
250298500.0 -0.9973238793 0.0716511108
300298200.0 -0.9857681758 0.0873676839
350297900.0 -0.9939891807 0.0982578505
400297600.0 -0.993036199 0.1148196961
450297300.0 -0.9910057108 0.1287094075
500297000.0 -0.9895161474 0.1433807727
550296700.0 -0.9842857887 0.1558557093
600296400.0 -1.017170252 0.1890719579
650296100.0 -0.9822339384 0.1856078385
700295800.0 -0.9794825897 0.1999277398
750295500.0 -0.9762378326 0.2139839035
800295200.0 -0.9728345497 0.228015754
850294900.0 -0.9696320459 0.241876811
900294600.0 -0.9659069961 0.2556724231
950294300.0 -0.9618393811 0.269190026
1000294000.0 -0.9581067729 0.283151617
1050293700.0 -0.9534619545 0.2970459363
1100293400.0 -0.9492533309 0.3114867352
1150293100.0 -0.9456173121 0.3230320894
1200292800.0 -0.9401214751 0.3377354734
1250292500.0 -0.9347801885 0.3511166597
1300292200.0 -0.9291084566 0.3643750088
1350291900.0 -0.9232893725 0.3782709417
1400291600.0 -0.9180129168 0.3913737168
1450291300.0 -0.9123460677 0.4040322997
1500291000.0 -0.9062416865 0.4172416129
1550290700.0 -0.8996572895 0.4308261018
1600290400.0 -0.8934315653 0.4435152388
1650290100.0 -0.8868646689 0.4554910784
1700289800.0 -0.8799862055 0.4692138663
1750289500.0 -0.8729270495 0.4813504097
1800289200.0 -0.8656119943 0.4945272708
1850288900.0 -0.8587126306 0.5055626056
1900288600.0 -0.8510251207 0.5187773913
1950288300.0 -0.843048237 0.5312610813
2000288000.0 -0.8353509498 0.5429185894
2050287700.0 -0.8271376893 0.5550777013
2100287400.0 -0.8191642385 0.5663356168
2150287100.0 -0.8106994348 0.5786406712
2200286800.0 -0.8029556161 0.5890319771
2250286500.0 -0.7941458502 0.6014067253
2300286200.0 -0.7852092861 0.6127137596
2350285900.0 -0.7770071934 0.6232881278
2400285600.0 -0.7680497584 0.634226683
2450285300.0 -0.7591559071 0.6450630417
2500285000.0 -0.7490579859 0.6565530394
2550284700.0 -0.740306142 0.666970439
2600284400.0 -0.7312178526 0.6767849181
2650284100.0 -0.7224240596 0.6874092872
2700283800.0 -0.7123368738 0.6975972714
2750283500.0 -0.7017419244 0.7082676967
2800283200.0 -0.6915333841 0.7177721033
2850282900.0 -0.6812758911 0.7280248229
2900282600.0 -0.6706710498 0.7375209476
2950282300.0 -0.6603590714 0.7472369136
3000282000.0 -0.6494058566 0.7565361309
3050281700.0 -0.6383069661 0.7658472665
3100281400.0 -0.6269920657 0.7749899204
3150281100.0 -0.6156570857 0.783891682
3200280800.0 -0.6041106534 0.7922403271
3250280500.0 -0.5930798955 0.8001970888
3300280200.0 -0.5815863984 0.8083370477
3350279900.0 -0.5693283541 0.8163771489
3400279600.0 -0.5567560595 0.8243906533
3450279300.0 -0.5455589415 0.8317948045
3500279000.0 -0.5339404902 0.8385817071
3550278700.0 -0.5218513328 0.8454990004
3600278400.0 -0.5099438334 0.8522599027
3650278100.0 -0.4969129027 0.8599477399
3700277800.0 -0.4849123336 0.8663366683
3750277500.0 -0.4722030964 0.8733258113
3800277200.0 -0.4599909376 0.8797141586
3850276900.0 -0.4476192553 0.8855370273
3900276600.0 -0.4369101299 0.8913927941
3950276300.0 -0.4250530584 0.8973276477
4000276000.0 -0.4131570352 0.9030726447
4050275700.0 -0.4004331477 0.9090446316
4100275400.0 -0.3893450132 0.9144914872
4150275100.0 -0.3762575902 0.9205375511
4200274800.0 -0.3625366038 0.9260842925
4250274500.0 -0.3502601403 0.9315798068
4300274200.0 -0.3367208449 0.9366011489
4350273900.0 -0.3226775558 0.9418476443
4400273600.0 -0.3078176205 0.9473237054
4450273300.0 -0.2928912038 0.9521034476
4500273000.0 -0.2797649664 0.9564972862
4550272700.0 -0.2663942053 0.9604875983
4600272400.0 -0.250982607 0.964637356
4650272100.0 -0.2397584393 0.9677820065
4700271800.0 -0.2267508905 0.9710659475
4750271500.0 -0.2151605401 0.9740345752
4800271200.0 -0.2030150848 0.9766127328
4850270900.0 -0.1892206182 0.9794577265
4900270600.0 -0.1753549385 0.9819365539
4950270300.0 -0.1609321878 0.9844740771
5000270000.0 -0.146235665 0.9867713201
5050269700.0 -0.1328132533 0.9881992088
5100269400.0 -0.1188293053 0.9902429545
5150269100.0 -0.1047984919 0.991938098
5200268800.0 -0.0914187461 0.9925658768
5250268500.0 -0.0782638047 0.9937000538
5300268200.0 -0.0646170606 0.9945153208
5350267900.0 -0.0516748875 0.9954391032
5400267600.0 -0.0355656715 0.9962906951
5450267300.0 -0.0222821974 0.9964768303
5500267000.0 -0.0068277639 0.9969390944
5550266700.0 0.0078972682 0.9970607862
5600266400.0 0.0238186098 0.9972955565
5650266100.0 0.0405648423 0.996744369
5700265800.0 0.0547387812 0.9960668999
5750265500.0 0.0694910632 0.9951082967
5800265200.0 0.0830387885 0.9941021803
5850264900.0 0.0959807484 0.9932484136
5900264600.0 0.1127995116 0.9914886455
5950264300.0 0.124159991 0.9895477815
6000264000.0 0.1378284833 0.98794613
6050263700.0 0.1495914446 0.9869155921
6100263400.0 0.1618730029 0.9849599198
6150263100.0 0.1764958098 0.9825950667
6200262800.0 0.1858938861 0.9810810282
6250262500.0 0.1984430211 0.9787499389
6300262200.0 0.210938301 0.9762019734
6350261900.0 0.2238135759 0.9734692151
6400261600.0 0.2375682325 0.9702716146
6450261300.0 0.2485276078 0.967794995
6500261000.0 0.2620170606 0.9642564302
6550260700.0 0.274718511 0.9601028162
6600260400.0 0.2883105729 0.9560435384
6650260100.0 0.3026980957 0.9517137867
6700259800.0 0.3144793853 0.9471707537
6750259500.0 0.3283391637 0.9423945556
6800259200.0 0.3417109842 0.9371837812
6850258900.0 0.3544554502 0.932214111
6900258600.0 0.3669541882 0.9268533028
6950258300.0 0.3795080555 0.9214536435
7000258000.0 0.3911936161 0.9163150275
7050257700.0 0.4030498568 0.9106095465
7100257400.0 0.4165994404 0.9041826704
7150257100.0 0.4271859675 0.8985886314
7200256800.0 0.4403882772 0.8922195983
7250256500.0 0.45299395 0.8855721519
7300256200.0 0.4658679084 0.8784778692
7350255900.0 0.4785173213 0.8717400872
7400255600.0 0.4930338542 0.8638236487
7450255300.0 0.5085343314 0.8550488112
7500255000.0 0.5209916711 0.8474712037
7550254700.0 0.5351467878 0.8381241117
7600254400.0 0.547807368 0.8302720455
7650254100.0 0.5591197808 0.8222920507
7700253800.0 0.5708789841 0.8142503944
7750253500.0 0.5816302985 0.8064928124
7800253200.0 0.5926626075 0.7986197745
7850252900.0 0.602159187 0.7914171058
7900252600.0 0.6135109017 0.7826804231
7950252300.0 0.6222530451 0.7763850413
8000252000.0 0.631814177 0.768669732
8050251700.0 0.6427632416 0.7607404449
8100251400.0 0.6527391649 0.7527662935
8150251100.0 0.6624560814 0.7442230821
8200250800.0 0.6719349709 0.7360450624
8250250500.0 0.6803637772 0.7283009845
8300250200.0 0.6898046832 0.7198363292
8350249900.0 0.6990876719 0.711034369
8400249600.0 0.7069604887 0.7031405865
8450249300.0 0.7156872868 0.6943269594
8500249000.0 0.7241387644 0.6853166701
8550248700.0 0.7324501801 0.6763853601
8600248400.0 0.7409153641 0.6668185316
8650248100.0 0.7485824281 0.6574078162
8700247800.0 0.7578522282 0.6465133579
8750247500.0 0.7661941888 0.6362666645
8800247200.0 0.7739615305 0.6260530475
8850246900.0 0.7828303866 0.6145603891
8900246600.0 0.7911547006 0.6032771622
8950246300.0 0.8004661479 0.5904874372
9000246000.0 0.8090434479 0.5785663225
9050245700.0 0.8175383015 0.5662400393
9100245400.0 0.8259841031 0.5540947911
9150245100.0 0.8348843905 0.5413465097
9200244800.0 0.8442741733 0.5269911914
9250244500.0 0.852915877 0.5123981044
9300244200.0 0.861268161 0.498775459
9350243900.0 0.8687192965 0.4855523049
9400243600.0 0.8754235312 0.4738267862
9450243300.0 0.8809954358 0.4635334225
9500243000.0 0.8872246633 0.4517327739
9550242700.0 0.8914924935 0.4442537663
9600242400.0 0.8955368051 0.436701526
9650242100.0 0.8995480092 0.4297655221
9700241800.0 0.9045965043 0.4210569539
9750241500.0 0.9088095065 0.4133778774
9800241200.0 0.914184985 0.4039317064
9850240900.0 0.9198349778 0.3921635806
9900240600.0 0.9260904657 0.3800295022
9950240300.0 0.9327155258 0.3634866878
10000240000.0 0.9377454381 0.3519299202
10050239700.0 0.9438390571 0.3351841054
10100239400.0 0.9493546371 0.3187459834
10150239100.0 0.9538371055 0.3036103172
10200238800.0 0.9582985124 0.2878746313
10250238500.0 0.961433985 0.2743211997
10300238200.0 0.9645890634 0.2606709759
10350237900.0 0.9672853995 0.2470782735
10400237600.0 0.9699903577 0.2336187606
10450237300.0 0.9727504845 0.2198591023
10500237000.0 0.975050447 0.2079219417
10550236700.0 0.9775681682 0.1930012009
10600236400.0 0.9794805343 0.1793984025
10650236100.0 0.9815644903 0.1646194825
10700235800.0 0.9837725425 0.1519980629
10750235500.0 0.9859174911 0.139196679
10800235200.0 0.9880647079 0.1245320743
10850234900.0 0.9900941531 0.109455767
10900234600.0 0.992193615 0.0945572665
10950234300.0 0.9937283742 0.0813305403
11000234000.0 0.9955969491 0.0656842063
11050233700.0 0.997417421 0.0489839044
11100233400.0 0.9989336719 0.0310395346
11150233100.0 0.99993818 0.0148718372
11200232800.0 1.001126161 -0.0019780989
11250232500.0 1.002031766 -0.0196668473
11300232200.0 1.002503085 -0.0376987991
11350231900.0 1.002711432 -0.0538312032
11400231600.0 1.001679989 -0.0695307615
11450231300.0 1.001137658 -0.0854545263
11500231000.0 0.9999260974 -0.1017106076
11550230700.0 0.9981167394 -0.11468821
11600230400.0 0.9968222326 -0.1279311896
11650230100.0 0.9946928745 -0.1393018432
11700229800.0 0.9923980991 -0.1545135181
11750229500.0 0.9901115668 -0.1684930005
11800229200.0 0.9873175063 -0.1816036569
11850228900.0 0.9833857505 -0.1933963248
11900228600.0 0.9798443089 -0.2029273741
11950228300.0 0.9764081781 -0.2131213154
12000228000.0 0.9739479249 -0.2217060849
12050227700.0 0.9697519812 -0.2351125538
12100227400.0 0.9664174381 -0.245146237
12150227100.0 0.9615292183 -0.2623929749
12200226800.0 0.9577097686 -0.2733059141
12250226500.0 0.9541853335 -0.2856660069
12300226200.0 0.9495763278 -0.2987196561
12350225900.0 0.9446729099 -0.3115805976
12400225600.0 0.9402676266 -0.3247907746
12450225300.0 0.935680444 -0.3367604934
12500225000.0 0.9304317565 -0.3517027522
12550224700.0 0.9249565841 -0.3655662943
12600224400.0 0.9200156891 -0.3782972339
12650224100.0 0.9141474577 -0.3924837334
12700223800.0 0.9088719612 -0.4053433334
12750223500.0 0.9035522564 -0.4183832696
12800223200.0 0.8982243038 -0.430913125
12850222900.0 0.8929063848 -0.4431063896
12900222600.0 0.8873474955 -0.4551316286
12950222300.0 0.8809700332 -0.4675746738
13000222000.0 0.8750375893 -0.478826103
13050221700.0 0.8685358618 -0.4923668321
13100221400.0 0.8613301509 -0.5047544153
13150221100.0 0.8547028933 -0.5166214593
13200220800.0 0.8473689789 -0.5283250048
13250220500.0 0.8403425718 -0.5400059893
13300220200.0 0.8329507442 -0.5511272281
13350219900.0 0.8247744445 -0.5630167095
13400219600.0 0.8162844808 -0.5748098857
13450219300.0 0.8073052779 -0.5877176457
13500219000.0 0.7973005798 -0.6011720735
13550218700.0 0.7877627985 -0.6127909048
13600218400.0 0.7778748192 -0.625166903
13650218100.0 0.7680883409 -0.6363976527
13700217800.0 0.7572510228 -0.6480718023
13750217500.0 0.7479450942 -0.6582219227
13800217200.0 0.7366303076 -0.6699029361
13850216900.0 0.7261052311 -0.6804310489
13900216600.0 0.7158866457 -0.6899801981
13950216300.0 0.705742695 -0.6997891321
14000216000.0 0.695709221 -0.7095366225
14050215700.0 0.686580951 -0.7168808608
14100215400.0 0.6766457212 -0.7262373652
14150215100.0 0.6676866258 -0.7353408869
14200214800.0 0.6583507031 -0.7439940563
14250214500.0 0.6477539804 -0.7532619644
14300214200.0 0.6372098433 -0.7628046941
14350213900.0 0.6261113742 -0.7725171713
14400213600.0 0.6145242857 -0.7820091211
14450213300.0 0.6015073681 -0.7923630382
14500213000.0 0.5882096115 -0.8018540073
14550212700.0 0.5762394859 -0.8119006988
14600212400.0 0.5634032845 -0.8198717247
14650212100.0 0.5512949528 -0.8291861436
14700211800.0 0.5376792387 -0.8387628976
14750211500.0 0.5253803818 -0.8469651848
14800211200.0 0.5125743271 -0.8553229671
14850210900.0 0.5002494545 -0.8626302858
14900210600.0 0.4870809143 -0.8706062554
14950210300.0 0.4735767578 -0.8783838851
15000210000.0 0.4612127625 -0.8850612005
15050209700.0 0.4488699089 -0.8914244744
15100209400.0 0.4358625155 -0.8973626618
15150209100.0 0.4241574757 -0.9025307036
15200208800.0 0.411663918 -0.9078865901
15250208500.0 0.4002196111 -0.9118575352
15300208200.0 0.387904916 -0.916827546
15350207900.0 0.3748795412 -0.9219236268
15400207600.0 0.3597227127 -0.9272756983
15450207300.0 0.3448375716 -0.9323924171
15500207000.0 0.3307769693 -0.9368156532
15550206700.0 0.3162379158 -0.9421680727
15600206400.0 0.3003205575 -0.9463583624
15650206100.0 0.2844692919 -0.9504222259
15700205800.0 0.2706289782 -0.9538243457
15750205500.0 0.2567972185 -0.9574581265
15800205200.0 0.2426415041 -0.9611792782
15850204900.0 0.2284399334 -0.9646394462
15900204600.0 0.2134971277 -0.9682535928
15950204300.0 0.1993070736 -0.9715189071
16000204000.0 0.1847212353 -0.9744537082
16050203700.0 0.1697609196 -0.9772181351
16100203400.0 0.1549034868 -0.9795762
16150203100.0 0.1401820225 -0.9821085829
16200202800.0 0.1259166048 -0.9843099296
16250202500.0 0.110867508 -0.9857602916
16300202200.0 0.0955723654 -0.9874125465
16350201900.0 0.0802782078 -0.9889740216
16400201600.0 0.0657609953 -0.9900506704
16450201300.0 0.0502903764 -0.991102702
16500201000.0 0.0331753654 -0.9919599722
16550200700.0 0.017129261 -0.9924417484
16600200400.0 0.0010569981 -0.9924871727
16650200100.0 -0.015118647 -0.992286841
16700199800.0 -0.0311663909 -0.9924858459
16750199500.0 -0.0501198434 -0.9916904094
16800199200.0 -0.0664247045 -0.9908466447
16850198900.0 -0.0819382626 -0.9896916606
16900198600.0 -0.0956937511 -0.98827819
16950198300.0 -0.1092264727 -0.9877682957
17000198000.0 -0.1224143373 -0.9858603844
17050197700.0 -0.1350843148 -0.9838652386
17100197400.0 -0.1483694753 -0.9813745889
17150197100.0 -0.1611341834 -0.980195127
17200196800.0 -0.1738481721 -0.977787951
17250196500.0 -0.1867400361 -0.9756613405
17300196200.0 -0.1989568025 -0.9732509255
17350195900.0 -0.2106900875 -0.9707807806
17400195600.0 -0.2226638745 -0.9683083095
17450195300.0 -0.2356264512 -0.9654971726
17500195000.0 -0.248968245 -0.9621620452
17550194700.0 -0.2627670891 -0.9583934079
17600194400.0 -0.2766160643 -0.954618343
17650194100.0 -0.2900936898 -0.9504384329
17700193800.0 -0.3030539071 -0.9463929472
17750193500.0 -0.3172275014 -0.94198014
17800193200.0 -0.331681355 -0.9365319885
17850192900.0 -0.3463554409 -0.9312762277
17900192600.0 -0.3614070229 -0.9250534568
17950192300.0 -0.3769989992 -0.9179381488
18000192000.0 -0.3913841087 -0.9108287296
18050191700.0 -0.405398108 -0.9027793756
18100191400.0 -0.4195480451 -0.8950998139
18150191100.0 -0.4343658919 -0.8872514562
18200190800.0 -0.451169185 -0.8780442327
18250190500.0 -0.4681731405 -0.868460559
18300190200.0 -0.483719712 -0.8599040569
18350189900.0 -0.4992670804 -0.8515664198
18400189600.0 -0.5133966755 -0.8427664907
18450189300.0 -0.5271496216 -0.8351251037
18500189000.0 -0.5406339151 -0.8271718289
18550188700.0 -0.5533316455 -0.8192817056
18600188400.0 -0.5648046494 -0.8126512515
18650188100.0 -0.5763493983 -0.8060474472
18700187800.0 -0.5876539459 -0.7989908052
18750187500.0 -0.5984823485 -0.7923962855
18800187200.0 -0.6091600508 -0.7855728749
18850186900.0 -0.6193932094 -0.7785063249
18900186600.0 -0.6296357757 -0.7712768842
18950186300.0 -0.6400163055 -0.7632899398
19000186000.0 -0.6474079075 -0.7571480984
19050185700.0 -0.6565623253 -0.7499774055
19100185400.0 -0.6667562181 -0.7415442379
19150185100.0 -0.6770469988 -0.7335953544
19200184800.0 -0.6859764412 -0.7251501622
19250184500.0 -0.6960293686 -0.7162018862
19300184200.0 -0.707693791 -0.7067597016
19350183900.0 -0.7182671213 -0.697412289
19400183600.0 -0.728341829 -0.686724005
19450183300.0 -0.7368694575 -0.6764487764
19500183000.0 -0.7458454402 -0.6664769321
19550182700.0 -0.7550664167 -0.6560859033
19600182400.0 -0.7648650068 -0.643829068
19650182100.0 -0.7761145456 -0.6314771878
19700181800.0 -0.7865307154 -0.6184958601
19750181500.0 -0.7966950521 -0.6045010247
19800181200.0 -0.8068227847 -0.5894061856
19850180900.0 -0.8163787507 -0.5741556825
19900180600.0 -0.8241976562 -0.559972243
19950180300.0 -0.8333031597 -0.543577833
20000180000.0 -0.8227433386 -0.5465274741
20050179700.0 -0.8318537572 -0.5341207762
20100179400.0 -0.8391810684 -0.5205726956
20150179100.0 -0.8475022815 -0.5094066647
20200178800.0 -0.856329241 -0.4983604938
20250178500.0 -0.8653215597 -0.4855783108
20300178200.0 -0.8748324899 -0.4720495411
20350177900.0 -0.8845390046 -0.4579174281
20400177600.0 -0.8934245131 -0.443321492
20450177300.0 -0.9019854321 -0.4292175175
20500177000.0 -0.9099324956 -0.4155469463
20550176700.0 -0.9181660029 -0.4019154516
20600176400.0 -0.9246032395 -0.3891811955
20650176100.0 -0.9311226402 -0.3769595115
20700175800.0 -0.9384268483 -0.3648768691
20750175500.0 -0.9449191154 -0.3535641021
20800175200.0 -0.9489695278 -0.3421096165
20850174900.0 -0.9538515998 -0.3318354688
20900174600.0 -0.9575671928 -0.3213426166
20950174300.0 -0.9611347747 -0.3100889813
21000174000.0 -0.9636627424 -0.2994312803
21050173700.0 -0.965098294 -0.2900456799
21100173400.0 -0.9681541863 -0.278455944
21150173100.0 -0.9728935996 -0.2670521642
21200172800.0 -0.9763949076 -0.254149718
21250172500.0 -0.9804216836 -0.2401653235
21300172200.0 -0.9834472462 -0.226229352
21350171900.0 -0.9858343331 -0.2117916816
21400171600.0 -0.9874739881 -0.1976054478
21450171300.0 -0.9887188222 -0.1832136507
21500171000.0 -0.9887299685 -0.1686197123
21550170700.0 -0.9897914388 -0.1539896114
21600170400.0 -0.9887145358 -0.1390134398
21650170100.0 -0.9911550896 -0.1228493123
21700169800.0 -0.9897866066 -0.1064228369
21750169500.0 -0.9897727822 -0.0907829999
21800169200.0 -0.9899113612 -0.0738441429
21850168900.0 -0.9902364392 -0.0577493656
21900168600.0 -0.9898122933 -0.0409110928
21950168300.0 -0.9890623282 -0.0251448494
22000168000.0 -0.9889637775 -0.0105109999
22050167700.0 -0.9897793335 0.00439889
22100167400.0 -0.9904504902 0.0198899108
22150167100.0 -0.9914703875 0.0360537041
22200166800.0 -0.9918333073 0.0519560058
22250166500.0 -0.9908729997 0.0698783533
22300166200.0 -0.9904742267 0.0867493216
22350165900.0 -0.9893024487 0.1024533595
22400165600.0 -0.9883888111 0.1180619643
22450165300.0 -0.9860291576 0.1333192446
22500165000.0 -0.98443649 0.147443336
22550164700.0 -0.9840681429 0.1632476455
22600164400.0 -0.9811615951 0.1797143911
22650164100.0 -0.9784832523 0.1952201543
22700163800.0 -0.9757354956 0.2118203913
22750163500.0 -0.9725189094 0.2261672391
22800163200.0 -0.9692632071 0.2388268183
22850162900.0 -0.966569293 0.2525543785
22900162600.0 -0.9647591728 0.2663024754
22950162300.0 -0.9629307217 0.2798568426
23000162000.0 -0.9608994108 0.2926350567
23050161700.0 -0.9585923817 0.3063847023
23100161400.0 -0.9556846803 0.3202791857
23150161100.0 -0.9526012479 0.3323494573
23200160800.0 -0.9500394539 0.3460290696
23250160500.0 -0.9466750105 0.3584134839
23300160200.0 -0.9443494127 0.3703199829
23350159900.0 -0.9395983915 0.3846296742
23400159600.0 -0.9353216133 0.3986982783
23450159300.0 -0.9301149123 0.4124100414
23500159000.0 -0.9253610989 0.4259198006
23550158700.0 -0.92021935 0.4396820411
23600158400.0 -0.914077125 0.4537513098
23650158100.0 -0.9068258623 0.4682562925
23700157800.0 -0.8983992004 0.4827615048
23750157500.0 -0.8889120994 0.4965866637
23800157200.0 -0.879213357 0.5106724792
23850156900.0 -0.8698627209 0.522892664
23900156600.0 -0.8598432252 0.5361927939
23950156300.0 -0.8500939106 0.548665149
24000156000.0 -0.8406115446 0.5606000006
24050155700.0 -0.8300713816 0.5725934023
24100155400.0 -0.8195587333 0.5850791026
24150155100.0 -0.8090142943 0.5971478293
24200154800.0 -0.7977742962 0.6096568341
24250154500.0 -0.7866846858 0.6214664312
24300154200.0 -0.7747002282 0.6332910161
24350153900.0 -0.762747699 0.6446304813
24400153600.0 -0.7501233835 0.6552392178
24450153300.0 -0.7386154633 0.6656895504
24500153000.0 -0.7265798145 0.6752360109
24550152700.0 -0.7154282408 0.6857383528
24600152400.0 -0.7031875817 0.6950823597
24650152100.0 -0.6904564858 0.7032784275
