!Created with skrf (http://scikit-rf.org).
# Hz S RI R 50.0 
!freq ReS11 ImS11
300000.0 -0.9783166301 -0.1126031186
50299700.0 -1.000153868 0.0159352276
100299400.0 -0.9980906594 0.0288222838
150299100.0 -1.003031362 0.0457729675
200298800.0 -0.9996536014 0.0588258913
250298500.0 -0.9973724328 0.0725410092
300298200.0 -0.9860332356 0.0883502171
350297900.0 -0.9941507128 0.0990740293
400297600.0 -0.9932946291 0.1157155296
450297300.0 -0.9910831484 0.1294684189
500297000.0 -0.9895923623 0.1443137835
550296700.0 -0.9843532208 0.1568773064
600296400.0 -1.01748082 0.1901493479
650296100.0 -0.98229327 0.1868774899
700295800.0 -0.9792030244 0.2012864054
750295500.0 -0.9762909053 0.2148768229
800295200.0 -0.9727226753 0.2291560571
850294900.0 -0.9695722534 0.2431052731
900294600.0 -0.9656622102 0.256760221
950294300.0 -0.9619072104 0.2702926073
1000294000.0 -0.9580622857 0.28429731
1050293700.0 -0.9535589448 0.2981811028
1100293400.0 -0.9492028525 0.3126541722
1150293100.0 -0.9452189854 0.3243786692
1200292800.0 -0.9400462715 0.3388034186
1250292500.0 -0.9346502484 0.3522640457
1300292200.0 -0.928961435 0.3655021908
1350291900.0 -0.9231524203 0.3795081076
1400291600.0 -0.9176940278 0.392838382
1450291300.0 -0.912223909 0.4048092155
1500291000.0 -0.9059619125 0.418440031
1550290700.0 -0.8995120482 0.4316922822
1600290400.0 -0.8931800624 0.4444085034
1650290100.0 -0.8866662699 0.4566364672
1700289800.0 -0.8798473585 0.4700742046
1750289500.0 -0.8727055642 0.4824574811
1800289200.0 -0.8649559646 0.4953119093
1850288900.0 -0.8585876042 0.5066185931
1900288600.0 -0.8507089883 0.5195702136
1950288300.0 -0.8425524738 0.5322250094
2000288000.0 -0.8350850699 0.5438069063
2050287700.0 -0.8267698504 0.5558815476
2100287400.0 -0.8189510763 0.5676449386
2150287100.0 -0.81035904 0.5796584874
2200286800.0 -0.8025555167 0.5899773753
2250286500.0 -0.7935917556 0.6020997064
2300286200.0 -0.7848089668 0.6138532676
2350285900.0 -0.7759271792 0.6247315664
2400285600.0 -0.7669796677 0.635711188
2450285300.0 -0.758515344 0.6461637914
2500285000.0 -0.748546577 0.6575230484
2550284700.0 -0.739888717 0.6677428394
2600284400.0 -0.730436278 0.6779010938
2650284100.0 -0.7213055262 0.6881482862
2700283800.0 -0.710510663 0.6987290113
2750283500.0 -0.700428377 0.7096479268
2800283200.0 -0.6909049004 0.7192243048
2850282900.0 -0.6804620037 0.7293237791
2900282600.0 -0.6700677187 0.7386511836
2950282300.0 -0.6600610818 0.7479893601
3000282000.0 -0.6492869366 0.7573910183
3050281700.0 -0.6380029539 0.766536702
3100281400.0 -0.6259983674 0.775871531
3150281100.0 -0.6144306565 0.7853789056
3200280800.0 -0.6026321659 0.7938278239
3250280500.0 -0.5918714274 0.8014408499
3300280200.0 -0.5805228218 0.8093318223
3350279900.0 -0.5692707882 0.8169189438
3400279600.0 -0.5569791898 0.8243760862
3450279300.0 -0.5458831259 0.8316381262
3500279000.0 -0.5338015247 0.8387874085
3550278700.0 -0.5213346834 0.8460451584
3600278400.0 -0.5093621527 0.8533403534
3650278100.0 -0.4958878063 0.8609489412
3700277800.0 -0.4839601273 0.8672275085
3750277500.0 -0.4716394284 0.8737146456
3800277200.0 -0.4588833359 0.8802456516
3850276900.0 -0.4468881937 0.8860285321
3900276600.0 -0.4362381749 0.8917452252
3950276300.0 -0.4235573624 0.8979247558
4000276000.0 -0.4113920304 0.9038871278
4050275700.0 -0.3986877172 0.9099782522
4100275400.0 -0.3872511226 0.9153622339
4150275100.0 -0.3748622738 0.9207393739
4200274800.0 -0.3616780246 0.9263703304
4250274500.0 -0.3496142194 0.9316829255
4300274200.0 -0.3365745078 0.9370400452
4350273900.0 -0.3226750662 0.942346044
4400273600.0 -0.3080181252 0.947426248
4450273300.0 -0.2924325735 0.9526136171
4500273000.0 -0.2787913351 0.9569956313
4550272700.0 -0.2646542365 0.9611664051
4600272400.0 -0.2491565981 0.965304567
4650272100.0 -0.2375626148 0.968596129
4700271800.0 -0.2242688294 0.9716951371
4750271500.0 -0.2124151237 0.9746968704
4800271200.0 -0.1999831779 0.9773842961
4850270900.0 -0.1861019787 0.9802229064
4900270600.0 -0.1723091161 0.9825658685
4950270300.0 -0.1579263271 0.98504197
5000270000.0 -0.1437677865 0.9871562921
5050269700.0 -0.1301383865 0.9888555881
5100269400.0 -0.1166743482 0.990740115
5150269100.0 -0.1035023958 0.9920082891
5200268800.0 -0.0902056634 0.993102261
5250268500.0 -0.0769579111 0.9942253588
5300268200.0 -0.0639443491 0.9949479473
5350267900.0 -0.0517393195 0.99543061
5400267600.0 -0.0356255528 0.9962249291
5450267300.0 -0.0223965476 0.9967719822
5500267000.0 -0.0070844719 0.9971960608
5550266700.0 0.0077369285 0.9973553136
5600266400.0 0.0234172359 0.9971969924
5650266100.0 0.0396881978 0.9968707697
5700265800.0 0.0543163066 0.996096602
5750265500.0 0.0695178102 0.9953389496
5800265200.0 0.0838112746 0.9942653969
5850264900.0 0.0967969738 0.9932569268
5900264600.0 0.1137219474 0.9917689421
5950264300.0 0.1255565174 0.989947672
6000264000.0 0.1396000616 0.9878808806
6050263700.0 0.1517828769 0.9865819344
6100263400.0 0.1645432483 0.9850622188
6150263100.0 0.1790181914 0.9824120016
6200262800.0 0.1895010424 0.9806855511
6250262500.0 0.2019956243 0.9783833389
6300262200.0 0.2149124564 0.9753448901
6350261900.0 0.2279323729 0.9724641036
6400261600.0 0.2417968718 0.9690886718
6450261300.0 0.2534802901 0.9665225997
6500261000.0 0.2658959698 0.9627629599
6550260700.0 0.2788250643 0.9587706358
6600260400.0 0.2920581028 0.9547057878
6650260100.0 0.3063787675 0.9504217769
6700259800.0 0.3182258134 0.9461878215
6750259500.0 0.3320318247 0.941112527
6800259200.0 0.3449214552 0.9363231199
6850258900.0 0.3570882063 0.9311913291
6900258600.0 0.3692134197 0.9262053907
6950258300.0 0.3819125445 0.9209528959
7000258000.0 0.3936363149 0.9153739367
7050257700.0 0.4060993639 0.9093335995
7100257400.0 0.4186096471 0.9032548486
7150257100.0 0.4291026452 0.8979740877
7200256800.0 0.4418851541 0.8915282269
7250256500.0 0.4538930081 0.8854216023
7300256200.0 0.4668166215 0.8783680898
7350255900.0 0.4791827919 0.8712641348
7400255600.0 0.4924860045 0.8643921216
7450255300.0 0.5077563256 0.8553569705
7500255000.0 0.518976625 0.8481270177
7550254700.0 0.5329891336 0.8395438624
7600254400.0 0.5460418036 0.8313757228
7650254100.0 0.5577012704 0.8235978279
7700253800.0 0.5692881911 0.8154588785
7750253500.0 0.5803850596 0.8076390938
7800253200.0 0.5910350249 0.8000477106
7850252900.0 0.6007851183 0.792848683
7900252600.0 0.6125251521 0.7841812643
7950252300.0 0.6212151351 0.7775222069
8000252000.0 0.6313417093 0.7697948286
8050251700.0 0.6419047574 0.7615019295
8100251400.0 0.6519642539 0.7533549422
8150251100.0 0.6622108504 0.7445845184
8200250800.0 0.671240772 0.7369092145
8250250500.0 0.6804354435 0.7287736477
8300250200.0 0.6897159523 0.7202147558
8350249900.0 0.6990286653 0.7115257142
8400249600.0 0.7071687821 0.7033540839
8450249300.0 0.71608115 0.6943591389
8500249000.0 0.7248351157 0.6854018095
8550248700.0 0.7328868326 0.6763154855
8600248400.0 0.741478298 0.6669372197
8650248100.0 0.749232219 0.6574965732
8700247800.0 0.7587045412 0.6463208921
8750247500.0 0.7670168728 0.6362036449
8800247200.0 0.7752075867 0.6257166079
8850246900.0 0.7841720062 0.6142380643
8900246600.0 0.7926117131 0.6028850828
8950246300.0 0.8020177844 0.5901502493
9000246000.0 0.8113407283 0.5771798165
9050245700.0 0.8205380769 0.5642463682
9100245400.0 0.8288819741 0.5518270237
9150245100.0 0.8383964059 0.5381972104
9200244800.0 0.8483130025 0.5226130138
9250244500.0 0.8578674215 0.5070186663
9300244200.0 0.866187744 0.4920815074
9350243900.0 0.8736000219 0.4784528792
9400243600.0 0.8806439624 0.4660976937
9450243300.0 0.8863867836 0.4542883234
9500243000.0 0.8927354154 0.4421574224
9550242700.0 0.8962714183 0.4345272795
9600242400.0 0.9000805611 0.4272942322
9650242100.0 0.9037432214 0.4207558278
9700241800.0 0.9086167247 0.4123873665
9750241500.0 0.9120108675 0.4051365446
9800241200.0 0.9169230626 0.3959766772
9850240900.0 0.9224554454 0.384291475
9900240600.0 0.9282311964 0.372739525
9950240300.0 0.9346200955 0.356456483
10000240000.0 0.9391613269 0.345063159
10050239700.0 0.9448583109 0.3298252575
10100239400.0 0.9499651021 0.3142491749
10150239100.0 0.9542415773 0.2992719142
10200238800.0 0.9585268167 0.2843357785
10250238500.0 0.9618445171 0.271128869
10300238200.0 0.9649462163 0.2571725895
10350237900.0 0.967511585 0.2442256386
10400237600.0 0.9701129356 0.2311028816
10450237300.0 0.972933519 0.2171851233
10500237000.0 0.9750056061 0.2051680905
10550236700.0 0.9774906588 0.1907130607
10600236400.0 0.9793747023 0.1775981223
10650236100.0 0.9811996203 0.1637004011
10700235800.0 0.9840573523 0.1506742575
10750235500.0 0.9863106576 0.1374307693
10800235200.0 0.9876841518 0.1234629381
10850234900.0 0.9893153632 0.1092384482
10900234600.0 0.9917864948 0.094042831
10950234300.0 0.9934551401 0.0811194693
11000234000.0 0.9952029245 0.0659644925
11050233700.0 0.9971261061 0.0496437378
11100233400.0 0.998465165 0.0321803568
11150233100.0 0.9996441476 0.0160166736
11200232800.0 1.000334462 0.0004902033
11250232500.0 1.001092351 -0.015659832
11300232200.0 1.001367941 -0.0342789369
11350231900.0 1.001312932 -0.0492573559
11400231600.0 1.001618354 -0.0650173086
11450231300.0 1.000481021 -0.0817904494
11500231000.0 1.000028521 -0.0979580488
11550230700.0 0.9981477835 -0.1111820818
11600230400.0 0.9966907126 -0.1235681152
11650230100.0 0.994478419 -0.1354753459
11700229800.0 0.9925517689 -0.1499837859
11750229500.0 0.9903352739 -0.1640796548
11800229200.0 0.9877809701 -0.1779663908
11850228900.0 0.9839670906 -0.1904774439
11900228600.0 0.980588309 -0.200290955
11950228300.0 0.9773938979 -0.2105331718
12000228000.0 0.9747022012 -0.2197681268
12050227700.0 0.970713617 -0.2322910249
12100227400.0 0.9677362495 -0.2427850996
12150227100.0 0.9626511814 -0.259937763
12200226800.0 0.959458778 -0.2702841565
12250226500.0 0.9546919058 -0.2843425409
12300226200.0 0.9514164574 -0.2955023777
12350225900.0 0.9462052771 -0.309800024
12400225600.0 0.9420727682 -0.3221422356
12450225300.0 0.9370450384 -0.3351451598
12500225000.0 0.9318951864 -0.3496155263
12550224700.0 0.9265282181 -0.3631953557
12600224400.0 0.9216787588 -0.3760670452
12650224100.0 0.9159201707 -0.3904691687
12700223800.0 0.9106595406 -0.4030698612
12750223500.0 0.9052012228 -0.4160992429
12800223200.0 0.8998377186 -0.4286905093
12850222900.0 0.8943789127 -0.4407174027
12900222600.0 0.888344653 -0.4529353962
12950222300.0 0.8822456455 -0.4663037488
13000222000.0 0.8762608948 -0.4769865549
13050221700.0 0.8694225788 -0.4899261767
13100221400.0 0.8628453225 -0.5022272896
13150221100.0 0.856062854 -0.5142310945
13200220800.0 0.8487278756 -0.5262433915
13250220500.0 0.8419030699 -0.5377083734
13300220200.0 0.8342444997 -0.5486891208
13350219900.0 0.8262561308 -0.5609385634
13400219600.0 0.8180369434 -0.5729921906
13450219300.0 0.8084755122 -0.5867498696
13500219000.0 0.7981515831 -0.6005999965
13550218700.0 0.7874680978 -0.6138793298
13600218400.0 0.7768133551 -0.6257768373
13650218100.0 0.7680442075 -0.6370580663
13700217800.0 0.7568438874 -0.6492184613
13750217500.0 0.7465894453 -0.6601233672
13800217200.0 0.7353722622 -0.6715236121
13850216900.0 0.7243929142 -0.683420903
13900216600.0 0.7153464642 -0.6923736575
13950216300.0 0.7037864717 -0.7030961918
14000216000.0 0.6936579704 -0.7119689456
14050215700.0 0.6841041776 -0.719758879
14100215400.0 0.6742816514 -0.7294636905
14150215100.0 0.6652123078 -0.7375461263
14200214800.0 0.6559839575 -0.7463582781
14250214500.0 0.6456858588 -0.7555973255
14300214200.0 0.6353284256 -0.7648047921
14350213900.0 0.6243037532 -0.7742741161
14400213600.0 0.6125911246 -0.7841542382
14450213300.0 0.5993844167 -0.7941715516
14500213000.0 0.5865006288 -0.8045759194
14550212700.0 0.5736796066 -0.8133399729
14600212400.0 0.5608935082 -0.8221115826
14650212100.0 0.548422567 -0.8308913814
14700211800.0 0.5340871037 -0.840342416
14750211500.0 0.5224638505 -0.8487556546
14800211200.0 0.5097558017 -0.8566431065
14850210900.0 0.497725267 -0.8643296784
14900210600.0 0.4844860614 -0.8721941351
14950210300.0 0.4708856185 -0.879911014
15000210000.0 0.4581724847 -0.8864327085
15050209700.0 0.4458137394 -0.8928139386
15100209400.0 0.4326070951 -0.8987342178
15150209100.0 0.4206815266 -0.9038510217
15200208800.0 0.4071019735 -0.9094684392
15250208500.0 0.3969191366 -0.9139625828
15300208200.0 0.383582082 -0.9185124574
15350207900.0 0.3712277047 -0.9232201637
15400207600.0 0.3561615427 -0.929211559
15450207300.0 0.3415647104 -0.9339186962
15500207000.0 0.3271675385 -0.9379890993
15550206700.0 0.3120631628 -0.9437156421
15600206400.0 0.2964338253 -0.9481261988
15650206100.0 0.2802102214 -0.9520549425
15700205800.0 0.2665748335 -0.9555415854
15750205500.0 0.251873786 -0.9592537188
15800205200.0 0.2375527971 -0.9628096523
15850204900.0 0.2230010515 -0.9661122919
15900204600.0 0.2080892038 -0.9696629966
15950204300.0 0.1941177391 -0.9724109297
16000204000.0 0.1799519403 -0.9754301125
16050203700.0 0.1650432737 -0.9782085829
16100203400.0 0.1507504516 -0.9804334724
16150203100.0 0.1363191295 -0.9827502065
16200202800.0 0.122046121 -0.9848676034
16250202500.0 0.1076803919 -0.9862606101
16300202200.0 0.0928629176 -0.9877620467
16350201900.0 0.0774399399 -0.9893235975
16400201600.0 0.0627335907 -0.9904572838
16450201300.0 0.0475662021 -0.9913949373
16500201000.0 0.0312066465 -0.9920961595
16550200700.0 0.0152859681 -0.9926449319
16600200400.0 -0.0005219799 -0.9926063905
16650200100.0 -0.0167309832 -0.9925596923
16700199800.0 -0.03281017 -0.9925072608
16750199500.0 -0.0518475343 -0.9915118837
16800199200.0 -0.0675384273 -0.9907946508
16850198900.0 -0.083185709 -0.9892327319
16900198600.0 -0.0969401534 -0.9889856981
16950198300.0 -0.1101253334 -0.9871377058
17000198000.0 -0.1220867067 -0.9860731444
17050197700.0 -0.1357641331 -0.9836948141
17100197400.0 -0.1483567453 -0.9819470171
17150197100.0 -0.1611084479 -0.9795858029
17200196800.0 -0.1739789479 -0.9776130351
17250196500.0 -0.1868019132 -0.9754118279
17300196200.0 -0.1991507505 -0.9729555835
17350195900.0 -0.211007864 -0.9708104268
17400195600.0 -0.2230699863 -0.9681542526
17450195300.0 -0.23614025 -0.9654069983
17500195000.0 -0.2496123471 -0.9619909068
17550194700.0 -0.2632883995 -0.9582072083
17600194400.0 -0.2771045232 -0.9544664006
17650194100.0 -0.2910911656 -0.9505320316
17700193800.0 -0.3041160433 -0.9462281737
17750193500.0 -0.3184744991 -0.9415912188
17800193200.0 -0.3328502893 -0.9366050727
17850192900.0 -0.3481296423 -0.9307204118
17900192600.0 -0.3629667122 -0.9245903038
17950192300.0 -0.3784620446 -0.9176071032
18000192000.0 -0.3932919845 -0.9102773389
18050191700.0 -0.4069397549 -0.9025022458
18100191400.0 -0.4211752402 -0.8947967103
18150191100.0 -0.4361249723 -0.8867448861
18200190800.0 -0.4530034277 -0.8775579814
18250190500.0 -0.4697760205 -0.8682121697
18300190200.0 -0.485533349 -0.8595025885
18350189900.0 -0.5003189141 -0.8507295556
18400189600.0 -0.5146621809 -0.8424557714
18450189300.0 -0.5281673919 -0.8345053079
18500189000.0 -0.5414889447 -0.8264324535
18550188700.0 -0.5543058648 -0.8191340851
18600188400.0 -0.5659735597 -0.812138111
18650188100.0 -0.5767328769 -0.8057961138
18700187800.0 -0.5879887925 -0.7989733055
18750187500.0 -0.598447658 -0.7925084129
18800187200.0 -0.6089660491 -0.7853623504
18850186900.0 -0.6192646966 -0.7783931484
18900186600.0 -0.6295380783 -0.770959966
18950186300.0 -0.6396513243 -0.7632726819
19000186000.0 -0.6467794885 -0.7572435809
19050185700.0 -0.6559831716 -0.7494253871
19100185400.0 -0.6657474969 -0.741528427
19150185100.0 -0.6760873595 -0.7332239126
19200184800.0 -0.6853838466 -0.7247584689
19250184500.0 -0.696563738 -0.7150733027
19300184200.0 -0.7074650594 -0.7049309085
19350183900.0 -0.7188363218 -0.6953210703
19400183600.0 -0.7283741391 -0.6853518962
19450183300.0 -0.7373842161 -0.6759652882
19500183000.0 -0.7457736218 -0.6659252547
19550182700.0 -0.7551972482 -0.6553755495
19600182400.0 -0.7650844702 -0.6435562822
19650182100.0 -0.7763297535 -0.6309709733
19700181800.0 -0.7869353157 -0.6176918465
19750181500.0 -0.7973654516 -0.6036845487
19800181200.0 -0.8076981448 -0.5888511637
19850180900.0 -0.8174095846 -0.5735353186
19900180600.0 -0.8248674179 -0.5587451608
19950180300.0 -0.8342225147 -0.5426461342
20000180000.0 -0.8269424158 -0.5451084049
20050179700.0 -0.8349924075 -0.5330451377
20100179400.0 -0.8436099112 -0.5183221264
20150179100.0 -0.8514475307 -0.5055156693
20200178800.0 -0.8599990667 -0.4937465409
20250178500.0 -0.8699282597 -0.4799812423
20300178200.0 -0.8793970269 -0.4651825979
20350177900.0 -0.8884088565 -0.4506475716
20400177600.0 -0.8972811244 -0.435782787
20450177300.0 -0.9056483782 -0.4218510155
20500177000.0 -0.9135786257 -0.407793959
20550176700.0 -0.9213031375 -0.3943073505
20600176400.0 -0.9284708115 -0.3807312961
20650176100.0 -0.9349552944 -0.3689268537
20700175800.0 -0.9418441088 -0.3569628125
20750175500.0 -0.9480135968 -0.344606577
20800175200.0 -0.9529983604 -0.3339462751
20850174900.0 -0.9575888542 -0.3230274026
20900174600.0 -0.9628591654 -0.3111010595
20950174300.0 -0.9671436618 -0.2995564358
21000174000.0 -0.9698335937 -0.2883091356
21050173700.0 -0.9732382511 -0.2768326388
21100173400.0 -0.9770983031 -0.2652397494
21150173100.0 -0.9810973195 -0.2524781964
21200172800.0 -0.9849461317 -0.2391525448
21250172500.0 -0.9880879315 -0.2251115482
21300172200.0 -0.9907996041 -0.211157627
21350171900.0 -0.9917563851 -0.1965977911
21400171600.0 -0.9936037918 -0.1821503637
21450171300.0 -0.9935024271 -0.1680753122
21500171000.0 -0.9938263117 -0.1534459594
21550170700.0 -0.9939557072 -0.1368458012
21600170400.0 -0.9929997574 -0.1217190434
21650170100.0 -0.9925691252 -0.106887309
21700169800.0 -0.9903687978 -0.0906373655
21750169500.0 -0.9886719426 -0.0755949858
21800169200.0 -0.9880106355 -0.0584482783
21850168900.0 -0.9862927127 -0.0417323988
21900168600.0 -0.9852126929 -0.025385733
21950168300.0 -0.9836798562 -0.0100607362
22000168000.0 -0.9830854841 0.0049545111
22050167700.0 -0.9827247233 0.0192938741
22100167400.0 -0.9825271502 0.0344200884
22150167100.0 -0.9836835846 0.0498345837
22200166800.0 -0.9834067295 0.0665215702
22250166500.0 -0.9835577829 0.0837067231
22300166200.0 -0.9828933973 0.1004695521
22350165900.0 -0.9808235229 0.1164256211
22400165600.0 -0.9790308923 0.1333067679
22450165300.0 -0.9774249639 0.1473817636
22500165000.0 -0.9745850943 0.1610928391
22550164700.0 -0.9749765811 0.1763978576
22600164400.0 -0.9724776907 0.1918190774
22650164100.0 -0.9710148442 0.206383864
22700163800.0 -0.9676205371 0.2224006122
22750163500.0 -0.9651880761 0.2376514365
22800163200.0 -0.9625888085 0.2505041319
22850162900.0 -0.9600616343 0.264488611
22900162600.0 -0.9588979666 0.277893928
22950162300.0 -0.957775912 0.290675817
23000162000.0 -0.9563433293 0.3022334047
23050161700.0 -0.9546613962 0.31490038
23100161400.0 -0.9525251654 0.3278349202
23150161100.0 -0.9494120103 0.3402664631
23200160800.0 -0.9467318828 0.3517583233
23250160500.0 -0.9447710673 0.3642095394
23300160200.0 -0.9420053739 0.3757278394
23350159900.0 -0.9373856433 0.3886238961
23400159600.0 -0.9330339222 0.4019415376
23450159300.0 -0.9286327926 0.4153737236
23500159000.0 -0.9239212608 0.4279496048
23550158700.0 -0.9195217081 0.4412824458
23600158400.0 -0.914176636 0.4548051498
23650158100.0 -0.9074891539 0.4686114311
23700157800.0 -0.8999239952 0.482535819
23750157500.0 -0.8916564059 0.4965003417
23800157200.0 -0.882968517 0.5095398579
23850156900.0 -0.8734805527 0.5225001023
23900156600.0 -0.8641950659 0.5350893275
23950156300.0 -0.8550668601 0.5471194982
24000156000.0 -0.8459971897 0.5593445915
24050155700.0 -0.8362287161 0.57108915
24100155400.0 -0.8259772583 0.5829362727
24150155100.0 -0.8152655392 0.5940036988
24200154800.0 -0.8037434641 0.6052879166
24250154500.0 -0.792640683 0.6182078142
24300154200.0 -0.7813204622 0.6292289283
24350153900.0 -0.7694502902 0.6396651858
24400153600.0 -0.7571637148 0.6501716984
24450153300.0 -0.7453991056 0.6603655601
24500153000.0 -0.7339633041 0.6697588519
24550152700.0 -0.7226837531 0.6800708417
24600152400.0 -0.7108982682 0.6884464229
24650152100.0 -0.6993332344 0.6970391809
