!Created with skrf (http://scikit-rf.org).
# Hz S RI R 50.0 
!freq ReS11 ImS11
300000.0 -0.9745913578 -0.1206937319
50299700.0 -0.9999145892 0.0151968232
100299400.0 -0.9978656369 0.0280633915
150299100.0 -1.002648398 0.0449221529
200298800.0 -0.9996271333 0.0581445105
250298500.0 -0.9973328049 0.0717316713
300298200.0 -0.9859109226 0.0874699575
350297900.0 -0.9938603514 0.098430423
400297600.0 -0.9931550708 0.1150234724
450297300.0 -0.9909979449 0.1285922236
500297000.0 -0.9895560718 0.1434548212
550296700.0 -0.9844034201 0.1558863562
600296400.0 -1.01735018 0.189187584
650296100.0 -0.9821581749 0.1858523347
700295800.0 -0.9792818749 0.2000693597
750295500.0 -0.9763412844 0.2142450816
800295200.0 -0.9729954556 0.2282814998
850294900.0 -0.9696014638 0.2419993335
900294600.0 -0.9656939243 0.2557020922
950294300.0 -0.9620412885 0.2694807285
1000294000.0 -0.9580549 0.2834020722
1050293700.0 -0.9534911001 0.2971996232
1100293400.0 -0.9491529604 0.3116405871
1150293100.0 -0.9453628091 0.3236689995
1200292800.0 -0.9402679526 0.3378853617
1250292500.0 -0.9346080669 0.3513242428
1300292200.0 -0.9288262397 0.3644091249
1350291900.0 -0.9234531949 0.3786880781
1400291600.0 -0.917892776 0.3917453329
1450291300.0 -0.9124456812 0.404148106
1500291000.0 -0.9061511726 0.4172355735
1550290700.0 -0.8995919118 0.4309404454
1600290400.0 -0.893566546 0.4436729185
1650290100.0 -0.8867088721 0.4557238071
1700289800.0 -0.8798107826 0.4692143077
1750289500.0 -0.8728504936 0.481555614
1800289200.0 -0.8654852843 0.4944404502
1850288900.0 -0.8586704199 0.5058099192
1900288600.0 -0.8510298432 0.5188825232
1950288300.0 -0.842823933 0.5312588946
2000288000.0 -0.8354712437 0.5428277386
2050287700.0 -0.8270784281 0.5552059993
2100287400.0 -0.8194132111 0.5665795469
2150287100.0 -0.8108157955 0.5788078775
2200286800.0 -0.8029484017 0.5893229451
2250286500.0 -0.7940656913 0.6014203697
2300286200.0 -0.7852015284 0.6129294488
2350285900.0 -0.7768058203 0.623686249
2400285600.0 -0.7678113737 0.6344927632
2450285300.0 -0.7592157002 0.6451926851
2500285000.0 -0.7494388486 0.6567105493
2550284700.0 -0.7402579617 0.6669913074
2600284400.0 -0.7308303609 0.6769465778
2650284100.0 -0.7221483126 0.6871292707
2700283800.0 -0.7118695742 0.6976590605
2750283500.0 -0.7015668935 0.7085943289
2800283200.0 -0.6915320596 0.7180661582
2850282900.0 -0.681146524 0.7281962686
2900282600.0 -0.6709258126 0.7379534645
2950282300.0 -0.6603400248 0.7471830608
3000282000.0 -0.649626765 0.7565822457
3050281700.0 -0.6384407503 0.7659417951
3100281400.0 -0.6267864203 0.7750356597
3150281100.0 -0.6154121886 0.7841448585
3200280800.0 -0.6038527847 0.792418244
3250280500.0 -0.5930160066 0.8004125875
3300280200.0 -0.5815183287 0.8084462518
3350279900.0 -0.569276227 0.8163666091
3400279600.0 -0.5567691807 0.8243991513
3450279300.0 -0.5458759136 0.8316339932
3500279000.0 -0.5339344921 0.8384801132
3550278700.0 -0.5217427889 0.845494845
3600278400.0 -0.5100107535 0.8524892003
3650278100.0 -0.4966927021 0.8600875952
3700277800.0 -0.4847064481 0.8666037662
3750277500.0 -0.4723707177 0.8730539473
3800277200.0 -0.4599000246 0.879774067
3850276900.0 -0.4477072511 0.8855220228
3900276600.0 -0.4370625177 0.8911704505
3950276300.0 -0.4249471925 0.8970546472
4000276000.0 -0.4128020007 0.9030637034
4050275700.0 -0.4002860532 0.9092523391
4100275400.0 -0.3890903087 0.9145814321
4150275100.0 -0.3761331673 0.9204833034
4200274800.0 -0.3627365963 0.9262819339
4250274500.0 -0.3503327789 0.9313209551
4300274200.0 -0.3369243559 0.9367911015
4350273900.0 -0.323029473 0.9420204165
4400273600.0 -0.3079973173 0.9471116782
4450273300.0 -0.292953164 0.9521847668
4500273000.0 -0.2798722136 0.9564921785
4550272700.0 -0.266006403 0.9606369278
4600272400.0 -0.2508346792 0.9648529158
4650272100.0 -0.2394162413 0.9678682113
4700271800.0 -0.2265112794 0.9713124379
4750271500.0 -0.2146682746 0.9740025851
4800271200.0 -0.2024660636 0.9767727487
4850270900.0 -0.1886201499 0.9796504399
4900270600.0 -0.1748240191 0.9820574304
4950270300.0 -0.1602937947 0.9846667227
5000270000.0 -0.1458080321 0.9868186987
5050269700.0 -0.1323274663 0.9884476153
5100269400.0 -0.1184915702 0.9901299787
5150269100.0 -0.1045826422 0.991928188
5200268800.0 -0.0912444702 0.9927699811
5250268500.0 -0.078107498 0.9938961272
5300268200.0 -0.064643697 0.9948111185
5350267900.0 -0.0520183727 0.9951357179
5400267600.0 -0.0355919792 0.9960353446
5450267300.0 -0.0223763392 0.9966422386
5500267000.0 -0.0071947404 0.997067584
5550266700.0 0.0077901536 0.9971881582
5600266400.0 0.023419174 0.9971475887
5650266100.0 0.0398602313 0.9968021644
5700265800.0 0.0541994957 0.9959276429
5750265500.0 0.0692122584 0.9949125638
5800265200.0 0.082709984 0.9939810386
5850264900.0 0.0962732024 0.9930706236
5900264600.0 0.1127750174 0.9912314434
5950264300.0 0.1241801496 0.9897443653
6000264000.0 0.1380572974 0.9880105209
6050263700.0 0.1499639462 0.9867276966
6100263400.0 0.1619551754 0.984751051
6150263100.0 0.1771775531 0.9829858708
6200262800.0 0.1865635642 0.9809682439
6250262500.0 0.1991586863 0.9787966322
6300262200.0 0.2116332541 0.9760700972
6350261900.0 0.2244978111 0.9733569328
6400261600.0 0.2384253451 0.9700289394
6450261300.0 0.2495978924 0.9675246194
6500261000.0 0.2628523966 0.9640360273
6550260700.0 0.2753998712 0.9596733746
6600260400.0 0.2892240242 0.9558005695
6650260100.0 0.3032740329 0.9515195773
6700259800.0 0.315575418 0.9472340129
6750259500.0 0.329209946 0.9425666923
6800259200.0 0.3427397903 0.9372678108
6850258900.0 0.3547607635 0.931825778
6900258600.0 0.3677439499 0.9269855873
6950258300.0 0.3798345644 0.9212265436
7000258000.0 0.3915129931 0.9161566376
7050257700.0 0.4036546688 0.9102597284
7100257400.0 0.4171290061 0.9038164314
7150257100.0 0.4275675643 0.8984984195
7200256800.0 0.4405133326 0.8920014163
7250256500.0 0.4532394971 0.8854234546
7300256200.0 0.4662303134 0.8790601886
7350255900.0 0.4786067014 0.8716986505
7400255600.0 0.4924140997 0.8643145283
7450255300.0 0.5080484295 0.8550798277
7500255000.0 0.5203167207 0.8477824166
7550254700.0 0.5342673789 0.8387162587
7600254400.0 0.5469850743 0.8306028999
7650254100.0 0.558548475 0.8225762927
7700253800.0 0.5702430362 0.8145803572
7750253500.0 0.5812444917 0.8071195473
7800253200.0 0.5917226828 0.7992107621
7850252900.0 0.6015822036 0.7922009383
7900252600.0 0.6131312674 0.7833129254
7950252300.0 0.6217572456 0.7768872969
8000252000.0 0.6318222472 0.7692452113
8050251700.0 0.6422158429 0.7611312362
8100251400.0 0.651897703 0.753235271
8150251100.0 0.6619133916 0.7447244845
8200250800.0 0.672079784 0.7363961546
8250250500.0 0.6802505834 0.728640147
8300250200.0 0.6895761637 0.7199569068
8350249900.0 0.6988798292 0.711270912
8400249600.0 0.7068375744 0.70337832
8450249300.0 0.7154337665 0.6944262164
8500249000.0 0.7242608278 0.6855157963
8550248700.0 0.73248528 0.6765397743
8600248400.0 0.7408824365 0.6669387743
8650248100.0 0.7485166919 0.6576303221
8700247800.0 0.7580385762 0.6465251496
8750247500.0 0.7661977807 0.6365457766
8800247200.0 0.7744337332 0.6261883508
8850246900.0 0.7830498967 0.6147193767
8900246600.0 0.7915434037 0.6034446004
8950246300.0 0.8009353076 0.5904481741
9000246000.0 0.8096304059 0.5783484367
9050245700.0 0.8183208618 0.5659041718
9100245400.0 0.8263985862 0.5536313052
9150245100.0 0.8357332924 0.5406338741
9200244800.0 0.8447890465 0.5261665938
9250244500.0 0.8541988034 0.5109458753
9300244200.0 0.8621793222 0.4975324948
9350243900.0 0.8699820054 0.483970106
9400243600.0 0.8766982969 0.472117609
9450243300.0 0.8823645355 0.4613602263
9500243000.0 0.8885425357 0.4494798196
9550242700.0 0.8923927454 0.4420090654
9600242400.0 0.8967323037 0.4342696164
9650242100.0 0.9007623405 0.4277385187
9700241800.0 0.905542701 0.4191082174
9750241500.0 0.9096096756 0.4115399164
9800241200.0 0.9147960726 0.4017724087
9850240900.0 0.920452095 0.3903569741
9900240600.0 0.9263664918 0.3785130804
9950240300.0 0.9333120552 0.3618860713
10000240000.0 0.9379541876 0.3505356473
10050239700.0 0.9440825788 0.334534068
10100239400.0 0.9493404824 0.3178440571
10150239100.0 0.9540273589 0.302473888
10200238800.0 0.9581256573 0.2872045636
10250238500.0 0.9614709286 0.2738448911
10300238200.0 0.9645507936 0.2600094493
10350237900.0 0.9673952039 0.2464446223
10400237600.0 0.9699014057 0.233200808
10450237300.0 0.9727489481 0.2193003146
10500237000.0 0.9745399033 0.2073933231
10550236700.0 0.9773830992 0.1928519758
10600236400.0 0.97947592 0.1790432144
10650236100.0 0.9814079983 0.1645763858
10700235800.0 0.9839086112 0.1523048311
10750235500.0 0.9858159764 0.1385500201
10800235200.0 0.9881512547 0.1241417937
10850234900.0 0.9897915713 0.1094774402
10900234600.0 0.9919756118 0.0948913088
10950234300.0 0.993669322 0.08141618
11000234000.0 0.9954378426 0.0658889312
11050233700.0 0.9971830678 0.0493903661
11100233400.0 0.9985771007 0.0316858977
11150233100.0 1.000169093 0.0150659216
11200232800.0 1.000199547 -0.000363764
11250232500.0 1.00204959 -0.0183594042
11300232200.0 1.001811587 -0.0361390082
11350231900.0 1.001878389 -0.0526777199
11400231600.0 1.001641634 -0.0672019312
11450231300.0 1.001796649 -0.0837507232
11500231000.0 0.9998027898 -0.0998491015
11550230700.0 0.9983704262 -0.1132582011
11600230400.0 0.9971795051 -0.1258398284
11650230100.0 0.9948997158 -0.1377745764
11700229800.0 0.9928877878 -0.1527656975
11750229500.0 0.9904235263 -0.166835194
11800229200.0 0.987601113 -0.1800319498
11850228900.0 0.9839695951 -0.1916803217
11900228600.0 0.9805842072 -0.2015240087
11950228300.0 0.9768778907 -0.2115744866
12000228000.0 0.9745314711 -0.2204299953
12050227700.0 0.970252223 -0.2330283655
12100227400.0 0.9668523735 -0.2447633141
12150227100.0 0.9614103387 -0.2617530421
12200226800.0 0.9585458171 -0.2716476025
12250226500.0 0.9549206921 -0.2848680716
12300226200.0 0.9501975959 -0.2968839583
12350225900.0 0.9453463497 -0.3109185533
12400225600.0 0.9406738993 -0.322972883
12450225300.0 0.936472021 -0.336107452
12500225000.0 0.9307233958 -0.3507290494
12550224700.0 0.925354181 -0.3648166663
12600224400.0 0.9206171488 -0.3773174471
12650224100.0 0.9147601089 -0.3917375471
12700223800.0 0.909370857 -0.4046555601
12750223500.0 0.904181674 -0.4173664808
12800223200.0 0.8987636298 -0.4298621014
12850222900.0 0.8935747562 -0.4419163673
12900222600.0 0.8879197222 -0.4541411468
12950222300.0 0.8815850083 -0.4671360041
13000222000.0 0.8757703352 -0.4783606112
13050221700.0 0.8690343634 -0.4915459197
13100221400.0 0.862462941 -0.5032706513
13150221100.0 0.8552891951 -0.5157783472
13200220800.0 0.8481602977 -0.5270162347
13250220500.0 0.840840556 -0.5390353534
13300220200.0 0.8335049806 -0.5503149085
13350219900.0 0.8252599406 -0.5621958529
13400219600.0 0.8167734203 -0.5741210025
13450219300.0 0.8076085964 -0.5872871831
13500219000.0 0.7978960268 -0.6004223827
13550218700.0 0.7880843515 -0.6128589399
13600218400.0 0.7778332288 -0.6248621041
13650218100.0 0.7688869878 -0.6356619927
13700217800.0 0.7573165192 -0.6479019071
13750217500.0 0.7474951997 -0.659459941
13800217200.0 0.7365234956 -0.6701483916
13850216900.0 0.7259199776 -0.6810925537
13900216600.0 0.7161867515 -0.6901000764
13950216300.0 0.7051483156 -0.7008103965
14000216000.0 0.6955356925 -0.7099672647
14050215700.0 0.6858568195 -0.717424384
14100215400.0 0.676618164 -0.7268223749
14150215100.0 0.6673095189 -0.7354787463
14200214800.0 0.6578877398 -0.7443058635
14250214500.0 0.6475233711 -0.7537026241
14300214200.0 0.6369775496 -0.762984712
14350213900.0 0.625941326 -0.7727490275
14400213600.0 0.6141111095 -0.7825714367
14450213300.0 0.6012384611 -0.7926656345
14500213000.0 0.5882715049 -0.8025163888
14550212700.0 0.5757707788 -0.8119459512
14600212400.0 0.5635106483 -0.8205994981
14650212100.0 0.5508502191 -0.829146804
14700211800.0 0.5366872142 -0.8387547882
14750211500.0 0.5245743006 -0.8474536078
14800211200.0 0.5123269939 -0.8554974621
14850210900.0 0.4998764006 -0.8630820952
14900210600.0 0.4867207147 -0.8710691685
14950210300.0 0.4733140578 -0.8784906084
15000210000.0 0.4607791521 -0.8851878544
15050209700.0 0.4485771318 -0.891422794
15100209400.0 0.4355706677 -0.8971953349
15150209100.0 0.42331833 -0.903020435
15200208800.0 0.410956108 -0.9084441135
15250208500.0 0.3993548134 -0.9128981651
15300208200.0 0.3871767848 -0.9170308919
15350207900.0 0.3737994939 -0.9213981674
15400207600.0 0.3595560423 -0.9278943008
15450207300.0 0.3450255828 -0.9325749566
15500207000.0 0.3302839788 -0.9369710943
15550206700.0 0.3155003919 -0.9418017935
15600206400.0 0.2996131334 -0.9464881861
15650206100.0 0.28387818 -0.9512833299
15700205800.0 0.2700283461 -0.954818008
15750205500.0 0.2558845068 -0.9579197977
15800205200.0 0.2419970916 -0.9613181961
15850204900.0 0.2276718707 -0.9649147224
15900204600.0 0.2125337973 -0.9686230243
15950204300.0 0.1982154095 -0.971679013
16000204000.0 0.1840023986 -0.9745436439
16050203700.0 0.169079286 -0.9772842887
16100203400.0 0.1534247449 -0.9796655113
16150203100.0 0.1394162391 -0.9818279816
16200202800.0 0.1253459252 -0.9844375242
16250202500.0 0.1104079083 -0.9860313084
16300202200.0 0.0950138619 -0.9873625416
16350201900.0 0.079888544 -0.9889896444
16400201600.0 0.0653491191 -0.9902146516
16450201300.0 0.0498257351 -0.9911063812
16500201000.0 0.0328400434 -0.9921123286
16550200700.0 0.0168453119 -0.9925494168
16600200400.0 0.0009923921 -0.9926024494
16650200100.0 -0.0152350082 -0.9925035321
16700199800.0 -0.0314684178 -0.9922614585
16750199500.0 -0.0503511829 -0.992141556
16800199200.0 -0.0668492262 -0.9908653701
16850198900.0 -0.0815740598 -0.9892294009
16900198600.0 -0.0962533424 -0.9887512245
16950198300.0 -0.1095817231 -0.9875230386
17000198000.0 -0.1226030328 -0.9859830165
17050197700.0 -0.1346280952 -0.9841720045
17100197400.0 -0.1479625888 -0.9819715735
17150197100.0 -0.160905195 -0.9798723959
17200196800.0 -0.1741949197 -0.9782424524
17250196500.0 -0.1865726039 -0.9755530392
17300196200.0 -0.1986587824 -0.9730836152
17350195900.0 -0.2106158627 -0.9708609273
17400195600.0 -0.2226676996 -0.9683903139
17450195300.0 -0.2353404659 -0.9655550449
17500195000.0 -0.2486855845 -0.9623768496
17550194700.0 -0.2630027619 -0.9586092508
17600194400.0 -0.2765218907 -0.9544537184
17650194100.0 -0.2901960815 -0.9506090699
17700193800.0 -0.3029198769 -0.9462338203
17750193500.0 -0.317019877 -0.9419580149
17800193200.0 -0.3312892083 -0.9365580655
17850192900.0 -0.3464602175 -0.9312160275
17900192600.0 -0.3615137855 -0.9252187191
17950192300.0 -0.3770505547 -0.9179218655
18000192000.0 -0.3916451115 -0.9109908989
18050191700.0 -0.4055758962 -0.902925783
18100191400.0 -0.4198867358 -0.8951275671
18150191100.0 -0.43472862 -0.8872174834
18200190800.0 -0.4515078641 -0.878127231
18250190500.0 -0.4684731492 -0.8686962842
18300190200.0 -0.48396071 -0.8599567101
18350189900.0 -0.4992721002 -0.8515145969
18400189600.0 -0.5139675338 -0.843079579
18450189300.0 -0.5270001097 -0.8348811855
18500189000.0 -0.5406279809 -0.8270375432
18550188700.0 -0.5533253791 -0.8194211431
18600188400.0 -0.5655978296 -0.8122307837
18650188100.0 -0.5764901239 -0.8061775317
18700187800.0 -0.5871197861 -0.7996558574
18750187500.0 -0.5982887014 -0.7927723478
18800187200.0 -0.608850108 -0.7857886758
18850186900.0 -0.6190394675 -0.7787922651
18900186600.0 -0.6296645071 -0.7714859126
18950186300.0 -0.6395645842 -0.7639551155
19000186000.0 -0.6470330298 -0.7574477921
19050185700.0 -0.6564511163 -0.7509377589
19100185400.0 -0.6663304819 -0.7416789431
19150185100.0 -0.6763709893 -0.7340269604
19200184800.0 -0.6861121114 -0.7255545553
19250184500.0 -0.6951639847 -0.716014741
19300184200.0 -0.7072330344 -0.7069908422
19350183900.0 -0.7178546322 -0.696959662
19400183600.0 -0.7276394838 -0.6871739685
19450183300.0 -0.7363262955 -0.6766684379
19500183000.0 -0.7448763289 -0.6666731922
19550182700.0 -0.7544249479 -0.6562049878
19600182400.0 -0.7648949193 -0.6443610623
19650182100.0 -0.7754361166 -0.63215016
19700181800.0 -0.7859241687 -0.6189351187
19750181500.0 -0.7962180834 -0.6048025116
19800181200.0 -0.806657291 -0.5898390478
19850180900.0 -0.8161545034 -0.5746855938
19900180600.0 -0.8239517685 -0.5599447263
19950180300.0 -0.8333199862 -0.5437209719
20000180000.0 -0.8233215403 -0.5468695452
20050179700.0 -0.8322571205 -0.5339093388
20100179400.0 -0.8404081511 -0.5216769159
20150179100.0 -0.8484166359 -0.5087763147
20200178800.0 -0.8566913977 -0.4966046126
20250178500.0 -0.8664166444 -0.4842957791
20300178200.0 -0.8761864031 -0.4703349658
20350177900.0 -0.8854800732 -0.4565031489
20400177600.0 -0.8943966662 -0.4420650677
20450177300.0 -0.9029171754 -0.4280167721
20500177000.0 -0.9106579524 -0.4137650634
20550176700.0 -0.918652829 -0.4002992196
20600176400.0 -0.9253861982 -0.3873661729
20650176100.0 -0.9321079766 -0.3757082472
20700175800.0 -0.938536249 -0.3630575234
20750175500.0 -0.9453406234 -0.3520340244
20800175200.0 -0.9493278796 -0.341315757
20850174900.0 -0.9543339158 -0.3306102991
20900174600.0 -0.9584302529 -0.3189725632
20950174300.0 -0.9618166484 -0.3081498585
21000174000.0 -0.9651310142 -0.2974021041
21050173700.0 -0.9671522658 -0.2867485254
21100173400.0 -0.9707221794 -0.2762409019
21150173100.0 -0.9745523495 -0.2639678073
21200172800.0 -0.979059415 -0.250400605
21250172500.0 -0.982259487 -0.2367904944
21300172200.0 -0.9857298205 -0.2226138161
21350171900.0 -0.9873381474 -0.2085616001
21400171600.0 -0.9889005256 -0.1947468804
21450171300.0 -0.9896310262 -0.179796076
21500171000.0 -0.9897359723 -0.1645714333
21550170700.0 -0.9907614382 -0.1499951964
21600170400.0 -0.9911969207 -0.1337286213
21650170100.0 -0.9913055488 -0.1189433321
21700169800.0 -0.989367458 -0.1039009903
21750169500.0 -0.9900799787 -0.0869915837
21800169200.0 -0.989259243 -0.0704750895
21850168900.0 -0.9889677456 -0.0538582114
21900168600.0 -0.9886680552 -0.037888017
21950168300.0 -0.9885289658 -0.0217775444
22000168000.0 -0.9875037442 -0.0069855437
22050167700.0 -0.9878820425 0.0074305475
22100167400.0 -0.9885151373 0.0231822414
22150167100.0 -0.9893779175 0.0389716535
22200166800.0 -0.9897943759 0.0556658937
22250166500.0 -0.9891875115 0.0728567409
22300166200.0 -0.9887860965 0.0890184395
22350165900.0 -0.9872739239 0.1049512841
22400165600.0 -0.9858272127 0.1210677204
22450165300.0 -0.9847774242 0.1368917959
22500165000.0 -0.9821379775 0.1504812554
22550164700.0 -0.9817261386 0.1661899712
22600164400.0 -0.9790834953 0.1826367363
22650164100.0 -0.9761920597 0.1980589516
22700163800.0 -0.9736210605 0.2143004118
22750163500.0 -0.9704145436 0.2283485756
22800163200.0 -0.9680180035 0.2411082631
22850162900.0 -0.9651703068 0.2551568036
22900162600.0 -0.9633583238 0.2690406682
22950162300.0 -0.9617590143 0.2824051955
23000162000.0 -0.9601050561 0.2949691746
23050161700.0 -0.9574835722 0.3076662363
23100161400.0 -0.9549013195 0.3209663066
23150161100.0 -0.9516497252 0.3338048403
23200160800.0 -0.9491542891 0.3468262041
23250160500.0 -0.9459687226 0.3591781733
23300160200.0 -0.9437155502 0.3717053085
23350159900.0 -0.9400781708 0.3852982777
23400159600.0 -0.9350447613 0.3985197774
23450159300.0 -0.9296419931 0.4123072717
23500159000.0 -0.9247264769 0.425755696
23550158700.0 -0.9203256761 0.4397227133
23600158400.0 -0.9142583135 0.4533263588
23650158100.0 -0.9074987027 0.4679433101
23700157800.0 -0.8991495772 0.4821138552
23750157500.0 -0.889836246 0.496343474
23800157200.0 -0.8805069631 0.5100347525
23850156900.0 -0.8706424295 0.5222061248
23900156600.0 -0.8613373861 0.5351352339
23950156300.0 -0.8519895112 0.5473395379
24000156000.0 -0.8423655099 0.5596517105
24050155700.0 -0.8326567494 0.5718075753
24100155400.0 -0.8222453439 0.5843283021
24150155100.0 -0.8106560455 0.596065613
24200154800.0 -0.7994786094 0.6079695314
24250154500.0 -0.7885393816 0.6204563064
24300154200.0 -0.7776519203 0.6319884158
24350153900.0 -0.7653087892 0.6430808167
24400153600.0 -0.7527502755 0.6535740811
24450153300.0 -0.7409791656 0.6636171147
24500153000.0 -0.7290531233 0.6736886044
24550152700.0 -0.7178878271 0.6835363574
24600152400.0 -0.7060930278 0.6924471685
24650152100.0 -0.6940396244 0.7018783627
