!Created with skrf (http://scikit-rf.org).
# Hz S RI R 50.0 
!freq ReS11 ImS11
300000.0 -0.9757534681 -0.1183111743
50299700.0 -0.9999763478 0.0153023601
100299400.0 -0.9980374165 0.0283994505
150299100.0 -1.00281603 0.0450945298
200298800.0 -0.9997086904 0.0584991785
250298500.0 -0.9974454267 0.0720336959
300298200.0 -0.9860035361 0.0877010408
350297900.0 -0.9940638056 0.0987286575
400297600.0 -0.993233534 0.1154140702
450297300.0 -0.9910905537 0.1290492555
500297000.0 -0.9893941698 0.1439020814
550296700.0 -0.9844525155 0.1564119251
600296400.0 -1.017335885 0.1897019307
650296100.0 -0.982232088 0.1862292878
700295800.0 -0.9793049657 0.2005056296
750295500.0 -0.976313872 0.2145689828
800295200.0 -0.9730842041 0.2287514103
850294900.0 -0.9698320812 0.2422702675
900294600.0 -0.9657492708 0.2562531396
950294300.0 -0.9621851988 0.2699053576
1000294000.0 -0.9580047814 0.2838346149
1050293700.0 -0.9536489039 0.2977081227
1100293400.0 -0.9493298878 0.3120861108
1150293100.0 -0.9453396555 0.3239583182
1200292800.0 -0.940101273 0.3382492499
1250292500.0 -0.9345747148 0.3517407132
1300292200.0 -0.9289995206 0.3648801239
1350291900.0 -0.9233192565 0.3791412459
1400291600.0 -0.9179979691 0.392168108
1450291300.0 -0.9126341286 0.4045601012
1500291000.0 -0.9060843602 0.417831901
1550290700.0 -0.8995700051 0.4311090777
1600290400.0 -0.8933755161 0.4440862569
1650290100.0 -0.8866482065 0.4562527445
1700289800.0 -0.8797172006 0.4695674348
1750289500.0 -0.8727771343 0.4817997703
1800289200.0 -0.8653433043 0.4949455116
1850288900.0 -0.8585741901 0.5062564803
1900288600.0 -0.8507411772 0.5191400648
1950288300.0 -0.8431008977 0.5317617806
2000288000.0 -0.8354614807 0.5431042656
2050287700.0 -0.8271393193 0.555519291
2100287400.0 -0.8193004036 0.5670504924
2150287100.0 -0.8105607322 0.5791078762
2200286800.0 -0.8028463286 0.5894346303
2250286500.0 -0.7939497791 0.6014773774
2300286200.0 -0.7851776158 0.6131538213
2350285900.0 -0.7766567194 0.6241186438
2400285600.0 -0.7674899127 0.6351731989
2450285300.0 -0.7590161687 0.6455711385
2500285000.0 -0.749124495 0.6568683267
2550284700.0 -0.7403325899 0.6672030804
2600284400.0 -0.730994915 0.6771742748
2650284100.0 -0.722006198 0.6878036413
2700283800.0 -0.7112953044 0.698268121
2750283500.0 -0.7009934108 0.7086842064
2800283200.0 -0.6911697304 0.7184803406
2850282900.0 -0.6809911767 0.7282665635
2900282600.0 -0.6705739409 0.7382551656
2950282300.0 -0.6603460618 0.7473794304
3000282000.0 -0.6496780559 0.7569202586
3050281700.0 -0.6385861246 0.7660988555
3100281400.0 -0.6265322219 0.7755389812
3150281100.0 -0.614832084 0.7848414826
3200280800.0 -0.6033209125 0.7934663802
3250280500.0 -0.5924258496 0.8009677516
3300280200.0 -0.5809829463 0.8086256811
3350279900.0 -0.5694434886 0.8164520025
3400279600.0 -0.5574171835 0.8241719032
3450279300.0 -0.5462584685 0.831475214
3500279000.0 -0.5342545312 0.8384288853
3550278700.0 -0.5217783335 0.8457364518
3600278400.0 -0.5095723581 0.8526825743
3650278100.0 -0.4963380577 0.8602248812
3700277800.0 -0.4843936692 0.8668526019
3750277500.0 -0.4721175167 0.8734648367
3800277200.0 -0.4595310352 0.8798964008
3850276900.0 -0.447453251 0.8858588355
3900276600.0 -0.4369790282 0.8915384257
3950276300.0 -0.4242606299 0.8975962532
4000276000.0 -0.4122077953 0.9037412995
4050275700.0 -0.3994657454 0.9095652966
4100275400.0 -0.388438698 0.9150894095
4150275100.0 -0.3755502843 0.9207629847
4200274800.0 -0.3625950111 0.9263166856
4250274500.0 -0.3504111827 0.9315120035
4300274200.0 -0.3374186362 0.9368045913
4350273900.0 -0.3236040241 0.9422286884
4400273600.0 -0.3085811257 0.9471696158
4450273300.0 -0.2933360957 0.9522698453
4500273000.0 -0.2798388812 0.9567643013
4550272700.0 -0.2654733841 0.9608986506
4600272400.0 -0.2500526365 0.9650582244
4650272100.0 -0.2386082894 0.9683411427
4700271800.0 -0.2251824185 0.9716915778
4750271500.0 -0.2134787269 0.974633868
4800271200.0 -0.2010036939 0.9772915545
4850270900.0 -0.1870484776 0.9800504329
4900270600.0 -0.1731982255 0.9822766945
4950270300.0 -0.15885181 0.9850174705
5000270000.0 -0.144644807 0.9873051493
5050269700.0 -0.1312343229 0.9887108713
5100269400.0 -0.117342231 0.9900824911
5150269100.0 -0.1040695743 0.9920620202
5200268800.0 -0.0907750822 0.9927966872
5250268500.0 -0.0777303425 0.9938039877
5300268200.0 -0.0646657864 0.994199708
5350267900.0 -0.0523469295 0.9952702817
5400267600.0 -0.0357872818 0.996260686
5450267300.0 -0.0230933875 0.9966465586
5500267000.0 -0.0076956421 0.9970670116
5550266700.0 0.0072215577 0.9972299922
5600266400.0 0.0224929084 0.9971814257
5650266100.0 0.0391689744 0.9968223648
5700265800.0 0.0538077184 0.9962632433
5750265500.0 0.0691180858 0.9958949209
5800265200.0 0.082868843 0.9950397944
5850264900.0 0.096086792 0.9935355972
5900264600.0 0.1126584034 0.9916187124
5950264300.0 0.1245717279 0.9899404334
6000264000.0 0.1385126586 0.9883540581
6050263700.0 0.1510186473 0.9867348976
6100263400.0 0.163469836 0.9849570731
6150263100.0 0.1777551998 0.9824634736
6200262800.0 0.1881372886 0.9810350789
6250262500.0 0.2007005868 0.9783322657
6300262200.0 0.2137848353 0.9756352211
6350261900.0 0.226828537 0.9729699634
6400261600.0 0.2406151484 0.9696829888
6450261300.0 0.2520550517 0.9669742602
6500261000.0 0.2646264248 0.9633412019
6550260700.0 0.2776958443 0.9592722097
6600260400.0 0.2910308851 0.9553056918
6650260100.0 0.3051560821 0.9511084459
6700259800.0 0.316888767 0.9466938692
6750259500.0 0.3307598383 0.9416446913
6800259200.0 0.3439140473 0.9364322726
6850258900.0 0.3559207921 0.9316404232
6900258600.0 0.3682242371 0.9265673927
6950258300.0 0.380900459 0.9215124999
7000258000.0 0.3927192056 0.915779278
7050257700.0 0.4050970768 0.9099371579
7100257400.0 0.4177328801 0.9033994559
7150257100.0 0.4283923216 0.8982417002
7200256800.0 0.4411174381 0.8916509968
7250256500.0 0.4530633538 0.8853217537
7300256200.0 0.4660665633 0.8788339953
7350255900.0 0.4788861219 0.8718314739
7400255600.0 0.4914534038 0.8642640331
7450255300.0 0.5069582606 0.8555564258
7500255000.0 0.5195285395 0.848630199
7550254700.0 0.5324592101 0.8398500236
7600254400.0 0.5457871776 0.831497895
7650254100.0 0.5571215433 0.8236933327
7700253800.0 0.568641472 0.8154479009
7750253500.0 0.5802665065 0.807891583
7800253200.0 0.5906496209 0.8005503899
7850252900.0 0.6003513488 0.7932558348
7900252600.0 0.6120003102 0.7845039031
7950252300.0 0.6207719933 0.7780411897
8000252000.0 0.6309822707 0.7703427151
8050251700.0 0.6414999593 0.762044077
8100251400.0 0.6514496252 0.7538858169
8150251100.0 0.6613084491 0.7454902356
8200250800.0 0.6713304201 0.7373929999
8250250500.0 0.6795508991 0.7295273915
8300250200.0 0.6889009376 0.7207065535
8350249900.0 0.6980233296 0.7122992936
8400249600.0 0.7061739759 0.7039424784
8450249300.0 0.7155594588 0.6949106886
8500249000.0 0.7239125197 0.6861112824
8550248700.0 0.7323723728 0.6771016984
8600248400.0 0.7408627807 0.6676604215
8650248100.0 0.7485474073 0.6581739862
8700247800.0 0.7582695895 0.646932024
8750247500.0 0.7666077186 0.6368029805
8800247200.0 0.7745643482 0.6262943964
8850246900.0 0.7834188551 0.6148610799
8900246600.0 0.7920515704 0.6036229597
8950246300.0 0.8012109077 0.5905924335
9000246000.0 0.8109122862 0.5779211448
9050245700.0 0.8196263321 0.5650715841
9100245400.0 0.8282452564 0.5526206717
9150245100.0 0.8379369002 0.5388110202
9200244800.0 0.8472087663 0.5237387727
9250244500.0 0.856822692 0.5084030879
9300244200.0 0.8651012171 0.4938449468
9350243900.0 0.8728727888 0.4800005538
9400243600.0 0.8796086146 0.467722552
9450243300.0 0.8855161962 0.4561693769
9500243000.0 0.8916945221 0.4442643006
9550242700.0 0.8954758498 0.4363061898
9600242400.0 0.8994023374 0.4291107716
9650242100.0 0.903079953 0.4225464647
9700241800.0 0.907600839 0.4143559417
9750241500.0 0.9117928347 0.4064431771
9800241200.0 0.9165228602 0.3973989077
9850240900.0 0.9221077749 0.385512391
9900240600.0 0.9274257724 0.37428529
9950240300.0 0.9344677717 0.358126094
10000240000.0 0.93839112 0.3470973073
10050239700.0 0.9444880275 0.3310609803
10100239400.0 0.9495962568 0.3157726885
10150239100.0 0.9541089901 0.3009229174
10200238800.0 0.9581954428 0.2858414423
10250238500.0 0.961490863 0.2724674303
10300238200.0 0.9647928272 0.2585850835
10350237900.0 0.9673213847 0.2456781981
10400237600.0 0.9698554428 0.2321966474
10450237300.0 0.9724699114 0.2185432564
10500237000.0 0.9747658863 0.2063247747
10550236700.0 0.9767938325 0.192655538
10600236400.0 0.9789973552 0.1783854814
10650236100.0 0.9813172669 0.1637200699
10700235800.0 0.9837325215 0.1515125008
10750235500.0 0.9856401596 0.1384921587
10800235200.0 0.9876623061 0.124307949
10850234900.0 0.9896044616 0.1093430161
10900234600.0 0.9917062019 0.0948881545
10950234300.0 0.9934959015 0.0818150916
11000234000.0 0.9952205444 0.0665828254
11050233700.0 0.9970209677 0.0502857753
11100233400.0 0.9984539973 0.0328138741
11150233100.0 0.9997422159 0.0162047949
11200232800.0 1.000225702 0.0016195593
11250232500.0 1.00098855 -0.0143490212
11300232200.0 1.001921325 -0.0328619028
11350231900.0 1.001823267 -0.0491465244
11400231600.0 1.001125052 -0.0636160908
11450231300.0 1.001185159 -0.0791545743
11500231000.0 0.9996957754 -0.0961607563
11550230700.0 0.9983442318 -0.1094518794
11600230400.0 0.9970726171 -0.1212881913
11650230100.0 0.9954782901 -0.133912943
11700229800.0 0.9929098998 -0.1482528964
11750229500.0 0.9906252524 -0.1628185821
11800229200.0 0.9881691861 -0.1762057626
11850228900.0 0.9845080887 -0.1886098658
11900228600.0 0.9812647452 -0.1985129167
11950228300.0 0.9779321892 -0.2087657711
12000228000.0 0.9747689986 -0.2186207757
12050227700.0 0.9712777417 -0.2313605065
12100227400.0 0.9683596804 -0.2416698191
12150227100.0 0.9635723477 -0.258212582
12200226800.0 0.9592643437 -0.2701154695
12250226500.0 0.9552119006 -0.2823585956
12300226200.0 0.9510398589 -0.2943918734
12350225900.0 0.9468024258 -0.3083103544
12400225600.0 0.9427711596 -0.3207869866
12450225300.0 0.9377219222 -0.3335944606
12500225000.0 0.9318314923 -0.3486199477
12550224700.0 0.9268802425 -0.362417448
12600224400.0 0.9219939084 -0.3753222529
12650224100.0 0.9161105835 -0.3897777645
12700223800.0 0.9109375137 -0.4024577522
12750223500.0 0.9054664312 -0.4154537762
12800223200.0 0.9002837857 -0.4279800131
12850222900.0 0.8943508901 -0.4402559941
12900222600.0 0.8889585466 -0.452475695
12950222300.0 0.882668377 -0.4651444386
13000222000.0 0.8766168172 -0.4759630109
13050221700.0 0.8700848731 -0.4896625767
13100221400.0 0.8634026021 -0.501148067
13150221100.0 0.8564335832 -0.5138043663
13200220800.0 0.8495264329 -0.5251094029
13250220500.0 0.8424908238 -0.5370812504
13300220200.0 0.8347340026 -0.5480188203
13350219900.0 0.8269691998 -0.559836497
13400219600.0 0.8186249616 -0.5720341405
13450219300.0 0.809237831 -0.5854259892
13500219000.0 0.79909716 -0.599466755
13550218700.0 0.7889736601 -0.6120645584
13600218400.0 0.7788462784 -0.6247905147
13650218100.0 0.7696139173 -0.6355121097
13700217800.0 0.7574979305 -0.6481329128
13750217500.0 0.7482814919 -0.6589832356
13800217200.0 0.7371139685 -0.6705772537
13850216900.0 0.7261217181 -0.6820375856
13900216600.0 0.7162123204 -0.6911398453
13950216300.0 0.7049887405 -0.7017372238
14000216000.0 0.6954253258 -0.7107163343
14050215700.0 0.6855707158 -0.7191587841
14100215400.0 0.6756288302 -0.7277635499
14150215100.0 0.6665046067 -0.7359867059
14200214800.0 0.6571947199 -0.7452221352
14250214500.0 0.6469876543 -0.7544905751
14300214200.0 0.6366324119 -0.7638119416
14350213900.0 0.6253655207 -0.7735479577
14400213600.0 0.613723873 -0.7832025784
14450213300.0 0.6002930935 -0.7935571933
14500213000.0 0.587251679 -0.8030621411
14550212700.0 0.5747806454 -0.8132581281
14600212400.0 0.5620350282 -0.8216552567
14650212100.0 0.5497780661 -0.8301470624
14700211800.0 0.5355719803 -0.8400062603
14750211500.0 0.5233311341 -0.8479519618
14800211200.0 0.5109265012 -0.8561259586
14850210900.0 0.4991487349 -0.8634981869
14900210600.0 0.4856516107 -0.8714543617
14950210300.0 0.4724423325 -0.879028289
15000210000.0 0.4595930122 -0.8858451678
15050209700.0 0.4473317521 -0.8920258349
15100209400.0 0.4344309577 -0.898086622
15150209100.0 0.4225125445 -0.903550283
15200208800.0 0.4098169487 -0.9089324154
15250208500.0 0.3983478189 -0.9130341658
15300208200.0 0.3860118783 -0.9179822268
15350207900.0 0.373245432 -0.9227573482
15400207600.0 0.3574894318 -0.9279812675
15450207300.0 0.3440878135 -0.9332209382
15500207000.0 0.3290975558 -0.9374845597
15550206700.0 0.3145437021 -0.9425241601
15600206400.0 0.2981498844 -0.9468919587
15650206100.0 0.2826044608 -0.9519159409
15700205800.0 0.2685417832 -0.9549210252
15750205500.0 0.2541028665 -0.9585381962
15800205200.0 0.2400014424 -0.9620160679
15850204900.0 0.2254651079 -0.9657007281
15900204600.0 0.2102652217 -0.9693048406
15950204300.0 0.1964068864 -0.972349367
16000204000.0 0.1823959272 -0.9748007581
16050203700.0 0.1669008297 -0.9776647532
16100203400.0 0.1526841974 -0.9799750323
16150203100.0 0.1379331852 -0.9823120155
16200202800.0 0.1241293464 -0.9844035392
16250202500.0 0.1087279108 -0.986057359
16300202200.0 0.0936371927 -0.987715901
16350201900.0 0.0786137109 -0.9887115621
16400201600.0 0.0642304083 -0.990214921
16450201300.0 0.0490049246 -0.991365555
16500201000.0 0.0323280654 -0.9919896434
16550200700.0 0.0166534721 -0.9926228674
16600200400.0 0.0007376207 -0.9925869354
16650200100.0 -0.0151291641 -0.9927088713
16700199800.0 -0.0315976093 -0.9924571646
16750199500.0 -0.0499018883 -0.9914151921
16800199200.0 -0.066478571 -0.9905625775
16850198900.0 -0.0815663168 -0.9894319746
16900198600.0 -0.0948682959 -0.9884075873
16950198300.0 -0.1081275026 -0.9879156054
17000198000.0 -0.1209100769 -0.9866873661
17050197700.0 -0.1340767464 -0.9838750329
17100197400.0 -0.146502807 -0.9822744213
17150197100.0 -0.1593738326 -0.9804914515
17200196800.0 -0.172189694 -0.9782712706
17250196500.0 -0.1851321793 -0.9757512181
17300196200.0 -0.1973583322 -0.9736302046
17350195900.0 -0.2091821954 -0.971226945
17400195600.0 -0.2212167335 -0.9688744243
17450195300.0 -0.2342638168 -0.9661193698
17500195000.0 -0.2480689236 -0.9624410138
17550194700.0 -0.2617806206 -0.9588905249
17600194400.0 -0.2757289442 -0.9551411497
17650194100.0 -0.2895842338 -0.9505795537
17700193800.0 -0.3025945909 -0.9469199257
17750193500.0 -0.3169147469 -0.9421363193
17800193200.0 -0.331588095 -0.9372067617
17850192900.0 -0.3464331654 -0.9313912628
17900192600.0 -0.3615558301 -0.9254415627
17950192300.0 -0.3772495534 -0.9184700418
18000192000.0 -0.3920331006 -0.9111636207
18050191700.0 -0.405828896 -0.9029607621
18100191400.0 -0.4199717006 -0.8954579039
18150191100.0 -0.4350109972 -0.8874532236
18200190800.0 -0.4517011326 -0.8781785616
18250190500.0 -0.4688029389 -0.8688093741
18300190200.0 -0.4841502668 -0.8600714108
18350189900.0 -0.4998375338 -0.851597652
18400189600.0 -0.5140648647 -0.8430742442
18450189300.0 -0.527287985 -0.8355067551
18500189000.0 -0.5405719075 -0.8271866091
18550188700.0 -0.5528789503 -0.8197254169
18600188400.0 -0.5650586036 -0.8125094883
18650188100.0 -0.5762012238 -0.8066333155
18700187800.0 -0.5868782757 -0.7999715642
18750187500.0 -0.5975962175 -0.7936276821
18800187200.0 -0.6081402838 -0.7864150009
18850186900.0 -0.61808554 -0.7796014026
18900186600.0 -0.6282390461 -0.7723631195
18950186300.0 -0.6384021492 -0.7646809124
19000186000.0 -0.6457649782 -0.7580397864
19050185700.0 -0.6551689298 -0.7511690244
19100185400.0 -0.6651423776 -0.7428676521
19150185100.0 -0.6742828978 -0.734558701
19200184800.0 -0.6838146636 -0.7262639682
19250184500.0 -0.6945276616 -0.7170439701
19300184200.0 -0.7057739433 -0.7078799814
19350183900.0 -0.7164290232 -0.6975902429
19400183600.0 -0.7260467827 -0.6878236043
19450183300.0 -0.7351216851 -0.6781491641
19500183000.0 -0.7429951506 -0.6683320888
19550182700.0 -0.7529215117 -0.6573276102
19600182400.0 -0.7629840238 -0.64548394
19650182100.0 -0.774282544 -0.6328675879
19700181800.0 -0.7848236867 -0.6200060732
19750181500.0 -0.7954673027 -0.6055481826
19800181200.0 -0.8059813763 -0.590573442
19850180900.0 -0.8156379566 -0.5753050186
19900180600.0 -0.8234276478 -0.5608084363
19950180300.0 -0.8328116818 -0.5445944011
20000180000.0 -0.8259300517 -0.5465838069
20050179700.0 -0.8340307952 -0.5337490289
20100179400.0 -0.842575452 -0.5194826734
20150179100.0 -0.8509592076 -0.5079174615
20200178800.0 -0.8599499337 -0.4944744881
20250178500.0 -0.8688101545 -0.4809645198
20300178200.0 -0.8787205089 -0.466754597
20350177900.0 -0.8874220845 -0.4527334724
20400177600.0 -0.8965717851 -0.4380795419
20450177300.0 -0.9046128057 -0.4232711486
20500177000.0 -0.9130116383 -0.409554362
20550176700.0 -0.9207456443 -0.3960836546
20600176400.0 -0.928021498 -0.3829646178
20650176100.0 -0.9341679045 -0.3706615685
20700175800.0 -0.9409360911 -0.3586137577
20750175500.0 -0.947456045 -0.3474084093
20800175200.0 -0.9525121525 -0.335802101
20850174900.0 -0.956815948 -0.3263504708
20900174600.0 -0.9622072382 -0.3136103378
20950174300.0 -0.9660608541 -0.3022964589
21000174000.0 -0.9687575515 -0.2909265114
21050173700.0 -0.9721373826 -0.280059641
21100173400.0 -0.975792261 -0.2671079801
21150173100.0 -0.9796019801 -0.2561749136
21200172800.0 -0.9829450858 -0.2423018302
21250172500.0 -0.9861992999 -0.2289674809
21300172200.0 -0.9889756805 -0.214952897
21350171900.0 -0.9910114521 -0.200246862
21400171600.0 -0.992411048 -0.1858147278
21450171300.0 -0.9927952102 -0.1718603561
21500171000.0 -0.9922241782 -0.1559312077
21550170700.0 -0.9925021527 -0.1410822072
21600170400.0 -0.9920766897 -0.1247559355
21650170100.0 -0.9913080739 -0.1099864164
21700169800.0 -0.9898377678 -0.0935590424
21750169500.0 -0.9892999199 -0.0788081092
21800169200.0 -0.9885564949 -0.0614978739
21850168900.0 -0.9871884828 -0.0453369153
21900168600.0 -0.9863591201 -0.0291817234
21950168300.0 -0.9847736831 -0.0125059983
22000168000.0 -0.9836764471 0.0018110899
22050167700.0 -0.9835359394 0.016486691
22100167400.0 -0.9838492131 0.0317423484
22150167100.0 -0.9839116222 0.0470892692
22200166800.0 -0.9848820024 0.0636210922
22250166500.0 -0.9843681385 0.0809997439
22300166200.0 -0.983684366 0.097574228
22350165900.0 -0.9821584077 0.1138841508
22400165600.0 -0.9812158583 0.1292708902
22450165300.0 -0.9781360519 0.1459930347
22500165000.0 -0.9768201618 0.1577455717
22550164700.0 -0.9759226608 0.1736891477
22600164400.0 -0.9739963033 0.188216557
22650164100.0 -0.9714792271 0.2044540203
22700163800.0 -0.9692167997 0.2199067009
22750163500.0 -0.9667439418 0.2347093195
22800163200.0 -0.9640341206 0.2477740417
22850162900.0 -0.9613913682 0.2617412348
22900162600.0 -0.9599998168 0.2747841294
22950162300.0 -0.9590136966 0.2875138353
23000162000.0 -0.9579363671 0.2997194664
23050161700.0 -0.9562215701 0.3120086899
23100161400.0 -0.9539982843 0.3249618132
23150161100.0 -0.9505169452 0.3371110191
23200160800.0 -0.9477417632 0.3497228655
23250160500.0 -0.9457252496 0.3613108486
23300160200.0 -0.9423969243 0.3737142881
23350159900.0 -0.9384902984 0.3867037235
23400159600.0 -0.9340032193 0.4001317218
23450159300.0 -0.929211083 0.4132994865
23500159000.0 -0.9244922856 0.4258843677
23550158700.0 -0.9201600425 0.4397101978
23600158400.0 -0.9147615009 0.4530491223
23650158100.0 -0.9083149273 0.4671867623
23700157800.0 -0.9008916655 0.4810392729
23750157500.0 -0.891972621 0.4951200178
23800157200.0 -0.8836590711 0.5084168257
23850156900.0 -0.874910496 0.5210805834
23900156600.0 -0.8655533942 0.5334907648
23950156300.0 -0.8562064692 0.5458000742
24000156000.0 -0.8467252023 0.5578565072
24050155700.0 -0.8366416444 0.5707482421
24100155400.0 -0.8262280783 0.5817223577
24150155100.0 -0.8168066038 0.5939957351
24200154800.0 -0.8052191487 0.6053527524
24250154500.0 -0.7938322844 0.6164093365
24300154200.0 -0.7826509081 0.628457632
24350153900.0 -0.7709102275 0.638726068
24400153600.0 -0.7581971087 0.6491110312
24450153300.0 -0.7469235059 0.6587436493
24500153000.0 -0.7347633648 0.668560561
24550152700.0 -0.7239033051 0.6787755431
24600152400.0 -0.7123108506 0.687437947
24650152100.0 -0.7002135782 0.6965196501
