!Created with skrf (http://scikit-rf.org).
# Hz S RI R 50.0 
!freq ReS11 ImS11
300000.0 -0.9745545164 -0.1188099144
50299700.0 -1.000009531 0.0152751742
100299400.0 -0.9980810456 0.0282445403
150299100.0 -1.002780484 0.0449200826
200298800.0 -0.9995647408 0.0583485619
250298500.0 -0.9973408657 0.0717818827
300298200.0 -0.9857152305 0.087635199
350297900.0 -0.9939327991 0.098478808
400297600.0 -0.9931470745 0.1151114162
450297300.0 -0.9910830604 0.128840933
500297000.0 -0.9894114607 0.1435650408
550296700.0 -0.9843966981 0.1559712335
600296400.0 -1.017407666 0.1893315781
650296100.0 -0.9821970971 0.1859717735
700295800.0 -0.9793719585 0.2001041134
750295500.0 -0.9764068833 0.2142315162
800295200.0 -0.9729914436 0.2284167791
850294900.0 -0.9695867176 0.2420538115
900294600.0 -0.9655747446 0.2558325244
950294300.0 -0.9622186156 0.2694744179
1000294000.0 -0.9583004472 0.283365006
1050293700.0 -0.9536739628 0.2972401254
1100293400.0 -0.9494026458 0.3116796131
1150293100.0 -0.9454273212 0.3235223595
1200292800.0 -0.9399342294 0.3379181908
1250292500.0 -0.9345042696 0.3513158948
1300292200.0 -0.9290389497 0.3646252544
1350291900.0 -0.9234082991 0.3786668283
1400291600.0 -0.9178550397 0.3917273901
1450291300.0 -0.9125257311 0.4040436899
1500291000.0 -0.9060256267 0.4175818794
1550290700.0 -0.8997036198 0.4307979037
1600290400.0 -0.8934003839 0.4439409112
1650290100.0 -0.8867800108 0.4558145666
1700289800.0 -0.8799467947 0.4694297829
1750289500.0 -0.8729356503 0.4816396282
1800289200.0 -0.8656127775 0.4944216613
1850288900.0 -0.8588010767 0.5059136977
1900288600.0 -0.8511264763 0.5189065835
1950288300.0 -0.8427900218 0.5315318151
2000288000.0 -0.8354603497 0.5430781197
2050287700.0 -0.8271726779 0.5553495522
2100287400.0 -0.819367594 0.5666916857
2150287100.0 -0.8108288072 0.578658679
2200286800.0 -0.803058895 0.5892004886
2250286500.0 -0.7941713609 0.601215756
2300286200.0 -0.7853823146 0.6127746809
2350285900.0 -0.7768288987 0.623680999
2400285600.0 -0.767740775 0.634748479
2450285300.0 -0.7591709586 0.6452031501
2500285000.0 -0.74923081 0.656707973
2550284700.0 -0.7400609585 0.6668260351
2600284400.0 -0.7308838764 0.6770736133
2650284100.0 -0.7222095634 0.6870999658
2700283800.0 -0.7116042096 0.6975218481
2750283500.0 -0.7011075725 0.7083739741
2800283200.0 -0.6914545423 0.7181926828
2850282900.0 -0.6812549531 0.7281808389
2900282600.0 -0.6707976715 0.7380729127
2950282300.0 -0.6607851838 0.7471852478
3000282000.0 -0.6498921224 0.7565404705
3050281700.0 -0.6386390147 0.7658112109
3100281400.0 -0.6267523546 0.775160488
3150281100.0 -0.6152239537 0.784430321
3200280800.0 -0.6037202158 0.7928917842
3250280500.0 -0.5927475626 0.8005140533
3300280200.0 -0.5813904616 0.8085927083
3350279900.0 -0.5695201519 0.8162860821
3400279600.0 -0.5572047109 0.8241882215
3450279300.0 -0.5460657255 0.831187517
3500279000.0 -0.5342250618 0.8384189492
3550278700.0 -0.522016269 0.8455938603
3600278400.0 -0.5097227744 0.8524665448
3650278100.0 -0.4967038234 0.8602068095
3700277800.0 -0.484454353 0.8665187279
3750277500.0 -0.4722892115 0.8732699059
3800277200.0 -0.4599968088 0.8798057423
3850276900.0 -0.4478053204 0.8854270129
3900276600.0 -0.4370400326 0.89121076
3950276300.0 -0.4245431262 0.8973427226
4000276000.0 -0.4126585723 0.9032219974
4050275700.0 -0.4000320945 0.9093996015
4100275400.0 -0.3889049001 0.914871224
4150275100.0 -0.3761490347 0.920433465
4200274800.0 -0.3626951809 0.9260130818
4250274500.0 -0.3504765328 0.9314741997
4300274200.0 -0.3374297325 0.9365449263
4350273900.0 -0.3234397341 0.9419196587
4400273600.0 -0.3085091543 0.9472551192
4450273300.0 -0.2933313809 0.9520916712
4500273000.0 -0.2797928444 0.9565510069
4550272700.0 -0.2660154602 0.9608270393
4600272400.0 -0.2507483102 0.964991735
4650272100.0 -0.2391144931 0.9680503452
4700271800.0 -0.2258934205 0.9714124422
4750271500.0 -0.2142908197 0.9742621126
4800271200.0 -0.2019319311 0.9769340632
4850270900.0 -0.1880475481 0.9798875218
4900270600.0 -0.1740715505 0.9823113616
4950270300.0 -0.1597791066 0.9850175526
5000270000.0 -0.1454745016 0.9868143008
5050269700.0 -0.1319523153 0.9886403417
5100269400.0 -0.1179392735 0.9901057667
5150269100.0 -0.1045448357 0.9920842624
5200268800.0 -0.0912557535 0.9927439562
5250268500.0 -0.0780173721 0.9938307842
5300268200.0 -0.0647159718 0.9944446714
5350267900.0 -0.0522674214 0.9953801819
5400267600.0 -0.0359895186 0.9962674294
5450267300.0 -0.0229737438 0.9966803127
5500267000.0 -0.0076951766 0.9971625637
5550266700.0 0.0072340752 0.9973885463
5600266400.0 0.0227008073 0.9973001963
5650266100.0 0.0394194124 0.9969546595
5700265800.0 0.0536307897 0.9961516263
5750265500.0 0.0689142275 0.9953193779
5800265200.0 0.0826048378 0.9941215277
5850264900.0 0.0958548197 0.9932908012
5900264600.0 0.1124456726 0.9918688147
5950264300.0 0.1242669556 0.9899364244
6000264000.0 0.1379549465 0.9882874097
6050263700.0 0.1506187604 0.9867735654
6100263400.0 0.162853876 0.985129404
6150263100.0 0.1773601375 0.9827448734
6200262800.0 0.1871321819 0.980798515
6250262500.0 0.1998688117 0.9785590903
6300262200.0 0.2124983342 0.9759528819
6350261900.0 0.2253553198 0.9729642685
6400261600.0 0.2394980979 0.9699141929
6450261300.0 0.2506860204 0.9674028895
6500261000.0 0.2638299648 0.9635971937
6550260700.0 0.2768391059 0.9598301883
6600260400.0 0.290079885 0.9556999018
6650260100.0 0.3040394864 0.9511676485
6700259800.0 0.3160112352 0.946674253
6750259500.0 0.3301055116 0.9418410104
6800259200.0 0.342988997 0.9369722255
6850258900.0 0.3555425572 0.9317401757
6900258600.0 0.3678589707 0.9267265559
6950258300.0 0.3802742777 0.9214968662
7000258000.0 0.3920437653 0.916057836
7050257700.0 0.4042222825 0.9099937416
7100257400.0 0.417209953 0.9037189769
7150257100.0 0.427689284 0.8985675255
7200256800.0 0.4406334811 0.8920322684
7250256500.0 0.4527926134 0.885649094
7300256200.0 0.4658173901 0.8788771335
7350255900.0 0.4785562339 0.87185603
7400255600.0 0.4923126036 0.8648596465
7450255300.0 0.5073419138 0.8553987782
7500255000.0 0.5191472822 0.8482495733
7550254700.0 0.5337430928 0.8397808042
7600254400.0 0.5458664175 0.8313399561
7650254100.0 0.5574709847 0.8232679876
7700253800.0 0.569440267 0.8152595111
7750253500.0 0.5803322146 0.8079531407
7800253200.0 0.5908455891 0.800006238
7850252900.0 0.6007642193 0.7928437912
7900252600.0 0.6121579278 0.7840651559
7950252300.0 0.620957108 0.7776286914
8000252000.0 0.6310560579 0.7699964506
8050251700.0 0.6413080964 0.7618887571
8100251400.0 0.6515521088 0.7537140588
8150251100.0 0.6617438853 0.7452975206
8200250800.0 0.6709213521 0.737138656
8250250500.0 0.6797631309 0.7291996976
8300250200.0 0.6891036875 0.7208035352
8350249900.0 0.6982820864 0.7120521762
8400249600.0 0.7063645662 0.7039451438
8450249300.0 0.715415213 0.6948928567
8500249000.0 0.7242473069 0.6861223546
8550248700.0 0.7323686259 0.677068873
8600248400.0 0.7406343203 0.6675117185
8650248100.0 0.7484069282 0.658003473
8700247800.0 0.7577715406 0.6468445078
8750247500.0 0.7660946957 0.6368960562
8800247200.0 0.7742928283 0.6264877621
8850246900.0 0.7829236459 0.6150702325
8900246600.0 0.7916208942 0.6035436492
8950246300.0 0.801105739 0.5909143461
9000246000.0 0.8098812245 0.5784503664
9050245700.0 0.8185504433 0.5658208641
9100245400.0 0.8273108626 0.5533494482
9150245100.0 0.8362640916 0.5401300178
9200244800.0 0.8463438699 0.5249064179
9250244500.0 0.8554615318 0.5100199396
9300244200.0 0.8635920257 0.4958527806
9350243900.0 0.8713815796 0.4821322578
9400243600.0 0.8781023375 0.4701290568
9450243300.0 0.8837517975 0.4589374775
9500243000.0 0.8900206488 0.4468566988
9550242700.0 0.8938789968 0.4392694382
9600242400.0 0.89791179 0.4318371327
9650242100.0 0.9019193517 0.4251349906
9700241800.0 0.9066070553 0.4168706289
9750241500.0 0.9106324698 0.4090330199
9800241200.0 0.9153956976 0.3998482206
9850240900.0 0.9210900964 0.3882407648
9900240600.0 0.9267571258 0.3766683318
9950240300.0 0.9339934548 0.3601645425
10000240000.0 0.9383909437 0.3486118959
10050239700.0 0.944223546 0.3329693269
10100239400.0 0.9491028336 0.3171270835
10150239100.0 0.9540245245 0.3019275461
10200238800.0 0.9580766103 0.2870071099
10250238500.0 0.9615452822 0.2736834015
10300238200.0 0.9644727109 0.2597001268
10350237900.0 0.9671420275 0.2464509725
10400237600.0 0.969765373 0.2333462794
10450237300.0 0.9725936408 0.2197118143
10500237000.0 0.9746254564 0.2072633391
10550236700.0 0.9771029556 0.1930489237
10600236400.0 0.9793475682 0.1787801983
10650236100.0 0.9811978358 0.1646060164
10700235800.0 0.9835239645 0.1525857073
10750235500.0 0.9856512856 0.1387911536
10800235200.0 0.987504349 0.1248884986
10850234900.0 0.9896508874 0.1097796657
10900234600.0 0.9916807683 0.0951592867
10950234300.0 0.9935326237 0.0818237855
11000234000.0 0.9952818032 0.0665305309
11050233700.0 0.9971384346 0.0500507107
11100233400.0 0.9987797736 0.0324219367
11150233100.0 0.9998249076 0.0162187134
11200232800.0 1.000692324 0.0005051987
11250232500.0 1.001605162 -0.0163324552
11300232200.0 1.002050753 -0.0346742994
11350231900.0 1.001949889 -0.0493416054
11400231600.0 1.001463596 -0.0661251956
11450231300.0 1.000974376 -0.0814722277
11500231000.0 0.999962752 -0.0974143604
11550230700.0 0.9980743518 -0.1104229906
11600230400.0 0.9968946284 -0.1234879988
11650230100.0 0.9947828097 -0.1347145237
11700229800.0 0.9926383233 -0.1498021969
11750229500.0 0.9906118244 -0.1637463389
11800229200.0 0.9882070393 -0.1774399909
11850228900.0 0.9844883 -0.1894919696
11900228600.0 0.9808563011 -0.1993636796
11950228300.0 0.9776769823 -0.2097166911
12000228000.0 0.9744285533 -0.2190974564
12050227700.0 0.970713337 -0.2318240853
12100227400.0 0.9681892813 -0.2418679557
12150227100.0 0.9632423667 -0.2590994645
12200226800.0 0.9585719662 -0.2705932443
12250226500.0 0.9551949699 -0.2829893833
12300226200.0 0.9511636574 -0.294708347
12350225900.0 0.9461753855 -0.3091925068
12400225600.0 0.941465128 -0.3217940463
12450225300.0 0.9368299948 -0.3344857639
12500225000.0 0.9315942628 -0.3494209273
12550224700.0 0.9263348913 -0.3630741497
12600224400.0 0.9214088721 -0.3761191492
12650224100.0 0.9156134858 -0.390320827
12700223800.0 0.9102952837 -0.4032196953
12750223500.0 0.9048016454 -0.416238119
12800223200.0 0.8993726256 -0.4291484676
12850222900.0 0.8940990714 -0.4410541122
12900222600.0 0.888452189 -0.4531519446
12950222300.0 0.8821047365 -0.4657987119
13000222000.0 0.8761658498 -0.4776247573
13050221700.0 0.8696081505 -0.4898875131
13100221400.0 0.8626400842 -0.5021698138
13150221100.0 0.8563849373 -0.5143241158
13200220800.0 0.8489536124 -0.5258342645
13250220500.0 0.8419781942 -0.5379659997
13300220200.0 0.8344247792 -0.5486861242
13350219900.0 0.8266096557 -0.5606044094
13400219600.0 0.8180411506 -0.5727452165
13450219300.0 0.8086089459 -0.5857346777
13500219000.0 0.7989896899 -0.5993396107
13550218700.0 0.7890606329 -0.6123040936
13600218400.0 0.778454892 -0.6245501994
13650218100.0 0.7695445227 -0.6351897285
13700217800.0 0.7588684585 -0.6468647241
13750217500.0 0.7488650414 -0.6583795839
13800217200.0 0.7374312808 -0.6696797385
13850216900.0 0.7267718428 -0.6806945225
13900216600.0 0.7171534199 -0.6903849502
13950216300.0 0.705390294 -0.7001763258
14000216000.0 0.6961286243 -0.7103743043
14050215700.0 0.6863900936 -0.7181010481
14100215400.0 0.6765058562 -0.7269114201
14150215100.0 0.6674661072 -0.735501206
14200214800.0 0.6579760964 -0.7445420273
14250214500.0 0.6475792511 -0.7538171665
14300214200.0 0.6372200687 -0.7632607724
14350213900.0 0.62623322 -0.7729819393
14400213600.0 0.6143086843 -0.7827510325
14450213300.0 0.6009488792 -0.7929657677
14500213000.0 0.5885378907 -0.8025344544
14550212700.0 0.5754046082 -0.8119228243
14600212400.0 0.563254982 -0.8209090041
14650212100.0 0.5507424997 -0.8295070594
14700211800.0 0.5365382106 -0.8397127848
14750211500.0 0.5244813799 -0.8474939359
14800211200.0 0.5117639978 -0.8557185283
14850210900.0 0.4998070119 -0.8632212711
14900210600.0 0.4864440643 -0.8709576037
14950210300.0 0.473219694 -0.8786326859
15000210000.0 0.4603626929 -0.885466991
15050209700.0 0.448361435 -0.8914572026
15100209400.0 0.4352991629 -0.8974914542
15150209100.0 0.4232333832 -0.9032532306
15200208800.0 0.4100039433 -0.9084168808
15250208500.0 0.3995755536 -0.9124293604
15300208200.0 0.3871736137 -0.9170258777
15350207900.0 0.3740419133 -0.9221435049
15400207600.0 0.3595257866 -0.927594897
15450207300.0 0.3450687312 -0.9326011016
15500207000.0 0.3304188173 -0.9373398807
15550206700.0 0.315548505 -0.9423703622
15600206400.0 0.2996478778 -0.9465322074
15650206100.0 0.2839195296 -0.9511193139
15700205800.0 0.2700500866 -0.9547403852
15750205500.0 0.2556127389 -0.9583173915
15800205200.0 0.2415909263 -0.9617912059
15850204900.0 0.2271243542 -0.965070777
15900204600.0 0.2119961469 -0.968634112
15950204300.0 0.1978416957 -0.9717199004
16000204000.0 0.1835448218 -0.9746740639
16050203700.0 0.1682918554 -0.9778162408
16100203400.0 0.1540064758 -0.9794666034
16150203100.0 0.1392817021 -0.9819350394
16200202800.0 0.124960508 -0.9841632468
16250202500.0 0.1103832148 -0.9862174225
16300202200.0 0.0948634627 -0.9876333693
16350201900.0 0.0797594537 -0.9894180281
16400201600.0 0.0652154229 -0.9902647979
16450201300.0 0.049833865 -0.9911911036
16500201000.0 0.0330369353 -0.9920918195
16550200700.0 0.0173226799 -0.9926136626
16600200400.0 0.0015772097 -0.9929049896
16650200100.0 -0.0144454707 -0.9926225128
16700199800.0 -0.030910489 -0.9923859377
16750199500.0 -0.0497380716 -0.9922549115
16800199200.0 -0.0651674726 -0.9907087215
16850198900.0 -0.0807979812 -0.9898313912
16900198600.0 -0.094529815 -0.9888819846
16950198300.0 -0.1080359458 -0.9877109046
17000198000.0 -0.1211833698 -0.9864160465
17050197700.0 -0.1338734372 -0.9842981144
17100197400.0 -0.1464766257 -0.9814123463
17150197100.0 -0.1593867917 -0.9805584373
17200196800.0 -0.1718424367 -0.9782280614
17250196500.0 -0.18521427 -0.9758405713
17300196200.0 -0.1971862252 -0.9734073951
17350195900.0 -0.2090477431 -0.9711388383
17400195600.0 -0.2212274655 -0.9686592006
17450195300.0 -0.2342817296 -0.9658047984
17500195000.0 -0.247718272 -0.9625495815
17550194700.0 -0.2615477606 -0.958877824
17600194400.0 -0.2754778434 -0.9550941697
17650194100.0 -0.2891389378 -0.9506376218
17700193800.0 -0.3020914513 -0.9467286844
17750193500.0 -0.3166032057 -0.9420571362
17800193200.0 -0.3307018201 -0.9368578442
17850192900.0 -0.3458151664 -0.931420923
17900192600.0 -0.3609216308 -0.9255915462
17950192300.0 -0.3766069893 -0.9181861025
18000192000.0 -0.3915097719 -0.9111616336
18050191700.0 -0.4051430466 -0.9033868517
18100191400.0 -0.4194232023 -0.8956557818
18150191100.0 -0.434293309 -0.8876317959
18200190800.0 -0.4512962367 -0.8784005505
18250190500.0 -0.4680053815 -0.8690990837
18300190200.0 -0.4837189429 -0.8604296938
18350189900.0 -0.4984578505 -0.8521210542
18400189600.0 -0.5130725618 -0.8437049845
18450189300.0 -0.5266195962 -0.8353332842
18500189000.0 -0.5402832367 -0.8276433859
18550188700.0 -0.5525248365 -0.8198259868
18600188400.0 -0.5644337993 -0.8138203374
18650188100.0 -0.5758128546 -0.8069429017
18700187800.0 -0.5862421993 -0.8000552761
18750187500.0 -0.5970386498 -0.7935522322
18800187200.0 -0.6075728713 -0.786610484
18850186900.0 -0.6175550651 -0.7798261071
18900186600.0 -0.6281119005 -0.7724618264
18950186300.0 -0.6380715196 -0.7648648967
19000186000.0 -0.6452576469 -0.7589621305
19050185700.0 -0.6547096124 -0.7514632887
19100185400.0 -0.6644425863 -0.7433579753
19150185100.0 -0.6744289426 -0.7347479176
19200184800.0 -0.6839576553 -0.7263331652
19250184500.0 -0.6943662943 -0.7171637738
19300184200.0 -0.7058008647 -0.7072559299
19350183900.0 -0.7165049806 -0.698059376
19400183600.0 -0.7267007672 -0.6884669521
19450183300.0 -0.7354147214 -0.6782542328
19500183000.0 -0.743602511 -0.668054988
19550182700.0 -0.7529374455 -0.6570354855
19600182400.0 -0.7635323665 -0.6459740176
19650182100.0 -0.7744687844 -0.6330652791
19700181800.0 -0.7850808769 -0.6200437336
19750181500.0 -0.7953413537 -0.6058103816
19800181200.0 -0.8058938056 -0.5908815008
19850180900.0 -0.8155854247 -0.5756331099
19900180600.0 -0.8233315274 -0.5609108281
19950180300.0 -0.8324461739 -0.5443573714
20000180000.0 -0.8249177936 -0.5473141446
20050179700.0 -0.8325448859 -0.5340044045
20100179400.0 -0.8416230549 -0.5212902226
20150179100.0 -0.8494349014 -0.5091342091
20200178800.0 -0.857915487 -0.4962323468
20250178500.0 -0.86790052 -0.4833247468
20300178200.0 -0.8771646562 -0.4689776048
20350177900.0 -0.8861265647 -0.454486423
20400177600.0 -0.8953201832 -0.4401071304
20450177300.0 -0.9037478491 -0.4258942559
20500177000.0 -0.9117023131 -0.4120167354
20550176700.0 -0.9197119045 -0.3985176405
20600176400.0 -0.9262950642 -0.3854887321
20650176100.0 -0.9330654935 -0.3731870337
20700175800.0 -0.9397156286 -0.3615090783
20750175500.0 -0.946294485 -0.3497391658
20800175200.0 -0.9509971653 -0.3387290495
20850174900.0 -0.9559114776 -0.328093697
20900174600.0 -0.9601946043 -0.3169345963
20950174300.0 -0.9638358738 -0.3056950589
21000174000.0 -0.9677676016 -0.2946783999
21050173700.0 -0.9697574984 -0.2840512665
21100173400.0 -0.9732296963 -0.2726174517
21150173100.0 -0.9771116943 -0.2604678979
21200172800.0 -0.9807200541 -0.2474621639
21250172500.0 -0.9840109891 -0.2329616415
21300172200.0 -0.9868186145 -0.2193155631
21350171900.0 -0.9886762116 -0.2050677642
21400171600.0 -0.99016813 -0.1906481421
21450171300.0 -0.9909234049 -0.1769959568
21500171000.0 -0.9912537554 -0.161507705
21550170700.0 -0.9916590372 -0.1461087164
21600170400.0 -0.9917863504 -0.1306599363
21650170100.0 -0.9911676515 -0.1144238446
21700169800.0 -0.9906206896 -0.0992048982
21750169500.0 -0.9892708506 -0.0824223296
21800169200.0 -0.9880790268 -0.0672334886
21850168900.0 -0.9884931612 -0.0506448981
21900168600.0 -0.9873068197 -0.0341471573
21950168300.0 -0.9862072044 -0.0176005085
22000168000.0 -0.985870466 -0.0032716004
22050167700.0 -0.9858572078 0.0114426217
22100167400.0 -0.9862550058 0.0273246436
22150167100.0 -0.987268822 0.0424539794
22200166800.0 -0.9873980674 0.0589187339
22250166500.0 -0.98640342 0.076768868
22300166200.0 -0.9866616451 0.092869771
22350165900.0 -0.9851326092 0.110035737
22400165600.0 -0.9832122614 0.1265422654
22450165300.0 -0.9822008774 0.1394909171
22500165000.0 -0.9797021155 0.1542899855
22550164700.0 -0.9787090987 0.1696485734
22600164400.0 -0.9765888653 0.1850139973
22650164100.0 -0.9744673558 0.1996272074
22700163800.0 -0.9716767828 0.2160337212
22750163500.0 -0.9690648263 0.2313466174
22800163200.0 -0.965677647 0.2441029955
22850162900.0 -0.9633195549 0.2573427055
22900162600.0 -0.9615888791 0.2712594501
22950162300.0 -0.9601345355 0.284382428
23000162000.0 -0.9590834947 0.2965152796
23050161700.0 -0.9567581306 0.3094294358
23100161400.0 -0.9539351496 0.3223053711
23150161100.0 -0.9512625029 0.3356150625
23200160800.0 -0.9483729969 0.3481494097
23250160500.0 -0.9455168903 0.3601044812
23300160200.0 -0.9426021747 0.3722905073
23350159900.0 -0.9391395984 0.3853883786
23400159600.0 -0.9348800088 0.3988947275
23450159300.0 -0.9296127632 0.4123236245
23500159000.0 -0.9254114758 0.4256554622
23550158700.0 -0.9199467435 0.4393176336
23600158400.0 -0.9146333969 0.4527915528
23650158100.0 -0.9080886578 0.4671427376
23700157800.0 -0.9003170217 0.4811678773
23750157500.0 -0.8911981782 0.4954215669
23800157200.0 -0.8816939902 0.5081550389
23850156900.0 -0.8730911163 0.5215360738
23900156600.0 -0.8638059501 0.5336674008
23950156300.0 -0.8539448719 0.5464033688
24000156000.0 -0.8446772117 0.5583746204
24050155700.0 -0.8349552582 0.571300284
24100155400.0 -0.8243506336 0.5824364569
24150155100.0 -0.8145451626 0.5951343389
24200154800.0 -0.8027554982 0.605983095
24250154500.0 -0.7921333211 0.6175379668
24300154200.0 -0.7803478064 0.6294946599
24350153900.0 -0.7685331678 0.6404670151
24400153600.0 -0.7564112564 0.6507499515
24450153300.0 -0.7445219892 0.6607904658
24500153000.0 -0.733108712 0.6704855109
24550152700.0 -0.721532377 0.680269694
24600152400.0 -0.7101504242 0.6899865544
24650152100.0 -0.6981278447 0.6977341391
