!Created with skrf (http://scikit-rf.org).
# Hz S RI R 50.0 
!freq ReS11 ImS11
300000.0 -0.9832967558 -0.0912010576
50299700.0 -0.9999501217 0.0166100372
100299400.0 -0.9981297576 0.0294568843
150299100.0 -1.002606968 0.0460543303
200298800.0 -0.9995975148 0.0594389937
250298500.0 -0.9974013293 0.073055895
300298200.0 -0.9858209879 0.0887110791
350297900.0 -0.9939368058 0.0995746082
400297600.0 -0.9931600786 0.1164263252
450297300.0 -0.9907896011 0.1300309059
500297000.0 -0.9892099751 0.1448605094
550296700.0 -0.9841059316 0.1575625282
600296400.0 -1.017210119 0.1906035449
650296100.0 -0.9819300203 0.1872044251
700295800.0 -0.978908577 0.2015397817
750295500.0 -0.9760163184 0.2154107405
800295200.0 -0.9724842488 0.2296281372
850294900.0 -0.9692155273 0.2435326494
900294600.0 -0.9654029325 0.2572741899
950294300.0 -0.9617010197 0.2711605043
1000294000.0 -0.9574644042 0.2848186994
1050293700.0 -0.9530336173 0.2989468705
1100293400.0 -0.9486636345 0.313169421
1150293100.0 -0.9449514757 0.325083941
1200292800.0 -0.9395419032 0.3392495876
1250292500.0 -0.9341010259 0.3526830973
1300292200.0 -0.9283989828 0.3659963183
1350291900.0 -0.9228569593 0.379936919
1400291600.0 -0.9174340601 0.3929073927
1450291300.0 -0.9119735796 0.4051936243
1500291000.0 -0.9057840145 0.4188245338
1550290700.0 -0.8991856654 0.431996666
1600290400.0 -0.8930233253 0.4447091409
1650290100.0 -0.8863961712 0.456949479
1700289800.0 -0.8794925128 0.4703544846
1750289500.0 -0.8724290334 0.4827743761
1800289200.0 -0.8651111688 0.4955566512
1850288900.0 -0.8583320274 0.5068997673
1900288600.0 -0.8505440092 0.5200635731
1950288300.0 -0.8422986677 0.5327422505
2000288000.0 -0.8349452829 0.5439555537
2050287700.0 -0.8267361958 0.5564841913
2100287400.0 -0.818482146 0.5679979171
2150287100.0 -0.8099127089 0.5800614649
2200286800.0 -0.8023680991 0.590529237
2250286500.0 -0.7934705724 0.6024131486
2300286200.0 -0.7843357932 0.6141746922
2350285900.0 -0.7756139375 0.625185472
2400285600.0 -0.7665986801 0.6361235308
2450285300.0 -0.7578686335 0.6465590184
2500285000.0 -0.7479210424 0.6576915417
2550284700.0 -0.7389430708 0.6680782536
2600284400.0 -0.7296199032 0.6782039144
2650284100.0 -0.7206000629 0.6888699611
2700283800.0 -0.7099064712 0.6991151487
2750283500.0 -0.6997775521 0.7099344357
2800283200.0 -0.6900889249 0.7197421831
2850282900.0 -0.6798847225 0.7293661309
2900282600.0 -0.6693581492 0.7389570528
2950282300.0 -0.659194517 0.7481222647
3000282000.0 -0.6485292332 0.7574833018
3050281700.0 -0.6375075043 0.7666892346
3100281400.0 -0.625656439 0.7760545496
3150281100.0 -0.613920854 0.7853908188
3200280800.0 -0.6024023663 0.7939104257
3250280500.0 -0.5915739294 0.801578167
3300280200.0 -0.5802421945 0.80946816
3350279900.0 -0.5689469206 0.8169221648
3400279600.0 -0.5568483961 0.824568573
3450279300.0 -0.5458931583 0.8319907864
3500279000.0 -0.5337640481 0.839032373
3550278700.0 -0.5213468296 0.8464395393
3600278400.0 -0.5092833406 0.8536373349
3650278100.0 -0.4959142968 0.861179395
3700277800.0 -0.4837648269 0.8676284868
3750277500.0 -0.4716909929 0.8739685361
3800277200.0 -0.4590487435 0.8804545958
3850276900.0 -0.4467730101 0.8863496103
3900276600.0 -0.4358499884 0.892146696
3950276300.0 -0.4232000256 0.8982803281
4000276000.0 -0.4109952705 0.9043084698
4050275700.0 -0.3978473502 0.9103672551
4100275400.0 -0.3866293847 0.9157125592
4150275100.0 -0.373841769 0.9212750631
4200274800.0 -0.3608996461 0.926820009
4250274500.0 -0.3484323509 0.9316783984
4300274200.0 -0.3356789833 0.9370120445
4350273900.0 -0.3216882042 0.9422332927
4400273600.0 -0.3069147937 0.9474556501
4450273300.0 -0.2915504442 0.952779833
4500273000.0 -0.2778782829 0.9569247166
4550272700.0 -0.2639803819 0.9608719948
4600272400.0 -0.2483580207 0.9652332545
4650272100.0 -0.2365770673 0.9684797648
4700271800.0 -0.2232788993 0.9717874764
4750271500.0 -0.2113908473 0.974426267
4800271200.0 -0.19900066 0.9773768651
4850270900.0 -0.18506764 0.9802063647
4900270600.0 -0.1714499941 0.9825711041
4950270300.0 -0.1573404376 0.9852126525
5000270000.0 -0.1433132344 0.9871779756
5050269700.0 -0.1297563118 0.9888100456
5100269400.0 -0.1162454654 0.9905602116
5150269100.0 -0.1030484441 0.9921445632
5200268800.0 -0.0895401239 0.9930828943
5250268500.0 -0.0765836813 0.9945115604
5300268200.0 -0.0636143299 0.9949158003
5350267900.0 -0.0511260979 0.9953721133
5400267600.0 -0.0351615584 0.9966609869
5450267300.0 -0.0221120022 0.9968293409
5500267000.0 -0.0070663064 0.9970219283
5550266700.0 0.0077036033 0.9972526208
5600266400.0 0.0231193457 0.9971690362
5650266100.0 0.0398120717 0.9970436659
5700265800.0 0.0539624359 0.9959726741
5750265500.0 0.0697917587 0.9956896062
5800265200.0 0.0831847554 0.9941934878
5850264900.0 0.0967212572 0.9930561202
5900264600.0 0.1130821179 0.9912984372
5950264300.0 0.1258905888 0.9900926471
6000264000.0 0.1394223204 0.9877927084
6050263700.0 0.1523068061 0.9861409059
6100263400.0 0.1646185563 0.9844790024
6150263100.0 0.1793027723 0.9818840808
6200262800.0 0.1900736365 0.9800498233
6250262500.0 0.2027270184 0.9776881055
6300262200.0 0.2158479426 0.9747887418
6350261900.0 0.2287085057 0.9717179433
6400261600.0 0.2425575889 0.9683863043
6450261300.0 0.2540723161 0.9655511318
6500261000.0 0.2668998402 0.9622680052
6550260700.0 0.2799830053 0.9583516965
6600260400.0 0.2933425413 0.9543659471
6650260100.0 0.3068472201 0.9500792962
6700259800.0 0.3187622327 0.9457067618
6750259500.0 0.3326865411 0.9407511617
6800259200.0 0.3456227545 0.9358542815
6850258900.0 0.3578506355 0.9309877639
6900258600.0 0.3696702918 0.9257742449
6950258300.0 0.3823057765 0.9207246658
7000258000.0 0.3942854772 0.9151965369
7050257700.0 0.4065842821 0.909046322
7100257400.0 0.4194233498 0.9029994942
7150257100.0 0.4296812756 0.8977825437
7200256800.0 0.4425918578 0.8913849084
7250256500.0 0.4538329938 0.8851950438
7300256200.0 0.4670061136 0.8782084876
7350255900.0 0.4793566122 0.8714139414
7400255600.0 0.4924703419 0.8644279459
7450255300.0 0.5076485249 0.8556177745
7500255000.0 0.51950632 0.8481391921
7550254700.0 0.5328979746 0.8400211803
7600254400.0 0.5455416662 0.8316131365
7650254100.0 0.5570783685 0.8238293088
7700253800.0 0.568813653 0.8157207566
7750253500.0 0.5800916793 0.8077323385
7800253200.0 0.5911498639 0.8000266376
7850252900.0 0.6008258428 0.7927494214
7900252600.0 0.6125393435 0.7839702459
7950252300.0 0.6214554034 0.7773321257
8000252000.0 0.6318479426 0.7693514868
8050251700.0 0.6422648567 0.7610117101
8100251400.0 0.6525258487 0.7527801931
8150251100.0 0.6626132296 0.7441234022
8200250800.0 0.6720998295 0.7361627147
8250250500.0 0.680828066 0.727959582
8300250200.0 0.6906747116 0.7191568558
8350249900.0 0.6999256762 0.7106084491
8400249600.0 0.7075482128 0.7023565554
8450249300.0 0.7169500106 0.6931824577
8500249000.0 0.7254186576 0.6843816235
8550248700.0 0.7339800415 0.6750679559
8600248400.0 0.7423541016 0.665793145
8650248100.0 0.7499824182 0.6564888008
8700247800.0 0.7594285676 0.6453852539
8750247500.0 0.7677431194 0.6352482135
8800247200.0 0.7757572101 0.62510669
8850246900.0 0.784497453 0.6137819116
8900246600.0 0.7928701569 0.6025509844
8950246300.0 0.8025348236 0.5896794808
9000246000.0 0.8117132865 0.5770973861
9050245700.0 0.8206607894 0.5643540945
9100245400.0 0.8289557514 0.5520294217
9150245100.0 0.8383503827 0.5385511471
9200244800.0 0.8478749919 0.5235066409
9250244500.0 0.85684359 0.508244291
9300244200.0 0.8654714471 0.4938183999
9350243900.0 0.8731496544 0.4798600248
9400243600.0 0.8799914034 0.4671645451
9450243300.0 0.8861793989 0.4551889954
9500243000.0 0.8923324211 0.4424860875
9550242700.0 0.896064048 0.4342521867
9600242400.0 0.9002948071 0.4263430009
9650242100.0 0.9041581436 0.4195901899
9700241800.0 0.9086258478 0.4110852885
9750241500.0 0.9126505868 0.4031921779
9800241200.0 0.9170231042 0.3939055532
9850240900.0 0.9226873453 0.3821791888
9900240600.0 0.9282660973 0.3708675086
9950240300.0 0.9347386815 0.3548580985
10000240000.0 0.9396340799 0.342879172
10050239700.0 0.9449402763 0.3281486309
10100239400.0 0.9497471318 0.3127907604
10150239100.0 0.9539363621 0.2983963313
10200238800.0 0.9583894286 0.2832083587
10250238500.0 0.9617707627 0.2698747426
10300238200.0 0.9650127264 0.2559304571
10350237900.0 0.967605278 0.2429749319
10400237600.0 0.9702059163 0.2297760288
10450237300.0 0.972669407 0.216650337
10500237000.0 0.9752700636 0.2038249717
10550236700.0 0.9774615828 0.1906094968
10600236400.0 0.9792051466 0.1771281797
10650236100.0 0.9811511964 0.1626486992
10700235800.0 0.9839305745 0.1503789917
10750235500.0 0.9857127999 0.1376661071
10800235200.0 0.9875221664 0.1235571779
10850234900.0 0.9899991164 0.1089590242
10900234600.0 0.9918025178 0.0944482207
10950234300.0 0.9934157776 0.0811229237
11000234000.0 0.9952605612 0.0663120076
11050233700.0 0.9968497832 0.0501517467
11100233400.0 0.99806144 0.0327597333
11150233100.0 0.9990432615 0.0169497696
11200232800.0 1.000018589 0.0013571875
11250232500.0 1.000754813 -0.0148956623
11300232200.0 1.000935602 -0.0318520998
11350231900.0 1.001302973 -0.0483665475
11400231600.0 1.000715433 -0.0642192778
11450231300.0 1.000273591 -0.079911154
11500231000.0 0.9988310597 -0.0967836044
11550230700.0 0.9974094035 -0.1100747367
11600230400.0 0.995720967 -0.1223726887
11650230100.0 0.9937227429 -0.1343725625
11700229800.0 0.9920549404 -0.1491789893
11750229500.0 0.9897727488 -0.1641236225
11800229200.0 0.9868656202 -0.178009485
11850228900.0 0.9832530445 -0.1907275942
11900228600.0 0.9799171326 -0.200844036
11950228300.0 0.97634841 -0.212261568
12000228000.0 0.9741426295 -0.2205450874
12050227700.0 0.9702921711 -0.2334654907
12100227400.0 0.9671534171 -0.2451292549
12150227100.0 0.962163772 -0.2614519706
12200226800.0 0.9586509223 -0.2726928462
12250226500.0 0.9543418591 -0.2845313379
12300226200.0 0.9507699736 -0.2966003866
12350225900.0 0.945767802 -0.3105146769
12400225600.0 0.941448137 -0.3225266721
12450225300.0 0.9372257924 -0.3354008834
12500225000.0 0.9315736452 -0.3497564446
12550224700.0 0.9265575982 -0.3636057122
12600224400.0 0.9217268667 -0.3762710015
12650224100.0 0.9159714118 -0.3903978428
12700223800.0 0.9106239392 -0.4030367047
12750223500.0 0.9053495826 -0.415825701
12800223200.0 0.8999801225 -0.4284073798
12850222900.0 0.8949590306 -0.440301938
12900222600.0 0.8885452308 -0.4527528286
12950222300.0 0.8822606407 -0.4657652151
13000222000.0 0.8764069444 -0.4767093558
13050221700.0 0.8692609309 -0.4898284205
13100221400.0 0.8624495559 -0.5021188909
13150221100.0 0.8558078599 -0.5142293872
13200220800.0 0.8485661519 -0.5261697631
13250220500.0 0.8409119279 -0.5382471853
13300220200.0 0.8334948901 -0.5494957992
13350219900.0 0.8252701668 -0.5614572276
13400219600.0 0.8166680204 -0.5737822063
13450219300.0 0.8073234098 -0.5873113762
13500219000.0 0.7972534259 -0.6010296586
13550218700.0 0.7869846563 -0.6140624909
13600218400.0 0.7768668075 -0.6263601254
13650218100.0 0.7668291959 -0.6369301741
13700217800.0 0.7560894371 -0.6500058534
13750217500.0 0.7453287703 -0.6619220579
13800217200.0 0.7338714275 -0.6724367018
13850216900.0 0.7238719897 -0.6840094152
13900216600.0 0.7143736297 -0.6930013403
13950216300.0 0.7034105843 -0.7037461423
14000216000.0 0.6932144625 -0.7134497804
14050215700.0 0.6836747328 -0.7203540737
14100215400.0 0.6739911253 -0.7302228792
14150215100.0 0.6649862215 -0.738427741
14200214800.0 0.6556366115 -0.7467855028
14250214500.0 0.6454628431 -0.7558826405
14300214200.0 0.6352860366 -0.7652813628
14350213900.0 0.6241950038 -0.7745935353
14400213600.0 0.6128223633 -0.784056333
14450213300.0 0.5997664159 -0.7942814698
14500213000.0 0.5869247713 -0.8036995477
14550212700.0 0.5744038733 -0.8132385333
14600212400.0 0.5617100497 -0.8214646302
14650212100.0 0.5491890994 -0.8302208709
14700211800.0 0.5354879835 -0.839648102
14750211500.0 0.5233915338 -0.8476096949
14800211200.0 0.5107198363 -0.8558981597
14850210900.0 0.4984865297 -0.8635774117
14900210600.0 0.4851292866 -0.8714413223
14950210300.0 0.4714751414 -0.8791734507
15000210000.0 0.4586572047 -0.886043854
15050209700.0 0.445874731 -0.8921990391
15100209400.0 0.432936696 -0.8986445691
15150209100.0 0.4207094814 -0.9038504644
15200208800.0 0.4073939505 -0.909221822
15250208500.0 0.3962124155 -0.9143634164
15300208200.0 0.383370296 -0.9183182505
15350207900.0 0.369499433 -0.9239849749
15400207600.0 0.3546656561 -0.9290795135
15450207300.0 0.3405579372 -0.9340888903
15500207000.0 0.3258053584 -0.9387179471
15550206700.0 0.3104839733 -0.9438353577
15600206400.0 0.2948082205 -0.948477219
15650206100.0 0.2792245043 -0.952490492
15700205800.0 0.2654682482 -0.9559527525
15750205500.0 0.2511217553 -0.9597770338
15800205200.0 0.2367932199 -0.9632072629
15850204900.0 0.2224528055 -0.9665384217
15900204600.0 0.2076005518 -0.9700721144
15950204300.0 0.1938287779 -0.9728231096
16000204000.0 0.1799990569 -0.9756389398
16050203700.0 0.1658745325 -0.9782795368
16100203400.0 0.1514283866 -0.9805176924
16150203100.0 0.1369739297 -0.9826281598
16200202800.0 0.1227877966 -0.9847195981
16250202500.0 0.1086256525 -0.9860640484
16300202200.0 0.0936106403 -0.9879694324
16350201900.0 0.0788383792 -0.9891461309
16400201600.0 0.0639252962 -0.9904661335
16450201300.0 0.049192242 -0.9914451297
16500201000.0 0.0324808863 -0.9920712968
16550200700.0 0.01678281 -0.9925047408
16600200400.0 0.0009861736 -0.9927447475
16650200100.0 -0.0153748527 -0.9925051753
16700199800.0 -0.0319479087 -0.9921580564
16750199500.0 -0.0506908102 -0.9915721658
16800199200.0 -0.0669008684 -0.9905943709
16850198900.0 -0.0826729842 -0.989657984
16900198600.0 -0.0956907204 -0.9889227372
16950198300.0 -0.1095429991 -0.9871502763
17000198000.0 -0.1230033537 -0.985386493
17050197700.0 -0.1354158931 -0.9841046975
17100197400.0 -0.1493243213 -0.9817131983
17150197100.0 -0.1619823659 -0.9797604669
17200196800.0 -0.1750344227 -0.9776271653
17250196500.0 -0.1877467442 -0.9752237542
17300196200.0 -0.2004300973 -0.9727337289
17350195900.0 -0.2122108591 -0.970421867
17400195600.0 -0.2244149338 -0.9678174916
17450195300.0 -0.2376854396 -0.9650339479
17500195000.0 -0.2510467542 -0.9615627602
17550194700.0 -0.2647217779 -0.9582426704
17600194400.0 -0.2785574707 -0.9539129783
17650194100.0 -0.2920798245 -0.9500847819
17700193800.0 -0.30527227 -0.9457248047
17750193500.0 -0.3198431022 -0.9410907078
17800193200.0 -0.333798723 -0.9360537409
17850192900.0 -0.3482113141 -0.9309306351
17900192600.0 -0.3632182179 -0.9246533159
17950192300.0 -0.3787912162 -0.9175660391
18000192000.0 -0.3929785085 -0.9105107833
18050191700.0 -0.4070788783 -0.9027031129
18100191400.0 -0.4210391123 -0.895128698
18150191100.0 -0.4357138993 -0.8872892828
18200190800.0 -0.4521800417 -0.8781284896
18250190500.0 -0.4691178887 -0.8686665656
18300190200.0 -0.4845140847 -0.8598149333
18350189900.0 -0.4995618763 -0.8518099584
18400189600.0 -0.5135908163 -0.8433990926
18450189300.0 -0.5274464578 -0.8353853622
18500189000.0 -0.540887576 -0.8270075103
18550188700.0 -0.5535657869 -0.8192650769
18600188400.0 -0.5656945679 -0.8123802963
18650188100.0 -0.5767648171 -0.8055213176
18700187800.0 -0.5876512111 -0.7987706866
18750187500.0 -0.5986676505 -0.7918717782
18800187200.0 -0.6095575273 -0.7844390321
18850186900.0 -0.620029759 -0.7772470544
18900186600.0 -0.6307074993 -0.7695853219
18950186300.0 -0.6409447829 -0.7615467693
19000186000.0 -0.6486348005 -0.7551803407
19050185700.0 -0.6586635748 -0.7476728538
19100185400.0 -0.6679769427 -0.739115009
19150185100.0 -0.6783452132 -0.7306107372
19200184800.0 -0.687640052 -0.7218381637
19250184500.0 -0.6986847941 -0.7125156229
19300184200.0 -0.7095850381 -0.7026997775
19350183900.0 -0.7207872064 -0.6928625558
19400183600.0 -0.7298782296 -0.683421769
19450183300.0 -0.7389381735 -0.6734867429
19500183000.0 -0.7471394491 -0.6633163801
19550182700.0 -0.7561984625 -0.6524558149
19600182400.0 -0.7662466648 -0.641044761
19650182100.0 -0.7771146921 -0.6290056414
19700181800.0 -0.7870732543 -0.615991356
19750181500.0 -0.7975003958 -0.602314073
19800181200.0 -0.807612721 -0.5876169022
19850180900.0 -0.8170368646 -0.5726862177
19900180600.0 -0.8246121461 -0.5587213851
19950180300.0 -0.8338402073 -0.5427173567
20000180000.0 -0.8281983563 -0.5446891947
20050179700.0 -0.8365373868 -0.5306516904
20100179400.0 -0.8443136699 -0.5177375845
20150179100.0 -0.8522767237 -0.5058184702
20200178800.0 -0.8604856014 -0.4929605841
20250178500.0 -0.8697025706 -0.4791487461
20300178200.0 -0.8793270015 -0.4639193363
20350177900.0 -0.8880070668 -0.4504505219
20400177600.0 -0.8964357711 -0.4360254167
20450177300.0 -0.9046049356 -0.4213586633
20500177000.0 -0.912612786 -0.4074690158
20550176700.0 -0.920413894 -0.3937329192
20600176400.0 -0.9269932902 -0.3807622631
20650176100.0 -0.9341093836 -0.368111325
20700175800.0 -0.9406983889 -0.3555606489
20750175500.0 -0.9467441757 -0.3442051405
20800175200.0 -0.9523677795 -0.3323718102
20850174900.0 -0.9572391036 -0.3213597144
20900174600.0 -0.9621164348 -0.309173631
20950174300.0 -0.9653560519 -0.2968490038
21000174000.0 -0.969309683 -0.2857305933
21050173700.0 -0.9718299714 -0.2747748553
21100173400.0 -0.9762969042 -0.2613670261
21150173100.0 -0.9803654671 -0.2491518311
21200172800.0 -0.9841110316 -0.2356397888
21250172500.0 -0.9872968259 -0.221625903
21300172200.0 -0.9900832638 -0.2078119227
21350171900.0 -0.9915275807 -0.1930118142
21400171600.0 -0.9931015197 -0.1788039342
21450171300.0 -0.9937370707 -0.1647206623
21500171000.0 -0.9927540031 -0.1494686473
21550170700.0 -0.993298164 -0.1342575997
21600170400.0 -0.9930849162 -0.1179987891
21650170100.0 -0.9930385748 -0.1028849118
21700169800.0 -0.9904298434 -0.0877623002
21750169500.0 -0.9890791692 -0.0725247386
21800169200.0 -0.9887226875 -0.0574378226
21850168900.0 -0.9873179608 -0.040289109
21900168600.0 -0.9862567341 -0.0243700503
21950168300.0 -0.9847558067 -0.0082250501
22000168000.0 -0.9832165964 0.0064812486
22050167700.0 -0.9832006777 0.0203944794
22100167400.0 -0.9827967504 0.0354995097
22150167100.0 -0.983172123 0.0508093019
22200166800.0 -0.9833622796 0.066727931
22250166500.0 -0.9830125624 0.0837512822
22300166200.0 -0.982039532 0.1003527697
22350165900.0 -0.9805680622 0.1167289365
22400165600.0 -0.9785693308 0.1330364424
22450165300.0 -0.9780598975 0.1471640376
22500165000.0 -0.9751674081 0.1604121794
22550164700.0 -0.973705087 0.176842647
22600164400.0 -0.9716757093 0.1913777609
22650164100.0 -0.9693394043 0.2066015591
22700163800.0 -0.9671628534 0.2215628956
22750163500.0 -0.9653369562 0.2373717862
22800163200.0 -0.9618296061 0.2508147537
22850162900.0 -0.959452678 0.2641269434
22900162600.0 -0.957655782 0.2777090944
22950162300.0 -0.9565677186 0.2904518113
23000162000.0 -0.9555905295 0.3025650879
23050161700.0 -0.9534979289 0.315159253
23100161400.0 -0.951126121 0.3277959801
23150161100.0 -0.9481636797 0.3400516497
23200160800.0 -0.9459283305 0.3526171519
23250160500.0 -0.9421968982 0.3645987855
23300160200.0 -0.9393952953 0.3760539303
23350159900.0 -0.9363487733 0.3888074277
23400159600.0 -0.9317692452 0.4018371035
23450159300.0 -0.9267845856 0.4149586995
23500159000.0 -0.9222238659 0.4276977538
23550158700.0 -0.917619652 0.4405069061
23600158400.0 -0.912482527 0.453767534
23650158100.0 -0.9059534104 0.4673388787
23700157800.0 -0.8985649249 0.481042758
23750157500.0 -0.8902276852 0.4946582059
23800157200.0 -0.8809878495 0.5077878041
23850156900.0 -0.8726495869 0.5207791706
23900156600.0 -0.8642753869 0.5327389588
23950156300.0 -0.8546358569 0.5450043982
24000156000.0 -0.8457091689 0.5570531977
24050155700.0 -0.8350023393 0.5686222283
24100155400.0 -0.8251969215 0.5810182078
24150155100.0 -0.8148061808 0.5930480596
24200154800.0 -0.8040660304 0.6041908904
24250154500.0 -0.7924795991 0.6161104156
24300154200.0 -0.7814286279 0.6273807363
24350153900.0 -0.769571821 0.6381721531
24400153600.0 -0.7573265938 0.6484653381
24450153300.0 -0.7456046526 0.6587850495
24500153000.0 -0.7343535405 0.6681516918
24550152700.0 -0.7228643423 0.678186895
24600152400.0 -0.7118431145 0.6878626417
24650152100.0 -0.7004906151 0.6954010842
