!Created with skrf (http://scikit-rf.org).
# Hz S RI R 50.0 
!freq ReS11 ImS11
300000.0 -0.9760939758 -0.1171505995
50299700.0 -1.000176807 0.0155398238
100299400.0 -0.9980259965 0.0283205922
150299100.0 -1.002908503 0.0453275242
200298800.0 -0.9996052414 0.0585493233
250298500.0 -0.9972823151 0.0718961485
300298200.0 -0.9858151035 0.0877558438
350297900.0 -0.993925036 0.0988607846
400297600.0 -0.9932803616 0.1152296954
450297300.0 -0.9911590676 0.1291267862
500297000.0 -0.9893970938 0.143963943
550296700.0 -0.9844478337 0.1562600008
600296400.0 -1.017464442 0.1897302725
650296100.0 -0.9821247715 0.186385407
700295800.0 -0.9792805407 0.2003734727
750295500.0 -0.9763183845 0.2144958616
800295200.0 -0.9732264327 0.2287515567
850294900.0 -0.9696273033 0.2424824502
900294600.0 -0.9660017171 0.2560562452
950294300.0 -0.9620297268 0.2698483929
1000294000.0 -0.9580465073 0.2838119603
1050293700.0 -0.9537039089 0.2975549049
1100293400.0 -0.9492024664 0.3120157756
1150293100.0 -0.9455717453 0.3240636132
1200292800.0 -0.9400775818 0.3383587697
1250292500.0 -0.934578138 0.3516792511
1300292200.0 -0.9288917494 0.3648380797
1350291900.0 -0.9233283709 0.3789112183
1400291600.0 -0.9179459017 0.3920518164
1450291300.0 -0.9124217661 0.4045254018
1500291000.0 -0.9061390618 0.4178571044
1550290700.0 -0.8998124201 0.4310378359
1600290400.0 -0.8932358013 0.4439084268
1650290100.0 -0.886670841 0.4562301051
1700289800.0 -0.8797790124 0.4695703565
1750289500.0 -0.8728478753 0.4820904738
1800289200.0 -0.8655298071 0.4950291949
1850288900.0 -0.8587672049 0.5063352534
1900288600.0 -0.8509543997 0.5193074367
1950288300.0 -0.8430451154 0.5317413349
2000288000.0 -0.8352435181 0.5431172341
2050287700.0 -0.8271501512 0.5555439432
2100287400.0 -0.8191238414 0.5672863428
2150287100.0 -0.8105114319 0.5792979547
2200286800.0 -0.8029047644 0.5895555834
2250286500.0 -0.7938982963 0.6016111515
2300286200.0 -0.7849928732 0.6131403463
2350285900.0 -0.7764734744 0.6242483698
2400285600.0 -0.7676052739 0.6351337985
2450285300.0 -0.7589068256 0.6456003912
2500285000.0 -0.7492400899 0.6568457787
2550284700.0 -0.7404173211 0.667106932
2600284400.0 -0.7309825263 0.6772311967
2650284100.0 -0.7221090271 0.687775012
2700283800.0 -0.7113697106 0.6982527976
2750283500.0 -0.7009134853 0.7089570557
2800283200.0 -0.6911092864 0.7188370034
2850282900.0 -0.6809800459 0.7286880548
2900282600.0 -0.6707142623 0.7380214496
2950282300.0 -0.6604396906 0.7473951979
3000282000.0 -0.6497389857 0.7568484854
3050281700.0 -0.6385103569 0.7660071767
3100281400.0 -0.6265455687 0.7754302886
3150281100.0 -0.6146901065 0.7848086517
3200280800.0 -0.603209194 0.7931533239
3250280500.0 -0.5923201649 0.8010375087
3300280200.0 -0.5810623931 0.8090205029
3350279900.0 -0.5696110771 0.8164532821
3400279600.0 -0.5574658128 0.8242575719
3450279300.0 -0.5461892475 0.831221063
3500279000.0 -0.5340583118 0.8381492734
3550278700.0 -0.5218325285 0.845764536
3600278400.0 -0.5096519762 0.8529130121
3650278100.0 -0.4963107897 0.8604735448
3700277800.0 -0.4842369665 0.8669443371
3750277500.0 -0.4719180074 0.8736108117
3800277200.0 -0.4595632082 0.8799335002
3850276900.0 -0.4477353961 0.8859514431
3900276600.0 -0.4366956061 0.8917516097
3950276300.0 -0.4242147371 0.897280318
4000276000.0 -0.4122848124 0.9034554082
4050275700.0 -0.3994695794 0.9097242574
4100275400.0 -0.3884696425 0.9149753996
4150275100.0 -0.37562408 0.9206458306
4200274800.0 -0.3626292858 0.926269782
4250274500.0 -0.3504604239 0.9316144241
4300274200.0 -0.33726734 0.9368034473
4350273900.0 -0.3235165409 0.9419965051
4400273600.0 -0.3084638332 0.9472274179
4450273300.0 -0.2934155412 0.9522682531
4500273000.0 -0.2797425746 0.9566375922
4550272700.0 -0.2655783055 0.9610389724
4600272400.0 -0.2501188837 0.9651398151
4650272100.0 -0.2385021963 0.9683523556
4700271800.0 -0.2251264867 0.9717830645
4750271500.0 -0.2135102332 0.9746316356
4800271200.0 -0.2009592226 0.9771859897
4850270900.0 -0.1870410361 0.9799752721
4900270600.0 -0.1731833885 0.982408153
4950270300.0 -0.1589997027 0.9849229514
5000270000.0 -0.1448326705 0.9871574773
5050269700.0 -0.1311358063 0.9888310388
5100269400.0 -0.1174900101 0.9901984509
5150269100.0 -0.104179204 0.9916722093
5200268800.0 -0.0906575126 0.9927732959
5250268500.0 -0.0778912364 0.9940807116
5300268200.0 -0.0646508331 0.9947818974
5350267900.0 -0.0523633379 0.9952753589
5400267600.0 -0.0361572037 0.9962966819
5450267300.0 -0.0228970842 0.9967427933
5500267000.0 -0.0078683675 0.9970502922
5550266700.0 0.0069662348 0.9970928116
5600266400.0 0.0226871947 0.9971396348
5650266100.0 0.0394488452 0.9969284194
5700265800.0 0.053478828 0.9963023335
5750265500.0 0.0692487194 0.9955799499
5800265200.0 0.0830995026 0.9947850562
5850264900.0 0.0958781038 0.9934627311
5900264600.0 0.1125057998 0.9912923527
5950264300.0 0.1247011495 0.9899887489
6000264000.0 0.1385728539 0.9879390321
6050263700.0 0.1509035371 0.9867145812
6100263400.0 0.1632466677 0.9847841582
6150263100.0 0.1779522228 0.9826930009
6200262800.0 0.1881339859 0.9807919923
6250262500.0 0.2008463238 0.9784969574
6300262200.0 0.2137334863 0.9757707422
6350261900.0 0.2268434526 0.9729036799
6400261600.0 0.2405376758 0.9695366865
6450261300.0 0.2519418988 0.9667949697
6500261000.0 0.2646756414 0.9632838571
6550260700.0 0.2773995047 0.9590997999
6600260400.0 0.2910893375 0.955193637
6650260100.0 0.3049724338 0.9507294805
6700259800.0 0.3171318887 0.9467883791
6750259500.0 0.3307712569 0.9417364566
6800259200.0 0.3437724382 0.9363328256
6850258900.0 0.35605919 0.9315333695
6900258600.0 0.3683122078 0.9265536605
6950258300.0 0.3808962745 0.921373133
7000258000.0 0.3929309 0.9157173077
7050257700.0 0.405044312 0.9097449942
7100257400.0 0.4179049449 0.90345096
7150257100.0 0.4281698724 0.8981471761
7200256800.0 0.4411680519 0.8919578388
7250256500.0 0.4532474548 0.8855783252
7300256200.0 0.4658667288 0.8785005088
7350255900.0 0.4785881893 0.8718960539
7400255600.0 0.4915589428 0.8644642166
7450255300.0 0.5074402183 0.8557744994
7500255000.0 0.5186038589 0.848342359
7550254700.0 0.5326016781 0.839807506
7600254400.0 0.545572784 0.8316767558
7650254100.0 0.5570252966 0.8239508202
7700253800.0 0.5690753644 0.8159819696
7750253500.0 0.5798163153 0.8081866179
7800253200.0 0.5907765349 0.8005904732
7850252900.0 0.6002443488 0.793381086
7900252600.0 0.6118756823 0.7845668119
7950252300.0 0.6207789047 0.7782322186
8000252000.0 0.6309877177 0.7704524734
8050251700.0 0.6412764318 0.7622860577
8100251400.0 0.6513853459 0.754402242
8150251100.0 0.6610269616 0.7454568205
8200250800.0 0.6707280049 0.7374878993
8250250500.0 0.6796413271 0.7294256011
8300250200.0 0.6894139959 0.7208913311
8350249900.0 0.6981974898 0.7122653932
8400249600.0 0.7066302827 0.7042844798
8450249300.0 0.7152932922 0.6949902871
8500249000.0 0.7240717284 0.6861796671
8550248700.0 0.7324403813 0.6769944773
8600248400.0 0.7409893605 0.6675356496
8650248100.0 0.7486084989 0.6581090794
8700247800.0 0.7579689798 0.6468929963
8750247500.0 0.7663064021 0.6369316785
8800247200.0 0.7745135267 0.6264342351
8850246900.0 0.7832912784 0.6149704836
8900246600.0 0.7916699247 0.6038507133
8950246300.0 0.8014032526 0.5906678756
9000246000.0 0.8108033856 0.5782090914
9050245700.0 0.8200826115 0.5651578337
9100245400.0 0.8280228088 0.5526644887
9150245100.0 0.8376116236 0.5392146665
9200244800.0 0.8475253208 0.523927552
9250244500.0 0.8568691996 0.5083672412
9300244200.0 0.8651657436 0.493892096
9350243900.0 0.8727736342 0.4800583456
9400243600.0 0.8794970107 0.467689819
9450243300.0 0.8853523945 0.4561225997
9500243000.0 0.8918023616 0.4440102575
9550242700.0 0.8955412868 0.4363811576
9600242400.0 0.899444152 0.4288169278
9650242100.0 0.9028641321 0.4225741336
9700241800.0 0.907695755 0.4140195551
9750241500.0 0.9116982212 0.4065455634
9800241200.0 0.9166631466 0.3972224355
9850240900.0 0.9219912489 0.3857130274
9900240600.0 0.927833849 0.3741597817
9950240300.0 0.9342302602 0.358133267
10000240000.0 0.9390273079 0.3462793446
10050239700.0 0.9445501826 0.3314253918
10100239400.0 0.9494332976 0.3156401587
10150239100.0 0.9539958629 0.3010531246
10200238800.0 0.9583114921 0.285842786
10250238500.0 0.9615313732 0.2725603212
10300238200.0 0.9646529283 0.2585606045
10350237900.0 0.9671945048 0.2455155091
10400237600.0 0.9696640383 0.2325717391
10450237300.0 0.9726907505 0.218479343
10500237000.0 0.9747494072 0.2066046469
10550236700.0 0.9768632447 0.1925065322
10600236400.0 0.9793582154 0.1785641095
10650236100.0 0.9813639723 0.1642231375
10700235800.0 0.9834213703 0.1516703042
10750235500.0 0.9859049776 0.1383961382
10800235200.0 0.9874123141 0.124361392
10850234900.0 0.9895459757 0.1098515098
10900234600.0 0.9917031546 0.0953023718
10950234300.0 0.9933972231 0.0817831637
11000234000.0 0.9951517132 0.0666986211
11050233700.0 0.9969652724 0.0503285402
11100233400.0 0.9983361771 0.0332251609
11150233100.0 0.9996266731 0.0171835917
11200232800.0 0.9998163684 0.0019405653
11250232500.0 1.000969255 -0.0143007757
11300232200.0 1.001310264 -0.0326110346
11350231900.0 1.001552033 -0.0485442493
11400231600.0 1.001636913 -0.0639771981
11450231300.0 1.001169124 -0.079718159
11500231000.0 1.00023392 -0.0962875092
11550230700.0 0.9982219028 -0.1090696967
11600230400.0 0.9971960278 -0.1213297974
11650230100.0 0.9951462185 -0.1329865759
11700229800.0 0.9928823645 -0.1480378168
11750229500.0 0.9906024709 -0.162264748
11800229200.0 0.9883578082 -0.1759414379
11850228900.0 0.9845124897 -0.1882818992
11900228600.0 0.9812170697 -0.1979785337
11950228300.0 0.9776136851 -0.208949456
12000228000.0 0.9749359401 -0.2177076731
12050227700.0 0.9712767382 -0.230635169
12100227400.0 0.9681790176 -0.2414668995
12150227100.0 0.9631140163 -0.2577807077
12200226800.0 0.9600773023 -0.2690315737
12250226500.0 0.9562460147 -0.2816319273
12300226200.0 0.9509387408 -0.295250017
12350225900.0 0.9467522199 -0.3080920271
12400225600.0 0.9422417012 -0.3199880647
12450225300.0 0.937480923 -0.3334447929
12500225000.0 0.932313146 -0.3484219277
12550224700.0 0.927180924 -0.3622563568
12600224400.0 0.9220479844 -0.3750508842
12650224100.0 0.9162729031 -0.3894522293
12700223800.0 0.910977292 -0.4022627879
12750223500.0 0.9056154185 -0.4152155339
12800223200.0 0.9001425126 -0.4277785825
12850222900.0 0.8948978772 -0.4396943626
12900222600.0 0.8893780314 -0.4519177946
12950222300.0 0.8830630812 -0.4648917147
13000222000.0 0.8768774513 -0.4765122961
13050221700.0 0.8700583496 -0.4887384061
13100221400.0 0.8635401867 -0.5013153556
13150221100.0 0.8567384161 -0.513580146
13200220800.0 0.849771233 -0.524661597
13250220500.0 0.842512657 -0.5371164061
13300220200.0 0.8350458503 -0.5477220079
13350219900.0 0.8271471601 -0.5596311004
13400219600.0 0.8187261741 -0.5718245916
13450219300.0 0.8092591114 -0.5855197005
13500219000.0 0.7992179613 -0.5991172394
13550218700.0 0.7890200382 -0.6121057334
13600218400.0 0.7788954833 -0.6236403481
13650218100.0 0.7691557082 -0.6354156111
13700217800.0 0.7579667622 -0.647159006
13750217500.0 0.7485111197 -0.659536627
13800217200.0 0.7371393812 -0.6709916608
13850216900.0 0.7264548905 -0.681939196
13900216600.0 0.7160855462 -0.6911928525
13950216300.0 0.7046217211 -0.7008871497
14000216000.0 0.6955630518 -0.7102988657
14050215700.0 0.6860300541 -0.7185876218
14100215400.0 0.6759571496 -0.7278053939
14150215100.0 0.6668990037 -0.7363104665
14200214800.0 0.6574487623 -0.7450378762
14250214500.0 0.6472075597 -0.7544265255
14300214200.0 0.6367835249 -0.7636165727
14350213900.0 0.6255927939 -0.7731441924
14400213600.0 0.6135971883 -0.7830393471
14450213300.0 0.6009674323 -0.7936389279
14500213000.0 0.5876368949 -0.8031192056
14550212700.0 0.574783085 -0.8127731139
14600212400.0 0.5624830815 -0.8213072055
14650212100.0 0.549605066 -0.8298289008
14700211800.0 0.5353434209 -0.8396274762
14750211500.0 0.5237287378 -0.8482020801
14800211200.0 0.5111375331 -0.8558314331
14850210900.0 0.4993100539 -0.8634519907
14900210600.0 0.4860504491 -0.8713808133
14950210300.0 0.4725334667 -0.8789652564
15000210000.0 0.4598981937 -0.8858932482
15050209700.0 0.4474960982 -0.8920219701
15100209400.0 0.4349743045 -0.8978175993
15150209100.0 0.4223613481 -0.9030206994
15200208800.0 0.4099153187 -0.9088039739
15250208500.0 0.3982604662 -0.913183937
15300208200.0 0.3855885066 -0.9177788223
15350207900.0 0.3729551994 -0.9225949385
15400207600.0 0.3581523397 -0.9281610261
15450207300.0 0.3440791572 -0.93323894
15500207000.0 0.3299400204 -0.9375069762
15550206700.0 0.3147023336 -0.9430037915
15600206400.0 0.2985165892 -0.947177546
15650206100.0 0.2829439872 -0.9514693183
15700205800.0 0.2688817286 -0.9549888565
15750205500.0 0.2545366525 -0.9587235856
15800205200.0 0.2400069944 -0.9621718831
15850204900.0 0.2256138158 -0.9656582501
15900204600.0 0.2104631864 -0.9691569179
15950204300.0 0.1963303185 -0.9722770583
16000204000.0 0.1820537343 -0.9747961632
16050203700.0 0.1673034738 -0.9779646624
16100203400.0 0.1530940203 -0.9800946849
16150203100.0 0.1384707383 -0.982412709
16200202800.0 0.1239980524 -0.9841771585
16250202500.0 0.1095843636 -0.9860433464
16300202200.0 0.0942187616 -0.9874145746
16350201900.0 0.0789020018 -0.9894055668
16400201600.0 0.0644099518 -0.990199634
16450201300.0 0.0494288907 -0.991333326
16500201000.0 0.0326583789 -0.9920446975
16550200700.0 0.0168911818 -0.9925222504
16600200400.0 0.0011401197 -0.9929428538
16650200100.0 -0.0148715073 -0.9924870956
16700199800.0 -0.031160177 -0.9923957112
16750199500.0 -0.0503848841 -0.9913043195
16800199200.0 -0.0656295914 -0.9908269574
16850198900.0 -0.0807658512 -0.9900457951
16900198600.0 -0.0949703245 -0.9886875864
16950198300.0 -0.1085643258 -0.9881216188
17000198000.0 -0.1211209144 -0.9859368202
17050197700.0 -0.1338701683 -0.9842691066
17100197400.0 -0.1465033507 -0.9822170027
17150197100.0 -0.1588808699 -0.9805767802
17200196800.0 -0.1716807129 -0.9781790605
17250196500.0 -0.1847012244 -0.9759456678
17300196200.0 -0.197164931 -0.9733895439
17350195900.0 -0.2088809503 -0.9712596421
17400195600.0 -0.221124619 -0.968781421
17450195300.0 -0.2342054563 -0.9660103221
17500195000.0 -0.2475077186 -0.9625588815
17550194700.0 -0.2616469937 -0.9588702167
17600194400.0 -0.2755294215 -0.9548029456
17650194100.0 -0.289150777 -0.9511342661
17700193800.0 -0.3024415654 -0.9470026704
17750193500.0 -0.3167413057 -0.9421821978
17800193200.0 -0.3312580841 -0.9367730464
17850192900.0 -0.3461125954 -0.9312433488
17900192600.0 -0.361264015 -0.9252695992
17950192300.0 -0.3770213825 -0.9181305236
18000192000.0 -0.3916189846 -0.9109435358
18050191700.0 -0.4054601691 -0.9031764634
18100191400.0 -0.419786945 -0.8955765728
18150191100.0 -0.4347394059 -0.8876221168
18200190800.0 -0.4517056975 -0.8783310154
18250190500.0 -0.4684727106 -0.8690868506
18300190200.0 -0.4838643731 -0.8601996717
18350189900.0 -0.4990629369 -0.8524679079
18400189600.0 -0.5137710055 -0.8434506343
18450189300.0 -0.5269978517 -0.8357971383
18500189000.0 -0.540092402 -0.8276878871
18550188700.0 -0.5527732297 -0.8198586623
18600188400.0 -0.5642364863 -0.8128828346
18650188100.0 -0.5757112364 -0.8070049234
18700187800.0 -0.5861181858 -0.8003962594
18750187500.0 -0.596893578 -0.7937788899
18800187200.0 -0.6075629684 -0.786762688
18850186900.0 -0.6178728145 -0.7798403129
18900186600.0 -0.6282682586 -0.7724227293
18950186300.0 -0.63813747 -0.7647989381
19000186000.0 -0.6455704922 -0.7584309104
19050185700.0 -0.6546136061 -0.7512429598
19100185400.0 -0.6644745241 -0.7430298157
19150185100.0 -0.674721003 -0.734440178
19200184800.0 -0.683362389 -0.7261139188
19250184500.0 -0.6943904764 -0.7171961742
19300184200.0 -0.705875104 -0.7074873448
19350183900.0 -0.7162657464 -0.6977384014
19400183600.0 -0.7266895945 -0.6882550925
19450183300.0 -0.7353863429 -0.6777513536
19500183000.0 -0.7439455329 -0.6680789299
19550182700.0 -0.7534508383 -0.6568360346
19600182400.0 -0.7637141969 -0.6448673059
19650182100.0 -0.7748047438 -0.6331908099
19700181800.0 -0.7853459569 -0.6198170888
19750181500.0 -0.7957154406 -0.6052302891
19800181200.0 -0.8061731059 -0.5903815282
19850180900.0 -0.8156916784 -0.5751893996
19900180600.0 -0.8237585823 -0.5608235844
19950180300.0 -0.832802837 -0.5442966173
20000180000.0 -0.8261610743 -0.545743678
20050179700.0 -0.8337784918 -0.5327527581
20100179400.0 -0.84250153 -0.5193491491
20150179100.0 -0.8510889258 -0.5076368736
20200178800.0 -0.8591921895 -0.4947034606
20250178500.0 -0.8687255811 -0.4812536913
20300178200.0 -0.8786820267 -0.4666854677
20350177900.0 -0.88773197 -0.4522186303
20400177600.0 -0.8969786892 -0.4377154704
20450177300.0 -0.904989627 -0.4231857333
20500177000.0 -0.9128826166 -0.4093976938
20550176700.0 -0.920852678 -0.3959896814
20600176400.0 -0.9277923489 -0.3826947499
20650176100.0 -0.9348228891 -0.3703936978
20700175800.0 -0.940998609 -0.3589987258
20750175500.0 -0.9476598474 -0.3475297867
20800175200.0 -0.9522828205 -0.3363467256
20850174900.0 -0.9567055373 -0.3251954537
20900174600.0 -0.9619421324 -0.3135133626
20950174300.0 -0.9654335695 -0.3018670216
21000174000.0 -0.9689589402 -0.2910513229
21050173700.0 -0.9725972799 -0.2797957296
21100173400.0 -0.9759619012 -0.2676070374
21150173100.0 -0.9804166236 -0.2555871865
21200172800.0 -0.9834178754 -0.2420740265
21250172500.0 -0.9870304503 -0.228456097
21300172200.0 -0.9895594577 -0.2144520103
21350171900.0 -0.9910022283 -0.1998484095
21400171600.0 -0.9922828093 -0.185343206
21450171300.0 -0.992949825 -0.1711320151
21500171000.0 -0.992634743 -0.1558142641
21550170700.0 -0.9929802402 -0.1412139527
21600170400.0 -0.9928300303 -0.1245899216
21650170100.0 -0.9911103604 -0.1086071515
21700169800.0 -0.9909705524 -0.0952185409
21750169500.0 -0.9899800175 -0.0777167983
21800169200.0 -0.9883012428 -0.0619823999
21850168900.0 -0.9871641302 -0.0454366699
21900168600.0 -0.9859146958 -0.0287222776
21950168300.0 -0.9837621765 -0.0121178626
22000168000.0 -0.9836498262 0.0027522905
22050167700.0 -0.9837366088 0.0165633193
22100167400.0 -0.9837718971 0.0321985867
22150167100.0 -0.9843721084 0.0475857519
22200166800.0 -0.9846615522 0.0636734
22250166500.0 -0.9842765071 0.080760927
22300166200.0 -0.9830070412 0.097819014
22350165900.0 -0.9822980305 0.1141112838
22400165600.0 -0.9817231976 0.1303288498
22450165300.0 -0.9791839304 0.1447955813
22500165000.0 -0.9768763516 0.1585896527
22550164700.0 -0.9755458275 0.1739872379
22600164400.0 -0.9736336202 0.1900997891
22650164100.0 -0.971770665 0.2041428087
22700163800.0 -0.9694523887 0.2201131074
22750163500.0 -0.9667779033 0.2358608845
22800163200.0 -0.9640488841 0.2489702491
22850162900.0 -0.9617518608 0.2616188581
22900162600.0 -0.960252064 0.275348759
22950162300.0 -0.9588019891 0.2880287936
23000162000.0 -0.9573989605 0.2998081789
23050161700.0 -0.9552797619 0.3123131726
23100161400.0 -0.9534745332 0.3252150061
23150161100.0 -0.9511133743 0.3371844265
23200160800.0 -0.9476071236 0.3492248603
23250160500.0 -0.9449064986 0.3616535517
23300160200.0 -0.9416173286 0.3735464582
23350159900.0 -0.9388658757 0.3871594835
23400159600.0 -0.9335114273 0.400018043
23450159300.0 -0.9287346068 0.4132915663
23500159000.0 -0.9246755672 0.4267345917
23550158700.0 -0.9200956837 0.4396062234
23600158400.0 -0.914239519 0.452986462
23650158100.0 -0.908272845 0.4670940226
23700157800.0 -0.9007023029 0.4809249064
23750157500.0 -0.8918246461 0.4950748193
23800157200.0 -0.883324621 0.5082628122
23850156900.0 -0.8742480987 0.5211401664
23900156600.0 -0.8656517254 0.5328819049
23950156300.0 -0.8560921638 0.5455351943
24000156000.0 -0.8470832871 0.558754264
24050155700.0 -0.8370656923 0.5700589015
24100155400.0 -0.8267937498 0.5817099589
24150155100.0 -0.8164486696 0.5930293032
24200154800.0 -0.8054477886 0.6050964054
24250154500.0 -0.7942518808 0.6165295985
24300154200.0 -0.7824576396 0.6282672866
24350153900.0 -0.7708454517 0.6389170762
24400153600.0 -0.7585709364 0.6490751899
24450153300.0 -0.7468867062 0.6589551722
24500153000.0 -0.7348928877 0.6683520513
24550152700.0 -0.7242069128 0.678310852
24600152400.0 -0.7129641071 0.68782401
24650152100.0 -0.7009313629 0.695784083
