!Created with skrf (http://scikit-rf.org).
# Hz S RI R 50.0 
!freq ReS11 ImS11
300000.0 -0.9744361371 -0.11882508
50299700.0 -0.9999544395 0.0152759557
100299400.0 -0.9979651375 0.0283630297
150299100.0 -1.002849617 0.0450263113
200298800.0 -0.9995021611 0.058327049
250298500.0 -0.9974041711 0.0718170377
300298200.0 -0.9859657374 0.0876625013
350297900.0 -0.9941496987 0.098463451
400297600.0 -0.9931965036 0.115006374
450297300.0 -0.9910069136 0.1286475481
500297000.0 -0.9893881556 0.1437828189
550296700.0 -0.9845306085 0.1560419632
600296400.0 -1.017167376 0.1894873738
650296100.0 -0.9822020463 0.1860153615
700295800.0 -0.979188277 0.2003871358
750295500.0 -0.9764499124 0.214253795
800295200.0 -0.9729913881 0.2283672962
850294900.0 -0.9695361866 0.2424298302
900294600.0 -0.9660309679 0.2559579319
950294300.0 -0.9619886868 0.2695732248
1000294000.0 -0.9580141788 0.2836809573
1050293700.0 -0.9537271516 0.2974809077
1100293400.0 -0.9492798105 0.3119133795
1150293100.0 -0.9455283634 0.3237697555
1200292800.0 -0.9401635098 0.3380885609
1250292500.0 -0.9346507874 0.3516143258
1300292200.0 -0.9291101574 0.3646073753
1350291900.0 -0.9233836713 0.3787060306
1400291600.0 -0.9180969606 0.3917372877
1450291300.0 -0.912637591 0.4042523391
1500291000.0 -0.9061441392 0.417710311
1550290700.0 -0.8997026865 0.4310267213
1600290400.0 -0.8934785035 0.4437888407
1650290100.0 -0.886959717 0.4560215776
1700289800.0 -0.8800817155 0.469550872
1750289500.0 -0.8728656268 0.4818963796
1800289200.0 -0.8652678192 0.494760443
1850288900.0 -0.8588615309 0.5062105239
1900288600.0 -0.8510380367 0.5189488649
1950288300.0 -0.8430118692 0.5315098601
2000288000.0 -0.835324346 0.5429679481
2050287700.0 -0.8272315187 0.5553902158
2100287400.0 -0.8191365343 0.5669357613
2150287100.0 -0.8107569714 0.5789001912
2200286800.0 -0.8030582174 0.5893579571
2250286500.0 -0.7942226138 0.6012089629
2300286200.0 -0.7852571979 0.6129307383
2350285900.0 -0.7766095034 0.6238403675
2400285600.0 -0.7677102934 0.6351226405
2450285300.0 -0.7589830648 0.6452942761
2500285000.0 -0.7490794685 0.6565439009
2550284700.0 -0.7404260295 0.6669020656
2600284400.0 -0.7308593698 0.6769851426
2650284100.0 -0.7221900979 0.6876068517
2700283800.0 -0.7114170364 0.698036209
2750283500.0 -0.7010198594 0.7086963889
2800283200.0 -0.6912470098 0.7182960451
2850282900.0 -0.6812465912 0.7281792166
2900282600.0 -0.6706894869 0.7378097772
2950282300.0 -0.6606742332 0.7470744409
3000282000.0 -0.6498201581 0.7567816352
3050281700.0 -0.6387537165 0.7659502968
3100281400.0 -0.6267978752 0.7753921136
3150281100.0 -0.6149731185 0.7845940304
3200280800.0 -0.6034452057 0.7929440444
3250280500.0 -0.5926758652 0.8007080856
3300280200.0 -0.5812866533 0.8087957912
3350279900.0 -0.5697569015 0.8163885491
3400279600.0 -0.5574268522 0.8240656326
3450279300.0 -0.5463642068 0.831166203
3500279000.0 -0.534433853 0.8383273404
3550278700.0 -0.5218854246 0.8454241007
3600278400.0 -0.5097187913 0.8527077885
3650278100.0 -0.4966606926 0.8602581269
3700277800.0 -0.4846746778 0.866570332
3750277500.0 -0.4723561825 0.8733752781
3800277200.0 -0.4596407106 0.8796905251
3850276900.0 -0.4477761736 0.8856939651
3900276600.0 -0.4367887886 0.8914346876
3950276300.0 -0.4247052281 0.897453078
4000276000.0 -0.4126332191 0.9034467448
4050275700.0 -0.3996765575 0.9093809801
4100275400.0 -0.388467975 0.9150633133
4150275100.0 -0.3760523903 0.9207397031
4200274800.0 -0.3628410428 0.9260699387
4250274500.0 -0.3506751152 0.9313718825
4300274200.0 -0.3375396403 0.9366281196
4350273900.0 -0.3238252182 0.9420296221
4400273600.0 -0.3090625048 0.9469968248
4450273300.0 -0.2937249452 0.9524153377
4500273000.0 -0.2802517078 0.9565980892
4550272700.0 -0.2661313976 0.9605771029
4600272400.0 -0.2505697013 0.9650213416
4650272100.0 -0.2389441926 0.9682115241
4700271800.0 -0.225608558 0.9715924379
4750271500.0 -0.2139897029 0.9744219235
4800271200.0 -0.2014881412 0.9772543343
4850270900.0 -0.1874914636 0.9799080917
4900270600.0 -0.1736325873 0.982394833
4950270300.0 -0.1592743125 0.9850150984
5000270000.0 -0.1450816375 0.9868256596
5050269700.0 -0.1314955845 0.9879521697
5100269400.0 -0.1179447854 0.9902997233
5150269100.0 -0.104340718 0.9921165177
5200268800.0 -0.0910278539 0.9926201705
5250268500.0 -0.0782292242 0.9939229379
5300268200.0 -0.0649882104 0.9946712408
5350267900.0 -0.0527140098 0.9954340992
5400267600.0 -0.0363020103 0.9964400745
5450267300.0 -0.0233644043 0.9966092302
5500267000.0 -0.0079827988 0.9971553089
5550266700.0 0.0066828148 0.9973841421
5600266400.0 0.022436599 0.9973394725
5650266100.0 0.0386814661 0.9964980149
5700265800.0 0.0536062033 0.9963074108
5750265500.0 0.0684890706 0.9953991151
5800265200.0 0.0824318594 0.9943285402
5850264900.0 0.0957715243 0.9937939625
5900264600.0 0.1123828782 0.9917020217
5950264300.0 0.1243266439 0.9901029153
6000264000.0 0.1380789469 0.9884043424
6050263700.0 0.1506597962 0.9868067675
6100263400.0 0.1627515642 0.9851543405
6150263100.0 0.1773580029 0.9828863333
6200262800.0 0.1876283115 0.9809466212
6250262500.0 0.2005419835 0.9786599842
6300262200.0 0.2132750724 0.9757469388
6350261900.0 0.2260730053 0.9730994289
6400261600.0 0.2400626018 0.9695367384
6450261300.0 0.2514648436 0.9672350192
6500261000.0 0.2641633185 0.9631482504
6550260700.0 0.2771351721 0.9594786477
6600260400.0 0.2905779376 0.9555184948
6650260100.0 0.3044885077 0.9509131169
6700259800.0 0.3166962131 0.946755498
6750259500.0 0.3305986451 0.9421025781
6800259200.0 0.3435026488 0.9369176462
6850258900.0 0.3553712168 0.9316003618
6900258600.0 0.3676584657 0.9265985567
6950258300.0 0.3806395663 0.9213083994
7000258000.0 0.3923262096 0.9158466295
7050257700.0 0.404679934 0.9099358328
7100257400.0 0.4176164158 0.9035515801
7150257100.0 0.4278872366 0.8983025314
7200256800.0 0.4406533155 0.8916902814
7250256500.0 0.4526760231 0.8855942407
7300256200.0 0.4658116812 0.8789600742
7350255900.0 0.477861142 0.8719054889
7400255600.0 0.4915366306 0.8647261514
7450255300.0 0.5069114978 0.8556346153
7500255000.0 0.5186141051 0.8482299791
7550254700.0 0.532751035 0.8402832128
7600254400.0 0.5448413467 0.8314957071
7650254100.0 0.5566954699 0.8239171547
7700253800.0 0.5686572698 0.816062011
7750253500.0 0.5794347 0.8083662217
7800253200.0 0.5904975611 0.8007032541
7850252900.0 0.5999502077 0.7936788521
7900252600.0 0.6116670275 0.784879078
7950252300.0 0.6204713257 0.7782864839
8000252000.0 0.6306130672 0.7706092868
8050251700.0 0.6412091802 0.7622757524
8100251400.0 0.6509787034 0.7543014894
8150251100.0 0.6611825029 0.7456121614
8200250800.0 0.6706952728 0.7377285507
8250250500.0 0.6798047979 0.7297537962
8300250200.0 0.6889769972 0.7211739013
8350249900.0 0.698323172 0.7123885856
8400249600.0 0.7059237199 0.7044758716
8450249300.0 0.7154283476 0.6953555353
8500249000.0 0.7236839488 0.6864639599
8550248700.0 0.7322665515 0.6773127817
8600248400.0 0.7408186473 0.6677450239
8650248100.0 0.7484810558 0.658194503
8700247800.0 0.757869705 0.6471160463
8750247500.0 0.7663026941 0.6370597327
8800247200.0 0.7744552755 0.6266934275
8850246900.0 0.7829453175 0.6154054262
8900246600.0 0.7915797797 0.6039523562
8950246300.0 0.8009916118 0.5907076235
9000246000.0 0.8106058753 0.5783152088
9050245700.0 0.8195950237 0.5654302366
9100245400.0 0.8280356091 0.5528792739
9150245100.0 0.8372461462 0.5393263194
9200244800.0 0.8470909495 0.5240874378
9250244500.0 0.8562621171 0.5089868332
9300244200.0 0.86460412 0.4946967777
9350243900.0 0.8724299573 0.4809236324
9400243600.0 0.8791422578 0.4684303659
9450243300.0 0.8848776792 0.457141878
9500243000.0 0.8912650062 0.4450011084
9550242700.0 0.8950834507 0.4372665683
9600242400.0 0.8989097907 0.4299289954
9650242100.0 0.9026239197 0.4235688468
9700241800.0 0.9072257316 0.4152140107
9750241500.0 0.9115035421 0.4075038519
9800241200.0 0.9159531528 0.3984485459
9850240900.0 0.922172523 0.3865324193
9900240600.0 0.9277085237 0.3749990757
9950240300.0 0.9342339112 0.3587171608
10000240000.0 0.9387902289 0.3472690936
10050239700.0 0.9446137229 0.3319030345
10100239400.0 0.9494996051 0.3165025417
10150239100.0 0.9540204284 0.3018043766
10200238800.0 0.9580946209 0.2865469093
10250238500.0 0.9614839542 0.2730547062
10300238200.0 0.9644507962 0.2591821539
10350237900.0 0.9672433472 0.2465304202
10400237600.0 0.9697677002 0.2328338611
10450237300.0 0.9724505365 0.2190347017
10500237000.0 0.9746671955 0.2067237293
10550236700.0 0.9768392402 0.1928574903
10600236400.0 0.9793996688 0.1788635208
10650236100.0 0.981010968 0.1640983486
10700235800.0 0.9837772775 0.1520755386
10750235500.0 0.9858309373 0.1386553893
10800235200.0 0.9875094968 0.124783085
10850234900.0 0.9895840396 0.1096374852
10900234600.0 0.9919568807 0.0951534839
10950234300.0 0.9934784976 0.0818781893
11000234000.0 0.9951895075 0.066944308
11050233700.0 0.9969885017 0.0505019354
11100233400.0 0.9985073094 0.0329514761
11150233100.0 0.9997622958 0.0169428433
11200232800.0 1.000070913 0.001585309
11250232500.0 1.001416451 -0.0154619749
11300232200.0 1.001613635 -0.0324984517
11350231900.0 1.001860732 -0.0483787832
11400231600.0 1.001626142 -0.0644894999
11450231300.0 1.001204722 -0.079552668
11500231000.0 0.9999251225 -0.0962775277
11550230700.0 0.9984180053 -0.1080455981
11600230400.0 0.9972436142 -0.1213079035
11650230100.0 0.9950103814 -0.1332720018
11700229800.0 0.9933563172 -0.1479417449
11750229500.0 0.9907983222 -0.1624942749
11800229200.0 0.9882888573 -0.1758549098
11850228900.0 0.9848039354 -0.18820078
11900228600.0 0.9808491086 -0.1979496785
11950228300.0 0.9780328611 -0.2088158272
12000228000.0 0.9751783506 -0.2175858366
12050227700.0 0.9712277896 -0.2299909469
12100227400.0 0.9683029638 -0.2412219551
12150227100.0 0.9637548914 -0.258434491
12200226800.0 0.9602196442 -0.2685792173
12250226500.0 0.9552381275 -0.2823651634
12300226200.0 0.9515242053 -0.2936791648
12350225900.0 0.9466398786 -0.3083863074
12400225600.0 0.9420090479 -0.3210688605
12450225300.0 0.9376170699 -0.3336387203
12500225000.0 0.9323362524 -0.3490921976
12550224700.0 0.9267284002 -0.3626220552
12600224400.0 0.9218765781 -0.3750415533
12650224100.0 0.9160876995 -0.3895669621
12700223800.0 0.9108947461 -0.4024072782
12750223500.0 0.9053360809 -0.4155528477
12800223200.0 0.8999839613 -0.4279034291
12850222900.0 0.8949501413 -0.4400242149
12900222600.0 0.8889847868 -0.4521173233
12950222300.0 0.8829050101 -0.4648444924
13000222000.0 0.8769836648 -0.4762832591
13050221700.0 0.8700542353 -0.4890251421
13100221400.0 0.8633017727 -0.5016522706
13150221100.0 0.8565065807 -0.5136992926
13200220800.0 0.8496801624 -0.524717945
13250220500.0 0.8426069394 -0.5365984477
13300220200.0 0.8350457608 -0.5477038326
13350219900.0 0.8271108625 -0.559537998
13400219600.0 0.8188265006 -0.5717878602
13450219300.0 0.8091795701 -0.5851912191
13500219000.0 0.7991963271 -0.5988225552
13550218700.0 0.7888946314 -0.6115959402
13600218400.0 0.7787879609 -0.6237465498
13650218100.0 0.7698506259 -0.6346518645
13700217800.0 0.7582051452 -0.6473307455
13750217500.0 0.7482454652 -0.658164532
13800217200.0 0.7381686842 -0.6697674273
13850216900.0 0.7261969378 -0.6812552468
13900216600.0 0.7170939591 -0.6906042614
13950216300.0 0.7062196127 -0.7007671433
14000216000.0 0.6960125956 -0.7098103268
14050215700.0 0.6861624262 -0.7183282779
14100215400.0 0.6762862738 -0.727715554
14150215100.0 0.6673039372 -0.7362141612
14200214800.0 0.6577906831 -0.7446185563
14250214500.0 0.6474894697 -0.7540377314
14300214200.0 0.6370502335 -0.7632293587
14350213900.0 0.6260149885 -0.7729922586
14400213600.0 0.6141989314 -0.7825610101
14450213300.0 0.6012159781 -0.7931072666
14500213000.0 0.5883888633 -0.8031930956
14550212700.0 0.5759047567 -0.8121930782
14600212400.0 0.5631014948 -0.8209828064
14650212100.0 0.550525288 -0.8300834531
14700211800.0 0.53660427 -0.8396334596
14750211500.0 0.5240953736 -0.8474625242
14800211200.0 0.5117907609 -0.8557503753
14850210900.0 0.4996281952 -0.8633569141
14900210600.0 0.4865618615 -0.8710078073
14950210300.0 0.4731884808 -0.878743383
15000210000.0 0.4604602513 -0.8856065129
15050209700.0 0.4482379661 -0.8913943237
15100209400.0 0.4354779531 -0.8976993753
15150209100.0 0.4228566237 -0.9031879989
15200208800.0 0.4103714805 -0.9091652833
15250208500.0 0.3994340879 -0.9126476679
15300208200.0 0.3867387541 -0.9175569479
15350207900.0 0.3740543658 -0.922392033
15400207600.0 0.359237009 -0.9282765751
15450207300.0 0.3446983294 -0.9329796242
15500207000.0 0.3297186934 -0.9376452762
15550206700.0 0.315051206 -0.942115578
15600206400.0 0.2991344641 -0.9470925745
15650206100.0 0.2836706992 -0.9512979248
15700205800.0 0.2695695494 -0.9550950831
15750205500.0 0.2549464244 -0.9586236686
15800205200.0 0.2406243435 -0.9618517927
15850204900.0 0.2262415829 -0.9653129237
15900204600.0 0.2110833903 -0.9691343213
15950204300.0 0.1970870031 -0.9721103484
16000204000.0 0.1830828066 -0.9746062985
16050203700.0 0.1680309189 -0.9778583366
16100203400.0 0.1529700641 -0.9795267998
16150203100.0 0.1382746234 -0.9823559424
16200202800.0 0.1243715584 -0.9844384383
16250202500.0 0.1100319072 -0.9862599582
16300202200.0 0.0942535436 -0.9880147026
16350201900.0 0.079545859 -0.9889520798
16400201600.0 0.064644011 -0.990439902
16450201300.0 0.0494938894 -0.9913762249
16500201000.0 0.0328486923 -0.9921049859
16550200700.0 0.01706745 -0.9925633117
16600200400.0 0.0013914127 -0.9928104957
16650200100.0 -0.0148049677 -0.9928089168
16700199800.0 -0.0310978581 -0.9924052108
16750199500.0 -0.049562301 -0.991827326
16800199200.0 -0.0656834116 -0.9903838515
16850198900.0 -0.080957095 -0.9894658174
16900198600.0 -0.0944073284 -0.9884047612
16950198300.0 -0.1080015797 -0.9876737569
17000198000.0 -0.1211027541 -0.9859137129
17050197700.0 -0.1339838255 -0.9840778358
17100197400.0 -0.1467113264 -0.9823940258
17150197100.0 -0.1589976521 -0.9799620493
17200196800.0 -0.1718856079 -0.9781137862
17250196500.0 -0.1846864908 -0.9758168699
17300196200.0 -0.1968372245 -0.9734293661
17350195900.0 -0.2087673207 -0.9712442941
17400195600.0 -0.2209735087 -0.9687690763
17450195300.0 -0.2339658838 -0.965982877
17500195000.0 -0.2472153272 -0.9627221547
17550194700.0 -0.2613141654 -0.9592633604
17600194400.0 -0.2750660235 -0.9550595767
17650194100.0 -0.2888965792 -0.9508736979
17700193800.0 -0.3018270611 -0.94679
17750193500.0 -0.3163417105 -0.9421824063
17800193200.0 -0.3306471828 -0.9369322326
17850192900.0 -0.3454770024 -0.9320234149
17900192600.0 -0.3610562815 -0.9255577935
17950192300.0 -0.3766571169 -0.9179324131
18000192000.0 -0.3911772835 -0.9112324614
18050191700.0 -0.4052042525 -0.9032995776
18100191400.0 -0.4195574888 -0.8956251744
18150191100.0 -0.4344929226 -0.8877852682
18200190800.0 -0.4515478214 -0.8785883302
18250190500.0 -0.468264964 -0.8691670556
18300190200.0 -0.484115792 -0.8604052535
18350189900.0 -0.4989303122 -0.8518951911
18400189600.0 -0.5129749396 -0.8440165496
18450189300.0 -0.526609429 -0.8358588246
18500189000.0 -0.5401931308 -0.8279543817
18550188700.0 -0.5526065136 -0.8201733302
18600188400.0 -0.5641261058 -0.8133437874
18650188100.0 -0.5752196738 -0.8070908932
18700187800.0 -0.5860857036 -0.8005122897
18750187500.0 -0.5967934452 -0.7942641339
18800187200.0 -0.6072302923 -0.7870382307
18850186900.0 -0.6172353869 -0.7802784692
18900186600.0 -0.6276553108 -0.7729480215
18950186300.0 -0.6377936433 -0.7653212356
19000186000.0 -0.6446769215 -0.759091914
19050185700.0 -0.6538724654 -0.7517500327
19100185400.0 -0.664250512 -0.7435772542
19150185100.0 -0.6744342827 -0.7351672686
19200184800.0 -0.6837123739 -0.7266574766
19250184500.0 -0.6938030751 -0.7181282171
19300184200.0 -0.7052663885 -0.7076198384
19350183900.0 -0.7153397707 -0.6982955259
19400183600.0 -0.7250763732 -0.6886864286
19450183300.0 -0.7340545057 -0.6780584344
19500183000.0 -0.7426479947 -0.6687006605
19550182700.0 -0.7525603237 -0.6577046938
19600182400.0 -0.7630829603 -0.6458928273
19650182100.0 -0.7737319395 -0.6336646725
19700181800.0 -0.7846377777 -0.6201636397
19750181500.0 -0.7949557328 -0.6060294853
19800181200.0 -0.8054631203 -0.5910005596
19850180900.0 -0.815236562 -0.5755113711
19900180600.0 -0.8230762597 -0.5610676945
19950180300.0 -0.8324919635 -0.5447512876
20000180000.0 -0.8252940439 -0.5471714842
20050179700.0 -0.8334854094 -0.5338430889
20100179400.0 -0.8415949267 -0.5204383906
20150179100.0 -0.8507938017 -0.5081294018
20200178800.0 -0.8589135987 -0.4955440805
20250178500.0 -0.8688490938 -0.4828793547
20300178200.0 -0.8783334932 -0.4678782386
20350177900.0 -0.8872864164 -0.4533658077
20400177600.0 -0.8961831702 -0.4387491193
20450177300.0 -0.9045654522 -0.4246202723
20500177000.0 -0.9122987825 -0.4105632524
20550176700.0 -0.9201857354 -0.3969399834
20600176400.0 -0.927107608 -0.3840406141
20650176100.0 -0.9338366811 -0.3721612295
20700175800.0 -0.9405591048 -0.3598473345
20750175500.0 -0.9467617129 -0.3479209998
20800175200.0 -0.9515966738 -0.3373521843
20850174900.0 -0.9566853695 -0.3260494261
20900174600.0 -0.9609933076 -0.3151220841
20950174300.0 -0.9643604559 -0.3036470026
21000174000.0 -0.9679382462 -0.2924537262
21050173700.0 -0.9710563384 -0.2819616713
21100173400.0 -0.9753611879 -0.2699460363
21150173100.0 -0.9791635883 -0.2573335861
21200172800.0 -0.9822691471 -0.2440165389
21250172500.0 -0.9855004496 -0.2304442061
21300172200.0 -0.988316888 -0.2160427025
21350171900.0 -0.9902844904 -0.2021787907
21400171600.0 -0.9914218825 -0.1876278526
21450171300.0 -0.9921438984 -0.1736679809
21500171000.0 -0.991979228 -0.1587565986
21550170700.0 -0.9926508219 -0.142802577
21600170400.0 -0.9927369074 -0.1266200056
21650170100.0 -0.9919959861 -0.1114658147
21700169800.0 -0.9897160198 -0.0957276286
21750169500.0 -0.9890506829 -0.0798544223
21800169200.0 -0.9889922523 -0.0631408929
21850168900.0 -0.9875955745 -0.046792852
21900168600.0 -0.9867721635 -0.0294288093
21950168300.0 -0.9852885133 -0.0147208375
22000168000.0 -0.9848025681 0.0006085663
22050167700.0 -0.9840664928 0.0147479261
22100167400.0 -0.984455796 0.0300509894
22150167100.0 -0.9851784832 0.0459032865
22200166800.0 -0.9856227097 0.0614629471
22250166500.0 -0.9851908891 0.0793274626
22300166200.0 -0.9847611154 0.0960641761
22350165900.0 -0.983020052 0.1118193268
22400165600.0 -0.9813200931 0.1279686107
22450165300.0 -0.9790792885 0.1432295926
22500165000.0 -0.9774665706 0.1562667235
22550164700.0 -0.9765538352 0.1711108206
22600164400.0 -0.9747924536 0.1877347076
22650164100.0 -0.9725867242 0.202679923
22700163800.0 -0.9698220474 0.2182132082
22750163500.0 -0.9674176299 0.2339727072
22800163200.0 -0.9645888204 0.2470001215
22850162900.0 -0.9619407389 0.2600201407
22900162600.0 -0.9602545123 0.2733483367
22950162300.0 -0.9593428574 0.2862661637
23000162000.0 -0.9580427294 0.2984274649
23050161700.0 -0.9559726426 0.311110727
23100161400.0 -0.9532863415 0.3238549007
23150161100.0 -0.9511777968 0.3359682448
23200160800.0 -0.9483536082 0.34823155
23250160500.0 -0.9453985519 0.360375934
23300160200.0 -0.9429105722 0.3725573899
23350159900.0 -0.9388423773 0.386481194
23400159600.0 -0.9347352283 0.3988862462
23450159300.0 -0.9292461763 0.4126407279
23500159000.0 -0.9247005085 0.4256078669
23550158700.0 -0.92055601 0.4393599335
23600158400.0 -0.915077799 0.4523277977
23650158100.0 -0.9084852713 0.4664379448
23700157800.0 -0.9007463513 0.4803422141
23750157500.0 -0.8925327648 0.4944852331
23800157200.0 -0.8830366696 0.5075442094
23850156900.0 -0.8747978373 0.5204280155
23900156600.0 -0.8651813384 0.5332651271
23950156300.0 -0.8560683413 0.5454209045
24000156000.0 -0.847387221 0.5575486485
24050155700.0 -0.8372364177 0.5692015781
24100155400.0 -0.8272727641 0.581912352
24150155100.0 -0.8163478576 0.5931208334
24200154800.0 -0.8050422681 0.6052271609
24250154500.0 -0.7941258455 0.6163861358
24300154200.0 -0.7827142353 0.627849792
24350153900.0 -0.7705007645 0.6387220751
24400153600.0 -0.7584412924 0.6487456904
24450153300.0 -0.7468307125 0.6588377911
24500153000.0 -0.735119069 0.6684245864
24550152700.0 -0.724028022 0.6783924543
24600152400.0 -0.7120860288 0.6875509917
24650152100.0 -0.7005215325 0.6961465605
