!Created with skrf (http://scikit-rf.org).
# Hz S RI R 50.0 
!freq ReS11 ImS11
300000.0 -0.9876557271 -0.0761954961
50299700.0 -0.9998075026 0.0163912926
100299400.0 -0.9978304544 0.0292625692
150299100.0 -1.002600534 0.0460397577
200298800.0 -0.9993058222 0.0594627609
250298500.0 -0.997179568 0.0730264971
300298200.0 -0.9856452018 0.0888665269
350297900.0 -0.9937934721 0.0997365091
400297600.0 -0.9928059022 0.1161777016
450297300.0 -0.9906289764 0.1300166083
500297000.0 -0.9891916083 0.1449256373
550296700.0 -0.983792653 0.157331783
600296400.0 -1.016708906 0.1906115977
650296100.0 -0.9816325311 0.1871337202
700295800.0 -0.9787000313 0.2014588973
750295500.0 -0.9755597356 0.2156339437
800295200.0 -0.9720987668 0.2296564863
850294900.0 -0.9688478305 0.2434080068
900294600.0 -0.9649843333 0.2571418174
950294300.0 -0.9613113947 0.2706955707
1000294000.0 -0.9573900494 0.2847897345
1050293700.0 -0.9528689412 0.2984343642
1100293400.0 -0.948588067 0.3128484371
1150293100.0 -0.9447802975 0.3247471774
1200292800.0 -0.9395630141 0.3389330238
1250292500.0 -0.9340678091 0.3523389888
1300292200.0 -0.9282238658 0.3656031475
1350291900.0 -0.9226551099 0.3795183536
1400291600.0 -0.9172146615 0.3926642058
1450291300.0 -0.9117253587 0.4050439897
1500291000.0 -0.9055409023 0.4184702823
1550290700.0 -0.8991426646 0.4314823513
1600290400.0 -0.8929784908 0.4445522442
1650290100.0 -0.8864549031 0.45660924
1700289800.0 -0.8794883393 0.4699155533
1750289500.0 -0.8724201357 0.4822753338
1800289200.0 -0.8652184922 0.4952609944
1850288900.0 -0.8583389263 0.5064515304
1900288600.0 -0.8505611411 0.5194262345
1950288300.0 -0.8425317812 0.5319912881
2000288000.0 -0.834865439 0.5433710061
2050287700.0 -0.826859662 0.5558435239
2100287400.0 -0.8187866772 0.5674180263
2150287100.0 -0.8102474182 0.5793702286
2200286800.0 -0.8023755838 0.5897467312
2250286500.0 -0.7935165296 0.6021028304
2300286200.0 -0.7844275928 0.6135497232
2350285900.0 -0.7756187327 0.6245184998
2400285600.0 -0.7667285924 0.635587271
2450285300.0 -0.7579056163 0.6460829396
2500285000.0 -0.7483662913 0.657357422
2550284700.0 -0.7391077436 0.6675766304
2600284400.0 -0.7297560791 0.6776243276
2650284100.0 -0.7205796044 0.6880147871
2700283800.0 -0.7102748751 0.6987500664
2750283500.0 -0.7000807724 0.7092515464
2800283200.0 -0.690199681 0.7188007832
2850282900.0 -0.6798568241 0.7287897035
2900282600.0 -0.6696961204 0.738327778
2950282300.0 -0.6591497003 0.7473282602
3000282000.0 -0.6486786019 0.7570379321
3050281700.0 -0.6374628525 0.7662564448
3100281400.0 -0.6260576805 0.7752806368
3150281100.0 -0.6144099036 0.7845632457
3200280800.0 -0.6027489818 0.7932153153
3250280500.0 -0.5920242428 0.8010076674
3300280200.0 -0.580823448 0.8088755229
3350279900.0 -0.5693671579 0.8163932392
3400279600.0 -0.5572340696 0.8241537198
3450279300.0 -0.5462366646 0.8315492426
3500279000.0 -0.5342066436 0.8385469976
3550278700.0 -0.5219903782 0.8459161952
3600278400.0 -0.5098402027 0.8530179427
3650278100.0 -0.496624548 0.8608393158
3700277800.0 -0.484538081 0.8672806951
3750277500.0 -0.4725879208 0.8736399787
3800277200.0 -0.4599019499 0.8803510722
3850276900.0 -0.4472638058 0.8862060904
3900276600.0 -0.4365411553 0.8922264022
3950276300.0 -0.4238003174 0.8981212193
4000276000.0 -0.4118021031 0.9039048419
4050275700.0 -0.3984062255 0.9103094223
4100275400.0 -0.3870581766 0.9154725061
4150275100.0 -0.3742790442 0.9209670105
4200274800.0 -0.3610649829 0.9267894482
4250274500.0 -0.3485519635 0.9317956634
4300274200.0 -0.3359574515 0.9368520925
4350273900.0 -0.3220282974 0.9421267473
4400273600.0 -0.3074099166 0.9470478643
4450273300.0 -0.2923337297 0.9521794623
4500273000.0 -0.2787931857 0.9563258596
4550272700.0 -0.2647870713 0.9605064179
4600272400.0 -0.2494532629 0.9647561095
4650272100.0 -0.2375936427 0.9680011212
4700271800.0 -0.22432353 0.9712970534
4750271500.0 -0.2120860225 0.9741561409
4800271200.0 -0.1995813769 0.9770400645
4850270900.0 -0.1857408984 0.9797806514
4900270600.0 -0.1720476225 0.9822037369
4950270300.0 -0.158030895 0.9847058061
5000270000.0 -0.143896769 0.9870125533
5050269700.0 -0.1304751685 0.9882248543
5100269400.0 -0.1167604826 0.9900665173
5150269100.0 -0.1034079504 0.9916720061
5200268800.0 -0.0902076003 0.9928784293
5250268500.0 -0.0773385093 0.9937141869
5300268200.0 -0.0638923036 0.994753067
5350267900.0 -0.0519628656 0.9952011456
5400267600.0 -0.0360673172 0.9964395995
5450267300.0 -0.0229083467 0.9966004963
5500267000.0 -0.0079660345 0.996795862
5550266700.0 0.0066340114 0.9970575742
5600266400.0 0.0220491548 0.9969812868
5650266100.0 0.0383476017 0.9969267099
5700265800.0 0.0528119041 0.9960369499
5750265500.0 0.067560932 0.9950919344
5800265200.0 0.0813657691 0.9937943152
5850264900.0 0.0953194245 0.9932683496
5900264600.0 0.1111803123 0.9912046072
5950264300.0 0.1237796434 0.9898089255
6000264000.0 0.1377726939 0.9879055586
6050263700.0 0.1505464128 0.9861331493
6100263400.0 0.1630711708 0.9841761359
6150263100.0 0.1778675771 0.9818791874
6200262800.0 0.1885536078 0.9798102335
6250262500.0 0.2015753758 0.9773859331
6300262200.0 0.2142545862 0.9747128902
6350261900.0 0.2274330241 0.9718319316
6400261600.0 0.2414925516 0.9683404137
6450261300.0 0.2527874764 0.9657209709
6500261000.0 0.2657288223 0.9621111401
6550260700.0 0.2787940959 0.9583645094
6600260400.0 0.2917266382 0.954144731
6650260100.0 0.3059192914 0.9499824362
6700259800.0 0.3181023184 0.9460928203
6750259500.0 0.331488921 0.940875886
6800259200.0 0.3446480886 0.9359652381
6850258900.0 0.3564986045 0.9310365549
6900258600.0 0.368682737 0.9259515459
6950258300.0 0.381400437 0.9209274127
7000258000.0 0.3931541406 0.9155560154
7050257700.0 0.4054118454 0.9095948219
7100257400.0 0.4183470653 0.9034914658
7150257100.0 0.428497503 0.8983517629
7200256800.0 0.4414541007 0.8918775312
7250256500.0 0.4532233474 0.8857886149
7300256200.0 0.4658814613 0.878999959
7350255900.0 0.4781452781 0.872022049
7400255600.0 0.4909263189 0.8656583236
7450255300.0 0.5059511314 0.8565101306
7500255000.0 0.5172081428 0.8492885524
7550254700.0 0.5306338718 0.8407493741
7600254400.0 0.5433628026 0.8327675167
7650254100.0 0.5549622028 0.8250288653
7700253800.0 0.5674312616 0.8170205936
7750253500.0 0.5785077371 0.809171392
7800253200.0 0.5892969834 0.8010644648
7850252900.0 0.5990569168 0.7940899806
7900252600.0 0.610915887 0.7851341581
7950252300.0 0.6201821424 0.7782603829
8000252000.0 0.6302408329 0.7703761499
8050251700.0 0.6409747508 0.762030894
8100251400.0 0.6509030397 0.7536814917
8150251100.0 0.6612727889 0.74491398
8200250800.0 0.6703553802 0.7369755886
8250250500.0 0.6798809045 0.7285631473
8300250200.0 0.6893048479 0.7199512456
8350249900.0 0.6984867285 0.7109228972
8400249600.0 0.7069752261 0.7029999464
8450249300.0 0.7162085502 0.6937901979
8500249000.0 0.7248664235 0.6846592408
8550248700.0 0.7333479595 0.6754102734
8600248400.0 0.7418581536 0.6657900361
8650248100.0 0.7494914425 0.6564728589
8700247800.0 0.7590048008 0.6457121408
8750247500.0 0.7673913206 0.6356204325
8800247200.0 0.7750824691 0.6255994464
8850246900.0 0.784181945 0.6143585973
8900246600.0 0.7923807524 0.6032159274
8950246300.0 0.8015561492 0.5905430225
9000246000.0 0.8107312321 0.5782325926
9050245700.0 0.8191244513 0.5657909193
9100245400.0 0.8275534261 0.5536719028
9150245100.0 0.8367744943 0.5405684799
9200244800.0 0.8464039151 0.5262983739
9250244500.0 0.8550892245 0.5114269634
9300244200.0 0.8630125075 0.4975492859
9350243900.0 0.8708372656 0.4834522976
9400243600.0 0.8779351181 0.4708638622
9450243300.0 0.8840010648 0.4586945244
9500243000.0 0.8906989801 0.445698992
9550242700.0 0.8949749387 0.4369717278
9600242400.0 0.8993488763 0.4283448596
9650242100.0 0.9030871674 0.4210865871
9700241800.0 0.9079221752 0.4119671576
9750241500.0 0.9119630713 0.4039915419
9800241200.0 0.9166049342 0.3942019297
9850240900.0 0.9222754254 0.3823759793
9900240600.0 0.9275875704 0.3712420154
9950240300.0 0.9340204925 0.3554020244
10000240000.0 0.938742479 0.3434767692
10050239700.0 0.9444680992 0.3285820458
10100239400.0 0.9488144865 0.3137118963
10150239100.0 0.9532459572 0.299247783
10200238800.0 0.957386825 0.2843509459
10250238500.0 0.96092024 0.2710706174
10300238200.0 0.9643384057 0.2573175923
10350237900.0 0.9669353434 0.2440665614
10400237600.0 0.9697468673 0.2308646782
10450237300.0 0.9726439217 0.2173448588
10500237000.0 0.9751071767 0.2050037677
10550236700.0 0.9773223942 0.191978562
10600236400.0 0.9794842923 0.1782812759
10650236100.0 0.9812715131 0.1640656992
10700235800.0 0.9833388518 0.1517381939
10750235500.0 0.9861365651 0.1380169333
10800235200.0 0.9876018592 0.1247200044
10850234900.0 0.9895196574 0.1104038796
10900234600.0 0.9915915197 0.0954757124
10950234300.0 0.993372236 0.0824395895
11000234000.0 0.9948147875 0.0679508108
11050233700.0 0.9964915912 0.0520739776
11100233400.0 0.9977037886 0.0348591151
11150233100.0 0.9990294744 0.019187176
11200232800.0 0.9996192127 0.0043730227
11250232500.0 1.000381554 -0.0120511275
11300232200.0 1.000400242 -0.0294979027
11350231900.0 1.000541832 -0.0454145567
11400231600.0 1.000110199 -0.0603966255
11450231300.0 0.9996272446 -0.0761854059
11500231000.0 0.9988582545 -0.0921994843
11550230700.0 0.9969445478 -0.1062810041
11600230400.0 0.9956180207 -0.1201887069
11650230100.0 0.9934247189 -0.1311196901
11700229800.0 0.9914004411 -0.1459007131
11750229500.0 0.9892225665 -0.1607478185
11800229200.0 0.9865072011 -0.174573082
11850228900.0 0.9829949093 -0.187779087
11900228600.0 0.9798825229 -0.1982146806
11950228300.0 0.9764507779 -0.2093192539
12000228000.0 0.9742052108 -0.2186526781
12050227700.0 0.9703940919 -0.2313472373
12100227400.0 0.9670833607 -0.2431219934
12150227100.0 0.962509121 -0.2591837382
12200226800.0 0.9590612043 -0.2703889351
12250226500.0 0.954712848 -0.2830404607
12300226200.0 0.9512295895 -0.2951572342
12350225900.0 0.9460600296 -0.3086465483
12400225600.0 0.9421352331 -0.320928131
12450225300.0 0.9375279187 -0.3334036697
12500225000.0 0.9324823888 -0.3487072939
12550224700.0 0.9273481815 -0.3620545922
12600224400.0 0.9225602652 -0.3741584101
12650224100.0 0.9169003406 -0.3885674307
12700223800.0 0.9116325456 -0.4011865949
12750223500.0 0.9061232772 -0.4140081298
12800223200.0 0.900819562 -0.4264953955
12850222900.0 0.8957148997 -0.4382842245
12900222600.0 0.8895721321 -0.4503771453
12950222300.0 0.8830929633 -0.4641637452
13000222000.0 0.8774617457 -0.4749079941
13050221700.0 0.8699459999 -0.488178251
13100221400.0 0.8634051023 -0.500285969
13150221100.0 0.8563636154 -0.5127570585
13200220800.0 0.8492427439 -0.5241137809
13250220500.0 0.8417842748 -0.536746149
13300220200.0 0.834159464 -0.5476826657
13350219900.0 0.8258495951 -0.5599094955
13400219600.0 0.8175182196 -0.5721275096
13450219300.0 0.8082191409 -0.5853665864
13500219000.0 0.7976288281 -0.5994669125
13550218700.0 0.7879248556 -0.6119398077
13600218400.0 0.7783918499 -0.6238647936
13650218100.0 0.7682672786 -0.6346114974
13700217800.0 0.7574862636 -0.6478018513
13750217500.0 0.7478176258 -0.6593274053
13800217200.0 0.7363321167 -0.6704496895
13850216900.0 0.7259872199 -0.6818992782
13900216600.0 0.7160291453 -0.6914049332
13950216300.0 0.7053054049 -0.7014741928
14000216000.0 0.6955145896 -0.7107214923
14050215700.0 0.6859204188 -0.7191376165
14100215400.0 0.6760688845 -0.7285583445
14150215100.0 0.6668083515 -0.7368507944
14200214800.0 0.6575817542 -0.7456075486
14250214500.0 0.6473066883 -0.7546158802
14300214200.0 0.6371900548 -0.7638098319
14350213900.0 0.6263822159 -0.7730510636
14400213600.0 0.6148597506 -0.7828329709
14450213300.0 0.6022808661 -0.7922062751
14500213000.0 0.5898735454 -0.8021773655
14550212700.0 0.5771071734 -0.8111605177
14600212400.0 0.5649909309 -0.8198568725
14650212100.0 0.5525143288 -0.8287870834
14700211800.0 0.5379260072 -0.8380379468
14750211500.0 0.5260429822 -0.8464870748
14800211200.0 0.5135957388 -0.8541581467
14850210900.0 0.5014249289 -0.8615610425
14900210600.0 0.4881070272 -0.8694591878
14950210300.0 0.4745731105 -0.877129443
15000210000.0 0.4617144116 -0.8841283374
15050209700.0 0.4491947486 -0.8905858344
15100209400.0 0.4359448021 -0.8963527028
15150209100.0 0.4233352208 -0.902582636
15200208800.0 0.4100451691 -0.9079688071
15250208500.0 0.3990231423 -0.9130152612
15300208200.0 0.3852624429 -0.9181103559
15350207900.0 0.3721823446 -0.9224796196
15400207600.0 0.3576744947 -0.9276426468
15450207300.0 0.3425309285 -0.9337815856
15500207000.0 0.328248288 -0.9373774257
15550206700.0 0.3135363807 -0.9430165289
15600206400.0 0.2982564447 -0.9478024965
15650206100.0 0.2830492655 -0.9515649853
15700205800.0 0.2687756245 -0.9557883361
15750205500.0 0.2545362499 -0.9590449859
15800205200.0 0.2402241109 -0.9626697559
15850204900.0 0.2260047227 -0.9660562405
15900204600.0 0.2112850907 -0.9696004886
15950204300.0 0.1973324985 -0.9723057889
16000204000.0 0.1831385309 -0.9751340503
16050203700.0 0.1689431393 -0.9779073775
16100203400.0 0.154567063 -0.9804129055
16150203100.0 0.1405209937 -0.9826603307
16200202800.0 0.1263877162 -0.9845983051
16250202500.0 0.1121734944 -0.9862060289
16300202200.0 0.0970571247 -0.9882463242
16350201900.0 0.0821069126 -0.9893136485
16400201600.0 0.0676425642 -0.9903964135
16450201300.0 0.0526305369 -0.9912346516
16500201000.0 0.0363179804 -0.992175638
16550200700.0 0.0206428897 -0.9927081101
16600200400.0 0.0049139591 -0.9929355546
16650200100.0 -0.0114584873 -0.9929307978
16700199800.0 -0.0277514778 -0.9927296179
16750199500.0 -0.0463839121 -0.9919395127
16800199200.0 -0.0622882911 -0.9909124321
16850198900.0 -0.0787983238 -0.9893706948
16900198600.0 -0.0925417926 -0.9889054313
16950198300.0 -0.1054556468 -0.9882205732
17000198000.0 -0.1191910939 -0.9856001191
17050197700.0 -0.13248492 -0.9845766363
17100197400.0 -0.145453115 -0.9823423258
17150197100.0 -0.1589297931 -0.9806393073
17200196800.0 -0.1720814379 -0.977645689
17250196500.0 -0.185176678 -0.9752236318
17300196200.0 -0.1975575492 -0.973226114
17350195900.0 -0.2100562178 -0.970850272
17400195600.0 -0.2223141602 -0.9681743419
17450195300.0 -0.2354930717 -0.9653422776
17500195000.0 -0.2488568461 -0.962043383
17550194700.0 -0.2628704889 -0.9585557182
17600194400.0 -0.2771255167 -0.9543296975
17650194100.0 -0.2905280098 -0.9505042637
17700193800.0 -0.3033803212 -0.9460194305
17750193500.0 -0.3174609704 -0.9417689897
17800193200.0 -0.3313591139 -0.9370571867
17850192900.0 -0.3461384145 -0.9313477396
17900192600.0 -0.3608045304 -0.9257153673
17950192300.0 -0.3761161641 -0.9187216971
18000192000.0 -0.3906436962 -0.9119374235
18050191700.0 -0.404303548 -0.9042558386
18100191400.0 -0.4185105168 -0.8967725043
18150191100.0 -0.433033652 -0.889082513
18200190800.0 -0.4492630472 -0.8802941139
18250190500.0 -0.4659837975 -0.8714455469
18300190200.0 -0.481340818 -0.8626694556
18350189900.0 -0.4960474745 -0.8541700354
18400189600.0 -0.5105474198 -0.8459484817
18450189300.0 -0.5240061671 -0.8380185728
18500189000.0 -0.5373697397 -0.8298889211
18550188700.0 -0.5503818003 -0.8217518557
18600188400.0 -0.5627558666 -0.8147531811
18650188100.0 -0.5739315833 -0.8080300029
18700187800.0 -0.5849954137 -0.8006586142
18750187500.0 -0.5960740546 -0.7938811245
18800187200.0 -0.6071990112 -0.7861106084
18850186900.0 -0.6177770168 -0.7788068614
18900186600.0 -0.6283979697 -0.7710201904
18950186300.0 -0.6389334395 -0.762651443
19000186000.0 -0.6469622046 -0.7559836271
19050185700.0 -0.6562937643 -0.748187461
19100185400.0 -0.6661588888 -0.7396314251
19150185100.0 -0.676812215 -0.7300632217
19200184800.0 -0.6864587674 -0.7220875744
19250184500.0 -0.6968254493 -0.7127799112
19300184200.0 -0.7081462109 -0.7030676593
19350183900.0 -0.7180294422 -0.6936155408
19400183600.0 -0.727988509 -0.6841795431
19450183300.0 -0.7372927922 -0.6737229599
19500183000.0 -0.7448641298 -0.6639440002
19550182700.0 -0.7538742199 -0.6529716526
19600182400.0 -0.7639862408 -0.6418225142
19650182100.0 -0.7748437428 -0.6296116682
19700181800.0 -0.7848497726 -0.6167649928
19750181500.0 -0.7948740083 -0.6035231853
19800181200.0 -0.8046858972 -0.5893206279
19850180900.0 -0.8144931471 -0.5748963452
19900180600.0 -0.8221811005 -0.5610817412
19950180300.0 -0.8313802318 -0.5453528987
20000180000.0 -0.8279333897 -0.5443271188
20050179700.0 -0.8357130459 -0.532358284
20100179400.0 -0.8441035386 -0.5182785339
20150179100.0 -0.8510424045 -0.5060304887
20200178800.0 -0.8598193444 -0.4933661479
20250178500.0 -0.868627132 -0.4809422913
20300178200.0 -0.8782712961 -0.4665239256
20350177900.0 -0.886245827 -0.4522856016
20400177600.0 -0.8948367585 -0.4385221744
20450177300.0 -0.9031153079 -0.4238551566
20500177000.0 -0.9105604393 -0.4097154079
20550176700.0 -0.9183267296 -0.396296057
20600176400.0 -0.9250524088 -0.3830458964
20650176100.0 -0.9314853519 -0.3698410056
20700175800.0 -0.9379063601 -0.357754127
20750175500.0 -0.944780496 -0.3458223992
20800175200.0 -0.9497955013 -0.3342854654
20850174900.0 -0.9545163222 -0.3232035046
20900174600.0 -0.9589968759 -0.3095897936
20950174300.0 -0.9636908654 -0.2990265247
21000174000.0 -0.9667989926 -0.2866172804
21050173700.0 -0.9703137757 -0.275313942
21100173400.0 -0.9738624642 -0.2629766831
21150173100.0 -0.9779379062 -0.2503772508
21200172800.0 -0.9813578149 -0.2363324424
21250172500.0 -0.9845369814 -0.2226054133
21300172200.0 -0.9872076296 -0.2085874546
21350171900.0 -0.9891517183 -0.194518461
21400171600.0 -0.9906105111 -0.1799995299
21450171300.0 -0.991260553 -0.1656862067
21500171000.0 -0.9912311767 -0.1504756959
21550170700.0 -0.9912649945 -0.1351994308
21600170400.0 -0.992040596 -0.1198239429
21650170100.0 -0.9919341235 -0.105190876
21700169800.0 -0.9905862633 -0.0900143087
21750169500.0 -0.9907601369 -0.0739958798
21800169200.0 -0.9885835682 -0.0579609488
21850168900.0 -0.9887675895 -0.0420598126
21900168600.0 -0.9863175852 -0.0258074519
21950168300.0 -0.985530066 -0.0112455408
22000168000.0 -0.9844388473 0.0040300037
22050167700.0 -0.9839738626 0.0182506037
22100167400.0 -0.984160112 0.0330752137
22150167100.0 -0.9842629254 0.0480103414
22200166800.0 -0.9843127687 0.0640270393
22250166500.0 -0.9835177272 0.0809480297
22300166200.0 -0.9826419278 0.0972929019
22350165900.0 -0.9814669568 0.1132995689
22400165600.0 -0.9795951053 0.1290554615
22450165300.0 -0.9779318305 0.1432157363
22500165000.0 -0.9754652551 0.156823423
22550164700.0 -0.9746324758 0.1725220099
22600164400.0 -0.9735216972 0.1872032746
22650164100.0 -0.9705148847 0.2024253588
22700163800.0 -0.9677841175 0.2176493628
22750163500.0 -0.9654085585 0.2327806231
22800163200.0 -0.962830408 0.2463689908
22850162900.0 -0.9601093786 0.2598350839
22900162600.0 -0.9582255778 0.2731313183
22950162300.0 -0.9566840198 0.2863353953
23000162000.0 -0.955422563 0.2985688163
23050161700.0 -0.9530085294 0.3112578042
23100161400.0 -0.9506900492 0.3241046688
23150161100.0 -0.947863067 0.3361250113
23200160800.0 -0.9443963771 0.3485064276
23250160500.0 -0.9417174958 0.3604958447
23300160200.0 -0.9398368516 0.3728489566
23350159900.0 -0.9354886855 0.3859456089
23400159600.0 -0.9310703677 0.3982182968
23450159300.0 -0.9256136017 0.4112488997
23500159000.0 -0.9214512418 0.4240360233
23550158700.0 -0.9171155682 0.436907857
23600158400.0 -0.911692001 0.4498808576
23650158100.0 -0.9052841365 0.4635980698
23700157800.0 -0.8979046255 0.4769346407
23750157500.0 -0.8898269526 0.490319526
23800157200.0 -0.8813819536 0.5036358205
23850156900.0 -0.8729884281 0.5163382981
23900156600.0 -0.8639090425 0.5285733648
23950156300.0 -0.8547269952 0.5411124096
24000156000.0 -0.8458875117 0.5526024228
24050155700.0 -0.8369148322 0.5643927878
24100155400.0 -0.8266921265 0.5767558362
24150155100.0 -0.8158377381 0.5885558727
24200154800.0 -0.8054184589 0.5996236151
24250154500.0 -0.7947835122 0.6114626943
24300154200.0 -0.7834718593 0.6230149577
24350153900.0 -0.7716006473 0.6340031891
24400153600.0 -0.7599689281 0.6446412215
24450153300.0 -0.7486010815 0.6548173171
24500153000.0 -0.7371000309 0.664848891
24550152700.0 -0.7264158868 0.6750117691
24600152400.0 -0.7150456476 0.6842379159
24650152100.0 -0.7031537799 0.6927400422
