!Created with skrf (http://scikit-rf.org).
# Hz S RI R 50.0 
!freq ReS11 ImS11
300000.0 -0.9733235382 -0.1208788621
50299700.0 -0.9999203228 0.0151431164
100299400.0 -0.9978479758 0.0280637815
150299100.0 -1.002656385 0.0450532841
200298800.0 -0.9994067702 0.0582668986
250298500.0 -0.9973039079 0.0717338892
300298200.0 -0.9860930806 0.0877733044
350297900.0 -0.9940244841 0.0984201125
400297600.0 -0.9931511166 0.114755664
450297300.0 -0.9908781918 0.1288814116
500297000.0 -0.989379863 0.1435546554
550296700.0 -0.9842553001 0.1559811193
600296400.0 -1.017253771 0.1891274484
650296100.0 -0.982261678 0.186063969
700295800.0 -0.9793627169 0.2003276086
750295500.0 -0.9763645534 0.2142553157
800295200.0 -0.9728631464 0.228410918
850294900.0 -0.9696155996 0.2420357232
900294600.0 -0.9658885613 0.2557681014
950294300.0 -0.962088734 0.2694166152
1000294000.0 -0.95801551 0.2835410685
1050293700.0 -0.9534918274 0.2973415012
1100293400.0 -0.9492892325 0.3116706363
1150293100.0 -0.9453819584 0.3234686236
1200292800.0 -0.9402578322 0.3379899239
1250292500.0 -0.9345582054 0.3512713505
1300292200.0 -0.9290633509 0.3645782303
1350291900.0 -0.9235039656 0.378556642
1400291600.0 -0.9179993085 0.3917814531
1450291300.0 -0.9124925063 0.4041198176
1500291000.0 -0.9060421975 0.4174505908
1550290700.0 -0.8997270421 0.4309152142
1600290400.0 -0.893303862 0.4437582412
1650290100.0 -0.8868070475 0.4558485692
1700289800.0 -0.8796468219 0.4693066929
1750289500.0 -0.8728769954 0.4816590989
1800289200.0 -0.865622495 0.4946787303
1850288900.0 -0.8588243963 0.5060837048
1900288600.0 -0.8509127408 0.518955425
1950288300.0 -0.842882857 0.5313352351
2000288000.0 -0.8354261041 0.5429381791
2050287700.0 -0.8271057447 0.5552751723
2100287400.0 -0.8193530079 0.5667195393
2150287100.0 -0.8107846398 0.5789098809
2200286800.0 -0.8029678484 0.5891586665
2250286500.0 -0.7942268094 0.6014020909
2300286200.0 -0.785293736 0.6129222125
2350285900.0 -0.7765537302 0.6236845188
2400285600.0 -0.7676556276 0.6349665627
2450285300.0 -0.7591915564 0.6451326075
2500285000.0 -0.7491972978 0.6566822674
2550284700.0 -0.740559836 0.6667729999
2600284400.0 -0.7309501656 0.6768807931
2650284100.0 -0.7219693624 0.6873622386
2700283800.0 -0.7116949169 0.6979542486
2750283500.0 -0.701077752 0.7084573672
2800283200.0 -0.6913735994 0.7181874361
2850282900.0 -0.6810927767 0.7280980478
2900282600.0 -0.6706833532 0.7378853466
2950282300.0 -0.6606034512 0.7472336823
3000282000.0 -0.6497837461 0.7565676507
3050281700.0 -0.6386611835 0.7660204589
3100281400.0 -0.6268675457 0.7751572669
3150281100.0 -0.6151942302 0.7844119327
3200280800.0 -0.6035379534 0.7927114032
3250280500.0 -0.5926658643 0.8005401824
3300280200.0 -0.5814328125 0.8085184885
3350279900.0 -0.569538943 0.816470104
3400279600.0 -0.5573305243 0.8241050838
3450279300.0 -0.5461925686 0.8312754498
3500279000.0 -0.5342653627 0.8381995772
3550278700.0 -0.5219294696 0.8456489385
3600278400.0 -0.5098312025 0.8525352224
3650278100.0 -0.4966020535 0.8601094122
3700277800.0 -0.4844652494 0.8665915627
3750277500.0 -0.4722742867 0.8731300941
3800277200.0 -0.4599825629 0.8797105971
3850276900.0 -0.4477106117 0.8856866895
3900276600.0 -0.4370707159 0.8914417674
3950276300.0 -0.4245592795 0.8974660383
4000276000.0 -0.41279665 0.9032220311
4050275700.0 -0.3999361211 0.9093505731
4100275400.0 -0.3886156487 0.9146383933
4150275100.0 -0.3759051176 0.9204491268
4200274800.0 -0.3627711217 0.9260571758
4250274500.0 -0.3503491927 0.9311027838
4300274200.0 -0.3372668564 0.9366946935
4350273900.0 -0.3234205861 0.9420118436
4400273600.0 -0.3086479334 0.9472707753
4450273300.0 -0.2933835709 0.9521262621
4500273000.0 -0.2799419883 0.9566467237
4550272700.0 -0.2658913994 0.9606320567
4600272400.0 -0.250771621 0.9649237908
4650272100.0 -0.2390780897 0.9681654443
4700271800.0 -0.2259404682 0.9713772989
4750271500.0 -0.2142449911 0.9741981682
4800271200.0 -0.2017840639 0.9770373809
4850270900.0 -0.1879611137 0.9797783314
4900270600.0 -0.1741769886 0.9822423379
4950270300.0 -0.1596475824 0.9846197567
5000270000.0 -0.1454185606 0.9868717551
5050269700.0 -0.1318059377 0.9884028287
5100269400.0 -0.1179548472 0.9901244525
5150269100.0 -0.104272188 0.9918262709
5200268800.0 -0.0912322049 0.9928461502
5250268500.0 -0.0785128013 0.9935407858
5300268200.0 -0.0648858611 0.9945420643
5350267900.0 -0.0523866634 0.9951407973
5400267600.0 -0.0361069891 0.9964289619
5450267300.0 -0.0228229733 0.9966833593
5500267000.0 -0.0075539392 0.9969727228
5550266700.0 0.0071590691 0.9972677601
5600266400.0 0.0227808897 0.997118199
5650266100.0 0.039368777 0.9968928931
5700265800.0 0.0536590117 0.995954335
5750265500.0 0.0686698323 0.9953279308
5800265200.0 0.0824472774 0.993896149
5850264900.0 0.0956364647 0.9932433399
5900264600.0 0.112356042 0.9918897993
5950264300.0 0.1244144681 0.9898981044
6000264000.0 0.1379138905 0.9883525802
6050263700.0 0.1504421904 0.9871172629
6100263400.0 0.1625927564 0.9848246201
6150263100.0 0.1771737513 0.9828213893
6200262800.0 0.1873462629 0.9810231203
6250262500.0 0.1998310422 0.9785343257
6300262200.0 0.2125277674 0.9758694225
6350261900.0 0.2256737161 0.9731250771
6400261600.0 0.2392216589 0.9697137037
6450261300.0 0.2506637793 0.9672361943
6500261000.0 0.2638061442 0.9634005674
6550260700.0 0.2767715818 0.9597276096
6600260400.0 0.2900147313 0.955469865
6650260100.0 0.3041078721 0.9510490111
6700259800.0 0.3164468479 0.9468692351
6750259500.0 0.3299163128 0.9419962001
6800259200.0 0.3432447802 0.9368655624
6850258900.0 0.3549879193 0.931851205
6900258600.0 0.3677860869 0.9265828439
6950258300.0 0.3799613415 0.9213448891
7000258000.0 0.3920579315 0.91566199
7050257700.0 0.4041212624 0.9100526756
7100257400.0 0.4171562726 0.9037199252
7150257100.0 0.4276133126 0.8984809971
7200256800.0 0.4403339534 0.8918587878
7250256500.0 0.4528385996 0.8854641139
7300256200.0 0.4658452247 0.8787365536
7350255900.0 0.4784706335 0.8718017397
7400255600.0 0.4920963397 0.8645240017
7450255300.0 0.5072296673 0.8555007594
7500255000.0 0.519174137 0.8484539977
7550254700.0 0.5333857297 0.8395630635
7600254400.0 0.5455147861 0.8313096179
7650254100.0 0.5572643222 0.8234123649
7700253800.0 0.5693277286 0.8154326981
7750253500.0 0.5800213298 0.807725165
7800253200.0 0.5907730704 0.8000089209
7850252900.0 0.6004854996 0.7929764535
7900252600.0 0.6122268661 0.7842036879
7950252300.0 0.6207116248 0.7779715503
8000252000.0 0.630838482 0.7700890849
8050251700.0 0.641412179 0.761930614
8100251400.0 0.6513733839 0.753990605
8150251100.0 0.6612705039 0.7452828894
8200250800.0 0.67122389 0.7374007937
8250250500.0 0.6794302309 0.7292478412
8300250200.0 0.6890819838 0.7208001352
8350249900.0 0.6983114033 0.7120693207
8400249600.0 0.7062417078 0.7040131906
8450249300.0 0.7154560779 0.6950507647
8500249000.0 0.7239107859 0.6862252404
8550248700.0 0.7322703568 0.6769915414
8600248400.0 0.7405853322 0.6676364757
8650248100.0 0.7483363259 0.6580971382
8700247800.0 0.757850608 0.6469686763
8750247500.0 0.7662081545 0.636786908
8800247200.0 0.7741778138 0.6264744702
8850246900.0 0.7831352365 0.61504215
8900246600.0 0.7915370696 0.6038213955
8950246300.0 0.800713585 0.5909289574
9000246000.0 0.8099280542 0.5783863879
9050245700.0 0.8186940138 0.5658012911
9100245400.0 0.8270721922 0.553415727
9150245100.0 0.8366401488 0.5397108489
9200244800.0 0.8461163032 0.5251898768
9250244500.0 0.8554719574 0.5099272268
9300244200.0 0.8638774244 0.4957019614
9350243900.0 0.8714713583 0.4820284507
9400243600.0 0.8779954575 0.4698887494
9450243300.0 0.8837801269 0.4587823324
9500243000.0 0.8901771977 0.4467350475
9550242700.0 0.8939960947 0.4391097073
9600242400.0 0.8980599555 0.4316470699
9650242100.0 0.9016657011 0.4250074131
9700241800.0 0.9066205153 0.4167642125
9750241500.0 0.9106368352 0.4092959829
9800241200.0 0.9156127034 0.3996622077
9850240900.0 0.9210984863 0.3880488831
9900240600.0 0.927131619 0.3765448883
9950240300.0 0.9335459994 0.3604311102
10000240000.0 0.9381883014 0.348726879
10050239700.0 0.9443974876 0.3326091592
10100239400.0 0.9493062537 0.3172253992
10150239100.0 0.9537591604 0.3023856423
10200238800.0 0.9581768372 0.2869982586
10250238500.0 0.9614807327 0.2734271319
10300238200.0 0.9647733016 0.2594586206
10350237900.0 0.967132758 0.2464477644
10400237600.0 0.9696298452 0.2331989545
10450237300.0 0.9723309981 0.2195491275
10500237000.0 0.9747621764 0.207158163
10550236700.0 0.9770408571 0.1930444931
10600236400.0 0.9794798931 0.1784138979
10650236100.0 0.9815321652 0.1641794489
10700235800.0 0.9832417837 0.152525645
10750235500.0 0.9859585826 0.1389723009
10800235200.0 0.9880239686 0.1244161744
10850234900.0 0.9898991395 0.109804558
10900234600.0 0.9919765224 0.0953273988
10950234300.0 0.9935389284 0.0819460987
11000234000.0 0.9952472056 0.0666572309
11050233700.0 0.9971310966 0.0500507988
11100233400.0 0.9986182344 0.0322179241
11150233100.0 0.9997984015 0.0160272738
11200232800.0 1.000170224 0.0004038632
11250232500.0 1.001323946 -0.016314625
11300232200.0 1.002054754 -0.0342342742
11350231900.0 1.002032816 -0.0500325218
11400231600.0 1.001178858 -0.065669763
11450231300.0 1.001726829 -0.0823861321
11500231000.0 1.000027816 -0.097608051
11550230700.0 0.9986601642 -0.1111709828
11600230400.0 0.9970564734 -0.1236648833
11650230100.0 0.9949837796 -0.1349665039
11700229800.0 0.993015525 -0.149373774
11750229500.0 0.9905737621 -0.1641368851
11800229200.0 0.9878799985 -0.1776847608
11850228900.0 0.9843625882 -0.1896619117
11900228600.0 0.9804749314 -0.1997553617
11950228300.0 0.9775548117 -0.2097846835
12000228000.0 0.9745883829 -0.2186720659
12050227700.0 0.9710969407 -0.2319945706
12100227400.0 0.9674558009 -0.2429578759
12150227100.0 0.9628620679 -0.2585626498
12200226800.0 0.9591906446 -0.2700648321
12250226500.0 0.954890002 -0.2829487928
12300226200.0 0.9512758629 -0.2945577969
12350225900.0 0.9462687265 -0.3088236527
12400225600.0 0.9422156449 -0.3219364664
12450225300.0 0.9374008231 -0.3342535637
12500225000.0 0.931430342 -0.3491732941
12550224700.0 0.9262129304 -0.3631940437
12600224400.0 0.9213977941 -0.3757976962
12650224100.0 0.915699521 -0.3902897268
12700223800.0 0.9104511345 -0.4030848168
12750223500.0 0.9047586138 -0.4164787912
12800223200.0 0.8993890932 -0.4289866817
12850222900.0 0.8943905685 -0.4403983595
12900222600.0 0.8881752157 -0.4527470814
12950222300.0 0.8825532539 -0.4657117696
13000222000.0 0.8761014135 -0.4771826609
13050221700.0 0.8696621643 -0.4893401618
13100221400.0 0.8627601169 -0.5020465292
13150221100.0 0.8562931906 -0.5145884322
13200220800.0 0.8490581339 -0.525673712
13250220500.0 0.8418380426 -0.5379038104
13300220200.0 0.8342665691 -0.548776491
13350219900.0 0.8263830414 -0.560630211
13400219600.0 0.8182225075 -0.5726096662
13450219300.0 0.8086871115 -0.5859510581
13500219000.0 0.7989169514 -0.5996501392
13550218700.0 0.7884448241 -0.6121382444
13600218400.0 0.7789691256 -0.624217614
13650218100.0 0.7686608043 -0.6354003515
13700217800.0 0.7584806796 -0.6470442378
13750217500.0 0.7478048118 -0.6583262293
13800217200.0 0.7372605736 -0.6701707951
13850216900.0 0.7273480257 -0.6814930673
13900216600.0 0.7165815199 -0.6896287716
13950216300.0 0.7054125737 -0.700689818
14000216000.0 0.6956362456 -0.709306457
14050215700.0 0.6863422058 -0.7178700612
14100215400.0 0.6766824042 -0.7272735454
14150215100.0 0.667436464 -0.7356468993
14200214800.0 0.6577518215 -0.7444212412
14250214500.0 0.6474583873 -0.7538105904
14300214200.0 0.6370859767 -0.7631757706
14350213900.0 0.6259068627 -0.7728902475
14400213600.0 0.6143224754 -0.7828022618
14450213300.0 0.6006297463 -0.793262156
14500213000.0 0.588433359 -0.8026518158
14550212700.0 0.5751658603 -0.8124058782
14600212400.0 0.5627690387 -0.8211736211
14650212100.0 0.549762784 -0.8294888527
14700211800.0 0.5361492102 -0.8391557525
14750211500.0 0.524209022 -0.8471071643
14800211200.0 0.5118472787 -0.8556596923
14850210900.0 0.4995563653 -0.8630275131
14900210600.0 0.4864026756 -0.8709092028
14950210300.0 0.4731405145 -0.8785464682
15000210000.0 0.460287403 -0.885421824
15050209700.0 0.448271387 -0.8914185837
15100209400.0 0.4355612556 -0.8975193893
15150209100.0 0.4235372182 -0.9027526643
15200208800.0 0.4100465082 -0.9082253268
15250208500.0 0.3982972207 -0.9129033677
15300208200.0 0.3870656585 -0.9173288885
15350207900.0 0.3747783543 -0.9220893507
15400207600.0 0.3588521516 -0.9280402814
15450207300.0 0.3450966637 -0.9321371471
15500207000.0 0.3305641319 -0.9376581867
15550206700.0 0.3158374372 -0.9420727771
15600206400.0 0.2998459936 -0.9471148761
15650206100.0 0.2838257955 -0.9509111091
15700205800.0 0.270008171 -0.9545166895
15750205500.0 0.2555944149 -0.9582283216
15800205200.0 0.24142661 -0.9617646588
15850204900.0 0.2269890063 -0.9651961965
15900204600.0 0.2119466082 -0.9685928506
15950204300.0 0.1979820731 -0.9718429247
16000204000.0 0.1834539778 -0.9746426378
16050203700.0 0.168435682 -0.9775677222
16100203400.0 0.1537425893 -0.9793277331
16150203100.0 0.1392010531 -0.9819403832
16200202800.0 0.1253447119 -0.9840372751
16250202500.0 0.1100910505 -0.9858870054
16300202200.0 0.094508234 -0.9874982154
16350201900.0 0.0798863444 -0.9891898121
16400201600.0 0.0652053816 -0.9902497077
16450201300.0 0.0496520981 -0.9911957131
16500201000.0 0.0330358818 -0.9920307402
16550200700.0 0.0171080724 -0.9925170802
16600200400.0 0.0014524278 -0.9928709592
16650200100.0 -0.0145709865 -0.9928653228
16700199800.0 -0.0309536813 -0.9924838199
16750199500.0 -0.0502702884 -0.9915336583
16800199200.0 -0.0655473814 -0.9910054126
16850198900.0 -0.080782585 -0.9895513326
16900198600.0 -0.0945727459 -0.9889597194
16950198300.0 -0.1078783189 -0.9880261076
17000198000.0 -0.1210950212 -0.9861728901
17050197700.0 -0.1335856246 -0.9846941653
17100197400.0 -0.1463395104 -0.9825329014
17150197100.0 -0.1596195605 -0.980040111
17200196800.0 -0.1722702772 -0.9782198904
17250196500.0 -0.1850836508 -0.9756019136
17300196200.0 -0.1970187124 -0.9735708078
17350195900.0 -0.2091880462 -0.9713141651
17400195600.0 -0.2213235098 -0.9687915386
17450195300.0 -0.2342990236 -0.9657464082
17500195000.0 -0.2478801345 -0.9623747634
17550194700.0 -0.2616803799 -0.9589754774
17600194400.0 -0.275383194 -0.9548285209
17650194100.0 -0.2891005049 -0.9507977845
17700193800.0 -0.301823562 -0.9465483586
17750193500.0 -0.3165543312 -0.9420570423
17800193200.0 -0.3308011721 -0.9365207253
17850192900.0 -0.3460380808 -0.9315806041
17900192600.0 -0.3611756851 -0.9252893399
17950192300.0 -0.3770307919 -0.9184144301
18000192000.0 -0.3912856242 -0.9111351262
18050191700.0 -0.405338179 -0.903297432
18100191400.0 -0.4195114068 -0.8956040222
18150191100.0 -0.4344620275 -0.8876016357
18200190800.0 -0.4513761159 -0.8786063081
18250190500.0 -0.468658526 -0.8690328051
18300190200.0 -0.4840646898 -0.8603162932
18350189900.0 -0.4992142385 -0.8521171633
18400189600.0 -0.5133435118 -0.8434560363
18450189300.0 -0.5269457706 -0.8359436559
18500189000.0 -0.5401096046 -0.8276762237
18550188700.0 -0.5529090438 -0.8200791718
18600188400.0 -0.5645323834 -0.8131703031
18650188100.0 -0.5757327449 -0.8069957269
18700187800.0 -0.586275909 -0.8002977297
18750187500.0 -0.5970003846 -0.7939226507
18800187200.0 -0.6075578319 -0.7866612021
18850186900.0 -0.6179422066 -0.7798033886
18900186600.0 -0.6280588007 -0.7725568754
18950186300.0 -0.6379343435 -0.7648818766
19000186000.0 -0.6451594987 -0.7589085566
19050185700.0 -0.6544145422 -0.7511373091
19100185400.0 -0.6649794667 -0.7428872577
19150185100.0 -0.6748658312 -0.734496393
19200184800.0 -0.6841436228 -0.7266586116
19250184500.0 -0.6936426487 -0.7169217493
19300184200.0 -0.7056660817 -0.7077223046
19350183900.0 -0.716423008 -0.6981268695
19400183600.0 -0.7257137351 -0.6879605179
19450183300.0 -0.7354295827 -0.6774717503
19500183000.0 -0.7434289443 -0.6683195912
19550182700.0 -0.7530351521 -0.6570298348
19600182400.0 -0.7636244862 -0.6457741716
19650182100.0 -0.7740539832 -0.6328206033
19700181800.0 -0.7850344384 -0.6196426541
19750181500.0 -0.7955892283 -0.6055134611
19800181200.0 -0.8058997674 -0.5906134625
19850180900.0 -0.8158119549 -0.5752556283
19900180600.0 -0.8232412191 -0.5606681561
19950180300.0 -0.832686025 -0.5447178516
20000180000.0 -0.8251108501 -0.5471109584
20050179700.0 -0.8323415748 -0.5341214022
20100179400.0 -0.8418582527 -0.5210689432
20150179100.0 -0.8494748439 -0.5084093552
20200178800.0 -0.8584174089 -0.4957150517
20250178500.0 -0.868001493 -0.483658887
20300178200.0 -0.877382555 -0.4687783082
20350177900.0 -0.8866340794 -0.4544784719
20400177600.0 -0.895358826 -0.4398964808
20450177300.0 -0.9037886829 -0.425703271
20500177000.0 -0.9119531452 -0.4117576404
20550176700.0 -0.9197433033 -0.3983112961
20600176400.0 -0.9273541417 -0.3850960255
20650176100.0 -0.9335006429 -0.3725256906
20700175800.0 -0.9399208399 -0.3615422867
20750175500.0 -0.9472564144 -0.3496327799
20800175200.0 -0.9509480645 -0.3386779651
20850174900.0 -0.9558441863 -0.3276366311
20900174600.0 -0.9600167616 -0.3160983076
20950174300.0 -0.9643801956 -0.3058928946
21000174000.0 -0.967213607 -0.2941019209
21050173700.0 -0.9691082798 -0.2836565123
21100173400.0 -0.9734889828 -0.2721349831
21150173100.0 -0.977837677 -0.2593693795
21200172800.0 -0.9814611929 -0.2464004678
21250172500.0 -0.984386653 -0.2326980226
21300172200.0 -0.9875088108 -0.2188154747
21350171900.0 -0.9888608447 -0.2045722389
21400171600.0 -0.990880737 -0.1900094452
21450171300.0 -0.9911469288 -0.1760332212
21500171000.0 -0.9915951775 -0.1609395735
21550170700.0 -0.9914060626 -0.1456792198
21600170400.0 -0.9924736058 -0.1301931996
21650170100.0 -0.9915729697 -0.1143455316
21700169800.0 -0.9903581076 -0.0991549637
21750169500.0 -0.9887508902 -0.0832807763
21800169200.0 -0.9891756833 -0.0661087501
21850168900.0 -0.9885346148 -0.0495156101
21900168600.0 -0.9878630469 -0.0326691256
21950168300.0 -0.9859840016 -0.0174459329
22000168000.0 -0.9854683454 -0.0021843621
22050167700.0 -0.985864911 0.0118077431
22100167400.0 -0.9862337692 0.0276602834
22150167100.0 -0.986463326 0.0430871841
22200166800.0 -0.9872648338 0.0595550273
22250166500.0 -0.9861023399 0.076766185
22300166200.0 -0.9857987473 0.0931959464
22350165900.0 -0.9847576802 0.1096768115
22400165600.0 -0.983380968 0.1256065418
22450165300.0 -0.9821654606 0.1412400091
22500165000.0 -0.9794195537 0.1548870642
22550164700.0 -0.9787277789 0.16873316
22600164400.0 -0.9763210018 0.1856618808
22650164100.0 -0.9736700068 0.2004728561
22700163800.0 -0.9711345256 0.2166300148
22750163500.0 -0.9688268876 0.2310856142
22800163200.0 -0.965843333 0.2447614186
22850162900.0 -0.9632719088 0.2581516546
22900162600.0 -0.9617003708 0.2715166288
22950162300.0 -0.9603059469 0.2845956767
23000162000.0 -0.9587258502 0.2967991451
23050161700.0 -0.9563339467 0.3096725321
23100161400.0 -0.9538125126 0.3229817233
23150161100.0 -0.9517317965 0.3352710474
23200160800.0 -0.948228321 0.3480596979
23250160500.0 -0.9458969132 0.3597930121
23300160200.0 -0.943101625 0.3717326757
23350159900.0 -0.9393636963 0.385753414
23400159600.0 -0.9344629803 0.3990260352
23450159300.0 -0.9290641754 0.4125569601
23500159000.0 -0.9246167705 0.4255029911
23550158700.0 -0.9206799452 0.4391276496
23600158400.0 -0.9148519329 0.4529398543
23650158100.0 -0.9082452841 0.4670047044
23700157800.0 -0.9004194487 0.4809345408
23750157500.0 -0.8915435484 0.4950163049
23800157200.0 -0.8818842874 0.5085326896
23850156900.0 -0.8734904087 0.5208330022
23900156600.0 -0.8634051839 0.533836611
23950156300.0 -0.8544479601 0.5463509417
24000156000.0 -0.8452965514 0.5588550529
24050155700.0 -0.8353655803 0.5710907812
24100155400.0 -0.8248136691 0.5823003197
24150155100.0 -0.8141429727 0.5941207235
24200154800.0 -0.8033201674 0.6062770539
24250154500.0 -0.7922173146 0.6180936155
24300154200.0 -0.7807159113 0.6296750336
24350153900.0 -0.7688972707 0.6401281729
24400153600.0 -0.7565664215 0.6505781781
24450153300.0 -0.7446365379 0.6605176673
24500153000.0 -0.7330741689 0.6703951795
24550152700.0 -0.7219887185 0.6800432202
24600152400.0 -0.7100144119 0.6896151053
24650152100.0 -0.6986181157 0.6981784936
