!Created with skrf (http://scikit-rf.org).
# Hz S RI R 50.0 
!freq ReS11 ImS11
300000.0 -0.9791263674 -0.1046306315
50299700.0 -1.000041846 0.0161821256
100299400.0 -0.998079691 0.02903411
150299100.0 -1.002861049 0.045843152
200298800.0 -0.9995660934 0.0591305293
250298500.0 -0.9974671064 0.0726215918
300298200.0 -0.9860279035 0.0886034529
350297900.0 -0.9941827965 0.0994150182
400297600.0 -0.9932757887 0.1160463834
450297300.0 -0.9910398005 0.1299873573
500297000.0 -0.9895893639 0.1446682405
550296700.0 -0.9843107873 0.1569425691
600296400.0 -1.017232976 0.1905588393
650296100.0 -0.9822996968 0.1870838627
700295800.0 -0.979212686 0.2013151009
750295500.0 -0.9762091253 0.2151495614
800295200.0 -0.9727703065 0.2295526629
850294900.0 -0.9693203 0.2432257551
900294600.0 -0.9656004297 0.2571266234
950294300.0 -0.9616964252 0.2708601625
1000294000.0 -0.9578446101 0.2847568506
1050293700.0 -0.9533063681 0.2985021473
1100293400.0 -0.9490848471 0.3131207063
1150293100.0 -0.9451284114 0.3248935228
1200292800.0 -0.939820255 0.3391665835
1250292500.0 -0.9342529542 0.3525016149
1300292200.0 -0.9287270143 0.3657333534
1350291900.0 -0.9230408329 0.3797708436
1400291600.0 -0.9175937659 0.3927893468
1450291300.0 -0.9122586576 0.4053169313
1500291000.0 -0.9059754487 0.4186067079
1550290700.0 -0.8993817331 0.4318116796
1600290400.0 -0.8932348007 0.4448611149
1650290100.0 -0.8864375774 0.4567495149
1700289800.0 -0.8795167522 0.4704000693
1750289500.0 -0.8723181416 0.4825861545
1800289200.0 -0.8652476778 0.4955458209
1850288900.0 -0.8583650392 0.5068730544
1900288600.0 -0.8507058468 0.5199224574
1950288300.0 -0.8423543542 0.5324212918
2000288000.0 -0.8350746683 0.5438048635
2050287700.0 -0.8268203989 0.5560635339
2100287400.0 -0.8186149573 0.5679497539
2150287100.0 -0.8099744076 0.5800919182
2200286800.0 -0.8023221652 0.5901991345
2250286500.0 -0.7934093659 0.6024296689
2300286200.0 -0.7844536939 0.6136772701
2350285900.0 -0.7756788197 0.6248571162
2400285600.0 -0.7666577466 0.6359047304
2450285300.0 -0.7582841397 0.6462715624
2500285000.0 -0.7483969597 0.6576071538
2550284700.0 -0.7393607597 0.6678332683
2600284400.0 -0.7299871824 0.6780333357
2650284100.0 -0.7208849068 0.688372755
2700283800.0 -0.7103383766 0.6990907849
2750283500.0 -0.7001347049 0.7098502085
2800283200.0 -0.690335644 0.7193862867
2850282900.0 -0.6802074605 0.7292010684
2900282600.0 -0.669670877 0.7388262046
2950282300.0 -0.6594977436 0.7478852527
3000282000.0 -0.6488247499 0.7574891025
3050281700.0 -0.6378236256 0.7667201843
3100281400.0 -0.6257347169 0.7762099609
3150281100.0 -0.614062831 0.7854482346
3200280800.0 -0.6024466196 0.7941021628
3250280500.0 -0.5916505794 0.8017797516
3300280200.0 -0.5804393074 0.8093946789
3350279900.0 -0.5690348281 0.8170414138
3400279600.0 -0.5570975683 0.8247900625
3450279300.0 -0.5458695691 0.8318848725
3500279000.0 -0.5336363105 0.8389121072
3550278700.0 -0.5213329829 0.8461997099
3600278400.0 -0.5088582454 0.8531846388
3650278100.0 -0.4956270666 0.8609071145
3700277800.0 -0.4836260618 0.8673884201
3750277500.0 -0.4713987596 0.8740248597
3800277200.0 -0.4589251148 0.8804255618
3850276900.0 -0.4466149078 0.8865038994
3900276600.0 -0.4358019437 0.8918599512
3950276300.0 -0.4231895989 0.8979907034
4000276000.0 -0.4112539475 0.9040807502
4050275700.0 -0.3985189832 0.9103540655
4100275400.0 -0.3868468772 0.9155526228
4150275100.0 -0.3745280292 0.9213966731
4200274800.0 -0.3613318193 0.9266535352
4250274500.0 -0.3490390718 0.9316408057
4300274200.0 -0.336115891 0.9370733117
4350273900.0 -0.3224197096 0.9421733112
4400273600.0 -0.3074676216 0.9473582574
4450273300.0 -0.291981943 0.9525724748
4500273000.0 -0.2785058403 0.9570140124
4550272700.0 -0.2642119999 0.9610954611
4600272400.0 -0.2486224531 0.9654679825
4650272100.0 -0.2369111576 0.968612338
4700271800.0 -0.2235302073 0.9718237267
4750271500.0 -0.2118820165 0.9749166559
4800271200.0 -0.1994642509 0.9774727406
4850270900.0 -0.1855223241 0.9802459309
4900270600.0 -0.1716200458 0.9827435974
4950270300.0 -0.157269945 0.9852211723
5000270000.0 -0.1431809331 0.9871747237
5050269700.0 -0.1299228824 0.9890285515
5100269400.0 -0.1164688547 0.9905642132
5150269100.0 -0.1029540497 0.9923535426
5200268800.0 -0.0898646929 0.9934394525
5250268500.0 -0.0768616175 0.9944167419
5300268200.0 -0.0636831703 0.9947936705
5350267900.0 -0.0516272329 0.9954887738
5400267600.0 -0.0349394677 0.996462843
5450267300.0 -0.0223187608 0.9966680938
5500267000.0 -0.0070585172 0.9972437149
5550266700.0 0.0076932504 0.9974111581
5600266400.0 0.0232580172 0.9971434828
5650266100.0 0.0398714127 0.9969060347
5700265800.0 0.0543677609 0.995918675
5750265500.0 0.0697607138 0.9954991867
5800265200.0 0.0837614188 0.9942679328
5850264900.0 0.0969228533 0.9934883908
5900264600.0 0.1133341642 0.9915464774
5950264300.0 0.1257630685 0.9895634212
6000264000.0 0.1398668278 0.9879615703
6050263700.0 0.1525381881 0.9867251933
6100263400.0 0.1646539851 0.9847986179
6150263100.0 0.1792401795 0.9821300622
6200262800.0 0.1900833977 0.9805355069
6250262500.0 0.2024560411 0.9778977544
6300262200.0 0.2154905963 0.9752399337
6350261900.0 0.2286104692 0.9721546919
6400261600.0 0.2422927722 0.9687861258
6450261300.0 0.2537521325 0.9659501939
6500261000.0 0.2665712717 0.9625221857
6550260700.0 0.2796890617 0.9587202384
6600260400.0 0.2927408325 0.9545706696
6650260100.0 0.3067916331 0.9504021096
6700259800.0 0.3188017486 0.9460205073
6750259500.0 0.3325511299 0.9410221201
6800259200.0 0.3454020291 0.9359580334
6850258900.0 0.3571923892 0.9306518896
6900258600.0 0.369628016 0.9259613153
6950258300.0 0.3821006739 0.9207930121
7000258000.0 0.3942601223 0.9154482951
7050257700.0 0.406276793 0.9093427724
7100257400.0 0.4188724581 0.9031015632
7150257100.0 0.4295250884 0.8978567712
7200256800.0 0.4422315141 0.8914075677
7250256500.0 0.453863232 0.885015327
7300256200.0 0.4672150775 0.8782276154
7350255900.0 0.4794011636 0.8715684239
7400255600.0 0.4922353481 0.8644209003
7450255300.0 0.5074506262 0.8553960456
7500255000.0 0.5193033908 0.8480613304
7550254700.0 0.5330027347 0.8394094701
7600254400.0 0.5460794947 0.8313303441
7650254100.0 0.5575456402 0.8234667537
7700253800.0 0.5694178918 0.8152982451
7750253500.0 0.5805089137 0.8075935411
7800253200.0 0.5913401973 0.7996848667
7850252900.0 0.6010535729 0.7926702332
7900252600.0 0.6126642346 0.7838357383
7950252300.0 0.6215823955 0.7771364688
8000252000.0 0.6317888641 0.7692865325
8050251700.0 0.6423068486 0.7610624874
8100251400.0 0.6523163178 0.7529220779
8150251100.0 0.6629274451 0.7441384976
8200250800.0 0.6720176111 0.7363553994
8250250500.0 0.6809665741 0.7283123112
8300250200.0 0.6901828734 0.7196756607
8350249900.0 0.6996241543 0.7112485341
8400249600.0 0.7074035237 0.7028838374
8450249300.0 0.7168185957 0.6939276826
8500249000.0 0.7251143971 0.6849346405
8550248700.0 0.7337394742 0.6757926111
8600248400.0 0.7419502636 0.6663090423
8650248100.0 0.7496243646 0.6571704573
8700247800.0 0.7590867354 0.6458697864
8750247500.0 0.7675318042 0.635794611
8800247200.0 0.7754870314 0.6255225052
8850246900.0 0.7840918439 0.6141855893
8900246600.0 0.7926907337 0.6028253285
8950246300.0 0.8023846564 0.5896063435
9000246000.0 0.8116100958 0.5772429675
9050245700.0 0.8206690946 0.5639450629
9100245400.0 0.8292603508 0.5516830781
9150245100.0 0.8383801183 0.5380633183
9200244800.0 0.8485435318 0.5225082526
9250244500.0 0.8579442644 0.5066719572
9300244200.0 0.8662281113 0.4922054986
9350243900.0 0.8740543955 0.4783173899
9400243600.0 0.8805570798 0.4658465122
9450243300.0 0.8867379158 0.4539225158
9500243000.0 0.8928980376 0.4415772441
9550242700.0 0.8966214816 0.4338362024
9600242400.0 0.9005138431 0.4261562754
9650242100.0 0.9040827566 0.4199929363
9700241800.0 0.9088564499 0.4114771106
9750241500.0 0.9124488644 0.4040439466
9800241200.0 0.9169373197 0.3950522924
9850240900.0 0.9229836304 0.3830152635
9900240600.0 0.9286212581 0.371792879
9950240300.0 0.9349878195 0.3554000675
10000240000.0 0.9393299218 0.3438844436
10050239700.0 0.9451996428 0.3288900168
10100239400.0 0.9499645417 0.3131491924
10150239100.0 0.9541738168 0.2988274737
10200238800.0 0.9587636292 0.2835085377
10250238500.0 0.9619075638 0.2704107518
10300238200.0 0.9650894991 0.2565285144
10350237900.0 0.9677078716 0.2434361921
10400237600.0 0.9700477484 0.230424165
10450237300.0 0.9729266382 0.2164949639
10500237000.0 0.9749644487 0.2046212077
10550236700.0 0.9775956825 0.1901191481
10600236400.0 0.9790196774 0.1772636048
10650236100.0 0.9810182908 0.1630086841
10700235800.0 0.9834608739 0.1509524207
10750235500.0 0.9856402674 0.1375721276
10800235200.0 0.9876827701 0.1232967194
10850234900.0 0.98972326 0.1086737407
10900234600.0 0.9916796467 0.0940668236
10950234300.0 0.9935094321 0.0810040348
11000234000.0 0.9952403853 0.0658300317
11050233700.0 0.9969950644 0.0495120473
11100233400.0 0.9982911103 0.0320493444
11150233100.0 0.9992867623 0.0157228841
11200232800.0 1.00037666 0.0004994075
11250232500.0 1.001154119 -0.0160096725
11300232200.0 1.001218131 -0.0337315965
11350231900.0 1.001134228 -0.0492156027
11400231600.0 1.001016545 -0.06495555
11450231300.0 1.00034186 -0.0797013479
11500231000.0 0.9997278908 -0.0971167552
11550230700.0 0.9983132039 -0.1105554272
11600230400.0 0.9964138561 -0.1230084569
11650230100.0 0.9946507822 -0.1354022895
11700229800.0 0.9923344509 -0.1498251079
11750229500.0 0.9902826674 -0.1644821959
11800229200.0 0.9874396051 -0.1784494308
11850228900.0 0.9840580386 -0.1906505769
11900228600.0 0.9804060177 -0.2006561841
11950228300.0 0.9770818243 -0.2112215439
12000228000.0 0.9740178202 -0.2208326939
12050227700.0 0.970748572 -0.2331020067
12100227400.0 0.9675211783 -0.2436287818
12150227100.0 0.9625799602 -0.2606685417
12200226800.0 0.9590484564 -0.2711700212
12250226500.0 0.9552783725 -0.282937779
12300226200.0 0.9508212535 -0.2961939009
12350225900.0 0.945917109 -0.3097088156
12400225600.0 0.9416043827 -0.3222132213
12450225300.0 0.9374643476 -0.3352564409
12500225000.0 0.932004451 -0.3498426019
12550224700.0 0.9268785608 -0.3636308615
12600224400.0 0.9216137986 -0.3762032993
12650224100.0 0.9158693395 -0.3904734557
12700223800.0 0.9106720687 -0.4032038925
12750223500.0 0.9053463682 -0.4160761504
12800223200.0 0.8997870857 -0.4286248512
12850222900.0 0.8946015339 -0.4408208093
12900222600.0 0.8886372715 -0.453292499
12950222300.0 0.8824195459 -0.465848256
13000222000.0 0.8765902475 -0.4773883079
13050221700.0 0.8698576422 -0.4896364334
13100221400.0 0.8628945862 -0.5020681613
13150221100.0 0.856188138 -0.5143285496
13200220800.0 0.8492025113 -0.525833506
13250220500.0 0.8415336866 -0.5381938174
13300220200.0 0.8341132818 -0.5489392238
13350219900.0 0.8259757098 -0.5611787178
13400219600.0 0.8174898155 -0.57335811
13450219300.0 0.8081397308 -0.5869778384
13500219000.0 0.797695041 -0.6009828718
13550218700.0 0.7875717618 -0.6141742551
13600218400.0 0.7768652071 -0.6261895752
13650218100.0 0.7669183607 -0.6369665255
13700217800.0 0.7558894694 -0.6496437138
13750217500.0 0.7464019186 -0.6615235691
13800217200.0 0.73553934 -0.6724411243
13850216900.0 0.7238689165 -0.6838251766
13900216600.0 0.7143535936 -0.6929672
13950216300.0 0.7032410663 -0.7031234923
14000216000.0 0.693636635 -0.7121556744
14050215700.0 0.6839867604 -0.7209200444
14100215400.0 0.6739484136 -0.7301189821
14150215100.0 0.6646025449 -0.7383627996
14200214800.0 0.6554869671 -0.7467382436
14250214500.0 0.6452954321 -0.7559169947
14300214200.0 0.6348623217 -0.7650990591
14350213900.0 0.6240552479 -0.7746237695
14400213600.0 0.6121392875 -0.7844092913
14450213300.0 0.5994806373 -0.7946494255
14500213000.0 0.5861571691 -0.8036805108
14550212700.0 0.5736171917 -0.8136801736
14600212400.0 0.5614440325 -0.8220793626
14650212100.0 0.5480484127 -0.8309533329
14700211800.0 0.5342710708 -0.8404919872
14750211500.0 0.5221143937 -0.8489003791
14800211200.0 0.5099498409 -0.8568198631
14850210900.0 0.4975369069 -0.8642614871
14900210600.0 0.4842821689 -0.8719592828
14950210300.0 0.4706184357 -0.8797876127
15000210000.0 0.4577428416 -0.8865604239
15050209700.0 0.4453779263 -0.8929189504
15100209400.0 0.4328801649 -0.8987265213
15150209100.0 0.420183275 -0.9041671888
15200208800.0 0.4073019529 -0.9097420008
15250208500.0 0.3956303263 -0.9145302874
15300208200.0 0.3831210452 -0.9185888574
15350207900.0 0.3706754469 -0.9235436805
15400207600.0 0.3554410041 -0.9295004846
15450207300.0 0.3407685647 -0.9341154449
15500207000.0 0.3265458453 -0.9389318179
15550206700.0 0.3108687132 -0.9437528099
15600206400.0 0.2948504238 -0.9481695867
15650206100.0 0.2794319839 -0.9525367084
15700205800.0 0.2655228183 -0.9563977919
15750205500.0 0.2509738462 -0.9598647952
15800205200.0 0.2364730101 -0.9629977682
15850204900.0 0.2222228293 -0.9663497324
15900204600.0 0.2073003771 -0.9699085321
15950204300.0 0.1933474253 -0.9729289307
16000204000.0 0.1793254172 -0.9756580183
16050203700.0 0.1646267203 -0.9783045626
16100203400.0 0.1500938688 -0.9805160116
16150203100.0 0.1362208129 -0.9825473066
16200202800.0 0.1219311052 -0.9848073693
16250202500.0 0.10757226 -0.9863753237
16300202200.0 0.0925991621 -0.9879938564
16350201900.0 0.0774619553 -0.9891021044
16400201600.0 0.0630178489 -0.9904136299
16450201300.0 0.0475035622 -0.9912063563
16500201000.0 0.0311246354 -0.9920347892
16550200700.0 0.0154741676 -0.9926474924
16600200400.0 -0.0004682033 -0.9927410807
16650200100.0 -0.0165659195 -0.992592501
16700199800.0 -0.0332825377 -0.9921067755
16750199500.0 -0.0522490794 -0.9915888291
16800199200.0 -0.0682624461 -0.9907084562
16850198900.0 -0.0835817288 -0.9894547084
16900198600.0 -0.0972523416 -0.987870051
16950198300.0 -0.1108771866 -0.9871200324
17000198000.0 -0.1232394803 -0.9860092128
17050197700.0 -0.1370038038 -0.9835573317
17100197400.0 -0.1494322756 -0.9814651795
17150197100.0 -0.1619993443 -0.9793125478
17200196800.0 -0.1747063703 -0.9776434394
17250196500.0 -0.1876371877 -0.975042732
17300196200.0 -0.1998742123 -0.9728542946
17350195900.0 -0.2116308663 -0.9705601336
17400195600.0 -0.2240308721 -0.9678975114
17450195300.0 -0.2369853892 -0.9654119853
17500195000.0 -0.2505221067 -0.9618662916
17550194700.0 -0.2645180626 -0.9581152231
17600194400.0 -0.2784860486 -0.9543798866
17650194100.0 -0.2921270652 -0.9498265862
17700193800.0 -0.3050225042 -0.9454451863
17750193500.0 -0.3195090265 -0.9412740724
17800193200.0 -0.3335862405 -0.9361507619
17850192900.0 -0.3484358582 -0.9304952008
17900192600.0 -0.3633685757 -0.9244549955
17950192300.0 -0.3789641028 -0.9179009918
18000192000.0 -0.3937308692 -0.9102087617
18050191700.0 -0.4074178584 -0.9024180418
18100191400.0 -0.4215657381 -0.8947801987
18150191100.0 -0.4364575473 -0.8868120646
18200190800.0 -0.4533365437 -0.8775370563
18250190500.0 -0.4703813932 -0.8679238386
18300190200.0 -0.4852979955 -0.8593866326
18350189900.0 -0.5004283824 -0.8507999152
18400189600.0 -0.5151980591 -0.8426546378
18450189300.0 -0.5286012922 -0.8343140384
18500189000.0 -0.5416649373 -0.825937081
18550188700.0 -0.5540914632 -0.8182793823
18600188400.0 -0.5659481942 -0.8114077466
18650188100.0 -0.5772177354 -0.8052230717
18700187800.0 -0.5882494753 -0.7981976784
18750187500.0 -0.5990709849 -0.7919446331
18800187200.0 -0.6097873769 -0.7846110891
18850186900.0 -0.6199357477 -0.7775743628
18900186600.0 -0.6303233515 -0.7700420405
18950186300.0 -0.6404703424 -0.7619974376
19000186000.0 -0.6475313335 -0.7558519163
19050185700.0 -0.6573141094 -0.7485879435
19100185400.0 -0.6673987824 -0.7399745133
19150185100.0 -0.6771682955 -0.7321950542
19200184800.0 -0.6872949441 -0.7231954853
19250184500.0 -0.6973127816 -0.7134630593
19300184200.0 -0.708555428 -0.7039669959
19350183900.0 -0.7190462012 -0.6948589459
19400183600.0 -0.7294185421 -0.6847130158
19450183300.0 -0.7384501269 -0.6748721845
19500183000.0 -0.7460003796 -0.665493715
19550182700.0 -0.7561473843 -0.6538627027
19600182400.0 -0.766454574 -0.6424455217
19650182100.0 -0.7765897765 -0.6302105028
19700181800.0 -0.7875103816 -0.6170773253
19750181500.0 -0.7978269354 -0.6030900918
19800181200.0 -0.8080088379 -0.5882507901
19850180900.0 -0.8175475764 -0.5727762265
19900180600.0 -0.8251046079 -0.5585280265
19950180300.0 -0.834121126 -0.5423659281
20000180000.0 -0.8276743406 -0.5454464524
20050179700.0 -0.8356660696 -0.5308309282
20100179400.0 -0.8434052157 -0.5184810057
20150179100.0 -0.8518214212 -0.5045618238
20200178800.0 -0.8602657751 -0.4925765082
20250178500.0 -0.8695340664 -0.4789559381
20300178200.0 -0.8797458517 -0.4644034712
20350177900.0 -0.8888499126 -0.449779929
20400177600.0 -0.8971758308 -0.4351862451
20450177300.0 -0.9056446485 -0.4206354649
20500177000.0 -0.9133696895 -0.4071582551
20550176700.0 -0.9213620333 -0.3933169523
20600176400.0 -0.9280725307 -0.3800851903
20650176100.0 -0.9347162873 -0.3673960599
20700175800.0 -0.9419649844 -0.3562040697
20750175500.0 -0.948433796 -0.3437415538
20800175200.0 -0.9533225931 -0.3327263737
20850174900.0 -0.957762042 -0.3209950866
20900174600.0 -0.963241819 -0.3102705926
20950174300.0 -0.9666879217 -0.2984393031
21000174000.0 -0.9711461705 -0.2867084893
21050173700.0 -0.972836208 -0.2750094449
21100173400.0 -0.9776187883 -0.2633664753
21150173100.0 -0.9816374823 -0.2511246875
21200172800.0 -0.9851958437 -0.2374124842
21250172500.0 -0.9878511043 -0.2232856443
21300172200.0 -0.9908684598 -0.2092820689
21350171900.0 -0.992625318 -0.1947685073
21400171600.0 -0.9936510268 -0.1798666628
21450171300.0 -0.9935466234 -0.1664709018
21500171000.0 -0.9932870106 -0.1512252302
21550170700.0 -0.9931386142 -0.1353460509
21600170400.0 -0.9934113906 -0.1197577159
21650170100.0 -0.9917061546 -0.1034873687
21700169800.0 -0.9905125084 -0.0891175809
21750169500.0 -0.9890786488 -0.074051982
21800169200.0 -0.9870766044 -0.0576429243
21850168900.0 -0.986368484 -0.0394964863
21900168600.0 -0.9857582594 -0.0238459342
21950168300.0 -0.9838007223 -0.0084522153
22000168000.0 -0.9831849491 0.0065449862
22050167700.0 -0.9825163101 0.020524742
22100167400.0 -0.9828369115 0.0354994223
22150167100.0 -0.9830804748 0.0509310935
22200166800.0 -0.9832950153 0.0670371802
22250166500.0 -0.9822278052 0.084339671
22300166200.0 -0.9826712751 0.1009323223
22350165900.0 -0.9807100064 0.1174260646
22400165600.0 -0.9783470251 0.1329943914
22450165300.0 -0.9767100043 0.1478553712
22500165000.0 -0.9754803668 0.1618597478
22550164700.0 -0.9740358861 0.177721492
22600164400.0 -0.9720419213 0.1924356321
22650164100.0 -0.9704001522 0.2079611797
22700163800.0 -0.9674513168 0.2236307751
22750163500.0 -0.9646356055 0.2383285598
22800163200.0 -0.9618982838 0.2524139505
22850162900.0 -0.9595607973 0.2657401728
22900162600.0 -0.9581908264 0.2788706298
22950162300.0 -0.9572977976 0.291861455
23000162000.0 -0.9562970732 0.303523372
23050161700.0 -0.9539513764 0.3157928629
23100161400.0 -0.95216868 0.3283544424
23150161100.0 -0.949398189 0.3411395839
23200160800.0 -0.9462699235 0.353031954
23250160500.0 -0.9435875955 0.3653965938
23300160200.0 -0.9409983299 0.3764432831
23350159900.0 -0.9372340947 0.3896519102
23400159600.0 -0.9327404934 0.4026193996
23450159300.0 -0.928218792 0.4159402266
23500159000.0 -0.9229130078 0.4292273706
23550158700.0 -0.918506213 0.4420695152
23600158400.0 -0.9131632427 0.4551913195
23650158100.0 -0.9069065415 0.4689205812
23700157800.0 -0.8997119822 0.482728186
23750157500.0 -0.8909605405 0.4969456326
23800157200.0 -0.8823000087 0.5101533397
23850156900.0 -0.8731546007 0.5229650373
23900156600.0 -0.8641225911 0.5344298556
23950156300.0 -0.8545763837 0.5472614684
24000156000.0 -0.8456403325 0.5584576637
24050155700.0 -0.8353384016 0.5707878667
24100155400.0 -0.8253428588 0.5832277352
24150155100.0 -0.8143987685 0.5948055272
24200154800.0 -0.8039993163 0.6065654159
24250154500.0 -0.7923000784 0.6180106512
24300154200.0 -0.7809916136 0.6291505928
24350153900.0 -0.7688715904 0.6400071672
24400153600.0 -0.7564184709 0.6503005
24450153300.0 -0.7448746476 0.6603351572
24500153000.0 -0.7332722177 0.6696637008
24550152700.0 -0.7219107298 0.6795904739
24600152400.0 -0.7106997073 0.6891331502
