!Created with skrf (http://scikit-rf.org).
# Hz S RI R 50.0 
!freq ReS11 ImS11
300000.0 -0.974185458 -0.120454306
50299700.0 -0.9998770728 0.0151048724
100299400.0 -0.997893125 0.0279047557
150299100.0 -1.002734536 0.0449657199
200298800.0 -0.9997371211 0.058168489
250298500.0 -0.9972816699 0.071667491
300298200.0 -0.9858513845 0.087374853
350297900.0 -0.9939331047 0.0983926549
400297600.0 -0.9930871163 0.1148261141
450297300.0 -0.990953086 0.128845424
500297000.0 -0.9893492166 0.1433206951
550296700.0 -0.9841796226 0.1558852821
600296400.0 -1.017198811 0.1891818568
650296100.0 -0.9820777115 0.1857602041
700295800.0 -0.9792188015 0.2001039077
750295500.0 -0.9761148521 0.2138769307
800295200.0 -0.9729307913 0.2281093903
850294900.0 -0.9694574559 0.2419850185
900294600.0 -0.9656720098 0.2557368047
950294300.0 -0.9620651834 0.2692541361
1000294000.0 -0.9580072255 0.2832492152
1050293700.0 -0.9535985081 0.297009453
1100293400.0 -0.9493758652 0.3112647903
1150293100.0 -0.9455227639 0.3232339441
1200292800.0 -0.9403906674 0.337735256
1250292500.0 -0.9346296241 0.351171828
1300292200.0 -0.9290305043 0.3644634944
1350291900.0 -0.9234092511 0.378552887
1400291600.0 -0.9179539289 0.3914613671
1450291300.0 -0.9122635827 0.4039222738
1500291000.0 -0.9062679813 0.4174062019
1550290700.0 -0.899747224 0.4305351269
1600290400.0 -0.893324676 0.4434826918
1650290100.0 -0.8867726273 0.4556606062
1700289800.0 -0.8798660774 0.4693187993
1750289500.0 -0.8729373764 0.4813074971
1800289200.0 -0.8655064608 0.4943973892
1850288900.0 -0.8587617841 0.5058204396
1900288600.0 -0.8510178565 0.518775707
1950288300.0 -0.842899876 0.5312823739
2000288000.0 -0.8353695201 0.5428381349
2050287700.0 -0.827147277 0.5551658167
2100287400.0 -0.81943013 0.5663691684
2150287100.0 -0.8108236241 0.5785401578
2200286800.0 -0.8028732218 0.5891609511
2250286500.0 -0.7941837196 0.6014434681
2300286200.0 -0.7850525059 0.6129119281
2350285900.0 -0.7769524628 0.6234550217
2400285600.0 -0.7680849636 0.6344297739
2450285300.0 -0.759145384 0.64515181
2500285000.0 -0.7491332837 0.656611907
2550284700.0 -0.7399805847 0.6669355186
2600284400.0 -0.7309829911 0.6769054996
2650284100.0 -0.722450679 0.6871693703
2700283800.0 -0.7121187768 0.697592972
2750283500.0 -0.7015404412 0.7083468156
2800283200.0 -0.6915045837 0.7182730228
2850282900.0 -0.6812555202 0.7282501532
2900282600.0 -0.6709331867 0.7377869512
2950282300.0 -0.6603619906 0.7472180797
3000282000.0 -0.6496011292 0.7566638739
3050281700.0 -0.6384674443 0.7659924859
3100281400.0 -0.6269616299 0.7750254093
3150281100.0 -0.6157095941 0.783867392
3200280800.0 -0.6041602713 0.7921617623
3250280500.0 -0.5930441313 0.800278513
3300280200.0 -0.5816597104 0.8083726778
3350279900.0 -0.5693792961 0.8163925588
3400279600.0 -0.5566788646 0.8244764565
3450279300.0 -0.5458488599 0.8316678757
3500279000.0 -0.5339284203 0.8385043108
3550278700.0 -0.5216916284 0.8457381651
3600278400.0 -0.5097432647 0.8523014243
3650278100.0 -0.4968667249 0.8600279706
3700277800.0 -0.4848994763 0.8663781607
3750277500.0 -0.4721223301 0.8730361287
3800277200.0 -0.4598758518 0.8797688885
3850276900.0 -0.4478568726 0.8857463514
3900276600.0 -0.4368197372 0.8914539124
3950276300.0 -0.4248954317 0.8971080519
4000276000.0 -0.4132073692 0.9031570954
4050275700.0 -0.4003526934 0.9091614581
4100275400.0 -0.3893999482 0.9147355152
4150275100.0 -0.3763096543 0.9206735845
4200274800.0 -0.362736616 0.9261278223
4250274500.0 -0.3499701126 0.9311823264
4300274200.0 -0.3368143979 0.9367307691
4350273900.0 -0.3227783395 0.9421538217
4400273600.0 -0.3080326447 0.94709582
4450273300.0 -0.2929147771 0.9522116074
4500273000.0 -0.2799152242 0.9563706271
4550272700.0 -0.2661247345 0.9606918245
4600272400.0 -0.2510919668 0.9645370745
4650272100.0 -0.2396264725 0.9678798955
4700271800.0 -0.22675454 0.9710536848
4750271500.0 -0.2151178741 0.9739671403
4800271200.0 -0.2028843801 0.9767885703
4850270900.0 -0.1888974612 0.9795476722
4900270600.0 -0.1751589375 0.98190198
4950270300.0 -0.1606955879 0.9846055572
5000270000.0 -0.1464370668 0.986373019
5050269700.0 -0.1327673548 0.9881178174
5100269400.0 -0.1185911183 0.9899471938
5150269100.0 -0.1047445579 0.9915313466
5200268800.0 -0.0911310367 0.9925593318
5250268500.0 -0.0781565944 0.9938225417
5300268200.0 -0.0646521599 0.9947562302
5350267900.0 -0.051806591 0.9952337701
5400267600.0 -0.0357938128 0.9961359839
5450267300.0 -0.0223013471 0.9965799634
5500267000.0 -0.0070316375 0.9970978342
5550266700.0 0.0078295158 0.9970343905
5600266400.0 0.0237871614 0.9972576369
5650266100.0 0.0402328434 0.9965929568
5700265800.0 0.0546083724 0.9958983811
5750265500.0 0.0695876183 0.9955214159
5800265200.0 0.082915073 0.9940293717
5850264900.0 0.0962343075 0.9932185116
5900264600.0 0.112586085 0.991501288
5950264300.0 0.1244268731 0.9900338358
6000264000.0 0.1381365201 0.988631329
6050263700.0 0.1495594468 0.9866939472
6100263400.0 0.1617938249 0.9849659204
6150263100.0 0.1763623298 0.9825852277
6200262800.0 0.1859773681 0.9809921736
6250262500.0 0.1986187783 0.9786798335
6300262200.0 0.2111191994 0.976109839
6350261900.0 0.2237499067 0.9734172543
6400261600.0 0.2377133552 0.9701216264
6450261300.0 0.2485969926 0.9676571299
6500261000.0 0.2621658982 0.9641836032
6550260700.0 0.2752618459 0.9598742202
6600260400.0 0.2888225904 0.9561233844
6650260100.0 0.3028215311 0.9517416562
6700259800.0 0.3149061519 0.9474525686
6750259500.0 0.3285169745 0.9423826163
6800259200.0 0.3419806924 0.9371808581
6850258900.0 0.3546345656 0.9320069252
6900258600.0 0.3671420229 0.9268960649
6950258300.0 0.3796512018 0.921535261
7000258000.0 0.3912183597 0.9161294961
7050257700.0 0.4032131592 0.9104997897
7100257400.0 0.4166091261 0.9040303275
7150257100.0 0.4271458045 0.8985641415
7200256800.0 0.4406489666 0.8921144239
7250256500.0 0.4528285254 0.8855920603
7300256200.0 0.4657380731 0.8786718874
7350255900.0 0.4789347562 0.8718718875
7400255600.0 0.4927164565 0.8640871903
7450255300.0 0.5081519293 0.8549929461
7500255000.0 0.5208079191 0.8476436368
7550254700.0 0.534757337 0.8384070982
7600254400.0 0.5474239533 0.8301118406
7650254100.0 0.5592951876 0.8222449604
7700253800.0 0.57076266 0.8144149049
7750253500.0 0.5814428267 0.8067541716
7800253200.0 0.5922018246 0.7988715827
7850252900.0 0.6020806302 0.7915649943
7900252600.0 0.6134921571 0.7829573321
7950252300.0 0.6219815008 0.7764029746
8000252000.0 0.6319311473 0.7689955973
8050251700.0 0.6422161469 0.7608392814
8100251400.0 0.6520417401 0.7530138665
8150251100.0 0.6618918283 0.744485308
8200250800.0 0.6717913573 0.7360101072
8250250500.0 0.6803723207 0.7283291331
8300250200.0 0.6893588166 0.719883296
8350249900.0 0.6990526367 0.7111853134
8400249600.0 0.7067580789 0.7031282426
8450249300.0 0.7159840568 0.694292277
8500249000.0 0.7242719708 0.6852960817
8550248700.0 0.7325363585 0.6764706403
8600248400.0 0.7409338747 0.6668902387
8650248100.0 0.7485793353 0.6574428364
8700247800.0 0.7580330192 0.6465141416
8750247500.0 0.7661338692 0.6365307155
8800247200.0 0.7742038758 0.6259862645
8850246900.0 0.7829737846 0.6144699505
8900246600.0 0.7914269486 0.6030475945
8950246300.0 0.8006209684 0.5907817316
9000246000.0 0.8091993269 0.5786360492
9050245700.0 0.8178906987 0.5661015267
9100245400.0 0.8259252169 0.5541619863
9150245100.0 0.8348469986 0.541269331
9200244800.0 0.8443020573 0.5271053162
9250244500.0 0.8530578726 0.512258513
9300244200.0 0.86151651 0.4985818944
9350243900.0 0.8691167693 0.4852768769
9400243600.0 0.8756281337 0.4734797656
9450243300.0 0.8813796064 0.4631278036
9500243000.0 0.8875198402 0.4512529764
9550242700.0 0.8915879232 0.4436234665
9600242400.0 0.8959794989 0.436143829
9650242100.0 0.8998860918 0.4292082027
9700241800.0 0.9051019974 0.4205306244
9750241500.0 0.9088231304 0.4130721182
9800241200.0 0.9140635618 0.4035455036
9850240900.0 0.9198410503 0.391946489
9900240600.0 0.9257875512 0.3800195274
9950240300.0 0.9328912997 0.3633409454
10000240000.0 0.9377308098 0.3513010128
10050239700.0 0.9436937808 0.3351499354
10100239400.0 0.9489784896 0.3188781894
10150239100.0 0.9541136106 0.3030777449
10200238800.0 0.9582238892 0.2878080611
10250238500.0 0.9616407176 0.2742292264
10300238200.0 0.9646334235 0.2603964928
10350237900.0 0.9674606676 0.2469876367
10400237600.0 0.9699757044 0.2334315671
10450237300.0 0.9728812785 0.2196694315
10500237000.0 0.9747795916 0.2073862907
10550236700.0 0.9776425799 0.1925699484
10600236400.0 0.9794783304 0.1789267146
10650236100.0 0.9818533879 0.1644948271
10700235800.0 0.9837034622 0.1525887451
10750235500.0 0.986181055 0.1387141196
10800235200.0 0.9881332409 0.1243917711
10850234900.0 0.9898636001 0.1097377386
10900234600.0 0.9919844632 0.095028267
10950234300.0 0.9939737013 0.0812580182
11000234000.0 0.9955992234 0.065840943
11050233700.0 0.9972762582 0.0492082001
11100233400.0 0.9989175129 0.0313095073
11150233100.0 1.000233518 0.0150778311
11200232800.0 1.000795107 -0.0011571651
11250232500.0 1.002120672 -0.0191171649
11300232200.0 1.002033115 -0.0373739569
11350231900.0 1.001804079 -0.0531435229
11400231600.0 1.002112544 -0.0684624521
11450231300.0 1.000276977 -0.0835664551
11500231000.0 0.9997518728 -0.1014261671
11550230700.0 0.9985414075 -0.1145619284
11600230400.0 0.9971048623 -0.1273750632
11650230100.0 0.9946953467 -0.138817492
11700229800.0 0.9929834504 -0.1540933393
11750229500.0 0.9902124227 -0.1677905856
11800229200.0 0.9873209809 -0.1811186976
11850228900.0 0.9836812763 -0.1927983163
11900228600.0 0.9801065747 -0.2022940182
11950228300.0 0.9765404784 -0.2129793412
12000228000.0 0.9740519468 -0.2211793418
12050227700.0 0.9699565056 -0.2348626856
12100227400.0 0.9669509794 -0.2446940956
12150227100.0 0.9624009808 -0.2613173273
12200226800.0 0.9573644028 -0.2731224292
12250226500.0 0.9544409475 -0.2857838964
12300226200.0 0.9496688134 -0.2985499516
12350225900.0 0.9449357886 -0.311837881
12400225600.0 0.9407141551 -0.3241322608
12450225300.0 0.9358063847 -0.3368340054
12500225000.0 0.930440525 -0.3514447527
12550224700.0 0.9250264231 -0.3652905602
12600224400.0 0.9201057647 -0.3779229303
12650224100.0 0.9143272938 -0.3921721778
12700223800.0 0.9091341786 -0.4050346881
12750223500.0 0.9034378917 -0.418304357
12800223200.0 0.8982535821 -0.4305536107
12850222900.0 0.8929392469 -0.4428045847
12900222600.0 0.8872086978 -0.4549489771
12950222300.0 0.8810391927 -0.4676096888
13000222000.0 0.875497483 -0.4789358501
13050221700.0 0.8686702036 -0.4921918404
13100221400.0 0.8619379316 -0.504238596
13150221100.0 0.8549562826 -0.5167006788
13200220800.0 0.8477194685 -0.5274784246
13250220500.0 0.8406193628 -0.5398819855
13300220200.0 0.8331473112 -0.5509235206
13350219900.0 0.8248990417 -0.5628488471
13400219600.0 0.8166157384 -0.5745741151
13450219300.0 0.8074133148 -0.5877967428
13500219000.0 0.7976738556 -0.6007672615
13550218700.0 0.7880081822 -0.6134268532
13600218400.0 0.7775557311 -0.6252278252
13650218100.0 0.7683413433 -0.6362413869
13700217800.0 0.7572992392 -0.647669566
13750217500.0 0.7478664708 -0.6589977701
13800217200.0 0.7363523861 -0.6698664123
13850216900.0 0.7258533919 -0.6816985502
13900216600.0 0.7163758582 -0.6900537974
13950216300.0 0.7056150479 -0.6998949178
14000216000.0 0.6958338871 -0.7090842341
14050215700.0 0.6862967734 -0.7170297115
14100215400.0 0.6767935986 -0.7265177993
14150215100.0 0.6677231635 -0.735114446
14200214800.0 0.6581191116 -0.7438539175
14250214500.0 0.6477468377 -0.7533422217
14300214200.0 0.6373605237 -0.7627516862
14350213900.0 0.6261501136 -0.772333306
14400213600.0 0.6146761896 -0.7824889332
14450213300.0 0.6017011285 -0.792522442
14500213000.0 0.5886724758 -0.8021305045
14550212700.0 0.5762086591 -0.8114753054
14600212400.0 0.5637835044 -0.8203428713
14650212100.0 0.5510021484 -0.8289678319
14700211800.0 0.5372090721 -0.8390721013
14750211500.0 0.5249135216 -0.8471428281
14800211200.0 0.5125084285 -0.855352726
14850210900.0 0.5000647977 -0.8628496341
14900210600.0 0.4868774409 -0.8707468363
14950210300.0 0.4734888911 -0.8785637934
15000210000.0 0.460864195 -0.8852233259
15050209700.0 0.4485373778 -0.8912233254
15100209400.0 0.4354993725 -0.89740338
15150209100.0 0.423653933 -0.9024732888
15200208800.0 0.4113841314 -0.9086925499
15250208500.0 0.3999160068 -0.9124952932
15300208200.0 0.3877423447 -0.9173620911
15350207900.0 0.3738087517 -0.9224891905
15400207600.0 0.3594795519 -0.9277139198
15450207300.0 0.3451591879 -0.9324506698
15500207000.0 0.3302461197 -0.937375414
15550206700.0 0.3153894808 -0.9423183014
15600206400.0 0.3001383996 -0.9470655699
15650206100.0 0.2837789439 -0.9511346031
15700205800.0 0.2705704806 -0.9546513571
15750205500.0 0.256560067 -0.9576323282
15800205200.0 0.24248819 -0.9610892594
15850204900.0 0.2283969574 -0.9647919073
15900204600.0 0.2132671974 -0.9684272684
15950204300.0 0.1989974821 -0.9715139213
16000204000.0 0.1847514606 -0.9744007325
16050203700.0 0.1697648722 -0.9775713319
16100203400.0 0.154321581 -0.9796382614
16150203100.0 0.1404286855 -0.9820891561
16200202800.0 0.1255464522 -0.9843480137
16250202500.0 0.1107623553 -0.9857344149
16300202200.0 0.0952695236 -0.9873852386
16350201900.0 0.0803826346 -0.9887803069
16400201600.0 0.0655773093 -0.9903205604
16450201300.0 0.05004298 -0.9911340952
16500201000.0 0.0328297062 -0.9921981712
16550200700.0 0.0170237645 -0.992681784
16600200400.0 0.000926693 -0.9927555554
16650200100.0 -0.0148686154 -0.9925471468
16700199800.0 -0.0316219001 -0.9922372993
16750199500.0 -0.0506572065 -0.9915351788
16800199200.0 -0.0665503852 -0.9909422867
16850198900.0 -0.0818124788 -0.9895730151
16900198600.0 -0.0963697242 -0.9886507473
16950198300.0 -0.1098115257 -0.9871276186
17000198000.0 -0.1229792281 -0.9861412813
17050197700.0 -0.1364387088 -0.983770494
17100197400.0 -0.1487693546 -0.9822484296
17150197100.0 -0.1612142804 -0.9800560408
17200196800.0 -0.1738069363 -0.9779880312
17250196500.0 -0.1867605186 -0.9758729331
17300196200.0 -0.1989931143 -0.9733085557
17350195900.0 -0.2109771282 -0.9708890317
17400195600.0 -0.2226890749 -0.9684108988
17450195300.0 -0.2356394329 -0.9656363842
17500195000.0 -0.2488203683 -0.9622590038
17550194700.0 -0.2626601113 -0.958634933
17600194400.0 -0.2765008375 -0.9547852813
17650194100.0 -0.2900831021 -0.9506821975
17700193800.0 -0.3028553549 -0.9464066442
17750193500.0 -0.3174670968 -0.9419345507
17800193200.0 -0.3310726488 -0.936700363
17850192900.0 -0.3462929735 -0.9314265638
17900192600.0 -0.3612975284 -0.9249769846
17950192300.0 -0.3768181997 -0.9180014563
18000192000.0 -0.3914572928 -0.910746514
18050191700.0 -0.4055925725 -0.9029893362
18100191400.0 -0.4197363961 -0.8951829286
18150191100.0 -0.4345283074 -0.8873395166
18200190800.0 -0.4513062364 -0.8780414909
18250190500.0 -0.4683554277 -0.8687188752
18300190200.0 -0.4837113024 -0.8597889968
18350189900.0 -0.4991247377 -0.8515503586
18400189600.0 -0.513898515 -0.84358051
18450189300.0 -0.5270443486 -0.8349715411
18500189000.0 -0.5402080159 -0.8270796502
18550188700.0 -0.5531014278 -0.8195177385
18600188400.0 -0.5654167182 -0.812588452
18650188100.0 -0.5765028256 -0.8057404347
18700187800.0 -0.5873492793 -0.7995328643
18750187500.0 -0.598373134 -0.7928772831
18800187200.0 -0.6090802023 -0.7855224566
18850186900.0 -0.6191692699 -0.7787857863
18900186600.0 -0.6292842948 -0.7716520317
18950186300.0 -0.6396263709 -0.7637804008
19000186000.0 -0.6468327279 -0.7577807804
19050185700.0 -0.6562264791 -0.7505438503
19100185400.0 -0.666245896 -0.7421573244
19150185100.0 -0.6759833687 -0.7333339268
19200184800.0 -0.6859325983 -0.7259951911
19250184500.0 -0.6961369018 -0.7163647978
19300184200.0 -0.7080627419 -0.7063279693
19350183900.0 -0.7181058588 -0.6974234275
19400183600.0 -0.7274249722 -0.6868181895
19450183300.0 -0.7370106298 -0.6768537107
19500183000.0 -0.7455451611 -0.6669796305
19550182700.0 -0.7546087041 -0.6563333023
19600182400.0 -0.7653025967 -0.6446043449
19650182100.0 -0.7755702592 -0.6322652856
19700181800.0 -0.7862598751 -0.6186722803
19750181500.0 -0.7963792297 -0.6047829394
19800181200.0 -0.806774069 -0.5898927218
19850180900.0 -0.8161293022 -0.5744240396
19900180600.0 -0.8241737366 -0.5600461766
19950180300.0 -0.8332274427 -0.5439398142
20000180000.0 -0.8238166172 -0.5476835092
20050179700.0 -0.8318353276 -0.5350421163
20100179400.0 -0.8405535696 -0.5208356729
20150179100.0 -0.8481770839 -0.5092500175
20200178800.0 -0.8565213305 -0.4973327704
20250178500.0 -0.8655307287 -0.4854160358
20300178200.0 -0.8751241323 -0.4717634351
20350177900.0 -0.884441603 -0.4572687588
20400177600.0 -0.8936660363 -0.4432043781
20450177300.0 -0.9022249722 -0.4290782565
20500177000.0 -0.9103240102 -0.4150651527
20550176700.0 -0.9179392031 -0.4016288462
20600176400.0 -0.9248521848 -0.3885856689
20650176100.0 -0.9317470058 -0.3760779338
20700175800.0 -0.9378799282 -0.3644464641
20750175500.0 -0.9439332097 -0.3526641357
20800175200.0 -0.949496529 -0.3424492602
20850174900.0 -0.9539237591 -0.3317376807
20900174600.0 -0.957364633 -0.319819531
20950174300.0 -0.9615417145 -0.3094862752
21000174000.0 -0.9640095541 -0.2984052017
21050173700.0 -0.9661288126 -0.2892325163
21100173400.0 -0.9689319971 -0.277777526
21150173100.0 -0.9731085402 -0.2663383807
21200172800.0 -0.9769789098 -0.2531161888
21250172500.0 -0.9808421128 -0.2391782982
21300172200.0 -0.984332872 -0.2251379466
21350171900.0 -0.9861599069 -0.2104053257
21400171600.0 -0.988001583 -0.1967201658
21450171300.0 -0.9889233184 -0.1826237973
21500171000.0 -0.9891524022 -0.1673130039
21550170700.0 -0.9885398107 -0.1530394578
21600170400.0 -0.9908847425 -0.1368602565
21650170100.0 -0.9904605619 -0.1208840626
21700169800.0 -0.9911635539 -0.1062017015
21750169500.0 -0.9909812409 -0.0901067555
21800169200.0 -0.9904207718 -0.0729313039
21850168900.0 -0.9891111721 -0.0561517959
21900168600.0 -0.9888583231 -0.0400536515
21950168300.0 -0.9891051897 -0.0241591371
22000168000.0 -0.9892305737 -0.0095174257
22050167700.0 -0.9893103918 0.0047450826
22100167400.0 -0.9903176867 0.0206180738
22150167100.0 -0.9908315854 0.0367244181
22200166800.0 -0.9914926802 0.053123551
22250166500.0 -0.9907865927 0.0701486079
22300166200.0 -0.989371883 0.0868701317
22350165900.0 -0.9885698826 0.1030751105
22400165600.0 -0.9869772544 0.1182714522
22450165300.0 -0.9857866979 0.1333094784
22500165000.0 -0.9847719664 0.1478062477
22550164700.0 -0.9823993195 0.1631477934
22600164400.0 -0.9807559785 0.1801807097
22650164100.0 -0.9768640163 0.195828406
22700163800.0 -0.9751557458 0.2118062406
22750163500.0 -0.9722436885 0.2265692718
22800163200.0 -0.9688866175 0.2395644855
22850162900.0 -0.9661772913 0.2530257997
22900162600.0 -0.9644364039 0.2667830618
22950162300.0 -0.9625796493 0.2805283871
23000162000.0 -0.9609645153 0.2934157338
23050161700.0 -0.9585352433 0.3064683118
23100161400.0 -0.9556871297 0.3204202335
23150161100.0 -0.9528042716 0.3330991671
23200160800.0 -0.9495431879 0.3456653622
23250160500.0 -0.9464591222 0.358019883
23300160200.0 -0.9446771896 0.370218356
23350159900.0 -0.9404768684 0.3842247587
23400159600.0 -0.9344882415 0.3976859223
23450159300.0 -0.9299888818 0.4117816889
23500159000.0 -0.925191469 0.4254431711
23550158700.0 -0.9202272105 0.4393871216
23600158400.0 -0.9141445315 0.4531935999
23650158100.0 -0.9071616411 0.4680005649
23700157800.0 -0.8987042561 0.4820074514
23750157500.0 -0.8892668315 0.4962594869
23800157200.0 -0.8795029551 0.5101814931
23850156900.0 -0.8702100694 0.5225554758
23900156600.0 -0.8598379067 0.5353183729
23950156300.0 -0.8501063936 0.5476683894
24000156000.0 -0.8409482514 0.5603924913
24050155700.0 -0.8316324333 0.5725532276
24100155400.0 -0.8203010797 0.5849260772
24150155100.0 -0.8092176563 0.5972559785
24200154800.0 -0.7987949957 0.6088869764
24250154500.0 -0.787561264 0.6207628364
24300154200.0 -0.7756167613 0.6334113524
24350153900.0 -0.76346144 0.6442191315
24400153600.0 -0.7512198643 0.6549494737
24450153300.0 -0.7389483546 0.6649865274
24500153000.0 -0.7277267884 0.6749959768
24550152700.0 -0.7163361775 0.684987832
24600152400.0 -0.7046102369 0.6942257886
24650152100.0 -0.6920993624 0.7026563745
