!Created with skrf (http://scikit-rf.org).
# Hz S RI R 50.0 
!freq ReS11 ImS11
300000.0 -0.9942727234 -0.0480384081
50299700.0 -0.9992999777 0.0163936948
100299400.0 -0.997444706 0.0290190454
150299100.0 -1.002331132 0.0458637975
200298800.0 -0.9988925529 0.0590792095
250298500.0 -0.9966743452 0.072566181
300298200.0 -0.9852037033 0.0881980765
350297900.0 -0.9931654805 0.0990208073
400297600.0 -0.9921193076 0.1155128711
450297300.0 -0.9900523528 0.1294989745
500297000.0 -0.9883971963 0.1438951402
550296700.0 -0.983105365 0.1563838145
600296400.0 -1.016298159 0.189628034
650296100.0 -0.9808568698 0.1862630313
700295800.0 -0.977960879 0.2002674457
750295500.0 -0.9748282067 0.2142549228
800295200.0 -0.9716787161 0.2284587214
850294900.0 -0.9682665962 0.2421411743
900294600.0 -0.9643702326 0.2557105907
950294300.0 -0.9607299818 0.2692765704
1000294000.0 -0.9569620659 0.2832594302
1050293700.0 -0.9524076679 0.2970352865
1100293400.0 -0.9479886729 0.3115051378
1150293100.0 -0.9443890275 0.3232900498
1200292800.0 -0.9390343416 0.3375687601
1250292500.0 -0.9336081944 0.3510626211
1300292200.0 -0.9280114885 0.3640952615
1350291900.0 -0.9226030131 0.3782065405
1400291600.0 -0.9169947063 0.3912679424
1450291300.0 -0.9116022601 0.403319349
1500291000.0 -0.9054702633 0.4168776037
1550290700.0 -0.8992855827 0.4301329085
1600290400.0 -0.8929093504 0.4428943106
1650290100.0 -0.8863825078 0.4551616171
1700289800.0 -0.8796531056 0.4684754578
1750289500.0 -0.872783036 0.4806329373
1800289200.0 -0.8653988013 0.4935353453
1850288900.0 -0.8586924447 0.5048393886
1900288600.0 -0.8511208041 0.5178838173
1950288300.0 -0.8428456769 0.5305101921
2000288000.0 -0.8354933454 0.5419202817
2050287700.0 -0.8272898544 0.5540975749
2100287400.0 -0.8195399049 0.5656504195
2150287100.0 -0.8109489094 0.5779679869
2200286800.0 -0.803053412 0.5883287099
2250286500.0 -0.7942915291 0.6001572213
2300286200.0 -0.7854107938 0.6116867853
2350285900.0 -0.7767966741 0.622743536
2400285600.0 -0.7676413238 0.6340259251
2450285300.0 -0.7587912428 0.6442908427
2500285000.0 -0.7491497913 0.6553587984
2550284700.0 -0.740178239 0.6658861235
2600284400.0 -0.730633105 0.6760972396
2650284100.0 -0.7217901567 0.686400796
2700283800.0 -0.7114233625 0.6968611975
2750283500.0 -0.7012345364 0.7073079376
2800283200.0 -0.6911205472 0.7171380168
2850282900.0 -0.6811577888 0.7270318095
2900282600.0 -0.6706864936 0.736288995
2950282300.0 -0.660633861 0.7456497431
3000282000.0 -0.6497328286 0.7551037091
3050281700.0 -0.6388203199 0.7644235792
3100281400.0 -0.6275752283 0.7733035373
3150281100.0 -0.6162654596 0.7823527992
3200280800.0 -0.6044345502 0.7911123456
3250280500.0 -0.5937433902 0.7992662721
3300280200.0 -0.5822030145 0.8073746814
3350279900.0 -0.5710646587 0.8149223896
3400279600.0 -0.5589750397 0.8228592543
3450279300.0 -0.5479413532 0.8302965007
3500279000.0 -0.5357913503 0.8373526968
3550278700.0 -0.5237934453 0.8449791675
3600278400.0 -0.5119874094 0.8519710339
3650278100.0 -0.4985837407 0.8595633221
3700277800.0 -0.4867070079 0.8658015903
3750277500.0 -0.4746271703 0.8726742338
3800277200.0 -0.4621795813 0.8794406015
3850276900.0 -0.4496938499 0.885343895
3900276600.0 -0.4385835045 0.8910530979
3950276300.0 -0.4256672118 0.8975112234
4000276000.0 -0.4135654471 0.9032717477
4050275700.0 -0.4002212694 0.9094423585
4100275400.0 -0.3889494875 0.9150861662
4150275100.0 -0.3761223936 0.9206985525
4200274800.0 -0.3624319348 0.925898009
4250274500.0 -0.3502147247 0.9310792498
4300274200.0 -0.3373380102 0.936280628
4350273900.0 -0.3239356105 0.9411137489
4400273600.0 -0.3097122282 0.9460414173
4450273300.0 -0.2949219036 0.9511879932
4500273000.0 -0.2817873265 0.9551749681
4550272700.0 -0.2681375674 0.9592111944
4600272400.0 -0.252731303 0.9635148918
4650272100.0 -0.2408186999 0.9666976566
4700271800.0 -0.227237428 0.9700601426
4750271500.0 -0.2149060095 0.9730412081
4800271200.0 -0.2017350322 0.9758964304
4850270900.0 -0.1880234288 0.9788086089
4900270600.0 -0.1744880063 0.9808632301
4950270300.0 -0.160935005 0.983751363
5000270000.0 -0.1467344198 0.9857160838
5050269700.0 -0.1332297046 0.9872810981
5100269400.0 -0.1193041796 0.9892640235
5150269100.0 -0.1057519559 0.9908381042
5200268800.0 -0.0922092834 0.9919666223
5250268500.0 -0.0793044604 0.9932789441
5300268200.0 -0.0657295204 0.9941272666
5350267900.0 -0.0536277864 0.9945719882
5400267600.0 -0.0377871614 0.9959688786
5450267300.0 -0.0251555673 0.9960423395
5500267000.0 -0.0105457841 0.9964610558
5550266700.0 0.0033610722 0.9966160141
5600266400.0 0.0183311073 0.9966116056
5650266100.0 0.0344815086 0.996410089
5700265800.0 0.0485068331 0.9956578479
5750265500.0 0.063077543 0.99479193
5800265200.0 0.0767064682 0.9935619504
5850264900.0 0.090276669 0.9932067426
5900264600.0 0.1059869358 0.9911473589
5950264300.0 0.1188421326 0.9895788886
6000264000.0 0.1325295078 0.9880411962
6050263700.0 0.1456340514 0.9868419123
6100263400.0 0.1586512745 0.9847119334
6150263100.0 0.1737264357 0.9819824405
6200262800.0 0.1845036625 0.9800327927
6250262500.0 0.1975758019 0.9776092746
6300262200.0 0.2104001738 0.9748188732
6350261900.0 0.2234212043 0.9719511065
6400261600.0 0.2376945277 0.96860938
6450261300.0 0.2494175718 0.9657945397
6500261000.0 0.2624407735 0.9622442566
6550260700.0 0.2752797074 0.9584993365
6600260400.0 0.2884073102 0.9544731896
6650260100.0 0.3020256043 0.9502104537
6700259800.0 0.3141407703 0.9460682238
6750259500.0 0.327901999 0.9417181518
6800259200.0 0.3408458703 0.9365268246
6850258900.0 0.3530431281 0.931990763
6900258600.0 0.3655695731 0.9270095316
6950258300.0 0.3783802182 0.9217404992
7000258000.0 0.3902575045 0.9166759198
7050257700.0 0.4023178358 0.9107228586
7100257400.0 0.4155573002 0.9047826948
7150257100.0 0.4262131994 0.8994195351
7200256800.0 0.4392813377 0.8931690488
7250256500.0 0.4503594023 0.8872112726
7300256200.0 0.4632508703 0.8806593929
7350255900.0 0.4754944141 0.8741317757
7400255600.0 0.4873850969 0.8675992916
7450255300.0 0.5017022918 0.8590614194
7500255000.0 0.5129076304 0.8519136575
7550254700.0 0.5265492174 0.844770337
7600254400.0 0.5385616823 0.8365581877
7650254100.0 0.5501872816 0.8290568173
7700253800.0 0.5619494582 0.8211391958
7750253500.0 0.5729398951 0.8133009275
7800253200.0 0.5843538669 0.8052642429
7850252900.0 0.5938561901 0.798301238
7900252600.0 0.605937481 0.7894427771
7950252300.0 0.615157361 0.7821259014
8000252000.0 0.6257265392 0.7742200063
8050251700.0 0.6364757293 0.7657972561
8100251400.0 0.6464383503 0.7575854831
8150251100.0 0.6570334266 0.7485727975
8200250800.0 0.6665956022 0.7402480011
8250250500.0 0.6761587541 0.7319419198
8300250200.0 0.685734555 0.7230276226
8350249900.0 0.694775768 0.714128224
8400249600.0 0.7034932486 0.7057683649
8450249300.0 0.7134026626 0.6962170675
8500249000.0 0.7222352086 0.6871948489
8550248700.0 0.731072481 0.6774066288
8600248400.0 0.7400465629 0.6675194405
8650248100.0 0.7477501773 0.6582349508
8700247800.0 0.7572108761 0.6477034831
8750247500.0 0.7656200854 0.6375065972
8800247200.0 0.7736257278 0.6272402415
8850246900.0 0.7824060009 0.6162374089
8900246600.0 0.7903953305 0.6054532453
8950246300.0 0.799672518 0.5933048705
9000246000.0 0.8082577575 0.5817936628
9050245700.0 0.8164121988 0.5699602962
9100245400.0 0.8248612079 0.5577525385
9150245100.0 0.8335507121 0.5451253175
9200244800.0 0.842115591 0.5322307978
9250244500.0 0.8507119507 0.5184598347
9300244200.0 0.8585841585 0.5054124732
9350243900.0 0.866033708 0.4921910092
9400243600.0 0.8731304726 0.4796838819
9450243300.0 0.8791433883 0.4678512611
9500243000.0 0.8864069567 0.4545798813
9550242700.0 0.8914902036 0.4442299672
9600242400.0 0.8963857392 0.4341615781
9650242100.0 0.9007475104 0.4256034376
9700241800.0 0.9059581413 0.4156323496
9750241500.0 0.9104847024 0.4060567944
9800241200.0 0.9153323492 0.395609679
9850240900.0 0.92080543 0.3838333622
9900240600.0 0.9257308765 0.3731435692
9950240300.0 0.9317594944 0.3585211569
10000240000.0 0.9368226659 0.3460026486
10050239700.0 0.9415332489 0.3324076689
10100239400.0 0.9464626654 0.3175681854
10150239100.0 0.9508776728 0.303629821
10200238800.0 0.955573152 0.2887141768
10250238500.0 0.9590789807 0.2753764655
10300238200.0 0.9626180383 0.2616072073
10350237900.0 0.9657531078 0.2484003835
10400237600.0 0.9685765908 0.2352149266
10450237300.0 0.9716967548 0.2216660261
10500237000.0 0.9741912619 0.2092520335
10550236700.0 0.9764149086 0.1958890267
10600236400.0 0.9791660342 0.1820937333
10650236100.0 0.9811485668 0.1675810081
10700235800.0 0.9835328471 0.1551916477
10750235500.0 0.9855632933 0.1422098765
10800235200.0 0.9875610761 0.1279682936
10850234900.0 0.9894595429 0.114191563
10900234600.0 0.9913596693 0.099744834
10950234300.0 0.9928580505 0.0863499091
11000234000.0 0.9942763412 0.072280017
11050233700.0 0.9957722286 0.0576196208
11100233400.0 0.9970867056 0.0412601749
11150233100.0 0.9978350253 0.0263270795
11200232800.0 0.9984007267 0.0119542247
11250232500.0 0.998931143 -0.0037566314
11300232200.0 0.9990557025 -0.0207742556
11350231900.0 0.9991273204 -0.0354875865
11400231600.0 0.9989706073 -0.0504178715
11450231300.0 0.9981568256 -0.065181631
11500231000.0 0.997903545 -0.0813094982
11550230700.0 0.9964616933 -0.0945258486
11600230400.0 0.9953112963 -0.1079311703
11650230100.0 0.9933702518 -0.1207771539
11700229800.0 0.9911939927 -0.1353010237
11750229500.0 0.9891493784 -0.150035275
11800229200.0 0.9869199047 -0.1634059837
11850228900.0 0.9840687826 -0.1769784729
11900228600.0 0.9808335075 -0.1887648753
11950228300.0 0.9778288362 -0.2010793207
12000228000.0 0.9749887361 -0.2116414709
12050227700.0 0.971557551 -0.2251667891
12100227400.0 0.9686797974 -0.2356797873
12150227100.0 0.963781916 -0.253319183
12200226800.0 0.960910159 -0.2638684716
12250226500.0 0.9568848888 -0.2772395453
12300226200.0 0.953237913 -0.2890050954
12350225900.0 0.9480486333 -0.3036245012
12400225600.0 0.9444762891 -0.3160434458
12450225300.0 0.9401563144 -0.3284763048
12500225000.0 0.9349659344 -0.3424974274
12550224700.0 0.9299813687 -0.3565518234
12600224400.0 0.9250863438 -0.3688292092
12650224100.0 0.919306185 -0.3831968656
12700223800.0 0.9141516215 -0.3957268171
12750223500.0 0.9085927505 -0.4086956536
12800223200.0 0.9030590149 -0.4214894245
12850222900.0 0.897828996 -0.4332916969
12900222600.0 0.89209286 -0.4457255437
12950222300.0 0.8852222518 -0.4594343389
13000222000.0 0.8790821486 -0.4705691219
13050221700.0 0.8723050516 -0.4838089888
13100221400.0 0.8654977314 -0.4952267082
13150221100.0 0.858840489 -0.5075511759
13200220800.0 0.8514590769 -0.5196416607
13250220500.0 0.8443409659 -0.5318191203
13300220200.0 0.8367690803 -0.5431077548
13350219900.0 0.8286904944 -0.5552648761
13400219600.0 0.8203730422 -0.5672700503
13450219300.0 0.8117093397 -0.5799398831
13500219000.0 0.8021159978 -0.5928750537
13550218700.0 0.7926665998 -0.6052542927
13600218400.0 0.7833335155 -0.6173129048
13650218100.0 0.7740482874 -0.6279321305
13700217800.0 0.7640777912 -0.6400575558
13750217500.0 0.7536181751 -0.6512066099
13800217200.0 0.7434775567 -0.6636259406
13850216900.0 0.7320631513 -0.6754576495
13900216600.0 0.722936255 -0.6847271137
13950216300.0 0.7122111333 -0.6948506685
14000216000.0 0.7027203425 -0.7045109696
14050215700.0 0.6931281404 -0.7127493215
14100215400.0 0.6829601013 -0.7226237421
14150215100.0 0.6732637533 -0.7325425539
14200214800.0 0.6637827623 -0.740877057
14250214500.0 0.6534158131 -0.7503742427
14300214200.0 0.6428515005 -0.7599359044
14350213900.0 0.632024767 -0.7692935218
14400213600.0 0.6206382925 -0.7786023598
14450213300.0 0.6085056022 -0.7883985572
14500213000.0 0.595881129 -0.7976012697
14550212700.0 0.5841343734 -0.8064204886
14600212400.0 0.5719652644 -0.8150070259
14650212100.0 0.5598896879 -0.8237053016
14700211800.0 0.5460558404 -0.8324584053
14750211500.0 0.5341311085 -0.8409643084
14800211200.0 0.5214834427 -0.8489032814
14850210900.0 0.5094795838 -0.8567603406
14900210600.0 0.4962753949 -0.8645295392
14950210300.0 0.483100551 -0.8721849741
15000210000.0 0.4701685827 -0.8791309572
15050209700.0 0.4576202798 -0.88602835
15100209400.0 0.4439365924 -0.8925794699
15150209100.0 0.4321474247 -0.8983070774
15200208800.0 0.4189185267 -0.9044303229
15250208500.0 0.4066081711 -0.9098151622
15300208200.0 0.3934975877 -0.9151605656
15350207900.0 0.3801907413 -0.9200838136
15400207600.0 0.3660851867 -0.9254251431
15450207300.0 0.3521038491 -0.9306436266
15500207000.0 0.3379431155 -0.9357372534
15550206700.0 0.3232043194 -0.9400757764
15600206400.0 0.3085225938 -0.9459003596
15650206100.0 0.2931815773 -0.9499264473
15700205800.0 0.2795551802 -0.953438895
15750205500.0 0.2652305219 -0.9575130113
15800205200.0 0.2512506377 -0.9610447193
15850204900.0 0.2371118265 -0.9645664113
15900204600.0 0.2222833743 -0.9683497695
15950204300.0 0.2082084497 -0.9712826253
16000204000.0 0.1940767645 -0.97410507
16050203700.0 0.179237196 -0.9773397176
16100203400.0 0.1655408284 -0.979752771
16150203100.0 0.1509848185 -0.9819195814
16200202800.0 0.1362297089 -0.9842405286
16250202500.0 0.1220118767 -0.9859027277
16300202200.0 0.1068971038 -0.9875105164
16350201900.0 0.0917947496 -0.9894591873
16400201600.0 0.0773210403 -0.9903733295
16450201300.0 0.0625017825 -0.9916712265
16500201000.0 0.0461257289 -0.992589715
16550200700.0 0.0309234235 -0.993429551
16600200400.0 0.0154560974 -0.9936951242
16650200100.0 -0.0001633112 -0.9938793746
16700199800.0 -0.0160522136 -0.9940388636
16750199500.0 -0.033540276 -0.9937380854
16800199200.0 -0.0491453537 -0.9928275152
16850198900.0 -0.0647931261 -0.9914398227
16900198600.0 -0.0795893581 -0.9911524913
16950198300.0 -0.0933001877 -0.9903047738
17000198000.0 -0.1075121618 -0.9883948512
17050197700.0 -0.1208362261 -0.9868755346
17100197400.0 -0.1351873288 -0.9844845139
17150197100.0 -0.1482921985 -0.9827651609
17200196800.0 -0.1616007807 -0.9803121231
17250196500.0 -0.1754390135 -0.9780207875
17300196200.0 -0.1885000865 -0.9755826942
17350195900.0 -0.2014300716 -0.9728820652
17400195600.0 -0.214308463 -0.9703077053
17450195300.0 -0.2276535441 -0.9674579682
17500195000.0 -0.2413341133 -0.9641504336
17550194700.0 -0.2549307725 -0.9607638413
17600194400.0 -0.2688153493 -0.9569478227
17650194100.0 -0.2829731397 -0.9527711713
17700193800.0 -0.2959901954 -0.9485341545
17750193500.0 -0.3099707104 -0.9441101329
17800193200.0 -0.324198937 -0.9390914006
17850192900.0 -0.3379779923 -0.9343154105
17900192600.0 -0.3528828864 -0.9287889219
17950192300.0 -0.3680267602 -0.9221442043
18000192000.0 -0.3826849691 -0.9157993421
18050191700.0 -0.3965279663 -0.9085512989
18100191400.0 -0.4107451262 -0.9018228493
18150191100.0 -0.4248886432 -0.8945494852
18200190800.0 -0.4406040883 -0.8865734818
18250190500.0 -0.4564362728 -0.8783034202
18300190200.0 -0.471466799 -0.8700182127
18350189900.0 -0.4862194216 -0.8625227028
18400189600.0 -0.5005153459 -0.8546812367
18450189300.0 -0.5141166085 -0.8465995793
18500189000.0 -0.5276164671 -0.8389021182
18550188700.0 -0.5403553303 -0.8309536822
18600188400.0 -0.5530731331 -0.8236052846
18650188100.0 -0.5647597796 -0.8157902596
18700187800.0 -0.5759355062 -0.8087648998
18750187500.0 -0.5874470652 -0.8012521499
18800187200.0 -0.5985824844 -0.7935898503
18850186900.0 -0.6094237034 -0.7857921439
18900186600.0 -0.6199201916 -0.777780197
18950186300.0 -0.6308298363 -0.7689946132
19000186000.0 -0.6398180694 -0.7620193885
19050185700.0 -0.6499974153 -0.7540566034
19100185400.0 -0.6599476916 -0.7451433362
19150185100.0 -0.6712538359 -0.7362034025
19200184800.0 -0.6796566795 -0.7274459015
19250184500.0 -0.6898743688 -0.7181687393
19300184200.0 -0.7006219784 -0.707720383
19350183900.0 -0.7111104476 -0.6982272003
19400183600.0 -0.7206468431 -0.6876369408
19450183300.0 -0.7309663975 -0.6781707906
19500183000.0 -0.7387514286 -0.6676323052
19550182700.0 -0.7479860453 -0.6568473745
19600182400.0 -0.7580455706 -0.6459249091
19650182100.0 -0.7677034229 -0.6338048986
19700181800.0 -0.7777002395 -0.6216724824
19750181500.0 -0.7874567181 -0.6092370294
19800181200.0 -0.7974565256 -0.5956375048
19850180900.0 -0.8070684726 -0.5817094056
19900180600.0 -0.8150264969 -0.5688753175
19950180300.0 -0.8249183209 -0.5539848363
20000180000.0 -0.8253428689 -0.5489267533
20050179700.0 -0.8332821617 -0.5367413966
20100179400.0 -0.8421917124 -0.5227201238
20150179100.0 -0.849896729 -0.5109271855
20200178800.0 -0.8577249147 -0.4983810648
20250178500.0 -0.8668692607 -0.4852717941
20300178200.0 -0.875341498 -0.4717185171
20350177900.0 -0.8834168789 -0.457868986
20400177600.0 -0.8910884911 -0.4444876725
20450177300.0 -0.8990345476 -0.43074644
20500177000.0 -0.9060396229 -0.4174170926
20550176700.0 -0.9132663345 -0.4041015735
20600176400.0 -0.9195656734 -0.3904380383
20650176100.0 -0.9260495249 -0.3778094902
20700175800.0 -0.9327131802 -0.3651421993
20750175500.0 -0.9384769082 -0.3529849845
20800175200.0 -0.9430635215 -0.34111175
20850174900.0 -0.9479967098 -0.3298920093
20900174600.0 -0.9530597636 -0.3172070393
20950174300.0 -0.9568924282 -0.3042069036
21000174000.0 -0.9613033675 -0.2926144884
21050173700.0 -0.9630673788 -0.2806762492
21100173400.0 -0.9675641296 -0.2684523293
21150173100.0 -0.9718251937 -0.2548275077
21200172800.0 -0.9747778328 -0.2418060085
21250172500.0 -0.9784722682 -0.2278043174
21300172200.0 -0.9814904845 -0.2143238288
21350171900.0 -0.9838610931 -0.1997361391
21400171600.0 -0.9859408748 -0.185545103
21450171300.0 -0.987790409 -0.1711289883
21500171000.0 -0.9879596372 -0.1560889096
21550170700.0 -0.988536018 -0.1421094266
21600170400.0 -0.9905541793 -0.126873038
21650170100.0 -0.9906400666 -0.1110012684
21700169800.0 -0.9901394072 -0.0959843286
21750169500.0 -0.9895774767 -0.0805949698
21800169200.0 -0.9903187868 -0.0641381125
21850168900.0 -0.9897965444 -0.0486224451
21900168600.0 -0.9895558576 -0.0328773063
21950168300.0 -0.9887826327 -0.0182194664
22000168000.0 -0.9883427556 -0.0032304501
22050167700.0 -0.9880295425 0.0114118171
22100167400.0 -0.9875730549 0.0258305179
22150167100.0 -0.9877311685 0.0411184647
22200166800.0 -0.9875811851 0.0560345609
22250166500.0 -0.9866984651 0.0725574904
22300166200.0 -0.9857190827 0.0874874964
22350165900.0 -0.9845406874 0.1033447839
22400165600.0 -0.9833431829 0.1187580834
22450165300.0 -0.980605301 0.1332987664
22500165000.0 -0.979849528 0.146147715
22550164700.0 -0.9780018263 0.1614894032
22600164400.0 -0.9758297985 0.1775706278
22650164100.0 -0.9741456171 0.1904816051
22700163800.0 -0.9718488656 0.2060003225
22750163500.0 -0.9685394608 0.2208871365
22800163200.0 -0.9657770148 0.2340880617
22850162900.0 -0.9630223103 0.2470286308
22900162600.0 -0.9608895113 0.260211681
22950162300.0 -0.9585977255 0.2735598119
23000162000.0 -0.9565719821 0.2859872363
23050161700.0 -0.9537184102 0.2989143107
23100161400.0 -0.9510740729 0.311981471
23150161100.0 -0.9486080325 0.3240399728
23200160800.0 -0.9452759871 0.3373106915
23250160500.0 -0.9417233928 0.3487973591
23300160200.0 -0.9388003196 0.3620675639
23350159900.0 -0.9344985046 0.3743524965
23400159600.0 -0.9304842871 0.386528038
23450159300.0 -0.9257147601 0.400422709
23500159000.0 -0.9211083814 0.4124712098
23550158700.0 -0.9162234714 0.4255842629
23600158400.0 -0.9107087641 0.4380910079
23650158100.0 -0.9049699078 0.4512969887
23700157800.0 -0.898017026 0.4644003355
23750157500.0 -0.8902111181 0.4780353439
23800157200.0 -0.8824653088 0.4908360816
23850156900.0 -0.8747153958 0.5030916032
23900156600.0 -0.8663421854 0.5149066372
23950156300.0 -0.8575151794 0.5280664457
24000156000.0 -0.8499042767 0.5396928764
24050155700.0 -0.8403753267 0.5512298998
24100155400.0 -0.8314007866 0.5637385081
24150155100.0 -0.8217113173 0.5759767757
24200154800.0 -0.8128283801 0.5864261124
24250154500.0 -0.8014675339 0.598439101
24300154200.0 -0.791789404 0.6096700662
24350153900.0 -0.7812688284 0.620876284
24400153600.0 -0.7701330643 0.6321798955
24450153300.0 -0.7593981844 0.6424635605
24500153000.0 -0.7490830978 0.6528029955
24550152700.0 -0.738554746 0.6631170429
24600152400.0 -0.7279073858 0.6737913057
24650152100.0 -0.7172824076 0.6831437609
