!Created with skrf (http://scikit-rf.org).
# Hz S RI R 50.0 
!freq ReS11 ImS11
300000.0 -1.002832414 -0.0034449175
50299700.0 -0.9985319386 0.0158781498
100299400.0 -0.9966519822 0.0282922689
150299100.0 -1.001336913 0.0449671445
200298800.0 -0.9980133293 0.0583564173
250298500.0 -0.9956974642 0.0715220476
300298200.0 -0.9842841188 0.0872316114
350297900.0 -0.992070255 0.0979194542
400297600.0 -0.9910242377 0.1142732384
450297300.0 -0.9888373488 0.1278664368
500297000.0 -0.987061513 0.1424120275
550296700.0 -0.9820274868 0.1546875013
600296400.0 -1.014850704 0.187639481
650296100.0 -0.9798639723 0.1841086829
700295800.0 -0.9770070317 0.1981988172
750295500.0 -0.973761064 0.21196217
800295200.0 -0.9704314229 0.2260272647
850294900.0 -0.9674181866 0.2395301235
900294600.0 -0.963567085 0.2531905971
950294300.0 -0.9597322601 0.2668419242
1000294000.0 -0.9559105668 0.2807324767
1050293700.0 -0.9517811338 0.2943517457
1100293400.0 -0.9473139753 0.3086766922
1150293100.0 -0.9435989022 0.320462479
1200292800.0 -0.9385676014 0.3346926366
1250292500.0 -0.9332646069 0.3482523442
1300292200.0 -0.927891428 0.3612370063
1350291900.0 -0.9223771982 0.3753816011
1400291600.0 -0.9167945352 0.3883676211
1450291300.0 -0.9116053002 0.4005919265
1500291000.0 -0.9054755475 0.413948657
1550290700.0 -0.8992790754 0.4273449319
1600290400.0 -0.8932577992 0.4401493624
1650290100.0 -0.8867483612 0.4520892844
1700289800.0 -0.8800981249 0.4655741061
1750289500.0 -0.8730687086 0.4775620089
1800289200.0 -0.8658964414 0.4907116216
1850288900.0 -0.859447518 0.5018177312
1900288600.0 -0.8518159108 0.51489028
1950288300.0 -0.8438399256 0.5272096465
2000288000.0 -0.8363222655 0.5386886003
2050287700.0 -0.8283878979 0.5509233248
2100287400.0 -0.8207396135 0.5622648161
2150287100.0 -0.8122588062 0.5745930879
2200286800.0 -0.8045590197 0.5851163093
2250286500.0 -0.7958473664 0.5969239257
2300286200.0 -0.7871224836 0.6081683263
2350285900.0 -0.7786659261 0.6191236031
2400285600.0 -0.7696266416 0.6303890708
2450285300.0 -0.7605515122 0.641127642
2500285000.0 -0.7514586712 0.6518287435
2550284700.0 -0.7424935665 0.6621299095
2600284400.0 -0.7324425235 0.6727034429
2650284100.0 -0.7240434737 0.6825620416
2700283800.0 -0.7137080942 0.6930936021
2750283500.0 -0.7035170684 0.7032341061
2800283200.0 -0.6937321945 0.7129900273
2850282900.0 -0.6833014142 0.7231386062
2900282600.0 -0.6728531524 0.7327331232
2950282300.0 -0.6626184369 0.7417755856
3000282000.0 -0.6518906449 0.7515065073
3050281700.0 -0.6410127551 0.7607979897
3100281400.0 -0.6302242716 0.7695362773
3150281100.0 -0.6195303214 0.7783321765
3200280800.0 -0.6079357112 0.7871543114
3250280500.0 -0.596814953 0.7956598547
3300280200.0 -0.5850452626 0.8043854542
3350279900.0 -0.5742721329 0.8119722026
3400279600.0 -0.5619206665 0.8204172018
3450279300.0 -0.5506347947 0.8281813988
3500279000.0 -0.5390065375 0.8355126474
3550278700.0 -0.5268876824 0.8431236086
3600278400.0 -0.5159071262 0.8496303737
3650278100.0 -0.5027943703 0.8577470564
3700277800.0 -0.4908628475 0.8645613278
3750277500.0 -0.4791116508 0.8713423294
3800277200.0 -0.4664270134 0.8779844209
3850276900.0 -0.4541442965 0.8842118647
3900276600.0 -0.4426774298 0.8903992139
3950276300.0 -0.4295448337 0.8966446732
4000276000.0 -0.4174092199 0.9026691523
4050275700.0 -0.4041242028 0.9087861003
4100275400.0 -0.3924164481 0.9140110652
4150275100.0 -0.3794733649 0.9196025089
4200274800.0 -0.3660389056 0.9251814789
4250274500.0 -0.353855507 0.9299205246
4300274200.0 -0.3407787238 0.9349429762
4350273900.0 -0.3275544196 0.9399310865
4400273600.0 -0.3141779685 0.9442218694
4450273300.0 -0.300189 0.9490456096
4500273000.0 -0.2874760089 0.9530609539
4550272700.0 -0.274430585 0.956961577
4600272400.0 -0.2593653527 0.9608867175
4650272100.0 -0.2469623918 0.9642980895
4700271800.0 -0.2336651617 0.9676740687
4750271500.0 -0.2204635629 0.9706245024
4800271200.0 -0.2067566517 0.9735491598
4850270900.0 -0.1929236043 0.9766431579
4900270600.0 -0.1794394299 0.9788438441
4950270300.0 -0.1664320199 0.9813941887
5000270000.0 -0.1522495638 0.9839728769
5050269700.0 -0.1388853391 0.9855107088
5100269400.0 -0.1244960283 0.9873559339
5150269100.0 -0.1107211861 0.9894098364
5200268800.0 -0.0967218443 0.9908276159
5250268500.0 -0.0836149035 0.9919373771
5300268200.0 -0.0697404214 0.9931160206
5350267900.0 -0.057145791 0.993584427
5400267600.0 -0.0413414994 0.994882815
5450267300.0 -0.029134325 0.9949439835
5500267000.0 -0.0148762621 0.9954682367
5550266700.0 -0.0019169394 0.9957731866
5600266400.0 0.0123446558 0.9955304641
5650266100.0 0.0276307354 0.9954628877
5700265800.0 0.0410122931 0.9948930796
5750265500.0 0.0547875013 0.9942295034
5800265200.0 0.0684500949 0.9937244493
5850264900.0 0.0816946367 0.9927230379
5900264600.0 0.0976798222 0.991369318
5950264300.0 0.1096022645 0.9901989705
6000264000.0 0.1230560741 0.9885291239
6050263700.0 0.1359624931 0.9868546847
6100263400.0 0.1495261272 0.9849928037
6150263100.0 0.1650317908 0.9824921772
6200262800.0 0.1760556706 0.9804582587
6250262500.0 0.1894852485 0.9781175024
6300262200.0 0.2023460996 0.9754212309
6350261900.0 0.2152745605 0.9728453401
6400261600.0 0.230049771 0.9692754906
6450261300.0 0.2421189327 0.9664995801
6500261000.0 0.2551101109 0.9630713078
6550260700.0 0.2682844023 0.959002121
6600260400.0 0.2813181578 0.9555847365
6650260100.0 0.2946876069 0.951196433
6700259800.0 0.3068068498 0.9473225004
6750259500.0 0.3203052135 0.9428289769
6800259200.0 0.3336886461 0.9383604753
6850258900.0 0.3461072118 0.9334452859
6900258600.0 0.3589931654 0.928459511
6950258300.0 0.3717707485 0.9235028469
7000258000.0 0.3842802814 0.9186600297
7050257700.0 0.3959159015 0.9132087091
7100257400.0 0.4098956595 0.9071155947
7150257100.0 0.4208411305 0.9020677202
7200256800.0 0.4342173533 0.8959663209
7250256500.0 0.4457080702 0.8901469204
7300256200.0 0.4582429886 0.8835514612
7350255900.0 0.4705139762 0.8772203695
7400255600.0 0.4809613852 0.8715658829
7450255300.0 0.4951584403 0.8638869486
7500255000.0 0.5061695921 0.8571416537
7550254700.0 0.5178579971 0.8503985659
7600254400.0 0.5294066136 0.8429423
7650254100.0 0.5404077221 0.8359584937
7700253800.0 0.5525916597 0.8284909623
7750253500.0 0.5637132742 0.8208998019
7800253200.0 0.5754902373 0.8126399585
7850252900.0 0.5848040306 0.8059498392
7900252600.0 0.5967925963 0.7973911564
7950252300.0 0.6067259967 0.789803889
8000252000.0 0.6175446246 0.7814112938
8050251700.0 0.6282260017 0.7730507639
8100251400.0 0.6383535949 0.7651291944
8150251100.0 0.6490966537 0.7556435379
8200250800.0 0.6588568859 0.7475304928
8250250500.0 0.66865918 0.7384940512
8300250200.0 0.6784315487 0.7292379412
8350249900.0 0.688205159 0.7201873061
8400249600.0 0.697312716 0.711568669
8450249300.0 0.7072278463 0.7017323091
8500249000.0 0.7164873736 0.6917995678
8550248700.0 0.7263266546 0.6817713315
8600248400.0 0.7359211238 0.6715103443
8650248100.0 0.7436911101 0.6621024586
8700247800.0 0.7531388447 0.6515887034
8750247500.0 0.76202748 0.6413527686
8800247200.0 0.7704647967 0.6309696992
8850246900.0 0.779302546 0.6198747028
8900246600.0 0.7874181466 0.6093381228
8950246300.0 0.7961076702 0.5976482432
9000246000.0 0.8038257659 0.587211388
9050245700.0 0.8117354792 0.5763446402
9100245400.0 0.8198674826 0.5646100622
9150245100.0 0.8279365326 0.5532579562
9200244800.0 0.8352076911 0.542636764
9250244500.0 0.8431644075 0.5301386271
9300244200.0 0.8499971058 0.5189497869
9350243900.0 0.8573397559 0.5067242388
9400243600.0 0.8644839903 0.4945743995
9450243300.0 0.8701719858 0.4840911212
9500243000.0 0.8772763016 0.4716257636
9550242700.0 0.883545978 0.4600841938
9600242400.0 0.8897994619 0.448165015
9650242100.0 0.8953266441 0.4372609101
9700241800.0 0.9010191314 0.4259270101
9750241500.0 0.9070245717 0.4131534297
9800241200.0 0.9131023979 0.3999937297
9850240900.0 0.9180802586 0.3878615135
9900240600.0 0.9229399065 0.3777498482
9950240300.0 0.9283325057 0.3642142509
10000240000.0 0.933457199 0.3513762326
10050239700.0 0.9381152574 0.3379945151
10100239400.0 0.9429611315 0.32472277
10150239100.0 0.9469811484 0.3116126132
10200238800.0 0.9516393113 0.2971965575
10250238500.0 0.9554730867 0.2841675614
10300238200.0 0.9592563284 0.2705215323
10350237900.0 0.9627529391 0.2575907419
10400237600.0 0.9661944974 0.2441462006
10450237300.0 0.9697055519 0.2300420794
10500237000.0 0.9724603689 0.2172273787
10550236700.0 0.9748286197 0.2039846673
10600236400.0 0.9777276536 0.1905185109
10650236100.0 0.9803238347 0.1746951029
10700235800.0 0.9829757998 0.16159576
10750235500.0 0.9851050691 0.148578275
10800235200.0 0.9870896974 0.1352139461
10850234900.0 0.9887686512 0.1213322707
10900234600.0 0.9908980636 0.1068460614
10950234300.0 0.9921231672 0.09337536
11000234000.0 0.9934379587 0.0797163159
11050233700.0 0.9945364975 0.0663107058
11100233400.0 0.9957207517 0.0512582604
11150233100.0 0.9963706984 0.0372871581
11200232800.0 0.9969464133 0.0236149155
11250232500.0 0.9976403901 0.0101187145
11300232200.0 0.9976921354 -0.0043723478
11350231900.0 0.9979384257 -0.0190417858
11400231600.0 0.9969885459 -0.0338248957
11450231300.0 0.9967451707 -0.0467638386
11500231000.0 0.9959740244 -0.0603400108
11550230700.0 0.9957143583 -0.0743471799
11600230400.0 0.9941912418 -0.0888080768
11650230100.0 0.992893981 -0.1010336116
11700229800.0 0.9916797171 -0.1151006725
11750229500.0 0.9896676882 -0.1291922177
11800229200.0 0.9878837841 -0.1421455736
11850228900.0 0.9856072912 -0.1565958642
11900228600.0 0.9830136257 -0.169893898
11950228300.0 0.9801760139 -0.1844289984
12000228000.0 0.9775725709 -0.1967934958
12050227700.0 0.9746663919 -0.20966189
12100227400.0 0.9721485537 -0.2207521694
12150227100.0 0.9674441029 -0.2395599298
12200226800.0 0.9644057505 -0.2510557039
12250226500.0 0.9611203958 -0.2635157447
12300226200.0 0.9570428759 -0.2764731578
12350225900.0 0.9527772379 -0.2930732775
12400225600.0 0.94807611 -0.3061097381
12450225300.0 0.9442451511 -0.3176581771
12500225000.0 0.9397474851 -0.3320041051
12550224700.0 0.9342138799 -0.3463879393
12600224400.0 0.9297408575 -0.358070666
12650224100.0 0.9240173132 -0.3727520701
12700223800.0 0.9186220025 -0.3857815774
12750223500.0 0.9133457289 -0.398712163
12800223200.0 0.9075832296 -0.4116122742
12850222900.0 0.9018110798 -0.4245523853
12900222600.0 0.8961328414 -0.4366939464
12950222300.0 0.889231386 -0.4506762247
13000222000.0 0.8831787455 -0.462018366
13050221700.0 0.8762013417 -0.4756890668
13100221400.0 0.869539283 -0.4869356589
13150221100.0 0.8631071526 -0.4993973928
13200220800.0 0.8556875817 -0.5114846654
13250220500.0 0.848718555 -0.5233867202
13300220200.0 0.8411236326 -0.5351625824
13350219900.0 0.8331885825 -0.5477052315
13400219600.0 0.8256038918 -0.5590357188
13450219300.0 0.8177824091 -0.5705535682
13500219000.0 0.8096260326 -0.5821071998
13550218700.0 0.801065164 -0.5940465796
13600218400.0 0.7923165468 -0.6052652819
13650218100.0 0.7837480693 -0.6152084952
13700217800.0 0.7741621567 -0.6274175072
13750217500.0 0.7651874213 -0.6387832122
13800217200.0 0.755801841 -0.6495798287
13850216900.0 0.7449031612 -0.6617745501
13900216600.0 0.7366506007 -0.6713216823
13950216300.0 0.7263093335 -0.6820626676
14000216000.0 0.7163195484 -0.6921355906
14050215700.0 0.7072832143 -0.701850755
14100215400.0 0.6960950059 -0.7122477405
14150215100.0 0.6859431532 -0.7227199577
14200214800.0 0.6756533858 -0.7320216013
14250214500.0 0.6645017209 -0.7422594802
14300214200.0 0.6532899212 -0.7525143107
14350213900.0 0.6423137649 -0.7618982424
14400213600.0 0.6312369327 -0.7707155541
14450213300.0 0.6202267537 -0.7803247624
14500213000.0 0.6084847779 -0.7893145576
14550212700.0 0.5966766111 -0.7981085611
14600212400.0 0.5852706453 -0.8070476213
14650212100.0 0.5738836117 -0.8141799154
14700211800.0 0.5611081215 -0.8233821844
14750211500.0 0.5491325725 -0.8317533477
14800211200.0 0.5360275074 -0.8400806455
14850210900.0 0.5246548345 -0.8476970523
14900210600.0 0.511957626 -0.8554286518
14950210300.0 0.4991200327 -0.8629598996
15000210000.0 0.4867739647 -0.8699293693
15050209700.0 0.4740840755 -0.8768947182
15100209400.0 0.4609896476 -0.8841232334
15150209100.0 0.4489529366 -0.8902780471
15200208800.0 0.4357163868 -0.8967905102
15250208500.0 0.422670199 -0.9029664829
15300208200.0 0.4093390098 -0.909073646
15350207900.0 0.3958673334 -0.9145090291
15400207600.0 0.3829859414 -0.9201716582
15450207300.0 0.3690685383 -0.9257424233
15500207000.0 0.3546253349 -0.9307445311
15550206700.0 0.3418835049 -0.935686101
15600206400.0 0.3280884158 -0.9405899154
15650206100.0 0.313667578 -0.9454691375
15700205800.0 0.2998068973 -0.9498141525
15750205500.0 0.2856657183 -0.9539051782
15800205200.0 0.271795915 -0.9577334112
15850204900.0 0.2579314794 -0.9616649738
15900204600.0 0.2427288189 -0.9659687138
15950204300.0 0.2282592732 -0.9694326909
16000204000.0 0.213731583 -0.972619746
16050203700.0 0.1988331223 -0.9755448778
16100203400.0 0.1850508839 -0.9781754172
16150203100.0 0.1699957825 -0.9813355286
16200202800.0 0.155225113 -0.9838200835
16250202500.0 0.140417536 -0.9862301493
16300202200.0 0.1252479681 -0.9877399505
16350201900.0 0.1098980066 -0.9894705701
16400201600.0 0.0950127831 -0.9906324067
16450201300.0 0.0804408222 -0.9920970221
16500201000.0 0.0650761463 -0.9934011071
16550200700.0 0.0499556053 -0.9942730309
16600200400.0 0.0348726917 -0.9950398044
16650200100.0 0.0194543811 -0.9953621246
16700199800.0 0.0050184797 -0.9957329342
16750199500.0 -0.0102696761 -0.9963359546
16800199200.0 -0.0245384765 -0.995228926
16850198900.0 -0.0406638487 -0.9949651221
16900198600.0 -0.0548955115 -0.9947409075
16950198300.0 -0.0693067237 -0.9933929228
17000198000.0 -0.0836896133 -0.9919692127
17050197700.0 -0.0980581252 -0.9911578241
17100197400.0 -0.1136115503 -0.9887559076
17150197100.0 -0.127604374 -0.9869964797
17200196800.0 -0.1420964192 -0.9853474047
17250196500.0 -0.1560407503 -0.9828516208
17300196200.0 -0.1704261271 -0.9804177856
17350195900.0 -0.1849397113 -0.9778479254
17400195600.0 -0.1988444309 -0.9750178287
17450195300.0 -0.2126964095 -0.9722120127
17500195000.0 -0.2269164291 -0.968682661
17550194700.0 -0.2411271847 -0.9653925039
17600194400.0 -0.2555849972 -0.961731475
17650194100.0 -0.2698412187 -0.957890255
17700193800.0 -0.2832560418 -0.9539669569
17750193500.0 -0.2972725843 -0.9496190186
17800193200.0 -0.3109643684 -0.9451667701
17850192900.0 -0.3245013102 -0.9408268305
17900192600.0 -0.3388226502 -0.9352763219
17950192300.0 -0.3533334013 -0.9297893645
18000192000.0 -0.3681630047 -0.9236865443
18050191700.0 -0.3821964393 -0.9172685455
18100191400.0 -0.3965317678 -0.9110632931
18150191100.0 -0.4100528982 -0.9048122796
18200190800.0 -0.4241419448 -0.8981156408
18250190500.0 -0.4389746852 -0.8909223257
18300190200.0 -0.4533549342 -0.8840393788
18350189900.0 -0.4672580791 -0.8772245679
18400189600.0 -0.4813753219 -0.8701992448
18450189300.0 -0.4947790004 -0.8625973186
18500189000.0 -0.5076076465 -0.8553178407
18550188700.0 -0.5208047903 -0.8475532005
18600188400.0 -0.533171276 -0.8400715139
18650188100.0 -0.5459774655 -0.832180437
18700187800.0 -0.5576219731 -0.8242608102
18750187500.0 -0.5698331179 -0.8163894178
18800187200.0 -0.581311641 -0.8078381611
18850186900.0 -0.5928356134 -0.7995070268
18900186600.0 -0.6037039257 -0.7910976539
18950186300.0 -0.6155940384 -0.7819318805
19000186000.0 -0.6259498253 -0.7739164206
19050185700.0 -0.6370596038 -0.7652801744
19100185400.0 -0.6480437093 -0.7559249772
19150185100.0 -0.6590021143 -0.7466634972
19200184800.0 -0.6687306553 -0.7370458716
19250184500.0 -0.6788895057 -0.7276524194
19300184200.0 -0.6893962017 -0.7176047267
19350183900.0 -0.7008092916 -0.708236865
19400183600.0 -0.7109951083 -0.6976286258
19450183300.0 -0.7215337921 -0.6868202543
19500183000.0 -0.7305839185 -0.6765130241
19550182700.0 -0.7393880021 -0.6651524992
19600182400.0 -0.7493130116 -0.6538263756
19650182100.0 -0.7591336113 -0.642335991
19700181800.0 -0.7687408705 -0.6305442662
19750181500.0 -0.7780208741 -0.6186995359
19800181200.0 -0.7876639466 -0.6060663322
19850180900.0 -0.7970997512 -0.5933102302
19900180600.0 -0.8048457046 -0.5814941837
19950180300.0 -0.814807893 -0.5681571224
20000180000.0 -0.8218059942 -0.5574836717
20050179700.0 -0.8304660372 -0.5452851494
20100179400.0 -0.8385515177 -0.5324298359
20150179100.0 -0.8470057637 -0.5204536383
20200178800.0 -0.8544228079 -0.5074452467
20250178500.0 -0.8623779514 -0.4949176117
20300178200.0 -0.8701841452 -0.4816909925
20350177900.0 -0.8771799547 -0.4694483613
20400177600.0 -0.8847753456 -0.4564988181
20450177300.0 -0.8909758919 -0.4440103755
20500177000.0 -0.8974194656 -0.4309707369
20550176700.0 -0.9041895085 -0.418083791
20600176400.0 -0.9098591299 -0.4050106721
20650176100.0 -0.9154477924 -0.392512899
20700175800.0 -0.9216480047 -0.3796863139
20750175500.0 -0.9272849143 -0.3671187197
20800175200.0 -0.9317972691 -0.3542865157
20850174900.0 -0.9368943944 -0.3420277058
20900174600.0 -0.941642327 -0.3296577403
20950174300.0 -0.9459471861 -0.3155667808
21000174000.0 -0.9499647868 -0.3030402952
21050173700.0 -0.952462272 -0.2903915535
21100173400.0 -0.9567048206 -0.2776337512
21150173100.0 -0.9605299733 -0.2644636538
21200172800.0 -0.9633684985 -0.250470542
21250172500.0 -0.966607402 -0.2362338138
21300172200.0 -0.970357069 -0.2227476264
21350171900.0 -0.9732926644 -0.208542862
21400171600.0 -0.9763497271 -0.1941281838
21450171300.0 -0.9782699525 -0.1805176909
21500171000.0 -0.9806541667 -0.1655770546
21550170700.0 -0.9834420232 -0.1507594791
21600170400.0 -0.9858084095 -0.1363285955
21650170100.0 -0.9887319434 -0.1219480722
21700169800.0 -0.9891553468 -0.1069540447
21750169500.0 -0.9905922528 -0.0910777149
21800169200.0 -0.9919032129 -0.0756198563
21850168900.0 -0.9925148827 -0.0615034878
21900168600.0 -0.9940644905 -0.0470518266
21950168300.0 -0.9942421051 -0.0310821238
22000168000.0 -0.9943592488 -0.0165062147
22050167700.0 -0.9949622512 -0.0017027694
22100167400.0 -0.9948539957 0.0138335208
22150167100.0 -0.9948237831 0.0279232236
22200166800.0 -0.9939647993 0.0427429985
22250166500.0 -0.9932231014 0.0573052827
22300166200.0 -0.9926051426 0.0720159887
22350165900.0 -0.9921433663 0.0877847752
22400165600.0 -0.9903248443 0.1013667234
22450165300.0 -0.9889248225 0.1160509716
22500165000.0 -0.9867698406 0.1284379953
22550164700.0 -0.9848754824 0.1436360397
22600164400.0 -0.9840428947 0.1575966668
22650164100.0 -0.9809049804 0.1696566013
22700163800.0 -0.9785886289 0.1833540996
22750163500.0 -0.9759756393 0.1975050148
22800163200.0 -0.9723815853 0.2102062733
22850162900.0 -0.9696859962 0.2236429398
22900162600.0 -0.9668273572 0.2369964081
22950162300.0 -0.9636848292 0.2505072555
23000162000.0 -0.9603078328 0.2633633517
23050161700.0 -0.9563282507 0.2766873886
23100161400.0 -0.953160994 0.2901999468
23150161100.0 -0.9486057993 0.3026391001
23200160800.0 -0.9445543064 0.3161365615
23250160500.0 -0.9408045673 0.3293356152
23300160200.0 -0.9367545911 0.3423701553
23350159900.0 -0.9326172074 0.3565404408
23400159600.0 -0.9277485062 0.3686606623
23450159300.0 -0.9225532857 0.3809300131
23500159000.0 -0.9177158374 0.3939573038
23550158700.0 -0.9128930061 0.407053158
23600158400.0 -0.9071010938 0.4190243322
23650158100.0 -0.9010710288 0.431804575
23700157800.0 -0.8948277369 0.4443061086
23750157500.0 -0.8878956959 0.4573789585
23800157200.0 -0.8815445593 0.4700368262
23850156900.0 -0.8744129474 0.4819361644
23900156600.0 -0.8673178603 0.4944684318
23950156300.0 -0.8599060385 0.5061180124
24000156000.0 -0.8528438246 0.5186183776
24050155700.0 -0.8458960707 0.5289567747
24100155400.0 -0.8376527679 0.541906543
24150155100.0 -0.8295863455 0.5526610938
24200154800.0 -0.8214789612 0.5649467624
24250154500.0 -0.8132903087 0.5754328182
24300154200.0 -0.8055254903 0.5870380194
24350153900.0 -0.7966260006 0.5979942249
24400153600.0 -0.7867996617 0.6093604256
24450153300.0 -0.777913123 0.6201051557
24500153000.0 -0.7691734104 0.6304440166
24550152700.0 -0.7600705598 0.6410593654
24600152400.0 -0.7503053399 0.6510773438
24650152100.0 -0.7402214323 0.6618252951
