!Created with skrf (http://scikit-rf.org).
# Hz S RI R 50.0 
!freq ReS11 ImS11
300000.0 -0.974064353 -0.1179816757
50299700.0 -1.00007658 0.0153265452
100299400.0 -0.9979363536 0.0279885949
150299100.0 -1.002766541 0.0450439505
200298800.0 -0.9996972079 0.0583285229
250298500.0 -0.997365043 0.07184157
300298200.0 -0.986016947 0.0876966933
350297900.0 -0.9939378345 0.0986157679
400297600.0 -0.9933161245 0.1151910306
450297300.0 -0.9909050288 0.1289059267
500297000.0 -0.9893562689 0.1436186103
550296700.0 -0.9843477916 0.1561286322
600296400.0 -1.017324411 0.1894317523
650296100.0 -0.9822000129 0.1860069439
700295800.0 -0.9793132117 0.2004148722
750295500.0 -0.9761901473 0.2141396786
800295200.0 -0.9729362607 0.2282829035
850294900.0 -0.9697275729 0.2421937194
900294600.0 -0.9658822216 0.2560939879
950294300.0 -0.9620628085 0.2697083152
1000294000.0 -0.9581461598 0.2836486167
1050293700.0 -0.9537069279 0.2974244928
1100293400.0 -0.9492848526 0.311811831
1150293100.0 -0.9454099237 0.3237301012
1200292800.0 -0.9402532352 0.3381224657
1250292500.0 -0.9346665126 0.3513817418
1300292200.0 -0.9289311239 0.3648331928
1350291900.0 -0.9235327293 0.3787889995
1400291600.0 -0.9180335558 0.3918555218
1450291300.0 -0.9124161043 0.4043073324
1500291000.0 -0.9062741846 0.4176851302
1550290700.0 -0.8996811386 0.4310089594
1600290400.0 -0.8932737194 0.4437567565
1650290100.0 -0.8868719036 0.4561884881
1700289800.0 -0.8798925123 0.469557339
1750289500.0 -0.8728273029 0.4817523515
1800289200.0 -0.8655356588 0.4948764941
1850288900.0 -0.858629604 0.5060490468
1900288600.0 -0.8508747031 0.5192492093
1950288300.0 -0.8426741278 0.531521241
2000288000.0 -0.8353633658 0.5430040752
2050287700.0 -0.8270680172 0.5554539877
2100287400.0 -0.8192317677 0.5668619033
2150287100.0 -0.8107300466 0.5789447856
2200286800.0 -0.8029976986 0.5892452055
2250286500.0 -0.7941257287 0.6014484972
2300286200.0 -0.7852610796 0.612899255
2350285900.0 -0.7765495131 0.6240239174
2400285600.0 -0.7675788712 0.6350131978
2450285300.0 -0.7589545274 0.6452690243
2500285000.0 -0.749149971 0.6564573906
2550284700.0 -0.7405912818 0.6669658544
2600284400.0 -0.7308267775 0.6770211084
2650284100.0 -0.7220943517 0.6875106473
2700283800.0 -0.7112267032 0.698091475
2750283500.0 -0.7012030086 0.7087986473
2800283200.0 -0.6912813233 0.7184973909
2850282900.0 -0.6810483076 0.7281435786
2900282600.0 -0.6709807742 0.7378503207
2950282300.0 -0.6605499375 0.7472939901
3000282000.0 -0.6497865682 0.7566190984
3050281700.0 -0.6384769152 0.7659994871
3100281400.0 -0.62682572 0.7754144601
3150281100.0 -0.6148854871 0.7847426845
3200280800.0 -0.6034780818 0.7931319559
3250280500.0 -0.5923927083 0.80078893
3300280200.0 -0.5812221243 0.8088688618
3350279900.0 -0.5696482366 0.8162492779
3400279600.0 -0.5574710812 0.8240959174
3450279300.0 -0.5463960213 0.8312622939
3500279000.0 -0.5342975376 0.8383779044
3550278700.0 -0.5219115987 0.8455614498
3600278400.0 -0.5097629993 0.8526625611
3650278100.0 -0.4963650646 0.8600575092
3700277800.0 -0.4845191581 0.866571838
3750277500.0 -0.4722740513 0.873269997
3800277200.0 -0.4597989484 0.8796194669
3850276900.0 -0.4477499159 0.8858015193
3900276600.0 -0.4370340005 0.8915340975
3950276300.0 -0.4244064894 0.897534819
4000276000.0 -0.4125459745 0.9034552955
4050275700.0 -0.3997322314 0.9096672566
4100275400.0 -0.3884823804 0.9149388559
4150275100.0 -0.3759085301 0.920684481
4200274800.0 -0.362730352 0.9263479324
4250274500.0 -0.3505673574 0.9313309303
4300274200.0 -0.3375788112 0.9365178401
4350273900.0 -0.3238676555 0.9417935112
4400273600.0 -0.3088740453 0.9470579056
4450273300.0 -0.2935947563 0.9521185721
4500273000.0 -0.2800753085 0.9566776752
4550272700.0 -0.26584844 0.9607196932
4600272400.0 -0.2503687972 0.9650617083
4650272100.0 -0.2386218034 0.968168634
4700271800.0 -0.2253672797 0.9716925427
4750271500.0 -0.2136752525 0.9744435921
4800271200.0 -0.2011113504 0.9770854151
4850270900.0 -0.187210115 0.9800936051
4900270600.0 -0.173439792 0.9823583059
4950270300.0 -0.1592311666 0.985036301
5000270000.0 -0.1448466679 0.9871810438
5050269700.0 -0.1313813375 0.9885865426
5100269400.0 -0.1175468712 0.9904708525
5150269100.0 -0.104504678 0.9921033105
5200268800.0 -0.0908949059 0.9928478061
5250268500.0 -0.0779642742 0.9937192393
5300268200.0 -0.0647083067 0.9947127149
5350267900.0 -0.0524819604 0.9954205095
5400267600.0 -0.0364595138 0.996671073
5450267300.0 -0.0232288231 0.9966583503
5500267000.0 -0.0078924124 0.9969583844
5550266700.0 0.0068512046 0.9973262349
5600266400.0 0.0225090327 0.9972777417
5650266100.0 0.0390773214 0.9968506219
5700265800.0 0.0534570847 0.9961698463
5750265500.0 0.0688117738 0.995264318
5800265200.0 0.0826078222 0.9942891968
5850264900.0 0.0959209233 0.9936264517
5900264600.0 0.1122041614 0.9914721297
5950264300.0 0.1244592325 0.9901923985
6000264000.0 0.1379636222 0.9880109142
6050263700.0 0.1504936391 0.9869904843
6100263400.0 0.1630278126 0.9853555183
6150263100.0 0.1774866032 0.9826432478
6200262800.0 0.1878405785 0.9808715854
6250262500.0 0.2005264125 0.9784626496
6300262200.0 0.2133098581 0.9758270158
6350261900.0 0.2264795514 0.9730001438
6400261600.0 0.2405374271 0.9695537198
6450261300.0 0.2516762199 0.9670546312
6500261000.0 0.2644300655 0.9632982401
6550260700.0 0.2774226351 0.9594495524
6600260400.0 0.2904236484 0.9553650074
6650260100.0 0.3048160687 0.9508956934
6700259800.0 0.3166847432 0.9466292679
6750259500.0 0.3308234521 0.9420141748
6800259200.0 0.3439522758 0.9368398207
6850258900.0 0.3558494293 0.9316024965
6900258600.0 0.3682386807 0.9267762744
6950258300.0 0.3805172365 0.9213911352
7000258000.0 0.3923811171 0.9160360608
7050257700.0 0.4048009833 0.9096798413
7100257400.0 0.4176291061 0.903487359
7150257100.0 0.4279385475 0.898307935
7200256800.0 0.4407922413 0.8917325319
7250256500.0 0.4528135924 0.8857449781
7300256200.0 0.4656367902 0.8785703457
7350255900.0 0.4782019493 0.8718545311
7400255600.0 0.4915171739 0.8645518067
7450255300.0 0.5068036479 0.8554029008
7500255000.0 0.5186507902 0.8484814004
7550254700.0 0.5325305136 0.84000784
7600254400.0 0.5454724156 0.8316644688
7650254100.0 0.5565654207 0.8239697467
7700253800.0 0.5682094449 0.8158329196
7750253500.0 0.579722499 0.8082571013
7800253200.0 0.5904163019 0.8004208149
7850252900.0 0.6001407112 0.7935694443
7900252600.0 0.6117705611 0.784785335
7950252300.0 0.6207655268 0.7780042842
8000252000.0 0.630485571 0.770522739
8050251700.0 0.6411371625 0.7623704694
8100251400.0 0.6510401242 0.7542269816
8150251100.0 0.661034565 0.7455999804
8200250800.0 0.6707489308 0.7375241964
8250250500.0 0.6795026081 0.7297823773
8300250200.0 0.6891319033 0.7210558788
8350249900.0 0.6981223925 0.7120249744
8400249600.0 0.7058699943 0.7044069709
8450249300.0 0.7156282819 0.6952563139
8500249000.0 0.7239426584 0.6863844875
8550248700.0 0.7323198576 0.6773100158
8600248400.0 0.7405363741 0.6679007864
8650248100.0 0.7484852988 0.6584154485
8700247800.0 0.7578188012 0.6469436694
8750247500.0 0.7662767315 0.6368367093
8800247200.0 0.7743507848 0.6266474801
8850246900.0 0.7831815428 0.615152314
8900246600.0 0.7917822109 0.6037678209
8950246300.0 0.8010434442 0.5909857068
9000246000.0 0.8105586603 0.5781680382
9050245700.0 0.8192567675 0.5653608575
9100245400.0 0.8281774803 0.5527733986
9150245100.0 0.8373136979 0.5391524761
9200244800.0 0.8467385143 0.5242881369
9250244500.0 0.8562128692 0.5086817494
9300244200.0 0.8647579452 0.4943808915
9350243900.0 0.8727238971 0.4806103714
9400243600.0 0.8792921948 0.4682386859
9450243300.0 0.8851363227 0.4569116413
9500243000.0 0.8913339338 0.4445311721
9550242700.0 0.8952621288 0.4368482874
9600242400.0 0.8990253773 0.4293887898
9650242100.0 0.9028901708 0.4230751057
9700241800.0 0.907564009 0.4147792103
9750241500.0 0.9115015604 0.4071512464
9800241200.0 0.9160104807 0.3981286633
9850240900.0 0.9220278572 0.3862575162
9900240600.0 0.9276502486 0.3747813886
9950240300.0 0.9343936944 0.3585311385
10000240000.0 0.9383989135 0.3472450593
10050239700.0 0.9445608315 0.3316064539
10100239400.0 0.9495465395 0.3161354058
10150239100.0 0.9540440885 0.3013964265
10200238800.0 0.9581498316 0.2862354999
10250238500.0 0.9614371498 0.2728651966
10300238200.0 0.9645156576 0.2589985148
10350237900.0 0.9671975481 0.2459439403
10400237600.0 0.9697943853 0.232612417
10450237300.0 0.9724687517 0.2188472333
10500237000.0 0.9744620158 0.2068095034
10550236700.0 0.9772392804 0.1924800859
10600236400.0 0.9789564443 0.179586786
10650236100.0 0.9811309274 0.1648400201
10700235800.0 0.9835296417 0.1519242215
10750235500.0 0.9855113477 0.1388672267
10800235200.0 0.9878217209 0.1244120877
10850234900.0 0.9894815791 0.1099375744
10900234600.0 0.9919433596 0.0949433307
10950234300.0 0.9932683099 0.0819440482
11000234000.0 0.9951926991 0.0668647369
11050233700.0 0.9971586205 0.0506067242
11100233400.0 0.998531561 0.032921925
11150233100.0 0.9997829545 0.0167627182
11200232800.0 1.000428607 0.0015833025
11250232500.0 1.001397016 -0.014507236
11300232200.0 1.002229997 -0.0329350612
11350231900.0 1.001836919 -0.0480945519
11400231600.0 1.001443324 -0.0644686539
11450231300.0 1.001519361 -0.0795424773
11500231000.0 1.000068867 -0.0949381893
11550230700.0 0.9985053634 -0.1093556704
11600230400.0 0.9973235791 -0.1214983557
11650230100.0 0.9948416731 -0.1320704622
11700229800.0 0.9930545089 -0.1476824534
11750229500.0 0.9908101999 -0.1626349412
11800229200.0 0.9881981532 -0.1757209928
11850228900.0 0.9847251431 -0.188055858
11900228600.0 0.9809674499 -0.1981875682
11950228300.0 0.9781120331 -0.2082840468
12000228000.0 0.9747196176 -0.2175947432
12050227700.0 0.9711585332 -0.230287346
12100227400.0 0.9680461363 -0.241269314
12150227100.0 0.9635982332 -0.2573899737
12200226800.0 0.9596339276 -0.2695687595
12250226500.0 0.9555203082 -0.2809704846
12300226200.0 0.9512294928 -0.293899306
12350225900.0 0.9462379227 -0.3084128224
12400225600.0 0.9423273664 -0.3204278602
12450225300.0 0.9377876926 -0.3343690422
12500225000.0 0.9323658806 -0.3485804358
12550224700.0 0.9268852079 -0.3620527164
12600224400.0 0.9218515167 -0.3750376227
12650224100.0 0.9162374802 -0.3893757718
12700223800.0 0.9110715138 -0.402232933
12750223500.0 0.9053398773 -0.4155098455
12800223200.0 0.8998717426 -0.4282393284
12850222900.0 0.8947801819 -0.4399004945
12900222600.0 0.8888834442 -0.4523433735
12950222300.0 0.8827197423 -0.4652710288
13000222000.0 0.8772035224 -0.4765061886
13050221700.0 0.8703634788 -0.488901534
13100221400.0 0.8633084137 -0.5008604723
13150221100.0 0.8566661691 -0.5129565886
13200220800.0 0.849735292 -0.5248370121
13250220500.0 0.8423306944 -0.5368066213
13300220200.0 0.8350399839 -0.547483706
13350219900.0 0.8270687673 -0.5595821929
13400219600.0 0.818659172 -0.5716276601
13450219300.0 0.8093373332 -0.5852567012
13500219000.0 0.7994539496 -0.5986514687
13550218700.0 0.7892628649 -0.6114453239
13600218400.0 0.7792936359 -0.6237042613
13650218100.0 0.7696143307 -0.6349902022
13700217800.0 0.7582361109 -0.6472386645
13750217500.0 0.7483586177 -0.6588187697
13800217200.0 0.7373904519 -0.6698765293
13850216900.0 0.7262314616 -0.6810698249
13900216600.0 0.7168809993 -0.6908637847
13950216300.0 0.7057959706 -0.700764446
14000216000.0 0.6955366027 -0.7100060987
14050215700.0 0.6861732539 -0.7184003495
14100215400.0 0.6761710046 -0.7275057996
14150215100.0 0.6670249665 -0.7361741075
14200214800.0 0.6577590202 -0.7445980634
14250214500.0 0.6474004538 -0.7540476944
14300214200.0 0.6370076647 -0.763406217
14350213900.0 0.6259147744 -0.7729873986
14400213600.0 0.6140117123 -0.7829147034
14450213300.0 0.6007576763 -0.7933216978
14500213000.0 0.5878375732 -0.8028504842
14550212700.0 0.5758621427 -0.8127259462
14600212400.0 0.5627427086 -0.8214009286
14650212100.0 0.5501368402 -0.8300202789
14700211800.0 0.53629107 -0.8395820773
14750211500.0 0.5241376298 -0.8480016053
14800211200.0 0.5117354703 -0.8557994906
14850210900.0 0.4993924391 -0.8633914684
14900210600.0 0.4863301027 -0.8710397116
14950210300.0 0.4730549551 -0.8788592838
15000210000.0 0.4603157119 -0.8857498249
15050209700.0 0.4483044614 -0.8919778031
15100209400.0 0.4353945142 -0.8976959678
15150209100.0 0.4228781665 -0.9029291686
15200208800.0 0.4103805246 -0.9085577049
15250208500.0 0.3988262876 -0.9130443842
15300208200.0 0.3871362433 -0.9174552605
15350207900.0 0.3731782018 -0.9217485632
15400207600.0 0.3582269136 -0.927872408
15450207300.0 0.3447466335 -0.9334690724
15500207000.0 0.329887385 -0.9368200764
15550206700.0 0.3147851555 -0.9422238495
15600206400.0 0.2985269768 -0.9465403175
15650206100.0 0.283315983 -0.9511938962
15700205800.0 0.2696292586 -0.9549084366
15750205500.0 0.2547885103 -0.9584754626
15800205200.0 0.2405444459 -0.9619893795
15850204900.0 0.2261974571 -0.9654711404
15900204600.0 0.2109604461 -0.9690391662
15950204300.0 0.1969543357 -0.9721415436
16000204000.0 0.1826710681 -0.9751517186
16050203700.0 0.1677025258 -0.9776135836
16100203400.0 0.1527515132 -0.9801412431
16150203100.0 0.1385431411 -0.9823626498
16200202800.0 0.1246192789 -0.9844978827
16250202500.0 0.1098213448 -0.9861459598
16300202200.0 0.0944908573 -0.9877521881
16350201900.0 0.0793967005 -0.9894303319
16400201600.0 0.0647940747 -0.9900481972
16450201300.0 0.0496216905 -0.99129673
16500201000.0 0.0328980408 -0.9921024609
16550200700.0 0.017249497 -0.9926341427
16600200400.0 0.0015493931 -0.9927995691
16650200100.0 -0.0145821835 -0.9924735323
16700199800.0 -0.030981372 -0.9918469008
16750199500.0 -0.0498751113 -0.9916200071
16800199200.0 -0.0653363138 -0.9911370598
16850198900.0 -0.0802932262 -0.9896649788
16900198600.0 -0.0942646595 -0.9883081736
16950198300.0 -0.10794778 -0.988141883
17000198000.0 -0.1205390952 -0.9858129132
17050197700.0 -0.1332797644 -0.9840899732
17100197400.0 -0.1461074309 -0.9819322609
17150197100.0 -0.1590765857 -0.9799015321
17200196800.0 -0.171933573 -0.9780889478
17250196500.0 -0.1847160067 -0.9758836205
17300196200.0 -0.1968223702 -0.9734351073
17350195900.0 -0.2086158962 -0.9713062501
17400195600.0 -0.2207769105 -0.9687108233
17450195300.0 -0.2339267094 -0.9660311276
17500195000.0 -0.2473987631 -0.9625135706
17550194700.0 -0.2614372531 -0.9588163801
17600194400.0 -0.2750194229 -0.9552927584
17650194100.0 -0.2886658504 -0.9510665334
17700193800.0 -0.3022942193 -0.9470995671
17750193500.0 -0.3167900718 -0.9419218833
17800193200.0 -0.3309632876 -0.9366478537
17850192900.0 -0.3457006452 -0.9313472528
17900192600.0 -0.3610552628 -0.9258379204
17950192300.0 -0.3764608013 -0.9183376099
18000192000.0 -0.3912785905 -0.9112518339
18050191700.0 -0.4053867494 -0.9033996463
18100191400.0 -0.4194103924 -0.895673097
18150191100.0 -0.4344476038 -0.8876695277
18200190800.0 -0.4513633626 -0.8785100683
18250190500.0 -0.4681212601 -0.8692505143
18300190200.0 -0.4836747289 -0.860563432
18350189900.0 -0.4986627007 -0.8522570758
18400189600.0 -0.5130457514 -0.8439749056
18450189300.0 -0.5263656923 -0.8362253479
18500189000.0 -0.5399628746 -0.8279167923
18550188700.0 -0.5527524272 -0.8202909489
18600188400.0 -0.5645747876 -0.8133486257
18650188100.0 -0.5753670351 -0.8071181681
18700187800.0 -0.5860309488 -0.8006031363
18750187500.0 -0.5969415323 -0.7940089314
18800187200.0 -0.6073652378 -0.7869306557
18850186900.0 -0.6176561868 -0.7800293871
18900186600.0 -0.6278109613 -0.7727159157
18950186300.0 -0.6379996329 -0.7648210916
19000186000.0 -0.645090643 -0.7589912278
19050185700.0 -0.6542381124 -0.7520784371
19100185400.0 -0.6643504714 -0.7436762171
19150185100.0 -0.6743164816 -0.7350535557
19200184800.0 -0.6838193742 -0.7266947231
19250184500.0 -0.6937264693 -0.7176979918
19300184200.0 -0.7050318351 -0.7080729605
19350183900.0 -0.7163542332 -0.6981110761
19400183600.0 -0.7260817746 -0.6880778672
19450183300.0 -0.7344124199 -0.6780751439
19500183000.0 -0.7432854167 -0.6683632861
19550182700.0 -0.7528300109 -0.6571366222
19600182400.0 -0.7629419284 -0.6458568978
19650182100.0 -0.7740002802 -0.6335841851
19700181800.0 -0.7849187307 -0.619998804
19750181500.0 -0.795298171 -0.6058674117
19800181200.0 -0.8057608765 -0.5910062882
19850180900.0 -0.8153845919 -0.5754448464
19900180600.0 -0.8231903811 -0.5612244441
19950180300.0 -0.8325859073 -0.5447150971
20000180000.0 -0.8253259026 -0.5473214406
20050179700.0 -0.833307227 -0.5334664667
20100179400.0 -0.8421612573 -0.5203829517
20150179100.0 -0.8495876703 -0.5076899004
20200178800.0 -0.8597935856 -0.4949778792
20250178500.0 -0.8688361986 -0.4820183598
20300178200.0 -0.8784786964 -0.4672112654
20350177900.0 -0.8867185835 -0.4530670281
20400177600.0 -0.8965300669 -0.4386721873
20450177300.0 -0.9043573362 -0.424235608
20500177000.0 -0.9124841344 -0.4102471225
20550176700.0 -0.9204913283 -0.3969630379
20600176400.0 -0.9273662374 -0.3839249229
20650176100.0 -0.9340810693 -0.3710167898
20700175800.0 -0.940385397 -0.3598077081
20750175500.0 -0.9473706347 -0.3475494418
20800175200.0 -0.9520711737 -0.3379120044
20850174900.0 -0.9565899652 -0.3261095549
20900174600.0 -0.9609727881 -0.3149589103
20950174300.0 -0.9655387601 -0.3027445363
21000174000.0 -0.9687725478 -0.2912717121
21050173700.0 -0.970601629 -0.2812180211
21100173400.0 -0.9749501484 -0.2697580798
21150173100.0 -0.9795184629 -0.257287145
21200172800.0 -0.9829594386 -0.2436761576
21250172500.0 -0.9857232746 -0.2299917716
21300172200.0 -0.9885098369 -0.2158467798
21350171900.0 -0.9904469831 -0.2014471503
21400171600.0 -0.991953937 -0.1869619496
21450171300.0 -0.9926271718 -0.1732798546
21500171000.0 -0.9920824798 -0.1574575292
21550170700.0 -0.9918410645 -0.1420529757
21600170400.0 -0.9919449173 -0.1260166051
21650170100.0 -0.9910638439 -0.1105599703
21700169800.0 -0.989916775 -0.0956265269
21750169500.0 -0.9894298111 -0.0778904149
21800169200.0 -0.9881813688 -0.0630557612
21850168900.0 -0.9868691593 -0.0459205681
21900168600.0 -0.9860400022 -0.0300582625
21950168300.0 -0.9850164175 -0.0141945762
22000168000.0 -0.984159702 0.0011431141
22050167700.0 -0.9839106221 0.0153683883
22100167400.0 -0.984044457 0.0305850479
22150167100.0 -0.9848864551 0.0461702756
22200166800.0 -0.9856464823 0.0627996555
22250166500.0 -0.9844446906 0.0798242831
22300166200.0 -0.9845477349 0.0964863633
22350165900.0 -0.9831604102 0.1120956777
22400165600.0 -0.9816526938 0.1285342275
22450165300.0 -0.9796212181 0.1436564807
22500165000.0 -0.976901232 0.1572607307
22550164700.0 -0.9768865999 0.172488505
22600164400.0 -0.9745881439 0.1878000749
22650164100.0 -0.972267219 0.2029560839
22700163800.0 -0.9688245332 0.2189884716
22750163500.0 -0.9670067715 0.2333987034
22800163200.0 -0.9640435262 0.2474303336
22850162900.0 -0.9619213466 0.2605172801
22900162600.0 -0.9601694804 0.2737109281
22950162300.0 -0.9592726705 0.2866656656
23000162000.0 -0.9577923459 0.2985685069
23050161700.0 -0.9558155205 0.3113249731
23100161400.0 -0.9531216974 0.3242320227
23150161100.0 -0.9510454339 0.3364866896
23200160800.0 -0.9472538791 0.3491162674
23250160500.0 -0.9451566533 0.3604690681
23300160200.0 -0.9424602796 0.3729220172
23350159900.0 -0.9388863463 0.3858232899
23400159600.0 -0.9339221827 0.3995355492
23450159300.0 -0.9291717041 0.4127223605
23500159000.0 -0.9247846949 0.4256308133
23550158700.0 -0.9203310513 0.4389462631
23600158400.0 -0.9148041705 0.4523676015
23650158100.0 -0.9085195828 0.466608274
23700157800.0 -0.9006155491 0.4804250379
23750157500.0 -0.8918612696 0.494962482
23800157200.0 -0.8836019766 0.5078533145
23850156900.0 -0.8748037088 0.5207143055
23900156600.0 -0.8659520943 0.5331896927
23950156300.0 -0.8565713468 0.5454291634
24000156000.0 -0.8467820304 0.5576517163
24050155700.0 -0.8366746396 0.5694615205
24100155400.0 -0.8267008227 0.5817309496
24150155100.0 -0.8159553536 0.5933871848
24200154800.0 -0.8057587807 0.6046760414
24250154500.0 -0.7940971982 0.61598942
24300154200.0 -0.7824907566 0.6277249231
24350153900.0 -0.770838196 0.6386518306
24400153600.0 -0.7587931062 0.6487293643
24450153300.0 -0.7471765056 0.6588736606
24500153000.0 -0.735638375 0.6685972963
24550152700.0 -0.7242219179 0.6780057081
24600152400.0 -0.7129912838 0.6871632567
24650152100.0 -0.7008168298 0.695426659
