!Created with skrf (http://scikit-rf.org).
# Hz S RI R 50.0 
!freq ReS11 ImS11
300000.0 -0.9723790245 -0.1235133879
50299700.0 -1.000041357 0.0149875289
100299400.0 -0.9979491408 0.0279469287
150299100.0 -1.002569278 0.0447344107
200298800.0 -0.99949231 0.0582174755
250298500.0 -0.9972220296 0.0716002586
300298200.0 -0.9858255959 0.0874757346
350297900.0 -0.9938980556 0.0983275159
400297600.0 -0.9929716764 0.1149862329
450297300.0 -0.9908254701 0.128650652
500297000.0 -0.9894374023 0.1435048091
550296700.0 -0.9841859824 0.1557535966
600296400.0 -1.017033062 0.1891465461
650296100.0 -0.9820143394 0.1858064693
700295800.0 -0.9792615233 0.2000030236
750295500.0 -0.9762159162 0.2138140439
800295200.0 -0.9726058464 0.2281052957
850294900.0 -0.9695978452 0.2417663301
900294600.0 -0.9656433017 0.2556152174
950294300.0 -0.9620915441 0.2694673153
1000294000.0 -0.9582475609 0.2831330258
1050293700.0 -0.9534837674 0.2970017493
1100293400.0 -0.9494167652 0.3115228177
1150293100.0 -0.9455579977 0.3232655149
1200292800.0 -0.9402101106 0.3377347266
1250292500.0 -0.9345981787 0.3512114872
1300292200.0 -0.9288151088 0.3643645441
1350291900.0 -0.9234374486 0.3785513019
1400291600.0 -0.9180054531 0.3913795159
1450291300.0 -0.9125820553 0.4037438349
1500291000.0 -0.9061094322 0.417202581
1550290700.0 -0.8996928168 0.4306387869
1600290400.0 -0.8934875635 0.4435900008
1650290100.0 -0.8868404115 0.4557153393
1700289800.0 -0.8797411133 0.4693429554
1750289500.0 -0.8729910932 0.4813493828
1800289200.0 -0.8655238125 0.4944567121
1850288900.0 -0.8589139413 0.5058227858
1900288600.0 -0.850976342 0.5186093255
1950288300.0 -0.8429435205 0.5312681718
2000288000.0 -0.835564536 0.5428207438
2050287700.0 -0.8270408184 0.5551137226
2100287400.0 -0.8193601911 0.5666644941
2150287100.0 -0.8109674027 0.578620314
2200286800.0 -0.8029866164 0.589111767
2250286500.0 -0.793952758 0.6013471059
2300286200.0 -0.7851479534 0.6128816311
2350285900.0 -0.7769020656 0.6233586246
2400285600.0 -0.7679756171 0.6342991644
2450285300.0 -0.7590697675 0.6450842003
2500285000.0 -0.7491639745 0.6567923937
2550284700.0 -0.7398777061 0.6670416638
2600284400.0 -0.7310254144 0.6769672407
2650284100.0 -0.7223070419 0.6872093746
2700283800.0 -0.7116974655 0.6973458379
2750283500.0 -0.7016666614 0.7083439994
2800283200.0 -0.6916801569 0.718013014
2850282900.0 -0.6812408946 0.7281019737
2900282600.0 -0.6708002422 0.7377830512
2950282300.0 -0.6602490125 0.7474365152
3000282000.0 -0.6495579099 0.7565251099
3050281700.0 -0.6383403514 0.7659380264
3100281400.0 -0.6267405939 0.7750962813
3150281100.0 -0.6155148252 0.7838868991
3200280800.0 -0.6040876743 0.7921153079
3250280500.0 -0.5929186324 0.8003075344
3300280200.0 -0.5813893983 0.8085725282
3350279900.0 -0.5692260401 0.8164446979
3400279600.0 -0.5566703992 0.824526761
3450279300.0 -0.5454899531 0.8317041337
3500279000.0 -0.5336376361 0.8384710873
3550278700.0 -0.5216226873 0.8456500956
3600278400.0 -0.5098081253 0.8522944269
3650278100.0 -0.4967693443 0.8599843119
3700277800.0 -0.4846126346 0.8665095981
3750277500.0 -0.4722635403 0.8730960791
3800277200.0 -0.4596933031 0.8797641516
3850276900.0 -0.4477084307 0.8856120259
3900276600.0 -0.4368809393 0.8914427895
3950276300.0 -0.4247409797 0.8971000672
4000276000.0 -0.4133414846 0.9028728568
4050275700.0 -0.4004227411 0.9091498949
4100275400.0 -0.3893170336 0.9147198884
4150275100.0 -0.3760238484 0.9204731927
4200274800.0 -0.362466257 0.926131778
4250274500.0 -0.3500856922 0.9310272298
4300274200.0 -0.3366003672 0.9365556087
4350273900.0 -0.3223522925 0.9420783099
4400273600.0 -0.3077361929 0.947439245
4450273300.0 -0.2928386896 0.9520873884
4500273000.0 -0.2795337815 0.9563285711
4550272700.0 -0.2661420714 0.9604954312
4600272400.0 -0.2510770265 0.9646470366
4650272100.0 -0.2397594501 0.9678117641
4700271800.0 -0.2267073322 0.9712031984
4750271500.0 -0.2151372488 0.9739466865
4800271200.0 -0.2028566704 0.9767199005
4850270900.0 -0.1892015561 0.9793962402
4900270600.0 -0.1753045777 0.9818883838
4950270300.0 -0.1608372994 0.9845706228
5000270000.0 -0.146340922 0.9868403676
5050269700.0 -0.1327250724 0.988058989
5100269400.0 -0.1187419519 0.989936907
5150269100.0 -0.1047860193 0.9920365251
5200268800.0 -0.0913786444 0.9925415788
5250268500.0 -0.0782436891 0.9940362225
5300268200.0 -0.0646108746 0.9942864707
5350267900.0 -0.0519089003 0.9948923923
5400267600.0 -0.0355545878 0.9962043845
5450267300.0 -0.0222065706 0.9964454619
5500267000.0 -0.0067243438 0.9970971814
5550266700.0 0.0081333259 0.9971874398
5600266400.0 0.0238762333 0.9970980768
5650266100.0 0.0407853761 0.9970593898
5700265800.0 0.0547934066 0.9958963534
5750265500.0 0.0697204199 0.9950450953
5800265200.0 0.0830956968 0.9940062452
5850264900.0 0.0964254447 0.9930154695
5900264600.0 0.1130877869 0.9917557134
5950264300.0 0.1243000366 0.9894849209
6000264000.0 0.1381132132 0.987872446
6050263700.0 0.1497415947 0.9866783081
6100263400.0 0.1619822404 0.9850873023
6150263100.0 0.1763873239 0.9827374708
6200262800.0 0.1859230286 0.9808763191
6250262500.0 0.1986326915 0.9784466608
6300262200.0 0.2109983018 0.9762476827
6350261900.0 0.2237760396 0.9734776473
6400261600.0 0.2376397244 0.9702711196
6450261300.0 0.2485522773 0.9676593904
6500261000.0 0.2620709346 0.9641330912
6550260700.0 0.2752928198 0.9603073434
6600260400.0 0.2886821372 0.9564453564
6650260100.0 0.3024120542 0.9517341723
6700259800.0 0.3150443665 0.9474137517
6750259500.0 0.3288657109 0.9426148425
6800259200.0 0.3421985857 0.937532154
6850258900.0 0.3546199194 0.9319722204
6900258600.0 0.36725495 0.9268723025
6950258300.0 0.3797464678 0.9216012122
7000258000.0 0.3911634642 0.9162557844
7050257700.0 0.4031803063 0.9103474852
7100257400.0 0.4166838291 0.9040525685
7150257100.0 0.4272995927 0.8985296988
7200256800.0 0.4406410478 0.892283657
7250256500.0 0.4531398034 0.8853480782
7300256200.0 0.4659295166 0.8786738971
7350255900.0 0.4784412362 0.8715371322
7400255600.0 0.4930907294 0.8639251306
7450255300.0 0.5085866526 0.8547998508
7500255000.0 0.5209936089 0.8470288372
7550254700.0 0.5350857092 0.8379791674
7600254400.0 0.5478824201 0.8299687878
7650254100.0 0.5596136035 0.8217869995
7700253800.0 0.5711469022 0.8139764584
7750253500.0 0.5818625 0.8062784365
7800253200.0 0.5927848972 0.7984596784
7850252900.0 0.6024142004 0.7911182673
7900252600.0 0.6139378701 0.7823741676
7950252300.0 0.6223185322 0.7762181334
8000252000.0 0.6321263673 0.7685048197
8050251700.0 0.6428601972 0.7603109321
8100251400.0 0.6527178885 0.7524793361
8150251100.0 0.6623755537 0.7440778572
8200250800.0 0.6723440007 0.7357454076
8250250500.0 0.6811055526 0.7278624647
8300250200.0 0.6900957573 0.7197073281
8350249900.0 0.6991680524 0.71061102
8400249600.0 0.7071845596 0.7026431534
8450249300.0 0.7158993036 0.6939543777
8500249000.0 0.7243017433 0.685117657
8550248700.0 0.7329221045 0.6762697874
8600248400.0 0.7409125865 0.6666552619
8650248100.0 0.7486564685 0.6573126126
8700247800.0 0.7579941774 0.6463225054
8750247500.0 0.7662011233 0.6363134031
8800247200.0 0.7742847498 0.6256672994
8850246900.0 0.7827248462 0.614699629
8900246600.0 0.79125023 0.6032063282
8950246300.0 0.8006378669 0.5905429745
9000246000.0 0.8093349983 0.578380233
9050245700.0 0.8174861321 0.566237192
9100245400.0 0.8260173619 0.5540088919
9150245100.0 0.8348698255 0.5412786347
9200244800.0 0.8442519425 0.5267800416
9250244500.0 0.8532899634 0.5122463532
9300244200.0 0.8613174937 0.4986488403
9350243900.0 0.8688785849 0.4854579016
9400243600.0 0.8754950008 0.4738642808
9450243300.0 0.8811219349 0.4631541926
9500243000.0 0.8872682444 0.4516835997
9550242700.0 0.8913568666 0.4443153294
9600242400.0 0.8954676677 0.436697106
9650242100.0 0.8998575337 0.4295572114
9700241800.0 0.9048127617 0.4210434304
9750241500.0 0.9088969631 0.4135488039
9800241200.0 0.9139211969 0.4038228695
9850240900.0 0.9200477323 0.3922539595
9900240600.0 0.925748649 0.3803141131
9950240300.0 0.9329346084 0.3635858291
10000240000.0 0.9380782719 0.351405229
10050239700.0 0.944338155 0.3350834372
10100239400.0 0.9494523492 0.3185703807
10150239100.0 0.9542966144 0.3031473608
10200238800.0 0.9582862823 0.2877269683
10250238500.0 0.9617404219 0.2741361814
10300238200.0 0.9647311914 0.2602591248
10350237900.0 0.9676620225 0.2468601895
10400237600.0 0.9700624735 0.2336021553
10450237300.0 0.9725166345 0.2202335305
10500237000.0 0.9748574249 0.2078063468
10550236700.0 0.9775351404 0.192865596
10600236400.0 0.9797121128 0.1787098246
10650236100.0 0.9815413553 0.1643795874
10700235800.0 0.9835580898 0.1526793241
10750235500.0 0.9859256867 0.1387551035
10800235200.0 0.9878248366 0.1242528715
10850234900.0 0.990157112 0.1093657394
10900234600.0 0.9920056394 0.0945299548
10950234300.0 0.9939292604 0.0810248241
11000234000.0 0.9956460358 0.0652911224
11050233700.0 0.9972509774 0.0486542489
11100233400.0 0.9987361036 0.0306297694
11150233100.0 1.000001826 0.0142429788
11200232800.0 1.000899171 -0.0016979119
11250232500.0 1.002099781 -0.0206638455
11300232200.0 1.002369035 -0.0385860141
11350231900.0 1.001886289 -0.0548220964
11400231600.0 1.002308106 -0.0699398462
11450231300.0 1.001593032 -0.0866860486
11500231000.0 0.9999598874 -0.1022804356
11550230700.0 0.9984988293 -0.1155509093
11600230400.0 0.9969109523 -0.1277713561
11650230100.0 0.9948320162 -0.1401463038
11700229800.0 0.9925367483 -0.1553293342
11750229500.0 0.9901890238 -0.1689995694
11800229200.0 0.9872732663 -0.1823189537
11850228900.0 0.9835743943 -0.194060283
11900228600.0 0.9796937649 -0.2038539587
11950228300.0 0.9763214403 -0.2137760704
12000228000.0 0.9736010671 -0.222639407
12050227700.0 0.9694810754 -0.2350957172
12100227400.0 0.966913824 -0.2458250248
12150227100.0 0.9621130099 -0.2627911845
12200226800.0 0.9578682069 -0.2740448022
12250226500.0 0.9535117027 -0.2859353803
12300226200.0 0.9491225628 -0.2984675536
12350225900.0 0.9448392535 -0.3126351359
12400225600.0 0.939858832 -0.3251536329
12450225300.0 0.9355017533 -0.3376829199
12500225000.0 0.9302962438 -0.3516169153
12550224700.0 0.9246272914 -0.3661508262
12600224400.0 0.9198604954 -0.3787010994
12650224100.0 0.9139240615 -0.3930027979
12700223800.0 0.908720622 -0.4057630753
12750223500.0 0.9030428747 -0.4188149986
12800223200.0 0.89795067 -0.431299744
12850222900.0 0.892663337 -0.4434778567
12900222600.0 0.8870257158 -0.4551092421
12950222300.0 0.8808803299 -0.4684578103
13000222000.0 0.8749176221 -0.4798954771
13050221700.0 0.8679492707 -0.4929134255
13100221400.0 0.8612762597 -0.5052746504
13150221100.0 0.8540587316 -0.5177062863
13200220800.0 0.847454902 -0.5287191322
13250220500.0 0.8402982257 -0.5408692335
13300220200.0 0.8327846693 -0.5520213249
13350219900.0 0.8244342453 -0.5637312568
13400219600.0 0.8161504939 -0.5754200858
13450219300.0 0.8068704373 -0.5884918178
13500219000.0 0.7970330332 -0.6012966294
13550218700.0 0.7870203626 -0.6138289502
13600218400.0 0.7770164302 -0.6259141201
13650218100.0 0.7676872448 -0.6363737135
13700217800.0 0.7573004281 -0.6479556548
13750217500.0 0.7467994994 -0.6589423871
13800217200.0 0.7363475408 -0.6702200418
13850216900.0 0.7256821738 -0.6815892864
13900216600.0 0.7153175314 -0.689869363
13950216300.0 0.7051097953 -0.6997427661
14000216000.0 0.6949550167 -0.7095521195
14050215700.0 0.6858874593 -0.7180432989
14100215400.0 0.6763791757 -0.726881223
14150215100.0 0.6673504743 -0.7352584132
14200214800.0 0.657876808 -0.7440607827
14250214500.0 0.6475899123 -0.7534926644
14300214200.0 0.6370699927 -0.762854875
14350213900.0 0.6258938314 -0.7728148041
14400213600.0 0.614253971 -0.7824482417
14450213300.0 0.6012151366 -0.792836359
14500213000.0 0.5881398808 -0.8023140455
14550212700.0 0.5756525873 -0.8119775285
14600212400.0 0.5633220036 -0.8213439488
14650212100.0 0.5505306931 -0.8301108768
14700211800.0 0.5371480831 -0.8391409326
14750211500.0 0.5249221297 -0.8472515532
14800211200.0 0.5121776899 -0.8554527986
14850210900.0 0.4998586886 -0.8632602927
14900210600.0 0.486531452 -0.8711775054
14950210300.0 0.4733928058 -0.8787432826
15000210000.0 0.4604838191 -0.8853000305
15050209700.0 0.4486171926 -0.8917637361
15100209400.0 0.4360099685 -0.8970746444
15150209100.0 0.4232599765 -0.9027793773
15200208800.0 0.4101772833 -0.9082941353
15250208500.0 0.4002465749 -0.9123597392
15300208200.0 0.386885617 -0.9172312645
15350207900.0 0.3744021003 -0.9218387297
15400207600.0 0.3590987471 -0.9277549614
15450207300.0 0.3446930638 -0.9321850491
15500207000.0 0.3303943114 -0.9374344975
15550206700.0 0.3154962387 -0.9420928241
15600206400.0 0.2995817693 -0.9459067874
15650206100.0 0.283403179 -0.9508760337
15700205800.0 0.2702863375 -0.9539533981
15750205500.0 0.256109383 -0.9576863232
15800205200.0 0.2420847319 -0.9611255627
15850204900.0 0.227928112 -0.9645126227
15900204600.0 0.2129961342 -0.9682210574
15950204300.0 0.1987374876 -0.9715032878
16000204000.0 0.184131875 -0.9745904058
16050203700.0 0.1687660289 -0.9776198847
16100203400.0 0.1539486632 -0.9794271085
16150203100.0 0.1394064764 -0.9824481925
16200202800.0 0.1249425254 -0.9843591795
16250202500.0 0.1104341508 -0.9854789359
16300202200.0 0.0949598066 -0.9871468816
16350201900.0 0.0797957741 -0.9888351011
16400201600.0 0.0649232296 -0.9902412199
16450201300.0 0.0495346547 -0.9913966391
16500201000.0 0.0323485727 -0.9920857872
16550200700.0 0.0163650212 -0.9925209988
16600200400.0 0.0004648618 -0.9927769361
16650200100.0 -0.0157766682 -0.9926016293
16700199800.0 -0.0320483293 -0.9925946903
16750199500.0 -0.0510460191 -0.9915350113
16800199200.0 -0.067117139 -0.9906931588
16850198900.0 -0.0823738404 -0.9893229946
16900198600.0 -0.0966175208 -0.9883375571
16950198300.0 -0.1101817192 -0.9871922489
17000198000.0 -0.1237824059 -0.9859386541
17050197700.0 -0.1365133058 -0.9844007039
17100197400.0 -0.1495323613 -0.9817665444
17150197100.0 -0.1621616254 -0.9799308603
17200196800.0 -0.1748537018 -0.9780411008
17250196500.0 -0.1877315668 -0.9753708936
17300196200.0 -0.199989246 -0.9729846114
17350195900.0 -0.2116615695 -0.9704917535
17400195600.0 -0.223488371 -0.9680314926
17450195300.0 -0.2363554579 -0.9652600083
17500195000.0 -0.2495385669 -0.9620745285
17550194700.0 -0.2634609619 -0.9583661522
17600194400.0 -0.2769526991 -0.9545588767
17650194100.0 -0.2907186957 -0.9502040349
17700193800.0 -0.3038180294 -0.946311832
17750193500.0 -0.3184136806 -0.9412250888
17800193200.0 -0.3321018886 -0.9365348994
17850192900.0 -0.3473715622 -0.9315215308
17900192600.0 -0.3622505589 -0.9250188187
17950192300.0 -0.3773379533 -0.9177140833
18000192000.0 -0.3922887734 -0.9105335595
18050191700.0 -0.4062135032 -0.9026217694
18100191400.0 -0.4203693707 -0.8949109074
18150191100.0 -0.4350721392 -0.8869667485
18200190800.0 -0.4517946585 -0.8779107953
18250190500.0 -0.4688932349 -0.868299438
18300190200.0 -0.4842579156 -0.8594903288
18350189900.0 -0.4997530601 -0.8510872772
18400189600.0 -0.5141844104 -0.8425386328
18450189300.0 -0.527495532 -0.8345202733
18500189000.0 -0.5410059675 -0.8264804989
18550188700.0 -0.5537536658 -0.8190304481
18600188400.0 -0.5661431901 -0.8115484432
18650188100.0 -0.577207894 -0.8054064673
18700187800.0 -0.5881990793 -0.7987375067
18750187500.0 -0.5991203945 -0.7921508651
18800187200.0 -0.6096002027 -0.7850040328
18850186900.0 -0.6200573679 -0.7781125802
18900186600.0 -0.6302519601 -0.7707302766
18950186300.0 -0.6405072235 -0.7629880859
19000186000.0 -0.6477483325 -0.7566927698
19050185700.0 -0.6569873817 -0.7499319553
19100185400.0 -0.6669164794 -0.7414138845
19150185100.0 -0.6768731958 -0.7327882931
19200184800.0 -0.6868002674 -0.7242254511
19250184500.0 -0.6968170674 -0.7154368922
19300184200.0 -0.7086313213 -0.7060221377
19350183900.0 -0.7189343622 -0.6964686576
19400183600.0 -0.7292696941 -0.687318216
19450183300.0 -0.7383035953 -0.6760547101
19500183000.0 -0.7455605552 -0.6664048605
19550182700.0 -0.7558368657 -0.6552486158
19600182400.0 -0.7661021109 -0.6433639454
19650182100.0 -0.7764952568 -0.6311188973
19700181800.0 -0.7870163709 -0.618412029
19750181500.0 -0.797185969 -0.6043120843
19800181200.0 -0.8074249693 -0.5890912341
19850180900.0 -0.8170176303 -0.5739930333
19900180600.0 -0.8246509649 -0.5594689182
19950180300.0 -0.833920628 -0.5433255245
20000180000.0 -0.8235501328 -0.5465527183
20050179700.0 -0.8308146036 -0.5346831637
20100179400.0 -0.8393398426 -0.520756588
20150179100.0 -0.847610979 -0.5098576019
20200178800.0 -0.8554646583 -0.4981473322
20250178500.0 -0.8651573149 -0.4855003595
20300178200.0 -0.8753607656 -0.4725677502
20350177900.0 -0.8844964509 -0.4580733885
20400177600.0 -0.8935326479 -0.443424606
20450177300.0 -0.9020458136 -0.4290176669
20500177000.0 -0.9101871977 -0.4154288864
20550176700.0 -0.9180673417 -0.401761175
20600176400.0 -0.9246828257 -0.3889625116
20650176100.0 -0.9311325652 -0.3763917467
20700175800.0 -0.9384415419 -0.3650518797
20750175500.0 -0.9452528926 -0.3531679859
20800175200.0 -0.9489597728 -0.3422862293
20850174900.0 -0.9535362099 -0.3313208186
20900174600.0 -0.9581260812 -0.3198997008
20950174300.0 -0.9608323587 -0.3099005758
21000174000.0 -0.9639724977 -0.2998469755
21050173700.0 -0.9664941689 -0.2892195858
21100173400.0 -0.9689249122 -0.2785202789
21150173100.0 -0.9728919634 -0.266861578
21200172800.0 -0.9774620457 -0.2539321107
21250172500.0 -0.980968899 -0.2401075252
21300172200.0 -0.9841214963 -0.2257412866
21350171900.0 -0.9862919703 -0.2112480482
21400171600.0 -0.9878788159 -0.197054789
21450171300.0 -0.9885900823 -0.1829852156
21500171000.0 -0.9887657151 -0.1688242473
21550170700.0 -0.9899985858 -0.1526302971
21600170400.0 -0.9906438388 -0.1373356624
21650170100.0 -0.9913980692 -0.1215354258
21700169800.0 -0.9898213018 -0.1073066197
21750169500.0 -0.9909379454 -0.0911530632
21800169200.0 -0.9899678907 -0.0745873567
21850168900.0 -0.9898253344 -0.0576797942
21900168600.0 -0.9896803202 -0.0410923289
21950168300.0 -0.9894011673 -0.0256472774
22000168000.0 -0.9890947886 -0.010646959
22050167700.0 -0.989956626 0.0040832268
22100167400.0 -0.9904770015 0.0198673659
22150167100.0 -0.9912274542 0.0359842426
22200166800.0 -0.9918056096 0.0527800301
22250166500.0 -0.9911330896 0.0702326947
22300166200.0 -0.9903920044 0.0863186844
22350165900.0 -0.9903272384 0.102410847
22400165600.0 -0.9880254106 0.1171042099
22450165300.0 -0.9864109593 0.1343806086
22500165000.0 -0.9851099568 0.1472254159
22550164700.0 -0.9839249004 0.1638113746
22600164400.0 -0.9813743373 0.1796210573
22650164100.0 -0.9783844217 0.1956722571
22700163800.0 -0.975100511 0.212100856
22750163500.0 -0.9722211551 0.22622188
22800163200.0 -0.9688136094 0.2397468109
22850162900.0 -0.9663935001 0.2528133001
22900162600.0 -0.9646399428 0.2667238779
22950162300.0 -0.9631632457 0.2808442369
23000162000.0 -0.9612235588 0.2933353339
23050161700.0 -0.9580598501 0.306745963
23100161400.0 -0.9563967585 0.3203997615
23150161100.0 -0.9523352619 0.3334942662
23200160800.0 -0.9500671171 0.345884441
23250160500.0 -0.9464387095 0.3585614018
23300160200.0 -0.9438104085 0.3714305337
23350159900.0 -0.9399321889 0.3851535628
23400159600.0 -0.9351424663 0.3987039248
23450159300.0 -0.9302032241 0.4124776342
23500159000.0 -0.9248395313 0.4255040232
23550158700.0 -0.9202667811 0.4404842674
23600158400.0 -0.9140493708 0.4546155222
23650158100.0 -0.9067494168 0.4690903692
23700157800.0 -0.8981279147 0.4832714519
23750157500.0 -0.8888173398 0.4977066274
23800157200.0 -0.8784465375 0.510859819
23850156900.0 -0.86976594 0.5240766088
23900156600.0 -0.8591607253 0.536190869
23950156300.0 -0.8502011538 0.5487290404
24000156000.0 -0.8398980965 0.5619268643
24050155700.0 -0.8284634781 0.5735071653
24100155400.0 -0.818493967 0.5858627363
24150155100.0 -0.807722087 0.5989176729
24200154800.0 -0.7969166694 0.6099182766
24250154500.0 -0.7851986803 0.62240956
24300154200.0 -0.7736234305 0.6347455097
24350153900.0 -0.761851492 0.6453318591
24400153600.0 -0.7494033811 0.656192053
24450153300.0 -0.7372394398 0.666953471
24500153000.0 -0.7257462519 0.6771447317
24550152700.0 -0.7141516529 0.6869126163
24600152400.0 -0.7025619689 0.6963734909
24650152100.0 -0.6903586165 0.7043457596
