!Created with skrf (http://scikit-rf.org).
# Hz S RI R 50.0 
!freq ReS11 ImS11
300000.0 -0.9740743416 -0.1198724439
50299700.0 -0.9998564318 0.015125731
100299400.0 -0.9979063349 0.028018093
150299100.0 -1.002654504 0.0447286536
200298800.0 -0.999501733 0.0580706685
250298500.0 -0.9974319793 0.0716478077
300298200.0 -0.9859583391 0.0875267399
350297900.0 -0.9939527462 0.0985067038
400297600.0 -0.9930868375 0.1148763547
450297300.0 -0.9910293384 0.1289572886
500297000.0 -0.9894691272 0.1436201656
550296700.0 -0.9842071415 0.1559961203
600296400.0 -1.017459283 0.1891989759
650296100.0 -0.9820738459 0.1858767757
700295800.0 -0.9793678005 0.1999755608
750295500.0 -0.9764230144 0.2139445055
800295200.0 -0.9730057803 0.2280037338
850294900.0 -0.9695279901 0.241862165
900294600.0 -0.9658329838 0.2557459326
950294300.0 -0.9619594405 0.2693911767
1000294000.0 -0.9581598885 0.2833148607
1050293700.0 -0.953676546 0.2970819369
1100293400.0 -0.9492640153 0.3114991789
1150293100.0 -0.9455298327 0.3234708556
1200292800.0 -0.9402111036 0.33780536
1250292500.0 -0.9348260609 0.3511272044
1300292200.0 -0.9290315564 0.3644750433
1350291900.0 -0.9234745856 0.378418018
1400291600.0 -0.9178930502 0.3916196026
1450291300.0 -0.9123689319 0.4040977366
1500291000.0 -0.9061249564 0.4172935667
1550290700.0 -0.8995641917 0.4307871007
1600290400.0 -0.8933023702 0.4437683981
1650290100.0 -0.8867512515 0.4559005267
1700289800.0 -0.8799935364 0.4693739344
1750289500.0 -0.872827321 0.4813571833
1800289200.0 -0.8655319035 0.4946023626
1850288900.0 -0.8588269377 0.5058239752
1900288600.0 -0.8510151096 0.518720044
1950288300.0 -0.8427824049 0.5313350665
2000288000.0 -0.8354407359 0.5427747498
2050287700.0 -0.8271742313 0.5551815279
2100287400.0 -0.8194264273 0.5666276298
2150287100.0 -0.8107827269 0.5786899964
2200286800.0 -0.8030695787 0.5891814412
2250286500.0 -0.7941265822 0.6013323423
2300286200.0 -0.7852501734 0.6129385471
2350285900.0 -0.7767882064 0.6236051236
2400285600.0 -0.7678168665 0.6343945267
2450285300.0 -0.7590090841 0.6452834423
2500285000.0 -0.7492418886 0.6566801396
2550284700.0 -0.740126394 0.6670977816
2600284400.0 -0.7311770323 0.676986854
2650284100.0 -0.722347095 0.6873767776
2700283800.0 -0.7117841825 0.6975555284
2750283500.0 -0.7013696249 0.7083379147
2800283200.0 -0.6915040099 0.7181992733
2850282900.0 -0.6812410399 0.7282743796
2900282600.0 -0.6706940973 0.7377565592
2950282300.0 -0.6602640395 0.747278871
3000282000.0 -0.6495385153 0.7567328298
3050281700.0 -0.6383915235 0.7659455624
3100281400.0 -0.6267727167 0.7752101317
3150281100.0 -0.6154138729 0.7839271029
3200280800.0 -0.6038385999 0.7924608547
3250280500.0 -0.5927850642 0.8004860951
3300280200.0 -0.5813994632 0.8083861873
3350279900.0 -0.5693697894 0.816556828
3400279600.0 -0.5568744768 0.8243365888
3450279300.0 -0.5456928828 0.8313021178
3500279000.0 -0.5338912391 0.8384917759
3550278700.0 -0.5217665284 0.8456907789
3600278400.0 -0.5097012042 0.8522760757
3650278100.0 -0.4966290422 0.8600367505
3700277800.0 -0.4844353498 0.866572092
3750277500.0 -0.4722238449 0.8730013484
3800277200.0 -0.4598985887 0.8799988183
3850276900.0 -0.4476737905 0.88573126
3900276600.0 -0.4369026547 0.8915292068
3950276300.0 -0.424744938 0.8971014617
4000276000.0 -0.4130044254 0.9032645075
4050275700.0 -0.3999055248 0.9092109056
4100275400.0 -0.3894001419 0.9146137283
4150275100.0 -0.3759781238 0.9206338537
4200274800.0 -0.3627476332 0.9260846878
4250274500.0 -0.350180829 0.9314638147
4300274200.0 -0.3370462052 0.9366913933
4350273900.0 -0.3231252977 0.9421029841
4400273600.0 -0.3081327324 0.9470559792
4450273300.0 -0.2930191267 0.9522891375
4500273000.0 -0.279923399 0.9565544856
4550272700.0 -0.266016453 0.9605682274
4600272400.0 -0.250869966 0.9648559014
4650272100.0 -0.2394736 0.9679021724
4700271800.0 -0.226381653 0.9712145308
4750271500.0 -0.2147759859 0.9740863347
4800271200.0 -0.2025149236 0.9768610479
4850270900.0 -0.1886468134 0.9795608409
4900270600.0 -0.1747302764 0.9819138414
4950270300.0 -0.1603083968 0.984652061
5000270000.0 -0.1458938269 0.9867555385
5050269700.0 -0.1325332199 0.9883557457
5100269400.0 -0.1184327268 0.9900609681
5150269100.0 -0.1045482275 0.9917633483
5200268800.0 -0.0913570615 0.9928439584
5250268500.0 -0.0782492091 0.993694189
5300268200.0 -0.0646465748 0.9942862504
5350267900.0 -0.0518927838 0.9952384397
5400267600.0 -0.036084585 0.9963719428
5450267300.0 -0.022304379 0.9966434583
5500267000.0 -0.0073621437 0.9968276839
5550266700.0 0.0076777865 0.9971581811
5600266400.0 0.0235807154 0.9971130944
5650266100.0 0.039806637 0.9968169162
5700265800.0 0.053975815 0.9959575161
5750265500.0 0.0693627193 0.9953590481
5800265200.0 0.0827363557 0.9942273371
5850264900.0 0.0958316291 0.9932487573
5900264600.0 0.1123890492 0.9913096437
5950264300.0 0.1240649351 0.9897039541
6000264000.0 0.1379400144 0.9879543707
6050263700.0 0.1497960137 0.9866730722
6100263400.0 0.16213827 0.9851908223
6150263100.0 0.1767905909 0.9825084546
6200262800.0 0.1868478429 0.9811777433
6250262500.0 0.1992417133 0.9785552647
6300262200.0 0.2114684457 0.9761641858
6350261900.0 0.2247328757 0.9731617706
6400261600.0 0.2382753135 0.9698571507
6450261300.0 0.2496336853 0.9676937157
6500261000.0 0.2630206597 0.9638045741
6550260700.0 0.2757948558 0.9599873842
6600260400.0 0.2890402572 0.9556227794
6650260100.0 0.3032486034 0.9514643213
6700259800.0 0.3156771072 0.9471929829
6750259500.0 0.3290836141 0.9420017148
6800259200.0 0.3426722826 0.937141922
6850258900.0 0.3548418092 0.9318697326
6900258600.0 0.3674907652 0.9267680982
6950258300.0 0.3798738855 0.9214677772
7000258000.0 0.3915656858 0.9159278588
7050257700.0 0.4036655989 0.9101251653
7100257400.0 0.4169729635 0.9039044908
7150257100.0 0.4274363853 0.8982315397
7200256800.0 0.4406415121 0.8919554708
7250256500.0 0.4528516285 0.8855180583
7300256200.0 0.4660947335 0.8788191679
7350255900.0 0.4786843003 0.8717780646
7400255600.0 0.4922203919 0.8639286921
7450255300.0 0.5081176383 0.8550874754
7500255000.0 0.5202167715 0.8475298904
7550254700.0 0.534036932 0.8386372657
7600254400.0 0.5466743917 0.8304628139
7650254100.0 0.558260955 0.8226654243
7700253800.0 0.5698397517 0.8146319611
7750253500.0 0.5810209751 0.8070080282
7800253200.0 0.5917217983 0.7992049687
7850252900.0 0.6016314666 0.7921982346
7900252600.0 0.6130569246 0.7834104141
7950252300.0 0.6216592161 0.7770660146
8000252000.0 0.6314806187 0.769487578
8050251700.0 0.6421662825 0.7611798234
8100251400.0 0.651969017 0.7532428811
8150251100.0 0.6617420285 0.7447124359
8200250800.0 0.6715370501 0.736519459
8250250500.0 0.6800782396 0.7284544626
8300250200.0 0.6894316433 0.7202136173
8350249900.0 0.6987824396 0.7114049878
8400249600.0 0.7069585685 0.7032973069
8450249300.0 0.7155632449 0.6943794725
8500249000.0 0.7241475345 0.6856744759
8550248700.0 0.7323592124 0.6765245998
8600248400.0 0.7408066208 0.6669559088
8650248100.0 0.7485487227 0.6577359955
8700247800.0 0.757858509 0.646494683
8750247500.0 0.7662761627 0.6364140403
8800247200.0 0.774213763 0.6261143143
8850246900.0 0.7830695029 0.6146629096
8900246600.0 0.7912422445 0.6033619109
8950246300.0 0.8005009667 0.5905968955
9000246000.0 0.8096047963 0.5783580275
9050245700.0 0.8180925887 0.5660130978
9100245400.0 0.826599985 0.5536214027
9150245100.0 0.8355606372 0.5406519614
9200244800.0 0.8450380671 0.5261571072
9250244500.0 0.8543785856 0.5111761225
9300244200.0 0.8623638778 0.4975059154
9350243900.0 0.8699386026 0.4840537223
9400243600.0 0.8765326068 0.4720969592
9450243300.0 0.882209449 0.4612005184
9500243000.0 0.8886076944 0.4495054465
9550242700.0 0.8923906206 0.442056852
9600242400.0 0.896763642 0.4341942075
9650242100.0 0.9007064011 0.4275663356
9700241800.0 0.9054479083 0.4191817005
9750241500.0 0.9093902599 0.4116962405
9800241200.0 0.9143914473 0.4018878294
9850240900.0 0.9204674746 0.3903791389
9900240600.0 0.9262270169 0.3786188361
9950240300.0 0.9331613996 0.3619807397
10000240000.0 0.9381162947 0.3500027447
10050239700.0 0.9440353122 0.3342931283
10100239400.0 0.949489207 0.3182770336
10150239100.0 0.9538136776 0.3029182063
10200238800.0 0.9581086133 0.2873516345
10250238500.0 0.9614336386 0.2738775966
10300238200.0 0.9645680678 0.2601165244
10350237900.0 0.9672430752 0.2467239201
10400237600.0 0.9698933299 0.2334141848
10450237300.0 0.9723933478 0.2197157089
10500237000.0 0.9747852275 0.206936283
10550236700.0 0.9772396617 0.192823885
10600236400.0 0.9794670074 0.1788969147
10650236100.0 0.981359734 0.1645799305
10700235800.0 0.9838088477 0.1521472669
10750235500.0 0.9857867822 0.1386787423
10800235200.0 0.9881514805 0.1244149561
10850234900.0 0.9898505683 0.1098790826
10900234600.0 0.9922878935 0.0949606071
10950234300.0 0.9938127128 0.0815753382
11000234000.0 0.9954406575 0.0661908049
11050233700.0 0.9973173635 0.049600619
11100233400.0 0.9987647895 0.0317125454
11150233100.0 1.000097061 0.0151656157
11200232800.0 1.000706626 -0.000323364
11250232500.0 1.001197777 -0.0178938169
11300232200.0 1.001895697 -0.0363889137
11350231900.0 1.002345236 -0.0525042819
11400231600.0 1.001418596 -0.067387982
11450231300.0 1.001317137 -0.0834224472
11500231000.0 1.000220483 -0.0991391013
11550230700.0 0.9982637629 -0.1128202336
11600230400.0 0.9967373322 -0.1256467252
11650230100.0 0.9949585652 -0.1373023152
11700229800.0 0.9929256366 -0.1525640506
11750229500.0 0.9901219434 -0.1664956043
11800229200.0 0.9876695622 -0.1795476388
11850228900.0 0.9837364021 -0.1916183106
11900228600.0 0.9800142383 -0.2013201392
11950228300.0 0.9766856243 -0.2117236194
12000228000.0 0.9742821121 -0.220363999
12050227700.0 0.9700236995 -0.2333080286
12100227400.0 0.9667120782 -0.2446226818
12150227100.0 0.9616714778 -0.2606707892
12200226800.0 0.9582027036 -0.2724862678
12250226500.0 0.9541566241 -0.2849271084
12300226200.0 0.9499387595 -0.2967635765
12350225900.0 0.9449806125 -0.3109967829
12400225600.0 0.9407585715 -0.3230086939
12450225300.0 0.9360690294 -0.3368477512
12500225000.0 0.9311909283 -0.3506050744
12550224700.0 0.9257173651 -0.3643925385
12600224400.0 0.9207227666 -0.3770525683
12650224100.0 0.9147763874 -0.3915050738
12700223800.0 0.9094698828 -0.4044142185
12750223500.0 0.9040878012 -0.4175234487
12800223200.0 0.8986528567 -0.4303831542
12850222900.0 0.8933824101 -0.4421260896
12900222600.0 0.8879598408 -0.4538346144
12950222300.0 0.881778924 -0.4672048229
13000222000.0 0.8757238937 -0.4782499147
13050221700.0 0.868674942 -0.4917984772
13100221400.0 0.8620506531 -0.5039550896
13150221100.0 0.8550468995 -0.5154343468
13200220800.0 0.8480833443 -0.5276840303
13250220500.0 0.8408221339 -0.5394313463
13300220200.0 0.8332674553 -0.550073365
13350219900.0 0.8254231474 -0.5620600872
13400219600.0 0.8169905807 -0.5738302493
13450219300.0 0.8078049612 -0.5870444652
13500219000.0 0.7977758212 -0.6001696415
13550218700.0 0.78800003 -0.6129057925
13600218400.0 0.7776564338 -0.6248803415
13650218100.0 0.7683978977 -0.6352253922
13700217800.0 0.7582116968 -0.6475345596
13750217500.0 0.746980169 -0.6585021084
13800217200.0 0.7376280958 -0.6700401748
13850216900.0 0.7260462653 -0.6816298705
13900216600.0 0.7158345485 -0.6903914126
13950216300.0 0.7048731332 -0.6995877697
14000216000.0 0.6952696298 -0.7087134578
14050215700.0 0.68605144 -0.7173924212
14100215400.0 0.6767155982 -0.72703955
14150215100.0 0.6676966593 -0.7355043463
14200214800.0 0.6581145531 -0.7441048868
14250214500.0 0.6478435123 -0.7534097629
14300214200.0 0.6373358252 -0.7629905622
14350213900.0 0.6260211282 -0.7724089257
14400213600.0 0.614173895 -0.7822356721
14450213300.0 0.6014605457 -0.7924358624
14500213000.0 0.5880955144 -0.8025623028
14550212700.0 0.5761111654 -0.8116651082
14600212400.0 0.5639181971 -0.8204493991
14650212100.0 0.5505396565 -0.829068225
14700211800.0 0.5369561884 -0.8388962432
14750211500.0 0.5245859247 -0.84721844
14800211200.0 0.5122507856 -0.8553017079
14850210900.0 0.4998956984 -0.8627170913
14900210600.0 0.4867555429 -0.8707272067
14950210300.0 0.4731441123 -0.8783255531
15000210000.0 0.4608075105 -0.8849504603
15050209700.0 0.4485093677 -0.8912423565
15100209400.0 0.4358521885 -0.8970245625
15150209100.0 0.4230148683 -0.902679681
15200208800.0 0.4113749398 -0.9082822256
15250208500.0 0.3993601135 -0.9124553727
15300208200.0 0.3873817616 -0.9175880326
15350207900.0 0.373393226 -0.9214377921
15400207600.0 0.3594947615 -0.9276223076
15450207300.0 0.3449492473 -0.9322858227
15500207000.0 0.3305549818 -0.9367273551
15550206700.0 0.3159181731 -0.942002657
15600206400.0 0.2997710284 -0.9464480939
15650206100.0 0.2839377471 -0.9510126387
15700205800.0 0.2708930414 -0.9543024902
15750205500.0 0.25603829 -0.9576291324
15800205200.0 0.2421819885 -0.9613070773
15850204900.0 0.227916854 -0.9648294923
15900204600.0 0.2130345359 -0.9684684171
15950204300.0 0.1985378908 -0.9715315132
16000204000.0 0.1841584483 -0.9746453433
16050203700.0 0.1689779975 -0.9775163294
16100203400.0 0.1545519732 -0.9799484683
16150203100.0 0.1397544726 -0.9824015761
16200202800.0 0.1256086772 -0.9842711052
16250202500.0 0.1104470868 -0.9854081558
16300202200.0 0.0948984811 -0.9874859499
16350201900.0 0.0805185515 -0.9890640151
16400201600.0 0.0653994373 -0.9901288027
16450201300.0 0.049999443 -0.9910028605
16500201000.0 0.0329535113 -0.9920007944
16550200700.0 0.017048378 -0.992435543
16600200400.0 0.0014602977 -0.9927771969
16650200100.0 -0.0147619378 -0.9927855689
16700199800.0 -0.0312986202 -0.9922603065
16750199500.0 -0.0503215102 -0.9913440345
16800199200.0 -0.0660132174 -0.9907002914
16850198900.0 -0.0819166395 -0.9897119278
16900198600.0 -0.0955665151 -0.9883392314
16950198300.0 -0.1092799882 -0.9875429606
17000198000.0 -0.1224774457 -0.9851311755
17050197700.0 -0.1349248964 -0.9841179068
17100197400.0 -0.1478155674 -0.982807947
17150197100.0 -0.1601604776 -0.9798989534
17200196800.0 -0.1731725299 -0.9777662238
17250196500.0 -0.1865203645 -0.9759908338
17300196200.0 -0.198408565 -0.9733343758
17350195900.0 -0.2102372981 -0.9710547645
17400195600.0 -0.2223114549 -0.9683545745
17450195300.0 -0.2351579119 -0.9656016988
17500195000.0 -0.2485027378 -0.962409527
17550194700.0 -0.2624054473 -0.9587935286
17600194400.0 -0.2760893005 -0.9547458711
17650194100.0 -0.2896582394 -0.9501636507
17700193800.0 -0.3027045222 -0.9463337657
17750193500.0 -0.316860586 -0.9420915633
17800193200.0 -0.3314922437 -0.9367932285
17850192900.0 -0.3461940545 -0.9313173013
17900192600.0 -0.3612132857 -0.9250688339
17950192300.0 -0.3770252504 -0.9180401642
18000192000.0 -0.3915676941 -0.9110178837
18050191700.0 -0.4056212529 -0.9029026339
18100191400.0 -0.4195886495 -0.8952515292
18150191100.0 -0.4345263098 -0.8873306433
18200190800.0 -0.4513691066 -0.8780168195
18250190500.0 -0.4684878281 -0.8689454595
18300190200.0 -0.4839910634 -0.8595903203
18350189900.0 -0.4989898262 -0.8512677825
18400189600.0 -0.5132968998 -0.8430357241
18450189300.0 -0.5271766211 -0.8350236605
18500189000.0 -0.5402946773 -0.827066329
18550188700.0 -0.5528583716 -0.8194374389
18600188400.0 -0.564861553 -0.812806041
18650188100.0 -0.5762025397 -0.8062651084
18700187800.0 -0.5873087431 -0.7994606585
18750187500.0 -0.5979888079 -0.7929457568
18800187200.0 -0.6086635312 -0.7859296812
18850186900.0 -0.6187552283 -0.778994982
18900186600.0 -0.6290744134 -0.771654354
18950186300.0 -0.6392425395 -0.7640871401
19000186000.0 -0.6464922339 -0.7576083936
19050185700.0 -0.6559839369 -0.7504152255
19100185400.0 -0.6658231285 -0.7426923266
19150185100.0 -0.6760624262 -0.7338829844
19200184800.0 -0.6852770137 -0.7258304797
19250184500.0 -0.6953378419 -0.7165617045
19300184200.0 -0.707063972 -0.7063387045
19350183900.0 -0.7178278682 -0.6967639507
19400183600.0 -0.7273198044 -0.6877447112
19450183300.0 -0.7363149378 -0.6776941925
19500183000.0 -0.7446703888 -0.6677590783
19550182700.0 -0.7543058906 -0.6560214159
19600182400.0 -0.7645172809 -0.6442756362
19650182100.0 -0.7755432515 -0.632238479
19700181800.0 -0.785977479 -0.6190136266
19750181500.0 -0.7961941261 -0.6050253555
19800181200.0 -0.8066908059 -0.5900735345
19850180900.0 -0.8161032308 -0.5746170357
19900180600.0 -0.8235913941 -0.5603400891
19950180300.0 -0.8332302749 -0.5436398443
20000180000.0 -0.8237149745 -0.5465805265
20050179700.0 -0.8325065279 -0.5339960423
20100179400.0 -0.8412529287 -0.5209192672
20150179100.0 -0.8486378969 -0.5092756671
20200178800.0 -0.8576449842 -0.4971117988
20250178500.0 -0.8666213288 -0.4842031703
20300178200.0 -0.8756751582 -0.4709798345
20350177900.0 -0.885458321 -0.4562324277
20400177600.0 -0.8944428282 -0.4418237639
20450177300.0 -0.9029334962 -0.4276748481
20500177000.0 -0.9108329353 -0.4137521744
20550176700.0 -0.9186384734 -0.400284629
20600176400.0 -0.9256674615 -0.3875424935
20650176100.0 -0.9323232111 -0.3752565545
20700175800.0 -0.93898251 -0.3631100591
20750175500.0 -0.94560858 -0.3516002848
20800175200.0 -0.9497726701 -0.3406565328
20850174900.0 -0.9556517624 -0.3298137573
20900174600.0 -0.9584717314 -0.3193322146
20950174300.0 -0.9622766033 -0.3078027151
21000174000.0 -0.9655417054 -0.2968401762
21050173700.0 -0.9671945935 -0.2866914921
21100173400.0 -0.9708163467 -0.2757010377
21150173100.0 -0.9748495083 -0.2633827216
21200172800.0 -0.9789399667 -0.2497066304
21250172500.0 -0.9821421389 -0.2363951476
21300172200.0 -0.9854424036 -0.2225941893
21350171900.0 -0.9872895216 -0.2081710375
21400171600.0 -0.988982881 -0.1935492077
21450171300.0 -0.9898317822 -0.1796175739
21500171000.0 -0.9903425459 -0.1640717173
21550170700.0 -0.9907012498 -0.1496765928
21600170400.0 -0.9902415009 -0.1345710254
21650170100.0 -0.991054279 -0.1180125897
21700169800.0 -0.9896411615 -0.1024151974
21750169500.0 -0.9896638601 -0.0869516568
21800169200.0 -0.9894440779 -0.0709026842
21850168900.0 -0.9893074723 -0.0539415514
21900168600.0 -0.9885090321 -0.0376413979
21950168300.0 -0.9874550482 -0.0211513336
22000168000.0 -0.987557195 -0.0068476879
22050167700.0 -0.9878764529 0.0078317777
22100167400.0 -0.988122823 0.0233006429
22150167100.0 -0.9892574677 0.0391522515
22200166800.0 -0.989620219 0.0555965524
22250166500.0 -0.9894965545 0.0730528534
22300166200.0 -0.9887641381 0.0890422547
22350165900.0 -0.9873853266 0.1054650487
22400165600.0 -0.9853514019 0.120497175
22450165300.0 -0.9834846277 0.1369785994
22500165000.0 -0.9818677262 0.150462392
22550164700.0 -0.9817727808 0.1664895042
22600164400.0 -0.9791404737 0.1818962757
22650164100.0 -0.9763295314 0.1979611714
22700163800.0 -0.9733464536 0.2137037381
22750163500.0 -0.9703864605 0.2286029808
22800163200.0 -0.9675181377 0.2419824124
22850162900.0 -0.9650400856 0.2554231688
22900162600.0 -0.9631436678 0.2690947179
22950162300.0 -0.9615480481 0.2826580111
23000162000.0 -0.9602624234 0.2947691626
23050161700.0 -0.9579090537 0.3079494694
23100161400.0 -0.9548581629 0.3211337577
23150161100.0 -0.9521716713 0.3341431288
23200160800.0 -0.9492578312 0.3465174524
23250160500.0 -0.9458010069 0.3593085446
23300160200.0 -0.9436747704 0.3715573453
23350159900.0 -0.9397505011 0.3851026361
23400159600.0 -0.9346251308 0.3991901422
23450159300.0 -0.9296246339 0.412794233
23500159000.0 -0.925063867 0.4254619414
23550158700.0 -0.9201384371 0.439474808
23600158400.0 -0.9143474502 0.4532505641
23650158100.0 -0.9072889101 0.4679374576
23700157800.0 -0.8990539379 0.4820533362
23750157500.0 -0.889836313 0.4963047186
23800157200.0 -0.8805629451 0.5096576067
23850156900.0 -0.8711032425 0.5224848076
23900156600.0 -0.8609860335 0.5350857882
23950156300.0 -0.8519788319 0.5477108404
24000156000.0 -0.8426578747 0.5599259488
24050155700.0 -0.8325437517 0.571284943
24100155400.0 -0.8210273869 0.5845004431
24150155100.0 -0.8108908958 0.5964361384
24200154800.0 -0.7995946713 0.6079161298
24250154500.0 -0.7886937876 0.6194368463
24300154200.0 -0.7771019431 0.6318470377
24350153900.0 -0.7653206222 0.643187317
24400153600.0 -0.7530002665 0.6535473689
24450153300.0 -0.7409071115 0.6636857148
24500153000.0 -0.7296104846 0.6736188548
24550152700.0 -0.7180783795 0.6836778661
24600152400.0 -0.7062266223 0.6922316925
24650152100.0 -0.6937526601 0.7003527361
