!Created with skrf (http://scikit-rf.org).
# Hz S RI R 50.0 
!freq ReS11 ImS11
300000.0 -0.977895936 -0.1125904593
50299700.0 -1.000078314 0.0158654309
100299400.0 -0.9980965846 0.0287482859
150299100.0 -1.002661838 0.0456425955
200298800.0 -0.9996747204 0.0589831702
250298500.0 -0.9974689552 0.072566634
300298200.0 -0.9861032495 0.0881662636
350297900.0 -0.9940210138 0.0990947835
400297600.0 -0.9931753799 0.1157368388
450297300.0 -0.9910753836 0.1295554532
500297000.0 -0.9894472756 0.1442903542
550296700.0 -0.9845832137 0.1566799905
600296400.0 -1.017361768 0.1900790762
650296100.0 -0.982301255 0.1868057923
700295800.0 -0.979441215 0.2012143697
750295500.0 -0.9763540803 0.2149711532
800295200.0 -0.9726941373 0.2293207079
850294900.0 -0.9695657388 0.2429918463
900294600.0 -0.9656697189 0.2565333599
950294300.0 -0.9620497848 0.2703980108
1000294000.0 -0.957980388 0.284396804
1050293700.0 -0.9534879177 0.2982247213
1100293400.0 -0.9490156495 0.3125496965
1150293100.0 -0.9452087924 0.3244177895
1200292800.0 -0.9398644893 0.3388794196
1250292500.0 -0.9344820016 0.3522453557
1300292200.0 -0.9287194722 0.3653855415
1350291900.0 -0.9233594118 0.3795360577
1400291600.0 -0.9177404657 0.3926263815
1450291300.0 -0.9122105929 0.404962329
1500291000.0 -0.9058919553 0.4184031792
1550290700.0 -0.8994882852 0.4318315623
1600290400.0 -0.8933178474 0.4445785544
1650290100.0 -0.8865286899 0.4568428052
1700289800.0 -0.8796155498 0.4701132795
1750289500.0 -0.8727113687 0.482538924
1800289200.0 -0.8652134372 0.4954379416
1850288900.0 -0.8584507921 0.5067875707
1900288600.0 -0.8507125309 0.5198097575
1950288300.0 -0.8426495078 0.5322548449
2000288000.0 -0.8350131418 0.5436174476
2050287700.0 -0.8268520939 0.5560308043
2100287400.0 -0.8188459545 0.567795419
2150287100.0 -0.8104560591 0.5797944453
2200286800.0 -0.8024707985 0.5901781352
2250286500.0 -0.7938038566 0.6021398827
2300286200.0 -0.784788153 0.6139559041
2350285900.0 -0.7759499459 0.6247904339
2400285600.0 -0.7670877001 0.6356505256
2450285300.0 -0.7582763373 0.646127821
2500285000.0 -0.748749464 0.6574548296
2550284700.0 -0.740018351 0.6675471526
2600284400.0 -0.7303128238 0.677817169
2650284100.0 -0.7212381799 0.6885457803
2700283800.0 -0.7107552252 0.6989769853
2750283500.0 -0.7005624352 0.7095069155
2800283200.0 -0.6904969037 0.7191177426
2850282900.0 -0.6804672179 0.728976677
2900282600.0 -0.6700908323 0.7387041755
2950282300.0 -0.6598655897 0.7475995779
3000282000.0 -0.6492628735 0.7572413699
3050281700.0 -0.6379921235 0.7663251509
3100281400.0 -0.6262198297 0.7759742536
3150281100.0 -0.6143258803 0.7853028694
3200280800.0 -0.6025854823 0.7937490704
3250280500.0 -0.5918403022 0.8014374984
3300280200.0 -0.5805626989 0.8092976922
3350279900.0 -0.5691277672 0.8168469939
3400279600.0 -0.5571028562 0.8244588712
3450279300.0 -0.5459640649 0.8315666941
3500279000.0 -0.533810234 0.8386292024
3550278700.0 -0.5215406487 0.846069833
3600278400.0 -0.5091370568 0.8533189888
3650278100.0 -0.4958692761 0.8606203307
3700277800.0 -0.4838012826 0.8673296586
3750277500.0 -0.4715204333 0.8738374852
3800277200.0 -0.4592163487 0.8801839079
3850276900.0 -0.4468427563 0.8860534973
3900276600.0 -0.4360048481 0.8917389337
3950276300.0 -0.4236303222 0.8977506747
4000276000.0 -0.4115508511 0.9037345253
4050275700.0 -0.3986419662 0.9099928515
4100275400.0 -0.3872074745 0.9153567223
4150275100.0 -0.3748225632 0.920944877
4200274800.0 -0.3618048615 0.9264715175
4250274500.0 -0.3494751699 0.9316197075
4300274200.0 -0.3363990134 0.937056227
4350273900.0 -0.3228196613 0.9423320023
4400273600.0 -0.307970653 0.9473243442
4450273300.0 -0.2925119686 0.9524917985
4500273000.0 -0.2788879716 0.9566859296
4550272700.0 -0.264693351 0.9612096153
4600272400.0 -0.2491940878 0.9653378799
4650272100.0 -0.2375360962 0.9684183707
4700271800.0 -0.224254529 0.9718816763
4750271500.0 -0.2124070914 0.9747531521
4800271200.0 -0.2000356271 0.9775027576
4850270900.0 -0.1860887102 0.9802197066
4900270600.0 -0.1722390057 0.9826096379
4950270300.0 -0.1579255971 0.9850318116
5000270000.0 -0.1436867803 0.9873102046
5050269700.0 -0.1302279923 0.9889458546
5100269400.0 -0.1167978034 0.9908432878
5150269100.0 -0.1034697707 0.9922047641
5200268800.0 -0.0900880402 0.9932064343
5250268500.0 -0.0772137002 0.9940400661
5300268200.0 -0.0639774634 0.9945669615
5350267900.0 -0.0516842459 0.9952707844
5400267600.0 -0.0355214693 0.996684504
5450267300.0 -0.0225186336 0.9966962262
5500267000.0 -0.0071248073 0.9970259821
5550266700.0 0.0077402529 0.9973411201
5600266400.0 0.0234844713 0.9973721626
5650266100.0 0.0398399366 0.9968963191
5700265800.0 0.0543398296 0.996116552
5750265500.0 0.0697891158 0.9955674132
5800265200.0 0.0834868185 0.9944186796
5850264900.0 0.097040666 0.993538881
5900264600.0 0.113568221 0.9918941175
5950264300.0 0.1254832694 0.9899828646
6000264000.0 0.1395970456 0.9879298126
6050263700.0 0.1519688644 0.9864583423
6100263400.0 0.1642438117 0.9848164789
6150263100.0 0.1788105512 0.9824122995
6200262800.0 0.1892428047 0.9807103871
6250262500.0 0.2019637615 0.9779924247
6300262200.0 0.2148781707 0.9755101843
6350261900.0 0.227948181 0.9723873352
6400261600.0 0.2417638172 0.9690733524
6450261300.0 0.2531450947 0.9665399154
6500261000.0 0.2657999815 0.9626872428
6550260700.0 0.2786998902 0.9588733773
6600260400.0 0.2921135832 0.9548136829
6650260100.0 0.3061604309 0.9504664375
6700259800.0 0.3181362306 0.9459473223
6750259500.0 0.3319593173 0.94109035
6800259200.0 0.3452919038 0.9364533142
6850258900.0 0.3567587959 0.9307756652
6900258600.0 0.369159353 0.9258247311
6950258300.0 0.3815813027 0.9207943371
7000258000.0 0.3937961437 0.9153140775
7050257700.0 0.4061498933 0.9092450497
7100257400.0 0.4187740704 0.9032289022
7150257100.0 0.4291908392 0.8978243311
7200256800.0 0.4417832755 0.8915117598
7250256500.0 0.453673354 0.8851895515
7300256200.0 0.4668066706 0.8784712614
7350255900.0 0.4788897055 0.8712745146
7400255600.0 0.4927270702 0.8643537538
7450255300.0 0.5078599956 0.8551302158
7500255000.0 0.5192157205 0.8479810748
7550254700.0 0.5333770828 0.8396260569
7600254400.0 0.5456328256 0.8309609123
7650254100.0 0.5569500617 0.8232830358
7700253800.0 0.5694050869 0.8155207283
7750253500.0 0.580490872 0.8077875311
7800253200.0 0.5911202545 0.7998232655
7850252900.0 0.6008045238 0.7929526411
7900252600.0 0.6126192895 0.7839145774
7950252300.0 0.6213177294 0.7775515883
8000252000.0 0.6315385615 0.7697330743
8050251700.0 0.6420465868 0.7616736459
8100251400.0 0.6521523936 0.7532563119
8150251100.0 0.6618964953 0.7446325809
8200250800.0 0.6713761964 0.7365043045
8250250500.0 0.6805006657 0.7287075211
8300250200.0 0.6898211998 0.7200468861
8350249900.0 0.6989111873 0.7117657853
8400249600.0 0.7068764294 0.7031880505
8450249300.0 0.7162970336 0.6942208571
8500249000.0 0.724934104 0.6851126438
8550248700.0 0.7330929168 0.6763388674
8600248400.0 0.7414822499 0.6668768336
8650248100.0 0.7492792539 0.6572849235
8700247800.0 0.7587747089 0.6462291768
8750247500.0 0.7669599123 0.6360337516
8800247200.0 0.7750748841 0.625684547
8850246900.0 0.7840360999 0.6143000451
8900246600.0 0.7926338472 0.6029552971
8950246300.0 0.8020553193 0.5898067201
9000246000.0 0.8114242144 0.5769773495
9050245700.0 0.8203509724 0.5643420441
9100245400.0 0.8288876847 0.5515244872
9150245100.0 0.8382040547 0.537777856
9200244800.0 0.8483388532 0.5224762595
9250244500.0 0.8578447072 0.5070307136
9300244200.0 0.8661565875 0.4921786849
9350243900.0 0.8740173553 0.478494312
9400243600.0 0.8806175569 0.4660380658
9450243300.0 0.8863582015 0.4542542443
9500243000.0 0.8927173129 0.4421723536
9550242700.0 0.8964048087 0.4345276232
9600242400.0 0.900212186 0.4270065094
9650242100.0 0.9036961697 0.4206731839
9700241800.0 0.9081688586 0.4126164394
9750241500.0 0.9124121594 0.4047329493
9800241200.0 0.9169161346 0.3959307665
9850240900.0 0.9225037592 0.3841085297
9900240600.0 0.9278507074 0.3726343391
9950240300.0 0.9349533113 0.3560710434
10000240000.0 0.9395155885 0.3448465092
10050239700.0 0.9450672324 0.3288333208
10100239400.0 0.9498820281 0.3140344229
10150239100.0 0.9544524791 0.2992429371
10200238800.0 0.9584902636 0.2843392692
10250238500.0 0.9618400624 0.2709498597
10300238200.0 0.9650603407 0.2570674486
10350237900.0 0.9675624082 0.2439235765
10400237600.0 0.9700622916 0.2309203443
10450237300.0 0.972730082 0.217499679
10500237000.0 0.9750876513 0.205205225
10550236700.0 0.9774239005 0.1907146778
10600236400.0 0.9793467208 0.177117553
10650236100.0 0.9814556292 0.1631628306
10700235800.0 0.9836449709 0.1510424547
10750235500.0 0.9858794256 0.1372766997
10800235200.0 0.9877627461 0.1235309922
10850234900.0 0.9898399637 0.1085451372
10900234600.0 0.991709223 0.0942404913
10950234300.0 0.9934894777 0.0812284192
11000234000.0 0.9951973653 0.0659991343
11050233700.0 0.9970871403 0.0494260164
11100233400.0 0.9984086141 0.0318631332
11150233100.0 0.9995129164 0.0157066131
11200232800.0 1.000219859 0.0002825272
11250232500.0 1.00095503 -0.0157514152
11300232200.0 1.001642616 -0.0336671117
11350231900.0 1.001129478 -0.0492491818
11400231600.0 1.001763319 -0.0653636891
11450231300.0 1.001103487 -0.0811470732
11500231000.0 0.9996307087 -0.0976422197
11550230700.0 0.9979543217 -0.110548148
11600230400.0 0.9971817066 -0.1234556633
11650230100.0 0.994812951 -0.1339466527
11700229800.0 0.9925952971 -0.1490645726
11750229500.0 0.9905212603 -0.1637936917
11800229200.0 0.9877894667 -0.1777295406
11850228900.0 0.9840537803 -0.1901876122
11900228600.0 0.9806753797 -0.1995861801
11950228300.0 0.9773818427 -0.210364793
12000228000.0 0.9747993024 -0.2189577407
12050227700.0 0.9712537505 -0.2319802868
12100227400.0 0.9681377459 -0.2432331408
12150227100.0 0.9625895778 -0.2597677519
12200226800.0 0.9586697988 -0.2705980555
12250226500.0 0.9552787992 -0.2828264405
12300226200.0 0.9515896532 -0.2953903117
12350225900.0 0.9460162005 -0.3093950997
12400225600.0 0.9421584574 -0.3221715232
12450225300.0 0.9371555569 -0.3348071859
12500225000.0 0.9317091203 -0.3495671631
12550224700.0 0.9265973395 -0.3631186044
12600224400.0 0.9218938694 -0.3759865755
12650224100.0 0.9160648933 -0.3902285735
12700223800.0 0.9107475669 -0.4028848005
12750223500.0 0.905388137 -0.415642261
12800223200.0 0.8999950221 -0.4282134888
12850222900.0 0.8946241557 -0.440462631
12900222600.0 0.88870858 -0.4525274872
12950222300.0 0.8822564308 -0.4657589079
13000222000.0 0.8763659781 -0.4776489109
13050221700.0 0.8694544679 -0.4897473873
13100221400.0 0.8632345146 -0.5019177668
13150221100.0 0.8560356396 -0.5141546077
13200220800.0 0.8490059077 -0.5258598693
13250220500.0 0.8417685675 -0.5377934809
13300220200.0 0.8343331374 -0.548623808
13350219900.0 0.8262998982 -0.5607019292
13400219600.0 0.8178656145 -0.5727949229
13450219300.0 0.8083675886 -0.5865287349
13500219000.0 0.7979634125 -0.6003127766
13550218700.0 0.7877899764 -0.6133893014
13600218400.0 0.7774163323 -0.6257089421
13650218100.0 0.7671130482 -0.6369470114
13700217800.0 0.7576090461 -0.6493625539
13750217500.0 0.7468546426 -0.6602865038
13800217200.0 0.7354548307 -0.6726133542
13850216900.0 0.7248544513 -0.6831811902
13900216600.0 0.7151391081 -0.6919490265
13950216300.0 0.7041230701 -0.7031054903
14000216000.0 0.6937780003 -0.7121179634
14050215700.0 0.6844944803 -0.7205473474
14100215400.0 0.6740854673 -0.7295871722
14150215100.0 0.665281256 -0.737793906
14200214800.0 0.6559847069 -0.7463468442
14250214500.0 0.6458639322 -0.7554554325
14300214200.0 0.6355313384 -0.7647125512
14350213900.0 0.6246044729 -0.7741055199
14400213600.0 0.6125021218 -0.7840993412
14450213300.0 0.59955071 -0.7940454463
14500213000.0 0.5867684641 -0.804406421
14550212700.0 0.5742256568 -0.8135629271
14600212400.0 0.5615266559 -0.8219939377
14650212100.0 0.5483133307 -0.8307512771
14700211800.0 0.5341993513 -0.8403402715
14750211500.0 0.5224882727 -0.8481605369
14800211200.0 0.5100587003 -0.8564508203
14850210900.0 0.4979786484 -0.8640969244
14900210600.0 0.4845084995 -0.8720189623
14950210300.0 0.4710781601 -0.87955115
15000210000.0 0.4581368004 -0.8865292757
15050209700.0 0.445781153 -0.8924322932
15100209400.0 0.432642685 -0.8987092772
15150209100.0 0.4205926787 -0.9040189366
15200208800.0 0.407722135 -0.9099228968
15250208500.0 0.3969597686 -0.9139241606
15300208200.0 0.3845064871 -0.918880772
15350207900.0 0.3704774204 -0.9237717711
15400207600.0 0.3562522039 -0.9288267705
15450207300.0 0.3408289772 -0.9337976011
15500207000.0 0.3274083112 -0.9380839804
15550206700.0 0.3120516601 -0.9437726237
15600206400.0 0.2961042674 -0.9479426544
15650206100.0 0.2803234114 -0.9526680008
15700205800.0 0.2665409813 -0.955635785
15750205500.0 0.251958327 -0.959288763
15800205200.0 0.2376028491 -0.9627745512
15850204900.0 0.2231135833 -0.9661140943
15900204600.0 0.2083438829 -0.9696677577
15950204300.0 0.1941916199 -0.9725435547
16000204000.0 0.1803046397 -0.975370628
16050203700.0 0.165403386 -0.9781917734
16100203400.0 0.1508278841 -0.980044535
16150203100.0 0.1367340008 -0.9826422577
16200202800.0 0.1225106373 -0.9843417572
16250202500.0 0.1078579188 -0.9860115143
16300202200.0 0.0922578936 -0.9877852779
16350201900.0 0.0773472421 -0.9888373794
16400201600.0 0.0631583111 -0.9903832496
16450201300.0 0.0477795662 -0.9912618466
16500201000.0 0.0312533694 -0.9920252954
16550200700.0 0.0155251838 -0.9925733789
16600200400.0 -0.0003030687 -0.9928279748
16650200100.0 -0.0163161297 -0.9925843873
16700199800.0 -0.0327064309 -0.9920848726
16750199500.0 -0.0518032223 -0.9914255652
16800199200.0 -0.0680451557 -0.9905958422
16850198900.0 -0.0824638845 -0.9897264313
16900198600.0 -0.0963757438 -0.9885299639
16950198300.0 -0.1098473406 -0.987921598
17000198000.0 -0.1226540749 -0.9860521677
17050197700.0 -0.1359980523 -0.9832997408
17100197400.0 -0.1486850542 -0.9812663806
17150197100.0 -0.1611980736 -0.9799380963
17200196800.0 -0.1740067584 -0.9780500413
17250196500.0 -0.1866731242 -0.9756953311
17300196200.0 -0.1988450363 -0.9730406935
17350195900.0 -0.2106823546 -0.9708844848
17400195600.0 -0.2228151725 -0.96830331
17450195300.0 -0.2362696364 -0.965482728
17500195000.0 -0.2493034678 -0.9622769678
17550194700.0 -0.2633533442 -0.9587336402
17600194400.0 -0.2771988745 -0.9544535867
17650194100.0 -0.2907314166 -0.9503767977
17700193800.0 -0.3038689745 -0.9461384216
17750193500.0 -0.318179437 -0.9417170019
17800193200.0 -0.3324625908 -0.9367236165
17850192900.0 -0.3475917777 -0.9307476707
17900192600.0 -0.3629502337 -0.9245752586
17950192300.0 -0.3786978422 -0.9176427114
18000192000.0 -0.3929224836 -0.9106470373
18050191700.0 -0.4070547957 -0.9024383774
18100191400.0 -0.4211267141 -0.8948809157
18150191100.0 -0.4361264051 -0.8867273056
18200190800.0 -0.4531583558 -0.8777283705
18250190500.0 -0.4698115402 -0.8677126855
18300190200.0 -0.4855345177 -0.85945252
18350189900.0 -0.5002603159 -0.8509178554
18400189600.0 -0.5151094562 -0.8423017473
18450189300.0 -0.5280443974 -0.8348541445
18500189000.0 -0.5415997482 -0.826422328
18550188700.0 -0.55428399 -0.8190751527
18600188400.0 -0.5657259799 -0.8120103344
18650188100.0 -0.5766171503 -0.8057305667
18700187800.0 -0.5874119532 -0.7991321507
18750187500.0 -0.5982352011 -0.7926694519
18800187200.0 -0.6088176431 -0.7855636845
18850186900.0 -0.6190265044 -0.7783772429
18900186600.0 -0.6293918062 -0.771146418
18950186300.0 -0.6394875402 -0.7633234403
19000186000.0 -0.6468547877 -0.7573839416
19050185700.0 -0.6559742634 -0.7499414676
19100185400.0 -0.6661565702 -0.7409719321
19150185100.0 -0.6763849775 -0.733216317
19200184800.0 -0.6857359829 -0.7241270325
19250184500.0 -0.696060755 -0.7156273167
19300184200.0 -0.7074090913 -0.705657916
19350183900.0 -0.7178409471 -0.6959773657
19400183600.0 -0.7277932809 -0.6863819097
19450183300.0 -0.7367956474 -0.6766431613
19500183000.0 -0.7454036937 -0.6662978145
19550182700.0 -0.7546275024 -0.654572298
19600182400.0 -0.7654756049 -0.6433412231
19650182100.0 -0.7758119314 -0.6314214275
19700181800.0 -0.7866269241 -0.6179347563
19750181500.0 -0.7970691596 -0.603680748
19800181200.0 -0.8073857625 -0.588699881
19850180900.0 -0.8170646471 -0.5735791879
19900180600.0 -0.8249492528 -0.5587487376
19950180300.0 -0.8342699972 -0.5424506262
20000180000.0 -0.8268443197 -0.5448372871
20050179700.0 -0.8351208737 -0.5324470696
20100179400.0 -0.8434655406 -0.5189992613
20150179100.0 -0.8513102592 -0.5057866371
20200178800.0 -0.8596741259 -0.4930851196
20250178500.0 -0.8695594558 -0.4800180349
20300178200.0 -0.8798864693 -0.4648756303
20350177900.0 -0.8884301549 -0.4506698388
20400177600.0 -0.897589087 -0.4360490133
20450177300.0 -0.9055478245 -0.4217686328
20500177000.0 -0.9135434076 -0.4078278312
20550176700.0 -0.9214201872 -0.3942318181
20600176400.0 -0.9280965022 -0.3809135338
20650176100.0 -0.9350216259 -0.3686935945
20700175800.0 -0.941487575 -0.3563141825
20750175500.0 -0.9487407331 -0.3455437542
20800175200.0 -0.9534714666 -0.3341537818
20850174900.0 -0.9582021701 -0.3236188395
20900174600.0 -0.9627237988 -0.3121093333
20950174300.0 -0.966498914 -0.2992479826
21000174000.0 -0.9702967359 -0.2890459919
21050173700.0 -0.9728967141 -0.277103298
21100173400.0 -0.9776979162 -0.265068107
21150173100.0 -0.9810423865 -0.2527678175
21200172800.0 -0.9853923049 -0.2386599948
21250172500.0 -0.9877698902 -0.2250259905
21300172200.0 -0.9904944617 -0.2110151527
21350171900.0 -0.9920743652 -0.1966507606
21400171600.0 -0.9939041907 -0.1818497319
21450171300.0 -0.9933203415 -0.1678809279
21500171000.0 -0.9936947093 -0.1527730633
21550170700.0 -0.9930066525 -0.1369690707
21600170400.0 -0.9928125697 -0.1215215209
21650170100.0 -0.991916035 -0.1048181449
21700169800.0 -0.9905548333 -0.0905067426
21750169500.0 -0.9892496371 -0.0746936477
21800169200.0 -0.9882910659 -0.0591599294
21850168900.0 -0.9871718675 -0.0417440849
21900168600.0 -0.9859413584 -0.0255481419
21950168300.0 -0.9840516496 -0.0093089329
22000168000.0 -0.9833755249 0.0051613492
22050167700.0 -0.9825115893 0.0196998855
22100167400.0 -0.9826677086 0.0344614371
22150167100.0 -0.9832416151 0.04996854
22200166800.0 -0.9837672337 0.0665493989
22250166500.0 -0.9830329716 0.0835160164
22300166200.0 -0.9821230178 0.1002339236
22350165900.0 -0.9802558599 0.1165811725
22400165600.0 -0.9785513273 0.1325435137
22450165300.0 -0.9769499685 0.1465790125
22500165000.0 -0.975317827 0.1615381957
22550164700.0 -0.9748138582 0.175932235
22600164400.0 -0.9731930394 0.1927506488
22650164100.0 -0.9704249512 0.2075198398
22700163800.0 -0.9680011737 0.222294212
22750163500.0 -0.9652816365 0.238172527
22800163200.0 -0.9627039449 0.251473482
22850162900.0 -0.9600581206 0.2644319862
22900162600.0 -0.9587372657 0.2779831775
22950162300.0 -0.9580707388 0.2906775954
23000162000.0 -0.9566316815 0.302606411
23050161700.0 -0.9544421272 0.3150916366
23100161400.0 -0.952507466 0.327940465
23150161100.0 -0.9496152796 0.3398904785
23200160800.0 -0.9471428566 0.3522452007
23250160500.0 -0.9439871616 0.3641453705
23300160200.0 -0.9421852154 0.3764943565
23350159900.0 -0.937883515 0.3883463058
23400159600.0 -0.9327783587 0.402735943
23450159300.0 -0.9286237335 0.4152268445
23500159000.0 -0.9235234388 0.4283830134
23550158700.0 -0.9194375288 0.4418340343
23600158400.0 -0.9140316636 0.4545974348
23650158100.0 -0.9075197531 0.4686375059
23700157800.0 -0.9000209978 0.4824754308
23750157500.0 -0.891180435 0.4963955453
23800157200.0 -0.8823710183 0.5097839897
23850156900.0 -0.8739677048 0.5221808063
23900156600.0 -0.864630695 0.5347305256
23950156300.0 -0.855109859 0.5468966013
24000156000.0 -0.8462495776 0.5586795257
24050155700.0 -0.8354205166 0.5710773661
24100155400.0 -0.8260148506 0.5825735226
24150155100.0 -0.8151242552 0.5942856366
24200154800.0 -0.8039711433 0.6057335553
24250154500.0 -0.7923126507 0.6180781984
24300154200.0 -0.7814616192 0.6295215553
24350153900.0 -0.7695404158 0.6402225002
24400153600.0 -0.7575334394 0.6500370907
24450153300.0 -0.7455374427 0.660095793
24500153000.0 -0.733771486 0.669559802
24550152700.0 -0.7225346263 0.6791091251
24600152400.0 -0.7107166858 0.6887023432
24650152100.0 -0.6999052419 0.6971580336
