!Created with skrf (http://scikit-rf.org).
# Hz S RI R 50.0 
!freq ReS11 ImS11
300000.0 -1.000445701 -0.0199818172
50299700.0 -0.9987980462 0.0161489561
100299400.0 -0.9968831161 0.0286105977
150299100.0 -1.001526068 0.0452242973
200298800.0 -0.9983045551 0.0586456028
250298500.0 -0.9961332422 0.0720211345
300298200.0 -0.9844679361 0.0875695168
350297900.0 -0.9923719978 0.0983897247
400297600.0 -0.9916166518 0.1145443999
450297300.0 -0.9892112366 0.1284357938
500297000.0 -0.9876582484 0.1431783089
550296700.0 -0.9824288793 0.1552001695
600296400.0 -1.015150161 0.1882522057
650296100.0 -0.9802850391 0.1848493249
700295800.0 -0.9772237523 0.1987976331
750295500.0 -0.9743981438 0.2128563735
800295200.0 -0.9708307078 0.2269374578
850294900.0 -0.9676860862 0.2404754534
900294600.0 -0.9638461034 0.2543660789
950294300.0 -0.9600684836 0.2678711628
1000294000.0 -0.9561862707 0.281520201
1050293700.0 -0.9518545469 0.2953391521
1100293400.0 -0.947661404 0.3096912066
1150293100.0 -0.9438390992 0.3215210382
1200292800.0 -0.9386947264 0.3358632339
1250292500.0 -0.9332521361 0.3491808807
1300292200.0 -0.9276292764 0.3623323476
1350291900.0 -0.9223093774 0.376345639
1400291600.0 -0.916895021 0.389331373
1450291300.0 -0.911685225 0.4016014598
1500291000.0 -0.9055903217 0.4151296408
1550290700.0 -0.8990467106 0.4283408319
1600290400.0 -0.8930168669 0.4413262595
1650290100.0 -0.8866157126 0.4531907465
1700289800.0 -0.879832109 0.4667712759
1750289500.0 -0.8730474842 0.4789266437
1800289200.0 -0.8657623546 0.4915939928
1850288900.0 -0.8591313473 0.5027916659
1900288600.0 -0.851591448 0.5158762692
1950288300.0 -0.8434228493 0.5284595275
2000288000.0 -0.836123091 0.539948318
2050287700.0 -0.8281350968 0.5522442044
2100287400.0 -0.8201097154 0.5635580034
2150287100.0 -0.8116552334 0.5759060784
2200286800.0 -0.8038341618 0.5863573764
2250286500.0 -0.7952767941 0.5981354476
2300286200.0 -0.78662297 0.6095220204
2350285900.0 -0.7779283108 0.6203474382
2400285600.0 -0.7687329737 0.6316429596
2450285300.0 -0.7600394016 0.642349402
2500285000.0 -0.7505841922 0.6531018749
2550284700.0 -0.7415044854 0.6638108075
2600284400.0 -0.7314993446 0.6740522505
2650284100.0 -0.723196508 0.6841648126
2700283800.0 -0.7128685538 0.6942682551
2750283500.0 -0.7027099627 0.704819793
2800283200.0 -0.6926165494 0.7147920549
2850282900.0 -0.6823541235 0.7243968663
2900282600.0 -0.6719746361 0.7342933583
2950282300.0 -0.6618106368 0.7433290113
3000282000.0 -0.6509243117 0.7528050406
3050281700.0 -0.6400445868 0.7622684568
3100281400.0 -0.6291781922 0.7709443682
3150281100.0 -0.6181694715 0.7799914279
3200280800.0 -0.6065477804 0.7887660165
3250280500.0 -0.5955292478 0.7970191104
3300280200.0 -0.584035642 0.8053708694
3350279900.0 -0.5729085559 0.8129497102
3400279600.0 -0.5608308417 0.8210835724
3450279300.0 -0.5494069868 0.8288297929
3500279000.0 -0.5376893771 0.8361352497
3550278700.0 -0.5257052614 0.8436384869
3600278400.0 -0.5143567915 0.8502247795
3650278100.0 -0.5013854465 0.8583896739
3700277800.0 -0.4892866264 0.8647564891
3750277500.0 -0.4772370793 0.8713989585
3800277200.0 -0.4648255794 0.8782191627
3850276900.0 -0.4523425035 0.8845773944
3900276600.0 -0.4412094741 0.8905390729
3950276300.0 -0.4279730455 0.8968706806
4000276000.0 -0.4159741607 0.9029869671
4050275700.0 -0.4027204149 0.9090669166
4100275400.0 -0.3911515276 0.9143173239
4150275100.0 -0.3781706717 0.9199141367
4200274800.0 -0.3645344592 0.9254713337
4250274500.0 -0.3525628334 0.9301550111
4300274200.0 -0.3395037107 0.9353203635
4350273900.0 -0.3262119658 0.9404577071
4400273600.0 -0.3124915025 0.945012962
4450273300.0 -0.2981247174 0.9498328653
4500273000.0 -0.2851375894 0.9538318863
4550272700.0 -0.2720370545 0.9577970627
4600272400.0 -0.2568307445 0.9620527531
4650272100.0 -0.2445253851 0.9650768148
4700271800.0 -0.2311860326 0.9686972633
4750271500.0 -0.2181076577 0.9716877287
4800271200.0 -0.204866628 0.9746693552
4850270900.0 -0.190967236 0.977507679
4900270600.0 -0.1775883089 0.9797754862
4950270300.0 -0.1642148671 0.9820988304
5000270000.0 -0.1501828302 0.9844240447
5050269700.0 -0.1364455672 0.9859543319
5100269400.0 -0.1225557612 0.9883222374
5150269100.0 -0.1087401619 0.9899141522
5200268800.0 -0.0951757484 0.9911240142
5250268500.0 -0.081801931 0.9926729205
5300268200.0 -0.0680344648 0.9933015436
5350267900.0 -0.055617532 0.9942332465
5400267600.0 -0.040061923 0.9950733621
5450267300.0 -0.0275450233 0.9955412626
5500267000.0 -0.0132346949 0.9956454075
5550266700.0 6.15066e-05 0.9959352798
5600266400.0 0.0145054469 0.9959417324
5650266100.0 0.0302086369 0.9957866804
5700265800.0 0.043768637 0.994957808
5750265500.0 0.0577862347 0.9945060221
5800265200.0 0.0716229774 0.993627313
5850264900.0 0.0847470817 0.9927296825
5900264600.0 0.1010634366 0.9915921304
5950264300.0 0.1133348893 0.9901029582
6000264000.0 0.1267381299 0.9879451619
6050263700.0 0.1400241306 0.9866312638
6100263400.0 0.1528641683 0.9847640123
6150263100.0 0.1684471185 0.9823554905
6200262800.0 0.179267826 0.9804419606
6250262500.0 0.1924881587 0.9777718523
6300262200.0 0.2054581821 0.9751568521
6350261900.0 0.2184393649 0.9723173229
6400261600.0 0.2329351677 0.9689600217
6450261300.0 0.2447348804 0.9662219989
6500261000.0 0.2578918975 0.962691776
6550260700.0 0.2706894876 0.9587477609
6600260400.0 0.2838269604 0.9551467755
6650260100.0 0.2976619168 0.9511731524
6700259800.0 0.3097438295 0.9468486519
6750259500.0 0.3227779088 0.942344999
6800259200.0 0.3364549144 0.937494508
6850258900.0 0.3491605137 0.9326863712
6900258600.0 0.3615418118 0.927948978
6950258300.0 0.3745398664 0.922836061
7000258000.0 0.3865297641 0.9176131147
7050257700.0 0.3983658026 0.9122049274
7100257400.0 0.4122986376 0.9060447261
7150257100.0 0.4230014944 0.9010875071
7200256800.0 0.4360908986 0.8948062724
7250256500.0 0.4475800824 0.8889941294
7300256200.0 0.4603512745 0.8823838069
7350255900.0 0.4725337615 0.8764440085
7400255600.0 0.4834699944 0.8701741258
7450255300.0 0.4973704975 0.8621160769
7500255000.0 0.5091042518 0.8553169697
7550254700.0 0.5211754988 0.8478991318
7600254400.0 0.5330900975 0.8405136274
7650254100.0 0.5444377194 0.8333557054
7700253800.0 0.5562231898 0.8255232865
7750253500.0 0.5671200211 0.8179242428
7800253200.0 0.5788939156 0.8098806216
7850252900.0 0.5882923927 0.8030387352
7900252600.0 0.6004795494 0.7941972509
7950252300.0 0.610150641 0.7868330383
8000252000.0 0.620684739 0.7786697969
8050251700.0 0.631455337 0.769981307
8100251400.0 0.6412843821 0.76212328
8150251100.0 0.652036925 0.7527924873
8200250800.0 0.6617213794 0.7446517824
8250250500.0 0.6716145438 0.7357074215
8300250200.0 0.681308582 0.7268594602
8350249900.0 0.6907331915 0.7178758741
8400249600.0 0.6996503074 0.7091362227
8450249300.0 0.7096260614 0.6995577137
8500249000.0 0.7188172492 0.6900450431
8550248700.0 0.7282591044 0.6799264903
8600248400.0 0.7376251721 0.6698751626
8650248100.0 0.7454676641 0.6607697264
8700247800.0 0.7545794105 0.650034935
8750247500.0 0.7634230679 0.6397144404
8800247200.0 0.7717203699 0.6295270372
8850246900.0 0.7804364191 0.6186446749
8900246600.0 0.7886722363 0.607808924
8950246300.0 0.7975800424 0.5960157621
9000246000.0 0.805371594 0.585318238
9050245700.0 0.8135906887 0.5736819176
9100245400.0 0.8217932544 0.5619531354
9150245100.0 0.8297502857 0.5501720565
9200244800.0 0.8375544154 0.5388106726
9250244500.0 0.8458804358 0.5258567308
9300244200.0 0.8531995453 0.5139418499
9350243900.0 0.8605568096 0.5011847669
9400243600.0 0.8676570713 0.488948037
9450243300.0 0.8735958514 0.4780326451
9500243000.0 0.8807408546 0.4651717424
9550242700.0 0.8867255944 0.4541815306
9600242400.0 0.8925354011 0.4428121876
9650242100.0 0.8975132105 0.432632945
9700241800.0 0.9032624351 0.4216720691
9750241500.0 0.9085491546 0.410445483
9800241200.0 0.913947916 0.3981408751
9850240900.0 0.9191941862 0.3862713832
9900240600.0 0.9236084454 0.3764684773
9950240300.0 0.929562416 0.3620164101
10000240000.0 0.9344776074 0.3494084107
10050239700.0 0.9397379889 0.3359641035
10100239400.0 0.9439659911 0.3222280231
10150239100.0 0.9485380714 0.3086635398
10200238800.0 0.9530794788 0.2942081062
10250238500.0 0.9568903534 0.2809640186
10300238200.0 0.9604543371 0.2669561724
10350237900.0 0.9638394475 0.2542441464
10400237600.0 0.9671202537 0.2409212939
10450237300.0 0.9703543641 0.2269665587
10500237000.0 0.9734690951 0.213538606
10550236700.0 0.9758089407 0.2007487401
10600236400.0 0.9783052299 0.1872750248
10650236100.0 0.9807016175 0.1719641079
10700235800.0 0.9830785618 0.1590847846
10750235500.0 0.9854819459 0.146007411
10800235200.0 0.9873424875 0.1320163343
10850234900.0 0.9892346602 0.1182652819
10900234600.0 0.9907468132 0.1043082102
10950234300.0 0.9923989961 0.0906705366
11000234000.0 0.9936317675 0.0769498376
11050233700.0 0.9949469569 0.0631329151
11100233400.0 0.9960557285 0.0477338571
11150233100.0 0.996821148 0.0329697122
11200232800.0 0.997335674 0.0196155642
11250232500.0 0.9974774722 0.004874624
11300232200.0 0.9983941001 -0.0109392634
11350231900.0 0.9987045405 -0.0256786411
11400231600.0 0.9983247938 -0.0402829004
11450231300.0 0.9973595806 -0.0528376028
11500231000.0 0.9964127055 -0.0678666128
11550230700.0 0.9955289979 -0.0822293546
11600230400.0 0.994857608 -0.0962871426
11650230100.0 0.9927898223 -0.1080267735
11700229800.0 0.9910905834 -0.1228709064
11750229500.0 0.9891986391 -0.1368184655
11800229200.0 0.9875841813 -0.1501732888
11850228900.0 0.9848184186 -0.1644699714
11900228600.0 0.9820030702 -0.1774023246
11950228300.0 0.9792933554 -0.1902335128
12000228000.0 0.9763275447 -0.2024259553
12050227700.0 0.9735123607 -0.2156350455
12100227400.0 0.9706314803 -0.226883957
12150227100.0 0.9665410298 -0.2446879053
12200226800.0 0.9629132056 -0.2555165341
12250226500.0 0.959358716 -0.2699752821
12300226200.0 0.9556330677 -0.2816795404
12350225900.0 0.9508448594 -0.2968705115
12400225600.0 0.9467134948 -0.3095873132
12450225300.0 0.9429926331 -0.3221705009
12500225000.0 0.9375712243 -0.3359629397
12550224700.0 0.9326455949 -0.350560341
12600224400.0 0.9279507247 -0.3621709553
12650224100.0 0.9222600782 -0.3766160989
12700223800.0 0.9170106405 -0.3895712722
12750223500.0 0.9114671211 -0.4026141636
12800223200.0 0.905788531 -0.415672696
12850222900.0 0.9005771613 -0.4275716782
12900222600.0 0.8944924856 -0.4398563717
12950222300.0 0.8876573178 -0.4533999193
13000222000.0 0.8816937853 -0.4651708835
13050221700.0 0.8747256609 -0.4781589623
13100221400.0 0.8685242468 -0.4896120088
13150221100.0 0.8612662593 -0.5025261748
13200220800.0 0.8544435978 -0.514300516
13250220500.0 0.8472704564 -0.5264682698
13300220200.0 0.8395868871 -0.5378133511
13350219900.0 0.8315853461 -0.5503365185
13400219600.0 0.8239740182 -0.5618726564
13450219300.0 0.8158141159 -0.573812617
13500219000.0 0.8065370399 -0.5864995913
13550218700.0 0.7978716469 -0.5980908174
13600218400.0 0.7892866442 -0.6094239257
13650218100.0 0.7805612413 -0.6200437363
13700217800.0 0.7709591397 -0.6316958822
13750217500.0 0.7613464449 -0.6427166513
13800217200.0 0.7506535369 -0.6552143585
13850216900.0 0.7404061572 -0.6668425029
13900216600.0 0.7316291142 -0.6762665789
13950216300.0 0.7203915869 -0.6873957273
14000216000.0 0.7112265757 -0.6971254166
14050215700.0 0.7020607492 -0.7057677832
14100215400.0 0.6909678294 -0.7164948962
14150215100.0 0.6807115933 -0.7259534017
14200214800.0 0.6711286272 -0.7354684806
14250214500.0 0.6602969387 -0.7453690421
14300214200.0 0.6492600259 -0.7551491806
14350213900.0 0.6383615532 -0.764736568
14400213600.0 0.6271352301 -0.7740570182
14450213300.0 0.6161107173 -0.7829448612
14500213000.0 0.6036846728 -0.791961097
14550212700.0 0.5921134617 -0.801022049
14600212400.0 0.5804580329 -0.810022446
14650212100.0 0.5684684891 -0.817970727
14700211800.0 0.5552803228 -0.8272986862
14750211500.0 0.5430188927 -0.8351104255
14800211200.0 0.5304584379 -0.8435834736
14850210900.0 0.5187422374 -0.8510808312
14900210600.0 0.5059778806 -0.8589093501
14950210300.0 0.4932074446 -0.8663347634
15000210000.0 0.4804424115 -0.8736406217
15050209700.0 0.467568374 -0.8803921853
15100209400.0 0.4548791412 -0.8871715731
15150209100.0 0.4422143925 -0.8935681962
15200208800.0 0.4295634999 -0.8993907002
15250208500.0 0.417140985 -0.9055971137
15300208200.0 0.4033814128 -0.9109387616
15350207900.0 0.3903111665 -0.9156719985
15400207600.0 0.3764617233 -0.9219689802
15450207300.0 0.3620601151 -0.9274963921
15500207000.0 0.3483606481 -0.9325716874
15550206700.0 0.3352822359 -0.9375654272
15600206400.0 0.3206839436 -0.942201093
15650206100.0 0.3058799998 -0.9467163493
15700205800.0 0.2921602924 -0.951306753
15750205500.0 0.2776987953 -0.9550923984
15800205200.0 0.2638736516 -0.9589845675
15850204900.0 0.250040069 -0.9625529457
15900204600.0 0.23473392 -0.9667368614
15950204300.0 0.2209559271 -0.9700888797
16000204000.0 0.2063736133 -0.9732690591
16050203700.0 0.1914541362 -0.9759811573
16100203400.0 0.1775010262 -0.9789526201
16150203100.0 0.1631534392 -0.9817905679
16200202800.0 0.1482692265 -0.9840636548
16250202500.0 0.1336740035 -0.985902253
16300202200.0 0.1182273033 -0.9876655455
16350201900.0 0.1029255739 -0.9892120503
16400201600.0 0.0881802067 -0.9906380472
16450201300.0 0.0736434453 -0.9920326678
16500201000.0 0.0579238934 -0.9932610867
16550200700.0 0.0428440173 -0.994208391
16600200400.0 0.0275632189 -0.9945714819
16650200100.0 0.0120596644 -0.9951185681
16700199800.0 -0.002521319 -0.9951419869
16750199500.0 -0.0187804268 -0.9951740811
16800199200.0 -0.0337566778 -0.9949868495
16850198900.0 -0.0495141695 -0.9929638044
16900198600.0 -0.0643855675 -0.9930084022
16950198300.0 -0.0788088602 -0.9922085188
17000198000.0 -0.0931508986 -0.9904209061
17050197700.0 -0.1065930011 -0.9885871053
17100197400.0 -0.1214615102 -0.987139805
17150197100.0 -0.1354833096 -0.9855600399
17200196800.0 -0.1490981772 -0.9837617794
17250196500.0 -0.1634731895 -0.9807521488
17300196200.0 -0.177660486 -0.9786028227
17350195900.0 -0.1912896292 -0.9757967263
17400195600.0 -0.2047407504 -0.973139869
17450195300.0 -0.2184603144 -0.9701448485
17500195000.0 -0.2322980073 -0.9669597293
17550194700.0 -0.2464063299 -0.9634520697
17600194400.0 -0.2605704337 -0.959546568
17650194100.0 -0.2749484995 -0.9560485599
17700193800.0 -0.2875382069 -0.9517434366
17750193500.0 -0.3020340327 -0.9473398713
17800193200.0 -0.3155402888 -0.9426698778
17850192900.0 -0.3295616832 -0.9381248317
17900192600.0 -0.3437508127 -0.9330002055
17950192300.0 -0.3586673426 -0.9266254585
18000192000.0 -0.3736571773 -0.9206953638
18050191700.0 -0.3876269073 -0.9139259328
18100191400.0 -0.4018604841 -0.9074948931
18150191100.0 -0.4157601756 -0.9007627314
18200190800.0 -0.4303525422 -0.8936484419
18250190500.0 -0.4456271967 -0.8858064675
18300190200.0 -0.4599170616 -0.8787620583
18350189900.0 -0.4745339687 -0.871518462
18400189600.0 -0.4892197123 -0.8640148805
18450189300.0 -0.50216676 -0.8563945587
18500189000.0 -0.5151917968 -0.8486491938
18550188700.0 -0.5281617477 -0.8412442898
18600188400.0 -0.5410122407 -0.8329923199
18650188100.0 -0.5531238973 -0.8255607955
18700187800.0 -0.5653464708 -0.817777483
18750187500.0 -0.576789203 -0.8102802036
18800187200.0 -0.5882734061 -0.8021075065
18850186900.0 -0.5993775475 -0.7940971315
18900186600.0 -0.6100632294 -0.7858484316
18950186300.0 -0.621450619 -0.7770325208
19000186000.0 -0.631083618 -0.7691131665
19050185700.0 -0.6420108789 -0.760795773
19100185400.0 -0.6523716337 -0.7517165974
19150185100.0 -0.6628085066 -0.7426275944
19200184800.0 -0.6728228197 -0.7338094389
19250184500.0 -0.6827481893 -0.7235295915
19300184200.0 -0.6941075543 -0.7136631918
19350183900.0 -0.7039539853 -0.7039815334
19400183600.0 -0.7141651601 -0.6942122106
19450183300.0 -0.7240860573 -0.6834080684
19500183000.0 -0.733778514 -0.6730140554
19550182700.0 -0.7428999934 -0.662111093
19600182400.0 -0.752752229 -0.650725338
19650182100.0 -0.7621523462 -0.6393695411
19700181800.0 -0.771548906 -0.6274444498
19750181500.0 -0.7810913228 -0.6152307647
19800181200.0 -0.7909093904 -0.6023387778
19850180900.0 -0.8002948607 -0.5893480694
19900180600.0 -0.8084356625 -0.5769236881
19950180300.0 -0.8182664058 -0.5631760183
20000180000.0 -0.8224615237 -0.5533326307
20050179700.0 -0.8318284084 -0.5424215359
20100179400.0 -0.8396116953 -0.5287130973
20150179100.0 -0.8472508061 -0.5162256557
20200178800.0 -0.8556892635 -0.5042373265
20250178500.0 -0.8640533591 -0.491849115
20300178200.0 -0.8723037474 -0.4781638861
20350177900.0 -0.8792007666 -0.4650938356
20400177600.0 -0.8869294694 -0.4520301242
20450177300.0 -0.894075027 -0.4387499357
20500177000.0 -0.9005853301 -0.4254351953
20550176700.0 -0.9077540342 -0.4125110421
20600176400.0 -0.9135978663 -0.3992621504
20650176100.0 -0.9195685196 -0.3863807943
20700175800.0 -0.9260969225 -0.3742442366
20750175500.0 -0.9320543125 -0.3613351995
20800175200.0 -0.9367660248 -0.3491568506
20850174900.0 -0.941276814 -0.3365407742
20900174600.0 -0.9455876309 -0.3243247939
20950174300.0 -0.9501776849 -0.3116212315
21000174000.0 -0.9541210134 -0.2993585374
21050173700.0 -0.9567411813 -0.2882834621
21100173400.0 -0.9609255869 -0.2744877706
21150173100.0 -0.9642884955 -0.2613672111
21200172800.0 -0.9676127542 -0.2474916085
21250172500.0 -0.9713117279 -0.2342133029
21300172200.0 -0.9748413272 -0.2199490187
21350171900.0 -0.9770487941 -0.2060011012
21400171600.0 -0.9802389058 -0.1917964814
21450171300.0 -0.9815573178 -0.1775950604
21500171000.0 -0.9830504407 -0.1625638755
21550170700.0 -0.9861053717 -0.1477993279
21600170400.0 -0.9877938996 -0.1324898154
21650170100.0 -0.9894068352 -0.1171007088
21700169800.0 -0.989420092 -0.1024548892
21750169500.0 -0.9904839726 -0.0868197558
21800169200.0 -0.9914076203 -0.0730162764
21850168900.0 -0.9926733382 -0.0565734106
21900168600.0 -0.9919653036 -0.0418570435
21950168300.0 -0.9924113493 -0.0264286076
22000168000.0 -0.9918445714 -0.0117878758
22050167700.0 -0.9920458309 0.0030241619
22100167400.0 -0.9919715265 0.0182711851
22150167100.0 -0.9919743796 0.0331389757
22200166800.0 -0.9919400953 0.0484342186
22250166500.0 -0.9905708802 0.0635528618
22300166200.0 -0.9899603457 0.0777263813
22350165900.0 -0.9891018893 0.0931465481
22400165600.0 -0.987633253 0.1080542786
22450165300.0 -0.9862978095 0.1224255724
22500165000.0 -0.9842321063 0.135727522
22550164700.0 -0.9833958872 0.1503378124
22600164400.0 -0.9806942771 0.1651535843
22650164100.0 -0.9780516153 0.1774850978
22700163800.0 -0.9762069674 0.1916496734
22750163500.0 -0.9730855833 0.2064775696
22800163200.0 -0.9698575676 0.2194624902
22850162900.0 -0.9673772488 0.2323841581
22900162600.0 -0.9643848923 0.2459934655
22950162300.0 -0.9614221291 0.2593701688
23000162000.0 -0.9587353676 0.2719691497
23050161700.0 -0.9552019652 0.2853676217
23100161400.0 -0.9519350926 0.2983976507
23150161100.0 -0.9488906961 0.3106251997
23200160800.0 -0.9450993202 0.3242108512
23250160500.0 -0.9416279021 0.3370480516
23300160200.0 -0.9382567154 0.3499386607
23350159900.0 -0.9333375285 0.3631829552
23400159600.0 -0.9290949865 0.3756832305
23450159300.0 -0.9241274093 0.3883998923
23500159000.0 -0.9196350172 0.4009166995
23550158700.0 -0.9144024832 0.4140943246
23600158400.0 -0.9088470401 0.4262365902
23650158100.0 -0.9031226482 0.4389681801
23700157800.0 -0.8964996946 0.451727359
23750157500.0 -0.8896613534 0.4650923078
23800157200.0 -0.8823465006 0.4778892617
23850156900.0 -0.8754140352 0.4897779834
23900156600.0 -0.8677259147 0.502242488
23950156300.0 -0.8595350082 0.5149835654
24000156000.0 -0.8526043696 0.5267510911
24050155700.0 -0.8430604704 0.5381987912
24100155400.0 -0.8358156136 0.549516397
24150155100.0 -0.8269274061 0.5612947829
24200154800.0 -0.8183517068 0.5730484328
24250154500.0 -0.809361609 0.5843958293
24300154200.0 -0.8000446238 0.596157569
24350153900.0 -0.7908077484 0.606875404
24400153600.0 -0.7809336977 0.6181407585
24450153300.0 -0.770941343 0.6287479987
24500153000.0 -0.7614542267 0.6390669739
24550152700.0 -0.7521302075 0.6498828462
24600152400.0 -0.7418638257 0.6597897525
24650152100.0 -0.7313323985 0.670004162
