!Created with skrf (http://scikit-rf.org).
# Hz S RI R 50.0 
!freq ReS11 ImS11
300000.0 -0.9740414492 -0.121234742
50299700.0 -1.000022475 0.0150286221
100299400.0 -0.9979800282 0.0279753977
150299100.0 -1.00260404 0.0449137077
200298800.0 -0.9995305128 0.0581460398
250298500.0 -0.9973737952 0.0718301802
300298200.0 -0.9858136134 0.087584943
350297900.0 -0.9938012585 0.0983628994
400297600.0 -0.9930572192 0.1149989207
450297300.0 -0.9909056374 0.1285403736
500297000.0 -0.9893858613 0.1433084339
550296700.0 -0.9841418593 0.1557433633
600296400.0 -1.017258018 0.1891885812
650296100.0 -0.9820465072 0.1858301818
700295800.0 -0.9793211994 0.2000635156
750295500.0 -0.9762988061 0.2139338394
800295200.0 -0.9729197 0.2281738101
850294900.0 -0.9696376528 0.2419865278
900294600.0 -0.9657826454 0.2557768822
950294300.0 -0.9622553381 0.2694488064
1000294000.0 -0.9582429066 0.2832041458
1050293700.0 -0.9536533269 0.2971079977
1100293400.0 -0.9493131879 0.3116072001
1150293100.0 -0.9453677355 0.323295698
1200292800.0 -0.9401106354 0.3376898953
1250292500.0 -0.9346692795 0.3512895691
1300292200.0 -0.9288797675 0.3643971548
1350291900.0 -0.9233809958 0.3784358189
1400291600.0 -0.9178650786 0.3916101426
1450291300.0 -0.9125677689 0.4038812429
1500291000.0 -0.9061060023 0.4173100128
1550290700.0 -0.8995431268 0.4306584542
1600290400.0 -0.8933605816 0.4437210432
1650290100.0 -0.8868696302 0.4557047456
1700289800.0 -0.8798867205 0.4693409635
1750289500.0 -0.8728227168 0.4816210395
1800289200.0 -0.8655821966 0.4942492159
1850288900.0 -0.8589561403 0.5057931159
1900288600.0 -0.8509494157 0.5186781246
1950288300.0 -0.8430447523 0.5311821828
2000288000.0 -0.8355505746 0.5428251792
2050287700.0 -0.8271107689 0.5553572577
2100287400.0 -0.8193030963 0.5666426078
2150287100.0 -0.8109195143 0.578474043
2200286800.0 -0.8030850382 0.5890747744
2250286500.0 -0.7942264476 0.6012176979
2300286200.0 -0.7851809923 0.6128155475
2350285900.0 -0.7768841152 0.6235925006
2400285600.0 -0.7679322295 0.6343089317
2450285300.0 -0.7590102366 0.6449652463
2500285000.0 -0.7489706255 0.6565529485
2550284700.0 -0.7402723576 0.6667958892
2600284400.0 -0.7311531509 0.6768777608
2650284100.0 -0.7223103763 0.6871973902
2700283800.0 -0.7119252437 0.6974483525
2750283500.0 -0.701493155 0.7080855738
2800283200.0 -0.6918003909 0.7183129756
2850282900.0 -0.6813124732 0.7283627398
2900282600.0 -0.6707920706 0.7376628201
2950282300.0 -0.6601771081 0.747200693
3000282000.0 -0.6495836694 0.7564948554
3050281700.0 -0.6383827159 0.7660184125
3100281400.0 -0.6267868571 0.7750669987
3150281100.0 -0.6157059084 0.7840366579
3200280800.0 -0.6040732281 0.7923980707
3250280500.0 -0.5929708293 0.8003749709
3300280200.0 -0.5814868105 0.8085274555
3350279900.0 -0.5693785897 0.816357131
3400279600.0 -0.5568107405 0.8245713455
3450279300.0 -0.5456672091 0.8317359257
3500279000.0 -0.5338321441 0.8384770115
3550278700.0 -0.5218131839 0.8457273093
3600278400.0 -0.5097649294 0.8524496389
3650278100.0 -0.4969311667 0.8600699362
3700277800.0 -0.4846732784 0.8666578984
3750277500.0 -0.4724566804 0.8734377857
3800277200.0 -0.4599766742 0.8796891701
3850276900.0 -0.448069929 0.8855532721
3900276600.0 -0.4366464355 0.8913056399
3950276300.0 -0.4248242497 0.8971760123
4000276000.0 -0.4129257999 0.9032079242
4050275700.0 -0.4004294784 0.9089445285
4100275400.0 -0.3894071261 0.9145465234
4150275100.0 -0.3760381852 0.9204128132
4200274800.0 -0.3627564667 0.9263315762
4250274500.0 -0.3499341133 0.9313090462
4300274200.0 -0.3367996817 0.9367138169
4350273900.0 -0.3227035818 0.9420990941
4400273600.0 -0.3077486374 0.9472723915
4450273300.0 -0.2928007096 0.9522082586
4500273000.0 -0.2796777896 0.95648604
4550272700.0 -0.2659765736 0.9605982082
4600272400.0 -0.2510215963 0.9646389528
4650272100.0 -0.2396344387 0.9678575227
4700271800.0 -0.2266745648 0.9711451809
4750271500.0 -0.2150032222 0.9739264279
4800271200.0 -0.2027438261 0.9767834671
4850270900.0 -0.1888535246 0.9794593595
4900270600.0 -0.1752512549 0.9819004758
4950270300.0 -0.1606682795 0.9847040136
5000270000.0 -0.1462076331 0.9867224906
5050269700.0 -0.1325604638 0.9881639333
5100269400.0 -0.1186552267 0.9901723945
5150269100.0 -0.1046787168 0.9918705754
5200268800.0 -0.0915332304 0.9929531513
5250268500.0 -0.0781678795 0.9937213812
5300268200.0 -0.0645612319 0.9943928836
5350267900.0 -0.0516208046 0.9950691629
5400267600.0 -0.0355243851 0.9963393913
5450267300.0 -0.022283345 0.9967464851
5500267000.0 -0.0069828952 0.9969910342
5550266700.0 0.0077285274 0.9970731471
5600266400.0 0.0237103832 0.9969740233
5650266100.0 0.0405033648 0.9967346446
5700265800.0 0.054537307 0.9960477334
5750265500.0 0.0695608244 0.9951480335
5800265200.0 0.0828771862 0.993807042
5850264900.0 0.096344935 0.9933056308
5900264600.0 0.113039842 0.991761073
5950264300.0 0.1246285394 0.9899149705
6000264000.0 0.1377597931 0.987608725
6050263700.0 0.1497641825 0.9864479664
6100263400.0 0.161777903 0.9849498771
6150263100.0 0.1767755776 0.9827267709
6200262800.0 0.1861871342 0.9811299387
6250262500.0 0.1988227559 0.9786346331
6300262200.0 0.2109955135 0.9761119718
6350261900.0 0.2239897127 0.9732315403
6400261600.0 0.2376543261 0.9699967799
6450261300.0 0.2488517174 0.9676495735
6500261000.0 0.2621439198 0.9639957311
6550260700.0 0.2752472867 0.9602174313
6600260400.0 0.2886909888 0.9559827061
6650260100.0 0.3028165084 0.9519324063
6700259800.0 0.3151321237 0.9474173407
6750259500.0 0.3284044386 0.942163683
6800259200.0 0.3424267601 0.9375581619
6850258900.0 0.3547309736 0.9322541429
6900258600.0 0.3671258819 0.9269528261
6950258300.0 0.3795077296 0.9216182112
7000258000.0 0.3914786622 0.9163791231
7050257700.0 0.4031985537 0.910406327
7100257400.0 0.4167798178 0.9040123346
7150257100.0 0.4273091802 0.8985885025
7200256800.0 0.4404254899 0.8921659357
7250256500.0 0.4528442907 0.8856508206
7300256200.0 0.4659070974 0.8786823637
7350255900.0 0.4787671511 0.8716345598
7400255600.0 0.4927514382 0.8642408344
7450255300.0 0.5082665169 0.8551438915
7500255000.0 0.5206820751 0.8475311816
7550254700.0 0.5355339476 0.8384008994
7600254400.0 0.5473347583 0.8301883949
7650254100.0 0.5590662725 0.8222953845
7700253800.0 0.5706627735 0.814309768
7750253500.0 0.5816670745 0.8064531078
7800253200.0 0.5923975029 0.7990439484
7850252900.0 0.6021390439 0.7914812068
7900252600.0 0.613541662 0.7827739957
7950252300.0 0.6220924029 0.7763731811
8000252000.0 0.6318865311 0.768849494
8050251700.0 0.6425764621 0.7607279743
8100251400.0 0.6524800033 0.7527230526
8150251100.0 0.6621107987 0.7443551859
8200250800.0 0.6719459536 0.7362308304
8250250500.0 0.6807191526 0.7283336783
8300250200.0 0.689963689 0.7196722175
8350249900.0 0.6993225597 0.7109523601
8400249600.0 0.7070577221 0.7030436742
8450249300.0 0.7155763632 0.6944934044
8500249000.0 0.7244022642 0.685590315
8550248700.0 0.7326945705 0.6763775053
8600248400.0 0.7409004963 0.6668462498
8650248100.0 0.7486552794 0.657556482
8700247800.0 0.7579076999 0.6464965712
8750247500.0 0.7663162432 0.6363828528
8800247200.0 0.7739403027 0.626148238
8850246900.0 0.7829922502 0.6148003487
8900246600.0 0.7911613968 0.6032560474
8950246300.0 0.8004487241 0.5906034887
9000246000.0 0.8091961136 0.5785796576
9050245700.0 0.8178774609 0.5661156411
9100245400.0 0.8262364752 0.5540040049
9150245100.0 0.8348633665 0.5413604387
9200244800.0 0.8445001301 0.5265908268
9250244500.0 0.8534650846 0.511898482
9300244200.0 0.8614840436 0.4983635834
9350243900.0 0.8690329606 0.4851638442
9400243600.0 0.8757824547 0.4733319659
9450243300.0 0.8812084744 0.4629098183
9500243000.0 0.88772512 0.4511349393
9550242700.0 0.8915759108 0.4436159529
9600242400.0 0.8958949364 0.4362937966
9650242100.0 0.9001651468 0.4291332386
9700241800.0 0.9050497983 0.4206095709
9750241500.0 0.908874332 0.4130927661
9800241200.0 0.914168437 0.4038203084
9850240900.0 0.9201900623 0.3917462413
9900240600.0 0.9259050719 0.3800346758
9950240300.0 0.9332425053 0.3630403308
10000240000.0 0.9379622461 0.351198078
10050239700.0 0.9441576319 0.3351899536
10100239400.0 0.9491474334 0.3190110192
10150239100.0 0.9536662944 0.3029886089
10200238800.0 0.958300362 0.2879234156
10250238500.0 0.9614634649 0.2743595732
10300238200.0 0.9647353197 0.2602037855
10350237900.0 0.9673546919 0.2471512306
10400237600.0 0.9701213131 0.2335431507
10450237300.0 0.9727297353 0.2200322727
10500237000.0 0.9746811491 0.2079943965
10550236700.0 0.9775590094 0.192867427
10600236400.0 0.9795447627 0.1788517115
10650236100.0 0.9814188997 0.1648678117
10700235800.0 0.98410085 0.1518306697
10750235500.0 0.9860999039 0.1386757142
10800235200.0 0.9879681089 0.1244141696
10850234900.0 0.9900953347 0.1092281856
10900234600.0 0.9919694951 0.0947939663
10950234300.0 0.9936759017 0.0812518024
11000234000.0 0.9954989393 0.0658100142
11050233700.0 0.9972684167 0.0490779874
11100233400.0 0.9986755182 0.0312780735
11150233100.0 0.9998013597 0.0147565593
11200232800.0 1.000615416 -0.0010999534
11250232500.0 1.002143271 -0.0191373206
11300232200.0 1.001621802 -0.0370301014
11350231900.0 1.002349359 -0.0529716989
11400231600.0 1.0019997 -0.0694341824
11450231300.0 1.001165525 -0.0846310604
11500231000.0 0.9998070636 -0.1010214135
11550230700.0 0.9983165878 -0.1145194152
11600230400.0 0.9968780163 -0.1272737677
11650230100.0 0.9947014122 -0.13882856
11700229800.0 0.9928126169 -0.1539811987
11750229500.0 0.9903542979 -0.1679629959
11800229200.0 0.9874153387 -0.1810688834
11850228900.0 0.9834922066 -0.1933220848
11900228600.0 0.9800055411 -0.2026949866
11950228300.0 0.9765400572 -0.2131752213
12000228000.0 0.9740437761 -0.2217643365
12050227700.0 0.9700472131 -0.2343535915
12100227400.0 0.9665361766 -0.2454185167
12150227100.0 0.9624541759 -0.2614816415
12200226800.0 0.9588512767 -0.2723854037
12250226500.0 0.9536808564 -0.2855077901
12300226200.0 0.9491056195 -0.298513111
12350225900.0 0.9447108943 -0.3119558899
12400225600.0 0.9404315777 -0.3242466204
12450225300.0 0.9358121355 -0.3367747398
12500225000.0 0.9302539393 -0.3514894125
12550224700.0 0.9249759678 -0.3653217931
12600224400.0 0.9201555523 -0.3778669719
12650224100.0 0.9141805963 -0.3923412016
12700223800.0 0.9090375998 -0.4051354068
12750223500.0 0.9035300417 -0.4183536975
12800223200.0 0.8981421251 -0.4308969907
12850222900.0 0.8928016224 -0.4426819443
12900222600.0 0.887157467 -0.4552300325
12950222300.0 0.881084182 -0.467743915
13000222000.0 0.8752816395 -0.4792965727
13050221700.0 0.8685777268 -0.4925086325
13100221400.0 0.8615712771 -0.5038652182
13150221100.0 0.8548738928 -0.5163858942
13200220800.0 0.8479596764 -0.5275890322
13250220500.0 0.8405413973 -0.5400484842
13300220200.0 0.8330797696 -0.5511031585
13350219900.0 0.8247761241 -0.5629923936
13400219600.0 0.8165072575 -0.5748198704
13450219300.0 0.8073058632 -0.5878885814
13500219000.0 0.7975858685 -0.6008854985
13550218700.0 0.7874713191 -0.6132604968
13600218400.0 0.7781261255 -0.6254152079
13650218100.0 0.7677384738 -0.6358474264
13700217800.0 0.7572892074 -0.6481682294
13750217500.0 0.7471300396 -0.6584799475
13800217200.0 0.7372197679 -0.6701521525
13850216900.0 0.7262830185 -0.681768608
13900216600.0 0.715774194 -0.6898362006
13950216300.0 0.7052630813 -0.7005864728
14000216000.0 0.6953000461 -0.7089873929
14050215700.0 0.6860536661 -0.7171597266
14100215400.0 0.6767654332 -0.7263616082
14150215100.0 0.6676321896 -0.7350713649
14200214800.0 0.6580719418 -0.7438255918
14250214500.0 0.6474805981 -0.7534741964
14300214200.0 0.6372335816 -0.7629152078
14350213900.0 0.6258765185 -0.7726415107
14400213600.0 0.6140248738 -0.7820731423
14450213300.0 0.6007994063 -0.7927912155
14500213000.0 0.5886580573 -0.8026189923
14550212700.0 0.5760854102 -0.8117796408
14600212400.0 0.5634548234 -0.8206703475
14650212100.0 0.5505930552 -0.8294361043
14700211800.0 0.5373973246 -0.8387518499
14750211500.0 0.5251840505 -0.8471747764
14800211200.0 0.5126361931 -0.8552994669
14850210900.0 0.5002354169 -0.8629792718
14900210600.0 0.4867965438 -0.8709858239
14950210300.0 0.4734983151 -0.8785700509
15000210000.0 0.4607962548 -0.8853802171
15050209700.0 0.4484601997 -0.8916203125
15100209400.0 0.4359358143 -0.8971815402
15150209100.0 0.4233899471 -0.9028449784
15200208800.0 0.4108778598 -0.9081923462
15250208500.0 0.399430027 -0.912509183
15300208200.0 0.3872403706 -0.9169986238
15350207900.0 0.3743338671 -0.9215531759
15400207600.0 0.3593443641 -0.927443876
15450207300.0 0.3450589605 -0.9326699911
15500207000.0 0.3298625627 -0.9372620559
15550206700.0 0.315449348 -0.9422714797
15600206400.0 0.2994109828 -0.9466565191
15650206100.0 0.284195066 -0.9506331137
15700205800.0 0.270431586 -0.9541484463
15750205500.0 0.2563798275 -0.9577578784
15800205200.0 0.2423292864 -0.9613422396
15850204900.0 0.2281696954 -0.9647449165
15900204600.0 0.2132552035 -0.9683770788
15950204300.0 0.1987982295 -0.9716889164
16000204000.0 0.1847068915 -0.9747013432
16050203700.0 0.1693923193 -0.9774409833
16100203400.0 0.1544928179 -0.9796843928
16150203100.0 0.1398374573 -0.9822875512
16200202800.0 0.1260109565 -0.9842525353
16250202500.0 0.1103990464 -0.9860782979
16300202200.0 0.0952668132 -0.9873901493
16350201900.0 0.0802697791 -0.9889947264
16400201600.0 0.0656199949 -0.9902117372
16450201300.0 0.0499110292 -0.9911188744
16500201000.0 0.0328970915 -0.9918067932
16550200700.0 0.0169034556 -0.9925238218
16600200400.0 0.0009324431 -0.9927971331
16650200100.0 -0.0151257734 -0.992803358
16700199800.0 -0.0313914582 -0.9925325338
16750199500.0 -0.0505765453 -0.9916396017
16800199200.0 -0.0664781052 -0.9905496309
16850198900.0 -0.081763316 -0.9889185246
16900198600.0 -0.0955074889 -0.9883916909
16950198300.0 -0.1103245181 -0.987386448
17000198000.0 -0.1229651108 -0.9858726645
17050197700.0 -0.1361095729 -0.9843044548
17100197400.0 -0.1490094929 -0.9823451124
17150197100.0 -0.1610172416 -0.979874776
17200196800.0 -0.1739126055 -0.977704297
17250196500.0 -0.1871376133 -0.9756886554
17300196200.0 -0.1992517563 -0.9732603986
17350195900.0 -0.2110651771 -0.9708473762
17400195600.0 -0.2228868993 -0.9681709063
17450195300.0 -0.235692636 -0.965411929
17500195000.0 -0.2490986737 -0.9622077969
17550194700.0 -0.2629557708 -0.9584662885
17600194400.0 -0.2765730604 -0.9548293335
17650194100.0 -0.2903639835 -0.9506671781
17700193800.0 -0.3030302344 -0.9467685917
17750193500.0 -0.3174798647 -0.9416870134
17800193200.0 -0.3318070024 -0.936296165
17850192900.0 -0.3465583611 -0.931384275
17900192600.0 -0.3613020047 -0.9252017962
17950192300.0 -0.3771300324 -0.9179792397
18000192000.0 -0.3917728422 -0.9108900083
18050191700.0 -0.4057442792 -0.902751012
18100191400.0 -0.4197662127 -0.8953024202
18150191100.0 -0.4346933414 -0.8871805421
18200190800.0 -0.4516546519 -0.878165632
18250190500.0 -0.468302851 -0.8683571759
18300190200.0 -0.4841048222 -0.8598898236
18350189900.0 -0.4990733702 -0.8517000202
18400189600.0 -0.5137320538 -0.8429570941
18450189300.0 -0.5274883317 -0.8351287146
18500189000.0 -0.5405109353 -0.826982921
18550188700.0 -0.5533609702 -0.8193906685
18600188400.0 -0.5655199516 -0.8123517122
18650188100.0 -0.576698537 -0.8062186089
18700187800.0 -0.5874969718 -0.7992865978
18750187500.0 -0.5984095622 -0.7927176756
18800187200.0 -0.6091115888 -0.7855458246
18850186900.0 -0.6192144055 -0.7786697284
18900186600.0 -0.6297409536 -0.7710968342
18950186300.0 -0.6396675749 -0.7635210867
19000186000.0 -0.6474681518 -0.7572742415
19050185700.0 -0.6566775757 -0.7502297333
19100185400.0 -0.6665090149 -0.7422662102
19150185100.0 -0.6767855675 -0.7334979617
19200184800.0 -0.6865811668 -0.7255221622
19250184500.0 -0.6962517386 -0.7160260866
19300184200.0 -0.7080618372 -0.7061741499
19350183900.0 -0.7183362978 -0.6971199473
19400183600.0 -0.7281864295 -0.687235042
19450183300.0 -0.7369268703 -0.6769986934
19500183000.0 -0.7453641627 -0.6666007359
19550182700.0 -0.754884425 -0.6561198076
19600182400.0 -0.7651978024 -0.644375442
19650182100.0 -0.7760027404 -0.6321705431
19700181800.0 -0.7862647757 -0.6188978974
19750181500.0 -0.7966643121 -0.6046833843
19800181200.0 -0.8068631275 -0.5899017614
19850180900.0 -0.8165206792 -0.5744623064
19900180600.0 -0.8240916175 -0.5598058637
19950180300.0 -0.8333398217 -0.5437946917
20000180000.0 -0.8238355873 -0.5474780633
20050179700.0 -0.8314666124 -0.5347470257
20100179400.0 -0.8397712385 -0.52130908
20150179100.0 -0.8484515349 -0.5091097341
20200178800.0 -0.8557831849 -0.4983521049
20250178500.0 -0.865497708 -0.485490202
20300178200.0 -0.8747000096 -0.4718135144
20350177900.0 -0.8844744536 -0.4577133786
20400177600.0 -0.8935425119 -0.4432612815
20450177300.0 -0.9018712426 -0.4293023149
20500177000.0 -0.9102387383 -0.4153407937
20550176700.0 -0.9180320336 -0.40219964
20600176400.0 -0.9250540175 -0.388662322
20650176100.0 -0.9317228577 -0.3769641581
20700175800.0 -0.9380448543 -0.3654184824
20750175500.0 -0.9446135875 -0.3531128893
20800175200.0 -0.9494681907 -0.3424083934
20850174900.0 -0.9538630368 -0.3319828659
20900174600.0 -0.9579209161 -0.3198662975
20950174300.0 -0.9611781244 -0.310027124
21000174000.0 -0.9639628576 -0.2989943046
21050173700.0 -0.9657126686 -0.289209905
21100173400.0 -0.9688921832 -0.278509487
21150173100.0 -0.9730381403 -0.2664424038
21200172800.0 -0.977154662 -0.2535905587
21250172500.0 -0.9807824072 -0.239668652
21300172200.0 -0.9841880209 -0.2257333591
21350171900.0 -0.9858385308 -0.2115301579
21400171600.0 -0.9875519022 -0.1971907925
21450171300.0 -0.9887812582 -0.1831457505
21500171000.0 -0.9887734298 -0.1681066534
21550170700.0 -0.9898916002 -0.1524015373
21600170400.0 -0.9903225136 -0.1370727362
21650170100.0 -0.9905561863 -0.1229206925
21700169800.0 -0.9900554513 -0.1062734109
21750169500.0 -0.9900327135 -0.0901379687
21800169200.0 -0.9906418222 -0.0735996937
21850168900.0 -0.989338924 -0.0570085433
21900168600.0 -0.9894827293 -0.0407769244
21950168300.0 -0.9886027852 -0.0255239898
22000168000.0 -0.9888793545 -0.010137018
22050167700.0 -0.9894993819 0.0045368054
22100167400.0 -0.9903092524 0.0200552348
22150167100.0 -0.991291957 0.0364548859
22200166800.0 -0.9919217294 0.0525763569
22250166500.0 -0.9911087276 0.0696392941
22300166200.0 -0.9904584196 0.0862527743
22350165900.0 -0.9893864469 0.1022773383
22400165600.0 -0.9874622067 0.1173815258
22450165300.0 -0.985829917 0.1329406183
22500165000.0 -0.9841395714 0.1476949351
22550164700.0 -0.9824916123 0.1641347655
22600164400.0 -0.9812271627 0.1795563066
22650164100.0 -0.9772997235 0.1958726229
22700163800.0 -0.9745025957 0.2113401359
22750163500.0 -0.9722775367 0.2261343542
22800163200.0 -0.969233569 0.2395737231
22850162900.0 -0.966089637 0.2529500589
22900162600.0 -0.9645873935 0.2669089025
22950162300.0 -0.9629096607 0.2801580978
23000162000.0 -0.9611832137 0.2931509961
23050161700.0 -0.9587045943 0.3063122232
23100161400.0 -0.955977874 0.3199073659
23150161100.0 -0.9521977876 0.3323582853
23200160800.0 -0.9503623478 0.3462114173
23250160500.0 -0.9470721415 0.3575464447
23300160200.0 -0.9439758082 0.3704604856
23350159900.0 -0.9402846055 0.3843464034
23400159600.0 -0.9350440865 0.3981214904
23450159300.0 -0.9298615475 0.4118936863
23500159000.0 -0.925109857 0.4254296556
23550158700.0 -0.9201742494 0.439713564
23600158400.0 -0.9139920801 0.4532037953
23650158100.0 -0.9072402895 0.4680838117
23700157800.0 -0.8988976666 0.4824073638
23750157500.0 -0.8895235533 0.4966833112
23800157200.0 -0.8801646518 0.5101538292
23850156900.0 -0.8697174937 0.523082586
23900156600.0 -0.8602777543 0.5352033039
23950156300.0 -0.8509020976 0.5481266378
24000156000.0 -0.840807971 0.5605945589
24050155700.0 -0.8307478411 0.5727296857
24100155400.0 -0.8203729961 0.5850854703
24150155100.0 -0.8098511395 0.5972254486
24200154800.0 -0.798420147 0.6090656974
24250154500.0 -0.7866603151 0.6210412487
24300154200.0 -0.7755399179 0.6327600584
24350153900.0 -0.7638524546 0.6439594106
24400153600.0 -0.751269066 0.654907633
24450153300.0 -0.7393823163 0.6648115932
24500153000.0 -0.727487821 0.6745157309
24550152700.0 -0.7165421852 0.6850178683
24600152400.0 -0.7037541062 0.69423557
24650152100.0 -0.6921631569 0.7027864123
