!Created with skrf (http://scikit-rf.org).
# Hz S RI R 50.0 
!freq ReS11 ImS11
300000.0 -0.9743315727 -0.1197731915
50299700.0 -0.9999741274 0.0152313312
100299400.0 -0.9980779755 0.0282637411
150299100.0 -1.002879171 0.0450689807
200298800.0 -0.9995856108 0.0584077362
250298500.0 -0.9973540958 0.0719805194
300298200.0 -0.985953014 0.087697189
350297900.0 -0.9939654891 0.0985162421
400297600.0 -0.9931308956 0.1152860443
450297300.0 -0.9909259136 0.1289283307
500297000.0 -0.9895702464 0.1435640744
550296700.0 -0.9843618598 0.1560524665
600296400.0 -1.017195879 0.189530354
650296100.0 -0.982130446 0.1862054549
700295800.0 -0.9794551194 0.2002635439
750295500.0 -0.9762467475 0.2143498424
800295200.0 -0.9730727794 0.2283381867
850294900.0 -0.9698408376 0.2422664592
900294600.0 -0.9657647404 0.2560014372
950294300.0 -0.9620556688 0.2696534417
1000294000.0 -0.9580667559 0.2835585276
1050293700.0 -0.9536606271 0.2974661355
1100293400.0 -0.9494296449 0.3118368656
1150293100.0 -0.9455689796 0.32377197
1200292800.0 -0.9401123621 0.3382748407
1250292500.0 -0.9347549442 0.3516456887
1300292200.0 -0.9290492597 0.3649382173
1350291900.0 -0.9234329588 0.3788723783
1400291600.0 -0.9180983612 0.3918316408
1450291300.0 -0.9124547251 0.404308481
1500291000.0 -0.9062318309 0.4177126685
1550290700.0 -0.8997502174 0.4311140453
1600290400.0 -0.89345455 0.4440171962
1650290100.0 -0.8868908359 0.4561644793
1700289800.0 -0.8800008762 0.4695107335
1750289500.0 -0.8727927987 0.481712188
1800289200.0 -0.8655360106 0.4946660754
1850288900.0 -0.8585706532 0.5060837428
1900288600.0 -0.8511676336 0.519072943
1950288300.0 -0.8430097506 0.5316567887
2000288000.0 -0.8355101055 0.543070291
2050287700.0 -0.8270016034 0.5553906661
2100287400.0 -0.8192604524 0.5669766881
2150287100.0 -0.810757254 0.5790219911
2200286800.0 -0.8030216725 0.589323264
2250286500.0 -0.7942120967 0.6014620761
2300286200.0 -0.7853782212 0.613123796
2350285900.0 -0.7766215207 0.6241071401
2400285600.0 -0.7677529672 0.6351900522
2450285300.0 -0.7590664327 0.6454399476
2500285000.0 -0.7493848729 0.6567511912
2550284700.0 -0.7404522986 0.6670707094
2600284400.0 -0.7309193665 0.6771020213
2650284100.0 -0.7220834433 0.6876385739
2700283800.0 -0.7115229143 0.6983009392
2750283500.0 -0.701267112 0.7088087284
2800283200.0 -0.691155899 0.718568597
2850282900.0 -0.6809984423 0.7283631914
2900282600.0 -0.67069531 0.7378062934
2950282300.0 -0.6604435229 0.7471736806
3000282000.0 -0.6499395827 0.7566520127
3050281700.0 -0.6385987241 0.7659625551
3100281400.0 -0.6267972062 0.7752643528
3150281100.0 -0.6150965195 0.7846158525
3200280800.0 -0.603391024 0.7931761841
3250280500.0 -0.5924408853 0.8007202516
3300280200.0 -0.5811452181 0.808666955
3350279900.0 -0.5695300533 0.8164247432
3400279600.0 -0.5573517418 0.8240939341
3450279300.0 -0.5463343314 0.8312330599
3500279000.0 -0.534388209 0.8382458001
3550278700.0 -0.5219360284 0.8454304386
3600278400.0 -0.5097199605 0.8528813997
3650278100.0 -0.4965522769 0.8603474912
3700277800.0 -0.4843712608 0.8668647568
3750277500.0 -0.4722582647 0.8731459518
3800277200.0 -0.4598520099 0.879690198
3850276900.0 -0.4478531722 0.885925199
3900276600.0 -0.4369497181 0.8914615887
3950276300.0 -0.4246147495 0.8975293886
4000276000.0 -0.4123401284 0.9036852873
4050275700.0 -0.3993645092 0.909371979
4100275400.0 -0.3886633032 0.9149677552
4150275100.0 -0.3758167359 0.9203885841
4200274800.0 -0.3627090018 0.9261623362
4250274500.0 -0.3506106735 0.9313135247
4300274200.0 -0.3376163073 0.9368474871
4350273900.0 -0.3237797784 0.9418648008
4400273600.0 -0.3089588378 0.9471211078
4450273300.0 -0.2936341517 0.9522051131
4500273000.0 -0.2800026369 0.9566020745
4550272700.0 -0.265739586 0.9609627369
4600272400.0 -0.2504212862 0.9651044636
4650272100.0 -0.2386413976 0.9681889449
4700271800.0 -0.2254111669 0.9715700134
4750271500.0 -0.213682518 0.9744297102
4800271200.0 -0.2012891357 0.9772041291
4850270900.0 -0.1872284816 0.9798975057
4900270600.0 -0.1733760312 0.9824100122
4950270300.0 -0.1592526949 0.9849775445
5000270000.0 -0.1449253929 0.9872556614
5050269700.0 -0.1313918813 0.9888202862
5100269400.0 -0.1178842405 0.9903228468
5150269100.0 -0.1043717522 0.9921506369
5200268800.0 -0.0909900596 0.9928511953
5250268500.0 -0.0779301068 0.9939669194
5300268200.0 -0.064728814 0.9946064528
5350267900.0 -0.0524055268 0.9953935511
5400267600.0 -0.0362429869 0.9961246355
5450267300.0 -0.0232491611 0.9966629437
5500267000.0 -0.00799376 0.9969899375
5550266700.0 0.006975971 0.9973775809
5600266400.0 0.0224826951 0.9973421549
5650266100.0 0.0389115489 0.9968129661
5700265800.0 0.0534688214 0.9961801104
5750265500.0 0.0685462254 0.9954298149
5800265200.0 0.0826768625 0.9946861202
5850264900.0 0.0959908125 0.9935163079
5900264600.0 0.1122608212 0.9915448474
5950264300.0 0.1244156714 0.9899643897
6000264000.0 0.1387093341 0.9882099576
6050263700.0 0.1508592288 0.9872131289
6100263400.0 0.1631597072 0.9851703402
6150263100.0 0.1777259788 0.9825833799
6200262800.0 0.1879759038 0.9806939125
6250262500.0 0.2008100561 0.978527615
6300262200.0 0.2134209544 0.9757842237
6350261900.0 0.2265938423 0.9727432516
6400261600.0 0.2403682271 0.9695549982
6450261300.0 0.2516455998 0.966910564
6500261000.0 0.2650173092 0.9636580754
6550260700.0 0.2778330579 0.9594203673
6600260400.0 0.2907148227 0.9554840246
6650260100.0 0.3048760183 0.9509311827
6700259800.0 0.3167429221 0.9466452585
6750259500.0 0.3306851082 0.9416144386
6800259200.0 0.3438200435 0.9367831642
6850258900.0 0.3559290497 0.9313894835
6900258600.0 0.3682277906 0.9266661185
6950258300.0 0.380684097 0.9213746334
7000258000.0 0.3927252566 0.9159208052
7050257700.0 0.4049162703 0.9096798043
7100257400.0 0.4175018939 0.9035927734
7150257100.0 0.4280140733 0.8981891509
7200256800.0 0.4409385389 0.8919908335
7250256500.0 0.4528774621 0.8852546917
7300256200.0 0.4657542934 0.8786197452
7350255900.0 0.4785759554 0.8720820228
7400255600.0 0.4913896923 0.8645167406
7450255300.0 0.5066601653 0.8552425588
7500255000.0 0.5185888589 0.8484828794
7550254700.0 0.5320083123 0.8399699
7600254400.0 0.5450971567 0.831923294
7650254100.0 0.556748205 0.8240966366
7700253800.0 0.5685496169 0.8159462354
7750253500.0 0.5796195107 0.8083474644
7800253200.0 0.5903889078 0.8004915528
7850252900.0 0.6002592341 0.7934207466
7900252600.0 0.6119352545 0.7847381079
7950252300.0 0.6205379142 0.778216202
8000252000.0 0.6305860111 0.7706317523
8050251700.0 0.6412022717 0.7623256725
8100251400.0 0.6508693849 0.7542430158
8150251100.0 0.6613102318 0.7456290354
8200250800.0 0.6704758052 0.7378625996
8250250500.0 0.6793282838 0.7295632476
8300250200.0 0.6887644627 0.7210854827
8350249900.0 0.6979861695 0.7124473874
8400249600.0 0.7062697089 0.7044212872
8450249300.0 0.7153933051 0.6951284249
8500249000.0 0.7238958888 0.686346074
8550248700.0 0.7322560314 0.6773131409
8600248400.0 0.7407716581 0.667650312
8650248100.0 0.7485173279 0.6582924389
8700247800.0 0.757996666 0.6470264673
8750247500.0 0.7663028479 0.636974816
8800247200.0 0.7745933361 0.626643653
8850246900.0 0.7833246325 0.6151571245
8900246600.0 0.7916421108 0.6036854602
8950246300.0 0.8011177102 0.5909269735
9000246000.0 0.8108281002 0.5780809108
9050245700.0 0.8198059961 0.5652209787
9100245400.0 0.8281142645 0.5527687406
9150245100.0 0.8378785496 0.5391363028
9200244800.0 0.8471127616 0.523998487
9250244500.0 0.8565937657 0.5085203701
9300244200.0 0.8650038652 0.4941470442
9350243900.0 0.8726727029 0.4802722395
9400243600.0 0.8793302072 0.4680107171
9450243300.0 0.8853482874 0.4564097565
9500243000.0 0.8914754155 0.4442715888
9550242700.0 0.8953506452 0.4367675047
9600242400.0 0.8991097298 0.4294676053
9650242100.0 0.9030557186 0.4227299068
9700241800.0 0.9072928207 0.4145337748
9750241500.0 0.9113747005 0.4070020887
9800241200.0 0.9162958602 0.3978457298
9850240900.0 0.9219228507 0.3860421071
9900240600.0 0.9278115191 0.3744915883
9950240300.0 0.9341812948 0.358464393
10000240000.0 0.9392179271 0.3466399639
10050239700.0 0.944296689 0.3315886562
10100239400.0 0.9495030042 0.3160594145
10150239100.0 0.9540557532 0.3011768849
10200238800.0 0.958165923 0.2862645025
10250238500.0 0.9615742441 0.2728276877
10300238200.0 0.9646196396 0.2587972564
10350237900.0 0.9672461568 0.2454393834
10400237600.0 0.9698955151 0.2323143564
10450237300.0 0.9725044206 0.2189330263
10500237000.0 0.9749494641 0.2063805144
10550236700.0 0.9769303315 0.1923055881
10600236400.0 0.9791884794 0.1786625239
10650236100.0 0.9812278602 0.164110788
10700235800.0 0.9837137089 0.1520033123
10750235500.0 0.9858234233 0.1387646762
10800235200.0 0.9876767549 0.1242836402
10850234900.0 0.9894431325 0.1098783338
10900234600.0 0.991558077 0.0951177415
10950234300.0 0.9934680678 0.0817364497
11000234000.0 0.9953062167 0.0667461019
11050233700.0 0.996939076 0.0505037188
11100233400.0 0.9985898115 0.032937088
11150233100.0 0.9997531656 0.0165251695
11200232800.0 1.000346704 0.0017984073
11250232500.0 1.001268178 -0.0146496666
11300232200.0 1.001509454 -0.0323832392
11350231900.0 1.001857827 -0.0492934922
11400231600.0 1.00218512 -0.0643772996
11450231300.0 1.000457459 -0.0789945885
11500231000.0 0.9997710961 -0.0962665609
11550230700.0 0.9985416785 -0.108746494
11600230400.0 0.9971356319 -0.1220612986
11650230100.0 0.9951982663 -0.1331616493
11700229800.0 0.9931087344 -0.1475193568
11750229500.0 0.9909832267 -0.1621738726
11800229200.0 0.9879121303 -0.1760945119
11850228900.0 0.9845125706 -0.1882740233
11900228600.0 0.9811130118 -0.1981351977
11950228300.0 0.9775873915 -0.2081718264
12000228000.0 0.9748597638 -0.2176621168
12050227700.0 0.9719547023 -0.2301802843
12100227400.0 0.967975736 -0.2422753035
12150227100.0 0.9632359211 -0.2578222284
12200226800.0 0.959955078 -0.2683113791
12250226500.0 0.9560250599 -0.282080732
12300226200.0 0.9519085828 -0.2935301535
12350225900.0 0.9465400897 -0.3080044797
12400225600.0 0.9420729835 -0.3203917039
12450225300.0 0.93785112 -0.3336515131
12500225000.0 0.9323890258 -0.3483599885
12550224700.0 0.9266020714 -0.3622530537
12600224400.0 0.9220489562 -0.3751830575
12650224100.0 0.9161912483 -0.3895584064
12700223800.0 0.9109959711 -0.4023189411
12750223500.0 0.9054065897 -0.4154410499
12800223200.0 0.9001350423 -0.4278325181
12850222900.0 0.8945376384 -0.4398265932
12900222600.0 0.8890346254 -0.4522982034
12950222300.0 0.8829923049 -0.4646000201
13000222000.0 0.8767681447 -0.476731519
13050221700.0 0.8700450904 -0.4897298455
13100221400.0 0.8634284115 -0.5006889833
13150221100.0 0.8566004993 -0.5128668209
13200220800.0 0.849664243 -0.5250201928
13250220500.0 0.8422926628 -0.5369643113
13300220200.0 0.8349258616 -0.5477841935
13350219900.0 0.8270979275 -0.5597352199
13400219600.0 0.8185874347 -0.5719693114
13450219300.0 0.8092668263 -0.5855055165
13500219000.0 0.7987824865 -0.5992927995
13550218700.0 0.7887804808 -0.6119337049
13600218400.0 0.7791626678 -0.6237365487
13650218100.0 0.7693528313 -0.6348777684
13700217800.0 0.7586510508 -0.6469517028
13750217500.0 0.7484481296 -0.6583848802
13800217200.0 0.7374127245 -0.6700676372
13850216900.0 0.7261067856 -0.6819567872
13900216600.0 0.7159930167 -0.6907299204
13950216300.0 0.7057566561 -0.7011827812
14000216000.0 0.6956749694 -0.7102479284
14050215700.0 0.6858080063 -0.7187357053
14100215400.0 0.6760588791 -0.7281157993
14150215100.0 0.6671643592 -0.7365357298
14200214800.0 0.6576516145 -0.7448060231
14250214500.0 0.6472209114 -0.7542184099
14300214200.0 0.6368704885 -0.7636446731
14350213900.0 0.62553942 -0.7731945423
14400213600.0 0.6136317852 -0.782856422
14450213300.0 0.6010181318 -0.7932738018
14500213000.0 0.5879425229 -0.8031637778
14550212700.0 0.5748805759 -0.8123968675
14600212400.0 0.5625812094 -0.8216854457
14650212100.0 0.5495844588 -0.8299613564
14700211800.0 0.5356980182 -0.8393426159
14750211500.0 0.5236216876 -0.8476737322
14800211200.0 0.5117557351 -0.856100286
14850210900.0 0.4992137746 -0.863479119
14900210600.0 0.4861177236 -0.8712874054
14950210300.0 0.4728320339 -0.8790453004
15000210000.0 0.4601675512 -0.8857489845
15050209700.0 0.4478711217 -0.8916882253
15100209400.0 0.435118347 -0.8978415321
15150209100.0 0.4223057779 -0.9030351294
15200208800.0 0.4099448427 -0.9085528843
15250208500.0 0.3987639107 -0.9132835083
15300208200.0 0.3865480431 -0.9177668657
15350207900.0 0.3728260291 -0.9222441359
15400207600.0 0.3583387732 -0.9277550451
15450207300.0 0.3444696051 -0.9329847883
15500207000.0 0.3295030457 -0.9379718774
15550206700.0 0.3142528562 -0.9427209679
15600206400.0 0.2986477542 -0.946950868
15650206100.0 0.2831829403 -0.951435124
15700205800.0 0.2690403916 -0.9551229455
15750205500.0 0.254474141 -0.9585810717
15800205200.0 0.2401705397 -0.9620236836
15850204900.0 0.2258921725 -0.9655261228
15900204600.0 0.2106062639 -0.9690944099
15950204300.0 0.1965240867 -0.972179944
16000204000.0 0.1822697204 -0.9749583615
16050203700.0 0.1675571577 -0.9774403411
16100203400.0 0.153160624 -0.9800687818
16150203100.0 0.1386659125 -0.9819155073
16200202800.0 0.1242151998 -0.9843728598
16250202500.0 0.1093329206 -0.9861669585
16300202200.0 0.0936467262 -0.9879780658
16350201900.0 0.0790731089 -0.989480784
16400201600.0 0.0644291599 -0.9903689881
16450201300.0 0.049082089 -0.9911903571
16500201000.0 0.0325251751 -0.9920204115
16550200700.0 0.0167712413 -0.9926772655
16600200400.0 0.0011118423 -0.9928983537
16650200100.0 -0.0149386875 -0.9928254962
16700199800.0 -0.0309245643 -0.9926008314
16750199500.0 -0.0498744275 -0.9920857454
16800199200.0 -0.065785395 -0.9912894588
16850198900.0 -0.0806355003 -0.9890617681
16900198600.0 -0.0950116501 -0.9882788274
16950198300.0 -0.1077773766 -0.987746703
17000198000.0 -0.1209382701 -0.9861686885
17050197700.0 -0.1332760865 -0.9845414472
17100197400.0 -0.146394652 -0.9821253133
17150197100.0 -0.1590858173 -0.9804594051
17200196800.0 -0.1718772026 -0.9782893578
17250196500.0 -0.1850295854 -0.9756310566
17300196200.0 -0.1968698856 -0.973514227
17350195900.0 -0.20886632 -0.9713595477
17400195600.0 -0.2209096878 -0.968786789
17450195300.0 -0.2339910363 -0.9660575938
17500195000.0 -0.2475827995 -0.9627331028
17550194700.0 -0.2616264949 -0.9591426461
17600194400.0 -0.2754487281 -0.9552561428
17650194100.0 -0.2889700144 -0.9510093689
17700193800.0 -0.3018680095 -0.9469766833
17750193500.0 -0.3161470452 -0.9422149545
17800193200.0 -0.3306186325 -0.936685987
17850192900.0 -0.3460744575 -0.9316783229
17900192600.0 -0.3610508289 -0.9257211314
17950192300.0 -0.3764107596 -0.9182717223
18000192000.0 -0.3914345116 -0.9112426106
18050191700.0 -0.4053509185 -0.9032365743
18100191400.0 -0.4197805295 -0.8955841695
18150191100.0 -0.4346595749 -0.8876341578
18200190800.0 -0.4516676848 -0.8783678274
18250190500.0 -0.4683877304 -0.8689801365
18300190200.0 -0.4840815769 -0.8603628171
18350189900.0 -0.498869854 -0.8517880953
18400189600.0 -0.5134368501 -0.8435780829
18450189300.0 -0.5265673141 -0.8356560855
18500189000.0 -0.5399952984 -0.8276755818
18550188700.0 -0.5527989607 -0.8200630532
18600188400.0 -0.564465224 -0.8132972541
18650188100.0 -0.5751605276 -0.8070906057
18700187800.0 -0.5862484453 -0.8004598821
18750187500.0 -0.5967817772 -0.7939787076
18800187200.0 -0.6075607836 -0.7869078935
18850186900.0 -0.6177180703 -0.7799188742
18900186600.0 -0.6278496736 -0.7726382684
18950186300.0 -0.6378111563 -0.7650496618
19000186000.0 -0.6452083391 -0.7587435187
19050185700.0 -0.6538113623 -0.7519848099
19100185400.0 -0.6639919771 -0.7436793227
19150185100.0 -0.6742737608 -0.734614393
19200184800.0 -0.6835355358 -0.7270466005
19250184500.0 -0.6942507605 -0.7175324885
19300184200.0 -0.7055126671 -0.708162252
19350183900.0 -0.7154566242 -0.6984405962
19400183600.0 -0.7256767171 -0.6881585446
19450183300.0 -0.7351100964 -0.678084146
19500183000.0 -0.7428134167 -0.6676260363
19550182700.0 -0.7527209495 -0.6570982514
19600182400.0 -0.7630702157 -0.645433471
19650182100.0 -0.773998116 -0.6333071456
19700181800.0 -0.7848977911 -0.6199733274
19750181500.0 -0.7954720845 -0.6058539994
19800181200.0 -0.8058972953 -0.5906291347
19850180900.0 -0.815656912 -0.5755490702
19900180600.0 -0.8234476676 -0.5608238368
19950180300.0 -0.8325635463 -0.5446179709
20000180000.0 -0.8258328724 -0.5470870139
20050179700.0 -0.8339159453 -0.5340528219
20100179400.0 -0.8426300159 -0.5210252039
20150179100.0 -0.850350344 -0.5082148786
20200178800.0 -0.8590395146 -0.4946393134
20250178500.0 -0.8681987611 -0.4820612849
20300178200.0 -0.878379843 -0.4673131938
20350177900.0 -0.888051847 -0.4529114831
20400177600.0 -0.8966060701 -0.4383170189
20450177300.0 -0.9047950236 -0.4241560384
20500177000.0 -0.9125958884 -0.4101172345
20550176700.0 -0.9204079342 -0.3965070112
20600176400.0 -0.9274136139 -0.3835835623
20650176100.0 -0.9339882725 -0.371324095
20700175800.0 -0.9405474399 -0.3591628696
20750175500.0 -0.9473635383 -0.347163495
20800175200.0 -0.9515333267 -0.3365165758
20850174900.0 -0.9570715406 -0.3259495284
20900174600.0 -0.9619669977 -0.3151351699
20950174300.0 -0.9654642385 -0.3034523811
21000174000.0 -0.9680646755 -0.2920221325
21050173700.0 -0.9715559289 -0.2808345245
21100173400.0 -0.9760202899 -0.2689708088
21150173100.0 -0.9797908965 -0.2565673076
21200172800.0 -0.9827687322 -0.2430336769
21250172500.0 -0.9859941917 -0.2296778794
21300172200.0 -0.9888099391 -0.2152235558
21350171900.0 -0.9908473156 -0.2013830495
21400171600.0 -0.9920482447 -0.1877611852
21450171300.0 -0.9919490253 -0.1724095055
21500171000.0 -0.9923118516 -0.1576093764
21550170700.0 -0.9915494264 -0.1413658558
21600170400.0 -0.9925266149 -0.1266687117
21650170100.0 -0.9917975962 -0.1100160221
21700169800.0 -0.9901084259 -0.0943839472
21750169500.0 -0.9891534008 -0.0788223758
21800169200.0 -0.9896249849 -0.062501723
21850168900.0 -0.9870988866 -0.0458901973
21900168600.0 -0.9859848906 -0.0299632121
21950168300.0 -0.9848477328 -0.0139409997
22000168000.0 -0.9840784776 0.0013905336
22050167700.0 -0.9839021046 0.0156476833
22100167400.0 -0.9840562214 0.0308696429
22150167100.0 -0.9847083953 0.0465954932
22200166800.0 -0.9849873471 0.0629048925
22250166500.0 -0.9852313642 0.0805117352
22300166200.0 -0.9846625695 0.0973639094
22350165900.0 -0.982356144 0.1136643538
22400165600.0 -0.9811731704 0.1286223766
22450165300.0 -0.9789740773 0.1437800487
22500165000.0 -0.9768527515 0.1578989122
22550164700.0 -0.9762645867 0.1737314916
22600164400.0 -0.974436636 0.187964519
22650164100.0 -0.972322771 0.2030452108
22700163800.0 -0.9695851788 0.2189942062
22750163500.0 -0.9671974032 0.2342355997
22800163200.0 -0.9645847454 0.24751055
22850162900.0 -0.9617005354 0.2607804361
22900162600.0 -0.960347876 0.2742671059
22950162300.0 -0.9591833848 0.2869964255
23000162000.0 -0.9580102622 0.2988748028
23050161700.0 -0.9559814284 0.31141698
23100161400.0 -0.95341606 0.3238132392
23150161100.0 -0.9505341105 0.3365080265
23200160800.0 -0.947877693 0.3497166649
23250160500.0 -0.9449134515 0.3605693909
23300160200.0 -0.9425003736 0.3737175931
23350159900.0 -0.9385985298 0.3860081134
23400159600.0 -0.934411888 0.3995225851
23450159300.0 -0.9294376815 0.4126920454
23500159000.0 -0.9243944558 0.4251075976
23550158700.0 -0.9206611567 0.4392169226
23600158400.0 -0.9146876811 0.4525431344
23650158100.0 -0.9085533035 0.4666283512
23700157800.0 -0.9007974534 0.4804433711
23750157500.0 -0.8923170486 0.4942043636
23800157200.0 -0.883198815 0.5083511368
23850156900.0 -0.8746201605 0.520970033
23900156600.0 -0.8658996602 0.5332713039
23950156300.0 -0.8562179346 0.5463185219
24000156000.0 -0.847223554 0.5580761898
24050155700.0 -0.8370797777 0.569149363
24100155400.0 -0.8268558683 0.5818649529
24150155100.0 -0.8165180827 0.5929156454
24200154800.0 -0.8052800597 0.6038068734
24250154500.0 -0.7944562252 0.6162051157
24300154200.0 -0.7832075854 0.6277925887
24350153900.0 -0.7710785375 0.6383845214
24400153600.0 -0.7590348645 0.6487245968
24450153300.0 -0.7475178125 0.6589023219
24500153000.0 -0.7352677203 0.6687227653
24550152700.0 -0.7244358499 0.6778757126
24600152400.0 -0.7130952632 0.6872691202
24650152100.0 -0.7006613659 0.6955502185
