!Created with skrf (http://scikit-rf.org).
# Hz S RI R 50.0 
!freq ReS11 ImS11
300000.0 -0.9718943219 -0.1237093983
50299700.0 -0.9999055769 0.0149826134
100299400.0 -0.9979536783 0.0278771986
150299100.0 -1.002627001 0.0447502571
200298800.0 -0.9994153383 0.0580332217
250298500.0 -0.9973272265 0.0717379024
300298200.0 -0.9858558981 0.0873801108
350297900.0 -0.9938962001 0.0983206753
400297600.0 -0.9930321154 0.114986611
450297300.0 -0.9908413734 0.1287607891
500297000.0 -0.9892104743 0.1434137229
550296700.0 -0.984256941 0.1558606516
600296400.0 -1.017228427 0.1889750439
650296100.0 -0.9821250874 0.1856803772
700295800.0 -0.979201048 0.1998260416
750295500.0 -0.9762761581 0.2140450479
800295200.0 -0.9729527353 0.2281724124
850294900.0 -0.969638969 0.2418223802
900294600.0 -0.9658383055 0.2555613379
950294300.0 -0.962070248 0.2692580648
1000294000.0 -0.9582138512 0.2829997881
1050293700.0 -0.9536510473 0.2970282962
1100293400.0 -0.9493865779 0.3114736785
1150293100.0 -0.9453194864 0.323360989
1200292800.0 -0.9400609543 0.3376667405
1250292500.0 -0.9347291455 0.3513125422
1300292200.0 -0.9290077546 0.3644526325
1350291900.0 -0.9234392739 0.3784667095
1400291600.0 -0.9179577892 0.3915572829
1450291300.0 -0.912468372 0.4039233583
1500291000.0 -0.9062449578 0.4174391005
1550290700.0 -0.8997194541 0.4305366042
1600290400.0 -0.8932721685 0.4435557776
1650290100.0 -0.8869228156 0.4558679233
1700289800.0 -0.879932467 0.4691300633
1750289500.0 -0.8728333894 0.4816322699
1800289200.0 -0.8656038575 0.4943114939
1850288900.0 -0.8588203523 0.5056053776
1900288600.0 -0.8510694185 0.5186362967
1950288300.0 -0.8429541086 0.5312930319
2000288000.0 -0.835508288 0.542879043
2050287700.0 -0.8271551485 0.5552939308
2100287400.0 -0.8193125124 0.5664954385
2150287100.0 -0.8109989834 0.5785923801
2200286800.0 -0.8028322152 0.5892759993
2250286500.0 -0.7938984025 0.6015991009
2300286200.0 -0.7852602979 0.6127839019
2350285900.0 -0.7769244795 0.6235257881
2400285600.0 -0.7678885453 0.6343708941
2450285300.0 -0.759322339 0.6449040313
2500285000.0 -0.7491349667 0.6567725377
2550284700.0 -0.7400072338 0.666890865
2600284400.0 -0.730814358 0.6768972215
2650284100.0 -0.7224030794 0.687086927
2700283800.0 -0.7119964292 0.6974524055
2750283500.0 -0.7014469583 0.7083061979
2800283200.0 -0.6917363897 0.7182059837
2850282900.0 -0.6809235438 0.7281140805
2900282600.0 -0.6707364591 0.737825986
2950282300.0 -0.660210781 0.7471473351
3000282000.0 -0.6495473704 0.7568057663
3050281700.0 -0.6383684668 0.7659975555
3100281400.0 -0.6268857583 0.7748604802
3150281100.0 -0.6155145194 0.7839083322
3200280800.0 -0.6043007852 0.7922756912
3250280500.0 -0.5930166183 0.8002851969
3300280200.0 -0.5814311591 0.8083084628
3350279900.0 -0.5691723341 0.8165002799
3400279600.0 -0.556709245 0.8247397974
3450279300.0 -0.5454766412 0.8316590927
3500279000.0 -0.5336888243 0.8385084491
3550278700.0 -0.5214550713 0.8455315384
3600278400.0 -0.5097490048 0.8522717538
3650278100.0 -0.4966690462 0.8601304153
3700277800.0 -0.4849110676 0.8663278613
3750277500.0 -0.4723845158 0.8730985383
3800277200.0 -0.459919146 0.8794365505
3850276900.0 -0.447969452 0.885617683
3900276600.0 -0.4369172744 0.8914143352
3950276300.0 -0.4249115183 0.8968677222
4000276000.0 -0.4131866154 0.9030621236
4050275700.0 -0.4005168759 0.9090281539
4100275400.0 -0.3893760977 0.9146612236
4150275100.0 -0.3759981685 0.920300396
4200274800.0 -0.3627129769 0.9261267483
4250274500.0 -0.3497213014 0.9313573051
4300274200.0 -0.3366649517 0.9369594883
4350273900.0 -0.3224517068 0.9420790796
4400273600.0 -0.3076986782 0.9473363446
4450273300.0 -0.2927777481 0.9522649377
4500273000.0 -0.2795162166 0.9562733073
4550272700.0 -0.2660943154 0.9605130656
4600272400.0 -0.2510684243 0.9646300709
4650272100.0 -0.2397122477 0.9678371344
4700271800.0 -0.2267895264 0.9709471106
4750271500.0 -0.2152117267 0.9740367788
4800271200.0 -0.2029621814 0.976691607
4850270900.0 -0.1893451777 0.9795454994
4900270600.0 -0.1754678078 0.9820032068
4950270300.0 -0.1608424026 0.9846324004
5000270000.0 -0.1462319802 0.9867723919
5050269700.0 -0.1330594757 0.9881608254
5100269400.0 -0.1187222455 0.9898039801
5150269100.0 -0.1046063872 0.9916386119
5200268800.0 -0.0913284547 0.9926378419
5250268500.0 -0.0781595817 0.993685188
5300268200.0 -0.0644388798 0.9944582642
5350267900.0 -0.0516317658 0.9950140969
5400267600.0 -0.0355418583 0.996050057
5450267300.0 -0.0220320904 0.9966791516
5500267000.0 -0.007057953 0.9969177549
5550266700.0 0.0080403902 0.9971742824
5600266400.0 0.0240155626 0.9973418435
5650266100.0 0.0405925754 0.9968699645
5700265800.0 0.0547680734 0.9958774696
5750265500.0 0.0698610967 0.9951340517
5800265200.0 0.0834540604 0.9941999345
5850264900.0 0.0965728912 0.9930480346
5900264600.0 0.113122776 0.9911785245
5950264300.0 0.1247009623 0.9896987512
6000264000.0 0.1378007677 0.9876289441
6050263700.0 0.1497284122 0.9864852125
6100263400.0 0.1619790418 0.9850639482
6150263100.0 0.1765000532 0.9826593235
6200262800.0 0.1860288724 0.9810977142
6250262500.0 0.1987023997 0.978523394
6300262200.0 0.2108493562 0.9762635341
6350261900.0 0.2237178805 0.973361291
6400261600.0 0.2375601511 0.970103802
6450261300.0 0.2487091039 0.9678864342
6500261000.0 0.2618877926 0.9640737848
6550260700.0 0.2750007545 0.9602084839
6600260400.0 0.2884400593 0.9561175266
6650260100.0 0.3026461455 0.9516274047
6700259800.0 0.3146002585 0.9472568794
6750259500.0 0.3285665904 0.9424996728
6800259200.0 0.3420097691 0.9372321532
6850258900.0 0.3546307699 0.932047538
6900258600.0 0.3672943724 0.9268422874
6950258300.0 0.3795783953 0.9217277274
7000258000.0 0.3912426661 0.9162118762
7050257700.0 0.4031160663 0.910525148
7100257400.0 0.4165624117 0.9041022095
7150257100.0 0.4273507961 0.8986192572
7200256800.0 0.4403873663 0.892038135
7250256500.0 0.452955473 0.8853695038
7300256200.0 0.4662114788 0.8788836361
7350255900.0 0.4789963151 0.871551447
7400255600.0 0.4932146979 0.8640316322
7450255300.0 0.5080544981 0.854791067
7500255000.0 0.5208609372 0.8472195125
7550254700.0 0.5356737376 0.8381843281
7600254400.0 0.5475513106 0.8297252201
7650254100.0 0.5590608885 0.8218615927
7700253800.0 0.5712339176 0.8139142969
7750253500.0 0.5819324997 0.8062257217
7800253200.0 0.5926499621 0.7985152784
7850252900.0 0.6024614054 0.7911803547
7900252600.0 0.6138682949 0.7825237342
7950252300.0 0.6223382251 0.7761307049
8000252000.0 0.6321808306 0.7685706039
8050251700.0 0.6427740111 0.760439561
8100251400.0 0.6522563608 0.7524333319
8150251100.0 0.6624331045 0.7439805465
8200250800.0 0.6718601153 0.7358670185
8250250500.0 0.6808476767 0.7278817725
8300250200.0 0.6898556086 0.7196770364
8350249900.0 0.6989316167 0.7105351985
8400249600.0 0.7073262045 0.7027138424
8450249300.0 0.7157789312 0.6942121384
8500249000.0 0.7243836486 0.6853624182
8550248700.0 0.7324918346 0.6761291741
8600248400.0 0.7411116313 0.6667446041
8650248100.0 0.7486416189 0.6572998517
8700247800.0 0.7579150184 0.6463424056
8750247500.0 0.7662214953 0.6363013359
8800247200.0 0.7743390704 0.6259654089
8850246900.0 0.7830887085 0.614415329
8900246600.0 0.7913238932 0.6030249734
8950246300.0 0.8005523024 0.5905205417
9000246000.0 0.80906062 0.5786889576
9050245700.0 0.8177895772 0.5661378911
9100245400.0 0.8258015942 0.5543260711
9150245100.0 0.8348880096 0.5412258075
9200244800.0 0.8441363302 0.5267676588
9250244500.0 0.8530902445 0.5122003319
9300244200.0 0.8610821127 0.4986937449
9350243900.0 0.8691738039 0.4854535082
9400243600.0 0.8755481045 0.4738713213
9450243300.0 0.8809197905 0.4635590649
9500243000.0 0.8872498996 0.451864049
9550242700.0 0.8911507084 0.4441321119
9600242400.0 0.8954512503 0.4368042315
9650242100.0 0.8996944826 0.4297620961
9700241800.0 0.9044143545 0.4212981805
9750241500.0 0.9086699252 0.413666649
9800241200.0 0.913524886 0.404321995
9850240900.0 0.9196338944 0.3924169452
9900240600.0 0.9256866121 0.3805216556
9950240300.0 0.9327483223 0.3634665722
10000240000.0 0.9377051625 0.3515515364
10050239700.0 0.9441458678 0.3350833091
10100239400.0 0.9494702536 0.3187811676
10150239100.0 0.9541241351 0.3033498758
10200238800.0 0.9581922233 0.287763686
10250238500.0 0.961609496 0.2743208184
10300238200.0 0.9647576596 0.2605908544
10350237900.0 0.9674887857 0.2472239744
10400237600.0 0.970062438 0.2335966915
10450237300.0 0.9727214311 0.2197836634
10500237000.0 0.9751093311 0.2070726244
10550236700.0 0.9770500117 0.1932227007
10600236400.0 0.979650388 0.1789494969
10650236100.0 0.9815619279 0.1647040369
10700235800.0 0.983760229 0.152053435
10750235500.0 0.9859656716 0.1387339506
10800235200.0 0.9881957712 0.1245556776
10850234900.0 0.9899691123 0.1096021181
10900234600.0 0.9921286396 0.0945458518
10950234300.0 0.9937760174 0.0812284267
11000234000.0 0.9956695658 0.0653652262
11050233700.0 0.9973876735 0.0487143325
11100233400.0 0.9988451771 0.031027657
11150233100.0 0.9998266771 0.0140747432
11200232800.0 1.000985967 -0.0017053422
11250232500.0 1.00209417 -0.0202825076
11300232200.0 1.002518175 -0.0392788015
11350231900.0 1.002378105 -0.0551856987
11400231600.0 1.00209867 -0.0704259247
11450231300.0 1.000579617 -0.085767258
11500231000.0 0.9998183217 -0.1019811825
11550230700.0 0.9985438622 -0.1153412247
11600230400.0 0.9969107651 -0.1275068178
11650230100.0 0.9949052797 -0.1403226668
11700229800.0 0.9925937867 -0.1545642318
11750229500.0 0.9899691608 -0.1686174315
11800229200.0 0.9874636087 -0.1822462039
11850228900.0 0.9834969028 -0.1939157158
11900228600.0 0.9798155933 -0.2035879152
11950228300.0 0.97637349 -0.2136356654
12000228000.0 0.9734111811 -0.2219561205
12050227700.0 0.9699912692 -0.2345221343
12100227400.0 0.966713827 -0.2458465987
12150227100.0 0.9620389545 -0.2628800804
12200226800.0 0.9574334387 -0.2741060661
12250226500.0 0.9536888952 -0.2867267424
12300226200.0 0.9492524971 -0.2987285312
12350225900.0 0.9446384764 -0.3122085453
12400225600.0 0.9404733429 -0.3255413073
12450225300.0 0.9357340293 -0.3375120087
12500225000.0 0.929893695 -0.35233626
12550224700.0 0.9246064364 -0.3659439591
12600224400.0 0.9196581413 -0.3783957596
12650224100.0 0.9139532761 -0.3928947066
12700223800.0 0.9086334544 -0.4056685251
12750223500.0 0.9030488522 -0.4187139696
12800223200.0 0.8981364327 -0.4312269741
12850222900.0 0.8925662426 -0.4437825916
12900222600.0 0.8871436716 -0.4556913047
12950222300.0 0.8807957631 -0.4678858585
13000222000.0 0.8752063482 -0.479966935
13050221700.0 0.8679030346 -0.492730331
13100221400.0 0.8610630799 -0.5048355672
13150221100.0 0.8545825976 -0.516790508
13200220800.0 0.8473334298 -0.5288991777
13250220500.0 0.8401154211 -0.5404873324
13300220200.0 0.8326676093 -0.5515586392
13350219900.0 0.8245774758 -0.5633034847
13400219600.0 0.8161118335 -0.5752192383
13450219300.0 0.8066379871 -0.5886051889
13500219000.0 0.7971610385 -0.601423963
13550218700.0 0.7870641158 -0.6136655008
13600218400.0 0.7774306479 -0.6254433211
13650218100.0 0.7673591895 -0.6366431813
13700217800.0 0.7582055263 -0.6482669935
13750217500.0 0.7479603064 -0.6588841183
13800217200.0 0.7365388506 -0.6701956207
13850216900.0 0.7261826138 -0.6815194654
13900216600.0 0.7160276011 -0.690318083
13950216300.0 0.7052168685 -0.7009010128
14000216000.0 0.6950465397 -0.7093953885
14050215700.0 0.6863356714 -0.7172785267
14100215400.0 0.6767048095 -0.7266430594
14150215100.0 0.6673901903 -0.7348894084
14200214800.0 0.6579603353 -0.7439482695
14250214500.0 0.6477013047 -0.7534504669
14300214200.0 0.6371415039 -0.7629205666
14350213900.0 0.626057528 -0.7725509965
14400213600.0 0.6139057672 -0.7822130786
14450213300.0 0.6011245707 -0.7926665973
14500213000.0 0.5882608843 -0.8024480401
14550212700.0 0.5758198182 -0.8119599032
14600212400.0 0.5638159015 -0.8203766782
14650212100.0 0.5509762688 -0.8293868993
14700211800.0 0.5370877141 -0.8390713344
14750211500.0 0.5248287528 -0.8475261295
14800211200.0 0.5125941046 -0.8554331724
14850210900.0 0.4998555169 -0.8631920927
14900210600.0 0.4867560541 -0.8709551167
14950210300.0 0.4732550168 -0.8786425298
15000210000.0 0.4606784717 -0.8854056215
15050209700.0 0.44845142 -0.8918499542
15100209400.0 0.4354744463 -0.8969535494
15150209100.0 0.4237817583 -0.9026681468
15200208800.0 0.4107988484 -0.9081294739
15250208500.0 0.399859928 -0.9124789794
15300208200.0 0.3868859635 -0.9169564359
15350207900.0 0.3747438442 -0.9214260306
15400207600.0 0.3594307271 -0.9276424576
15450207300.0 0.3443093147 -0.9325971979
15500207000.0 0.3300466555 -0.9370196966
15550206700.0 0.3156905165 -0.9418406045
15600206400.0 0.2997511202 -0.9466896392
15650206100.0 0.2839037702 -0.9509600068
15700205800.0 0.2700203255 -0.9542113136
15750205500.0 0.256259762 -0.957879501
15800205200.0 0.2422996105 -0.9612068045
15850204900.0 0.2281346543 -0.9646891916
15900204600.0 0.2131842812 -0.9682255588
15950204300.0 0.1985407385 -0.9713206855
16000204000.0 0.1842073654 -0.9743879009
16050203700.0 0.1689119367 -0.9774594525
16100203400.0 0.154426409 -0.9794275575
16150203100.0 0.1396431321 -0.9820752623
16200202800.0 0.1254585205 -0.9840624512
16250202500.0 0.1102659988 -0.9857440408
16300202200.0 0.0948473042 -0.9871236978
16350201900.0 0.080108577 -0.988626873
16400201600.0 0.0652142361 -0.9901481134
16450201300.0 0.0497330703 -0.9911692058
16500201000.0 0.0327723389 -0.992038896
16550200700.0 0.0164972524 -0.9925027482
16600200400.0 0.0005808729 -0.9925939445
16650200100.0 -0.0153960864 -0.992737576
16700199800.0 -0.0322121607 -0.9921351284
16750199500.0 -0.0509660786 -0.9918304658
16800199200.0 -0.0665500407 -0.9909254507
16850198900.0 -0.0817977772 -0.9897722424
16900198600.0 -0.0967141744 -0.9886426431
16950198300.0 -0.1095508356 -0.9878142759
17000198000.0 -0.1226552 -0.9856607563
17050197700.0 -0.1358227158 -0.9844123188
17100197400.0 -0.1488388568 -0.9820544297
17150197100.0 -0.1614491263 -0.9799776964
17200196800.0 -0.1742796751 -0.9777942593
17250196500.0 -0.1874273753 -0.9754098744
17300196200.0 -0.1994614929 -0.9732684341
17350195900.0 -0.2113186063 -0.9706869652
17400195600.0 -0.2232994588 -0.968044099
17450195300.0 -0.2361325692 -0.9651471057
17500195000.0 -0.2492371044 -0.9618714998
17550194700.0 -0.263096713 -0.9585091419
17600194400.0 -0.2768502973 -0.9545288794
17650194100.0 -0.2904523469 -0.9503352582
17700193800.0 -0.3036682124 -0.9462150833
17750193500.0 -0.3176982802 -0.9414975034
17800193200.0 -0.3318766458 -0.9362165443
17850192900.0 -0.3467436962 -0.9309466108
17900192600.0 -0.3617414205 -0.924944733
17950192300.0 -0.377231033 -0.9178003886
18000192000.0 -0.3920497333 -0.9106120213
18050191700.0 -0.4061130143 -0.9025695117
18100191400.0 -0.4201211066 -0.8949269674
18150191100.0 -0.4349153418 -0.8869549502
18200190800.0 -0.4517037048 -0.8779246098
18250190500.0 -0.4687595817 -0.8681463627
18300190200.0 -0.4840659378 -0.8592579534
18350189900.0 -0.4993134169 -0.8512455888
18400189600.0 -0.5141043806 -0.8428411966
18450189300.0 -0.5274543125 -0.8348405881
18500189000.0 -0.5407349484 -0.8265234621
18550188700.0 -0.5534267292 -0.8190465892
18600188400.0 -0.5652107891 -0.8123856934
18650188100.0 -0.5765860934 -0.8056203734
18700187800.0 -0.5880850319 -0.7988667161
18750187500.0 -0.5987295456 -0.7921905757
18800187200.0 -0.6094942593 -0.7853013673
18850186900.0 -0.6195297002 -0.7784566603
18900186600.0 -0.629819352 -0.770901808
18950186300.0 -0.6400442621 -0.7632899261
19000186000.0 -0.6472226537 -0.7570452789
19050185700.0 -0.6569077102 -0.7499781482
19100185400.0 -0.6669529471 -0.7407522336
19150185100.0 -0.6769138563 -0.733076338
19200184800.0 -0.6865363563 -0.7252169999
19250184500.0 -0.6963498886 -0.7156231517
19300184200.0 -0.7082179081 -0.7059938973
19350183900.0 -0.7185759363 -0.6965898025
19400183600.0 -0.728541688 -0.686230848
19450183300.0 -0.7379928295 -0.6765278388
19500183000.0 -0.7464406738 -0.666195891
19550182700.0 -0.7559208714 -0.6549577734
19600182400.0 -0.765513718 -0.6438987792
19650182100.0 -0.7763841743 -0.6315195177
19700181800.0 -0.7868301847 -0.6182351479
19750181500.0 -0.7973563262 -0.604254348
19800181200.0 -0.8075825166 -0.5891222541
19850180900.0 -0.8168769515 -0.5740385971
19900180600.0 -0.8247366973 -0.5595215226
19950180300.0 -0.833918159 -0.5430283624
20000180000.0 -0.8230378959 -0.5465887616
20050179700.0 -0.8316088474 -0.5349039135
20100179400.0 -0.8399771948 -0.5209359205
20150179100.0 -0.8480934093 -0.5097707664
20200178800.0 -0.8561044557 -0.4976107394
20250178500.0 -0.8657086175 -0.4856672592
20300178200.0 -0.8753081275 -0.4718788103
20350177900.0 -0.8845553873 -0.4576762177
20400177600.0 -0.8937216213 -0.4433455974
20450177300.0 -0.9019734642 -0.4294053567
20500177000.0 -0.9100305388 -0.4154298225
20550176700.0 -0.9179827449 -0.4018683026
20600176400.0 -0.924914066 -0.3892838525
20650176100.0 -0.9313517924 -0.3766230623
20700175800.0 -0.9376397617 -0.3653316275
20750175500.0 -0.9441616937 -0.3527638416
20800175200.0 -0.948845724 -0.3415558158
20850174900.0 -0.953319234 -0.33126667
20900174600.0 -0.9571350856 -0.3205109063
20950174300.0 -0.9615585286 -0.309199129
21000174000.0 -0.9642964773 -0.2991927182
21050173700.0 -0.9652676495 -0.2897626712
21100173400.0 -0.969129865 -0.278589761
21150173100.0 -0.9732581968 -0.2670939605
21200172800.0 -0.9772094072 -0.2537855527
21250172500.0 -0.9808655569 -0.2398798033
21300172200.0 -0.9841564959 -0.2262910196
21350171900.0 -0.9859321654 -0.2120562871
21400171600.0 -0.9883801049 -0.1970545759
21450171300.0 -0.9888983428 -0.1836902641
21500171000.0 -0.9886948744 -0.1683552271
21550170700.0 -0.9901573184 -0.1529947215
21600170400.0 -0.9905819925 -0.1369837187
21650170100.0 -0.991076417 -0.1219628734
21700169800.0 -0.9899295521 -0.1074185601
21750169500.0 -0.9909390247 -0.0910780683
21800169200.0 -0.990188225 -0.074092532
21850168900.0 -0.9894896854 -0.0574605655
21900168600.0 -0.99018377 -0.0416455537
21950168300.0 -0.9891895975 -0.0258087604
22000168000.0 -0.9889939302 -0.0111127759
22050167700.0 -0.9897501425 0.0033223641
22100167400.0 -0.9905704342 0.0193087658
22150167100.0 -0.991372219 0.0354416967
22200166800.0 -0.9915953102 0.0523514374
22250166500.0 -0.9911462192 0.0694165964
22300166200.0 -0.9913465483 0.0861394986
22350165900.0 -0.9895674174 0.1022789416
22400165600.0 -0.9888686365 0.1181357251
22450165300.0 -0.986300437 0.1329272247
22500165000.0 -0.9847128612 0.1472108268
22550164700.0 -0.9836593674 0.1635443632
22600164400.0 -0.9807458885 0.1807463514
22650164100.0 -0.9781608526 0.1958205916
22700163800.0 -0.9753262667 0.2112571628
22750163500.0 -0.9722564904 0.2266821858
22800163200.0 -0.9693858903 0.2394191313
22850162900.0 -0.966806052 0.253028881
22900162600.0 -0.9649588905 0.2667944576
22950162300.0 -0.963124452 0.280349612
23000162000.0 -0.9612906158 0.2928176721
23050161700.0 -0.9588716202 0.3066582345
23100161400.0 -0.9557995206 0.3203729465
23150161100.0 -0.9530465903 0.3329866062
23200160800.0 -0.9497266255 0.3459208577
23250160500.0 -0.9474003583 0.3584992413
23300160200.0 -0.9440532181 0.3715987238
23350159900.0 -0.9396037927 0.3852777662
23400159600.0 -0.9351910855 0.3980317556
23450159300.0 -0.9296881774 0.4120451006
23500159000.0 -0.9247247142 0.4261839115
23550158700.0 -0.9201609678 0.440264219
23600158400.0 -0.9140532084 0.454121973
23650158100.0 -0.9066515105 0.468814984
23700157800.0 -0.8982589141 0.4833158845
23750157500.0 -0.8888847761 0.4973354274
23800157200.0 -0.878469427 0.5107921886
23850156900.0 -0.8690969346 0.5236051367
23900156600.0 -0.8589007186 0.5366613068
23950156300.0 -0.8492061083 0.5489869943
24000156000.0 -0.8395488952 0.561737745
24050155700.0 -0.8293607095 0.5739044967
24100155400.0 -0.8189719087 0.5855759966
24150155100.0 -0.8072562489 0.5985719671
24200154800.0 -0.796292773 0.6101950802
24250154500.0 -0.7854601614 0.6223845746
24300154200.0 -0.7737519073 0.6347506131
24350153900.0 -0.7620786938 0.6459774161
24400153600.0 -0.7494163875 0.6561136667
24450153300.0 -0.7375745516 0.6665602309
24500153000.0 -0.7255646248 0.6763976523
24550152700.0 -0.7143931763 0.686590829
24600152400.0 -0.7027168736 0.6959108577
24650152100.0 -0.6900315339 0.7048913039
