!Created with skrf (http://scikit-rf.org).
# Hz S RI R 50.0 
!freq ReS11 ImS11
300000.0 -0.9725735558 -0.1224454371
50299700.0 -0.9997717441 0.0151001248
100299400.0 -0.9979122239 0.0279959089
150299100.0 -1.002760635 0.0446111508
200298800.0 -0.9996656126 0.058209224
250298500.0 -0.9973879092 0.0716446797
300298200.0 -0.9858410859 0.087590796
350297900.0 -0.9938396577 0.0983493266
400297600.0 -0.9929912325 0.1147646091
450297300.0 -0.9908750522 0.1287217406
500297000.0 -0.9895229274 0.1433859743
550296700.0 -0.9842680927 0.1558165642
600296400.0 -1.017261932 0.1891792435
650296100.0 -0.9821656412 0.1857816889
700295800.0 -0.979250479 0.200190771
750295500.0 -0.9763822875 0.213846425
800295200.0 -0.9730377246 0.228044514
850294900.0 -0.9695127247 0.2418918062
900294600.0 -0.9657795438 0.2558416699
950294300.0 -0.9622091674 0.269302952
1000294000.0 -0.9581601281 0.2832681602
1050293700.0 -0.9536139686 0.2971421322
1100293400.0 -0.9494676984 0.3115755086
1150293100.0 -0.9455998043 0.3234322031
1200292800.0 -0.9401710696 0.3378010556
1250292500.0 -0.9346601682 0.3511677864
1300292200.0 -0.9289629506 0.3644438359
1350291900.0 -0.9235929293 0.3785080437
1400291600.0 -0.9180363703 0.39157423
1450291300.0 -0.912521746 0.4040353989
1500291000.0 -0.9061448796 0.4173624134
1550290700.0 -0.8997005595 0.430800337
1600290400.0 -0.8934686452 0.4436813848
1650290100.0 -0.8867676108 0.4558255962
1700289800.0 -0.8799377699 0.4693551048
1750289500.0 -0.872955507 0.481576808
1800289200.0 -0.8653478329 0.4944287056
1850288900.0 -0.8586887492 0.5057362977
1900288600.0 -0.8510272334 0.5187436859
1950288300.0 -0.8427696844 0.5313006397
2000288000.0 -0.8354200238 0.5428156577
2050287700.0 -0.8273134081 0.5551505905
2100287400.0 -0.8192287991 0.5666259946
2150287100.0 -0.8107440839 0.5784730202
2200286800.0 -0.8029156609 0.5893079402
2250286500.0 -0.7940864016 0.6013203602
2300286200.0 -0.7854179185 0.612899893
2350285900.0 -0.7767123786 0.6233410457
2400285600.0 -0.7679194536 0.6343398046
2450285300.0 -0.7589637364 0.6451019191
2500285000.0 -0.7491885107 0.6565099532
2550284700.0 -0.7400523497 0.6671217583
2600284400.0 -0.7310882551 0.6768994237
2650284100.0 -0.7224404946 0.6870336148
2700283800.0 -0.7119353539 0.6974214195
2750283500.0 -0.7016150441 0.7084577609
2800283200.0 -0.6916343561 0.7180342782
2850282900.0 -0.6811906583 0.7282342826
2900282600.0 -0.6708270103 0.7377221712
2950282300.0 -0.6601784279 0.747193694
3000282000.0 -0.6495935915 0.7567187196
3050281700.0 -0.6383569508 0.7659802996
3100281400.0 -0.6268861823 0.774888863
3150281100.0 -0.6155579587 0.783863462
3200280800.0 -0.6041170092 0.7923506166
3250280500.0 -0.5931296112 0.800263273
3300280200.0 -0.5815819596 0.8084398395
3350279900.0 -0.5693401585 0.8165886829
3400279600.0 -0.5566805337 0.8245476761
3450279300.0 -0.5457022537 0.8315423025
3500279000.0 -0.5336531208 0.8383194621
3550278700.0 -0.5216976445 0.8455775963
3600278400.0 -0.5100506829 0.852418776
3650278100.0 -0.4969415775 0.8601621704
3700277800.0 -0.4848307363 0.8665658313
3750277500.0 -0.472345357 0.8732535073
3800277200.0 -0.4599281192 0.8795601862
3850276900.0 -0.4477885634 0.8855946332
3900276600.0 -0.4369112116 0.8912094028
3950276300.0 -0.4249680949 0.8973239927
4000276000.0 -0.4131551028 0.9032495773
4050275700.0 -0.4004203777 0.9093057273
4100275400.0 -0.3893632844 0.9147098352
4150275100.0 -0.3762420555 0.9204720126
4200274800.0 -0.3627861175 0.9261761244
4250274500.0 -0.3497618808 0.9313548058
4300274200.0 -0.3368655966 0.9368573227
4350273900.0 -0.3227632342 0.942240076
4400273600.0 -0.307885626 0.9471586957
4450273300.0 -0.2928467846 0.9521402459
4500273000.0 -0.2797382558 0.9567005567
4550272700.0 -0.2660367624 0.9605798436
4600272400.0 -0.2509342302 0.9645292213
4650272100.0 -0.2395812568 0.9679181049
4700271800.0 -0.2267548962 0.9711787897
4750271500.0 -0.2150642636 0.9739362824
4800271200.0 -0.2029241029 0.9766784504
4850270900.0 -0.1891052355 0.9795884825
4900270600.0 -0.1752548747 0.9820211081
4950270300.0 -0.1606023295 0.9846160403
5000270000.0 -0.1461246864 0.9865445922
5050269700.0 -0.1328332138 0.988147959
5100269400.0 -0.1186656453 0.9902462857
5150269100.0 -0.1048087116 0.9919368625
5200268800.0 -0.0912912251 0.9924616503
5250268500.0 -0.0781942159 0.9935705528
5300268200.0 -0.0646382383 0.9943706437
5350267900.0 -0.0517055976 0.9952299377
5400267600.0 -0.0357190015 0.996200183
5450267300.0 -0.0223895072 0.9965086604
5500267000.0 -0.0067818731 0.9969828525
5550266700.0 0.0079873898 0.997217227
5600266400.0 0.0237422325 0.9971226781
5650266100.0 0.0402478851 0.9964446738
5700265800.0 0.0547466269 0.9960357423
5750265500.0 0.0695629985 0.9954935933
5800265200.0 0.0830335282 0.9940513965
5850264900.0 0.0964314843 0.9936821453
5900264600.0 0.1126335734 0.9912833358
5950264300.0 0.1242740703 0.9896067356
6000264000.0 0.1380696203 0.9880360951
6050263700.0 0.1497759692 0.9868314989
6100263400.0 0.1618241074 0.9849848823
6150263100.0 0.1767784995 0.9826649839
6200262800.0 0.1862645172 0.98109186
6250262500.0 0.1987378791 0.9788056119
6300262200.0 0.2109170502 0.9761440992
6350261900.0 0.2238368811 0.9733550923
6400261600.0 0.2375852175 0.9700972651
6450261300.0 0.2488588011 0.9676093563
6500261000.0 0.2620999492 0.9640527289
6550260700.0 0.2753142449 0.9601614736
6600260400.0 0.2887163613 0.9561008933
6650260100.0 0.3029902098 0.9513751599
6700259800.0 0.3150299563 0.9472454909
6750259500.0 0.3287525078 0.9424482839
6800259200.0 0.3421858335 0.9371320401
6850258900.0 0.3546595901 0.9319285625
6900258600.0 0.3668926656 0.9268419357
6950258300.0 0.3796114037 0.9216213752
7000258000.0 0.3914459386 0.9163438255
7050257700.0 0.4032343701 0.9102682063
7100257400.0 0.4166939863 0.9041161077
7150257100.0 0.4272556015 0.8986711705
7200256800.0 0.4404709214 0.8920054327
7250256500.0 0.4529092886 0.8855550813
7300256200.0 0.4658240127 0.8785802713
7350255900.0 0.478264235 0.871798156
7400255600.0 0.4929358834 0.864119858
7450255300.0 0.5081635699 0.8552809233
7500255000.0 0.5207103919 0.8473034658
7550254700.0 0.5352406892 0.8385416606
7600254400.0 0.5477556676 0.8300544111
7650254100.0 0.5591241372 0.8224533591
7700253800.0 0.5707823944 0.8140751589
7750253500.0 0.5816791996 0.8066518758
7800253200.0 0.5924996776 0.7986039112
7850252900.0 0.6021794157 0.7916841781
7900252600.0 0.6136582371 0.782880924
7950252300.0 0.6222652706 0.7762917718
8000252000.0 0.6323428026 0.7687960727
8050251700.0 0.6423524802 0.760607916
8100251400.0 0.6524082275 0.7527958805
8150251100.0 0.6625063259 0.7442664391
8200250800.0 0.6717987476 0.7359709959
8250250500.0 0.6805893369 0.7279988452
8300250200.0 0.6899364494 0.7197497547
8350249900.0 0.6988050504 0.711084143
8400249600.0 0.7071207827 0.7031693011
8450249300.0 0.7157802004 0.6943594541
8500249000.0 0.7243752076 0.6855211561
8550248700.0 0.7327377009 0.6761805125
8600248400.0 0.7411564951 0.6669470987
8650248100.0 0.7484179934 0.6573746876
8700247800.0 0.7578505488 0.6464344906
8750247500.0 0.766298768 0.6362922451
8800247200.0 0.7741553252 0.6261100727
8850246900.0 0.7830032406 0.6144917675
8900246600.0 0.7914262101 0.603285925
8950246300.0 0.8006093713 0.590544553
9000246000.0 0.8093211129 0.5786097601
9050245700.0 0.8174529257 0.5660769799
9100245400.0 0.8262544713 0.5540368316
9150245100.0 0.8350271571 0.5411094187
9200244800.0 0.8445035435 0.5267232391
9250244500.0 0.8537142278 0.5119772251
9300244200.0 0.8615304953 0.4983498549
9350243900.0 0.869095045 0.4852396697
9400243600.0 0.8757336109 0.4733582996
9450243300.0 0.8813376406 0.4627805855
9500243000.0 0.8876940588 0.4511193731
9550242700.0 0.8915964731 0.4436456327
9600242400.0 0.8958804849 0.4360416997
9650242100.0 0.8999705926 0.4291343618
9700241800.0 0.90495027 0.4205520178
9750241500.0 0.9090096741 0.413077189
9800241200.0 0.9137793554 0.4035504775
9850240900.0 0.920096602 0.3918579
9900240600.0 0.9259507005 0.3797949069
9950240300.0 0.932942715 0.3631037707
10000240000.0 0.9377443536 0.3512946866
10050239700.0 0.9437273437 0.3347093166
10100239400.0 0.9492906408 0.3184334229
10150239100.0 0.9540682941 0.3031880193
10200238800.0 0.9582317184 0.2876444149
10250238500.0 0.9615524226 0.2741060344
10300238200.0 0.9645994782 0.2602678799
10350237900.0 0.9674308476 0.2469754566
10400237600.0 0.9699508249 0.2334436305
10450237300.0 0.9726410683 0.2196122038
10500237000.0 0.9749445496 0.2071520271
10550236700.0 0.9772733448 0.1929178137
10600236400.0 0.979656472 0.1789460723
10650236100.0 0.9816665798 0.1643733823
10700235800.0 0.9837656007 0.1522144413
10750235500.0 0.9863676127 0.1384143534
10800235200.0 0.9879845098 0.1244056866
10850234900.0 0.9897336764 0.1092382998
10900234600.0 0.9921160955 0.0947968255
10950234300.0 0.9936581714 0.0812863393
11000234000.0 0.9955493326 0.0656378558
11050233700.0 0.9974376558 0.0490414912
11100233400.0 0.9989520759 0.0309443239
11150233100.0 0.9999545217 0.0145101276
11200232800.0 1.000755844 -0.0016197259
11250232500.0 1.001631139 -0.0193126779
11300232200.0 1.001715325 -0.038006615
11350231900.0 1.002006804 -0.054107561
11400231600.0 1.001476989 -0.0692041969
11450231300.0 1.000269265 -0.0851440952
11500231000.0 0.9997660376 -0.1014548405
11550230700.0 0.9976644931 -0.1148586546
11600230400.0 0.9971109188 -0.1271214442
11650230100.0 0.9952290601 -0.1387305489
11700229800.0 0.9927023513 -0.1541031527
11750229500.0 0.9898965879 -0.1677988206
11800229200.0 0.9873217738 -0.1816829513
11850228900.0 0.9834803425 -0.1933208033
11900228600.0 0.9798200878 -0.2031050484
11950228300.0 0.9763797676 -0.2133659923
12000228000.0 0.9737921954 -0.2218947055
12050227700.0 0.9697152076 -0.234485937
12100227400.0 0.9669289774 -0.2452187439
12150227100.0 0.961789908 -0.2624948867
12200226800.0 0.9576609137 -0.2728640137
12250226500.0 0.9539829208 -0.2858499044
12300226200.0 0.9500689257 -0.2987471458
12350225900.0 0.9449395305 -0.3118638255
12400225600.0 0.940101949 -0.3239291334
12450225300.0 0.936095195 -0.336818876
12500225000.0 0.9303060995 -0.351287587
12550224700.0 0.9247100808 -0.3652722525
12600224400.0 0.9200015982 -0.3782033015
12650224100.0 0.9140851888 -0.3924491594
12700223800.0 0.9089144388 -0.4053485029
12750223500.0 0.9033953585 -0.4183028838
12800223200.0 0.8980942547 -0.4309526518
12850222900.0 0.8930234676 -0.4430600497
12900222600.0 0.8874704278 -0.4549813288
12950222300.0 0.8810551506 -0.4677194305
13000222000.0 0.8750406937 -0.4788793828
13050221700.0 0.8682779749 -0.4921827722
13100221400.0 0.8614989466 -0.5040277221
13150221100.0 0.854549912 -0.516450195
13200220800.0 0.847684095 -0.5283092184
13250220500.0 0.8405516068 -0.54020672
13300220200.0 0.8327123966 -0.5511362417
13350219900.0 0.8246591759 -0.5630076917
13400219600.0 0.816314015 -0.5748510211
13450219300.0 0.8071151756 -0.5877666953
13500219000.0 0.7970177119 -0.6013438465
13550218700.0 0.7870842404 -0.613805952
13600218400.0 0.7772581909 -0.6258069172
13650218100.0 0.7680607384 -0.6358431186
13700217800.0 0.7572009343 -0.6484226077
13750217500.0 0.7482154337 -0.6583674776
13800217200.0 0.7372228784 -0.6696386694
13850216900.0 0.7254442442 -0.681054883
13900216600.0 0.7157415624 -0.6903618103
13950216300.0 0.7054504632 -0.7007911853
14000216000.0 0.6955937102 -0.7093231474
14050215700.0 0.6864334329 -0.7173112311
14100215400.0 0.6767287652 -0.7265178334
14150215100.0 0.667615258 -0.7350307978
14200214800.0 0.6578863437 -0.7441264294
14250214500.0 0.6476633978 -0.7534378445
14300214200.0 0.637256662 -0.7628734671
14350213900.0 0.6261392342 -0.7726247807
14400213600.0 0.6144736904 -0.7823922065
14450213300.0 0.6006847028 -0.7925953116
14500213000.0 0.588312827 -0.8021080034
14550212700.0 0.5753356195 -0.8118968009
14600212400.0 0.5632799076 -0.8202919345
14650212100.0 0.5509801557 -0.8294472432
14700211800.0 0.5367620935 -0.8389059752
14750211500.0 0.5245709057 -0.8474098457
14800211200.0 0.5123218155 -0.8554508316
14850210900.0 0.4999054637 -0.8630096628
14900210600.0 0.4868502415 -0.8709449894
14950210300.0 0.4734068108 -0.8785458514
15000210000.0 0.4606688072 -0.8852916545
15050209700.0 0.4483918286 -0.8913525725
15100209400.0 0.4355143192 -0.8976349026
15150209100.0 0.4234264972 -0.902362107
15200208800.0 0.4110903219 -0.9084116332
15250208500.0 0.3998871262 -0.9125950616
15300208200.0 0.3869353765 -0.9169005861
15350207900.0 0.3737339367 -0.9215387703
15400207600.0 0.3595140942 -0.9277594593
15450207300.0 0.3447357233 -0.932689596
15500207000.0 0.3305957287 -0.9370153796
15550206700.0 0.315548266 -0.9414820088
15600206400.0 0.2994606042 -0.9463979958
15650206100.0 0.2837047579 -0.950699373
15700205800.0 0.2702737294 -0.9541690848
15750205500.0 0.2564776533 -0.9577178282
15800205200.0 0.2424530203 -0.9612511242
15850204900.0 0.2281710174 -0.9646413744
15900204600.0 0.2130939692 -0.9683662495
15950204300.0 0.1987296462 -0.9716808052
16000204000.0 0.1842609567 -0.9745037879
16050203700.0 0.1691646452 -0.9773416553
16100203400.0 0.1543206417 -0.9798224972
16150203100.0 0.1396315895 -0.9819445936
16200202800.0 0.1256139665 -0.9843795381
16250202500.0 0.1110452301 -0.9857392694
16300202200.0 0.094854541 -0.9875490363
16350201900.0 0.0799434046 -0.9890503477
16400201600.0 0.0653361608 -0.9900640649
16450201300.0 0.0499139913 -0.9911758679
16500201000.0 0.0328372067 -0.9919653106
16550200700.0 0.0166750321 -0.9925621984
16600200400.0 0.0007888918 -0.9927605211
16650200100.0 -0.0154827629 -0.9926941158
16700199800.0 -0.0317370429 -0.9923725399
16750199500.0 -0.0503591223 -0.9918681896
16800199200.0 -0.0670941413 -0.9902515582
16850198900.0 -0.0818588407 -0.9889888086
16900198600.0 -0.0966088647 -0.9882416678
16950198300.0 -0.1099903511 -0.9875041955
17000198000.0 -0.1231688433 -0.9855470271
17050197700.0 -0.1352426204 -0.9841652538
17100197400.0 -0.1489761553 -0.9821466782
17150197100.0 -0.1612010256 -0.9797131177
17200196800.0 -0.1741061089 -0.978174081
17250196500.0 -0.1870986322 -0.9757214826
17300196200.0 -0.1991329891 -0.9733486718
17350195900.0 -0.2110009308 -0.970884339
17400195600.0 -0.2230273944 -0.9681950992
17450195300.0 -0.2356283442 -0.9654211071
17500195000.0 -0.2489154128 -0.9622984384
17550194700.0 -0.2628115997 -0.9585757254
17600194400.0 -0.2770590991 -0.954686248
17650194100.0 -0.2903361713 -0.9505355706
17700193800.0 -0.303027127 -0.9463194807
17750193500.0 -0.3174221704 -0.9415300546
17800193200.0 -0.3318794064 -0.9365352032
17850192900.0 -0.3466617633 -0.9308322891
17900192600.0 -0.3616829042 -0.9249211453
17950192300.0 -0.3772025136 -0.9175763871
18000192000.0 -0.3918756032 -0.9106278964
18050191700.0 -0.4056526158 -0.9025970655
18100191400.0 -0.4199457069 -0.8948418049
18150191100.0 -0.4347879717 -0.8870292818
18200190800.0 -0.4515509976 -0.8778614578
18250190500.0 -0.4686935353 -0.8681515673
18300190200.0 -0.4842041481 -0.8596179577
18350189900.0 -0.4994371477 -0.85152922
18400189600.0 -0.5136719177 -0.8425421653
18450189300.0 -0.5276138681 -0.8346305868
18500189000.0 -0.5408556932 -0.827069906
18550188700.0 -0.5535650377 -0.8194378178
18600188400.0 -0.5654161152 -0.8121169788
18650188100.0 -0.5765907236 -0.8059283068
18700187800.0 -0.58772323 -0.7991120237
18750187500.0 -0.5983163451 -0.7923616873
18800187200.0 -0.6091311048 -0.7854672451
18850186900.0 -0.619251327 -0.7784856545
18900186600.0 -0.6295295662 -0.7710750979
18950186300.0 -0.6399196159 -0.7631279623
19000186000.0 -0.6474459691 -0.7569140909
19050185700.0 -0.6569165243 -0.7501692944
19100185400.0 -0.6664911486 -0.7414197989
19150185100.0 -0.6766903556 -0.732828496
19200184800.0 -0.6871094631 -0.7257235057
19250184500.0 -0.6960526911 -0.7159730024
19300184200.0 -0.7077360251 -0.7062745425
19350183900.0 -0.7187910723 -0.6966236807
19400183600.0 -0.7284577759 -0.6865325688
19450183300.0 -0.7373853972 -0.6773124323
19500183000.0 -0.7455729263 -0.6665259461
19550182700.0 -0.7552577343 -0.655934112
19600182400.0 -0.7654453299 -0.6438572102
19650182100.0 -0.7760484242 -0.6316385226
19700181800.0 -0.7867249051 -0.6184376693
19750181500.0 -0.7968339959 -0.6044407184
19800181200.0 -0.8072432687 -0.5892841003
19850180900.0 -0.8166799393 -0.5741084538
19900180600.0 -0.8243435129 -0.559397399
19950180300.0 -0.8337619178 -0.5433327972
20000180000.0 -0.8241362173 -0.5472586046
20050179700.0 -0.8322698738 -0.5346371226
20100179400.0 -0.8401979145 -0.5209616927
20150179100.0 -0.8478088942 -0.5101918623
20200178800.0 -0.8558582617 -0.4977312223
20250178500.0 -0.866759706 -0.4848261375
20300178200.0 -0.8754402697 -0.4715161889
20350177900.0 -0.8848844892 -0.4572696722
20400177600.0 -0.8937437057 -0.4431213861
20450177300.0 -0.9021955117 -0.4290752096
20500177000.0 -0.9100725053 -0.414992535
20550176700.0 -0.9179299056 -0.4014984992
20600176400.0 -0.925110953 -0.3886902086
20650176100.0 -0.9319927426 -0.3764515164
20700175800.0 -0.9386903336 -0.3642477683
20750175500.0 -0.9451181332 -0.3528857484
20800175200.0 -0.9489360266 -0.3427024274
20850174900.0 -0.9537987565 -0.3310848371
20900174600.0 -0.9573841998 -0.3198173201
20950174300.0 -0.9621438066 -0.3094909183
21000174000.0 -0.9636293582 -0.2984958021
21050173700.0 -0.9655869381 -0.2886868421
21100173400.0 -0.9698001147 -0.2783644988
21150173100.0 -0.9736535157 -0.2661678342
21200172800.0 -0.9775652755 -0.2530592227
21250172500.0 -0.9808675241 -0.2389649756
21300172200.0 -0.9844947775 -0.2251071921
21350171900.0 -0.9864402024 -0.2108658046
21400171600.0 -0.9878164596 -0.1972728024
21450171300.0 -0.9890762269 -0.1824474911
21500171000.0 -0.9886678821 -0.166678213
21550170700.0 -0.9907940523 -0.1524195669
21600170400.0 -0.9907742892 -0.1364900816
21650170100.0 -0.9906561361 -0.1210700574
21700169800.0 -0.9907883415 -0.1062979002
21750169500.0 -0.9896361724 -0.089529894
21800169200.0 -0.9900709227 -0.0731259302
21850168900.0 -0.9900625877 -0.0566916153
21900168600.0 -0.9889151927 -0.0402262741
21950168300.0 -0.9886457851 -0.0246729685
22000168000.0 -0.9886840766 -0.0096632251
22050167700.0 -0.9891458208 0.004744425
22100167400.0 -0.9901316157 0.0204791975
22150167100.0 -0.9906832273 0.0367393988
22200166800.0 -0.991318645 0.0534527774
22250166500.0 -0.9906381986 0.0703679994
22300166200.0 -0.9901003613 0.0861895635
22350165900.0 -0.9883740432 0.1031784343
22400165600.0 -0.987129258 0.1185985839
22450165300.0 -0.9856016015 0.1337191804
22500165000.0 -0.9833467568 0.1481347555
22550164700.0 -0.9824299862 0.1642811031
22600164400.0 -0.9797998238 0.1805912272
22650164100.0 -0.9776313434 0.1963893504
22700163800.0 -0.9743501833 0.2125382409
22750163500.0 -0.9717965661 0.2267972401
22800163200.0 -0.9688672598 0.2398701494
22850162900.0 -0.9662510539 0.2530659107
22900162600.0 -0.9644736338 0.2675155913
22950162300.0 -0.9628454781 0.2809128927
23000162000.0 -0.9607243565 0.2936914898
23050161700.0 -0.9581305335 0.3070549492
23100161400.0 -0.9555255694 0.3205110781
23150161100.0 -0.9525989383 0.333182055
23200160800.0 -0.9494054039 0.3465277564
23250160500.0 -0.9468687805 0.3583530688
23300160200.0 -0.9440129925 0.3708203848
23350159900.0 -0.9404702663 0.3846717502
23400159600.0 -0.9347271714 0.3984774121
23450159300.0 -0.9297108826 0.4124350186
23500159000.0 -0.9249877256 0.4259071742
23550158700.0 -0.9202131883 0.4396589242
23600158400.0 -0.9143933828 0.4540303098
23650158100.0 -0.9069490078 0.4686245105
23700157800.0 -0.8985728057 0.4825540339
23750157500.0 -0.8893007682 0.4970876535
23800157200.0 -0.8800019468 0.5104492179
23850156900.0 -0.8703162992 0.5228696653
23900156600.0 -0.8593524557 0.5360454165
23950156300.0 -0.8499398815 0.5484429865
24000156000.0 -0.8411909967 0.5608640211
24050155700.0 -0.8298300465 0.5728773846
24100155400.0 -0.8192024202 0.585795266
24150155100.0 -0.8089778642 0.5976060555
24200154800.0 -0.7988168227 0.609465648
24250154500.0 -0.7868880839 0.621199388
24300154200.0 -0.7752006405 0.6336309684
24350153900.0 -0.7633566953 0.6448281385
24400153600.0 -0.7507049511 0.6555489928
24450153300.0 -0.738550544 0.6657368364
24500153000.0 -0.7273559224 0.675588576
24550152700.0 -0.7153621719 0.6859504292
24600152400.0 -0.7039199535 0.6954327472
24650152100.0 -0.6915548938 0.7031596633
