!Created with skrf (http://scikit-rf.org).
# Hz S RI R 50.0 
!freq ReS11 ImS11
300000.0 -0.9725872853 -0.1226635407
50299700.0 -0.9999744279 0.0149500771
100299400.0 -0.9979330221 0.0279723591
150299100.0 -1.002518014 0.0446770637
200298800.0 -0.9996258863 0.0580553113
250298500.0 -0.9972919496 0.0717316475
300298200.0 -0.9858417302 0.0875131438
350297900.0 -0.9937865537 0.0983929476
400297600.0 -0.9932692405 0.1148037662
450297300.0 -0.9909347008 0.1286558179
500297000.0 -0.9893846234 0.143348921
550296700.0 -0.9843796487 0.155782444
600296400.0 -1.017327459 0.1892007437
650296100.0 -0.9821108887 0.1855082112
700295800.0 -0.9794184431 0.1999146412
750295500.0 -0.9762967699 0.214063299
800295200.0 -0.9728633645 0.2277614542
850294900.0 -0.9695189796 0.241983773
900294600.0 -0.9657607047 0.2556315466
950294300.0 -0.9621734465 0.2692822203
1000294000.0 -0.9582486079 0.2832464635
1050293700.0 -0.9536852064 0.2971255241
1100293400.0 -0.9493018179 0.3114457214
1150293100.0 -0.9455599293 0.3235556036
1200292800.0 -0.9402606612 0.3378173112
1250292500.0 -0.9346939196 0.3512955587
1300292200.0 -0.9290339075 0.3645496267
1350291900.0 -0.9234144604 0.3784967248
1400291600.0 -0.9182446616 0.3915984898
1450291300.0 -0.9123981711 0.404086997
1500291000.0 -0.9062578533 0.4172826807
1550290700.0 -0.8996486891 0.4306240604
1600290400.0 -0.8935127574 0.4437536823
1650290100.0 -0.8869203907 0.4558990432
1700289800.0 -0.8796488397 0.4692359879
1750289500.0 -0.872785032 0.4814661159
1800289200.0 -0.8655208305 0.4944420889
1850288900.0 -0.8587135669 0.5060646829
1900288600.0 -0.8510464382 0.5187894727
1950288300.0 -0.8428653511 0.5312677544
2000288000.0 -0.8353913225 0.542932915
2050287700.0 -0.8272186142 0.5553296857
2100287400.0 -0.8194883404 0.5666572265
2150287100.0 -0.810833343 0.5785790413
2200286800.0 -0.8028822126 0.5890841964
2250286500.0 -0.7940847462 0.6016756447
2300286200.0 -0.785347984 0.6128068987
2350285900.0 -0.7768115676 0.6236060584
2400285600.0 -0.767991076 0.6344560012
2450285300.0 -0.759251588 0.6451486203
2500285000.0 -0.7490320335 0.6568616366
2550284700.0 -0.7402954779 0.6670567343
2600284400.0 -0.7309496567 0.6769128017
2650284100.0 -0.7223614561 0.6871921606
2700283800.0 -0.7118206932 0.697473248
2750283500.0 -0.7016578593 0.7084134042
2800283200.0 -0.6915325365 0.718240251
2850282900.0 -0.6812025823 0.7281203662
2900282600.0 -0.6705928527 0.7377137638
2950282300.0 -0.6603814766 0.7473845816
3000282000.0 -0.6494519622 0.7566380754
3050281700.0 -0.6381849774 0.7658370724
3100281400.0 -0.6268608209 0.775194274
3150281100.0 -0.6156424422 0.7841485289
3200280800.0 -0.6041627626 0.7924426154
3250280500.0 -0.5930706648 0.8003362428
3300280200.0 -0.5814131636 0.8084170696
3350279900.0 -0.5690949984 0.8165836116
3400279600.0 -0.5566908928 0.8245000805
3450279300.0 -0.545676391 0.8316930279
3500279000.0 -0.5338153245 0.8385660956
3550278700.0 -0.5215845532 0.8455166628
3600278400.0 -0.5099479495 0.8526036316
3650278100.0 -0.496646234 0.8599929818
3700277800.0 -0.4846240027 0.8665070229
3750277500.0 -0.4722924688 0.8734150971
3800277200.0 -0.4596095852 0.8797629333
3850276900.0 -0.4476295455 0.8856596989
3900276600.0 -0.4367782825 0.8912526991
3950276300.0 -0.4245923377 0.8971299098
4000276000.0 -0.41315815 0.9032895568
4050275700.0 -0.4004133313 0.9092659088
4100275400.0 -0.3891316212 0.9145126126
4150275100.0 -0.3759264683 0.9205542127
4200274800.0 -0.3625508047 0.9261365756
4250274500.0 -0.3498654697 0.9314072473
4300274200.0 -0.3367359386 0.9368476941
4350273900.0 -0.32244567 0.9418776425
4400273600.0 -0.3076924819 0.9472320039
4450273300.0 -0.2928446837 0.9521758655
4500273000.0 -0.2796673276 0.9564312443
4550272700.0 -0.2659514903 0.9605012718
4600272400.0 -0.2508514525 0.9645627865
4650272100.0 -0.239756927 0.967913025
4700271800.0 -0.2265661516 0.9712098971
4750271500.0 -0.2149672605 0.9740229575
4800271200.0 -0.2027754016 0.9765794363
4850270900.0 -0.1890662149 0.9794802748
4900270600.0 -0.1750720187 0.9818915237
4950270300.0 -0.1606297373 0.984531986
5000270000.0 -0.1461441271 0.9869527647
5050269700.0 -0.1324803293 0.9880046802
5100269400.0 -0.1184223852 0.9899135555
5150269100.0 -0.1046791994 0.9919128047
5200268800.0 -0.0910857186 0.9925323038
5250268500.0 -0.077961436 0.9939119179
5300268200.0 -0.0646478685 0.9945005034
5350267900.0 -0.0516808363 0.9950635329
5400267600.0 -0.0353342194 0.9962751154
5450267300.0 -0.0220722591 0.9967520968
5500267000.0 -0.0068060026 0.9970815392
5550266700.0 0.0083085058 0.9972531038
5600266400.0 0.023919126 0.9972404962
5650266100.0 0.0406852043 0.99688151
5700265800.0 0.0549170622 0.9959508526
5750265500.0 0.0697091329 0.9952712123
5800265200.0 0.0837107507 0.9941973142
5850264900.0 0.0967192443 0.9933186027
5900264600.0 0.1131320906 0.9913438201
5950264300.0 0.1246786903 0.9898806008
6000264000.0 0.1382201335 0.9880427799
6050263700.0 0.1498065251 0.9864689622
6100263400.0 0.162034941 0.9848313321
6150263100.0 0.176596336 0.9823912525
6200262800.0 0.186238238 0.9808691613
6250262500.0 0.1990910452 0.97870321
6300262200.0 0.2111531094 0.9760872165
6350261900.0 0.2241523924 0.9733767995
6400261600.0 0.2379914136 0.9702775716
6450261300.0 0.2488882248 0.9677009341
6500261000.0 0.2622445503 0.9638770836
6550260700.0 0.2756512688 0.9601388186
6600260400.0 0.28867865 0.9557424132
6650260100.0 0.3030789773 0.9517919069
6700259800.0 0.3152709806 0.9472761492
6750259500.0 0.328585888 0.942420519
6800259200.0 0.3422742231 0.9373054734
6850258900.0 0.3547879326 0.9320650054
6900258600.0 0.3675695919 0.9269300255
6950258300.0 0.3798268768 0.9214633166
7000258000.0 0.3916119298 0.9162111628
7050257700.0 0.4033301141 0.9104178995
7100257400.0 0.4167665096 0.9040204908
7150257100.0 0.427434116 0.8986319094
7200256800.0 0.4402551658 0.8920654222
7250256500.0 0.4532698432 0.8856376368
7300256200.0 0.4660721746 0.8785364515
7350255900.0 0.4788545457 0.8716637406
7400255600.0 0.4933041115 0.8640612855
7450255300.0 0.508524009 0.8549775585
7500255000.0 0.5206524045 0.8473094087
7550254700.0 0.5353417106 0.8379987968
7600254400.0 0.5477040934 0.829985243
7650254100.0 0.5592401577 0.8219623662
7700253800.0 0.5710770138 0.8139379566
7750253500.0 0.581892825 0.806455014
7800253200.0 0.5926989709 0.7984749613
7850252900.0 0.6023564885 0.79120486
7900252600.0 0.6137724208 0.7825786239
7950252300.0 0.6223058238 0.7762382805
8000252000.0 0.6322078262 0.7685857041
8050251700.0 0.642560805 0.7605287246
8100251400.0 0.6524375133 0.7526589665
8150251100.0 0.6626657606 0.7439691494
8200250800.0 0.6721105389 0.7359677136
8250250500.0 0.6805306283 0.7281839218
8300250200.0 0.6899075924 0.7196162514
8350249900.0 0.6990572129 0.7107750084
8400249600.0 0.707310994 0.702591765
8450249300.0 0.7159970852 0.6940722638
8500249000.0 0.7245990176 0.6853062025
8550248700.0 0.7328997063 0.6762725049
8600248400.0 0.7409799297 0.666557936
8650248100.0 0.7487031075 0.6573456323
8700247800.0 0.7581276477 0.6463354204
8750247500.0 0.7662222301 0.6360758595
8800247200.0 0.7742271027 0.6257984634
8850246900.0 0.7829372514 0.6147181834
8900246600.0 0.7915298303 0.6030020989
8950246300.0 0.8007438102 0.5904117426
9000246000.0 0.8094019801 0.5783283642
9050245700.0 0.8178817095 0.5659812801
9100245400.0 0.8261686854 0.553883806
9150245100.0 0.8350813006 0.5409590234
9200244800.0 0.8448811155 0.5265253133
9250244500.0 0.8533309233 0.5118033162
9300244200.0 0.8613339825 0.4981317512
9350243900.0 0.8691714422 0.4849434542
9400243600.0 0.875785237 0.4732582716
9450243300.0 0.8812653152 0.4627411316
9500243000.0 0.8875956168 0.4511269452
9550242700.0 0.8916528008 0.4435863428
9600242400.0 0.8960141884 0.4359036103
9650242100.0 0.8999685849 0.4290428486
9700241800.0 0.9050537133 0.4204791633
9750241500.0 0.9092094792 0.4129114112
9800241200.0 0.9144958618 0.4032123834
9850240900.0 0.9198874334 0.3917719587
9900240600.0 0.9259784975 0.3799292081
9950240300.0 0.9328115274 0.3634590654
10000240000.0 0.9377377967 0.3513241783
10050239700.0 0.9439935533 0.3351797493
10100239400.0 0.9496473602 0.3184608563
10150239100.0 0.9537249219 0.302999552
10200238800.0 0.9582381825 0.2874230307
10250238500.0 0.9615677594 0.2740578256
10300238200.0 0.9648018343 0.2603168353
10350237900.0 0.9674260113 0.2466997801
10400237600.0 0.970247447 0.2331306143
10450237300.0 0.9727581594 0.2198703559
10500237000.0 0.9748856023 0.2074143963
10550236700.0 0.9774117352 0.1923367555
10600236400.0 0.9794105636 0.1789299277
10650236100.0 0.9814990917 0.1643417307
10700235800.0 0.9840544447 0.1521778685
10750235500.0 0.9859346269 0.1386343552
10800235200.0 0.9880490495 0.1238984748
10850234900.0 0.9900573439 0.1090141309
10900234600.0 0.9919270745 0.0944570369
10950234300.0 0.9936674875 0.0809105465
11000234000.0 0.9956329412 0.0652323318
11050233700.0 0.997420142 0.048389348
11100233400.0 0.9986127549 0.0307636436
11150233100.0 0.9997266155 0.0144536263
11200232800.0 1.00074148 -0.0017595913
11250232500.0 1.001956618 -0.0192352969
11300232200.0 1.002358631 -0.0379816147
11350231900.0 1.002330042 -0.0545974314
11400231600.0 1.001843872 -0.0701828039
11450231300.0 1.001207612 -0.0857696124
11500231000.0 0.999496503 -0.1012338966
11550230700.0 0.9979316787 -0.1151907536
11600230400.0 0.9971301896 -0.1278226509
11650230100.0 0.9950825356 -0.1399860155
11700229800.0 0.9926169227 -0.1549414507
11750229500.0 0.9901961127 -0.1688282585
11800229200.0 0.9875083003 -0.1823836753
11850228900.0 0.9836614246 -0.1939021357
11900228600.0 0.9798115548 -0.2036012614
11950228300.0 0.9765327426 -0.213928855
12000228000.0 0.973529293 -0.2225811929
12050227700.0 0.9696727761 -0.2350337031
12100227400.0 0.96676325 -0.2456637146
12150227100.0 0.9611244502 -0.2630401439
12200226800.0 0.9580760685 -0.2739079521
12250226500.0 0.9539284298 -0.286422422
12300226200.0 0.9497079167 -0.2989125517
12350225900.0 0.9444429487 -0.3121849935
12400225600.0 0.9405343558 -0.3244574139
12450225300.0 0.9357386453 -0.3372602097
12500225000.0 0.9303143281 -0.3523991938
12550224700.0 0.9248791455 -0.3659298223
12600224400.0 0.9197996022 -0.378543965
12650224100.0 0.9140541192 -0.3927698125
12700223800.0 0.9087198442 -0.4055225851
12750223500.0 0.9031924777 -0.4186949997
12800223200.0 0.8979570441 -0.4315483886
12850222900.0 0.8927614093 -0.4436440987
12900222600.0 0.8870668465 -0.4554388568
12950222300.0 0.8811917961 -0.4677659894
13000222000.0 0.8751383879 -0.4791814218
13050221700.0 0.8681772699 -0.4921305484
13100221400.0 0.8612785345 -0.5042638508
13150221100.0 0.8542512236 -0.5171117105
13200220800.0 0.8477497118 -0.5281121312
13250220500.0 0.840239708 -0.5408052797
13300220200.0 0.8326324121 -0.5514770632
13350219900.0 0.8245605189 -0.5633563762
13400219600.0 0.8161114448 -0.5754760584
13450219300.0 0.8067901711 -0.5885996278
13500219000.0 0.7969650312 -0.6017616652
13550218700.0 0.7876227114 -0.6135828305
13600218400.0 0.7770960156 -0.6261881245
13650218100.0 0.7676688538 -0.6358162694
13700217800.0 0.7568684285 -0.6487039365
13750217500.0 0.7465566312 -0.659653525
13800217200.0 0.7363804396 -0.670309871
13850216900.0 0.7254885838 -0.6813554051
13900216600.0 0.7152318961 -0.6906940943
13950216300.0 0.7044498522 -0.7008051332
14000216000.0 0.6952087382 -0.7099748573
14050215700.0 0.6859694316 -0.7178808645
14100215400.0 0.6761693118 -0.7272599278
14150215100.0 0.6673030605 -0.7355072111
14200214800.0 0.6575787178 -0.7442610571
14250214500.0 0.6472583877 -0.7537781459
14300214200.0 0.6367295426 -0.7630696834
14350213900.0 0.625716321 -0.772892687
14400213600.0 0.6137435705 -0.7825764164
14450213300.0 0.6012315348 -0.7929725885
14500213000.0 0.5879900783 -0.802701174
14550212700.0 0.5755624167 -0.8120968534
14600212400.0 0.5625935894 -0.8209724732
14650212100.0 0.5501791881 -0.8294876145
14700211800.0 0.536683521 -0.8391295431
14750211500.0 0.5245635401 -0.8475592073
14800211200.0 0.5120355253 -0.8555257786
14850210900.0 0.4995920468 -0.8633990073
14900210600.0 0.4860695319 -0.8713166513
14950210300.0 0.4728814358 -0.8787794609
15000210000.0 0.4599957247 -0.8856534214
15050209700.0 0.4476124604 -0.8917636801
15100209400.0 0.4354771433 -0.8978266626
15150209100.0 0.4227069465 -0.9035779971
15200208800.0 0.4102064775 -0.909000912
15250208500.0 0.3988089382 -0.9127574517
15300208200.0 0.3866856941 -0.9177002339
15350207900.0 0.373421344 -0.9215914402
15400207600.0 0.3584884407 -0.9277615198
15450207300.0 0.3437801849 -0.932792628
15500207000.0 0.3301269623 -0.9367594819
15550206700.0 0.3151389836 -0.9422409358
15600206400.0 0.2987475363 -0.9471298859
15650206100.0 0.2838283163 -0.9509917482
15700205800.0 0.2700935962 -0.9543712815
15750205500.0 0.2558792664 -0.9578861105
15800205200.0 0.2417724278 -0.9612454653
15850204900.0 0.2276262743 -0.9646895775
15900204600.0 0.2126075127 -0.968342187
15950204300.0 0.1982137436 -0.9713987005
16000204000.0 0.1840382269 -0.9745086214
16050203700.0 0.1690428837 -0.9774725434
16100203400.0 0.1539093131 -0.9794644656
16150203100.0 0.1388624865 -0.982409189
16200202800.0 0.1249928827 -0.9844542699
16250202500.0 0.1101071724 -0.9859418858
16300202200.0 0.0944627633 -0.9869204717
16350201900.0 0.0798403701 -0.988996485
16400201600.0 0.0646507706 -0.989948134
16450201300.0 0.0494644087 -0.9910125137
16500201000.0 0.0323654636 -0.9918501494
16550200700.0 0.016279743 -0.992515645
16600200400.0 0.000360699 -0.9926942517
16650200100.0 -0.0157214675 -0.9926837309
16700199800.0 -0.0323567405 -0.9921329343
16750199500.0 -0.051332866 -0.9915800713
16800199200.0 -0.0670079153 -0.990412252
16850198900.0 -0.0828545736 -0.9892642507
16900198600.0 -0.0970284443 -0.9884133036
16950198300.0 -0.1108686269 -0.9872542426
17000198000.0 -0.1230806946 -0.9855190982
17050197700.0 -0.1362373049 -0.9841217607
17100197400.0 -0.1490614652 -0.9820367782
17150197100.0 -0.1617968099 -0.9801514736
17200196800.0 -0.1744523195 -0.9778177431
17250196500.0 -0.1878082614 -0.9754862291
17300196200.0 -0.2000454988 -0.9730377171
17350195900.0 -0.2116094462 -0.970790171
17400195600.0 -0.2236057012 -0.9680914508
17450195300.0 -0.2365207415 -0.9653668592
17500195000.0 -0.2497663887 -0.961923588
17550194700.0 -0.2635450532 -0.9586284862
17600194400.0 -0.2774794444 -0.9546085518
17650194100.0 -0.2908069198 -0.9505260233
17700193800.0 -0.3038510213 -0.9461555432
17750193500.0 -0.3179228242 -0.9416803141
17800193200.0 -0.3319470957 -0.9363575506
17850192900.0 -0.3467181213 -0.9307825362
17900192600.0 -0.3620555143 -0.9246270582
17950192300.0 -0.3775215407 -0.9176681107
18000192000.0 -0.3924084835 -0.9103135813
18050191700.0 -0.4059629571 -0.9025358881
18100191400.0 -0.4203088818 -0.894821627
18150191100.0 -0.4351099324 -0.8867211162
18200190800.0 -0.4520015581 -0.8774479383
18250190500.0 -0.4688942662 -0.8680600581
18300190200.0 -0.4848191458 -0.8594477933
18350189900.0 -0.4997966024 -0.8508414048
18400189600.0 -0.5146764012 -0.8425336474
18450189300.0 -0.5276251969 -0.8346279111
18500189000.0 -0.5412072581 -0.8267792096
18550188700.0 -0.5536875106 -0.818813689
18600188400.0 -0.566013804 -0.8119518576
18650188100.0 -0.5775700563 -0.805647336
18700187800.0 -0.5883023034 -0.7986538448
18750187500.0 -0.5989735637 -0.7921618383
18800187200.0 -0.609626273 -0.7849804403
18850186900.0 -0.6197903425 -0.7781559842
18900186600.0 -0.6300044022 -0.7708651392
18950186300.0 -0.6404632573 -0.7630758257
19000186000.0 -0.6477643125 -0.7570007575
19050185700.0 -0.6571774728 -0.7497283264
19100185400.0 -0.666694697 -0.741667524
19150185100.0 -0.6770402253 -0.7327459054
19200184800.0 -0.6861912023 -0.7248131936
19250184500.0 -0.6960841194 -0.7154045434
19300184200.0 -0.7080658031 -0.7059920087
19350183900.0 -0.7190924065 -0.6961752649
19400183600.0 -0.7288828897 -0.6862149378
19450183300.0 -0.7373418051 -0.6767659345
19500183000.0 -0.7458143132 -0.6662486065
19550182700.0 -0.755905992 -0.6555290051
19600182400.0 -0.7657674494 -0.6439035358
19650182100.0 -0.7766916766 -0.631527675
19700181800.0 -0.7868770435 -0.6185605269
19750181500.0 -0.7971260654 -0.6040395322
19800181200.0 -0.8074274108 -0.5892024019
19850180900.0 -0.8167368295 -0.5737791261
19900180600.0 -0.8247269739 -0.5595701892
19950180300.0 -0.8335550262 -0.5431798154
20000180000.0 -0.8236549428 -0.5469423324
20050179700.0 -0.8310280861 -0.5344495529
20100179400.0 -0.8397821259 -0.5215759114
20150179100.0 -0.8477728442 -0.5087170478
20200178800.0 -0.8563259305 -0.4976328736
20250178500.0 -0.8654487828 -0.4859785427
20300178200.0 -0.875984431 -0.4713864291
20350177900.0 -0.8847451587 -0.4571911468
20400177600.0 -0.8936508707 -0.4433511261
20450177300.0 -0.9022902929 -0.4291746851
20500177000.0 -0.9100988878 -0.4152784411
20550176700.0 -0.9178732883 -0.4016942689
20600176400.0 -0.9252203755 -0.3889680474
20650176100.0 -0.9312830972 -0.3765575575
20700175800.0 -0.9386329223 -0.3646550255
20750175500.0 -0.9445515113 -0.3530746349
20800175200.0 -0.9497160999 -0.3424193734
20850174900.0 -0.9536566457 -0.3319803513
20900174600.0 -0.9580358637 -0.3199996807
20950174300.0 -0.9618079305 -0.3091545163
21000174000.0 -0.9643528941 -0.298297584
21050173700.0 -0.9660111636 -0.2890202405
21100173400.0 -0.9694781398 -0.2782886219
21150173100.0 -0.9733510512 -0.2663003089
21200172800.0 -0.9771375096 -0.2531258761
21250172500.0 -0.9810777878 -0.2392760632
21300172200.0 -0.9841044484 -0.2253475138
21350171900.0 -0.9859674961 -0.2108058435
21400171600.0 -0.9880484707 -0.1971286436
21450171300.0 -0.988985497 -0.1833184086
21500171000.0 -0.9887838854 -0.1667264064
21550170700.0 -0.990399746 -0.1532807837
21600170400.0 -0.9906580188 -0.1375369245
21650170100.0 -0.9916659066 -0.1219439922
21700169800.0 -0.9901985791 -0.1060265356
21750169500.0 -0.9892627675 -0.0898444246
21800169200.0 -0.9901617064 -0.0737522877
21850168900.0 -0.9903807676 -0.0568556699
21900168600.0 -0.9890558943 -0.0407081711
21950168300.0 -0.9889467553 -0.024671135
22000168000.0 -0.9885344003 -0.0097653799
22050167700.0 -0.989337225 0.0050655765
22100167400.0 -0.9901016189 0.0204731711
22150167100.0 -0.9911466912 0.0365186027
22200166800.0 -0.9912817073 0.0529970362
22250166500.0 -0.9913441887 0.0698517724
22300166200.0 -0.9907091723 0.0872557872
22350165900.0 -0.98837628 0.103173614
22400165600.0 -0.9875803929 0.1186264678
22450165300.0 -0.9857257416 0.1338662676
22500165000.0 -0.9833802268 0.1477065407
22550164700.0 -0.9830572524 0.1639978374
22600164400.0 -0.980114025 0.1798135469
22650164100.0 -0.9781137585 0.1963200398
22700163800.0 -0.9749942191 0.2116067859
22750163500.0 -0.9717394777 0.2268685452
22800163200.0 -0.9686358414 0.2399427449
22850162900.0 -0.9663312191 0.253266337
22900162600.0 -0.9641719822 0.2669688232
22950162300.0 -0.9626652376 0.2810104377
23000162000.0 -0.9606364492 0.2932911779
23050161700.0 -0.9581650001 0.3071149529
23100161400.0 -0.9554832971 0.3201789933
23150161100.0 -0.952823732 0.332965963
23200160800.0 -0.9494761519 0.3463453608
23250160500.0 -0.9466521615 0.3584738145
23300160200.0 -0.9436894561 0.3706255319
23350159900.0 -0.9400694498 0.3849353033
23400159600.0 -0.9353680719 0.3992175622
23450159300.0 -0.930007468 0.4120516789
23500159000.0 -0.9248574102 0.4258168914
23550158700.0 -0.9203314925 0.4398010791
23600158400.0 -0.9145474317 0.4540921234
23650158100.0 -0.9070014835 0.4685585601
23700157800.0 -0.8986292416 0.4828334872
23750157500.0 -0.8891022742 0.4969602517
23800157200.0 -0.8791753443 0.5107922336
23850156900.0 -0.8696838088 0.5231956141
23900156600.0 -0.8599289491 0.5357636691
23950156300.0 -0.8503121422 0.5483301379
24000156000.0 -0.8404645404 0.561968678
24050155700.0 -0.8297267332 0.573344043
24100155400.0 -0.81986628 0.5861388735
24150155100.0 -0.808352107 0.5985517291
24200154800.0 -0.7971186334 0.6094960255
24250154500.0 -0.7860598152 0.6217515769
24300154200.0 -0.7750842857 0.6338609121
24350153900.0 -0.7627309453 0.6447341762
24400153600.0 -0.7501425051 0.6554301083
24450153300.0 -0.7381393814 0.6659222602
24500153000.0 -0.7265325346 0.675952549
24550152700.0 -0.7152377197 0.6857637447
24600152400.0 -0.7032515322 0.6954481917
24650152100.0 -0.690948616 0.7036232683
