!Created with skrf (http://scikit-rf.org).
# Hz S RI R 50.0 
!freq ReS11 ImS11
300000.0 -0.9790161215 -0.1049188307
50299700.0 -0.999914103 0.0161950909
100299400.0 -0.997987483 0.0290281893
150299100.0 -1.002629414 0.0460157904
200298800.0 -0.9996102757 0.0590353723
250298500.0 -0.9974651511 0.072747073
300298200.0 -0.9860197781 0.0884518145
350297900.0 -0.9939895607 0.0994086667
400297600.0 -0.9931327921 0.1161200477
450297300.0 -0.9911008554 0.1298334333
500297000.0 -0.9894821668 0.1445502052
550296700.0 -0.9842060396 0.1570686173
600296400.0 -1.017349691 0.1902606719
650296100.0 -0.9821502844 0.1870647913
700295800.0 -0.979391814 0.2015476881
750295500.0 -0.9762324084 0.2154407493
800295200.0 -0.9727099825 0.2294394964
850294900.0 -0.9695353519 0.2432560272
900294600.0 -0.9655887643 0.2572479537
950294300.0 -0.9619213559 0.2707334209
1000294000.0 -0.957776524 0.2847395344
1050293700.0 -0.9532074653 0.2985614547
1100293400.0 -0.9490791764 0.3131540097
1150293100.0 -0.9450457943 0.3247767653
1200292800.0 -0.9398962199 0.3392962437
1250292500.0 -0.9341840073 0.3526743948
1300292200.0 -0.9284049697 0.3657226596
1350291900.0 -0.923027761 0.3798534138
1400291600.0 -0.9175848013 0.3929626568
1450291300.0 -0.9122732122 0.4052513458
1500291000.0 -0.9056368481 0.4187810436
1550290700.0 -0.8992098587 0.4319182183
1600290400.0 -0.8930702125 0.4448642138
1650290100.0 -0.8863140082 0.4569645666
1700289800.0 -0.8795943181 0.4703202323
1750289500.0 -0.8724490867 0.4826763892
1800289200.0 -0.8651486678 0.4954665269
1850288900.0 -0.8584224842 0.5068193619
1900288600.0 -0.8504611674 0.5198768089
1950288300.0 -0.8424686622 0.5324540909
2000288000.0 -0.8351296945 0.543885407
2050287700.0 -0.8265949578 0.5563496526
2100287400.0 -0.8188922193 0.5678608652
2150287100.0 -0.8099739866 0.5800163153
2200286800.0 -0.8022890775 0.5904373687
2250286500.0 -0.7934152755 0.6023450159
2300286200.0 -0.784594799 0.613889583
2350285900.0 -0.7756917086 0.6249380208
2400285600.0 -0.7666241546 0.636040377
2450285300.0 -0.7579860452 0.6465082421
2500285000.0 -0.7483617657 0.6578430125
2550284700.0 -0.7393663516 0.6680888153
2600284400.0 -0.7298816986 0.6779909886
2650284100.0 -0.7207848169 0.6885954346
2700283800.0 -0.7103388094 0.6992982522
2750283500.0 -0.7000518431 0.7098249637
2800283200.0 -0.6900238213 0.7194467437
2850282900.0 -0.6799967433 0.7291862197
2900282600.0 -0.6695567039 0.7389568443
2950282300.0 -0.6595702533 0.7480170133
3000282000.0 -0.6487843344 0.7576551131
3050281700.0 -0.6377317716 0.7668226109
3100281400.0 -0.625705207 0.7760990844
3150281100.0 -0.6139745763 0.7854143621
3200280800.0 -0.6022489054 0.7939096216
3250280500.0 -0.5917623652 0.8017231161
3300280200.0 -0.5805501548 0.8095102326
3350279900.0 -0.5687911708 0.8170963486
3400279600.0 -0.5567820096 0.8248113102
3450279300.0 -0.5457484183 0.8317527813
3500279000.0 -0.5337038275 0.8391258626
3550278700.0 -0.5212498212 0.8463198653
3600278400.0 -0.5089524051 0.8534042032
3650278100.0 -0.4957483625 0.8608455692
3700277800.0 -0.4836005448 0.8675699343
3750277500.0 -0.4713708939 0.8740469917
3800277200.0 -0.4587983873 0.8805176562
3850276900.0 -0.4466716355 0.8863815888
3900276600.0 -0.4356399332 0.8921243908
3950276300.0 -0.4232292912 0.8980856763
4000276000.0 -0.4113855039 0.9041963328
4050275700.0 -0.3981594179 0.9102061564
4100275400.0 -0.386847934 0.9154569432
4150275100.0 -0.3741775615 0.9210492698
4200274800.0 -0.361371383 0.9268817378
4250274500.0 -0.3491047771 0.9317306136
4300274200.0 -0.336197656 0.936889878
4350273900.0 -0.3222141977 0.9424238619
4400273600.0 -0.3072699059 0.9475695714
4450273300.0 -0.2918315715 0.9526743977
4500273000.0 -0.2782711064 0.9571046868
4550272700.0 -0.2640515658 0.9612485092
4600272400.0 -0.2484951924 0.9653293082
4650272100.0 -0.2369791697 0.9686152285
4700271800.0 -0.2234970873 0.9718727796
4750271500.0 -0.2118085195 0.9746832482
4800271200.0 -0.1993523954 0.9776029645
4850270900.0 -0.1854622886 0.9802425853
4900270600.0 -0.1714887173 0.9825175253
4950270300.0 -0.1574407504 0.9852529679
5000270000.0 -0.1432996265 0.9875293759
5050269700.0 -0.1298812426 0.9891353502
5100269400.0 -0.1161809387 0.9903333079
5150269100.0 -0.1030078956 0.9917686481
5200268800.0 -0.0896707832 0.9932851508
5250268500.0 -0.076588512 0.9941769655
5300268200.0 -0.0637926173 0.9947207197
5350267900.0 -0.0514311916 0.9957043137
5400267600.0 -0.0352132578 0.9961888377
5450267300.0 -0.0223037281 0.9968679948
5500267000.0 -0.0066887726 0.9972154024
5550266700.0 0.0080077787 0.9972417916
5600266400.0 0.0235780763 0.9972517249
5650266100.0 0.0399819776 0.9968826779
5700265800.0 0.054768088 0.995901557
5750265500.0 0.0698520924 0.9953544165
5800265200.0 0.0838799983 0.9941754701
5850264900.0 0.0971522559 0.9930710292
5900264600.0 0.1138522676 0.9917539059
5950264300.0 0.1262198506 0.9898195413
6000264000.0 0.1398571554 0.9878360714
6050263700.0 0.1524080218 0.9860593778
6100263400.0 0.1648370712 0.984517972
6150263100.0 0.1796459693 0.9821948244
6200262800.0 0.1897928236 0.9802959195
6250262500.0 0.2027895228 0.9779841312
6300262200.0 0.2154551655 0.9751849657
6350261900.0 0.2287053395 0.9721002202
6400261600.0 0.2424100242 0.9687240314
6450261300.0 0.2537352627 0.9659973896
6500261000.0 0.2667872252 0.9626298844
6550260700.0 0.2798604185 0.9587562496
6600260400.0 0.2929748766 0.9546183812
6650260100.0 0.3063935329 0.949859777
6700259800.0 0.3188865352 0.9459959404
6750259500.0 0.3326976556 0.9411061703
6800259200.0 0.3458808328 0.9359485099
6850258900.0 0.3575733184 0.9310446298
6900258600.0 0.3697669329 0.9258420413
6950258300.0 0.3822825259 0.9207890298
7000258000.0 0.3944499917 0.9152289715
7050257700.0 0.4065481173 0.9092020993
7100257400.0 0.4191890195 0.902848583
7150257100.0 0.4295365139 0.8976607756
7200256800.0 0.4423379951 0.8913236128
7250256500.0 0.454212041 0.8850091967
7300256200.0 0.4672529256 0.8784708539
7350255900.0 0.4797214025 0.8715627734
7400255600.0 0.4926271583 0.8640880911
7450255300.0 0.5076271204 0.8551326937
7500255000.0 0.5196816135 0.8476927535
7550254700.0 0.5335149513 0.83977981
7600254400.0 0.5458308729 0.8308184212
7650254100.0 0.5573740334 0.8233402767
7700253800.0 0.5695382209 0.815181776
7750253500.0 0.5809033509 0.8075108839
7800253200.0 0.5912607055 0.7995701676
7850252900.0 0.6012276952 0.7925303951
7900252600.0 0.6128849667 0.7837744348
7950252300.0 0.621743322 0.7771050509
8000252000.0 0.6319028413 0.7693811365
8050251700.0 0.6424071867 0.7610495634
8100251400.0 0.6522858527 0.752947814
8150251100.0 0.663091384 0.7441280969
8200250800.0 0.6718659222 0.7362307754
8250250500.0 0.6810652171 0.7281699612
8300250200.0 0.6903386889 0.7195943518
8350249900.0 0.699428463 0.7110354152
8400249600.0 0.7076309044 0.7030225015
8450249300.0 0.716832564 0.6936033829
8500249000.0 0.7249282148 0.6847093149
8550248700.0 0.733621484 0.6756882451
8600248400.0 0.7420044549 0.6661018378
8650248100.0 0.7496433707 0.6570180937
8700247800.0 0.7591989738 0.6456650552
8750247500.0 0.7675486922 0.635499029
8800247200.0 0.7755797142 0.6253166091
8850246900.0 0.7842919652 0.6141295192
8900246600.0 0.7930744205 0.6026504274
8950246300.0 0.8022956486 0.5896855866
9000246000.0 0.8115407621 0.5769562037
9050245700.0 0.8207186373 0.5638436527
9100245400.0 0.8293805669 0.5513784257
9150245100.0 0.8386603994 0.5375804292
9200244800.0 0.8483213953 0.5222976286
9250244500.0 0.8581139627 0.5066390762
9300244200.0 0.8664930759 0.4920269044
9350243900.0 0.8740015206 0.4781870586
9400243600.0 0.8808269656 0.4657180381
9450243300.0 0.8866990864 0.4538492557
9500243000.0 0.8930789238 0.4412546442
9550242700.0 0.8968928872 0.4335430242
9600242400.0 0.9006621804 0.4263214132
9650242100.0 0.9042126838 0.4195685449
9700241800.0 0.9090197917 0.4113625509
9750241500.0 0.9125547468 0.4041776922
9800241200.0 0.9174035588 0.3947616177
9850240900.0 0.922854512 0.3830812266
9900240600.0 0.9284835638 0.3716894578
9950240300.0 0.9351112538 0.3551839739
10000240000.0 0.9397164742 0.3437615035
10050239700.0 0.9453440383 0.3284248114
10100239400.0 0.9501307925 0.3130939992
10150239100.0 0.9545312535 0.2985730539
10200238800.0 0.9587200504 0.2836284936
10250238500.0 0.9619091359 0.2703234886
10300238200.0 0.9650012631 0.2562907121
10350237900.0 0.9676872948 0.2433799388
10400237600.0 0.9701402016 0.2302499126
10450237300.0 0.9729397079 0.2163546449
10500237000.0 0.9749286465 0.2043549704
10550236700.0 0.9775861658 0.190109162
10600236400.0 0.9794307877 0.1771646453
10650236100.0 0.9817121822 0.1621772388
10700235800.0 0.9839337287 0.150149575
10750235500.0 0.9859191636 0.1369608017
10800235200.0 0.9877194632 0.1232606116
10850234900.0 0.9895698108 0.1084042428
10900234600.0 0.9918211046 0.0938196073
10950234300.0 0.9936249888 0.0809128398
11000234000.0 0.9952308384 0.0657239756
11050233700.0 0.9969427635 0.0493486745
11100233400.0 0.9983448716 0.0319024702
11150233100.0 0.9990930772 0.015756537
11200232800.0 0.999897486 0.0001519925
11250232500.0 1.001038713 -0.016213341
11300232200.0 1.001503681 -0.034161991
11350231900.0 1.001475606 -0.050001457
11400231600.0 1.001916294 -0.0654927941
11450231300.0 1.000490702 -0.0804581035
11500231000.0 0.9995267037 -0.097480366
11550230700.0 0.9981859791 -0.1114058453
11600230400.0 0.9966972245 -0.1238589355
11650230100.0 0.9943611496 -0.1344817001
11700229800.0 0.9924797902 -0.1504432339
11750229500.0 0.9901328842 -0.1646476852
11800229200.0 0.9871932135 -0.1786024875
11850228900.0 0.9837613988 -0.1910895046
11900228600.0 0.9802659462 -0.2007777778
11950228300.0 0.9769478876 -0.2111021079
12000228000.0 0.9742912996 -0.2202784785
12050227700.0 0.9709452141 -0.2329294586
12100227400.0 0.967767047 -0.2438747694
12150227100.0 0.9627937775 -0.2597217529
12200226800.0 0.9588782147 -0.2707653131
12250226500.0 0.9545980143 -0.2840806096
12300226200.0 0.9504737829 -0.2957980226
12350225900.0 0.9456733341 -0.3103462836
12400225600.0 0.9411599251 -0.3229389829
12450225300.0 0.9372129575 -0.3359551336
12500225000.0 0.9315984067 -0.3505134862
12550224700.0 0.9264726461 -0.3636944463
12600224400.0 0.9214846546 -0.3762825173
12650224100.0 0.9158412586 -0.3907058627
12700223800.0 0.9105059909 -0.4034084117
12750223500.0 0.9051433161 -0.4160911144
12800223200.0 0.8995756093 -0.4287535057
12850222900.0 0.8942576047 -0.4410832001
12900222600.0 0.8885747275 -0.4529349235
12950222300.0 0.8820740921 -0.4660091547
13000222000.0 0.8763343369 -0.4772743944
13050221700.0 0.8696143892 -0.490307629
13100221400.0 0.8627590463 -0.5023558944
13150221100.0 0.8557881705 -0.5143098713
13200220800.0 0.8487418697 -0.5260215878
13250220500.0 0.8412204488 -0.5382791938
13300220200.0 0.8341501198 -0.5493379944
13350219900.0 0.8256301524 -0.5614261398
13400219600.0 0.8172375002 -0.5737506646
13450219300.0 0.8076403955 -0.5873654565
13500219000.0 0.7977786055 -0.6013179519
13550218700.0 0.7872195554 -0.6140403736
13600218400.0 0.7766471148 -0.6259253793
13650218100.0 0.7668969075 -0.6374809517
13700217800.0 0.7557989986 -0.6495693675
13750217500.0 0.7456492118 -0.6612308599
13800217200.0 0.7352229667 -0.6725337716
13850216900.0 0.7236582058 -0.683914068
13900216600.0 0.7136794155 -0.6930315564
13950216300.0 0.7024688557 -0.7037299347
14000216000.0 0.6930786915 -0.7129345401
14050215700.0 0.6833195935 -0.7209968902
14100215400.0 0.6736850214 -0.7300008829
14150215100.0 0.6647172384 -0.7384097627
14200214800.0 0.6552384374 -0.7467526083
14250214500.0 0.645163378 -0.7559599077
14300214200.0 0.63476937 -0.7650933149
14350213900.0 0.6237031419 -0.7745574583
14400213600.0 0.6122590017 -0.7843324776
14450213300.0 0.5993181773 -0.7942480276
14500213000.0 0.5856746339 -0.8041661521
14550212700.0 0.5732462177 -0.8138430019
14600212400.0 0.5614445634 -0.8222812068
14650212100.0 0.5479032355 -0.8309219852
14700211800.0 0.5342416205 -0.8411592884
14750211500.0 0.5217532379 -0.8490274448
14800211200.0 0.5096312741 -0.8570088446
14850210900.0 0.4976826435 -0.8644851458
14900210600.0 0.4843905262 -0.8722526142
14950210300.0 0.4707054312 -0.8799921893
15000210000.0 0.4577610835 -0.8867233282
15050209700.0 0.445490346 -0.8931840295
15100209400.0 0.4326164089 -0.8987729654
15150209100.0 0.4199382121 -0.9042271106
15200208800.0 0.4068761069 -0.9097131008
15250208500.0 0.3951529944 -0.9138909978
15300208200.0 0.3834570577 -0.9191137571
15350207900.0 0.3698052058 -0.9236705217
15400207600.0 0.3548710114 -0.9290556842
15450207300.0 0.3408323154 -0.9342486403
15500207000.0 0.3258441117 -0.9386210521
15550206700.0 0.3106869117 -0.9442052199
15600206400.0 0.2949666657 -0.9481793023
15650206100.0 0.2794162734 -0.9525440674
15700205800.0 0.2656200555 -0.9562543835
15750205500.0 0.2505954186 -0.9595802537
15800205200.0 0.2364210836 -0.9630039118
15850204900.0 0.2219744975 -0.9663222023
15900204600.0 0.2069488864 -0.9698626349
15950204300.0 0.1932815484 -0.9727396756
16000204000.0 0.1794443527 -0.9756257305
16050203700.0 0.1645122156 -0.9783629026
16100203400.0 0.150498955 -0.9805953065
16150203100.0 0.1358655281 -0.982695202
16200202800.0 0.1213725247 -0.9849623953
16250202500.0 0.1075636449 -0.9862226761
16300202200.0 0.0923205251 -0.9879952422
16350201900.0 0.0774398372 -0.9893932571
16400201600.0 0.0626483999 -0.990221493
16450201300.0 0.0473898324 -0.9912925173
16500201000.0 0.0308738171 -0.9920070926
16550200700.0 0.0151842228 -0.9924039743
16600200400.0 -0.0007520137 -0.9927070969
16650200100.0 -0.0168286987 -0.9927144801
16700199800.0 -0.0334371668 -0.9916849762
16750199500.0 -0.0523605638 -0.9910952967
16800199200.0 -0.0680485572 -0.9904550178
16850198900.0 -0.0829625407 -0.989499098
16900198600.0 -0.0973941474 -0.9888781692
16950198300.0 -0.1112972625 -0.9866686031
17000198000.0 -0.1241858965 -0.9853630295
17050197700.0 -0.1367034629 -0.9832564798
17100197400.0 -0.1492746986 -0.9809134592
17150197100.0 -0.1622495073 -0.9798072994
17200196800.0 -0.1747406608 -0.9774225469
17250196500.0 -0.1879140107 -0.9750005136
17300196200.0 -0.2001828432 -0.9727300642
17350195900.0 -0.2121042773 -0.9703547734
17400195600.0 -0.2242313053 -0.9680043029
17450195300.0 -0.2375255741 -0.9651480239
17500195000.0 -0.2507259674 -0.9615981319
17550194700.0 -0.2646913232 -0.9584245218
17600194400.0 -0.2782408094 -0.9541420898
17650194100.0 -0.2923330654 -0.950029618
17700193800.0 -0.3053525701 -0.9462216405
17750193500.0 -0.3194849903 -0.941206876
17800193200.0 -0.3334612757 -0.9362140157
17850192900.0 -0.3487062325 -0.9306795336
17900192600.0 -0.3636048122 -0.9244312372
17950192300.0 -0.3794969236 -0.9174792802
18000192000.0 -0.3939126814 -0.9101044674
18050191700.0 -0.4077130939 -0.9022869059
18100191400.0 -0.4217888766 -0.8944753389
18150191100.0 -0.4365697507 -0.8866601537
18200190800.0 -0.453749891 -0.8772709157
18250190500.0 -0.4704803279 -0.8678223983
18300190200.0 -0.4857939421 -0.8589079602
18350189900.0 -0.5008982559 -0.8507107668
18400189600.0 -0.5150086137 -0.8418059864
18450189300.0 -0.5288389345 -0.834353033
18500189000.0 -0.5419445746 -0.8261013689
18550188700.0 -0.5544754807 -0.818698947
18600188400.0 -0.5664863606 -0.8114560013
18650188100.0 -0.5775665003 -0.8050659994
18700187800.0 -0.588405285 -0.7985046841
18750187500.0 -0.598926186 -0.7916282357
18800187200.0 -0.6099734209 -0.7843730929
18850186900.0 -0.6201962964 -0.7773413633
18900186600.0 -0.6305949284 -0.7698923124
18950186300.0 -0.6406553466 -0.7620415454
19000186000.0 -0.6482543705 -0.755811668
19050185700.0 -0.6571735409 -0.7482426378
19100185400.0 -0.6676702671 -0.7398458915
19150185100.0 -0.6776481406 -0.7316176599
19200184800.0 -0.6872932225 -0.723535961
19250184500.0 -0.6976090364 -0.7141989108
19300184200.0 -0.7091560457 -0.7038407905
19350183900.0 -0.7194642626 -0.6942134071
19400183600.0 -0.729727101 -0.6848050998
19450183300.0 -0.7383813836 -0.674423959
19500183000.0 -0.7461988927 -0.6647113668
19550182700.0 -0.7560930472 -0.6536976996
19600182400.0 -0.7667718911 -0.6423533601
19650182100.0 -0.7769987654 -0.6301080414
19700181800.0 -0.7877390361 -0.6166102947
19750181500.0 -0.7979272379 -0.6025525212
19800181200.0 -0.8081198816 -0.5878131775
19850180900.0 -0.817546135 -0.5725114638
19900180600.0 -0.825442102 -0.5581322275
19950180300.0 -0.8344108439 -0.5424787062
20000180000.0 -0.8275605795 -0.5444948072
20050179700.0 -0.8352747234 -0.5315845551
20100179400.0 -0.8435617426 -0.5173388614
20150179100.0 -0.8524130977 -0.505507514
20200178800.0 -0.8608507524 -0.4929716857
20250178500.0 -0.8700815681 -0.479323425
20300178200.0 -0.8801471726 -0.4646051981
20350177900.0 -0.8880027177 -0.4496904328
20400177600.0 -0.8970878746 -0.4358565622
20450177300.0 -0.9054726219 -0.4209229135
20500177000.0 -0.913711964 -0.4067952398
20550176700.0 -0.9213474012 -0.3934846151
20600176400.0 -0.9285351493 -0.3799029506
20650176100.0 -0.9350042717 -0.3677420648
20700175800.0 -0.9416947629 -0.3555952065
20750175500.0 -0.9487710841 -0.3439038085
20800175200.0 -0.9526021137 -0.3328009807
20850174900.0 -0.9588021599 -0.3211221851
20900174600.0 -0.9629908274 -0.3108753723
20950174300.0 -0.9676607169 -0.2981802165
21000174000.0 -0.9705395183 -0.2862768715
21050173700.0 -0.9734995052 -0.2758789848
21100173400.0 -0.9780977754 -0.2631359072
21150173100.0 -0.9822930556 -0.2508008546
21200172800.0 -0.985097375 -0.2369317795
21250172500.0 -0.9881226844 -0.2235356746
21300172200.0 -0.9913847158 -0.208788303
21350171900.0 -0.9924485993 -0.1947154344
21400171600.0 -0.9939213425 -0.1799059672
21450171300.0 -0.9939402141 -0.1660908615
21500171000.0 -0.9938138995 -0.1506992096
21550170700.0 -0.9933583665 -0.1350097263
21600170400.0 -0.9942050471 -0.1198211529
21650170100.0 -0.992811343 -0.1033992936
21700169800.0 -0.990807758 -0.0887526439
21750169500.0 -0.9881633524 -0.072850041
21800169200.0 -0.988051993 -0.0563707888
21850168900.0 -0.986923367 -0.0407095096
21900168600.0 -0.9859654446 -0.0238843643
21950168300.0 -0.9838361064 -0.00796907
22000168000.0 -0.983006683 0.0066815244
22050167700.0 -0.9824219657 0.0209408232
22100167400.0 -0.982295538 0.0358351611
22150167100.0 -0.9829649658 0.0513676748
22200166800.0 -0.9831679299 0.0669872741
22250166500.0 -0.9829743373 0.0850182226
22300166200.0 -0.982394364 0.1015558553
22350165900.0 -0.9800095964 0.1175803041
22400165600.0 -0.9793828078 0.1328037335
22450165300.0 -0.9772797744 0.1487706849
22500165000.0 -0.9752112167 0.162170706
22550164700.0 -0.973317018 0.1765828727
22600164400.0 -0.9722840874 0.1928770723
22650164100.0 -0.9697154384 0.2072436632
22700163800.0 -0.966574359 0.2233921118
22750163500.0 -0.9652822863 0.2394384123
22800163200.0 -0.9622445371 0.2523816165
22850162900.0 -0.959665168 0.2656509249
22900162600.0 -0.9583409882 0.2791769192
22950162300.0 -0.9571235237 0.2918606697
23000162000.0 -0.9560281956 0.303679882
23050161700.0 -0.9541793449 0.3164684322
23100161400.0 -0.9521627054 0.3286184316
23150161100.0 -0.948939089 0.3409576575
23200160800.0 -0.9463072994 0.3537391044
23250160500.0 -0.9441464804 0.3648884508
23300160200.0 -0.9413487487 0.376469397
23350159900.0 -0.9378822284 0.3897296473
23400159600.0 -0.9319666915 0.4026980875
23450159300.0 -0.9281448095 0.4159652031
23500159000.0 -0.9229367845 0.4286055569
23550158700.0 -0.9185503984 0.4419984791
23600158400.0 -0.9134286832 0.4549169973
23650158100.0 -0.9067697832 0.468905857
23700157800.0 -0.899379092 0.4827277991
23750157500.0 -0.8907898432 0.496532992
23800157200.0 -0.8817309454 0.5097299433
23850156900.0 -0.8732974 0.5227188395
23900156600.0 -0.8640300409 0.5349176651
23950156300.0 -0.854818978 0.5470278703
24000156000.0 -0.8456240424 0.5585524946
24050155700.0 -0.8352568046 0.5714330137
24100155400.0 -0.8252247159 0.5835149563
24150155100.0 -0.8151322418 0.5950469309
24200154800.0 -0.8039623463 0.6065688377
24250154500.0 -0.792256173 0.6178008725
24300154200.0 -0.7811049605 0.6291747776
24350153900.0 -0.7690817435 0.6401358309
24400153600.0 -0.7570239859 0.6501792495
24450153300.0 -0.7448332397 0.660325841
24500153000.0 -0.7334751936 0.6699169067
24550152700.0 -0.722107943 0.6795202727
24600152400.0 -0.7105398374 0.6891184531
24650152100.0 -0.6992830016 0.6965057586
