!Created with skrf (http://scikit-rf.org).
# Hz S RI R 50.0 
!freq ReS11 ImS11
300000.0 -0.9760737442 -0.1131080764
50299700.0 -1.000028552 0.015735065
100299400.0 -0.9980084967 0.0287303584
150299100.0 -1.002792419 0.0456670253
200298800.0 -0.9997000743 0.0587699869
250298500.0 -0.9974917832 0.0723962387
300298200.0 -0.9860459264 0.0881113987
350297900.0 -0.9939430685 0.0992634714
400297600.0 -0.9931369612 0.1156632333
450297300.0 -0.9909819638 0.1293470554
500297000.0 -0.9893114709 0.1443371571
550296700.0 -0.9844153531 0.1566771656
600296400.0 -1.017344671 0.1900293489
650296100.0 -0.9822142168 0.186690051
700295800.0 -0.9793975628 0.2011518809
750295500.0 -0.9762880027 0.2149739536
800295200.0 -0.9729100932 0.229030594
850294900.0 -0.9695292777 0.2429913452
900294600.0 -0.9656854026 0.2566869446
950294300.0 -0.9619500595 0.2703292735
1000294000.0 -0.957927758 0.2843331828
1050293700.0 -0.9534420302 0.298178258
1100293400.0 -0.949246845 0.3126607114
1150293100.0 -0.9453640737 0.3244935022
1200292800.0 -0.9400339331 0.3386221906
1250292500.0 -0.9346174052 0.3521221808
1300292200.0 -0.9288659177 0.365277192
1350291900.0 -0.9231943133 0.3794785211
1400291600.0 -0.9178423441 0.3925614349
1450291300.0 -0.9123686001 0.4050153506
1500291000.0 -0.9060482023 0.4181745195
1550290700.0 -0.8994888972 0.4316342333
1600290400.0 -0.8933074922 0.4444773451
1650290100.0 -0.8865355124 0.4566610663
1700289800.0 -0.879621725 0.4701532995
1750289500.0 -0.872598325 0.4824463516
1800289200.0 -0.8651688275 0.4950751086
1850288900.0 -0.8583680482 0.5065981955
1900288600.0 -0.8505444145 0.5194848369
1950288300.0 -0.8424640375 0.532015039
2000288000.0 -0.8351683837 0.5435758882
2050287700.0 -0.8270090164 0.555896719
2100287400.0 -0.8190555615 0.5674889587
2150287100.0 -0.8102890431 0.5796035471
2200286800.0 -0.8026245253 0.5899693207
2250286500.0 -0.7937009922 0.6020590688
2300286200.0 -0.7847801824 0.6136970436
2350285900.0 -0.7760112279 0.6247898867
2400285600.0 -0.7671866204 0.6357787109
2450285300.0 -0.7584128189 0.6458762444
2500285000.0 -0.748797729 0.6573046745
2550284700.0 -0.7399516625 0.6677167746
2600284400.0 -0.7304567429 0.677753849
2650284100.0 -0.7214290156 0.6883942915
2700283800.0 -0.7105628138 0.698687364
2750283500.0 -0.7004262105 0.7093497368
2800283200.0 -0.6907328211 0.7190931608
2850282900.0 -0.680476811 0.7288751194
2900282600.0 -0.6700923828 0.7385449674
2950282300.0 -0.6600118267 0.7477584848
3000282000.0 -0.6493961628 0.7570593368
3050281700.0 -0.638070884 0.7662960984
3100281400.0 -0.6259952926 0.7758662974
3150281100.0 -0.6142153456 0.7850894563
3200280800.0 -0.602530161 0.7937118897
3250280500.0 -0.591946882 0.8016013883
3300280200.0 -0.5808383918 0.8093273782
3350279900.0 -0.568993681 0.816726415
3400279600.0 -0.557141352 0.8244790901
3450279300.0 -0.5459025664 0.8315955832
3500279000.0 -0.533918293 0.8387077716
3550278700.0 -0.5214682034 0.8460390154
3600278400.0 -0.5090300282 0.8530919922
3650278100.0 -0.4958982673 0.8607844916
3700277800.0 -0.4838767161 0.8671253835
3750277500.0 -0.4714125641 0.8736002216
3800277200.0 -0.4590737319 0.8804743288
3850276900.0 -0.4469103202 0.8862175534
3900276600.0 -0.4361946517 0.891853207
3950276300.0 -0.4236309146 0.8977431738
4000276000.0 -0.4117821705 0.9036659139
4050275700.0 -0.3986933731 0.9098848891
4100275400.0 -0.3875771698 0.9152468457
4150275100.0 -0.3749154527 0.9209536873
4200274800.0 -0.3621996658 0.9264499173
4250274500.0 -0.3496911109 0.9316385588
4300274200.0 -0.3366963914 0.9367032353
4350273900.0 -0.3228997089 0.94224821
4400273600.0 -0.3079137175 0.9473133995
4450273300.0 -0.2927526966 0.9525757392
4500273000.0 -0.2790584516 0.9570551131
4550272700.0 -0.2648710527 0.9611526499
4600272400.0 -0.2492587906 0.9654273856
4650272100.0 -0.237536448 0.968514266
4700271800.0 -0.2241315974 0.9719021642
4750271500.0 -0.212596473 0.9746211704
4800271200.0 -0.2001842553 0.9773397728
4850270900.0 -0.1861238377 0.9802241427
4900270600.0 -0.1722225704 0.9826580812
4950270300.0 -0.157999386 0.9849797341
5000270000.0 -0.1437748981 0.9872493179
5050269700.0 -0.1304537643 0.9886184731
5100269400.0 -0.1167462712 0.9909438475
5150269100.0 -0.1034632285 0.9923869307
5200268800.0 -0.0902820186 0.9927453686
5250268500.0 -0.0770765278 0.993603834
5300268200.0 -0.0641822079 0.9948859915
5350267900.0 -0.0518314574 0.9953354792
5400267600.0 -0.0356509668 0.9961970473
5450267300.0 -0.0223104436 0.9968429272
5500267000.0 -0.0072167915 0.997133318
5550266700.0 0.0074429435 0.9973730275
5600266400.0 0.0232368258 0.9972070983
5650266100.0 0.0400654538 0.9968401901
5700265800.0 0.0543401447 0.9963543641
5750265500.0 0.0696864983 0.9952875661
5800265200.0 0.0833487765 0.9939705788
5850264900.0 0.0968073002 0.9932810734
5900264600.0 0.113193543 0.9912859088
5950264300.0 0.1255251078 0.9901879324
6000264000.0 0.1396740642 0.9883717849
6050263700.0 0.1520388874 0.9868411505
6100263400.0 0.1643113238 0.985061935
6150263100.0 0.1788785432 0.9824446955
6200262800.0 0.189183689 0.9807652649
6250262500.0 0.201965851 0.9781000508
6300262200.0 0.2149021966 0.9753180539
6350261900.0 0.2279556742 0.9725488623
6400261600.0 0.2415060686 0.9690397795
6450261300.0 0.2529861502 0.9663584918
6500261000.0 0.2657700227 0.9630756186
6550260700.0 0.2785895248 0.9588823063
6600260400.0 0.2922957383 0.9547775095
6650260100.0 0.3060579397 0.9503806616
6700259800.0 0.3179688421 0.9465517106
6750259500.0 0.331901016 0.9410908226
6800259200.0 0.3450670596 0.9364719643
6850258900.0 0.357222768 0.9312168651
6900258600.0 0.3690400965 0.9260387108
6950258300.0 0.3818237028 0.9208770048
7000258000.0 0.3937650582 0.9154151669
7050257700.0 0.4061320234 0.9092446607
7100257400.0 0.4186618881 0.9030844194
7150257100.0 0.4291117756 0.8978621147
7200256800.0 0.4418634641 0.8913673475
7250256500.0 0.4537731627 0.8850745252
7300256200.0 0.4667889688 0.8782128351
7350255900.0 0.4788029131 0.871304063
7400255600.0 0.4922871385 0.8642709106
7450255300.0 0.5074809007 0.8551902361
7500255000.0 0.5195837921 0.8479899791
7550254700.0 0.5333916106 0.8398580021
7600254400.0 0.5460611889 0.8313307901
7650254100.0 0.5576682427 0.8235116296
7700253800.0 0.5692374767 0.8153370496
7750253500.0 0.5806207869 0.8078163442
7800253200.0 0.5908470297 0.7999283099
7850252900.0 0.6008595724 0.7928629086
7900252600.0 0.6123837662 0.784177222
7950252300.0 0.6213336897 0.7776603825
8000252000.0 0.6315997819 0.7697781504
8050251700.0 0.6419909086 0.7615959966
8100251400.0 0.6519724188 0.7534034158
8150251100.0 0.6625655859 0.7448630591
8200250800.0 0.6716590153 0.7368136597
8250250500.0 0.6801589 0.728839342
8300250200.0 0.6898500229 0.7201202111
8350249900.0 0.6985428112 0.7114980676
8400249600.0 0.7068186535 0.7035820858
8450249300.0 0.7162107191 0.6942028629
8500249000.0 0.7246536374 0.6853869929
8550248700.0 0.7330630654 0.6764225121
8600248400.0 0.7416270615 0.6669551533
8650248100.0 0.7491700258 0.6575374306
8700247800.0 0.7588338078 0.6463203676
8750247500.0 0.7671167478 0.6361805511
8800247200.0 0.7750985717 0.6256811204
8850246900.0 0.7839132983 0.6143528685
8900246600.0 0.7924244908 0.6031005209
8950246300.0 0.8019623037 0.5897740929
9000246000.0 0.8110925517 0.5771768726
9050245700.0 0.8202498725 0.5641640782
9100245400.0 0.8290777226 0.551616825
9150245100.0 0.8381299571 0.5379886537
9200244800.0 0.8483824144 0.5224787516
9250244500.0 0.8579262501 0.5068214924
9300244200.0 0.8661333306 0.4922818143
9350243900.0 0.8739935546 0.4783765206
9400243600.0 0.8805313301 0.4659180702
9450243300.0 0.8863539139 0.4544064318
9500243000.0 0.8926025546 0.4421539242
9550242700.0 0.8964262175 0.4345280986
9600242400.0 0.9001213396 0.4271929619
9650242100.0 0.9038202742 0.4207276039
9700241800.0 0.9083331774 0.4125635609
9750241500.0 0.9121029747 0.4052321476
9800241200.0 0.9169281342 0.3959581816
9850240900.0 0.9224725889 0.3841718623
9900240600.0 0.9280901742 0.3729653647
9950240300.0 0.9345983579 0.3566688176
10000240000.0 0.9393594839 0.3450135791
10050239700.0 0.9451902906 0.3295349429
10100239400.0 0.9500459942 0.3142084496
10150239100.0 0.9545236261 0.2995254709
10200238800.0 0.958395736 0.2844544555
10250238500.0 0.9617255414 0.2713199041
10300238200.0 0.9649179108 0.2571613533
10350237900.0 0.9676648452 0.2440826299
10400237600.0 0.9700229744 0.2309072449
10450237300.0 0.972806047 0.2170967456
10500237000.0 0.9744094885 0.2051251165
10550236700.0 0.9770251015 0.1911463755
10600236400.0 0.9792251141 0.1774632066
10650236100.0 0.980935423 0.1634466681
10700235800.0 0.9832285308 0.1511844695
10750235500.0 0.986081721 0.1375940342
10800235200.0 0.9881365101 0.1235070412
10850234900.0 0.9897233655 0.1090801107
10900234600.0 0.9919731526 0.094257766
10950234300.0 0.9934073234 0.0812377462
11000234000.0 0.9952421658 0.0660594712
11050233700.0 0.997009847 0.049531029
11100233400.0 0.9985693173 0.0321031619
11150233100.0 0.9994480853 0.0158683847
11200232800.0 0.9998969444 0.0005999406
11250232500.0 1.001028056 -0.015280434
11300232200.0 1.001661235 -0.0338840841
11350231900.0 1.001953842 -0.0495544289
11400231600.0 1.001167065 -0.0653153635
11450231300.0 1.000627117 -0.0800976748
11500231000.0 0.9998110316 -0.0973827804
11550230700.0 0.9980468598 -0.1101926606
11600230400.0 0.9964825415 -0.123858048
11650230100.0 0.9949428793 -0.1348897989
11700229800.0 0.9930151457 -0.1496684497
11750229500.0 0.9903665838 -0.1640601714
11800229200.0 0.9877668712 -0.1779944827
11850228900.0 0.9842544421 -0.1900722554
11900228600.0 0.9804041342 -0.2001759293
11950228300.0 0.9771324568 -0.2103279323
12000228000.0 0.9746611911 -0.2194647742
12050227700.0 0.9710599895 -0.2321820334
12100227400.0 0.9679848478 -0.2425900287
12150227100.0 0.9627805312 -0.2595268099
12200226800.0 0.9590751036 -0.2707450067
12250226500.0 0.9549295772 -0.282690955
12300226200.0 0.9512848987 -0.2952303398
12350225900.0 0.9462297962 -0.3084365543
12400225600.0 0.9419875453 -0.3218057096
12450225300.0 0.9374469758 -0.3345376481
12500225000.0 0.9317497691 -0.3496931714
12550224700.0 0.9267569025 -0.3631038471
12600224400.0 0.9217948307 -0.3756442039
12650224100.0 0.9159478555 -0.3902110798
12700223800.0 0.9106256857 -0.4029698224
12750223500.0 0.9050489492 -0.4160947612
12800223200.0 0.8998929275 -0.428669662
12850222900.0 0.8943206669 -0.4408979833
12900222600.0 0.888611187 -0.4527798926
12950222300.0 0.8822365401 -0.4661546365
13000222000.0 0.8761847957 -0.4768326329
13050221700.0 0.8701971199 -0.4896047797
13100221400.0 0.8630136404 -0.5011441581
13150221100.0 0.8567537693 -0.514106768
13200220800.0 0.8491331733 -0.525287743
13250220500.0 0.8415217225 -0.5377434149
13300220200.0 0.8341926481 -0.548895579
13350219900.0 0.826247877 -0.5606458397
13400219600.0 0.8178330986 -0.5729231168
13450219300.0 0.8084751609 -0.5863439413
13500219000.0 0.7977636588 -0.6006977951
13550218700.0 0.7876071344 -0.6135604937
13600218400.0 0.7780733699 -0.625598232
13650218100.0 0.7676311729 -0.6368944341
13700217800.0 0.757061438 -0.6497292197
13750217500.0 0.7465077126 -0.6599517549
13800217200.0 0.7357112836 -0.6719318255
13850216900.0 0.7247704677 -0.6828276664
13900216600.0 0.7146274913 -0.6922996627
13950216300.0 0.7037863699 -0.7021180041
14000216000.0 0.6943758599 -0.711924114
14050215700.0 0.6842794365 -0.720516511
14100215400.0 0.6744460937 -0.7292673356
14150215100.0 0.6654414876 -0.7375074047
14200214800.0 0.655972174 -0.7462913664
14250214500.0 0.6457532882 -0.7555003002
14300214200.0 0.6355462121 -0.7646176761
14350213900.0 0.6243944619 -0.7742928676
14400213600.0 0.6124554761 -0.7839703433
14450213300.0 0.5995536889 -0.7942126899
14500213000.0 0.586477036 -0.8045976515
14550212700.0 0.5738879819 -0.8128941475
14600212400.0 0.5612950953 -0.82216797
14650212100.0 0.5484570712 -0.831245084
14700211800.0 0.5342635734 -0.8403288781
14750211500.0 0.5225812701 -0.8486692606
14800211200.0 0.5103761235 -0.8565511939
14850210900.0 0.4981486031 -0.8641736679
14900210600.0 0.4847573046 -0.8720640076
14950210300.0 0.4712750887 -0.8795617273
15000210000.0 0.4581304406 -0.8864551695
15050209700.0 0.4461592974 -0.8923319592
15100209400.0 0.432982283 -0.898591111
15150209100.0 0.4204714214 -0.9036707145
15200208800.0 0.4075980845 -0.9094134016
15250208500.0 0.396330431 -0.9137338352
15300208200.0 0.3835052172 -0.9190338491
15350207900.0 0.371778472 -0.9231102676
15400207600.0 0.3564427886 -0.9288509183
15450207300.0 0.3421007964 -0.9349973635
15500207000.0 0.3271010125 -0.9386372588
15550206700.0 0.3120033494 -0.9427646553
15600206400.0 0.2960629632 -0.9475944544
15650206100.0 0.2802780802 -0.9519760813
15700205800.0 0.2663226048 -0.9556478368
15750205500.0 0.2521536065 -0.9590079455
15800205200.0 0.2376849038 -0.9626258822
15850204900.0 0.2231936016 -0.9660715028
15900204600.0 0.2081124162 -0.9695103367
15950204300.0 0.1940780782 -0.9726782633
16000204000.0 0.1800432926 -0.9751593495
16050203700.0 0.1650124863 -0.9780669311
16100203400.0 0.1512766185 -0.9800840701
16150203100.0 0.1361887829 -0.9828023431
16200202800.0 0.1226073815 -0.985005771
16250202500.0 0.1076596134 -0.9864158917
16300202200.0 0.0925607906 -0.9876643924
16350201900.0 0.0776055677 -0.9892310878
16400201600.0 0.0630185226 -0.9900519342
16450201300.0 0.0476038867 -0.9912737161
16500201000.0 0.0311815622 -0.9919694487
16550200700.0 0.0154929879 -0.9925936506
16600200400.0 -0.0002683374 -0.9926341099
16650200100.0 -0.0166362992 -0.9924400352
16700199800.0 -0.0332019381 -0.9917627708
16750199500.0 -0.0514822119 -0.9919714885
16800199200.0 -0.0677918043 -0.9903992176
16850198900.0 -0.0825673567 -0.9890940324
16900198600.0 -0.096538195 -0.988339471
16950198300.0 -0.1102895141 -0.9873064792
17000198000.0 -0.123039855 -0.9850070641
17050197700.0 -0.1360562891 -0.9835622136
17100197400.0 -0.1483955732 -0.9818201123
17150197100.0 -0.1605392752 -0.9795184974
17200196800.0 -0.1738837455 -0.9776288615
17250196500.0 -0.186898756 -0.9754075854
17300196200.0 -0.1988482137 -0.9729043847
17350195900.0 -0.2105931839 -0.9708109697
17400195600.0 -0.2229709023 -0.9682734169
17450195300.0 -0.2358801085 -0.9653973933
17500195000.0 -0.2493317508 -0.9620779604
17550194700.0 -0.2635158932 -0.958714681
17600194400.0 -0.2773535904 -0.9541848224
17650194100.0 -0.2908979217 -0.9499419341
17700193800.0 -0.3035977483 -0.9462352488
17750193500.0 -0.3186617108 -0.9413139154
17800193200.0 -0.3326678715 -0.9367506275
17850192900.0 -0.3475268488 -0.9312114352
17900192600.0 -0.362698495 -0.9248787953
17950192300.0 -0.378117079 -0.9177262346
18000192000.0 -0.3930832275 -0.9103768817
18050191700.0 -0.4068405277 -0.9023878329
18100191400.0 -0.4211110759 -0.8948393653
18150191100.0 -0.4361294407 -0.886749222
18200190800.0 -0.4530151108 -0.8775315072
18250190500.0 -0.469772978 -0.8680147745
18300190200.0 -0.4852344963 -0.859150672
18350189900.0 -0.5003907745 -0.8510687319
18400189600.0 -0.514646823 -0.8425098974
18450189300.0 -0.5281686431 -0.8342247094
18500189000.0 -0.5414324711 -0.8266272444
18550188700.0 -0.5538809158 -0.8187047719
18600188400.0 -0.5658227122 -0.8121047602
18650188100.0 -0.5770289684 -0.8057722466
18700187800.0 -0.5875751426 -0.7991616092
18750187500.0 -0.5981744308 -0.7925930193
18800187200.0 -0.608856316 -0.7855209585
18850186900.0 -0.6190109925 -0.7785532893
18900186600.0 -0.6293427433 -0.7712287046
18950186300.0 -0.6392892056 -0.763602438
19000186000.0 -0.6466741157 -0.7572294403
19050185700.0 -0.6559588112 -0.7499283379
19100185400.0 -0.6655200809 -0.7419531643
19150185100.0 -0.6764554026 -0.7331073335
19200184800.0 -0.6857628434 -0.7252407583
19250184500.0 -0.6956851369 -0.715903484
19300184200.0 -0.7071672584 -0.7065015782
19350183900.0 -0.7177497758 -0.6969136401
19400183600.0 -0.7276157765 -0.6863465991
19450183300.0 -0.7362815353 -0.6766664277
19500183000.0 -0.7448663374 -0.6662826969
19550182700.0 -0.7544709531 -0.6556334051
19600182400.0 -0.7646297349 -0.6436551289
19650182100.0 -0.7754724724 -0.6314428706
19700181800.0 -0.7863765966 -0.6182374224
19750181500.0 -0.7967710766 -0.6040754144
19800181200.0 -0.8072287057 -0.5891227927
19850180900.0 -0.8166545011 -0.5735713114
19900180600.0 -0.8245074976 -0.5592252154
19950180300.0 -0.8337437388 -0.5427935493
20000180000.0 -0.8269097242 -0.5455985963
20050179700.0 -0.8353781725 -0.5315969392
20100179400.0 -0.8436584176 -0.5186300886
20150179100.0 -0.851867396 -0.5057871814
20200178800.0 -0.8599009803 -0.4937113085
20250178500.0 -0.8702359745 -0.479167853
20300178200.0 -0.8792779395 -0.4654067394
20350177900.0 -0.8885250062 -0.4510997374
20400177600.0 -0.896893204 -0.4360616647
20450177300.0 -0.9054229574 -0.4216830806
20500177000.0 -0.9134752151 -0.4076811903
20550176700.0 -0.9215892936 -0.3939361539
20600176400.0 -0.9282047443 -0.3812622745
20650176100.0 -0.9350130534 -0.3690025114
20700175800.0 -0.9420494796 -0.3565712193
20750175500.0 -0.9483116886 -0.3446157469
20800175200.0 -0.952780822 -0.3341557809
20850174900.0 -0.9582311425 -0.3233873166
20900174600.0 -0.962506101 -0.3121994859
20950174300.0 -0.9671757416 -0.2996284183
21000174000.0 -0.9692595476 -0.2887725525
21050173700.0 -0.9722222524 -0.2783105279
21100173400.0 -0.9776101709 -0.26538374
21150173100.0 -0.9807745715 -0.2527985372
21200172800.0 -0.9848625876 -0.239062542
21250172500.0 -0.987435826 -0.2257973266
21300172200.0 -0.9908199381 -0.2114120768
21350171900.0 -0.991932159 -0.1973209205
21400171600.0 -0.9936229909 -0.1827205133
21450171300.0 -0.9932170673 -0.1686568344
21500171000.0 -0.9929582338 -0.1529190002
21550170700.0 -0.9929474709 -0.1374113205
21600170400.0 -0.9923780762 -0.122308852
21650170100.0 -0.9922204493 -0.1071691805
21700169800.0 -0.9910797447 -0.0902254208
21750169500.0 -0.9897864009 -0.0750228854
21800169200.0 -0.988108168 -0.0585588765
21850168900.0 -0.986933962 -0.0418251919
21900168600.0 -0.9854665351 -0.0250107584
21950168300.0 -0.983570391 -0.0095569821
22000168000.0 -0.9827312644 0.0050591578
22050167700.0 -0.9828672479 0.0190667653
22100167400.0 -0.9825279956 0.0345301688
22150167100.0 -0.9831906296 0.0501495312
22200166800.0 -0.9839732535 0.0659089843
22250166500.0 -0.9829338529 0.0834131525
22300166200.0 -0.9821012528 0.0996573594
22350165900.0 -0.9805017685 0.1164749827
22400165600.0 -0.9796765074 0.1326046659
22450165300.0 -0.9775173665 0.1471257325
22500165000.0 -0.9758874768 0.1600007761
22550164700.0 -0.974735117 0.175573587
22600164400.0 -0.9724744925 0.1905237505
22650164100.0 -0.9703118227 0.2061393675
22700163800.0 -0.9683857603 0.2223272395
22750163500.0 -0.9656032713 0.2374665617
22800163200.0 -0.9625354976 0.2504872361
22850162900.0 -0.9602186454 0.2644783167
22900162600.0 -0.9587362209 0.2777395008
22950162300.0 -0.957810578 0.2905764615
23000162000.0 -0.9567882916 0.302373797
23050161700.0 -0.9546957599 0.3148324423
23100161400.0 -0.9526419502 0.3277307212
23150161100.0 -0.9496834212 0.3396788811
23200160800.0 -0.946512651 0.3524103338
23250160500.0 -0.944081855 0.3635065729
23300160200.0 -0.942244811 0.3758107124
23350159900.0 -0.9376677768 0.3886589056
23400159600.0 -0.9332741046 0.4019866093
23450159300.0 -0.9285796404 0.4154028718
23500159000.0 -0.924051677 0.4282257789
23550158700.0 -0.919460972 0.4414568214
23600158400.0 -0.9138559042 0.454524622
23650158100.0 -0.9078769684 0.4685023812
23700157800.0 -0.9003822444 0.4821470876
23750157500.0 -0.8914352485 0.4966829545
23800157200.0 -0.8824014327 0.5099299361
23850156900.0 -0.8739372642 0.5231448072
23900156600.0 -0.8648828296 0.5346043233
23950156300.0 -0.8556439815 0.5476070869
24000156000.0 -0.8458769397 0.5593322591
24050155700.0 -0.8360451085 0.5707069123
24100155400.0 -0.8263718519 0.5827596272
24150155100.0 -0.815765597 0.5947982232
24200154800.0 -0.804141146 0.6051937663
24250154500.0 -0.7933273181 0.6176712966
24300154200.0 -0.7816473855 0.6293477469
24350153900.0 -0.7694214008 0.6399136714
24400153600.0 -0.7573886149 0.6501155813
24450153300.0 -0.7457276666 0.6599553243
24500153000.0 -0.7336679682 0.6695059239
24550152700.0 -0.7230025027 0.6794655799
24600152400.0 -0.7116282063 0.6882255106
24650152100.0 -0.6992086169 0.6969065495
