!Created with skrf (http://scikit-rf.org).
# Hz S RI R 50.0 
!freq ReS11 ImS11
300000.0 -0.9734884242 -0.1184899466
50299700.0 -0.9998687909 0.0150922159
100299400.0 -0.9979595444 0.0280069422
150299100.0 -1.002632064 0.0447220715
200298800.0 -0.9996227764 0.0582492987
250298500.0 -0.9974675794 0.0717663043
300298200.0 -0.9857792789 0.0874018245
350297900.0 -0.9938689943 0.0983624852
400297600.0 -0.9929822848 0.1148910603
450297300.0 -0.9908528197 0.1288104285
500297000.0 -0.9894258959 0.1437448634
550296700.0 -0.9842165442 0.1558443679
600296400.0 -1.017020746 0.1891235664
650296100.0 -0.9821922044 0.18585061
700295800.0 -0.9793193158 0.2001476388
750295500.0 -0.9763531931 0.21418054
800295200.0 -0.9727764877 0.2283397104
850294900.0 -0.9696216663 0.2420671023
900294600.0 -0.9658191433 0.2556890948
950294300.0 -0.9622591664 0.2693596728
1000294000.0 -0.958126979 0.2834542182
1050293700.0 -0.9535568513 0.2972024689
1100293400.0 -0.9493045823 0.3116125372
1150293100.0 -0.9455816254 0.3235983382
1200292800.0 -0.9403633415 0.3377160361
1250292500.0 -0.9345558205 0.3513318482
1300292200.0 -0.9289042025 0.3644936449
1350291900.0 -0.9235313109 0.3786598451
1400291600.0 -0.9178955205 0.3917158461
1450291300.0 -0.9124852126 0.4040574003
1500291000.0 -0.9063204803 0.4174518459
1550290700.0 -0.8996527449 0.4308748507
1600290400.0 -0.8933511283 0.4437216574
1650290100.0 -0.8869238965 0.4558441571
1700289800.0 -0.8799590585 0.4693063353
1750289500.0 -0.872854159 0.4816325711
1800289200.0 -0.8655195025 0.4946185685
1850288900.0 -0.8587745881 0.5059238048
1900288600.0 -0.8510232875 0.5188993649
1950288300.0 -0.8428029385 0.5311476181
2000288000.0 -0.8352298461 0.5426484451
2050287700.0 -0.8270273058 0.5552866524
2100287400.0 -0.8192894207 0.566600511
2150287100.0 -0.810602195 0.5787373217
2200286800.0 -0.8029321163 0.5892835
2250286500.0 -0.7938865694 0.6013881465
2300286200.0 -0.7851945151 0.612900825
2350285900.0 -0.776622159 0.6234794549
2400285600.0 -0.7678414834 0.6345030613
2450285300.0 -0.7591984291 0.6452671836
2500285000.0 -0.7491806165 0.6565520507
2550284700.0 -0.7405422625 0.6669691949
2600284400.0 -0.7312357174 0.676983581
2650284100.0 -0.722213948 0.6873827308
2700283800.0 -0.7118723273 0.6977694955
2750283500.0 -0.7013225719 0.7082471507
2800283200.0 -0.6914604367 0.7182855404
2850282900.0 -0.6812971982 0.7281696806
2900282600.0 -0.6708721889 0.7380935577
2950282300.0 -0.6603778867 0.7471906241
3000282000.0 -0.6496010558 0.756623889
3050281700.0 -0.6383866753 0.7659788071
3100281400.0 -0.6268569669 0.7749885669
3150281100.0 -0.6153794702 0.7841907716
3200280800.0 -0.60392768 0.7924523675
3250280500.0 -0.593002148 0.8004212308
3300280200.0 -0.5813093546 0.8084073757
3350279900.0 -0.5693625788 0.816299748
3400279600.0 -0.5569163999 0.8244569636
3450279300.0 -0.5457616016 0.8314502722
3500279000.0 -0.5341591048 0.8385525483
3550278700.0 -0.5218007242 0.8456340482
3600278400.0 -0.5097596919 0.8525051732
3650278100.0 -0.496817977 0.8601326004
3700277800.0 -0.4845763433 0.8666984239
3750277500.0 -0.4722867903 0.8730633314
3800277200.0 -0.4597204149 0.8795527808
3850276900.0 -0.4477996724 0.8856401121
3900276600.0 -0.4367673765 0.8913439999
3950276300.0 -0.4248701912 0.8972388139
4000276000.0 -0.4130812151 0.9031597526
4050275700.0 -0.400260326 0.9091861887
4100275400.0 -0.3891865565 0.9147084965
4150275100.0 -0.3759156739 0.9207161929
4200274800.0 -0.3627922196 0.9262876794
4250274500.0 -0.3503974945 0.931343765
4300274200.0 -0.3370258748 0.9367717067
4350273900.0 -0.3229643343 0.9419088914
4400273600.0 -0.3080678883 0.9473600036
4450273300.0 -0.2932378616 0.9523209498
4500273000.0 -0.2799151735 0.9564780244
4550272700.0 -0.2660586674 0.9606543984
4600272400.0 -0.2509468587 0.9648957043
4650272100.0 -0.2394214245 0.9679136645
4700271800.0 -0.2264184131 0.9712077221
4750271500.0 -0.2147119534 0.9740679389
4800271200.0 -0.2023432205 0.9768624906
4850270900.0 -0.1886595466 0.9796848196
4900270600.0 -0.1747962368 0.9820757939
4950270300.0 -0.1603087979 0.9846769126
5000270000.0 -0.1459312656 0.986591068
5050269700.0 -0.1324436304 0.9885813342
5100269400.0 -0.1184380878 0.9901625447
5150269100.0 -0.1045478314 0.99178508
5200268800.0 -0.091223304 0.9927015197
5250268500.0 -0.0780005414 0.993992432
5300268200.0 -0.0644891436 0.9947895012
5350267900.0 -0.0519664247 0.9954171783
5400267600.0 -0.0358456899 0.996277889
5450267300.0 -0.0223642622 0.9966450891
5500267000.0 -0.0072023136 0.9971215621
5550266700.0 0.0077439663 0.9973675017
5600266400.0 0.0233285172 0.9971006689
5650266100.0 0.040138213 0.9969397574
5700265800.0 0.0542338657 0.9958091735
5750265500.0 0.0692165805 0.9950778098
5800265200.0 0.0828302798 0.9942315441
5850264900.0 0.0962167911 0.993499646
5900264600.0 0.1125922813 0.9914035587
5950264300.0 0.1245147271 0.9897304856
6000264000.0 0.1381781767 0.98799365
6050263700.0 0.149954728 0.9867897579
6100263400.0 0.1622962735 0.9850618223
6150263100.0 0.1767385226 0.9824463399
6200262800.0 0.1865987202 0.9811153591
6250262500.0 0.1993576729 0.9785836156
6300262200.0 0.2116757617 0.9760250364
6350261900.0 0.2245976689 0.9732021793
6400261600.0 0.2383620989 0.9697646885
6450261300.0 0.2494414523 0.9674420203
6500261000.0 0.2627811366 0.9637640218
6550260700.0 0.2756652658 0.9597874748
6600260400.0 0.2895259847 0.9558714721
6650260100.0 0.3034547528 0.9514665852
6700259800.0 0.315717125 0.9474561156
6750259500.0 0.3290682351 0.9424440934
6800259200.0 0.3426875761 0.9371709602
6850258900.0 0.3548723493 0.9317347135
6900258600.0 0.3674611867 0.9267999983
6950258300.0 0.3798086896 0.9212380087
7000258000.0 0.3915867606 0.9160444471
7050257700.0 0.403575703 0.9103421223
7100257400.0 0.4169329898 0.9038466315
7150257100.0 0.4273376721 0.898340343
7200256800.0 0.4402819098 0.8919402572
7250256500.0 0.4528693892 0.8854262388
7300256200.0 0.4660983905 0.8786915584
7350255900.0 0.4785957713 0.8717684478
7400255600.0 0.4925528776 0.8643617592
7450255300.0 0.5081013616 0.8552062562
7500255000.0 0.5201265092 0.8478246126
7550254700.0 0.5339219782 0.8389311785
7600254400.0 0.5471730461 0.8305905651
7650254100.0 0.5584748672 0.8225754486
7700253800.0 0.5705164758 0.8146343091
7750253500.0 0.5810118887 0.8070028605
7800253200.0 0.5918831831 0.7992378692
7850252900.0 0.6016238572 0.7919944989
7900252600.0 0.6131132809 0.783307788
7950252300.0 0.621705734 0.7767933311
8000252000.0 0.6317130133 0.7692754876
8050251700.0 0.641948927 0.7610089118
8100251400.0 0.6519772256 0.7531400811
8150251100.0 0.6619771408 0.7445765036
8200250800.0 0.6717477443 0.7363315544
8250250500.0 0.680316964 0.7285043193
8300250200.0 0.6891999025 0.7202746062
8350249900.0 0.6982255422 0.7113016718
8400249600.0 0.7067559667 0.7032480023
8450249300.0 0.7157560751 0.6945288046
8500249000.0 0.7241396215 0.6854762601
8550248700.0 0.732565116 0.6766137588
8600248400.0 0.7410316577 0.667033209
8650248100.0 0.7485100472 0.6576023261
8700247800.0 0.7580442763 0.6465645236
8750247500.0 0.7662968492 0.6364797222
8800247200.0 0.7742079535 0.6262842153
8850246900.0 0.783061787 0.614671994
8900246600.0 0.7916157114 0.6033327245
8950246300.0 0.8007031332 0.5905766387
9000246000.0 0.8094436574 0.5784760263
9050245700.0 0.8181051611 0.5658567529
9100245400.0 0.8262278239 0.5535937491
9150245100.0 0.8354381929 0.5405806213
9200244800.0 0.8453615581 0.5260684673
9250244500.0 0.8542571529 0.5112208323
9300244200.0 0.8625140663 0.4974559165
9350243900.0 0.8701170408 0.4839831673
9400243600.0 0.8766138347 0.4720325706
9450243300.0 0.8822542368 0.4613750228
9500243000.0 0.888554866 0.4495062908
9550242700.0 0.8927075421 0.441854314
9600242400.0 0.8967608505 0.4343060522
9650242100.0 0.900618443 0.4277214934
9700241800.0 0.9057200763 0.4189573533
9750241500.0 0.9095141866 0.4114141164
9800241200.0 0.9146053765 0.4019007756
9850240900.0 0.9207894137 0.3900869256
9900240600.0 0.9265541428 0.3782735493
9950240300.0 0.9331378443 0.3617498727
10000240000.0 0.9379593681 0.3499249481
10050239700.0 0.9440483224 0.3340207173
10100239400.0 0.9491815378 0.3180285482
10150239100.0 0.9538752636 0.3026014915
10200238800.0 0.9582278875 0.2871975298
10250238500.0 0.9615158719 0.2738868845
10300238200.0 0.9648148553 0.2599700149
10350237900.0 0.9674584808 0.2464071266
10400237600.0 0.9698819897 0.2330810027
10450237300.0 0.9727241905 0.219588161
10500237000.0 0.9748695835 0.2073319321
10550236700.0 0.9774607304 0.1926926676
10600236400.0 0.979271085 0.1794018958
10650236100.0 0.9811588644 0.1642953595
10700235800.0 0.983342288 0.1521613975
10750235500.0 0.9860893954 0.1383963177
10800235200.0 0.9882459892 0.1242933939
10850234900.0 0.9899694865 0.1098552494
10900234600.0 0.9920559002 0.0948128277
10950234300.0 0.9938144546 0.0814080256
11000234000.0 0.9955046646 0.0659718284
11050233700.0 0.9973222936 0.0494033337
11100233400.0 0.9985684593 0.0320295199
11150233100.0 0.999669618 0.0151914578
11200232800.0 1.000532359 -0.0006801042
11250232500.0 1.001314824 -0.017154442
11300232200.0 1.002095339 -0.0359769968
11350231900.0 1.001966794 -0.0531748829
11400231600.0 1.001892529 -0.068619172
11450231300.0 1.000743678 -0.0839128835
11500231000.0 0.9993838932 -0.0999659448
11550230700.0 0.9983720778 -0.113522884
11600230400.0 0.9968029368 -0.1264053756
11650230100.0 0.9947988564 -0.1374815959
11700229800.0 0.9927915301 -0.1527296362
11750229500.0 0.9901034041 -0.1667552091
11800229200.0 0.9874747247 -0.180132362
11850228900.0 0.983716052 -0.192062354
11900228600.0 0.980153514 -0.2016693428
11950228300.0 0.9767327761 -0.2121283056
12000228000.0 0.9741254209 -0.2208086527
12050227700.0 0.9700099598 -0.2341646718
12100227400.0 0.9672900382 -0.2444003693
12150227100.0 0.9622194426 -0.2610634048
12200226800.0 0.9584120672 -0.2716119003
12250226500.0 0.9544164518 -0.2849972217
12300226200.0 0.950125841 -0.2975460637
12350225900.0 0.9448864778 -0.3108845387
12400225600.0 0.94075445 -0.3235066626
12450225300.0 0.9367017296 -0.3355876217
12500225000.0 0.9310414077 -0.3504319129
12550224700.0 0.9253421699 -0.3648477619
12600224400.0 0.92056284 -0.3772987389
12650224100.0 0.9146840981 -0.3917739058
12700223800.0 0.9095368146 -0.4044876047
12750223500.0 0.9038971809 -0.4175119846
12800223200.0 0.8985419188 -0.4300783512
12850222900.0 0.8935459605 -0.4421629738
12900222600.0 0.8876065599 -0.454165579
12950222300.0 0.8815168891 -0.466917428
13000222000.0 0.8756009216 -0.4781708073
13050221700.0 0.8691030335 -0.491249056
13100221400.0 0.861838796 -0.5035694445
13150221100.0 0.8550589506 -0.5156985194
13200220800.0 0.8480555897 -0.527568036
13250220500.0 0.8407319206 -0.5394535093
13300220200.0 0.833478088 -0.5502889243
13350219900.0 0.8254015444 -0.5621568583
13400219600.0 0.8168710352 -0.5741332448
13450219300.0 0.8074910168 -0.5872201143
13500219000.0 0.7978458272 -0.6007533
13550218700.0 0.7878002894 -0.6132922908
13600218400.0 0.7775361458 -0.6253705248
13650218100.0 0.7684863856 -0.6359721002
13700217800.0 0.7579890168 -0.6475752842
13750217500.0 0.7478361418 -0.6593634902
13800217200.0 0.7368670031 -0.6698289291
13850216900.0 0.7259424872 -0.6809615
13900216600.0 0.7159491551 -0.6908660526
13950216300.0 0.7052403739 -0.7005075212
14000216000.0 0.6960758721 -0.7095462261
14050215700.0 0.6862559665 -0.717403353
14100215400.0 0.6767018524 -0.7265308217
14150215100.0 0.6673504847 -0.7352736237
14200214800.0 0.6579842929 -0.7440129335
14250214500.0 0.647638202 -0.7536792079
14300214200.0 0.6372052764 -0.7630517882
14350213900.0 0.6259619455 -0.7725624166
14400213600.0 0.614391354 -0.7822883563
14450213300.0 0.6011857076 -0.7928803992
14500213000.0 0.5884992871 -0.8024422894
14550212700.0 0.5760714157 -0.811723062
14600212400.0 0.5636428713 -0.8206405491
14650212100.0 0.5504208739 -0.8295466939
14700211800.0 0.5366005459 -0.839496048
14750211500.0 0.5246676073 -0.8475587084
14800211200.0 0.5124360764 -0.8554950451
14850210900.0 0.4997839134 -0.863085964
14900210600.0 0.4864150341 -0.8709284249
14950210300.0 0.4731474382 -0.8785787674
15000210000.0 0.4604910895 -0.8853870978
15050209700.0 0.4482655582 -0.8914452561
15100209400.0 0.4352093978 -0.8973441411
15150209100.0 0.4233427954 -0.9030710417
15200208800.0 0.4108081233 -0.9079410343
15250208500.0 0.3994437234 -0.9123735448
15300208200.0 0.3864013361 -0.9176808245
15350207900.0 0.3743564961 -0.9229789294
15400207600.0 0.3592262153 -0.9279981637
15450207300.0 0.3444023568 -0.9326682273
15500207000.0 0.3303374235 -0.9374969676
15550206700.0 0.3154573246 -0.9424259609
15600206400.0 0.2995517742 -0.9466861883
15650206100.0 0.283966437 -0.9511365274
15700205800.0 0.270238269 -0.9544352188
15750205500.0 0.2558689918 -0.9578438996
15800205200.0 0.2418199919 -0.9614397856
15850204900.0 0.2276030735 -0.9649056614
15900204600.0 0.2124273069 -0.968565164
15950204300.0 0.1980889412 -0.9715987111
16000204000.0 0.1837013045 -0.9747226929
16050203700.0 0.1687447421 -0.9776489578
16100203400.0 0.1541442821 -0.9792967563
16150203100.0 0.1393302022 -0.9824423144
16200202800.0 0.125089294 -0.9842812947
16250202500.0 0.1095728446 -0.9857613367
16300202200.0 0.0948007115 -0.9877370241
16350201900.0 0.079516172 -0.9888123652
16400201600.0 0.0649460174 -0.9899839274
16450201300.0 0.0495648606 -0.991176237
16500201000.0 0.0326015816 -0.991936043
16550200700.0 0.0167410416 -0.9924065769
16600200400.0 0.0008372248 -0.9928324109
16650200100.0 -0.0152387746 -0.9926386196
16700199800.0 -0.0314977185 -0.9920683788
16750199500.0 -0.0500024092 -0.9918526996
16800199200.0 -0.0662178807 -0.9908066969
16850198900.0 -0.0817292716 -0.9891989832
16900198600.0 -0.096024871 -0.9892350278
16950198300.0 -0.1090469035 -0.9875304967
17000198000.0 -0.1231591254 -0.9860877649
17050197700.0 -0.1353836016 -0.9840955807
17100197400.0 -0.1481260533 -0.9821414545
17150197100.0 -0.1607059832 -0.9801325914
17200196800.0 -0.1736189507 -0.9779426921
17250196500.0 -0.1864425303 -0.9757424595
17300196200.0 -0.1987419006 -0.9734005488
17350195900.0 -0.2104040873 -0.970928188
17400195600.0 -0.2224819823 -0.9683619535
17450195300.0 -0.235466809 -0.9656276268
17500195000.0 -0.2485050788 -0.962203713
17550194700.0 -0.2624328891 -0.9587891519
17600194400.0 -0.2763367859 -0.9547611772
17650194100.0 -0.2900149694 -0.9504573545
17700193800.0 -0.3025321558 -0.9461851469
17750193500.0 -0.3172498206 -0.9419106649
17800193200.0 -0.3315824345 -0.9370129184
17850192900.0 -0.3464559793 -0.9314841769
17900192600.0 -0.3614990888 -0.9252527849
17950192300.0 -0.3771558034 -0.9180923738
18000192000.0 -0.3917957647 -0.9108384197
18050191700.0 -0.4056926042 -0.9028573992
18100191400.0 -0.4197223039 -0.8951884078
18150191100.0 -0.4345934422 -0.8871694823
18200190800.0 -0.4515605239 -0.8781417481
18250190500.0 -0.4684456467 -0.8688694496
18300190200.0 -0.4838252455 -0.8602087266
18350189900.0 -0.4992937272 -0.8511978378
18400189600.0 -0.5129769305 -0.8430989063
18450189300.0 -0.527043831 -0.8346184533
18500189000.0 -0.5402926875 -0.82740554
18550188700.0 -0.5530792382 -0.8194669981
18600188400.0 -0.5649182314 -0.81279443
18650188100.0 -0.5765400817 -0.8062474003
18700187800.0 -0.5875476859 -0.7994996751
18750187500.0 -0.5981315406 -0.7928234224
18800187200.0 -0.6088081248 -0.7856660392
18850186900.0 -0.6188654429 -0.7790030662
18900186600.0 -0.6293459045 -0.7716928361
18950186300.0 -0.6391207603 -0.7639797858
19000186000.0 -0.6468232086 -0.7575572498
19050185700.0 -0.6560257711 -0.7501434018
19100185400.0 -0.665937158 -0.7423348057
19150185100.0 -0.6760868759 -0.7341571325
19200184800.0 -0.6852084609 -0.7257281589
19250184500.0 -0.6957040799 -0.7166378108
19300184200.0 -0.7068881297 -0.7061654371
19350183900.0 -0.7177390148 -0.6970334439
19400183600.0 -0.7273765148 -0.6878305816
19450183300.0 -0.7362315269 -0.6769219286
19500183000.0 -0.7449064487 -0.6666877463
19550182700.0 -0.7544419481 -0.6557950194
19600182400.0 -0.7646273836 -0.6444283215
19650182100.0 -0.7752137495 -0.631972874
19700181800.0 -0.7859989395 -0.6189270904
19750181500.0 -0.7963243072 -0.6046388275
19800181200.0 -0.8067440688 -0.5898356947
19850180900.0 -0.8164512373 -0.5745832987
19900180600.0 -0.8240125148 -0.5601627127
19950180300.0 -0.8332177282 -0.5439660478
20000180000.0 -0.8243603079 -0.5463362892
20050179700.0 -0.8321853439 -0.5343197634
20100179400.0 -0.8403036085 -0.5205118722
20150179100.0 -0.848797935 -0.5090970064
20200178800.0 -0.857083764 -0.497280417
20250178500.0 -0.8665418298 -0.4844239498
20300178200.0 -0.8765032927 -0.4705470329
20350177900.0 -0.885577693 -0.456263816
20400177600.0 -0.8948957046 -0.4419514601
20450177300.0 -0.9027394302 -0.4276034213
20500177000.0 -0.9105861171 -0.4136750686
20550176700.0 -0.9190016003 -0.4002323398
20600176400.0 -0.9257668395 -0.3872108187
20650176100.0 -0.9320216198 -0.3749861513
20700175800.0 -0.9390633415 -0.3631359479
20750175500.0 -0.9452830808 -0.3509476634
20800175200.0 -0.9497584862 -0.3416523342
20850174900.0 -0.9549318396 -0.3304194228
20900174600.0 -0.9588027409 -0.3187974469
20950174300.0 -0.9622503178 -0.3070773346
21000174000.0 -0.9653112491 -0.2966903417
21050173700.0 -0.9674494125 -0.2867986067
21100173400.0 -0.9705112719 -0.2754824185
21150173100.0 -0.9748448518 -0.263721926
21200172800.0 -0.9789068859 -0.2509055014
21250172500.0 -0.9820661754 -0.2364918086
21300172200.0 -0.9855980098 -0.2228236115
21350171900.0 -0.987651571 -0.2080321119
21400171600.0 -0.9892644791 -0.1940089113
21450171300.0 -0.9907180422 -0.1797784781
21500171000.0 -0.9909430649 -0.1647333722
21550170700.0 -0.9907281809 -0.1499809309
21600170400.0 -0.9924021443 -0.1334802372
21650170100.0 -0.9897897668 -0.1187666903
21700169800.0 -0.9898035882 -0.103192615
21750169500.0 -0.9896500111 -0.087147333
21800169200.0 -0.9893398753 -0.0713325806
21850168900.0 -0.9900675506 -0.0538838347
21900168600.0 -0.9884166257 -0.0376834277
21950168300.0 -0.9877211881 -0.0216747264
22000168000.0 -0.9878064302 -0.0067516725
22050167700.0 -0.9882183252 0.0078216232
22100167400.0 -0.988270843 0.0232259126
22150167100.0 -0.9895342918 0.0393537761
22200166800.0 -0.9894934265 0.0558957084
22250166500.0 -0.988936518 0.0726174244
22300166200.0 -0.9883797029 0.0897615604
22350165900.0 -0.9874459343 0.105321382
22400165600.0 -0.9850619494 0.1216945469
22450165300.0 -0.983970551 0.1364284417
22500165000.0 -0.981983542 0.1493735396
22550164700.0 -0.9818773763 0.166347053
22600164400.0 -0.9794222879 0.1824691002
22650164100.0 -0.9765272346 0.1974241292
22700163800.0 -0.9727017696 0.2132226405
22750163500.0 -0.9702271582 0.2282366222
22800163200.0 -0.9678722458 0.2422718277
22850162900.0 -0.9647568754 0.2549839941
22900162600.0 -0.9633355892 0.2689889176
22950162300.0 -0.9614588465 0.2823880915
23000162000.0 -0.9602996769 0.2951030241
23050161700.0 -0.9578011738 0.3081310629
23100161400.0 -0.9544273237 0.3216672867
23150161100.0 -0.9516414024 0.3338292416
23200160800.0 -0.948712587 0.3472936046
23250160500.0 -0.9467157743 0.35915509
23300160200.0 -0.9434910483 0.3715166618
23350159900.0 -0.9394795581 0.3846009975
23400159600.0 -0.9344872028 0.3992747003
23450159300.0 -0.9294039393 0.4123023915
23500159000.0 -0.9247718437 0.4256993306
23550158700.0 -0.9200707757 0.4397491944
23600158400.0 -0.9144662558 0.453553564
23650158100.0 -0.9073864802 0.468105158
23700157800.0 -0.8992370332 0.4821112903
23750157500.0 -0.8899634283 0.4962575739
23800157200.0 -0.8806667674 0.5098106741
23850156900.0 -0.8712336744 0.5221887032
23900156600.0 -0.8609598949 0.5349157664
23950156300.0 -0.8517502276 0.5470424056
24000156000.0 -0.8421395325 0.5600416978
24050155700.0 -0.8321552609 0.5720818232
24100155400.0 -0.8215737774 0.5841471298
24150155100.0 -0.8113858981 0.5963492449
24200154800.0 -0.8001293353 0.6077438222
24250154500.0 -0.788230998 0.6201364805
24300154200.0 -0.7765626847 0.632291634
24350153900.0 -0.7651592818 0.6434848965
24400153600.0 -0.7526468908 0.6539107611
24450153300.0 -0.7406642898 0.6638817344
24500153000.0 -0.7294359052 0.6737050308
24550152700.0 -0.7178263039 0.683821721
24600152400.0 -0.705864708 0.6936248151
24650152100.0 -0.694039813 0.7018029655
