!Created with skrf (http://scikit-rf.org).
# Hz S RI R 50.0 
!freq ReS11 ImS11
300000.0 -0.9800759478 -0.104814349
50299700.0 -1.000088802 0.0162133443
100299400.0 -0.9979628308 0.0291034793
150299100.0 -1.002783446 0.045955026
200298800.0 -0.9996262088 0.0591930785
250298500.0 -0.9974327779 0.0727705919
300298200.0 -0.9859344154 0.0885438776
350297900.0 -0.9940747299 0.0993968581
400297600.0 -0.9933149936 0.1159801806
450297300.0 -0.9910169138 0.1297548819
500297000.0 -0.9893634541 0.1446938994
550296700.0 -0.9842437232 0.1569557413
600296400.0 -1.01734204 0.1904860742
650296100.0 -0.9822058203 0.1870917608
700295800.0 -0.979165542 0.2015419541
750295500.0 -0.9760477923 0.2151736823
800295200.0 -0.9729171557 0.2296107281
850294900.0 -0.9695441286 0.2434605594
900294600.0 -0.9655411958 0.2571356338
950294300.0 -0.9618579257 0.2707507662
1000294000.0 -0.9578833259 0.2846655881
1050293700.0 -0.9533395931 0.2986544797
1100293400.0 -0.9490366069 0.3127630262
1150293100.0 -0.9452707902 0.3249686534
1200292800.0 -0.9397165302 0.3390946776
1250292500.0 -0.9342035168 0.3524428824
1300292200.0 -0.9287575345 0.3658356744
1350291900.0 -0.9231818071 0.3797834109
1400291600.0 -0.9176908347 0.3930623211
1450291300.0 -0.9122665532 0.4053529161
1500291000.0 -0.9058433269 0.4184950674
1550290700.0 -0.8993623538 0.4319837729
1600290400.0 -0.8932722412 0.4447673012
1650290100.0 -0.8863673217 0.4570307783
1700289800.0 -0.8795460299 0.4702858555
1750289500.0 -0.8723689536 0.4826831864
1800289200.0 -0.8653153247 0.4955764198
1850288900.0 -0.8582759174 0.5070660963
1900288600.0 -0.8505143849 0.5199602924
1950288300.0 -0.8425584538 0.5326054375
2000288000.0 -0.8350017347 0.5439402452
2050287700.0 -0.8266287502 0.5561258436
2100287400.0 -0.8188699524 0.5679312707
2150287100.0 -0.8102064918 0.5797899619
2200286800.0 -0.802355039 0.5901416301
2250286500.0 -0.7934657354 0.6022548288
2300286200.0 -0.7846368873 0.6138462685
2350285900.0 -0.7758031294 0.62484705
2400285600.0 -0.7666575389 0.6358664288
2450285300.0 -0.7581110019 0.6463331038
2500285000.0 -0.7483989591 0.6577556654
2550284700.0 -0.7393216012 0.6680001469
2600284400.0 -0.7299294891 0.6779659129
2650284100.0 -0.7209474899 0.6885019523
2700283800.0 -0.7104147468 0.6993392425
2750283500.0 -0.6999920541 0.709619564
2800283200.0 -0.6903092623 0.7193980159
2850282900.0 -0.6800401433 0.7291305525
2900282600.0 -0.6699252614 0.7388751607
2950282300.0 -0.6594897276 0.7479343846
3000282000.0 -0.6489360208 0.7575372911
3050281700.0 -0.6378040599 0.7667746181
3100281400.0 -0.6258736229 0.7760896491
3150281100.0 -0.6140449948 0.7853356056
3200280800.0 -0.6022718733 0.7940165772
3250280500.0 -0.5916548052 0.8015419056
3300280200.0 -0.5804796969 0.8094067231
3350279900.0 -0.5689625422 0.8169762075
3400279600.0 -0.5567508598 0.8245916313
3450279300.0 -0.545686143 0.8317304294
3500279000.0 -0.5336864813 0.8389011646
3550278700.0 -0.521188065 0.8462274509
3600278400.0 -0.5089252186 0.8533376975
3650278100.0 -0.4956926749 0.8610684568
3700277800.0 -0.4837147195 0.867408219
3750277500.0 -0.4716325287 0.8737836973
3800277200.0 -0.458593463 0.8805504096
3850276900.0 -0.446731399 0.8864298825
3900276600.0 -0.435895471 0.8919326827
3950276300.0 -0.4233593582 0.8980811503
4000276000.0 -0.4112496734 0.9039841188
4050275700.0 -0.3983670014 0.9100790631
4100275400.0 -0.3870181219 0.9156827097
4150275100.0 -0.3743089873 0.920906497
4200274800.0 -0.3614826025 0.9265330063
4250274500.0 -0.3491152374 0.9317056288
4300274200.0 -0.3361567082 0.9370087067
4350273900.0 -0.322465297 0.9421459326
4400273600.0 -0.3076803679 0.9473896765
4450273300.0 -0.292203125 0.9526287421
4500273000.0 -0.2783964565 0.9570147564
4550272700.0 -0.2641242837 0.9611381052
4600272400.0 -0.2488077274 0.9653356961
4650272100.0 -0.2369754751 0.968361421
4700271800.0 -0.2236603718 0.9719136841
4750271500.0 -0.2120182616 0.9746409471
4800271200.0 -0.1996289592 0.9774140315
4850270900.0 -0.1856909016 0.9800592881
4900270600.0 -0.1718665307 0.9825574115
4950270300.0 -0.1576218494 0.9851325707
5000270000.0 -0.143321567 0.9873294557
5050269700.0 -0.1296210258 0.988651982
5100269400.0 -0.1163790141 0.9911367081
5150269100.0 -0.102991873 0.9922443424
5200268800.0 -0.0898463441 0.993242275
5250268500.0 -0.0766268066 0.9937620864
5300268200.0 -0.0637551661 0.9948681292
5350267900.0 -0.0515819308 0.9953330436
5400267600.0 -0.0353346585 0.9966014455
5450267300.0 -0.022214088 0.9969497565
5500267000.0 -0.0071577183 0.9971968593
5550266700.0 0.0075978313 0.9974816386
5600266400.0 0.023245529 0.9971636754
5650266100.0 0.0400187072 0.9967370855
5700265800.0 0.0543926975 0.9961954329
5750265500.0 0.0696026553 0.9950405483
5800265200.0 0.0836117293 0.9943975757
5850264900.0 0.096811609 0.993020793
5900264600.0 0.1135617501 0.991420566
5950264300.0 0.1255364894 0.9899689532
6000264000.0 0.1399105958 0.9882775184
6050263700.0 0.1523635985 0.9864038806
6100263400.0 0.1648046004 0.9847218072
6150263100.0 0.1791997288 0.9822956984
6200262800.0 0.1897262374 0.980257422
6250262500.0 0.2025321974 0.9778830095
6300262200.0 0.2154701068 0.9751401227
6350261900.0 0.2284299875 0.9722894278
6400261600.0 0.2420913701 0.9687445613
6450261300.0 0.253374987 0.9660816532
6500261000.0 0.2663948032 0.962527608
6550260700.0 0.279211641 0.9586594971
6600260400.0 0.2925961239 0.9545908633
6650260100.0 0.3066175189 0.9501815504
6700259800.0 0.3182457603 0.9457257475
6750259500.0 0.3324495249 0.9410649419
6800259200.0 0.3457277054 0.9362723052
6850258900.0 0.3573614876 0.9308511631
6900258600.0 0.369582323 0.9262565123
6950258300.0 0.3818323021 0.9207886702
7000258000.0 0.3940907831 0.9151905371
7050257700.0 0.406322436 0.9092647591
7100257400.0 0.4189329404 0.902992026
7150257100.0 0.4293541695 0.8978699388
7200256800.0 0.442099034 0.8914576717
7250256500.0 0.4538532075 0.8851318037
7300256200.0 0.4668799383 0.8786578588
7350255900.0 0.4791236231 0.8711967931
7400255600.0 0.4924791846 0.8642074153
7450255300.0 0.5077788399 0.8553646726
7500255000.0 0.5195187198 0.8480340587
7550254700.0 0.5328589448 0.8393226901
7600254400.0 0.5456178874 0.8312537601
7650254100.0 0.556856101 0.8233784988
7700253800.0 0.5691293616 0.8153328292
7750253500.0 0.5803673707 0.8074760781
7800253200.0 0.5909938262 0.7998271401
7850252900.0 0.6007867872 0.7926035438
7900252600.0 0.6126987685 0.7839634033
7950252300.0 0.6215145619 0.7771886524
8000252000.0 0.6316097572 0.7695470169
8050251700.0 0.64229951 0.7612013982
8100251400.0 0.652245757 0.7529521922
8150251100.0 0.6622533935 0.7444404369
8200250800.0 0.6719147032 0.7363131849
8250250500.0 0.6810751297 0.7285212088
8300250200.0 0.6901324698 0.7199260246
8350249900.0 0.6990961639 0.7110274892
8400249600.0 0.7073687877 0.7030146428
8450249300.0 0.7165753758 0.6936663018
8500249000.0 0.7252519872 0.6850952142
8550248700.0 0.7334672539 0.6758937351
8600248400.0 0.7419276278 0.6663952134
8650248100.0 0.7495277163 0.6570815448
8700247800.0 0.7590863752 0.6460632823
8750247500.0 0.7673473572 0.6358461923
8800247200.0 0.7753873644 0.62537613
8850246900.0 0.7840162228 0.6141445521
8900246600.0 0.7927543951 0.6027700225
8950246300.0 0.8024009048 0.5898238663
9000246000.0 0.8115381907 0.5771063525
9050245700.0 0.8207189039 0.5641196586
9100245400.0 0.8293730899 0.551622406
9150245100.0 0.8385524765 0.5378625817
9200244800.0 0.848373976 0.5225048181
9250244500.0 0.8578465754 0.5067817237
9300244200.0 0.8660189471 0.4923390879
9350243900.0 0.8739897358 0.4783150909
9400243600.0 0.8806613196 0.465839699
9450243300.0 0.886557027 0.4538787851
9500243000.0 0.8927972498 0.4416364264
9550242700.0 0.8965382994 0.4341211874
9600242400.0 0.9003984473 0.4263735334
9650242100.0 0.9041409879 0.4199509802
9700241800.0 0.908639427 0.4115544382
9750241500.0 0.912463306 0.4040575345
9800241200.0 0.916984112 0.3951742403
9850240900.0 0.9230185787 0.3833216417
9900240600.0 0.9285188243 0.3714037599
9950240300.0 0.9347971404 0.3556114456
10000240000.0 0.9396489727 0.3439149267
10050239700.0 0.9452702175 0.328489709
10100239400.0 0.9502231245 0.3133473966
10150239100.0 0.9541743673 0.2989877001
10200238800.0 0.9585924084 0.2836995623
10250238500.0 0.9619023002 0.2704544849
10300238200.0 0.9648916855 0.2564828331
10350237900.0 0.9676315475 0.2434888581
10400237600.0 0.9701471268 0.230478258
10450237300.0 0.972996364 0.2167627907
10500237000.0 0.9748200434 0.2047128547
10550236700.0 0.9771790308 0.1911380131
10600236400.0 0.9794787978 0.1770432289
10650236100.0 0.9815927853 0.1628779818
10700235800.0 0.9834092169 0.1506265044
10750235500.0 0.9860560438 0.136601677
10800235200.0 0.987360995 0.1234384279
10850234900.0 0.9897122022 0.1087144672
10900234600.0 0.9914494378 0.094334523
10950234300.0 0.9935068232 0.0809956494
11000234000.0 0.9952921966 0.0658842744
11050233700.0 0.9970145202 0.0495503451
11100233400.0 0.9982940045 0.0322313429
11150233100.0 0.999421213 0.0160874458
11200232800.0 0.9998433629 0.0010542713
11250232500.0 1.000840193 -0.0156960047
11300232200.0 1.001269464 -0.0332515111
11350231900.0 1.001363429 -0.0489785102
11400231600.0 1.001270106 -0.0653312359
11450231300.0 1.000677637 -0.0805516497
11500231000.0 1.000239691 -0.0981374559
11550230700.0 0.9982491475 -0.1107464025
11600230400.0 0.9967001691 -0.1233285955
11650230100.0 0.9950977912 -0.1346078846
11700229800.0 0.9925579204 -0.1498359417
11750229500.0 0.9900879775 -0.1642537174
11800229200.0 0.9876364273 -0.1780589836
11850228900.0 0.9837913286 -0.1907658171
11900228600.0 0.9803783587 -0.2000787295
11950228300.0 0.9772768094 -0.2108767901
12000228000.0 0.9744364083 -0.2199012706
12050227700.0 0.970635992 -0.2328874089
12100227400.0 0.9674291485 -0.2436147749
12150227100.0 0.9630392291 -0.2605753051
12200226800.0 0.9593889679 -0.2711398144
12250226500.0 0.9546744255 -0.2847367246
12300226200.0 0.9514921422 -0.2962228637
12350225900.0 0.9458996887 -0.3098280064
12400225600.0 0.9416821714 -0.3227582503
12450225300.0 0.9371315807 -0.3346189549
12500225000.0 0.9320170269 -0.3496971395
12550224700.0 0.9266497388 -0.3631752278
12600224400.0 0.9216814184 -0.3760662353
12650224100.0 0.9160148286 -0.3901743067
12700223800.0 0.9107396378 -0.4029271725
12750223500.0 0.9053231772 -0.4158069282
12800223200.0 0.8998730635 -0.4284665091
12850222900.0 0.8944394125 -0.440907601
12900222600.0 0.8887883972 -0.4529299714
12950222300.0 0.8825058862 -0.4662795663
13000222000.0 0.87642993 -0.4774391123
13050221700.0 0.869576834 -0.4902522965
13100221400.0 0.8626694883 -0.5018343527
13150221100.0 0.8562387036 -0.5141790533
13200220800.0 0.8490824831 -0.5255983622
13250220500.0 0.841581002 -0.5384283973
13300220200.0 0.8341926137 -0.5489330243
13350219900.0 0.8260350453 -0.5611023673
13400219600.0 0.8173579115 -0.5733292107
13450219300.0 0.8081986797 -0.5867231126
13500219000.0 0.7973888998 -0.6009004104
13550218700.0 0.7876138748 -0.6135363443
13600218400.0 0.7767467924 -0.6260633188
13650218100.0 0.767627711 -0.6370775192
13700217800.0 0.7560768776 -0.6491297041
13750217500.0 0.7463625131 -0.6608823446
13800217200.0 0.7348482384 -0.6723198762
13850216900.0 0.724218111 -0.6842779305
13900216600.0 0.7139231277 -0.6931123631
13950216300.0 0.7036718477 -0.7036005239
14000216000.0 0.6932733417 -0.7122604918
14050215700.0 0.6835036161 -0.7206819768
14100215400.0 0.673951738 -0.7297832891
14150215100.0 0.665011962 -0.7380424715
14200214800.0 0.6554568883 -0.7466849978
14250214500.0 0.6454179253 -0.7557443064
14300214200.0 0.6351024941 -0.7649728427
14350213900.0 0.6240919347 -0.7745661073
14400213600.0 0.6122680504 -0.7841720793
14450213300.0 0.5986548899 -0.7941339874
14500213000.0 0.5861517316 -0.8041289927
14550212700.0 0.5736954399 -0.8133315042
14600212400.0 0.5610442861 -0.8222644079
14650212100.0 0.5483554234 -0.8313203083
14700211800.0 0.5340629298 -0.8405410741
14750211500.0 0.5220947479 -0.8487177786
14800211200.0 0.5099980331 -0.8568232253
14850210900.0 0.4978311604 -0.8641466748
14900210600.0 0.4843566937 -0.8721432727
14950210300.0 0.470824156 -0.8797271994
15000210000.0 0.457866418 -0.8866890924
15050209700.0 0.4454416521 -0.892768081
15100209400.0 0.4328038058 -0.8989595064
15150209100.0 0.4198222793 -0.904153743
15200208800.0 0.4070541198 -0.9101737929
15250208500.0 0.3963917241 -0.9142763695
15300208200.0 0.3826667744 -0.9194093184
15350207900.0 0.3702075401 -0.9232044982
15400207600.0 0.3555408417 -0.9289063407
15450207300.0 0.3407000917 -0.9340851202
15500207000.0 0.3257577726 -0.9386792613
15550206700.0 0.3106939022 -0.9439526772
15600206400.0 0.295009276 -0.947820482
15650206100.0 0.2799849851 -0.9525216762
15700205800.0 0.2653780773 -0.9561810929
15750205500.0 0.2508407495 -0.9596041788
15800205200.0 0.2367417459 -0.9629336879
15850204900.0 0.2221221012 -0.9662997813
15900204600.0 0.2072967274 -0.9698674962
15950204300.0 0.1933581242 -0.9728592543
16000204000.0 0.1790856829 -0.9755254887
16050203700.0 0.1645717956 -0.978532889
16100203400.0 0.1503082667 -0.9800578878
16150203100.0 0.136214389 -0.9829191146
16200202800.0 0.122492111 -0.9843787141
16250202500.0 0.1077660979 -0.9863884439
16300202200.0 0.0921806077 -0.9878085089
16350201900.0 0.0777054091 -0.9892996806
16400201600.0 0.0631944459 -0.9902210469
16450201300.0 0.0476875933 -0.9914311292
16500201000.0 0.0313223916 -0.9921033404
16550200700.0 0.015624174 -0.9924424946
16600200400.0 -0.0003449443 -0.9925705607
16650200100.0 -0.0167160014 -0.9923539815
16700199800.0 -0.0333013176 -0.9920749093
16750199500.0 -0.0522522735 -0.9914569494
16800199200.0 -0.0681498958 -0.990654752
16850198900.0 -0.0829254665 -0.9898276361
16900198600.0 -0.0971754214 -0.9882781848
16950198300.0 -0.110815302 -0.9870654998
17000198000.0 -0.1229182282 -0.9856114173
17050197700.0 -0.135963538 -0.9839184775
17100197400.0 -0.1495310226 -0.9815436999
17150197100.0 -0.1618927402 -0.9794814347
17200196800.0 -0.174367854 -0.9773830178
17250196500.0 -0.1877493882 -0.9754943205
17300196200.0 -0.1997272275 -0.9728287288
17350195900.0 -0.211713808 -0.9705380533
17400195600.0 -0.2239497918 -0.9679856998
17450195300.0 -0.2370384786 -0.9651621324
17500195000.0 -0.2503590531 -0.9618676386
17550194700.0 -0.2642988374 -0.958107121
17600194400.0 -0.2785805642 -0.954117444
17650194100.0 -0.2919885001 -0.9498165636
17700193800.0 -0.3050961262 -0.9457397811
17750193500.0 -0.3191684269 -0.9414911427
17800193200.0 -0.3336800155 -0.9360918067
17850192900.0 -0.3486708115 -0.9305142322
17900192600.0 -0.3634797614 -0.9245577281
17950192300.0 -0.3789048975 -0.9173428163
18000192000.0 -0.3937348388 -0.9103029942
18050191700.0 -0.4073292337 -0.9023343664
18100191400.0 -0.4215188242 -0.8947319589
18150191100.0 -0.4363705183 -0.8866393688
18200190800.0 -0.4532618724 -0.8773431967
18250190500.0 -0.4701890051 -0.8677017354
18300190200.0 -0.4853878155 -0.8591353235
18350189900.0 -0.5004195286 -0.8508070563
18400189600.0 -0.5146999003 -0.8422132826
18450189300.0 -0.5283144151 -0.8349378454
18500189000.0 -0.541193162 -0.8263864874
18550188700.0 -0.5542695099 -0.8190348457
18600188400.0 -0.5658796396 -0.8116413483
18650188100.0 -0.5774961879 -0.8053027214
18700187800.0 -0.5879657176 -0.7987088283
18750187500.0 -0.5989202776 -0.7917835222
18800187200.0 -0.6093491588 -0.7848165109
18850186900.0 -0.6198513143 -0.7776092933
18900186600.0 -0.63013056 -0.770009538
18950186300.0 -0.6405549955 -0.7625064248
19000186000.0 -0.6477599581 -0.7557710998
19050185700.0 -0.6570082908 -0.7485664286
19100185400.0 -0.6670495189 -0.7405367362
19150185100.0 -0.6778705141 -0.7317496887
19200184800.0 -0.6869759843 -0.7235062117
19250184500.0 -0.6973028809 -0.7136340936
19300184200.0 -0.708773638 -0.7042738714
19350183900.0 -0.7188867241 -0.6944452553
19400183600.0 -0.7284556302 -0.6844322998
19450183300.0 -0.7378265072 -0.6748730776
19500183000.0 -0.7465187929 -0.6647206785
19550182700.0 -0.7553791868 -0.6543649463
19600182400.0 -0.7658774942 -0.6424175729
19650182100.0 -0.7766150215 -0.6300594126
19700181800.0 -0.7871563898 -0.6171870985
19750181500.0 -0.7975155989 -0.6029972232
19800181200.0 -0.8076942178 -0.5882063227
19850180900.0 -0.8173948673 -0.5728539166
19900180600.0 -0.8252026904 -0.5587119028
19950180300.0 -0.8341452607 -0.5424137936
20000180000.0 -0.8276594118 -0.5443760497
20050179700.0 -0.8348104491 -0.5315591549
20100179400.0 -0.843810064 -0.5178366651
20150179100.0 -0.8514828773 -0.5054682999
20200178800.0 -0.8613388483 -0.4929655659
20250178500.0 -0.8704692968 -0.4787943745
20300178200.0 -0.8799507146 -0.4644618052
20350177900.0 -0.8886168393 -0.4505552773
20400177600.0 -0.8974083077 -0.435265917
20450177300.0 -0.9055365395 -0.4209199471
20500177000.0 -0.91334195 -0.4070550826
20550176700.0 -0.9211148138 -0.3933022614
20600176400.0 -0.9284425052 -0.3800445228
20650176100.0 -0.9346553406 -0.3679409911
20700175800.0 -0.941277119 -0.3555299059
20750175500.0 -0.9486461731 -0.343426385
20800175200.0 -0.9528619332 -0.332659108
20850174900.0 -0.958049361 -0.3215159247
20900174600.0 -0.963419009 -0.3103250716
20950174300.0 -0.9664786641 -0.2978707294
21000174000.0 -0.9704565956 -0.2860569334
21050173700.0 -0.9730421673 -0.2757997359
21100173400.0 -0.9773447715 -0.2635304173
21150173100.0 -0.9816709352 -0.2504274348
21200172800.0 -0.9848403329 -0.2369693629
21250172500.0 -0.9878847018 -0.2235916753
21300172200.0 -0.9906631918 -0.2093959867
21350171900.0 -0.9924135356 -0.1943420373
21400171600.0 -0.993660366 -0.1806138665
21450171300.0 -0.9939844909 -0.1656418185
21500171000.0 -0.9934985597 -0.1509707891
21550170700.0 -0.9934518972 -0.1357071232
21600170400.0 -0.9934136126 -0.1189815508
21650170100.0 -0.9924549517 -0.1032529089
21700169800.0 -0.9907970334 -0.0879152702
21750169500.0 -0.9890837708 -0.0729426984
21800169200.0 -0.9871452149 -0.056392894
21850168900.0 -0.9864841433 -0.0404057433
21900168600.0 -0.9846196408 -0.0240069719
21950168300.0 -0.9839443575 -0.0084432573
22000168000.0 -0.9828146235 0.0064579769
22050167700.0 -0.9821224195 0.02052869
22100167400.0 -0.9822044319 0.0358166635
22150167100.0 -0.9830871691 0.0509177131
22200166800.0 -0.9831287545 0.0671875186
22250166500.0 -0.9821026223 0.0843319966
22300166200.0 -0.9822760863 0.1007511196
22350165900.0 -0.9812746955 0.1174552791
22400165600.0 -0.9786480049 0.1332260274
22450165300.0 -0.9767603371 0.1470928309
22500165000.0 -0.9754957776 0.1608959933
22550164700.0 -0.973892129 0.1767793164
22600164400.0 -0.9722888412 0.1927864992
22650164100.0 -0.9690939869 0.2077805835
22700163800.0 -0.9672777131 0.223196178
22750163500.0 -0.9648564119 0.2390311349
22800163200.0 -0.9619548447 0.2518051915
22850162900.0 -0.9595239839 0.2654957893
22900162600.0 -0.9580262079 0.2788835902
22950162300.0 -0.9573763288 0.2916622183
23000162000.0 -0.9561337142 0.3032970553
23050161700.0 -0.9541131597 0.3159372747
23100161400.0 -0.9518951272 0.3286937264
23150161100.0 -0.9488994388 0.3407839727
23200160800.0 -0.9458744777 0.353431639
23250160500.0 -0.9431613188 0.365160918
23300160200.0 -0.9407987313 0.3767635248
23350159900.0 -0.9370900174 0.3903144053
23400159600.0 -0.932473352 0.4028394062
23450159300.0 -0.9273850606 0.4157242631
23500159000.0 -0.9229390548 0.428315887
23550158700.0 -0.9187020651 0.4417257259
23600158400.0 -0.9131649745 0.4550245203
23650158100.0 -0.9071308764 0.469119124
23700157800.0 -0.8993016167 0.4826101489
23750157500.0 -0.8909616346 0.4965727637
23800157200.0 -0.8817635139 0.5098827865
23850156900.0 -0.8733324787 0.5219799862
23900156600.0 -0.8639720809 0.5348933885
23950156300.0 -0.8551385592 0.5475885356
24000156000.0 -0.8458207877 0.5592737409
24050155700.0 -0.8354174606 0.5708744312
24100155400.0 -0.8252827144 0.5828018688
24150155100.0 -0.8141158771 0.5949148706
24200154800.0 -0.8041109179 0.6060235206
24250154500.0 -0.7924464963 0.6175608297
24300154200.0 -0.7810708608 0.6291882997
24350153900.0 -0.7690705987 0.6396976036
24400153600.0 -0.7566230493 0.6502304496
24450153300.0 -0.745045245 0.6598700938
24500153000.0 -0.7334481085 0.6697192724
24550152700.0 -0.7221007566 0.678860841
24600152400.0 -0.710302954 0.6886917371
24650152100.0 -0.6993577921 0.6968563985
