!Created with skrf (http://scikit-rf.org).
# Hz S RI R 50.0 
!freq ReS11 ImS11
300000.0 -0.9993509743 -0.0218586678
50299700.0 -0.9989248855 0.0160694317
100299400.0 -0.9969762329 0.0284736451
150299100.0 -1.001652416 0.0454823012
200298800.0 -0.9984580393 0.0584266822
250298500.0 -0.9962275503 0.071924819
300298200.0 -0.9845205133 0.0877704709
350297900.0 -0.9924883832 0.0983180458
400297600.0 -0.9915173632 0.1146577811
450297300.0 -0.9890524594 0.1284525082
500297000.0 -0.9877872496 0.1430051404
550296700.0 -0.9825767736 0.1555060131
600296400.0 -1.01530712 0.1884159463
650296100.0 -0.9804442209 0.1849680255
700295800.0 -0.9773647506 0.1992740484
750295500.0 -0.9742125444 0.2129175741
800295200.0 -0.9710821667 0.2268575521
850294900.0 -0.9676574534 0.2406948071
900294600.0 -0.9638197516 0.2544011136
950294300.0 -0.9601835373 0.2679065554
1000294000.0 -0.95632843 0.2816787568
1050293700.0 -0.9519391283 0.2954838673
1100293400.0 -0.9474812672 0.3098588578
1150293100.0 -0.9438302157 0.3216271805
1200292800.0 -0.9386862045 0.3357900251
1250292500.0 -0.9334635957 0.3493321503
1300292200.0 -0.927798117 0.3625463535
1350291900.0 -0.922441505 0.3764230286
1400291600.0 -0.9169240182 0.3897366075
1450291300.0 -0.9115657296 0.4019513166
1500291000.0 -0.9056409806 0.4151056788
1550290700.0 -0.8990651982 0.4283645778
1600290400.0 -0.8930740724 0.4412493475
1650290100.0 -0.886806481 0.4531674716
1700289800.0 -0.8796974369 0.4668279398
1750289500.0 -0.8728487468 0.4790031426
1800289200.0 -0.8656277723 0.4919862354
1850288900.0 -0.8589037833 0.5033244634
1900288600.0 -0.8513509706 0.5162232811
1950288300.0 -0.8433819777 0.5287655086
2000288000.0 -0.836127528 0.5399332827
2050287700.0 -0.8279408918 0.5524066819
2100287400.0 -0.8201801775 0.5637563068
2150287100.0 -0.811749061 0.5759521691
2200286800.0 -0.8036256968 0.586508019
2250286500.0 -0.7951055925 0.5983589454
2300286200.0 -0.7863294704 0.6095078766
2350285900.0 -0.7777919782 0.6205622471
2400285600.0 -0.7686235913 0.6318027634
2450285300.0 -0.759880042 0.6425142115
2500285000.0 -0.7504923515 0.6533208487
2550284700.0 -0.7414585802 0.6638059591
2600284400.0 -0.731579404 0.6742033454
2650284100.0 -0.7229865373 0.6840459717
2700283800.0 -0.7124897264 0.6945437144
2750283500.0 -0.7026981074 0.7049065953
2800283200.0 -0.6924497496 0.7150067491
2850282900.0 -0.6822876603 0.724737383
2900282600.0 -0.6719583451 0.7343505071
2950282300.0 -0.6617204605 0.7434436835
3000282000.0 -0.6508980471 0.7531776196
3050281700.0 -0.6400526361 0.7623861222
3100281400.0 -0.6291058202 0.7710165723
3150281100.0 -0.6181268698 0.7800530835
3200280800.0 -0.6063938169 0.7888767772
3250280500.0 -0.5952835947 0.7970814587
3300280200.0 -0.5839837654 0.8055923682
3350279900.0 -0.5726092288 0.8131745535
3400279600.0 -0.5604339476 0.8209808354
3450279300.0 -0.5493011595 0.8288951479
3500279000.0 -0.5375594762 0.8363231053
3550278700.0 -0.5256781321 0.8437637742
3600278400.0 -0.5143324581 0.8507054415
3650278100.0 -0.5010687344 0.8582185126
3700277800.0 -0.4892418577 0.8649317348
3750277500.0 -0.4770316946 0.8715073812
3800277200.0 -0.4646592574 0.8782813768
3850276900.0 -0.4523340182 0.884898189
3900276600.0 -0.440830285 0.8907058981
3950276300.0 -0.4277081261 0.8969088322
4000276000.0 -0.4158796395 0.9030095065
4050275700.0 -0.4026839324 0.9090490469
4100275400.0 -0.3908627757 0.9143556955
4150275100.0 -0.3778921935 0.9200265069
4200274800.0 -0.3644727763 0.9256499341
4250274500.0 -0.3521767175 0.9306083905
4300274200.0 -0.3395460655 0.9354131822
4350273900.0 -0.3257247593 0.9403056865
4400273600.0 -0.312386327 0.9449377456
4450273300.0 -0.2980501296 0.9497453003
4500273000.0 -0.2849687595 0.9538835655
4550272700.0 -0.2719142101 0.9578684002
4600272400.0 -0.2564993959 0.9620988467
4650272100.0 -0.2443095171 0.9654537692
4700271800.0 -0.2308249002 0.9687661781
4750271500.0 -0.2179783841 0.9717607408
4800271200.0 -0.2045171037 0.9746617577
4850270900.0 -0.190718102 0.9775615777
4900270600.0 -0.1773626037 0.9798223376
4950270300.0 -0.1638342239 0.9824872397
5000270000.0 -0.1499152682 0.9845496309
5050269700.0 -0.1362015122 0.9863845821
5100269400.0 -0.1221553238 0.9881919724
5150269100.0 -0.1084377129 0.9898298658
5200268800.0 -0.0947049264 0.9912691102
5250268500.0 -0.0818879089 0.9927078882
5300268200.0 -0.0679101282 0.9932745787
5350267900.0 -0.0555125831 0.9942790888
5400267600.0 -0.0397211118 0.9950906882
5450267300.0 -0.0274659175 0.9955664286
5500267000.0 -0.0130264689 0.9955924769
5550266700.0 0.000323055 0.9961769612
5600266400.0 0.0147820892 0.9963035364
5650266100.0 0.0302883118 0.9958687468
5700265800.0 0.0439730054 0.9952068705
5750265500.0 0.0581481296 0.9944418538
5800265200.0 0.0717193461 0.9935281485
5850264900.0 0.0853253443 0.9930900072
5900264600.0 0.1011407211 0.9914232985
5950264300.0 0.1135774465 0.9900428094
6000264000.0 0.1272771921 0.9882886204
6050263700.0 0.1397963394 0.9864043014
6100263400.0 0.1533508856 0.9845723008
6150263100.0 0.1687832189 0.982048595
6200262800.0 0.1797908877 0.9803956347
6250262500.0 0.193083643 0.9776312592
6300262200.0 0.2058195431 0.9753253017
6350261900.0 0.218887134 0.9723916316
6400261600.0 0.2334660014 0.9689832185
6450261300.0 0.245257485 0.9663272385
6500261000.0 0.2584567519 0.9628172561
6550260700.0 0.2712423107 0.9588641887
6600260400.0 0.2840828856 0.9549970098
6650260100.0 0.2980954655 0.9510760826
6700259800.0 0.3098946195 0.9468445147
6750259500.0 0.3236966122 0.9424818386
6800259200.0 0.3369832661 0.9376872498
6850258900.0 0.3490735993 0.9326944074
6900258600.0 0.3616771643 0.9278649348
6950258300.0 0.3748450102 0.9227987267
7000258000.0 0.3868913156 0.9176887646
7050257700.0 0.3986920653 0.9122546206
7100257400.0 0.4122377101 0.9059740864
7150257100.0 0.4231627485 0.9007329961
7200256800.0 0.4364407182 0.8947629313
7250256500.0 0.4478700063 0.8886496796
7300256200.0 0.460458425 0.8824215322
7350255900.0 0.4727170765 0.8760469761
7400255600.0 0.4833629288 0.8698005835
7450255300.0 0.4976473433 0.861965466
7500255000.0 0.50883774 0.8551845742
7550254700.0 0.5210069477 0.847922342
7600254400.0 0.5333164472 0.8403272774
7650254100.0 0.54479093 0.8332206395
7700253800.0 0.5566180489 0.825409319
7750253500.0 0.5677257728 0.8177127316
7800253200.0 0.5792807816 0.8092294689
7850252900.0 0.5888302258 0.8026068192
7900252600.0 0.6009287403 0.7936317619
7950252300.0 0.6106119281 0.7865030081
8000252000.0 0.6210190412 0.7782612463
8050251700.0 0.6317688907 0.7697779434
8100251400.0 0.6417964414 0.7618610077
8150251100.0 0.6522204725 0.7525781726
8200250800.0 0.6621464191 0.7443312619
8250250500.0 0.6716462768 0.7356185828
8300250200.0 0.6817135846 0.7263079599
8350249900.0 0.6911592789 0.7176712252
8400249600.0 0.6999256371 0.7089228658
8450249300.0 0.70970174 0.6991413634
8500249000.0 0.7190128527 0.6898168429
8550248700.0 0.7286286109 0.6797167287
8600248400.0 0.7378552818 0.6695108632
8650248100.0 0.7456261077 0.6603930857
8700247800.0 0.7550739299 0.6495402628
8750247500.0 0.7636105974 0.6394751365
8800247200.0 0.7719619081 0.6294215154
8850246900.0 0.7805254313 0.6183716443
8900246600.0 0.7889385083 0.6075363853
8950246300.0 0.7979946606 0.5958000731
9000246000.0 0.8060585893 0.584758686
9050245700.0 0.8139494501 0.5736468771
9100245400.0 0.8219790747 0.5616161962
9150245100.0 0.8301854984 0.5500530554
9200244800.0 0.8379693732 0.5382131129
9250244500.0 0.8461132522 0.5253446144
9300244200.0 0.8533425662 0.5134757218
9350243900.0 0.8609003833 0.5007412927
9400243600.0 0.8678630299 0.4883790572
9450243300.0 0.8737546712 0.4774582525
9500243000.0 0.8810294025 0.46446766
9550242700.0 0.8870391815 0.4536139096
9600242400.0 0.8928382881 0.4420724052
9650242100.0 0.897817915 0.4320791231
9700241800.0 0.9034251607 0.4208635829
9750241500.0 0.9085922429 0.4100105327
9800241200.0 0.9140133688 0.3978861653
9850240900.0 0.9194972772 0.3859989489
9900240600.0 0.9240554882 0.3760768213
9950240300.0 0.9296712849 0.3617036639
10000240000.0 0.9348428358 0.3490024314
10050239700.0 0.9395510964 0.3357110178
10100239400.0 0.9445604702 0.3216402682
10150239100.0 0.9488471407 0.3080947
10200238800.0 0.9532611782 0.2938881736
10250238500.0 0.9570132602 0.2804816269
10300238200.0 0.9609825277 0.2667536855
10350237900.0 0.9639215691 0.2539913346
10400237600.0 0.9670988147 0.240348137
10450237300.0 0.970617636 0.2266212003
10500237000.0 0.9734599018 0.2132585422
10550236700.0 0.9761142184 0.2002063251
10600236400.0 0.978395617 0.1870498426
10650236100.0 0.9807960569 0.1714550486
10700235800.0 0.9832091817 0.1587063858
10750235500.0 0.9855176053 0.1457800829
10800235200.0 0.9872390161 0.1320525416
10850234900.0 0.9895019093 0.1181748341
10900234600.0 0.9908968031 0.1039285103
10950234300.0 0.9925403973 0.0904256101
11000234000.0 0.9937507575 0.0765352515
11050233700.0 0.9950561636 0.0626102352
11100233400.0 0.9959711244 0.0470225451
11150233100.0 0.9968343917 0.0326825415
11200232800.0 0.9975238297 0.0187296531
11250232500.0 0.99833349 0.0043530651
11300232200.0 0.9984494365 -0.012024278
11350231900.0 0.9983773001 -0.0262145209
11400231600.0 0.9976571249 -0.0410521605
11450231300.0 0.9969771665 -0.0536123535
11500231000.0 0.9966168044 -0.0687125448
11550230700.0 0.9961167434 -0.0831421608
11600230400.0 0.9947656111 -0.0973002468
11650230100.0 0.9927381406 -0.1090025551
11700229800.0 0.9916655637 -0.1242008414
11750229500.0 0.9894805895 -0.1383062778
11800229200.0 0.9875998681 -0.1514540867
11850228900.0 0.9849478416 -0.1655274675
11900228600.0 0.9820132656 -0.1781909917
11950228300.0 0.9793597911 -0.1911870063
12000228000.0 0.9768509836 -0.2027963188
12050227700.0 0.973268416 -0.216841323
12100227400.0 0.9711029774 -0.2271252122
12150227100.0 0.9665569755 -0.2450480701
12200226800.0 0.9627868821 -0.2569676578
12250226500.0 0.95882778 -0.2700399082
12300226200.0 0.9550468725 -0.2826405584
12350225900.0 0.9500461837 -0.2984495102
12400225600.0 0.9468686391 -0.310777917
12450225300.0 0.9430178648 -0.3224597187
12500225000.0 0.9372499045 -0.33674967
12550224700.0 0.9323113536 -0.351006892
12600224400.0 0.9278698709 -0.3630693194
12650224100.0 0.9219326494 -0.3773177903
12700223800.0 0.9168092025 -0.3902350775
12750223500.0 0.9113057499 -0.4029241008
12800223200.0 0.905737832 -0.4160579697
12850222900.0 0.9003201135 -0.42839461
12900222600.0 0.8941238621 -0.4407986374
12950222300.0 0.8877216023 -0.4537002193
13000222000.0 0.8818381519 -0.4655937283
13050221700.0 0.8745965571 -0.4791031519
13100221400.0 0.8680318634 -0.4906873245
13150221100.0 0.860939197 -0.5031664072
13200220800.0 0.8535542649 -0.5151255128
13250220500.0 0.846692378 -0.5272325183
13300220200.0 0.8394441053 -0.5383153317
13350219900.0 0.8312077115 -0.5510888189
13400219600.0 0.8235085913 -0.5624434073
13450219300.0 0.815270239 -0.5744876222
13500219000.0 0.8064239522 -0.586656822
13550218700.0 0.7973749551 -0.5986342121
13600218400.0 0.7883060971 -0.6101668483
13650218100.0 0.7801432565 -0.6208026619
13700217800.0 0.7707096901 -0.632575529
13750217500.0 0.7609390978 -0.6442993729
13800217200.0 0.7505784925 -0.6551318845
13850216900.0 0.7402429472 -0.667886452
13900216600.0 0.7303715839 -0.6775184603
13950216300.0 0.7198218151 -0.6876386625
14000216000.0 0.7102545144 -0.6971807612
14050215700.0 0.7011440679 -0.7064825581
14100215400.0 0.6900804087 -0.7171230859
14150215100.0 0.6803318699 -0.7269435711
14200214800.0 0.6704872175 -0.7358473852
14250214500.0 0.6597475692 -0.7457464575
14300214200.0 0.6488062757 -0.7556717707
14350213900.0 0.6377384509 -0.7652051993
14400213600.0 0.6267307231 -0.7741903019
14450213300.0 0.6150633399 -0.7836797424
14500213000.0 0.6034957922 -0.7924383961
14550212700.0 0.5918699375 -0.8016124838
14600212400.0 0.5793081995 -0.8102353344
14650212100.0 0.567894817 -0.8181700876
14700211800.0 0.5542281723 -0.8271635407
14750211500.0 0.5423812564 -0.8360515741
14800211200.0 0.5297101887 -0.8438775117
14850210900.0 0.5180120385 -0.8513993784
14900210600.0 0.5054280487 -0.8594375668
14950210300.0 0.492397437 -0.8667933877
15000210000.0 0.4795209379 -0.874102949
15050209700.0 0.4665402039 -0.8808424782
15100209400.0 0.4539944661 -0.8873167166
15150209100.0 0.4421034143 -0.8937968464
15200208800.0 0.4284913918 -0.8998922468
15250208500.0 0.4154171257 -0.9060580914
15300208200.0 0.4025188087 -0.9114997709
15350207900.0 0.3891750525 -0.9158947275
15400207600.0 0.3750816335 -0.9224675545
15450207300.0 0.3614901981 -0.9277254884
15500207000.0 0.3480762857 -0.9331559736
15550206700.0 0.3344040177 -0.9377452213
15600206400.0 0.3197001604 -0.9425591202
15650206100.0 0.3052961011 -0.9472083868
15700205800.0 0.2912282154 -0.9513621621
15750205500.0 0.2769791743 -0.9554167066
15800205200.0 0.26298754 -0.9591884025
15850204900.0 0.2490816492 -0.9628024809
15900204600.0 0.2339497847 -0.9668782545
15950204300.0 0.2198607657 -0.9701721887
16000204000.0 0.205638012 -0.973359493
16050203700.0 0.1906521084 -0.976272551
16100203400.0 0.17666683 -0.9786853335
16150203100.0 0.1617024697 -0.9816372015
16200202800.0 0.1470997154 -0.984079574
16250202500.0 0.1328428157 -0.9858015267
16300202200.0 0.1174344696 -0.9879182676
16350201900.0 0.1023463079 -0.9895954052
16400201600.0 0.087558674 -0.990659007
16450201300.0 0.0727855105 -0.9920329504
16500201000.0 0.0571187589 -0.9931568924
16550200700.0 0.0418385162 -0.9940713712
16600200400.0 0.0265881388 -0.9946779704
16650200100.0 0.0110327642 -0.9950198959
16700199800.0 -0.0035736628 -0.9949426113
16750199500.0 -0.0201289675 -0.9951659247
16800199200.0 -0.0351884811 -0.9950119926
16850198900.0 -0.0506479665 -0.993566441
16900198600.0 -0.0655385239 -0.9928986265
16950198300.0 -0.0799335075 -0.9924297342
17000198000.0 -0.0943309047 -0.9912941216
17050197700.0 -0.107766465 -0.9889769938
17100197400.0 -0.1223667043 -0.9871867416
17150197100.0 -0.1366781574 -0.9853035606
17200196800.0 -0.1509236234 -0.9833381649
17250196500.0 -0.1646480657 -0.9806705324
17300196200.0 -0.1786179231 -0.9782416477
17350195900.0 -0.1921679513 -0.9758508463
17400195600.0 -0.2056342003 -0.9728044485
17450195300.0 -0.2192717954 -0.9701054958
17500195000.0 -0.2332108168 -0.9666624368
17550194700.0 -0.2471035198 -0.9633468868
17600194400.0 -0.2614254184 -0.959313954
17650194100.0 -0.2753508198 -0.9554478864
17700193800.0 -0.2888218884 -0.9516642932
17750193500.0 -0.3026435946 -0.9473314754
17800193200.0 -0.3161210601 -0.9423554738
17850192900.0 -0.3302486139 -0.9379373115
17900192600.0 -0.3448793061 -0.9326548165
17950192300.0 -0.3594950658 -0.9265777434
18000192000.0 -0.3742901704 -0.9204486387
18050191700.0 -0.3882982818 -0.91357873
18100191400.0 -0.4025762397 -0.907070188
18150191100.0 -0.4163213994 -0.9004036958
18200190800.0 -0.4313374333 -0.8931226662
18250190500.0 -0.4464582188 -0.8854097162
18300190200.0 -0.4608488833 -0.8781672
18350189900.0 -0.475548517 -0.8706374495
18400189600.0 -0.4897884678 -0.8637548744
18450189300.0 -0.5029208035 -0.8559791898
18500189000.0 -0.5163670972 -0.8483593741
18550188700.0 -0.5295068365 -0.8405205511
18600188400.0 -0.5424404337 -0.8327443178
18650188100.0 -0.5544120596 -0.8246926603
18700187800.0 -0.5661603506 -0.8174270642
18750187500.0 -0.5779064062 -0.8095832895
18800187200.0 -0.589348619 -0.8013273375
18850186900.0 -0.6003625179 -0.7933534293
18900186600.0 -0.6109760168 -0.7852942125
18950186300.0 -0.6223039287 -0.7763778402
19000186000.0 -0.6320015194 -0.7682417254
19050185700.0 -0.6431529047 -0.7599439633
19100185400.0 -0.6534970504 -0.751143362
19150185100.0 -0.6639938159 -0.7422088312
19200184800.0 -0.6735454634 -0.7324355734
19250184500.0 -0.6838902981 -0.7238832322
19300184200.0 -0.6943777151 -0.7135445335
19350183900.0 -0.7051615886 -0.7033764388
19400183600.0 -0.7154649245 -0.6930358888
19450183300.0 -0.7250941903 -0.6829064395
19500183000.0 -0.7339973045 -0.6724514375
19550182700.0 -0.7430002543 -0.6616701832
19600182400.0 -0.7528853189 -0.6504768517
19650182100.0 -0.7626180813 -0.6389753384
19700181800.0 -0.7724587787 -0.6270141062
19750181500.0 -0.7815624405 -0.6146245165
19800181200.0 -0.7914149528 -0.601903033
19850180900.0 -0.8008407191 -0.5886164184
19900180600.0 -0.8089272517 -0.5763332736
19950180300.0 -0.8187270988 -0.5621653542
20000180000.0 -0.8229410836 -0.5534315933
20050179700.0 -0.8314560365 -0.5416938275
20100179400.0 -0.8402250215 -0.5290964629
20150179100.0 -0.8487471609 -0.5165678574
20200178800.0 -0.8553567409 -0.5040421613
20250178500.0 -0.8643747748 -0.4913101802
20300178200.0 -0.8724688051 -0.4778732961
20350177900.0 -0.8796884682 -0.4646527115
20400177600.0 -0.8872689916 -0.4516216061
20450177300.0 -0.8945551011 -0.4383136457
20500177000.0 -0.9011422891 -0.4252344003
20550176700.0 -0.907940408 -0.4119430033
20600176400.0 -0.9136727434 -0.3991947937
20650176100.0 -0.9197445524 -0.385863875
20700175800.0 -0.9261291376 -0.3734891498
20750175500.0 -0.931597133 -0.3608783626
20800175200.0 -0.9366509774 -0.3488487359
20850174900.0 -0.9413255843 -0.3364208888
20900174600.0 -0.9468560341 -0.3242067004
20950174300.0 -0.950617711 -0.3118261337
21000174000.0 -0.9538963056 -0.2988657555
21050173700.0 -0.9572327475 -0.286513626
21100173400.0 -0.9612115975 -0.2730628212
21150173100.0 -0.9642978662 -0.2605626547
21200172800.0 -0.9680855995 -0.2473568942
21250172500.0 -0.9713570105 -0.2335417427
21300172200.0 -0.9750736499 -0.2196423139
21350171900.0 -0.9781779913 -0.2054218038
21400171600.0 -0.9806805665 -0.1911336335
21450171300.0 -0.9818170023 -0.1770687331
21500171000.0 -0.9831555317 -0.162420365
21550170700.0 -0.9861183392 -0.1479699857
21600170400.0 -0.988959699 -0.1331024307
21650170100.0 -0.9890158842 -0.116687999
21700169800.0 -0.989678468 -0.1027137296
21750169500.0 -0.9910708224 -0.0879235642
21800169200.0 -0.9918084321 -0.0722526551
21850168900.0 -0.9917232697 -0.0564008724
21900168600.0 -0.9921336661 -0.0415769244
21950168300.0 -0.9920164956 -0.0263253864
22000168000.0 -0.9915814868 -0.0111750796
22050167700.0 -0.9918015244 0.003627635
22100167400.0 -0.9916634836 0.0184039417
22150167100.0 -0.9919072049 0.0334932449
22200166800.0 -0.9913046109 0.0482271427
22250166500.0 -0.9908798303 0.0636823276
22300166200.0 -0.9894092445 0.0784417216
22350165900.0 -0.9886990708 0.0936524617
22400165600.0 -0.9873372757 0.1089483187
22450165300.0 -0.9854461743 0.12266325
22500165000.0 -0.9840190682 0.1365711334
22550164700.0 -0.9834071586 0.1511033835
22600164400.0 -0.9806844498 0.1656545051
22650164100.0 -0.977725775 0.1789863956
22700163800.0 -0.9752806216 0.1925071806
22750163500.0 -0.9731390032 0.2075093345
22800163200.0 -0.9698690723 0.2198929211
22850162900.0 -0.9669152288 0.2330256572
22900162600.0 -0.964154103 0.2466372831
22950162300.0 -0.9614453565 0.2600374469
23000162000.0 -0.9588205291 0.2727971796
23050161700.0 -0.9554244419 0.2855796204
23100161400.0 -0.9521891158 0.2990431883
23150161100.0 -0.9485681994 0.3115911367
23200160800.0 -0.944270645 0.3252671031
23250160500.0 -0.9415539783 0.3373160471
23300160200.0 -0.9378269952 0.3503813013
23350159900.0 -0.9328467872 0.3635689709
23400159600.0 -0.9288326888 0.375929835
23450159300.0 -0.9240837735 0.3893136795
23500159000.0 -0.9191064116 0.4014820067
23550158700.0 -0.9148169594 0.4147703119
23600158400.0 -0.9091185446 0.426716319
23650158100.0 -0.9033279903 0.4395308104
23700157800.0 -0.8966117289 0.4523050396
23750157500.0 -0.8894236431 0.465484078
23800157200.0 -0.8823511885 0.4783304301
23850156900.0 -0.8754351631 0.490368414
23900156600.0 -0.8678213417 0.5030233789
23950156300.0 -0.8600195312 0.5151740066
24000156000.0 -0.8524558383 0.526937284
24050155700.0 -0.8436077745 0.5383773468
24100155400.0 -0.8356860623 0.5502474651
24150155100.0 -0.827076306 0.5621525559
24200154800.0 -0.8178121383 0.5733592164
24250154500.0 -0.8089173586 0.5847027544
24300154200.0 -0.8000892844 0.5967573055
24350153900.0 -0.7905363994 0.6075685968
24400153600.0 -0.7803581357 0.6188385288
24450153300.0 -0.7705478045 0.6292565268
24500153000.0 -0.7608925286 0.6397142732
24550152700.0 -0.7514316586 0.649999757
24600152400.0 -0.7413103551 0.6602738122
24650152100.0 -0.7305052194 0.6707769848
