!Created with skrf (http://scikit-rf.org).
# Hz S RI R 50.0 
!freq ReS11 ImS11
300000.0 -0.9833684422 -0.0945697392
50299700.0 -1.000078337 0.0163912886
100299400.0 -0.9979325718 0.029262122
150299100.0 -1.002801611 0.0462605379
200298800.0 -0.999666278 0.0594720474
250298500.0 -0.9973271748 0.0728424389
300298200.0 -0.986011599 0.0885833883
350297900.0 -0.9938790367 0.0996811778
400297600.0 -0.9931319338 0.1163961345
450297300.0 -0.9909655349 0.1300660707
500297000.0 -0.9892811921 0.1449062495
550296700.0 -0.9842015223 0.1573626387
600296400.0 -1.01710874 0.1905463489
650296100.0 -0.982129716 0.1873158959
700295800.0 -0.9789863987 0.2016439776
750295500.0 -0.9760865972 0.2157368526
800295200.0 -0.9726982613 0.2296429137
850294900.0 -0.9692645898 0.243264126
900294600.0 -0.9655005785 0.2571428823
950294300.0 -0.9616770001 0.2709956397
1000294000.0 -0.957609855 0.2847970944
1050293700.0 -0.9531953126 0.2986972893
1100293400.0 -0.9488501463 0.3130100947
1150293100.0 -0.9449698362 0.3251090204
1200292800.0 -0.9396334062 0.3394123309
1250292500.0 -0.934145841 0.3526256486
1300292200.0 -0.9284908113 0.3659610246
1350291900.0 -0.922897087 0.3800576351
1400291600.0 -0.9173918225 0.3929369
1450291300.0 -0.9118403137 0.4053097322
1500291000.0 -0.905807912 0.4186461397
1550290700.0 -0.8992084458 0.4318594863
1600290400.0 -0.8931533522 0.444899157
1650290100.0 -0.8864407315 0.4567374017
1700289800.0 -0.8794456307 0.4706018598
1750289500.0 -0.8725864419 0.4825862599
1800289200.0 -0.865199158 0.4957459289
1850288900.0 -0.8584746887 0.5069105187
1900288600.0 -0.8505905749 0.5200435826
1950288300.0 -0.8424624536 0.5323088752
2000288000.0 -0.8348789822 0.5438618982
2050287700.0 -0.8265693899 0.5561621774
2100287400.0 -0.818675581 0.5680206695
2150287100.0 -0.8101060744 0.5801330497
2200286800.0 -0.8022795826 0.5904340973
2250286500.0 -0.7935355989 0.60266521
2300286200.0 -0.7844661392 0.6140835092
2350285900.0 -0.7756513657 0.6250330452
2400285600.0 -0.7665213743 0.636116282
2450285300.0 -0.7578501687 0.6464975099
2500285000.0 -0.7480118316 0.6577395592
2550284700.0 -0.7390908236 0.6679856064
2600284400.0 -0.7298305965 0.6782279571
2650284100.0 -0.7207678116 0.6890437065
2700283800.0 -0.7104201556 0.6994047215
2750283500.0 -0.7000776149 0.7097237958
2800283200.0 -0.6902597523 0.7195723232
2850282900.0 -0.6797772004 0.729340816
2900282600.0 -0.6696412634 0.7390241727
2950282300.0 -0.6592012702 0.7481302908
3000282000.0 -0.6487267038 0.7575138543
3050281700.0 -0.6375000819 0.7667718984
3100281400.0 -0.625808037 0.7761376797
3150281100.0 -0.6138910547 0.785450863
3200280800.0 -0.6023923037 0.7938986085
3250280500.0 -0.5916258014 0.801494321
3300280200.0 -0.5805864429 0.8094166374
3350279900.0 -0.5690236321 0.8170853413
3400279600.0 -0.5570377073 0.8246893571
3450279300.0 -0.5456883568 0.8318186968
3500279000.0 -0.5337943876 0.8387839385
3550278700.0 -0.521287216 0.8461540462
3600278400.0 -0.5091122348 0.853455513
3650278100.0 -0.4960795866 0.8610245486
3700277800.0 -0.4837079172 0.8672901158
3750277500.0 -0.4715288447 0.8740389213
3800277200.0 -0.4589276309 0.8802661777
3850276900.0 -0.4468070887 0.8864690484
3900276600.0 -0.4357095259 0.8921921394
3950276300.0 -0.4232330321 0.8982888666
4000276000.0 -0.4111807631 0.9040645634
4050275700.0 -0.398161366 0.9103290817
4100275400.0 -0.3867985117 0.9154765032
4150275100.0 -0.3740622126 0.9212857238
4200274800.0 -0.3608188005 0.9267421635
4250274500.0 -0.3486580822 0.93192597
4300274200.0 -0.3355919766 0.9371564037
4350273900.0 -0.3218939722 0.9425111149
4400273600.0 -0.3070775718 0.9476196293
4450273300.0 -0.2916066525 0.9526042199
4500273000.0 -0.2781021175 0.9569139036
4550272700.0 -0.263858716 0.9609528015
4600272400.0 -0.2486585817 0.9655074724
4650272100.0 -0.2367847061 0.9683839034
4700271800.0 -0.2234211129 0.9717731585
4750271500.0 -0.2117905304 0.9747219761
4800271200.0 -0.1992201134 0.9774941244
4850270900.0 -0.1854530456 0.9800819176
4900270600.0 -0.1714862274 0.9826506876
4950270300.0 -0.15740814 0.9850614515
5000270000.0 -0.1433796905 0.9869459213
5050269700.0 -0.1298612521 0.9891211327
5100269400.0 -0.1162522929 0.9906383477
5150269100.0 -0.1029143158 0.9921310148
5200268800.0 -0.0895608103 0.9929478112
5250268500.0 -0.0766331439 0.9940717662
5300268200.0 -0.0633724052 0.9949011168
5350267900.0 -0.051333351 0.9951472958
5400267600.0 -0.035051648 0.9965087469
5450267300.0 -0.0222012163 0.9965799083
5500267000.0 -0.0071579232 0.9970861947
5550266700.0 0.0076893761 0.9973169175
5600266400.0 0.0233194293 0.9974884685
5650266100.0 0.0395360293 0.9969973111
5700265800.0 0.0541539326 0.9958099044
5750265500.0 0.0691995291 0.9953562755
5800265200.0 0.0834203239 0.9941509675
5850264900.0 0.0964675276 0.9929838775
5900264600.0 0.1132650111 0.9914450655
5950264300.0 0.1255147074 0.9900352794
6000264000.0 0.1394117168 0.9878078525
6050263700.0 0.1520980121 0.9862729287
6100263400.0 0.1646562323 0.9842699762
6150263100.0 0.1792656402 0.9819700228
6200262800.0 0.1897982704 0.9802040817
6250262500.0 0.2026135692 0.9777961205
6300262200.0 0.2154146405 0.9748469315
6350261900.0 0.2285585278 0.9720831169
6400261600.0 0.2422932759 0.9685783207
6450261300.0 0.25385678 0.9658634371
6500261000.0 0.2665531555 0.9622564668
6550260700.0 0.27956046 0.9585313963
6600260400.0 0.2929137823 0.9544049714
6650260100.0 0.3067324738 0.9504096185
6700259800.0 0.3186285727 0.9457759502
6750259500.0 0.3323326745 0.9407877115
6800259200.0 0.3456354889 0.9359997978
6850258900.0 0.3576626276 0.9311892327
6900258600.0 0.3695227223 0.92599791
6950258300.0 0.3822275423 0.9208070736
7000258000.0 0.3939792845 0.9152318316
7050257700.0 0.4062511811 0.909360487
7100257400.0 0.4190452588 0.9031340747
7150257100.0 0.4293584451 0.8979180847
7200256800.0 0.4423395598 0.8915343056
7250256500.0 0.4537969397 0.8851424514
7300256200.0 0.4667055156 0.8785090316
7350255900.0 0.4792638653 0.8719492007
7400255600.0 0.4923267369 0.8646855111
7450255300.0 0.5076553151 0.8558545041
7500255000.0 0.5194062619 0.8486057494
7550254700.0 0.5325247094 0.8397755384
7600254400.0 0.5455046831 0.8316099544
7650254100.0 0.556929671 0.8235183805
7700253800.0 0.5686312491 0.8157513446
7750253500.0 0.5800548776 0.8078720556
7800253200.0 0.5909201613 0.7998902618
7850252900.0 0.6006868616 0.7930733022
7900252600.0 0.6124799471 0.7840194983
7950252300.0 0.6213282594 0.7773501851
8000252000.0 0.6316639422 0.769301597
8050251700.0 0.6422482902 0.7611626157
8100251400.0 0.6525861482 0.7528664589
8150251100.0 0.6624943036 0.7441276658
8200250800.0 0.6719648024 0.7360856842
8250250500.0 0.6808071787 0.7280133678
8300250200.0 0.6900815497 0.7192994526
8350249900.0 0.6997615869 0.7108549092
8400249600.0 0.7075404803 0.7024585522
8450249300.0 0.7168791964 0.6934348284
8500249000.0 0.7253929493 0.6845470548
8550248700.0 0.7337113926 0.6755573986
8600248400.0 0.7421531525 0.6660539422
8650248100.0 0.7497779795 0.656806754
8700247800.0 0.7593409345 0.6456544055
8750247500.0 0.7675026734 0.6356734953
8800247200.0 0.7755873182 0.6253361026
8850246900.0 0.7843109546 0.6142239571
8900246600.0 0.7926388663 0.6028031301
8950246300.0 0.8022137697 0.5899295991
9000246000.0 0.8115049276 0.5774948212
9050245700.0 0.8203754853 0.564582177
9100245400.0 0.8287614852 0.5521468004
9150245100.0 0.8381256556 0.5384113635
9200244800.0 0.8476214042 0.5236277387
9250244500.0 0.8571075613 0.5084060787
9300244200.0 0.8654273716 0.4937214786
9350243900.0 0.873091885 0.4798506568
9400243600.0 0.8799902473 0.4672605417
9450243300.0 0.8857241511 0.4553196189
9500243000.0 0.892374431 0.4426128255
9550242700.0 0.8959396448 0.4346222531
9600242400.0 0.9004432739 0.4266862402
9650242100.0 0.9037510883 0.4199798407
9700241800.0 0.9082237629 0.4113804669
9750241500.0 0.9123055128 0.4035975017
9800241200.0 0.9167951955 0.3947800668
9850240900.0 0.9224992477 0.3829463078
9900240600.0 0.9281532481 0.3714172904
9950240300.0 0.9347159279 0.354882078
10000240000.0 0.9391620165 0.3433713294
10050239700.0 0.9447938524 0.3283924661
10100239400.0 0.9502764634 0.3128702257
10150239100.0 0.9540775213 0.2982480333
10200238800.0 0.9584559297 0.2834144637
10250238500.0 0.9617391697 0.269965746
10300238200.0 0.9651414017 0.2561503162
10350237900.0 0.9675139729 0.2434411764
10400237600.0 0.9701436385 0.2299322748
10450237300.0 0.9729667774 0.2164790104
10500237000.0 0.9752701442 0.2044936208
10550236700.0 0.9773710767 0.1912470454
10600236400.0 0.9797165083 0.1769883034
10650236100.0 0.9813360326 0.1628080541
10700235800.0 0.9836378645 0.1507695124
10750235500.0 0.9857883895 0.1379643964
10800235200.0 0.9877174403 0.1239216238
10850234900.0 0.9895622808 0.1089526033
10900234600.0 0.9917744882 0.0945478545
10950234300.0 0.993472794 0.0813118238
11000234000.0 0.9951660558 0.0663271997
11050233700.0 0.9969003257 0.050202952
11100233400.0 0.9982382604 0.0329105446
11150233100.0 0.9992490784 0.0169081845
11200232800.0 0.9999622095 0.0015602954
11250232500.0 1.001246072 -0.0155035003
11300232200.0 1.001116566 -0.032362685
11350231900.0 1.001156119 -0.0485707185
11400231600.0 1.000401874 -0.0648598736
11450231300.0 1.00036075 -0.0804808769
11500231000.0 0.9988205986 -0.0966228609
11550230700.0 0.9972370858 -0.110839596
11600230400.0 0.9958781052 -0.1223961231
11650230100.0 0.9939697565 -0.1343562457
11700229800.0 0.9919053205 -0.1493970212
11750229500.0 0.9897332603 -0.1642472102
11800229200.0 0.9868679775 -0.1782544755
11850228900.0 0.9835714791 -0.1908290024
11900228600.0 0.9800998527 -0.2010346322
11950228300.0 0.9766146145 -0.2119729738
12000228000.0 0.9741044822 -0.2206040173
12050227700.0 0.9705645676 -0.2328855093
12100227400.0 0.9673714398 -0.2446392418
12150227100.0 0.9620817727 -0.2617077112
12200226800.0 0.9586534536 -0.272061892
12250226500.0 0.9546126856 -0.2843524436
12300226200.0 0.9507633025 -0.2966495033
12350225900.0 0.9454275611 -0.3101625399
12400225600.0 0.9411839845 -0.3234656914
12450225300.0 0.9372373099 -0.3351531154
12500225000.0 0.9317075083 -0.3501396816
12550224700.0 0.9266274696 -0.3636862813
12600224400.0 0.9218471948 -0.3762861443
12650224100.0 0.9160218121 -0.3903317435
12700223800.0 0.9107972221 -0.4028336248
12750223500.0 0.9054461836 -0.4156527618
12800223200.0 0.9000561572 -0.4281657209
12850222900.0 0.8945111703 -0.4402156548
12900222600.0 0.8887500157 -0.4521733073
12950222300.0 0.8823587032 -0.4654340219
13000222000.0 0.8761963363 -0.4771496278
13050221700.0 0.8696281378 -0.4895148678
13100221400.0 0.8630977406 -0.5011669583
13150221100.0 0.8560011975 -0.5143326233
13200220800.0 0.8486235185 -0.5255151792
13250220500.0 0.8412389074 -0.5380020412
13300220200.0 0.8335107309 -0.5492050508
13350219900.0 0.8255267971 -0.5612664623
13400219600.0 0.8169701074 -0.5734399408
13450219300.0 0.8076351532 -0.587189813
13500219000.0 0.7973305608 -0.6012078208
13550218700.0 0.7870304866 -0.6136661983
13600218400.0 0.7771876292 -0.626259995
13650218100.0 0.7666978585 -0.6372944802
13700217800.0 0.7568801261 -0.6496336006
13750217500.0 0.7459411494 -0.6617810898
13800217200.0 0.7353086363 -0.6726824554
13850216900.0 0.7236045922 -0.6844195569
13900216600.0 0.7144470867 -0.6929587122
13950216300.0 0.7034370725 -0.7033440697
14000216000.0 0.6935764373 -0.7128011293
14050215700.0 0.6839702359 -0.7210986851
14100215400.0 0.6741058121 -0.7298191374
14150215100.0 0.6650052717 -0.7381386966
14200214800.0 0.6557671079 -0.7467254576
14250214500.0 0.6456537878 -0.7558606209
14300214200.0 0.6353537586 -0.7650334729
14350213900.0 0.6242826795 -0.7743223034
14400213600.0 0.6125522668 -0.7840591999
14450213300.0 0.6000554409 -0.7935933868
14500213000.0 0.5864130324 -0.8036891787
14550212700.0 0.5745169534 -0.8133377358
14600212400.0 0.5622506904 -0.8214655291
14650212100.0 0.5489806284 -0.8304847393
14700211800.0 0.535054432 -0.8402251158
14750211500.0 0.5233871451 -0.8481523774
14800211200.0 0.5108052598 -0.8562170861
14850210900.0 0.4987209875 -0.8637178526
14900210600.0 0.4854299405 -0.8715312856
14950210300.0 0.4715647462 -0.8792245056
15000210000.0 0.4587899109 -0.8859779994
15050209700.0 0.4462031562 -0.8924669222
15100209400.0 0.4331028102 -0.8983946662
15150209100.0 0.4211521557 -0.9036509948
15200208800.0 0.4070536607 -0.9100244508
15250208500.0 0.3960462385 -0.9142500144
15300208200.0 0.3829850669 -0.9190141361
15350207900.0 0.3703027608 -0.9235545022
15400207600.0 0.354985585 -0.9286337802
15450207300.0 0.3406464061 -0.9343377103
15500207000.0 0.3255466165 -0.9381904503
15550206700.0 0.3112712112 -0.9445316254
15600206400.0 0.2953319868 -0.9484261436
15650206100.0 0.2794370656 -0.9528563234
15700205800.0 0.2654376479 -0.9560496049
15750205500.0 0.2511914443 -0.9595685145
15800205200.0 0.2370410697 -0.9630742597
15850204900.0 0.2227245471 -0.9664421713
15900204600.0 0.2078853455 -0.9699436038
15950204300.0 0.1937770019 -0.9726768992
16000204000.0 0.1803028661 -0.9755496057
16050203700.0 0.1654280996 -0.9783690767
16100203400.0 0.1511083041 -0.9805155629
16150203100.0 0.1369593073 -0.9825864483
16200202800.0 0.1232893614 -0.9845992805
16250202500.0 0.1079453005 -0.9863581774
16300202200.0 0.0930238329 -0.9874618891
16350201900.0 0.0783764391 -0.9894861823
16400201600.0 0.0639222708 -0.9904020915
16450201300.0 0.0488433864 -0.991507598
16500201000.0 0.0324660311 -0.9922124971
16550200700.0 0.016632467 -0.9926021345
16600200400.0 0.0009313321 -0.9928470748
16650200100.0 -0.0156107616 -0.9925718273
16700199800.0 -0.0322921989 -0.992215675
16750199500.0 -0.0511503317 -0.9913250859
16800199200.0 -0.0668058464 -0.9905023201
16850198900.0 -0.0823788255 -0.9895955733
16900198600.0 -0.0966004145 -0.988722234
16950198300.0 -0.1098986833 -0.9865241041
17000198000.0 -0.1230332035 -0.9860793695
17050197700.0 -0.1354648438 -0.9834080057
17100197400.0 -0.1486169272 -0.9815359987
17150197100.0 -0.161592896 -0.979445872
17200196800.0 -0.1745760333 -0.9775468458
17250196500.0 -0.1877012414 -0.97503206
17300196200.0 -0.2001228444 -0.9727693663
17350195900.0 -0.2122914198 -0.9703817838
17400195600.0 -0.224357187 -0.9676471411
17450195300.0 -0.2374726485 -0.9650974782
17500195000.0 -0.2506536751 -0.9615654703
17550194700.0 -0.2648431021 -0.9576345032
17600194400.0 -0.2788453412 -0.9542520644
17650194100.0 -0.2922427157 -0.9498569968
17700193800.0 -0.3054443961 -0.9459188044
17750193500.0 -0.3194115409 -0.9408080544
17800193200.0 -0.3338420699 -0.9359968237
17850192900.0 -0.3487496807 -0.9307944553
17900192600.0 -0.3637365813 -0.9243933156
17950192300.0 -0.3788671209 -0.9174265523
18000192000.0 -0.393211359 -0.9104631225
18050191700.0 -0.4069689919 -0.9027415321
18100191400.0 -0.4211381976 -0.89508121
18150191100.0 -0.4359225036 -0.8871627027
18200190800.0 -0.4525497831 -0.878116348
18250190500.0 -0.4692576853 -0.8685369188
18300190200.0 -0.4848303273 -0.859757537
18350189900.0 -0.4998189886 -0.8516446726
18400189600.0 -0.5142333455 -0.8431015671
18450189300.0 -0.5275497418 -0.8354060743
18500189000.0 -0.5410051578 -0.8270073894
18550188700.0 -0.5536023055 -0.8191864792
18600188400.0 -0.56542932 -0.8118841116
18650188100.0 -0.5763999754 -0.8053413781
18700187800.0 -0.5877364184 -0.7986886816
18750187500.0 -0.5986150755 -0.7917410555
18800187200.0 -0.6093049408 -0.7846767778
18850186900.0 -0.6198128647 -0.7772375926
18900186600.0 -0.6304203375 -0.7698188097
18950186300.0 -0.6406651325 -0.7617563048
19000186000.0 -0.6484005091 -0.7552493598
19050185700.0 -0.6578168298 -0.7478624934
19100185400.0 -0.6678628353 -0.7392702969
19150185100.0 -0.6782579021 -0.7303566137
19200184800.0 -0.6879140518 -0.7213704542
19250184500.0 -0.6977705984 -0.7120174425
19300184200.0 -0.70908862 -0.7033879026
19350183900.0 -0.7195116586 -0.6938101686
19400183600.0 -0.7300141357 -0.6831068802
19450183300.0 -0.738491874 -0.6734054906
19500183000.0 -0.7466680076 -0.6631101343
19550182700.0 -0.7560797889 -0.6527324513
19600182400.0 -0.7661247348 -0.6408664754
19650182100.0 -0.7766467853 -0.6293907654
19700181800.0 -0.7873808909 -0.6159994235
19750181500.0 -0.797477706 -0.6024918085
19800181200.0 -0.8074254589 -0.5880316929
19850180900.0 -0.8170638606 -0.5728081384
19900180600.0 -0.8246008116 -0.5584428308
19950180300.0 -0.8337433913 -0.5428535785
20000180000.0 -0.8270168231 -0.5438811683
20050179700.0 -0.8353368963 -0.5307528705
20100179400.0 -0.8442395176 -0.5174899086
20150179100.0 -0.8526553396 -0.5054823313
20200178800.0 -0.8611565354 -0.4925458985
20250178500.0 -0.8700727544 -0.47914749
20300178200.0 -0.8787763148 -0.4644528558
20350177900.0 -0.8882499631 -0.4501469566
20400177600.0 -0.8966131985 -0.4360215837
20450177300.0 -0.9048141212 -0.4215274048
20500177000.0 -0.9124389465 -0.4074568242
20550176700.0 -0.920669831 -0.3935824685
20600176400.0 -0.9275391777 -0.380695499
20650176100.0 -0.9336829002 -0.3681396694
20700175800.0 -0.9406635337 -0.3552813745
20750175500.0 -0.9475622884 -0.3429317989
20800175200.0 -0.9516332164 -0.3326257764
20850174900.0 -0.9572621291 -0.3208307744
20900174600.0 -0.9617138423 -0.3095459906
20950174300.0 -0.9667050698 -0.2980440681
21000174000.0 -0.9701174749 -0.2856997785
21050173700.0 -0.9723036842 -0.2745838002
21100173400.0 -0.976499493 -0.2624048221
21150173100.0 -0.980844726 -0.2494185355
21200172800.0 -0.984138986 -0.2357738656
21250172500.0 -0.9875267491 -0.221866335
21300172200.0 -0.9904943655 -0.2079624915
21350171900.0 -0.9920130565 -0.1933569002
21400171600.0 -0.9931736741 -0.1789584778
21450171300.0 -0.9934348519 -0.1648817235
21500171000.0 -0.9929880479 -0.1493554465
21550170700.0 -0.9931952935 -0.1348923203
21600170400.0 -0.9935702173 -0.1185934725
21650170100.0 -0.9928863127 -0.1024168839
21700169800.0 -0.9908222518 -0.0878229128
21750169500.0 -0.9893577788 -0.072522479
21800169200.0 -0.9894851226 -0.0568974616
21850168900.0 -0.987523765 -0.0395512499
21900168600.0 -0.9857624183 -0.0243754523
21950168300.0 -0.9851021578 -0.008504957
22000168000.0 -0.983559462 0.0068007913
22050167700.0 -0.9829549161 0.0202179774
22100167400.0 -0.9827592282 0.0357000767
22150167100.0 -0.9829323633 0.050765181
22200166800.0 -0.9837082556 0.067141618
22250166500.0 -0.9822258731 0.0839724932
22300166200.0 -0.9823521273 0.1007546529
22350165900.0 -0.9798935485 0.1171152484
22400165600.0 -0.9786194985 0.1325607429
22450165300.0 -0.9764086461 0.1477808158
22500165000.0 -0.9750798744 0.1609184536
22550164700.0 -0.9735891015 0.1763752303
22600164400.0 -0.9723057804 0.1921436153
22650164100.0 -0.9707197148 0.2058358938
22700163800.0 -0.9674687411 0.2225779936
22750163500.0 -0.9646490489 0.2377429148
22800163200.0 -0.9620999436 0.2508393298
22850162900.0 -0.9595917116 0.2647800378
22900162600.0 -0.9577934949 0.2779745165
22950162300.0 -0.9570182622 0.2908380565
23000162000.0 -0.9558880257 0.302678868
23050161700.0 -0.9536409366 0.3153768902
23100161400.0 -0.951045838 0.3281316933
23150161100.0 -0.9484702769 0.340120409
23200160800.0 -0.9456584625 0.3523418632
23250160500.0 -0.9427061264 0.3641029419
23300160200.0 -0.9407910297 0.37639321
23350159900.0 -0.9367148716 0.3893454941
23400159600.0 -0.9319557707 0.402014333
23450159300.0 -0.9266048512 0.4150527219
23500159000.0 -0.9223280844 0.4280095877
23550158700.0 -0.9177581412 0.4411480783
23600158400.0 -0.912405406 0.4542352454
23650158100.0 -0.9060957045 0.4677317781
23700157800.0 -0.8987331323 0.4814081085
23750157500.0 -0.8901928599 0.495362831
23800157200.0 -0.8815881187 0.508608952
23850156900.0 -0.8727772282 0.5212776565
23900156600.0 -0.8639489066 0.5331357797
23950156300.0 -0.8547692339 0.5454992304
24000156000.0 -0.8449615552 0.5583593893
24050155700.0 -0.834764765 0.5687307521
24100155400.0 -0.8252214038 0.581851263
24150155100.0 -0.8143156054 0.5934614227
24200154800.0 -0.8040289551 0.604768493
24250154500.0 -0.7919825151 0.6166318733
24300154200.0 -0.7812756261 0.6280761708
24350153900.0 -0.7692752667 0.6386100844
24400153600.0 -0.7573004971 0.6487900725
24450153300.0 -0.7455928926 0.6589070444
24500153000.0 -0.7344295228 0.6688984484
24550152700.0 -0.7226033745 0.6789379967
24600152400.0 -0.7112209608 0.6881709013
24650152100.0 -0.6999412247 0.6970021851
