!Created with skrf (http://scikit-rf.org).
# Hz S RI R 50.0 
!freq ReS11 ImS11
300000.0 -0.9735018495 -0.1225591997
50299700.0 -0.9999280445 0.0150952022
100299400.0 -0.9979931511 0.0279340582
150299100.0 -1.002618334 0.0448191845
200298800.0 -0.9996217955 0.0581946239
250298500.0 -0.9974200847 0.0714734663
300298200.0 -0.9859969892 0.0875597129
350297900.0 -0.9938426199 0.0983446717
400297600.0 -0.9930431272 0.114893795
450297300.0 -0.9910553009 0.1287307405
500297000.0 -0.9892119462 0.1435497435
550296700.0 -0.9842579876 0.1558396649
600296400.0 -1.017276751 0.1892250618
650296100.0 -0.9820164294 0.1856835062
700295800.0 -0.9793099318 0.2000965939
750295500.0 -0.9761857663 0.2137912707
800295200.0 -0.9729506757 0.228126468
850294900.0 -0.9697885024 0.2416418802
900294600.0 -0.9659893906 0.2556068877
950294300.0 -0.9622277695 0.2693133739
1000294000.0 -0.9581766798 0.2832503405
1050293700.0 -0.9534956055 0.2971657177
1100293400.0 -0.949149536 0.3114584206
1150293100.0 -0.9454752528 0.3232942576
1200292800.0 -0.9401539041 0.3376204586
1250292500.0 -0.9348619834 0.3513160388
1300292200.0 -0.9291073375 0.3642919172
1350291900.0 -0.9235281229 0.3785607825
1400291600.0 -0.9179871791 0.3917831923
1450291300.0 -0.9125385435 0.4040863063
1500291000.0 -0.9062754549 0.4173425043
1550290700.0 -0.8997276642 0.4307561979
1600290400.0 -0.8933604584 0.4435891923
1650290100.0 -0.8870464079 0.4557622206
1700289800.0 -0.8797991513 0.4692991489
1750289500.0 -0.8728746537 0.4816278259
1800289200.0 -0.8656200916 0.4944209517
1850288900.0 -0.8588845235 0.5057097048
1900288600.0 -0.8511314343 0.5187875922
1950288300.0 -0.8431821318 0.5313070974
2000288000.0 -0.8352124357 0.54281473
2050287700.0 -0.8272035938 0.5554283098
2100287400.0 -0.819511745 0.566539669
2150287100.0 -0.8108093428 0.5786312757
2200286800.0 -0.8030205289 0.5893121102
2250286500.0 -0.7942708818 0.6015363149
2300286200.0 -0.7852510378 0.6129241762
2350285900.0 -0.7769016643 0.6236292605
2400285600.0 -0.7680109798 0.6342988167
2450285300.0 -0.75912615 0.6450441453
2500285000.0 -0.7493224598 0.6566253347
2550284700.0 -0.7401251994 0.6671140437
2600284400.0 -0.7309437532 0.6770803189
2650284100.0 -0.7222099796 0.6871599821
2700283800.0 -0.7116800285 0.6974702144
2750283500.0 -0.7017609535 0.7085043916
2800283200.0 -0.6917844296 0.7181324421
2850282900.0 -0.6812410739 0.7282839319
2900282600.0 -0.6708614892 0.7379516586
2950282300.0 -0.6600569672 0.7470659113
3000282000.0 -0.6495128318 0.7569117945
3050281700.0 -0.6383930973 0.7659433308
3100281400.0 -0.6267480379 0.7750917015
3150281100.0 -0.6155736226 0.7839836623
3200280800.0 -0.6041666202 0.7922222557
3250280500.0 -0.5930334989 0.8004920302
3300280200.0 -0.5814516675 0.8083694723
3350279900.0 -0.5692377075 0.8165938866
3400279600.0 -0.5567201018 0.8247339777
3450279300.0 -0.5455197346 0.831604203
3500279000.0 -0.5337980169 0.8386534694
3550278700.0 -0.5214931904 0.8456507292
3600278400.0 -0.5099109369 0.8526403417
3650278100.0 -0.4969052405 0.8598774884
3700277800.0 -0.4844253335 0.8662961059
3750277500.0 -0.4722434099 0.873321548
3800277200.0 -0.4598455925 0.8798564595
3850276900.0 -0.4476014782 0.8857945693
3900276600.0 -0.4368149954 0.8914281467
3950276300.0 -0.424723869 0.8971117383
4000276000.0 -0.4129398502 0.9032321643
4050275700.0 -0.4004721862 0.9092544249
4100275400.0 -0.3892448031 0.9143872825
4150275100.0 -0.3760570764 0.9205015044
4200274800.0 -0.3626834164 0.9261755943
4250274500.0 -0.3499430801 0.93132043
4300274200.0 -0.3365824209 0.937238725
4350273900.0 -0.3224126728 0.9421113304
4400273600.0 -0.3078243389 0.947277231
4450273300.0 -0.2928898367 0.9525702253
4500273000.0 -0.2797846017 0.9564065028
4550272700.0 -0.2660683745 0.9606528297
4600272400.0 -0.2508919164 0.9646424767
4650272100.0 -0.2395100273 0.9677640475
4700271800.0 -0.226587917 0.9711254904
4750271500.0 -0.2149588856 0.9740635845
4800271200.0 -0.2027653673 0.9767459658
4850270900.0 -0.1890838689 0.9795630709
4900270600.0 -0.1753717958 0.9820077655
4950270300.0 -0.1606136217 0.9845869252
5000270000.0 -0.1461535829 0.9864025252
5050269700.0 -0.1326144137 0.9880438191
5100269400.0 -0.1185856316 0.9902838712
5150269100.0 -0.1045515632 0.9919283816
5200268800.0 -0.0912214106 0.9924416188
5250268500.0 -0.0781480679 0.9938449885
5300268200.0 -0.0645922369 0.9945231738
5350267900.0 -0.0516691027 0.9953974638
5400267600.0 -0.035495322 0.9962726448
5450267300.0 -0.0220592917 0.9966331627
5500267000.0 -0.0067274742 0.9971657072
5550266700.0 0.0082179498 0.9972180863
5600266400.0 0.0241075498 0.9974317039
5650266100.0 0.0404562654 0.9968202583
5700265800.0 0.0548451516 0.9958168926
5750265500.0 0.0698618416 0.9952012353
5800265200.0 0.0834114504 0.9941699478
5850264900.0 0.0963639905 0.9928778671
5900264600.0 0.1127567827 0.9910732784
5950264300.0 0.125003993 0.9899846681
6000264000.0 0.1382288085 0.9879640521
6050263700.0 0.1499758457 0.9867304954
6100263400.0 0.1619318383 0.9847669545
6150263100.0 0.1766159183 0.9827992138
6200262800.0 0.186442863 0.980959644
6250262500.0 0.1987834084 0.9785787555
6300262200.0 0.2111125689 0.9762222892
6350261900.0 0.224084022 0.973572278
6400261600.0 0.2379712376 0.9702096844
6450261300.0 0.2488964861 0.967616675
6500261000.0 0.2624310924 0.9641760801
6550260700.0 0.2751253771 0.9597969838
6600260400.0 0.2891326148 0.9561506772
6650260100.0 0.3031160232 0.9517852094
6700259800.0 0.3151128818 0.9471794189
6750259500.0 0.3285736094 0.9422018971
6800259200.0 0.3424965496 0.937304211
6850258900.0 0.354961191 0.9320622102
6900258600.0 0.3672432366 0.9267611864
6950258300.0 0.3799528451 0.9214853105
7000258000.0 0.3914623601 0.9162041499
7050257700.0 0.4036036515 0.9105320867
7100257400.0 0.4167077545 0.9041758687
7150257100.0 0.4273731105 0.8985910501
7200256800.0 0.4406048889 0.8921909157
7250256500.0 0.4532834995 0.8855195492
7300256200.0 0.465929074 0.8785391779
7350255900.0 0.4790622447 0.871876525
7400255600.0 0.4928935778 0.8640288842
7450255300.0 0.5083865278 0.8549279938
7500255000.0 0.5209953231 0.8472402795
7550254700.0 0.5352752988 0.8385729751
7600254400.0 0.5477689247 0.8301028719
7650254100.0 0.5592770921 0.8218286631
7700253800.0 0.57106295 0.8139536151
7750253500.0 0.5820184522 0.8063168004
7800253200.0 0.5927519773 0.7983342692
7850252900.0 0.6021681474 0.7913149239
7900252600.0 0.6138254575 0.7826490233
7950252300.0 0.6222580904 0.7761082017
8000252000.0 0.6322502275 0.7685318861
8050251700.0 0.6426462072 0.7605033074
8100251400.0 0.6523353258 0.7526101458
8150251100.0 0.6626115438 0.7440939095
8200250800.0 0.6722008741 0.7357250001
8250250500.0 0.6807895863 0.7279798478
8300250200.0 0.6901392589 0.7196448571
8350249900.0 0.6993891129 0.7105893661
8400249600.0 0.7072080691 0.7028055756
8450249300.0 0.7159862149 0.6941380516
8500249000.0 0.7244214113 0.685197131
8550248700.0 0.7328040488 0.6762010682
8600248400.0 0.7411599858 0.6665615468
8650248100.0 0.7487473101 0.6572089826
8700247800.0 0.7582319022 0.6460841897
8750247500.0 0.7662820356 0.6361605935
8800247200.0 0.774121374 0.6259075443
8850246900.0 0.783195832 0.6143707656
8900246600.0 0.7915903039 0.6028458187
8950246300.0 0.8006205823 0.5904565891
9000246000.0 0.8093290292 0.5783941819
9050245700.0 0.8178911064 0.5661598284
9100245400.0 0.8262950619 0.5540913266
9150245100.0 0.8349406528 0.5409438287
9200244800.0 0.8444346855 0.5266959738
9250244500.0 0.8535175002 0.511728003
9300244200.0 0.8615786677 0.4981989858
9350243900.0 0.8693535337 0.4848986271
9400243600.0 0.8759415277 0.4731969873
9450243300.0 0.8813491951 0.4628435591
9500243000.0 0.8875333573 0.4510898706
9550242700.0 0.8916042336 0.4436040659
9600242400.0 0.8959092935 0.435898593
9650242100.0 0.8998555719 0.4290101816
9700241800.0 0.905119537 0.4202952774
9750241500.0 0.9092065675 0.4127670754
9800241200.0 0.9140529048 0.4035668523
9850240900.0 0.9203165488 0.3916433238
9900240600.0 0.9261935482 0.3798863588
9950240300.0 0.9330841594 0.3628837651
10000240000.0 0.9379928053 0.3510874878
10050239700.0 0.9440393885 0.3349660041
10100239400.0 0.9489162591 0.3186269176
10150239100.0 0.954054399 0.3030308041
10200238800.0 0.9584039743 0.2875374133
10250238500.0 0.9616821538 0.2739158585
10300238200.0 0.9648674203 0.2600537899
10350237900.0 0.967599152 0.2466984349
10400237600.0 0.9701444455 0.2333604371
10450237300.0 0.9729685219 0.2194607604
10500237000.0 0.9750266635 0.2072222806
10550236700.0 0.9771441461 0.1927798709
10600236400.0 0.9797243526 0.1791730679
10650236100.0 0.981784074 0.1641523446
10700235800.0 0.9836992122 0.151974653
10750235500.0 0.9856617327 0.1389732894
10800235200.0 0.9884134498 0.1240113592
10850234900.0 0.9900155927 0.1092725371
10900234600.0 0.9919875387 0.0945681806
10950234300.0 0.9938045284 0.0810520385
11000234000.0 0.995583759 0.0653973503
11050233700.0 0.9973327493 0.0485196583
11100233400.0 0.9990218677 0.0312110844
11150233100.0 0.9998778459 0.014125011
11200232800.0 1.000917368 -0.0016616788
11250232500.0 1.001838987 -0.019252517
11300232200.0 1.001982524 -0.0380143023
11350231900.0 1.00211376 -0.0546261285
11400231600.0 1.001756776 -0.0699213695
11450231300.0 1.000817092 -0.0860637431
11500231000.0 0.9994903816 -0.1023053277
11550230700.0 0.9977202149 -0.1144222321
11600230400.0 0.9966567741 -0.1279616213
11650230100.0 0.99484239 -0.1394235094
11700229800.0 0.992491664 -0.1544054619
11750229500.0 0.9903427536 -0.168832956
11800229200.0 0.9873878394 -0.182192141
11850228900.0 0.9835709222 -0.1941561929
11900228600.0 0.9799206772 -0.203468539
11950228300.0 0.9765005102 -0.2134183999
12000228000.0 0.9738393567 -0.2222053368
12050227700.0 0.969677221 -0.2349654262
12100227400.0 0.9666462853 -0.2462507114
12150227100.0 0.9616550231 -0.2625355888
12200226800.0 0.9581682038 -0.2736543704
12250226500.0 0.9546802444 -0.2863902561
12300226200.0 0.9498010027 -0.2990113867
12350225900.0 0.9450053625 -0.3131225956
12400225600.0 0.9404784708 -0.3246740634
12450225300.0 0.9357686366 -0.3375033377
12500225000.0 0.9302750538 -0.3520315132
12550224700.0 0.924977404 -0.3658602816
12600224400.0 0.9199065574 -0.3785548882
12650224100.0 0.9139528327 -0.3926845585
12700223800.0 0.9089329695 -0.4054835344
12750223500.0 0.9032724582 -0.4186999624
12800223200.0 0.897845104 -0.4313961765
12850222900.0 0.892689874 -0.4432854696
12900222600.0 0.8868338049 -0.4554973359
12950222300.0 0.8808486312 -0.4685044574
13000222000.0 0.8750855709 -0.4793355115
13050221700.0 0.8683109524 -0.4927226947
13100221400.0 0.8614501214 -0.5050143723
13150221100.0 0.8544475719 -0.5171444618
13200220800.0 0.8475426831 -0.5284344447
13250220500.0 0.8402123521 -0.5404835034
13300220200.0 0.8326127861 -0.5515931119
13350219900.0 0.8243921948 -0.5635903053
13400219600.0 0.8159911917 -0.5754704409
13450219300.0 0.8067487459 -0.5884385307
13500219000.0 0.7970208788 -0.601347896
13550218700.0 0.7869649828 -0.6140613988
13600218400.0 0.7774992284 -0.6262283722
13650218100.0 0.7681109684 -0.6367331912
13700217800.0 0.7567319222 -0.6489178249
13750217500.0 0.7477414896 -0.6590736729
13800217200.0 0.7356734913 -0.6709199447
13850216900.0 0.7253218252 -0.6821453828
13900216600.0 0.7157770908 -0.6900433504
13950216300.0 0.7049698541 -0.7002876034
14000216000.0 0.6951354389 -0.7098367927
14050215700.0 0.6860404575 -0.717441173
14100215400.0 0.6764712329 -0.726500056
14150215100.0 0.667149902 -0.7354811681
14200214800.0 0.6577791595 -0.7442939191
14250214500.0 0.6473270935 -0.753633442
14300214200.0 0.6368408748 -0.7632152393
14350213900.0 0.6259720776 -0.7725760644
14400213600.0 0.6139887901 -0.7826336951
14450213300.0 0.6012626288 -0.7925940086
14500213000.0 0.5879885864 -0.8025706177
14550212700.0 0.5750579644 -0.8118772699
14600212400.0 0.5630819225 -0.8206057411
14650212100.0 0.5507010326 -0.829421404
14700211800.0 0.5368671626 -0.8390417868
14750211500.0 0.5245122473 -0.8473413806
14800211200.0 0.5121567837 -0.8556092669
14850210900.0 0.4995854329 -0.8631891
14900210600.0 0.4864611394 -0.8711760983
14950210300.0 0.4730380174 -0.8788110872
15000210000.0 0.4603153746 -0.8856866427
15050209700.0 0.4480846753 -0.8918098256
15100209400.0 0.4352373059 -0.8975372715
15150209100.0 0.4230615425 -0.9027265737
15200208800.0 0.4102364923 -0.9083147572
15250208500.0 0.400389447 -0.9122637815
15300208200.0 0.3873569795 -0.9173803543
15350207900.0 0.3734928051 -0.9221288651
15400207600.0 0.3591995671 -0.9274993955
15450207300.0 0.344959481 -0.9326482411
15500207000.0 0.3296025981 -0.9369256835
15550206700.0 0.3154038719 -0.9419988232
15600206400.0 0.2990410161 -0.9470079186
15650206100.0 0.2837665089 -0.9509037598
15700205800.0 0.2699082846 -0.9544926843
15750205500.0 0.2560211804 -0.9581187726
15800205200.0 0.2419152286 -0.9614232386
15850204900.0 0.2277057369 -0.9647365486
15900204600.0 0.2126924254 -0.9684535484
15950204300.0 0.1985125788 -0.9715066798
16000204000.0 0.1842641509 -0.9746861289
16050203700.0 0.1685833721 -0.9774171681
16100203400.0 0.1538524143 -0.9797122221
16150203100.0 0.139280848 -0.9814824542
16200202800.0 0.1248202884 -0.9844009892
16250202500.0 0.1101063486 -0.9859014319
16300202200.0 0.0948191826 -0.9874707002
16350201900.0 0.0794928366 -0.9890987369
16400201600.0 0.0650580363 -0.9902566491
16450201300.0 0.0495680199 -0.9912059185
16500201000.0 0.0323323091 -0.9920066193
16550200700.0 0.0163535032 -0.992487076
16600200400.0 0.0005023604 -0.9926872525
16650200100.0 -0.0155833033 -0.9925784456
16700199800.0 -0.032154719 -0.9925580185
16750199500.0 -0.0515434663 -0.9915695245
16800199200.0 -0.0668432091 -0.9910482726
16850198900.0 -0.0825662185 -0.9893551251
16900198600.0 -0.0967787899 -0.9893261811
16950198300.0 -0.1100764608 -0.9881325088
17000198000.0 -0.1234014991 -0.9862812705
17050197700.0 -0.1358908443 -0.9840901113
17100197400.0 -0.1493794816 -0.9821569401
17150197100.0 -0.1620877429 -0.980029004
17200196800.0 -0.1744936248 -0.9778046448
17250196500.0 -0.1871258218 -0.9754772019
17300196200.0 -0.1997303412 -0.9729603107
17350195900.0 -0.2116716144 -0.9707495521
17400195600.0 -0.2235548727 -0.9681217521
17450195300.0 -0.2364655243 -0.9652615742
17500195000.0 -0.2494733132 -0.9621910146
17550194700.0 -0.2635569064 -0.9586541068
17600194400.0 -0.2770445503 -0.9545985811
17650194100.0 -0.2907209705 -0.950723964
17700193800.0 -0.3037918157 -0.946119343
17750193500.0 -0.3178352514 -0.9418734498
17800193200.0 -0.3320502535 -0.9363606724
17850192900.0 -0.3469844989 -0.9307109309
17900192600.0 -0.3622243232 -0.924860702
17950192300.0 -0.3776465949 -0.9178495494
18000192000.0 -0.3923215157 -0.9107383301
18050191700.0 -0.4063219422 -0.9025169729
18100191400.0 -0.4204050685 -0.894882024
18150191100.0 -0.4352248842 -0.8869154904
18200190800.0 -0.4520360351 -0.8777703254
18250190500.0 -0.4688822631 -0.868113955
18300190200.0 -0.4843093799 -0.8594155627
18350189900.0 -0.4996949551 -0.8507609989
18400189600.0 -0.5144459354 -0.8427341407
18450189300.0 -0.5278202947 -0.8343736683
18500189000.0 -0.5412464099 -0.8267804801
18550188700.0 -0.5542731611 -0.8190241188
18600188400.0 -0.565682024 -0.8119101988
18650188100.0 -0.5772135205 -0.8054634078
18700187800.0 -0.5880970299 -0.7986744194
18750187500.0 -0.5991010923 -0.7919621282
18800187200.0 -0.6098949398 -0.7850397375
18850186900.0 -0.6199342122 -0.7781406347
18900186600.0 -0.6304324212 -0.7706955282
18950186300.0 -0.6403762139 -0.7631117656
19000186000.0 -0.6477680552 -0.7568364923
19050185700.0 -0.6571089286 -0.7498208861
19100185400.0 -0.6671059318 -0.7415652167
19150185100.0 -0.6773087385 -0.7335135328
19200184800.0 -0.6864405587 -0.7250672463
19250184500.0 -0.696985565 -0.7157919671
19300184200.0 -0.7080236906 -0.7056826853
19350183900.0 -0.7185532693 -0.6965420764
19400183600.0 -0.7289512946 -0.686449166
19450183300.0 -0.7380490159 -0.6768386826
19500183000.0 -0.745625622 -0.6664773831
19550182700.0 -0.7557659934 -0.6554123375
19600182400.0 -0.7658047156 -0.6437215029
19650182100.0 -0.7765648833 -0.6314507031
19700181800.0 -0.7867625908 -0.6181843326
19750181500.0 -0.7973077078 -0.6043474285
19800181200.0 -0.8073429278 -0.5893739354
19850180900.0 -0.8169272355 -0.5738598132
19900180600.0 -0.8244843854 -0.5596533717
19950180300.0 -0.8337758903 -0.5433175587
20000180000.0 -0.8229523706 -0.5471775712
20050179700.0 -0.8314141675 -0.5338115834
20100179400.0 -0.8401271435 -0.5215211572
20150179100.0 -0.8475053553 -0.5095710303
20200178800.0 -0.8564132545 -0.4975875255
20250178500.0 -0.8656710812 -0.4857595154
20300178200.0 -0.8752631265 -0.4718148206
20350177900.0 -0.8847750529 -0.4574538249
20400177600.0 -0.8932569663 -0.4435067222
20450177300.0 -0.9021015656 -0.4291276953
20500177000.0 -0.9101685443 -0.4152085365
20550176700.0 -0.9180255799 -0.4015475593
20600176400.0 -0.9249055227 -0.3886601549
20650176100.0 -0.9312344948 -0.3761679124
20700175800.0 -0.9383430441 -0.3643311098
20750175500.0 -0.9450168499 -0.3523131462
20800175200.0 -0.9491250084 -0.3415427569
20850174900.0 -0.9536892697 -0.331232139
20900174600.0 -0.9580960929 -0.3208171526
20950174300.0 -0.9615202853 -0.3088039975
21000174000.0 -0.9638317467 -0.2991664199
21050173700.0 -0.9659078644 -0.2885815883
21100173400.0 -0.9695366403 -0.2785369172
21150173100.0 -0.9725835472 -0.2661386774
21200172800.0 -0.9767269953 -0.2530907983
21250172500.0 -0.9809464563 -0.2392529655
21300172200.0 -0.9845801394 -0.2251209172
21350171900.0 -0.9862782774 -0.2112996451
21400171600.0 -0.9883663646 -0.1969229902
21450171300.0 -0.989080893 -0.1830854603
21500171000.0 -0.988993286 -0.1669367913
21550170700.0 -0.9896377615 -0.1526726952
21600170400.0 -0.991014706 -0.1365089742
21650170100.0 -0.9907648328 -0.1219744951
21700169800.0 -0.990213639 -0.1058567439
21750169500.0 -0.9908705568 -0.0907989302
21800169200.0 -0.9903587635 -0.0726187247
21850168900.0 -0.9906229685 -0.0562553189
21900168600.0 -0.9895813191 -0.0404939435
21950168300.0 -0.9892171831 -0.0250278871
22000168000.0 -0.9889532792 -0.0102086658
22050167700.0 -0.9895503085 0.004457761
22100167400.0 -0.9903833359 0.0202280077
22150167100.0 -0.9912091229 0.036586388
22200166800.0 -0.991227033 0.0527961562
22250166500.0 -0.9908847212 0.0699556411
22300166200.0 -0.9898353994 0.0868131866
22350165900.0 -0.9896583782 0.1036798257
22400165600.0 -0.9869385437 0.1186226525
22450165300.0 -0.9859883371 0.1335715504
22500165000.0 -0.9843869307 0.1471612178
22550164700.0 -0.9825031166 0.1630764494
22600164400.0 -0.9804742306 0.1797655704
22650164100.0 -0.9776790021 0.1958157451
22700163800.0 -0.9752018602 0.2115196017
22750163500.0 -0.9717268245 0.227076217
22800163200.0 -0.9690862531 0.239876708
22850162900.0 -0.9665367563 0.2531115778
22900162600.0 -0.9644759114 0.2672556228
22950162300.0 -0.9629891941 0.2808294733
23000162000.0 -0.960830223 0.2936487032
23050161700.0 -0.9585506905 0.3068581292
23100161400.0 -0.9551767529 0.3204165828
23150161100.0 -0.9526062412 0.3333889169
23200160800.0 -0.949167664 0.3459472375
23250160500.0 -0.9469365825 0.3588706538
23300160200.0 -0.9445757871 0.3716103411
23350159900.0 -0.9397118344 0.3852449285
23400159600.0 -0.9348523901 0.3982163651
23450159300.0 -0.9301968037 0.4126106274
23500159000.0 -0.9251160639 0.4262931395
23550158700.0 -0.9204884625 0.4400640031
23600158400.0 -0.9141576226 0.4540937038
23650158100.0 -0.9068346146 0.4685694474
23700157800.0 -0.8986002787 0.4826336096
23750157500.0 -0.8889414425 0.4972763249
23800157200.0 -0.8790459303 0.5104564029
23850156900.0 -0.8695504169 0.5232663278
23900156600.0 -0.8597255911 0.5356903766
23950156300.0 -0.8498881948 0.5488217997
24000156000.0 -0.840321784 0.560772271
24050155700.0 -0.8301468366 0.5744391382
24100155400.0 -0.8194240961 0.5863176875
24150155100.0 -0.8085660815 0.5977701339
24200154800.0 -0.79786101 0.6092982067
24250154500.0 -0.7865263247 0.6219688531
24300154200.0 -0.7743766984 0.6337508863
24350153900.0 -0.7628569727 0.6450925108
24400153600.0 -0.7502025725 0.6555054099
24450153300.0 -0.7384414167 0.6657408417
24500153000.0 -0.7267758921 0.6757441742
24550152700.0 -0.7159487867 0.6859338176
24600152400.0 -0.7033777795 0.6952517512
