!Created with skrf (http://scikit-rf.org).
# Hz S RI R 50.0 
!freq ReS11 ImS11
300000.0 -0.9827519226 -0.0978227272
50299700.0 -1.000215394 0.016434811
100299400.0 -0.9979499827 0.0292353438
150299100.0 -1.002820657 0.0461785668
200298800.0 -0.9995963104 0.0593262902
250298500.0 -0.9973520665 0.0729819026
300298200.0 -0.9860163654 0.0886720801
350297900.0 -0.9939859728 0.0995578583
400297600.0 -0.9931745214 0.1159821456
450297300.0 -0.9909218309 0.1300485799
500297000.0 -0.9892802281 0.1447098022
550296700.0 -0.9843696612 0.1571437726
600296400.0 -1.017147498 0.1904595003
650296100.0 -0.9820581235 0.1871930096
700295800.0 -0.9791760377 0.2015509466
750295500.0 -0.9761686735 0.2155488574
800295200.0 -0.9727767538 0.2294730612
850294900.0 -0.9694934059 0.2435437634
900294600.0 -0.9654700807 0.2572545518
950294300.0 -0.9616717266 0.2708214997
1000294000.0 -0.9575289753 0.2849504928
1050293700.0 -0.9531753462 0.2987272138
1100293400.0 -0.9488806924 0.3129670708
1150293100.0 -0.9450367255 0.3249866749
1200292800.0 -0.9396296586 0.3394498799
1250292500.0 -0.9341992876 0.352454015
1300292200.0 -0.928422229 0.3657471406
1350291900.0 -0.9229378086 0.3798188828
1400291600.0 -0.9174858706 0.3928913035
1450291300.0 -0.9121187256 0.4053156728
1500291000.0 -0.905778857 0.4185064904
1550290700.0 -0.8992549943 0.431915465
1600290400.0 -0.89294722 0.4447672235
1650290100.0 -0.8865402272 0.4570034072
1700289800.0 -0.8795444426 0.4702442766
1750289500.0 -0.872502773 0.4825896142
1800289200.0 -0.8649832807 0.4954487066
1850288900.0 -0.8582448638 0.5070839736
1900288600.0 -0.8505762315 0.5199170979
1950288300.0 -0.84245849 0.532435814
2000288000.0 -0.8349136212 0.5439001852
2050287700.0 -0.8268115079 0.5563456951
2100287400.0 -0.8186486233 0.5677703046
2150287100.0 -0.8102298326 0.5799368196
2200286800.0 -0.8022176257 0.59042672
2250286500.0 -0.7933759884 0.6024134615
2300286200.0 -0.7844187783 0.6138180223
2350285900.0 -0.7757940955 0.6250783149
2400285600.0 -0.7666672838 0.6358806894
2450285300.0 -0.7579976444 0.6463459177
2500285000.0 -0.7482118326 0.6576686635
2550284700.0 -0.7393888431 0.6678921374
2600284400.0 -0.7299624707 0.6780997542
2650284100.0 -0.7206867835 0.6885552926
2700283800.0 -0.7102936211 0.6990764122
2750283500.0 -0.6998959738 0.7095147357
2800283200.0 -0.6900495331 0.7192996502
2850282900.0 -0.6799893104 0.729287231
2900282600.0 -0.6694803961 0.7388837324
2950282300.0 -0.6594484944 0.748043586
3000282000.0 -0.6485505185 0.7575592396
3050281700.0 -0.6376755666 0.7667728577
3100281400.0 -0.6258422481 0.7761320626
3150281100.0 -0.613938908 0.7854612701
3200280800.0 -0.6023700673 0.7940295468
3250280500.0 -0.5915546674 0.8016263946
3300280200.0 -0.5805400049 0.8094845098
3350279900.0 -0.5690167548 0.8170814701
3400279600.0 -0.5567043371 0.8246465997
3450279300.0 -0.5456562713 0.8319408562
3500279000.0 -0.5338366415 0.838840875
3550278700.0 -0.5213731437 0.8463989502
3600278400.0 -0.5090495113 0.8532514435
3650278100.0 -0.4957775371 0.8608885944
3700277800.0 -0.4836113103 0.8673075228
3750277500.0 -0.4716450192 0.8740642022
3800277200.0 -0.4591080718 0.8805950115
3850276900.0 -0.4468422882 0.8864624357
3900276600.0 -0.4356222739 0.8920137119
3950276300.0 -0.4230967242 0.8982958578
4000276000.0 -0.4110724795 0.9040681385
4050275700.0 -0.3980893667 0.9101580212
4100275400.0 -0.3869297994 0.9155314715
4150275100.0 -0.3740532759 0.9213728314
4200274800.0 -0.361075546 0.9265768242
4250274500.0 -0.3488087434 0.9317951789
4300274200.0 -0.3359432162 0.9369653125
4350273900.0 -0.3219008349 0.9423313503
4400273600.0 -0.3070180638 0.9475595318
4450273300.0 -0.2918238863 0.9526047457
4500273000.0 -0.2782613225 0.9568142231
4550272700.0 -0.2641437401 0.961030634
4600272400.0 -0.2485397063 0.9653752508
4650272100.0 -0.2367899538 0.9684714568
4700271800.0 -0.2233704544 0.9719378116
4750271500.0 -0.2117009121 0.9746783823
4800271200.0 -0.199035537 0.9774038629
4850270900.0 -0.1852669078 0.9802246333
4900270600.0 -0.1715022018 0.9825958468
4950270300.0 -0.1572902305 0.9850876082
5000270000.0 -0.1431459088 0.9871633128
5050269700.0 -0.1296983601 0.9886628378
5100269400.0 -0.1162941188 0.9904020147
5150269100.0 -0.1030662318 0.9918870901
5200268800.0 -0.0897618478 0.9932175044
5250268500.0 -0.0766754806 0.9937071178
5300268200.0 -0.0637115959 0.9943666995
5350267900.0 -0.0514172393 0.9953302733
5400267600.0 -0.0353484699 0.9964185879
5450267300.0 -0.0222973056 0.9970635352
5500267000.0 -0.0071633544 0.997105393
5550266700.0 0.0077040847 0.9973423542
5600266400.0 0.0234126584 0.9973510686
5650266100.0 0.0399329547 0.9969737875
5700265800.0 0.0540395203 0.996044598
5750265500.0 0.069279264 0.995367965
5800265200.0 0.0834802548 0.9941071084
5850264900.0 0.0969802102 0.9931653666
5900264600.0 0.1134826698 0.9917511217
5950264300.0 0.1256120138 0.9897508508
6000264000.0 0.1392824479 0.9873796784
6050263700.0 0.1520218517 0.9863105247
6100263400.0 0.1645977323 0.9843041485
6150263100.0 0.1793619112 0.9820273804
6200262800.0 0.1900061604 0.98025106
6250262500.0 0.2025661693 0.9776778067
6300262200.0 0.2156357954 0.9749558565
6350261900.0 0.2286646597 0.9721526584
6400261600.0 0.2424474572 0.9687359999
6450261300.0 0.2539759946 0.9658985837
6500261000.0 0.2665275701 0.9623685786
6550260700.0 0.2796158755 0.9584881444
6600260400.0 0.2928784425 0.9544022255
6650260100.0 0.3066967949 0.9498674371
6700259800.0 0.3186193763 0.9456695977
6750259500.0 0.3325042347 0.9409079983
6800259200.0 0.3456596769 0.9363640706
6850258900.0 0.3574476396 0.9308667197
6900258600.0 0.3693145438 0.9256357303
6950258300.0 0.3821326969 0.9207707135
7000258000.0 0.3942199659 0.9153183183
7050257700.0 0.4064370254 0.9093560984
7100257400.0 0.4190561239 0.9029914494
7150257100.0 0.4293200212 0.8976745825
7200256800.0 0.4420169905 0.8915858419
7250256500.0 0.4536183393 0.8851914652
7300256200.0 0.4666874302 0.8781576669
7350255900.0 0.4789376036 0.8714055482
7400255600.0 0.4924566602 0.8647231378
7450255300.0 0.5077162024 0.8555063998
7500255000.0 0.5191219777 0.8483587078
7550254700.0 0.5326911422 0.8398959221
7600254400.0 0.5453898295 0.8314550195
7650254100.0 0.5570557378 0.8237998711
7700253800.0 0.5688499569 0.8157145712
7750253500.0 0.5803073362 0.8077147045
7800253200.0 0.5908156129 0.7999314682
7850252900.0 0.6007562024 0.7929129681
7900252600.0 0.6124788739 0.7839399584
7950252300.0 0.6214100375 0.7773539696
8000252000.0 0.6315816345 0.769456732
8050251700.0 0.6422313342 0.7610621574
8100251400.0 0.6523494333 0.7530786672
8150251100.0 0.6623194234 0.7442479433
8200250800.0 0.6718202439 0.7360741487
8250250500.0 0.6807114584 0.7282176761
8300250200.0 0.6900632419 0.7194877869
8350249900.0 0.6989848685 0.7108382267
8400249600.0 0.707350191 0.7026268852
8450249300.0 0.7166016134 0.6934216756
8500249000.0 0.7252549259 0.6845871028
8550248700.0 0.7335894732 0.6755474774
8600248400.0 0.7421683894 0.6660577149
8650248100.0 0.7498130719 0.6567581452
8700247800.0 0.7592652716 0.6455756439
8750247500.0 0.7675536201 0.6355664072
8800247200.0 0.7756185491 0.625157108
8850246900.0 0.7843455844 0.6140448568
8900246600.0 0.7923741866 0.6028679343
8950246300.0 0.8021625795 0.5897929544
9000246000.0 0.8116751931 0.5772522726
9050245700.0 0.8206069804 0.564223128
9100245400.0 0.8291923534 0.5517481351
9150245100.0 0.8380910348 0.5383266056
9200244800.0 0.8479796427 0.5230647749
9250244500.0 0.8572503535 0.5078523815
9300244200.0 0.8660539728 0.4931751178
9350243900.0 0.8735351435 0.4790730189
9400243600.0 0.8802327473 0.4666543723
9450243300.0 0.8861869437 0.4545248502
9500243000.0 0.8926051188 0.4420062427
9550242700.0 0.8965310548 0.4339510515
9600242400.0 0.9003799511 0.4262728419
9650242100.0 0.9042512178 0.4196694875
9700241800.0 0.9086478881 0.411081062
9750241500.0 0.9126880525 0.403540807
9800241200.0 0.917269766 0.3939996184
9850240900.0 0.9229032862 0.3826147643
9900240600.0 0.9283904782 0.3710530431
9950240300.0 0.9350349426 0.3548412278
10000240000.0 0.9396644202 0.3430143092
10050239700.0 0.9446001239 0.3285172244
10100239400.0 0.9500038172 0.3131315216
10150239100.0 0.9541156225 0.2982225561
10200238800.0 0.9582374327 0.2835402844
10250238500.0 0.9617198758 0.2700923118
10300238200.0 0.9649106546 0.2562320863
10350237900.0 0.9676964548 0.2434861972
10400237600.0 0.9700309684 0.2302103794
10450237300.0 0.9728796338 0.2165250264
10500237000.0 0.9749197834 0.2045475949
10550236700.0 0.9774515161 0.1903334868
10600236400.0 0.9799824337 0.1767848741
10650236100.0 0.9814245467 0.1623746005
10700235800.0 0.9835398765 0.1509045337
10750235500.0 0.9862312726 0.1372897065
10800235200.0 0.9877187298 0.1234607985
10850234900.0 0.9899078687 0.1088652124
10900234600.0 0.991918017 0.0942516079
10950234300.0 0.9935400867 0.0810538293
11000234000.0 0.9951799926 0.0661023362
11050233700.0 0.9969353596 0.0500547744
11100233400.0 0.998177168 0.0325041381
11150233100.0 0.9993146521 0.0163037885
11200232800.0 0.9998149869 0.0011561517
11250232500.0 1.000780513 -0.0149220082
11300232200.0 1.001576815 -0.0329829407
11350231900.0 1.001349083 -0.0484804173
11400231600.0 1.001204732 -0.0637055001
11450231300.0 1.000279894 -0.0790003193
11500231000.0 0.9993918028 -0.0963899648
11550230700.0 0.9976031548 -0.109286766
11600230400.0 0.9964118275 -0.1228796564
11650230100.0 0.9944694246 -0.1340463046
11700229800.0 0.9923238445 -0.1489997804
11750229500.0 0.9899153258 -0.1639582406
11800229200.0 0.9873196934 -0.1779461357
11850228900.0 0.9837139952 -0.1905981135
11900228600.0 0.9800308608 -0.2006056846
11950228300.0 0.9766440321 -0.2112380718
12000228000.0 0.9741123917 -0.2203154572
12050227700.0 0.9703105144 -0.2331769045
12100227400.0 0.9672355849 -0.243942112
12150227100.0 0.9625756848 -0.2606524523
12200226800.0 0.9587034293 -0.2716196108
12250226500.0 0.9545538121 -0.2848187502
12300226200.0 0.9506581106 -0.2964493243
12350225900.0 0.9462200815 -0.3108222199
12400225600.0 0.9415260242 -0.3229632586
12450225300.0 0.937208063 -0.3352789058
12500225000.0 0.9317060613 -0.3498057904
12550224700.0 0.9266355328 -0.36375102
12600224400.0 0.9218858441 -0.3760054916
12650224100.0 0.915991515 -0.3902838883
12700223800.0 0.9108102491 -0.4029490476
12750223500.0 0.9053436675 -0.4157255631
12800223200.0 0.9000673291 -0.4280648129
12850222900.0 0.8945380181 -0.4406542637
12900222600.0 0.8886773404 -0.4522188122
12950222300.0 0.8826585542 -0.4656945876
13000222000.0 0.8766551809 -0.4771316711
13050221700.0 0.869740039 -0.4890579012
13100221400.0 0.8632873438 -0.5018690948
13150221100.0 0.8561039501 -0.5139307933
13200220800.0 0.8486231616 -0.5257085504
13250220500.0 0.8416851601 -0.5376222315
13300220200.0 0.8339333537 -0.5489983896
13350219900.0 0.8257708699 -0.5612133772
13400219600.0 0.8173850521 -0.5734920516
13450219300.0 0.8074630286 -0.5871051189
13500219000.0 0.7974012743 -0.6012236106
13550218700.0 0.7871862792 -0.6135700241
13600218400.0 0.7767237682 -0.62589108
13650218100.0 0.7674563753 -0.6370921194
13700217800.0 0.7561923793 -0.6492025917
13750217500.0 0.746001141 -0.661352459
13800217200.0 0.7347396835 -0.6725405074
13850216900.0 0.7240432614 -0.684330745
13900216600.0 0.7136397313 -0.6930822228
13950216300.0 0.7027863192 -0.7030660801
14000216000.0 0.6932010282 -0.7118677325
14050215700.0 0.683683137 -0.7208078882
14100215400.0 0.6739658583 -0.7299509369
14150215100.0 0.664919589 -0.7384841855
14200214800.0 0.6554941536 -0.7466561427
14250214500.0 0.6455872601 -0.755845944
14300214200.0 0.6352276457 -0.7650556552
14350213900.0 0.6243813501 -0.7744186961
14400213600.0 0.6126398503 -0.7837254073
14450213300.0 0.5991859421 -0.7944227802
14500213000.0 0.5862095617 -0.8038226634
14550212700.0 0.5742896539 -0.8136760858
14600212400.0 0.5620059657 -0.8219922113
14650212100.0 0.5485485083 -0.8306285029
14700211800.0 0.535237962 -0.8401584613
14750211500.0 0.5226118136 -0.8483190556
14800211200.0 0.5104470424 -0.8562281468
14850210900.0 0.4982030691 -0.8637004358
14900210600.0 0.4847732449 -0.871717833
14950210300.0 0.4712425449 -0.8793643342
15000210000.0 0.4582857298 -0.8864210869
15050209700.0 0.4459733955 -0.8925049146
15100209400.0 0.4328726825 -0.8986131712
15150209100.0 0.4204375267 -0.903897448
15200208800.0 0.4074677633 -0.9096369231
15250208500.0 0.395131266 -0.9144497016
15300208200.0 0.3835059175 -0.9186771002
15350207900.0 0.3706699066 -0.9231723603
15400207600.0 0.35578499 -0.9294022746
15450207300.0 0.3409662946 -0.9338434482
15500207000.0 0.3263149457 -0.9384772957
15550206700.0 0.3106954961 -0.943574643
15600206400.0 0.2950604057 -0.948388253
15650206100.0 0.2800956982 -0.9521917405
15700205800.0 0.2654874557 -0.9563547298
15750205500.0 0.2510889559 -0.9597174965
15800205200.0 0.2368670667 -0.963078882
15850204900.0 0.2224131839 -0.966482246
15900204600.0 0.2074429296 -0.9700309909
15950204300.0 0.1936137035 -0.9728631689
16000204000.0 0.180029116 -0.9756124627
16050203700.0 0.1649652297 -0.9783023512
16100203400.0 0.1509145781 -0.980866611
16150203100.0 0.1367809691 -0.9827095139
16200202800.0 0.1222129398 -0.9847186311
16250202500.0 0.1076499403 -0.9861117394
16300202200.0 0.0924579111 -0.9880931586
16350201900.0 0.0781262429 -0.989306818
16400201600.0 0.063582164 -0.9903533363
16450201300.0 0.0485010586 -0.9912151402
16500201000.0 0.0321340643 -0.9921667192
16550200700.0 0.0163195034 -0.9924354343
16600200400.0 0.000450628 -0.992499516
16650200100.0 -0.0159315596 -0.9925565017
16700199800.0 -0.0325611054 -0.9922770449
16750199500.0 -0.0513327909 -0.9912832884
16800199200.0 -0.0673905061 -0.9909088943
16850198900.0 -0.0824468356 -0.9897580847
16900198600.0 -0.096694753 -0.9891120087
16950198300.0 -0.1095968682 -0.9880063565
17000198000.0 -0.1229074253 -0.9858883254
17050197700.0 -0.136340611 -0.9837545382
17100197400.0 -0.1488103501 -0.9815382677
17150197100.0 -0.1622353641 -0.9793339451
17200196800.0 -0.1750556069 -0.9778352465
17250196500.0 -0.1880229858 -0.9750018963
17300196200.0 -0.1999318249 -0.9729372623
17350195900.0 -0.21200278 -0.9703872093
17400195600.0 -0.2242523978 -0.9679704651
17450195300.0 -0.2374892878 -0.9649816128
17500195000.0 -0.2506644595 -0.9618353486
17550194700.0 -0.264621384 -0.9580916347
17600194400.0 -0.2788414085 -0.9544709943
17650194100.0 -0.2921728023 -0.9499723664
17700193800.0 -0.304978483 -0.9458991296
17750193500.0 -0.3192779665 -0.9409971308
17800193200.0 -0.3337972436 -0.936463675
17850192900.0 -0.3485217096 -0.9311880356
17900192600.0 -0.3636046894 -0.9248458468
17950192300.0 -0.3788918999 -0.917464103
18000192000.0 -0.3934076142 -0.9106015447
18050191700.0 -0.4071297933 -0.9026407348
18100191400.0 -0.4212822405 -0.895092288
18150191100.0 -0.4359146732 -0.8870774485
18200190800.0 -0.4525840631 -0.8781600752
18250190500.0 -0.46968061 -0.8685125416
18300190200.0 -0.4848689445 -0.8597648434
18350189900.0 -0.5000433045 -0.8513852612
18400189600.0 -0.5141054375 -0.8428297507
18450189300.0 -0.5279503114 -0.8355524689
18500189000.0 -0.5412657527 -0.8268042843
18550188700.0 -0.5540089613 -0.8189026633
18600188400.0 -0.5655438922 -0.8123097775
18650188100.0 -0.5770990043 -0.8056348849
18700187800.0 -0.5879687444 -0.7987186418
18750187500.0 -0.5986760712 -0.7921945777
18800187200.0 -0.6095099463 -0.7847635798
18850186900.0 -0.6200464434 -0.7775471464
18900186600.0 -0.6305049282 -0.7698096169
18950186300.0 -0.6408259693 -0.7618605581
19000186000.0 -0.6479112635 -0.7556084517
19050185700.0 -0.6576248509 -0.7481262569
19100185400.0 -0.66732404 -0.7396901197
19150185100.0 -0.6779833235 -0.730989154
19200184800.0 -0.6878988383 -0.7221939587
19250184500.0 -0.6979894628 -0.7132003338
19300184200.0 -0.7091838148 -0.7035309048
19350183900.0 -0.7200730227 -0.6937246416
19400183600.0 -0.7290551627 -0.683908119
19450183300.0 -0.7382742519 -0.6741446302
19500183000.0 -0.7465549548 -0.6643131449
19550182700.0 -0.7556305314 -0.6531859656
19600182400.0 -0.765843489 -0.6417653577
19650182100.0 -0.7765060993 -0.6295224055
19700181800.0 -0.787264282 -0.6167230789
19750181500.0 -0.7972141446 -0.6028770538
19800181200.0 -0.8075746432 -0.587925567
19850180900.0 -0.8170473297 -0.5729478291
19900180600.0 -0.8249211977 -0.5588072583
19950180300.0 -0.8339417527 -0.5426059125
20000180000.0 -0.8279024239 -0.5442924357
20050179700.0 -0.8354076899 -0.5314412101
20100179400.0 -0.8444358937 -0.5180473148
20150179100.0 -0.8523950351 -0.5052685137
20200178800.0 -0.8601223863 -0.4925488579
20250178500.0 -0.8699229741 -0.4789763958
20300178200.0 -0.8790121482 -0.4646224201
20350177900.0 -0.8881551146 -0.4504432123
20400177600.0 -0.8971025852 -0.4354663461
20450177300.0 -0.905081577 -0.4212515711
20500177000.0 -0.9130875914 -0.4074113624
20550176700.0 -0.9206308464 -0.3938891076
20600176400.0 -0.9275232705 -0.3804969925
20650176100.0 -0.9344279917 -0.3676707573
20700175800.0 -0.9411515939 -0.3559960554
20750175500.0 -0.9478209858 -0.3440278488
20800175200.0 -0.9528410814 -0.3322831588
20850174900.0 -0.9574686747 -0.3218502898
20900174600.0 -0.9617727212 -0.3095610346
20950174300.0 -0.9667965757 -0.2978976392
21000174000.0 -0.9692868129 -0.2865809158
21050173700.0 -0.9718415526 -0.2752809323
21100173400.0 -0.976833715 -0.2626936313
21150173100.0 -0.9813114333 -0.2496312773
21200172800.0 -0.9841816834 -0.2359248194
21250172500.0 -0.9876959259 -0.2224022528
21300172200.0 -0.9905715042 -0.2082859918
21350171900.0 -0.9920182614 -0.193972066
21400171600.0 -0.9932290065 -0.1795662947
21450171300.0 -0.9939884033 -0.1652803413
21500171000.0 -0.9935059755 -0.1497248037
21550170700.0 -0.9934727533 -0.1345161836
21600170400.0 -0.9938032963 -0.1194683797
21650170100.0 -0.9931812943 -0.102702493
21700169800.0 -0.9898014933 -0.0889143257
21750169500.0 -0.9888840169 -0.072845783
21800169200.0 -0.9881219413 -0.0571744497
21850168900.0 -0.98749875 -0.0401325986
21900168600.0 -0.9855797226 -0.0240428691
21950168300.0 -0.9843854277 -0.0080506479
22000168000.0 -0.9832241642 0.0064003484
22050167700.0 -0.9826343445 0.0205543405
22100167400.0 -0.9825789059 0.0356118682
22150167100.0 -0.9829905009 0.0508262349
22200166800.0 -0.9830682607 0.0671622426
22250166500.0 -0.982493915 0.084303412
22300166200.0 -0.9812805483 0.1006093254
22350165900.0 -0.9803539544 0.1172933918
22400165600.0 -0.9782821711 0.1331151382
22450165300.0 -0.9765343115 0.1472889035
22500165000.0 -0.9750365176 0.1603304051
22550164700.0 -0.9734391785 0.176223006
22600164400.0 -0.9722685474 0.1913561899
22650164100.0 -0.9694974935 0.2071814741
22700163800.0 -0.9663334956 0.2227625218
22750163500.0 -0.9642748261 0.2382849526
22800163200.0 -0.9617332534 0.2506965348
22850162900.0 -0.9591862402 0.2647685168
22900162600.0 -0.9580040787 0.2779876654
22950162300.0 -0.9570000436 0.2911228937
23000162000.0 -0.955639701 0.3029330526
23050161700.0 -0.9536784379 0.3154983287
23100161400.0 -0.9518937787 0.3281278282
23150161100.0 -0.9487331917 0.3398405256
23200160800.0 -0.9448856553 0.3524757336
23250160500.0 -0.9435178486 0.3640368692
23300160200.0 -0.9400475137 0.3760105517
23350159900.0 -0.9362495964 0.3895697841
23400159600.0 -0.931801687 0.4025035413
23450159300.0 -0.9273915491 0.4154376295
23500159000.0 -0.9227575518 0.4281871779
23550158700.0 -0.918109672 0.4410827002
23600158400.0 -0.9125541816 0.4539173207
23650158100.0 -0.9066065323 0.4679705793
23700157800.0 -0.8988823612 0.4814813832
23750157500.0 -0.8904983345 0.4954088457
23800157200.0 -0.8814837221 0.5080008763
23850156900.0 -0.8731450353 0.5212304387
23900156600.0 -0.8641717925 0.5332038292
23950156300.0 -0.8547571713 0.5459420305
24000156000.0 -0.8458715896 0.5578729527
24050155700.0 -0.8351595856 0.5697542754
24100155400.0 -0.8245985727 0.5816323572
24150155100.0 -0.8152239159 0.5931086828
24200154800.0 -0.8042952448 0.6047710737
24250154500.0 -0.7926975264 0.6167298934
24300154200.0 -0.7815880367 0.6279669653
24350153900.0 -0.7690503557 0.6388855656
24400153600.0 -0.7571100075 0.6491032122
24450153300.0 -0.7457202573 0.6590666469
24500153000.0 -0.7341228842 0.6688666317
24550152700.0 -0.723062247 0.6788763246
24600152400.0 -0.711598867 0.6878331711
24650152100.0 -0.7003439485 0.6961602441
