!Created with skrf (http://scikit-rf.org).
# Hz S RI R 50.0 
!freq ReS11 ImS11
300000.0 -0.983531903 -0.086724525
50299700.0 -0.9998551265 0.0165577491
100299400.0 -0.9979422766 0.0294102416
150299100.0 -1.002732593 0.0461596637
200298800.0 -0.9994258972 0.0594265504
250298500.0 -0.9973565452 0.072994325
300298200.0 -0.985751196 0.0887774478
350297900.0 -0.9937989633 0.0997919371
400297600.0 -0.9929633298 0.1163992924
450297300.0 -0.9907884484 0.1301654957
500297000.0 -0.9890440934 0.1450926568
550296700.0 -0.9840719125 0.1571869892
600296400.0 -1.016836318 0.1907006326
650296100.0 -0.9817665351 0.1872552353
700295800.0 -0.9787952533 0.2014834486
750295500.0 -0.9756663236 0.2156083085
800295200.0 -0.9723642586 0.2294127565
850294900.0 -0.9691212222 0.2436083514
900294600.0 -0.9652860172 0.2571716654
950294300.0 -0.9616270124 0.2708292974
1000294000.0 -0.9574783632 0.284848007
1050293700.0 -0.952907437 0.298562507
1100293400.0 -0.9486543527 0.3131684927
1150293100.0 -0.9449200543 0.3250058262
1200292800.0 -0.9394391077 0.339204617
1250292500.0 -0.9339454936 0.3527329153
1300292200.0 -0.9284164349 0.3658361354
1350291900.0 -0.9227486074 0.3798615896
1400291600.0 -0.9174487754 0.3927779367
1450291300.0 -0.9119151936 0.405115353
1500291000.0 -0.9054904792 0.4187567717
1550290700.0 -0.899160093 0.4317821631
1600290400.0 -0.8930376825 0.4447509606
1650290100.0 -0.8863361412 0.4568631991
1700289800.0 -0.8794286052 0.4702056172
1750289500.0 -0.8724118407 0.4825458894
1800289200.0 -0.8649585119 0.4953863294
1850288900.0 -0.8582814247 0.5068384102
1900288600.0 -0.8503514385 0.5196928308
1950288300.0 -0.8424247054 0.5323447901
2000288000.0 -0.8349488105 0.5436034397
2050287700.0 -0.8266733558 0.5559427123
2100287400.0 -0.8187750943 0.5676352072
2150287100.0 -0.8100506093 0.5801135934
2200286800.0 -0.8021593797 0.5901649924
2250286500.0 -0.7934884425 0.6020594884
2300286200.0 -0.784302851 0.6138648082
2350285900.0 -0.7754886834 0.6249316247
2400285600.0 -0.7664821387 0.6360055372
2450285300.0 -0.7579268645 0.6462525218
2500285000.0 -0.7482007759 0.6573896256
2550284700.0 -0.739326806 0.6678106229
2600284400.0 -0.7296928844 0.677943369
2650284100.0 -0.7206413636 0.6887305785
2700283800.0 -0.7098826136 0.6990210357
2750283500.0 -0.6998973494 0.7096040125
2800283200.0 -0.6897797724 0.7194803863
2850282900.0 -0.6796999082 0.7291352109
2900282600.0 -0.669680768 0.7387617163
2950282300.0 -0.6595387018 0.748111918
3000282000.0 -0.6485651444 0.7574169518
3050281700.0 -0.6375859216 0.7667421538
3100281400.0 -0.6258533626 0.7758755714
3150281100.0 -0.6140073069 0.7850464612
3200280800.0 -0.6023613909 0.7937984207
3250280500.0 -0.5918083264 0.8013969632
3300280200.0 -0.5804626128 0.8093019475
3350279900.0 -0.569193291 0.8168238336
3400279600.0 -0.5570650223 0.8246512956
3450279300.0 -0.545915241 0.8317126452
3500279000.0 -0.5339238859 0.8388404344
3550278700.0 -0.5212996101 0.8459181272
3600278400.0 -0.5092017307 0.8532103184
3650278100.0 -0.4959184163 0.86070807
3700277800.0 -0.4840344298 0.8674495236
3750277500.0 -0.4719499926 0.8737565367
3800277200.0 -0.4592108527 0.8803451108
3850276900.0 -0.4470030255 0.8863711729
3900276600.0 -0.4359355778 0.8919923575
3950276300.0 -0.4234067325 0.8983383222
4000276000.0 -0.4113261666 0.9043389124
4050275700.0 -0.3979902291 0.9103556843
4100275400.0 -0.3864766631 0.915639308
4150275100.0 -0.3738077815 0.9214519279
4200274800.0 -0.3610240121 0.9266595349
4250274500.0 -0.3488949719 0.9317637492
4300274200.0 -0.3354716412 0.9370473934
4350273900.0 -0.3217197577 0.9419917755
4400273600.0 -0.3073017505 0.9474037707
4450273300.0 -0.2918992039 0.952395564
4500273000.0 -0.2781781806 0.9567698662
4550272700.0 -0.2642057794 0.9609200363
4600272400.0 -0.2488827958 0.964976888
4650272100.0 -0.2368993267 0.9683124073
4700271800.0 -0.2236203869 0.9716772203
4750271500.0 -0.2117308051 0.9746177924
4800271200.0 -0.1990801713 0.9771886797
4850270900.0 -0.1851756369 0.9800172029
4900270600.0 -0.1714973923 0.982428877
4950270300.0 -0.1575771264 0.9849819457
5000270000.0 -0.1434941373 0.9871567692
5050269700.0 -0.1299469118 0.98867887
5100269400.0 -0.1163280828 0.9904365471
5150269100.0 -0.102987221 0.9922418639
5200268800.0 -0.0896538156 0.9930971687
5250268500.0 -0.0766745285 0.9937029159
5300268200.0 -0.0638413175 0.9946701253
5350267900.0 -0.0515945762 0.9952940062
5400267600.0 -0.0353691715 0.9963517363
5450267300.0 -0.0226853522 0.9967852753
5500267000.0 -0.0075170795 0.9969941326
5550266700.0 0.0071173567 0.9969995707
5600266400.0 0.0226625949 0.9971984065
5650266100.0 0.0389523986 0.9969099602
5700265800.0 0.0533695186 0.995858144
5750265500.0 0.0684900609 0.9948775622
5800265200.0 0.0828429619 0.9940299031
5850264900.0 0.0957218072 0.9929209334
5900264600.0 0.1120534603 0.9908657536
5950264300.0 0.1245973896 0.9895970647
6000264000.0 0.1386444034 0.9876687325
6050263700.0 0.1515253851 0.9863478119
6100263400.0 0.1641862415 0.9843360398
6150263100.0 0.1792197277 0.9821415038
6200262800.0 0.1894720624 0.9800045407
6250262500.0 0.2022466987 0.977541393
6300262200.0 0.2152187375 0.9745493509
6350261900.0 0.228269571 0.9717806534
6400261600.0 0.2422186547 0.9684240708
6450261300.0 0.2539156204 0.9658577997
6500261000.0 0.266606797 0.9622755077
6550260700.0 0.2795513036 0.9584222218
6600260400.0 0.2925168254 0.9541384078
6650260100.0 0.3067738025 0.9501105434
6700259800.0 0.318356019 0.9453804932
6750259500.0 0.3323570653 0.9408346218
6800259200.0 0.3451586919 0.9360405187
6850258900.0 0.3572556334 0.9307700542
6900258600.0 0.3694560654 0.9259216634
6950258300.0 0.3820234178 0.9205184495
7000258000.0 0.3940398203 0.9154223963
7050257700.0 0.4063374241 0.9092759274
7100257400.0 0.4190714611 0.9031594978
7150257100.0 0.4292301222 0.8980208282
7200256800.0 0.4420210924 0.8917195934
7250256500.0 0.4535564542 0.8852504691
7300256200.0 0.4664120618 0.8785018487
7350255900.0 0.4789910714 0.8720567011
7400255600.0 0.4919036113 0.8649051961
7450255300.0 0.5062818806 0.8557699423
7500255000.0 0.5180520253 0.8489221114
7550254700.0 0.5313794646 0.8402874982
7600254400.0 0.5443223991 0.83187297
7650254100.0 0.5560075231 0.824607289
7700253800.0 0.568138003 0.8162838205
7750253500.0 0.5792578646 0.8084879876
7800253200.0 0.5901311784 0.8006679621
7850252900.0 0.5998247418 0.793504502
7900252600.0 0.6117687945 0.7845798534
7950252300.0 0.62065603 0.7779136552
8000252000.0 0.6310526758 0.7698824442
8050251700.0 0.641675697 0.7615367256
8100251400.0 0.6515692784 0.7531083169
8150251100.0 0.6619153082 0.7444336332
8200250800.0 0.6715028959 0.7365036284
8250250500.0 0.6805052253 0.7282482772
8300250200.0 0.6897308245 0.7195107973
8350249900.0 0.6988523138 0.710995275
8400249600.0 0.7072746122 0.7026152794
8450249300.0 0.7165102264 0.6933055459
8500249000.0 0.7252526442 0.6842404548
8550248700.0 0.7336602103 0.6751815782
8600248400.0 0.7420824273 0.6656279429
8650248100.0 0.7499297649 0.6564193066
8700247800.0 0.7593412426 0.6454054868
8750247500.0 0.767490311 0.6355686391
8800247200.0 0.7756894814 0.6253121815
8850246900.0 0.7841630064 0.6138604009
8900246600.0 0.7927328224 0.6027738663
8950246300.0 0.8020699821 0.5900430682
9000246000.0 0.8112128617 0.5776057674
9050245700.0 0.82053267 0.5648673348
9100245400.0 0.8284536311 0.5522832732
9150245100.0 0.8378651699 0.5393807213
9200244800.0 0.8472726501 0.5245061043
9250244500.0 0.8565472712 0.5092051006
9300244200.0 0.8647228496 0.4949280971
9350243900.0 0.8726602478 0.4809418755
9400243600.0 0.879558718 0.4683165803
9450243300.0 0.8855524308 0.4559682217
9500243000.0 0.8920684755 0.4432921054
9550242700.0 0.8962203393 0.4346621038
9600242400.0 0.9000922385 0.4267285773
9650242100.0 0.9039078017 0.4198446325
9700241800.0 0.9086651104 0.4108759039
9750241500.0 0.9123859674 0.4029574782
9800241200.0 0.9173094131 0.3936828587
9850240900.0 0.9228153292 0.3818381487
9900240600.0 0.9279519264 0.3702848248
9950240300.0 0.9341520435 0.354727836
10000240000.0 0.9389237642 0.3430428412
10050239700.0 0.9442969683 0.3279533467
10100239400.0 0.9494519599 0.3126840098
10150239100.0 0.9538438527 0.2982588036
10200238800.0 0.958051167 0.2833871499
10250238500.0 0.9615070547 0.2699740683
10300238200.0 0.9647251047 0.2561797794
10350237900.0 0.9675438816 0.243020711
10400237600.0 0.970044076 0.2298956996
10450237300.0 0.9726924066 0.2165794589
10500237000.0 0.9750928425 0.2043416943
10550236700.0 0.9772541782 0.1911603092
10600236400.0 0.9794440408 0.1772417341
10650236100.0 0.9812890436 0.1624746865
10700235800.0 0.9834255659 0.150955099
10750235500.0 0.9859847906 0.1373363411
10800235200.0 0.9878632443 0.123937938
10850234900.0 0.9897168708 0.1093533735
10900234600.0 0.9917914508 0.0947136958
10950234300.0 0.993453691 0.0815572908
11000234000.0 0.9951090715 0.0669158281
11050233700.0 0.9967484487 0.0510162303
11100233400.0 0.9981423999 0.0340774195
11150233100.0 0.9988526399 0.0181057491
11200232800.0 0.9995999666 0.0025906265
11250232500.0 1.000369915 -0.0137197901
11300232200.0 1.000854537 -0.0304583336
11350231900.0 1.000744332 -0.0467364109
11400231600.0 1.000417455 -0.0622369264
11450231300.0 0.9998852745 -0.0783784717
11500231000.0 0.9986927498 -0.0945931026
11550230700.0 0.9971940879 -0.1088022397
11600230400.0 0.995728582 -0.1216264191
11650230100.0 0.9937931463 -0.1334877611
11700229800.0 0.9919118353 -0.1477841906
11750229500.0 0.9895597412 -0.1629655265
11800229200.0 0.9867025058 -0.176680039
11850228900.0 0.9832532825 -0.1893468054
11900228600.0 0.9797169124 -0.1995978929
11950228300.0 0.9763670621 -0.2106942224
12000228000.0 0.9738791979 -0.2204863783
12050227700.0 0.9701699934 -0.2331285023
12100227400.0 0.967282857 -0.2434297426
12150227100.0 0.9624959876 -0.2605929089
12200226800.0 0.9592459516 -0.2708900278
12250226500.0 0.9549732018 -0.284310412
12300226200.0 0.9507360161 -0.2956435944
12350225900.0 0.9460328085 -0.3099974375
12400225600.0 0.9417010924 -0.3226682873
12450225300.0 0.9375858407 -0.3348126612
12500225000.0 0.9325264663 -0.3493962557
12550224700.0 0.9270833491 -0.3628577589
12600224400.0 0.9224388012 -0.3754181035
12650224100.0 0.9164399577 -0.3894149093
12700223800.0 0.9112271033 -0.4020121782
12750223500.0 0.9058117006 -0.4147766628
12800223200.0 0.9006345101 -0.4270218826
12850222900.0 0.895102548 -0.4397513461
12900222600.0 0.8895480719 -0.4514401459
12950222300.0 0.8827530811 -0.4647770606
13000222000.0 0.8767982387 -0.4758499652
13050221700.0 0.869760633 -0.488725288
13100221400.0 0.8631293339 -0.5008012596
13150221100.0 0.8562497841 -0.5131716232
13200220800.0 0.8488833391 -0.5248099855
13250220500.0 0.8417584587 -0.5371746825
13300220200.0 0.8339580853 -0.5483396322
13350219900.0 0.825660426 -0.5605623823
13400219600.0 0.8171839078 -0.5728936573
13450219300.0 0.8076893117 -0.586360248
13500219000.0 0.7977068189 -0.6003334233
13550218700.0 0.7876745894 -0.6131834845
13600218400.0 0.7770180943 -0.6253826566
13650218100.0 0.7680649851 -0.6363976675
13700217800.0 0.7560718783 -0.6490114474
13750217500.0 0.746226453 -0.6599895892
13800217200.0 0.7359047069 -0.6722824538
13850216900.0 0.7244671504 -0.6830978182
13900216600.0 0.7149354776 -0.6923202182
13950216300.0 0.7041144247 -0.7025627337
14000216000.0 0.6937754501 -0.7121976455
14050215700.0 0.6845295 -0.7206813923
14100215400.0 0.6745692944 -0.729450287
14150215100.0 0.6656418888 -0.7380860821
14200214800.0 0.6563568868 -0.7461607395
14250214500.0 0.6461734664 -0.755552911
14300214200.0 0.6357357037 -0.7647595418
14350213900.0 0.6247289469 -0.774108154
14400213600.0 0.6135436404 -0.783351805
14450213300.0 0.6006397423 -0.7932217024
14500213000.0 0.5879193388 -0.8030130597
14550212700.0 0.5753952728 -0.8123581879
14600212400.0 0.5631927535 -0.8212047289
14650212100.0 0.549943167 -0.8298246187
14700211800.0 0.5365847783 -0.8391002496
14750211500.0 0.5241576154 -0.847515575
14800211200.0 0.5118780168 -0.8551717884
14850210900.0 0.4995217845 -0.8628760681
14900210600.0 0.4863135413 -0.8705839143
14950210300.0 0.4728190626 -0.878413049
15000210000.0 0.4596145755 -0.8852836352
15050209700.0 0.4467608197 -0.8915387377
15100209400.0 0.4337857158 -0.8973675789
15150209100.0 0.4216028791 -0.9033439404
15200208800.0 0.4086858828 -0.9088731634
15250208500.0 0.3971749765 -0.9132664811
15300208200.0 0.3839908566 -0.9185609347
15350207900.0 0.3702209198 -0.9232974876
15400207600.0 0.3552222239 -0.9293038318
15450207300.0 0.3409986015 -0.9345989725
15500207000.0 0.3267007098 -0.9383950457
15550206700.0 0.3117014202 -0.9429286388
15600206400.0 0.2959433649 -0.9484427838
15650206100.0 0.2804637968 -0.9522750943
15700205800.0 0.266702178 -0.9559747244
15750205500.0 0.2522817605 -0.9597100618
15800205200.0 0.2378616672 -0.9630895239
15850204900.0 0.2237246164 -0.9663314855
15900204600.0 0.2089534116 -0.969922874
15950204300.0 0.1950149273 -0.9727314469
16000204000.0 0.1811756861 -0.9756114152
16050203700.0 0.1666762329 -0.9782987099
16100203400.0 0.1527662212 -0.980134255
16150203100.0 0.1384587098 -0.9827428065
16200202800.0 0.1245506952 -0.9846171399
16250202500.0 0.1098649454 -0.9864884772
16300202200.0 0.0948161192 -0.9875451218
16350201900.0 0.0798160361 -0.989265533
16400201600.0 0.0656869547 -0.9902395362
16450201300.0 0.0504438139 -0.9912579086
16500201000.0 0.0340301535 -0.9921168974
16550200700.0 0.0183406121 -0.9926947293
16600200400.0 0.0023919299 -0.9927495001
16650200100.0 -0.0135846987 -0.9925524291
16700199800.0 -0.0302497139 -0.9922388592
16750199500.0 -0.0492522974 -0.9916636336
16800199200.0 -0.065122034 -0.990908387
16850198900.0 -0.0805791342 -0.9895962884
16900198600.0 -0.0941558041 -0.9883462444
16950198300.0 -0.1080659512 -0.9876798025
17000198000.0 -0.1215349529 -0.9854695025
17050197700.0 -0.1346090165 -0.9838933432
17100197400.0 -0.147321145 -0.9818209339
17150197100.0 -0.1606240129 -0.9798552391
17200196800.0 -0.1728513705 -0.9779012869
17250196500.0 -0.1868984735 -0.9750252929
17300196200.0 -0.1991387345 -0.9728463055
17350195900.0 -0.2114051891 -0.970522296
17400195600.0 -0.2236423626 -0.9678803015
17450195300.0 -0.2367925121 -0.9651439013
17500195000.0 -0.2499543227 -0.9617599
17550194700.0 -0.2637133015 -0.9578539275
17600194400.0 -0.2778478731 -0.9540207282
17650194100.0 -0.2916855866 -0.9500267194
17700193800.0 -0.3045935625 -0.9459049634
17750193500.0 -0.3184698296 -0.9411505878
17800193200.0 -0.3322164242 -0.9360465069
17850192900.0 -0.3476506429 -0.9311184803
17900192600.0 -0.3622918545 -0.9249182628
17950192300.0 -0.3773390312 -0.9180577486
18000192000.0 -0.3920878989 -0.911121787
18050191700.0 -0.4058911456 -0.9034004257
18100191400.0 -0.419991078 -0.8958183722
18150191100.0 -0.4347160363 -0.8879361017
18200190800.0 -0.4512820744 -0.8791048358
18250190500.0 -0.4681262058 -0.8699556828
18300190200.0 -0.483228135 -0.8610574215
18350189900.0 -0.4979235434 -0.8530582299
18400189600.0 -0.5120069767 -0.8446522836
18450189300.0 -0.5260474419 -0.8362150329
18500189000.0 -0.539357685 -0.8283511774
18550188700.0 -0.552192466 -0.8205006327
18600188400.0 -0.5641574509 -0.813709354
18650188100.0 -0.575128174 -0.8068172867
18700187800.0 -0.586821909 -0.7997028401
18750187500.0 -0.5974231727 -0.7926549594
18800187200.0 -0.6084240698 -0.7853222817
18850186900.0 -0.6189296109 -0.7778351738
18900186600.0 -0.6293043415 -0.7704215445
18950186300.0 -0.6398723901 -0.7619375621
19000186000.0 -0.6477491779 -0.7558694646
19050185700.0 -0.6572591369 -0.7478755359
19100185400.0 -0.6676144277 -0.7393637161
19150185100.0 -0.6778777355 -0.730682588
19200184800.0 -0.6868940092 -0.7225106278
19250184500.0 -0.6982076921 -0.7128315128
19300184200.0 -0.7080400314 -0.7035625917
19350183900.0 -0.7197582951 -0.6929717743
19400183600.0 -0.7280604556 -0.6832363574
19450183300.0 -0.7379000034 -0.6733965946
19500183000.0 -0.7463045849 -0.6636123445
19550182700.0 -0.7556186733 -0.652029878
19600182400.0 -0.7656308758 -0.6412360816
19650182100.0 -0.7759476096 -0.6292638171
19700181800.0 -0.7863384369 -0.6165433205
19750181500.0 -0.7963355862 -0.6028139702
19800181200.0 -0.8065559073 -0.5883269868
19850180900.0 -0.8159352125 -0.5735784035
19900180600.0 -0.8236814946 -0.5596381616
19950180300.0 -0.8327317117 -0.5438856284
20000180000.0 -0.8277938023 -0.545001947
20050179700.0 -0.8354314712 -0.5308483756
20100179400.0 -0.8442594642 -0.5175297656
20150179100.0 -0.852016361 -0.5061389245
20200178800.0 -0.8612988037 -0.4923726951
20250178500.0 -0.8703293496 -0.4793610413
20300178200.0 -0.8793914635 -0.464346705
20350177900.0 -0.8874768729 -0.4505384966
20400177600.0 -0.8966091704 -0.4359431647
20450177300.0 -0.9040676891 -0.421931082
20500177000.0 -0.9120027403 -0.4078861512
20550176700.0 -0.9196486531 -0.3945142365
20600176400.0 -0.926600479 -0.3808542184
20650176100.0 -0.9328199066 -0.3678503344
20700175800.0 -0.9396316335 -0.3560714363
20750175500.0 -0.9463222325 -0.3440232955
20800175200.0 -0.9509157917 -0.3336415275
20850174900.0 -0.9558663751 -0.3207562107
20900174600.0 -0.9617828204 -0.3095409363
20950174300.0 -0.9653780614 -0.2967617903
21000174000.0 -0.9688604558 -0.2857260307
21050173700.0 -0.9713538652 -0.2741777238
21100173400.0 -0.9759267142 -0.2613338012
21150173100.0 -0.9799812305 -0.2488356617
21200172800.0 -0.983291514 -0.2352912263
21250172500.0 -0.986213005 -0.2216783913
21300172200.0 -0.989113885 -0.2068271316
21350171900.0 -0.9908119097 -0.1923472459
21400171600.0 -0.9921751339 -0.1779041375
21450171300.0 -0.9933635842 -0.1644339845
21500171000.0 -0.9928670348 -0.1484973808
21550170700.0 -0.9936105557 -0.133629628
21600170400.0 -0.993265632 -0.1179680257
21650170100.0 -0.99203532 -0.1032977184
21700169800.0 -0.9898792017 -0.0874990038
21750169500.0 -0.9901862881 -0.0710929378
21800169200.0 -0.9882396471 -0.0561347293
21850168900.0 -0.9879449334 -0.0399606908
21900168600.0 -0.9862434029 -0.0233902242
21950168300.0 -0.9844303873 -0.0082496057
22000168000.0 -0.9835662106 0.0067579999
22050167700.0 -0.9830569642 0.0207037003
22100167400.0 -0.9825956717 0.0356142678
22150167100.0 -0.9829120357 0.0508563835
22200166800.0 -0.9834969332 0.0665845743
22250166500.0 -0.9828597312 0.0833840255
22300166200.0 -0.9810422739 0.0996217891
22350165900.0 -0.9807191627 0.1154816787
22400165600.0 -0.9785327761 0.1319726645
22450165300.0 -0.9772488182 0.1469252978
22500165000.0 -0.9750669418 0.1601397693
22550164700.0 -0.9733807904 0.1753103869
22600164400.0 -0.9720539269 0.1913373438
22650164100.0 -0.9694417872 0.2048059114
22700163800.0 -0.9671482738 0.2211310679
22750163500.0 -0.9642210622 0.236698189
22800163200.0 -0.9613169805 0.2496335978
22850162900.0 -0.9592114397 0.2632741608
22900162600.0 -0.9573435569 0.2765668553
22950162300.0 -0.9562901793 0.2895232345
23000162000.0 -0.9550824136 0.3013163883
23050161700.0 -0.9529781474 0.3140202221
23100161400.0 -0.9505575922 0.3268376947
23150161100.0 -0.9479785726 0.3397895892
23200160800.0 -0.9454523447 0.3515034722
23250160500.0 -0.9419312744 0.3626243366
23300160200.0 -0.9397214931 0.3745082265
23350159900.0 -0.9357947438 0.3881635652
23400159600.0 -0.9313521864 0.4004219046
23450159300.0 -0.9257922766 0.4140343079
23500159000.0 -0.9216079422 0.4267926307
23550158700.0 -0.9171383863 0.4394137124
23600158400.0 -0.9122535951 0.4520300322
23650158100.0 -0.9056707454 0.465721604
23700157800.0 -0.8985096499 0.4790945042
23750157500.0 -0.8900724251 0.4926271828
23800157200.0 -0.8816657983 0.5058293937
23850156900.0 -0.8728087698 0.5185774711
23900156600.0 -0.8641037734 0.5308346177
23950156300.0 -0.8552081364 0.5423459733
24000156000.0 -0.8457812169 0.555168133
24050155700.0 -0.8353439245 0.5665750753
24100155400.0 -0.8256965938 0.5787767567
24150155100.0 -0.8154767039 0.5905729063
24200154800.0 -0.8046961664 0.6024904796
24250154500.0 -0.7934577282 0.6137813977
24300154200.0 -0.782474956 0.6251578616
24350153900.0 -0.771060395 0.6357474984
24400153600.0 -0.7591410021 0.6462324064
24450153300.0 -0.7470952313 0.6563229158
24500153000.0 -0.7359524621 0.6664046429
24550152700.0 -0.7250517232 0.6763034676
24600152400.0 -0.7133573469 0.6853473127
24650152100.0 -0.7015489484 0.6940266279
