!Created with skrf (http://scikit-rf.org).
# Hz S RI R 50.0 
!freq ReS11 ImS11
300000.0 -0.9737179851 -0.1201069128
50299700.0 -0.9999545744 0.015103415
100299400.0 -0.9979300477 0.0280072689
150299100.0 -1.002827768 0.0447846458
200298800.0 -0.9994696232 0.0582520871
250298500.0 -0.9974022316 0.0717348647
300298200.0 -0.9860288002 0.0876264869
350297900.0 -0.9940306367 0.0983164748
400297600.0 -0.9931212956 0.1149267248
450297300.0 -0.9908788247 0.1286990262
500297000.0 -0.9892478317 0.1432771546
550296700.0 -0.9842301388 0.1558264164
600296400.0 -1.017246617 0.1892674604
650296100.0 -0.9822780452 0.1858638878
700295800.0 -0.9793552755 0.2000286897
750295500.0 -0.9763648407 0.2142457821
800295200.0 -0.9730793763 0.2280602303
850294900.0 -0.969661826 0.2421253833
900294600.0 -0.9657556076 0.2557506864
950294300.0 -0.9620191886 0.2695160176
1000294000.0 -0.9581917556 0.2834041737
1050293700.0 -0.9537670173 0.2971279809
1100293400.0 -0.9492258634 0.3116468591
1150293100.0 -0.9455234837 0.3235097714
1200292800.0 -0.9401256394 0.3379852461
1250292500.0 -0.9346465858 0.3514155929
1300292200.0 -0.9288755561 0.3644206721
1350291900.0 -0.9235904896 0.378759053
1400291600.0 -0.9178180676 0.3918107251
1450291300.0 -0.9125309434 0.4041073721
1500291000.0 -0.9061832027 0.4175040412
1550290700.0 -0.8996407819 0.4308179148
1600290400.0 -0.8932824943 0.4437987293
1650290100.0 -0.8868875826 0.4558230676
1700289800.0 -0.8797466579 0.4692693657
1750289500.0 -0.8726726633 0.4815873743
1800289200.0 -0.8653156636 0.4945284738
1850288900.0 -0.8587316366 0.5058789926
1900288600.0 -0.8510510631 0.5188863258
1950288300.0 -0.842992834 0.5313682672
2000288000.0 -0.8353118334 0.5429228163
2050287700.0 -0.8268566165 0.5551975055
2100287400.0 -0.8192033259 0.5668241652
2150287100.0 -0.8106555544 0.5786474604
2200286800.0 -0.8028836109 0.5892548857
2250286500.0 -0.7938851972 0.601406946
2300286200.0 -0.7851241594 0.6128430315
2350285900.0 -0.7766843183 0.6236389961
2400285600.0 -0.7676609369 0.6346066151
2450285300.0 -0.759065904 0.6450135113
2500285000.0 -0.7490119646 0.6565943989
2550284700.0 -0.7400570518 0.6669583074
2600284400.0 -0.7309079491 0.6769828859
2650284100.0 -0.7221931414 0.6873709304
2700283800.0 -0.7117801522 0.6977392798
2750283500.0 -0.7014746548 0.7085312747
2800283200.0 -0.6915023298 0.7181294354
2850282900.0 -0.6810477028 0.7282278717
2900282600.0 -0.670799945 0.7379527256
2950282300.0 -0.6602527184 0.7472392775
3000282000.0 -0.649617581 0.7568304006
3050281700.0 -0.6384331259 0.765952791
3100281400.0 -0.6267215513 0.7752010907
3150281100.0 -0.6153370207 0.7841727215
3200280800.0 -0.6039378096 0.7923821452
3250280500.0 -0.5929021384 0.8004173497
3300280200.0 -0.5812242205 0.8084095938
3350279900.0 -0.5692054756 0.8164813956
3400279600.0 -0.556914277 0.8245044922
3450279300.0 -0.5457719392 0.831529951
3500279000.0 -0.5338718598 0.8383432444
3550278700.0 -0.5214259606 0.8455826274
3600278400.0 -0.5097821319 0.8524940229
3650278100.0 -0.4965964361 0.8599485359
3700277800.0 -0.4845183343 0.8665772182
3750277500.0 -0.472082124 0.8731500296
3800277200.0 -0.4599934844 0.8798527626
3850276900.0 -0.4475274403 0.8857073201
3900276600.0 -0.4368577014 0.8913431257
3950276300.0 -0.4247355827 0.8971653228
4000276000.0 -0.4129035066 0.9031759974
4050275700.0 -0.4000808437 0.9092784402
4100275400.0 -0.3888123427 0.9144264162
4150275100.0 -0.3758687713 0.9204990838
4200274800.0 -0.3625022809 0.9261108556
4250274500.0 -0.3500133215 0.9315073232
4300274200.0 -0.3368375686 0.9366691321
4350273900.0 -0.322724971 0.9420605407
4400273600.0 -0.3079313211 0.9472356515
4450273300.0 -0.2929905322 0.9521884763
4500273000.0 -0.2796249936 0.9566344929
4550272700.0 -0.2659634659 0.9607773267
4600272400.0 -0.2507607313 0.9647996891
4650272100.0 -0.2394186164 0.9680651786
4700271800.0 -0.2263004799 0.9710786946
4750271500.0 -0.2147427168 0.9741270493
4800271200.0 -0.2024201595 0.9768087356
4850270900.0 -0.1885343606 0.979655902
4900270600.0 -0.1744846821 0.982055576
4950270300.0 -0.1602113514 0.9845853894
5000270000.0 -0.1457365017 0.9868057897
5050269700.0 -0.1321834681 0.988356503
5100269400.0 -0.1181495167 0.9898653849
5150269100.0 -0.1046150938 0.9916829732
5200268800.0 -0.0911837685 0.9927448817
5250268500.0 -0.0778028558 0.9937052105
5300268200.0 -0.064650655 0.9943955743
5350267900.0 -0.0516376303 0.9953265892
5400267600.0 -0.0356174587 0.9963107507
5450267300.0 -0.0224418262 0.9964321039
5500267000.0 -0.0070098961 0.9968543138
5550266700.0 0.007847854 0.9971379939
5600266400.0 0.0234579389 0.9970637689
5650266100.0 0.0403378976 0.9968818174
5700265800.0 0.0544882334 0.995940437
5750265500.0 0.0694566507 0.9951974031
5800265200.0 0.0829562125 0.9940416893
5850264900.0 0.0961396214 0.9930156205
5900264600.0 0.1129157043 0.991172549
5950264300.0 0.1245066699 0.9898665269
6000264000.0 0.1382785463 0.9877301415
6050263700.0 0.1500506703 0.9867215643
6100263400.0 0.1626098574 0.985118623
6150263100.0 0.177236852 0.9827526409
6200262800.0 0.186774407 0.9807865619
6250262500.0 0.1994500882 0.9784412922
6300262200.0 0.2119676912 0.9762038749
6350261900.0 0.2246753378 0.9732092589
6400261600.0 0.2385565101 0.9699971641
6450261300.0 0.2495262151 0.9673026359
6500261000.0 0.2628190052 0.9638301066
6550260700.0 0.2757516023 0.9597325055
6600260400.0 0.2892609926 0.9558177133
6650260100.0 0.3033466883 0.9515268445
6700259800.0 0.3150605904 0.9469309699
6750259500.0 0.3295086291 0.9421115857
6800259200.0 0.3425789243 0.9369418203
6850258900.0 0.3553348852 0.931753512
6900258600.0 0.3676212302 0.9268299861
6950258300.0 0.3801160275 0.9214551078
7000258000.0 0.391758834 0.9161034949
7050257700.0 0.4036593806 0.9101535906
7100257400.0 0.4170051491 0.9038008904
7150257100.0 0.4277853025 0.8984992543
7200256800.0 0.440574737 0.8918605204
7250256500.0 0.4528874257 0.8855703045
7300256200.0 0.4659798322 0.8785430338
7350255900.0 0.4788097156 0.8718005901
7400255600.0 0.49267667 0.8640903663
7450255300.0 0.507924542 0.8549073246
7500255000.0 0.5203701628 0.8473334673
7550254700.0 0.5350052733 0.8386564338
7600254400.0 0.5473740249 0.8304572863
7650254100.0 0.5582579044 0.8222500056
7700253800.0 0.5702317647 0.8144870919
7750253500.0 0.5814196237 0.8068166746
7800253200.0 0.592075717 0.7991404268
7850252900.0 0.6017837801 0.7918232127
7900252600.0 0.6133885908 0.7829317577
7950252300.0 0.621717673 0.776703718
8000252000.0 0.6317456433 0.7689808237
8050251700.0 0.6421896177 0.7609439725
8100251400.0 0.6519018078 0.7530507991
8150251100.0 0.6623895955 0.7445102746
8200250800.0 0.6718723705 0.7362489671
8250250500.0 0.6802987962 0.7284446494
8300250200.0 0.6897074707 0.7200973452
8350249900.0 0.6987509099 0.710994742
8400249600.0 0.7068166784 0.7031279104
8450249300.0 0.7156808944 0.6941197482
8500249000.0 0.7243238089 0.6854721363
8550248700.0 0.7327627778 0.6765471121
8600248400.0 0.7409987419 0.6668751586
8650248100.0 0.7486485273 0.657542164
8700247800.0 0.7579740268 0.6462977463
8750247500.0 0.7663539165 0.6361660313
8800247200.0 0.7743180541 0.6260892232
8850246900.0 0.7832988664 0.6146475283
8900246600.0 0.7912343437 0.6031172513
8950246300.0 0.8010828947 0.5904729584
9000246000.0 0.8098252786 0.5783197515
9050245700.0 0.8182299969 0.5658901833
9100245400.0 0.8263974623 0.5537974175
9150245100.0 0.8355797332 0.5405263591
9200244800.0 0.8448659496 0.5259600978
9250244500.0 0.8544705282 0.5109045582
9300244200.0 0.8622538259 0.4972522457
9350243900.0 0.869820712 0.4840827308
9400243600.0 0.8766869378 0.4719616359
9450243300.0 0.8823423558 0.4612111169
9500243000.0 0.8886409486 0.4493582366
9550242700.0 0.8925165261 0.4417957137
9600242400.0 0.8968118794 0.4342614792
9650242100.0 0.9010450772 0.4274936952
9700241800.0 0.9053908126 0.4189826631
9750241500.0 0.9096345597 0.4113509817
9800241200.0 0.9147412836 0.4018721342
9850240900.0 0.9204607551 0.3901250286
9900240600.0 0.9265636428 0.3784207278
9950240300.0 0.9330751467 0.3618697391
10000240000.0 0.9380729904 0.3500480489
10050239700.0 0.9440600713 0.334056201
10100239400.0 0.9492732541 0.3180479379
10150239100.0 0.9538486444 0.3027116064
10200238800.0 0.9583493568 0.2872257833
10250238500.0 0.9616537476 0.273636405
10300238200.0 0.9646103599 0.2597160839
10350237900.0 0.9674620286 0.2464319106
10400237600.0 0.9701210474 0.2329459065
10450237300.0 0.9728522564 0.2195644756
10500237000.0 0.9747264591 0.2074165311
10550236700.0 0.9769633404 0.1927360635
10600236400.0 0.979376385 0.1785272714
10650236100.0 0.9813665033 0.1644759464
10700235800.0 0.983876943 0.1522586711
10750235500.0 0.9856207488 0.1383629307
10800235200.0 0.988168977 0.1239874287
10850234900.0 0.9898188792 0.1094470603
10900234600.0 0.9919113157 0.0948789877
10950234300.0 0.9937163314 0.0812817474
11000234000.0 0.9953349918 0.0657411826
11050233700.0 0.9972129264 0.0491487873
11100233400.0 0.998551697 0.0313728212
11150233100.0 0.9997961431 0.014824005
11200232800.0 1.000633665 -0.0008223228
11250232500.0 1.001654882 -0.0181187172
11300232200.0 1.002240693 -0.0368225509
11350231900.0 1.002016884 -0.0528721506
11400231600.0 1.001597819 -0.0679535812
11450231300.0 1.00137654 -0.0845304774
11500231000.0 0.9990728836 -0.0999959098
11550230700.0 0.9983043664 -0.1133046084
11600230400.0 0.9973152549 -0.126120011
11650230100.0 0.9947952787 -0.13862969
11700229800.0 0.9925026995 -0.1525719067
11750229500.0 0.9901933387 -0.1674136376
11800229200.0 0.9874000355 -0.1809977465
11850228900.0 0.9835992353 -0.1924356739
11900228600.0 0.9799608169 -0.2021218641
11950228300.0 0.9765539662 -0.2126597235
12000228000.0 0.9739624381 -0.2214838543
12050227700.0 0.9702993469 -0.2336000254
12100227400.0 0.9671058474 -0.2446773157
12150227100.0 0.9618973171 -0.261186091
12200226800.0 0.9588346823 -0.2717649856
12250226500.0 0.9541967485 -0.2855919949
12300226200.0 0.9497140583 -0.2978621103
12350225900.0 0.944521424 -0.3115081142
12400225600.0 0.9409668087 -0.3237405143
12450225300.0 0.9364356122 -0.3358280517
12500225000.0 0.930826907 -0.3509797435
12550224700.0 0.9253311671 -0.3646451566
12600224400.0 0.9203372843 -0.3776892584
12650224100.0 0.9146395654 -0.3919411175
12700223800.0 0.9092603484 -0.4048400179
12750223500.0 0.9038852109 -0.4178055352
12800223200.0 0.8986308654 -0.4301005699
12850222900.0 0.8932820227 -0.4422153804
12900222600.0 0.8876962274 -0.45405669
12950222300.0 0.8815352062 -0.4669173955
13000222000.0 0.8756554025 -0.478420318
13050221700.0 0.8688259952 -0.4917060733
13100221400.0 0.8618117945 -0.5037730792
13150221100.0 0.8546786916 -0.5164941446
13200220800.0 0.8483673224 -0.5270594174
13250220500.0 0.8407249666 -0.5395848275
13300220200.0 0.8330951525 -0.5505805033
13350219900.0 0.8251088555 -0.5624488498
13400219600.0 0.8166970489 -0.5743212161
13450219300.0 0.8074604412 -0.5875734475
13500219000.0 0.797606617 -0.6010294154
13550218700.0 0.7877337158 -0.6133324997
13600218400.0 0.7773112351 -0.6258657994
13650218100.0 0.7682268029 -0.6361932045
13700217800.0 0.757097884 -0.647988013
13750217500.0 0.7474030792 -0.6590061084
13800217200.0 0.736552989 -0.6704519732
13850216900.0 0.72594419 -0.6816929762
13900216600.0 0.7163813662 -0.690712012
13950216300.0 0.7051081885 -0.7005013815
14000216000.0 0.6950367709 -0.7097375703
14050215700.0 0.6861843322 -0.7179109491
14100215400.0 0.6764651489 -0.7268920467
14150215100.0 0.6672139613 -0.7355543036
14200214800.0 0.6576590015 -0.7444905301
14250214500.0 0.6472854975 -0.7538150698
14300214200.0 0.6366986718 -0.763285761
14350213900.0 0.6258250472 -0.7728721262
14400213600.0 0.6140389548 -0.7823509323
14450213300.0 0.6010378867 -0.7927486235
14500213000.0 0.5881763763 -0.8025881535
14550212700.0 0.575652649 -0.8119269423
14600212400.0 0.5627203101 -0.821003524
14650212100.0 0.5503584979 -0.8290874756
14700211800.0 0.5365201401 -0.8387552002
14750211500.0 0.5241645824 -0.8475661275
14800211200.0 0.5120216062 -0.8555574558
14850210900.0 0.4995212285 -0.8632667529
14900210600.0 0.4861857289 -0.8711153045
14950210300.0 0.4727988524 -0.8787503035
15000210000.0 0.460351781 -0.8854320199
15050209700.0 0.4477100499 -0.8915101413
15100209400.0 0.4347584237 -0.8974276609
15150209100.0 0.4228831356 -0.9032590997
15200208800.0 0.4098778233 -0.908944736
15250208500.0 0.3992898881 -0.9131081578
15300208200.0 0.3870440536 -0.917224269
15350207900.0 0.37393785 -0.9219706328
15400207600.0 0.3591063118 -0.9278384955
15450207300.0 0.3445245994 -0.9330108279
15500207000.0 0.3305685155 -0.9379186778
15550206700.0 0.3151036601 -0.942342928
15600206400.0 0.299395249 -0.9464889427
15650206100.0 0.2834640794 -0.9512323311
15700205800.0 0.2694809697 -0.9547159861
15750205500.0 0.2555932211 -0.9580344646
15800205200.0 0.241710792 -0.9615539353
15850204900.0 0.2273775416 -0.9649332657
15900204600.0 0.2123251774 -0.9685628499
15950204300.0 0.1981264478 -0.9716170202
16000204000.0 0.1837830739 -0.9745026457
16050203700.0 0.1683439364 -0.9774422888
16100203400.0 0.153594229 -0.9793279379
16150203100.0 0.139191235 -0.9819519083
16200202800.0 0.1249484214 -0.9847431887
16250202500.0 0.1098089722 -0.9855716719
16300202200.0 0.0947998618 -0.9875175604
16350201900.0 0.0798415045 -0.989123548
16400201600.0 0.0647950149 -0.9901444002
16450201300.0 0.0493401532 -0.9911740359
16500201000.0 0.0325565856 -0.9920248157
16550200700.0 0.0165770723 -0.9925664043
16600200400.0 0.0006263834 -0.992748945
16650200100.0 -0.0155548586 -0.9925223075
16700199800.0 -0.0318525709 -0.9921683026
16750199500.0 -0.0510587736 -0.9912745455
16800199200.0 -0.0667622699 -0.991008053
16850198900.0 -0.0820627472 -0.9892567068
16900198600.0 -0.0962646628 -0.9880708138
16950198300.0 -0.1102518566 -0.9874125385
17000198000.0 -0.1233552674 -0.9860047808
17050197700.0 -0.1352539743 -0.9843078703
17100197400.0 -0.1485815903 -0.9818853286
17150197100.0 -0.1612875996 -0.9802447387
17200196800.0 -0.1738930335 -0.9781933474
17250196500.0 -0.1870391203 -0.9754555537
17300196200.0 -0.1990300183 -0.9733468678
17350195900.0 -0.2106625572 -0.9709451355
17400195600.0 -0.2228033921 -0.9683534607
17450195300.0 -0.2357719515 -0.9653159837
17500195000.0 -0.2489137464 -0.9623206876
17550194700.0 -0.2628116422 -0.95856606
17600194400.0 -0.2764279264 -0.9547434276
17650194100.0 -0.2900703287 -0.9507650923
17700193800.0 -0.3031606899 -0.946506405
17750193500.0 -0.3175695503 -0.9419078423
17800193200.0 -0.3312232349 -0.9365193607
17850192900.0 -0.3466513753 -0.9312661653
17900192600.0 -0.3617656428 -0.9249615506
17950192300.0 -0.3771493681 -0.9179993165
18000192000.0 -0.391979024 -0.9108147523
18050191700.0 -0.4057152857 -0.9026960937
18100191400.0 -0.4199610698 -0.8951112515
18150191100.0 -0.4349883485 -0.8870018134
18200190800.0 -0.4519358257 -0.8778023544
18250190500.0 -0.468925199 -0.8684369631
18300190200.0 -0.4844072471 -0.85981059
18350189900.0 -0.4992479272 -0.8514851961
18400189600.0 -0.5139783692 -0.8428407051
18450189300.0 -0.5275958551 -0.8348587131
18500189000.0 -0.5409686766 -0.826944373
18550188700.0 -0.5535783323 -0.8192426461
18600188400.0 -0.5657093065 -0.8124246183
18650188100.0 -0.5766698737 -0.8057576863
18700187800.0 -0.587705503 -0.7988986432
18750187500.0 -0.598455491 -0.7925708497
18800187200.0 -0.6089882487 -0.7854847885
18850186900.0 -0.6195083919 -0.7785550412
18900186600.0 -0.6296856048 -0.7710706664
18950186300.0 -0.6399440755 -0.7636494475
19000186000.0 -0.6467786467 -0.7574414065
19050185700.0 -0.6565200533 -0.750412889
19100185400.0 -0.6664021114 -0.7420566438
19150185100.0 -0.6765414101 -0.7336948231
19200184800.0 -0.6855616445 -0.7256372401
19250184500.0 -0.6960173255 -0.7161915922
19300184200.0 -0.7073414749 -0.7057689795
19350183900.0 -0.7178596035 -0.6968962613
19400183600.0 -0.7272576277 -0.6863314979
19450183300.0 -0.7367231304 -0.6767384154
19500183000.0 -0.7453958979 -0.6665691458
19550182700.0 -0.7546907654 -0.6559841328
19600182400.0 -0.7651053098 -0.6440438726
19650182100.0 -0.775626412 -0.631975551
19700181800.0 -0.7860874272 -0.6185331586
19750181500.0 -0.7966046312 -0.6043226723
19800181200.0 -0.8068902743 -0.5894338584
19850180900.0 -0.8163093387 -0.574291395
19900180600.0 -0.8240737715 -0.5598757374
19950180300.0 -0.83316796 -0.5434876594
20000180000.0 -0.8238620802 -0.5472198663
20050179700.0 -0.8322564556 -0.5341783373
20100179400.0 -0.8400096489 -0.520118415
20150179100.0 -0.8482199737 -0.508711899
20200178800.0 -0.8566930703 -0.4970932601
20250178500.0 -0.8668002732 -0.4845880858
20300178200.0 -0.8757583527 -0.4700541907
20350177900.0 -0.8855388513 -0.4562241234
20400177600.0 -0.8943628197 -0.4420314097
20450177300.0 -0.9029636249 -0.4274847132
20500177000.0 -0.9106300201 -0.4138716761
20550176700.0 -0.9185864683 -0.4001957508
20600176400.0 -0.9258176878 -0.3872222864
20650176100.0 -0.9321770467 -0.3746158534
20700175800.0 -0.9391815936 -0.3637347316
20750175500.0 -0.9454529742 -0.3521824374
20800175200.0 -0.9502657718 -0.3405477126
20850174900.0 -0.9540276277 -0.3294664401
20900174600.0 -0.9585986466 -0.3189051394
20950174300.0 -0.9626828121 -0.3074284048
21000174000.0 -0.9644921466 -0.296488593
21050173700.0 -0.9668557328 -0.2860961084
21100173400.0 -0.970557293 -0.2755140249
21150173100.0 -0.9751963752 -0.2635519412
21200172800.0 -0.9785813795 -0.2503467188
21250172500.0 -0.9822625389 -0.2361804137
21300172200.0 -0.9856326674 -0.222382688
21350171900.0 -0.9873829501 -0.2081318729
21400171600.0 -0.9892079209 -0.1937601381
21450171300.0 -0.9900902796 -0.1795351409
21500171000.0 -0.9902255474 -0.1641573495
21550170700.0 -0.9904389795 -0.1490530994
21600170400.0 -0.991794176 -0.1335407894
21650170100.0 -0.9910596488 -0.1183494208
21700169800.0 -0.9905136729 -0.1031103493
21750169500.0 -0.9895406919 -0.0874780848
21800169200.0 -0.9898954213 -0.0706804174
21850168900.0 -0.9895351571 -0.0545545865
21900168600.0 -0.988703932 -0.0374208373
21950168300.0 -0.987228573 -0.0212619935
22000168000.0 -0.987837127 -0.0063985355
22050167700.0 -0.9881111613 0.0076003622
22100167400.0 -0.9884856541 0.0235217909
22150167100.0 -0.9892784432 0.0393759671
22200166800.0 -0.9896962337 0.0560564317
22250166500.0 -0.9886954467 0.0727768624
22300166200.0 -0.9886212213 0.0892222005
22350165900.0 -0.9875978896 0.1058398292
22400165600.0 -0.9860172957 0.1215766282
22450165300.0 -0.9829923502 0.1360402347
22500165000.0 -0.9828353812 0.1510175571
22550164700.0 -0.9809811741 0.1670447544
22600164400.0 -0.9785255465 0.1822933676
22650164100.0 -0.9761550039 0.1981798435
22700163800.0 -0.973713666 0.2142398247
22750163500.0 -0.9704847325 0.2286224979
22800163200.0 -0.9672008373 0.2421928528
22850162900.0 -0.964929046 0.2554416625
22900162600.0 -0.9631607649 0.2691913755
22950162300.0 -0.9616827687 0.282644078
23000162000.0 -0.9598614892 0.2953455561
23050161700.0 -0.9573400137 0.3084676552
23100161400.0 -0.9548432382 0.3211340798
23150161100.0 -0.9518980328 0.3346311362
23200160800.0 -0.9492322141 0.3475243108
23250160500.0 -0.9468736316 0.3594720695
23300160200.0 -0.9435455139 0.3719043934
23350159900.0 -0.9387585792 0.3856285678
23400159600.0 -0.9345312112 0.3994300938
23450159300.0 -0.92985214 0.4132939274
23500159000.0 -0.9250507934 0.4258559112
23550158700.0 -0.9198696467 0.4397073639
23600158400.0 -0.9145442625 0.4537638687
23650158100.0 -0.9073193796 0.4683469763
23700157800.0 -0.8990635771 0.4824157317
23750157500.0 -0.8897119559 0.4966766074
23800157200.0 -0.8804208751 0.5098387985
23850156900.0 -0.8710471569 0.5230085315
23900156600.0 -0.8614636306 0.5354563659
23950156300.0 -0.8517044118 0.5470760829
24000156000.0 -0.8427921598 0.5597914103
24050155700.0 -0.8316101913 0.5720617133
24100155400.0 -0.8215450278 0.5843224375
24150155100.0 -0.8104618172 0.5954615779
24200154800.0 -0.7999082224 0.6081055554
24250154500.0 -0.788598361 0.6206788169
24300154200.0 -0.776755318 0.63203175
24350153900.0 -0.7649317692 0.6434168489
24400153600.0 -0.7523561556 0.6538590365
24450153300.0 -0.7403742986 0.6641654669
24500153000.0 -0.7287856864 0.6739912529
24550152700.0 -0.7174243662 0.6832664155
24600152400.0 -0.7057602153 0.6928024702
24650152100.0 -0.6942143125 0.7017798799
