!Created with skrf (http://scikit-rf.org).
# Hz S RI R 50.0 
!freq ReS11 ImS11
300000.0 -0.9738053846 -0.1206822181
50299700.0 -1.000023905 0.0151365199
100299400.0 -0.9978449009 0.0281426459
150299100.0 -1.002746733 0.0450865441
200298800.0 -0.9996837978 0.0581947092
250298500.0 -0.9972648902 0.0717624951
300298200.0 -0.9858460434 0.0875392324
350297900.0 -0.9939060708 0.0985749843
400297600.0 -0.9931466978 0.1152065339
450297300.0 -0.9910432473 0.1289349706
500297000.0 -0.9894238059 0.1435834497
550296700.0 -0.9842045283 0.1560440585
600296400.0 -1.017341013 0.189223066
650296100.0 -0.9820633512 0.1859183567
700295800.0 -0.9791922892 0.2001837843
750295500.0 -0.9761959108 0.2142065785
800295200.0 -0.9730401593 0.2282370028
850294900.0 -0.9695802929 0.2419312354
900294600.0 -0.9658036505 0.2558283302
950294300.0 -0.9622625794 0.2694158961
1000294000.0 -0.9582449508 0.2835517077
1050293700.0 -0.9536464693 0.2972323772
1100293400.0 -0.9493201217 0.3116612437
1150293100.0 -0.9454706396 0.3235601715
1200292800.0 -0.9402587264 0.3379255
1250292500.0 -0.9348431451 0.3513287193
1300292200.0 -0.9289626509 0.3646249703
1350291900.0 -0.9235389858 0.3787637443
1400291600.0 -0.9179586077 0.3918688087
1450291300.0 -0.9125048152 0.4042602051
1500291000.0 -0.9061421015 0.417435768
1550290700.0 -0.8995080046 0.4308665116
1600290400.0 -0.8936455407 0.4438273501
1650290100.0 -0.8867833413 0.4559428304
1700289800.0 -0.8798860427 0.4693404667
1750289500.0 -0.8728464458 0.4816942556
1800289200.0 -0.8655911277 0.4945674027
1850288900.0 -0.8588948891 0.5060796469
1900288600.0 -0.8508694926 0.5187755063
1950288300.0 -0.8430131432 0.5312718973
2000288000.0 -0.8352826484 0.5427860562
2050287700.0 -0.8273785273 0.5551577817
2100287400.0 -0.8193129007 0.5666916346
2150287100.0 -0.8107628753 0.5788197024
2200286800.0 -0.8028265304 0.5892967521
2250286500.0 -0.7941983342 0.6015845271
2300286200.0 -0.7854395484 0.6130550809
2350285900.0 -0.7769107401 0.6238907867
2400285600.0 -0.7678258275 0.6346997249
2450285300.0 -0.759081601 0.6451204965
2500285000.0 -0.7490773975 0.6567483162
2550284700.0 -0.7403686924 0.667098513
2600284400.0 -0.731133702 0.6771240767
2650284100.0 -0.7222542107 0.6873533371
2700283800.0 -0.7118756248 0.6977621488
2750283500.0 -0.7014871125 0.7086641092
2800283200.0 -0.6916154453 0.718272852
2850282900.0 -0.6810584395 0.7281874828
2900282600.0 -0.6706991778 0.7377072379
2950282300.0 -0.6602530748 0.7472441622
3000282000.0 -0.6497648494 0.7566019555
3050281700.0 -0.6384697294 0.7658856728
3100281400.0 -0.6267478821 0.7751099673
3150281100.0 -0.6151970687 0.7842291491
3200280800.0 -0.603697535 0.7926076099
3250280500.0 -0.5927567704 0.8005071944
3300280200.0 -0.581366099 0.8085971487
3350279900.0 -0.5694412353 0.8164497115
3400279600.0 -0.5570495583 0.8243777244
3450279300.0 -0.5458427497 0.8314201241
3500279000.0 -0.5339427613 0.8385043934
3550278700.0 -0.5217958765 0.8455547406
3600278400.0 -0.5096534231 0.8523671386
3650278100.0 -0.4965839097 0.8600122526
3700277800.0 -0.4846498444 0.8666191822
3750277500.0 -0.4722045017 0.8731291155
3800277200.0 -0.4596527761 0.8797453126
3850276900.0 -0.4478059563 0.8857840685
3900276600.0 -0.4368184645 0.8912563693
3950276300.0 -0.4246733096 0.897304975
4000276000.0 -0.4128142392 0.9032545548
4050275700.0 -0.3999596931 0.9093266173
4100275400.0 -0.3891234739 0.9148387676
4150275100.0 -0.3761163799 0.9202694584
4200274800.0 -0.3625544361 0.9261587455
4250274500.0 -0.3501829678 0.9311415432
4300274200.0 -0.3371628242 0.9367547163
4350273900.0 -0.3232636823 0.941814224
4400273600.0 -0.3083446809 0.9470782134
4450273300.0 -0.2932386106 0.9520134449
4500273000.0 -0.2798575337 0.9565162185
4550272700.0 -0.2660046935 0.9606117048
4600272400.0 -0.2508312028 0.9647696798
4650272100.0 -0.2392176324 0.9680600908
4700271800.0 -0.2261637954 0.9714738383
4750271500.0 -0.2144813766 0.9742140964
4800271200.0 -0.2021517287 0.9769301399
4850270900.0 -0.1882607827 0.9796912165
4900270600.0 -0.1744903201 0.982167662
4950270300.0 -0.1600248488 0.9847221799
5000270000.0 -0.1455672856 0.9867402299
5050269700.0 -0.1320324048 0.9882759517
5100269400.0 -0.1182010864 0.98996814
5150269100.0 -0.1045523199 0.9916017939
5200268800.0 -0.0912842651 0.99294648
5250268500.0 -0.0781527137 0.9939592721
5300268200.0 -0.0648259258 0.9943348797
5350267900.0 -0.0520481204 0.9952181362
5400267600.0 -0.0357816548 0.9964782462
5450267300.0 -0.0225664474 0.9965765823
5500267000.0 -0.0072654036 0.9970467236
5550266700.0 0.0076391904 0.9971557036
5600266400.0 0.023019129 0.9970765222
5650266100.0 0.0397299913 0.9968013412
5700265800.0 0.0539413389 0.9957580563
5750265500.0 0.069092687 0.9952276396
5800265200.0 0.0826125113 0.9941292455
5850264900.0 0.0961994184 0.9934851087
5900264600.0 0.1124573016 0.9911903297
5950264300.0 0.1243589367 0.9900543219
6000264000.0 0.1381636972 0.9883056421
6050263700.0 0.150425687 0.9868151996
6100263400.0 0.1624617299 0.9850790255
6150263100.0 0.1769304891 0.9825049234
6200262800.0 0.186807093 0.9810828004
6250262500.0 0.199441419 0.9785129438
6300262200.0 0.2120744667 0.9761237599
6350261900.0 0.2251160604 0.9731600552
6400261600.0 0.2389792051 0.9699063433
6450261300.0 0.2500760786 0.9674333787
6500261000.0 0.2629738758 0.963683586
6550260700.0 0.2763230009 0.9596135667
6600260400.0 0.2893590708 0.9555732738
6650260100.0 0.3038183481 0.9514129051
6700259800.0 0.3158704433 0.9472616044
6750259500.0 0.3297024877 0.9421461545
6800259200.0 0.3428818621 0.9370497853
6850258900.0 0.3551203392 0.9318936178
6900258600.0 0.3676830218 0.9267818364
6950258300.0 0.3802923919 0.9215040364
7000258000.0 0.3915865191 0.9160807153
7050257700.0 0.4038456143 0.9101716987
7100257400.0 0.4171656967 0.9038730639
7150257100.0 0.4275454593 0.8986141651
7200256800.0 0.4408560101 0.8922105131
7250256500.0 0.4530999689 0.8854192971
7300256200.0 0.4662204093 0.8788437516
7350255900.0 0.4786349021 0.8719074971
7400255600.0 0.4921543051 0.8646147831
7450255300.0 0.5076812046 0.8554907349
7500255000.0 0.5197130141 0.8480978543
7550254700.0 0.534088029 0.8391283548
7600254400.0 0.5467732926 0.8309329086
7650254100.0 0.5579268098 0.823052632
7700253800.0 0.5696608807 0.8150822897
7750253500.0 0.5807392003 0.8073039133
7800253200.0 0.5916845061 0.7997039761
7850252900.0 0.6011855438 0.7923748149
7900252600.0 0.6126664484 0.7836925957
7950252300.0 0.6213341964 0.7772626948
8000252000.0 0.6312888719 0.7695896899
8050251700.0 0.6418941796 0.7613758143
8100251400.0 0.6516206023 0.7535083991
8150251100.0 0.6619218526 0.7448730791
8200250800.0 0.67121447 0.7367217147
8250250500.0 0.6796745008 0.7289937298
8300250200.0 0.6894655084 0.720260346
8350249900.0 0.698425637 0.7117144473
8400249600.0 0.7066861856 0.7035241924
8450249300.0 0.7154474256 0.6946830408
8500249000.0 0.7240496814 0.6859051727
8550248700.0 0.7324385465 0.676710491
8600248400.0 0.7408328735 0.6672956179
8650248100.0 0.7484180016 0.6577848383
8700247800.0 0.757892614 0.6466632758
8750247500.0 0.7662361386 0.6365562421
8800247200.0 0.7744421013 0.6262608517
8850246900.0 0.783085452 0.6148723654
8900246600.0 0.7915195489 0.6034199838
8950246300.0 0.8010497917 0.5903658824
9000246000.0 0.8099325609 0.5783484977
9050245700.0 0.8186106754 0.5656896691
9100245400.0 0.8271018462 0.5534870197
9150245100.0 0.8360652137 0.5402008117
9200244800.0 0.8456042937 0.5255499862
9250244500.0 0.8546415241 0.5105165938
9300244200.0 0.8629913469 0.4964322568
9350243900.0 0.8707583147 0.4831688881
9400243600.0 0.8773736961 0.4710848526
9450243300.0 0.8830915215 0.4600726572
9500243000.0 0.8893204424 0.4481064639
9550242700.0 0.8931301139 0.4406321022
9600242400.0 0.8975626258 0.433041834
9650242100.0 0.9013576812 0.4263574983
9700241800.0 0.9062160975 0.4179619677
9750241500.0 0.9099415559 0.4103030807
9800241200.0 0.9149609808 0.4010860469
9850240900.0 0.9207647091 0.3894665876
9900240600.0 0.9267194044 0.377483507
9950240300.0 0.9331330657 0.3612714332
10000240000.0 0.9383461587 0.3493084411
10050239700.0 0.9441459924 0.3336119332
10100239400.0 0.9497160455 0.3176234483
10150239100.0 0.9541582341 0.3020204854
10200238800.0 0.9581775467 0.2872796181
10250238500.0 0.9614932308 0.2734860073
10300238200.0 0.9647261064 0.2595926619
10350237900.0 0.967521431 0.2463904299
10400237600.0 0.9698466296 0.2328727589
10450237300.0 0.9725610483 0.2194122566
10500237000.0 0.9746672847 0.2070611069
10550236700.0 0.9772056055 0.1928281831
10600236400.0 0.9792550616 0.1788881156
10650236100.0 0.981585937 0.1642907171
10700235800.0 0.9835236149 0.1525402058
10750235500.0 0.9854615724 0.1392571432
10800235200.0 0.9876438436 0.1247316872
10850234900.0 0.9899723739 0.1097457761
10900234600.0 0.991740303 0.0949130345
10950234300.0 0.9934604044 0.0816772407
11000234000.0 0.9955055222 0.0661541412
11050233700.0 0.9970376781 0.0496287093
11100233400.0 0.9987583225 0.0324030448
11150233100.0 0.9994505136 0.0156105665
11200232800.0 1.001025892 -0.0006128404
11250232500.0 1.001486021 -0.0171500515
11300232200.0 1.002004076 -0.0352111224
11350231900.0 1.001672477 -0.0511650572
11400231600.0 1.001809619 -0.0664271916
11450231300.0 1.001126387 -0.0828014707
11500231000.0 0.999830337 -0.0992585104
11550230700.0 0.9984932709 -0.1127691819
11600230400.0 0.9967214205 -0.1242895395
11650230100.0 0.9949336099 -0.1364045923
11700229800.0 0.9928025958 -0.1512307402
11750229500.0 0.9904613563 -0.1654764449
11800229200.0 0.9876766461 -0.1790657795
11850228900.0 0.9839831222 -0.1908606853
11900228600.0 0.9803494581 -0.200548326
11950228300.0 0.9770560699 -0.211031281
12000228000.0 0.9740962314 -0.219977209
12050227700.0 0.9707324196 -0.2329071835
12100227400.0 0.9675724619 -0.2435709437
12150227100.0 0.9621207696 -0.2602723928
12200226800.0 0.9586654745 -0.2711595046
12250226500.0 0.9551182144 -0.2846111922
12300226200.0 0.9502078991 -0.2960827307
12350225900.0 0.945726536 -0.3102761362
12400225600.0 0.9407971392 -0.3230886236
12450225300.0 0.9365723156 -0.335061524
12500225000.0 0.9313034753 -0.3502018761
12550224700.0 0.9256246927 -0.3639299299
12600224400.0 0.9210457898 -0.3767420224
12650224100.0 0.9150914538 -0.3912594855
12700223800.0 0.9098325547 -0.4039837093
12750223500.0 0.9041933469 -0.4170097982
12800223200.0 0.8992519748 -0.4296090515
12850222900.0 0.8937057736 -0.4417901047
12900222600.0 0.8879589252 -0.4539970248
12950222300.0 0.881703393 -0.466631536
13000222000.0 0.8761897722 -0.4774171261
13050221700.0 0.8688843724 -0.4910424201
13100221400.0 0.8625406255 -0.5027626047
13150221100.0 0.8557698863 -0.5150262944
13200220800.0 0.8487217246 -0.5264082562
13250220500.0 0.8412479905 -0.5386656835
13300220200.0 0.8340057003 -0.549570094
13350219900.0 0.825834016 -0.5614887311
13400219600.0 0.8174747917 -0.5735664157
13450219300.0 0.8081542469 -0.5866487739
13500219000.0 0.7982540041 -0.6003199372
13550218700.0 0.7884306952 -0.6125484586
13600218400.0 0.7781477719 -0.6248816991
13650218100.0 0.7683239969 -0.6352712013
13700217800.0 0.7580390467 -0.6475662311
13750217500.0 0.74767426 -0.6583983925
13800217200.0 0.7379375844 -0.6693014218
13850216900.0 0.7263744935 -0.6810446893
13900216600.0 0.7164269045 -0.6897898826
13950216300.0 0.705083751 -0.7002458022
14000216000.0 0.6958549434 -0.7098085394
14050215700.0 0.6861348878 -0.7179232335
14100215400.0 0.6763612591 -0.727096327
14150215100.0 0.6672047822 -0.735690219
14200214800.0 0.6578745132 -0.7444397891
14250214500.0 0.6475135329 -0.7538619731
14300214200.0 0.6370163819 -0.7631275588
14350213900.0 0.6260745096 -0.7728119793
14400213600.0 0.6139654482 -0.7822293293
14450213300.0 0.6010421475 -0.7927431217
14500213000.0 0.5873836173 -0.8027774428
14550212700.0 0.5752107412 -0.8121320578
14600212400.0 0.5635480022 -0.8209975365
14650212100.0 0.5504442061 -0.8294110464
14700211800.0 0.5362438231 -0.8391501262
14750211500.0 0.524272725 -0.8477197055
14800211200.0 0.5120875478 -0.8556236496
14850210900.0 0.4997389001 -0.8633058174
14900210600.0 0.4864256125 -0.8710443685
14950210300.0 0.4729870381 -0.8787031882
15000210000.0 0.4605195669 -0.8854869902
15050209700.0 0.4481246744 -0.8917648512
15100209400.0 0.4356566379 -0.8976722771
15150209100.0 0.4232326004 -0.902703312
15200208800.0 0.4106655834 -0.9079203156
15250208500.0 0.3995953406 -0.913081049
15300208200.0 0.3870195952 -0.9175197373
15350207900.0 0.3742181176 -0.9217282882
15400207600.0 0.3596216072 -0.9274713196
15450207300.0 0.3443901989 -0.9331014051
15500207000.0 0.3302300406 -0.9368144508
15550206700.0 0.3151820265 -0.942636399
15600206400.0 0.2994969869 -0.9468662794
15650206100.0 0.2838095269 -0.9509561429
15700205800.0 0.2700914277 -0.9546504438
15750205500.0 0.2559598211 -0.9583325991
15800205200.0 0.2415303307 -0.9615969045
15850204900.0 0.2273008489 -0.9650089556
15900204600.0 0.21210182 -0.9686717901
15950204300.0 0.1978131124 -0.9716366657
16000204000.0 0.1834192437 -0.9745570635
16050203700.0 0.1686769164 -0.9776850522
16100203400.0 0.1541218185 -0.9793689875
16150203100.0 0.1392893662 -0.9824348728
16200202800.0 0.1252048111 -0.9842095462
16250202500.0 0.1102893914 -0.985832023
16300202200.0 0.0947874045 -0.9873520937
16350201900.0 0.0796343389 -0.9893125774
16400201600.0 0.0650243712 -0.9899173864
16450201300.0 0.0497071665 -0.9913123515
16500201000.0 0.032644655 -0.9920346217
16550200700.0 0.0167510565 -0.9925272861
16600200400.0 0.0009725849 -0.9927524375
16650200100.0 -0.0150290258 -0.9927214528
16700199800.0 -0.0311877321 -0.9923308875
16750199500.0 -0.0502058282 -0.9915410039
16800199200.0 -0.0661123209 -0.9905645411
16850198900.0 -0.0811365844 -0.9895201128
16900198600.0 -0.0949202693 -0.9888897702
16950198300.0 -0.1089881413 -0.987735961
17000198000.0 -0.1215885328 -0.9862395852
17050197700.0 -0.1344026819 -0.9841548044
17100197400.0 -0.1473506396 -0.9820589425
17150197100.0 -0.1600295416 -0.9800960318
17200196800.0 -0.1727457936 -0.9780083724
17250196500.0 -0.1857777162 -0.9757314238
17300196200.0 -0.1979946312 -0.9733619427
17350195900.0 -0.2098744469 -0.9708495035
17400195600.0 -0.2219010393 -0.9685206283
17450195300.0 -0.2349747917 -0.965674205
17500195000.0 -0.248346305 -0.962401518
17550194700.0 -0.2618780483 -0.9589109306
17600194400.0 -0.2759249243 -0.9548801032
17650194100.0 -0.2895817929 -0.950512496
17700193800.0 -0.3028185396 -0.9463766504
17750193500.0 -0.3171261111 -0.9416955712
17800193200.0 -0.3310951122 -0.9368664784
17850192900.0 -0.3459458265 -0.9314560509
17900192600.0 -0.3610944525 -0.9247467417
17950192300.0 -0.3768330468 -0.9182670784
18000192000.0 -0.3914397852 -0.9107101827
18050191700.0 -0.405457594 -0.9029263375
18100191400.0 -0.4196539277 -0.8952813313
18150191100.0 -0.4345682368 -0.8872967168
18200190800.0 -0.4514443867 -0.8781529737
18250190500.0 -0.468380744 -0.8687297247
18300190200.0 -0.4838754902 -0.8599528472
18350189900.0 -0.4989950382 -0.8515211736
18400189600.0 -0.513457159 -0.8432418216
18450189300.0 -0.5273508524 -0.8354858305
18500189000.0 -0.5402015692 -0.8269981203
18550188700.0 -0.5527828037 -0.8198009546
18600188400.0 -0.5651819189 -0.8127445608
18650188100.0 -0.5759141777 -0.8060811505
18700187800.0 -0.5869228168 -0.7996843964
18750187500.0 -0.5977648523 -0.7931297207
18800187200.0 -0.6083837624 -0.7861710411
18850186900.0 -0.6185630781 -0.7790633747
18900186600.0 -0.6288693238 -0.7718850794
18950186300.0 -0.6390719532 -0.7640826427
19000186000.0 -0.6462846368 -0.758011551
19050185700.0 -0.6558200857 -0.7506839593
19100185400.0 -0.6661893731 -0.742705085
19150185100.0 -0.6759705517 -0.7341108583
19200184800.0 -0.6848260782 -0.7256013794
19250184500.0 -0.6955402491 -0.7164016201
19300184200.0 -0.7066921102 -0.7068955839
19350183900.0 -0.7171816006 -0.6975484835
19400183600.0 -0.7266812466 -0.6874321861
19450183300.0 -0.7362161365 -0.6777559074
19500183000.0 -0.7441665273 -0.6678635064
19550182700.0 -0.7543656674 -0.6562201342
19600182400.0 -0.7645669642 -0.6448937242
19650182100.0 -0.7752436434 -0.6321859737
19700181800.0 -0.7857847949 -0.6192912563
19750181500.0 -0.7963116943 -0.6047320581
19800181200.0 -0.8066753118 -0.5899178662
19850180900.0 -0.816267109 -0.5747402927
19900180600.0 -0.8242493379 -0.5600962718
19950180300.0 -0.8331252386 -0.5436993977
20000180000.0 -0.8244728567 -0.5472904269
20050179700.0 -0.83251678 -0.5340013605
20100179400.0 -0.8409634425 -0.5211215077
20150179100.0 -0.8486533734 -0.5090881514
20200178800.0 -0.857462948 -0.4964725035
20250178500.0 -0.8668268572 -0.4836760064
20300178200.0 -0.8764588471 -0.4691671451
20350177900.0 -0.886378765 -0.4557251198
20400177600.0 -0.8949706234 -0.4410912695
20450177300.0 -0.9032970409 -0.4268018871
20500177000.0 -0.9113563756 -0.4128025537
20550176700.0 -0.9193622498 -0.3993793709
20600176400.0 -0.9260773427 -0.3860493151
20650176100.0 -0.932509158 -0.3739129284
20700175800.0 -0.9392027946 -0.3623336726
20750175500.0 -0.9453286161 -0.3507618528
20800175200.0 -0.9498584408 -0.3396304688
20850174900.0 -0.954925434 -0.3281560014
20900174600.0 -0.959885476 -0.3181518976
20950174300.0 -0.9625381423 -0.3062106131
21000174000.0 -0.9670347528 -0.295933431
21050173700.0 -0.9683528182 -0.2850409239
21100173400.0 -0.9726338591 -0.274048187
21150173100.0 -0.975783481 -0.26142965
21200172800.0 -0.9797290532 -0.2485648919
21250172500.0 -0.9833251072 -0.2347602891
21300172200.0 -0.9866744538 -0.2208974012
21350171900.0 -0.9879677301 -0.206587174
21400171600.0 -0.9902501409 -0.1927717827
21450171300.0 -0.9898911535 -0.178071099
21500171000.0 -0.991016147 -0.1626703656
21550170700.0 -0.9900813656 -0.1477973527
21600170400.0 -0.9909359594 -0.1318843444
21650170100.0 -0.9916220423 -0.1163138906
21700169800.0 -0.9905461862 -0.1008687688
21750169500.0 -0.9900764927 -0.0846162365
21800169200.0 -0.989363453 -0.0676742744
21850168900.0 -0.9884704646 -0.0515001315
21900168600.0 -0.9880308322 -0.0350956938
21950168300.0 -0.9868962 -0.0196232283
22000168000.0 -0.986722554 -0.0045785384
22050167700.0 -0.9868945637 0.009516638
22100167400.0 -0.987447867 0.0253918117
22150167100.0 -0.9885913588 0.041044032
22200166800.0 -0.988597716 0.0573900875
22250166500.0 -0.9878601841 0.0748204406
22300166200.0 -0.9876676581 0.0910649549
22350165900.0 -0.9856670613 0.1075589267
22400165600.0 -0.9847186537 0.1221838323
22450165300.0 -0.9833128883 0.1388425235
22500165000.0 -0.980673213 0.1527659467
22550164700.0 -0.9802761201 0.1682127758
22600164400.0 -0.9777641074 0.1837731655
22650164100.0 -0.9756607175 0.1996987049
22700163800.0 -0.9727367871 0.2150582986
22750163500.0 -0.9695290093 0.2306437652
22800163200.0 -0.9666714065 0.2433388163
22850162900.0 -0.9636903948 0.2567088096
22900162600.0 -0.9624525692 0.2707039257
22950162300.0 -0.9608680938 0.2839375396
23000162000.0 -0.9596736175 0.2961356896
23050161700.0 -0.9568062125 0.3091038058
23100161400.0 -0.9545064111 0.3224323747
23150161100.0 -0.9511871176 0.3352397916
23200160800.0 -0.9481439305 0.3479373596
23250160500.0 -0.9460579104 0.3591591701
23300160200.0 -0.9431536639 0.3728488596
23350159900.0 -0.9389978938 0.3861480724
23400159600.0 -0.9344037973 0.3989815331
23450159300.0 -0.9296121409 0.4127643744
23500159000.0 -0.924983429 0.4260640145
23550158700.0 -0.9203839847 0.4398796586
23600158400.0 -0.9142660646 0.4533961643
23650158100.0 -0.9074534457 0.4676718023
23700157800.0 -0.8995390072 0.481874341
23750157500.0 -0.8907111279 0.4962098677
23800157200.0 -0.881174136 0.5092757619
23850156900.0 -0.8717385246 0.5222292473
23900156600.0 -0.8624853754 0.5350980544
23950156300.0 -0.8528919672 0.5469388547
24000156000.0 -0.8430241966 0.5602701289
24050155700.0 -0.8326897292 0.5713260842
24100155400.0 -0.8228132951 0.584148637
24150155100.0 -0.8123785604 0.5957286992
24200154800.0 -0.8012800981 0.6078463224
24250154500.0 -0.7898341149 0.6191328249
24300154200.0 -0.7787040593 0.6309515852
24350153900.0 -0.76645759 0.641923164
24400153600.0 -0.7540905564 0.6524645247
24450153300.0 -0.7424278346 0.6627073564
24500153000.0 -0.7308253975 0.6725236515
24550152700.0 -0.7193434405 0.6823039381
24600152400.0 -0.7075720757 0.6915870701
24650152100.0 -0.6962242552 0.6999785015
