!Created with skrf (http://scikit-rf.org).
# Hz S RI R 50.0 
!freq ReS11 ImS11
300000.0 -0.9725280952 -0.1240930517
50299700.0 -0.9998460303 0.0149630121
100299400.0 -0.9979072614 0.0277568309
150299100.0 -1.002766656 0.0448307694
200298800.0 -0.9994633766 0.0581746415
250298500.0 -0.9973691961 0.071668382
300298200.0 -0.9857051951 0.0874823517
350297900.0 -0.994006582 0.0982696292
400297600.0 -0.9930560432 0.1147350119
450297300.0 -0.9907829452 0.128549389
500297000.0 -0.9892863873 0.1431941872
550296700.0 -0.9843137453 0.1557205607
600296400.0 -1.017138434 0.1889044657
650296100.0 -0.9820019232 0.1856955807
700295800.0 -0.9792661484 0.2000153668
750295500.0 -0.9760474822 0.2138958662
800295200.0 -0.9730002784 0.2280953022
850294900.0 -0.9695558529 0.241917811
900294600.0 -0.9658542709 0.25554789
950294300.0 -0.961965925 0.2693040996
1000294000.0 -0.9581767361 0.2832258449
1050293700.0 -0.953631821 0.2969333454
1100293400.0 -0.9491646836 0.3114354719
1150293100.0 -0.9454855494 0.3233830101
1200292800.0 -0.9402548582 0.3375234469
1250292500.0 -0.9347454549 0.3511468971
1300292200.0 -0.9288334667 0.3643342172
1350291900.0 -0.9234883909 0.3783374274
1400291600.0 -0.9178757061 0.3915096733
1450291300.0 -0.9126009253 0.4039328563
1500291000.0 -0.9062517828 0.4171962639
1550290700.0 -0.8996356116 0.4306476764
1600290400.0 -0.893466085 0.4435643685
1650290100.0 -0.8867536471 0.4555427085
1700289800.0 -0.8797994869 0.4690505089
1750289500.0 -0.8730451868 0.4814969956
1800289200.0 -0.8654438228 0.4944714553
1850288900.0 -0.8587421011 0.5056240433
1900288600.0 -0.8510293636 0.5187332504
1950288300.0 -0.8429903021 0.5312516555
2000288000.0 -0.8354239984 0.5427422134
2050287700.0 -0.8272444532 0.5551736784
2100287400.0 -0.8193268944 0.5665124468
2150287100.0 -0.8110274529 0.5786024895
2200286800.0 -0.803036807 0.5893060281
2250286500.0 -0.7941211832 0.6014485917
2300286200.0 -0.7849541918 0.6128680181
2350285900.0 -0.7768903619 0.6232592804
2400285600.0 -0.7679970967 0.6341864169
2450285300.0 -0.759189039 0.6449257534
2500285000.0 -0.7492435415 0.656533305
2550284700.0 -0.7402304289 0.667179876
2600284400.0 -0.7312181824 0.6768244517
2650284100.0 -0.7225199956 0.6868482986
2700283800.0 -0.7121711912 0.6976602889
2750283500.0 -0.7016900459 0.7081213683
2800283200.0 -0.6917727703 0.718097942
2850282900.0 -0.6813907162 0.7282166503
2900282600.0 -0.6709371197 0.7378318195
2950282300.0 -0.660387581 0.7473742319
3000282000.0 -0.6494433881 0.7565883646
3050281700.0 -0.6383767457 0.7660691703
3100281400.0 -0.6267912301 0.7750021199
3150281100.0 -0.6156957564 0.7838856891
3200280800.0 -0.6042965888 0.7921411662
3250280500.0 -0.5931076944 0.8001852286
3300280200.0 -0.581541749 0.8083962892
3350279900.0 -0.5692042663 0.8164549016
3400279600.0 -0.5566328642 0.8245323756
3450279300.0 -0.5456012943 0.8316711238
3500279000.0 -0.5338918562 0.8385759825
3550278700.0 -0.5218230669 0.8456217588
3600278400.0 -0.509793478 0.8524000685
3650278100.0 -0.4968964779 0.8597914009
3700277800.0 -0.4845609224 0.8663916514
3750277500.0 -0.4722089047 0.8733136998
3800277200.0 -0.4598693777 0.8796789895
3850276900.0 -0.4477716497 0.8856698835
3900276600.0 -0.437030048 0.8913454336
3950276300.0 -0.4249538143 0.8970417503
4000276000.0 -0.4131959602 0.9031842895
4050275700.0 -0.4005454801 0.9091062767
4100275400.0 -0.3894961989 0.9143905753
4150275100.0 -0.3760015787 0.9203822784
4200274800.0 -0.3625148291 0.9258761678
4250274500.0 -0.3499379037 0.9315553076
4300274200.0 -0.336492638 0.9368984721
4350273900.0 -0.3225135649 0.9419257196
4400273600.0 -0.3076331059 0.9470652064
4450273300.0 -0.292754603 0.9520385942
4500273000.0 -0.279842255 0.9562012401
4550272700.0 -0.2661160865 0.9604713591
4600272400.0 -0.2509658514 0.964656839
4650272100.0 -0.2397422018 0.9676750833
4700271800.0 -0.2269019855 0.9711253965
4750271500.0 -0.2153174431 0.9739405915
4800271200.0 -0.2031201457 0.9765950178
4850270900.0 -0.1893323818 0.9794985968
4900270600.0 -0.1755915839 0.9818548438
4950270300.0 -0.1609169703 0.9846743203
5000270000.0 -0.1464327719 0.9866060726
5050269700.0 -0.1329428288 0.9883230067
5100269400.0 -0.1187013879 0.9901496138
5150269100.0 -0.1046976279 0.99176322
5200268800.0 -0.0913028847 0.9926776789
5250268500.0 -0.0782288938 0.9935392389
5300268200.0 -0.064638094 0.994334966
5350267900.0 -0.0518116467 0.9951377429
5400267600.0 -0.0356031137 0.9962633473
5450267300.0 -0.0219796747 0.9967359451
5500267000.0 -0.0066660161 0.9970442678
5550266700.0 0.0081937357 0.9970830096
5600266400.0 0.0238740938 0.9973778839
5650266100.0 0.0405486351 0.9966203995
5700265800.0 0.0548358563 0.9961161378
5750265500.0 0.0695620465 0.995090247
5800265200.0 0.0831550373 0.9941012879
5850264900.0 0.0964798191 0.9931644706
5900264600.0 0.1129413559 0.9910103579
5950264300.0 0.1247309971 0.9897723927
6000264000.0 0.1380063166 0.9877328875
6050263700.0 0.1496557243 0.9866385763
6100263400.0 0.1616627163 0.9850191703
6150263100.0 0.1764122738 0.9824910812
6200262800.0 0.1858978752 0.9809367485
6250262500.0 0.1983814788 0.9787710595
6300262200.0 0.2106200032 0.9762167966
6350261900.0 0.2233593949 0.9734463646
6400261600.0 0.237315624 0.9702614702
6450261300.0 0.2482355148 0.9677155682
6500261000.0 0.2619079914 0.9642096289
6550260700.0 0.274922942 0.9600765429
6600260400.0 0.2886304562 0.9561743469
6650260100.0 0.3026643208 0.9517313219
6700259800.0 0.3148744356 0.9474942014
6750259500.0 0.328473269 0.9424643182
6800259200.0 0.3423411071 0.9373156541
6850258900.0 0.3544493261 0.9320324017
6900258600.0 0.366944177 0.9268153129
6950258300.0 0.379769599 0.9216368372
7000258000.0 0.3911227373 0.9161926672
7050257700.0 0.4031344909 0.9106651984
7100257400.0 0.4164565657 0.9039671714
7150257100.0 0.4271464554 0.8985466662
7200256800.0 0.4402531856 0.8921563019
7250256500.0 0.4529864577 0.8854921426
7300256200.0 0.465840283 0.8788249525
7350255900.0 0.4787289182 0.8716221045
7400255600.0 0.4933914268 0.8641069388
7450255300.0 0.5088508963 0.8547181546
7500255000.0 0.5214376871 0.8472466414
7550254700.0 0.5358280228 0.8383164364
7600254400.0 0.5480982725 0.8297080182
7650254100.0 0.559665661 0.8219832922
7700253800.0 0.5713331274 0.8138295885
7750253500.0 0.5821813086 0.8061427105
7800253200.0 0.5926875349 0.7984087777
7850252900.0 0.6025072964 0.7911218128
7900252600.0 0.614016222 0.7823769368
7950252300.0 0.6223640762 0.7761050493
8000252000.0 0.6324343446 0.7684864364
8050251700.0 0.642696276 0.7603208729
8100251400.0 0.6527029151 0.7522811255
8150251100.0 0.6626630998 0.743819302
8200250800.0 0.672004004 0.735685132
8250250500.0 0.6810593331 0.7277707252
8300250200.0 0.6899371851 0.7195348131
8350249900.0 0.6993779049 0.7106220319
8400249600.0 0.7072431589 0.7026304201
8450249300.0 0.7160561592 0.6939030217
8500249000.0 0.7245645678 0.6850434465
8550248700.0 0.7328013671 0.6760939815
8600248400.0 0.7411640604 0.6665832405
8650248100.0 0.7486400886 0.6572392617
8700247800.0 0.7579652402 0.6463265457
8750247500.0 0.7662311602 0.6360418931
8800247200.0 0.7741936637 0.6259902339
8850246900.0 0.7828982406 0.614416288
8900246600.0 0.7915045584 0.6027954791
8950246300.0 0.8008104534 0.5902696962
9000246000.0 0.8092078764 0.5783990517
9050245700.0 0.8175620238 0.5661097913
9100245400.0 0.8258536493 0.5539920691
9150245100.0 0.8348917707 0.5413272979
9200244800.0 0.8441030184 0.5271053811
9250244500.0 0.8531941004 0.5122131084
9300244200.0 0.8608590789 0.4989549487
9350243900.0 0.8686905006 0.4857581255
9400243600.0 0.8752937763 0.474169943
9450243300.0 0.8806461394 0.4638557275
9500243000.0 0.8870042008 0.4522049027
9550242700.0 0.8908620231 0.4446168659
9600242400.0 0.8954372323 0.4371736278
9650242100.0 0.8996405059 0.4299986787
9700241800.0 0.904545947 0.4214452408
9750241500.0 0.9086648543 0.4136089227
9800241200.0 0.9137227793 0.4044600804
9850240900.0 0.9195946138 0.3924558607
9900240600.0 0.9254340719 0.3807252587
9950240300.0 0.9327762814 0.3637664582
10000240000.0 0.9381376852 0.3518934703
10050239700.0 0.9439101204 0.3353386928
10100239400.0 0.9492243481 0.3189401091
10150239100.0 0.9542088076 0.3033529317
10200238800.0 0.9582698892 0.2877161721
10250238500.0 0.9616266099 0.2743245951
10300238200.0 0.9646571042 0.2603764826
10350237900.0 0.9675255384 0.2471978722
10400237600.0 0.9701061153 0.2332787058
10450237300.0 0.9727469696 0.2200661006
10500237000.0 0.9751671576 0.2075238877
10550236700.0 0.9774377985 0.1930998747
10600236400.0 0.9798998628 0.1787184753
10650236100.0 0.981787003 0.1645780874
10700235800.0 0.9834688582 0.1524565978
10750235500.0 0.986300257 0.1383342386
10800235200.0 0.9877013015 0.1245913556
10850234900.0 0.9898855804 0.1091690234
10900234600.0 0.9920806975 0.0943773242
10950234300.0 0.9938305408 0.0810157139
11000234000.0 0.9956880667 0.0655511309
11050233700.0 0.9973305521 0.048621681
11100233400.0 0.9989993946 0.0307842199
11150233100.0 1.000008137 0.0142759032
11200232800.0 1.001127788 -0.0022569815
11250232500.0 1.001865036 -0.0202450101
11300232200.0 1.002024447 -0.0386239219
11350231900.0 1.002292219 -0.0551620624
11400231600.0 1.001591112 -0.0702509224
11450231300.0 1.000743207 -0.0853152185
11500231000.0 0.9993714679 -0.1030794187
11550230700.0 0.9982943539 -0.1160899706
11600230400.0 0.9971503423 -0.127792221
11650230100.0 0.9947009536 -0.1400745226
11700229800.0 0.9926524839 -0.1555263808
11750229500.0 0.9901798947 -0.1696136325
11800229200.0 0.9871461008 -0.1826851658
11850228900.0 0.9835048683 -0.1943943371
11900228600.0 0.9797953498 -0.2034882023
11950228300.0 0.976255845 -0.2138680664
12000228000.0 0.9733002499 -0.2230056502
12050227700.0 0.9694195158 -0.2355868838
12100227400.0 0.966364923 -0.2467223795
12150227100.0 0.9612467237 -0.2636399857
12200226800.0 0.957206565 -0.2741953116
12250226500.0 0.9536840901 -0.2866169282
12300226200.0 0.9495598901 -0.2984641913
12350225900.0 0.9443928292 -0.3119342273
12400225600.0 0.940453283 -0.325223198
12450225300.0 0.9357456629 -0.3372538011
12500225000.0 0.9301075997 -0.3520986924
12550224700.0 0.9245830263 -0.3663527868
12600224400.0 0.9198066312 -0.3786977788
12650224100.0 0.9139109236 -0.3930140654
12700223800.0 0.9086745346 -0.4057791044
12750223500.0 0.9030754717 -0.4188904099
12800223200.0 0.8977496156 -0.4312089281
12850222900.0 0.8925417338 -0.4436956668
12900222600.0 0.8869376672 -0.4556472151
12950222300.0 0.8808247043 -0.4683216443
13000222000.0 0.874766209 -0.4796832646
13050221700.0 0.8681624096 -0.4922400284
13100221400.0 0.8612817246 -0.505302527
13150221100.0 0.854046135 -0.5175923871
13200220800.0 0.8473661166 -0.5286169532
13250220500.0 0.8399339624 -0.5407458568
13300220200.0 0.8325148432 -0.5519783759
13350219900.0 0.8243711363 -0.5637952163
13400219600.0 0.8158623156 -0.5756382356
13450219300.0 0.806713334 -0.5887515786
13500219000.0 0.7968859745 -0.6017038734
13550218700.0 0.7874442987 -0.6139680322
13600218400.0 0.7773275808 -0.6254410135
13650218100.0 0.7674093531 -0.6365211734
13700217800.0 0.7568957536 -0.6486136605
13750217500.0 0.7469003798 -0.6588417139
13800217200.0 0.7362421029 -0.6705817316
13850216900.0 0.7252651614 -0.6807114398
13900216600.0 0.7160229725 -0.6897618257
13950216300.0 0.7042633444 -0.6999180422
14000216000.0 0.6953289515 -0.7093793926
14050215700.0 0.6860658654 -0.7171485121
14100215400.0 0.6766092384 -0.7263707224
14150215100.0 0.6673566986 -0.735397122
14200214800.0 0.6578449717 -0.7440190865
14250214500.0 0.6475959702 -0.753457912
14300214200.0 0.6371011998 -0.7628768801
14350213900.0 0.6262581298 -0.7724842026
14400213600.0 0.6144510553 -0.7823941537
14450213300.0 0.6011946015 -0.7927650528
14500213000.0 0.5885314763 -0.8021869186
14550212700.0 0.5760942613 -0.8114777283
14600212400.0 0.5631293533 -0.820598391
14650212100.0 0.5508945503 -0.8290253689
14700211800.0 0.5372483966 -0.8385906202
14750211500.0 0.5247375207 -0.847402739
14800211200.0 0.5121998744 -0.8554112225
14850210900.0 0.5000319744 -0.8630657711
14900210600.0 0.4865725832 -0.8711381419
14950210300.0 0.4732145361 -0.8785842543
15000210000.0 0.4606566827 -0.8855051973
15050209700.0 0.448350479 -0.8917456042
15100209400.0 0.4356957159 -0.8977548491
15150209100.0 0.4235605192 -0.902682143
15200208800.0 0.4109224754 -0.9079527537
15250208500.0 0.3991270278 -0.9128206292
15300208200.0 0.3879046255 -0.9171495228
15350207900.0 0.3740179216 -0.9222531057
15400207600.0 0.3596948935 -0.9273951104
15450207300.0 0.3450460195 -0.9326674765
15500207000.0 0.3305550739 -0.936776404
15550206700.0 0.3159027504 -0.9422090602
15600206400.0 0.2996268993 -0.946288816
15650206100.0 0.2836271509 -0.9510735926
15700205800.0 0.2701893452 -0.9541955892
15750205500.0 0.2562682753 -0.9576996752
15800205200.0 0.2424877882 -0.9609155548
15850204900.0 0.2281506387 -0.9644981249
15900204600.0 0.213242648 -0.9683334916
15950204300.0 0.1987142755 -0.9713446916
16000204000.0 0.1842134666 -0.9743924846
16050203700.0 0.1691896544 -0.9771340884
16100203400.0 0.1542515825 -0.9797401593
16150203100.0 0.1397630736 -0.9818927821
16200202800.0 0.1253916959 -0.9842264528
16250202500.0 0.1106808701 -0.9859569969
16300202200.0 0.0954035512 -0.9871185086
16350201900.0 0.0798548844 -0.9890743285
16400201600.0 0.0651337122 -0.9902382674
16450201300.0 0.0495443888 -0.9913457023
16500201000.0 0.0325489425 -0.991923504
16550200700.0 0.0162988127 -0.9924725728
16600200400.0 0.0005924964 -0.9928779959
16650200100.0 -0.0156493471 -0.9927259178
16700199800.0 -0.0319208663 -0.9923139026
16750199500.0 -0.0514391796 -0.9918689569
16800199200.0 -0.0667157631 -0.9904469798
16850198900.0 -0.0822822778 -0.9898430602
16900198600.0 -0.0967840143 -0.9887569004
16950198300.0 -0.1105688713 -0.9875790725
17000198000.0 -0.1234704982 -0.9855436881
17050197700.0 -0.1364850637 -0.9838947982
17100197400.0 -0.1489719418 -0.9823559322
17150197100.0 -0.1620168324 -0.9800681495
17200196800.0 -0.1749815926 -0.9777575047
17250196500.0 -0.1872643197 -0.9752080162
17300196200.0 -0.1996237326 -0.9729638427
17350195900.0 -0.2116504954 -0.9706009506
17400195600.0 -0.223639546 -0.9680292509
17450195300.0 -0.2363492295 -0.9651807373
17500195000.0 -0.2497721945 -0.9618160529
17550194700.0 -0.2632621005 -0.9584106407
17600194400.0 -0.2771812935 -0.9545759218
17650194100.0 -0.2906745986 -0.9507564319
17700193800.0 -0.3032975588 -0.9462264167
17750193500.0 -0.3176840696 -0.9417172421
17800193200.0 -0.3318604595 -0.9362311695
17850192900.0 -0.3470572704 -0.9310316676
17900192600.0 -0.3616439936 -0.9248197887
17950192300.0 -0.3771953927 -0.9178676328
18000192000.0 -0.392221335 -0.9107022057
18050191700.0 -0.4060625165 -0.9027243626
18100191400.0 -0.4200340427 -0.8949551863
18150191100.0 -0.4349043556 -0.8869067487
18200190800.0 -0.4519088735 -0.8778096721
18250190500.0 -0.4685159003 -0.8684023349
18300190200.0 -0.4843195137 -0.8596117113
18350189900.0 -0.4990965036 -0.851128258
18400189600.0 -0.5141463892 -0.8429689053
18450189300.0 -0.5272694787 -0.8347183015
18500189000.0 -0.5410842767 -0.8267488615
18550188700.0 -0.5537541907 -0.8191092698
18600188400.0 -0.5655356396 -0.811755774
18650188100.0 -0.5771753833 -0.8052877065
18700187800.0 -0.5879203796 -0.798665612
18750187500.0 -0.598858325 -0.7921751436
18800187200.0 -0.60947093 -0.7851957274
18850186900.0 -0.6197467114 -0.7783052614
18900186600.0 -0.6299863638 -0.7708721539
18950186300.0 -0.6402073119 -0.7630653901
19000186000.0 -0.6480613531 -0.7567774198
19050185700.0 -0.6570970035 -0.7494717488
19100185400.0 -0.6673867738 -0.7414204161
19150185100.0 -0.6775422439 -0.732841045
19200184800.0 -0.686577837 -0.7247846428
19250184500.0 -0.6970937521 -0.7154323161
19300184200.0 -0.7083086476 -0.7058005996
19350183900.0 -0.719168336 -0.6960122257
19400183600.0 -0.728962637 -0.6868344857
19450183300.0 -0.7380535122 -0.6763425636
19500183000.0 -0.7461120306 -0.6660258246
19550182700.0 -0.7557454296 -0.6553102603
19600182400.0 -0.7659606117 -0.6439703088
19650182100.0 -0.7767980667 -0.63115078
19700181800.0 -0.786912634 -0.6181499283
19750181500.0 -0.797516049 -0.6040104571
19800181200.0 -0.8075831514 -0.5891139603
19850180900.0 -0.8171231175 -0.5739100974
19900180600.0 -0.8246840687 -0.5595397142
19950180300.0 -0.833875973 -0.5430578825
20000180000.0 -0.823249757 -0.5468123008
20050179700.0 -0.8308361396 -0.5352134547
20100179400.0 -0.8392887769 -0.5213417823
20150179100.0 -0.847670414 -0.5093014041
20200178800.0 -0.8553210957 -0.497609292
20250178500.0 -0.8651166855 -0.4855027412
20300178200.0 -0.8742067835 -0.4719884521
20350177900.0 -0.8843612835 -0.4583172424
20400177600.0 -0.8931061254 -0.4438379153
20450177300.0 -0.9018102629 -0.4296491109
20500177000.0 -0.9096961034 -0.4159553323
20550176700.0 -0.9175850966 -0.4019483159
20600176400.0 -0.9243893762 -0.3889515242
20650176100.0 -0.9312197322 -0.3769667697
20700175800.0 -0.9376384761 -0.364376272
20750175500.0 -0.9443167066 -0.353845944
20800175200.0 -0.9490422062 -0.342293502
20850174900.0 -0.9528892464 -0.3324590816
20900174600.0 -0.9567278731 -0.3206583141
20950174300.0 -0.9614233637 -0.3099399491
21000174000.0 -0.9641329621 -0.2994468506
21050173700.0 -0.9661932643 -0.2900004418
21100173400.0 -0.9687623023 -0.2789213253
21150173100.0 -0.9728478539 -0.2673787345
21200172800.0 -0.9764690311 -0.253847154
21250172500.0 -0.9800002083 -0.2402666323
21300172200.0 -0.9836254195 -0.2265389718
21350171900.0 -0.9860540121 -0.2116143124
21400171600.0 -0.9882773921 -0.1977020936
21450171300.0 -0.9889733664 -0.1840687995
21500171000.0 -0.9888198112 -0.1687249172
21550170700.0 -0.9890256353 -0.1528753032
21600170400.0 -0.9905447668 -0.1380877488
21650170100.0 -0.9905154091 -0.1234376489
21700169800.0 -0.9902894044 -0.1071918701
21750169500.0 -0.9889494291 -0.0917039339
21800169200.0 -0.9897770646 -0.075357602
21850168900.0 -0.9900813653 -0.057603474
21900168600.0 -0.9896511174 -0.0417325831
21950168300.0 -0.988644703 -0.025687336
22000168000.0 -0.9894067598 -0.0108919531
22050167700.0 -0.9900818332 0.0035298984
22100167400.0 -0.9908781698 0.0192481627
22150167100.0 -0.9916934627 0.0355746538
22200166800.0 -0.992423723 0.0519079678
22250166500.0 -0.9919710284 0.0695297752
22300166200.0 -0.9916439615 0.0851813574
22350165900.0 -0.9899717532 0.1020054333
22400165600.0 -0.9875191603 0.1174845338
22450165300.0 -0.9866302711 0.1315236051
22500165000.0 -0.9857404515 0.1474169058
22550164700.0 -0.9844406021 0.1634518951
22600164400.0 -0.9814325887 0.1796564884
22650164100.0 -0.9785301237 0.1953652152
22700163800.0 -0.9748301546 0.2116382917
22750163500.0 -0.9724409029 0.2262703909
22800163200.0 -0.9694972033 0.2390403155
22850162900.0 -0.9668402453 0.2526290874
22900162600.0 -0.9649165869 0.2664929135
22950162300.0 -0.9630400986 0.2801391551
23000162000.0 -0.9613213775 0.293065061
23050161700.0 -0.9585941125 0.3065841696
23100161400.0 -0.9561256883 0.3196722223
23150161100.0 -0.9531668888 0.3331659355
23200160800.0 -0.9500792468 0.345244683
23250160500.0 -0.9465849635 0.3583092397
23300160200.0 -0.9445388423 0.3709015424
23350159900.0 -0.939933254 0.3848566802
23400159600.0 -0.9349869676 0.398075737
23450159300.0 -0.9303511301 0.4123632165
23500159000.0 -0.9250353384 0.4261161852
23550158700.0 -0.9199614489 0.4401308378
23600158400.0 -0.9139203972 0.4541077263
23650158100.0 -0.9067554518 0.46881556
23700157800.0 -0.8983759587 0.48298923
23750157500.0 -0.8886215809 0.4973889801
23800157200.0 -0.8787549864 0.5108511612
23850156900.0 -0.8689599238 0.5238707974
23900156600.0 -0.8590162304 0.5366788499
23950156300.0 -0.8496129565 0.5487935721
24000156000.0 -0.8395824713 0.5616257832
24050155700.0 -0.8287399382 0.5734928202
24100155400.0 -0.8189729222 0.5860541369
24150155100.0 -0.8078723847 0.5981005216
24200154800.0 -0.7967967556 0.6104917176
24250154500.0 -0.7852808109 0.6227352412
24300154200.0 -0.7740999332 0.6343576425
24350153900.0 -0.7620712048 0.6457863097
24400153600.0 -0.7490343645 0.6566696314
24450153300.0 -0.7373673457 0.6667209149
24500153000.0 -0.7256670951 0.6767185207
24550152700.0 -0.7138966322 0.6868088373
24600152400.0 -0.7022343257 0.6965204289
24650152100.0 -0.6894484081 0.7054564482
