!Created with skrf (http://scikit-rf.org).
# Hz S RI R 50.0 
!freq ReS11 ImS11
300000.0 -0.9941848719 -0.0528074604
50299700.0 -0.9993920476 0.0164382577
100299400.0 -0.997620847 0.0291676768
150299100.0 -1.002229413 0.0459283344
200298800.0 -0.9989869506 0.0592273309
250298500.0 -0.9966943545 0.0725425288
300298200.0 -0.9852051797 0.0884107602
350297900.0 -0.9932227891 0.0992427841
400297600.0 -0.9922568538 0.1155648601
450297300.0 -0.9900923157 0.1294062919
500297000.0 -0.9883562995 0.1440947094
550296700.0 -0.9833808396 0.1565093868
600296400.0 -1.016195564 0.1897516138
650296100.0 -0.9811252297 0.186453581
700295800.0 -0.9781285444 0.2004843096
750295500.0 -0.9752073321 0.2144120956
800295200.0 -0.9715964424 0.2285962396
850294900.0 -0.968254162 0.2422891126
900294600.0 -0.9645354606 0.2559087341
950294300.0 -0.9608229741 0.2697241578
1000294000.0 -0.9568309661 0.2836669305
1050293700.0 -0.9523518421 0.2973757769
1100293400.0 -0.9480813545 0.3117773783
1150293100.0 -0.944446181 0.3233869384
1200292800.0 -0.9389685246 0.3377426568
1250292500.0 -0.9336520749 0.351215526
1300292200.0 -0.9281281828 0.3643728053
1350291900.0 -0.9227104608 0.3784542855
1400291600.0 -0.9170942554 0.3915282894
1450291300.0 -0.911770642 0.4037343463
1500291000.0 -0.9057168067 0.4170421047
1550290700.0 -0.8991059608 0.4302731448
1600290400.0 -0.8930208448 0.4430815619
1650290100.0 -0.8865135464 0.455403861
1700289800.0 -0.8795973292 0.4686635235
1750289500.0 -0.8725148885 0.4810740257
1800289200.0 -0.8653879366 0.4937836367
1850288900.0 -0.8586152485 0.5049955718
1900288600.0 -0.8508370457 0.5179191673
1950288300.0 -0.8429293763 0.5306278399
2000288000.0 -0.835323668 0.5420330752
2050287700.0 -0.8271777321 0.5543524782
2100287400.0 -0.8194695525 0.5660127015
2150287100.0 -0.8107343614 0.5779657088
2200286800.0 -0.8028353083 0.5885885797
2250286500.0 -0.7943282316 0.6005877282
2300286200.0 -0.7852581955 0.612074994
2350285900.0 -0.7765160091 0.6229289634
2400285600.0 -0.7673350128 0.6341918764
2450285300.0 -0.7586065315 0.6446340333
2500285000.0 -0.7492079233 0.6555916652
2550284700.0 -0.7400088686 0.6660605245
2600284400.0 -0.7306604505 0.6764394716
2650284100.0 -0.7214817579 0.6868177917
2700283800.0 -0.7111843568 0.6970339764
2750283500.0 -0.7010034895 0.7077796961
2800283200.0 -0.6911997411 0.7172410755
2850282900.0 -0.6807932277 0.727071883
2900282600.0 -0.6703274378 0.7364133761
2950282300.0 -0.6603682465 0.7460977188
3000282000.0 -0.6495703436 0.7554111838
3050281700.0 -0.6385966144 0.7646090137
3100281400.0 -0.627200666 0.7736658202
3150281100.0 -0.6159923904 0.7828035595
3200280800.0 -0.6042270733 0.7916712956
3250280500.0 -0.593480603 0.7995451793
3300280200.0 -0.582076598 0.8074615942
3350279900.0 -0.5708428408 0.8149745326
3400279600.0 -0.5587794826 0.8230034365
3450279300.0 -0.547536589 0.8302092555
3500279000.0 -0.5357580122 0.8374714366
3550278700.0 -0.5234939489 0.8449110417
3600278400.0 -0.5115436272 0.8518923278
3650278100.0 -0.4985242031 0.8597687047
3700277800.0 -0.4864430432 0.8659377569
3750277500.0 -0.4744271184 0.8726846504
3800277200.0 -0.4619599214 0.8793534175
3850276900.0 -0.4493481085 0.8853949491
3900276600.0 -0.4383930885 0.891258278
3950276300.0 -0.4255246398 0.8975194192
4000276000.0 -0.4134692826 0.9036207934
4050275700.0 -0.4001233458 0.909745932
4100275400.0 -0.388692547 0.9150156244
4150275100.0 -0.3759478444 0.9206713819
4200274800.0 -0.3623835035 0.9260127944
4250274500.0 -0.3503542679 0.930881498
4300274200.0 -0.3372183046 0.9362621723
4350273900.0 -0.3236762109 0.9414375906
4400273600.0 -0.3095178287 0.9462438535
4450273300.0 -0.2945987837 0.951065148
4500273000.0 -0.2815495381 0.9554682306
4550272700.0 -0.2675936782 0.9596826452
4600272400.0 -0.2523061058 0.963711177
4650272100.0 -0.2403170564 0.9667774656
4700271800.0 -0.2268411099 0.9703664327
4750271500.0 -0.214446448 0.9732984951
4800271200.0 -0.2014255938 0.9760914788
4850270900.0 -0.1877519299 0.9788490926
4900270600.0 -0.1741253739 0.9812880978
4950270300.0 -0.1603373418 0.9835829966
5000270000.0 -0.1462316745 0.9859796025
5050269700.0 -0.1327325286 0.9878092943
5100269400.0 -0.1189196241 0.9894290809
5150269100.0 -0.1056442013 0.9911987807
5200268800.0 -0.0917769226 0.992193025
5250268500.0 -0.0789509016 0.9929333703
5300268200.0 -0.0655251098 0.9943650882
5350267900.0 -0.0534863234 0.9948425418
5400267600.0 -0.0375744373 0.996052802
5450267300.0 -0.0250180967 0.9959557314
5500267000.0 -0.0103685032 0.996581294
5550266700.0 0.0036884378 0.9964936803
5600266400.0 0.0189111771 0.9966992594
5650266100.0 0.0347602412 0.9966473357
5700265800.0 0.0487644215 0.9955226866
5750265500.0 0.0634919108 0.9948976694
5800265200.0 0.0778713669 0.9941958564
5850264900.0 0.0909132672 0.9930892963
5900264600.0 0.1072186273 0.9915399709
5950264300.0 0.1190635216 0.9899417366
6000264000.0 0.133620335 0.9878959475
6050263700.0 0.146228862 0.9863113185
6100263400.0 0.1591034991 0.9844859172
6150263100.0 0.1743148467 0.9819989821
6200262800.0 0.185085953 0.9804085935
6250262500.0 0.1982051155 0.9776085384
6300262200.0 0.2110653347 0.9748899785
6350261900.0 0.2240565804 0.9718977422
6400261600.0 0.2382820106 0.9685954315
6450261300.0 0.2500190739 0.9657741802
6500261000.0 0.2629195361 0.9624268431
6550260700.0 0.2756936256 0.9584560619
6600260400.0 0.2887507084 0.9547426265
6650260100.0 0.3030177821 0.9502834434
6700259800.0 0.314779318 0.9461397956
6750259500.0 0.3283848708 0.9412842982
6800259200.0 0.3416076996 0.9365101601
6850258900.0 0.3534893839 0.931620774
6900258600.0 0.3660199243 0.9269460396
6950258300.0 0.3786019388 0.9218579514
7000258000.0 0.39072119 0.9164658214
7050257700.0 0.4026957055 0.9108227226
7100257400.0 0.4160778088 0.9046033252
7150257100.0 0.4267090368 0.8993739075
7200256800.0 0.4395890615 0.8930789553
7250256500.0 0.4510247028 0.8867899524
7300256200.0 0.4639555088 0.880413136
7350255900.0 0.4760759128 0.8737573649
7400255600.0 0.4876899685 0.8672558363
7450255300.0 0.5025003078 0.8588831778
7500255000.0 0.5136941807 0.8519602023
7550254700.0 0.5263597616 0.8438654379
7600254400.0 0.539183472 0.8360692372
7650254100.0 0.55070968 0.8285016314
7700253800.0 0.5626780031 0.8203522336
7750253500.0 0.5739957592 0.8125107182
7800253200.0 0.585271527 0.8045143174
7850252900.0 0.5946940698 0.7975582081
7900252600.0 0.6065886442 0.788799019
7950252300.0 0.6160291129 0.7816958183
8000252000.0 0.6265044351 0.7735669227
8050251700.0 0.6370956629 0.7650613291
8100251400.0 0.6472664799 0.7570794607
8150251100.0 0.6575078745 0.7480263135
8200250800.0 0.6673476374 0.7399371317
8250250500.0 0.6765879022 0.7314112389
8300250200.0 0.6859329039 0.722504708
8350249900.0 0.6957837356 0.7135551011
8400249600.0 0.703935271 0.7051563732
8450249300.0 0.7134903058 0.6957320498
8500249000.0 0.7224785396 0.6865933405
8550248700.0 0.7313582095 0.6771495879
8600248400.0 0.7401234034 0.6673229473
8650248100.0 0.7479965166 0.6582530325
8700247800.0 0.7573193066 0.6473382807
8750247500.0 0.7657189698 0.6372363637
8800247200.0 0.774057242 0.6270976545
8850246900.0 0.7825345262 0.6161050031
8900246600.0 0.7906793369 0.6051944081
8950246300.0 0.7999705202 0.59284509
9000246000.0 0.8085842316 0.5810755195
9050245700.0 0.816975191 0.5691089032
9100245400.0 0.8254159725 0.557238199
9150245100.0 0.833919405 0.5446614075
9200244800.0 0.8424879035 0.531358478
9250244500.0 0.8514116735 0.5173874649
9300244200.0 0.8593116086 0.5040929114
9350243900.0 0.867077196 0.4907829473
9400243600.0 0.8736539066 0.4780789111
9450243300.0 0.8800258086 0.4661847437
9500243000.0 0.8870057332 0.4529990013
9550242700.0 0.8918876565 0.442909707
9600242400.0 0.896928847 0.4331278884
9650242100.0 0.9010665021 0.424722538
9700241800.0 0.9062802237 0.4151669321
9750241500.0 0.9107808173 0.4055961013
9800241200.0 0.9154755588 0.3951511591
9850240900.0 0.9211020656 0.383499128
9900240600.0 0.9258626413 0.3731765105
9950240300.0 0.9319056042 0.3577422896
10000240000.0 0.9366323792 0.3458021689
10050239700.0 0.9421589969 0.3314073511
10100239400.0 0.9474911575 0.3168917349
10150239100.0 0.9514134236 0.3025619646
10200238800.0 0.9556725196 0.287937245
10250238500.0 0.9594652261 0.2748142823
10300238200.0 0.9627557802 0.2609358147
10350237900.0 0.9657200634 0.2478956862
10400237600.0 0.9688473368 0.2346550676
10450237300.0 0.9717851799 0.220938015
10500237000.0 0.9742075467 0.2084549441
10550236700.0 0.976776813 0.19478539
10600236400.0 0.9791436369 0.1815056687
10650236100.0 0.9810375004 0.1674006004
10700235800.0 0.9840367586 0.1541371321
10750235500.0 0.9857805698 0.1415788033
10800235200.0 0.9875984093 0.1274851699
10850234900.0 0.9893150139 0.1134803269
10900234600.0 0.9912524026 0.099113832
10950234300.0 0.9929170064 0.0857683093
11000234000.0 0.9944430028 0.071669405
11050233700.0 0.995964613 0.0568960068
11100233400.0 0.9971644338 0.0403967256
11150233100.0 0.9978216221 0.0251515459
11200232800.0 0.9985071475 0.010091589
11250232500.0 0.9994754331 -0.0052585576
11300232200.0 0.9996506935 -0.0211194557
11350231900.0 0.999615713 -0.0371485995
11400231600.0 0.9992824426 -0.0522467195
11450231300.0 0.9984777442 -0.0669463603
11500231000.0 0.9980330484 -0.0830750309
11550230700.0 0.9964634686 -0.0958704237
11600230400.0 0.9946416653 -0.1095557101
11650230100.0 0.9933795474 -0.1213339699
11700229800.0 0.9911262785 -0.1368603583
11750229500.0 0.9891489349 -0.1510403384
11800229200.0 0.9868116874 -0.1650373186
11850228900.0 0.9837639176 -0.1786198279
11900228600.0 0.9806345229 -0.1902562881
11950228300.0 0.9777564298 -0.2023142967
12000228000.0 0.9748067436 -0.2125718661
12050227700.0 0.9718507599 -0.2251382372
12100227400.0 0.9685489973 -0.2376972162
12150227100.0 0.9634698084 -0.2537893035
12200226800.0 0.9609919939 -0.2646905404
12250226500.0 0.9566151363 -0.2773931371
12300226200.0 0.9533364647 -0.2894869558
12350225900.0 0.9479065127 -0.3040346146
12400225600.0 0.9439870256 -0.3170643977
12450225300.0 0.9398584692 -0.3290579128
12500225000.0 0.9346123103 -0.343629509
12550224700.0 0.9294274271 -0.3574523094
12600224400.0 0.9249042733 -0.3698643122
12650224100.0 0.918979093 -0.3838819188
12700223800.0 0.9138826917 -0.3964312266
12750223500.0 0.9083992848 -0.4092541723
12800223200.0 0.9030670741 -0.4220959724
12850222900.0 0.8973626065 -0.4342456558
12900222600.0 0.8917147802 -0.4465322183
12950222300.0 0.8850881552 -0.4594838131
13000222000.0 0.878950956 -0.4712832347
13050221700.0 0.8716562455 -0.4838493602
13100221400.0 0.865557601 -0.4957613234
13150221100.0 0.8584915153 -0.5086829231
13200220800.0 0.8515983239 -0.5199192834
13250220500.0 0.8441070849 -0.532301301
13300220200.0 0.8363368955 -0.5437327666
13350219900.0 0.8281832231 -0.5559018784
13400219600.0 0.8202803011 -0.5676730426
13450219300.0 0.8112532399 -0.5804249949
13500219000.0 0.8017072493 -0.5937238233
13550218700.0 0.792022052 -0.6063670934
13600218400.0 0.7827982225 -0.6181902003
13650218100.0 0.7737467682 -0.6290804709
13700217800.0 0.7628698841 -0.641370849
13750217500.0 0.7531235483 -0.6530224009
13800217200.0 0.7421640659 -0.6643368501
13850216900.0 0.7315562571 -0.675982804
13900216600.0 0.7225285836 -0.6856476052
13950216300.0 0.7111034198 -0.6960576673
14000216000.0 0.7013741566 -0.7053587957
14050215700.0 0.6919839815 -0.7141966853
14100215400.0 0.6816385969 -0.7238971573
14150215100.0 0.672327201 -0.7329333122
14200214800.0 0.6628037699 -0.7415868506
14250214500.0 0.6525175739 -0.7510185485
14300214200.0 0.6418217981 -0.7605496192
14350213900.0 0.630990729 -0.7697580052
14400213600.0 0.6194991783 -0.7791225724
14450213300.0 0.6076531124 -0.7885612561
14500213000.0 0.5951695248 -0.7979514421
14550212700.0 0.5830848857 -0.8077442563
14600212400.0 0.5710669132 -0.8157970477
14650212100.0 0.5585580159 -0.8245874594
14700211800.0 0.5444308785 -0.8334494602
14750211500.0 0.5325462623 -0.8417571737
14800211200.0 0.5202516111 -0.8498785226
14850210900.0 0.5082236393 -0.8572790022
14900210600.0 0.49515353 -0.8653705617
14950210300.0 0.4818283612 -0.8730916847
15000210000.0 0.4687730431 -0.880293675
15050209700.0 0.4560651471 -0.8867461374
15100209400.0 0.443000038 -0.8930366238
15150209100.0 0.4307820497 -0.898853626
15200208800.0 0.4172858596 -0.9052269053
15250208500.0 0.4052306148 -0.9096818888
15300208200.0 0.3926759798 -0.9158022936
15350207900.0 0.3787892464 -0.9202027577
15400207600.0 0.363657049 -0.9260486011
15450207300.0 0.3500490472 -0.9310711793
15500207000.0 0.3361055836 -0.9355257895
15550206700.0 0.3219778761 -0.9410095771
15600206400.0 0.3069052741 -0.9454713912
15650206100.0 0.2919452317 -0.9497341676
15700205800.0 0.2777133141 -0.9538518768
15750205500.0 0.2634458534 -0.9576683477
15800205200.0 0.2494716028 -0.9611163132
15850204900.0 0.2353844287 -0.9648120272
15900204600.0 0.2205126709 -0.9683987023
15950204300.0 0.2064798242 -0.9713757489
16000204000.0 0.1921601802 -0.9742117955
16050203700.0 0.1776398041 -0.9770721852
16100203400.0 0.1639761566 -0.9798013589
16150203100.0 0.149328993 -0.9821612379
16200202800.0 0.1351997945 -0.9841380705
16250202500.0 0.1205712753 -0.9861831392
16300202200.0 0.1055110608 -0.9872173167
16350201900.0 0.0903917553 -0.9892851086
16400201600.0 0.0757641149 -0.9902024104
16450201300.0 0.0608949151 -0.9914819607
16500201000.0 0.0448576621 -0.9926295814
16550200700.0 0.0293280365 -0.9932796222
16600200400.0 0.0138650693 -0.993586064
16650200100.0 -0.0018511092 -0.9936153472
16700199800.0 -0.0179818606 -0.9936852647
16750199500.0 -0.0355810102 -0.9931509031
16800199200.0 -0.0512554091 -0.9923870298
16850198900.0 -0.0665594937 -0.9913298243
16900198600.0 -0.0813115861 -0.9901673682
16950198300.0 -0.0953932013 -0.9895717096
17000198000.0 -0.1085759847 -0.987790455
17050197700.0 -0.1226073484 -0.9861222076
17100197400.0 -0.1366720467 -0.9843068433
17150197100.0 -0.1499040418 -0.9822421274
17200196800.0 -0.1631634287 -0.9802105472
17250196500.0 -0.1764210816 -0.977729508
17300196200.0 -0.1896897371 -0.9750527031
17350195900.0 -0.2026707694 -0.9727113474
17400195600.0 -0.2154065056 -0.9700232206
17450195300.0 -0.2289088509 -0.9670782313
17500195000.0 -0.2423015327 -0.9638775058
17550194700.0 -0.2564305388 -0.9600584849
17600194400.0 -0.2705645475 -0.9563040886
17650194100.0 -0.2841108412 -0.9523829063
17700193800.0 -0.2970995253 -0.948088384
17750193500.0 -0.3110923148 -0.9437791868
17800193200.0 -0.3255192801 -0.9388803881
17850192900.0 -0.3396649442 -0.9340747078
17900192600.0 -0.3539428809 -0.9280130294
17950192300.0 -0.3693280801 -0.9219768026
18000192000.0 -0.383673631 -0.915136377
18050191700.0 -0.3977607739 -0.9080197991
18100191400.0 -0.4119710467 -0.9009020891
18150191100.0 -0.4260893211 -0.8936579684
18200190800.0 -0.4420589145 -0.8855723706
18250190500.0 -0.4582155355 -0.8772507392
18300190200.0 -0.4728663002 -0.8690269573
18350189900.0 -0.4877759343 -0.8615165132
18400189600.0 -0.5023128059 -0.853156129
18450189300.0 -0.5159694221 -0.8454365014
18500189000.0 -0.5289907591 -0.8374094089
18550188700.0 -0.5420269324 -0.8295906373
18600188400.0 -0.554675237 -0.8220971787
18650188100.0 -0.5660059536 -0.8149400648
18700187800.0 -0.5777842187 -0.8073208289
18750187500.0 -0.5888700369 -0.8001773986
18800187200.0 -0.6000189421 -0.7921017958
18850186900.0 -0.610791739 -0.7844665781
18900186600.0 -0.6213999074 -0.7765943496
18950186300.0 -0.6323591619 -0.768096851
19000186000.0 -0.6407436466 -0.7605051771
19050185700.0 -0.6508310217 -0.7527212412
19100185400.0 -0.6607678522 -0.7438654675
19150185100.0 -0.671392672 -0.7353767523
19200184800.0 -0.6810894119 -0.7261860536
19250184500.0 -0.6908137236 -0.716162989
19300184200.0 -0.7014939992 -0.7074667566
19350183900.0 -0.7127875852 -0.6974001824
19400183600.0 -0.7223934699 -0.6871426461
19450183300.0 -0.7317058291 -0.6772847928
19500183000.0 -0.7395155132 -0.6669016706
19550182700.0 -0.7492489365 -0.6561034626
19600182400.0 -0.7591274222 -0.64509576
19650182100.0 -0.7689040496 -0.6336211281
19700181800.0 -0.7789605185 -0.6210965461
19750181500.0 -0.788815917 -0.6082367474
19800181200.0 -0.7987753866 -0.5946528989
19850180900.0 -0.8084794884 -0.5805030118
19900180600.0 -0.8162607163 -0.5675500405
19950180300.0 -0.8259660792 -0.552718262
20000180000.0 -0.8256187238 -0.5488554156
20050179700.0 -0.833593684 -0.5359512571
20100179400.0 -0.8426621224 -0.5223619121
20150179100.0 -0.8505973806 -0.5102875063
20200178800.0 -0.8585223335 -0.4974268953
20250178500.0 -0.8671858437 -0.4854469261
20300178200.0 -0.8756834551 -0.4714149462
20350177900.0 -0.8842666665 -0.4574870021
20400177600.0 -0.8920206157 -0.4434195795
20450177300.0 -0.8996722212 -0.4296932871
20500177000.0 -0.9067149324 -0.4162866452
20550176700.0 -0.91407328 -0.4025721818
20600176400.0 -0.9206891431 -0.3893568115
20650176100.0 -0.9272423931 -0.3761799064
20700175800.0 -0.9332301484 -0.3637724496
20750175500.0 -0.9397824938 -0.3518040238
20800175200.0 -0.9448315132 -0.3401181026
20850174900.0 -0.9493404156 -0.3278669101
20900174600.0 -0.9543240127 -0.3157354002
20950174300.0 -0.958638422 -0.3035342695
21000174000.0 -0.9620226592 -0.29236925
21050173700.0 -0.9648045395 -0.2785314687
21100173400.0 -0.9689341903 -0.2677338028
21150173100.0 -0.9727518648 -0.2548922504
21200172800.0 -0.9765751325 -0.2403986003
21250172500.0 -0.9796063923 -0.226660124
21300172200.0 -0.9825377872 -0.2130393757
21350171900.0 -0.9847966096 -0.1990490008
21400171600.0 -0.987274758 -0.1843098543
21450171300.0 -0.9888600768 -0.1704175442
21500171000.0 -0.9889325519 -0.1556846068
21550170700.0 -0.9898502407 -0.1408398123
21600170400.0 -0.9910291154 -0.125262757
21650170100.0 -0.9914670624 -0.1092720096
21700169800.0 -0.9906772679 -0.0950435605
21750169500.0 -0.9895514299 -0.0793705344
21800169200.0 -0.990240051 -0.0636921344
21850168900.0 -0.9894300527 -0.0479318551
21900168600.0 -0.989303401 -0.0319164616
21950168300.0 -0.9883787509 -0.0169089214
22000168000.0 -0.987353376 -0.001904748
22050167700.0 -0.9871867383 0.0126477782
22100167400.0 -0.9869949368 0.0273735506
22150167100.0 -0.987178415 0.0421573759
22200166800.0 -0.9868852145 0.0574522886
22250166500.0 -0.9859882632 0.0736615605
22300166200.0 -0.9851035794 0.0900370372
22350165900.0 -0.9840320123 0.1055503603
22400165600.0 -0.9824435992 0.1198016875
22450165300.0 -0.9811788124 0.135282251
22500165000.0 -0.9786615914 0.1487641663
22550164700.0 -0.9775350999 0.1642065278
22600164400.0 -0.9754669647 0.1786494184
22650164100.0 -0.9732482711 0.1929634199
22700163800.0 -0.9708062792 0.2080153476
22750163500.0 -0.9684487921 0.2226672986
22800163200.0 -0.965163109 0.2360138503
22850162900.0 -0.9623240542 0.2495442689
22900162600.0 -0.9604777854 0.2626931515
22950162300.0 -0.9587099669 0.2759181069
23000162000.0 -0.9567400575 0.2886183584
23050161700.0 -0.9537060488 0.3012996213
23100161400.0 -0.951673116 0.3145995103
23150161100.0 -0.9483992942 0.3265265885
23200160800.0 -0.9457326894 0.3395262504
23250160500.0 -0.9419795155 0.3509342888
23300160200.0 -0.9392237414 0.3634366022
23350159900.0 -0.9347764098 0.3762217297
23400159600.0 -0.9300838563 0.3894341111
23450159300.0 -0.925349019 0.4016577495
23500159000.0 -0.9209690055 0.4145924229
23550158700.0 -0.9164261039 0.4275792249
23600158400.0 -0.9110153389 0.4399581412
23650158100.0 -0.9049154681 0.4532931232
23700157800.0 -0.8981082003 0.4662733268
23750157500.0 -0.8901968037 0.4799905196
23800157200.0 -0.8825517468 0.4928488785
23850156900.0 -0.8746074146 0.5054843866
23900156600.0 -0.8660237367 0.5172817375
23950156300.0 -0.8577328688 0.5298581905
24000156000.0 -0.8490295075 0.5415139063
24050155700.0 -0.8395337389 0.5541412079
24100155400.0 -0.8303901757 0.5659602812
24150155100.0 -0.8208143018 0.5773259651
24200154800.0 -0.8112162067 0.5885529158
24250154500.0 -0.800723271 0.6002829411
24300154200.0 -0.7909150736 0.612055227
24350153900.0 -0.7799765774 0.6230976404
24400153600.0 -0.7686586843 0.6337857944
24450153300.0 -0.7581538305 0.644303572
24500153000.0 -0.7471596546 0.6547134155
24550152700.0 -0.736892315 0.6649564369
24600152400.0 -0.7259808143 0.6742026295
24650152100.0 -0.7155436121 0.6839303756
