!Created with skrf (http://scikit-rf.org).
# Hz S RI R 50.0 
!freq ReS11 ImS11
300000.0 -0.9738709061 -0.1235254154
50299700.0 -1.000034841 0.015065794
100299400.0 -0.9978586328 0.0279603479
150299100.0 -1.002664703 0.0448045623
200298800.0 -0.999441604 0.0583353188
250298500.0 -0.9974482438 0.0717727213
300298200.0 -0.9858315109 0.0873516164
350297900.0 -0.9938893716 0.0983856445
400297600.0 -0.9931541663 0.1150131563
450297300.0 -0.9910875855 0.1287319379
500297000.0 -0.9894125077 0.1435770715
550296700.0 -0.9844953074 0.1558188643
600296400.0 -1.017121299 0.1891728316
650296100.0 -0.9822601766 0.185679413
700295800.0 -0.9794469678 0.2000927828
750295500.0 -0.9762842308 0.2138633798
800295200.0 -0.972890803 0.2280473323
850294900.0 -0.9695589925 0.2417521104
900294600.0 -0.9658859034 0.2557138488
950294300.0 -0.9621288997 0.2694268603
1000294000.0 -0.9580512402 0.2833280625
1050293700.0 -0.953510057 0.2970820803
1100293400.0 -0.9492399222 0.3115775486
1150293100.0 -0.9454610362 0.3234280759
1200292800.0 -0.9400248912 0.3377351337
1250292500.0 -0.9347106331 0.3511785173
1300292200.0 -0.9290576721 0.3642800414
1350291900.0 -0.9232372562 0.3785061782
1400291600.0 -0.918105673 0.3916465866
1450291300.0 -0.9125040691 0.4040049487
1500291000.0 -0.9062099691 0.4174017146
1550290700.0 -0.8996357337 0.4308126993
1600290400.0 -0.8933580954 0.443536576
1650290100.0 -0.886848182 0.4557109886
1700289800.0 -0.8799712874 0.4692732568
1750289500.0 -0.8728936 0.4816102499
1800289200.0 -0.8656836364 0.4946103376
1850288900.0 -0.8586624235 0.5058027939
1900288600.0 -0.8510708734 0.5189352589
1950288300.0 -0.8429466033 0.531407029
2000288000.0 -0.8354432388 0.5428456255
2050287700.0 -0.8270427595 0.5554460271
2100287400.0 -0.8194512817 0.5668823711
2150287100.0 -0.8109206715 0.5785056662
2200286800.0 -0.8030752696 0.5892367352
2250286500.0 -0.7940469409 0.6013490996
2300286200.0 -0.7853802764 0.6129938308
2350285900.0 -0.7767455742 0.6236431561
2400285600.0 -0.7679419705 0.6344433504
2450285300.0 -0.7590927654 0.6450253167
2500285000.0 -0.7491999259 0.6565457791
2550284700.0 -0.7400298132 0.6672425946
2600284400.0 -0.7307244729 0.6768875373
2650284100.0 -0.7224561115 0.6872982529
2700283800.0 -0.7118427775 0.6978629154
2750283500.0 -0.7015535396 0.7083462413
2800283200.0 -0.6915695791 0.7183194651
2850282900.0 -0.681158317 0.7283102254
2900282600.0 -0.6708955505 0.7378837695
2950282300.0 -0.6603377374 0.747307081
3000282000.0 -0.6495623997 0.7567641668
3050281700.0 -0.6383917931 0.7659636607
3100281400.0 -0.6266412728 0.7749598598
3150281100.0 -0.6154931124 0.7839735239
3200280800.0 -0.6041318103 0.7923611508
3250280500.0 -0.5929494457 0.8002449975
3300280200.0 -0.5813761839 0.8086369141
3350279900.0 -0.5691970501 0.8165685822
3400279600.0 -0.5565788933 0.8246247207
3450279300.0 -0.5455317873 0.8317800035
3500279000.0 -0.5338697763 0.8385567891
3550278700.0 -0.5216036397 0.8456742896
3600278400.0 -0.5098593861 0.8523891322
3650278100.0 -0.4968262471 0.8598935554
3700277800.0 -0.484494692 0.8663033145
3750277500.0 -0.4722346581 0.8736093656
3800277200.0 -0.4599079391 0.8799316488
3850276900.0 -0.4475144944 0.8858719923
3900276600.0 -0.4368533921 0.8914483593
3950276300.0 -0.4246716354 0.8971507785
4000276000.0 -0.4131094846 0.9031753422
4050275700.0 -0.4003196661 0.9093153817
4100275400.0 -0.3892684943 0.9147170427
4150275100.0 -0.3761635597 0.9206635554
4200274800.0 -0.3626388267 0.9260456222
4250274500.0 -0.3500471419 0.931328364
4300274200.0 -0.3367333613 0.9365943767
4350273900.0 -0.3225934533 0.942310046
4400273600.0 -0.3078093955 0.9472114665
4450273300.0 -0.2928211064 0.9522298511
4500273000.0 -0.2797278584 0.9565485972
4550272700.0 -0.2659879563 0.960644006
4600272400.0 -0.2509495387 0.9647843708
4650272100.0 -0.2395669808 0.9678690075
4700271800.0 -0.226639651 0.9712397705
4750271500.0 -0.2150331167 0.973984877
4800271200.0 -0.202789997 0.9766541706
4850270900.0 -0.189064507 0.9794998578
4900270600.0 -0.175090839 0.9818270997
4950270300.0 -0.1606933708 0.9846213502
5000270000.0 -0.1461708971 0.9864994634
5050269700.0 -0.132558036 0.9884733449
5100269400.0 -0.118542236 0.9901136716
5150269100.0 -0.1045730694 0.9920150764
5200268800.0 -0.0910857938 0.9927105767
5250268500.0 -0.0781388355 0.9934119272
5300268200.0 -0.064711621 0.9945645827
5350267900.0 -0.0514007156 0.9949880518
5400267600.0 -0.035507134 0.9963115319
5450267300.0 -0.0221452388 0.9965734281
5500267000.0 -0.006745578 0.9969614901
5550266700.0 0.0081894038 0.9972913364
5600266400.0 0.024019458 0.9973908692
5650266100.0 0.0405884819 0.9969020792
5700265800.0 0.0545355322 0.9959443857
5750265500.0 0.0699475064 0.9953870343
5800265200.0 0.0832285547 0.9940807924
5850264900.0 0.0961069406 0.9928785888
5900264600.0 0.1125309667 0.9909966868
5950264300.0 0.1246266069 0.9898689667
6000264000.0 0.1379020559 0.9880704349
6050263700.0 0.1496446056 0.9866836297
6100263400.0 0.1620161448 0.9849756316
6150263100.0 0.1766298595 0.9826599178
6200262800.0 0.1863029426 0.9811540941
6250262500.0 0.1988326803 0.9786470553
6300262200.0 0.2110941843 0.9763100623
6350261900.0 0.2239870528 0.9735315022
6400261600.0 0.2377923657 0.9701530332
6450261300.0 0.2489297509 0.9675742339
6500261000.0 0.2623576019 0.9640880111
6550260700.0 0.2752809726 0.9600012807
6600260400.0 0.288626466 0.9559088701
6650260100.0 0.3032262895 0.9519080042
6700259800.0 0.3152872207 0.9475200819
6750259500.0 0.3289421412 0.9426322201
6800259200.0 0.3424610923 0.937458777
6850258900.0 0.3545520823 0.9318796108
6900258600.0 0.3672601455 0.9268322215
6950258300.0 0.3798177394 0.9214703313
7000258000.0 0.3913770555 0.9161894395
7050257700.0 0.4033846168 0.9103592681
7100257400.0 0.4167579901 0.9039896829
7150257100.0 0.427535921 0.8984600276
7200256800.0 0.4406082606 0.8920028153
7250256500.0 0.4533707479 0.8853843241
7300256200.0 0.4659359283 0.8785359759
7350255900.0 0.4791574348 0.8717373169
7400255600.0 0.492718719 0.8642429935
7450255300.0 0.5085229224 0.8551179575
7500255000.0 0.5210806665 0.8474362312
7550254700.0 0.5351794889 0.8382106468
7600254400.0 0.5477054874 0.8299241231
7650254100.0 0.5595245612 0.8222386819
7700253800.0 0.5711099311 0.8140022083
7750253500.0 0.5819352725 0.8063559049
7800253200.0 0.5924941862 0.7984749524
7850252900.0 0.6024464168 0.7913407651
7900252600.0 0.6138457989 0.7827133579
7950252300.0 0.622221946 0.7761475136
8000252000.0 0.6320582088 0.7687971134
8050251700.0 0.6425046253 0.7604083909
8100251400.0 0.652707087 0.7524562996
8150251100.0 0.6624271116 0.743984307
8200250800.0 0.6720985989 0.7357583998
8250250500.0 0.680651985 0.7279263486
8300250200.0 0.6899050744 0.7196901265
8350249900.0 0.699114927 0.7106169703
8400249600.0 0.7071881208 0.7028718676
8450249300.0 0.7159279707 0.6941517517
8500249000.0 0.724398079 0.6852783701
8550248700.0 0.7326456342 0.6762732263
8600248400.0 0.7410163616 0.6666213328
8650248100.0 0.7487218429 0.6573116901
8700247800.0 0.7580218367 0.6462818032
8750247500.0 0.7662759273 0.6361351137
8800247200.0 0.7741889215 0.6260547488
8850246900.0 0.7831371108 0.614409032
8900246600.0 0.7914477396 0.6029325387
8950246300.0 0.8009636958 0.5903503801
9000246000.0 0.809351374 0.5784275351
9050245700.0 0.8176110518 0.5661499744
9100245400.0 0.8262086273 0.5540046134
9150245100.0 0.8350321542 0.5409878206
9200244800.0 0.8444199947 0.5267617682
9250244500.0 0.8533256205 0.5117162551
9300244200.0 0.8613987739 0.498252899
9350243900.0 0.8691527937 0.4849075937
9400243600.0 0.8758407092 0.4732973295
9450243300.0 0.881389373 0.4629065727
9500243000.0 0.88752582 0.4512098411
9550242700.0 0.8915967701 0.4437997699
9600242400.0 0.8957673787 0.4361658281
9650242100.0 0.9000809713 0.4291851344
9700241800.0 0.9047900252 0.4207535763
9750241500.0 0.9088964846 0.4130168833
9800241200.0 0.9140429587 0.4036061429
9850240900.0 0.9200648901 0.3917728217
9900240600.0 0.9260852606 0.379608222
9950240300.0 0.9329728885 0.3631560623
10000240000.0 0.9378008179 0.3512812482
10050239700.0 0.94434218 0.3344444039
10100239400.0 0.9491885737 0.318740475
10150239100.0 0.9543081024 0.3031386376
10200238800.0 0.9582640892 0.2876897069
10250238500.0 0.9614534856 0.2739729904
10300238200.0 0.9646866562 0.2602099742
10350237900.0 0.9675583709 0.2469359166
10400237600.0 0.9701234682 0.2332587988
10450237300.0 0.9727451009 0.2198008488
10500237000.0 0.9748857254 0.2075535419
10550236700.0 0.9772509836 0.1931610984
10600236400.0 0.9795647781 0.1790277596
10650236100.0 0.9810852421 0.1647341844
10700235800.0 0.9836457966 0.152299919
10750235500.0 0.9856561977 0.1390846148
10800235200.0 0.9883708759 0.1243790688
10850234900.0 0.9898322495 0.1097571465
10900234600.0 0.9921954366 0.0946602154
10950234300.0 0.9937016971 0.0811238085
11000234000.0 0.9955149076 0.0655149378
11050233700.0 0.9974188994 0.0489655441
11100233400.0 0.9988588136 0.0313190487
11150233100.0 0.9999159354 0.0140269211
11200232800.0 1.000774297 -0.0015865162
11250232500.0 1.001813778 -0.0197923829
11300232200.0 1.001964317 -0.0377060387
11350231900.0 1.002241337 -0.054056507
11400231600.0 1.001601105 -0.0702163868
11450231300.0 1.001486241 -0.0854632089
11500231000.0 0.9996856651 -0.101371114
11550230700.0 0.9985639703 -0.1154786764
11600230400.0 0.9964426651 -0.1281465863
11650230100.0 0.9952035134 -0.1396939414
11700229800.0 0.99263946 -0.1548211802
11750229500.0 0.9900825937 -0.1690418822
11800229200.0 0.9871861209 -0.1820497301
11850228900.0 0.9834559101 -0.1937625775
11900228600.0 0.9798208444 -0.2034877031
11950228300.0 0.9763372764 -0.2133456947
12000228000.0 0.9738305785 -0.2217632085
12050227700.0 0.9699618191 -0.2347309764
12100227400.0 0.9662523161 -0.2458365027
12150227100.0 0.9622649113 -0.2621404887
12200226800.0 0.9576454535 -0.2742403602
12250226500.0 0.9538705045 -0.2867023409
12300226200.0 0.9493195127 -0.29870417
12350225900.0 0.9444549431 -0.3119973916
12400225600.0 0.9400482771 -0.3242553926
12450225300.0 0.9359502619 -0.337048717
12500225000.0 0.9303739023 -0.3520536603
12550224700.0 0.9248386921 -0.3656476521
12600224400.0 0.9198308872 -0.378528084
12650224100.0 0.9139759136 -0.3926173162
12700223800.0 0.9088669554 -0.4054389732
12750223500.0 0.903209102 -0.4187151926
12800223200.0 0.8978949459 -0.4312067496
12850222900.0 0.8928901781 -0.4434141954
12900222600.0 0.8872618425 -0.4553741506
12950222300.0 0.8811155533 -0.4680255825
13000222000.0 0.8754583094 -0.4792378983
13050221700.0 0.8681196793 -0.4928470776
13100221400.0 0.8610188602 -0.504621785
13150221100.0 0.8545854914 -0.5164102483
13200220800.0 0.8474441403 -0.5282995212
13250220500.0 0.8401788509 -0.5403252812
13300220200.0 0.8326613302 -0.5513875895
13350219900.0 0.8246205916 -0.5632454891
13400219600.0 0.8162456746 -0.5749836266
13450219300.0 0.8069494071 -0.5881496259
13500219000.0 0.7976088754 -0.6009698304
13550218700.0 0.7881052301 -0.6134319526
13600218400.0 0.7774459915 -0.6256227538
13650218100.0 0.7682286408 -0.636416134
13700217800.0 0.7573251413 -0.6477065214
13750217500.0 0.7470976371 -0.6591035559
13800217200.0 0.7363347499 -0.6708812758
13850216900.0 0.7259037507 -0.6805428894
13900216600.0 0.7156969997 -0.6907729852
13950216300.0 0.7049209734 -0.7011179252
14000216000.0 0.6958737385 -0.7090651384
14050215700.0 0.6859510446 -0.7178460391
14100215400.0 0.6765399091 -0.7267647727
14150215100.0 0.667313546 -0.7352724416
14200214800.0 0.6578338307 -0.7441092173
14250214500.0 0.6473991398 -0.7536409147
14300214200.0 0.6369637811 -0.7628751924
14350213900.0 0.6258791548 -0.7726442973
14400213600.0 0.6139769782 -0.782462144
14450213300.0 0.6007651218 -0.7925653234
14500213000.0 0.5877332935 -0.8026954156
14550212700.0 0.5759090331 -0.8125510596
14600212400.0 0.5632031518 -0.8204778241
14650212100.0 0.5507512448 -0.8291269291
14700211800.0 0.5369074957 -0.8390450137
14750211500.0 0.5247500414 -0.8473995739
14800211200.0 0.511907311 -0.8554110637
14850210900.0 0.4996905346 -0.8630907155
14900210600.0 0.4863886289 -0.8710933533
14950210300.0 0.4731145419 -0.8788077267
15000210000.0 0.4606183351 -0.8854355364
15050209700.0 0.4482161341 -0.8915644125
15100209400.0 0.4356913611 -0.8976141964
15150209100.0 0.4235626838 -0.9024539723
15200208800.0 0.4108682209 -0.9080144413
15250208500.0 0.4004051222 -0.9124742264
15300208200.0 0.3874247147 -0.9170119805
15350207900.0 0.3749442711 -0.9216674229
15400207600.0 0.3597182494 -0.9276575013
15450207300.0 0.3447867976 -0.9327114122
15500207000.0 0.3300139594 -0.9368042792
15550206700.0 0.3159113113 -0.9423581925
15600206400.0 0.2995115023 -0.9467161162
15650206100.0 0.2837122644 -0.9510596141
15700205800.0 0.2701165873 -0.9544821695
15750205500.0 0.256144422 -0.9577300723
15800205200.0 0.2420017483 -0.9611399167
15850204900.0 0.2279156333 -0.9647580098
15900204600.0 0.2128804812 -0.968215255
15950204300.0 0.1986200612 -0.9713945341
16000204000.0 0.1842550317 -0.9745502774
16050203700.0 0.169022711 -0.9774522718
16100203400.0 0.1540899716 -0.9791876141
16150203100.0 0.139287782 -0.9819320903
16200202800.0 0.1252012355 -0.9839831718
16250202500.0 0.1105630938 -0.9856644866
16300202200.0 0.0948024087 -0.9871768289
16350201900.0 0.0798235951 -0.98880973
16400201600.0 0.0652150539 -0.9901270445
16450201300.0 0.0495453079 -0.9910614928
16500201000.0 0.0325403667 -0.991872853
16550200700.0 0.0165981895 -0.9924037515
16600200400.0 0.0006544068 -0.992650341
16650200100.0 -0.0156217461 -0.9927189375
16700199800.0 -0.0318014129 -0.9922593065
16750199500.0 -0.0511094777 -0.9914627541
16800199200.0 -0.0661838822 -0.9911409742
16850198900.0 -0.0822209816 -0.9897320423
16900198600.0 -0.0966502183 -0.9883728741
16950198300.0 -0.1106634023 -0.9869558328
17000198000.0 -0.1234017543 -0.9864523548
17050197700.0 -0.1356399488 -0.9835863583
17100197400.0 -0.1486070962 -0.9819272685
17150197100.0 -0.1619055836 -0.9800461205
17200196800.0 -0.1742886947 -0.9779183307
17250196500.0 -0.1874781198 -0.9755154674
17300196200.0 -0.1994514186 -0.9731511641
17350195900.0 -0.2111769183 -0.9707193908
17400195600.0 -0.2232354435 -0.9681466101
17450195300.0 -0.236204367 -0.9651822847
17500195000.0 -0.2493407388 -0.9621064403
17550194700.0 -0.2632178504 -0.9584048705
17600194400.0 -0.2769351908 -0.9545015474
17650194100.0 -0.2906210502 -0.9503497003
17700193800.0 -0.3036220296 -0.9459377093
17750193500.0 -0.3178053043 -0.9419259123
17800193200.0 -0.3319620065 -0.9367046559
17850192900.0 -0.3468818686 -0.9310460171
17900192600.0 -0.3619472122 -0.9247864884
17950192300.0 -0.377463108 -0.9178136598
18000192000.0 -0.3922483667 -0.9104223599
18050191700.0 -0.4060816013 -0.9026657397
18100191400.0 -0.4201882818 -0.8948752652
18150191100.0 -0.4349263008 -0.8869622404
18200190800.0 -0.4518211469 -0.8780425662
18250190500.0 -0.4686601322 -0.8683756882
18300190200.0 -0.484148187 -0.8596328384
18350189900.0 -0.4995023556 -0.8510936209
18400189600.0 -0.5143110893 -0.8429913273
18450189300.0 -0.5272066626 -0.8351253075
18500189000.0 -0.5405740093 -0.8269729348
18550188700.0 -0.5535998883 -0.8189419126
18600188400.0 -0.5656875466 -0.8123963993
18650188100.0 -0.576592693 -0.8059320052
18700187800.0 -0.5878678878 -0.7990772266
18750187500.0 -0.5986260414 -0.7925023861
18800187200.0 -0.6091265999 -0.7852002218
18850186900.0 -0.6194381185 -0.7785021783
18900186600.0 -0.6297203214 -0.7710943931
18950186300.0 -0.6398044008 -0.7633213091
19000186000.0 -0.6477536297 -0.7573962859
19050185700.0 -0.6566403162 -0.7499607155
19100185400.0 -0.6666461008 -0.7416147318
19150185100.0 -0.6766079217 -0.7332191419
19200184800.0 -0.6860426136 -0.7248465124
19250184500.0 -0.6961755191 -0.7156105601
19300184200.0 -0.7077570826 -0.7063945124
19350183900.0 -0.7188812666 -0.6965431485
19400183600.0 -0.728068767 -0.6870976984
19450183300.0 -0.7367594953 -0.67660814
19500183000.0 -0.7455134081 -0.6663577836
19550182700.0 -0.7551777247 -0.6555575985
19600182400.0 -0.7651884543 -0.6438662457
19650182100.0 -0.7760491862 -0.6319552951
19700181800.0 -0.7865494466 -0.6183827376
19750181500.0 -0.7969543661 -0.6044366762
19800181200.0 -0.8069802604 -0.5894662173
19850180900.0 -0.81677151 -0.5741474014
19900180600.0 -0.824428255 -0.5599386066
19950180300.0 -0.8335026423 -0.5432569908
20000180000.0 -0.8235007506 -0.5470374926
20050179700.0 -0.8317473255 -0.534813635
20100179400.0 -0.8403996911 -0.5214631277
20150179100.0 -0.8476112467 -0.5091227486
20200178800.0 -0.8568340071 -0.4981291946
20250178500.0 -0.8655196839 -0.4857385515
20300178200.0 -0.8750177297 -0.4719452918
20350177900.0 -0.8847285402 -0.4580270595
20400177600.0 -0.8935487678 -0.4432866045
20450177300.0 -0.9023310373 -0.4291730588
20500177000.0 -0.9101403569 -0.4152342541
20550176700.0 -0.9180902321 -0.4016545843
20600176400.0 -0.924950612 -0.3890316691
20650176100.0 -0.9312450736 -0.3763623813
20700175800.0 -0.9374004756 -0.3644736094
20750175500.0 -0.9447114215 -0.3533808526
20800175200.0 -0.9491063229 -0.3430436609
20850174900.0 -0.954369481 -0.3314669689
20900174600.0 -0.9579265467 -0.3209037305
20950174300.0 -0.9610193947 -0.3089096835
21000174000.0 -0.9641897626 -0.2993620181
21050173700.0 -0.9661077558 -0.2887394682
21100173400.0 -0.9695771644 -0.2783631643
21150173100.0 -0.9735161693 -0.2661029155
21200172800.0 -0.9770430134 -0.2531540648
21250172500.0 -0.9805967286 -0.2391564164
21300172200.0 -0.9841863236 -0.2252015732
21350171900.0 -0.9862989112 -0.2108746084
21400171600.0 -0.9881611569 -0.1975482944
21450171300.0 -0.9889498694 -0.1827380151
21500171000.0 -0.9893278552 -0.1672267558
21550170700.0 -0.9897885081 -0.1526515271
21600170400.0 -0.991514149 -0.1371326768
21650170100.0 -0.9900000594 -0.1218940122
21700169800.0 -0.9892490651 -0.1070700884
21750169500.0 -0.9901150183 -0.0898652063
21800169200.0 -0.9907608801 -0.0736908667
21850168900.0 -0.9900348705 -0.0569422576
21900168600.0 -0.9901123168 -0.0410191894
21950168300.0 -0.9890444451 -0.0245854468
22000168000.0 -0.9889990734 -0.0094302178
22050167700.0 -0.9897676421 0.0047923519
22100167400.0 -0.9902002594 0.0203139581
22150167100.0 -0.9913501539 0.0367049686
22200166800.0 -0.9916542955 0.0532671474
22250166500.0 -0.9911059184 0.0704078635
22300166200.0 -0.9901699842 0.08625339
22350165900.0 -0.989425237 0.1027673451
22400165600.0 -0.9868920107 0.1186716926
22450165300.0 -0.9860895748 0.1345720657
22500165000.0 -0.9844513022 0.1472901685
22550164700.0 -0.9831684243 0.1637305126
22600164400.0 -0.9805431239 0.1800214667
22650164100.0 -0.977961058 0.1961926543
22700163800.0 -0.9748209007 0.2123026329
22750163500.0 -0.9717623296 0.2264608113
22800163200.0 -0.9691800583 0.2397450305
22850162900.0 -0.9663025336 0.252806895
22900162600.0 -0.9644091364 0.2671469001
22950162300.0 -0.9624711312 0.2807659104
23000162000.0 -0.9612324399 0.2937576246
23050161700.0 -0.9583241727 0.3070626616
23100161400.0 -0.9554981413 0.3197418118
23150161100.0 -0.9524427373 0.3338038822
23200160800.0 -0.950085457 0.3464406904
23250160500.0 -0.9468626282 0.3584234457
23300160200.0 -0.9437741147 0.371320872
23350159900.0 -0.9406927188 0.3852111923
23400159600.0 -0.9355860319 0.3988466575
23450159300.0 -0.9298339009 0.4120900486
23500159000.0 -0.9251188147 0.4256188575
23550158700.0 -0.9202857037 0.4396763085
23600158400.0 -0.9142081177 0.4539931313
23650158100.0 -0.9069802242 0.4686612206
23700157800.0 -0.8985496195 0.4829049806
23750157500.0 -0.8894221714 0.4971352606
23800157200.0 -0.8790980314 0.5108388743
23850156900.0 -0.8696415614 0.5234391686
23900156600.0 -0.8601398534 0.5361012826
23950156300.0 -0.8503319089 0.5487174416
24000156000.0 -0.8404203019 0.561506401
24050155700.0 -0.8297416356 0.5730264009
24100155400.0 -0.8197131089 0.5862718278
24150155100.0 -0.8088534612 0.598476911
24200154800.0 -0.7979928743 0.6096104795
24250154500.0 -0.7869886689 0.6213364657
24300154200.0 -0.7749380845 0.6334540568
24350153900.0 -0.7632439872 0.6450079657
24400153600.0 -0.7508674486 0.6553853617
24450153300.0 -0.7384896794 0.6656344852
24500153000.0 -0.726844176 0.6759102453
24550152700.0 -0.7149413802 0.6854688167
24600152400.0 -0.7038245382 0.6950075382
24650152100.0 -0.6916003333 0.7035390865
