!Created with skrf (http://scikit-rf.org).
# Hz S RI R 50.0 
!freq ReS11 ImS11
300000.0 -0.974046831 -0.1199453009
50299700.0 -1.00005878 0.0150854499
100299400.0 -0.9980688319 0.0282520436
150299100.0 -1.002789049 0.0450283393
200298800.0 -0.9997992223 0.0584387001
250298500.0 -0.9974117025 0.0719253699
300298200.0 -0.985959599 0.0876841133
350297900.0 -0.9939438631 0.0986109489
400297600.0 -0.993113657 0.1151745454
450297300.0 -0.9908815708 0.1289428823
500297000.0 -0.9893340793 0.1437753262
550296700.0 -0.9843535905 0.1562038585
600296400.0 -1.017369774 0.1893904559
650296100.0 -0.9821840095 0.1861025028
700295800.0 -0.9792567465 0.2004567758
750295500.0 -0.9761817233 0.214277971
800295200.0 -0.9730220375 0.22848889
850294900.0 -0.9693776029 0.2421146765
900294600.0 -0.9657252323 0.2559286321
950294300.0 -0.9620669497 0.2696278534
1000294000.0 -0.958181423 0.2836361635
1050293700.0 -0.9536176748 0.2973508818
1100293400.0 -0.9493441741 0.3118287655
1150293100.0 -0.9454558523 0.3236285998
1200292800.0 -0.9402904186 0.3379058847
1250292500.0 -0.9346699892 0.3513638892
1300292200.0 -0.9291204963 0.3647370132
1350291900.0 -0.9234563501 0.3787297038
1400291600.0 -0.9180972901 0.3919874907
1450291300.0 -0.9127186955 0.4041896985
1500291000.0 -0.9062625577 0.4176444654
1550290700.0 -0.8995988177 0.4308796285
1600290400.0 -0.8934021479 0.4437579914
1650290100.0 -0.8869349261 0.4559766369
1700289800.0 -0.8799378921 0.4697021195
1750289500.0 -0.8726898638 0.4819707767
1800289200.0 -0.86543356 0.4946618057
1850288900.0 -0.8588305972 0.505785691
1900288600.0 -0.850925443 0.518967506
1950288300.0 -0.8428511171 0.5315175179
2000288000.0 -0.8355006434 0.5429774878
2050287700.0 -0.8271980453 0.5553606752
2100287400.0 -0.8192240411 0.5669474907
2150287100.0 -0.8108977585 0.5791342004
2200286800.0 -0.8029262669 0.5893091829
2250286500.0 -0.7942853912 0.6014540776
2300286200.0 -0.7853617945 0.6128857501
2350285900.0 -0.7767333689 0.6238600728
2400285600.0 -0.7675069956 0.6347033244
2450285300.0 -0.7591222299 0.6452304511
2500285000.0 -0.7492708142 0.6563142061
2550284700.0 -0.7403586603 0.666950645
2600284400.0 -0.730839994 0.6770045911
2650284100.0 -0.7220227147 0.6874295936
2700283800.0 -0.711483149 0.6980956428
2750283500.0 -0.70106351 0.7084704164
2800283200.0 -0.6913313619 0.7182193311
2850282900.0 -0.6809932248 0.7283062092
2900282600.0 -0.6707583861 0.7378162329
2950282300.0 -0.6604746329 0.7472710746
3000282000.0 -0.6498063051 0.7566821848
3050281700.0 -0.638517007 0.7660618695
3100281400.0 -0.6268108954 0.7753417219
3150281100.0 -0.6150004697 0.7845301255
3200280800.0 -0.6034016236 0.7931276453
3250280500.0 -0.5925323735 0.8007793688
3300280200.0 -0.5812343902 0.8087183563
3350279900.0 -0.5695311235 0.8162122175
3400279600.0 -0.5573572888 0.8239585181
3450279300.0 -0.5463507204 0.8313534115
3500279000.0 -0.5341325575 0.8384465747
3550278700.0 -0.5218750104 0.8455157954
3600278400.0 -0.5097629486 0.8523867396
3650278100.0 -0.4967296275 0.8602141663
3700277800.0 -0.4845862801 0.8667391897
3750277500.0 -0.4722364964 0.8732283409
3800277200.0 -0.4599113989 0.8799761029
3850276900.0 -0.4476393744 0.8860280526
3900276600.0 -0.4368681504 0.891343581
3950276300.0 -0.4245621642 0.8975792933
4000276000.0 -0.412499029 0.903504009
4050275700.0 -0.3996396599 0.9095489952
4100275400.0 -0.3885986668 0.9149144122
4150275100.0 -0.3755176328 0.9204231223
4200274800.0 -0.3628488719 0.9259825832
4250274500.0 -0.3505209171 0.9314937172
4300274200.0 -0.3373660346 0.93669236
4350273900.0 -0.3234836875 0.9420634754
4400273600.0 -0.3086747166 0.9470640197
4450273300.0 -0.2934774054 0.9522998676
4500273000.0 -0.2799849125 0.9567083384
4550272700.0 -0.2658387073 0.9608521791
4600272400.0 -0.2505470553 0.9650419913
4650272100.0 -0.238883384 0.9681281851
4700271800.0 -0.2256173143 0.9715432556
4750271500.0 -0.2138637207 0.974327592
4800271200.0 -0.2014072656 0.9771404149
4850270900.0 -0.1875403064 0.9799176769
4900270600.0 -0.1735395315 0.9824328967
4950270300.0 -0.1592885954 0.9850458429
5000270000.0 -0.1449656203 0.9871175009
5050269700.0 -0.1315928203 0.9887596753
5100269400.0 -0.1175800931 0.9901800697
5150269100.0 -0.1043600738 0.9918070642
5200268800.0 -0.0909911155 0.9930612954
5250268500.0 -0.077939989 0.9941516627
5300268200.0 -0.0648560649 0.9945870849
5350267900.0 -0.0522354066 0.9949799681
5400267600.0 -0.0360938657 0.9961644372
5450267300.0 -0.0230908094 0.9967401166
5500267000.0 -0.0079298382 0.9969661632
5550266700.0 0.0071384622 0.9972909189
5600266400.0 0.0224591341 0.9970987631
5650266100.0 0.0391878673 0.9971209798
5700265800.0 0.0536679429 0.9960971626
5750265500.0 0.0686810321 0.9952346828
5800265200.0 0.0826451671 0.9941804717
5850264900.0 0.0962655697 0.9936792021
5900264600.0 0.1124998502 0.9920350195
5950264300.0 0.1243934226 0.9902542915
6000264000.0 0.1379593511 0.9879076987
6050263700.0 0.1505499848 0.9869063041
6100263400.0 0.1626911061 0.9847214106
6150263100.0 0.1775725781 0.9827001587
6200262800.0 0.1876244202 0.9809312041
6250262500.0 0.2006021789 0.9786866582
6300262200.0 0.2132804158 0.9759174835
6350261900.0 0.2261651952 0.9729612699
6400261600.0 0.2399341083 0.9697548688
6450261300.0 0.2512337565 0.9668127901
6500261000.0 0.2642253135 0.9634828983
6550260700.0 0.2769086302 0.9594870709
6600260400.0 0.2904752471 0.955364743
6650260100.0 0.3046185163 0.9510119977
6700259800.0 0.3166327449 0.9466985399
6750259500.0 0.3303218492 0.9419941761
6800259200.0 0.3435364882 0.9367867276
6850258900.0 0.3556217023 0.9315001165
6900258600.0 0.36813609 0.9268377789
6950258300.0 0.3803764472 0.9212995954
7000258000.0 0.392447779 0.9157695788
7050257700.0 0.4047582748 0.9099196136
7100257400.0 0.4174603215 0.9036273608
7150257100.0 0.4279608716 0.8983491927
7200256800.0 0.4408150638 0.8919176736
7250256500.0 0.4527664839 0.8856678094
7300256200.0 0.4656483674 0.8786629493
7350255900.0 0.4786377212 0.8719677944
7400255600.0 0.491960386 0.8645965197
7450255300.0 0.5074359547 0.85556162
7500255000.0 0.5184873739 0.8483960835
7550254700.0 0.5332844395 0.8398550741
7600254400.0 0.545625677 0.8316630097
7650254100.0 0.5572165813 0.8238402409
7700253800.0 0.5689492896 0.8158422176
7750253500.0 0.579927236 0.8081270285
7800253200.0 0.5907643645 0.800352375
7850252900.0 0.600291922 0.7931921488
7900252600.0 0.6119359942 0.784525569
7950252300.0 0.6207037747 0.7780659298
8000252000.0 0.6307175857 0.7703591645
8050251700.0 0.6412540074 0.762135165
8100251400.0 0.6514391446 0.7541381058
8150251100.0 0.661400281 0.7454665552
8200250800.0 0.6709520273 0.7374661818
8250250500.0 0.6795197712 0.7294510624
8300250200.0 0.6891442097 0.7207708614
8350249900.0 0.6979893453 0.712102002
8400249600.0 0.7067252512 0.7041571172
8450249300.0 0.7152792868 0.6948017207
8500249000.0 0.7238638566 0.6860317536
8550248700.0 0.7323998804 0.6770582857
8600248400.0 0.7409851273 0.667507412
8650248100.0 0.7484832172 0.6581657404
8700247800.0 0.758036233 0.6469685784
8750247500.0 0.7662460362 0.6367939461
8800247200.0 0.7745336577 0.626194277
8850246900.0 0.783131543 0.6151785515
8900246600.0 0.791630693 0.6035693357
8950246300.0 0.801029201 0.5909330201
9000246000.0 0.8106014309 0.578274076
9050245700.0 0.8192878162 0.5654514582
9100245400.0 0.8277519965 0.5529486648
9150245100.0 0.8370286239 0.53929707
9200244800.0 0.8472119441 0.5243224244
9250244500.0 0.856208328 0.5088893649
9300244200.0 0.8645972648 0.4948113983
9350243900.0 0.8723413287 0.4809285079
9400243600.0 0.8789238369 0.4686594171
9450243300.0 0.8847504036 0.4573146307
9500243000.0 0.8910120565 0.4454259903
9550242700.0 0.8947546043 0.4376073723
9600242400.0 0.8991073034 0.4302816933
9650242100.0 0.9024445856 0.4238290721
9700241800.0 0.907130428 0.4154055856
9750241500.0 0.9112260313 0.4078470377
9800241200.0 0.9160563232 0.398348638
9850240900.0 0.9217952997 0.3869285556
9900240600.0 0.9273897615 0.3753968671
9950240300.0 0.9340910827 0.3590842212
10000240000.0 0.9382814496 0.3479812347
10050239700.0 0.9443541001 0.3321881079
10100239400.0 0.9493965215 0.3166360629
10150239100.0 0.9541456197 0.3012837328
10200238800.0 0.9582312215 0.2864506446
10250238500.0 0.9614830954 0.2731010776
10300238200.0 0.9646673516 0.2589713446
10350237900.0 0.9672314561 0.2458553658
10400237600.0 0.9697678644 0.2328020562
10450237300.0 0.9724611222 0.2191566077
10500237000.0 0.9745719339 0.2070402398
10550236700.0 0.9771048116 0.1925056246
10600236400.0 0.9790597447 0.1788076576
10650236100.0 0.980900017 0.1639841868
10700235800.0 0.9833888864 0.1519272438
10750235500.0 0.9858136621 0.1383789973
10800235200.0 0.9877548036 0.1244366641
10850234900.0 0.9898247611 0.1095280657
10900234600.0 0.9916317961 0.0952191146
10950234300.0 0.9935012178 0.0817015149
11000234000.0 0.9952251135 0.0665851427
11050233700.0 0.9971547607 0.0501200687
11100233400.0 0.998627583 0.032583018
11150233100.0 0.9994968241 0.0163353465
11200232800.0 1.000045245 0.0006958503
11250232500.0 1.001290159 -0.0156019135
11300232200.0 1.002001355 -0.0334677528
11350231900.0 1.001650434 -0.0483546149
11400231600.0 1.001670482 -0.0644673182
11450231300.0 1.001256042 -0.0796177618
11500231000.0 0.9996882496 -0.0968244385
11550230700.0 0.9986120179 -0.1103178053
11600230400.0 0.9971346234 -0.1218615077
11650230100.0 0.9953868816 -0.1341200865
11700229800.0 0.9930519331 -0.1492361264
11750229500.0 0.9908261317 -0.1629812314
11800229200.0 0.9881732798 -0.1768934316
11850228900.0 0.9844623356 -0.1891498076
11900228600.0 0.9809110673 -0.1987488696
11950228300.0 0.9776446368 -0.2093051043
12000228000.0 0.9751738597 -0.2176374993
12050227700.0 0.971611611 -0.2307200292
12100227400.0 0.9680351133 -0.2422253465
12150227100.0 0.9628958954 -0.2589551911
12200226800.0 0.9594538219 -0.2696296665
12250226500.0 0.9555682883 -0.282831899
12300226200.0 0.951658348 -0.2940894274
12350225900.0 0.9460204344 -0.30804328
12400225600.0 0.9421273204 -0.3213883204
12450225300.0 0.9373782098 -0.3345139091
12500225000.0 0.9321493527 -0.3492414215
12550224700.0 0.9265879922 -0.3626975229
12600224400.0 0.9217813677 -0.3756762313
12650224100.0 0.915898642 -0.3897632646
12700223800.0 0.9105909525 -0.4028320927
12750223500.0 0.9050705918 -0.4157621702
12800223200.0 0.8999154614 -0.4282958333
12850222900.0 0.8947773163 -0.4402614262
12900222600.0 0.8888113085 -0.4527734969
12950222300.0 0.8825771029 -0.4654956139
13000222000.0 0.8764844536 -0.4769161801
13050221700.0 0.8701000893 -0.4890237081
13100221400.0 0.8631407756 -0.5017273878
13150221100.0 0.8566800693 -0.5135426967
13200220800.0 0.8492478283 -0.5251802871
13250220500.0 0.8421579194 -0.5376629397
13300220200.0 0.83483017 -0.5481751602
13350219900.0 0.8268186921 -0.560176652
13400219600.0 0.8186506556 -0.5721661107
13450219300.0 0.8091983492 -0.5856681929
13500219000.0 0.7991800496 -0.5993118025
13550218700.0 0.788868825 -0.6121048587
13600218400.0 0.7787762645 -0.6244621145
13650218100.0 0.7693798301 -0.6352113335
13700217800.0 0.7586235889 -0.6474523737
13750217500.0 0.7482473234 -0.659337402
13800217200.0 0.7367247241 -0.6699833696
13850216900.0 0.7257880327 -0.6821355409
13900216600.0 0.7166381814 -0.690448196
13950216300.0 0.7062656309 -0.7009386914
14000216000.0 0.6952765176 -0.7101611406
14050215700.0 0.6861872066 -0.7184177352
14100215400.0 0.6762548132 -0.7274495803
14150215100.0 0.6672052469 -0.736007409
14200214800.0 0.6575843438 -0.7446746431
14250214500.0 0.6473339057 -0.7541420786
14300214200.0 0.6368868583 -0.7634101435
14350213900.0 0.6256644287 -0.7730092409
14400213600.0 0.6136144445 -0.7831998624
14450213300.0 0.6005461316 -0.7930754613
14500213000.0 0.5877485058 -0.8031818124
14550212700.0 0.5751074502 -0.8125774611
14600212400.0 0.5627402139 -0.8212895957
14650212100.0 0.5500475348 -0.8298794898
14700211800.0 0.5357087127 -0.8399928735
14750211500.0 0.5238889987 -0.8479872861
14800211200.0 0.5113979434 -0.8558154396
14850210900.0 0.4994753603 -0.8634883793
14900210600.0 0.4859781144 -0.8711271423
14950210300.0 0.4725948643 -0.8790080727
15000210000.0 0.4599679398 -0.8858787777
15050209700.0 0.447783866 -0.8916733874
15100209400.0 0.4347542523 -0.8975871239
15150209100.0 0.4223008452 -0.9034880465
15200208800.0 0.4099993215 -0.9086710922
15250208500.0 0.3987305124 -0.9138522148
15300208200.0 0.3867166432 -0.9180708841
15350207900.0 0.3733956507 -0.9219036376
15400207600.0 0.3586515112 -0.9287297245
15450207300.0 0.3436088447 -0.9325694029
15500207000.0 0.3297811862 -0.9377445622
15550206700.0 0.3148254439 -0.9425958301
15600206400.0 0.298772385 -0.9473897455
15650206100.0 0.2832284042 -0.9513019422
15700205800.0 0.2691409777 -0.9548616244
15750205500.0 0.2547873382 -0.9584929293
15800205200.0 0.2406210096 -0.9618448658
15850204900.0 0.2262897737 -0.9653571709
15900204600.0 0.2112575859 -0.9689970813
15950204300.0 0.1968489812 -0.9720454631
16000204000.0 0.1828999558 -0.9749202523
16050203700.0 0.1680098482 -0.9779643516
16100203400.0 0.153224859 -0.9805213324
16150203100.0 0.1385070878 -0.982504271
16200202800.0 0.1244058003 -0.9846498301
16250202500.0 0.1096597013 -0.9860112693
16300202200.0 0.0945015786 -0.9875109557
16350201900.0 0.0792957794 -0.9894832542
16400201600.0 0.0643451805 -0.9901060574
16450201300.0 0.0493347106 -0.991323565
16500201000.0 0.0326684292 -0.9920460234
16550200700.0 0.0168702076 -0.9926656132
16600200400.0 0.0011963595 -0.9926298901
16650200100.0 -0.0148709638 -0.9928739614
16700199800.0 -0.0310884499 -0.9924821232
16750199500.0 -0.0496255064 -0.992102313
16800199200.0 -0.0653918004 -0.9908174534
16850198900.0 -0.0807781823 -0.9898082915
16900198600.0 -0.0946010879 -0.9891893582
16950198300.0 -0.1084693454 -0.987538605
17000198000.0 -0.1209847345 -0.9857517467
17050197700.0 -0.1339920144 -0.9842987926
17100197400.0 -0.1465935078 -0.9822323235
17150197100.0 -0.1591523579 -0.9805974204
17200196800.0 -0.1718793489 -0.9783488505
17250196500.0 -0.1849752374 -0.9758104675
17300196200.0 -0.1972472183 -0.973719802
17350195900.0 -0.2090996711 -0.9711251951
17400195600.0 -0.2213291566 -0.9687442962
17450195300.0 -0.2344880463 -0.9660420753
17500195000.0 -0.2477288945 -0.9626660067
17550194700.0 -0.2614166249 -0.9589692121
17600194400.0 -0.2752333831 -0.9551475314
17650194100.0 -0.289121631 -0.9509316811
17700193800.0 -0.3022998198 -0.9471498651
17750193500.0 -0.3166041719 -0.9423950354
17800193200.0 -0.3308341453 -0.9370186362
17850192900.0 -0.346096137 -0.9312455601
17900192600.0 -0.3612689416 -0.9251665935
17950192300.0 -0.37689849 -0.9182097269
18000192000.0 -0.3914845715 -0.9111227824
18050191700.0 -0.4056201506 -0.9031710533
18100191400.0 -0.419844949 -0.8955583329
18150191100.0 -0.4347266398 -0.8876173654
18200190800.0 -0.4517097212 -0.8783337456
18250190500.0 -0.4686173192 -0.8690430007
18300190200.0 -0.4838964408 -0.8604377808
18350189900.0 -0.4989962683 -0.8519473841
18400189600.0 -0.5135174799 -0.8432141803
18450189300.0 -0.5270838041 -0.8357944899
18500189000.0 -0.5400876251 -0.8277272481
18550188700.0 -0.5530367806 -0.8201230948
18600188400.0 -0.5643788705 -0.8132930477
18650188100.0 -0.5757587812 -0.8067047476
18700187800.0 -0.5866308048 -0.8004005846
18750187500.0 -0.5972203097 -0.793743832
18800187200.0 -0.6077549578 -0.7867833197
18850186900.0 -0.6178899842 -0.7798424006
18900186600.0 -0.628146175 -0.7724072717
18950186300.0 -0.6380574681 -0.7650133464
19000186000.0 -0.6454250128 -0.758738182
19050185700.0 -0.6543807836 -0.7516935234
19100185400.0 -0.6642554156 -0.7433577951
19150185100.0 -0.6745998548 -0.7347061513
19200184800.0 -0.6836510135 -0.7268153707
19250184500.0 -0.6940317753 -0.7178225413
19300184200.0 -0.7055978573 -0.7081220484
19350183900.0 -0.7159061691 -0.698827195
19400183600.0 -0.7261722172 -0.6881876371
19450183300.0 -0.7352895974 -0.6779177614
19500183000.0 -0.7434925821 -0.6679065433
19550182700.0 -0.7529556112 -0.6569538974
19600182400.0 -0.7640394107 -0.6454669566
19650182100.0 -0.7741449813 -0.6331408581
19700181800.0 -0.7848635538 -0.6199432025
19750181500.0 -0.7955267963 -0.60565832
19800181200.0 -0.8059753077 -0.5906356699
19850180900.0 -0.8156109907 -0.5752518179
19900180600.0 -0.823295556 -0.5610758629
19950180300.0 -0.8327124931 -0.544792124
20000180000.0 -0.8250239943 -0.547206026
20050179700.0 -0.8333010716 -0.5332665233
20100179400.0 -0.8422051205 -0.5209591847
20150179100.0 -0.8502099045 -0.5085963973
20200178800.0 -0.8592930525 -0.4953732976
20250178500.0 -0.8681716763 -0.4821591642
20300178200.0 -0.8778191336 -0.4681898072
20350177900.0 -0.8873785855 -0.4536247282
20400177600.0 -0.8961257051 -0.439418726
20450177300.0 -0.9040972264 -0.4248480847
20500177000.0 -0.9123566808 -0.4109697848
20550176700.0 -0.9202182437 -0.3973939242
20600176400.0 -0.927052818 -0.3843373794
20650176100.0 -0.9337217781 -0.3724245516
20700175800.0 -0.9407959533 -0.3601135953
20750175500.0 -0.9469682337 -0.3478913011
20800175200.0 -0.9521066381 -0.3384411202
20850174900.0 -0.9563949729 -0.3267555575
20900174600.0 -0.9611619049 -0.3150725628
20950174300.0 -0.9649606399 -0.3044198146
21000174000.0 -0.9687636418 -0.2930317356
21050173700.0 -0.970966739 -0.2829824177
21100173400.0 -0.9745863876 -0.2707049982
21150173100.0 -0.9783943539 -0.2581881088
21200172800.0 -0.9818785239 -0.2451345317
21250172500.0 -0.9856971761 -0.2313079001
21300172200.0 -0.9878330193 -0.2172748872
21350171900.0 -0.9895658829 -0.2030908601
21400171600.0 -0.9914896562 -0.1886285019
21450171300.0 -0.9919723173 -0.1739199598
21500171000.0 -0.9919220515 -0.1594312889
21550170700.0 -0.991865813 -0.1433571692
21600170400.0 -0.9916986058 -0.128180257
21650170100.0 -0.992090101 -0.1112423713
21700169800.0 -0.9904413312 -0.0965844578
21750169500.0 -0.9893465852 -0.0805391878
21800169200.0 -0.9886134375 -0.0645840478
21850168900.0 -0.9874410638 -0.0478189686
21900168600.0 -0.9864459241 -0.0312873859
21950168300.0 -0.9855521407 -0.0155141366
22000168000.0 -0.9845683053 -0.0004471515
22050167700.0 -0.9844968829 0.0141386694
22100167400.0 -0.9848844025 0.0293486032
22150167100.0 -0.9855746708 0.0451772315
22200166800.0 -0.9861622191 0.0615175916
22250166500.0 -0.9859664551 0.0790408994
22300166200.0 -0.9850040955 0.0957956327
22350165900.0 -0.9841702713 0.1116661893
22400165600.0 -0.9819640431 0.127496911
22450165300.0 -0.9808862065 0.1426750839
22500165000.0 -0.9783246637 0.1565896532
22550164700.0 -0.9779537045 0.1713811302
22600164400.0 -0.9752142399 0.1869555187
22650164100.0 -0.9730231898 0.2024867665
22700163800.0 -0.9701714683 0.2179497055
22750163500.0 -0.9677967267 0.2330789756
22800163200.0 -0.9648002616 0.2466978232
22850162900.0 -0.9618602752 0.2598264644
22900162600.0 -0.9605250154 0.273170626
22950162300.0 -0.9596384152 0.2861809097
23000162000.0 -0.9582753238 0.2981670117
23050161700.0 -0.9564719458 0.3108247351
23100161400.0 -0.9538921222 0.3233404412
23150161100.0 -0.95027608 0.3361744325
23200160800.0 -0.9474262758 0.3491449184
23250160500.0 -0.9453098336 0.3604108132
23300160200.0 -0.9429961455 0.3727816902
23350159900.0 -0.9396044169 0.38611866
23400159600.0 -0.9337055512 0.3995762652
23450159300.0 -0.9289691826 0.4127524435
23500159000.0 -0.9250245105 0.42589446
23550158700.0 -0.9205700071 0.4388452043
23600158400.0 -0.9149558459 0.4525065148
23650158100.0 -0.9082968111 0.4667572288
23700157800.0 -0.9007909592 0.4806809173
23750157500.0 -0.8916464545 0.4950415581
23800157200.0 -0.8826192605 0.5084128428
23850156900.0 -0.8739540541 0.5213321586
23900156600.0 -0.8642295147 0.5337065051
23950156300.0 -0.8557487537 0.5452904333
24000156000.0 -0.8463105811 0.5580513705
24050155700.0 -0.8364328393 0.5698301377
24100155400.0 -0.8258790571 0.5819704985
24150155100.0 -0.8161279281 0.5942702011
24200154800.0 -0.8040729311 0.6056320906
24250154500.0 -0.7932696035 0.6171527349
24300154200.0 -0.7820892152 0.6287344098
24350153900.0 -0.7699513154 0.6392569418
24400153600.0 -0.7578915718 0.6495005873
24450153300.0 -0.7461517416 0.6595036981
24500153000.0 -0.7347554875 0.669148791
24550152700.0 -0.7231524442 0.6789668921
24600152400.0 -0.7117360268 0.6889545171
24650152100.0 -0.6998357357 0.6966278639
