!Created with skrf (http://scikit-rf.org).
# Hz S RI R 50.0 
!freq ReS11 ImS11
300000.0 -0.9957157847 -0.0462846961
50299700.0 -0.9992637477 0.0163429237
100299400.0 -0.997164241 0.0290137187
150299100.0 -1.002045314 0.045883258
200298800.0 -0.9988896645 0.0590297612
250298500.0 -0.9966395269 0.0724655905
300298200.0 -0.9851711251 0.088184964
350297900.0 -0.9931230177 0.099109336
400297600.0 -0.9920920236 0.1155458684
450297300.0 -0.9900033417 0.1291424076
500297000.0 -0.9882194503 0.1438496358
550296700.0 -0.9830362505 0.1563047949
600296400.0 -1.015869467 0.1895452816
650296100.0 -0.9807477183 0.185970214
700295800.0 -0.9780958506 0.2002509549
750295500.0 -0.974980843 0.2141789
800295200.0 -0.971538948 0.2281097268
850294900.0 -0.9681733113 0.2419625875
900294600.0 -0.9642744107 0.2557297945
950294300.0 -0.9606088512 0.2694135424
1000294000.0 -0.9568446325 0.2830661498
1050293700.0 -0.9521672088 0.2969416224
1100293400.0 -0.947996823 0.3114547434
1150293100.0 -0.9441489522 0.32319125
1200292800.0 -0.9390644007 0.3373092613
1250292500.0 -0.9337426003 0.3508109133
1300292200.0 -0.9279860022 0.3640784982
1350291900.0 -0.9224955043 0.3780373277
1400291600.0 -0.9173465858 0.3910802372
1450291300.0 -0.9116967325 0.4033011816
1500291000.0 -0.9055632528 0.4166939352
1550290700.0 -0.8989764872 0.4299468905
1600290400.0 -0.8930157969 0.4428697062
1650290100.0 -0.8862955681 0.455020882
1700289800.0 -0.8796247629 0.4682633391
1750289500.0 -0.8725518181 0.4805652236
1800289200.0 -0.865401817 0.4936163303
1850288900.0 -0.858710873 0.5046534891
1900288600.0 -0.851032462 0.5176192128
1950288300.0 -0.8429346755 0.5304058985
2000288000.0 -0.8355671472 0.5417361907
2050287700.0 -0.8272057832 0.5538831975
2100287400.0 -0.8194564758 0.5658102972
2150287100.0 -0.8108535017 0.5775829177
2200286800.0 -0.8031470411 0.5883904855
2250286500.0 -0.7943792641 0.5999253905
2300286200.0 -0.7854341029 0.6115991962
2350285900.0 -0.7767029343 0.6226283776
2400285600.0 -0.7675963793 0.6337147951
2450285300.0 -0.7590186522 0.6442562905
2500285000.0 -0.7492962766 0.6552060602
2550284700.0 -0.7403803346 0.6657998087
2600284400.0 -0.7306289272 0.6758844572
2650284100.0 -0.7219494197 0.6862370578
2700283800.0 -0.7112460343 0.6967299612
2750283500.0 -0.701149862 0.7069384773
2800283200.0 -0.6913939896 0.7169155718
2850282900.0 -0.6808229792 0.7267000643
2900282600.0 -0.6705499465 0.7363335394
2950282300.0 -0.6605590504 0.7457702165
3000282000.0 -0.649917727 0.7548326569
3050281700.0 -0.638807347 0.7642761179
3100281400.0 -0.6277943086 0.7731130244
3150281100.0 -0.6162828032 0.7821174648
3200280800.0 -0.6045340169 0.7910705906
3250280500.0 -0.5936013041 0.7990476803
3300280200.0 -0.5824013784 0.8071259968
3350279900.0 -0.5712112403 0.8146972163
3400279600.0 -0.5591789451 0.8226938205
3450279300.0 -0.54772178 0.8300670838
3500279000.0 -0.5360114909 0.8373636175
3550278700.0 -0.5237824671 0.8446772757
3600278400.0 -0.5123256112 0.8516031461
3650278100.0 -0.4989733831 0.8593895847
3700277800.0 -0.4870985749 0.8661068583
3750277500.0 -0.4750138448 0.8724687443
3800277200.0 -0.4624796731 0.8792851253
3850276900.0 -0.449924578 0.8851206558
3900276600.0 -0.4387919946 0.8910424585
3950276300.0 -0.425986438 0.8974359748
4000276000.0 -0.4139181317 0.9034771536
4050275700.0 -0.4005582558 0.9094933886
4100275400.0 -0.3890586324 0.9149453346
4150275100.0 -0.3762024643 0.9207296818
4200274800.0 -0.3628998499 0.9259823147
4250274500.0 -0.3506444673 0.9310330358
4300274200.0 -0.3379272379 0.9361183827
4350273900.0 -0.3242162938 0.9411333961
4400273600.0 -0.3100900109 0.9461021029
4450273300.0 -0.2953134835 0.9508222004
4500273000.0 -0.2821790899 0.9549768764
4550272700.0 -0.2684298556 0.9590517255
4600272400.0 -0.2529521181 0.9634233123
4650272100.0 -0.2408518188 0.9665398055
4700271800.0 -0.2274870573 0.9700198537
4750271500.0 -0.2150678285 0.9729080893
4800271200.0 -0.2019609813 0.9757425448
4850270900.0 -0.1881053469 0.9785489101
4900270600.0 -0.1745860638 0.9809132483
4950270300.0 -0.1609111355 0.9835277126
5000270000.0 -0.1469050117 0.9857038828
5050269700.0 -0.1332667864 0.987099833
5100269400.0 -0.119720783 0.9893054062
5150269100.0 -0.1059482402 0.9910551412
5200268800.0 -0.0923039569 0.992240665
5250268500.0 -0.0792085836 0.9933468154
5300268200.0 -0.0657940419 0.9943179993
5350267900.0 -0.0537108608 0.9946704102
5400267600.0 -0.0377656561 0.9959435521
5450267300.0 -0.0252957898 0.9957909619
5500267000.0 -0.0107185593 0.996388037
5550266700.0 0.0030870827 0.9966298836
5600266400.0 0.0180782633 0.9964326355
5650266100.0 0.0340175975 0.9964427188
5700265800.0 0.0481120921 0.9953426885
5750265500.0 0.062800976 0.994936114
5800265200.0 0.0763697403 0.9939792862
5850264900.0 0.0895535951 0.9928760356
5900264600.0 0.1062367597 0.9915212593
5950264300.0 0.118392191 0.989994955
6000264000.0 0.1325367889 0.9877931389
6050263700.0 0.1453137682 0.9868068868
6100263400.0 0.1581192814 0.9844782107
6150263100.0 0.1735738064 0.9820019871
6200262800.0 0.1841802246 0.9801975967
6250262500.0 0.1972828524 0.9775709492
6300262200.0 0.2101786983 0.9749887592
6350261900.0 0.2234470378 0.9721658305
6400261600.0 0.2375223706 0.9687556262
6450261300.0 0.2492385757 0.9658891938
6500261000.0 0.262094499 0.9625639026
6550260700.0 0.2747272491 0.9583433317
6600260400.0 0.2878252815 0.9545198011
6650260100.0 0.3018962778 0.9503870482
6700259800.0 0.314223261 0.946609639
6750259500.0 0.327532651 0.9415709364
6800259200.0 0.340686349 0.9367185251
6850258900.0 0.3529697885 0.9320736314
6900258600.0 0.3653548098 0.9269251398
6950258300.0 0.3779529252 0.921856251
7000258000.0 0.3901241262 0.9167160208
7050257700.0 0.4022163216 0.9110777014
7100257400.0 0.4154460438 0.9046390301
7150257100.0 0.4261492296 0.8996015943
7200256800.0 0.4388652497 0.8931957137
7250256500.0 0.4505411879 0.8874450787
7300256200.0 0.4631749572 0.8804568249
7350255900.0 0.4751570766 0.8740445204
7400255600.0 0.4870286023 0.8677625775
7450255300.0 0.5016115511 0.8594390767
7500255000.0 0.5129950849 0.8527141546
7550254700.0 0.525566829 0.844834454
7600254400.0 0.5381330822 0.8367773259
7650254100.0 0.5496421649 0.8292628902
7700253800.0 0.5616760833 0.82130167
7750253500.0 0.5729151645 0.8137381072
7800253200.0 0.5840759272 0.8054901956
7850252900.0 0.5937166388 0.798600269
7900252600.0 0.6055417636 0.7896186227
7950252300.0 0.615009431 0.7826311328
8000252000.0 0.6255162435 0.7744246025
8050251700.0 0.6361292513 0.7662219988
8100251400.0 0.6460473064 0.7578158108
8150251100.0 0.6566808787 0.7488655814
8200250800.0 0.6661845199 0.7408230342
8250250500.0 0.6755844666 0.7319104393
8300250200.0 0.6853519877 0.723217313
8350249900.0 0.6947012875 0.7142996825
8400249600.0 0.7034875785 0.7057968975
8450249300.0 0.7128538368 0.6965348344
8500249000.0 0.721858695 0.6872917222
8550248700.0 0.7308786491 0.6775780985
8600248400.0 0.7398360041 0.6677713321
8650248100.0 0.7476860668 0.6584379898
8700247800.0 0.7569890203 0.6475995161
8750247500.0 0.7652311892 0.6375503199
8800247200.0 0.7737654679 0.6273101137
8850246900.0 0.7825071699 0.6162557437
8900246600.0 0.7903480136 0.6055841858
8950246300.0 0.8000037021 0.5933856091
9000246000.0 0.8079502139 0.5819005025
9050245700.0 0.8166742837 0.5699069746
9100245400.0 0.8246392098 0.5579611384
9150245100.0 0.833057069 0.5454898346
9200244800.0 0.8417390814 0.5328547581
9250244500.0 0.850287248 0.5189186863
9300244200.0 0.8579999286 0.5060933037
9350243900.0 0.8658673301 0.4927288929
9400243600.0 0.8727991663 0.4803480803
9450243300.0 0.878906649 0.4685710518
9500243000.0 0.8859373201 0.4552003197
9550242700.0 0.8912250056 0.4446232325
9600242400.0 0.8962115148 0.4346502743
9650242100.0 0.900696356 0.4258895597
9700241800.0 0.905775175 0.4160383451
9750241500.0 0.9104349392 0.406460385
9800241200.0 0.9153265327 0.39550827
9850240900.0 0.92065535 0.3840257968
9900240600.0 0.9254620011 0.3736068466
9950240300.0 0.9314092067 0.358923632
10000240000.0 0.9365202214 0.3464825869
10050239700.0 0.9420264934 0.3320466188
10100239400.0 0.9464083751 0.3180151198
10150239100.0 0.9508336653 0.303719375
10200238800.0 0.9552444664 0.2891871367
10250238500.0 0.9590821181 0.2758312763
10300238200.0 0.9625128011 0.2620782914
10350237900.0 0.9656050738 0.2488337047
10400237600.0 0.9684699013 0.2358573712
10450237300.0 0.9714536933 0.2221418851
10500237000.0 0.9741724958 0.2096584463
10550236700.0 0.9764428883 0.1959959295
10600236400.0 0.979098555 0.1823280412
10650236100.0 0.9811727666 0.1673047264
10700235800.0 0.983419692 0.155283851
10750235500.0 0.9857870107 0.1422527087
10800235200.0 0.987539579 0.1283870587
10850234900.0 0.9893330531 0.1142688725
10900234600.0 0.9912790769 0.0996999152
10950234300.0 0.9929539125 0.0866403338
11000234000.0 0.994298577 0.0726137875
11050233700.0 0.9957565476 0.0578901046
11100233400.0 0.9971293432 0.0417254638
11150233100.0 0.9979336759 0.0266390355
11200232800.0 0.9980092233 0.0125472262
11250232500.0 0.9991683314 -0.0033983062
11300232200.0 0.9993539907 -0.0194832232
11350231900.0 0.9991676065 -0.0337918408
11400231600.0 0.9993785786 -0.0496072837
11450231300.0 0.998661106 -0.0639484682
11500231000.0 0.9972896427 -0.0797380627
11550230700.0 0.9963370213 -0.09342039
11600230400.0 0.9947909786 -0.1076255061
11650230100.0 0.9928616906 -0.119334966
11700229800.0 0.9912741665 -0.1337498765
11750229500.0 0.9894704884 -0.1483119567
11800229200.0 0.9869323596 -0.1620651111
11850228900.0 0.9842928922 -0.175818339
11900228600.0 0.980858842 -0.1875806942
11950228300.0 0.9780482378 -0.1998338642
12000228000.0 0.9754285722 -0.2109889338
12050227700.0 0.9719623684 -0.2237461451
12100227400.0 0.9696385142 -0.2346792682
12150227100.0 0.9647701122 -0.2523604573
12200226800.0 0.9609913056 -0.2637404789
12250226500.0 0.9578443539 -0.2762521639
12300226200.0 0.953296432 -0.2890428187
12350225900.0 0.948421451 -0.3030335503
12400225600.0 0.9442983277 -0.316332051
12450225300.0 0.9407550168 -0.3279994067
12500225000.0 0.9353206546 -0.3422574521
12550224700.0 0.9302579148 -0.3562483755
12600224400.0 0.9252129277 -0.3684655907
12650224100.0 0.9196999917 -0.3825807771
12700223800.0 0.9144455625 -0.3952718943
12750223500.0 0.90896815 -0.408088834
12800223200.0 0.9034795434 -0.4208098077
12850222900.0 0.8980964362 -0.4328548087
12900222600.0 0.8919293709 -0.4457262185
12950222300.0 0.8856742977 -0.4578435455
13000222000.0 0.8794972716 -0.4698212585
13050221700.0 0.8723644562 -0.4831464361
13100221400.0 0.8660293449 -0.4946946478
13150221100.0 0.858733758 -0.5073412797
13200220800.0 0.8517071492 -0.518999817
13250220500.0 0.8443573377 -0.531241063
13300220200.0 0.8370979596 -0.5426605411
13350219900.0 0.8289412249 -0.5547869897
13400219600.0 0.8208256393 -0.5665954721
13450219300.0 0.8119551512 -0.5794835284
13500219000.0 0.8026905209 -0.5919032364
13550218700.0 0.7931561581 -0.6051620402
13600218400.0 0.7835822946 -0.6168421018
13650218100.0 0.7748170367 -0.6268792148
13700217800.0 0.7639272178 -0.6397956668
13750217500.0 0.7543236441 -0.651424836
13800217200.0 0.7437967367 -0.6632464203
13850216900.0 0.7333771054 -0.6745342309
13900216600.0 0.7240996909 -0.6842264347
13950216300.0 0.7131281156 -0.6942556966
14000216000.0 0.7031934377 -0.7037247549
14050215700.0 0.6937828144 -0.71280137
14100215400.0 0.6835379415 -0.7226686986
14150215100.0 0.6737621857 -0.731759286
14200214800.0 0.6641542986 -0.7403783929
14250214500.0 0.6538105692 -0.7499011556
14300214200.0 0.6432402747 -0.7595156734
14350213900.0 0.6319662812 -0.7689106077
14400213600.0 0.6209520793 -0.7780540519
14450213300.0 0.6089485666 -0.7878854985
14500213000.0 0.5967308275 -0.7970285056
14550212700.0 0.5849283563 -0.8061187791
14600212400.0 0.5727866727 -0.8147205904
14650212100.0 0.5601261485 -0.8234096508
14700211800.0 0.54679224 -0.8322624046
14750211500.0 0.5344518276 -0.8407134728
14800211200.0 0.5223502246 -0.848783916
14850210900.0 0.5099958438 -0.8562761743
14900210600.0 0.4972132121 -0.8642073313
14950210300.0 0.4840208067 -0.871739732
15000210000.0 0.4709259878 -0.878999501
15050209700.0 0.4582080125 -0.8851377091
15100209400.0 0.4451069059 -0.8917664805
15150209100.0 0.4331467998 -0.8977668196
15200208800.0 0.4195915969 -0.9038131712
15250208500.0 0.4071573614 -0.9090075948
15300208200.0 0.3949045302 -0.9141718316
15350207900.0 0.3813512227 -0.919993424
15400207600.0 0.3672237616 -0.9251789337
15450207300.0 0.3525602307 -0.9304693654
15500207000.0 0.3382890507 -0.935551435
15550206700.0 0.3241371446 -0.9403087987
15600206400.0 0.3092527958 -0.9453029912
15650206100.0 0.2944426004 -0.9492751951
15700205800.0 0.2803843134 -0.953888616
15750205500.0 0.2660614961 -0.9570840535
15800205200.0 0.2521089549 -0.9608486523
15850204900.0 0.2379933057 -0.9642937525
15900204600.0 0.2231841641 -0.9681627573
15950204300.0 0.2090607872 -0.9712463421
16000204000.0 0.1947396093 -0.9742775109
16050203700.0 0.1805898125 -0.9771122069
16100203400.0 0.1662311723 -0.979742998
16150203100.0 0.151377308 -0.9819253128
16200202800.0 0.1372613647 -0.9843111109
16250202500.0 0.1227628503 -0.9860112935
16300202200.0 0.1078356328 -0.9874886437
16350201900.0 0.0928635731 -0.9894266572
16400201600.0 0.0782407652 -0.9904696902
16450201300.0 0.0633364056 -0.9917923472
16500201000.0 0.0472920461 -0.9926517146
16550200700.0 0.0319458864 -0.9934635855
16600200400.0 0.0164825945 -0.9939288259
16650200100.0 0.0008063699 -0.994150537
16700199800.0 -0.0145781636 -0.9943822759
16750199500.0 -0.0322383916 -0.993544176
16800199200.0 -0.0482097325 -0.993511031
16850198900.0 -0.0638456313 -0.9923205269
16900198600.0 -0.0775727621 -0.9911419869
16950198300.0 -0.0917641413 -0.9902852352
17000198000.0 -0.1058749029 -0.9885363751
17050197700.0 -0.1195631507 -0.9865312471
17100197400.0 -0.1336499298 -0.9850496742
17150197100.0 -0.1468960133 -0.9826188483
17200196800.0 -0.1608788997 -0.9806168643
17250196500.0 -0.1742246665 -0.978175948
17300196200.0 -0.1876496201 -0.9755945527
17350195900.0 -0.2004409607 -0.9731377886
17400195600.0 -0.2133616779 -0.9706954134
17450195300.0 -0.2268133726 -0.9676647277
17500195000.0 -0.2404270427 -0.9644413462
17550194700.0 -0.2542869941 -0.9607115559
17600194400.0 -0.2686198003 -0.9570062477
17650194100.0 -0.2823967138 -0.9528768046
17700193800.0 -0.2952022521 -0.9489331144
17750193500.0 -0.3094197628 -0.9443539825
17800193200.0 -0.3231689367 -0.9395924669
17850192900.0 -0.337900727 -0.9343684241
17900192600.0 -0.3521726411 -0.9289616261
17950192300.0 -0.3672556957 -0.9228174203
18000192000.0 -0.3817813514 -0.9161960031
18050191700.0 -0.3958105468 -0.9090898853
18100191400.0 -0.410157341 -0.902184378
18150191100.0 -0.4242216771 -0.8951510431
18200190800.0 -0.4398360436 -0.8870628325
18250190500.0 -0.4556587154 -0.8786192149
18300190200.0 -0.4705246985 -0.8710306791
18350189900.0 -0.4855804965 -0.8630981958
18400189600.0 -0.4996770655 -0.8550568852
18450189300.0 -0.5129503746 -0.8473961114
18500189000.0 -0.5267238568 -0.8396422179
18550188700.0 -0.539654579 -0.8314027685
18600188400.0 -0.5523320085 -0.8240429527
18650188100.0 -0.5640394339 -0.8165678364
18700187800.0 -0.5756576033 -0.8093726235
18750187500.0 -0.586912256 -0.8018874183
18800187200.0 -0.5982470636 -0.7938962031
18850186900.0 -0.6089475686 -0.7859738068
18900186600.0 -0.6197166678 -0.7780629956
18950186300.0 -0.630842543 -0.7693218616
19000186000.0 -0.6395662764 -0.7619620383
19050185700.0 -0.6495906755 -0.7538579547
19100185400.0 -0.6597215789 -0.7451905413
19150185100.0 -0.6701269181 -0.7361078592
19200184800.0 -0.6797640596 -0.7271684351
19250184500.0 -0.6895037458 -0.7178233169
19300184200.0 -0.7002197612 -0.7081025294
19350183900.0 -0.7111325994 -0.6982797915
19400183600.0 -0.7208690829 -0.6884406778
19450183300.0 -0.7302790191 -0.6781522931
19500183000.0 -0.738787274 -0.6680818593
19550182700.0 -0.7475825596 -0.6573698037
19600182400.0 -0.7572523287 -0.6459874279
19650182100.0 -0.7674806085 -0.6345446113
19700181800.0 -0.7775883063 -0.6224064563
19750181500.0 -0.7870835988 -0.609564445
19800181200.0 -0.7970086128 -0.596182714
19850180900.0 -0.8067286442 -0.5824513308
19900180600.0 -0.8146278821 -0.5695752068
19950180300.0 -0.8244115258 -0.554736901
20000180000.0 -0.825630874 -0.5498431747
20050179700.0 -0.8340716313 -0.5374517715
20100179400.0 -0.8413471738 -0.5241139068
20150179100.0 -0.8490380739 -0.5111925664
20200178800.0 -0.8578736028 -0.4991628152
20250178500.0 -0.8663397414 -0.4860411546
20300178200.0 -0.8750331407 -0.4725538061
20350177900.0 -0.8835265095 -0.4586591803
20400177600.0 -0.8908434051 -0.4452886079
20450177300.0 -0.8987344244 -0.4309382792
20500177000.0 -0.9056095733 -0.4179671025
20550176700.0 -0.9130661985 -0.404218303
20600176400.0 -0.9191471861 -0.3909694819
20650176100.0 -0.9252666264 -0.3782805928
20700175800.0 -0.9319255858 -0.3660800117
20750175500.0 -0.9382999155 -0.3533877072
20800175200.0 -0.9428277353 -0.3421965685
20850174900.0 -0.9482801511 -0.3299374652
20900174600.0 -0.9527210359 -0.3174213838
20950174300.0 -0.9568328151 -0.3056063014
21000174000.0 -0.9598067843 -0.2931363586
21050173700.0 -0.9631346077 -0.281566206
21100173400.0 -0.9668587956 -0.2686124337
21150173100.0 -0.9707879769 -0.2561092573
21200172800.0 -0.9750676977 -0.2422045472
21250172500.0 -0.9779779147 -0.228490608
21300172200.0 -0.9815451808 -0.2148584182
21350171900.0 -0.9833149296 -0.2001638349
21400171600.0 -0.9856214153 -0.18610611
21450171300.0 -0.9871640087 -0.1723779114
21500171000.0 -0.9873901757 -0.1570861853
21550170700.0 -0.9887269407 -0.1420119505
21600170400.0 -0.9909003315 -0.1275555028
21650170100.0 -0.9912735735 -0.1119370245
21700169800.0 -0.9893274056 -0.0966175204
21750169500.0 -0.9905114084 -0.0817448898
21800169200.0 -0.9903629741 -0.0660120584
21850168900.0 -0.990195488 -0.0499007535
21900168600.0 -0.9900868314 -0.0342959613
21950168300.0 -0.9886073077 -0.0191091971
22000168000.0 -0.988595102 -0.0036619581
22050167700.0 -0.9880577404 0.0105127607
22100167400.0 -0.9880257932 0.0257603166
22150167100.0 -0.9879626357 0.0404983537
22200166800.0 -0.9879974401 0.055935663
22250166500.0 -0.9868358974 0.0716539681
22300166200.0 -0.9866901112 0.0876399836
22350165900.0 -0.9848562103 0.1029577866
22400165600.0 -0.9843435081 0.1182092477
22450165300.0 -0.9807821986 0.1325738622
22500165000.0 -0.9793751182 0.1451773544
22550164700.0 -0.9778754113 0.1617597143
22600164400.0 -0.9771475808 0.1767202215
22650164100.0 -0.9739057202 0.1892777867
22700163800.0 -0.9719503732 0.205176645
22750163500.0 -0.9684216522 0.2193322083
22800163200.0 -0.9659348142 0.2328237704
22850162900.0 -0.9632616282 0.2462280229
22900162600.0 -0.9612631437 0.2595200378
22950162300.0 -0.9593586723 0.2729455307
23000162000.0 -0.9568854382 0.2849504362
23050161700.0 -0.9545487272 0.2981115042
23100161400.0 -0.9514023726 0.3114750281
23150161100.0 -0.9484731139 0.3235410722
23200160800.0 -0.9453469097 0.3365645735
23250160500.0 -0.9415989966 0.3489054436
23300160200.0 -0.9393098959 0.3610142953
23350159900.0 -0.934942431 0.3737966381
23400159600.0 -0.9296396549 0.3862319116
23450159300.0 -0.9248723898 0.399233755
23500159000.0 -0.9206763608 0.411544756
23550158700.0 -0.9160489292 0.4245861605
23600158400.0 -0.9105760893 0.4373682646
23650158100.0 -0.9046625891 0.45053457
23700157800.0 -0.8978325349 0.4636051814
23750157500.0 -0.8903063709 0.4771577698
23800157200.0 -0.8822802639 0.4897429237
23850156900.0 -0.8746157502 0.502279071
23900156600.0 -0.866422519 0.5143988093
23950156300.0 -0.8582709829 0.5272353844
24000156000.0 -0.8499859651 0.5397839663
24050155700.0 -0.8398985403 0.5517849391
24100155400.0 -0.8318492254 0.5625614263
24150155100.0 -0.8224014602 0.5744983201
24200154800.0 -0.8123307718 0.5856813779
24250154500.0 -0.8026318249 0.5975243826
24300154200.0 -0.7926535708 0.6094581452
24350153900.0 -0.7820768727 0.620492891
24400153600.0 -0.7710220515 0.6312962051
24450153300.0 -0.7603243518 0.6420871784
24500153000.0 -0.7498650309 0.6519247488
24550152700.0 -0.740028902 0.6625197924
24600152400.0 -0.7292157667 0.6725901479
24650152100.0 -0.7180035295 0.68197991
