!Created with skrf (http://scikit-rf.org).
# Hz S RI R 50.0 
!freq ReS11 ImS11
300000.0 -0.9758651155 -0.1180367376
50299700.0 -1.000016611 0.0154875935
100299400.0 -0.9980076593 0.0286300552
150299100.0 -1.002829758 0.0452560492
200298800.0 -0.9996815781 0.0585182939
250298500.0 -0.9973585868 0.0721788017
300298200.0 -0.9859748147 0.0881238185
350297900.0 -0.9940531393 0.0989731209
400297600.0 -0.9931924678 0.1155435551
450297300.0 -0.9911382806 0.1291292371
500297000.0 -0.9895023797 0.1440138624
550296700.0 -0.9845106233 0.156246495
600296400.0 -1.01752657 0.1897472469
650296100.0 -0.9823365855 0.1862881314
700295800.0 -0.9793485192 0.2007227868
750295500.0 -0.9765464123 0.2143540199
800295200.0 -0.9729819336 0.2288251536
850294900.0 -0.9696353618 0.2425163416
900294600.0 -0.9658266474 0.2561073422
950294300.0 -0.9621640586 0.269996871
1000294000.0 -0.9582590947 0.28380959
1050293700.0 -0.953679218 0.2978282521
1100293400.0 -0.9491768402 0.3121974992
1150293100.0 -0.9454504849 0.3239579847
1200292800.0 -0.9401684858 0.3384114647
1250292500.0 -0.9346450397 0.3518214752
1300292200.0 -0.9288901775 0.3650283931
1350291900.0 -0.923448576 0.3789715644
1400291600.0 -0.9178506689 0.3922132147
1450291300.0 -0.9124172662 0.4046119817
1500291000.0 -0.9062554329 0.4178078552
1550290700.0 -0.8997470123 0.4312238852
1600290400.0 -0.8933543797 0.4439563043
1650290100.0 -0.8866094608 0.4561829391
1700289800.0 -0.879850096 0.4695841804
1750289500.0 -0.8727795796 0.4820747966
1800289200.0 -0.8654062666 0.4949346999
1850288900.0 -0.8587984435 0.5064195649
1900288600.0 -0.8509641988 0.5191472172
1950288300.0 -0.8427193658 0.531816451
2000288000.0 -0.8351453025 0.543146274
2050287700.0 -0.8270482425 0.5555758263
2100287400.0 -0.8192283549 0.5672797342
2150287100.0 -0.8106265789 0.5791632353
2200286800.0 -0.8029179396 0.5894095359
2250286500.0 -0.7941812516 0.6016073553
2300286200.0 -0.7853019046 0.6132529147
2350285900.0 -0.77635031 0.6242349133
2400285600.0 -0.7674050868 0.6350362823
2450285300.0 -0.7590118303 0.6456190733
2500285000.0 -0.7491710739 0.6567863614
2550284700.0 -0.7402670897 0.6671849619
2600284400.0 -0.7307382413 0.6774032888
2650284100.0 -0.7217893063 0.6880191552
2700283800.0 -0.7111067541 0.6983619102
2750283500.0 -0.7008982458 0.7088800024
2800283200.0 -0.6913051554 0.7189173614
2850282900.0 -0.6809764466 0.728778026
2900282600.0 -0.6705510564 0.7382868524
2950282300.0 -0.6603847896 0.7474470555
3000282000.0 -0.6498375241 0.7569948693
3050281700.0 -0.6385138685 0.7662010558
3100281400.0 -0.6265178708 0.7755411839
3150281100.0 -0.6148289522 0.7848506071
3200280800.0 -0.6032173518 0.7934121415
3250280500.0 -0.592272705 0.8011027656
3300280200.0 -0.5809567798 0.8088625753
3350279900.0 -0.5694500586 0.816384891
3400279600.0 -0.5571967935 0.8240224695
3450279300.0 -0.5463723536 0.8313980672
3500279000.0 -0.5342313081 0.8381461704
3550278700.0 -0.521806495 0.8455128691
3600278400.0 -0.5096559948 0.852747081
3650278100.0 -0.4963199501 0.8603076536
3700277800.0 -0.4842993066 0.8670216149
3750277500.0 -0.4720174244 0.8733691801
3800277200.0 -0.4596628082 0.8798952114
3850276900.0 -0.4475299292 0.8857409901
3900276600.0 -0.4366037288 0.8915110199
3950276300.0 -0.4242924003 0.8976824813
4000276000.0 -0.4122501626 0.9035957592
4050275700.0 -0.3993639535 0.9096182092
4100275400.0 -0.3880573366 0.9151342204
4150275100.0 -0.3752684701 0.9207772677
4200274800.0 -0.3625481691 0.9260953053
4250274500.0 -0.3502416206 0.9312496723
4300274200.0 -0.3373127528 0.9367773758
4350273900.0 -0.3235868846 0.9419405782
4400273600.0 -0.3088291581 0.9470583046
4450273300.0 -0.2933777214 0.9523207648
4500273000.0 -0.2797283334 0.9566112243
4550272700.0 -0.2655139622 0.9608857581
4600272400.0 -0.2499544025 0.9652785789
4650272100.0 -0.2384360971 0.9683960773
4700271800.0 -0.2251814769 0.971673901
4750271500.0 -0.2134158365 0.9745081502
4800271200.0 -0.200950297 0.9772898156
4850270900.0 -0.1869081172 0.9800918335
4900270600.0 -0.173083683 0.9823974936
4950270300.0 -0.1587825292 0.9851774433
5000270000.0 -0.1447278723 0.9870300487
5050269700.0 -0.131003787 0.988515759
5100269400.0 -0.1174216201 0.9902077723
5150269100.0 -0.1041201802 0.9919666128
5200268800.0 -0.0907344001 0.9930185755
5250268500.0 -0.0775684226 0.9939172368
5300268200.0 -0.0646845716 0.9946666527
5350267900.0 -0.0523932385 0.9953311684
5400267600.0 -0.0362489849 0.9961651452
5450267300.0 -0.0230858547 0.9967254951
5500267000.0 -0.0075974867 0.9972104527
5550266700.0 0.006994297 0.9973469296
5600266400.0 0.022660571 0.9972562655
5650266100.0 0.039153223 0.9971313242
5700265800.0 0.0534125632 0.9959683354
5750265500.0 0.0690304674 0.9955996845
5800265200.0 0.0826442977 0.9940408083
5850264900.0 0.0959954184 0.993432984
5900264600.0 0.1126097028 0.9916380881
5950264300.0 0.1246736702 0.990073117
6000264000.0 0.1385112689 0.9881614682
6050263700.0 0.1509796701 0.9868118458
6100263400.0 0.163345754 0.985146868
6150263100.0 0.1779652311 0.9827624916
6200262800.0 0.1881516295 0.9808242768
6250262500.0 0.200918637 0.9785637878
6300262200.0 0.2137687653 0.9758014983
6350261900.0 0.2268441367 0.9727769481
6400261600.0 0.2408142704 0.9695087522
6450261300.0 0.2520712125 0.9666842514
6500261000.0 0.2648593498 0.9630446765
6550260700.0 0.2779053183 0.9593604931
6600260400.0 0.291072219 0.9551775051
6650260100.0 0.3054199261 0.9510260856
6700259800.0 0.3170535961 0.9465070255
6750259500.0 0.3306925944 0.9415061021
6800259200.0 0.3436112422 0.9363155032
6850258900.0 0.3562723433 0.931507437
6900258600.0 0.3683839674 0.9265388234
6950258300.0 0.3807914313 0.9213282716
7000258000.0 0.392849779 0.9157632912
7050257700.0 0.405109313 0.9096623488
7100257400.0 0.4180043473 0.9034755376
7150257100.0 0.4282419903 0.8982008654
7200256800.0 0.4412654048 0.8918398975
7250256500.0 0.4529815471 0.8855568875
7300256200.0 0.4658715059 0.8786067906
7350255900.0 0.4782302033 0.8718505731
7400255600.0 0.4915309162 0.8644664024
7450255300.0 0.5069793354 0.8555176351
7500255000.0 0.5187759264 0.8485696891
7550254700.0 0.5328153522 0.8400701107
7600254400.0 0.5449061289 0.83161248
7650254100.0 0.5569004265 0.8239381325
7700253800.0 0.5685078542 0.8159504117
7750253500.0 0.5795715915 0.808197118
7800253200.0 0.5904478015 0.8003485949
7850252900.0 0.6003251247 0.7932136363
7900252600.0 0.6118076746 0.7847008102
7950252300.0 0.6206389689 0.7781703939
8000252000.0 0.6306761366 0.7703507897
8050251700.0 0.6415536816 0.7622739229
8100251400.0 0.6514228706 0.7541190881
8150251100.0 0.6617718919 0.7455257115
8200250800.0 0.6711521949 0.7375581521
8250250500.0 0.6795737663 0.7295401831
8300250200.0 0.6891336912 0.7207903919
8350249900.0 0.6982256238 0.7123361766
8400249600.0 0.7063717877 0.7043763337
8450249300.0 0.7152476905 0.6950164676
8500249000.0 0.7239974527 0.6861602562
8550248700.0 0.732273328 0.6770552825
8600248400.0 0.7408643302 0.6677138773
8650248100.0 0.7485742856 0.6582874634
8700247800.0 0.7580510597 0.647210803
8750247500.0 0.766552512 0.6369622089
8800247200.0 0.7743946823 0.6267098445
8850246900.0 0.7834817151 0.6150514538
8900246600.0 0.7918508993 0.6038265204
8950246300.0 0.8014659586 0.5904689055
9000246000.0 0.8108265156 0.5779241369
9050245700.0 0.8196395306 0.5650532905
9100245400.0 0.8283462753 0.552337662
9150245100.0 0.8375381881 0.5388338422
9200244800.0 0.8476158986 0.523789201
9250244500.0 0.8568269368 0.5081704559
9300244200.0 0.8654255392 0.493604774
9350243900.0 0.8730320051 0.4796824832
9400243600.0 0.8798627298 0.4673838435
9450243300.0 0.8856132409 0.4559117826
9500243000.0 0.8918707123 0.4435961651
9550242700.0 0.8957569011 0.4358560263
9600242400.0 0.8993333799 0.4285990271
9650242100.0 0.9033276521 0.422109561
9700241800.0 0.9078908671 0.4140622711
9750241500.0 0.9118564959 0.4064499431
9800241200.0 0.9164645924 0.3974224019
9850240900.0 0.9222671243 0.3855894252
9900240600.0 0.9276696817 0.3740901692
9950240300.0 0.9344474884 0.3578956349
10000240000.0 0.9387803579 0.3461704085
10050239700.0 0.9442561235 0.3314758214
10100239400.0 0.9497546114 0.315439332
10150239100.0 0.9540106208 0.3006616369
10200238800.0 0.9582419179 0.2856687256
10250238500.0 0.9614858934 0.2722670006
10300238200.0 0.9647162482 0.2584945334
10350237900.0 0.9674892378 0.2452488036
10400237600.0 0.9700163089 0.2320872265
10450237300.0 0.9725475208 0.2183328595
10500237000.0 0.9749060258 0.2060958479
10550236700.0 0.9771400891 0.1919652157
10600236400.0 0.9792898894 0.1782175015
10650236100.0 0.9814806372 0.1634396107
10700235800.0 0.9835227488 0.1512916055
10750235500.0 0.9856593952 0.1380344139
10800235200.0 0.9877137478 0.1240737306
10850234900.0 0.9896703158 0.1096177807
10900234600.0 0.9918908213 0.0947972904
10950234300.0 0.9935172918 0.0816650654
11000234000.0 0.995287061 0.0666190998
11050233700.0 0.9970185355 0.0503041442
11100233400.0 0.9984460319 0.0328761222
11150233100.0 0.9997451518 0.0166873413
11200232800.0 1.000108964 0.0014457582
11250232500.0 1.001180493 -0.0151215028
11300232200.0 1.000957035 -0.0326081175
11350231900.0 1.001567718 -0.0493733238
11400231600.0 1.001332323 -0.0645088262
11450231300.0 1.000993336 -0.0805136087
11500231000.0 1.000237342 -0.0969174941
11550230700.0 0.9985233921 -0.1095637205
11600230400.0 0.9966884132 -0.1225110611
11650230100.0 0.9952928194 -0.1333842016
11700229800.0 0.9931679521 -0.1479243108
11750229500.0 0.9907483562 -0.1625765517
11800229200.0 0.9878505079 -0.1766730978
11850228900.0 0.984469336 -0.188732606
11900228600.0 0.9809986853 -0.1985921977
11950228300.0 0.9775094091 -0.2086998874
12000228000.0 0.9751601077 -0.2172635003
12050227700.0 0.9711384885 -0.2309938053
12100227400.0 0.9680919764 -0.2414492122
12150227100.0 0.9628743413 -0.2588210963
12200226800.0 0.9597459822 -0.2687360913
12250226500.0 0.9557826269 -0.2817462199
12300226200.0 0.9511761053 -0.2948718836
12350225900.0 0.9463969472 -0.3076740662
12400225600.0 0.94231424 -0.321129883
12450225300.0 0.9373707863 -0.3337647627
12500225000.0 0.9321094901 -0.3484920011
12550224700.0 0.926762792 -0.3625489212
12600224400.0 0.9219290776 -0.3753613773
12650224100.0 0.9162137139 -0.3896760553
12700223800.0 0.9108254884 -0.4024986104
12750223500.0 0.9054295579 -0.4154967703
12800223200.0 0.9001749945 -0.4281359433
12850222900.0 0.89469526 -0.4400424433
12900222600.0 0.8887481143 -0.452197401
12950222300.0 0.8827431231 -0.4652696661
13000222000.0 0.8767201226 -0.4760439995
13050221700.0 0.8700000428 -0.489032742
13100221400.0 0.8631411809 -0.501105196
13150221100.0 0.8567989331 -0.5132517876
13200220800.0 0.8496129971 -0.524919304
13250220500.0 0.8422668055 -0.5370218934
13300220200.0 0.8349347848 -0.5477293141
13350219900.0 0.8268568095 -0.5597818085
13400219600.0 0.8187755108 -0.5718907473
13450219300.0 0.8092134395 -0.5855108171
13500219000.0 0.7990726483 -0.5994544826
13550218700.0 0.7889278635 -0.612046504
13600218400.0 0.7790266004 -0.6244107532
13650218100.0 0.7700043563 -0.6345649727
13700217800.0 0.7580416423 -0.6476659073
13750217500.0 0.7476961822 -0.6592062904
13800217200.0 0.7365161739 -0.6706756472
13850216900.0 0.7264704225 -0.681590879
13900216600.0 0.715485425 -0.6909123429
13950216300.0 0.7054214518 -0.701034189
14000216000.0 0.6946966567 -0.7105935584
14050215700.0 0.6858380516 -0.718832605
14100215400.0 0.675582591 -0.7286063865
14150215100.0 0.6665661543 -0.7366135285
14200214800.0 0.657100567 -0.7453952111
14250214500.0 0.6467455406 -0.754632167
14300214200.0 0.6363784132 -0.7638097841
14350213900.0 0.6253705802 -0.7733471298
14400213600.0 0.6135234939 -0.7833386336
14450213300.0 0.6002259826 -0.7935738764
14500213000.0 0.5875003283 -0.8029411776
14550212700.0 0.5749529583 -0.8124500206
14600212400.0 0.5621896159 -0.8219006622
14650212100.0 0.5494364436 -0.8305720446
14700211800.0 0.5357645616 -0.8398077732
14750211500.0 0.5233927683 -0.8480537529
14800211200.0 0.5111049241 -0.8559898365
14850210900.0 0.4990963438 -0.8636281936
14900210600.0 0.4856776797 -0.8715437849
14950210300.0 0.4722954016 -0.8790229059
15000210000.0 0.4596277938 -0.8859580975
15050209700.0 0.4473014036 -0.8919812108
15100209400.0 0.4345625865 -0.8979654764
15150209100.0 0.4226488848 -0.9034107283
15200208800.0 0.4096732625 -0.9085422889
15250208500.0 0.3991234299 -0.9134034322
15300208200.0 0.3861928017 -0.9179626441
15350207900.0 0.3727183015 -0.9224501365
15400207600.0 0.3578513658 -0.9280031153
15450207300.0 0.3432734414 -0.9332302892
15500207000.0 0.3290254932 -0.9378725803
15550206700.0 0.3139838982 -0.942647671
15600206400.0 0.297605965 -0.9473844681
15650206100.0 0.2823343393 -0.9518197753
15700205800.0 0.2684841819 -0.9548456425
15750205500.0 0.2540669162 -0.9585679935
15800205200.0 0.2395852979 -0.9622641253
15850204900.0 0.2252463409 -0.9655579292
15900204600.0 0.2102555803 -0.9692325411
15950204300.0 0.1959975345 -0.9721838881
16000204000.0 0.1817695993 -0.975151293
16050203700.0 0.1667873702 -0.9780410372
16100203400.0 0.1524464213 -0.9800832463
16150203100.0 0.1379711747 -0.9823680285
16200202800.0 0.1235145635 -0.9846073919
16250202500.0 0.1091337976 -0.986263995
16300202200.0 0.0933820002 -0.9880597618
16350201900.0 0.0788983928 -0.9894444412
16400201600.0 0.0641377791 -0.9902251582
16450201300.0 0.0489526773 -0.9913910188
16500201000.0 0.0323010699 -0.9921071134
16550200700.0 0.0166941673 -0.9925143119
16600200400.0 0.0010715727 -0.9929093427
16650200100.0 -0.0151443263 -0.9924569582
16700199800.0 -0.0314170193 -0.9923090354
16750199500.0 -0.0498789731 -0.9917234034
16800199200.0 -0.0661716745 -0.9912789418
16850198900.0 -0.081095645 -0.9897860222
16900198600.0 -0.0954921374 -0.9887813782
16950198300.0 -0.1087164774 -0.9876385822
17000198000.0 -0.1214688924 -0.9863215867
17050197700.0 -0.133849014 -0.9836583996
17100197400.0 -0.1468263304 -0.9818626258
17150197100.0 -0.1591660046 -0.9800382501
17200196800.0 -0.1721299245 -0.9779812941
17250196500.0 -0.1848351961 -0.9755295122
17300196200.0 -0.1969975174 -0.9734464767
17350195900.0 -0.2090975976 -0.9711234231
17400195600.0 -0.2212021164 -0.9685918353
17450195300.0 -0.2343114677 -0.9657671327
17500195000.0 -0.247841868 -0.9625454732
17550194700.0 -0.2620209692 -0.9590382759
17600194400.0 -0.2757291232 -0.9552651228
17650194100.0 -0.2894497245 -0.9505831061
17700193800.0 -0.3023929118 -0.9465203873
17750193500.0 -0.3171985916 -0.9417115525
17800193200.0 -0.3315200056 -0.9366441937
17850192900.0 -0.3463837374 -0.9319110301
17900192600.0 -0.3617259364 -0.9252361118
17950192300.0 -0.3771526198 -0.9181941972
18000192000.0 -0.3919900781 -0.9108130718
18050191700.0 -0.405687925 -0.9030203661
18100191400.0 -0.4198927986 -0.8953032229
18150191100.0 -0.4349017375 -0.887308276
18200190800.0 -0.4517782197 -0.8782029126
18250190500.0 -0.4689512871 -0.8684814473
18300190200.0 -0.484248761 -0.8600285228
18350189900.0 -0.4989917044 -0.8517972814
18400189600.0 -0.5138129474 -0.8434307073
18450189300.0 -0.5269620388 -0.8354297559
18500189000.0 -0.5401069175 -0.8269659845
18550188700.0 -0.5527353278 -0.8198740092
18600188400.0 -0.5646439327 -0.8132047914
18650188100.0 -0.5755065858 -0.8070848568
18700187800.0 -0.5865143377 -0.8001327879
18750187500.0 -0.5971888063 -0.7936180702
18800187200.0 -0.607851141 -0.7865708931
18850186900.0 -0.61799631 -0.7796431126
18900186600.0 -0.6280485473 -0.7724581871
18950186300.0 -0.6378821445 -0.7644753245
19000186000.0 -0.645523891 -0.7586230902
19050185700.0 -0.6543200112 -0.751245974
19100185400.0 -0.6645118752 -0.7429481774
19150185100.0 -0.6750165361 -0.734643807
19200184800.0 -0.6842318336 -0.725914921
19250184500.0 -0.6943071132 -0.7166238402
19300184200.0 -0.7061168211 -0.7074760654
19350183900.0 -0.7165642762 -0.6978644218
19400183600.0 -0.7269064538 -0.6883925033
19450183300.0 -0.735523553 -0.6778709692
19500183000.0 -0.7436163099 -0.6681280072
19550182700.0 -0.7534876712 -0.6570367721
19600182400.0 -0.7638320429 -0.6449023238
19650182100.0 -0.7747780477 -0.6327435458
19700181800.0 -0.7853508751 -0.6193782386
19750181500.0 -0.795863421 -0.6052701725
19800181200.0 -0.8062254622 -0.5900341693
19850180900.0 -0.8159677646 -0.5750668771
19900180600.0 -0.8237977475 -0.5605238943
19950180300.0 -0.8331511822 -0.5439741915
20000180000.0 -0.8257848673 -0.5466201597
20050179700.0 -0.8342357678 -0.534057292
20100179400.0 -0.8429451093 -0.519216546
20150179100.0 -0.8505903371 -0.5075935046
20200178800.0 -0.8597543057 -0.4945348449
20250178500.0 -0.8689750855 -0.4810246481
20300178200.0 -0.8789448561 -0.4666617111
20350177900.0 -0.8882050021 -0.4518670534
20400177600.0 -0.8966206592 -0.4372042578
20450177300.0 -0.9049250345 -0.4231720525
20500177000.0 -0.9128358109 -0.4090789768
20550176700.0 -0.9209759136 -0.3954617653
20600176400.0 -0.9275469939 -0.3824181729
20650176100.0 -0.9344170573 -0.3703609935
20700175800.0 -0.9414291113 -0.3580703376
20750175500.0 -0.9472299081 -0.3466154645
20800175200.0 -0.9528871556 -0.3361451859
20850174900.0 -0.957272397 -0.3251837277
20900174600.0 -0.9613769067 -0.314092899
20950174300.0 -0.9657567925 -0.3024294867
21000174000.0 -0.9694799767 -0.2902871441
21050173700.0 -0.9725416788 -0.2798512816
21100173400.0 -0.9761544834 -0.2673550995
21150173100.0 -0.9799405316 -0.2550306669
21200172800.0 -0.9831291586 -0.241667373
21250172500.0 -0.9869739055 -0.2283180339
21300172200.0 -0.9898107167 -0.2140795567
21350171900.0 -0.9913199251 -0.1995432088
21400171600.0 -0.9925536598 -0.1848901491
21450171300.0 -0.992694115 -0.1709346944
21500171000.0 -0.9926789599 -0.1550980363
21550170700.0 -0.9925071413 -0.1400591908
21600170400.0 -0.99324107 -0.1247076216
21650170100.0 -0.9909407264 -0.1083956432
21700169800.0 -0.9904149621 -0.0936495904
21750169500.0 -0.9889499846 -0.07670858
21800169200.0 -0.9881462196 -0.0603385775
21850168900.0 -0.98660744 -0.0442842783
21900168600.0 -0.9861739043 -0.0283401366
21950168300.0 -0.9847985935 -0.0120027953
22000168000.0 -0.9840004175 0.0021989723
22050167700.0 -0.9833451631 0.0167157316
22100167400.0 -0.9837696232 0.0319584698
22150167100.0 -0.9845598363 0.0474726757
22200166800.0 -0.9846544155 0.0646733756
22250166500.0 -0.9839071688 0.0816982106
22300166200.0 -0.9831003531 0.0985664135
22350165900.0 -0.9818468095 0.114414874
22400165600.0 -0.9796513988 0.1304318572
22450165300.0 -0.9779262904 0.1457039873
22500165000.0 -0.9759930315 0.1596593954
22550164700.0 -0.9757959758 0.1744090268
22600164400.0 -0.9736942181 0.18966614
22650164100.0 -0.9719493682 0.2050335539
22700163800.0 -0.9685490813 0.2207068316
22750163500.0 -0.966935596 0.2353846786
22800163200.0 -0.9635121078 0.2492127067
22850162900.0 -0.9611351933 0.26218528
22900162600.0 -0.9596714127 0.2756948608
22950162300.0 -0.9589155857 0.2885823186
23000162000.0 -0.9573390227 0.3000502924
23050161700.0 -0.9556540167 0.3128588023
23100161400.0 -0.9530710662 0.3255812834
23150161100.0 -0.9500911888 0.3381440898
23200160800.0 -0.9475662284 0.3504027654
23250160500.0 -0.9452199738 0.3626750031
23300160200.0 -0.9420428777 0.3740141363
23350159900.0 -0.938047308 0.3875747304
23400159600.0 -0.9337945842 0.4001330269
23450159300.0 -0.9290584934 0.4136955625
23500159000.0 -0.9243461989 0.4268016855
23550158700.0 -0.9202001183 0.4400503206
23600158400.0 -0.9148120454 0.4533550278
23650158100.0 -0.9081043117 0.4673985993
23700157800.0 -0.9004623427 0.4812587624
23750157500.0 -0.8919273109 0.495214171
23800157200.0 -0.8830604914 0.5083652565
23850156900.0 -0.8739347869 0.5216342164
23900156600.0 -0.8653156154 0.5335099487
23950156300.0 -0.8553385192 0.546397036
24000156000.0 -0.8461455215 0.5584313912
24050155700.0 -0.8372036234 0.570084257
24100155400.0 -0.8267083442 0.5816963818
24150155100.0 -0.8160955629 0.5937220369
24200154800.0 -0.8050506067 0.6051816139
24250154500.0 -0.794172693 0.6169207181
24300154200.0 -0.7824470129 0.6283140919
24350153900.0 -0.7702785545 0.6392012069
24400153600.0 -0.7581610655 0.6491607125
24450153300.0 -0.7465080178 0.6594656326
24500153000.0 -0.7346736509 0.6690326639
24550152700.0 -0.7240399828 0.6785462304
24600152400.0 -0.7122238924 0.6876295243
24650152100.0 -0.6995666287 0.6962181415
