!Created with skrf (http://scikit-rf.org).
# Hz S RI R 50.0 
!freq ReS11 ImS11
300000.0 -0.9745346678 -0.1196809391
50299700.0 -0.9999237769 0.0149859514
100299400.0 -0.9980233963 0.0279807305
150299100.0 -1.002644095 0.0449131643
200298800.0 -0.9995472736 0.0583143451
250298500.0 -0.9971888596 0.0719014789
300298200.0 -0.9859009296 0.0876149412
350297900.0 -0.99410744 0.0984537922
400297600.0 -0.9930896661 0.1149527884
450297300.0 -0.9909432264 0.1288462909
500297000.0 -0.9893451523 0.1435615744
550296700.0 -0.984445651 0.1560071924
600296400.0 -1.017138902 0.1892814429
650296100.0 -0.9821307025 0.1858301102
700295800.0 -0.9790865329 0.2003946447
750295500.0 -0.9761120333 0.2141605077
800295200.0 -0.9729034763 0.2281038841
850294900.0 -0.9695242004 0.242152459
900294600.0 -0.965834322 0.2559332474
950294300.0 -0.9619257781 0.2693472888
1000294000.0 -0.9582418953 0.2836184506
1050293700.0 -0.9536182618 0.2972093155
1100293400.0 -0.9495235126 0.3115300826
1150293100.0 -0.9454609972 0.3235177921
1200292800.0 -0.9401262575 0.3380150711
1250292500.0 -0.9347015362 0.3512540497
1300292200.0 -0.9291053664 0.3646320033
1350291900.0 -0.9233788823 0.3785934131
1400291600.0 -0.9180511886 0.391723528
1450291300.0 -0.9123119967 0.4041831507
1500291000.0 -0.9062948735 0.4174379148
1550290700.0 -0.8996456248 0.4309630872
1600290400.0 -0.8933658738 0.4437745295
1650290100.0 -0.8867114479 0.4558411694
1700289800.0 -0.8797392377 0.4695008956
1750289500.0 -0.8727701163 0.4816390633
1800289200.0 -0.8655476226 0.4945203877
1850288900.0 -0.858668761 0.5059454293
1900288600.0 -0.8509375361 0.5190082964
1950288300.0 -0.8427537538 0.5314325425
2000288000.0 -0.8354253085 0.542918182
2050287700.0 -0.8271475433 0.5550336598
2100287400.0 -0.819452006 0.5668460843
2150287100.0 -0.8106673875 0.5788486826
2200286800.0 -0.8029552657 0.5894465059
2250286500.0 -0.7940724727 0.601333836
2300286200.0 -0.7850739638 0.6128924981
2350285900.0 -0.7766954436 0.6236214847
2400285600.0 -0.7676835878 0.6346867849
2450285300.0 -0.7592705932 0.6453183601
2500285000.0 -0.7490910677 0.6566182269
2550284700.0 -0.7400213598 0.6669539564
2600284400.0 -0.7309267752 0.677032043
2650284100.0 -0.7220393383 0.6872516434
2700283800.0 -0.7115405332 0.6979423286
2750283500.0 -0.7012022031 0.708258757
2800283200.0 -0.6915682665 0.7182756251
2850282900.0 -0.6811490978 0.7283681295
2900282600.0 -0.6706058415 0.7377177819
2950282300.0 -0.6605872139 0.7472576149
3000282000.0 -0.6496488042 0.7568024365
3050281700.0 -0.6385747606 0.7659985072
3100281400.0 -0.6268236632 0.7752457988
3150281100.0 -0.615331421 0.784271931
3200280800.0 -0.6036564604 0.792660041
3250280500.0 -0.5927981676 0.8005831125
3300280200.0 -0.5813541849 0.8085601527
3350279900.0 -0.5694627914 0.8162980122
3400279600.0 -0.5571636065 0.824318671
3450279300.0 -0.5459046992 0.8313270045
3500279000.0 -0.5340871263 0.8385084739
3550278700.0 -0.5217004774 0.8455460984
3600278400.0 -0.5097151778 0.8526464176
3650278100.0 -0.4964662619 0.8600075973
3700277800.0 -0.4845176661 0.8664791593
3750277500.0 -0.4722027734 0.8731478064
3800277200.0 -0.459724755 0.8798418602
3850276900.0 -0.4475250811 0.8856866947
3900276600.0 -0.4368381278 0.8913940928
3950276300.0 -0.4245692782 0.8976517427
4000276000.0 -0.4129317498 0.9032136053
4050275700.0 -0.3996961262 0.9094477093
4100275400.0 -0.388879478 0.9146567994
4150275100.0 -0.3757406555 0.9206912801
4200274800.0 -0.3627950517 0.9262496049
4250274500.0 -0.3502896288 0.9312759488
4300274200.0 -0.3370702644 0.9368719415
4350273900.0 -0.3230881148 0.941970261
4400273600.0 -0.3083502379 0.9472539733
4450273300.0 -0.2930972827 0.9522392385
4500273000.0 -0.2797253235 0.9565962083
4550272700.0 -0.2658668864 0.9607669366
4600272400.0 -0.2507510017 0.9648659389
4650272100.0 -0.2391152097 0.9678883139
4700271800.0 -0.226070991 0.9713008025
4750271500.0 -0.21437914 0.9742082203
4800271200.0 -0.2020701696 0.9768357315
4850270900.0 -0.1880825016 0.9797440893
4900270600.0 -0.174385161 0.9821819879
4950270300.0 -0.1598913963 0.9847552981
5000270000.0 -0.1455267905 0.9868805981
5050269700.0 -0.1321718397 0.988476353
5100269400.0 -0.1180962655 0.9903097791
5150269100.0 -0.1044543796 0.9919257015
5200268800.0 -0.0910492508 0.9927079028
5250268500.0 -0.0780393649 0.9935470892
5300268200.0 -0.0645927093 0.9945322632
5350267900.0 -0.0521089855 0.9949186794
5400267600.0 -0.0360169625 0.9962194111
5450267300.0 -0.0225199049 0.9966149348
5500267000.0 -0.0074773386 0.9971986383
5550266700.0 0.0074041247 0.997154566
5600266400.0 0.0231708233 0.9973125995
5650266100.0 0.039759367 0.9968706604
5700265800.0 0.0539891734 0.9958617085
5750265500.0 0.0692925108 0.9952276976
5800265200.0 0.0828158295 0.9938839962
5850264900.0 0.0962859862 0.9934524623
5900264600.0 0.1128818015 0.9916476103
5950264300.0 0.1245702454 0.9901126647
6000264000.0 0.1381356618 0.9877712777
6050263700.0 0.15016367 0.9866950453
6100263400.0 0.1625848571 0.9849642739
6150263100.0 0.177098471 0.9826006626
6200262800.0 0.1871232438 0.9808653828
6250262500.0 0.1998830822 0.978542953
6300262200.0 0.2122840995 0.9758845891
6350261900.0 0.2253608222 0.97308557
6400261600.0 0.2391766238 0.9698169652
6450261300.0 0.2503918654 0.9672031562
6500261000.0 0.2635195171 0.9637411356
6550260700.0 0.2762044015 0.9598268063
6600260400.0 0.2897383264 0.9556509449
6650260100.0 0.30387991 0.9512239697
6700259800.0 0.3159447933 0.9467032694
6750259500.0 0.3296237988 0.9420379755
6800259200.0 0.3430103474 0.937115648
6850258900.0 0.3553877144 0.9317210144
6900258600.0 0.3678040184 0.926718199
6950258300.0 0.3803073862 0.9214042414
7000258000.0 0.3920681344 0.9159732559
7050257700.0 0.4039328351 0.910103008
7100257400.0 0.4172799997 0.9038202248
7150257100.0 0.4277426331 0.898347668
7200256800.0 0.4407855665 0.8920640428
7250256500.0 0.4528819131 0.8851416349
7300256200.0 0.4659060474 0.878520234
7350255900.0 0.4787594127 0.8715856489
7400255600.0 0.4923304016 0.8643925634
7450255300.0 0.5080526631 0.8555212971
7500255000.0 0.5198551559 0.8478895239
7550254700.0 0.53404805 0.8392794994
7600254400.0 0.5461922202 0.8307145932
7650254100.0 0.5578751473 0.8228589192
7700253800.0 0.5695760442 0.8149295625
7750253500.0 0.5808663038 0.8073003202
7800253200.0 0.5914278525 0.7996485641
7850252900.0 0.6012827741 0.7925095021
7900252600.0 0.6128211689 0.7835227631
7950252300.0 0.6213195752 0.7772495929
8000252000.0 0.6312378887 0.7695455193
8050251700.0 0.6418560524 0.7614619895
8100251400.0 0.6516823142 0.7535114287
8150251100.0 0.6618976961 0.7447416912
8200250800.0 0.671612723 0.736558961
8250250500.0 0.6802616995 0.7289701934
8300250200.0 0.6892247098 0.7203128151
8350249900.0 0.6983546326 0.711370963
8400249600.0 0.7067629886 0.7035939999
8450249300.0 0.7156852416 0.6944420915
8500249000.0 0.7241239449 0.685742806
8550248700.0 0.7324996888 0.6765968612
8600248400.0 0.7409080796 0.6671167836
8650248100.0 0.7487563248 0.6576872176
8700247800.0 0.7579829543 0.6465829775
8750247500.0 0.7662948949 0.6366491728
8800247200.0 0.7743151807 0.6261699465
8850246900.0 0.7831735262 0.6146614662
8900246600.0 0.7916199425 0.6034520978
8950246300.0 0.801036071 0.5904788513
9000246000.0 0.8097765452 0.578198912
9050245700.0 0.8183652831 0.5653923706
9100245400.0 0.8272158677 0.5533398316
9150245100.0 0.8363258345 0.5401484156
9200244800.0 0.8458251343 0.5253751108
9250244500.0 0.8549010485 0.5102493621
9300244200.0 0.8632533481 0.4962485259
9350243900.0 0.8708472523 0.4827956915
9400243600.0 0.8775787587 0.4707517148
9450243300.0 0.8832904904 0.4598211024
9500243000.0 0.8895441925 0.4477038194
9550242700.0 0.89349468 0.4400408842
9600242400.0 0.8975133906 0.4326495501
9650242100.0 0.9013478401 0.4259170161
9700241800.0 0.9065632566 0.4175310368
9750241500.0 0.9101484924 0.4099046988
9800241200.0 0.9152216315 0.4003210085
9850240900.0 0.9209100289 0.3891264731
9900240600.0 0.9269258938 0.3770173122
9950240300.0 0.9335423997 0.3607835253
10000240000.0 0.9379683828 0.3491487707
10050239700.0 0.9444194497 0.333121483
10100239400.0 0.9494394034 0.3175921593
10150239100.0 0.9541060129 0.3018518548
10200238800.0 0.9582725356 0.2868105326
10250238500.0 0.9616387634 0.2735136613
10300238200.0 0.9645027991 0.2595258418
10350237900.0 0.9673244059 0.2461472906
10400237600.0 0.9701435015 0.232716755
10450237300.0 0.9725348862 0.2195418498
10500237000.0 0.9747265459 0.2066758106
10550236700.0 0.9773916324 0.1927734742
10600236400.0 0.979045873 0.1787979229
10650236100.0 0.9814459118 0.164089022
10700235800.0 0.983756978 0.1519856174
10750235500.0 0.9860360832 0.1382282141
10800235200.0 0.9875746402 0.1244249766
10850234900.0 0.9896563175 0.1097041208
10900234600.0 0.9919519409 0.094802842
10950234300.0 0.993629955 0.0815673856
11000234000.0 0.9954370467 0.0661684509
11050233700.0 0.9970907753 0.0496091414
11100233400.0 0.9987137937 0.03209556
11150233100.0 0.999787639 0.0156023416
11200232800.0 1.000136101 -0.0002720882
11250232500.0 1.001580438 -0.0174878726
11300232200.0 1.001554141 -0.0350591286
11350231900.0 1.001910983 -0.0512132365
11400231600.0 1.001309226 -0.0670258393
11450231300.0 1.000912833 -0.0823185384
11500231000.0 0.9997935302 -0.0985233827
11550230700.0 0.9981117072 -0.1123443893
11600230400.0 0.9972485959 -0.1248103118
11650230100.0 0.9948808152 -0.1359027509
11700229800.0 0.9928707539 -0.151117588
11750229500.0 0.9900366355 -0.16528895
11800229200.0 0.9875785614 -0.1790602724
11850228900.0 0.9840990192 -0.1910682118
11900228600.0 0.980361699 -0.2007805853
11950228300.0 0.9771833438 -0.2108925446
12000228000.0 0.9742169488 -0.2203633274
12050227700.0 0.9703651248 -0.2327663058
12100227400.0 0.9676570023 -0.2428586518
12150227100.0 0.962279763 -0.2607052095
12200226800.0 0.9591859848 -0.2705345149
12250226500.0 0.9547762894 -0.2838531501
12300226200.0 0.9509455776 -0.2956297389
12350225900.0 0.9454454465 -0.3102087448
12400225600.0 0.941561673 -0.3223778466
12450225300.0 0.9366396312 -0.3355473748
12500225000.0 0.9314150687 -0.3498680468
12550224700.0 0.9258062439 -0.3638123791
12600224400.0 0.9210537095 -0.3767641699
12650224100.0 0.9151797007 -0.3910621521
12700223800.0 0.9099722222 -0.4038515862
12750223500.0 0.9043831439 -0.4167858533
12800223200.0 0.8990565185 -0.429565941
12850222900.0 0.8938070546 -0.4419282913
12900222600.0 0.8881197707 -0.4534317684
12950222300.0 0.8821236535 -0.4659633499
13000222000.0 0.8756505165 -0.4780790613
13050221700.0 0.8693044137 -0.4908006952
13100221400.0 0.8622191329 -0.5033349359
13150221100.0 0.8554622678 -0.5148154911
13200220800.0 0.8484265117 -0.5264609713
13250220500.0 0.841065544 -0.5389012873
13300220200.0 0.8337642181 -0.5498084624
13350219900.0 0.8257314326 -0.5618126931
13400219600.0 0.817378522 -0.5735448749
13450219300.0 0.8080868894 -0.5867524874
13500219000.0 0.7980616322 -0.6002847176
13550218700.0 0.7886467422 -0.6127183991
13600218400.0 0.7777426133 -0.6250943516
13650218100.0 0.7691271226 -0.6359593878
13700217800.0 0.7579478644 -0.647479361
13750217500.0 0.7478665686 -0.6589143047
13800217200.0 0.7368085493 -0.6707255145
13850216900.0 0.7257017674 -0.6818360043
13900216600.0 0.7158214472 -0.690451586
13950216300.0 0.705286998 -0.7009221281
14000216000.0 0.6957138522 -0.7094316396
14050215700.0 0.6863248726 -0.7177875201
14100215400.0 0.676421863 -0.7271951113
14150215100.0 0.6672113495 -0.7358197177
14200214800.0 0.6575702227 -0.744575774
14250214500.0 0.6473654201 -0.7538970672
14300214200.0 0.6368453541 -0.7633480113
14350213900.0 0.6257568645 -0.7730807554
14400213600.0 0.6141731129 -0.7826981066
14450213300.0 0.6006788493 -0.7929730304
14500213000.0 0.5885166977 -0.8030371896
14550212700.0 0.5752816471 -0.8120630635
14600212400.0 0.5631774078 -0.820678301
14650212100.0 0.5505760655 -0.8292558094
14700211800.0 0.5361866031 -0.8393565605
14750211500.0 0.5242447239 -0.8475627077
14800211200.0 0.5118294026 -0.8557042169
14850210900.0 0.4994006775 -0.8633026565
14900210600.0 0.4862460048 -0.8712054788
14950210300.0 0.4727863392 -0.8787474553
15000210000.0 0.4599123005 -0.8856399175
15050209700.0 0.447917983 -0.891874227
15100209400.0 0.4350349496 -0.897691879
15150209100.0 0.4229769397 -0.9031459872
15200208800.0 0.4099990377 -0.9080932423
15250208500.0 0.3990680433 -0.9130093943
15300208200.0 0.3860493166 -0.9169231951
15350207900.0 0.3733653727 -0.9225946318
15400207600.0 0.3591930557 -0.9278600418
15450207300.0 0.3447948937 -0.9327546929
15500207000.0 0.3293314076 -0.9375288971
15550206700.0 0.3151341419 -0.94229982
15600206400.0 0.2986962039 -0.9469542518
15650206100.0 0.2834840017 -0.9510253487
15700205800.0 0.2694431561 -0.9548353205
15750205500.0 0.2554660299 -0.9580771373
15800205200.0 0.2414188837 -0.9618011916
15850204900.0 0.2269920905 -0.9651639261
15900204600.0 0.2118481987 -0.9686929139
15950204300.0 0.197663269 -0.9717059784
16000204000.0 0.1833233365 -0.9743945328
16050203700.0 0.1681200283 -0.9779602644
16100203400.0 0.1537196698 -0.9798638136
16150203100.0 0.1394409896 -0.9821987501
16200202800.0 0.1246395552 -0.9837260034
16250202500.0 0.1095678676 -0.9855219226
16300202200.0 0.0941809326 -0.9873508494
16350201900.0 0.0795378944 -0.9890678391
16400201600.0 0.0648424804 -0.9900854976
16450201300.0 0.049332075 -0.9911620431
16500201000.0 0.0324674353 -0.9920128431
16550200700.0 0.0166054194 -0.9925132019
16600200400.0 0.0007325223 -0.9926374983
16650200100.0 -0.0153384568 -0.9925947541
16700199800.0 -0.0318267928 -0.9924194358
16750199500.0 -0.0505336453 -0.9916712833
16800199200.0 -0.0665651884 -0.9904880631
16850198900.0 -0.0817732678 -0.9902149354
16900198600.0 -0.0959002607 -0.9885099614
16950198300.0 -0.1093945922 -0.9877926387
17000198000.0 -0.1221072981 -0.9853513599
17050197700.0 -0.1352478331 -0.9839008601
17100197400.0 -0.1480609019 -0.981854789
17150197100.0 -0.1605441803 -0.9804322186
17200196800.0 -0.1732644971 -0.978386288
17250196500.0 -0.1859232882 -0.975504144
17300196200.0 -0.1981685372 -0.973520581
17350195900.0 -0.210209546 -0.9710766218
17400195600.0 -0.2220802971 -0.9685453518
17450195300.0 -0.2349342611 -0.9656524695
17500195000.0 -0.2483299208 -0.9625190457
17550194700.0 -0.2621553849 -0.9588037381
17600194400.0 -0.2759721865 -0.9547720838
17650194100.0 -0.289812424 -0.9509881355
17700193800.0 -0.302585474 -0.946528124
17750193500.0 -0.3168005471 -0.9420704213
17800193200.0 -0.3315046327 -0.9371756198
17850192900.0 -0.3462163337 -0.9309928707
17900192600.0 -0.3616691107 -0.9251901091
17950192300.0 -0.3768578219 -0.9180759341
18000192000.0 -0.3918058573 -0.9109411941
18050191700.0 -0.4055677654 -0.9028358429
18100191400.0 -0.4198329147 -0.8951638237
18150191100.0 -0.434910627 -0.8872352794
18200190800.0 -0.4517403667 -0.8780403183
18250190500.0 -0.4688597275 -0.8685304215
18300190200.0 -0.4841553117 -0.8597644821
18350189900.0 -0.4994456722 -0.8515321696
18400189600.0 -0.5137250123 -0.8431514954
18450189300.0 -0.5269038402 -0.8353891207
18500189000.0 -0.5405879364 -0.8273480298
18550188700.0 -0.5533327721 -0.8197063013
18600188400.0 -0.565348157 -0.8128671085
18650188100.0 -0.5766892616 -0.8064307805
18700187800.0 -0.5873175457 -0.7997131181
18750187500.0 -0.5978160466 -0.7931867543
18800187200.0 -0.6086846751 -0.7860490653
18850186900.0 -0.6188482338 -0.7791462753
18900186600.0 -0.6290925714 -0.771740532
18950186300.0 -0.639165615 -0.7643194939
19000186000.0 -0.646453786 -0.7582112876
19050185700.0 -0.6554267395 -0.750692639
19100185400.0 -0.665649921 -0.7429616167
19150185100.0 -0.6760057308 -0.7345274232
19200184800.0 -0.6848225514 -0.7259903024
19250184500.0 -0.6947459544 -0.7166821911
19300184200.0 -0.7065650814 -0.7066270513
19350183900.0 -0.7169318471 -0.6978134465
19400183600.0 -0.7269746286 -0.6874302305
19450183300.0 -0.7365706809 -0.6768186271
19500183000.0 -0.7444179298 -0.6673350133
19550182700.0 -0.7539050438 -0.6568336652
19600182400.0 -0.7644936565 -0.6445592299
19650182100.0 -0.7751172352 -0.6325789501
19700181800.0 -0.7858238541 -0.6192101493
19750181500.0 -0.7960471713 -0.6052240274
19800181200.0 -0.8065443063 -0.5901102202
19850180900.0 -0.8162220765 -0.5749831342
19900180600.0 -0.8236182871 -0.5602576076
19950180300.0 -0.8331351901 -0.5439738345
20000180000.0 -0.8242653128 -0.5469307418
20050179700.0 -0.8327785635 -0.5344053057
20100179400.0 -0.8409302137 -0.5205878462
20150179100.0 -0.8495027564 -0.5083779272
20200178800.0 -0.8572000272 -0.4968381418
20250178500.0 -0.8674787676 -0.4839380164
20300178200.0 -0.8770272705 -0.4691190674
20350177900.0 -0.8863484 -0.4553173875
20400177600.0 -0.8951416529 -0.4411640178
20450177300.0 -0.9035555786 -0.4265337054
20500177000.0 -0.9112774008 -0.4127654485
20550176700.0 -0.9192382693 -0.399056969
20600176400.0 -0.926060869 -0.3865122312
20650176100.0 -0.9324025561 -0.3737070053
20700175800.0 -0.9396318121 -0.3618715719
20750175500.0 -0.9454302357 -0.3502360674
20800175200.0 -0.949931904 -0.3388217843
20850174900.0 -0.9556002789 -0.3287131383
20900174600.0 -0.9598536946 -0.3181668511
20950174300.0 -0.9629240989 -0.306775549
21000174000.0 -0.96670849 -0.2947038785
21050173700.0 -0.9682228008 -0.2848716506
21100173400.0 -0.9718808992 -0.2736199622
21150173100.0 -0.9764264587 -0.2612648913
21200172800.0 -0.9798916943 -0.2482109389
21250172500.0 -0.9830863368 -0.2344480643
21300172200.0 -0.9863890578 -0.2203581163
21350171900.0 -0.9883678423 -0.20590591
21400171600.0 -0.9903794983 -0.1918742654
21450171300.0 -0.9906065232 -0.1774845148
21500171000.0 -0.9915118364 -0.1625139437
21550170700.0 -0.9911503957 -0.1470666464
21600170400.0 -0.9915126847 -0.1315065923
21650170100.0 -0.991579132 -0.1160439267
21700169800.0 -0.9897584631 -0.1014881762
21750169500.0 -0.9898805847 -0.0842442721
21800169200.0 -0.989708715 -0.068494012
21850168900.0 -0.9880177711 -0.05256264
21900168600.0 -0.9874723655 -0.0351061252
21950168300.0 -0.9871392105 -0.0190889017
22000168000.0 -0.9868509301 -0.0041498059
22050167700.0 -0.9865197323 0.0103439077
22100167400.0 -0.9867231744 0.0256812529
22150167100.0 -0.987790673 0.0412147893
22200166800.0 -0.987744498 0.05826068
22250166500.0 -0.9875293829 0.0753981874
22300166200.0 -0.9872381996 0.0916551957
22350165900.0 -0.9861613376 0.1081845985
22400165600.0 -0.9840802288 0.1233516573
22450165300.0 -0.982389187 0.1380856081
22500165000.0 -0.9800658963 0.1522044421
22550164700.0 -0.9795242518 0.1685887941
22600164400.0 -0.9780085614 0.1840583763
22650164100.0 -0.974431482 0.1994339688
22700163800.0 -0.9723288477 0.2157999097
22750163500.0 -0.9695654243 0.2303569922
22800163200.0 -0.966188935 0.2439246457
22850162900.0 -0.9635978145 0.2570692662
22900162600.0 -0.9621213006 0.2707947283
22950162300.0 -0.9608681705 0.2839955301
23000162000.0 -0.9592939164 0.2959683577
23050161700.0 -0.9570288005 0.3094690611
23100161400.0 -0.9544793686 0.3218253241
23150161100.0 -0.9514081545 0.3353961729
23200160800.0 -0.9489263581 0.3478375135
23250160500.0 -0.9458197358 0.3594804006
23300160200.0 -0.943748708 0.372449045
23350159900.0 -0.9387670729 0.385857106
23400159600.0 -0.93461987 0.3989867778
23450159300.0 -0.9295080528 0.4129901795
23500159000.0 -0.9250742226 0.4257631686
23550158700.0 -0.9202999483 0.439535224
23600158400.0 -0.9144896952 0.4528585653
23650158100.0 -0.9078726288 0.4675659368
23700157800.0 -0.8996435767 0.4815859002
23750157500.0 -0.8908882999 0.4960126472
23800157200.0 -0.8811826565 0.5090935252
23850156900.0 -0.8725886882 0.5222113557
23900156600.0 -0.8622472471 0.5339479939
23950156300.0 -0.8531519435 0.5464817353
24000156000.0 -0.8437915214 0.5586847576
24050155700.0 -0.8338710647 0.5714510947
24100155400.0 -0.8235604598 0.583845319
24150155100.0 -0.8127794376 0.5949144687
24200154800.0 -0.8019490476 0.6066298664
24250154500.0 -0.7902566262 0.6188626589
24300154200.0 -0.7790287661 0.631105884
24350153900.0 -0.7671989398 0.6415313174
24400153600.0 -0.7546573106 0.6520047535
24450153300.0 -0.7430532101 0.6623117653
24500153000.0 -0.7317910295 0.6720542591
24550152700.0 -0.7201194369 0.6818058768
24600152400.0 -0.7082072993 0.691140995
24650152100.0 -0.696384886 0.6999061742
