!Created with skrf (http://scikit-rf.org).
# Hz S RI R 50.0 
!freq ReS11 ImS11
300000.0 -0.9722482125 -0.1211718857
50299700.0 -0.9998670805 0.014973623
100299400.0 -0.9979304261 0.0279420486
150299100.0 -1.002667441 0.0448028715
200298800.0 -0.9995615729 0.0580256586
250298500.0 -0.9973190317 0.0714025287
300298200.0 -0.9859758951 0.0874122409
350297900.0 -0.9938218295 0.0984320617
400297600.0 -0.9930431402 0.114848749
450297300.0 -0.9908371271 0.1285720737
500297000.0 -0.98934358 0.143449912
550296700.0 -0.9842569127 0.1556559176
600296400.0 -1.017116614 0.1891426962
650296100.0 -0.9821797722 0.1855827933
700295800.0 -0.9793567814 0.2000338457
750295500.0 -0.9762187283 0.2139457559
800295200.0 -0.9730213832 0.2280128979
850294900.0 -0.969733224 0.2419289282
900294600.0 -0.9658671035 0.255635951
950294300.0 -0.9621996883 0.2692688366
1000294000.0 -0.9582227825 0.283183112
1050293700.0 -0.9536532531 0.296987669
1100293400.0 -0.9493563801 0.3114825229
1150293100.0 -0.9454396699 0.3233588302
1200292800.0 -0.9402362541 0.3375724327
1250292500.0 -0.9346585561 0.3512736886
1300292200.0 -0.9290315743 0.3644948171
1350291900.0 -0.9235562808 0.378331138
1400291600.0 -0.9178579125 0.3915459223
1450291300.0 -0.9126792557 0.4039103547
1500291000.0 -0.9062168586 0.4173433656
1550290700.0 -0.8997024255 0.4307332089
1600290400.0 -0.8934432262 0.4436028441
1650290100.0 -0.8869147387 0.4555636503
1700289800.0 -0.8800127568 0.4691487853
1750289500.0 -0.8727679163 0.4814434321
1800289200.0 -0.8656171353 0.4945403949
1850288900.0 -0.8586505638 0.5058834958
1900288600.0 -0.8509973366 0.5187106811
1950288300.0 -0.842974114 0.5310731978
2000288000.0 -0.8354133933 0.5428885416
2050287700.0 -0.8270060882 0.5552464087
2100287400.0 -0.8194394445 0.5666061269
2150287100.0 -0.8109072863 0.5786779375
2200286800.0 -0.8028586228 0.5890575489
2250286500.0 -0.7939153488 0.6014400885
2300286200.0 -0.7852572205 0.6128516304
2350285900.0 -0.7769152852 0.6233760733
2400285600.0 -0.7679020695 0.6343791119
2450285300.0 -0.7592310225 0.6449227382
2500285000.0 -0.7491682024 0.6567639737
2550284700.0 -0.7400700439 0.6669709047
2600284400.0 -0.7308242225 0.676640882
2650284100.0 -0.7223088757 0.6869826702
2700283800.0 -0.7119184409 0.6974420179
2750283500.0 -0.7016422228 0.7081160671
2800283200.0 -0.6917464991 0.7181646367
2850282900.0 -0.6811504323 0.7282381387
2900282600.0 -0.670724708 0.7377131675
2950282300.0 -0.6603230319 0.7473237367
3000282000.0 -0.6494999718 0.7566998414
3050281700.0 -0.6383455859 0.7659497084
3100281400.0 -0.6269858126 0.7752044156
3150281100.0 -0.6155915669 0.78384522
3200280800.0 -0.6040311434 0.7922846977
3250280500.0 -0.5929816371 0.8002866551
3300280200.0 -0.5813880669 0.8083897298
3350279900.0 -0.5691675255 0.8164209333
3400279600.0 -0.5567137635 0.8245292497
3450279300.0 -0.5456442103 0.8317846509
3500279000.0 -0.5339109864 0.8384216144
3550278700.0 -0.5216906724 0.8456162868
3600278400.0 -0.5098495742 0.8523660036
3650278100.0 -0.4967950529 0.8598139
3700277800.0 -0.4849320396 0.8665291845
3750277500.0 -0.4722267563 0.8732114794
3800277200.0 -0.4599445427 0.8796470161
3850276900.0 -0.4480332041 0.8856034479
3900276600.0 -0.4370604989 0.891520539
3950276300.0 -0.424744476 0.8971086544
4000276000.0 -0.4133033036 0.9029951658
4050275700.0 -0.4005247095 0.9090583237
4100275400.0 -0.3896371063 0.9145418786
4150275100.0 -0.3761551975 0.9204561339
4200274800.0 -0.3629572195 0.9260819881
4250274500.0 -0.3501891494 0.9314605253
4300274200.0 -0.3368110375 0.9368157959
4350273900.0 -0.3225005108 0.9420662507
4400273600.0 -0.3076418353 0.9471296563
4450273300.0 -0.2928323351 0.9521410484
4500273000.0 -0.2798014983 0.9563305393
4550272700.0 -0.2661648117 0.9605692972
4600272400.0 -0.2509508843 0.9646084573
4650272100.0 -0.2397681021 0.9678448914
4700271800.0 -0.2268049295 0.971179886
4750271500.0 -0.2151200596 0.9739974251
4800271200.0 -0.2029196968 0.9766333137
4850270900.0 -0.1891717224 0.9796129362
4900270600.0 -0.1752565303 0.9819191449
4950270300.0 -0.1607175529 0.9845738617
5000270000.0 -0.1464546668 0.986901706
5050269700.0 -0.132831924 0.9884175946
5100269400.0 -0.1186138895 0.9900709736
5150269100.0 -0.1046286406 0.9917572024
5200268800.0 -0.0915397444 0.9925267066
5250268500.0 -0.0782047236 0.9937277475
5300268200.0 -0.0647377595 0.9945823676
5350267900.0 -0.051838463 0.9953352271
5400267600.0 -0.0356698429 0.9964016837
5450267300.0 -0.022084921 0.996731548
5500267000.0 -0.0067628771 0.9970587678
5550266700.0 0.0080106706 0.9972004217
5600266400.0 0.0237139504 0.9973295045
5650266100.0 0.0405209593 0.996855746
5700265800.0 0.0547897029 0.9958203391
5750265500.0 0.0695838064 0.9952775897
5800265200.0 0.0829279716 0.99394319
5850264900.0 0.0961619262 0.9932355132
5900264600.0 0.1126223926 0.9911711852
5950264300.0 0.1243110783 0.9898422223
6000264000.0 0.1379551906 0.9882454813
6050263700.0 0.1496932344 0.9863526285
6100263400.0 0.1619181435 0.9849168296
6150263100.0 0.1765448663 0.9825961942
6200262800.0 0.1859133233 0.9809750666
6250262500.0 0.198691469 0.9786898939
6300262200.0 0.2110793742 0.9761724205
6350261900.0 0.2238827989 0.9733888162
6400261600.0 0.237679892 0.9702684347
6450261300.0 0.2487083575 0.9677226392
6500261000.0 0.2622216563 0.9641811181
6550260700.0 0.2752015664 0.9598900806
6600260400.0 0.2887200566 0.9560535532
6650260100.0 0.3026482912 0.9519845666
6700259800.0 0.3150118907 0.9477549806
6750259500.0 0.3287955736 0.9424969766
6800259200.0 0.3420580927 0.937320073
6850258900.0 0.3543894365 0.931701324
6900258600.0 0.3669319046 0.9269085939
6950258300.0 0.379713282 0.9215074983
7000258000.0 0.391225737 0.9162712611
7050257700.0 0.4030991333 0.9103373513
7100257400.0 0.4165726814 0.904072801
7150257100.0 0.4274399096 0.8984245424
7200256800.0 0.4405858118 0.8922122668
7250256500.0 0.4531953922 0.8855820037
7300256200.0 0.4657400252 0.8786519127
7350255900.0 0.4787353474 0.8719035758
7400255600.0 0.4932544921 0.8643301242
7450255300.0 0.5083705301 0.8548776463
7500255000.0 0.5211812356 0.8472727952
7550254700.0 0.535327988 0.8381099862
7600254400.0 0.5474672551 0.8299371766
7650254100.0 0.5590683584 0.8221450038
7700253800.0 0.5707784951 0.8142581224
7750253500.0 0.5820899405 0.806389748
7800253200.0 0.5923506555 0.7987482577
7850252900.0 0.6022169842 0.7912768302
7900252600.0 0.6136927804 0.7827348092
7950252300.0 0.622152916 0.7764180967
8000252000.0 0.6320613656 0.7686324812
8050251700.0 0.6424606389 0.760755417
8100251400.0 0.6522972384 0.7526317533
8150251100.0 0.6622441954 0.744147202
8200250800.0 0.6719246232 0.7360131762
8250250500.0 0.6808083184 0.7279756515
8300250200.0 0.6895912011 0.7198621217
8350249900.0 0.6993709945 0.7109320515
8400249600.0 0.7071225965 0.7030692923
8450249300.0 0.715574875 0.6941334303
8500249000.0 0.7242774266 0.68535291
8550248700.0 0.7325610703 0.6763726582
8600248400.0 0.7410974468 0.6668027587
8650248100.0 0.7486632263 0.6573890603
8700247800.0 0.7579629049 0.6463919292
8750247500.0 0.7661213246 0.636470493
8800247200.0 0.7743539636 0.6259308181
8850246900.0 0.7829380317 0.6145576905
8900246600.0 0.7914003939 0.6030960034
8950246300.0 0.8003989405 0.5904796317
9000246000.0 0.8091411805 0.5786342441
9050245700.0 0.8176659911 0.5662651747
9100245400.0 0.8261372065 0.5541490038
9150245100.0 0.8351084357 0.5409974276
9200244800.0 0.8441082296 0.5266882074
9250244500.0 0.8531692679 0.5120052551
9300244200.0 0.8613595955 0.498608865
9350243900.0 0.8691687406 0.4854309652
9400243600.0 0.8756591204 0.4736517104
9450243300.0 0.8808719085 0.4631085533
9500243000.0 0.887314932 0.4514678824
9550242700.0 0.8913920973 0.4439978278
9600242400.0 0.8957869926 0.4363573157
9650242100.0 0.8996947805 0.4295155759
9700241800.0 0.9048281492 0.4209404227
9750241500.0 0.9091010411 0.4132869834
9800241200.0 0.9138171761 0.403861434
9850240900.0 0.9198738642 0.3919984121
9900240600.0 0.9260227608 0.3798988779
9950240300.0 0.9329640638 0.3633723191
10000240000.0 0.9375130572 0.3511803689
10050239700.0 0.943837793 0.3352703827
10100239400.0 0.9492563424 0.3190359461
10150239100.0 0.9539705246 0.303188682
10200238800.0 0.9582186341 0.2880165542
10250238500.0 0.9613511696 0.2742851739
10300238200.0 0.9646554709 0.2602521848
10350237900.0 0.9673702522 0.2472830973
10400237600.0 0.9699437357 0.2333023897
10450237300.0 0.9727109339 0.2195492454
10500237000.0 0.9747732725 0.2078359582
10550236700.0 0.9772300694 0.1926592431
10600236400.0 0.9794035323 0.1793510163
10650236100.0 0.9816898421 0.1643575901
10700235800.0 0.9832273621 0.1523586271
10750235500.0 0.986195487 0.1389005312
10800235200.0 0.9878919226 0.1245566108
10850234900.0 0.9899327321 0.1093169321
10900234600.0 0.992027596 0.0946861865
10950234300.0 0.9937747261 0.0810814691
11000234000.0 0.9955939272 0.065669251
11050233700.0 0.9973418306 0.0490477242
11100233400.0 0.9989217971 0.0314025202
11150233100.0 1.00023795 0.0142623927
11200232800.0 1.000891001 -0.0019248361
11250232500.0 1.001287548 -0.0185855594
11300232200.0 1.002419396 -0.0386255273
11350231900.0 1.002278274 -0.0536173696
11400231600.0 1.001327323 -0.0693250839
11450231300.0 1.00118818 -0.0854549141
11500231000.0 0.9993293257 -0.1018650507
11550230700.0 0.9979047002 -0.1138688
11600230400.0 0.9966929128 -0.1271966903
11650230100.0 0.9947599526 -0.1395003602
11700229800.0 0.9924914878 -0.15452754
11750229500.0 0.9900113412 -0.1681711061
11800229200.0 0.9875455925 -0.1816831852
11850228900.0 0.9835363539 -0.1932743408
11900228600.0 0.9799873567 -0.202754294
11950228300.0 0.9764601507 -0.2130448073
12000228000.0 0.9735125108 -0.2218791578
12050227700.0 0.9696171783 -0.2344066239
12100227400.0 0.9669162576 -0.2453300934
12150227100.0 0.9619707743 -0.2618710103
12200226800.0 0.9581214047 -0.2732725355
12250226500.0 0.9541232811 -0.2860072186
12300226200.0 0.949216573 -0.2983386747
12350225900.0 0.9446905343 -0.3115747609
12400225600.0 0.939982533 -0.324873043
12450225300.0 0.9357111104 -0.3370316467
12500225000.0 0.930281252 -0.3517243511
12550224700.0 0.9248293189 -0.3657236042
12600224400.0 0.9200914939 -0.3782123637
12650224100.0 0.9141212725 -0.3924344805
12700223800.0 0.9088402891 -0.4052950914
12750223500.0 0.9034927715 -0.4181658316
12800223200.0 0.8983791591 -0.4304986392
12850222900.0 0.892748871 -0.4428732021
12900222600.0 0.8875375136 -0.4551862795
12950222300.0 0.8808373912 -0.4684333152
13000222000.0 0.8753737007 -0.4793760926
13050221700.0 0.8686015 -0.4918685409
13100221400.0 0.8615509875 -0.5048146602
13150221100.0 0.8548041266 -0.5165316579
13200220800.0 0.8474459264 -0.5279695998
13250220500.0 0.8404653965 -0.5402622276
13300220200.0 0.8327975241 -0.5512025941
13350219900.0 0.8246962954 -0.5631172461
13400219600.0 0.8162700755 -0.5748132311
13450219300.0 0.8069120715 -0.5880713244
13500219000.0 0.7973528345 -0.6011746069
13550218700.0 0.787832095 -0.6135050656
13600218400.0 0.7771808362 -0.6258420273
13650218100.0 0.7677103183 -0.6363377125
13700217800.0 0.7570899736 -0.6479251105
13750217500.0 0.7479887716 -0.6587628666
13800217200.0 0.7363909348 -0.6700809282
13850216900.0 0.7252776667 -0.6813690498
13900216600.0 0.7159881403 -0.6904259812
13950216300.0 0.7046771522 -0.7002351379
14000216000.0 0.6951981641 -0.7088866034
14050215700.0 0.6859664729 -0.7167401872
14100215400.0 0.6764790362 -0.7267186214
14150215100.0 0.6674448476 -0.7349887929
14200214800.0 0.6579021411 -0.7440124533
14250214500.0 0.6475143767 -0.7534817818
14300214200.0 0.6371581763 -0.7628771547
14350213900.0 0.6257483857 -0.7725049831
14400213600.0 0.6140624974 -0.7823157119
14450213300.0 0.6010146247 -0.7926462772
14500213000.0 0.5882517289 -0.8025664865
14550212700.0 0.5755757385 -0.8114990026
14600212400.0 0.5635581211 -0.8205591871
14650212100.0 0.5512472885 -0.8289916183
14700211800.0 0.5373320951 -0.8389369164
14750211500.0 0.5248301201 -0.8470797078
14800211200.0 0.5121967591 -0.8551606575
14850210900.0 0.4999127042 -0.8629825606
14900210600.0 0.4867216625 -0.8709149631
14950210300.0 0.473286997 -0.8787308456
15000210000.0 0.4607412203 -0.8852890729
15050209700.0 0.4483867499 -0.8913372528
15100209400.0 0.4352880593 -0.8973565934
15150209100.0 0.4233893524 -0.9024406841
15200208800.0 0.4110887475 -0.9083036718
15250208500.0 0.399927878 -0.9121579207
15300208200.0 0.3877547681 -0.9166540998
15350207900.0 0.3743810332 -0.9219757137
15400207600.0 0.3593817566 -0.9276807035
15450207300.0 0.3452043489 -0.9330415813
15500207000.0 0.3307063018 -0.9371139752
15550206700.0 0.3157454231 -0.9415967704
15600206400.0 0.2992935109 -0.9466901804
15650206100.0 0.2841061148 -0.9508142163
15700205800.0 0.2702656759 -0.9542379066
15750205500.0 0.2564501025 -0.9576077175
15800205200.0 0.2423805147 -0.9611925083
15850204900.0 0.2282052589 -0.9646364857
15900204600.0 0.2131050032 -0.9682837874
15950204300.0 0.1988926314 -0.9713430055
16000204000.0 0.1848010646 -0.9741760174
16050203700.0 0.1694583554 -0.9775862414
16100203400.0 0.1544187614 -0.9797968429
16150203100.0 0.1398709096 -0.9817304188
16200202800.0 0.1251528539 -0.9840315249
16250202500.0 0.1108472618 -0.9857852492
16300202200.0 0.0949544627 -0.9877241362
16350201900.0 0.0799143987 -0.9885632806
16400201600.0 0.0653156997 -0.9900464281
16450201300.0 0.0497716369 -0.991107578
16500201000.0 0.032807115 -0.9918808356
16550200700.0 0.0167461373 -0.9925830573
16600200400.0 0.0006943124 -0.992688851
16650200100.0 -0.0151577335 -0.9925298699
16700199800.0 -0.0315357246 -0.9923664694
16750199500.0 -0.0507821063 -0.9917712651
16800199200.0 -0.0665560193 -0.9907705113
16850198900.0 -0.0816186748 -0.9891427577
16900198600.0 -0.0965720206 -0.9885342556
16950198300.0 -0.1104710433 -0.9876180658
17000198000.0 -0.1227311281 -0.9861614569
17050197700.0 -0.1356387823 -0.9843094813
17100197400.0 -0.1483021229 -0.9820982174
17150197100.0 -0.1613721799 -0.979667516
17200196800.0 -0.1741180785 -0.9779972266
17250196500.0 -0.1872243121 -0.9752877852
17300196200.0 -0.1993603453 -0.9732142689
17350195900.0 -0.2111717394 -0.9707456474
17400195600.0 -0.2230191106 -0.9683014797
17450195300.0 -0.235988749 -0.9654040173
17500195000.0 -0.2492539762 -0.9621029476
17550194700.0 -0.2628431626 -0.9587192947
17600194400.0 -0.2766122058 -0.9546312374
17650194100.0 -0.2902525165 -0.9504093521
17700193800.0 -0.3031925421 -0.9462087435
17750193500.0 -0.3172565873 -0.9414916724
17800193200.0 -0.3318674979 -0.9361839139
17850192900.0 -0.3465224111 -0.9312939892
17900192600.0 -0.3618420825 -0.9250592018
17950192300.0 -0.3773105713 -0.9180098756
18000192000.0 -0.3920935039 -0.9105029021
18050191700.0 -0.405867859 -0.9026637794
18100191400.0 -0.4199142962 -0.8950361449
18150191100.0 -0.4347976977 -0.8871607773
18200190800.0 -0.4516477526 -0.8779148125
18250190500.0 -0.4689280596 -0.8684714975
18300190200.0 -0.4839635998 -0.8599341893
18350189900.0 -0.499250647 -0.8513465634
18400189600.0 -0.5137915954 -0.8427309717
18450189300.0 -0.5270098101 -0.8345983753
18500189000.0 -0.5404703604 -0.8265841446
18550188700.0 -0.553523151 -0.8192690805
18600188400.0 -0.5654282027 -0.8121047342
18650188100.0 -0.5768814755 -0.8056626466
18700187800.0 -0.5878734679 -0.798721387
18750187500.0 -0.5983256704 -0.7922541584
18800187200.0 -0.6093510559 -0.7852130549
18850186900.0 -0.6193988596 -0.7783742561
18900186600.0 -0.6298973808 -0.7709459921
18950186300.0 -0.6398532175 -0.7632580007
19000186000.0 -0.6475694203 -0.7571990134
19050185700.0 -0.6569220374 -0.7497575409
19100185400.0 -0.6668888115 -0.7417268132
19150185100.0 -0.6770395246 -0.7331957401
19200184800.0 -0.6862176227 -0.7248538835
19250184500.0 -0.696624756 -0.7161365958
19300184200.0 -0.7079367987 -0.7059847877
19350183900.0 -0.7180790891 -0.6963923481
19400183600.0 -0.7277936549 -0.6867432576
19450183300.0 -0.7372261608 -0.6772860665
19500183000.0 -0.7458600683 -0.6666764175
19550182700.0 -0.7550730742 -0.6560604895
19600182400.0 -0.7653482088 -0.6441273747
19650182100.0 -0.776028922 -0.6316662053
19700181800.0 -0.7867152822 -0.6185278937
19750181500.0 -0.7967184991 -0.6045052198
19800181200.0 -0.8071652971 -0.5895528655
19850180900.0 -0.8165098092 -0.5742050489
19900180600.0 -0.8245033479 -0.5599911837
19950180300.0 -0.8334642262 -0.5434287144
20000180000.0 -0.8235162333 -0.5472430544
20050179700.0 -0.8319299116 -0.5348955058
20100179400.0 -0.8387574277 -0.5213957129
20150179100.0 -0.8480638374 -0.5090122445
20200178800.0 -0.855912283 -0.4987979633
20250178500.0 -0.8647182623 -0.4855667137
20300178200.0 -0.8750506654 -0.4714278945
20350177900.0 -0.8843939959 -0.4579105982
20400177600.0 -0.8933671934 -0.4437033528
20450177300.0 -0.902038461 -0.4292711842
20500177000.0 -0.9099224735 -0.415551901
20550176700.0 -0.9177733272 -0.4018421764
20600176400.0 -0.925045228 -0.388465094
20650176100.0 -0.93117456 -0.3768725626
20700175800.0 -0.9383716957 -0.3638938512
20750175500.0 -0.9441936555 -0.3535314231
20800175200.0 -0.9485816541 -0.3427635576
20850174900.0 -0.9535795766 -0.3317074235
20900174600.0 -0.9578577799 -0.3208924648
20950174300.0 -0.9609663694 -0.3095141376
21000174000.0 -0.9641349956 -0.2988771376
21050173700.0 -0.9653898455 -0.290306849
21100173400.0 -0.9693190453 -0.2786423063
21150173100.0 -0.9731290658 -0.2667122627
21200172800.0 -0.9771357195 -0.252972927
21250172500.0 -0.9806063891 -0.2396832417
21300172200.0 -0.9837765751 -0.2254474624
21350171900.0 -0.9855662559 -0.211668388
21400171600.0 -0.987839167 -0.1970618407
21450171300.0 -0.9889321901 -0.1835324194
21500171000.0 -0.9888270516 -0.168575101
21550170700.0 -0.9888899206 -0.1528776114
21600170400.0 -0.9895770366 -0.1384904237
21650170100.0 -0.9907836844 -0.1214684726
21700169800.0 -0.9892358552 -0.1061307214
21750169500.0 -0.9897342488 -0.0898545186
21800169200.0 -0.9903393143 -0.0739861504
21850168900.0 -0.99018661 -0.0575437008
21900168600.0 -0.9891562007 -0.0407462835
21950168300.0 -0.9888854417 -0.0250924973
22000168000.0 -0.9887855013 -0.0102474102
22050167700.0 -0.9894406204 0.0043071729
22100167400.0 -0.9902647505 0.0202168664
22150167100.0 -0.9913643347 0.0361390697
22200166800.0 -0.9915062275 0.0523815812
22250166500.0 -0.9906990109 0.0694728437
22300166200.0 -0.9906276181 0.0865532255
22350165900.0 -0.9893943133 0.1017427334
22400165600.0 -0.9877376591 0.118196077
22450165300.0 -0.9858498028 0.1337738453
22500165000.0 -0.9848471716 0.1474047
22550164700.0 -0.9834248018 0.1636461775
22600164400.0 -0.981272889 0.1800024111
22650164100.0 -0.9774242047 0.194906234
22700163800.0 -0.9754101662 0.2113523497
22750163500.0 -0.9718920631 0.226506243
22800163200.0 -0.9691078451 0.2388731542
22850162900.0 -0.9664407916 0.2529385179
22900162600.0 -0.9647490861 0.2667350294
22950162300.0 -0.962465076 0.2805626408
23000162000.0 -0.9607339459 0.2929746432
23050161700.0 -0.9586433916 0.306426245
23100161400.0 -0.9557967171 0.3199436992
23150161100.0 -0.9525627128 0.3330041
23200160800.0 -0.9490701702 0.3460276184
23250160500.0 -0.9468962218 0.3583421747
23300160200.0 -0.943739531 0.3715559999
23350159900.0 -0.940420536 0.3851777163
23400159600.0 -0.9344899645 0.3990799609
23450159300.0 -0.9296514917 0.4119273031
23500159000.0 -0.9250704649 0.425744688
23550158700.0 -0.9204136423 0.4399881336
23600158400.0 -0.913796153 0.4540137019
23650158100.0 -0.9069197965 0.4683575334
23700157800.0 -0.8983915549 0.4827328876
23750157500.0 -0.889126248 0.4965673796
23800157200.0 -0.878996219 0.5106340046
23850156900.0 -0.8701574832 0.5236497143
23900156600.0 -0.8596552026 0.5356352413
23950156300.0 -0.8504126643 0.5476807297
24000156000.0 -0.8410163962 0.5606211927
24050155700.0 -0.8294809173 0.5733646831
24100155400.0 -0.8201311683 0.5856140096
24150155100.0 -0.8090859685 0.597392043
24200154800.0 -0.7975715509 0.6091721593
24250154500.0 -0.786488705 0.622133291
24300154200.0 -0.7755315599 0.6332344779
24350153900.0 -0.763020064 0.6446443724
24400153600.0 -0.7504181107 0.6551888723
24450153300.0 -0.7385341093 0.6656238625
24500153000.0 -0.7269214016 0.6757532724
24550152700.0 -0.7152932965 0.6858736882
24600152400.0 -0.7030908838 0.6950999095
24650152100.0 -0.691436212 0.7035952536
