!Created with skrf (http://scikit-rf.org).
# Hz S RI R 50.0 
!freq ReS11 ImS11
300000.0 -0.9737582545 -0.1211263818
50299700.0 -0.9999075357 0.0151144927
100299400.0 -0.9980854998 0.0281687243
150299100.0 -1.002923676 0.0450277755
200298800.0 -0.9996351207 0.0582848857
250298500.0 -0.9975631861 0.0718961203
300298200.0 -0.9859998667 0.087577472
350297900.0 -0.9939498998 0.0985823182
400297600.0 -0.9931354673 0.1151440994
450297300.0 -0.9910805882 0.1287735008
500297000.0 -0.989366877 0.1436089435
550296700.0 -0.9844009805 0.15608776
600296400.0 -1.017475518 0.1893878291
650296100.0 -0.9821274343 0.1859852299
700295800.0 -0.9793780608 0.2002949297
750295500.0 -0.9762962403 0.2143420661
800295200.0 -0.9730210921 0.2285384147
850294900.0 -0.9697351971 0.242244917
900294600.0 -0.965804123 0.2559435355
950294300.0 -0.9621946623 0.2697158899
1000294000.0 -0.9581027555 0.2834797551
1050293700.0 -0.9535771317 0.297300034
1100293400.0 -0.9492602782 0.3119101941
1150293100.0 -0.9454783378 0.3238397533
1200292800.0 -0.9401516946 0.3381176911
1250292500.0 -0.9345350913 0.3514584165
1300292200.0 -0.9291051109 0.3646298258
1350291900.0 -0.9235739903 0.3788764554
1400291600.0 -0.9180529622 0.3919084901
1450291300.0 -0.9124405574 0.4043367422
1500291000.0 -0.9063103054 0.4174741548
1550290700.0 -0.8996064048 0.4310840636
1600290400.0 -0.8933646652 0.4436647776
1650290100.0 -0.8868891969 0.455927879
1700289800.0 -0.8798168857 0.469596611
1750289500.0 -0.8728207742 0.481860819
1800289200.0 -0.8654905711 0.4947150561
1850288900.0 -0.8589274586 0.5060685431
1900288600.0 -0.8509957548 0.5187996583
1950288300.0 -0.8427885855 0.5315835134
2000288000.0 -0.8354144064 0.5429298026
2050287700.0 -0.8270875445 0.5554257254
2100287400.0 -0.8192873368 0.5668862138
2150287100.0 -0.8108456262 0.5790258943
2200286800.0 -0.8029822795 0.5894684546
2250286500.0 -0.7941279997 0.6014589328
2300286200.0 -0.7853041654 0.6131516205
2350285900.0 -0.7765262192 0.6240101654
2400285600.0 -0.767725234 0.6348117787
2450285300.0 -0.7590987555 0.6453645657
2500285000.0 -0.7493526842 0.6566912306
2550284700.0 -0.7402211891 0.6668245029
2600284400.0 -0.731028389 0.6771410997
2650284100.0 -0.7222316485 0.6873936982
2700283800.0 -0.7116590796 0.6981173984
2750283500.0 -0.7012603128 0.7086068519
2800283200.0 -0.6913947012 0.718558695
2850282900.0 -0.6811346183 0.7282431738
2900282600.0 -0.6707438721 0.7377757797
2950282300.0 -0.660604626 0.7471234241
3000282000.0 -0.6496642164 0.7567148716
3050281700.0 -0.6387477867 0.7660374849
3100281400.0 -0.626833381 0.7752079284
3150281100.0 -0.615184965 0.7844966432
3200280800.0 -0.6034883017 0.7929509802
3250280500.0 -0.5924816339 0.8007187175
3300280200.0 -0.5812513011 0.8086987363
3350279900.0 -0.5696974998 0.8163762012
3400279600.0 -0.5572311073 0.8241552789
3450279300.0 -0.5463580378 0.8311508472
3500279000.0 -0.5344208302 0.8386264157
3550278700.0 -0.5218793238 0.8454505167
3600278400.0 -0.5098463499 0.8525634367
3650278100.0 -0.4966700173 0.8605520577
3700277800.0 -0.4843460852 0.8666657079
3750277500.0 -0.4721476029 0.8734191382
3800277200.0 -0.4597400861 0.8798329144
3850276900.0 -0.447815972 0.8857471268
3900276600.0 -0.4370086016 0.8912156574
3950276300.0 -0.4243974896 0.8973480869
4000276000.0 -0.4127502873 0.9034000842
4050275700.0 -0.3995581104 0.9094039815
4100275400.0 -0.3886146026 0.9150623502
4150275100.0 -0.3757460145 0.9207460058
4200274800.0 -0.3630563662 0.9262513584
4250274500.0 -0.3506179658 0.9315060757
4300274200.0 -0.3374265899 0.9364566185
4350273900.0 -0.3235911282 0.9419982544
4400273600.0 -0.3086331325 0.9470839629
4450273300.0 -0.2935575232 0.9523595109
4500273000.0 -0.2799623066 0.956656809
4550272700.0 -0.2661003893 0.9608549787
4600272400.0 -0.2504935501 0.9649238084
4650272100.0 -0.2388854724 0.9680520013
4700271800.0 -0.2256491979 0.9714832982
4750271500.0 -0.2139335348 0.9742747738
4800271200.0 -0.2015269618 0.9771679931
4850270900.0 -0.1875829395 0.9801841378
4900270600.0 -0.1737831268 0.9824788795
4950270300.0 -0.1593213216 0.9849097729
5000270000.0 -0.1450366832 0.9869714677
5050269700.0 -0.1316440785 0.9884911186
5100269400.0 -0.1178640099 0.9898167467
5150269100.0 -0.1044119938 0.9917948931
5200268800.0 -0.0907874969 0.993198765
5250268500.0 -0.0779544353 0.9939115277
5300268200.0 -0.0647137488 0.9947158032
5350267900.0 -0.052277084 0.9952281675
5400267600.0 -0.0361196101 0.9965564019
5450267300.0 -0.0230964806 0.996802656
5500267000.0 -0.0078789997 0.9969731728
5550266700.0 0.0067985503 0.9971801073
5600266400.0 0.0226027125 0.9972505078
5650266100.0 0.0391277578 0.9967790915
5700265800.0 0.0538203195 0.9961684207
5750265500.0 0.0686043314 0.995546276
5800265200.0 0.082434145 0.9940244814
5850264900.0 0.0960931892 0.9935265691
5900264600.0 0.1126538122 0.9920753982
5950264300.0 0.1246505373 0.9900586258
6000264000.0 0.1382514159 0.9884769758
6050263700.0 0.150553536 0.987102886
6100263400.0 0.1631033198 0.9850985774
6150263100.0 0.1774556429 0.9827912563
6200262800.0 0.1876894589 0.9809810602
6250262500.0 0.2002849443 0.9783321384
6300262200.0 0.2130621026 0.9759038203
6350261900.0 0.2262078601 0.9729118455
6400261600.0 0.2399944866 0.9695266602
6450261300.0 0.2515554051 0.9671305129
6500261000.0 0.263996634 0.9632463826
6550260700.0 0.2770773132 0.9595001616
6600260400.0 0.2907505454 0.9554996475
6650260100.0 0.3046856365 0.9510077491
6700259800.0 0.3165160751 0.9468399496
6750259500.0 0.3306169252 0.9418027683
6800259200.0 0.3434078698 0.9366964229
6850258900.0 0.3555457749 0.9314513883
6900258600.0 0.3680385244 0.9265610345
6950258300.0 0.3804093738 0.9211140207
7000258000.0 0.3923074316 0.9159354489
7050257700.0 0.404697632 0.9099709639
7100257400.0 0.4174133994 0.90353893
7150257100.0 0.4278909008 0.8982749506
7200256800.0 0.4409948679 0.8917822711
7250256500.0 0.4526833808 0.8853605202
7300256200.0 0.4657849291 0.8785877826
7350255900.0 0.4782251146 0.871963308
7400255600.0 0.4916641157 0.8643152436
7450255300.0 0.5070337789 0.8555628726
7500255000.0 0.5189331057 0.848437639
7550254700.0 0.5325690323 0.8397484419
7600254400.0 0.545635356 0.8315168036
7650254100.0 0.5567730973 0.8238124991
7700253800.0 0.5687093856 0.8156892567
7750253500.0 0.5797952633 0.8080376844
7800253200.0 0.5905921624 0.800242981
7850252900.0 0.6001685918 0.793242431
7900252600.0 0.6119191166 0.7845332387
7950252300.0 0.6207053666 0.7781926178
8000252000.0 0.630469316 0.7704104607
8050251700.0 0.6413092159 0.7623122157
8100251400.0 0.6509183633 0.7541470608
8150251100.0 0.6612811047 0.745409407
8200250800.0 0.6706488628 0.7374498016
8250250500.0 0.6797340855 0.7296713032
8300250200.0 0.6888890756 0.7211420801
8350249900.0 0.6980614792 0.7122580677
8400249600.0 0.7062323804 0.7042222338
8450249300.0 0.715290206 0.6949483924
8500249000.0 0.7241497126 0.6863325342
8550248700.0 0.732322029 0.6771251976
8600248400.0 0.7406719134 0.667591594
8650248100.0 0.7485387217 0.6580862554
8700247800.0 0.7578481689 0.6470469644
8750247500.0 0.7663520981 0.6368819734
8800247200.0 0.7742155364 0.626462392
8850246900.0 0.7832735746 0.6149817992
8900246600.0 0.7913626751 0.6037859006
8950246300.0 0.8013471532 0.5907084428
9000246000.0 0.810589996 0.578009393
9050245700.0 0.8192619033 0.5652998312
9100245400.0 0.8277168062 0.5528347903
9150245100.0 0.8370419715 0.5394178154
9200244800.0 0.8468356527 0.5243833439
9250244500.0 0.8561496834 0.5089861216
9300244200.0 0.8643722472 0.4946193658
9350243900.0 0.8725377161 0.4809879899
9400243600.0 0.8790836239 0.4688583497
9450243300.0 0.8848825366 0.4572653598
9500243000.0 0.8911522984 0.4450963997
9550242700.0 0.894759513 0.4374831245
9600242400.0 0.8989150983 0.4300446077
9650242100.0 0.9025196576 0.4236454033
9700241800.0 0.9073565755 0.4151738341
9750241500.0 0.9115042344 0.407783397
9800241200.0 0.9159458804 0.3987801627
9850240900.0 0.9219347862 0.3865861866
9900240600.0 0.9273689646 0.3752130853
9950240300.0 0.9338866686 0.359009124
10000240000.0 0.9384505673 0.3472526858
10050239700.0 0.9443562102 0.3321988269
10100239400.0 0.9495025125 0.3164896578
10150239100.0 0.9541666534 0.301562052
10200238800.0 0.9582798828 0.2865837365
10250238500.0 0.9615087519 0.2732015958
10300238200.0 0.9646261579 0.2591206354
10350237900.0 0.967225233 0.2460225131
10400237600.0 0.9698932863 0.2326172608
10450237300.0 0.9726838003 0.2190999708
10500237000.0 0.9743859577 0.2067334683
10550236700.0 0.9769840176 0.1929947542
10600236400.0 0.9792680326 0.1788350125
10650236100.0 0.9810399377 0.1644175365
10700235800.0 0.9835629559 0.1519097145
10750235500.0 0.9856444697 0.1389685728
10800235200.0 0.9879305431 0.1244688167
10850234900.0 0.9896657382 0.109965444
10900234600.0 0.9918235283 0.0951075226
10950234300.0 0.9935358108 0.0817859838
11000234000.0 0.9953756473 0.0666342772
11050233700.0 0.9970891786 0.0502215741
11100233400.0 0.9985342507 0.0330789595
11150233100.0 0.9996240869 0.0161598091
11200232800.0 1.000478906 0.0013259107
11250232500.0 1.001236038 -0.0150952308
11300232200.0 1.001999657 -0.0335038131
11350231900.0 1.001747845 -0.0484095272
11400231600.0 1.001849312 -0.0655673416
11450231300.0 1.000936568 -0.0812699226
11500231000.0 0.9999273031 -0.0962962057
11550230700.0 0.9990573874 -0.1097866831
11600230400.0 0.9970946607 -0.1228671315
11650230100.0 0.9954405864 -0.1340987434
11700229800.0 0.9933995727 -0.1487247759
11750229500.0 0.9909479113 -0.1632877537
11800229200.0 0.988053689 -0.1766086944
11850228900.0 0.9844666118 -0.1888154649
11900228600.0 0.9809306251 -0.1984608124
11950228300.0 0.9775576993 -0.2091884047
12000228000.0 0.974996724 -0.2175925935
12050227700.0 0.971173216 -0.2306621593
12100227400.0 0.9676432477 -0.2422172987
12150227100.0 0.9633492769 -0.2584404502
12200226800.0 0.9596063235 -0.2691266034
12250226500.0 0.9547708027 -0.2834846955
12300226200.0 0.9511610342 -0.2945613545
12350225900.0 0.9467579579 -0.3080405785
12400225600.0 0.9421765678 -0.3215922757
12450225300.0 0.9375930202 -0.3337570731
12500225000.0 0.931993688 -0.3491036816
12550224700.0 0.9266752989 -0.3625513889
12600224400.0 0.9220310712 -0.3754707441
12650224100.0 0.9159998201 -0.3898003422
12700223800.0 0.9106621764 -0.4025497106
12750223500.0 0.9053099207 -0.4154791723
12800223200.0 0.8999268491 -0.4283186277
12850222900.0 0.8944406688 -0.4404761687
12900222600.0 0.8889992624 -0.4525999069
12950222300.0 0.8826863416 -0.4650065887
13000222000.0 0.8763368797 -0.4766519628
13050221700.0 0.8699829548 -0.4894122875
13100221400.0 0.8632780991 -0.5016032853
13150221100.0 0.8566245954 -0.5134745224
13200220800.0 0.8494329332 -0.5253583499
13250220500.0 0.8422922621 -0.5372619953
13300220200.0 0.8347471816 -0.5481512906
13350219900.0 0.8267133134 -0.5603015075
13400219600.0 0.8182004035 -0.5721451573
13450219300.0 0.8089318909 -0.5856367317
13500219000.0 0.7991018305 -0.5992013399
13550218700.0 0.7890649577 -0.6117310133
13600218400.0 0.778717386 -0.6239324835
13650218100.0 0.7686671596 -0.6352658507
13700217800.0 0.7580501905 -0.6468048669
13750217500.0 0.7483944531 -0.6585061864
13800217200.0 0.7374167543 -0.670203796
13850216900.0 0.7262829394 -0.6816629145
13900216600.0 0.7167655679 -0.6905985196
13950216300.0 0.7054922935 -0.7009712022
14000216000.0 0.6957319481 -0.7097090665
14050215700.0 0.6859057304 -0.7185899803
14100215400.0 0.6762318457 -0.7274660603
14150215100.0 0.6671078407 -0.735865402
14200214800.0 0.6579099448 -0.7446395057
14250214500.0 0.64745027 -0.75401634
14300214200.0 0.6369830449 -0.7634768471
14350213900.0 0.6259105496 -0.7730440652
14400213600.0 0.6141275759 -0.7827590146
14450213300.0 0.6008757783 -0.7929823287
14500213000.0 0.5875589758 -0.8023383955
14550212700.0 0.575459211 -0.8129062217
14600212400.0 0.562785463 -0.8211433617
14650212100.0 0.5500960658 -0.829952812
14700211800.0 0.5359267875 -0.8393216646
14750211500.0 0.5238853411 -0.847777095
14800211200.0 0.5116160928 -0.8555564204
14850210900.0 0.4996993155 -0.8633585274
14900210600.0 0.4863303821 -0.8712128537
14950210300.0 0.47279879 -0.8787573262
15000210000.0 0.460139142 -0.885697955
15050209700.0 0.4477809542 -0.8916607439
15100209400.0 0.4352074898 -0.897626891
15150209100.0 0.4229920109 -0.9029311388
15200208800.0 0.4101446759 -0.9087026805
15250208500.0 0.3993168289 -0.9128846883
15300208200.0 0.3861736579 -0.917846915
15350207900.0 0.3737143179 -0.92294697
15400207600.0 0.3579742231 -0.9278594056
15450207300.0 0.3445237927 -0.9326210227
15500207000.0 0.330200716 -0.9371636817
15550206700.0 0.314820104 -0.9425270246
15600206400.0 0.2990304495 -0.9467543175
15650206100.0 0.2831112639 -0.9515321191
15700205800.0 0.269156992 -0.9551329248
15750205500.0 0.2551214607 -0.9584677156
15800205200.0 0.240589381 -0.9620775385
15850204900.0 0.2263855095 -0.9653188528
15900204600.0 0.2113132735 -0.9688832422
15950204300.0 0.1970482776 -0.9718516173
16000204000.0 0.182850564 -0.9749902846
16050203700.0 0.1677033965 -0.9779767871
16100203400.0 0.1532744819 -0.9796928185
16150203100.0 0.138898031 -0.9825647265
16200202800.0 0.1247654207 -0.9846085507
16250202500.0 0.1100702704 -0.9857777992
16300202200.0 0.0948116077 -0.9879454313
16350201900.0 0.079186916 -0.9892806322
16400201600.0 0.0648969646 -0.9901868324
16450201300.0 0.0493408852 -0.9910004685
16500201000.0 0.0326640789 -0.9920531075
16550200700.0 0.0171737552 -0.9925332958
16600200400.0 0.0013767701 -0.9926831106
16650200100.0 -0.0146293966 -0.9927161278
16700199800.0 -0.0311214219 -0.9924223247
16750199500.0 -0.0497357001 -0.9919033217
16800199200.0 -0.0651733327 -0.9907189645
16850198900.0 -0.0804639708 -0.9900573358
16900198600.0 -0.0941971052 -0.98896128
16950198300.0 -0.1078301964 -0.9875000302
17000198000.0 -0.1207657042 -0.986556261
17050197700.0 -0.1337394552 -0.9842233251
17100197400.0 -0.1469718176 -0.9823771759
17150197100.0 -0.1592753586 -0.9801839234
17200196800.0 -0.1720825523 -0.9782248841
17250196500.0 -0.1845505787 -0.9757352987
17300196200.0 -0.1969152601 -0.9735990861
17350195900.0 -0.2088386849 -0.9712934298
17400195600.0 -0.2208658202 -0.9686728618
17450195300.0 -0.2342412041 -0.9659896148
17500195000.0 -0.2477388467 -0.9626731694
17550194700.0 -0.26135588 -0.9589088355
17600194400.0 -0.2755796588 -0.9549648217
17650194100.0 -0.2891546666 -0.9511119811
17700193800.0 -0.3020045795 -0.9469559369
17750193500.0 -0.3169928947 -0.9425717232
17800193200.0 -0.330607006 -0.9366891942
17850192900.0 -0.3459875839 -0.9317953094
17900192600.0 -0.3610182775 -0.9254862285
17950192300.0 -0.3768092631 -0.9181975416
18000192000.0 -0.3915150482 -0.9111202772
18050191700.0 -0.405573082 -0.9030982248
18100191400.0 -0.4196936626 -0.8955885702
18150191100.0 -0.4347782786 -0.8876500936
18200190800.0 -0.4516165513 -0.8783646972
18250190500.0 -0.4686434178 -0.8689150704
18300190200.0 -0.4842064054 -0.8603299889
18350189900.0 -0.4990704423 -0.8517433262
18400189600.0 -0.5134704659 -0.8436605496
18450189300.0 -0.526553781 -0.8356098788
18500189000.0 -0.5402635559 -0.8277634184
18550188700.0 -0.5528000076 -0.8196595406
18600188400.0 -0.5644332368 -0.8135426018
18650188100.0 -0.5754870646 -0.8069092948
18700187800.0 -0.5865821752 -0.8005199822
18750187500.0 -0.5968879191 -0.7938320911
18800187200.0 -0.6075736993 -0.7868830964
18850186900.0 -0.6177233977 -0.7800178263
18900186600.0 -0.6279351841 -0.7726792526
18950186300.0 -0.6377257188 -0.7653087322
19000186000.0 -0.6451629347 -0.7588989602
19050185700.0 -0.6547436336 -0.7517924961
19100185400.0 -0.6638524243 -0.7439224772
19150185100.0 -0.6740453547 -0.7350641469
19200184800.0 -0.6837550773 -0.7273817718
19250184500.0 -0.6931889633 -0.7173508221
19300184200.0 -0.7051532237 -0.7081303726
19350183900.0 -0.7158882188 -0.698403917
19400183600.0 -0.7259532398 -0.6885162976
19450183300.0 -0.7344778029 -0.6785645515
19500183000.0 -0.7431124054 -0.6685785361
19550182700.0 -0.752659791 -0.6575520446
19600182400.0 -0.763053956 -0.645984498
19650182100.0 -0.7739991817 -0.6330846191
19700181800.0 -0.7845900781 -0.6202511683
19750181500.0 -0.7951226238 -0.6060255761
19800181200.0 -0.8055129196 -0.5910030604
19850180900.0 -0.8151993391 -0.57547436
19900180600.0 -0.8232591129 -0.5611136267
19950180300.0 -0.832518893 -0.5445689297
20000180000.0 -0.82495275 -0.5465582312
20050179700.0 -0.8342142724 -0.5344270474
20100179400.0 -0.8418125574 -0.5197877446
20150179100.0 -0.8498361391 -0.5080301945
20200178800.0 -0.8591185367 -0.4951479531
20250178500.0 -0.86818899 -0.4825246522
20300178200.0 -0.8784135611 -0.4676272805
20350177900.0 -0.8869763093 -0.4535784194
20400177600.0 -0.8959468612 -0.4389825918
20450177300.0 -0.9043742026 -0.4247730561
20500177000.0 -0.9121212713 -0.4109287694
20550176700.0 -0.9202086614 -0.3969895937
20600176400.0 -0.92740712 -0.384269634
20650176100.0 -0.9332904182 -0.3715593019
20700175800.0 -0.9399267755 -0.3598047497
20750175500.0 -0.9469659386 -0.3487412238
20800175200.0 -0.9517948587 -0.3370615074
20850174900.0 -0.9567853871 -0.327163373
20900174600.0 -0.960657433 -0.3159076056
20950174300.0 -0.9649165601 -0.3039297698
21000174000.0 -0.9682814084 -0.2937541615
21050173700.0 -0.9703460633 -0.2825407847
21100173400.0 -0.9748625581 -0.2700989086
21150173100.0 -0.9779445858 -0.2578640917
21200172800.0 -0.9816597067 -0.2447754716
21250172500.0 -0.9849031689 -0.230998105
21300172200.0 -0.9882450874 -0.2171952358
21350171900.0 -0.9900656789 -0.202646379
21400171600.0 -0.9915324271 -0.1876864073
21450171300.0 -0.9922322268 -0.1732406556
21500171000.0 -0.9911528051 -0.1590269108
21550170700.0 -0.9924209379 -0.1429700798
21600170400.0 -0.9917168502 -0.1279579356
21650170100.0 -0.9914058535 -0.1119598675
21700169800.0 -0.990054501 -0.096843236
21750169500.0 -0.9888289744 -0.0805198588
21800169200.0 -0.9888314881 -0.064223604
21850168900.0 -0.9878748972 -0.0476089667
21900168600.0 -0.9863485375 -0.0313128835
21950168300.0 -0.9858083054 -0.0155575673
22000168000.0 -0.9848199154 2.1127e-05
22050167700.0 -0.9848432294 0.0139094283
22100167400.0 -0.985105471 0.0291397511
22150167100.0 -0.9855532902 0.0450019803
22200166800.0 -0.9866352652 0.0614004266
22250166500.0 -0.9860176972 0.0784091162
22300166200.0 -0.9847885142 0.0949255465
22350165900.0 -0.9837376543 0.1116603755
22400165600.0 -0.9824527323 0.1276876896
22450165300.0 -0.9802267109 0.1423719728
22500165000.0 -0.9776168529 0.1547074951
22550164700.0 -0.976944337 0.1716531143
22600164400.0 -0.9753950693 0.1874911771
22650164100.0 -0.9724137903 0.2019136212
22700163800.0 -0.9701023273 0.2177979954
22750163500.0 -0.9675403489 0.2334024616
22800163200.0 -0.9652079598 0.2468109635
22850162900.0 -0.9625516239 0.2594340851
22900162600.0 -0.9608255645 0.2728688841
22950162300.0 -0.9594087175 0.28586329
23000162000.0 -0.9583679854 0.2979715458
23050161700.0 -0.9562931002 0.311038159
23100161400.0 -0.9537766107 0.3238990963
23150161100.0 -0.9509835007 0.3357800497
23200160800.0 -0.9477328494 0.3487601157
23250160500.0 -0.9455481436 0.3604730017
23300160200.0 -0.9426334091 0.3726011464
23350159900.0 -0.939501991 0.3858807593
23400159600.0 -0.9343662502 0.3992237849
23450159300.0 -0.9289679254 0.4125539078
23500159000.0 -0.9247002877 0.4256034142
23550158700.0 -0.9207257887 0.4388856462
23600158400.0 -0.9150017255 0.4526890925
23650158100.0 -0.9085468257 0.4665933438
23700157800.0 -0.9006883261 0.4805789277
23750157500.0 -0.8922599038 0.4948491591
23800157200.0 -0.8830735544 0.5082999327
23850156900.0 -0.8748061697 0.520544014
23900156600.0 -0.8649138034 0.5330528597
23950156300.0 -0.8556642748 0.5459986661
24000156000.0 -0.8465734202 0.5584401514
24050155700.0 -0.8361545466 0.5699858469
24100155400.0 -0.8262164549 0.5813576669
24150155100.0 -0.8150780958 0.5940400491
24200154800.0 -0.8041891326 0.6047944814
24250154500.0 -0.7933730199 0.6166021209
24300154200.0 -0.7822601806 0.6282662247
24350153900.0 -0.770488053 0.6389451166
24400153600.0 -0.7580872923 0.6498096707
24450153300.0 -0.7463939566 0.6594763581
24500153000.0 -0.7349498343 0.6692445581
24550152700.0 -0.7237620687 0.6789189887
24600152400.0 -0.7116490692 0.6881693883
24650152100.0 -0.7003523663 0.6969096478
