!Created with skrf (http://scikit-rf.org).
# Hz S RI R 50.0 
!freq ReS11 ImS11
300000.0 -0.9743735676 -0.1193529232
50299700.0 -1.000014207 0.0152906184
100299400.0 -0.9980038451 0.0280516819
150299100.0 -1.002859408 0.0450355986
200298800.0 -0.9997393889 0.0584529066
250298500.0 -0.9975752535 0.0720021908
300298200.0 -0.9859058483 0.0877070626
350297900.0 -0.994055454 0.0985429476
400297600.0 -0.993156749 0.1150870437
450297300.0 -0.9911765002 0.1289211535
500297000.0 -0.9894662951 0.1436647605
550296700.0 -0.9843849308 0.1561519885
600296400.0 -1.017251856 0.1896024414
650296100.0 -0.9821904426 0.1861195779
700295800.0 -0.9794587852 0.2002913372
750295500.0 -0.9762415172 0.2144136499
800295200.0 -0.9729100618 0.228306274
850294900.0 -0.9696230871 0.2422278489
900294600.0 -0.9660416325 0.255915673
950294300.0 -0.9623331659 0.2695724225
1000294000.0 -0.9579748992 0.2838397816
1050293700.0 -0.9533488915 0.2975248386
1100293400.0 -0.9493836587 0.311970294
1150293100.0 -0.9455069261 0.3238299182
1200292800.0 -0.9402192922 0.3383265369
1250292500.0 -0.9346049204 0.3517616004
1300292200.0 -0.9290755858 0.3648672374
1350291900.0 -0.9234415965 0.378712773
1400291600.0 -0.9178954541 0.3918174893
1450291300.0 -0.9124156837 0.4042091777
1500291000.0 -0.9060647809 0.4176082424
1550290700.0 -0.8996756029 0.4310762756
1600290400.0 -0.8934325152 0.4438683185
1650290100.0 -0.8868915099 0.4561704524
1700289800.0 -0.8799010624 0.4694613054
1750289500.0 -0.8728814664 0.4818228445
1800289200.0 -0.8656945075 0.494598966
1850288900.0 -0.8587827081 0.5060847971
1900288600.0 -0.851049086 0.5190234335
1950288300.0 -0.8431175096 0.5317104226
2000288000.0 -0.8354772086 0.5430957942
2050287700.0 -0.8272170635 0.5553813443
2100287400.0 -0.819374972 0.5670491257
2150287100.0 -0.8107450955 0.5791581389
2200286800.0 -0.8030192981 0.5893139183
2250286500.0 -0.7942627495 0.6013412657
2300286200.0 -0.7852451671 0.6131454059
2350285900.0 -0.7765123531 0.6241472953
2400285600.0 -0.7675323496 0.6349947603
2450285300.0 -0.7592272723 0.645308704
2500285000.0 -0.7492851965 0.6566096315
2550284700.0 -0.7404093758 0.6669294273
2600284400.0 -0.7310530352 0.6770293066
2650284100.0 -0.722164969 0.687831694
2700283800.0 -0.7115186522 0.6979668335
2750283500.0 -0.7011244466 0.708749689
2800283200.0 -0.6912346475 0.7183680844
2850282900.0 -0.6810198434 0.7281479948
2900282600.0 -0.6708324865 0.7379812129
2950282300.0 -0.660537998 0.7473315175
3000282000.0 -0.6497568372 0.7567831465
3050281700.0 -0.6384909144 0.7658703141
3100281400.0 -0.6266663697 0.7752244748
3150281100.0 -0.6151572177 0.7847290323
3200280800.0 -0.6032644545 0.7931379845
3250280500.0 -0.5925373895 0.8009968583
3300280200.0 -0.5813149108 0.808888689
3350279900.0 -0.5696529816 0.8163684704
3400279600.0 -0.5574017473 0.8239644391
3450279300.0 -0.5464050319 0.8312410788
3500279000.0 -0.5342021795 0.8382119601
3550278700.0 -0.5218186038 0.8454000366
3600278400.0 -0.5097350217 0.8525682825
3650278100.0 -0.4964975626 0.8604198293
3700277800.0 -0.4842237133 0.8667344362
3750277500.0 -0.4723924648 0.8733767507
3800277200.0 -0.4599425775 0.8798650072
3850276900.0 -0.4476362315 0.8857205586
3900276600.0 -0.4368565756 0.8913759753
3950276300.0 -0.4245737862 0.897368629
4000276000.0 -0.4124686364 0.9035185308
4050275700.0 -0.3995865623 0.9093766294
4100275400.0 -0.3884908574 0.9150095383
4150275100.0 -0.3759445604 0.9207271877
4200274800.0 -0.3627089614 0.9263250047
4250274500.0 -0.3504547718 0.9314694755
4300274200.0 -0.3376158401 0.9364622831
4350273900.0 -0.3238107737 0.9417298007
4400273600.0 -0.3089528525 0.9470984487
4450273300.0 -0.2935970053 0.9522180308
4500273000.0 -0.2800318786 0.956556304
4550272700.0 -0.2658656162 0.9608750931
4600272400.0 -0.2503441995 0.9651085354
4650272100.0 -0.2387039004 0.9681946577
4700271800.0 -0.2253707393 0.9715853447
4750271500.0 -0.2136922128 0.9744830582
4800271200.0 -0.2012457227 0.9771886343
4850270900.0 -0.1873224045 0.9799487983
4900270600.0 -0.1733677869 0.98249227
4950270300.0 -0.1591435044 0.9851631653
5000270000.0 -0.1448747343 0.9870156758
5050269700.0 -0.1314296989 0.9887474876
5100269400.0 -0.1175769263 0.9902889132
5150269100.0 -0.1043749509 0.9920713118
5200268800.0 -0.0909577882 0.9925798517
5250268500.0 -0.0778378654 0.9937735561
5300268200.0 -0.064792523 0.9943025181
5350267900.0 -0.0524643108 0.9952465192
5400267600.0 -0.0363874629 0.9966653881
5450267300.0 -0.0233788998 0.9967320756
5500267000.0 -0.0079023824 0.9970400534
5550266700.0 0.0068928822 0.9971459969
5600266400.0 0.0225175411 0.9973263953
5650266100.0 0.038971916 0.9971256184
5700265800.0 0.0533017773 0.9961194038
5750265500.0 0.0684245923 0.9955893327
5800265200.0 0.0824398838 0.9942471814
5850264900.0 0.0959843509 0.9936657807
5900264600.0 0.1122674183 0.9917653106
5950264300.0 0.124234952 0.9900436567
6000264000.0 0.1383002686 0.9882424666
6050263700.0 0.1505358445 0.98650129
6100263400.0 0.163177319 0.9849719492
6150263100.0 0.1774770539 0.9826560083
6200262800.0 0.187899024 0.9808840924
6250262500.0 0.20076575 0.9784345508
6300262200.0 0.2133901356 0.9758826793
6350261900.0 0.2264914365 0.9730378761
6400261600.0 0.2402719466 0.969704323
6450261300.0 0.2518113459 0.9670395207
6500261000.0 0.2644805269 0.963367355
6550260700.0 0.2773837774 0.9593899369
6600260400.0 0.2909539559 0.9555844
6650260100.0 0.3048020601 0.9510221984
6700259800.0 0.3171850106 0.9467850526
6750259500.0 0.3305471318 0.941772628
6800259200.0 0.3438947831 0.9369677869
6850258900.0 0.3557603386 0.9316848347
6900258600.0 0.367864362 0.926525636
6950258300.0 0.380604614 0.9212896363
7000258000.0 0.3925032857 0.9157996389
7050257700.0 0.4046908665 0.9097399206
7100257400.0 0.4176819463 0.9034832185
7150257100.0 0.4278839139 0.8982260133
7200256800.0 0.4408464791 0.8920812844
7250256500.0 0.452834675 0.8855222996
7300256200.0 0.465640532 0.8787662681
7350255900.0 0.4779912211 0.8721711765
7400255600.0 0.490952601 0.8644722247
7450255300.0 0.5071780804 0.8558397087
7500255000.0 0.5186489814 0.8488300139
7550254700.0 0.5320035998 0.8399892971
7600254400.0 0.5449529544 0.8317556242
7650254100.0 0.5568629909 0.824326184
7700253800.0 0.5683829754 0.8160998886
7750253500.0 0.5794820297 0.8084254102
7800253200.0 0.5900530647 0.8006987453
7850252900.0 0.600075803 0.7936089809
7900252600.0 0.6117056825 0.7849781791
7950252300.0 0.6203883284 0.7783761448
8000252000.0 0.6303261269 0.7707364249
8050251700.0 0.6411559424 0.7624842693
8100251400.0 0.6511250739 0.7544538259
8150251100.0 0.6611158488 0.7458128307
8200250800.0 0.6707537918 0.737777186
8250250500.0 0.6798448945 0.7297354582
8300250200.0 0.6885389191 0.721248549
8350249900.0 0.6973617506 0.7124655777
8400249600.0 0.7058650883 0.7044733704
8450249300.0 0.7153383985 0.6954299668
8500249000.0 0.7237978372 0.6864569349
8550248700.0 0.7324131418 0.6772468844
8600248400.0 0.7406187495 0.6676905466
8650248100.0 0.7483723388 0.6583635789
8700247800.0 0.7578570594 0.6472617271
8750247500.0 0.7662914701 0.6371997613
8800247200.0 0.7745190903 0.6266544181
8850246900.0 0.7829941194 0.6153655814
8900246600.0 0.7918068579 0.6039913121
8950246300.0 0.8014363579 0.5909130998
9000246000.0 0.8101791033 0.578399557
9050245700.0 0.8191500394 0.5652879839
9100245400.0 0.8279837521 0.5527165498
9150245100.0 0.8373134637 0.5391340948
9200244800.0 0.8470714356 0.5240732671
9250244500.0 0.8565793029 0.5088561023
9300244200.0 0.8650949129 0.4941706957
9350243900.0 0.8726490228 0.4804463233
9400243600.0 0.8795470743 0.4681074733
9450243300.0 0.8853399325 0.456588451
9500243000.0 0.891479111 0.4444119376
9550242700.0 0.8954137617 0.4365921057
9600242400.0 0.8992932419 0.4292356356
9650242100.0 0.9031019659 0.4227501152
9700241800.0 0.9077832624 0.4145145789
9750241500.0 0.9115517905 0.4068599846
9800241200.0 0.9164233982 0.3978449791
9850240900.0 0.9221217204 0.386040655
9900240600.0 0.9275425007 0.374675643
9950240300.0 0.9342540871 0.3585884824
10000240000.0 0.9384904135 0.3468347049
10050239700.0 0.9444792904 0.3317023707
10100239400.0 0.949780447 0.3160897415
10150239100.0 0.9538218898 0.3015605782
10200238800.0 0.9581807207 0.2862967326
10250238500.0 0.9614394433 0.2730593223
10300238200.0 0.9644931946 0.2592141042
10350237900.0 0.9672636879 0.2459366829
10400237600.0 0.9697766097 0.2327634882
10450237300.0 0.9723813152 0.2186903143
10500237000.0 0.9747375757 0.2066196292
10550236700.0 0.9771916738 0.1924002097
10600236400.0 0.9791826691 0.1789210891
10650236100.0 0.98111339 0.1647181084
10700235800.0 0.9840182151 0.1519130716
10750235500.0 0.98574132 0.1384598998
10800235200.0 0.9877384715 0.1246517958
10850234900.0 0.9897832616 0.1097968635
10900234600.0 0.9917487168 0.0952817968
10950234300.0 0.9934888446 0.0820070402
11000234000.0 0.9951453206 0.0669793278
11050233700.0 0.9969518874 0.0506198207
11100233400.0 0.9984452192 0.0333067473
11150233100.0 0.9996235244 0.0172534849
11200232800.0 0.9998767668 0.0017398151
11250232500.0 1.001314119 -0.0140513828
11300232200.0 1.002115427 -0.0324846101
11350231900.0 1.001788426 -0.0473567218
11400231600.0 1.001843863 -0.0637129646
11450231300.0 1.001524512 -0.0798568437
11500231000.0 1.000039205 -0.0951479747
11550230700.0 0.9984269158 -0.108019311
11600230400.0 0.9974809509 -0.1222156524
11650230100.0 0.9950846026 -0.1328872555
11700229800.0 0.9932682206 -0.1475894997
11750229500.0 0.9910908006 -0.1618835023
11800229200.0 0.988347327 -0.1754142841
11850228900.0 0.9846992372 -0.1879508553
11900228600.0 0.9809055081 -0.1977811881
11950228300.0 0.9781811122 -0.2086351226
12000228000.0 0.9752909197 -0.2172308872
12050227700.0 0.971484247 -0.2301634269
12100227400.0 0.9685724633 -0.2405589263
12150227100.0 0.9632097768 -0.2575447537
12200226800.0 0.9597390327 -0.2682614246
12250226500.0 0.955919747 -0.28162511
12300226200.0 0.9514320025 -0.293322171
12350225900.0 0.9464800773 -0.3077016884
12400225600.0 0.9425685723 -0.3204399633
12450225300.0 0.9379538067 -0.3332650591
12500225000.0 0.9324001571 -0.3480291416
12550224700.0 0.9271240257 -0.3619389486
12600224400.0 0.9220329586 -0.3747397344
12650224100.0 0.9162706396 -0.3891832151
12700223800.0 0.9111289319 -0.4019699466
12750223500.0 0.9055059935 -0.4151407709
12800223200.0 0.9001576438 -0.4278940779
12850222900.0 0.8948494841 -0.4400036126
12900222600.0 0.8892682829 -0.4518779443
12950222300.0 0.8829044333 -0.4651302016
13000222000.0 0.8771266319 -0.4764628591
13050221700.0 0.8702338108 -0.4883829139
13100221400.0 0.863749684 -0.5003849942
13150221100.0 0.8570990385 -0.5123291825
13200220800.0 0.8501524957 -0.5242590563
13250220500.0 0.8426769819 -0.5367669745
13300220200.0 0.8352544843 -0.5472840451
13350219900.0 0.8271641327 -0.5594489762
13400219600.0 0.81902023 -0.5717244063
13450219300.0 0.8093916419 -0.5851374144
13500219000.0 0.799654431 -0.5990210161
13550218700.0 0.7893263345 -0.6117131851
13600218400.0 0.7795787551 -0.6234233593
13650218100.0 0.7693846883 -0.6341964853
13700217800.0 0.7584298995 -0.6471107721
13750217500.0 0.7490787249 -0.6573595668
13800217200.0 0.7374526259 -0.6699469735
13850216900.0 0.7267201404 -0.6812157549
13900216600.0 0.7165656397 -0.6906374468
13950216300.0 0.7053444735 -0.7007672452
14000216000.0 0.6955564401 -0.7103847258
14050215700.0 0.6861723177 -0.7188919295
14100215400.0 0.6764775019 -0.7273111772
14150215100.0 0.666993831 -0.7361549979
14200214800.0 0.6577011491 -0.7447428511
14250214500.0 0.6474275153 -0.7541506261
14300214200.0 0.6369308633 -0.7635608377
14350213900.0 0.6257411302 -0.7732374197
14400213600.0 0.6142726949 -0.7828060498
14450213300.0 0.6012821859 -0.7928328454
14500213000.0 0.5880052049 -0.8031705282
14550212700.0 0.5748960029 -0.8124850231
14600212400.0 0.5627961363 -0.8214557049
14650212100.0 0.5500408456 -0.8303590513
14700211800.0 0.535964535 -0.8395507941
14750211500.0 0.5238656348 -0.84759819
14800211200.0 0.5114991042 -0.8559384767
14850210900.0 0.4995326997 -0.8633064923
14900210600.0 0.4864086072 -0.8711717453
14950210300.0 0.4730835675 -0.8789002843
15000210000.0 0.4603327314 -0.8857007845
15050209700.0 0.4480417556 -0.8913923087
15100209400.0 0.4358022748 -0.8977985122
15150209100.0 0.4227000491 -0.9028349357
15200208800.0 0.4106433169 -0.9083726755
15250208500.0 0.3988546674 -0.9128665423
15300208200.0 0.3865733039 -0.9182748323
15350207900.0 0.3727839779 -0.9226062403
15400207600.0 0.3586802229 -0.9276407973
15450207300.0 0.3446943688 -0.9328632398
15500207000.0 0.3304813785 -0.9374660735
15550206700.0 0.3147688237 -0.9427055504
15600206400.0 0.2994713021 -0.9469147435
15650206100.0 0.2835651466 -0.9516306977
15700205800.0 0.2693271738 -0.955151708
15750205500.0 0.2549786483 -0.9587041765
15800205200.0 0.2406074079 -0.9620276638
15850204900.0 0.2262171746 -0.9653243946
15900204600.0 0.2110042364 -0.9691894118
15950204300.0 0.1969783403 -0.9720269861
16000204000.0 0.182514555 -0.975006603
16050203700.0 0.1677059232 -0.9777717558
16100203400.0 0.1537632985 -0.9799730689
16150203100.0 0.1385238682 -0.9824030145
16200202800.0 0.1244635217 -0.9842000472
16250202500.0 0.1095319961 -0.9861070168
16300202200.0 0.09449054 -0.9879928797
16350201900.0 0.0797062368 -0.989543337
16400201600.0 0.0646599839 -0.9903634346
16450201300.0 0.0495694754 -0.9913504419
16500201000.0 0.0330019697 -0.9921491961
16550200700.0 0.017356323 -0.9927669557
16600200400.0 0.0016670612 -0.9931964739
16650200100.0 -0.0145495088 -0.9930155866
16700199800.0 -0.0307505999 -0.9924368792
16750199500.0 -0.0490605038 -0.9920174993
16800199200.0 -0.0648800231 -0.991083278
16850198900.0 -0.0802155713 -0.9895926617
16900198600.0 -0.0942245492 -0.988939138
16950198300.0 -0.1075250515 -0.9872836632
17000198000.0 -0.1200766783 -0.9863181278
17050197700.0 -0.1334984179 -0.984439247
17100197400.0 -0.1461156707 -0.9819711236
17150197100.0 -0.1588572883 -0.9801501178
17200196800.0 -0.1713907526 -0.9782233791
17250196500.0 -0.1843018642 -0.9758857301
17300196200.0 -0.1964369654 -0.9738190369
17350195900.0 -0.2083801091 -0.9714008735
17400195600.0 -0.2207608249 -0.9687962649
17450195300.0 -0.2338079931 -0.9659656757
17500195000.0 -0.2470773003 -0.9628127174
17550194700.0 -0.260876145 -0.9590935412
17600194400.0 -0.2749903731 -0.9551619833
17650194100.0 -0.2885911725 -0.9509557921
17700193800.0 -0.3016841415 -0.9469260851
17750193500.0 -0.3164820658 -0.9421299253
17800193200.0 -0.3304699986 -0.9374711215
17850192900.0 -0.3455568293 -0.9316047986
17900192600.0 -0.3612487437 -0.9255378025
17950192300.0 -0.3767515812 -0.9184772536
18000192000.0 -0.391271159 -0.9113580684
18050191700.0 -0.4050794632 -0.9034955375
18100191400.0 -0.4193705046 -0.8957673365
18150191100.0 -0.4343368762 -0.887760054
18200190800.0 -0.4513422429 -0.8786644884
18250190500.0 -0.4680580756 -0.8694158451
18300190200.0 -0.4836579672 -0.8607746253
18350189900.0 -0.4985598099 -0.8518278631
18400189600.0 -0.5130114509 -0.8434787953
18450189300.0 -0.5260899358 -0.8359452074
18500189000.0 -0.5399355992 -0.8282237406
18550188700.0 -0.552489657 -0.8201896879
18600188400.0 -0.5641506171 -0.814027558
18650188100.0 -0.5752767939 -0.8073510944
18700187800.0 -0.586041039 -0.8008450391
18750187500.0 -0.5966622535 -0.7941808139
18800187200.0 -0.607059357 -0.7869888758
18850186900.0 -0.6173419237 -0.7801127488
18900186600.0 -0.6275467417 -0.772975966
18950186300.0 -0.6374451072 -0.7651461064
19000186000.0 -0.6447405967 -0.7589535781
19050185700.0 -0.6541952898 -0.7517496059
19100185400.0 -0.6643559344 -0.7433808705
19150185100.0 -0.6746419367 -0.7353556955
19200184800.0 -0.6832832069 -0.7273096089
19250184500.0 -0.6938100434 -0.7174125975
19300184200.0 -0.7049341258 -0.7083271802
19350183900.0 -0.7158966687 -0.6983995889
19400183600.0 -0.7262830335 -0.6883319655
19450183300.0 -0.7347914658 -0.6787069725
19500183000.0 -0.7431056975 -0.6684218992
19550182700.0 -0.7529769162 -0.6574679093
19600182400.0 -0.7631351605 -0.646192369
19650182100.0 -0.7738051812 -0.6335226103
19700181800.0 -0.7846054107 -0.6200480473
19750181500.0 -0.7952849116 -0.6059701879
19800181200.0 -0.8054571362 -0.5911264711
19850180900.0 -0.8152796301 -0.5758404107
19900180600.0 -0.8231548905 -0.5611333748
19950180300.0 -0.8325852321 -0.5445867839
20000180000.0 -0.8253119487 -0.5470208132
20050179700.0 -0.8332341264 -0.5341365986
20100179400.0 -0.8422964685 -0.5206917069
20150179100.0 -0.850740299 -0.5082004533
20200178800.0 -0.8596053487 -0.4948206005
20250178500.0 -0.8687178707 -0.4813458004
20300178200.0 -0.8783667997 -0.4671745104
20350177900.0 -0.887173676 -0.4525436347
20400177600.0 -0.8963521673 -0.4384820249
20450177300.0 -0.9048878202 -0.4239832344
20500177000.0 -0.9125211329 -0.410061601
20550176700.0 -0.9207840184 -0.3963638549
20600176400.0 -0.9272897854 -0.3833945362
20650176100.0 -0.9339408258 -0.3711454117
20700175800.0 -0.9411297797 -0.3593609253
20750175500.0 -0.9470295394 -0.3478093756
20800175200.0 -0.9521252905 -0.3368307255
20850174900.0 -0.9568745984 -0.3263418443
20900174600.0 -0.9615245379 -0.315053186
20950174300.0 -0.9651274812 -0.3027995167
21000174000.0 -0.9685769268 -0.2920875442
21050173700.0 -0.9712927025 -0.2809464879
21100173400.0 -0.9759699071 -0.2689613772
21150173100.0 -0.9794685622 -0.2568345271
21200172800.0 -0.9835247436 -0.2434711499
21250172500.0 -0.9862054378 -0.2298078621
21300172200.0 -0.9891671859 -0.2154775373
21350171900.0 -0.9904648904 -0.2014163467
21400171600.0 -0.9917174934 -0.1870977449
21450171300.0 -0.9920815165 -0.1718547417
21500171000.0 -0.9917591707 -0.1568939169
21550170700.0 -0.9914860573 -0.1416803771
21600170400.0 -0.9919646036 -0.1263011886
21650170100.0 -0.9919405004 -0.1099845714
21700169800.0 -0.9898348562 -0.0955017099
21750169500.0 -0.9893346727 -0.0795427641
21800169200.0 -0.9887241107 -0.0608391202
21850168900.0 -0.98759265 -0.0449882193
21900168600.0 -0.9855745561 -0.0290836552
21950168300.0 -0.9847323268 -0.0130030813
22000168000.0 -0.9838193394 0.0018097425
22050167700.0 -0.9836096692 0.016286349
22100167400.0 -0.9837435707 0.0312131674
22150167100.0 -0.9846703683 0.0467095403
22200166800.0 -0.9846496993 0.0632326762
22250166500.0 -0.9842349937 0.0806395136
22300166200.0 -0.9830215675 0.096843109
22350165900.0 -0.9825596318 0.113225756
22400165600.0 -0.9806288126 0.1293952946
22450165300.0 -0.9775887345 0.1441270138
22500165000.0 -0.9765906095 0.1572315713
22550164700.0 -0.9759517974 0.172911558
22600164400.0 -0.9742814572 0.1883960193
22650164100.0 -0.9721053849 0.2033385468
22700163800.0 -0.9695328992 0.2196420548
22750163500.0 -0.9669168241 0.234392361
22800163200.0 -0.9635135982 0.2475995274
22850162900.0 -0.9613036805 0.2609955432
22900162600.0 -0.9601613301 0.274102075
22950162300.0 -0.958998602 0.2870485337
23000162000.0 -0.9575796248 0.2986644042
23050161700.0 -0.9551090389 0.3112636615
23100161400.0 -0.9532415749 0.3242679443
23150161100.0 -0.9505062399 0.3367184853
23200160800.0 -0.947647867 0.3489303802
23250160500.0 -0.944918577 0.3604763787
23300160200.0 -0.9424201636 0.372902532
23350159900.0 -0.9381793476 0.3858507356
23400159600.0 -0.9347140753 0.3988665627
23450159300.0 -0.9290535406 0.412526565
23500159000.0 -0.9245911407 0.4257372916
23550158700.0 -0.9198639058 0.4388482927
23600158400.0 -0.914700418 0.4521552075
23650158100.0 -0.9086233248 0.4662691929
23700157800.0 -0.9008785926 0.4802849124
23750157500.0 -0.8925883365 0.4944199679
23800157200.0 -0.8834188517 0.5072826006
23850156900.0 -0.8749908192 0.5203575103
23900156600.0 -0.8651714729 0.5328501827
23950156300.0 -0.8571677558 0.5451782374
24000156000.0 -0.8478070848 0.5570143046
24050155700.0 -0.8377113735 0.5685960048
24100155400.0 -0.827918364 0.5805983502
24150155100.0 -0.8171426237 0.5926892884
24200154800.0 -0.8056033392 0.6037681895
24250154500.0 -0.7949655559 0.6156746875
24300154200.0 -0.783459336 0.6275296263
24350153900.0 -0.7712973471 0.638492255
24400153600.0 -0.7590222005 0.6483307164
24450153300.0 -0.74723854 0.6584328165
24500153000.0 -0.7357137349 0.6679565102
24550152700.0 -0.7246298 0.6775584482
24600152400.0 -0.7122693447 0.6868999342
24650152100.0 -0.7014587698 0.695241613
