!Created with skrf (http://scikit-rf.org).
# Hz S RI R 50.0 
!freq ReS11 ImS11
300000.0 -0.9743222554 -0.1208715295
50299700.0 -1.000072621 0.015132529
100299400.0 -0.9979628269 0.0280816368
150299100.0 -1.002881516 0.0450736126
200298800.0 -0.9996285568 0.0583306312
250298500.0 -0.9973964948 0.0717823291
300298200.0 -0.9858650223 0.0874928368
350297900.0 -0.9940186966 0.0985975932
400297600.0 -0.9933869432 0.1151450495
450297300.0 -0.9909870063 0.1288983443
500297000.0 -0.9895436798 0.1438205577
550296700.0 -0.984237932 0.1561679571
600296400.0 -1.017411629 0.1894011414
650296100.0 -0.9822019193 0.1858940603
700295800.0 -0.9796307221 0.2001694613
750295500.0 -0.9763956504 0.2141149475
800295200.0 -0.9730139011 0.2283567493
850294900.0 -0.9696603059 0.2422695247
900294600.0 -0.9658442043 0.2558346522
950294300.0 -0.9622932696 0.2695110579
1000294000.0 -0.958199674 0.2835544773
1050293700.0 -0.9535456408 0.2973569913
1100293400.0 -0.9495132245 0.3117908669
1150293100.0 -0.9454327743 0.3236364527
1200292800.0 -0.9403702269 0.3379667501
1250292500.0 -0.9347480049 0.351354958
1300292200.0 -0.9290141514 0.3646690535
1350291900.0 -0.9235821823 0.3788625219
1400291600.0 -0.9180330389 0.3917954857
1450291300.0 -0.9124498579 0.4043264167
1500291000.0 -0.9061733281 0.4175846895
1550290700.0 -0.8997292446 0.4309813022
1600290400.0 -0.8934039789 0.4437234866
1650290100.0 -0.8868057051 0.4559042317
1700289800.0 -0.8800372552 0.4695045179
1750289500.0 -0.8728175951 0.481687694
1800289200.0 -0.8655039259 0.4944272118
1850288900.0 -0.8587201772 0.5059299243
1900288600.0 -0.8510303292 0.5189693359
1950288300.0 -0.8428562776 0.5314705335
2000288000.0 -0.8354430857 0.5429594321
2050287700.0 -0.8272985458 0.5555095464
2100287400.0 -0.8192031005 0.5667889982
2150287100.0 -0.810876917 0.5787030145
2200286800.0 -0.8031063595 0.589465025
2250286500.0 -0.7941460274 0.6012665423
2300286200.0 -0.7852077648 0.6129921671
2350285900.0 -0.7766646787 0.6238978232
2400285600.0 -0.7677895414 0.6347486015
2450285300.0 -0.7590270766 0.6452119162
2500285000.0 -0.7493039022 0.6566775375
2550284700.0 -0.7402433164 0.6667766006
2600284400.0 -0.7309831577 0.6770273968
2650284100.0 -0.7223102725 0.6875441774
2700283800.0 -0.7112668644 0.6980406007
2750283500.0 -0.7012753946 0.7086639989
2800283200.0 -0.6914278274 0.7180905691
2850282900.0 -0.6811391255 0.7285304915
2900282600.0 -0.6705730488 0.7378103369
2950282300.0 -0.6606090651 0.7470497523
3000282000.0 -0.6498363724 0.7566595629
3050281700.0 -0.6384908185 0.7658857066
3100281400.0 -0.6268596872 0.7750354104
3150281100.0 -0.6151656823 0.784396754
3200280800.0 -0.6036614474 0.7930441033
3250280500.0 -0.5924883602 0.8007079161
3300280200.0 -0.5812462049 0.8087557461
3350279900.0 -0.569665089 0.816236185
3400279600.0 -0.5574518442 0.824178921
3450279300.0 -0.5462454711 0.8311150166
3500279000.0 -0.5342781561 0.8383743102
3550278700.0 -0.5219986364 0.8455555936
3600278400.0 -0.5099404243 0.852671794
3650278100.0 -0.4966447374 0.8600627229
3700277800.0 -0.4844689724 0.8668297028
3750277500.0 -0.4724725395 0.8732211129
3800277200.0 -0.4598098555 0.8795703706
3850276900.0 -0.4478908424 0.8856944861
3900276600.0 -0.4369811492 0.8912893835
3950276300.0 -0.4246156842 0.8973296846
4000276000.0 -0.4127563447 0.9034006877
4050275700.0 -0.3997108345 0.9094281826
4100275400.0 -0.3885152657 0.9149548941
4150275100.0 -0.37583907 0.9202665628
4200274800.0 -0.362921058 0.9260869949
4250274500.0 -0.3503496871 0.9313121363
4300274200.0 -0.3374792981 0.9365741416
4350273900.0 -0.3236591473 0.9420357007
4400273600.0 -0.3086554974 0.9469294793
4450273300.0 -0.2935675391 0.9522521964
4500273000.0 -0.2799806144 0.9567429008
4550272700.0 -0.2661056847 0.9607379592
4600272400.0 -0.2506345699 0.9649388527
4650272100.0 -0.238918777 0.96811473
4700271800.0 -0.2259011335 0.9714664077
4750271500.0 -0.2141396349 0.9743650874
4800271200.0 -0.2016942778 0.9770532014
4850270900.0 -0.1877495737 0.9798073682
4900270600.0 -0.1739499038 0.98211237
4950270300.0 -0.1595414733 0.9849562693
5000270000.0 -0.1452998277 0.9869624167
5050269700.0 -0.1317685181 0.9884271179
5100269400.0 -0.1179468015 0.9905295132
5150269100.0 -0.1044185954 0.9921883294
5200268800.0 -0.0912909764 0.9931043119
5250268500.0 -0.0781615615 0.9935439273
5300268200.0 -0.0648761793 0.9944119098
5350267900.0 -0.0523921074 0.9951585034
5400267600.0 -0.036342725 0.9964057325
5450267300.0 -0.0231157584 0.9965950004
5500267000.0 -0.007794415 0.9970272457
5550266700.0 0.007105143 0.9972583743
5600266400.0 0.0228471038 0.9974563158
5650266100.0 0.0390900626 0.9968460007
5700265800.0 0.0534680594 0.9959862696
5750265500.0 0.0687795626 0.9957783663
5800265200.0 0.0825258886 0.9942608283
5850264900.0 0.0956203714 0.993082477
5900264600.0 0.1127743688 0.9919968949
5950264300.0 0.1245256408 0.9900234094
6000264000.0 0.1379176279 0.987908815
6050263700.0 0.150543528 0.9871588999
6100263400.0 0.1629780876 0.9853643578
6150263100.0 0.1773598904 0.9826718615
6200262800.0 0.1875245263 0.9806446906
6250262500.0 0.2002995492 0.9785202346
6300262200.0 0.2128877593 0.9758593263
6350261900.0 0.2256136913 0.9729428519
6400261600.0 0.2398764078 0.9697355772
6450261300.0 0.2511248855 0.96701002
6500261000.0 0.2641469322 0.9636237738
6550260700.0 0.2771533789 0.9595779608
6600260400.0 0.2903288275 0.9556310099
6650260100.0 0.3043968224 0.9510947314
6700259800.0 0.3165818101 0.9472500732
6750259500.0 0.3301642619 0.9418820456
6800259200.0 0.3435480103 0.9370494753
6850258900.0 0.3554693774 0.931649636
6900258600.0 0.3678712237 0.9266868227
6950258300.0 0.3802153686 0.9214023535
7000258000.0 0.3922544989 0.9158986516
7050257700.0 0.4044213876 0.9099085428
7100257400.0 0.4173575162 0.9037074383
7150257100.0 0.4278944395 0.8981564172
7200256800.0 0.4406519607 0.8919657802
7250256500.0 0.4526106172 0.8854465267
7300256200.0 0.4656577364 0.8788626118
7350255900.0 0.4783671985 0.8718403923
7400255600.0 0.4921352863 0.8645117043
7450255300.0 0.5079429609 0.8558695375
7500255000.0 0.5194019765 0.8485383629
7550254700.0 0.5329349911 0.8396658956
7600254400.0 0.5458040125 0.8314978629
7650254100.0 0.5571472411 0.823589988
7700253800.0 0.5689262921 0.8155459224
7750253500.0 0.5801244356 0.8078721646
7800253200.0 0.5904696639 0.8001396252
7850252900.0 0.6004578524 0.7931529254
7900252600.0 0.612093364 0.7843207008
7950252300.0 0.6207213964 0.7780160306
8000252000.0 0.6307867371 0.7704245492
8050251700.0 0.6413047548 0.7620808629
8100251400.0 0.6513036445 0.7540196575
8150251100.0 0.6614101705 0.7453396324
8200250800.0 0.6705324869 0.7374255718
8250250500.0 0.6795058201 0.7297298791
8300250200.0 0.6888565545 0.7207900549
8350249900.0 0.6978526195 0.7122032414
8400249600.0 0.706329347 0.7041332131
8450249300.0 0.7150523809 0.6950900915
8500249000.0 0.7238879216 0.686274402
8550248700.0 0.7322699324 0.6771563194
8600248400.0 0.7406867369 0.667654259
8650248100.0 0.7483341891 0.6580349386
8700247800.0 0.7579603302 0.6469383877
8750247500.0 0.7662405854 0.6368532627
8800247200.0 0.7742925244 0.6265610022
8850246900.0 0.7828864161 0.6151532406
8900246600.0 0.7913257602 0.6037824554
8950246300.0 0.8011893019 0.5906785573
9000246000.0 0.8104919178 0.5783505798
9050245700.0 0.8188436786 0.5655506261
9100245400.0 0.8276001925 0.5528952305
9150245100.0 0.8369239021 0.5396960995
9200244800.0 0.846418371 0.5245108729
9250244500.0 0.8558704536 0.5092445189
9300244200.0 0.8641112022 0.4951085639
9350243900.0 0.8718878021 0.4815524111
9400243600.0 0.8785084961 0.4692943186
9450243300.0 0.8843716568 0.4579470831
9500243000.0 0.8906056753 0.4461140804
9550242700.0 0.8944550058 0.4383869513
9600242400.0 0.8983675501 0.4308342086
9650242100.0 0.901929701 0.4245325664
9700241800.0 0.9069066275 0.4159896388
9750241500.0 0.9110397278 0.4087574554
9800241200.0 0.9159062303 0.3991886007
9850240900.0 0.9214430549 0.3877147557
9900240600.0 0.9270333745 0.3759897481
9950240300.0 0.9339200301 0.3594940482
10000240000.0 0.9387237663 0.3480969267
10050239700.0 0.944657645 0.3323220504
10100239400.0 0.9495042434 0.3167212301
10150239100.0 0.9538540159 0.3016971386
10200238800.0 0.9580598481 0.2867704101
10250238500.0 0.9614782289 0.273367318
10300238200.0 0.9646637921 0.2591988503
10350237900.0 0.9671361249 0.246280552
10400237600.0 0.969766756 0.2329049979
10450237300.0 0.9724211197 0.2190814425
10500237000.0 0.9748253466 0.2064118067
10550236700.0 0.9771866282 0.1927251789
10600236400.0 0.9789155717 0.1791124691
10650236100.0 0.9812449813 0.1643119275
10700235800.0 0.983435517 0.1521086087
10750235500.0 0.9855587964 0.1386166281
10800235200.0 0.9875298252 0.1243974368
10850234900.0 0.9897937975 0.1097753135
10900234600.0 0.9917588507 0.0950053696
10950234300.0 0.9935592966 0.0820008943
11000234000.0 0.9952708771 0.0665638378
11050233700.0 0.9970739705 0.0502150208
11100233400.0 0.9986165331 0.0325163785
11150233100.0 0.9992966415 0.0164604053
11200232800.0 1.000126653 0.001127657
11250232500.0 1.001058185 -0.0159740582
11300232200.0 1.002020733 -0.0336377685
11350231900.0 1.001991216 -0.0496678401
11400231600.0 1.001620354 -0.0649664455
11450231300.0 1.000949812 -0.0812691465
11500231000.0 1.000186495 -0.0965308757
11550230700.0 0.9987259611 -0.1100734147
11600230400.0 0.9974385982 -0.1227397305
11650230100.0 0.994735036 -0.1349016635
11700229800.0 0.9929436204 -0.1489869164
11750229500.0 0.9907023373 -0.1635140862
11800229200.0 0.9882088174 -0.1770833428
11850228900.0 0.9843478666 -0.189213917
11900228600.0 0.9808450236 -0.1988697524
11950228300.0 0.9775707353 -0.2088910969
12000228000.0 0.9748015498 -0.2183053825
12050227700.0 0.9705947024 -0.2313497881
12100227400.0 0.9676234181 -0.2420618103
12150227100.0 0.963237286 -0.2586110633
12200226800.0 0.9590088417 -0.2694651025
12250226500.0 0.9551525212 -0.2828925865
12300226200.0 0.9513868938 -0.2946188957
12350225900.0 0.9469022911 -0.3081486894
12400225600.0 0.9419262593 -0.3205956921
12450225300.0 0.9377114874 -0.3339744969
12500225000.0 0.9320124902 -0.3489605827
12550224700.0 0.9263801783 -0.3627551351
12600224400.0 0.9216940201 -0.3756776617
12650224100.0 0.9158085005 -0.3901036
12700223800.0 0.9104691509 -0.4029927389
12750223500.0 0.905142399 -0.4158148165
12800223200.0 0.8997241992 -0.428474955
12850222900.0 0.8941923599 -0.4405482606
12900222600.0 0.8884886899 -0.45327997
12950222300.0 0.8823876669 -0.4652599242
13000222000.0 0.8762444676 -0.4771686846
13050221700.0 0.8697369759 -0.4897956727
13100221400.0 0.8629236904 -0.5017952805
13150221100.0 0.8566031807 -0.5138627756
13200220800.0 0.8492690071 -0.5255604742
13250220500.0 0.8423330843 -0.5377735675
13300220200.0 0.8346123612 -0.5485085259
13350219900.0 0.8267144815 -0.5601993299
13400219600.0 0.8183573495 -0.5724862357
13450219300.0 0.8087391375 -0.5856884886
13500219000.0 0.7992718482 -0.5991453596
13550218700.0 0.7890261159 -0.6121501536
13600218400.0 0.778613033 -0.6242211652
13650218100.0 0.7693666346 -0.6353299815
13700217800.0 0.758043573 -0.647185336
13750217500.0 0.7484672403 -0.6586703522
13800217200.0 0.7373185907 -0.6694295527
13850216900.0 0.72649127 -0.6812228834
13900216600.0 0.7172336977 -0.6903685952
13950216300.0 0.7059657736 -0.7003668154
14000216000.0 0.6955827418 -0.7100022039
14050215700.0 0.6861260831 -0.7177821869
14100215400.0 0.6764790561 -0.7270445592
14150215100.0 0.6671547976 -0.7358319068
14200214800.0 0.657736336 -0.744753398
14250214500.0 0.6473786218 -0.7540220296
14300214200.0 0.6368174968 -0.763561178
14350213900.0 0.6259309698 -0.7728272083
14400213600.0 0.6140125968 -0.7827038087
14450213300.0 0.600727827 -0.7931372414
14500213000.0 0.5877215373 -0.8027729935
14550212700.0 0.5751598931 -0.8125496865
14600212400.0 0.5635119833 -0.8206083659
14650212100.0 0.5501547659 -0.829454948
14700211800.0 0.5364874538 -0.8393475508
14750211500.0 0.5243459543 -0.8478565424
14800211200.0 0.5115788219 -0.8556882383
14850210900.0 0.4998649138 -0.8633281609
14900210600.0 0.4863412275 -0.8710526724
14950210300.0 0.4729962975 -0.8787508725
15000210000.0 0.4602711442 -0.8856146657
15050209700.0 0.4478523115 -0.8914858733
15100209400.0 0.4353135276 -0.8974182733
15150209100.0 0.423088903 -0.9027914597
15200208800.0 0.4104738611 -0.9085611847
15250208500.0 0.399137682 -0.9133063623
15300208200.0 0.3869337349 -0.9170699751
15350207900.0 0.3733541726 -0.9222787207
15400207600.0 0.3587071211 -0.9281196867
15450207300.0 0.3454756121 -0.9331160631
15500207000.0 0.329638706 -0.937522709
15550206700.0 0.3152722747 -0.9418736517
15600206400.0 0.2991407549 -0.9466588588
15650206100.0 0.2835272773 -0.9513306515
15700205800.0 0.2697161719 -0.9550364513
15750205500.0 0.2553567925 -0.9583396773
15800205200.0 0.2410033356 -0.961751204
15850204900.0 0.2266565517 -0.965198446
15900204600.0 0.2117260393 -0.9689133764
15950204300.0 0.1973585201 -0.9720562502
16000204000.0 0.1831267509 -0.9750575268
16050203700.0 0.1679353725 -0.9776621461
16100203400.0 0.1532395713 -0.9799075472
16150203100.0 0.1390144259 -0.9823870034
16200202800.0 0.12516014 -0.984911683
16250202500.0 0.1097280126 -0.9859245127
16300202200.0 0.0943252801 -0.9878645571
16350201900.0 0.0796936551 -0.9891478777
16400201600.0 0.0649801729 -0.9901617445
16450201300.0 0.0495390729 -0.9912546499
16500201000.0 0.0327323905 -0.9920674157
16550200700.0 0.0169971271 -0.992500441
16600200400.0 0.0010974409 -0.9929273315
16650200100.0 -0.0148851243 -0.9928181881
16700199800.0 -0.0315407506 -0.992554894
16750199500.0 -0.049907064 -0.9915890119
16800199200.0 -0.0652920165 -0.9905484741
16850198900.0 -0.0807394917 -0.9897876329
16900198600.0 -0.0952455427 -0.9888549408
16950198300.0 -0.1077380775 -0.9871190374
17000198000.0 -0.1208749733 -0.9857828606
17050197700.0 -0.1332440405 -0.9841716711
17100197400.0 -0.1466952083 -0.9822788464
17150197100.0 -0.1591509034 -0.9800311418
17200196800.0 -0.1720836585 -0.9785803786
17250196500.0 -0.1849942737 -0.9758089764
17300196200.0 -0.1971156334 -0.9735634589
17350195900.0 -0.2091483779 -0.9712781963
17400195600.0 -0.2214158563 -0.9687026856
17450195300.0 -0.2344472217 -0.9658767581
17500195000.0 -0.2477107166 -0.962599651
17550194700.0 -0.261674451 -0.9592374069
17600194400.0 -0.2757048019 -0.9549010191
17650194100.0 -0.2890759601 -0.9506805883
17700193800.0 -0.3023266664 -0.9468274148
17750193500.0 -0.3164521689 -0.9421964428
17800193200.0 -0.3312250333 -0.9370195894
17850192900.0 -0.3460752788 -0.9315582833
17900192600.0 -0.3614455941 -0.925730961
17950192300.0 -0.3767366743 -0.9182985178
18000192000.0 -0.3915568707 -0.9110290879
18050191700.0 -0.4055620376 -0.9031219286
18100191400.0 -0.4196810492 -0.8954551227
18150191100.0 -0.4346650323 -0.8874901319
18200190800.0 -0.4517506357 -0.8782966313
18250190500.0 -0.4684887445 -0.8689370449
18300190200.0 -0.4840837482 -0.8604019846
18350189900.0 -0.4989324602 -0.8521668346
18400189600.0 -0.5134597285 -0.8434509627
18450189300.0 -0.5267554934 -0.8354340465
18500189000.0 -0.5398042442 -0.8275299234
18550188700.0 -0.552272791 -0.8202448725
18600188400.0 -0.5645448444 -0.8132573771
18650188100.0 -0.5755837058 -0.806966494
18700187800.0 -0.5862935767 -0.800228701
18750187500.0 -0.5971418625 -0.7937003217
18800187200.0 -0.6077316503 -0.7866699932
18850186900.0 -0.6178478285 -0.7799251459
18900186600.0 -0.6280863673 -0.7723649591
18950186300.0 -0.6381277911 -0.764722553
19000186000.0 -0.64546456 -0.7585932672
19050185700.0 -0.6545440291 -0.7515607292
19100185400.0 -0.6646947609 -0.7431942815
19150185100.0 -0.6740634487 -0.7350648121
19200184800.0 -0.6842071156 -0.7263236789
19250184500.0 -0.6949767578 -0.7175810319
19300184200.0 -0.7053042747 -0.7077290495
19350183900.0 -0.7160362596 -0.6984204567
19400183600.0 -0.7256610078 -0.6878707343
19450183300.0 -0.734976664 -0.6785479738
19500183000.0 -0.7437899156 -0.6680747789
19550182700.0 -0.7533935934 -0.6574826353
19600182400.0 -0.7634875592 -0.6453634704
19650182100.0 -0.7742092658 -0.6331959975
19700181800.0 -0.7848240392 -0.6197833682
19750181500.0 -0.7955080298 -0.6057671535
19800181200.0 -0.8058135984 -0.5906601101
19850180900.0 -0.8154239101 -0.5754494036
19900180600.0 -0.8233661001 -0.5606769365
19950180300.0 -0.8323656608 -0.5445882052
20000180000.0 -0.8244175923 -0.5471994763
20050179700.0 -0.8328514194 -0.5339723039
20100179400.0 -0.841256973 -0.5203313685
20150179100.0 -0.8500738469 -0.5084410808
20200178800.0 -0.8583134649 -0.4959158963
20250178500.0 -0.8678699909 -0.4827594785
20300178200.0 -0.8770595378 -0.4681784703
20350177900.0 -0.8873294233 -0.4539906474
20400177600.0 -0.8953531603 -0.4394915912
20450177300.0 -0.9040576517 -0.4252911642
20500177000.0 -0.912281937 -0.411307164
20550176700.0 -0.9199151859 -0.3980014078
20600176400.0 -0.9268627096 -0.3849324423
20650176100.0 -0.9331197059 -0.3727801553
20700175800.0 -0.9407210614 -0.36027183
20750175500.0 -0.9462946648 -0.3495489776
20800175200.0 -0.9515161164 -0.3380289788
20850174900.0 -0.9561889774 -0.3268241168
20900174600.0 -0.9606820188 -0.3161269834
20950174300.0 -0.9642545899 -0.3051360625
21000174000.0 -0.9675765656 -0.2930478958
21050173700.0 -0.970135266 -0.283466587
21100173400.0 -0.973777735 -0.271254044
21150173100.0 -0.977615159 -0.2588882386
21200172800.0 -0.9815901591 -0.2458997431
21250172500.0 -0.984619258 -0.2320746103
21300172200.0 -0.9872683511 -0.2172465454
21350171900.0 -0.9893955672 -0.2032593581
21400171600.0 -0.9908282139 -0.1891898711
21450171300.0 -0.9915723542 -0.174902708
21500171000.0 -0.9913908241 -0.1598903688
21550170700.0 -0.991850875 -0.1433977903
21600170400.0 -0.9916674346 -0.1282245334
21650170100.0 -0.9910707293 -0.1131395683
21700169800.0 -0.9899191056 -0.0970589834
21750169500.0 -0.9893385998 -0.0808981374
21800169200.0 -0.9892071544 -0.066040618
21850168900.0 -0.987708863 -0.0491696997
21900168600.0 -0.9871340522 -0.0320937399
21950168300.0 -0.9855994194 -0.0162847953
22000168000.0 -0.9852162964 -0.0010257232
22050167700.0 -0.9851527751 0.0130678892
22100167400.0 -0.9854514465 0.0286508006
22150167100.0 -0.9859551732 0.0440220963
22200166800.0 -0.9864450239 0.0609452802
22250166500.0 -0.9860604132 0.0779248844
22300166200.0 -0.9858230638 0.0941548033
22350165900.0 -0.9847265196 0.1103985777
22400165600.0 -0.9820926618 0.1263336065
22450165300.0 -0.980986618 0.141171149
22500165000.0 -0.978200398 0.1556537872
22550164700.0 -0.9777590341 0.1703456632
22600164400.0 -0.9753526534 0.1866263534
22650164100.0 -0.9730946817 0.2010603149
22700163800.0 -0.9701141891 0.2173871193
22750163500.0 -0.9681499937 0.2323204817
22800163200.0 -0.9650091725 0.245422186
22850162900.0 -0.9625789978 0.2590830556
22900162600.0 -0.9611144902 0.2725466945
22950162300.0 -0.959839196 0.2853944518
23000162000.0 -0.9582338083 0.2977623513
23050161700.0 -0.956306149 0.3102523074
23100161400.0 -0.9538827618 0.3237860546
23150161100.0 -0.9510921609 0.3358912827
23200160800.0 -0.9481962656 0.3482818905
23250160500.0 -0.9459262192 0.3611205921
23300160200.0 -0.9428744479 0.3726292895
23350159900.0 -0.9392965054 0.3864033036
23400159600.0 -0.9342902196 0.3991420793
23450159300.0 -0.9297032536 0.4122933044
23500159000.0 -0.9250383273 0.4259570504
23550158700.0 -0.9203488331 0.4392845626
23600158400.0 -0.9144096151 0.4525616602
23650158100.0 -0.9082113477 0.4669731885
23700157800.0 -0.9004385601 0.4807069521
23750157500.0 -0.8916215474 0.4949469738
23800157200.0 -0.8825683183 0.5083943508
23850156900.0 -0.8736225114 0.5214926797
23900156600.0 -0.8641132918 0.5342115456
23950156300.0 -0.8549944808 0.5466039755
24000156000.0 -0.8462001819 0.5585778718
24050155700.0 -0.8355057519 0.5697470697
24100155400.0 -0.8257302946 0.5822267314
24150155100.0 -0.8148841497 0.5937700353
24200154800.0 -0.8036392788 0.6055816932
24250154500.0 -0.7923643219 0.6174656933
24300154200.0 -0.7812060466 0.6293156266
24350153900.0 -0.76940086 0.6398342396
24400153600.0 -0.7570533979 0.64990088
24450153300.0 -0.7449653988 0.6599266908
24500153000.0 -0.7337582281 0.6697937202
24550152700.0 -0.7228052522 0.6792834128
24600152400.0 -0.7113371117 0.6881687662
24650152100.0 -0.6992271716 0.6976982347
