!Created with skrf (http://scikit-rf.org).
# Hz S RI R 50.0 
!freq ReS11 ImS11
300000.0 -0.9770937029 -0.1196239769
50299700.0 -1.000040108 0.0153259919
100299400.0 -0.9981063392 0.0282567135
150299100.0 -1.002740495 0.0452074434
200298800.0 -0.999597437 0.0584444285
250298500.0 -0.9975323915 0.0718661944
300298200.0 -0.9861097227 0.0878919578
350297900.0 -0.9939809929 0.0986365901
400297600.0 -0.9932434606 0.1151108363
450297300.0 -0.9909931457 0.1290787109
500297000.0 -0.989502359 0.1437905197
550296700.0 -0.9843091688 0.1561767297
600296400.0 -1.017253571 0.1896530457
650296100.0 -0.9822306325 0.1860983218
700295800.0 -0.9794510072 0.2003271633
750295500.0 -0.976440254 0.2144528584
800295200.0 -0.9731016355 0.2284805107
850294900.0 -0.9697386345 0.2421967891
900294600.0 -0.9658013499 0.2559719507
950294300.0 -0.9620506862 0.2698055182
1000294000.0 -0.9579631461 0.2838530445
1050293700.0 -0.9535479937 0.2973575719
1100293400.0 -0.9494991014 0.3118752596
1150293100.0 -0.9454942665 0.3238532816
1200292800.0 -0.9402082952 0.3380296226
1250292500.0 -0.9348614899 0.3517252044
1300292200.0 -0.9291199149 0.3645768968
1350291900.0 -0.9234232963 0.3786736881
1400291600.0 -0.9180216081 0.3918907347
1450291300.0 -0.9125225743 0.4042272173
1500291000.0 -0.9062267587 0.4177887189
1550290700.0 -0.8996216208 0.4310652642
1600290400.0 -0.8935510674 0.4439324904
1650290100.0 -0.8868095396 0.4560755429
1700289800.0 -0.8800217177 0.4694745758
1750289500.0 -0.8728726445 0.48188912
1800289200.0 -0.8654466611 0.4947672676
1850288900.0 -0.8587905214 0.5061116711
1900288600.0 -0.8511302466 0.5190335196
1950288300.0 -0.8429293608 0.5318722367
2000288000.0 -0.8351816842 0.5430127809
2050287700.0 -0.8271364382 0.5554234576
2100287400.0 -0.8194486839 0.5671852657
2150287100.0 -0.8107257338 0.5790227235
2200286800.0 -0.8030676807 0.5893938672
2250286500.0 -0.7940831407 0.6014668618
2300286200.0 -0.7851822547 0.613011017
2350285900.0 -0.7764803445 0.6240109149
2400285600.0 -0.7677323501 0.6350313131
2450285300.0 -0.7589244441 0.6453873049
2500285000.0 -0.7492710729 0.6568659314
2550284700.0 -0.7404410467 0.6669106686
2600284400.0 -0.7308820666 0.6771347328
2650284100.0 -0.7220502844 0.6875671633
2700283800.0 -0.711687573 0.6983050169
2750283500.0 -0.7010330301 0.7085637758
2800283200.0 -0.6913874737 0.7186443095
2850282900.0 -0.6810508672 0.7283670451
2900282600.0 -0.67072574 0.7377955702
2950282300.0 -0.6604878695 0.7471970002
3000282000.0 -0.6496984868 0.7566963365
3050281700.0 -0.6385694086 0.7659334397
3100281400.0 -0.6267588039 0.7755020441
3150281100.0 -0.6149347564 0.784627484
3200280800.0 -0.6033156896 0.7932431725
3250280500.0 -0.5925525743 0.8009255953
3300280200.0 -0.5811904803 0.8087456259
3350279900.0 -0.5696340759 0.8164448226
3400279600.0 -0.5575640851 0.8240099354
3450279300.0 -0.5461883347 0.8312071104
3500279000.0 -0.5345352038 0.8383131563
3550278700.0 -0.5220454172 0.8457081435
3600278400.0 -0.5096327943 0.8527993617
3650278100.0 -0.4963989787 0.8604243861
3700277800.0 -0.4845838685 0.8668509335
3750277500.0 -0.4722502827 0.8733126181
3800277200.0 -0.4596983041 0.8798823231
3850276900.0 -0.4477279037 0.8856499806
3900276600.0 -0.4369598654 0.8913108463
3950276300.0 -0.4244706827 0.8974636805
4000276000.0 -0.4123922089 0.9034832576
4050275700.0 -0.3997881389 0.9092599279
4100275400.0 -0.3884071048 0.9150488664
4150275100.0 -0.3756802329 0.9207138317
4200274800.0 -0.3628024107 0.9262156959
4250274500.0 -0.3506694867 0.9314219284
4300274200.0 -0.3376666114 0.9366639883
4350273900.0 -0.3236975453 0.9419011183
4400273600.0 -0.3088479652 0.9470321958
4450273300.0 -0.2935372839 0.9521785225
4500273000.0 -0.2798979241 0.9565751246
4550272700.0 -0.2657636168 0.9607728905
4600272400.0 -0.2504159883 0.9650538113
4650272100.0 -0.2387490772 0.9682524327
4700271800.0 -0.2254756727 0.9715514505
4750271500.0 -0.213716749 0.9744548797
4800271200.0 -0.2013423775 0.9771187157
4850270900.0 -0.1873061344 0.9799999774
4900270600.0 -0.1733805968 0.9822901103
4950270300.0 -0.15911078 0.9851299487
5000270000.0 -0.1448231657 0.9868146121
5050269700.0 -0.1314172772 0.9885666688
5100269400.0 -0.1175958164 0.9900898266
5150269100.0 -0.1041277934 0.9920994047
5200268800.0 -0.0909697151 0.9933426142
5250268500.0 -0.0779011251 0.9938074515
5300268200.0 -0.0648905809 0.9946595497
5350267900.0 -0.0523867873 0.9949634196
5400267600.0 -0.0359569878 0.9964985831
5450267300.0 -0.0232298405 0.9967788272
5500267000.0 -0.0080509336 0.9971141079
5550266700.0 0.0070244429 0.997411015
5600266400.0 0.022411196 0.9972611853
5650266100.0 0.0389492193 0.9968353646
5700265800.0 0.0533822453 0.996199297
5750265500.0 0.0685528822 0.9956574853
5800265200.0 0.0823197309 0.994200548
5850264900.0 0.0960098433 0.9936754134
5900264600.0 0.1123379286 0.9914476874
5950264300.0 0.124482671 0.9900933253
6000264000.0 0.1384627347 0.9883949686
6050263700.0 0.1504608159 0.986747611
6100263400.0 0.1630853246 0.984958913
6150263100.0 0.1777515425 0.982933462
6200262800.0 0.1880626449 0.9808833373
6250262500.0 0.2005693434 0.978282313
6300262200.0 0.2133462222 0.9758109163
6350261900.0 0.2264226431 0.9728096518
6400261600.0 0.2403388511 0.9694460615
6450261300.0 0.2517609604 0.9669145258
6500261000.0 0.2646928614 0.9636290568
6550260700.0 0.2775282416 0.9592790266
6600260400.0 0.2907983779 0.955219891
6650260100.0 0.3047445439 0.9510121518
6700259800.0 0.3173420382 0.9467504656
6750259500.0 0.3306125985 0.9418555886
6800259200.0 0.3437297458 0.9366172868
6850258900.0 0.3559034046 0.9317392341
6900258600.0 0.3680060276 0.9265408621
6950258300.0 0.3805279198 0.9213262123
7000258000.0 0.3926484465 0.9157707493
7050257700.0 0.4050520667 0.9098533072
7100257400.0 0.417753269 0.9035363394
7150257100.0 0.4280115155 0.8983201819
7200256800.0 0.4409614319 0.8919444971
7250256500.0 0.4531070519 0.8856919391
7300256200.0 0.4655866999 0.8790493185
7350255900.0 0.478210218 0.8717282788
7400255600.0 0.4917089888 0.864706749
7450255300.0 0.5069256319 0.8557686759
7500255000.0 0.5188160103 0.8486211942
7550254700.0 0.5325697581 0.840152101
7600254400.0 0.5450540443 0.83173319
7650254100.0 0.5567891961 0.8240772609
7700253800.0 0.568347682 0.8158450688
7750253500.0 0.5798213792 0.8082964565
7800253200.0 0.5904317185 0.8006442111
7850252900.0 0.600053735 0.793342296
7900252600.0 0.6118164633 0.7848772615
7950252300.0 0.6204039317 0.7782884063
8000252000.0 0.6308363126 0.7705451251
8050251700.0 0.6411196142 0.7624438265
8100251400.0 0.6512724243 0.7541352579
8150251100.0 0.6612195758 0.7455576681
8200250800.0 0.6705164839 0.737755588
8250250500.0 0.6796177061 0.7296608152
8300250200.0 0.6891554724 0.7207757941
8350249900.0 0.6980665427 0.7124598272
8400249600.0 0.7062090826 0.7044043953
8450249300.0 0.7152917698 0.6951232099
8500249000.0 0.7242737307 0.6864526474
8550248700.0 0.7323321003 0.6773214704
8600248400.0 0.7407129324 0.6677783805
8650248100.0 0.7485025531 0.6582508533
8700247800.0 0.7580323989 0.6471719898
8750247500.0 0.7663574816 0.6370802544
8800247200.0 0.7745008977 0.6265759244
8850246900.0 0.7830343213 0.6151913229
8900246600.0 0.7915685248 0.6037286411
8950246300.0 0.8013140499 0.590972182
9000246000.0 0.81037361 0.5782591223
9050245700.0 0.8195299255 0.5650893538
9100245400.0 0.8280783764 0.5527564887
9150245100.0 0.8373181666 0.53910897
9200244800.0 0.8473067864 0.5239640941
9250244500.0 0.8566822857 0.5085837622
9300244200.0 0.8650186445 0.4942350205
9350243900.0 0.8727513809 0.4805590642
9400243600.0 0.8794037686 0.4681835939
9450243300.0 0.88524297 0.4564720929
9500243000.0 0.8916084554 0.4441652217
9550242700.0 0.8955161959 0.4365432453
9600242400.0 0.8993591474 0.4293317833
9650242100.0 0.9031000293 0.4225884979
9700241800.0 0.9077257493 0.414459681
9750241500.0 0.9116590253 0.4068800193
9800241200.0 0.9163044478 0.3977923418
9850240900.0 0.9217590102 0.3862079228
9900240600.0 0.9277031396 0.3745763145
9950240300.0 0.9341481067 0.3583153681
10000240000.0 0.9386284203 0.3467240473
10050239700.0 0.9445971572 0.331384165
10100239400.0 0.9497485282 0.3160518177
10150239100.0 0.9537366952 0.301316829
10200238800.0 0.9580474789 0.2864363422
10250238500.0 0.9612935859 0.2727607929
10300238200.0 0.9645586503 0.2591186822
10350237900.0 0.9672471713 0.2459381442
10400237600.0 0.9698141549 0.2324611157
10450237300.0 0.972533832 0.2187972221
10500237000.0 0.9747113155 0.2066668496
10550236700.0 0.9767191415 0.1928443798
10600236400.0 0.9789391977 0.1790797226
10650236100.0 0.9813014442 0.164140401
10700235800.0 0.9832726006 0.1522679897
10750235500.0 0.9855868588 0.1387986712
10800235200.0 0.9875409831 0.1246255433
10850234900.0 0.9901678755 0.109770017
10900234600.0 0.9917599536 0.095158108
10950234300.0 0.9933083584 0.0819072668
11000234000.0 0.9951598583 0.0669628946
11050233700.0 0.99704089 0.0505720398
11100233400.0 0.9987144937 0.0329503086
11150233100.0 0.9998297863 0.0172335641
11200232800.0 1.0004288 0.0019320103
11250232500.0 1.00097472 -0.0140904243
11300232200.0 1.001569074 -0.0329157343
11350231900.0 1.002326356 -0.0486185538
11400231600.0 1.001754393 -0.0640225858
11450231300.0 1.000859516 -0.0788318652
11500231000.0 1.000416875 -0.0954909632
11550230700.0 0.9989207026 -0.108148892
11600230400.0 0.9970251725 -0.1216158465
11650230100.0 0.9952151687 -0.1321365694
11700229800.0 0.9934118973 -0.1475532534
11750229500.0 0.9910671494 -0.1618844284
11800229200.0 0.9885358114 -0.1755425621
11850228900.0 0.9846477547 -0.1879979327
11900228600.0 0.9812046166 -0.1977531323
11950228300.0 0.9782001937 -0.2080878887
12000228000.0 0.9749668276 -0.2171521269
12050227700.0 0.9711033911 -0.2297852511
12100227400.0 0.9683449588 -0.241464279
12150227100.0 0.9639341554 -0.2577793848
12200226800.0 0.959666032 -0.2687950855
12250226500.0 0.9554327877 -0.2814617745
12300226200.0 0.9512689879 -0.2935516959
12350225900.0 0.9471046089 -0.3077022179
12400225600.0 0.9422493133 -0.3204617375
12450225300.0 0.9374641681 -0.3333625408
12500225000.0 0.9320887559 -0.3485961269
12550224700.0 0.9270133474 -0.3618719523
12600224400.0 0.9221651428 -0.3750582903
12650224100.0 0.9163479507 -0.3893375202
12700223800.0 0.9110124227 -0.4021646136
12750223500.0 0.9055507571 -0.4153804901
12800223200.0 0.9003438641 -0.4278013039
12850222900.0 0.8948436961 -0.4401664658
12900222600.0 0.8891127482 -0.4520206287
12950222300.0 0.883061438 -0.4652865953
13000222000.0 0.8769713619 -0.4757878394
13050221700.0 0.8706369263 -0.4889826507
13100221400.0 0.8637015144 -0.5013192245
13150221100.0 0.8568754942 -0.5133766787
13200220800.0 0.8497887261 -0.5247147739
13250220500.0 0.8425812028 -0.5368786889
13300220200.0 0.8352557667 -0.5476862002
13350219900.0 0.827295665 -0.559532743
13400219600.0 0.8189687 -0.5716130384
13450219300.0 0.8096788978 -0.5851288462
13500219000.0 0.7992532034 -0.5990846116
13550218700.0 0.7890178536 -0.6118797533
13600218400.0 0.7786340698 -0.6239972516
13650218100.0 0.7698008775 -0.6358508372
13700217800.0 0.7582729326 -0.6475973523
13750217500.0 0.749002071 -0.6585271697
13800217200.0 0.7365848476 -0.6706094283
13850216900.0 0.7255363082 -0.6818414532
13900216600.0 0.7159626641 -0.6906696493
13950216300.0 0.7053884137 -0.6999442958
14000216000.0 0.6957654862 -0.7099054929
14050215700.0 0.686195693 -0.718624794
14100215400.0 0.6760249695 -0.7273665265
14150215100.0 0.6670251416 -0.7357694731
14200214800.0 0.6575434985 -0.744985381
14250214500.0 0.6472584719 -0.7541960776
14300214200.0 0.6369607072 -0.7635469961
14350213900.0 0.6259507329 -0.7731369118
14400213600.0 0.6141227192 -0.7829013084
14450213300.0 0.6007771696 -0.793214886
14500213000.0 0.587983421 -0.8033604526
14550212700.0 0.5750744323 -0.8124523163
14600212400.0 0.5629211179 -0.8212061482
14650212100.0 0.5503658146 -0.8299442064
14700211800.0 0.5359631864 -0.8394302879
14750211500.0 0.5238497109 -0.8478765038
14800211200.0 0.5115943321 -0.8557178318
14850210900.0 0.4995748727 -0.8633769015
14900210600.0 0.4863331679 -0.871343288
14950210300.0 0.4729659486 -0.8789106457
15000210000.0 0.4602928996 -0.8857131379
15050209700.0 0.4478443207 -0.8917753124
15100209400.0 0.4356771498 -0.8977586309
15150209100.0 0.4227653736 -0.902881029
15200208800.0 0.4098523673 -0.9088703268
15250208500.0 0.3993237261 -0.9132114332
15300208200.0 0.3867964396 -0.9174073363
15350207900.0 0.3732139988 -0.9225740866
15400207600.0 0.3582269253 -0.9285382777
15450207300.0 0.3436788724 -0.9329711715
15500207000.0 0.329891168 -0.9370517495
15550206700.0 0.315198755 -0.9424565251
15600206400.0 0.2993035589 -0.9468383528
15650206100.0 0.2832417975 -0.9513873755
15700205800.0 0.2693842959 -0.9545873372
15750205500.0 0.2549247576 -0.9585843016
15800205200.0 0.2402199278 -0.961991475
15850204900.0 0.2260626784 -0.9654920948
15900204600.0 0.2108180154 -0.9689278018
15950204300.0 0.1970997785 -0.9720691676
16000204000.0 0.1825044922 -0.975078426
16050203700.0 0.1679354228 -0.9776325455
16100203400.0 0.1525573583 -0.9796477301
16150203100.0 0.1389845023 -0.9824972252
16200202800.0 0.1243008637 -0.9842922562
16250202500.0 0.1095738978 -0.9862723788
16300202200.0 0.0944163182 -0.9878139504
16350201900.0 0.079402791 -0.988971351
16400201600.0 0.0646336925 -0.9904837609
16450201300.0 0.0495174322 -0.9915370855
16500201000.0 0.0330432084 -0.9923071403
16550200700.0 0.0173241351 -0.9928839617
16600200400.0 0.0016537776 -0.992942589
16650200100.0 -0.0145416535 -0.9928182317
16700199800.0 -0.0308929618 -0.9924387848
16750199500.0 -0.0492396661 -0.9915294479
16800199200.0 -0.0649448135 -0.9908968123
16850198900.0 -0.080710822 -0.9894681099
16900198600.0 -0.0942769312 -0.9888851848
16950198300.0 -0.1076265627 -0.9878097866
17000198000.0 -0.1205363773 -0.9864369645
17050197700.0 -0.1326276468 -0.984080287
17100197400.0 -0.146205099 -0.9828949043
17150197100.0 -0.1582695992 -0.9804223073
17200196800.0 -0.1715881439 -0.9782296161
17250196500.0 -0.1843254629 -0.976072114
17300196200.0 -0.196527698 -0.9735426003
17350195900.0 -0.2083585306 -0.9714207126
17400195600.0 -0.2207701806 -0.9688202894
17450195300.0 -0.2341941942 -0.9659941829
17500195000.0 -0.2475558877 -0.9626971303
17550194700.0 -0.2613040363 -0.9590903164
17600194400.0 -0.2751540212 -0.9554118395
17650194100.0 -0.2889509885 -0.9508370595
17700193800.0 -0.3018570461 -0.9468486702
17750193500.0 -0.3161990357 -0.9421945038
17800193200.0 -0.3309095898 -0.9370257993
17850192900.0 -0.3455248714 -0.9321360095
17900192600.0 -0.3609086294 -0.9254086329
17950192300.0 -0.3765421041 -0.9185663523
18000192000.0 -0.3913045461 -0.9113193311
18050191700.0 -0.4051909526 -0.9034758765
18100191400.0 -0.4195581217 -0.8958368149
18150191100.0 -0.4345763299 -0.8877604912
18200190800.0 -0.4513547258 -0.8786749421
18250190500.0 -0.4684683387 -0.8692047295
18300190200.0 -0.4836784139 -0.8605718977
18350189900.0 -0.4985347395 -0.8520376077
18400189600.0 -0.5135381831 -0.8439181042
18450189300.0 -0.5266536542 -0.8359175531
18500189000.0 -0.5402180135 -0.8281689439
18550188700.0 -0.5525304632 -0.8205469762
18600188400.0 -0.5643538303 -0.8136089846
18650188100.0 -0.5751576736 -0.8072788146
18700187800.0 -0.5860858237 -0.800684023
18750187500.0 -0.5967128866 -0.7940924884
18800187200.0 -0.6073970971 -0.7869801529
18850186900.0 -0.617669509 -0.7800216066
18900186600.0 -0.627936319 -0.7727592537
18950186300.0 -0.6377832979 -0.7649529447
19000186000.0 -0.6448581002 -0.7590902669
19050185700.0 -0.6547923315 -0.7515721396
19100185400.0 -0.6638795202 -0.743345446
19150185100.0 -0.6745531914 -0.7351345438
19200184800.0 -0.6840175477 -0.7269865672
19250184500.0 -0.6936485952 -0.7173583118
19300184200.0 -0.7054645102 -0.7077157904
19350183900.0 -0.7163879406 -0.6983616975
19400183600.0 -0.7253446356 -0.689111163
19450183300.0 -0.7346274593 -0.677608125
19500183000.0 -0.7429586511 -0.6689604605
19550182700.0 -0.7526641485 -0.6576947254
19600182400.0 -0.7631568397 -0.646053057
19650182100.0 -0.77407163 -0.633483855
19700181800.0 -0.7844927711 -0.6202318811
19750181500.0 -0.7951453774 -0.6063939341
19800181200.0 -0.8055893728 -0.5912875887
19850180900.0 -0.8152273069 -0.5759496798
19900180600.0 -0.8230523586 -0.5613434717
19950180300.0 -0.832201382 -0.5449602163
20000180000.0 -0.8247630679 -0.546988727
20050179700.0 -0.8337294831 -0.5346458219
20100179400.0 -0.8418387742 -0.5201978327
20150179100.0 -0.8507763042 -0.5078315506
20200178800.0 -0.8591944424 -0.4953382946
20250178500.0 -0.8685649813 -0.4816274519
20300178200.0 -0.8782806105 -0.4667052496
20350177900.0 -0.8869419305 -0.4529506486
20400177600.0 -0.8964542094 -0.4384315393
20450177300.0 -0.9046885152 -0.424029229
20500177000.0 -0.9125713037 -0.4099719948
20550176700.0 -0.9206350889 -0.3967137777
20600176400.0 -0.9275991343 -0.383494656
20650176100.0 -0.9339441611 -0.3713300589
20700175800.0 -0.9411483361 -0.359569342
20750175500.0 -0.9476977955 -0.3477154433
20800175200.0 -0.9516292858 -0.3369241874
20850174900.0 -0.9569656903 -0.3258938766
20900174600.0 -0.9611659414 -0.3138315522
20950174300.0 -0.9657640479 -0.303242881
21000174000.0 -0.9683765274 -0.2911326962
21050173700.0 -0.9712893697 -0.2810842048
21100173400.0 -0.9755619768 -0.2693550412
21150173100.0 -0.9792454268 -0.2563959558
21200172800.0 -0.9826172701 -0.2435428301
21250172500.0 -0.9859144268 -0.2296758045
21300172200.0 -0.9886034389 -0.2155780947
21350171900.0 -0.9906499691 -0.2014089236
21400171600.0 -0.9917111822 -0.1868616746
21450171300.0 -0.9920521126 -0.1723438482
21500171000.0 -0.9925601374 -0.1566523379
21550170700.0 -0.9913665621 -0.1427758074
21600170400.0 -0.9926418665 -0.1257697547
21650170100.0 -0.9910037696 -0.1108317615
21700169800.0 -0.9901707549 -0.0957257264
21750169500.0 -0.9884850986 -0.0782826187
21800169200.0 -0.9889294002 -0.062285116
21850168900.0 -0.9875833237 -0.0455475131
21900168600.0 -0.9861868169 -0.0297529179
21950168300.0 -0.9849548089 -0.0132863074
22000168000.0 -0.9840622061 0.0013167962
22050167700.0 -0.9838832587 0.0154947252
22100167400.0 -0.9840335612 0.0310324413
22150167100.0 -0.984545698 0.0467507432
22200166800.0 -0.9850617811 0.0628973399
22250166500.0 -0.9844778386 0.0801969225
22300166200.0 -0.9842322167 0.0968574066
22350165900.0 -0.9829861769 0.1138848701
22400165600.0 -0.9803354906 0.1291904757
22450165300.0 -0.9782682499 0.1438020935
22500165000.0 -0.9767084795 0.158124801
22550164700.0 -0.9755546125 0.1735183997
22600164400.0 -0.973716371 0.1881896695
22650164100.0 -0.9715315652 0.2026419335
22700163800.0 -0.9698499738 0.2196094796
22750163500.0 -0.9674783735 0.2344870633
22800163200.0 -0.9639546795 0.2473799116
22850162900.0 -0.9617352113 0.2604399693
22900162600.0 -0.9601309656 0.2739320022
22950162300.0 -0.9591651798 0.2869414927
23000162000.0 -0.9581229817 0.2988559215
23050161700.0 -0.9561726348 0.3110387403
23100161400.0 -0.9537533703 0.3240561425
23150161100.0 -0.950829629 0.3366029986
23200160800.0 -0.9478063812 0.3485489604
23250160500.0 -0.9449765927 0.3610767164
23300160200.0 -0.9424548259 0.3726516755
23350159900.0 -0.938884748 0.3861223709
23400159600.0 -0.9336880585 0.3995080353
23450159300.0 -0.9289818676 0.4123915324
23500159000.0 -0.9248466774 0.4251032101
23550158700.0 -0.92010919 0.4389316521
23600158400.0 -0.9145797143 0.4525094578
23650158100.0 -0.9084042402 0.4664462387
23700157800.0 -0.9008827121 0.4805504081
23750157500.0 -0.8923473929 0.4943117451
23800157200.0 -0.8833952714 0.5075203784
23850156900.0 -0.8746220518 0.5200703406
23900156600.0 -0.8651918738 0.5327467848
23950156300.0 -0.8564909139 0.5449842929
24000156000.0 -0.8474865468 0.5569781387
24050155700.0 -0.8373857914 0.5694512516
24100155400.0 -0.8276450859 0.5809859278
24150155100.0 -0.8172998532 0.5923142411
24200154800.0 -0.8060186562 0.60461781
24250154500.0 -0.7946830216 0.6158812192
24300154200.0 -0.7836265959 0.6275718926
24350153900.0 -0.771461558 0.6379631947
24400153600.0 -0.7593644653 0.6481410821
24450153300.0 -0.7477074288 0.6582710845
24500153000.0 -0.7359052877 0.6677225221
24550152700.0 -0.7244559783 0.6778877073
24600152400.0 -0.7128977585 0.6863801038
24650152100.0 -0.701175224 0.6953991639
