!Created with skrf (http://scikit-rf.org).
# Hz S RI R 50.0 
!freq ReS11 ImS11
300000.0 -0.9745716114 -0.1217153962
50299700.0 -0.9999105648 0.0150469196
100299400.0 -0.9978384866 0.0280217862
150299100.0 -1.002637443 0.0448366259
200298800.0 -0.9996030446 0.0582086924
250298500.0 -0.9973993833 0.0718316314
300298200.0 -0.9857937717 0.0874538463
350297900.0 -0.9937648391 0.0984801675
400297600.0 -0.9931780191 0.11494991
450297300.0 -0.9910518159 0.1287502133
500297000.0 -0.9895792939 0.1435773102
550296700.0 -0.9842519572 0.1558668998
600296400.0 -1.017414789 0.1893606942
650296100.0 -0.9822229383 0.1859295056
700295800.0 -0.9790647912 0.1999852708
750295500.0 -0.9761454964 0.2141366177
800295200.0 -0.9729102868 0.2283885169
850294900.0 -0.9696903764 0.2418844935
900294600.0 -0.965592488 0.25560844
950294300.0 -0.9620075808 0.2692929219
1000294000.0 -0.9582192709 0.2832486438
1050293700.0 -0.9536574971 0.2970863864
1100293400.0 -0.949480389 0.3115826084
1150293100.0 -0.9454240356 0.3233730772
1200292800.0 -0.94022785 0.3377895764
1250292500.0 -0.9346732421 0.3511496935
1300292200.0 -0.9288636835 0.364391323
1350291900.0 -0.9235336707 0.3786491342
1400291600.0 -0.9180409347 0.391687968
1450291300.0 -0.9124085578 0.4039923035
1500291000.0 -0.906159594 0.4175229065
1550290700.0 -0.8997557078 0.4305850735
1600290400.0 -0.8932881332 0.4436380861
1650290100.0 -0.886773096 0.4557490836
1700289800.0 -0.8798422974 0.4692961183
1750289500.0 -0.8726977371 0.4815092849
1800289200.0 -0.8655587669 0.4944513916
1850288900.0 -0.8587798437 0.5056838813
1900288600.0 -0.8510427764 0.5188321015
1950288300.0 -0.8426698854 0.5314599643
2000288000.0 -0.8353603602 0.5428406674
2050287700.0 -0.8271335027 0.5552665826
2100287400.0 -0.8193730267 0.5665554075
2150287100.0 -0.8107454481 0.5788366651
2200286800.0 -0.8030230868 0.5893677909
2250286500.0 -0.7941470186 0.6015709184
2300286200.0 -0.7853838402 0.6129809591
2350285900.0 -0.7766438998 0.6235603223
2400285600.0 -0.7680777367 0.6344905621
2450285300.0 -0.7589315018 0.6451332613
2500285000.0 -0.7491398311 0.6568544055
2550284700.0 -0.7401809645 0.6668747211
2600284400.0 -0.7312267379 0.6770599429
2650284100.0 -0.7221706771 0.6873237384
2700283800.0 -0.7117680785 0.6977202084
2750283500.0 -0.7016302111 0.7083512293
2800283200.0 -0.6914258817 0.7183246113
2850282900.0 -0.6811658953 0.727943796
2900282600.0 -0.6707333776 0.7377175708
2950282300.0 -0.6601751922 0.7472198509
3000282000.0 -0.6494735634 0.7564139121
3050281700.0 -0.6383352547 0.7660261084
3100281400.0 -0.6268211126 0.7750946102
3150281100.0 -0.6154851316 0.7839808062
3200280800.0 -0.6040218647 0.7925162244
3250280500.0 -0.5930337844 0.8002536518
3300280200.0 -0.5812618175 0.8084581465
3350279900.0 -0.5692353638 0.8164866016
3400279600.0 -0.5568115045 0.8245324507
3450279300.0 -0.5455406502 0.8313778593
3500279000.0 -0.5336721091 0.8383494183
3550278700.0 -0.5218735732 0.845589732
3600278400.0 -0.5097416233 0.852460275
3650278100.0 -0.4966946652 0.8601266925
3700277800.0 -0.4847491757 0.86650102
3750277500.0 -0.472232245 0.8730224548
3800277200.0 -0.4597539899 0.8797178801
3850276900.0 -0.4477074944 0.8855612508
3900276600.0 -0.4368309632 0.8912958951
3950276300.0 -0.4247754955 0.897289922
4000276000.0 -0.4128834573 0.9031453535
4050275700.0 -0.4002984722 0.9090827641
4100275400.0 -0.3891704206 0.9145908421
4150275100.0 -0.3760321862 0.9206657848
4200274800.0 -0.3624753488 0.9259119776
4250274500.0 -0.3501568519 0.9313732208
4300274200.0 -0.3368702413 0.9368980036
4350273900.0 -0.3227282648 0.9421730124
4400273600.0 -0.3078511289 0.9473649465
4450273300.0 -0.2928478589 0.9521643089
4500273000.0 -0.2798484907 0.9563300999
4550272700.0 -0.2661144919 0.9605247592
4600272400.0 -0.2508708058 0.96458628
4650272100.0 -0.2394723363 0.9680119569
4700271800.0 -0.2264111515 0.9713185229
4750271500.0 -0.2147325534 0.9740304241
4800271200.0 -0.2026231064 0.9767894147
4850270900.0 -0.188730837 0.9796532067
4900270600.0 -0.1751491448 0.9819463939
4950270300.0 -0.1604084586 0.9846008705
5000270000.0 -0.1459352027 0.986732236
5050269700.0 -0.1325248112 0.9883194705
5100269400.0 -0.1183109356 0.9898283431
5150269100.0 -0.1043199174 0.9918902081
5200268800.0 -0.0912008317 0.9928212774
5250268500.0 -0.0782585841 0.9936874152
5300268200.0 -0.0645110397 0.9946319374
5350267900.0 -0.0516845384 0.9951701181
5400267600.0 -0.0354589193 0.9963365172
5450267300.0 -0.0222355841 0.9964916615
5500267000.0 -0.0071654132 0.9970123771
5550266700.0 0.0079532261 0.9972012362
5600266400.0 0.023782733 0.9971322919
5650266100.0 0.0403634552 0.997155298
5700265800.0 0.0548578857 0.9961324489
5750265500.0 0.0698310669 0.9952787851
5800265200.0 0.0830353975 0.9939640264
5850264900.0 0.0966256178 0.9934834643
5900264600.0 0.1130617177 0.9916370733
5950264300.0 0.1245055599 0.9894744574
6000264000.0 0.1382873211 0.9882124409
6050263700.0 0.1501552504 0.9866998793
6100263400.0 0.1624136087 0.9848634592
6150263100.0 0.1766534466 0.98235813
6200262800.0 0.1865518863 0.9809542177
6250262500.0 0.1990383527 0.9786430165
6300262200.0 0.2112773457 0.976197578
6350261900.0 0.2241961814 0.9732485576
6400261600.0 0.2381692443 0.970068948
6450261300.0 0.2493874342 0.9676567026
6500261000.0 0.2623824111 0.9637878249
6550260700.0 0.2752916757 0.9598187886
6600260400.0 0.2886538784 0.955689527
6650260100.0 0.3032146482 0.9514161178
6700259800.0 0.3150644411 0.9471973023
6750259500.0 0.3292185942 0.9422858963
6800259200.0 0.3421939016 0.9371334536
6850258900.0 0.3549193418 0.932047438
6900258600.0 0.3674576378 0.9266509375
6950258300.0 0.3798756324 0.9215128274
7000258000.0 0.3916786103 0.916257455
7050257700.0 0.4034178076 0.9104991228
7100257400.0 0.4166789308 0.904004314
7150257100.0 0.4275417861 0.8984401539
7200256800.0 0.4406225834 0.8921717138
7250256500.0 0.4530482769 0.885502781
7300256200.0 0.4659606026 0.8787825044
7350255900.0 0.4789421841 0.8716669531
7400255600.0 0.4926816934 0.8640916331
7450255300.0 0.5086007039 0.8548484947
7500255000.0 0.5204709447 0.8473527303
7550254700.0 0.5354515919 0.8385545531
7600254400.0 0.5475897954 0.8301128423
7650254100.0 0.5588582212 0.8221388049
7700253800.0 0.5708656892 0.8142661204
7750253500.0 0.5815657153 0.8066807123
7800253200.0 0.5923752315 0.7987147583
7850252900.0 0.6019725824 0.7915508411
7900252600.0 0.6135045721 0.7828910125
7950252300.0 0.6220326527 0.7764184655
8000252000.0 0.6319685765 0.7688975995
8050251700.0 0.6422528129 0.7609483918
8100251400.0 0.6524045909 0.752919297
8150251100.0 0.6624889185 0.7441544613
8200250800.0 0.6716116907 0.7362374983
8250250500.0 0.680501707 0.7281689213
8300250200.0 0.6893862251 0.7199516425
8350249900.0 0.6985984377 0.7111009441
8400249600.0 0.7072852164 0.7029327738
8450249300.0 0.7157760093 0.6941760935
8500249000.0 0.7240983414 0.685314997
8550248700.0 0.7328641868 0.676263473
8600248400.0 0.7410253693 0.6667660998
8650248100.0 0.7486175063 0.6573223028
8700247800.0 0.758063653 0.6464073943
8750247500.0 0.7663091889 0.6362642571
8800247200.0 0.7742798972 0.6259297772
8850246900.0 0.7828596133 0.6145397101
8900246600.0 0.791360319 0.6031698587
8950246300.0 0.8008996194 0.590516957
9000246000.0 0.8091092121 0.5785331407
9050245700.0 0.8183551798 0.5660907101
9100245400.0 0.8261516168 0.5537594679
9150245100.0 0.8353507869 0.5407505282
9200244800.0 0.8446630634 0.5264533614
9250244500.0 0.8538168029 0.5115296202
9300244200.0 0.861822475 0.4978518612
9350243900.0 0.8697228403 0.4845328411
9400243600.0 0.8760566604 0.4727919321
9450243300.0 0.8818420301 0.4621320827
9500243000.0 0.8881054702 0.4503938484
9550242700.0 0.892162253 0.4426928754
9600242400.0 0.8961383958 0.4354479776
9650242100.0 0.9002727462 0.4283133736
9700241800.0 0.905211436 0.4198795758
9750241500.0 0.9093812798 0.4124151757
9800241200.0 0.9142848967 0.4029100539
9850240900.0 0.9201248136 0.3912346926
9900240600.0 0.9260984338 0.3793443886
9950240300.0 0.9330173468 0.3625692461
10000240000.0 0.9379592377 0.3505835222
10050239700.0 0.9441539699 0.3344427433
10100239400.0 0.9493782521 0.3183535796
10150239100.0 0.9542003863 0.3028300268
10200238800.0 0.9582754419 0.2874606497
10250238500.0 0.9614941362 0.2741275393
10300238200.0 0.964822934 0.2599803494
10350237900.0 0.9676476234 0.2466434568
10400237600.0 0.9700128237 0.2332667038
10450237300.0 0.9726246328 0.2197378759
10500237000.0 0.974812486 0.2074950809
10550236700.0 0.977519412 0.1925204174
10600236400.0 0.979410605 0.1793161819
10650236100.0 0.9815055298 0.1644552341
10700235800.0 0.9836636699 0.1523187235
10750235500.0 0.9856918829 0.1387635665
10800235200.0 0.9878671987 0.1241432584
10850234900.0 0.9899997053 0.1095600902
10900234600.0 0.9918802532 0.0946311194
10950234300.0 0.9937804188 0.0811593312
11000234000.0 0.9956294408 0.0656393686
11050233700.0 0.9974462336 0.04892255
11100233400.0 0.9988881684 0.031246356
11150233100.0 0.9998292632 0.0146923692
11200232800.0 1.000694058 -0.0017356792
11250232500.0 1.001947112 -0.0193739218
11300232200.0 1.002226044 -0.0370513247
11350231900.0 1.002541042 -0.0530542133
11400231600.0 1.001300417 -0.0688342023
11450231300.0 1.001013684 -0.0840034192
11500231000.0 0.9993667409 -0.1016543593
11550230700.0 0.9983313131 -0.1143818369
11600230400.0 0.9972608778 -0.1271186615
11650230100.0 0.9950343821 -0.1389467244
11700229800.0 0.9927474056 -0.1532791956
11750229500.0 0.9902641828 -0.1677678401
11800229200.0 0.9874961588 -0.1813445622
11850228900.0 0.9838989745 -0.1933325164
11900228600.0 0.9800728524 -0.2029554488
11950228300.0 0.9766659908 -0.213187557
12000228000.0 0.9737008699 -0.2216195616
12050227700.0 0.970043082 -0.234188412
12100227400.0 0.966838686 -0.2452550245
12150227100.0 0.9620988033 -0.2623687129
12200226800.0 0.9585639435 -0.2721897676
12250226500.0 0.954109543 -0.2863812228
12300226200.0 0.9499852607 -0.2981814314
12350225900.0 0.9443272126 -0.3119920388
12400225600.0 0.9403322423 -0.3242954632
12450225300.0 0.9356577797 -0.3366491522
12500225000.0 0.9307830187 -0.3516657313
12550224700.0 0.924888369 -0.3652158386
12600224400.0 0.9200278333 -0.3780347604
12650224100.0 0.9143126384 -0.3924238492
12700223800.0 0.9090040342 -0.4052360799
12750223500.0 0.9034615554 -0.4183104212
12800223200.0 0.8981108112 -0.4310913316
12850222900.0 0.8933147359 -0.4431105186
12900222600.0 0.8873177493 -0.4547153016
12950222300.0 0.8811233439 -0.4677383493
13000222000.0 0.8747027967 -0.4799361878
13050221700.0 0.8686248276 -0.4925963713
13100221400.0 0.8616732538 -0.5048434531
13150221100.0 0.8546435419 -0.5165302304
13200220800.0 0.847818567 -0.5277723804
13250220500.0 0.8403354875 -0.540240207
13300220200.0 0.8329861202 -0.5513084295
13350219900.0 0.8250211427 -0.5631564365
13400219600.0 0.8166562563 -0.5748293083
13450219300.0 0.8071863865 -0.5877920803
13500219000.0 0.7971139238 -0.6016560602
13550218700.0 0.7877037675 -0.6133557987
13600218400.0 0.7771463783 -0.6252898578
13650218100.0 0.767351204 -0.6366381907
13700217800.0 0.7565808705 -0.6479746412
13750217500.0 0.747293106 -0.6594589138
13800217200.0 0.7368264981 -0.6705176907
13850216900.0 0.7259070596 -0.6817588997
13900216600.0 0.7160867539 -0.6899587919
13950216300.0 0.7052397689 -0.7008006073
14000216000.0 0.6950365279 -0.7099750916
14050215700.0 0.6853458091 -0.7174021534
14100215400.0 0.6765579415 -0.7266111159
14150215100.0 0.6670413916 -0.735519819
14200214800.0 0.6577020423 -0.7442390587
14250214500.0 0.6474327332 -0.753746229
14300214200.0 0.6369765297 -0.763250226
14350213900.0 0.6256389135 -0.7728677322
14400213600.0 0.6137583029 -0.7828098701
14450213300.0 0.6009646699 -0.7926432761
14500213000.0 0.5880969653 -0.8026982139
14550212700.0 0.5754711911 -0.8123323313
14600212400.0 0.5631866404 -0.8206628268
14650212100.0 0.5503878054 -0.8297852569
14700211800.0 0.5369293049 -0.8389616602
14750211500.0 0.5246529288 -0.8475507376
14800211200.0 0.5119278203 -0.8556246751
14850210900.0 0.4996627593 -0.8631966766
14900210600.0 0.4862930758 -0.8710567158
14950210300.0 0.4730387536 -0.8787528783
15000210000.0 0.4604547119 -0.8855335679
15050209700.0 0.4478601747 -0.891589634
15100209400.0 0.4350920738 -0.8976508812
15150209100.0 0.4230117249 -0.9026136547
15200208800.0 0.4101080067 -0.9082905736
15250208500.0 0.3991293929 -0.9128726513
15300208200.0 0.3870498732 -0.917049479
15350207900.0 0.3735428607 -0.9218162497
15400207600.0 0.3589174579 -0.9273878661
15450207300.0 0.345240384 -0.9324941756
15500207000.0 0.3297640815 -0.9377113191
15550206700.0 0.3153624405 -0.9417565295
15600206400.0 0.2985868176 -0.9464479984
15650206100.0 0.2833526712 -0.9508096094
15700205800.0 0.2699033568 -0.9540728537
15750205500.0 0.2556941185 -0.9579584521
15800205200.0 0.2418247728 -0.9614155136
15850204900.0 0.227503612 -0.9648406758
15900204600.0 0.2124418478 -0.968568898
15950204300.0 0.1982792907 -0.9717055504
16000204000.0 0.1838097992 -0.974341671
16050203700.0 0.1685626492 -0.9774123396
16100203400.0 0.1538833806 -0.979882588
16150203100.0 0.1393198565 -0.98197489
16200202800.0 0.12470266 -0.9842699317
16250202500.0 0.1100359669 -0.9855478344
16300202200.0 0.0945876883 -0.9875082772
16350201900.0 0.0797106086 -0.9889626116
16400201600.0 0.0649881291 -0.9902026119
16450201300.0 0.0494609283 -0.991183411
16500201000.0 0.0324784317 -0.9920669088
16550200700.0 0.0164432609 -0.9925327824
16600200400.0 0.0005733134 -0.9926463693
16650200100.0 -0.0154880731 -0.9925177156
16700199800.0 -0.0319691466 -0.9921762496
16750199500.0 -0.0511319182 -0.9913378549
16800199200.0 -0.0666888181 -0.9911409652
16850198900.0 -0.0826213307 -0.9893373897
16900198600.0 -0.0964226978 -0.9890288555
16950198300.0 -0.1100813963 -0.9876851817
17000198000.0 -0.1233255607 -0.98569657
17050197700.0 -0.1359739233 -0.9844189009
17100197400.0 -0.1489117104 -0.9819343558
17150197100.0 -0.1610608285 -0.9800666685
17200196800.0 -0.1742207982 -0.9779614481
17250196500.0 -0.1872024468 -0.9753056354
17300196200.0 -0.1993669756 -0.97309988
17350195900.0 -0.2112871058 -0.9705619061
17400195600.0 -0.2231549973 -0.9682572027
17450195300.0 -0.236214091 -0.9653958547
17500195000.0 -0.2494263633 -0.9622000131
17550194700.0 -0.2631104118 -0.9587067556
17600194400.0 -0.276952252 -0.9547881078
17650194100.0 -0.2904309592 -0.950728929
17700193800.0 -0.3035189869 -0.9466456355
17750193500.0 -0.3179502519 -0.94197908
17800193200.0 -0.3322436854 -0.9369913841
17850192900.0 -0.3467980098 -0.93116051
17900192600.0 -0.3619189441 -0.9252815903
17950192300.0 -0.3772377427 -0.9178556478
18000192000.0 -0.3921392153 -0.9106317498
18050191700.0 -0.4060594491 -0.9028115047
18100191400.0 -0.420057342 -0.8951651146
18150191100.0 -0.4350014223 -0.8871622455
18200190800.0 -0.451671798 -0.8779439466
18250190500.0 -0.4688271625 -0.8684114096
18300190200.0 -0.4843154136 -0.8596229511
18350189900.0 -0.4993946947 -0.8510728095
18400189600.0 -0.5140246467 -0.842980374
18450189300.0 -0.5272546792 -0.8346479693
18500189000.0 -0.5407273705 -0.8266565939
18550188700.0 -0.5538053179 -0.8190569855
18600188400.0 -0.566264139 -0.8122263062
18650188100.0 -0.5770163413 -0.8055236391
18700187800.0 -0.5881195328 -0.7990735315
18750187500.0 -0.5988574827 -0.7920772303
18800187200.0 -0.6093636367 -0.7853748275
18850186900.0 -0.6197566753 -0.7783254567
18900186600.0 -0.62988511 -0.771165415
18950186300.0 -0.6401729734 -0.7634579874
19000186000.0 -0.6472403135 -0.7573477253
19050185700.0 -0.6567111354 -0.7497336796
19100185400.0 -0.6669235265 -0.741516224
19150185100.0 -0.6773582065 -0.7336629772
19200184800.0 -0.6863380849 -0.7249874497
19250184500.0 -0.6963101077 -0.7161783342
19300184200.0 -0.7078066113 -0.7063766159
19350183900.0 -0.7190062095 -0.6965848555
19400183600.0 -0.7283924459 -0.6868728437
19450183300.0 -0.7374123475 -0.6773796683
19500183000.0 -0.7456594327 -0.6667262557
19550182700.0 -0.7549737304 -0.6557883273
19600182400.0 -0.7650961564 -0.6443212363
19650182100.0 -0.7760062306 -0.6317667013
19700181800.0 -0.7863401841 -0.6187755081
19750181500.0 -0.7968051883 -0.6043920231
19800181200.0 -0.8069767421 -0.5895989457
19850180900.0 -0.8165493925 -0.5743043255
19900180600.0 -0.8242287606 -0.5598598042
19950180300.0 -0.8334976576 -0.5434204163
20000180000.0 -0.8247889757 -0.5464772689
20050179700.0 -0.8309860351 -0.5344617386
20100179400.0 -0.8401079374 -0.521461569
20150179100.0 -0.8483704188 -0.509735823
20200178800.0 -0.8562403966 -0.4974470202
20250178500.0 -0.865995996 -0.4851030709
20300178200.0 -0.8757832553 -0.4709056215
20350177900.0 -0.8854350657 -0.4572978532
20400177600.0 -0.8941342411 -0.4424444714
20450177300.0 -0.9025407899 -0.4286948352
20500177000.0 -0.9106897009 -0.4144091469
20550176700.0 -0.9185652655 -0.4011795704
20600176400.0 -0.925041432 -0.3880609131
20650176100.0 -0.9318386389 -0.3759678244
20700175800.0 -0.938460597 -0.3642320703
20750175500.0 -0.9450828858 -0.352173501
20800175200.0 -0.949253732 -0.3422508152
20850174900.0 -0.9541664638 -0.3307979812
20900174600.0 -0.9588018152 -0.3210775105
20950174300.0 -0.9619284408 -0.3080403966
21000174000.0 -0.9646967392 -0.2979902887
21050173700.0 -0.9661505467 -0.2887114876
21100173400.0 -0.9697199942 -0.2770001321
21150173100.0 -0.9744735044 -0.2650787175
21200172800.0 -0.9779046856 -0.2520544262
21250172500.0 -0.9812876445 -0.2381951729
21300172200.0 -0.9850589338 -0.2243231181
21350171900.0 -0.9862924447 -0.2097349515
21400171600.0 -0.9884044381 -0.1963927719
21450171300.0 -0.9890112275 -0.1809596808
21500171000.0 -0.9899541124 -0.1665365478
21550170700.0 -0.9892329568 -0.1507032973
21600170400.0 -0.9910900364 -0.1353638775
21650170100.0 -0.9907941798 -0.1202413037
21700169800.0 -0.9890564737 -0.1047432569
21750169500.0 -0.9900960753 -0.0889317858
21800169200.0 -0.9904969225 -0.0721825953
21850168900.0 -0.9896861175 -0.0543066195
21900168600.0 -0.9886462202 -0.0383569774
21950168300.0 -0.9879678762 -0.0233695527
22000168000.0 -0.9885431882 -0.0087337282
22050167700.0 -0.9886314814 0.0065690911
22100167400.0 -0.9891576076 0.0217341968
22150167100.0 -0.9904313477 0.0376876486
22200166800.0 -0.9911476632 0.0538453283
22250166500.0 -0.9905454855 0.0717915491
22300166200.0 -0.9896032504 0.0883459807
22350165900.0 -0.988409967 0.1045033748
22400165600.0 -0.9864169198 0.1203927321
22450165300.0 -0.9851530091 0.135289096
22500165000.0 -0.9828974952 0.1485055811
22550164700.0 -0.9830004547 0.1658118018
22600164400.0 -0.9802427877 0.1818586482
22650164100.0 -0.9771474435 0.1972028358
22700163800.0 -0.9740065556 0.2132297206
22750163500.0 -0.9709852444 0.2274438324
22800163200.0 -0.9681192487 0.2409448465
22850162900.0 -0.9655922487 0.2539992326
22900162600.0 -0.9638709281 0.2681861751
22950162300.0 -0.9622685407 0.28148722
23000162000.0 -0.9608030963 0.2938733307
23050161700.0 -0.9580774762 0.3076165409
23100161400.0 -0.9553675577 0.3210607474
23150161100.0 -0.9521217472 0.3336334939
23200160800.0 -0.9494893407 0.3471218653
23250160500.0 -0.9466189764 0.3591064367
23300160200.0 -0.9440107748 0.3711129356
23350159900.0 -0.9399237202 0.3851722444
23400159600.0 -0.9353358134 0.3983699195
23450159300.0 -0.9295390342 0.4126319631
23500159000.0 -0.9247913741 0.4258176188
23550158700.0 -0.9198675281 0.4399865306
23600158400.0 -0.9139893362 0.4538275462
23650158100.0 -0.9071707595 0.4684951153
23700157800.0 -0.898770475 0.482606666
23750157500.0 -0.8894988898 0.4965621636
23800157200.0 -0.8795226926 0.5103090934
23850156900.0 -0.8701551736 0.5230013677
23900156600.0 -0.8608996119 0.5347258021
23950156300.0 -0.8508411391 0.5482428185
24000156000.0 -0.8413035609 0.5610579511
24050155700.0 -0.8308069155 0.5725504496
24100155400.0 -0.8201585227 0.5850715166
24150155100.0 -0.8099526126 0.5970594652
24200154800.0 -0.799155673 0.6092144955
24250154500.0 -0.7878802785 0.6206308514
24300154200.0 -0.776267731 0.6329521511
24350153900.0 -0.7641508685 0.6438752267
24400153600.0 -0.751350401 0.6544894903
24450153300.0 -0.7394682474 0.6652647053
24500153000.0 -0.727561634 0.6749311618
24550152700.0 -0.7165962072 0.6846967577
24600152400.0 -0.7049114511 0.6946044421
24650152100.0 -0.6923824521 0.7028550726
