!Created with skrf (http://scikit-rf.org).
# Hz S RI R 50.0 
!freq ReS11 ImS11
300000.0 -0.9739204203 -0.1198992349
50299700.0 -0.9997957861 0.0151992529
100299400.0 -0.997989361 0.0282633907
150299100.0 -1.002731785 0.0451018363
200298800.0 -0.9996152787 0.0582686489
250298500.0 -0.9974001196 0.0720468727
300298200.0 -0.9859646471 0.0877125981
350297900.0 -0.9938999836 0.0985766746
400297600.0 -0.9931776045 0.1151929823
450297300.0 -0.9911277442 0.1291670029
500297000.0 -0.989530779 0.143800857
550296700.0 -0.9844945202 0.1561742965
600296400.0 -1.017395505 0.1893248543
650296100.0 -0.982370397 0.1862362936
700295800.0 -0.9793839205 0.2003937561
750295500.0 -0.976450158 0.2143072734
800295200.0 -0.9728891689 0.228436345
850294900.0 -0.9696838229 0.2420546501
900294600.0 -0.9658573684 0.2558621939
950294300.0 -0.9622382881 0.2696341158
1000294000.0 -0.9580362597 0.2837398168
1050293700.0 -0.953648288 0.2972811583
1100293400.0 -0.9494193979 0.3121270501
1150293100.0 -0.9454374414 0.3235951093
1200292800.0 -0.9402480438 0.3380596174
1250292500.0 -0.9345698972 0.3516936637
1300292200.0 -0.9290545244 0.3648568164
1350291900.0 -0.9235175713 0.3787881266
1400291600.0 -0.9179867611 0.391799979
1450291300.0 -0.9126062565 0.4043531851
1500291000.0 -0.9062948584 0.4176357702
1550290700.0 -0.8997424243 0.4310133101
1600290400.0 -0.8934951665 0.4438870325
1650290100.0 -0.8866639047 0.4560748157
1700289800.0 -0.8798611509 0.4695300519
1750289500.0 -0.8727224659 0.4817980419
1800289200.0 -0.8653574492 0.4946674695
1850288900.0 -0.8586741802 0.5060053518
1900288600.0 -0.8510468925 0.5191582837
1950288300.0 -0.8429554172 0.5317320444
2000288000.0 -0.8352800291 0.5430150273
2050287700.0 -0.8272197459 0.5552303939
2100287400.0 -0.8193559692 0.5670913799
2150287100.0 -0.8104656583 0.5790374977
2200286800.0 -0.8030647245 0.5892796062
2250286500.0 -0.794151539 0.6013771439
2300286200.0 -0.785193998 0.6130293229
2350285900.0 -0.7765979351 0.6238630954
2400285600.0 -0.7677065844 0.634868886
2450285300.0 -0.7590145861 0.645355392
2500285000.0 -0.7491956942 0.6567899232
2550284700.0 -0.7403720227 0.6670342718
2600284400.0 -0.7309441764 0.6770361208
2650284100.0 -0.7218077435 0.6875608067
2700283800.0 -0.7113786899 0.6982861524
2750283500.0 -0.7010185571 0.7086145153
2800283200.0 -0.6916209784 0.7186493379
2850282900.0 -0.6810032185 0.7284231744
2900282600.0 -0.670902882 0.7380717717
2950282300.0 -0.6606492082 0.7473058679
3000282000.0 -0.6497883371 0.7567347501
3050281700.0 -0.6385692113 0.7659749783
3100281400.0 -0.6266707346 0.7753760037
3150281100.0 -0.6150381122 0.7846218174
3200280800.0 -0.6033882975 0.7932519426
3250280500.0 -0.5926210401 0.8008490146
3300280200.0 -0.5812718541 0.8087543675
3350279900.0 -0.5695956363 0.8162695731
3400279600.0 -0.5574750806 0.8241864425
3450279300.0 -0.5462109558 0.8311069797
3500279000.0 -0.5341945238 0.8384102545
3550278700.0 -0.5220452659 0.8457499483
3600278400.0 -0.5097972575 0.8527711888
3650278100.0 -0.4964130698 0.8602546337
3700277800.0 -0.4845238492 0.866890967
3750277500.0 -0.4723903449 0.8732801921
3800277200.0 -0.4598477315 0.8798163917
3850276900.0 -0.4476487897 0.8858724703
3900276600.0 -0.436959311 0.8912767043
3950276300.0 -0.4246341303 0.8973313179
4000276000.0 -0.4123474931 0.9034035663
4050275700.0 -0.399448167 0.9095252346
4100275400.0 -0.3884955803 0.9150179025
4150275100.0 -0.3758837733 0.9205541269
4200274800.0 -0.3628183531 0.9263375373
4250274500.0 -0.3505439926 0.9313724927
4300274200.0 -0.3377267609 0.936687021
4350273900.0 -0.3238637574 0.9417009516
4400273600.0 -0.3088964424 0.9470728914
4450273300.0 -0.2935572161 0.9522942475
4500273000.0 -0.2799917579 0.9567166414
4550272700.0 -0.2660477293 0.9609160242
4600272400.0 -0.2504132845 0.9651034447
4650272100.0 -0.2387160115 0.9682430797
4700271800.0 -0.2254737845 0.971493461
4750271500.0 -0.2138164681 0.974374217
4800271200.0 -0.2012830467 0.9771829301
4850270900.0 -0.1873986558 0.9799598451
4900270600.0 -0.1735174374 0.9823710939
4950270300.0 -0.159185094 0.9848689701
5000270000.0 -0.1450705477 0.9867878643
5050269700.0 -0.1312420296 0.9884623483
5100269400.0 -0.117609156 0.9903449856
5150269100.0 -0.1043891094 0.991942864
5200268800.0 -0.0910318138 0.9928584978
5250268500.0 -0.0779312384 0.9938873104
5300268200.0 -0.0648560825 0.9941458238
5350267900.0 -0.0524698717 0.9953636312
5400267600.0 -0.0362797167 0.9963341859
5450267300.0 -0.0232448129 0.9967680017
5500267000.0 -0.007844034 0.9970894188
5550266700.0 0.0068086438 0.9972114242
5600266400.0 0.0225958322 0.9970984419
5650266100.0 0.0390978699 0.9970024325
5700265800.0 0.0534759058 0.9960897775
5750265500.0 0.0683941336 0.9953201658
5800265200.0 0.0827966036 0.9946112197
5850264900.0 0.0958397988 0.9934719753
5900264600.0 0.1122043583 0.9915235861
5950264300.0 0.1240428713 0.9896724131
6000264000.0 0.1384126198 0.9882095013
6050263700.0 0.1502926359 0.9865826767
6100263400.0 0.1628157593 0.9851257247
6150263100.0 0.1775915472 0.9826224716
6200262800.0 0.1879898289 0.981008582
6250262500.0 0.200457967 0.9784977678
6300262200.0 0.2133301052 0.9757157583
6350261900.0 0.2263334145 0.9728878337
6400261600.0 0.2401175483 0.9696020596
6450261300.0 0.2515923883 0.9669897253
6500261000.0 0.2646258103 0.9633976405
6550260700.0 0.2774662957 0.9595147353
6600260400.0 0.2909331486 0.9551980417
6650260100.0 0.3048844141 0.9509326854
6700259800.0 0.3168348598 0.9467763976
6750259500.0 0.330491342 0.9418506241
6800259200.0 0.3438272019 0.9368391103
6850258900.0 0.3552799823 0.931489416
6900258600.0 0.3680147164 0.9264519143
6950258300.0 0.3806798965 0.9213281394
7000258000.0 0.3925626805 0.9158928322
7050257700.0 0.4048485812 0.9098693094
7100257400.0 0.4175829204 0.9035285319
7150257100.0 0.4279945617 0.8983332437
7200256800.0 0.4406789749 0.8918785342
7250256500.0 0.4526784011 0.8857045453
7300256200.0 0.4658720358 0.8787880096
7350255900.0 0.4783907313 0.8720286912
7400255600.0 0.4913071342 0.8647124834
7450255300.0 0.5071074161 0.8556308078
7500255000.0 0.518773993 0.848650714
7550254700.0 0.5323621034 0.8398979698
7600254400.0 0.5454277303 0.8318952559
7650254100.0 0.556478319 0.8240639457
7700253800.0 0.5686190062 0.8161528838
7750253500.0 0.5797100604 0.808102767
7800253200.0 0.5903720645 0.8006043468
7850252900.0 0.6001942711 0.793680628
7900252600.0 0.6119379083 0.7847712883
7950252300.0 0.6205468444 0.7782075755
8000252000.0 0.6304761573 0.7704347033
8050251700.0 0.6410891634 0.7622871063
8100251400.0 0.6509840025 0.7543193813
8150251100.0 0.6612334104 0.7456628653
8200250800.0 0.6705524427 0.7376975655
8250250500.0 0.6795873424 0.7297036693
8300250200.0 0.6888315086 0.7212780607
8350249900.0 0.6982198621 0.7123032987
8400249600.0 0.7062130276 0.7042865274
8450249300.0 0.7152409866 0.6952927443
8500249000.0 0.7241837961 0.6863480543
8550248700.0 0.7321135946 0.6774407773
8600248400.0 0.7407590656 0.6677336601
8650248100.0 0.7484313696 0.6583257403
8700247800.0 0.7580374103 0.6471153921
8750247500.0 0.7661246975 0.6369938571
8800247200.0 0.7743217904 0.6265161995
8850246900.0 0.7830393818 0.6151229124
8900246600.0 0.7918077146 0.6037788392
8950246300.0 0.8010371758 0.5906943407
9000246000.0 0.8105812468 0.5780455085
9050245700.0 0.8193840463 0.5651221329
9100245400.0 0.8280665721 0.5526831334
9150245100.0 0.8371763551 0.5390824609
9200244800.0 0.846932803 0.5242260378
9250244500.0 0.8564282372 0.5088014252
9300244200.0 0.8645674556 0.4944842323
9350243900.0 0.8726832702 0.480576584
9400243600.0 0.879371334 0.4683710358
9450243300.0 0.885089446 0.4567468542
9500243000.0 0.89132967 0.4445380154
9550242700.0 0.8951905123 0.4368949855
9600242400.0 0.8991944012 0.4295503267
9650242100.0 0.9026848914 0.4231159505
9700241800.0 0.9074236687 0.4148707379
9750241500.0 0.9110755183 0.4073942254
9800241200.0 0.9161985815 0.3981088344
9850240900.0 0.9216987211 0.3861206707
9900240600.0 0.9273616164 0.3748027713
9950240300.0 0.9340963611 0.3586274836
10000240000.0 0.9386170106 0.346966909
10050239700.0 0.9443148271 0.3322101907
10100239400.0 0.9493757894 0.3161236848
10150239100.0 0.9538893877 0.3011826241
10200238800.0 0.9582224692 0.2862863759
10250238500.0 0.9613711668 0.2729204267
10300238200.0 0.9645735893 0.2591258798
10350237900.0 0.9672354305 0.2460098971
10400237600.0 0.9698555183 0.2324175213
10450237300.0 0.9722985167 0.2189061954
10500237000.0 0.9745549135 0.2066686517
10550236700.0 0.9770302089 0.192556452
10600236400.0 0.9788467741 0.1787927232
10650236100.0 0.9812566621 0.1644056615
10700235800.0 0.9836316389 0.1521057597
10750235500.0 0.9854832215 0.1386674365
10800235200.0 0.9876303258 0.1250038035
10850234900.0 0.9894521014 0.1099989613
10900234600.0 0.9915841024 0.0953530279
10950234300.0 0.993275828 0.0820153246
11000234000.0 0.9952362676 0.066816167
11050233700.0 0.9969782722 0.0504611748
11100233400.0 0.9983538365 0.0330637281
11150233100.0 0.9995843453 0.0167534149
11200232800.0 1.000216769 0.0021020007
11250232500.0 1.001124422 -0.0151096875
11300232200.0 1.001518478 -0.0329999147
11350231900.0 1.002049147 -0.0481208422
11400231600.0 1.001451271 -0.0640082205
11450231300.0 1.000917126 -0.0786792307
11500231000.0 0.9997023499 -0.096337947
11550230700.0 0.9984931346 -0.1091680643
11600230400.0 0.9975216693 -0.121616263
11650230100.0 0.9952293628 -0.1333263888
11700229800.0 0.9931375521 -0.1482051474
11750229500.0 0.9907609398 -0.1621299949
11800229200.0 0.9881253485 -0.1758510969
11850228900.0 0.9847059703 -0.1880072665
11900228600.0 0.9810094475 -0.1980819005
11950228300.0 0.9777017091 -0.2086083443
12000228000.0 0.9750482794 -0.2174729021
12050227700.0 0.9715400514 -0.2302318115
12100227400.0 0.9676827257 -0.2416560261
12150227100.0 0.9633364837 -0.2582876973
12200226800.0 0.9597277393 -0.2687035208
12250226500.0 0.9556760167 -0.2807107362
12300226200.0 0.9509759236 -0.2939806649
12350225900.0 0.9463083535 -0.3082021051
12400225600.0 0.9423227212 -0.3212864819
12450225300.0 0.9377501825 -0.3336335782
12500225000.0 0.9324422622 -0.3483882994
12550224700.0 0.9268093111 -0.3622104432
12600224400.0 0.9220034369 -0.3750701823
12650224100.0 0.9162338927 -0.3895698677
12700223800.0 0.9109405373 -0.4021603194
12750223500.0 0.9054183918 -0.415155216
12800223200.0 0.9000744084 -0.4280920941
12850222900.0 0.8946391312 -0.4402168141
12900222600.0 0.8891022523 -0.452178691
12950222300.0 0.8830736891 -0.4647779314
13000222000.0 0.8766453082 -0.4767551859
13050221700.0 0.8698663174 -0.4891215477
13100221400.0 0.8634025846 -0.5011058864
13150221100.0 0.8566623701 -0.5132236738
13200220800.0 0.8495627696 -0.5249999185
13250220500.0 0.8423171419 -0.537113903
13300220200.0 0.8351366738 -0.5477272243
13350219900.0 0.826972057 -0.5596705461
13400219600.0 0.8186272458 -0.5715961518
13450219300.0 0.8093630271 -0.5852660659
13500219000.0 0.7991248183 -0.5990741652
13550218700.0 0.7893894097 -0.6119190135
13600218400.0 0.7786368126 -0.6240785149
13650218100.0 0.7698691708 -0.6353417454
13700217800.0 0.758188557 -0.6472661927
13750217500.0 0.7484520856 -0.6586840525
13800217200.0 0.7377998191 -0.6702372067
13850216900.0 0.7263081127 -0.6816628032
13900216600.0 0.7167325199 -0.6905531425
13950216300.0 0.7057764825 -0.7003506862
14000216000.0 0.6953220473 -0.7103744569
14050215700.0 0.6860234697 -0.7185054966
14100215400.0 0.6759693645 -0.7274960211
14150215100.0 0.6668089296 -0.7361378606
14200214800.0 0.6575873625 -0.7447009913
14250214500.0 0.6472661619 -0.7542097717
14300214200.0 0.6367861415 -0.7634292083
14350213900.0 0.6255908315 -0.773256014
14400213600.0 0.6137668563 -0.7833169146
14450213300.0 0.6010091641 -0.7931898179
14500213000.0 0.5878323178 -0.8028588394
14550212700.0 0.5751945657 -0.8123479295
14600212400.0 0.5628632975 -0.821480606
14650212100.0 0.5502919958 -0.8298385
14700211800.0 0.5362222955 -0.8397642712
14750211500.0 0.5239956138 -0.8477404534
14800211200.0 0.5115465457 -0.8558872485
14850210900.0 0.4999239455 -0.863412617
14900210600.0 0.4862601646 -0.8712252133
14950210300.0 0.4729467704 -0.8787385483
15000210000.0 0.4601868911 -0.8856798555
15050209700.0 0.4478725077 -0.8916805659
15100209400.0 0.435277666 -0.897344884
15150209100.0 0.4231043037 -0.903400292
15200208800.0 0.4102734769 -0.9085720554
15250208500.0 0.3987511058 -0.9131406163
15300208200.0 0.3867453528 -0.917346987
15350207900.0 0.3733576718 -0.9221157349
15400207600.0 0.3589531678 -0.928150687
15450207300.0 0.3441141667 -0.9332247896
15500207000.0 0.3297199295 -0.9376579467
15550206700.0 0.3148717687 -0.9421506397
15600206400.0 0.2986128908 -0.9467913311
15650206100.0 0.2828222965 -0.9510126562
15700205800.0 0.2694545718 -0.9552875294
15750205500.0 0.2548676802 -0.9583970397
15800205200.0 0.2402977754 -0.9620656023
15850204900.0 0.2260794632 -0.9654279474
15900204600.0 0.2112605254 -0.9690304507
15950204300.0 0.1966856608 -0.9719308595
16000204000.0 0.1826562635 -0.9748240001
16050203700.0 0.1672489337 -0.9778606988
16100203400.0 0.1530714369 -0.9798188075
16150203100.0 0.1387195593 -0.9823288738
16200202800.0 0.1246921946 -0.9846761418
16250202500.0 0.1093870438 -0.9860759194
16300202200.0 0.0943590692 -0.9881744801
16350201900.0 0.0792732028 -0.9891289995
16400201600.0 0.0645259487 -0.9902883205
16450201300.0 0.0494424353 -0.9913905893
16500201000.0 0.0327894417 -0.9920143262
16550200700.0 0.0171121474 -0.9926196948
16600200400.0 0.0014244885 -0.9928299237
16650200100.0 -0.0149282958 -0.9923824177
16700199800.0 -0.0310539635 -0.99210552
16750199500.0 -0.0494581013 -0.9913365553
16800199200.0 -0.065229413 -0.991225603
16850198900.0 -0.0805263734 -0.9891850414
16900198600.0 -0.0943911722 -0.9889946175
16950198300.0 -0.1079942865 -0.9876601901
17000198000.0 -0.1204866001 -0.986392681
17050197700.0 -0.1333655664 -0.9842321835
17100197400.0 -0.1465209935 -0.9829066581
17150197100.0 -0.1583305701 -0.980490327
17200196800.0 -0.1716747353 -0.9782844076
17250196500.0 -0.1846281104 -0.9759243325
17300196200.0 -0.1968248032 -0.9735929745
17350195900.0 -0.208645667 -0.9713491475
17400195600.0 -0.2208171384 -0.9688156166
17450195300.0 -0.2339115228 -0.9659479212
17500195000.0 -0.2475668324 -0.9627473175
17550194700.0 -0.2617253167 -0.9589972122
17600194400.0 -0.2751425269 -0.9552667633
17650194100.0 -0.2887785742 -0.9509993386
17700193800.0 -0.3021360898 -0.9468096772
17750193500.0 -0.3163342853 -0.9423334054
17800193200.0 -0.3304322379 -0.9368027678
17850192900.0 -0.3458638675 -0.9320149514
17900192600.0 -0.3611104982 -0.9255857968
17950192300.0 -0.3766208337 -0.9182912924
18000192000.0 -0.3914165981 -0.9112755902
18050191700.0 -0.4052062876 -0.9033259605
18100191400.0 -0.4195188694 -0.8957556403
18150191100.0 -0.4345116032 -0.8876135101
18200190800.0 -0.4516114846 -0.8784133993
18250190500.0 -0.4683610149 -0.8690305793
18300190200.0 -0.4843069886 -0.860338109
18350189900.0 -0.4986378277 -0.8518989641
18400189600.0 -0.5130977274 -0.8436783105
18450189300.0 -0.5267492468 -0.8361164415
18500189000.0 -0.5397171037 -0.8279996289
18550188700.0 -0.5529135406 -0.8202731766
18600188400.0 -0.5644018536 -0.8134608397
18650188100.0 -0.5753126583 -0.8072772027
18700187800.0 -0.5863728076 -0.8007553697
18750187500.0 -0.5967798638 -0.7941401915
18800187200.0 -0.6073318434 -0.78697623
18850186900.0 -0.6174336712 -0.7802172457
18900186600.0 -0.6276545302 -0.7728519104
18950186300.0 -0.637626934 -0.7652742853
19000186000.0 -0.6445926887 -0.7588369773
19050185700.0 -0.6542449895 -0.7516233445
19100185400.0 -0.6641547742 -0.7435600123
19150185100.0 -0.6737226904 -0.7347018133
19200184800.0 -0.6833976147 -0.7271355046
19250184500.0 -0.69336297 -0.7178805841
19300184200.0 -0.7052735022 -0.7078738943
19350183900.0 -0.7157684008 -0.6983104434
19400183600.0 -0.7257177906 -0.6884379606
19450183300.0 -0.734336767 -0.6780274901
19500183000.0 -0.7424455379 -0.6687283493
19550182700.0 -0.7529590869 -0.6570871095
19600182400.0 -0.7628079251 -0.6460786596
19650182100.0 -0.7734543686 -0.6338589056
19700181800.0 -0.7844889097 -0.6201322531
19750181500.0 -0.7950310467 -0.6059693915
19800181200.0 -0.8055820602 -0.5909246495
19850180900.0 -0.8152372056 -0.5757179106
19900180600.0 -0.8232341066 -0.5610940686
19950180300.0 -0.8324501018 -0.5448389692
20000180000.0 -0.8256795565 -0.5470783215
20050179700.0 -0.8336905115 -0.5341228173
20100179400.0 -0.841494492 -0.5200573061
20150179100.0 -0.851264819 -0.507702379
20200178800.0 -0.8592890644 -0.495905654
20250178500.0 -0.8691983379 -0.481550558
20300178200.0 -0.8782134582 -0.4676401809
20350177900.0 -0.8873066337 -0.4532430052
20400177600.0 -0.896199945 -0.438752422
20450177300.0 -0.904755402 -0.4243614033
20500177000.0 -0.9123928162 -0.4100930423
20550176700.0 -0.9204827622 -0.3966502774
20600176400.0 -0.9271736127 -0.3835219219
20650176100.0 -0.934043062 -0.3715723792
20700175800.0 -0.9398417889 -0.3593411354
20750175500.0 -0.9472549509 -0.3476147019
20800175200.0 -0.9521508854 -0.337258981
20850174900.0 -0.9563072026 -0.325915898
20900174600.0 -0.9613738792 -0.3148432615
20950174300.0 -0.9660895766 -0.3030785829
21000174000.0 -0.9684030192 -0.2920501711
21050173700.0 -0.9714022559 -0.281403016
21100173400.0 -0.9755722576 -0.2691701834
21150173100.0 -0.9798407173 -0.2572334112
21200172800.0 -0.9823876296 -0.2441582654
21250172500.0 -0.9859463931 -0.2297436085
21300172200.0 -0.9883370897 -0.216002076
21350171900.0 -0.9902894862 -0.2013630685
21400171600.0 -0.9916518625 -0.1869737784
21450171300.0 -0.9928650498 -0.1734469428
21500171000.0 -0.9926138683 -0.1568827206
21550170700.0 -0.9917976814 -0.1416513888
21600170400.0 -0.9922799089 -0.1259935718
21650170100.0 -0.9902756172 -0.110560514
21700169800.0 -0.990178168 -0.0953545924
21750169500.0 -0.9892736865 -0.0787248343
21800169200.0 -0.9882557139 -0.0628711557
21850168900.0 -0.9874623178 -0.0458736726
21900168600.0 -0.9860749866 -0.0301355424
21950168300.0 -0.985148396 -0.0137096259
22000168000.0 -0.9841305252 0.0009115867
22050167700.0 -0.9840824017 0.0152452808
22100167400.0 -0.9839583822 0.0304222001
22150167100.0 -0.9848565665 0.046013054
22200166800.0 -0.9850714798 0.0625733436
22250166500.0 -0.9847213321 0.0791650252
22300166200.0 -0.9837757566 0.0965743971
22350165900.0 -0.9828001062 0.1125471538
22400165600.0 -0.9809077084 0.1297000172
22450165300.0 -0.9801015682 0.142373656
22500165000.0 -0.9769029614 0.1570230793
22550164700.0 -0.9762376819 0.1722880293
22600164400.0 -0.9749558178 0.188362516
22650164100.0 -0.9719668606 0.202153388
22700163800.0 -0.9691876044 0.2188997263
22750163500.0 -0.9673180027 0.2337461105
22800163200.0 -0.9643418589 0.246888809
22850162900.0 -0.9615407898 0.26024558
22900162600.0 -0.9602830369 0.2737835871
22950162300.0 -0.9591185165 0.2869123084
23000162000.0 -0.9579135675 0.2984838677
23050161700.0 -0.9558674335 0.3113435216
23100161400.0 -0.9530628948 0.3235286719
23150161100.0 -0.9509558692 0.3370624841
23200160800.0 -0.9483800032 0.3493055152
23250160500.0 -0.9453023001 0.3613150084
23300160200.0 -0.9426800368 0.3726190031
23350159900.0 -0.9391276716 0.3860005572
23400159600.0 -0.9335116383 0.3991817423
23450159300.0 -0.9294023948 0.4124716312
23500159000.0 -0.9251235971 0.4256528776
23550158700.0 -0.919995461 0.4390960746
23600158400.0 -0.9145067151 0.4523337326
23650158100.0 -0.9084336637 0.4666291662
23700157800.0 -0.9006858876 0.480487794
23750157500.0 -0.8919648473 0.4943030179
23800157200.0 -0.8827551916 0.5076353869
23850156900.0 -0.874384212 0.5209502363
23900156600.0 -0.8652515204 0.5334935026
23950156300.0 -0.8555519638 0.5457494639
24000156000.0 -0.8471234109 0.5569538207
24050155700.0 -0.8363863966 0.5691369228
24100155400.0 -0.8272329901 0.5816549552
24150155100.0 -0.8168225415 0.5927034412
24200154800.0 -0.8053262056 0.6048569012
24250154500.0 -0.7942562854 0.6161291022
24300154200.0 -0.7833157991 0.627475965
24350153900.0 -0.770756578 0.6385117876
24400153600.0 -0.7587344716 0.648746278
24450153300.0 -0.7471306068 0.6585098519
24500153000.0 -0.7354280626 0.6682261867
24550152700.0 -0.7245048395 0.6779521706
24600152400.0 -0.712491741 0.687586445
24650152100.0 -0.7011091628 0.695833636
