!Created with skrf (http://scikit-rf.org).
# Hz S RI R 50.0 
!freq ReS11 ImS11
300000.0 -0.9745227733 -0.1206110567
50299700.0 -0.9998864892 0.0150950796
100299400.0 -0.9978099313 0.0280424213
150299100.0 -1.00268361 0.0450587146
200298800.0 -0.9995015362 0.0583075823
250298500.0 -0.9974783479 0.0717844886
300298200.0 -0.9859550074 0.0876133562
350297900.0 -0.993978831 0.0983968621
400297600.0 -0.9931439239 0.1149662772
450297300.0 -0.9908880081 0.1288015099
500297000.0 -0.9891992932 0.1433921365
550296700.0 -0.9844887618 0.1559592608
600296400.0 -1.017362807 0.1891626624
650296100.0 -0.9821040461 0.1856275142
700295800.0 -0.9794285272 0.2001002297
750295500.0 -0.9762715675 0.2140774287
800295200.0 -0.9730050625 0.2283522769
850294900.0 -0.9695062102 0.2420520405
900294600.0 -0.9657971892 0.255727208
950294300.0 -0.9620348354 0.2694258127
1000294000.0 -0.95823816 0.2834928679
1050293700.0 -0.9536325522 0.2970406253
1100293400.0 -0.9494076625 0.3116675668
1150293100.0 -0.9453663471 0.3234916834
1200292800.0 -0.9402354783 0.3377071253
1250292500.0 -0.9347212555 0.3514314575
1300292200.0 -0.9289804704 0.3644731381
1350291900.0 -0.9234706674 0.3784674331
1400291600.0 -0.9181182618 0.3916462267
1450291300.0 -0.9125778974 0.4039960363
1500291000.0 -0.9060453142 0.4174359737
1550290700.0 -0.8995515196 0.4307420683
1600290400.0 -0.8934158041 0.443805283
1650290100.0 -0.8869377029 0.4558727496
1700289800.0 -0.8799017863 0.4693143977
1750289500.0 -0.8728656358 0.4815953511
1800289200.0 -0.8654066089 0.4942833802
1850288900.0 -0.8587693389 0.5059233186
1900288600.0 -0.851109434 0.5188790922
1950288300.0 -0.8428772498 0.5313805582
2000288000.0 -0.8354031356 0.5429049317
2050287700.0 -0.8271748506 0.5552626255
2100287400.0 -0.8194269336 0.5667029742
2150287100.0 -0.8108516048 0.5786631166
2200286800.0 -0.8030567126 0.5893093049
2250286500.0 -0.7939996445 0.6013634041
2300286200.0 -0.7853610459 0.6128856943
2350285900.0 -0.7767217361 0.623635288
2400285600.0 -0.7680478959 0.6345589448
2450285300.0 -0.7591681821 0.6451564332
2500285000.0 -0.7492156108 0.656705481
2550284700.0 -0.7400403826 0.6670639227
2600284400.0 -0.7311286284 0.6769306495
2650284100.0 -0.7223855735 0.6872678271
2700283800.0 -0.7118772652 0.6978224801
2750283500.0 -0.7014376942 0.7084472863
2800283200.0 -0.6912903862 0.7180255295
2850282900.0 -0.6811334811 0.7280389983
2900282600.0 -0.6706183956 0.7377827359
2950282300.0 -0.6603762042 0.7472195397
3000282000.0 -0.6495009754 0.7565605998
3050281700.0 -0.6384797939 0.7658867785
3100281400.0 -0.6269050221 0.7749559101
3150281100.0 -0.6155001427 0.7840065265
3200280800.0 -0.6039274785 0.7924864404
3250280500.0 -0.5927836452 0.8004477437
3300280200.0 -0.5814065773 0.8085588193
3350279900.0 -0.5693634198 0.8165039162
3400279600.0 -0.5567797098 0.8244741293
3450279300.0 -0.5459698882 0.8313396753
3500279000.0 -0.5337015315 0.8383245815
3550278700.0 -0.52171217 0.8455603314
3600278400.0 -0.5097691433 0.8525582495
3650278100.0 -0.496674988 0.8599935602
3700277800.0 -0.4849191363 0.866702359
3750277500.0 -0.472273981 0.8732201153
3800277200.0 -0.4599828025 0.879718745
3850276900.0 -0.4477752488 0.8855401006
3900276600.0 -0.4370254731 0.8916431844
3950276300.0 -0.4245623801 0.8972666065
4000276000.0 -0.4130695952 0.9031802572
4050275700.0 -0.4002773822 0.9091483173
4100275400.0 -0.3892047187 0.9145645559
4150275100.0 -0.3760925624 0.9203630832
4200274800.0 -0.3626499967 0.9262159795
4250274500.0 -0.3501786793 0.9313000453
4300274200.0 -0.336956245 0.9366536279
4350273900.0 -0.3229638945 0.9420130957
4400273600.0 -0.307994606 0.947213714
4450273300.0 -0.2930641555 0.9518941725
4500273000.0 -0.2797918804 0.9565549128
4550272700.0 -0.2660752376 0.960711228
4600272400.0 -0.2508350109 0.9647079944
4650272100.0 -0.2393657111 0.9678296391
4700271800.0 -0.2263467555 0.9712279535
4750271500.0 -0.2148097611 0.9740430962
4800271200.0 -0.2024814394 0.9768176212
4850270900.0 -0.1885196592 0.9796124368
4900270600.0 -0.1747954108 0.9820968117
4950270300.0 -0.1602198831 0.9845662215
5000270000.0 -0.1459648325 0.9868085972
5050269700.0 -0.1323794145 0.9883204485
5100269400.0 -0.1182972606 0.9901316808
5150269100.0 -0.1045918118 0.9919311277
5200268800.0 -0.0911984506 0.9929414754
5250268500.0 -0.0781322252 0.9936302225
5300268200.0 -0.0648008369 0.9944910378
5350267900.0 -0.0521494482 0.9953793729
5400267600.0 -0.0357468155 0.9964738051
5450267300.0 -0.022576538 0.996615765
5500267000.0 -0.0071895651 0.9971505741
5550266700.0 0.0077049831 0.9972903554
5600266400.0 0.0233947901 0.9973404969
5650266100.0 0.0400120778 0.9966174408
5700265800.0 0.0544320277 0.996140867
5750265500.0 0.0694043984 0.9953144247
5800265200.0 0.0829379065 0.9939353123
5850264900.0 0.0961396891 0.9934633421
5900264600.0 0.1126705714 0.9913163041
5950264300.0 0.1241129277 0.9895155616
6000264000.0 0.1379485344 0.987921376
6050263700.0 0.1499376756 0.9866603818
6100263400.0 0.1624145082 0.9850961558
6150263100.0 0.1769146688 0.9824363715
6200262800.0 0.1865594136 0.9809730418
6250262500.0 0.1990234604 0.9784954902
6300262200.0 0.2115215926 0.9761377227
6350261900.0 0.2245736498 0.9732404684
6400261600.0 0.2383425809 0.9699529266
6450261300.0 0.2494468755 0.9673307988
6500261000.0 0.2627735703 0.9638191216
6550260700.0 0.275444261 0.9597577188
6600260400.0 0.2894519499 0.955961572
6650260100.0 0.3035728643 0.9518136892
6700259800.0 0.3153271591 0.9471312204
6750259500.0 0.3289145366 0.9421300913
6800259200.0 0.3425813559 0.9372569102
6850258900.0 0.354863798 0.931872669
6900258600.0 0.3672408225 0.9267887855
6950258300.0 0.3800585698 0.9215812696
7000258000.0 0.391515276 0.9163007137
7050257700.0 0.4036859309 0.9103054672
7100257400.0 0.4168411505 0.9040016959
7150257100.0 0.4274008443 0.8985341674
7200256800.0 0.440684852 0.892124351
7250256500.0 0.4529082863 0.8856581583
7300256200.0 0.4657663682 0.8789089466
7350255900.0 0.4785363374 0.8718686566
7400255600.0 0.4924755373 0.8643173343
7450255300.0 0.5078287653 0.8551400923
7500255000.0 0.5201851354 0.8476692271
7550254700.0 0.5339155377 0.8387157646
7600254400.0 0.5467723522 0.8304175468
7650254100.0 0.5581621747 0.8228014038
7700253800.0 0.5702318406 0.8148047741
7750253500.0 0.5812603744 0.807066478
7800253200.0 0.5914888265 0.7991418871
7850252900.0 0.6015333086 0.7919657499
7900252600.0 0.6129978915 0.78333922
7950252300.0 0.6217201754 0.7769637489
8000252000.0 0.63179013 0.7693362734
8050251700.0 0.6420166504 0.761144088
8100251400.0 0.6520185349 0.753162476
8150251100.0 0.6623599617 0.7445291805
8200250800.0 0.6717841517 0.7364825964
8250250500.0 0.680273039 0.7285595916
8300250200.0 0.6895347851 0.720253587
8350249900.0 0.6986830033 0.7113299413
8400249600.0 0.7069590227 0.7035052894
8450249300.0 0.715637105 0.6945136198
8500249000.0 0.7241294396 0.6855288248
8550248700.0 0.7326291818 0.6766919443
8600248400.0 0.7409509169 0.6670972684
8650248100.0 0.7485219268 0.6576425738
8700247800.0 0.7580629492 0.6465461962
8750247500.0 0.7662203271 0.6364786246
8800247200.0 0.7741590495 0.6263073844
8850246900.0 0.7828676652 0.6148280784
8900246600.0 0.7913123383 0.603364424
8950246300.0 0.8005917689 0.5906994541
9000246000.0 0.8093784836 0.5784652666
9050245700.0 0.8181464856 0.5659783968
9100245400.0 0.8261366069 0.5538419092
9150245100.0 0.8355144413 0.5405985325
9200244800.0 0.8446798092 0.5260266095
9250244500.0 0.8540901547 0.5112645421
9300244200.0 0.8624790343 0.4973536549
9350243900.0 0.8698527117 0.4840321977
9400243600.0 0.8767603941 0.4721400215
9450243300.0 0.8823492119 0.4612355667
9500243000.0 0.8886226683 0.4494433562
9550242700.0 0.8926877956 0.4418853935
9600242400.0 0.8968131559 0.4341185827
9650242100.0 0.9006986824 0.4276088887
9700241800.0 0.9057613717 0.4188978114
9750241500.0 0.9097609001 0.4115860755
9800241200.0 0.9148180525 0.4018806466
9850240900.0 0.9204446735 0.3901550238
9900240600.0 0.9263925313 0.3784810951
9950240300.0 0.933210663 0.3618688694
10000240000.0 0.9384306239 0.3500688925
10050239700.0 0.9439339741 0.3341490398
10100239400.0 0.9494838182 0.3180283692
10150239100.0 0.9537865004 0.3028367655
10200238800.0 0.958274906 0.2876533644
10250238500.0 0.9615910082 0.2741318398
10300238200.0 0.964731482 0.2600835485
10350237900.0 0.967430906 0.246447136
10400237600.0 0.9699740269 0.2333605932
10450237300.0 0.9727727691 0.2194890162
10500237000.0 0.9747540749 0.2073610892
10550236700.0 0.9772766799 0.1930418177
10600236400.0 0.9797913089 0.1788312846
10650236100.0 0.9809882017 0.1648980894
10700235800.0 0.9838404483 0.152052685
10750235500.0 0.9860071984 0.1386622936
10800235200.0 0.9877896793 0.1244837887
10850234900.0 0.9899280174 0.1097229001
10900234600.0 0.9921029103 0.0949008564
10950234300.0 0.9938584443 0.0813893476
11000234000.0 0.9953891719 0.0660511083
11050233700.0 0.9972268486 0.0494020961
11100233400.0 0.9988394784 0.0316916797
11150233100.0 0.9997231366 0.0150531503
11200232800.0 1.000887939 -0.0008582899
11250232500.0 1.001548017 -0.017840708
11300232200.0 1.002023517 -0.036170709
11350231900.0 1.0022845 -0.0529034319
11400231600.0 1.001798874 -0.0684276755
11450231300.0 1.001478291 -0.0831808175
11500231000.0 0.9997198385 -0.1003574632
11550230700.0 0.9984328717 -0.1131865961
11600230400.0 0.9973667895 -0.1259495658
11650230100.0 0.9950833157 -0.1372320721
11700229800.0 0.992714082 -0.1519997932
11750229500.0 0.9905758397 -0.1667471247
11800229200.0 0.9874165806 -0.1799049512
11850228900.0 0.9837804941 -0.1918610423
11900228600.0 0.9801595515 -0.2015983619
11950228300.0 0.9772045946 -0.2115417066
12000228000.0 0.9739269632 -0.220964555
12050227700.0 0.9700761936 -0.233577733
12100227400.0 0.9670671343 -0.2442250082
12150227100.0 0.9624296274 -0.2610617051
12200226800.0 0.9587170297 -0.2716914028
12250226500.0 0.9548874626 -0.2842623052
12300226200.0 0.9500349619 -0.2967474976
12350225900.0 0.9448053496 -0.3112378733
12400225600.0 0.9406945986 -0.3236372004
12450225300.0 0.9365511708 -0.3356052037
12500225000.0 0.930947056 -0.3507705855
12550224700.0 0.9253743061 -0.3651223777
12600224400.0 0.9205993004 -0.3774860386
12650224100.0 0.9147323953 -0.391658745
12700223800.0 0.9095201383 -0.4044410039
12750223500.0 0.9037984584 -0.4176804775
12800223200.0 0.899024271 -0.4298402298
12850222900.0 0.893623583 -0.4420544402
12900222600.0 0.8875658236 -0.4541919514
12950222300.0 0.8815480452 -0.4668378058
13000222000.0 0.8754265377 -0.4781967563
13050221700.0 0.8686665829 -0.4917312334
13100221400.0 0.8619750168 -0.5034170525
13150221100.0 0.8553430384 -0.5154176122
13200220800.0 0.8483195126 -0.5267860146
13250220500.0 0.8409177817 -0.5391391278
13300220200.0 0.8333974232 -0.5500571972
13350219900.0 0.8254637151 -0.5621823355
13400219600.0 0.8169467045 -0.5742513369
13450219300.0 0.8079631607 -0.5869611894
13500219000.0 0.7978237029 -0.6007152535
13550218700.0 0.7877445257 -0.6132504504
13600218400.0 0.7778543985 -0.6250590415
13650218100.0 0.7684899724 -0.636281673
13700217800.0 0.7569757756 -0.6478529757
13750217500.0 0.7475375704 -0.6585109352
13800217200.0 0.7366712349 -0.6706068241
13850216900.0 0.7265478886 -0.6816833326
13900216600.0 0.7159476227 -0.6902769852
13950216300.0 0.7047929735 -0.7008629222
14000216000.0 0.6958434303 -0.7096032031
14050215700.0 0.6865149728 -0.7171399111
14100215400.0 0.6769473467 -0.7265393884
14150215100.0 0.6674594627 -0.7354652519
14200214800.0 0.6579715105 -0.7441891394
14250214500.0 0.6476029608 -0.7536611194
14300214200.0 0.6370287792 -0.7629903386
14350213900.0 0.6259108861 -0.7727197448
14400213600.0 0.6141051771 -0.7824871366
14450213300.0 0.6013333674 -0.7926934187
14500213000.0 0.5882216253 -0.8028524872
14550212700.0 0.5758716781 -0.812088404
14600212400.0 0.5634109756 -0.8209108165
14650212100.0 0.5505770864 -0.8293050545
14700211800.0 0.5369949023 -0.8388940416
14750211500.0 0.5247345441 -0.8473575587
14800211200.0 0.5122557183 -0.8556758168
14850210900.0 0.500122682 -0.8630858169
14900210600.0 0.486811103 -0.8710725989
14950210300.0 0.4735333977 -0.8786208126
15000210000.0 0.4606642475 -0.8855118746
15050209700.0 0.4482458542 -0.8914852219
15100209400.0 0.4355297431 -0.897773038
15150209100.0 0.4232089762 -0.9030031216
15200208800.0 0.4112660537 -0.9083161393
15250208500.0 0.3991708816 -0.9127243047
15300208200.0 0.3875313956 -0.9179185256
15350207900.0 0.3739498851 -0.9218360559
15400207600.0 0.3597707202 -0.9273962846
15450207300.0 0.345618188 -0.932578336
15500207000.0 0.3306816195 -0.9369213003
15550206700.0 0.3157220701 -0.9419641841
15600206400.0 0.2995820953 -0.9466432519
15650206100.0 0.2839188561 -0.9506321219
15700205800.0 0.2700878565 -0.9545288249
15750205500.0 0.2561502043 -0.9579498901
15800205200.0 0.2419454817 -0.9613169554
15850204900.0 0.2276704954 -0.9649067203
15900204600.0 0.2125585533 -0.9684968737
15950204300.0 0.1981940476 -0.9716457286
16000204000.0 0.1840343909 -0.9746796753
16050203700.0 0.1685411041 -0.977413109
16100203400.0 0.154358498 -0.9800511486
16150203100.0 0.139195365 -0.9823228836
16200202800.0 0.1251367242 -0.9842085006
16250202500.0 0.1101976827 -0.9862640314
16300202200.0 0.0947884791 -0.9874748751
16350201900.0 0.0800221835 -0.9889917798
16400201600.0 0.0650059964 -0.9903250352
16450201300.0 0.0497717251 -0.9913789962
16500201000.0 0.0330123699 -0.9921850498
16550200700.0 0.0169004207 -0.9925756691
16600200400.0 0.0010346323 -0.9930413963
16650200100.0 -0.0148963425 -0.9927940956
16700199800.0 -0.0313925085 -0.9929112394
16750199500.0 -0.0505276411 -0.9914159378
16800199200.0 -0.066241405 -0.9910896581
16850198900.0 -0.0819822352 -0.9897827613
16900198600.0 -0.0959790778 -0.9887153647
16950198300.0 -0.1091497219 -0.9878064893
17000198000.0 -0.1229228765 -0.985592101
17050197700.0 -0.1348495769 -0.9846293952
17100197400.0 -0.1479204051 -0.9817759079
17150197100.0 -0.1606157255 -0.9802762629
17200196800.0 -0.1734192344 -0.9783175311
17250196500.0 -0.1861936058 -0.9755942369
17300196200.0 -0.1986617667 -0.9733671362
17350195900.0 -0.2104272274 -0.9709672737
17400195600.0 -0.2226050763 -0.9684491408
17450195300.0 -0.2353210541 -0.9655540068
17500195000.0 -0.2486718786 -0.962033316
17550194700.0 -0.2625383009 -0.9589628763
17600194400.0 -0.2764225225 -0.9549620122
17650194100.0 -0.2902755889 -0.9501924864
17700193800.0 -0.3027822414 -0.9466425854
17750193500.0 -0.3170837511 -0.9419734423
17800193200.0 -0.3311983218 -0.9369206141
17850192900.0 -0.3465899311 -0.9314040086
17900192600.0 -0.3610786406 -0.9249287795
17950192300.0 -0.3773201218 -0.9178308634
18000192000.0 -0.3917218527 -0.9110897861
18050191700.0 -0.4056021818 -0.9030080583
18100191400.0 -0.4196706585 -0.8953438332
18150191100.0 -0.4346182033 -0.8875252475
18200190800.0 -0.4513859744 -0.8781250237
18250190500.0 -0.4682262682 -0.8688372161
18300190200.0 -0.4838812056 -0.8599805533
18350189900.0 -0.4991142471 -0.8516302392
18400189600.0 -0.5136852556 -0.8427477371
18450189300.0 -0.5270574703 -0.8353646796
18500189000.0 -0.5400000447 -0.8271758226
18550188700.0 -0.5531829308 -0.8194995082
18600188400.0 -0.5649600323 -0.8125556888
18650188100.0 -0.5761295902 -0.8065097055
18700187800.0 -0.5869492294 -0.7996507215
18750187500.0 -0.5980705531 -0.7927814494
18800187200.0 -0.6086572778 -0.7858661805
18850186900.0 -0.6189811926 -0.7789647086
18900186600.0 -0.6291161966 -0.7718269867
18950186300.0 -0.6394222759 -0.763970288
19000186000.0 -0.6466157545 -0.7576448129
19050185700.0 -0.6562609552 -0.750921893
19100185400.0 -0.6662403187 -0.7425097301
19150185100.0 -0.6763448858 -0.7339364326
19200184800.0 -0.685319902 -0.7258358851
19250184500.0 -0.695882663 -0.7161384163
19300184200.0 -0.7071734989 -0.7069339801
19350183900.0 -0.7177884852 -0.6973047386
19400183600.0 -0.7272955732 -0.6872937728
19450183300.0 -0.7369491062 -0.6769318157
19500183000.0 -0.7454558693 -0.6664353941
19550182700.0 -0.7545758113 -0.6562454799
19600182400.0 -0.7646877858 -0.6446741379
19650182100.0 -0.775381817 -0.6322238655
19700181800.0 -0.7858567528 -0.619245048
19750181500.0 -0.7963683617 -0.6051028921
19800181200.0 -0.806616521 -0.5899009365
19850180900.0 -0.8163048043 -0.5745302148
19900180600.0 -0.823912842 -0.5603688973
19950180300.0 -0.833258772 -0.5438170483
20000180000.0 -0.82376802 -0.5469488968
20050179700.0 -0.8319007408 -0.5340032412
20100179400.0 -0.8399068774 -0.5209823228
20150179100.0 -0.8488062523 -0.5093935577
20200178800.0 -0.8570346206 -0.4969464187
20250178500.0 -0.8664275199 -0.4847087962
20300178200.0 -0.8756726337 -0.4701605587
20350177900.0 -0.8851141168 -0.4562027002
20400177600.0 -0.8945027821 -0.4422115893
20450177300.0 -0.9028616885 -0.4276029104
20500177000.0 -0.9108704135 -0.4139621225
20550176700.0 -0.9185682843 -0.400391933
20600176400.0 -0.9256068592 -0.3871400181
20650176100.0 -0.932449778 -0.3750963898
20700175800.0 -0.9388119295 -0.362507921
20750175500.0 -0.9445485077 -0.3514347432
20800175200.0 -0.9494941011 -0.3412146526
20850174900.0 -0.9544814687 -0.3296275307
20900174600.0 -0.9585992349 -0.3184290276
20950174300.0 -0.9624489378 -0.3075567882
21000174000.0 -0.9656579473 -0.2975259873
21050173700.0 -0.967118878 -0.2870849257
21100173400.0 -0.9712296871 -0.2761101589
21150173100.0 -0.9752585957 -0.2638579617
21200172800.0 -0.9786101481 -0.2510393882
21250172500.0 -0.982288982 -0.2364652189
21300172200.0 -0.9851930441 -0.2228305394
21350171900.0 -0.987036113 -0.2083944447
21400171600.0 -0.9892121911 -0.1941885548
21450171300.0 -0.9895530578 -0.179238892
21500171000.0 -0.9900002662 -0.1647614
21550170700.0 -0.9898684044 -0.1494945166
21600170400.0 -0.9911710884 -0.1339109324
21650170100.0 -0.9909900285 -0.1185884101
21700169800.0 -0.9899518223 -0.1035623298
21750169500.0 -0.9902519966 -0.0861598317
21800169200.0 -0.9896460898 -0.0703517493
21850168900.0 -0.9882868602 -0.0537371397
21900168600.0 -0.9883245542 -0.0374935076
21950168300.0 -0.9877740463 -0.0217960931
22000168000.0 -0.9873707263 -0.0064774921
22050167700.0 -0.9879941446 0.0073963568
22100167400.0 -0.9885273974 0.0229466381
22150167100.0 -0.9892355847 0.0392432823
22200166800.0 -0.9897976342 0.0559221355
22250166500.0 -0.9893846461 0.0731375318
22300166200.0 -0.9892715871 0.0885927455
22350165900.0 -0.987678186 0.1057103356
22400165600.0 -0.9853346501 0.1210386558
22450165300.0 -0.9843563834 0.1362807061
22500165000.0 -0.9827156549 0.150856716
22550164700.0 -0.9812849097 0.1671367505
22600164400.0 -0.9789886774 0.1826500864
22650164100.0 -0.9766158805 0.1976458409
22700163800.0 -0.973219118 0.2143587567
22750163500.0 -0.9704983065 0.2285243981
22800163200.0 -0.9676914417 0.2418117657
22850162900.0 -0.9648527339 0.2550128335
22900162600.0 -0.9636467797 0.2689175134
22950162300.0 -0.9619255957 0.2824906934
23000162000.0 -0.960506177 0.2946346534
23050161700.0 -0.95735969 0.3081046234
23100161400.0 -0.9555010911 0.321401101
23150161100.0 -0.9516716856 0.3345506111
23200160800.0 -0.9497304519 0.3476540616
23250160500.0 -0.9459696539 0.3594985717
23300160200.0 -0.9439037882 0.3703926675
23350159900.0 -0.9392493933 0.385702451
23400159600.0 -0.9351026856 0.3989686035
23450159300.0 -0.9290795346 0.4122949694
23500159000.0 -0.9247489866 0.4255607507
23550158700.0 -0.9201159457 0.4396915572
23600158400.0 -0.9141998402 0.4535555969
23650158100.0 -0.9074782852 0.4679017675
23700157800.0 -0.899197596 0.4818367945
23750157500.0 -0.8899479746 0.4966467865
23800157200.0 -0.8805110589 0.5099691848
23850156900.0 -0.8709056668 0.5225236295
23900156600.0 -0.8610522471 0.5352677184
23950156300.0 -0.8522292064 0.5477450382
24000156000.0 -0.8426659778 0.5602285717
24050155700.0 -0.831962438 0.5715890337
24100155400.0 -0.8223746634 0.5848704255
24150155100.0 -0.8111757663 0.5965313531
24200154800.0 -0.8002900039 0.6075567144
24250154500.0 -0.7880205978 0.6202879374
24300154200.0 -0.7773791644 0.6320983638
24350153900.0 -0.7651339974 0.6427468239
24400153600.0 -0.7529924637 0.6534404364
24450153300.0 -0.740964853 0.6639564279
24500153000.0 -0.7292785118 0.6739057892
24550152700.0 -0.7177724924 0.6834950666
24600152400.0 -0.705695975 0.6924951082
24650152100.0 -0.6941444402 0.7014760468
