!Created with skrf (http://scikit-rf.org).
# Hz S RI R 50.0 
!freq ReS11 ImS11
300000.0 -0.986415293 -0.0856098465
50299700.0 -0.9998153944 0.0167163022
100299400.0 -0.9979589493 0.0294694958
150299100.0 -1.002627914 0.0462752663
200298800.0 -0.999581696 0.0595673265
250298500.0 -0.9973860025 0.0729773327
300298200.0 -0.9857804975 0.0889689152
350297900.0 -0.9937162934 0.0995721332
400297600.0 -0.992864203 0.1164138684
450297300.0 -0.9906504557 0.1299995105
500297000.0 -0.9890996051 0.1449128163
550296700.0 -0.9841449358 0.1574320223
600296400.0 -1.016882372 0.1906765968
650296100.0 -0.9817896579 0.1871149803
700295800.0 -0.9788650507 0.2014717409
750295500.0 -0.9757914326 0.2154990808
800295200.0 -0.9724341818 0.229770842
850294900.0 -0.9688773684 0.2433917256
900294600.0 -0.9652296896 0.2571334894
950294300.0 -0.9616491589 0.2708253084
1000294000.0 -0.9575909692 0.2849582763
1050293700.0 -0.9529872578 0.2985357615
1100293400.0 -0.9486874549 0.3131740149
1150293100.0 -0.945017964 0.3248264317
1200292800.0 -0.9395154029 0.3392947609
1250292500.0 -0.934039173 0.3525788033
1300292200.0 -0.9284760994 0.3658087967
1350291900.0 -0.9228096991 0.3799038213
1400291600.0 -0.9174870922 0.3928643999
1450291300.0 -0.9119216013 0.4051367828
1500291000.0 -0.9055851233 0.418483172
1550290700.0 -0.8990602664 0.4316924298
1600290400.0 -0.8928709256 0.4446326365
1650290100.0 -0.8862285921 0.4567667802
1700289800.0 -0.8794904723 0.470234326
1750289500.0 -0.8724152976 0.4823824274
1800289200.0 -0.8649945884 0.4954535767
1850288900.0 -0.8583160393 0.5068425268
1900288600.0 -0.8505094941 0.5198225532
1950288300.0 -0.8422221 0.5322082603
2000288000.0 -0.8349545931 0.5436493292
2050287700.0 -0.8267513638 0.5559325932
2100287400.0 -0.8186764694 0.5677825739
2150287100.0 -0.8101398171 0.5798921234
2200286800.0 -0.8022149823 0.590144251
2250286500.0 -0.7932980229 0.6022125807
2300286200.0 -0.7846048671 0.6137372638
2350285900.0 -0.7754269713 0.6248870841
2400285600.0 -0.7663764138 0.6359952937
2450285300.0 -0.7579619101 0.6464058249
2500285000.0 -0.7483510599 0.6576226157
2550284700.0 -0.7391830728 0.6677780102
2600284400.0 -0.7298683764 0.6780776591
2650284100.0 -0.7206061742 0.6885701894
2700283800.0 -0.7099237176 0.6989169013
2750283500.0 -0.6997341002 0.7095028105
2800283200.0 -0.6899980826 0.7192218785
2850282900.0 -0.6797723872 0.7292676781
2900282600.0 -0.6695198158 0.7385873607
2950282300.0 -0.6594191542 0.7478371144
3000282000.0 -0.6487672915 0.7573246172
3050281700.0 -0.637493924 0.7663899251
3100281400.0 -0.6258765173 0.7757450626
3150281100.0 -0.6142405809 0.7851285422
3200280800.0 -0.602541501 0.7935465398
3250280500.0 -0.5916485498 0.8013387458
3300280200.0 -0.5805733778 0.8089566106
3350279900.0 -0.5692512641 0.8166672264
3400279600.0 -0.5569474746 0.8245621636
3450279300.0 -0.5459955384 0.8315732337
3500279000.0 -0.534002659 0.8387998976
3550278700.0 -0.5218767726 0.8461812681
3600278400.0 -0.5094526556 0.8530694013
3650278100.0 -0.4960599687 0.860731654
3700277800.0 -0.4841537138 0.8673118504
3750277500.0 -0.4722117867 0.8737009514
3800277200.0 -0.4592474639 0.8804823686
3850276900.0 -0.4472593407 0.8863082643
3900276600.0 -0.4359955496 0.8919622415
3950276300.0 -0.4235484899 0.898216287
4000276000.0 -0.4113851795 0.9040444135
4050275700.0 -0.3981860861 0.9102556345
4100275400.0 -0.386806275 0.9155577712
4150275100.0 -0.3740054973 0.9214962586
4200274800.0 -0.3611332143 0.926885596
4250274500.0 -0.3485177158 0.9318574796
4300274200.0 -0.3354735454 0.9372219453
4350273900.0 -0.321983053 0.9421210707
4400273600.0 -0.3072597134 0.9474190269
4450273300.0 -0.2919207822 0.9523546421
4500273000.0 -0.2784440995 0.9568310997
4550272700.0 -0.2642418847 0.9608002955
4600272400.0 -0.2488968586 0.9650965914
4650272100.0 -0.2369844705 0.9681928534
4700271800.0 -0.2236417693 0.9715495896
4750271500.0 -0.2118432609 0.9743722535
4800271200.0 -0.1991159476 0.9771689185
4850270900.0 -0.1854584419 0.9801134921
4900270600.0 -0.1715092129 0.9824618694
4950270300.0 -0.1575437987 0.9848577871
5000270000.0 -0.1435267524 0.9869332095
5050269700.0 -0.1299796693 0.9890087074
5100269400.0 -0.1164785131 0.9902920291
5150269100.0 -0.1030091128 0.992202692
5200268800.0 -0.0896454623 0.9927195636
5250268500.0 -0.0767003828 0.994160213
5300268200.0 -0.063563661 0.9942856892
5350267900.0 -0.0514250954 0.9950924825
5400267600.0 -0.0353526561 0.9965297903
5450267300.0 -0.022590604 0.9967185417
5500267000.0 -0.0073037687 0.9969771222
5550266700.0 0.0072170497 0.997273775
5600266400.0 0.0226463603 0.9970839035
5650266100.0 0.0390569473 0.9966589229
5700265800.0 0.0533772418 0.9960683946
5750265500.0 0.0686047325 0.9953059024
5800265200.0 0.0826364439 0.9940182102
5850264900.0 0.0959425789 0.9929111915
5900264600.0 0.1122303297 0.991100394
5950264300.0 0.1247424052 0.9896940319
6000264000.0 0.1388978414 0.9878604259
6050263700.0 0.151520765 0.9860316885
6100263400.0 0.1640753754 0.9843271412
6150263100.0 0.1789227497 0.9819028259
6200262800.0 0.1894754652 0.9799830192
6250262500.0 0.2023847585 0.9776475184
6300262200.0 0.2153501635 0.9746331349
6350261900.0 0.2282500877 0.9716694236
6400261600.0 0.2420923816 0.9683122359
6450261300.0 0.2534617788 0.9654686567
6500261000.0 0.2662758408 0.962008657
6550260700.0 0.2793356482 0.9581487213
6600260400.0 0.2926852539 0.9543613368
6650260100.0 0.3067981265 0.9502501005
6700259800.0 0.3185579441 0.9457908985
6750259500.0 0.332195533 0.9409949605
6800259200.0 0.3451284568 0.9359296069
6850258900.0 0.3574116963 0.9308086266
6900258600.0 0.3692583279 0.9259914066
6950258300.0 0.3818207351 0.9208907793
7000258000.0 0.3938621125 0.9153225555
7050257700.0 0.4060717292 0.9093288916
7100257400.0 0.4190552782 0.9031767146
7150257100.0 0.4291644444 0.8979849697
7200256800.0 0.4421397695 0.8916664099
7250256500.0 0.4535268594 0.8853085655
7300256200.0 0.4667846044 0.878755734
7350255900.0 0.4785835207 0.8718985419
7400255600.0 0.4913919639 0.8646790097
7450255300.0 0.5063896135 0.8559235377
7500255000.0 0.5179856799 0.8488678821
7550254700.0 0.531210912 0.8404144688
7600254400.0 0.5444355967 0.8323678404
7650254100.0 0.5561128624 0.8244804618
7700253800.0 0.5682549502 0.8164059906
7750253500.0 0.5788330847 0.8085670034
7800253200.0 0.5900415829 0.8005418298
7850252900.0 0.5998132701 0.7934844991
7900252600.0 0.6117484648 0.7847252792
7950252300.0 0.6206797949 0.7779349177
8000252000.0 0.6306950659 0.7699654972
8050251700.0 0.6415344004 0.7616343877
8100251400.0 0.6513521823 0.7533474135
8150251100.0 0.6616695755 0.7445711559
8200250800.0 0.6711020424 0.7365952105
8250250500.0 0.6801201203 0.7283412302
8300250200.0 0.6895679012 0.7197835195
8350249900.0 0.6989870789 0.7107083965
8400249600.0 0.7073889668 0.7028551661
8450249300.0 0.716510737 0.6935734887
8500249000.0 0.7253327413 0.6844373132
8550248700.0 0.7334323669 0.6753719552
8600248400.0 0.7421234565 0.6657664341
8650248100.0 0.7498113357 0.6566300054
8700247800.0 0.7592823348 0.6454789386
8750247500.0 0.7675658934 0.6353823751
8800247200.0 0.7757396924 0.625243183
8850246900.0 0.7843842209 0.6140185285
8900246600.0 0.7926235866 0.6028336345
8950246300.0 0.802021626 0.5901768571
9000246000.0 0.8112727401 0.5776868123
9050245700.0 0.8198704238 0.5650923816
9100245400.0 0.8287615537 0.5525976341
9150245100.0 0.8377723438 0.5395815666
9200244800.0 0.8469797489 0.5249078306
9250244500.0 0.8561682091 0.5095421255
9300244200.0 0.8645880933 0.4953676482
9350243900.0 0.8722148506 0.4815506681
9400243600.0 0.8791708466 0.468656482
9450243300.0 0.8850493746 0.4564872106
9500243000.0 0.8915716709 0.4438404009
9550242700.0 0.8958288244 0.4352678374
9600242400.0 0.8998818459 0.4270670042
9650242100.0 0.9037781346 0.4199280565
9700241800.0 0.9083192229 0.4112682928
9750241500.0 0.9122632176 0.4035433472
9800241200.0 0.9169574514 0.3941497287
9850240900.0 0.9220485647 0.3823459839
9900240600.0 0.9278397414 0.3709266596
9950240300.0 0.9345478546 0.3550224967
10000240000.0 0.9385214532 0.3431130607
10050239700.0 0.9447239756 0.328145049
10100239400.0 0.949340204 0.3129074184
10150239100.0 0.9536144251 0.2986256927
10200238800.0 0.9579031988 0.2838460238
10250238500.0 0.9613302058 0.2704707598
10300238200.0 0.9646460735 0.2565436715
10350237900.0 0.9672682708 0.2434815859
10400237600.0 0.9700055532 0.2303653559
10450237300.0 0.9725825607 0.2170314155
10500237000.0 0.9749501868 0.2045809026
10550236700.0 0.9770978136 0.1913008926
10600236400.0 0.9792176364 0.1771600554
10650236100.0 0.9812456101 0.1632104903
10700235800.0 0.9839319429 0.1507081614
10750235500.0 0.9859210602 0.1380678639
10800235200.0 0.9879468839 0.1242895424
10850234900.0 0.9898629608 0.109512159
10900234600.0 0.9918200954 0.0949959497
10950234300.0 0.9933372049 0.0817091736
11000234000.0 0.9949597394 0.067167701
11050233700.0 0.9967362626 0.0511907776
11100233400.0 0.9978313059 0.0340807076
11150233100.0 0.9990392537 0.0175583901
11200232800.0 0.9995445144 0.0030116443
11250232500.0 1.00061957 -0.0131639258
11300232200.0 1.000627477 -0.0303755168
11350231900.0 1.000969509 -0.0466137933
11400231600.0 1.000310432 -0.0614874209
11450231300.0 0.9997061962 -0.0779440711
11500231000.0 0.9988855974 -0.0938423017
11550230700.0 0.9972089446 -0.1076812652
11600230400.0 0.9956968237 -0.1212459195
11650230100.0 0.9935373816 -0.1329337392
11700229800.0 0.9915780299 -0.1476129699
11750229500.0 0.9894436712 -0.1621994014
11800229200.0 0.9867957145 -0.1760831856
11850228900.0 0.9833023442 -0.1892985663
11900228600.0 0.979971926 -0.1994246771
11950228300.0 0.9766930558 -0.2103824229
12000228000.0 0.9731860478 -0.220335869
12050227700.0 0.970416301 -0.2327385612
12100227400.0 0.967205687 -0.2439356956
12150227100.0 0.9621541684 -0.2603952965
12200226800.0 0.9586199197 -0.2715201918
12250226500.0 0.954729675 -0.2843418516
12300226200.0 0.9508668961 -0.2959570656
12350225900.0 0.9460650137 -0.3099550265
12400225600.0 0.9419745566 -0.3221330402
12450225300.0 0.9374692473 -0.3343556331
12500225000.0 0.9322826261 -0.3492787468
12550224700.0 0.9269994668 -0.3627243428
12600224400.0 0.922267691 -0.3751003801
12650224100.0 0.9165850964 -0.3892808075
12700223800.0 0.9113121854 -0.4018560728
12750223500.0 0.9059130249 -0.4146798993
12800223200.0 0.9005064946 -0.4274644592
12850222900.0 0.8951338663 -0.4396777399
12900222600.0 0.8894645964 -0.4511569034
12950222300.0 0.8827577065 -0.4640929398
13000222000.0 0.876821984 -0.4762058423
13050221700.0 0.8698616784 -0.4888144013
13100221400.0 0.8631946409 -0.500448447
13150221100.0 0.856206721 -0.5131129765
13200220800.0 0.8491754138 -0.5249477265
13250220500.0 0.8412143756 -0.5372800389
13300220200.0 0.8337186469 -0.5486754099
13350219900.0 0.8255971004 -0.560873336
13400219600.0 0.8171423653 -0.572843156
13450219300.0 0.8076563026 -0.5864432369
13500219000.0 0.7977285106 -0.6003916146
13550218700.0 0.7872322394 -0.6131335334
13600218400.0 0.7774681835 -0.625011592
13650218100.0 0.7677211679 -0.6365781029
13700217800.0 0.7564460128 -0.6490576254
13750217500.0 0.7466227407 -0.6601017987
13800217200.0 0.7355273016 -0.6718613192
13850216900.0 0.7235075273 -0.6837516895
13900216600.0 0.7147131885 -0.6921418873
13950216300.0 0.703389022 -0.7029642634
14000216000.0 0.6940863998 -0.7114152505
14050215700.0 0.684557192 -0.7203961987
14100215400.0 0.6748362696 -0.7294677983
14150215100.0 0.6655866861 -0.7376389893
14200214800.0 0.6564110083 -0.7462150465
14250214500.0 0.6462842946 -0.7554442329
14300214200.0 0.6360007581 -0.7645587758
14350213900.0 0.6252352056 -0.7738781197
14400213600.0 0.6136668108 -0.7834486364
14450213300.0 0.600491018 -0.7931121044
14500213000.0 0.5881781473 -0.8029551852
14550212700.0 0.5758821981 -0.8121839717
14600212400.0 0.563403356 -0.8211561746
14650212100.0 0.5506563066 -0.8295466168
14700211800.0 0.5368202504 -0.8391048825
14750211500.0 0.5245137149 -0.8468188937
14800211200.0 0.5121211944 -0.8553387586
14850210900.0 0.4998542789 -0.8625682455
14900210600.0 0.4863394229 -0.8706145783
14950210300.0 0.472980896 -0.8784657987
15000210000.0 0.4599027013 -0.8852359074
15050209700.0 0.4472971187 -0.8916201508
15100209400.0 0.4340136177 -0.8978007019
15150209100.0 0.4216760338 -0.903465237
15200208800.0 0.4084392392 -0.9091007755
15250208500.0 0.3969798907 -0.9137508642
15300208200.0 0.3834921808 -0.9181276464
15350207900.0 0.370891628 -0.9235729858
15400207600.0 0.3555605801 -0.9286623726
15450207300.0 0.3418282716 -0.9343605207
15500207000.0 0.3269072679 -0.9392599855
15550206700.0 0.3120914195 -0.944081182
15600206400.0 0.2966655198 -0.9482889832
15650206100.0 0.2807586155 -0.9525961824
15700205800.0 0.266652224 -0.9561815351
15750205500.0 0.2524468982 -0.9594661678
15800205200.0 0.2381262249 -0.9629329332
15850204900.0 0.2238173489 -0.9664017478
15900204600.0 0.2093004575 -0.9700383615
15950204300.0 0.195421322 -0.9727318125
16000204000.0 0.1815621876 -0.9758234611
16050203700.0 0.1668894491 -0.9782669607
16100203400.0 0.1526535515 -0.9803246211
16150203100.0 0.1386905698 -0.9829047963
16200202800.0 0.1247333855 -0.9846835244
16250202500.0 0.1103798061 -0.9860812717
16300202200.0 0.0952125148 -0.9881770675
16350201900.0 0.0800620307 -0.9894498722
16400201600.0 0.0655852061 -0.9903762801
16450201300.0 0.0505649587 -0.9912692068
16500201000.0 0.0341141299 -0.9921173208
16550200700.0 0.0185646488 -0.992552871
16600200400.0 0.0025844886 -0.9929479709
16650200100.0 -0.0135231064 -0.9925830295
16700199800.0 -0.0302674716 -0.9923573168
16750199500.0 -0.049392268 -0.9918765636
16800199200.0 -0.0649278922 -0.9905421134
16850198900.0 -0.0803746739 -0.9892415735
16900198600.0 -0.0949076433 -0.9889898248
16950198300.0 -0.1083814046 -0.9875855513
17000198000.0 -0.1219582466 -0.9854638571
17050197700.0 -0.1341431395 -0.98360264
17100197400.0 -0.147811789 -0.982090887
17150197100.0 -0.1610908854 -0.9796084785
17200196800.0 -0.1733698576 -0.9778616548
17250196500.0 -0.1866607364 -0.9753684655
17300196200.0 -0.1991143235 -0.9729090411
17350195900.0 -0.2114497764 -0.9705916745
17400195600.0 -0.2238692403 -0.9680170142
17450195300.0 -0.236928948 -0.9651340486
17500195000.0 -0.2501295387 -0.9618173285
17550194700.0 -0.2641813365 -0.9582171252
17600194400.0 -0.2776477045 -0.9545744903
17650194100.0 -0.2918092383 -0.9501045189
17700193800.0 -0.3044241735 -0.9458405793
17750193500.0 -0.3185978254 -0.9414234593
17800193200.0 -0.3325952381 -0.9360732583
17850192900.0 -0.3473174936 -0.9307546655
17900192600.0 -0.3623891558 -0.9251496244
17950192300.0 -0.3776467132 -0.9179760565
18000192000.0 -0.3919371769 -0.9111382677
18050191700.0 -0.4057953002 -0.9033283252
18100191400.0 -0.4199350219 -0.8958478349
18150191100.0 -0.434592119 -0.8879251321
18200190800.0 -0.4509326812 -0.8789930644
18250190500.0 -0.4677652216 -0.8699057936
18300190200.0 -0.4831105895 -0.8611284997
18350189900.0 -0.4982183815 -0.853081168
18400189600.0 -0.5128198845 -0.8448724772
18450189300.0 -0.5256989154 -0.8366431912
18500189000.0 -0.5390303195 -0.8282986656
18550188700.0 -0.5522140243 -0.8203761432
18600188400.0 -0.5646765297 -0.8133086549
18650188100.0 -0.5753765657 -0.8065131398
18700187800.0 -0.5866205541 -0.7996681755
18750187500.0 -0.59775114 -0.7928103371
18800187200.0 -0.6086702691 -0.7852078854
18850186900.0 -0.6191804217 -0.7777265158
18900186600.0 -0.6296966152 -0.7701421956
18950186300.0 -0.6400480716 -0.7619000288
19000186000.0 -0.6480505065 -0.7553415641
19050185700.0 -0.6575391504 -0.7476960821
19100185400.0 -0.6673674857 -0.7388312606
19150185100.0 -0.6778703501 -0.7303757109
19200184800.0 -0.6876452011 -0.722007647
19250184500.0 -0.697829469 -0.7122831199
19300184200.0 -0.7093541563 -0.7028417304
19350183900.0 -0.7202033528 -0.6933347965
19400183600.0 -0.729464409 -0.6831973246
19450183300.0 -0.7378950058 -0.6733562805
19500183000.0 -0.7467004304 -0.6629604062
19550182700.0 -0.7555972972 -0.6525392387
19600182400.0 -0.7660003905 -0.6410770303
19650182100.0 -0.7760268222 -0.6289358133
19700181800.0 -0.7863293014 -0.6162314992
19750181500.0 -0.7964541998 -0.6029267995
19800181200.0 -0.8063715091 -0.5885475104
19850180900.0 -0.815813181 -0.573502835
19900180600.0 -0.8234577625 -0.5594708019
19950180300.0 -0.832468059 -0.5437730271
20000180000.0 -0.8280321167 -0.5437970846
20050179700.0 -0.8361506173 -0.5319023867
20100179400.0 -0.8438421895 -0.5183622777
20150179100.0 -0.8523103218 -0.5055895927
20200178800.0 -0.8605963102 -0.4929414075
20250178500.0 -0.8696815616 -0.479721674
20300178200.0 -0.8781305928 -0.465421067
20350177900.0 -0.8872124562 -0.4507722829
20400177600.0 -0.8960006036 -0.4367254213
20450177300.0 -0.9037926285 -0.4225730013
20500177000.0 -0.9117472989 -0.4086230874
20550176700.0 -0.9194157644 -0.3949163277
20600176400.0 -0.9262788262 -0.3819968435
20650176100.0 -0.9325435807 -0.3694582754
20700175800.0 -0.9389705268 -0.356932339
20750175500.0 -0.9454515992 -0.344801027
20800175200.0 -0.9501406298 -0.3333048908
20850174900.0 -0.9559985845 -0.3212604348
20900174600.0 -0.9607253569 -0.3101860864
20950174300.0 -0.9648455628 -0.298435355
21000174000.0 -0.9676359854 -0.2856022468
21050173700.0 -0.9711363246 -0.2747805641
21100173400.0 -0.9754495694 -0.2621344837
21150173100.0 -0.9795462005 -0.2494386135
21200172800.0 -0.9828872272 -0.2359507888
21250172500.0 -0.9860758583 -0.2220077903
21300172200.0 -0.9885137924 -0.2080954854
21350171900.0 -0.9900454363 -0.193394666
21400171600.0 -0.9920462921 -0.1800830023
21450171300.0 -0.9927034618 -0.1649356208
21500171000.0 -0.992472862 -0.1495803051
21550170700.0 -0.9929707234 -0.1354682613
21600170400.0 -0.9930832757 -0.1187447666
21650170100.0 -0.9924527944 -0.103874417
21700169800.0 -0.9911985557 -0.0895938533
21750169500.0 -0.9901586329 -0.0727038523
21800169200.0 -0.9886121778 -0.0571019718
21850168900.0 -0.9875219748 -0.0403941616
21900168600.0 -0.9859298085 -0.0246349579
21950168300.0 -0.9848805969 -0.0092803075
22000168000.0 -0.9839925998 0.005616326
22050167700.0 -0.9834303312 0.0196355982
22100167400.0 -0.9832787486 0.034837394
22150167100.0 -0.9836529013 0.0496838492
22200166800.0 -0.9840426581 0.0654070228
22250166500.0 -0.982991426 0.0828984003
22300166200.0 -0.9820544244 0.0988340286
22350165900.0 -0.9808991095 0.1147688366
22400165600.0 -0.9788949794 0.1307903912
22450165300.0 -0.9772230308 0.145079133
22500165000.0 -0.9752135015 0.1590158136
22550164700.0 -0.9737274253 0.1740928556
22600164400.0 -0.9718551977 0.1892886417
22650164100.0 -0.9699031769 0.2036770379
22700163800.0 -0.9673019862 0.2198353003
22750163500.0 -0.9650069441 0.235546944
22800163200.0 -0.9619359034 0.2489889055
22850162900.0 -0.9593147662 0.2623960311
22900162600.0 -0.9580529861 0.2758907765
22950162300.0 -0.9566875082 0.2886232544
23000162000.0 -0.9554702614 0.300797272
23050161700.0 -0.9528515604 0.3132909944
23100161400.0 -0.9509026154 0.3263663743
23150161100.0 -0.9482098719 0.3377767817
23200160800.0 -0.945074715 0.3503903864
23250160500.0 -0.9422517105 0.362164899
23300160200.0 -0.9398970101 0.3744135276
23350159900.0 -0.93591819 0.386983616
23400159600.0 -0.9310621381 0.4002401169
23450159300.0 -0.9263852511 0.4129277205
23500159000.0 -0.9219611105 0.4259383237
23550158700.0 -0.9172685239 0.4390720935
23600158400.0 -0.9123500069 0.4515079106
23650158100.0 -0.9059358444 0.4651806507
23700157800.0 -0.8986664846 0.4786670462
23750157500.0 -0.8904058535 0.492635165
23800157200.0 -0.8821198037 0.5060151319
23850156900.0 -0.8726723501 0.517889967
23900156600.0 -0.8637265661 0.5310869947
23950156300.0 -0.8543876722 0.5425262628
24000156000.0 -0.8465340819 0.5550076544
24050155700.0 -0.8359505547 0.566438072
24100155400.0 -0.8263398888 0.5784947703
24150155100.0 -0.8159189814 0.5900328701
24200154800.0 -0.8047375606 0.6013208052
24250154500.0 -0.7941887214 0.6134349346
24300154200.0 -0.7825698892 0.6250158101
24350153900.0 -0.7706363636 0.6353110914
24400153600.0 -0.7590434317 0.6461448599
24450153300.0 -0.7472122008 0.6564680854
24500153000.0 -0.7357345336 0.6665413844
24550152700.0 -0.7250228319 0.6764207005
24600152400.0 -0.7129661045 0.6859928854
24650152100.0 -0.70221614 0.6946919198
