!Created with skrf (http://scikit-rf.org).
# Hz S RI R 50.0 
!freq ReS11 ImS11
300000.0 -0.9742644266 -0.1193441535
50299700.0 -0.9998530787 0.015440958
100299400.0 -0.9980003451 0.0280041281
150299100.0 -1.002869291 0.0450509638
200298800.0 -0.999672447 0.0583570288
250298500.0 -0.9972354158 0.0718537179
300298200.0 -0.9859855524 0.087484299
350297900.0 -0.9941541255 0.0985439928
400297600.0 -0.9931543769 0.1152324535
450297300.0 -0.9908794325 0.1288342788
500297000.0 -0.9893709298 0.1437552321
550296700.0 -0.9842237918 0.156118083
600296400.0 -1.017301497 0.1894378136
650296100.0 -0.9822919884 0.1859647002
700295800.0 -0.9793220619 0.2003740981
750295500.0 -0.9762460658 0.2144059603
800295200.0 -0.9731849348 0.2283671539
850294900.0 -0.9696822452 0.2421081212
900294600.0 -0.9657542037 0.2558531649
950294300.0 -0.9621621547 0.2696339723
1000294000.0 -0.9581944601 0.2836140064
1050293700.0 -0.9538396943 0.2972505768
1100293400.0 -0.9493707882 0.3119095046
1150293100.0 -0.9455685494 0.3237715863
1200292800.0 -0.9401987073 0.3379264154
1250292500.0 -0.9346768151 0.3514763018
1300292200.0 -0.9289930824 0.3647982914
1350291900.0 -0.9233623484 0.3787139702
1400291600.0 -0.9179481957 0.3918742259
1450291300.0 -0.9125396714 0.4040275055
1500291000.0 -0.9060935934 0.4176472066
1550290700.0 -0.8997470114 0.4309715068
1600290400.0 -0.8933530145 0.4439347802
1650290100.0 -0.8868715364 0.4561099578
1700289800.0 -0.8798579905 0.4695021945
1750289500.0 -0.8726826335 0.4818997308
1800289200.0 -0.8653752096 0.4944559811
1850288900.0 -0.8588070804 0.5058581756
1900288600.0 -0.8511683551 0.5190716881
1950288300.0 -0.8428178524 0.5315598143
2000288000.0 -0.8352483193 0.5428622056
2050287700.0 -0.8270689065 0.5552923735
2100287400.0 -0.819270279 0.5668337779
2150287100.0 -0.8106896692 0.5789767024
2200286800.0 -0.8029484915 0.5891303669
2250286500.0 -0.7942415563 0.6011467813
2300286200.0 -0.7852763349 0.613011089
2350285900.0 -0.7765158939 0.6238508657
2400285600.0 -0.7675931927 0.6348590749
2450285300.0 -0.7590340569 0.6452435343
2500285000.0 -0.7492866402 0.6565505699
2550284700.0 -0.740188441 0.6670176644
2600284400.0 -0.7312122727 0.6770855468
2650284100.0 -0.7222736661 0.6874221954
2700283800.0 -0.7112709153 0.6980255358
2750283500.0 -0.7011379399 0.7087223229
2800283200.0 -0.6913855349 0.7184159472
2850282900.0 -0.6813216828 0.7282677794
2900282600.0 -0.670564945 0.7379757927
2950282300.0 -0.6606594805 0.7471241186
3000282000.0 -0.649610867 0.7566021367
3050281700.0 -0.6385156836 0.7659567713
3100281400.0 -0.6268228661 0.7754542653
3150281100.0 -0.6150960649 0.784517697
3200280800.0 -0.6034362373 0.7930176243
3250280500.0 -0.5926887022 0.8007014393
3300280200.0 -0.5811734506 0.8086241455
3350279900.0 -0.5696473136 0.8162325842
3400279600.0 -0.5575285615 0.8238106153
3450279300.0 -0.5463978232 0.8312300659
3500279000.0 -0.5343626119 0.838201755
3550278700.0 -0.5216117025 0.8452672337
3600278400.0 -0.5096772755 0.8527114971
3650278100.0 -0.4965692103 0.860098059
3700277800.0 -0.4845705713 0.8669103714
3750277500.0 -0.4722394953 0.8732505999
3800277200.0 -0.4598412834 0.8796907987
3850276900.0 -0.4478125338 0.8857752937
3900276600.0 -0.4369241295 0.8913844795
3950276300.0 -0.4244616255 0.8972408417
4000276000.0 -0.4126533204 0.9034481079
4050275700.0 -0.3997909724 0.9099286591
4100275400.0 -0.3885902238 0.9148516685
4150275100.0 -0.375879107 0.9204320734
4200274800.0 -0.3630507685 0.9262986248
4250274500.0 -0.350719383 0.9315701087
4300274200.0 -0.3375800011 0.9367184047
4350273900.0 -0.3237485906 0.9419501519
4400273600.0 -0.3089512736 0.9470174361
4450273300.0 -0.2934736159 0.9523582507
4500273000.0 -0.2799840805 0.9566936121
4550272700.0 -0.2659305649 0.9608250125
4600272400.0 -0.2505673381 0.9648980635
4650272100.0 -0.238865124 0.9681505857
4700271800.0 -0.2256479619 0.9716302354
4750271500.0 -0.2139630482 0.9745139273
4800271200.0 -0.2015452101 0.9771291
4850270900.0 -0.1876182165 0.9798222847
4900270600.0 -0.1736174291 0.982397818
4950270300.0 -0.159304384 0.9848992136
5000270000.0 -0.1450567709 0.9871129024
5050269700.0 -0.1314402136 0.9883568229
5100269400.0 -0.117809714 0.9902171555
5150269100.0 -0.10448662 0.9919023373
5200268800.0 -0.0909820593 0.9929339662
5250268500.0 -0.078008209 0.9939439374
5300268200.0 -0.0647103572 0.9945755328
5350267900.0 -0.0525852062 0.9951729132
5400267600.0 -0.0363733674 0.9961952846
5450267300.0 -0.0234557182 0.9964588911
5500267000.0 -0.0081634964 0.9970733858
5550266700.0 0.0068696699 0.9973558094
5600266400.0 0.0222698191 0.9971336304
5650266100.0 0.0389933626 0.9970054003
5700265800.0 0.0534360733 0.99620702
5750265500.0 0.0682155189 0.9951302912
5800265200.0 0.082301211 0.9942967645
5850264900.0 0.0956662537 0.9935772093
5900264600.0 0.1123273714 0.992053825
5950264300.0 0.1243859752 0.9897249177
6000264000.0 0.1382340118 0.9884243574
6050263700.0 0.1502818882 0.9869109725
6100263400.0 0.1629013767 0.9854787395
6150263100.0 0.1775352941 0.9830167737
6200262800.0 0.1874825845 0.9811283568
6250262500.0 0.2003723858 0.9785475608
6300262200.0 0.2131805356 0.975815478
6350261900.0 0.2262708761 0.9730470599
6400261600.0 0.2400530607 0.9697295344
6450261300.0 0.2514338088 0.9670041118
6500261000.0 0.2641640483 0.963566645
6550260700.0 0.2771383211 0.9594502598
6600260400.0 0.290459813 0.9552606992
6650260100.0 0.3043688031 0.9510951379
6700259800.0 0.3164021451 0.9468122915
6750259500.0 0.3303591576 0.9414760267
6800259200.0 0.3434640867 0.9367712358
6850258900.0 0.3554999096 0.9317009619
6900258600.0 0.3678985632 0.9266327741
6950258300.0 0.3803696428 0.9212841589
7000258000.0 0.3924532609 0.9159295064
7050257700.0 0.4046678934 0.90974966
7100257400.0 0.4174054975 0.9035571044
7150257100.0 0.4278800588 0.8982374765
7200256800.0 0.4404615754 0.8918175493
7250256500.0 0.4524481488 0.8855383654
7300256200.0 0.4657830796 0.8787436355
7350255900.0 0.4780959441 0.8719489214
7400255600.0 0.4915240298 0.8647185392
7450255300.0 0.5068846728 0.8557557861
7500255000.0 0.5186771215 0.848431221
7550254700.0 0.5323892458 0.8400605079
7600254400.0 0.5449615169 0.8319047503
7650254100.0 0.5567593838 0.8241807175
7700253800.0 0.5683794392 0.8159578565
7750253500.0 0.5794735269 0.8083272372
7800253200.0 0.5902954119 0.8007113842
7850252900.0 0.5999770797 0.7935882427
7900252600.0 0.6116103837 0.7849509861
7950252300.0 0.6204818651 0.7782970136
8000252000.0 0.6304850797 0.770702485
8050251700.0 0.6410129683 0.7624384173
8100251400.0 0.6509828081 0.7544375663
8150251100.0 0.6613851466 0.7458434775
8200250800.0 0.6705505738 0.7378427621
8250250500.0 0.6792855249 0.7297844288
8300250200.0 0.6889567312 0.7212307155
8350249900.0 0.6979370294 0.7124681718
8400249600.0 0.7062568579 0.7043543643
8450249300.0 0.7152762882 0.6952539495
8500249000.0 0.7236629312 0.686413969
8550248700.0 0.732176678 0.6772995075
8600248400.0 0.7404542516 0.6679296293
8650248100.0 0.7482409587 0.6584403088
8700247800.0 0.7578236866 0.64727301
8750247500.0 0.7661720546 0.6371517057
8800247200.0 0.7741155193 0.626652924
8850246900.0 0.7830778184 0.6151932804
8900246600.0 0.7915823413 0.6037822117
8950246300.0 0.8011194345 0.5909313295
9000246000.0 0.8101447808 0.5784434258
9050245700.0 0.8194818002 0.5654102391
9100245400.0 0.8281692273 0.5531742278
9150245100.0 0.8372484435 0.5394608985
9200244800.0 0.8466855237 0.5244447286
9250244500.0 0.8564646855 0.5091433949
9300244200.0 0.8649387218 0.4945861975
9350243900.0 0.8723456787 0.4807357332
9400243600.0 0.8791435569 0.4684859184
9450243300.0 0.884997341 0.4570452011
9500243000.0 0.8912603146 0.4449738007
9550242700.0 0.8952019415 0.4373826227
9600242400.0 0.8988966726 0.4300017562
9650242100.0 0.902514134 0.4234119235
9700241800.0 0.9072795839 0.4149347469
9750241500.0 0.9113800095 0.4073362245
9800241200.0 0.9161120858 0.398120918
9850240900.0 0.9217725787 0.3865650306
9900240600.0 0.9273186602 0.3749460743
9950240300.0 0.9338715889 0.3590104782
10000240000.0 0.9390184107 0.3473398317
10050239700.0 0.9442525492 0.3319842063
10100239400.0 0.9493427338 0.3165629738
10150239100.0 0.9539065423 0.3015851438
10200238800.0 0.9579865033 0.2864001889
10250238500.0 0.9613536134 0.2730714178
10300238200.0 0.9645661239 0.2591046984
10350237900.0 0.9672822935 0.2458986907
10400237600.0 0.9696434234 0.2327304773
10450237300.0 0.9721806508 0.2191817389
10500237000.0 0.9748957255 0.206773236
10550236700.0 0.9766431474 0.1926685296
10600236400.0 0.9792300824 0.178839259
10650236100.0 0.9810895175 0.1644163478
10700235800.0 0.9830295122 0.1518696473
10750235500.0 0.9858318623 0.1386190209
10800235200.0 0.9876644265 0.1245552094
10850234900.0 0.9897821133 0.1101324081
10900234600.0 0.9916519122 0.0956890874
10950234300.0 0.9933822694 0.0821742946
11000234000.0 0.995133866 0.0669047774
11050233700.0 0.9970105184 0.050575843
11100233400.0 0.9985759061 0.0331140818
11150233100.0 0.9995041187 0.0171874692
11200232800.0 1.000006047 0.001949389
11250232500.0 1.00157072 -0.014729981
11300232200.0 1.001558026 -0.0325311497
11350231900.0 1.001930036 -0.0481634051
11400231600.0 1.00182009 -0.0632841703
11450231300.0 1.000761311 -0.0784259149
11500231000.0 0.9997759754 -0.0963190943
11550230700.0 0.9986752686 -0.1090343219
11600230400.0 0.9967358007 -0.1214588855
11650230100.0 0.995366786 -0.1330913671
11700229800.0 0.9931232754 -0.1473660717
11750229500.0 0.9906539246 -0.1618894717
11800229200.0 0.988244273 -0.1754901427
11850228900.0 0.9843713051 -0.188035487
11900228600.0 0.9808878044 -0.1978569441
11950228300.0 0.977982662 -0.2082038723
12000228000.0 0.9749512338 -0.2169220587
12050227700.0 0.9718337788 -0.2300551745
12100227400.0 0.9682186211 -0.2409191513
12150227100.0 0.9630699018 -0.2580740975
12200226800.0 0.9594522559 -0.2695795374
12250226500.0 0.9559111081 -0.2822547885
12300226200.0 0.950802773 -0.2938596664
12350225900.0 0.9467024853 -0.3072679275
12400225600.0 0.9417091647 -0.3209182782
12450225300.0 0.9374855647 -0.3335639095
12500225000.0 0.9322791097 -0.3486182806
12550224700.0 0.9270278782 -0.3619801487
12600224400.0 0.9220209383 -0.3750124002
12650224100.0 0.9161397101 -0.3894508219
12700223800.0 0.9110176137 -0.4021463209
12750223500.0 0.9055658192 -0.4150827101
12800223200.0 0.8998701336 -0.4279086922
12850222900.0 0.8946782745 -0.4403440484
12900222600.0 0.8892011427 -0.4517838719
12950222300.0 0.8826914664 -0.4650423825
13000222000.0 0.8770522864 -0.4766382162
13050221700.0 0.8701196867 -0.4890566735
13100221400.0 0.8631628279 -0.5012060594
13150221100.0 0.8564856384 -0.5130001488
13200220800.0 0.8496478884 -0.5249573003
13250220500.0 0.8423323244 -0.5369697581
13300220200.0 0.8348547254 -0.5477579506
13350219900.0 0.8269118043 -0.559757481
13400219600.0 0.8186401948 -0.5717627546
13450219300.0 0.8092430361 -0.5853762176
13500219000.0 0.7991027721 -0.599176849
13550218700.0 0.788989394 -0.6117778745
13600218400.0 0.7793294329 -0.6235641374
13650218100.0 0.7697208916 -0.634914626
13700217800.0 0.7587792307 -0.6467855816
13750217500.0 0.7481166172 -0.6588381673
13800217200.0 0.7379551664 -0.6694238043
13850216900.0 0.7263595454 -0.6812109678
13900216600.0 0.7168025624 -0.6900907404
13950216300.0 0.7057127981 -0.6996031048
14000216000.0 0.6958732659 -0.709995535
14050215700.0 0.6861985636 -0.7182267518
14100215400.0 0.6765910765 -0.7276641079
14150215100.0 0.6671369653 -0.7359126461
14200214800.0 0.6579296916 -0.7446822162
14250214500.0 0.6473942931 -0.7541022787
14300214200.0 0.637149567 -0.7633548414
14350213900.0 0.6260834129 -0.7729430359
14400213600.0 0.6142627354 -0.7828235481
14450213300.0 0.601424143 -0.7927137095
14500213000.0 0.5876833581 -0.8028213403
14550212700.0 0.5755229093 -0.8123707264
14600212400.0 0.5628343479 -0.8211266217
14650212100.0 0.5504707819 -0.8294030675
14700211800.0 0.5360339238 -0.8396587852
14750211500.0 0.5247438195 -0.8476847592
14800211200.0 0.5116104518 -0.8558534635
14850210900.0 0.499536967 -0.8630815316
14900210600.0 0.4864848998 -0.8711208784
14950210300.0 0.4731090763 -0.8788600749
15000210000.0 0.4600752049 -0.8855802875
15050209700.0 0.4479242633 -0.8916384458
15100209400.0 0.4354233821 -0.8974841644
15150209100.0 0.4226835364 -0.903302617
15200208800.0 0.4102135088 -0.9085980383
15250208500.0 0.398922792 -0.9129532988
15300208200.0 0.3871087309 -0.9174604014
15350207900.0 0.3733607496 -0.9224061282
15400207600.0 0.3590491214 -0.9283896542
15450207300.0 0.3444485628 -0.9327062903
15500207000.0 0.3301200174 -0.937296608
15550206700.0 0.3160015848 -0.9425975395
15600206400.0 0.2991645013 -0.9468631336
15650206100.0 0.2836260934 -0.9514471621
15700205800.0 0.2694095029 -0.954990923
15750205500.0 0.2551529942 -0.95857405
15800205200.0 0.2408813616 -0.9618905223
15850204900.0 0.2264520755 -0.9654620359
15900204600.0 0.2115678294 -0.9687913476
15950204300.0 0.1972682602 -0.9721052405
16000204000.0 0.1830065744 -0.9747269892
16050203700.0 0.1680920355 -0.9779490243
16100203400.0 0.1534725317 -0.9800718862
16150203100.0 0.1394085815 -0.9824725961
16200202800.0 0.1247930232 -0.9843599532
16250202500.0 0.1097243376 -0.9858841407
16300202200.0 0.0946591831 -0.9877092125
16350201900.0 0.0796855171 -0.9891519614
16400201600.0 0.0650099703 -0.9902948413
16450201300.0 0.0495914219 -0.9911222434
16500201000.0 0.0330417162 -0.9920131894
16550200700.0 0.0172585872 -0.9924497535
16600200400.0 0.0015542484 -0.9928352866
16650200100.0 -0.0143791487 -0.992543068
16700199800.0 -0.0305995647 -0.9923342609
16750199500.0 -0.049310781 -0.9920356047
16800199200.0 -0.0647562614 -0.9906030836
16850198900.0 -0.0805143494 -0.9901750191
16900198600.0 -0.0943444611 -0.9889592692
16950198300.0 -0.1073317384 -0.9874733189
17000198000.0 -0.1203088516 -0.986553122
17050197700.0 -0.1327150941 -0.9844546337
17100197400.0 -0.1461281825 -0.982431481
17150197100.0 -0.1589199102 -0.9802709539
17200196800.0 -0.1717039669 -0.9781106969
17250196500.0 -0.1841524287 -0.9760047835
17300196200.0 -0.1965786115 -0.9734718745
17350195900.0 -0.2085508279 -0.9714654387
17400195600.0 -0.2205778573 -0.9688863044
17450195300.0 -0.2336642253 -0.9660268608
17500195000.0 -0.247162594 -0.9626689634
17550194700.0 -0.2612692405 -0.9592103815
17600194400.0 -0.274986576 -0.9549054903
17650194100.0 -0.2884168886 -0.9510999525
17700193800.0 -0.3017083342 -0.9466805806
17750193500.0 -0.3164549874 -0.9425812077
17800193200.0 -0.3305829511 -0.9368032553
17850192900.0 -0.3456371486 -0.9316193632
17900192600.0 -0.3607118921 -0.9254053188
17950192300.0 -0.3763371595 -0.9183914064
18000192000.0 -0.3914897644 -0.9112111208
18050191700.0 -0.405034541 -0.9033102376
18100191400.0 -0.4193025909 -0.8957671029
18150191100.0 -0.4343369142 -0.8877340402
18200190800.0 -0.4513022964 -0.8788636518
18250190500.0 -0.4684685521 -0.8690744844
18300190200.0 -0.4835732925 -0.8606776387
18350189900.0 -0.4984581576 -0.8519694061
18400189600.0 -0.5132676148 -0.8441576661
18450189300.0 -0.5266008393 -0.8360699973
18500189000.0 -0.5396747635 -0.8274306922
18550188700.0 -0.5520010841 -0.8201010064
18600188400.0 -0.5640232635 -0.8136563603
18650188100.0 -0.5751195664 -0.8071526672
18700187800.0 -0.5862703565 -0.8005173607
18750187500.0 -0.596444598 -0.7941541432
18800187200.0 -0.607137386 -0.7873761781
18850186900.0 -0.6172519822 -0.7803819499
18900186600.0 -0.6273812381 -0.7730265433
18950186300.0 -0.6375586821 -0.7654349321
19000186000.0 -0.6445964467 -0.7594871845
19050185700.0 -0.6541071293 -0.7521427021
19100185400.0 -0.6638360253 -0.7436902633
19150185100.0 -0.6740454809 -0.7356052926
19200184800.0 -0.6834310114 -0.7270457664
19250184500.0 -0.6936866901 -0.7177983519
19300184200.0 -0.705206535 -0.7078151912
19350183900.0 -0.7156142476 -0.6986766029
19400183600.0 -0.7252240334 -0.6891018688
19450183300.0 -0.7343921403 -0.6786211646
19500183000.0 -0.7427794081 -0.6689383785
19550182700.0 -0.7520429774 -0.6574372933
19600182400.0 -0.7627234423 -0.6462397106
19650182100.0 -0.7735738138 -0.6334671425
19700181800.0 -0.784544391 -0.620407462
19750181500.0 -0.7951209405 -0.6061710489
19800181200.0 -0.8054400382 -0.5910850037
19850180900.0 -0.815272045 -0.5757164222
19900180600.0 -0.8229567401 -0.5614484047
19950180300.0 -0.8320752021 -0.5448277929
20000180000.0 -0.825388904 -0.5469210127
20050179700.0 -0.833211533 -0.5340104384
20100179400.0 -0.8424496209 -0.5206066822
20150179100.0 -0.8499875371 -0.5089240332
20200178800.0 -0.8595042606 -0.4957288296
20250178500.0 -0.8683717141 -0.4815850526
20300178200.0 -0.8780487189 -0.4674720152
20350177900.0 -0.8873025206 -0.4536461116
20400177600.0 -0.8960367386 -0.438902375
20450177300.0 -0.9045786113 -0.424457237
20500177000.0 -0.9123744022 -0.41039942
20550176700.0 -0.920137825 -0.397142757
20600176400.0 -0.9269688979 -0.38430384
20650176100.0 -0.9341174044 -0.3715953062
20700175800.0 -0.940541953 -0.3601519164
20750175500.0 -0.9471844232 -0.3487658237
20800175200.0 -0.9509670252 -0.3376636685
20850174900.0 -0.9568345483 -0.3262336693
20900174600.0 -0.9615619493 -0.3150559459
20950174300.0 -0.9647138283 -0.3039075505
21000174000.0 -0.9680916665 -0.2923396085
21050173700.0 -0.9705569207 -0.2817224982
21100173400.0 -0.97514024 -0.2692569292
21150173100.0 -0.979043843 -0.2575083323
21200172800.0 -0.9826177496 -0.2442757681
21250172500.0 -0.9852764204 -0.2305591098
21300172200.0 -0.9888825563 -0.2165085886
21350171900.0 -0.989816741 -0.2017834428
21400171600.0 -0.9910988325 -0.1880568488
21450171300.0 -0.9917141619 -0.1734408458
21500171000.0 -0.9918658437 -0.1578061608
21550170700.0 -0.9919260776 -0.1427601219
21600170400.0 -0.9929954418 -0.1264724299
21650170100.0 -0.9911786382 -0.1115029145
21700169800.0 -0.9903506175 -0.0960314784
21750169500.0 -0.9892476595 -0.0794562851
21800169200.0 -0.9887572819 -0.0635898535
21850168900.0 -0.987310422 -0.0457464468
21900168600.0 -0.9856090758 -0.0291172056
21950168300.0 -0.9851954956 -0.0142700752
22000168000.0 -0.9840076411 0.0008251701
22050167700.0 -0.9842660512 0.0151497885
22100167400.0 -0.9844347312 0.0301681922
22150167100.0 -0.984945868 0.0459015759
22200166800.0 -0.9851598902 0.062344879
22250166500.0 -0.9850391638 0.0795827731
22300166200.0 -0.9842698617 0.095718223
22350165900.0 -0.9833791876 0.1131032022
22400165600.0 -0.9814971693 0.1273042437
22450165300.0 -0.9787495155 0.143136137
22500165000.0 -0.9774289046 0.1572385724
22550164700.0 -0.9761691117 0.1723464296
22600164400.0 -0.9751743272 0.1874931968
22650164100.0 -0.9719433132 0.2031471843
22700163800.0 -0.9695081462 0.2185988577
22750163500.0 -0.9676363717 0.2332137909
22800163200.0 -0.9643069839 0.2466715153
22850162900.0 -0.9620342764 0.2602575644
22900162600.0 -0.9607517205 0.273686866
22950162300.0 -0.9594072946 0.2863442651
23000162000.0 -0.9578802163 0.2988893135
23050161700.0 -0.9559505665 0.3111083155
23100161400.0 -0.9533758244 0.3242189484
23150161100.0 -0.9504958594 0.3364285953
23200160800.0 -0.9478903047 0.348407828
23250160500.0 -0.9453210033 0.3604403616
23300160200.0 -0.942993307 0.3728935023
23350159900.0 -0.9380932225 0.3858810397
23400159600.0 -0.9346326934 0.3990244184
23450159300.0 -0.9294191434 0.4123667352
23500159000.0 -0.9248341982 0.4252254396
23550158700.0 -0.920295631 0.4390493353
23600158400.0 -0.9146815233 0.4520495556
23650158100.0 -0.9084877168 0.4665302705
23700157800.0 -0.9009664041 0.4805222162
23750157500.0 -0.8923771675 0.4943790794
23800157200.0 -0.8832278974 0.5076308709
23850156900.0 -0.8745653023 0.5199646657
23900156600.0 -0.8655608382 0.5328542204
23950156300.0 -0.8561208093 0.5460417734
24000156000.0 -0.8467872982 0.5572441729
24050155700.0 -0.8371954487 0.5685928558
24100155400.0 -0.8272240865 0.5812194482
24150155100.0 -0.8166202874 0.5930544722
24200154800.0 -0.8053753796 0.6048452291
24250154500.0 -0.7947588584 0.6159196903
24300154200.0 -0.7833317769 0.6275598137
24350153900.0 -0.770961018 0.6382026257
24400153600.0 -0.7588495851 0.6486010708
24450153300.0 -0.7469036466 0.6582261883
24500153000.0 -0.7359259759 0.667965895
24550152700.0 -0.7243564648 0.6780808042
24600152400.0 -0.7124708529 0.6868078872
24650152100.0 -0.7007790595 0.6953315099
