!Created with skrf (http://scikit-rf.org).
# Hz S RI R 50.0 
!freq ReS11 ImS11
300000.0 -0.9859938692 -0.0879427424
50299700.0 -0.9999292707 0.0164973944
100299400.0 -0.9979853127 0.0292964389
150299100.0 -1.002823803 0.0463046815
200298800.0 -0.9996715183 0.0595832201
250298500.0 -0.9973165263 0.0729481158
300298200.0 -0.9858228459 0.0887609564
350297900.0 -0.9938815498 0.0996448214
400297600.0 -0.9930996105 0.116230418
450297300.0 -0.9907000495 0.130040575
500297000.0 -0.9892016322 0.1448182206
550296700.0 -0.9839249054 0.15737433
600296400.0 -1.017203231 0.1907241369
650296100.0 -0.9817894134 0.1872674594
700295800.0 -0.979037453 0.2015944007
750295500.0 -0.9759393329 0.2157278776
800295200.0 -0.9726264598 0.2297636503
850294900.0 -0.9690793709 0.2433628046
900294600.0 -0.9653116075 0.2574463893
950294300.0 -0.9614275286 0.2710048363
1000294000.0 -0.9576081998 0.2848698427
1050293700.0 -0.9530323042 0.2986261994
1100293400.0 -0.9486413197 0.3130975283
1150293100.0 -0.9448566666 0.3250290208
1200292800.0 -0.9394412091 0.3392986924
1250292500.0 -0.9343139787 0.3527664114
1300292200.0 -0.9283580593 0.365683457
1350291900.0 -0.922842513 0.3800263354
1400291600.0 -0.9173056993 0.3928865171
1450291300.0 -0.9118923012 0.4054374906
1500291000.0 -0.9056387207 0.4186759842
1550290700.0 -0.89913895 0.4319422535
1600290400.0 -0.8929719172 0.4446754072
1650290100.0 -0.8863758375 0.4568965692
1700289800.0 -0.8795498572 0.4703709324
1750289500.0 -0.8722981004 0.4825824753
1800289200.0 -0.8650773198 0.4954297148
1850288900.0 -0.858214948 0.5067419219
1900288600.0 -0.8504038654 0.5200004219
1950288300.0 -0.8424146553 0.5324449023
2000288000.0 -0.8349809873 0.5438320512
2050287700.0 -0.826606209 0.5560970507
2100287400.0 -0.8187059248 0.5678283499
2150287100.0 -0.8100862047 0.5800686835
2200286800.0 -0.8024190601 0.590149758
2250286500.0 -0.7933781775 0.6022740072
2300286200.0 -0.7845121982 0.6140002992
2350285900.0 -0.7754546963 0.6249736096
2400285600.0 -0.7664766568 0.6359319497
2450285300.0 -0.7578178086 0.6462978612
2500285000.0 -0.7482544211 0.6573797902
2550284700.0 -0.7391985183 0.667976935
2600284400.0 -0.7296780982 0.678055592
2650284100.0 -0.7208739889 0.6883912273
2700283800.0 -0.7100043174 0.6990689777
2750283500.0 -0.6999146888 0.7098215738
2800283200.0 -0.6897351098 0.7192955805
2850282900.0 -0.6799213065 0.729397475
2900282600.0 -0.6694155689 0.7387114168
2950282300.0 -0.6592018686 0.7478707582
3000282000.0 -0.6487027005 0.757434302
3050281700.0 -0.6374583254 0.7664583507
3100281400.0 -0.6256461695 0.7758425443
3150281100.0 -0.6140953039 0.7851280807
3200280800.0 -0.6025713595 0.7937089717
3250280500.0 -0.5918292067 0.8014111819
3300280200.0 -0.580634864 0.809294811
3350279900.0 -0.5690821389 0.8167009266
3400279600.0 -0.5570260344 0.8247413101
3450279300.0 -0.5459699427 0.831722339
3500279000.0 -0.5337619498 0.8388650906
3550278700.0 -0.5215929065 0.8461423493
3600278400.0 -0.5094265082 0.8533365345
3650278100.0 -0.4961133743 0.8608707487
3700277800.0 -0.484047152 0.8673552095
3750277500.0 -0.4719143794 0.8740835651
3800277200.0 -0.4593031819 0.8804691676
3850276900.0 -0.4469498407 0.8864684134
3900276600.0 -0.4359734031 0.891970927
3950276300.0 -0.4233133487 0.8983352626
4000276000.0 -0.4112653404 0.9041948868
4050275700.0 -0.3980886142 0.9103889211
4100275400.0 -0.3867277631 0.9157539329
4150275100.0 -0.3739366191 0.9212634782
4200274800.0 -0.3609681279 0.9265491129
4250274500.0 -0.3486092631 0.9318517975
4300274200.0 -0.3356491555 0.9368547037
4350273900.0 -0.3218242286 0.9421516486
4400273600.0 -0.3071465508 0.9475414463
4450273300.0 -0.291801056 0.9524859113
4500273000.0 -0.2783412103 0.9568349255
4550272700.0 -0.2640218488 0.9608641344
4600272400.0 -0.2488321013 0.9650536755
4650272100.0 -0.236851028 0.9683327213
4700271800.0 -0.2235550676 0.9717374301
4750271500.0 -0.2118520164 0.9745213071
4800271200.0 -0.1991741947 0.9773539701
4850270900.0 -0.1853044848 0.9801437873
4900270600.0 -0.1715813287 0.9825178334
4950270300.0 -0.157547082 0.9850333323
5000270000.0 -0.1432837624 0.9871137011
5050269700.0 -0.1299239153 0.9888674355
5100269400.0 -0.1164074611 0.9903325727
5150269100.0 -0.1030442493 0.9920970323
5200268800.0 -0.0897758911 0.9929742025
5250268500.0 -0.076608987 0.9940205251
5300268200.0 -0.0636674002 0.9948488035
5350267900.0 -0.0515701702 0.9952857715
5400267600.0 -0.0353070388 0.9963896301
5450267300.0 -0.0225571243 0.9967100077
5500267000.0 -0.0074101523 0.9969811106
5550266700.0 0.0073416251 0.9970292616
5600266400.0 0.0228492007 0.9971798185
5650266100.0 0.0392345711 0.9965846655
5700265800.0 0.0535753178 0.9963023724
5750265500.0 0.0688652392 0.9953352441
5800265200.0 0.0829614314 0.9941210167
5850264900.0 0.0961995668 0.9932668782
5900264600.0 0.1127779055 0.9912337077
5950264300.0 0.1249984908 0.9899340605
6000264000.0 0.1391259826 0.9879248062
6050263700.0 0.1515519168 0.9865745487
6100263400.0 0.164120203 0.9840532726
6150263100.0 0.1791036419 0.9819556019
6200262800.0 0.1895962683 0.9801506765
6250262500.0 0.2026189641 0.9775848094
6300262200.0 0.2153421345 0.9748170748
6350261900.0 0.228539849 0.9718040617
6400261600.0 0.2423524937 0.9684585828
6450261300.0 0.2538492572 0.9658077348
6500261000.0 0.2666563616 0.9623782355
6550260700.0 0.2794428923 0.9584430505
6600260400.0 0.2927384905 0.954384439
6650260100.0 0.3067466632 0.950119554
6700259800.0 0.3186320022 0.9459000514
6750259500.0 0.3324652456 0.9409592954
6800259200.0 0.3455502004 0.9359016513
6850258900.0 0.3571242703 0.9308398318
6900258600.0 0.369449874 0.9259132035
6950258300.0 0.3819082557 0.9204712898
7000258000.0 0.3940812571 0.915454772
7050257700.0 0.4063432613 0.9093095509
7100257400.0 0.4190893922 0.9032046536
7150257100.0 0.429214815 0.8979607453
7200256800.0 0.4420598658 0.8915614087
7250256500.0 0.4539149149 0.885354893
7300256200.0 0.4664833519 0.878677185
7350255900.0 0.4786438074 0.8715798973
7400255600.0 0.4919652858 0.8649093539
7450255300.0 0.5070358635 0.8560397095
7500255000.0 0.5186838135 0.8489250798
7550254700.0 0.53228532 0.8405198672
7600254400.0 0.5444061658 0.8320761586
7650254100.0 0.5564027432 0.8244215653
7700253800.0 0.5681349956 0.8162233089
7750253500.0 0.579386026 0.8082760318
7800253200.0 0.5901182372 0.8004710022
7850252900.0 0.600087717 0.7934996299
7900252600.0 0.6119151344 0.7845458265
7950252300.0 0.6208127889 0.777790188
8000252000.0 0.6311677753 0.7697546634
8050251700.0 0.6415561796 0.7614795172
8100251400.0 0.6517569031 0.7532387932
8150251100.0 0.662300938 0.7442486237
8200250800.0 0.6711414654 0.7363737952
8250250500.0 0.6805960063 0.728221065
8300250200.0 0.6900687382 0.7193893913
8350249900.0 0.6992481274 0.7104506407
8400249600.0 0.7073567166 0.7024633856
8450249300.0 0.716709766 0.693214571
8500249000.0 0.7250772194 0.6843268857
8550248700.0 0.7334955965 0.6752481911
8600248400.0 0.742173092 0.665809768
8650248100.0 0.7500317646 0.6565253708
8700247800.0 0.7594662973 0.6452163392
8750247500.0 0.7677078064 0.6353451277
8800247200.0 0.7756327271 0.6252226259
8850246900.0 0.7843033875 0.6138484387
8900246600.0 0.7925933303 0.6028015229
8950246300.0 0.8026348217 0.5898698672
9000246000.0 0.8114060589 0.5775781929
9050245700.0 0.8204535198 0.5647888973
9100245400.0 0.828840566 0.5524120278
9150245100.0 0.8377344171 0.5390930563
9200244800.0 0.8477653047 0.5243221416
9250244500.0 0.8566736044 0.5090254075
9300244200.0 0.864854663 0.4948849221
9350243900.0 0.8726071358 0.4806343162
9400243600.0 0.8796019804 0.4677757652
9450243300.0 0.885634034 0.4557409584
9500243000.0 0.8921351258 0.44312803
9550242700.0 0.8961603777 0.4344890231
9600242400.0 0.9001599101 0.4266073995
9650242100.0 0.9039054892 0.4193330421
9700241800.0 0.9087149491 0.4110203214
9750241500.0 0.9125564171 0.4031779675
9800241200.0 0.9168559923 0.3936220233
9850240900.0 0.9226572811 0.3822078905
9900240600.0 0.9279404862 0.3707986462
9950240300.0 0.9345483206 0.3547450948
10000240000.0 0.9390663406 0.3428327089
10050239700.0 0.945014831 0.327777395
10100239400.0 0.949555304 0.3128901208
10150239100.0 0.9540522147 0.2980703214
10200238800.0 0.9581473835 0.2836010023
10250238500.0 0.9615728261 0.2700970273
10300238200.0 0.9646940358 0.2563906824
10350237900.0 0.9673637084 0.2432277911
10400237600.0 0.9700194936 0.2300371527
10450237300.0 0.9728552275 0.2163112343
10500237000.0 0.9747608224 0.2045814848
10550236700.0 0.9776310346 0.190497539
10600236400.0 0.9796273623 0.1770680917
10650236100.0 0.9816934984 0.1628739068
10700235800.0 0.9840161273 0.1508384802
10750235500.0 0.9856304519 0.138045215
10800235200.0 0.9877656527 0.1237080488
10850234900.0 0.9898864914 0.1089408774
10900234600.0 0.9917586613 0.0949323075
10950234300.0 0.9933251653 0.0817579343
11000234000.0 0.9951137215 0.06696208
11050233700.0 0.9968432035 0.0510082856
11100233400.0 0.9981138453 0.033815474
11150233100.0 0.9990721865 0.017923803
11200232800.0 0.9995792583 0.0032266179
11250232500.0 1.000563998 -0.01350586
11300232200.0 1.000727985 -0.0308794044
11350231900.0 1.000819099 -0.0477133024
11400231600.0 1.000986117 -0.0626558072
11450231300.0 1.000080711 -0.0780421092
11500231000.0 0.9987927249 -0.094318492
11550230700.0 0.996942657 -0.1084941703
11600230400.0 0.9960431408 -0.1212616125
11650230100.0 0.9938484819 -0.1329518675
11700229800.0 0.9913443215 -0.1479669207
11750229500.0 0.9894057439 -0.162548139
11800229200.0 0.9869400454 -0.1765354016
11850228900.0 0.9832667225 -0.1895113387
11900228600.0 0.9799683236 -0.1999353283
11950228300.0 0.9768639278 -0.2102873205
12000228000.0 0.973774918 -0.2198031107
12050227700.0 0.9704711556 -0.2324602483
12100227400.0 0.9676234326 -0.2434133632
12150227100.0 0.9624441796 -0.2602449935
12200226800.0 0.9588152802 -0.270912065
12250226500.0 0.9546817848 -0.2833846608
12300226200.0 0.9511358334 -0.295239723
12350225900.0 0.9460548094 -0.3094638544
12400225600.0 0.9417122077 -0.3225316349
12450225300.0 0.9379921437 -0.3349563842
12500225000.0 0.9323680894 -0.3494546634
12550224700.0 0.9271167899 -0.3626923745
12600224400.0 0.9222700164 -0.3751559031
12650224100.0 0.9164904848 -0.389290863
12700223800.0 0.9113631819 -0.4019009266
12750223500.0 0.9059547019 -0.4146627299
12800223200.0 0.900896282 -0.4270910663
12850222900.0 0.8953125573 -0.4390305441
12900222600.0 0.8892097296 -0.4514005429
12950222300.0 0.8828523672 -0.4640411457
13000222000.0 0.8767928793 -0.4759366906
13050221700.0 0.8701248955 -0.4891529786
13100221400.0 0.8635296841 -0.5006950813
13150221100.0 0.8559598756 -0.5132774196
13200220800.0 0.8493921705 -0.5248883657
13250220500.0 0.8416936887 -0.5374540968
13300220200.0 0.8340110257 -0.5483479769
13350219900.0 0.8257846825 -0.560611157
13400219600.0 0.81740714 -0.5728487614
13450219300.0 0.8077879613 -0.5865479711
13500219000.0 0.7972159474 -0.6006158305
13550218700.0 0.7873518605 -0.6129683499
13600218400.0 0.777107538 -0.6255072364
13650218100.0 0.7673213878 -0.6368177026
13700217800.0 0.7565286202 -0.6488473465
13750217500.0 0.746542714 -0.6605364553
13800217200.0 0.7357813822 -0.6725762725
13850216900.0 0.7251038351 -0.6829920381
13900216600.0 0.7139522231 -0.692449953
13950216300.0 0.7036479829 -0.7030820439
14000216000.0 0.6935328425 -0.7117715408
14050215700.0 0.6849552332 -0.7200906231
14100215400.0 0.6745593428 -0.7293059947
14150215100.0 0.6654199305 -0.7378867292
14200214800.0 0.6561131309 -0.7464241863
14250214500.0 0.6460829299 -0.7554792673
14300214200.0 0.6356208136 -0.7647126389
14350213900.0 0.6248263094 -0.7741329631
14400213600.0 0.6133240578 -0.7834733639
14450213300.0 0.6006655062 -0.7936545296
14500213000.0 0.5876486751 -0.8033190746
14550212700.0 0.575482234 -0.8129227595
14600212400.0 0.562812887 -0.8208778678
14650212100.0 0.5500165375 -0.8294631444
14700211800.0 0.5358792161 -0.8394462183
14750211500.0 0.5241912613 -0.8474012858
14800211200.0 0.511708267 -0.8556107117
14850210900.0 0.4995420118 -0.8630158897
14900210600.0 0.4860022146 -0.8709421363
14950210300.0 0.4723759197 -0.8786737533
15000210000.0 0.4594196115 -0.8855127745
15050209700.0 0.4467262264 -0.8917987524
15100209400.0 0.4339026692 -0.8979480876
15150209100.0 0.4208436576 -0.9034865567
15200208800.0 0.4083101131 -0.9089325416
15250208500.0 0.3967735715 -0.9136332073
15300208200.0 0.383064388 -0.9186270695
15350207900.0 0.3703910971 -0.9235444959
15400207600.0 0.3557029753 -0.9286144199
15450207300.0 0.3421170297 -0.9334433784
15500207000.0 0.3270028873 -0.9390646942
15550206700.0 0.3111994469 -0.9434969768
15600206400.0 0.2957964717 -0.9480441127
15650206100.0 0.2808245938 -0.9522432554
15700205800.0 0.2663909195 -0.956008655
15750205500.0 0.2521101725 -0.9595054328
15800205200.0 0.2377615911 -0.9630265271
15850204900.0 0.223507542 -0.9662693684
15900204600.0 0.2085998713 -0.9698587592
15950204300.0 0.1947374796 -0.9727482565
16000204000.0 0.1808249282 -0.9756234786
16050203700.0 0.1664773571 -0.9784027432
16100203400.0 0.1524293578 -0.9807029119
16150203100.0 0.1379135811 -0.9831319626
16200202800.0 0.1243534323 -0.9847446808
16250202500.0 0.1094201425 -0.9868074142
16300202200.0 0.0947123977 -0.9879325713
16350201900.0 0.0796569449 -0.9896312578
16400201600.0 0.064941445 -0.9904146889
16450201300.0 0.0499955388 -0.9913733214
16500201000.0 0.0335275381 -0.9921455424
16550200700.0 0.0177024643 -0.9926710897
16600200400.0 0.0019767344 -0.9927180307
16650200100.0 -0.0141465211 -0.9929851309
16700199800.0 -0.0306911332 -0.9924787638
16750199500.0 -0.0495803945 -0.9918051636
16800199200.0 -0.064806566 -0.9909651285
16850198900.0 -0.0807985401 -0.9897332513
16900198600.0 -0.0943985544 -0.9888972102
16950198300.0 -0.1081176065 -0.9875792628
17000198000.0 -0.121768704 -0.9858108809
17050197700.0 -0.1347336607 -0.9839490693
17100197400.0 -0.1478486244 -0.9817845515
17150197100.0 -0.1612065428 -0.9796197363
17200196800.0 -0.1740319774 -0.9778054949
17250196500.0 -0.1869248274 -0.975304809
17300196200.0 -0.1992355401 -0.9726122516
17350195900.0 -0.2113562136 -0.9705236546
17400195600.0 -0.223687701 -0.9680082313
17450195300.0 -0.2366704146 -0.9651190005
17500195000.0 -0.2502925394 -0.9617909966
17550194700.0 -0.2640610977 -0.9582674841
17600194400.0 -0.2780429516 -0.9541002146
17650194100.0 -0.2920014813 -0.9499184934
17700193800.0 -0.3043034088 -0.9456278549
17750193500.0 -0.3185770438 -0.9412853783
17800193200.0 -0.3325971044 -0.9364286978
17850192900.0 -0.347559616 -0.9311730607
17900192600.0 -0.3623159688 -0.9249118075
17950192300.0 -0.3779313301 -0.9182184098
18000192000.0 -0.3923816847 -0.9110264709
18050191700.0 -0.406163394 -0.903129511
18100191400.0 -0.4202258117 -0.8956511828
18150191100.0 -0.4349102117 -0.8877642495
18200190800.0 -0.4514935314 -0.8787612885
18250190500.0 -0.4682147717 -0.8696831092
18300190200.0 -0.4834023461 -0.8607487358
18350189900.0 -0.4983291984 -0.8526564394
18400189600.0 -0.5130340984 -0.8444865814
18450189300.0 -0.5262354263 -0.8359496697
18500189000.0 -0.5394309782 -0.827752191
18550188700.0 -0.5527717226 -0.820106316
18600188400.0 -0.5646782429 -0.813247089
18650188100.0 -0.5758217542 -0.8064508186
18700187800.0 -0.5869340059 -0.7994127735
18750187500.0 -0.5975850655 -0.7926168459
18800187200.0 -0.6086609633 -0.7852624286
18850186900.0 -0.6191650004 -0.7778897729
18900186600.0 -0.6297174491 -0.7699704217
18950186300.0 -0.6401984008 -0.7621297295
19000186000.0 -0.647621074 -0.7554976639
19050185700.0 -0.6574710485 -0.7480123214
19100185400.0 -0.6674203265 -0.7389623172
19150185100.0 -0.6779614935 -0.730774644
19200184800.0 -0.6876243025 -0.7219082113
19250184500.0 -0.6972981764 -0.7131048179
19300184200.0 -0.7091627362 -0.7024198582
19350183900.0 -0.7198129549 -0.6929620435
19400183600.0 -0.7288200864 -0.683380711
19450183300.0 -0.7379946988 -0.6733950358
19500183000.0 -0.7459921577 -0.6634721505
19550182700.0 -0.7557052225 -0.6525174917
19600182400.0 -0.7656914822 -0.6414928396
19650182100.0 -0.7758709127 -0.6294506683
19700181800.0 -0.7862617056 -0.6164204265
19750181500.0 -0.7964876696 -0.6026833149
19800181200.0 -0.8066411772 -0.5884024573
19850180900.0 -0.8161838583 -0.5733355655
19900180600.0 -0.8237319949 -0.5594649401
19950180300.0 -0.832881226 -0.543433655
20000180000.0 -0.8282391653 -0.5440671039
20050179700.0 -0.8360890436 -0.5308054449
20100179400.0 -0.8442703282 -0.5181103177
20150179100.0 -0.8524332252 -0.5054394933
20200178800.0 -0.861169274 -0.4929556644
20250178500.0 -0.869962684 -0.4787726931
20300178200.0 -0.8794749582 -0.4644503955
20350177900.0 -0.8880122682 -0.4503950495
20400177600.0 -0.8963069487 -0.4358909224
20450177300.0 -0.9044469874 -0.4214035726
20500177000.0 -0.9122599146 -0.4075947002
20550176700.0 -0.9200100403 -0.3942805347
20600176400.0 -0.9269437545 -0.3809089148
20650176100.0 -0.9331732511 -0.3677806073
20700175800.0 -0.939748817 -0.3554394284
20750175500.0 -0.9469072725 -0.3439506094
20800175200.0 -0.9515206254 -0.3325060293
20850174900.0 -0.9563087346 -0.3214051696
20900174600.0 -0.961180679 -0.3096714555
20950174300.0 -0.9651240186 -0.2973999059
21000174000.0 -0.9692927641 -0.2851818461
21050173700.0 -0.9721639148 -0.2739400168
21100173400.0 -0.9767717256 -0.2620838821
21150173100.0 -0.980369508 -0.2487735376
21200172800.0 -0.9832887154 -0.2353393896
21250172500.0 -0.986864907 -0.2211931195
21300172200.0 -0.9899794118 -0.2068433669
21350171900.0 -0.99146335 -0.1922198807
21400171600.0 -0.9929002493 -0.1776140873
21450171300.0 -0.9930575254 -0.1640785921
21500171000.0 -0.9926430418 -0.148668431
21550170700.0 -0.9920308088 -0.1329963679
21600170400.0 -0.9930192279 -0.1173369275
21650170100.0 -0.9929529937 -0.1013395938
21700169800.0 -0.990481346 -0.0877613877
21750169500.0 -0.989456929 -0.071096288
21800169200.0 -0.9890742266 -0.0556892305
21850168900.0 -0.9872492526 -0.038572813
21900168600.0 -0.9856216772 -0.0226214043
21950168300.0 -0.9843299408 -0.0082362677
22000168000.0 -0.9835718912 0.0073030143
22050167700.0 -0.9831711748 0.0210925857
22100167400.0 -0.9828682097 0.0358509911
22150167100.0 -0.9833485261 0.0511549844
22200166800.0 -0.9832080223 0.066948268
22250166500.0 -0.9824980444 0.084119556
22300166200.0 -0.982220929 0.1000538874
22350165900.0 -0.9799451057 0.1170931397
22400165600.0 -0.9780042036 0.1320860108
22450165300.0 -0.9756637722 0.1469326669
22500165000.0 -0.9747145862 0.1602608074
22550164700.0 -0.9730438042 0.1763300187
22600164400.0 -0.9719319283 0.1905597493
22650164100.0 -0.9699356276 0.2051098607
22700163800.0 -0.9677487423 0.221461069
22750163500.0 -0.9643706435 0.2367548269
22800163200.0 -0.9613409594 0.2502736614
22850162900.0 -0.958966897 0.2639379626
22900162600.0 -0.9576459151 0.2771422661
22950162300.0 -0.9565061024 0.2899554911
23000162000.0 -0.9551396992 0.3017632504
23050161700.0 -0.9529885217 0.3146357207
23100161400.0 -0.9506138381 0.3269579719
23150161100.0 -0.9478195265 0.3393825747
23200160800.0 -0.945086866 0.3518552796
23250160500.0 -0.9422799563 0.3637089993
23300160200.0 -0.9395140199 0.3750329002
23350159900.0 -0.9363772034 0.388282078
23400159600.0 -0.9318865181 0.4010279994
23450159300.0 -0.9263842447 0.414076614
23500159000.0 -0.9218281578 0.4269788343
23550158700.0 -0.9178866592 0.4396114973
23600158400.0 -0.9120181064 0.4525090338
23650158100.0 -0.9059704866 0.4664380244
23700157800.0 -0.8985358108 0.4797975237
23750157500.0 -0.8902486441 0.4934894084
23800157200.0 -0.8812610487 0.5064909316
23850156900.0 -0.8727102744 0.5194173483
23900156600.0 -0.8636259363 0.531535682
23950156300.0 -0.8543229315 0.544093074
24000156000.0 -0.8453932937 0.5560096785
24050155700.0 -0.8347380218 0.5679623953
24100155400.0 -0.8259502951 0.5792404067
24150155100.0 -0.8148666282 0.5913723139
24200154800.0 -0.8047764699 0.6026235958
24250154500.0 -0.7932961779 0.614585559
24300154200.0 -0.7821003371 0.6261826002
24350153900.0 -0.7704727892 0.6368845228
24400153600.0 -0.7581095659 0.6474360422
24450153300.0 -0.7465883539 0.6574765806
24500153000.0 -0.7353391818 0.6671767622
24550152700.0 -0.7238891083 0.6769115976
24600152400.0 -0.7125368893 0.6866738682
24650152100.0 -0.7017553877 0.6952206917
