!Created with skrf (http://scikit-rf.org).
# Hz S RI R 50.0 
!freq ReS11 ImS11
300000.0 -0.9792635627 -0.1040721962
50299700.0 -1.000126485 0.0160540698
100299400.0 -0.9981207957 0.0291394858
150299100.0 -1.002808407 0.0458335657
200298800.0 -0.9996538176 0.0592144049
250298500.0 -0.9974486556 0.0726347817
300298200.0 -0.9859399687 0.0886026824
350297900.0 -0.9939572169 0.0995770316
400297600.0 -0.9931050674 0.1161307386
450297300.0 -0.9911586441 0.1297879731
500297000.0 -0.9893519763 0.1446395647
550296700.0 -0.9841458744 0.1571153853
600296400.0 -1.017146275 0.190369549
650296100.0 -0.9821995068 0.1870886431
700295800.0 -0.9792121362 0.2013857275
750295500.0 -0.9763349421 0.21537676
800295200.0 -0.9728549606 0.2295368432
850294900.0 -0.9693691012 0.2433333901
900294600.0 -0.9657271743 0.2570296787
950294300.0 -0.961741899 0.2708029613
1000294000.0 -0.9578913515 0.2847462138
1050293700.0 -0.9533640567 0.2984986012
1100293400.0 -0.9489156416 0.3130699333
1150293100.0 -0.9452679395 0.3246921753
1200292800.0 -0.9398138529 0.3391624846
1250292500.0 -0.9344439002 0.3525764178
1300292200.0 -0.9285940222 0.3656871262
1350291900.0 -0.9231261886 0.3798974456
1400291600.0 -0.9177111365 0.3928928767
1450291300.0 -0.9120962388 0.4053088649
1500291000.0 -0.9059074983 0.4187415615
1550290700.0 -0.8992792439 0.4318524795
1600290400.0 -0.8930991938 0.4449360958
1650290100.0 -0.8864349363 0.4569473472
1700289800.0 -0.8796587715 0.4705092773
1750289500.0 -0.872373327 0.4827025194
1800289200.0 -0.8650547395 0.4955911645
1850288900.0 -0.8584568389 0.5069167981
1900288600.0 -0.8506008805 0.5199707261
1950288300.0 -0.8422456129 0.532599257
2000288000.0 -0.8348584617 0.5437080264
2050287700.0 -0.8267517793 0.5559765286
2100287400.0 -0.8184263817 0.5678910062
2150287100.0 -0.8100050339 0.5800207172
2200286800.0 -0.802180731 0.5902956974
2250286500.0 -0.793416684 0.6023678382
2300286200.0 -0.7844883705 0.6139654706
2350285900.0 -0.7757040494 0.6250841138
2400285600.0 -0.7666440717 0.6359711242
2450285300.0 -0.7579375395 0.6463545934
2500285000.0 -0.7481670714 0.6577581672
2550284700.0 -0.7392888239 0.6679407062
2600284400.0 -0.7297341192 0.6781200128
2650284100.0 -0.7208710727 0.6886552909
2700283800.0 -0.7104002057 0.6991958156
2750283500.0 -0.6998951295 0.7097162707
2800283200.0 -0.6902171266 0.7195645796
2850282900.0 -0.6800824066 0.7291403792
2900282600.0 -0.6696152092 0.7388073103
2950282300.0 -0.6595283278 0.7479423611
3000282000.0 -0.6487406058 0.757185765
3050281700.0 -0.6375947201 0.7666213991
3100281400.0 -0.6258445621 0.7761496793
3150281100.0 -0.6141468453 0.7855083369
3200280800.0 -0.6022677107 0.7939021834
3250280500.0 -0.5915858198 0.8016054791
3300280200.0 -0.5804947554 0.809523682
3350279900.0 -0.5689324066 0.817026817
3400279600.0 -0.5568146505 0.8245531619
3450279300.0 -0.545653258 0.8318203889
3500279000.0 -0.5337269186 0.8387636251
3550278700.0 -0.521054907 0.8461578161
3600278400.0 -0.5089053688 0.8534461422
3650278100.0 -0.4956991353 0.8611163245
3700277800.0 -0.4835198278 0.8674001515
3750277500.0 -0.4712788416 0.8739858327
3800277200.0 -0.4586938395 0.8804934561
3850276900.0 -0.4467256899 0.8864649558
3900276600.0 -0.4357990082 0.8921408829
3950276300.0 -0.4231381489 0.8978893692
4000276000.0 -0.4112387772 0.90418174
4050275700.0 -0.3978575436 0.9099746798
4100275400.0 -0.3868360585 0.9155324264
4150275100.0 -0.3741808304 0.9215166388
4200274800.0 -0.3611899638 0.9268397172
4250274500.0 -0.3491545411 0.9316789032
4300274200.0 -0.3359839705 0.9370379962
4350273900.0 -0.3221686665 0.9423649441
4400273600.0 -0.3071763777 0.9475209221
4450273300.0 -0.2919146645 0.9526596181
4500273000.0 -0.2781693716 0.9568531511
4550272700.0 -0.2640853925 0.9612348394
4600272400.0 -0.2485658327 0.9652413674
4650272100.0 -0.2368549914 0.9685477871
4700271800.0 -0.2234692754 0.9718437
4750271500.0 -0.21184518 0.9747359981
4800271200.0 -0.1993412784 0.9774179632
4850270900.0 -0.1853804911 0.9804329582
4900270600.0 -0.1715698495 0.9826007943
4950270300.0 -0.1574428747 0.9853876403
5000270000.0 -0.1431424907 0.9873946692
5050269700.0 -0.1296153806 0.9887351586
5100269400.0 -0.1163444101 0.9906908925
5150269100.0 -0.1027783947 0.9925804038
5200268800.0 -0.0896241213 0.9934428192
5250268500.0 -0.0764458639 0.9937183697
5300268200.0 -0.0635224606 0.9949030056
5350267900.0 -0.0512084963 0.9956540282
5400267600.0 -0.0353196236 0.9964355015
5450267300.0 -0.0222246722 0.9966011368
5500267000.0 -0.0070319036 0.9972716205
5550266700.0 0.0077925492 0.997136647
5600266400.0 0.0236342825 0.9975564407
5650266100.0 0.0399264536 0.9969453073
5700265800.0 0.0544398378 0.9960823339
5750265500.0 0.0701058864 0.9956890441
5800265200.0 0.0837691086 0.9942891722
5850264900.0 0.0969218207 0.9929505837
5900264600.0 0.1134309964 0.9914290885
5950264300.0 0.1261360737 0.9903016007
6000264000.0 0.1398629902 0.988085281
6050263700.0 0.1524251067 0.9864700139
6100263400.0 0.1651296599 0.9848087146
6150263100.0 0.1794961442 0.9818671599
6200262800.0 0.1900527205 0.980333692
6250262500.0 0.2025642813 0.9779287593
6300262200.0 0.2156854943 0.9752566259
6350261900.0 0.228686628 0.972170241
6400261600.0 0.2426134912 0.9687991237
6450261300.0 0.2537866594 0.9660743717
6500261000.0 0.2666684449 0.9624941654
6550260700.0 0.2795601839 0.9586949867
6600260400.0 0.292694246 0.9544921354
6650260100.0 0.3067240193 0.9502927231
6700259800.0 0.3186787851 0.9458170493
6750259500.0 0.3324587456 0.9411812978
6800259200.0 0.3455690176 0.9361094625
6850258900.0 0.3575315689 0.9309509549
6900258600.0 0.3698327366 0.9258888349
6950258300.0 0.3822385207 0.9206085936
7000258000.0 0.3944062203 0.915280909
7050257700.0 0.4066456802 0.9092423882
7100257400.0 0.4192086829 0.902905917
7150257100.0 0.4293282677 0.8975764585
7200256800.0 0.4423572873 0.8913153929
7250256500.0 0.4538593992 0.8849721595
7300256200.0 0.4671842944 0.8782856701
7350255900.0 0.4793088549 0.8711843557
7400255600.0 0.4926386076 0.8643316923
7450255300.0 0.5077558363 0.8550865974
7500255000.0 0.5197562073 0.8481977083
7550254700.0 0.5334447007 0.8396427919
7600254400.0 0.5459976626 0.8311457084
7650254100.0 0.5577084736 0.8231647366
7700253800.0 0.5694773657 0.815360996
7750253500.0 0.5803509164 0.8074414623
7800253200.0 0.5914355531 0.7996371678
7850252900.0 0.6009751604 0.7925344679
7900252600.0 0.6127141337 0.7838248295
7950252300.0 0.6217094053 0.7771044061
8000252000.0 0.6318817431 0.7692453078
8050251700.0 0.6424139848 0.7610279362
8100251400.0 0.6525249859 0.7528310247
8150251100.0 0.6625460194 0.7440779168
8200250800.0 0.6719434807 0.7361953633
8250250500.0 0.6806873006 0.7283000703
8300250200.0 0.6903281121 0.7194024296
8350249900.0 0.6994778468 0.710902847
8400249600.0 0.7075224625 0.7027723759
8450249300.0 0.7167738288 0.6934370761
8500249000.0 0.7253787908 0.6848213816
8550248700.0 0.7337063132 0.6756600883
8600248400.0 0.7420642836 0.6661828539
8650248100.0 0.7496303229 0.6568813604
8700247800.0 0.759146885 0.6454947938
8750247500.0 0.767420233 0.6355829972
8800247200.0 0.7754295048 0.6251251756
8850246900.0 0.7843203044 0.6140948673
8900246600.0 0.7925176676 0.6027521235
8950246300.0 0.8020562193 0.5897765485
9000246000.0 0.8118633776 0.5770635927
9050245700.0 0.8206855599 0.5639318397
9100245400.0 0.8289587978 0.5514126127
9150245100.0 0.8383421602 0.5377067804
9200244800.0 0.8483852745 0.5227574185
9250244500.0 0.8577878649 0.5071841963
9300244200.0 0.8660369041 0.492445362
9350243900.0 0.8737326864 0.4786456842
9400243600.0 0.8806638624 0.4658457165
9450243300.0 0.8864568705 0.4541148792
9500243000.0 0.8927125905 0.4416777235
9550242700.0 0.8966349334 0.4339495761
9600242400.0 0.900389017 0.4264433005
9650242100.0 0.9043646011 0.4198946531
9700241800.0 0.9085300033 0.4116221618
9750241500.0 0.9125774613 0.4040325575
9800241200.0 0.9174112313 0.3947674329
9850240900.0 0.9225443124 0.3831655395
9900240600.0 0.9280984369 0.3717849368
9950240300.0 0.9349180367 0.3551258835
10000240000.0 0.9395290911 0.3437543646
10050239700.0 0.9450156213 0.3287192647
10100239400.0 0.9502266227 0.3129579352
10150239100.0 0.9546390278 0.2985799534
10200238800.0 0.958577443 0.2835988595
10250238500.0 0.9617693243 0.270361529
10300238200.0 0.964969635 0.2563688445
10350237900.0 0.9677278533 0.2432700163
10400237600.0 0.9701313246 0.2302548841
10450237300.0 0.9728043115 0.2166768694
10500237000.0 0.97488642 0.2047449382
10550236700.0 0.9773318104 0.1906290538
10600236400.0 0.9793516107 0.1771305993
10650236100.0 0.9814077898 0.1625813608
10700235800.0 0.9832724841 0.1505994786
10750235500.0 0.9861527301 0.1370183343
10800235200.0 0.987890048 0.1234067544
10850234900.0 0.9896029778 0.1086515356
10900234600.0 0.9916447192 0.0940795489
10950234300.0 0.9931684796 0.0810120788
11000234000.0 0.9951770107 0.065819695
11050233700.0 0.9969192925 0.0496732623
11100233400.0 0.9983804547 0.031955478
11150233100.0 0.9993047869 0.0154640728
11200232800.0 1.000062635 0.0014326655
11250232500.0 1.001212139 -0.016046957
11300232200.0 1.001019169 -0.033525728
11350231900.0 1.002052256 -0.0502620923
11400231600.0 1.000922607 -0.0651902559
11450231300.0 1.000756531 -0.0807505093
11500231000.0 0.9997433511 -0.0976445691
11550230700.0 0.9978511197 -0.1102489601
11600230400.0 0.9964171955 -0.1232299908
11650230100.0 0.9948461593 -0.1352109377
11700229800.0 0.9927081393 -0.1502929051
11750229500.0 0.9899633423 -0.164577385
11800229200.0 0.987289922 -0.1787618054
11850228900.0 0.9838228816 -0.1909198956
11900228600.0 0.9803030759 -0.2010041949
11950228300.0 0.9772530507 -0.2108172294
12000228000.0 0.9741693038 -0.2202533305
12050227700.0 0.9704381913 -0.2330165808
12100227400.0 0.9672872548 -0.2446031563
12150227100.0 0.9626324666 -0.2610895792
12200226800.0 0.9586794287 -0.2715897997
12250226500.0 0.9551498836 -0.2837150699
12300226200.0 0.9507516657 -0.2960906839
12350225900.0 0.9456413359 -0.310751079
12400225600.0 0.9414326443 -0.3228585929
12450225300.0 0.9370359044 -0.3353064845
12500225000.0 0.9316196077 -0.3499607849
12550224700.0 0.9265132085 -0.3637407195
12600224400.0 0.9216767329 -0.376381402
12650224100.0 0.9158749877 -0.3905693241
12700223800.0 0.9105405518 -0.4032590821
12750223500.0 0.9051053232 -0.4160490438
12800223200.0 0.9000573196 -0.4284776853
12850222900.0 0.8945574075 -0.4408063868
12900222600.0 0.8888389487 -0.4530606904
12950222300.0 0.88238807 -0.4657268901
13000222000.0 0.8766218646 -0.4772718207
13050221700.0 0.8698127847 -0.4896221828
13100221400.0 0.863025077 -0.5015415904
13150221100.0 0.8558843642 -0.5145368688
13200220800.0 0.8488200672 -0.5258609345
13250220500.0 0.8415195906 -0.5383410576
13300220200.0 0.8339336635 -0.548992279
13350219900.0 0.8257573503 -0.5612450096
13400219600.0 0.8174703674 -0.5734756504
13450219300.0 0.8077943571 -0.5872235691
13500219000.0 0.7972709967 -0.6011732453
13550218700.0 0.7868830851 -0.6143921527
13600218400.0 0.7769557248 -0.6264722203
13650218100.0 0.7674201236 -0.6373892841
13700217800.0 0.7563944089 -0.6496413143
13750217500.0 0.7460972219 -0.6614061591
13800217200.0 0.7349782805 -0.6726357443
13850216900.0 0.7237988791 -0.6847760031
13900216600.0 0.7139042139 -0.6932819809
13950216300.0 0.7029396018 -0.703623419
14000216000.0 0.6933199176 -0.7129852822
14050215700.0 0.6842321384 -0.720645911
14100215400.0 0.6738212079 -0.7299133234
14150215100.0 0.6646778071 -0.7383720379
14200214800.0 0.6553854413 -0.7466100942
14250214500.0 0.6452751261 -0.7559414316
14300214200.0 0.6349849131 -0.7650522736
14350213900.0 0.6239870626 -0.7745596038
14400213600.0 0.6123589196 -0.7842168204
14450213300.0 0.5995282518 -0.794642011
14500213000.0 0.5859664842 -0.8037704992
14550212700.0 0.5734545805 -0.8137688092
14600212400.0 0.561163817 -0.8218857165
14650212100.0 0.5484938099 -0.8311476059
14700211800.0 0.5344477995 -0.840676511
14750211500.0 0.5221231304 -0.8487699175
14800211200.0 0.5099933347 -0.8566523604
14850210900.0 0.4979953485 -0.8640791979
14900210600.0 0.4842545136 -0.8721701393
14950210300.0 0.4706436486 -0.8796528445
15000210000.0 0.4578627519 -0.8865841289
15050209700.0 0.4454150378 -0.8926391225
15100209400.0 0.4324805151 -0.8983327803
15150209100.0 0.4201435685 -0.9041804839
15200208800.0 0.4069574202 -0.9099658271
15250208500.0 0.3959737802 -0.9141278111
15300208200.0 0.3832668816 -0.9189157508
15350207900.0 0.3700951015 -0.9244432963
15400207600.0 0.3546843943 -0.9298800832
15450207300.0 0.3402099524 -0.9340341515
15500207000.0 0.3260161158 -0.938265707
15550206700.0 0.3109331375 -0.9431450945
15600206400.0 0.2947841012 -0.9480161806
15650206100.0 0.2795078796 -0.9523612593
15700205800.0 0.2654412492 -0.9561179425
15750205500.0 0.2509095346 -0.9594076828
15800205200.0 0.2364657884 -0.9630888869
15850204900.0 0.2221470167 -0.9663336035
15900204600.0 0.2073739946 -0.9699276743
15950204300.0 0.1933257683 -0.9724994097
16000204000.0 0.1794192085 -0.9754852174
16050203700.0 0.1647476505 -0.9785504062
16100203400.0 0.1504168319 -0.9807620496
16150203100.0 0.1361533907 -0.9825368926
16200202800.0 0.1222455246 -0.9849310541
16250202500.0 0.1076713086 -0.9861973673
16300202200.0 0.0928670445 -0.9880201083
16350201900.0 0.0778475708 -0.9888525169
16400201600.0 0.0629653501 -0.9902931361
16450201300.0 0.0477502852 -0.9911178044
16500201000.0 0.0312598098 -0.9919311589
16550200700.0 0.0156864956 -0.9925446589
16600200400.0 -0.000469444 -0.9925885962
16650200100.0 -0.0163841694 -0.9924319584
16700199800.0 -0.0328815565 -0.9921537708
16750199500.0 -0.0518259175 -0.9916964565
16800199200.0 -0.0676068103 -0.9905675466
16850198900.0 -0.0829122828 -0.9894196798
16900198600.0 -0.096951924 -0.9886088933
16950198300.0 -0.1101586554 -0.9874714899
17000198000.0 -0.1231890985 -0.9854162909
17050197700.0 -0.13594426 -0.9839964362
17100197400.0 -0.1494130364 -0.9816176419
17150197100.0 -0.1616302396 -0.9797928619
17200196800.0 -0.1746690402 -0.9774683011
17250196500.0 -0.1875073604 -0.9752092343
17300196200.0 -0.1997613794 -0.9729533754
17350195900.0 -0.2116203846 -0.9706672889
17400195600.0 -0.2238681523 -0.9678532778
17450195300.0 -0.2369928961 -0.9651595263
17500195000.0 -0.2505107121 -0.961906952
17550194700.0 -0.2641760053 -0.9582308732
17600194400.0 -0.2781529762 -0.9542051743
17650194100.0 -0.2918909485 -0.9500076045
17700193800.0 -0.3047601233 -0.9458845426
17750193500.0 -0.3189992888 -0.9414589322
17800193200.0 -0.3330910736 -0.9360997351
17850192900.0 -0.3481202733 -0.9305059418
17900192600.0 -0.3633702497 -0.9244958052
17950192300.0 -0.3789311915 -0.9176489099
18000192000.0 -0.39353707 -0.91011082
18050191700.0 -0.4073381436 -0.9023477699
18100191400.0 -0.4216024756 -0.894829508
18150191100.0 -0.436366809 -0.8866279688
18200190800.0 -0.453074129 -0.8774255449
18250190500.0 -0.4701724258 -0.867924191
18300190200.0 -0.4854645433 -0.8593332043
18350189900.0 -0.5007852773 -0.8509262625
18400189600.0 -0.5147133453 -0.8423220948
18450189300.0 -0.5283168327 -0.8343392301
18500189000.0 -0.5416400951 -0.8264016008
18550188700.0 -0.5544544148 -0.8186594453
18600188400.0 -0.5655740992 -0.8119180572
18650188100.0 -0.5773649975 -0.8051270709
18700187800.0 -0.5882039389 -0.7984435203
18750187500.0 -0.5989783478 -0.7918457048
18800187200.0 -0.6096767865 -0.7846563996
18850186900.0 -0.6199052854 -0.7774988783
18900186600.0 -0.6304779955 -0.7700335868
18950186300.0 -0.6403340122 -0.762155541
19000186000.0 -0.6480312158 -0.7557317544
19050185700.0 -0.6573946128 -0.7485905522
19100185400.0 -0.6673956281 -0.739737616
19150185100.0 -0.6776311522 -0.7313002987
19200184800.0 -0.6866526185 -0.7232282323
19250184500.0 -0.6974143101 -0.7134693206
19300184200.0 -0.7085508365 -0.7044051355
19350183900.0 -0.7191725822 -0.6944602684
19400183600.0 -0.729406983 -0.6846886004
19450183300.0 -0.7382822931 -0.6746319019
19500183000.0 -0.7462222774 -0.66440244
19550182700.0 -0.7559535007 -0.6533716622
19600182400.0 -0.7664102338 -0.6422553903
19650182100.0 -0.7774519959 -0.6296621801
19700181800.0 -0.7874997739 -0.6168744401
19750181500.0 -0.7979689377 -0.6025869256
19800181200.0 -0.8079313262 -0.5878597137
19850180900.0 -0.817725332 -0.572495054
19900180600.0 -0.8252199299 -0.558378268
19950180300.0 -0.8342218822 -0.5419974711
20000180000.0 -0.8270010726 -0.5433762655
20050179700.0 -0.8359068261 -0.5316874357
20100179400.0 -0.8437991644 -0.517968467
20150179100.0 -0.8523901925 -0.505244254
20200178800.0 -0.8613193667 -0.4921909153
20250178500.0 -0.8699668069 -0.478804897
20300178200.0 -0.880040618 -0.4644840503
20350177900.0 -0.8887233564 -0.4500150839
20400177600.0 -0.8972486872 -0.4355083968
20450177300.0 -0.9055765389 -0.4206091856
20500177000.0 -0.9134616019 -0.4068631088
20550176700.0 -0.9212889514 -0.3931205776
20600176400.0 -0.9279900908 -0.3803258206
20650176100.0 -0.9345266252 -0.367014547
20700175800.0 -0.9415273202 -0.3557647399
20750175500.0 -0.9485295624 -0.3433164633
20800175200.0 -0.9530250851 -0.3327285792
20850174900.0 -0.9578937116 -0.3210855239
20900174600.0 -0.9632913802 -0.3096632506
20950174300.0 -0.9666856305 -0.2970455991
21000174000.0 -0.9705917177 -0.2862114813
21050173700.0 -0.9729660221 -0.2754555974
21100173400.0 -0.9771729154 -0.2628195088
21150173100.0 -0.9812385683 -0.2502697442
21200172800.0 -0.9846052054 -0.236795159
21250172500.0 -0.9880774634 -0.2228408757
21300172200.0 -0.9904080874 -0.2091381844
21350171900.0 -0.9924518747 -0.1945780241
21400171600.0 -0.9934797506 -0.179858331
21450171300.0 -0.9940878329 -0.1657174254
21500171000.0 -0.9936091849 -0.1505441783
21550170700.0 -0.9936164859 -0.1351532366
21600170400.0 -0.9933840941 -0.1192465704
21650170100.0 -0.992314791 -0.10358431
21700169800.0 -0.9910683236 -0.0884221056
21750169500.0 -0.9892916323 -0.0729117068
21800169200.0 -0.9872182982 -0.0563435643
21850168900.0 -0.986560954 -0.0397221595
21900168600.0 -0.9853117951 -0.0244068368
21950168300.0 -0.9835249311 -0.0076399634
22000168000.0 -0.9826310237 0.0065445715
22050167700.0 -0.9824225651 0.0209019593
22100167400.0 -0.9824389822 0.0356461765
22150167100.0 -0.9825147828 0.050875433
22200166800.0 -0.9831865034 0.0672612029
22250166500.0 -0.982569981 0.0847714146
22300166200.0 -0.9823690955 0.1018017585
22350165900.0 -0.9800301771 0.1172849931
22400165600.0 -0.9785863123 0.1334372608
22450165300.0 -0.9764551239 0.1486088662
22500165000.0 -0.9734654418 0.1615584082
22550164700.0 -0.9741543117 0.1774436293
22600164400.0 -0.9725862987 0.1926076475
22650164100.0 -0.9698670886 0.2075070055
22700163800.0 -0.9671127052 0.2232142313
22750163500.0 -0.964579121 0.238673676
22800163200.0 -0.961682835 0.251937391
22850162900.0 -0.9595621451 0.2655893449
22900162600.0 -0.9579065274 0.2786820286
22950162300.0 -0.9570753463 0.29153438
23000162000.0 -0.9557440074 0.3035277396
23050161700.0 -0.9538508672 0.3159013228
23100161400.0 -0.9516685568 0.3283415282
23150161100.0 -0.9488399319 0.3408645881
23200160800.0 -0.9459998965 0.3539334204
23250160500.0 -0.9430230328 0.3643946887
23300160200.0 -0.9409261979 0.3767918844
23350159900.0 -0.9367206236 0.3897176477
23400159600.0 -0.9323669214 0.4031418692
23450159300.0 -0.9283164845 0.416047267
23500159000.0 -0.9234179431 0.4288484681
23550158700.0 -0.9184979132 0.4420191582
23600158400.0 -0.9130435665 0.454808289
23650158100.0 -0.9068219513 0.4687019962
23700157800.0 -0.8991256391 0.4823458065
23750157500.0 -0.8906651298 0.4965131991
23800157200.0 -0.8820132926 0.5096418369
23850156900.0 -0.8733942031 0.5222482667
23900156600.0 -0.8634928187 0.534611809
23950156300.0 -0.8545281603 0.5471329566
24000156000.0 -0.8458551468 0.5589355209
24050155700.0 -0.8350827149 0.5702087672
24100155400.0 -0.8258030362 0.5818134632
24150155100.0 -0.8150448282 0.5945692536
24200154800.0 -0.8035683003 0.606227817
24250154500.0 -0.7923856094 0.6171008521
24300154200.0 -0.7810160349 0.6290204542
24350153900.0 -0.7692595788 0.6395841102
24400153600.0 -0.7567911969 0.6499047787
24450153300.0 -0.744718932 0.6600702903
24500153000.0 -0.7337731626 0.6693320475
24550152700.0 -0.7229982823 0.6796609674
24600152400.0 -0.7100069186 0.6886098732
24650152100.0 -0.6997484453 0.6970749225
