!Created with skrf (http://scikit-rf.org).
# Hz S RI R 50.0 
!freq ReS11 ImS11
300000.0 -0.9741536276 -0.1193761084
50299700.0 -1.000061884 0.0152954687
100299400.0 -0.9980771526 0.0281693133
150299100.0 -1.002821979 0.0451281423
200298800.0 -0.9997316839 0.0582626288
250298500.0 -0.9975286432 0.0718407411
300298200.0 -0.9860190681 0.0875209711
350297900.0 -0.9939682748 0.0985632182
400297600.0 -0.993200988 0.1152916093
450297300.0 -0.9911431412 0.1289997809
500297000.0 -0.989483969 0.1437612254
550296700.0 -0.9845208921 0.1561230733
600296400.0 -1.017143126 0.1894074854
650296100.0 -0.9823200277 0.1861896031
700295800.0 -0.9793847647 0.2003583465
750295500.0 -0.9763484801 0.2143756605
800295200.0 -0.9730444304 0.228549856
850294900.0 -0.9697424958 0.2422294675
900294600.0 -0.9659174586 0.2561130439
950294300.0 -0.9621469776 0.2697038791
1000294000.0 -0.9582774101 0.2836797976
1050293700.0 -0.9536682025 0.2974960524
1100293400.0 -0.9493906331 0.3120042462
1150293100.0 -0.9455751773 0.3238953545
1200292800.0 -0.9401906918 0.3382054856
1250292500.0 -0.9347881738 0.3515439444
1300292200.0 -0.9290391073 0.3647400125
1350291900.0 -0.9233394419 0.3789385506
1400291600.0 -0.9179695041 0.3920233348
1450291300.0 -0.912447196 0.4043713611
1500291000.0 -0.9062693954 0.4176161579
1550290700.0 -0.8997115799 0.4312004694
1600290400.0 -0.8934817484 0.4440125786
1650290100.0 -0.8868409251 0.4560553362
1700289800.0 -0.8798711766 0.4696270938
1750289500.0 -0.873075357 0.481921866
1800289200.0 -0.8656251806 0.4949693856
1850288900.0 -0.858833901 0.5061546526
1900288600.0 -0.8510023581 0.5191839046
1950288300.0 -0.8430206912 0.5318086904
2000288000.0 -0.8353341079 0.5431173205
2050287700.0 -0.8272745061 0.5553394053
2100287400.0 -0.8192833065 0.5670317204
2150287100.0 -0.8106840038 0.5791459513
2200286800.0 -0.802826229 0.5894130519
2250286500.0 -0.794257842 0.6013409816
2300286200.0 -0.7852734984 0.6131730221
2350285900.0 -0.7767166174 0.6240853423
2400285600.0 -0.7676483687 0.6349137808
2450285300.0 -0.7591431771 0.6453655964
2500285000.0 -0.7490503459 0.6566256691
2550284700.0 -0.7403038505 0.6672208076
2600284400.0 -0.731191144 0.6773603175
2650284100.0 -0.7218457686 0.6876568544
2700283800.0 -0.7115659644 0.6981698831
2750283500.0 -0.7010822667 0.7087015823
2800283200.0 -0.6912843144 0.7187813057
2850282900.0 -0.6810497886 0.7284484676
2900282600.0 -0.6706155383 0.7378530068
2950282300.0 -0.6604733534 0.7472721954
3000282000.0 -0.6497623117 0.7568697308
3050281700.0 -0.6385286336 0.7658843001
3100281400.0 -0.6269361832 0.7753271014
3150281100.0 -0.6149207736 0.7846409506
3200280800.0 -0.6033670613 0.7931225285
3250280500.0 -0.5925032691 0.8007890835
3300280200.0 -0.5811532462 0.808819787
3350279900.0 -0.569524748 0.8164992529
3400279600.0 -0.5572229036 0.824205965
3450279300.0 -0.5462222644 0.8312447742
3500279000.0 -0.5342859786 0.8383169786
3550278700.0 -0.5219468499 0.845691717
3600278400.0 -0.5097023938 0.8530170899
3650278100.0 -0.4964924843 0.8601400732
3700277800.0 -0.4842615417 0.8666235134
3750277500.0 -0.4723646048 0.8735900524
3800277200.0 -0.4594991532 0.8799228348
3850276900.0 -0.4475883926 0.8858371125
3900276600.0 -0.4367113635 0.8914827432
3950276300.0 -0.4243425044 0.8975416149
4000276000.0 -0.4125683598 0.9035701851
4050275700.0 -0.3996033505 0.9095304288
4100275400.0 -0.388345151 0.9150364494
4150275100.0 -0.3756788478 0.9208182584
4200274800.0 -0.3628172156 0.926214146
4250274500.0 -0.3504813953 0.9312829767
4300274200.0 -0.3376784313 0.9366060277
4350273900.0 -0.3235642533 0.9416948783
4400273600.0 -0.3088302134 0.9471560457
4450273300.0 -0.2934890452 0.9520914426
4500273000.0 -0.2799111778 0.9566449746
4550272700.0 -0.2658143552 0.9607602799
4600272400.0 -0.2502893188 0.9650553439
4650272100.0 -0.2385983045 0.9682336569
4700271800.0 -0.2253755196 0.9716838493
4750271500.0 -0.2136895351 0.974538803
4800271200.0 -0.2011690441 0.9770965281
4850270900.0 -0.1872621339 0.9799610724
4900270600.0 -0.1734107084 0.9822455407
4950270300.0 -0.1591278517 0.9850571325
5000270000.0 -0.1447798867 0.9870250914
5050269700.0 -0.1314287788 0.9887913125
5100269400.0 -0.1172623235 0.9901869337
5150269100.0 -0.1043002675 0.9919338438
5200268800.0 -0.0911163217 0.9928553835
5250268500.0 -0.0775899117 0.9939758792
5300268200.0 -0.0647143703 0.9944763684
5350267900.0 -0.0524320291 0.9954648754
5400267600.0 -0.036057696 0.9965035646
5450267300.0 -0.0230809008 0.9966246333
5500267000.0 -0.0079925754 0.9971210982
5550266700.0 0.0070446989 0.997410123
5600266400.0 0.0224265926 0.9973845164
5650266100.0 0.0391422223 0.9969642375
5700265800.0 0.053622831 0.9963219982
5750265500.0 0.0686448023 0.9953658404
5800265200.0 0.082643711 0.9942062667
5850264900.0 0.0960226623 0.9933647689
5900264600.0 0.1126251674 0.991850139
5950264300.0 0.1244630277 0.9900240308
6000264000.0 0.1384656771 0.9886325717
6050263700.0 0.1509497704 0.9867421697
6100263400.0 0.1632140172 0.9850453043
6150263100.0 0.1776376099 0.9826918394
6200262800.0 0.1882112452 0.9809172507
6250262500.0 0.2007581064 0.9785997471
6300262200.0 0.2136291414 0.9758101922
6350261900.0 0.2265088747 0.9728026474
6400261600.0 0.2403064276 0.9694692676
6450261300.0 0.2519173877 0.9669556241
6500261000.0 0.2648010261 0.9633689164
6550260700.0 0.2776264717 0.9594608027
6600260400.0 0.2910684201 0.9553638594
6650260100.0 0.3049986167 0.9509064712
6700259800.0 0.3169546648 0.9465860084
6750259500.0 0.3308441825 0.9416711401
6800259200.0 0.3439008357 0.9369919332
6850258900.0 0.3558534216 0.9317243625
6900258600.0 0.3681618843 0.9265632255
6950258300.0 0.3808471205 0.9212988291
7000258000.0 0.3927249849 0.9159070846
7050257700.0 0.404985303 0.9099106777
7100257400.0 0.4176550694 0.9035660588
7150257100.0 0.4283102426 0.8982102049
7200256800.0 0.4409326219 0.8919582031
7250256500.0 0.4530520727 0.88529314
7300256200.0 0.4662847838 0.8789343742
7350255900.0 0.4785179511 0.8718046549
7400255600.0 0.4915790196 0.8643314112
7450255300.0 0.5070814234 0.8554613434
7500255000.0 0.5187058699 0.8482739158
7550254700.0 0.5325786627 0.8398388291
7600254400.0 0.5451455758 0.83170086
7650254100.0 0.5568996493 0.8239002559
7700253800.0 0.5687603827 0.8159452387
7750253500.0 0.579844466 0.8081881172
7800253200.0 0.590488378 0.8005590504
7850252900.0 0.6001756558 0.7934863115
7900252600.0 0.6119936391 0.7845839313
7950252300.0 0.6205612525 0.7781124518
8000252000.0 0.6307720743 0.7703465183
8050251700.0 0.6413841987 0.7620954513
8100251400.0 0.6514936561 0.7542206084
8150251100.0 0.6611735292 0.7455907132
8200250800.0 0.6709682622 0.7375335511
8250250500.0 0.6796791351 0.7296145569
8300250200.0 0.6891146192 0.7208074348
8350249900.0 0.6983596779 0.7123036283
8400249600.0 0.7062768808 0.7041415669
8450249300.0 0.7154073858 0.6949462346
8500249000.0 0.7239095456 0.6862991164
8550248700.0 0.7323438668 0.6772425033
8600248400.0 0.7407986427 0.6675573594
8650248100.0 0.7485415032 0.6582639688
8700247800.0 0.7582647278 0.6467867835
8750247500.0 0.7663572166 0.6368854467
8800247200.0 0.7745644783 0.6264252408
8850246900.0 0.7833786823 0.6148992975
8900246600.0 0.7917081375 0.6036928742
8950246300.0 0.8012057799 0.5907089329
9000246000.0 0.8107286273 0.5781190046
9050245700.0 0.8193332574 0.5652733865
9100245400.0 0.8282146354 0.5525828422
9150245100.0 0.8372532978 0.5390189839
9200244800.0 0.8470557655 0.5240104902
9250244500.0 0.8563625677 0.5086606198
9300244200.0 0.8648454235 0.4943544549
9350243900.0 0.8728937393 0.4803979705
9400243600.0 0.8793255934 0.4681144655
9450243300.0 0.8852446576 0.4564027695
9500243000.0 0.8913677644 0.4443871242
9550242700.0 0.8953789396 0.4366356812
9600242400.0 0.8993259273 0.4294680157
9650242100.0 0.9030187949 0.4229053291
9700241800.0 0.9075107616 0.4146456966
9750241500.0 0.9113350872 0.4070077869
9800241200.0 0.9160958398 0.3980965864
9850240900.0 0.9221170196 0.3860042529
9900240600.0 0.9277967786 0.3745929002
9950240300.0 0.9341425642 0.3585340503
10000240000.0 0.9390036853 0.3471254062
10050239700.0 0.9442544772 0.3315484557
10100239400.0 0.9496930899 0.3156640142
10150239100.0 0.9539803885 0.3012802666
10200238800.0 0.957985046 0.2860046009
10250238500.0 0.961594037 0.2727132854
10300238200.0 0.9645109629 0.2587188704
10350237900.0 0.9674917858 0.2456205865
10400237600.0 0.9699180507 0.2323411901
10450237300.0 0.9726474509 0.2187509431
10500237000.0 0.9747317159 0.206661273
10550236700.0 0.9769635469 0.1923953153
10600236400.0 0.9790751552 0.1789984132
10650236100.0 0.9813608406 0.1639453329
10700235800.0 0.9837172068 0.1516178017
10750235500.0 0.9857465796 0.1384628872
10800235200.0 0.9879267286 0.124489412
10850234900.0 0.9897780606 0.1094707027
10900234600.0 0.9917371774 0.0947872925
10950234300.0 0.9935455353 0.0818548529
11000234000.0 0.9953120468 0.0666154003
11050233700.0 0.9969871749 0.0502317275
11100233400.0 0.9985330715 0.0328089455
11150233100.0 0.9993674552 0.0165497621
11200232800.0 1.00024523 0.0011124867
11250232500.0 1.001249975 -0.0148280674
11300232200.0 1.002026141 -0.0331988397
11350231900.0 1.00154243 -0.0492832691
11400231600.0 1.001191994 -0.0646238094
11450231300.0 1.001181864 -0.0788800953
11500231000.0 0.9999847579 -0.0958539216
11550230700.0 0.9987554461 -0.1087310437
11600230400.0 0.9968577346 -0.122074134
11650230100.0 0.9954046211 -0.1329796077
11700229800.0 0.9932944553 -0.148205052
11750229500.0 0.9908215775 -0.1623651991
11800229200.0 0.9883704222 -0.1762915229
11850228900.0 0.9848259009 -0.1886368407
11900228600.0 0.9812537492 -0.19844361
11950228300.0 0.9775074358 -0.2087891741
12000228000.0 0.9748969926 -0.2180546635
12050227700.0 0.971299534 -0.2307712416
12100227400.0 0.9684686933 -0.2414889891
12150227100.0 0.9633111202 -0.258547607
12200226800.0 0.9601527515 -0.2688853038
12250226500.0 0.9552610398 -0.2821208027
12300226200.0 0.9513359848 -0.2938687024
12350225900.0 0.9464557216 -0.3078298506
12400225600.0 0.9421048225 -0.3212836756
12450225300.0 0.9377018345 -0.3340674275
12500225000.0 0.9322227038 -0.3488100312
12550224700.0 0.9267614141 -0.3623882209
12600224400.0 0.921918252 -0.3754146997
12650224100.0 0.9161073912 -0.3898068
12700223800.0 0.910869206 -0.402472665
12750223500.0 0.9053624349 -0.4157247238
12800223200.0 0.8998959604 -0.4280208572
12850222900.0 0.8946760502 -0.4402563765
12900222600.0 0.8889563771 -0.4525600233
12950222300.0 0.8824496795 -0.4648060575
13000222000.0 0.8769730519 -0.4772385764
13050221700.0 0.8702703468 -0.4896861416
13100221400.0 0.8636690799 -0.5011397162
13150221100.0 0.8568159901 -0.5138628738
13200220800.0 0.8494549557 -0.5254810901
13250220500.0 0.8421604198 -0.5372198265
13300220200.0 0.8347403774 -0.5479969392
13350219900.0 0.8269468225 -0.5599501164
13400219600.0 0.8187078501 -0.5719527196
13450219300.0 0.8093015118 -0.5856274276
13500219000.0 0.7991264534 -0.5994966627
13550218700.0 0.7887278575 -0.6124306252
13600218400.0 0.7788041851 -0.6240864593
13650218100.0 0.768730714 -0.635928782
13700217800.0 0.7578335202 -0.647655119
13750217500.0 0.748370976 -0.6594212404
13800217200.0 0.7363319349 -0.6705880916
13850216900.0 0.7259325224 -0.6819460401
13900216600.0 0.7164892221 -0.6906885134
13950216300.0 0.7050491557 -0.700959067
14000216000.0 0.6951583782 -0.7102161531
14050215700.0 0.6857067512 -0.7187329882
14100215400.0 0.6758275416 -0.7280158548
14150215100.0 0.6666712245 -0.7361953524
14200214800.0 0.6573087732 -0.7450062249
14250214500.0 0.646945094 -0.7544619222
14300214200.0 0.6364954059 -0.7637323654
14350213900.0 0.6255036994 -0.7733637022
14400213600.0 0.6136253924 -0.7831508894
14450213300.0 0.6006067694 -0.7931853356
14500213000.0 0.5877128403 -0.8026823456
14550212700.0 0.5747910717 -0.8125388663
14600212400.0 0.5626812701 -0.8217390832
14650212100.0 0.5494467328 -0.8303238199
14700211800.0 0.5357440725 -0.8398855863
14750211500.0 0.5237151304 -0.8480046892
14800211200.0 0.5117070463 -0.8560272278
14850210900.0 0.4990634265 -0.8634412624
14900210600.0 0.4858872921 -0.8714557456
14950210300.0 0.4725958917 -0.8790319514
15000210000.0 0.4598186014 -0.8857883586
15050209700.0 0.4476462574 -0.8919174261
15100209400.0 0.4346427115 -0.8983383999
15150209100.0 0.4221492283 -0.9031749191
15200208800.0 0.40960131 -0.9089257255
15250208500.0 0.3990672831 -0.9134412688
15300208200.0 0.386232933 -0.9181218961
15350207900.0 0.3732125956 -0.9223901167
15400207600.0 0.358922572 -0.9285715139
15450207300.0 0.3438459283 -0.9330374492
15500207000.0 0.3291486892 -0.9374648859
15550206700.0 0.3145627174 -0.9423277891
15600206400.0 0.2984502131 -0.9472900046
15650206100.0 0.2825969977 -0.9516477546
15700205800.0 0.2690352125 -0.9550165903
15750205500.0 0.2545300943 -0.958766607
15800205200.0 0.2400771105 -0.9621283222
15850204900.0 0.2256956852 -0.9654404129
15900204600.0 0.2106009665 -0.969193701
15950204300.0 0.1965820199 -0.9718585843
16000204000.0 0.1821571618 -0.9751929132
16050203700.0 0.1671427929 -0.9778905647
16100203400.0 0.1526216731 -0.9800717909
16150203100.0 0.1381269904 -0.9824637954
16200202800.0 0.1241862038 -0.9845734642
16250202500.0 0.1093609684 -0.9860011877
16300202200.0 0.0938651143 -0.9876314609
16350201900.0 0.0788097707 -0.9891557794
16400201600.0 0.0642767955 -0.9905355161
16450201300.0 0.0491017987 -0.9915022859
16500201000.0 0.0323727477 -0.9921989195
16550200700.0 0.0166086469 -0.9926827177
16600200400.0 0.0009673945 -0.9928951552
16650200100.0 -0.014920898 -0.9925840398
16700199800.0 -0.0310810849 -0.9922961519
16750199500.0 -0.0499377766 -0.991591925
16800199200.0 -0.0657617538 -0.9910114076
16850198900.0 -0.0806073016 -0.9894422456
16900198600.0 -0.0945824207 -0.9887889486
16950198300.0 -0.10807667 -0.9878019702
17000198000.0 -0.1209987931 -0.9861959859
17050197700.0 -0.1336061333 -0.9842919592
17100197400.0 -0.1465772353 -0.9826117091
17150197100.0 -0.1594050455 -0.9805600047
17200196800.0 -0.172284738 -0.9779266099
17250196500.0 -0.1850279146 -0.9757401718
17300196200.0 -0.197035546 -0.9736437688
17350195900.0 -0.2089223506 -0.9711473467
17400195600.0 -0.2210435519 -0.9688364657
17450195300.0 -0.2343109357 -0.9659717855
17500195000.0 -0.2475621024 -0.962865567
17550194700.0 -0.261548147 -0.9591359275
17600194400.0 -0.2756882022 -0.9550197502
17650194100.0 -0.2892509828 -0.9510230611
17700193800.0 -0.302136903 -0.9469394973
17750193500.0 -0.3166125681 -0.9420447298
17800193200.0 -0.33105484 -0.9369809243
17850192900.0 -0.3458343553 -0.9313603868
17900192600.0 -0.3614336268 -0.925690974
17950192300.0 -0.3766547845 -0.9183877678
18000192000.0 -0.3915408326 -0.9111524875
18050191700.0 -0.4056321696 -0.9032064121
18100191400.0 -0.419793725 -0.8955840822
18150191100.0 -0.4348182057 -0.8876271692
18200190800.0 -0.4516068159 -0.8785719809
18250190500.0 -0.4687511896 -0.8690140848
18300190200.0 -0.4840507093 -0.8602223867
18350189900.0 -0.4994182651 -0.8519119589
18400189600.0 -0.5138177175 -0.8437627527
18450189300.0 -0.5269530406 -0.8357879975
18500189000.0 -0.5404255693 -0.8273696941
18550188700.0 -0.5530641336 -0.8198013418
18600188400.0 -0.5647804553 -0.8133976502
18650188100.0 -0.5757734087 -0.8069134593
18700187800.0 -0.58635489 -0.8001895049
18750187500.0 -0.597314643 -0.7937178773
18800187200.0 -0.6079104544 -0.7867964778
18850186900.0 -0.6179822751 -0.7796906379
18900186600.0 -0.6282365934 -0.7724074816
18950186300.0 -0.6382849708 -0.7647691752
19000186000.0 -0.6455717012 -0.7585669321
19050185700.0 -0.6546261673 -0.7514754535
19100185400.0 -0.6646214136 -0.7431170217
19150185100.0 -0.6745475493 -0.7350732666
19200184800.0 -0.6839839231 -0.7269291887
19250184500.0 -0.6943981305 -0.7173136305
19300184200.0 -0.7059967735 -0.7078393367
19350183900.0 -0.7168240454 -0.6980606232
19400183600.0 -0.7262315041 -0.6885642954
19450183300.0 -0.7347359523 -0.6786170804
19500183000.0 -0.7430543875 -0.6683264147
19550182700.0 -0.7526312865 -0.6573102079
19600182400.0 -0.7638518501 -0.6455802745
19650182100.0 -0.774689072 -0.6327855475
19700181800.0 -0.7851468859 -0.6197299826
19750181500.0 -0.7955211598 -0.6057664012
19800181200.0 -0.8059838592 -0.590788723
19850180900.0 -0.815656285 -0.5753020321
19900180600.0 -0.8233934065 -0.5608931878
19950180300.0 -0.8327189235 -0.5446485743
20000180000.0 -0.8254303522 -0.5471244672
20050179700.0 -0.8331840957 -0.53413629
20100179400.0 -0.8419475818 -0.5195765644
20150179100.0 -0.8502154621 -0.507705484
20200178800.0 -0.8587726939 -0.4952909054
20250178500.0 -0.8696940886 -0.4821140414
20300178200.0 -0.8781875494 -0.4669795179
20350177900.0 -0.8872041748 -0.4528462193
20400177600.0 -0.8961468748 -0.4382026691
20450177300.0 -0.9045255377 -0.4238554969
20500177000.0 -0.9125924295 -0.4099500384
20550176700.0 -0.9203613372 -0.3965266165
20600176400.0 -0.9273171849 -0.3839429221
20650176100.0 -0.9339994197 -0.3710598467
20700175800.0 -0.9406096624 -0.3592807934
20750175500.0 -0.9473719791 -0.3471726739
20800175200.0 -0.9518731373 -0.3366776203
20850174900.0 -0.9562149149 -0.3256250577
20900174600.0 -0.9609011627 -0.3148191712
20950174300.0 -0.9648835455 -0.3028206433
21000174000.0 -0.9680590388 -0.2927185619
21050173700.0 -0.9718208089 -0.280929148
21100173400.0 -0.9750298623 -0.2696143255
21150173100.0 -0.9791858531 -0.2570224941
21200172800.0 -0.9830886707 -0.2432502567
21250172500.0 -0.9861604521 -0.2297427729
21300172200.0 -0.9890193057 -0.2158500563
21350171900.0 -0.9906583399 -0.2011582308
21400171600.0 -0.9921062667 -0.187429676
21450171300.0 -0.9924252009 -0.1719166168
21500171000.0 -0.991920746 -0.1572787904
21550170700.0 -0.9920401598 -0.141584242
21600170400.0 -0.9921308012 -0.1263273825
21650170100.0 -0.9915372602 -0.1109638518
21700169800.0 -0.9899477587 -0.0944843726
21750169500.0 -0.9885922769 -0.079236968
21800169200.0 -0.9890334054 -0.0632504003
21850168900.0 -0.9871898458 -0.0460840687
21900168600.0 -0.9858697 -0.0292268927
21950168300.0 -0.9851444362 -0.0137515481
22000168000.0 -0.9840848999 0.0013410194
22050167700.0 -0.984119015 0.015712377
22100167400.0 -0.9839885968 0.0307347718
22150167100.0 -0.9849393767 0.0465424823
22200166800.0 -0.9853615583 0.0630290298
22250166500.0 -0.9848953797 0.0800808051
22300166200.0 -0.9839970772 0.0967578706
22350165900.0 -0.9826724915 0.1128071234
22400165600.0 -0.9804493549 0.1279349608
22450165300.0 -0.9794486082 0.1433587609
22500165000.0 -0.977736622 0.15671574
22550164700.0 -0.9761905856 0.1715928197
22600164400.0 -0.9747973225 0.1881478494
22650164100.0 -0.972418277 0.2031386866
22700163800.0 -0.9696241597 0.2192628355
22750163500.0 -0.9671867513 0.2339403906
22800163200.0 -0.9646433571 0.247433763
22850162900.0 -0.9615161156 0.2604631177
22900162600.0 -0.9604451907 0.2740893932
22950162300.0 -0.9593360568 0.2870251943
23000162000.0 -0.9579394371 0.2988540825
23050161700.0 -0.9562346694 0.311437936
23100161400.0 -0.9534808744 0.3246339138
23150161100.0 -0.9503246278 0.3362640231
23200160800.0 -0.9478094186 0.3484320893
23250160500.0 -0.9447877778 0.3611269603
23300160200.0 -0.9422102263 0.3732469846
23350159900.0 -0.9380936208 0.3864831412
23400159600.0 -0.9339511793 0.3991818897
23450159300.0 -0.9286035302 0.4128734946
23500159000.0 -0.9246816395 0.4259075657
23550158700.0 -0.9206001933 0.4393379384
23600158400.0 -0.9147938668 0.4529908542
23650158100.0 -0.9083389253 0.4668327947
23700157800.0 -0.9006578422 0.4808117885
23750157500.0 -0.8923551771 0.4947946453
23800157200.0 -0.8832963068 0.5080712783
23850156900.0 -0.8744499854 0.5202431145
23900156600.0 -0.864713934 0.5335335648
23950156300.0 -0.8562747217 0.545612228
24000156000.0 -0.8467949471 0.5577812724
24050155700.0 -0.8376895391 0.5692712727
24100155400.0 -0.8272353507 0.5819771883
24150155100.0 -0.8167518079 0.5935191352
24200154800.0 -0.80535941 0.6045389205
24250154500.0 -0.7942658256 0.6169105782
24300154200.0 -0.7827529102 0.6278193154
24350153900.0 -0.7706668047 0.6388589231
24400153600.0 -0.7587618114 0.6489127779
24450153300.0 -0.7469406275 0.6586885188
24500153000.0 -0.7353778874 0.6683529674
24550152700.0 -0.724386766 0.6784324633
24600152400.0 -0.7126908452 0.6871890116
24650152100.0 -0.7006092608 0.6963494512
