!Created with skrf (http://scikit-rf.org).
# Hz S RI R 50.0 
!freq ReS11 ImS11
300000.0 -0.9842362603 -0.0948374844
50299700.0 -1.000008411 0.0165493789
100299400.0 -0.9980752729 0.0293514819
150299100.0 -1.002754263 0.0461565919
200298800.0 -0.9996722604 0.0596281985
250298500.0 -0.9973053444 0.0730922876
300298200.0 -0.9858242237 0.0888461345
350297900.0 -0.9939015251 0.0997876266
400297600.0 -0.9931205916 0.116286886
450297300.0 -0.9910961826 0.1302107363
500297000.0 -0.9893888354 0.1449188828
550296700.0 -0.9843389788 0.1573280389
600296400.0 -1.017166026 0.1907870313
650296100.0 -0.9819627082 0.187169344
700295800.0 -0.9793064731 0.2015631488
750295500.0 -0.976009883 0.2155610109
800295200.0 -0.9725365276 0.2296850697
850294900.0 -0.9692617069 0.2434158798
900294600.0 -0.9654027154 0.257345074
950294300.0 -0.9615547029 0.2710840103
1000294000.0 -0.957619474 0.2850275324
1050293700.0 -0.953204633 0.298726244
1100293400.0 -0.9488244522 0.3132041225
1150293100.0 -0.9450517079 0.3250897655
1200292800.0 -0.9396111238 0.3392592765
1250292500.0 -0.9341589922 0.3528115383
1300292200.0 -0.9284296565 0.3659201349
1350291900.0 -0.9229520802 0.3798529928
1400291600.0 -0.91739136 0.3928841662
1450291300.0 -0.9118469999 0.4052379416
1500291000.0 -0.9056741985 0.4187588976
1550290700.0 -0.8992881997 0.4319190164
1600290400.0 -0.8930095251 0.4447102875
1650290100.0 -0.886417774 0.4568802447
1700289800.0 -0.8794349343 0.4703724706
1750289500.0 -0.8725727971 0.4826396463
1800289200.0 -0.8652055571 0.495547417
1850288900.0 -0.8583119773 0.5071022572
1900288600.0 -0.8505330858 0.520159501
1950288300.0 -0.8425899816 0.532555906
2000288000.0 -0.8348428627 0.5439185285
2050287700.0 -0.826683536 0.5562520431
2100287400.0 -0.8187685936 0.5679570188
2150287100.0 -0.8099344958 0.579936383
2200286800.0 -0.8022368603 0.5903536164
2250286500.0 -0.7932811874 0.6024448686
2300286200.0 -0.7844083143 0.6139675166
2350285900.0 -0.7756446542 0.625064023
2400285600.0 -0.7665849517 0.6359321258
2450285300.0 -0.7578520157 0.6466069774
2500285000.0 -0.7482279418 0.6578072169
2550284700.0 -0.7392307803 0.6680986191
2600284400.0 -0.7297729471 0.6783458359
2650284100.0 -0.72075127 0.68883315
2700283800.0 -0.710039097 0.6992878101
2750283500.0 -0.6999388203 0.7099641378
2800283200.0 -0.6901296078 0.7197080567
2850282900.0 -0.6797817933 0.7291947262
2900282600.0 -0.6696390124 0.739001264
2950282300.0 -0.6594199936 0.7479196498
3000282000.0 -0.6487006714 0.7575386746
3050281700.0 -0.6373302206 0.7666488821
3100281400.0 -0.6255554349 0.776030853
3150281100.0 -0.6139351681 0.7853825372
3200280800.0 -0.6024450212 0.7939905884
3250280500.0 -0.5914925291 0.8016503223
3300280200.0 -0.5803868993 0.8095190228
3350279900.0 -0.5689215172 0.816928055
3400279600.0 -0.5568023373 0.8247402473
3450279300.0 -0.5457684581 0.8319265806
3500279000.0 -0.5332978107 0.8389456571
3550278700.0 -0.5214886336 0.8465542108
3600278400.0 -0.5092161428 0.8534327947
3650278100.0 -0.49580159 0.8611737836
3700277800.0 -0.4837725438 0.8677194808
3750277500.0 -0.4714946932 0.8740472323
3800277200.0 -0.4590264974 0.8807737199
3850276900.0 -0.446698794 0.8866260631
3900276600.0 -0.4355587265 0.8921969547
3950276300.0 -0.4231036772 0.8982630291
4000276000.0 -0.4111110738 0.9044493864
4050275700.0 -0.3981733046 0.9103057929
4100275400.0 -0.3866586543 0.9155774866
4150275100.0 -0.3738642668 0.9212974338
4200274800.0 -0.360747707 0.9268918973
4250274500.0 -0.3486658695 0.9318414289
4300274200.0 -0.335520231 0.9372837609
4350273900.0 -0.3217910789 0.9424518946
4400273600.0 -0.3069107096 0.9475092461
4450273300.0 -0.2915220528 0.9525752307
4500273000.0 -0.2779406558 0.9570044512
4550272700.0 -0.2639631392 0.9612219793
4600272400.0 -0.2483208295 0.9652786749
4650272100.0 -0.2367973457 0.9684944001
4700271800.0 -0.2232069408 0.9718784622
4750271500.0 -0.2116722273 0.9745482613
4800271200.0 -0.1991617537 0.9774367234
4850270900.0 -0.1852814934 0.9802073472
4900270600.0 -0.1715388261 0.9825501034
4950270300.0 -0.157325829 0.9852188517
5000270000.0 -0.1432357197 0.9870905221
5050269700.0 -0.1296545089 0.9887449965
5100269400.0 -0.1161244205 0.9907313101
5150269100.0 -0.1029099384 0.9924605539
5200268800.0 -0.0895433212 0.9931662157
5250268500.0 -0.07636158 0.9946526139
5300268200.0 -0.0634426536 0.9949041684
5350267900.0 -0.0514605531 0.9956479175
5400267600.0 -0.0351052659 0.9966317428
5450267300.0 -0.0221252887 0.9969061954
5500267000.0 -0.0070960147 0.9972532189
5550266700.0 0.0079874911 0.9972804551
5600266400.0 0.0235726703 0.9971389087
5650266100.0 0.0398306382 0.9970630218
5700265800.0 0.0540858754 0.9957568753
5750265500.0 0.0696280965 0.9950842761
5800265200.0 0.0833661948 0.9936689695
5850264900.0 0.0969482667 0.9928892142
5900264600.0 0.1135041737 0.9917414447
5950264300.0 0.1257542254 0.990110376
6000264000.0 0.1395620301 0.987534386
6050263700.0 0.1520018788 0.9858832837
6100263400.0 0.1647147922 0.9843441947
6150263100.0 0.1792335905 0.9821844804
6200262800.0 0.1897874917 0.9800688623
6250262500.0 0.2027511053 0.9776093736
6300262200.0 0.2154901518 0.9748647659
6350261900.0 0.2287391649 0.971937536
6400261600.0 0.2423026004 0.968686659
6450261300.0 0.253828512 0.9659623843
6500261000.0 0.2668472437 0.9623937437
6550260700.0 0.2797700084 0.9585172741
6600260400.0 0.2928728331 0.9543129206
6650260100.0 0.3068495013 0.9499872257
6700259800.0 0.318660978 0.9455768859
6750259500.0 0.3328417428 0.9412068239
6800259200.0 0.3458440434 0.9361326433
6850258900.0 0.35767333 0.9310753366
6900258600.0 0.3696974875 0.9260720324
6950258300.0 0.3821515213 0.9208056288
7000258000.0 0.3940859826 0.9153498097
7050257700.0 0.4065424711 0.9093706152
7100257400.0 0.4192731833 0.9032604864
7150257100.0 0.4294871277 0.8980309957
7200256800.0 0.4424695509 0.8914728679
7250256500.0 0.4539393359 0.8851162731
7300256200.0 0.4669513603 0.8784207571
7350255900.0 0.4794739573 0.87146463
7400255600.0 0.4926260711 0.8643778122
7450255300.0 0.5077227686 0.8553453935
7500255000.0 0.5196355513 0.8483709325
7550254700.0 0.5323422597 0.8397658889
7600254400.0 0.5457484187 0.8314430997
7650254100.0 0.5573731353 0.8236934224
7700253800.0 0.5687632684 0.8154938493
7750253500.0 0.5804768728 0.807774931
7800253200.0 0.5912462319 0.7999814005
7850252900.0 0.6008075911 0.7926467554
7900252600.0 0.6127430107 0.7837437736
7950252300.0 0.6216883525 0.7771744038
8000252000.0 0.631957235 0.76920642
8050251700.0 0.6425136184 0.7608927115
8100251400.0 0.6524816089 0.752566362
8150251100.0 0.6628095477 0.7439754052
8200250800.0 0.6722363668 0.7356690439
8250250500.0 0.6808234446 0.727877488
8300250200.0 0.6903130801 0.7191897038
8350249900.0 0.6994655718 0.7104144386
8400249600.0 0.7079185881 0.7023408709
8450249300.0 0.7168592429 0.6931122347
8500249000.0 0.7255192018 0.684172546
8550248700.0 0.7337785827 0.6752156099
8600248400.0 0.7423700609 0.6657940876
8650248100.0 0.7501470274 0.6564944867
8700247800.0 0.7593993822 0.6455813526
8750247500.0 0.7677330711 0.6354528391
8800247200.0 0.7758713309 0.624996729
8850246900.0 0.7847252405 0.6138214401
8900246600.0 0.7929481067 0.6023331392
8950246300.0 0.8021761533 0.5898277517
9000246000.0 0.811773178 0.5772672052
9050245700.0 0.8204966157 0.5644389184
9100245400.0 0.8289334435 0.5519701319
9150245100.0 0.837903533 0.5386596476
9200244800.0 0.8475698803 0.5235005554
9250244500.0 0.8571730719 0.508277479
9300244200.0 0.8654936618 0.4936694946
9350243900.0 0.8730088995 0.479685485
9400243600.0 0.8798519824 0.4671812423
9450243300.0 0.8857873374 0.4552944958
9500243000.0 0.8921559389 0.4427699688
9550242700.0 0.8961899833 0.4345664228
9600242400.0 0.9000173527 0.4269267768
9650242100.0 0.9039010079 0.419818169
9700241800.0 0.9085438344 0.4113258116
9750241500.0 0.9125100134 0.4038958942
9800241200.0 0.9174066216 0.394168952
9850240900.0 0.9228576268 0.3826941322
9900240600.0 0.9284448168 0.3711888856
9950240300.0 0.934628645 0.3551787769
10000240000.0 0.9393138169 0.3434655454
10050239700.0 0.9450218103 0.3284990422
10100239400.0 0.9498441441 0.3130709569
10150239100.0 0.9542995285 0.2983720422
10200238800.0 0.9585796502 0.2834097744
10250238500.0 0.9618569573 0.2702226274
10300238200.0 0.9651239368 0.256065878
10350237900.0 0.967845874 0.2429948086
10400237600.0 0.9703822932 0.2297916112
10450237300.0 0.9729298445 0.2160365644
10500237000.0 0.9749957253 0.2044939206
10550236700.0 0.9775582876 0.190014722
10600236400.0 0.9798389236 0.1767223158
10650236100.0 0.981525391 0.162611174
10700235800.0 0.9838065479 0.1504983224
10750235500.0 0.9859220356 0.1374302723
10800235200.0 0.9880044215 0.1231517735
10850234900.0 0.9898452095 0.1087600647
10900234600.0 0.99176315 0.0943389415
10950234300.0 0.9936487408 0.081010732
11000234000.0 0.9952329889 0.0660514516
11050233700.0 0.9967703424 0.0498301396
11100233400.0 0.9981407628 0.0322596789
11150233100.0 0.9993128894 0.016162183
11200232800.0 0.9998606067 0.0013533082
11250232500.0 1.000802372 -0.0155433687
11300232200.0 1.001262542 -0.0326089507
11350231900.0 1.001038787 -0.0489213853
11400231600.0 1.000854254 -0.0651633605
11450231300.0 1.001230332 -0.0808096483
11500231000.0 0.9995675361 -0.0984094094
11550230700.0 0.9976718257 -0.1106737802
11600230400.0 0.9960422677 -0.1241189536
11650230100.0 0.9943786414 -0.1354987577
11700229800.0 0.9920892099 -0.150217227
11750229500.0 0.9898238812 -0.164633967
11800229200.0 0.9868171453 -0.1784599398
11850228900.0 0.9834490366 -0.191127427
11900228600.0 0.980150628 -0.2011668014
11950228300.0 0.9767121906 -0.211944289
12000228000.0 0.9739656863 -0.2208522081
12050227700.0 0.9700968263 -0.2339601285
12100227400.0 0.967245678 -0.2449627821
12150227100.0 0.9616952719 -0.2614839789
12200226800.0 0.9586727882 -0.2717125802
12250226500.0 0.9544076668 -0.2844385153
12300226200.0 0.9504272244 -0.296632952
12350225900.0 0.9456282121 -0.3105909186
12400225600.0 0.9416143265 -0.3233184173
12450225300.0 0.9371361897 -0.3355646345
12500225000.0 0.9319658782 -0.3502255932
12550224700.0 0.9264271089 -0.3638256794
12600224400.0 0.9215837006 -0.3764817882
12650224100.0 0.9160034917 -0.3905916319
12700223800.0 0.9108022208 -0.4029686924
12750223500.0 0.9052423803 -0.4158853276
12800223200.0 0.8999538674 -0.4284084555
12850222900.0 0.8943794047 -0.4409052211
12900222600.0 0.8886030826 -0.4528764737
12950222300.0 0.882297085 -0.4656344607
13000222000.0 0.8764951128 -0.4767825209
13050221700.0 0.8694413202 -0.4900084299
13100221400.0 0.8626571082 -0.501733989
13150221100.0 0.8557297998 -0.5145105114
13200220800.0 0.8486360926 -0.5258128334
13250220500.0 0.8412630219 -0.5382286608
13300220200.0 0.8334767274 -0.5492879934
13350219900.0 0.8253383034 -0.5615516924
13400219600.0 0.8169781137 -0.5735546294
13450219300.0 0.807512267 -0.5873851149
13500219000.0 0.7972088317 -0.6014227184
13550218700.0 0.786869776 -0.6142060938
13600218400.0 0.7769564252 -0.6258753113
13650218100.0 0.7672927377 -0.6362957843
13700217800.0 0.7559076035 -0.6493848274
13750217500.0 0.7461831202 -0.6609765531
13800217200.0 0.7344788939 -0.6724276551
13850216900.0 0.7232036473 -0.6846509708
13900216600.0 0.7136152201 -0.6928417279
13950216300.0 0.7031776954 -0.7031724679
14000216000.0 0.6930464238 -0.7127598412
14050215700.0 0.6839133675 -0.720822549
14100215400.0 0.6738966784 -0.7299613342
14150215100.0 0.6648460301 -0.7381048396
14200214800.0 0.6556701052 -0.7468541256
14250214500.0 0.6455439575 -0.7557954922
14300214200.0 0.6351795751 -0.7650992607
14350213900.0 0.6239173147 -0.7745846035
14400213600.0 0.6123347386 -0.7841554318
14450213300.0 0.5998299898 -0.7942759154
14500213000.0 0.587089891 -0.8040489964
14550212700.0 0.5741717131 -0.8133913583
14600212400.0 0.5622087601 -0.8217867109
14650212100.0 0.5493053874 -0.8303326072
14700211800.0 0.5349140019 -0.8399430545
14750211500.0 0.5228838551 -0.848266637
14800211200.0 0.5106030961 -0.8559373191
14850210900.0 0.4984121456 -0.8635887549
14900210600.0 0.4850274564 -0.8715359524
14950210300.0 0.4715046291 -0.8792647126
15000210000.0 0.4583769265 -0.8860998472
15050209700.0 0.4460284507 -0.8923351222
15100209400.0 0.4332110574 -0.8983960732
15150209100.0 0.4207544231 -0.9043111996
15200208800.0 0.407261073 -0.9096071146
15250208500.0 0.3958815982 -0.9147639335
15300208200.0 0.3832363477 -0.9191826469
15350207900.0 0.3698978841 -0.9235285291
15400207600.0 0.3555167657 -0.9296169581
15450207300.0 0.3400649526 -0.9340129662
15500207000.0 0.3260092861 -0.9384149523
15550206700.0 0.3106507296 -0.9438087198
15600206400.0 0.2948030174 -0.9487415849
15650206100.0 0.2791930468 -0.9525996361
15700205800.0 0.2652920044 -0.9561314084
15750205500.0 0.2512930632 -0.9594950495
15800205200.0 0.2368173428 -0.9629381791
15850204900.0 0.2224685909 -0.9664555427
15900204600.0 0.2075614384 -0.9701145615
15950204300.0 0.1934813492 -0.9730288208
16000204000.0 0.180104016 -0.9757036013
16050203700.0 0.165249414 -0.9785497568
16100203400.0 0.1509781427 -0.9806762164
16150203100.0 0.1364883722 -0.9829774674
16200202800.0 0.1230528437 -0.9844411664
16250202500.0 0.1085764099 -0.9866747905
16300202200.0 0.0931331437 -0.9879392086
16350201900.0 0.0784749441 -0.9893347131
16400201600.0 0.0639496767 -0.9904659543
16450201300.0 0.0487379873 -0.9912625214
16500201000.0 0.0322481145 -0.992129171
16550200700.0 0.016523191 -0.9925661598
16600200400.0 0.0007063316 -0.9929097483
16650200100.0 -0.0157116248 -0.9926553966
16700199800.0 -0.0321657299 -0.9922059417
16750199500.0 -0.0511434436 -0.9915359993
16800199200.0 -0.0668506873 -0.9908947993
16850198900.0 -0.0822244321 -0.9897272002
16900198600.0 -0.0962200764 -0.9886683803
16950198300.0 -0.1111357466 -0.9873696894
17000198000.0 -0.1234841765 -0.9860361041
17050197700.0 -0.1362672303 -0.983587665
17100197400.0 -0.149049495 -0.9816976588
17150197100.0 -0.1622922492 -0.9795069648
17200196800.0 -0.1748256851 -0.9778086365
17250196500.0 -0.1878606149 -0.9748223553
17300196200.0 -0.2003739997 -0.9728336542
17350195900.0 -0.2124571884 -0.9704241668
17400195600.0 -0.2245857684 -0.9678364274
17450195300.0 -0.2377369709 -0.9649623063
17500195000.0 -0.2511029475 -0.9617588194
17550194700.0 -0.2648740803 -0.9579112967
17600194400.0 -0.278867103 -0.9540543676
17650194100.0 -0.2924163974 -0.9499132106
17700193800.0 -0.3053250639 -0.9458029592
17750193500.0 -0.3200495631 -0.9411356175
17800193200.0 -0.3336955799 -0.9358742112
17850192900.0 -0.3488033433 -0.9306475025
17900192600.0 -0.3635321872 -0.9249059745
17950192300.0 -0.3786494808 -0.9177488329
18000192000.0 -0.3934473961 -0.9107431953
18050191700.0 -0.4071418814 -0.9028140551
18100191400.0 -0.4212038632 -0.8951486734
18150191100.0 -0.4358318503 -0.8872355279
18200190800.0 -0.4524871039 -0.8780776788
18250190500.0 -0.469317792 -0.8686775192
18300190200.0 -0.484690715 -0.8599330419
18350189900.0 -0.4996473303 -0.8517688185
18400189600.0 -0.513904093 -0.8432792477
18450189300.0 -0.5270555743 -0.8354491101
18500189000.0 -0.5406912659 -0.8270742387
18550188700.0 -0.5534685431 -0.8192477515
18600188400.0 -0.5655855692 -0.8118268474
18650188100.0 -0.576902902 -0.8055219378
18700187800.0 -0.5875304558 -0.7989540781
18750187500.0 -0.5988604551 -0.7918624054
18800187200.0 -0.609534955 -0.7847172004
18850186900.0 -0.6200747674 -0.7770685259
18900186600.0 -0.6306659668 -0.769412082
18950186300.0 -0.6409553915 -0.7616175942
19000186000.0 -0.6483032648 -0.7550128571
19050185700.0 -0.6581542478 -0.7474032152
19100185400.0 -0.6682509948 -0.7387387815
19150185100.0 -0.6785653905 -0.7304123479
19200184800.0 -0.6881064284 -0.7220571449
19250184500.0 -0.6978160724 -0.7122626315
19300184200.0 -0.7096418684 -0.70327621
19350183900.0 -0.7203664194 -0.6930198242
19400183600.0 -0.7296993479 -0.6836000398
19450183300.0 -0.7385304061 -0.6733087702
19500183000.0 -0.7473167659 -0.6637823969
19550182700.0 -0.7563543981 -0.6527587376
19600182400.0 -0.7667854316 -0.6410762362
19650182100.0 -0.7772862825 -0.6290805588
19700181800.0 -0.7874638655 -0.6163728029
19750181500.0 -0.7977373362 -0.6023538544
19800181200.0 -0.8077946427 -0.5878055019
19850180900.0 -0.8171145636 -0.572739412
19900180600.0 -0.8249613756 -0.5587945386
19950180300.0 -0.8339579463 -0.5428562742
20000180000.0 -0.8275955641 -0.5443896035
20050179700.0 -0.8353365056 -0.5309127693
20100179400.0 -0.8441460392 -0.5168217634
20150179100.0 -0.8522530584 -0.5052211807
20200178800.0 -0.8610935482 -0.4920422655
20250178500.0 -0.8698655322 -0.4788497225
20300178200.0 -0.8787290747 -0.4651059863
20350177900.0 -0.8875109459 -0.4503020228
20400177600.0 -0.8968453543 -0.4360180833
20450177300.0 -0.9046234332 -0.4213358869
20500177000.0 -0.9126312167 -0.4075662414
20550176700.0 -0.9204413372 -0.3938198969
20600176400.0 -0.9272915517 -0.3805187801
20650176100.0 -0.9336575073 -0.3676806323
20700175800.0 -0.9406118001 -0.3557742206
20750175500.0 -0.9469435763 -0.3441332022
20800175200.0 -0.9519033105 -0.3327125749
20850174900.0 -0.9570647225 -0.3214390399
20900174600.0 -0.9615996722 -0.3091047675
20950174300.0 -0.965839036 -0.2981614857
21000174000.0 -0.9692317389 -0.2862159732
21050173700.0 -0.9723451765 -0.2752791563
21100173400.0 -0.9760431395 -0.2621263117
21150173100.0 -0.9807579685 -0.2497816553
21200172800.0 -0.9839785817 -0.2361267078
21250172500.0 -0.9877428663 -0.2216635101
21300172200.0 -0.9900121424 -0.2082205755
21350171900.0 -0.9921526695 -0.1938959557
21400171600.0 -0.9932700257 -0.1793340052
21450171300.0 -0.993512658 -0.1651395953
21500171000.0 -0.9935223187 -0.1487199767
21550170700.0 -0.9931747328 -0.1337597567
21600170400.0 -0.9931530387 -0.1188373104
21650170100.0 -0.9930292892 -0.1024588422
21700169800.0 -0.990256899 -0.0879883766
21750169500.0 -0.9903586219 -0.0730706799
21800169200.0 -0.9884715841 -0.0568511707
21850168900.0 -0.9872117379 -0.0405029617
21900168600.0 -0.9864901336 -0.0249360197
21950168300.0 -0.9843862164 -0.0086030526
22000168000.0 -0.9834075139 0.0061967072
22050167700.0 -0.9829339961 0.0202434777
22100167400.0 -0.9829640152 0.0353280948
22150167100.0 -0.9833967224 0.050734138
22200166800.0 -0.9837941251 0.0665987737
22250166500.0 -0.9826582067 0.083488531
22300166200.0 -0.9825435062 0.1002753091
22350165900.0 -0.9804460416 0.1167260471
22400165600.0 -0.979063764 0.1323182219
22450165300.0 -0.9770957134 0.1477568588
22500165000.0 -0.9752215417 0.1611924969
22550164700.0 -0.9744523737 0.176884394
22600164400.0 -0.971865594 0.1914177241
22650164100.0 -0.9690085515 0.2057545189
22700163800.0 -0.9674015084 0.2228208517
22750163500.0 -0.9641873335 0.237235862
22800163200.0 -0.9621959842 0.2511612674
22850162900.0 -0.959886325 0.2643638312
22900162600.0 -0.9583342094 0.277730686
22950162300.0 -0.9574310091 0.2905910647
23000162000.0 -0.9555309333 0.3026069255
23050161700.0 -0.9537765152 0.314831364
23100161400.0 -0.951528885 0.3282855573
23150161100.0 -0.9483507547 0.3404031676
23200160800.0 -0.9459042508 0.3526465765
23250160500.0 -0.9435591679 0.3641147117
23300160200.0 -0.9403643183 0.3757977748
23350159900.0 -0.9358497825 0.3889267185
23400159600.0 -0.931687993 0.4018116044
23450159300.0 -0.9269882145 0.4146773102
23500159000.0 -0.9221735369 0.4278547676
23550158700.0 -0.9176066062 0.4414622829
23600158400.0 -0.9123617537 0.454181055
23650158100.0 -0.9060957066 0.4677281469
23700157800.0 -0.8986102377 0.4815732194
23750157500.0 -0.8898848328 0.4953014647
23800157200.0 -0.8813809596 0.5087124815
23850156900.0 -0.8724055476 0.5208628998
23900156600.0 -0.8629952222 0.5335129951
23950156300.0 -0.8544635338 0.5456631184
24000156000.0 -0.8454737477 0.5575912627
24050155700.0 -0.8349899905 0.5693913651
24100155400.0 -0.8253493811 0.5816631476
24150155100.0 -0.814189798 0.5935025288
24200154800.0 -0.8033934425 0.6050712685
24250154500.0 -0.7918629528 0.6161851018
24300154200.0 -0.7809209484 0.6281646551
24350153900.0 -0.7690126017 0.6389532254
24400153600.0 -0.7568431079 0.6492557482
24450153300.0 -0.7450253537 0.6591419968
24500153000.0 -0.7337887794 0.6691474782
24550152700.0 -0.7228620175 0.6790256416
24600152400.0 -0.7106905694 0.6882693916
24650152100.0 -0.6995009929 0.6977852565
