!Created with skrf (http://scikit-rf.org).
# Hz S RI R 50.0 
!freq ReS11 ImS11
300000.0 -0.9751328389 -0.1202178979
50299700.0 -0.9999886132 0.0151990674
100299400.0 -0.9981278846 0.028156739
150299100.0 -1.002677353 0.0449742504
200298800.0 -0.9995755997 0.058294063
250298500.0 -0.9975821235 0.0718240929
300298200.0 -0.9859114872 0.0876894002
350297900.0 -0.994040738 0.098634465
400297600.0 -0.993288953 0.1152443201
450297300.0 -0.9910066946 0.1289658252
500297000.0 -0.9895111988 0.1435511981
550296700.0 -0.9844349434 0.1562163094
600296400.0 -1.017457835 0.1894094312
650296100.0 -0.9824165511 0.1859492598
700295800.0 -0.9791802152 0.2003187525
750295500.0 -0.9763862962 0.2144785234
800295200.0 -0.9730353213 0.2282949905
850294900.0 -0.9695594113 0.2421772119
900294600.0 -0.9660066779 0.2559253337
950294300.0 -0.9622419077 0.2697855988
1000294000.0 -0.9582135174 0.283653634
1050293700.0 -0.9537695659 0.2974334228
1100293400.0 -0.9492062191 0.3117287632
1150293100.0 -0.9454644442 0.3237801955
1200292800.0 -0.9401724808 0.338180707
1250292500.0 -0.9348609225 0.3515996089
1300292200.0 -0.9290825898 0.364733451
1350291900.0 -0.9234252841 0.378836638
1400291600.0 -0.9178953232 0.3919063172
1450291300.0 -0.9125429282 0.4041723529
1500291000.0 -0.9065185847 0.4177231244
1550290700.0 -0.8997148371 0.430873104
1600290400.0 -0.8934729913 0.443882353
1650290100.0 -0.8868318152 0.456096113
1700289800.0 -0.8800084939 0.469580309
1750289500.0 -0.8728657765 0.4816749875
1800289200.0 -0.8654327619 0.4946959543
1850288900.0 -0.8586439901 0.5060172285
1900288600.0 -0.8510992545 0.5189971945
1950288300.0 -0.8429269201 0.5317315076
2000288000.0 -0.8354137768 0.5429993345
2050287700.0 -0.8272045677 0.5552027903
2100287400.0 -0.8193458789 0.5668106193
2150287100.0 -0.8107214943 0.5790584007
2200286800.0 -0.8031049546 0.5893443845
2250286500.0 -0.7941493328 0.6013894446
2300286200.0 -0.7853592756 0.6130348191
2350285900.0 -0.77648719 0.624028028
2400285600.0 -0.7676298885 0.6350358716
2450285300.0 -0.7589751178 0.6453925778
2500285000.0 -0.7494498514 0.6567255112
2550284700.0 -0.7405343716 0.6668831529
2600284400.0 -0.7311222027 0.677098711
2650284100.0 -0.7219761326 0.6873856829
2700283800.0 -0.7112256599 0.6979169815
2750283500.0 -0.7011328876 0.7086517919
2800283200.0 -0.6912484105 0.7185046562
2850282900.0 -0.6813765799 0.7283157831
2900282600.0 -0.6708797448 0.737657275
2950282300.0 -0.6605698199 0.7471251633
3000282000.0 -0.6497987591 0.7566283287
3050281700.0 -0.6386266675 0.7658943672
3100281400.0 -0.6267620907 0.7752712175
3150281100.0 -0.6150808545 0.7845822322
3200280800.0 -0.60339374 0.7929668523
3250280500.0 -0.5925827547 0.8006811709
3300280200.0 -0.5811337987 0.8087216195
3350279900.0 -0.569682692 0.8164835408
3400279600.0 -0.557422008 0.8240606403
3450279300.0 -0.5463051986 0.8311587481
3500279000.0 -0.5343289503 0.8383349435
3550278700.0 -0.5218108048 0.8453914255
3600278400.0 -0.5095473963 0.8526332893
3650278100.0 -0.49656737 0.8603638773
3700277800.0 -0.4845493979 0.8670398194
3750277500.0 -0.4724189758 0.8735675807
3800277200.0 -0.4597889161 0.8796048255
3850276900.0 -0.4477450865 0.8858590221
3900276600.0 -0.4370845108 0.8912440947
3950276300.0 -0.4243298081 0.8976411449
4000276000.0 -0.4124082369 0.9032193546
4050275700.0 -0.3996780517 0.9095028645
4100275400.0 -0.3887090197 0.9147436919
4150275100.0 -0.375902277 0.9205982699
4200274800.0 -0.3628927485 0.9260893701
4250274500.0 -0.3505038884 0.9312073124
4300274200.0 -0.337449741 0.9366444863
4350273900.0 -0.3236702106 0.9417669257
4400273600.0 -0.3089353172 0.947198537
4450273300.0 -0.2935629813 0.9522714767
4500273000.0 -0.2800798226 0.9567156471
4550272700.0 -0.2657321722 0.9608275284
4600272400.0 -0.2504076241 0.9650159048
4650272100.0 -0.2387840379 0.9681489488
4700271800.0 -0.2255272444 0.9714068156
4750271500.0 -0.2137177643 0.9744167698
4800271200.0 -0.2013488166 0.9770698333
4850270900.0 -0.1876150565 0.9800342617
4900270600.0 -0.173574309 0.9822177223
4950270300.0 -0.1593681133 0.984819723
5000270000.0 -0.1449094771 0.9870004662
5050269700.0 -0.1314548972 0.9885595797
5100269400.0 -0.1178186796 0.9904171978
5150269100.0 -0.1042340822 0.9920390465
5200268800.0 -0.0908919774 0.9930294729
5250268500.0 -0.0780715572 0.9940303087
5300268200.0 -0.0647487466 0.9947187815
5350267900.0 -0.0524047169 0.9953825865
5400267600.0 -0.0360514009 0.9963807411
5450267300.0 -0.0231949559 0.9968825157
5500267000.0 -0.0079647359 0.9970513561
5550266700.0 0.0070357306 0.9972063295
5600266400.0 0.0225631293 0.997405015
5650266100.0 0.0392236869 0.9971429294
5700265800.0 0.053680044 0.9961641337
5750265500.0 0.06861217 0.9953579505
5800265200.0 0.0827545654 0.9946128485
5850264900.0 0.0956909974 0.9933367139
5900264600.0 0.1123440178 0.9917655172
5950264300.0 0.1244687387 0.9901595509
6000264000.0 0.1383331815 0.9886617086
6050263700.0 0.1506760988 0.9870024443
6100263400.0 0.1632077671 0.9851468038
6150263100.0 0.1773803544 0.9828178284
6200262800.0 0.1879363411 0.9808872162
6250262500.0 0.2004317443 0.9784793016
6300262200.0 0.2132684202 0.9757208863
6350261900.0 0.2263397028 0.9729996859
6400261600.0 0.2401071419 0.9696595614
6450261300.0 0.2516403648 0.9669372247
6500261000.0 0.264557303 0.9633501766
6550260700.0 0.2772419539 0.9592964666
6600260400.0 0.2904840298 0.9552486321
6650260100.0 0.3047075499 0.9511097629
6700259800.0 0.3167676331 0.9468782835
6750259500.0 0.3304096316 0.9415901552
6800259200.0 0.3434055771 0.9366246496
6850258900.0 0.355934826 0.9317870235
6900258600.0 0.367895957 0.92661818
6950258300.0 0.3807109089 0.9214911264
7000258000.0 0.3925637177 0.9159875832
7050257700.0 0.4047525553 0.9099391319
7100257400.0 0.4175665644 0.9036558783
7150257100.0 0.4280668509 0.8983120859
7200256800.0 0.4406932634 0.891950772
7250256500.0 0.4527196838 0.8853194916
7300256200.0 0.465892236 0.8785724795
7350255900.0 0.478307717 0.8717031916
7400255600.0 0.4915857153 0.864656368
7450255300.0 0.5070762974 0.8553703619
7500255000.0 0.5188625497 0.8483230501
7550254700.0 0.5326312665 0.8397576831
7600254400.0 0.5452853027 0.8316963614
7650254100.0 0.5567692761 0.823914587
7700253800.0 0.5686075185 0.8159259323
7750253500.0 0.5800546813 0.8080863273
7800253200.0 0.59059189 0.8005677706
7850252900.0 0.6002021713 0.7933510128
7900252600.0 0.6119110119 0.7846417358
7950252300.0 0.6207425708 0.7781762573
8000252000.0 0.6305018962 0.7704355014
8050251700.0 0.641223559 0.7623857791
8100251400.0 0.6512934102 0.7542639679
8150251100.0 0.6614072238 0.7454489809
8200250800.0 0.6709888155 0.7373406553
8250250500.0 0.6794375902 0.7296846242
8300250200.0 0.6889077612 0.7208822197
8350249900.0 0.6981029732 0.7121412268
8400249600.0 0.7061494603 0.7041620675
8450249300.0 0.7154357835 0.6949978629
8500249000.0 0.7238292894 0.6861195022
8550248700.0 0.7321088079 0.6771302831
8600248400.0 0.7407401223 0.6677777408
8650248100.0 0.7484871962 0.6582850011
8700247800.0 0.7580478473 0.647125794
8750247500.0 0.7662720839 0.6368604901
8800247200.0 0.7744210208 0.6264490042
8850246900.0 0.7832978159 0.6149100511
8900246600.0 0.7916208452 0.6036719745
8950246300.0 0.8013774356 0.590703581
9000246000.0 0.8104313176 0.5782215039
9050245700.0 0.8191924464 0.56506658
9100245400.0 0.828309308 0.5527238538
9150245100.0 0.8370164066 0.539165373
9200244800.0 0.8466796787 0.524186087
9250244500.0 0.8561074828 0.5089802716
9300244200.0 0.8644411671 0.4946258323
9350243900.0 0.8724730105 0.4807178974
9400243600.0 0.8790357668 0.4684307737
9450243300.0 0.8849034374 0.4569753162
9500243000.0 0.8911549546 0.4450298928
9550242700.0 0.8950324059 0.4372901758
9600242400.0 0.8988927113 0.429999411
9650242100.0 0.9023765754 0.4233568144
9700241800.0 0.9074161226 0.4149268564
9750241500.0 0.9116213468 0.4074585639
9800241200.0 0.9162936098 0.398101604
9850240900.0 0.9218642585 0.3864945336
9900240600.0 0.927509804 0.3752810934
9950240300.0 0.9341384752 0.3591058305
10000240000.0 0.938738104 0.3475318559
10050239700.0 0.9445746417 0.331846487
10100239400.0 0.9495025629 0.316218093
10150239100.0 0.9538989918 0.301505209
10200238800.0 0.9581441712 0.2865466032
10250238500.0 0.9613442436 0.2728700207
10300238200.0 0.9646487302 0.2588552554
10350237900.0 0.9671712558 0.2459871176
10400237600.0 0.9696663732 0.2329116288
10450237300.0 0.9723367633 0.2191212553
10500237000.0 0.9746598864 0.2067286415
10550236700.0 0.9764325489 0.1932133567
10600236400.0 0.9791878842 0.178845557
10650236100.0 0.9814851831 0.1643133544
10700235800.0 0.9834769933 0.1517652921
10750235500.0 0.9859491738 0.1387252493
10800235200.0 0.9877334258 0.1242875668
10850234900.0 0.9896081127 0.1100463891
10900234600.0 0.9918993476 0.0950621001
10950234300.0 0.9935036109 0.0818455988
11000234000.0 0.9951664112 0.0667253243
11050233700.0 0.99703176 0.0501135927
11100233400.0 0.9984435472 0.0328717734
11150233100.0 0.9997696759 0.0169594738
11200232800.0 1.000284392 0.0014261763
11250232500.0 1.001221306 -0.0154863829
11300232200.0 1.001529792 -0.0330963809
11350231900.0 1.002076511 -0.049405964
11400231600.0 1.001516024 -0.0644449003
11450231300.0 1.001073879 -0.080650493
11500231000.0 1.000032731 -0.0963837339
11550230700.0 0.9981932874 -0.1091387736
11600230400.0 0.9968787759 -0.1220754403
11650230100.0 0.9950374126 -0.1332726562
11700229800.0 0.9933853171 -0.148336693
11750229500.0 0.9907932945 -0.1626746952
11800229200.0 0.9879719173 -0.1761712374
11850228900.0 0.9844123094 -0.1885626826
11900228600.0 0.9810007283 -0.1982245142
11950228300.0 0.9775639074 -0.2091176319
12000228000.0 0.9746910826 -0.2184982652
12050227700.0 0.9713168907 -0.2307652043
12100227400.0 0.9680965241 -0.2418277577
12150227100.0 0.9637037183 -0.2583413332
12200226800.0 0.9591303526 -0.2689421269
12250226500.0 0.955384153 -0.2820549399
12300226200.0 0.9506024924 -0.2948502472
12350225900.0 0.9467836387 -0.3083755331
12400225600.0 0.9422797672 -0.3210778849
12450225300.0 0.9375336775 -0.3342093757
12500225000.0 0.9320770271 -0.3487688215
12550224700.0 0.9268950372 -0.3627742848
12600224400.0 0.9217659479 -0.3752523021
12650224100.0 0.9161064424 -0.3897418142
12700223800.0 0.9108131061 -0.4024086243
12750223500.0 0.9051380394 -0.4156973788
12800223200.0 0.9001453062 -0.4280992161
12850222900.0 0.8948095699 -0.4402602781
12900222600.0 0.8889956451 -0.4522285237
12950222300.0 0.8826558622 -0.4653094374
13000222000.0 0.8767354171 -0.4766626203
13050221700.0 0.8702538514 -0.4893511345
13100221400.0 0.8631743279 -0.5015731336
13150221100.0 0.8566134554 -0.5135457427
13200220800.0 0.8497280325 -0.5253042728
13250220500.0 0.8423251776 -0.5370502685
13300220200.0 0.8350411966 -0.5479798268
13350219900.0 0.8268885626 -0.5599859176
13400219600.0 0.8187295825 -0.5719631019
13450219300.0 0.8091395265 -0.5855906647
13500219000.0 0.7996084148 -0.5991374046
13550218700.0 0.7887322066 -0.6120422851
13600218400.0 0.778887777 -0.6239565516
13650218100.0 0.769218974 -0.6353079217
13700217800.0 0.7589094888 -0.6469351155
13750217500.0 0.7487463784 -0.658848448
13800217200.0 0.7371440079 -0.6701095423
13850216900.0 0.7259342067 -0.6814674785
13900216600.0 0.7162243235 -0.6903073233
13950216300.0 0.7050109634 -0.7012439681
14000216000.0 0.6958172387 -0.7103347596
14050215700.0 0.6857426772 -0.718557267
14100215400.0 0.6763425501 -0.727505665
14150215100.0 0.6672041625 -0.7359347709
14200214800.0 0.6575396224 -0.7447436135
14250214500.0 0.6472767036 -0.754139627
14300214200.0 0.6369999004 -0.7634976426
14350213900.0 0.6258521231 -0.7732721362
14400213600.0 0.6138986094 -0.7829712593
14450213300.0 0.6012377429 -0.7931572367
14500213000.0 0.588246925 -0.8030058544
14550212700.0 0.5755536284 -0.8124234741
14600212400.0 0.5630953847 -0.8210619925
14650212100.0 0.5497961774 -0.8297162778
14700211800.0 0.535575072 -0.8392325028
14750211500.0 0.5241574728 -0.8478399826
14800211200.0 0.5115544757 -0.8555463509
14850210900.0 0.499350572 -0.8633158143
14900210600.0 0.4860035895 -0.8709830398
14950210300.0 0.4727015682 -0.8787382371
15000210000.0 0.4600505568 -0.88557095
15050209700.0 0.4477617325 -0.8915611561
15100209400.0 0.4351948125 -0.8977973017
15150209100.0 0.4229805723 -0.9025266511
15200208800.0 0.409660453 -0.9086768175
15250208500.0 0.3987310707 -0.913458196
15300208200.0 0.3858524176 -0.91825587
15350207900.0 0.3739477513 -0.9221753926
15400207600.0 0.3584115232 -0.9285115662
15450207300.0 0.3440106709 -0.9322442593
15500207000.0 0.3304345127 -0.9370439248
15550206700.0 0.3149271234 -0.9424728506
15600206400.0 0.2991637407 -0.9464402588
15650206100.0 0.283051894 -0.9510754628
15700205800.0 0.2693287976 -0.954451278
15750205500.0 0.254976487 -0.95810436
15800205200.0 0.2404599834 -0.9618655387
15850204900.0 0.2261461678 -0.9652744796
15900204600.0 0.2112149316 -0.9691084912
15950204300.0 0.1968510605 -0.9718561709
16000204000.0 0.182599796 -0.9749323398
16050203700.0 0.1675006877 -0.9777795643
16100203400.0 0.1533475412 -0.980057473
16150203100.0 0.138836646 -0.9822615174
16200202800.0 0.1242177568 -0.9842816901
16250202500.0 0.1098216445 -0.9858795019
16300202200.0 0.0942350345 -0.9875803112
16350201900.0 0.0792398849 -0.9889339959
16400201600.0 0.064430732 -0.9900293736
16450201300.0 0.0493653403 -0.9912127856
16500201000.0 0.0327000658 -0.992022751
16550200700.0 0.0170037758 -0.9925654286
16600200400.0 0.0011808835 -0.992820189
16650200100.0 -0.0148418938 -0.9925997463
16700199800.0 -0.0311982939 -0.9920848916
16750199500.0 -0.0499496617 -0.9914682159
16800199200.0 -0.0654821399 -0.990697575
16850198900.0 -0.080393687 -0.9891886607
16900198600.0 -0.0949782775 -0.9890441363
16950198300.0 -0.1083252384 -0.987698305
17000198000.0 -0.1208722041 -0.9859314195
17050197700.0 -0.1331108796 -0.9840162969
17100197400.0 -0.1466411331 -0.9825263282
17150197100.0 -0.1589526219 -0.9801693515
17200196800.0 -0.1719464063 -0.9782510658
17250196500.0 -0.1848196357 -0.9757435438
17300196200.0 -0.1969094193 -0.9733268822
17350195900.0 -0.2087431343 -0.9712443234
17400195600.0 -0.2207337503 -0.9688283049
17450195300.0 -0.234000747 -0.9660440325
17500195000.0 -0.2473400402 -0.9625621576
17550194700.0 -0.2613412942 -0.958966206
17600194400.0 -0.2752539664 -0.954921736
17650194100.0 -0.2888227171 -0.9509975785
17700193800.0 -0.3019200983 -0.9465999616
17750193500.0 -0.3163876423 -0.9419041154
17800193200.0 -0.3306727934 -0.9367886308
17850192900.0 -0.3457770021 -0.9314947105
17900192600.0 -0.3610792061 -0.9253688442
17950192300.0 -0.3768134741 -0.9181978399
18000192000.0 -0.3913997802 -0.9111176049
18050191700.0 -0.4054485052 -0.9032773649
18100191400.0 -0.4196226155 -0.8956297818
18150191100.0 -0.4346725811 -0.8876048953
18200190800.0 -0.4515347711 -0.8785302785
18250190500.0 -0.4683309138 -0.8690954176
18300190200.0 -0.4837375997 -0.860419804
18350189900.0 -0.4988659554 -0.8517678433
18400189600.0 -0.5136149559 -0.843860011
18450189300.0 -0.5269384439 -0.8353236054
18500189000.0 -0.5398851691 -0.8282048275
18550188700.0 -0.5525532761 -0.8203214338
18600188400.0 -0.5642308801 -0.8134910884
18650188100.0 -0.575384827 -0.8070420789
18700187800.0 -0.5863257588 -0.800636909
18750187500.0 -0.59690058 -0.7938431289
18800187200.0 -0.6072159772 -0.7870828635
18850186900.0 -0.6174319064 -0.7801337714
18900186600.0 -0.6275577239 -0.7728165666
18950186300.0 -0.6373740236 -0.7653144626
19000186000.0 -0.6448557679 -0.7591149578
19050185700.0 -0.654247651 -0.7519987064
19100185400.0 -0.6644184636 -0.7438022972
19150185100.0 -0.6743500444 -0.7354014412
19200184800.0 -0.6836114895 -0.7270301507
19250184500.0 -0.6940139927 -0.7171717783
19300184200.0 -0.7045330926 -0.7078642091
19350183900.0 -0.7156320478 -0.6985678608
19400183600.0 -0.7257070893 -0.6885174694
19450183300.0 -0.7342739758 -0.678038201
19500183000.0 -0.7425457915 -0.6688377112
19550182700.0 -0.752446885 -0.6573624171
19600182400.0 -0.7628195463 -0.6456502776
19650182100.0 -0.7740501028 -0.6333703146
19700181800.0 -0.7845737527 -0.6199850796
19750181500.0 -0.7950288529 -0.605713702
19800181200.0 -0.8054364449 -0.5908797588
19850180900.0 -0.8152769516 -0.5754858079
19900180600.0 -0.8233647779 -0.5609285903
19950180300.0 -0.832430613 -0.5447191218
20000180000.0 -0.8251980958 -0.547134926
20050179700.0 -0.8337856537 -0.5335755588
20100179400.0 -0.8412475717 -0.5203734744
20150179100.0 -0.8503313243 -0.5076536742
20200178800.0 -0.858630876 -0.4951724904
20250178500.0 -0.8679357421 -0.4815774728
20300178200.0 -0.8782560822 -0.4676892299
20350177900.0 -0.8870138302 -0.4529976921
20400177600.0 -0.8962509797 -0.4385522619
20450177300.0 -0.9045254236 -0.4245182573
20500177000.0 -0.9123250681 -0.4105703628
20550176700.0 -0.9202883775 -0.3970435478
20600176400.0 -0.9272268797 -0.3840188596
20650176100.0 -0.9339277869 -0.3713948261
20700175800.0 -0.9409843165 -0.3599404598
20750175500.0 -0.9465784385 -0.3480370095
20800175200.0 -0.9509970604 -0.3377946083
20850174900.0 -0.9565596306 -0.3261470796
20900174600.0 -0.9614046108 -0.3139352306
20950174300.0 -0.964210019 -0.3042699877
21000174000.0 -0.9684050368 -0.2926190386
21050173700.0 -0.9707371674 -0.2816186577
21100173400.0 -0.9748168714 -0.2695335339
21150173100.0 -0.9789119395 -0.2575999091
21200172800.0 -0.982726032 -0.2441621935
21250172500.0 -0.9856852 -0.2303339614
21300172200.0 -0.9883382971 -0.2160405929
21350171900.0 -0.989343227 -0.2019591259
21400171600.0 -0.9916545272 -0.1879159776
21450171300.0 -0.9920772134 -0.1734595694
21500171000.0 -0.9916194045 -0.157849925
21550170700.0 -0.991251119 -0.142311302
21600170400.0 -0.992528573 -0.1269354343
21650170100.0 -0.9914302373 -0.1110004436
21700169800.0 -0.989845106 -0.0948277418
21750169500.0 -0.9885140974 -0.0803623176
21800169200.0 -0.9884865399 -0.0634132237
21850168900.0 -0.9882047161 -0.0457859533
21900168600.0 -0.9860849146 -0.0299493375
21950168300.0 -0.9850787809 -0.0141901004
22000168000.0 -0.9842677434 0.0012025994
22050167700.0 -0.9839703081 0.0153849875
22100167400.0 -0.9845669143 0.0303783951
22150167100.0 -0.9854158354 0.046286984
22200166800.0 -0.9855589297 0.0626436644
22250166500.0 -0.9853334965 0.0790497396
22300166200.0 -0.9841363753 0.0954837184
22350165900.0 -0.9829084462 0.1121002615
22400165600.0 -0.9810836145 0.1280899593
22450165300.0 -0.9790973874 0.1428606215
22500165000.0 -0.9766784289 0.1565606646
22550164700.0 -0.9764167344 0.1726504875
22600164400.0 -0.9744838604 0.1883594071
22650164100.0 -0.9725001101 0.2030665048
22700163800.0 -0.9699820602 0.2188827821
22750163500.0 -0.9670368908 0.2338766513
22800163200.0 -0.9643209928 0.246670103
22850162900.0 -0.9617406346 0.2603467059
22900162600.0 -0.9602211471 0.2737892582
22950162300.0 -0.959111071 0.286783372
23000162000.0 -0.9580616978 0.298779287
23050161700.0 -0.9561202381 0.3115163756
23100161400.0 -0.9535453307 0.3239663331
23150161100.0 -0.9508873334 0.3365062286
23200160800.0 -0.9475838362 0.3486689586
23250160500.0 -0.9454640501 0.3614202545
23300160200.0 -0.942032063 0.372742741
23350159900.0 -0.9395811034 0.3858567379
23400159600.0 -0.9347445679 0.3993210297
23450159300.0 -0.9292994353 0.4129873755
23500159000.0 -0.9247683006 0.4252414414
23550158700.0 -0.9203690967 0.4394455737
23600158400.0 -0.91496625 0.4526880289
23650158100.0 -0.9083182441 0.4667523486
23700157800.0 -0.9009527046 0.4807704733
23750157500.0 -0.8921175435 0.4947209481
23800157200.0 -0.883193103 0.5081565615
23850156900.0 -0.8745131411 0.5209186101
23900156600.0 -0.864886954 0.5330519312
23950156300.0 -0.8560392206 0.5456709986
24000156000.0 -0.8469674694 0.5580078877
24050155700.0 -0.8357083054 0.5693170861
24100155400.0 -0.8268306934 0.5815956061
24150155100.0 -0.8161123455 0.5931964869
24200154800.0 -0.804440547 0.6046559879
24250154500.0 -0.7934686976 0.6161991496
24300154200.0 -0.7821878972 0.6277773983
24350153900.0 -0.7707580349 0.6387520008
24400153600.0 -0.7586051559 0.6489075191
24450153300.0 -0.74633517 0.6587438129
24500153000.0 -0.7348745312 0.668895428
24550152700.0 -0.7239657062 0.6787537616
24600152400.0 -0.7122318636 0.6872736071
24650152100.0 -0.7003767828 0.6959120236
24700151800.0 -0.6895215724 0.7034777685
