!Created with skrf (http://scikit-rf.org).
# Hz S RI R 50.0 
!freq ReS11 ImS11
300000.0 -0.9746820275 -0.1194513083
50299700.0 -1.000080441 0.0150910444
100299400.0 -0.9978437392 0.0280955412
150299100.0 -1.002730632 0.0451088099
200298800.0 -0.9997790025 0.0582822113
250298500.0 -0.9974102145 0.0718580255
300298200.0 -0.9859705634 0.0877194233
350297900.0 -0.9940161018 0.0983887528
400297600.0 -0.9932660395 0.115079445
450297300.0 -0.9911478155 0.1288386648
500297000.0 -0.989416148 0.1437283395
550296700.0 -0.9842765311 0.1562641806
600296400.0 -1.017324586 0.1893894144
650296100.0 -0.9821633991 0.1860303075
700295800.0 -0.9791932711 0.2002557054
750295500.0 -0.9763120879 0.2143707681
800295200.0 -0.9729239787 0.2283205363
850294900.0 -0.969583889 0.2421148517
900294600.0 -0.9657942138 0.2559697896
950294300.0 -0.9619848411 0.2695223541
1000294000.0 -0.9582495212 0.2835355786
1050293700.0 -0.9536560232 0.2974256742
1100293400.0 -0.9493682212 0.3118438973
1150293100.0 -0.9455647711 0.3238597464
1200292800.0 -0.9399933698 0.3380774867
1250292500.0 -0.9347170141 0.3515685389
1300292200.0 -0.9290674431 0.364599631
1350291900.0 -0.9236542907 0.37872966
1400291600.0 -0.9179055052 0.3919000813
1450291300.0 -0.9124697518 0.4044560185
1500291000.0 -0.9061702498 0.4176515428
1550290700.0 -0.8997805685 0.4309468087
1600290400.0 -0.8933858769 0.4438739894
1650290100.0 -0.8866761944 0.4561821311
1700289800.0 -0.8796981594 0.469389837
1750289500.0 -0.8727850648 0.4818485425
1800289200.0 -0.8655443789 0.4947516313
1850288900.0 -0.8587495631 0.506193232
1900288600.0 -0.8509826235 0.5189151453
1950288300.0 -0.8428887178 0.5316772053
2000288000.0 -0.835482219 0.5429755898
2050287700.0 -0.827291026 0.5552097066
2100287400.0 -0.8192584741 0.5671443718
2150287100.0 -0.8107490171 0.5787731535
2200286800.0 -0.8030826118 0.5892000261
2250286500.0 -0.7941892363 0.601460385
2300286200.0 -0.7853532827 0.6128784727
2350285900.0 -0.7764879044 0.6237796441
2400285600.0 -0.7676320033 0.6349173825
2450285300.0 -0.758933818 0.6452677096
2500285000.0 -0.7491162716 0.6566746729
2550284700.0 -0.7404241389 0.6671183875
2600284400.0 -0.7307875407 0.6771011601
2650284100.0 -0.7220074158 0.687598524
2700283800.0 -0.7117394021 0.6981270874
2750283500.0 -0.7009329105 0.7086578455
2800283200.0 -0.6914004937 0.7183854451
2850282900.0 -0.6811132375 0.7283736657
2900282600.0 -0.6708022642 0.7378883328
2950282300.0 -0.6607479857 0.7471459765
3000282000.0 -0.6497658626 0.7566511642
3050281700.0 -0.6385370702 0.7659497853
3100281400.0 -0.6267469051 0.7752922218
3150281100.0 -0.6150588549 0.7845148512
3200280800.0 -0.6033471155 0.7931000423
3250280500.0 -0.5926011892 0.8010206469
3300280200.0 -0.5812859813 0.8088013776
3350279900.0 -0.5696338155 0.8163146118
3400279600.0 -0.5575011663 0.8241154594
3450279300.0 -0.5463154729 0.8311382556
3500279000.0 -0.5343805155 0.8382572192
3550278700.0 -0.5218509414 0.8455267601
3600278400.0 -0.5096385552 0.8526061904
3650278100.0 -0.4965612154 0.8602361458
3700277800.0 -0.484540239 0.8667304425
3750277500.0 -0.4722577903 0.8734343735
3800277200.0 -0.459636447 0.8796403494
3850276900.0 -0.4476582172 0.8858117821
3900276600.0 -0.4369589642 0.8914592686
3950276300.0 -0.4245222698 0.8974129922
4000276000.0 -0.4124330785 0.903301219
4050275700.0 -0.3995932519 0.9094251988
4100275400.0 -0.3885645078 0.9150771993
4150275100.0 -0.3758320417 0.9204301192
4200274800.0 -0.3627818633 0.9261016466
4250274500.0 -0.3506091539 0.9313321294
4300274200.0 -0.3375457174 0.9365628192
4350273900.0 -0.3237755513 0.9419321334
4400273600.0 -0.3088877311 0.9472695614
4450273300.0 -0.2935911235 0.9523098816
4500273000.0 -0.2800292309 0.956711818
4550272700.0 -0.2658882684 0.9608698441
4600272400.0 -0.2505063209 0.9650796405
4650272100.0 -0.2387630851 0.9683294095
4700271800.0 -0.2255024226 0.9715928183
4750271500.0 -0.2136706479 0.974350836
4800271200.0 -0.2012312258 0.9771907912
4850270900.0 -0.1873761942 0.9798860592
4900270600.0 -0.1733610956 0.9823044451
4950270300.0 -0.1591780191 0.9850326489
5000270000.0 -0.1449501282 0.9868883355
5050269700.0 -0.1314117555 0.9887788563
5100269400.0 -0.117690446 0.9904258352
5150269100.0 -0.1043434955 0.9918693138
5200268800.0 -0.0912042425 0.9930589763
5250268500.0 -0.0782474709 0.9937940578
5300268200.0 -0.0647832682 0.994555465
5350267900.0 -0.0527498106 0.9950243997
5400267600.0 -0.0364748798 0.9965211245
5450267300.0 -0.0233752091 0.9966530408
5500267000.0 -0.0080281093 0.9969276661
5550266700.0 0.0068646577 0.9974813884
5600266400.0 0.0224513972 0.9973231997
5650266100.0 0.0389185497 0.9972847651
5700265800.0 0.0535205555 0.9964232398
5750265500.0 0.0684737258 0.995507725
5800265200.0 0.0824576995 0.9946004658
5850264900.0 0.0957032172 0.9931628382
5900264600.0 0.1121322797 0.9914268182
5950264300.0 0.1240020941 0.989668551
6000264000.0 0.1381057436 0.9884802011
6050263700.0 0.1507984695 0.9868752688
6100263400.0 0.1629068076 0.9848596956
6150263100.0 0.1778170369 0.9826940318
6200262800.0 0.1878266845 0.9808153847
6250262500.0 0.2005724113 0.9785193206
6300262200.0 0.2132630578 0.9757592397
6350261900.0 0.2265243065 0.9728603262
6400261600.0 0.2402973462 0.9696839861
6450261300.0 0.2515942927 0.966823632
6500261000.0 0.2644720369 0.9633352279
6550260700.0 0.2775086416 0.9595883605
6600260400.0 0.2908075133 0.9554028781
6650260100.0 0.3049554443 0.9510659916
6700259800.0 0.3168746995 0.9467064119
6750259500.0 0.3306609348 0.9416086393
6800259200.0 0.3439208388 0.9368318662
6850258900.0 0.3557426119 0.9313174673
6900258600.0 0.3681266621 0.9266294913
6950258300.0 0.3807868063 0.9213666565
7000258000.0 0.3927075271 0.9158337338
7050257700.0 0.4047866561 0.9097583426
7100257400.0 0.417622123 0.9035799016
7150257100.0 0.4281158128 0.89835191
7200256800.0 0.4409058608 0.8919751729
7250256500.0 0.4524577277 0.8853194736
7300256200.0 0.4657011358 0.8787177284
7350255900.0 0.4782020288 0.8718179001
7400255600.0 0.4917281415 0.8645850243
7450255300.0 0.5072501806 0.8558518449
7500255000.0 0.5188333332 0.8485311895
7550254700.0 0.5322367056 0.8398624331
7600254400.0 0.5447195968 0.8316095017
7650254100.0 0.5568241561 0.8240682022
7700253800.0 0.5684782035 0.8160683909
7750253500.0 0.5794851944 0.8082185661
7800253200.0 0.5901846589 0.8007569188
7850252900.0 0.6000323003 0.7934769764
7900252600.0 0.6116282849 0.7848306557
7950252300.0 0.6203135185 0.7782498836
8000252000.0 0.6305665084 0.7706217917
8050251700.0 0.6410649302 0.7624217001
8100251400.0 0.6509912486 0.7541674821
8150251100.0 0.661171232 0.7456525877
8200250800.0 0.6706843657 0.7375426565
8250250500.0 0.6795282432 0.7297941574
8300250200.0 0.688868624 0.7212156851
8350249900.0 0.6979570832 0.7125018957
8400249600.0 0.7063191845 0.7043715562
8450249300.0 0.7154542606 0.6952124756
8500249000.0 0.7239847134 0.686466203
8550248700.0 0.7321996163 0.677233737
8600248400.0 0.7404832788 0.667856936
8650248100.0 0.7484638001 0.6584129409
8700247800.0 0.7579822394 0.6470770247
8750247500.0 0.7662884997 0.636882295
8800247200.0 0.7743466549 0.6265687909
8850246900.0 0.7831921182 0.6151219702
8900246600.0 0.7916805793 0.6038982862
8950246300.0 0.8013360618 0.5908627815
9000246000.0 0.8104869729 0.5780734967
9050245700.0 0.819409061 0.5653401429
9100245400.0 0.8277326306 0.5526255033
9150245100.0 0.8372576142 0.5393790011
9200244800.0 0.8471875775 0.5240742576
9250244500.0 0.8563752293 0.5088287581
9300244200.0 0.8648320794 0.4942862153
9350243900.0 0.8725542529 0.480401422
9400243600.0 0.8793936295 0.4681254741
9450243300.0 0.8851700694 0.456450488
9500243000.0 0.891399426 0.4442918724
9550242700.0 0.8952441301 0.436651192
9600242400.0 0.8991671785 0.4294951346
9650242100.0 0.9028589426 0.4231135929
9700241800.0 0.9077600604 0.4143200211
9750241500.0 0.9117193366 0.4071392625
9800241200.0 0.9163548832 0.3976450133
9850240900.0 0.9221180751 0.3859303589
9900240600.0 0.9274953252 0.3748263361
9950240300.0 0.9339932427 0.3585997142
10000240000.0 0.9388446851 0.3467903342
10050239700.0 0.9443176333 0.3317029972
10100239400.0 0.9496287968 0.3160557279
10150239100.0 0.9541368978 0.3011813288
10200238800.0 0.9581691863 0.2864700685
10250238500.0 0.9614873295 0.2729550174
10300238200.0 0.9646379538 0.2589933583
10350237900.0 0.9672169616 0.2457786313
10400237600.0 0.9697302155 0.2325851755
10450237300.0 0.9726574508 0.2186614189
10500237000.0 0.9744781306 0.2067084584
10550236700.0 0.9768228312 0.1927198534
10600236400.0 0.9791370881 0.1783024839
10650236100.0 0.9813981291 0.1636468311
10700235800.0 0.9836994929 0.1519282028
10750235500.0 0.9855872401 0.1386045576
10800235200.0 0.9875103515 0.1250580485
10850234900.0 0.9898060929 0.1098721901
10900234600.0 0.9914970508 0.0954607669
10950234300.0 0.9935102221 0.081955403
11000234000.0 0.9951900243 0.0670085145
11050233700.0 0.9969693098 0.0506983906
11100233400.0 0.998273976 0.033433856
11150233100.0 0.999682679 0.0171829548
11200232800.0 1.000228081 0.001442729
11250232500.0 1.000658023 -0.0148409604
11300232200.0 1.001345137 -0.030911938
11350231900.0 1.001856027 -0.0484159782
11400231600.0 1.001621996 -0.0632418579
11450231300.0 1.00126464 -0.0793653038
11500231000.0 1.000121366 -0.0952033863
11550230700.0 0.9982931619 -0.1090765684
11600230400.0 0.9975867986 -0.1215472316
11650230100.0 0.9951521351 -0.1329695829
11700229800.0 0.9931457497 -0.1478418258
11750229500.0 0.9911010898 -0.1617232218
11800229200.0 0.9882882593 -0.1757766674
11850228900.0 0.9847965043 -0.1880631097
11900228600.0 0.9812900539 -0.1977659817
11950228300.0 0.978045526 -0.207785523
12000228000.0 0.9748271447 -0.2174705651
12050227700.0 0.9712979497 -0.2304708019
12100227400.0 0.9686847799 -0.2407346221
12150227100.0 0.9635360518 -0.2571339384
12200226800.0 0.9596303926 -0.2680754274
12250226500.0 0.9557269145 -0.2815332728
12300226200.0 0.9514008346 -0.2936281795
12350225900.0 0.9466232977 -0.3075995407
12400225600.0 0.9421860412 -0.3205549782
12450225300.0 0.9384780046 -0.3336113451
12500225000.0 0.9324273205 -0.3481209484
12550224700.0 0.9270838376 -0.3622163696
12600224400.0 0.922102206 -0.374812255
12650224100.0 0.9162783403 -0.3894090128
12700223800.0 0.9109224672 -0.4021216276
12750223500.0 0.9055397479 -0.4150806222
12800223200.0 0.9001696905 -0.4279094072
12850222900.0 0.8948490169 -0.4399562392
12900222600.0 0.8890879031 -0.452324324
12950222300.0 0.8829556194 -0.4647524119
13000222000.0 0.8773726384 -0.4767768365
13050221700.0 0.8702226759 -0.4890548098
13100221400.0 0.8634206951 -0.5011918461
13150221100.0 0.8567320407 -0.5133931543
13200220800.0 0.8499084992 -0.5246753771
13250220500.0 0.8426203575 -0.5367922942
13300220200.0 0.8350983207 -0.5474940049
13350219900.0 0.8273373782 -0.5594690962
13400219600.0 0.8189596587 -0.5715108002
13450219300.0 0.8093569143 -0.5850979842
13500219000.0 0.7991411918 -0.5991248755
13550218700.0 0.7891525597 -0.6119023074
13600218400.0 0.7791429363 -0.6235936796
13650218100.0 0.7693906826 -0.6349146965
13700217800.0 0.7585607435 -0.6470637465
13750217500.0 0.7491923261 -0.6579845904
13800217200.0 0.737864163 -0.6697981891
13850216900.0 0.7264453633 -0.6813162326
13900216600.0 0.7171317672 -0.6897969967
13950216300.0 0.705618419 -0.7012590006
14000216000.0 0.6956083441 -0.7098927827
14050215700.0 0.6860122756 -0.7181863353
14100215400.0 0.676263744 -0.7273625455
14150215100.0 0.6671025864 -0.73594117
14200214800.0 0.6576077073 -0.7447545848
14250214500.0 0.6473062984 -0.7539675741
14300214200.0 0.6368762342 -0.7634470176
14350213900.0 0.6258533229 -0.7732205781
14400213600.0 0.6138743442 -0.7827559134
14450213300.0 0.6003373264 -0.7932218948
14500213000.0 0.5877659434 -0.803362248
14550212700.0 0.5753606267 -0.8126758222
14600212400.0 0.5629994142 -0.8209382492
14650212100.0 0.5498296745 -0.8300319285
14700211800.0 0.5358475078 -0.8395224321
14750211500.0 0.5238095071 -0.8475818709
14800211200.0 0.5118280861 -0.8557722626
14850210900.0 0.4993683878 -0.8631849573
14900210600.0 0.4862827508 -0.8712429357
14950210300.0 0.4727850787 -0.8788417434
15000210000.0 0.4601030911 -0.8855319336
15050209700.0 0.4478537716 -0.8919385231
15100209400.0 0.4351618763 -0.897715879
15150209100.0 0.4226776942 -0.9029264887
15200208800.0 0.4104585059 -0.9087886062
15250208500.0 0.3999468914 -0.9131212221
15300208200.0 0.3865267195 -0.9175200954
15350207900.0 0.3737727717 -0.9221265063
15400207600.0 0.3587448433 -0.9277525372
15450207300.0 0.3446362998 -0.9324414525
15500207000.0 0.3303457002 -0.9370434991
15550206700.0 0.3145127607 -0.9423322252
15600206400.0 0.2990636191 -0.9470820738
15650206100.0 0.2831768275 -0.9514788499
15700205800.0 0.2695357397 -0.954767251
15750205500.0 0.2552959386 -0.9585151877
15800205200.0 0.2406485309 -0.9618097451
15850204900.0 0.2261272525 -0.9654084324
15900204600.0 0.2113534658 -0.9690116015
15950204300.0 0.1971119927 -0.971882135
16000204000.0 0.1829682915 -0.9747867871
16050203700.0 0.1678120993 -0.9778638888
16100203400.0 0.15349936 -0.9799237813
16150203100.0 0.13900003 -0.9827810242
16200202800.0 0.1247252267 -0.984529853
16250202500.0 0.1097906817 -0.9857584293
16300202200.0 0.094013227 -0.9876127583
16350201900.0 0.07946966 -0.9888914782
16400201600.0 0.0646775296 -0.9901929865
16450201300.0 0.049438656 -0.9911325253
16500201000.0 0.0328161695 -0.9920502424
16550200700.0 0.01725146 -0.9925843831
16600200400.0 0.0015655039 -0.9926350862
16650200100.0 -0.0146997459 -0.9926476438
16700199800.0 -0.030916693 -0.9923804458
16750199500.0 -0.0495026078 -0.9919986119
16800199200.0 -0.0656875432 -0.9912605856
16850198900.0 -0.0802138694 -0.9904491194
16900198600.0 -0.0943111651 -0.9887473797
16950198300.0 -0.108027992 -0.9878318816
17000198000.0 -0.1209399452 -0.9865337045
17050197700.0 -0.1333933375 -0.9841744341
17100197400.0 -0.1452692592 -0.9818725722
17150197100.0 -0.1582901915 -0.9803693025
17200196800.0 -0.1714936335 -0.978361169
17250196500.0 -0.1841623646 -0.975932428
17300196200.0 -0.1964929017 -0.9734317505
17350195900.0 -0.2083722917 -0.9711945574
17400195600.0 -0.220661485 -0.9688239069
17450195300.0 -0.2336708741 -0.9659816878
17500195000.0 -0.2472211485 -0.9625388638
17550194700.0 -0.2610251252 -0.9590856636
17600194400.0 -0.2748878549 -0.9552298879
17650194100.0 -0.2885791624 -0.9510983124
17700193800.0 -0.3015274347 -0.9467398056
17750193500.0 -0.3163383953 -0.9422295287
17800193200.0 -0.3302684273 -0.9368730053
17850192900.0 -0.3456817269 -0.9316973685
17900192600.0 -0.3612185929 -0.9255344065
17950192300.0 -0.3766198512 -0.9185492592
18000192000.0 -0.3913695344 -0.9112591835
18050191700.0 -0.4052722927 -0.9033344266
18100191400.0 -0.4194924695 -0.8956779502
18150191100.0 -0.4344855628 -0.8877978999
18200190800.0 -0.4513589263 -0.8786247943
18250190500.0 -0.4685596351 -0.8692064414
18300190200.0 -0.4837993636 -0.8603617161
18350189900.0 -0.4985134164 -0.8520815657
18400189600.0 -0.5132209587 -0.8437023399
18450189300.0 -0.5264973911 -0.836043921
18500189000.0 -0.5396560822 -0.8278666945
18550188700.0 -0.5525237761 -0.8201771408
18600188400.0 -0.5639296426 -0.8136201178
18650188100.0 -0.5751616255 -0.8070749279
18700187800.0 -0.585763543 -0.8004872595
18750187500.0 -0.5962447329 -0.7942496218
18800187200.0 -0.6069545997 -0.7871855771
18850186900.0 -0.6172030894 -0.7803580277
18900186600.0 -0.627292316 -0.7730157855
18950186300.0 -0.6374801964 -0.7653752133
19000186000.0 -0.6445754345 -0.7590014251
19050185700.0 -0.6539830236 -0.7517209161
19100185400.0 -0.6641326637 -0.7436218443
19150185100.0 -0.6737458276 -0.7354454025
19200184800.0 -0.6829406674 -0.7270935257
19250184500.0 -0.6932748431 -0.7183614489
19300184200.0 -0.704686361 -0.7079700486
19350183900.0 -0.7151674499 -0.697744203
19400183600.0 -0.72547131 -0.6884310128
19450183300.0 -0.7335622837 -0.6789199798
19500183000.0 -0.7419369193 -0.6689583077
19550182700.0 -0.7522063002 -0.657550331
19600182400.0 -0.7625821971 -0.6460434892
19650182100.0 -0.7735160643 -0.6335090725
19700181800.0 -0.7843365816 -0.6203023261
19750181500.0 -0.7948935504 -0.6063744505
19800181200.0 -0.8052542516 -0.5912306061
19850180900.0 -0.8151997649 -0.5759415769
19900180600.0 -0.8229374633 -0.561421644
19950180300.0 -0.8323561968 -0.5450576126
20000180000.0 -0.8252742472 -0.5477011869
20050179700.0 -0.8330432051 -0.5339021602
20100179400.0 -0.8419746598 -0.5210150973
20150179100.0 -0.8509960298 -0.507306526
20200178800.0 -0.8592156177 -0.4951421134
20250178500.0 -0.8689659864 -0.4817821299
20300178200.0 -0.8783860969 -0.4679868388
20350177900.0 -0.8872933796 -0.4526616445
20400177600.0 -0.8960826997 -0.4387169626
20450177300.0 -0.9046833169 -0.4244813818
20500177000.0 -0.912490875 -0.4104710529
20550176700.0 -0.9201756374 -0.3970707924
20600176400.0 -0.9274186108 -0.3837637306
20650176100.0 -0.9343789562 -0.3718418675
20700175800.0 -0.9408188133 -0.359834854
20750175500.0 -0.9474613732 -0.348086099
20800175200.0 -0.9527112728 -0.3377381656
20850174900.0 -0.956588126 -0.3262929137
20900174600.0 -0.9619400802 -0.3151036519
20950174300.0 -0.9646661129 -0.3032222053
21000174000.0 -0.9687399509 -0.2918615142
21050173700.0 -0.9714339905 -0.2812653614
21100173400.0 -0.9759002107 -0.2693940893
21150173100.0 -0.9791771295 -0.2569833906
21200172800.0 -0.9828869278 -0.2434701057
21250172500.0 -0.9855274872 -0.2299388128
21300172200.0 -0.989023535 -0.2160280571
21350171900.0 -0.9902999958 -0.2015974816
21400171600.0 -0.9914408544 -0.1875654157
21450171300.0 -0.9926715762 -0.1724344489
21500171000.0 -0.9920608989 -0.1576071823
21550170700.0 -0.9916841435 -0.1431348784
21600170400.0 -0.9924332514 -0.1262693682
21650170100.0 -0.9909950429 -0.1103180082
21700169800.0 -0.9899550725 -0.0951201488
21750169500.0 -0.9886789937 -0.0787910434
21800169200.0 -0.9889491381 -0.0625030378
21850168900.0 -0.9871780782 -0.046094177
21900168600.0 -0.9860228957 -0.0298329978
21950168300.0 -0.9854949202 -0.0138146456
22000168000.0 -0.9840313847 0.0009090951
22050167700.0 -0.9834712084 0.0153723357
22100167400.0 -0.9841816351 0.0309210108
22150167100.0 -0.9845978621 0.0469133425
22200166800.0 -0.9849334257 0.062583452
22250166500.0 -0.9845985554 0.0800156468
22300166200.0 -0.9838485272 0.0965397986
22350165900.0 -0.982512094 0.1121351739
22400165600.0 -0.9805175624 0.1276091665
22450165300.0 -0.9784321893 0.1441772603
22500165000.0 -0.9768320863 0.1578830249
22550164700.0 -0.9766281245 0.1731126476
22600164400.0 -0.9743665315 0.1883892059
22650164100.0 -0.9719478484 0.2038239188
22700163800.0 -0.9697930758 0.2193007753
22750163500.0 -0.967003972 0.2336709623
22800163200.0 -0.9637676336 0.2473385689
22850162900.0 -0.9617095952 0.2609506017
22900162600.0 -0.9603423142 0.2741625898
22950162300.0 -0.9590067187 0.2868514962
23000162000.0 -0.9578711569 0.2987008877
23050161700.0 -0.9560584547 0.3113830417
23100161400.0 -0.9534174138 0.3237748015
23150161100.0 -0.9506830161 0.3368289051
23200160800.0 -0.9477054241 0.3483452529
23250160500.0 -0.9453808456 0.361514612
23300160200.0 -0.9423490061 0.3724802926
23350159900.0 -0.9389105587 0.38619601
23400159600.0 -0.9338193661 0.3996034024
23450159300.0 -0.9290281487 0.4125031692
23500159000.0 -0.9245914805 0.4251698834
23550158700.0 -0.9201313744 0.4391300499
23600158400.0 -0.9150870396 0.4521398305
23650158100.0 -0.9085041095 0.4661735653
23700157800.0 -0.901078898 0.4802688025
23750157500.0 -0.8926477748 0.4942532325
23800157200.0 -0.8838368331 0.5071968722
23850156900.0 -0.8750257075 0.5200148621
23900156600.0 -0.8658652986 0.5328058793
23950156300.0 -0.8565116318 0.5447703235
24000156000.0 -0.8471813752 0.5572452973
24050155700.0 -0.8375463218 0.5694211599
24100155400.0 -0.8276811712 0.580538175
24150155100.0 -0.817305846 0.5926941222
24200154800.0 -0.8062859166 0.6037262984
24250154500.0 -0.7950568802 0.615751124
24300154200.0 -0.7835967385 0.6273276175
24350153900.0 -0.7716104648 0.6380039696
24400153600.0 -0.7594237862 0.648256437
24450153300.0 -0.7477191304 0.6580846584
24500153000.0 -0.7365601338 0.6676433869
24550152700.0 -0.7253544208 0.6780872228
24600152400.0 -0.7137005284 0.6868387975
24650152100.0 -0.7018461942 0.6950486319
