!Created with skrf (http://scikit-rf.org).
# Hz S RI R 50.0 
!freq ReS11 ImS11
300000.0 -0.9729344256 -0.1234485445
50299700.0 -0.9999451609 0.0150230666
100299400.0 -0.9979038769 0.0277206212
150299100.0 -1.002561519 0.0446756652
200298800.0 -0.9994601954 0.0580369905
250298500.0 -0.9973444665 0.0717550046
300298200.0 -0.9859238197 0.0873759351
350297900.0 -0.993914788 0.0983445617
400297600.0 -0.9931003073 0.1147342937
450297300.0 -0.9909504412 0.1287093963
500297000.0 -0.989338006 0.1433790357
550296700.0 -0.9841253298 0.1557486491
600296400.0 -1.0173305 0.1891285646
650296100.0 -0.9823655933 0.1857634043
700295800.0 -0.9792832452 0.1998922213
750295500.0 -0.9763432503 0.2139098029
800295200.0 -0.9730272619 0.2278272172
850294900.0 -0.9697856952 0.2417951405
900294600.0 -0.9659104892 0.2554566538
950294300.0 -0.9622257639 0.2692509298
1000294000.0 -0.9580684639 0.2831123657
1050293700.0 -0.9536324366 0.2970769699
1100293400.0 -0.9493128054 0.311347518
1150293100.0 -0.9454270698 0.3232863902
1200292800.0 -0.9402118041 0.3377146185
1250292500.0 -0.9347755422 0.3511306315
1300292200.0 -0.9290123026 0.3644251877
1350291900.0 -0.9235698538 0.3785658327
1400291600.0 -0.9181058603 0.3914791581
1450291300.0 -0.9125015329 0.4039430315
1500291000.0 -0.9063192955 0.4172341833
1550290700.0 -0.8996083231 0.4307265618
1600290400.0 -0.8933849832 0.4434424156
1650290100.0 -0.8867963133 0.4556382686
1700289800.0 -0.879908895 0.4690404394
1750289500.0 -0.8730155727 0.4816005346
1800289200.0 -0.8655400731 0.4944135785
1850288900.0 -0.8586875072 0.5057075359
1900288600.0 -0.8510962572 0.5187281147
1950288300.0 -0.8429565695 0.5311889788
2000288000.0 -0.835643106 0.5426482028
2050287700.0 -0.8271477097 0.5550889117
2100287400.0 -0.8193942021 0.566596305
2150287100.0 -0.8111752243 0.578527623
2200286800.0 -0.8029749491 0.5891700679
2250286500.0 -0.7939110895 0.6013506323
2300286200.0 -0.7853562269 0.6128300387
2350285900.0 -0.7768021272 0.6234331747
2400285600.0 -0.7681909884 0.6343266101
2450285300.0 -0.7590687916 0.6452732488
2500285000.0 -0.7490977177 0.6566215165
2550284700.0 -0.7404124597 0.6670203834
2600284400.0 -0.7308763153 0.6767504314
2650284100.0 -0.7223722192 0.6870925253
2700283800.0 -0.7121513385 0.6973627677
2750283500.0 -0.7015461555 0.7081194756
2800283200.0 -0.6920688998 0.7180066663
2850282900.0 -0.681264394 0.7279910883
2900282600.0 -0.670506616 0.737562402
2950282300.0 -0.6602079979 0.7472495447
3000282000.0 -0.6495785805 0.7566561718
3050281700.0 -0.6382773805 0.7659372292
3100281400.0 -0.6268741139 0.7749916484
3150281100.0 -0.6155877458 0.7837075462
3200280800.0 -0.6043046187 0.7920620006
3250280500.0 -0.5932582533 0.8002201566
3300280200.0 -0.5814564351 0.8084335762
3350279900.0 -0.5692762128 0.8164765214
3400279600.0 -0.5568360467 0.824631718
3450279300.0 -0.5454003828 0.8315215373
3500279000.0 -0.5338513088 0.8385232813
3550278700.0 -0.5216104999 0.8456391917
3600278400.0 -0.5099653707 0.8523812853
3650278100.0 -0.4968789323 0.8598140232
3700277800.0 -0.4849129173 0.8661565858
3750277500.0 -0.4723249731 0.8731896717
3800277200.0 -0.4596514646 0.8796481974
3850276900.0 -0.4478292454 0.8855666883
3900276600.0 -0.436911935 0.8913159044
3950276300.0 -0.4252153577 0.8970559602
4000276000.0 -0.4132358666 0.9032679363
4050275700.0 -0.4006943103 0.9091187587
4100275400.0 -0.3892953759 0.9143458547
4150275100.0 -0.3761595138 0.9202941314
4200274800.0 -0.3628784213 0.9260237715
4250274500.0 -0.3499751432 0.9314959507
4300274200.0 -0.3368635501 0.9366316089
4350273900.0 -0.3225446469 0.9419890967
4400273600.0 -0.3078114518 0.947244595
4450273300.0 -0.2927336282 0.9521935452
4500273000.0 -0.2796941036 0.9563943738
4550272700.0 -0.2661844774 0.9604534955
4600272400.0 -0.2510525915 0.9645608028
4650272100.0 -0.2398365598 0.9678158242
4700271800.0 -0.2270083367 0.9710461089
4750271500.0 -0.2151800107 0.9739928019
4800271200.0 -0.2031333457 0.9765282727
4850270900.0 -0.1893201218 0.9794907274
4900270600.0 -0.1757015034 0.9819129506
4950270300.0 -0.1608477404 0.9845383922
5000270000.0 -0.146379222 0.986810978
5050269700.0 -0.132892908 0.9882440068
5100269400.0 -0.1187063461 0.9902003093
5150269100.0 -0.1048220232 0.9918228349
5200268800.0 -0.0912162641 0.9927172405
5250268500.0 -0.0784418996 0.9937316093
5300268200.0 -0.0646984114 0.9948183208
5350267900.0 -0.0516417885 0.9953974127
5400267600.0 -0.0355659539 0.9965898665
5450267300.0 -0.0223304379 0.9968685485
5500267000.0 -0.0068665182 0.9971033691
5550266700.0 0.0078758437 0.997058617
5600266400.0 0.0238013159 0.9971209045
5650266100.0 0.0405025969 0.9968006373
5700265800.0 0.0548207695 0.9962247671
5750265500.0 0.0694570984 0.9952369956
5800265200.0 0.0829487874 0.9938831722
5850264900.0 0.0963195486 0.993134274
5900264600.0 0.1128003232 0.9912329465
5950264300.0 0.1242443489 0.9895810685
6000264000.0 0.1377975694 0.9879290844
6050263700.0 0.1495479043 0.9863770682
6100263400.0 0.1618990968 0.9847868664
6150263100.0 0.1762483292 0.9823901339
6200262800.0 0.1859913264 0.9812634318
6250262500.0 0.1984809702 0.9786548843
6300262200.0 0.2106733603 0.9762233386
6350261900.0 0.223594924 0.9734989561
6400261600.0 0.2374974212 0.9703691639
6450261300.0 0.248631636 0.9678685354
6500261000.0 0.2618292062 0.9641578626
6550260700.0 0.2750711569 0.9602517847
6600260400.0 0.2883510098 0.9561757144
6650260100.0 0.3024625353 0.9516572096
6700259800.0 0.3146817734 0.9472246434
6750259500.0 0.3285492769 0.9424208921
6800259200.0 0.3420184875 0.9372806098
6850258900.0 0.3545113795 0.9319924753
6900258600.0 0.3672717706 0.9270354069
6950258300.0 0.3793716311 0.921443578
7000258000.0 0.3908852514 0.9163083789
7050257700.0 0.4029511516 0.9105092038
7100257400.0 0.4165867888 0.9039333661
7150257100.0 0.427179851 0.8986179118
7200256800.0 0.4402492064 0.8921631543
7250256500.0 0.4530226911 0.8853821761
7300256200.0 0.465886013 0.8788865195
7350255900.0 0.4790633151 0.8718625902
7400255600.0 0.4930665044 0.8641922198
7450255300.0 0.5080313761 0.8550086944
7500255000.0 0.5212004776 0.8470951062
7550254700.0 0.5353174829 0.8382288256
7600254400.0 0.5477045664 0.8297232249
7650254100.0 0.559582894 0.8219510791
7700253800.0 0.5712077708 0.8139845036
7750253500.0 0.5821206039 0.8063710756
7800253200.0 0.5925358844 0.7983942412
7850252900.0 0.6023245666 0.791258196
7900252600.0 0.6139803343 0.7825917355
7950252300.0 0.6223472025 0.7760846014
8000252000.0 0.6322107182 0.768570123
8050251700.0 0.6422956159 0.7605499307
8100251400.0 0.6525257609 0.7525610218
8150251100.0 0.6624317576 0.7440613772
8200250800.0 0.6719695341 0.7360294021
8250250500.0 0.6806654423 0.7279471029
8300250200.0 0.6898177629 0.7196948704
8350249900.0 0.6989486857 0.7107794645
8400249600.0 0.7071324299 0.7026907477
8450249300.0 0.7159487682 0.6942545364
8500249000.0 0.7244939586 0.6854240238
8550248700.0 0.7327211404 0.6761978546
8600248400.0 0.7409091582 0.6666247197
8650248100.0 0.7486302652 0.6573716505
8700247800.0 0.7578752309 0.6463680377
8750247500.0 0.7661712325 0.6363175271
8800247200.0 0.7742380351 0.6261595218
8850246900.0 0.7825004136 0.6143911087
8900246600.0 0.7912742044 0.603092526
8950246300.0 0.8006354729 0.5905024599
9000246000.0 0.8093724399 0.5787542932
9050245700.0 0.8176189884 0.5663645369
9100245400.0 0.8256591725 0.5542138396
9150245100.0 0.8345529595 0.5413911073
9200244800.0 0.8440778676 0.5269819304
9250244500.0 0.853152493 0.5123687999
9300244200.0 0.8609139819 0.4989192436
9350243900.0 0.8688470834 0.4855496607
9400243600.0 0.875140988 0.4740629228
9450243300.0 0.8809146849 0.4638122345
9500243000.0 0.8870663025 0.4521575865
9550242700.0 0.8909141338 0.4446029461
9600242400.0 0.8954257358 0.4368522618
9650242100.0 0.8994897472 0.4301791759
9700241800.0 0.9044030412 0.4216375017
9750241500.0 0.9087662604 0.413760106
9800241200.0 0.9138248699 0.4042024042
9850240900.0 0.919785164 0.392833288
9900240600.0 0.9258296803 0.3803620857
9950240300.0 0.9329731233 0.3638834623
10000240000.0 0.9378347921 0.3515234786
10050239700.0 0.9439950862 0.3350778344
10100239400.0 0.9492961371 0.3189912512
10150239100.0 0.9539733851 0.3032501536
10200238800.0 0.9583011543 0.2877826226
10250238500.0 0.9616619818 0.2743838196
10300238200.0 0.964724987 0.2604848941
10350237900.0 0.9674391797 0.2473429101
10400237600.0 0.9699340938 0.2336095982
10450237300.0 0.972719311 0.2201979048
10500237000.0 0.9748915055 0.2079726735
10550236700.0 0.977546418 0.1930211945
10600236400.0 0.9797111333 0.1787092918
10650236100.0 0.9813347799 0.1649248639
10700235800.0 0.9834671015 0.1519708853
10750235500.0 0.986011295 0.1390464463
10800235200.0 0.9879236336 0.1242007219
10850234900.0 0.9898669364 0.1096694104
10900234600.0 0.9919090722 0.0945889076
10950234300.0 0.9936436995 0.081298642
11000234000.0 0.9956301899 0.0654367011
11050233700.0 0.9973938077 0.0487918494
11100233400.0 0.9991327414 0.0310776626
11150233100.0 1.000123184 0.0140249886
11200232800.0 1.000705087 -0.0021157319
11250232500.0 1.001718022 -0.019516609
11300232200.0 1.002264709 -0.0382928707
11350231900.0 1.002409295 -0.0545948905
11400231600.0 1.00138815 -0.0696152571
11450231300.0 1.000745089 -0.085667918
11500231000.0 0.9999272182 -0.1019497062
11550230700.0 0.9980809344 -0.1152817687
11600230400.0 0.9968659037 -0.1285962854
11650230100.0 0.9949455961 -0.1401576495
11700229800.0 0.9925459061 -0.1553767822
11750229500.0 0.9901961156 -0.1694169777
11800229200.0 0.9872874666 -0.182205547
11850228900.0 0.9833911864 -0.1939844213
11900228600.0 0.979570616 -0.2035153409
11950228300.0 0.9764106872 -0.2133575691
12000228000.0 0.9735039653 -0.2218108239
12050227700.0 0.9696875385 -0.2356499
12100227400.0 0.9666057881 -0.2452768796
12150227100.0 0.9613997834 -0.2626819825
12200226800.0 0.9572128322 -0.2740969879
12250226500.0 0.9538737846 -0.2866118863
12300226200.0 0.9490640018 -0.299012924
12350225900.0 0.9445828268 -0.3124363029
12400225600.0 0.9400488278 -0.3250457961
12450225300.0 0.9358835143 -0.3374845534
12500225000.0 0.9300299201 -0.3519387595
12550224700.0 0.9245994586 -0.366511408
12600224400.0 0.9196746235 -0.3788137535
12650224100.0 0.9138917799 -0.3929970084
12700223800.0 0.9085499884 -0.4058570703
12750223500.0 0.9030977573 -0.418948546
12800223200.0 0.8976897968 -0.4315590998
12850222900.0 0.8926661844 -0.443402665
12900222600.0 0.8867991675 -0.4555373037
12950222300.0 0.8806045766 -0.4686536908
13000222000.0 0.8750560811 -0.4795304056
13050221700.0 0.8683417367 -0.492907019
13100221400.0 0.8614568768 -0.5048986971
13150221100.0 0.8542935634 -0.5174546455
13200220800.0 0.8475617931 -0.5283894206
13250220500.0 0.8402344751 -0.5406313059
13300220200.0 0.8325639062 -0.5516950484
13350219900.0 0.8243339341 -0.5636598385
13400219600.0 0.8158797209 -0.5754590394
13450219300.0 0.8067814082 -0.588628136
13500219000.0 0.7971496136 -0.6017911758
13550218700.0 0.7873697718 -0.6137080565
13600218400.0 0.7774880209 -0.6251611736
13650218100.0 0.7674267844 -0.636019753
13700217800.0 0.7569924481 -0.6484331652
13750217500.0 0.7475176211 -0.6585182012
13800217200.0 0.7364037895 -0.6699930282
13850216900.0 0.725990777 -0.681181878
13900216600.0 0.7160855695 -0.6909077939
13950216300.0 0.7050794176 -0.700380525
14000216000.0 0.6953739206 -0.7092140055
14050215700.0 0.6859462157 -0.7172290118
14100215400.0 0.6765935824 -0.7263975791
14150215100.0 0.6675320116 -0.7354171328
14200214800.0 0.6579309985 -0.744200528
14250214500.0 0.6476589526 -0.7534128421
14300214200.0 0.6372475344 -0.7629646719
14350213900.0 0.6260947656 -0.7724102916
14400213600.0 0.6143267832 -0.7823940928
14450213300.0 0.6010448675 -0.7928129156
14500213000.0 0.5886568396 -0.8026026681
14550212700.0 0.5760634077 -0.8117953627
14600212400.0 0.5636358837 -0.8199495125
14650212100.0 0.5506994891 -0.8297263521
14700211800.0 0.5373703202 -0.8391403321
14750211500.0 0.5250514567 -0.8470754603
14800211200.0 0.5123006297 -0.8553922204
14850210900.0 0.5001804986 -0.8628584079
14900210600.0 0.4867107955 -0.870884419
14950210300.0 0.4735369631 -0.8785340158
15000210000.0 0.4607341733 -0.8852975194
15050209700.0 0.4487391751 -0.8914652569
15100209400.0 0.4359453133 -0.8969227151
15150209100.0 0.4233535964 -0.9022723783
15200208800.0 0.4108720655 -0.90764416
15250208500.0 0.4004844834 -0.9123687461
15300208200.0 0.3874576094 -0.9168713753
15350207900.0 0.3741606885 -0.9215752197
15400207600.0 0.3595655618 -0.9275854502
15450207300.0 0.3453482793 -0.9319817641
15500207000.0 0.3307813339 -0.9370965578
15550206700.0 0.314971724 -0.9421271119
15600206400.0 0.2997396746 -0.9467798084
15650206100.0 0.2838777908 -0.9506542929
15700205800.0 0.2702940747 -0.9544908849
15750205500.0 0.2564347563 -0.9574463422
15800205200.0 0.2424030437 -0.9611963294
15850204900.0 0.2283722538 -0.9646319604
15900204600.0 0.2133290844 -0.9681969421
15950204300.0 0.198943217 -0.971475851
16000204000.0 0.1845979683 -0.9742221228
16050203700.0 0.1694630879 -0.9775689327
16100203400.0 0.1542575966 -0.9796699364
16150203100.0 0.1393258445 -0.9823707469
16200202800.0 0.1253365503 -0.9844494394
16250202500.0 0.110776227 -0.9859359066
16300202200.0 0.0949904313 -0.9874393727
16350201900.0 0.0802928714 -0.9889457596
16400201600.0 0.0653336273 -0.9901144478
16450201300.0 0.0499604743 -0.9911541466
16500201000.0 0.0328913819 -0.9921706527
16550200700.0 0.016567928 -0.9926971763
16600200400.0 0.0007043657 -0.9927206756
16650200100.0 -0.0153264071 -0.9928808157
16700199800.0 -0.0318029696 -0.9920360506
16750199500.0 -0.0504579922 -0.9920251221
16800199200.0 -0.0668671379 -0.9903365242
16850198900.0 -0.0819289554 -0.9889908878
16900198600.0 -0.0958694652 -0.9885836064
16950198300.0 -0.1100081817 -0.9876584809
17000198000.0 -0.1233774243 -0.985630707
17050197700.0 -0.1359021946 -0.9840785647
17100197400.0 -0.1487792046 -0.9821734528
17150197100.0 -0.1613546988 -0.979825467
17200196800.0 -0.1745557839 -0.9778545586
17250196500.0 -0.1871714176 -0.9754482336
17300196200.0 -0.1995521612 -0.9732415685
17350195900.0 -0.2111433628 -0.9707607489
17400195600.0 -0.223150902 -0.9680334871
17450195300.0 -0.2360101825 -0.9654428068
17500195000.0 -0.249430302 -0.9621632946
17550194700.0 -0.2630421908 -0.9584460542
17600194400.0 -0.2772849429 -0.9544261878
17650194100.0 -0.2905475634 -0.9501585022
17700193800.0 -0.3032811924 -0.9461089466
17750193500.0 -0.3177431925 -0.9413630339
17800193200.0 -0.3318021322 -0.9369208291
17850192900.0 -0.3466928473 -0.9309104744
17900192600.0 -0.361908766 -0.9247207337
17950192300.0 -0.3776353984 -0.917815138
18000192000.0 -0.3920224283 -0.9107015504
18050191700.0 -0.4058028323 -0.9026546258
18100191400.0 -0.4200183562 -0.8950004571
18150191100.0 -0.4349708984 -0.8869523566
18200190800.0 -0.451665291 -0.8780054984
18250190500.0 -0.4686313411 -0.8684386684
18300190200.0 -0.4840738593 -0.8597560485
18350189900.0 -0.4994212263 -0.8511099403
18400189600.0 -0.513679361 -0.8427714401
18450189300.0 -0.5274697885 -0.8346617477
18500189000.0 -0.5405359682 -0.8266901277
18550188700.0 -0.5533129816 -0.8185222665
18600188400.0 -0.5655536423 -0.8119901907
18650188100.0 -0.5767026908 -0.8056807299
18700187800.0 -0.5879411036 -0.798389762
18750187500.0 -0.5987374446 -0.7923250334
18800187200.0 -0.6092479856 -0.785217818
18850186900.0 -0.6196288809 -0.7782654124
18900186600.0 -0.6300061547 -0.7708988341
18950186300.0 -0.6402261709 -0.7631731244
19000186000.0 -0.6474836303 -0.7570522901
19050185700.0 -0.6569568332 -0.7498463697
19100185400.0 -0.6670225798 -0.7414153558
19150185100.0 -0.6767894569 -0.7333451729
19200184800.0 -0.6871056379 -0.7246497175
19250184500.0 -0.6962572676 -0.716060176
19300184200.0 -0.7078716269 -0.7062503681
19350183900.0 -0.7185936344 -0.6964698161
19400183600.0 -0.7290327692 -0.6869065039
19450183300.0 -0.7378680966 -0.6761611431
19500183000.0 -0.7457458359 -0.6667278918
19550182700.0 -0.7556480524 -0.6558980821
19600182400.0 -0.7660804921 -0.6438987513
19650182100.0 -0.7763266313 -0.6318925502
19700181800.0 -0.7869103964 -0.6183779732
19750181500.0 -0.797195261 -0.6043981267
19800181200.0 -0.8073294304 -0.5893819914
19850180900.0 -0.8167604976 -0.5741160812
19900180600.0 -0.8246178267 -0.559688734
19950180300.0 -0.8336372353 -0.5432977686
20000180000.0 -0.8234578448 -0.5475422092
20050179700.0 -0.831114241 -0.5345348841
20100179400.0 -0.8393161871 -0.5211376475
20150179100.0 -0.8471721816 -0.5097009673
20200178800.0 -0.8555109799 -0.4973025011
20250178500.0 -0.8645488248 -0.4858570592
20300178200.0 -0.874948325 -0.4722783916
20350177900.0 -0.8844549445 -0.4579601953
20400177600.0 -0.8934515387 -0.4439441764
20450177300.0 -0.9016664968 -0.429510524
20500177000.0 -0.9097935355 -0.4153981764
20550176700.0 -0.9177376443 -0.4021389342
20600176400.0 -0.9245942333 -0.3893462531
20650176100.0 -0.9314742987 -0.3769923236
20700175800.0 -0.9377337198 -0.3649133371
20750175500.0 -0.9441556843 -0.3537319679
20800175200.0 -0.9484770044 -0.3425685469
20850174900.0 -0.9534680151 -0.3317754467
20900174600.0 -0.9582847494 -0.3208917106
20950174300.0 -0.9611823821 -0.3098852757
21000174000.0 -0.9638698954 -0.2992897684
21050173700.0 -0.9650787923 -0.2896736859
21100173400.0 -0.9693019597 -0.2793985512
21150173100.0 -0.9728108939 -0.2670759294
21200172800.0 -0.9770150205 -0.2543397781
21250172500.0 -0.9809309075 -0.2402083498
21300172200.0 -0.9839187997 -0.2263984037
21350171900.0 -0.9857814613 -0.2124976689
21400171600.0 -0.9876940164 -0.197902994
21450171300.0 -0.9886123453 -0.1839283329
21500171000.0 -0.9893124169 -0.1691491806
21550170700.0 -0.9890894176 -0.1539033378
21600170400.0 -0.9904915641 -0.1388459292
21650170100.0 -0.9906655714 -0.1233056367
21700169800.0 -0.9900366716 -0.1081421682
21750169500.0 -0.9901614712 -0.0911245902
21800169200.0 -0.9900837623 -0.074679035
21850168900.0 -0.9903756617 -0.058239519
21900168600.0 -0.9898017952 -0.0419738712
21950168300.0 -0.9893627889 -0.0254381199
22000168000.0 -0.9894289083 -0.0115811101
22050167700.0 -0.9902139986 0.0032538138
22100167400.0 -0.9908470915 0.0193265093
22150167100.0 -0.9917319289 0.0352375212
22200166800.0 -0.9920912353 0.0515050813
22250166500.0 -0.9918942717 0.0692713596
22300166200.0 -0.9911326218 0.085255421
22350165900.0 -0.990257072 0.1015628783
22400165600.0 -0.9887998852 0.1171515426
22450165300.0 -0.9857214628 0.1319820142
22500165000.0 -0.9839836419 0.147162065
22550164700.0 -0.9837763508 0.1632187231
22600164400.0 -0.9818525559 0.1791012269
22650164100.0 -0.9783923475 0.1952260325
22700163800.0 -0.9752530491 0.2110610108
22750163500.0 -0.9724230091 0.2254840193
22800163200.0 -0.9691803252 0.2391597567
22850162900.0 -0.9666966279 0.2524156019
22900162600.0 -0.9647076578 0.2665669497
22950162300.0 -0.9629565426 0.28032155
23000162000.0 -0.9610685335 0.2931574709
23050161700.0 -0.958581202 0.30614424
23100161400.0 -0.9559343426 0.3196277688
23150161100.0 -0.9527185341 0.3331717604
23200160800.0 -0.9500674139 0.3454982089
23250160500.0 -0.9469671713 0.3581251735
23300160200.0 -0.9447738893 0.3712500399
23350159900.0 -0.9396680547 0.384879613
23400159600.0 -0.9355845102 0.3988517403
23450159300.0 -0.9293700746 0.4126637382
23500159000.0 -0.9249676191 0.425959573
23550158700.0 -0.9201283344 0.439943407
23600158400.0 -0.9140563102 0.4540933924
23650158100.0 -0.9067565654 0.4689190866
23700157800.0 -0.8981245024 0.4831069159
23750157500.0 -0.8888251936 0.4973985793
23800157200.0 -0.8787976681 0.5107302743
23850156900.0 -0.869316096 0.5236753623
23900156600.0 -0.859571334 0.5365554163
23950156300.0 -0.8496047325 0.5484805444
24000156000.0 -0.8397872804 0.5611951333
24050155700.0 -0.829529873 0.5736659794
24100155400.0 -0.8189764129 0.5867030094
24150155100.0 -0.8071022899 0.5982514333
24200154800.0 -0.7966613523 0.6099050186
24250154500.0 -0.7851961318 0.6222068605
24300154200.0 -0.7740972236 0.6347478817
24350153900.0 -0.7618227617 0.6455678431
24400153600.0 -0.7495826487 0.656220819
24450153300.0 -0.736862237 0.6665173088
24500153000.0 -0.7256447296 0.676759073
24550152700.0 -0.714124486 0.6867315395
24600152400.0 -0.7024153921 0.6963484939
24650152100.0 -0.689865189 0.7050931222
