!Created with skrf (http://scikit-rf.org).
# Hz S RI R 50.0 
!freq ReS11 ImS11
300000.0 -0.9750100673 -0.1181209638
50299700.0 -1.000130762 0.0153440696
100299400.0 -0.9980120467 0.0282934147
150299100.0 -1.002834702 0.045339844
200298800.0 -0.9996763701 0.05866374
250298500.0 -0.997423432 0.072253002
300298200.0 -0.9859291344 0.0878755552
350297900.0 -0.993752928 0.0985364828
400297600.0 -0.9931602473 0.1154259278
450297300.0 -0.9911662003 0.128850039
500297000.0 -0.9893904477 0.1439671806
550296700.0 -0.9844066922 0.1563316763
600296400.0 -1.017297824 0.1897882182
650296100.0 -0.9822194381 0.1860383228
700295800.0 -0.9796426502 0.2006060876
750295500.0 -0.976398378 0.2143188041
800295200.0 -0.973026139 0.2285984351
850294900.0 -0.9695671945 0.2424680483
900294600.0 -0.9659080322 0.2558992725
950294300.0 -0.9622323282 0.2699714236
1000294000.0 -0.9581594743 0.2838363679
1050293700.0 -0.9537852675 0.2978253413
1100293400.0 -0.9493346627 0.3120477112
1150293100.0 -0.9455422538 0.3237646069
1200292800.0 -0.9402064076 0.3382765014
1250292500.0 -0.9345819938 0.3516761782
1300292200.0 -0.9290023968 0.3649287953
1350291900.0 -0.9235693287 0.3790885424
1400291600.0 -0.917954972 0.3921323798
1450291300.0 -0.9123892711 0.4044770543
1500291000.0 -0.9061472301 0.4178825155
1550290700.0 -0.8997498501 0.4310426286
1600290400.0 -0.8934169639 0.4439437017
1650290100.0 -0.8865640189 0.4564577436
1700289800.0 -0.8798141972 0.4696070637
1750289500.0 -0.8728555881 0.4820807377
1800289200.0 -0.8654601515 0.495079896
1850288900.0 -0.8586050765 0.5060564013
1900288600.0 -0.8507078898 0.5191811218
1950288300.0 -0.84299915 0.5319168264
2000288000.0 -0.8353556966 0.5431419327
2050287700.0 -0.8272438922 0.5554161732
2100287400.0 -0.8191710062 0.5671997602
2150287100.0 -0.810508342 0.5791968105
2200286800.0 -0.8027415812 0.5895470681
2250286500.0 -0.7940678522 0.6016296036
2300286200.0 -0.7852934544 0.6132387306
2350285900.0 -0.7764439943 0.6240595614
2400285600.0 -0.7674587352 0.6351602636
2450285300.0 -0.7588304055 0.6454383633
2500285000.0 -0.7492196518 0.6566685815
2550284700.0 -0.7401850421 0.6670046251
2600284400.0 -0.7309795963 0.6772915729
2650284100.0 -0.7219470498 0.6879777699
2700283800.0 -0.7113904044 0.6983034169
2750283500.0 -0.7009718097 0.7090871425
2800283200.0 -0.6911067729 0.7185433862
2850282900.0 -0.6810901697 0.7287227754
2900282600.0 -0.6706048663 0.7379500645
2950282300.0 -0.6603403814 0.7472629781
3000282000.0 -0.6498324626 0.7569409078
3050281700.0 -0.6385647011 0.7660144496
3100281400.0 -0.6267287289 0.7755952505
3150281100.0 -0.6148473482 0.7849387035
3200280800.0 -0.6032263808 0.7932665696
3250280500.0 -0.5924603983 0.8010792605
3300280200.0 -0.5812218238 0.8088718601
3350279900.0 -0.5695275003 0.8164870739
3400279600.0 -0.5574397759 0.8240666913
3450279300.0 -0.5463238223 0.8311243353
3500279000.0 -0.5343561018 0.8382433705
3550278700.0 -0.5217514457 0.8456830539
3600278400.0 -0.5094596481 0.8527032356
3650278100.0 -0.4964100613 0.8604633478
3700277800.0 -0.4843084067 0.866834491
3750277500.0 -0.4721597738 0.8733603005
3800277200.0 -0.4597576016 0.8798498696
3850276900.0 -0.4476136131 0.8858573243
3900276600.0 -0.4368004374 0.8913463576
3950276300.0 -0.4241588868 0.8974404204
4000276000.0 -0.4123431251 0.9036725252
4050275700.0 -0.3995432088 0.9096863947
4100275400.0 -0.3883497157 0.9149255517
4150275100.0 -0.3755408516 0.9208450586
4200274800.0 -0.3625962013 0.9263088551
4250274500.0 -0.3503258263 0.9312300639
4300274200.0 -0.3375011044 0.9368849306
4350273900.0 -0.3234649785 0.942166212
4400273600.0 -0.3088381406 0.9474441096
4450273300.0 -0.2934754379 0.9523487744
4500273000.0 -0.2799349298 0.9565039256
4550272700.0 -0.2656424597 0.9608126573
4600272400.0 -0.2500943783 0.9651156461
4650272100.0 -0.2386022493 0.9684560867
4700271800.0 -0.2252213992 0.9716718251
4750271500.0 -0.2134474148 0.9745376152
4800271200.0 -0.2009579064 0.9771556316
4850270900.0 -0.1870324009 0.9799405193
4900270600.0 -0.1732645152 0.9823531332
4950270300.0 -0.1589460672 0.9850268509
5000270000.0 -0.1447019387 0.987229147
5050269700.0 -0.1311201878 0.9890923199
5100269400.0 -0.1175903785 0.9902775852
5150269100.0 -0.1041678139 0.9917304164
5200268800.0 -0.090859307 0.9929933419
5250268500.0 -0.0777913095 0.9940895447
5300268200.0 -0.0644365008 0.9947327799
5350267900.0 -0.0522854603 0.9952892335
5400267600.0 -0.0363079017 0.9961537962
5450267300.0 -0.023043879 0.9967183164
5500267000.0 -0.007941982 0.9970766206
5550266700.0 0.0069902015 0.9971385157
5600266400.0 0.0222879741 0.9974348932
5650266100.0 0.0393350088 0.9968567641
5700265800.0 0.0536051196 0.9963850822
5750265500.0 0.0685502866 0.9956867558
5800265200.0 0.0826890563 0.9945003594
5850264900.0 0.0960885987 0.9938638778
5900264600.0 0.1124921397 0.9915735173
5950264300.0 0.1247608594 0.9902984405
6000264000.0 0.1384387814 0.9885638616
6050263700.0 0.1507489764 0.9868789127
6100263400.0 0.1633746421 0.9850568654
6150263100.0 0.1778537304 0.982707433
6200262800.0 0.1882398483 0.9808821099
6250262500.0 0.2008836273 0.9784672358
6300262200.0 0.2137120799 0.9758489175
6350261900.0 0.226915114 0.9727622093
6400261600.0 0.2405887525 0.9695154561
6450261300.0 0.2518503506 0.9667028632
6500261000.0 0.2645941568 0.9631343239
6550260700.0 0.277854592 0.9594713751
6600260400.0 0.2909341451 0.955032266
6650260100.0 0.3049260352 0.951057042
6700259800.0 0.3171055101 0.9466319506
6750259500.0 0.3307778339 0.9417705031
6800259200.0 0.3440143245 0.9366402867
6850258900.0 0.3559356919 0.9314700817
6900258600.0 0.3684464569 0.9265265702
6950258300.0 0.3807437174 0.9213190924
7000258000.0 0.3927643402 0.9157461985
7050257700.0 0.4049549896 0.9098857648
7100257400.0 0.4177297841 0.9033599833
7150257100.0 0.4281453179 0.8984262889
7200256800.0 0.4409443019 0.8918408039
7250256500.0 0.4525272168 0.885297272
7300256200.0 0.4657794101 0.8787124502
7350255900.0 0.4785734039 0.8717713848
7400255600.0 0.4915922026 0.8646692631
7450255300.0 0.5071632667 0.855763621
7500255000.0 0.519140403 0.8484848553
7550254700.0 0.5327748668 0.8400670255
7600254400.0 0.5450628061 0.8315362815
7650254100.0 0.5567565811 0.8239055074
7700253800.0 0.5687081848 0.8159511875
7750253500.0 0.579789242 0.8082703102
7800253200.0 0.5903109992 0.8005097291
7850252900.0 0.600196632 0.7935253174
7900252600.0 0.6118314546 0.7847298531
7950252300.0 0.6207286963 0.7781030705
8000252000.0 0.630760878 0.7705145384
8050251700.0 0.6413317532 0.7623251077
8100251400.0 0.6515606293 0.7541567245
8150251100.0 0.6612663268 0.745503118
8200250800.0 0.6707084824 0.7376011354
8250250500.0 0.6798231662 0.7295471418
8300250200.0 0.6890701182 0.7208854464
8350249900.0 0.6982384375 0.7122616216
8400249600.0 0.7063804699 0.704288187
8450249300.0 0.7155382395 0.6949063891
8500249000.0 0.7239915737 0.686262476
8550248700.0 0.732508416 0.677177231
8600248400.0 0.7407902768 0.6675356306
8650248100.0 0.7485882113 0.6580555704
8700247800.0 0.7581065025 0.6468891218
8750247500.0 0.7663832803 0.6366032775
8800247200.0 0.774577144 0.6265200669
8850246900.0 0.7834025745 0.6150111647
8900246600.0 0.7919376155 0.6034353891
8950246300.0 0.8015001489 0.5907738741
9000246000.0 0.810502435 0.5779422918
9050245700.0 0.8196110776 0.5650468954
9100245400.0 0.8280652153 0.5525128471
9150245100.0 0.8374990748 0.5392729209
9200244800.0 0.847358901 0.5239023967
9250244500.0 0.8568075074 0.5084731521
9300244200.0 0.8652137869 0.4941168792
9350243900.0 0.8730139212 0.4801887404
9400243600.0 0.8794913756 0.46771137
9450243300.0 0.8853550587 0.4563065069
9500243000.0 0.8917794181 0.4440762854
9550242700.0 0.8954725018 0.4361909933
9600242400.0 0.8994681776 0.4290332203
9650242100.0 0.9032743507 0.4224089266
9700241800.0 0.907568367 0.4141927156
9750241500.0 0.9116140971 0.4069235168
9800241200.0 0.9161815765 0.3976840463
9850240900.0 0.9220385684 0.3858438177
9900240600.0 0.9275544518 0.3744877572
9950240300.0 0.9342336 0.3581375749
10000240000.0 0.9390206921 0.3465960421
10050239700.0 0.9449003219 0.3310016037
10100239400.0 0.949531629 0.3157960454
10150239100.0 0.9541631921 0.300919948
10200238800.0 0.9581972786 0.2858544793
10250238500.0 0.9615619919 0.2726159428
10300238200.0 0.9646716133 0.2586769552
10350237900.0 0.9673149663 0.2454897918
10400237600.0 0.9699609447 0.2321893718
10450237300.0 0.9724268074 0.2189362129
10500237000.0 0.9749263917 0.2064906023
10550236700.0 0.9769963831 0.192357916
10600236400.0 0.9792536487 0.1784612029
10650236100.0 0.9814938067 0.1636122769
10700235800.0 0.983381517 0.1517898243
10750235500.0 0.9854065228 0.1387289857
10800235200.0 0.9876859581 0.1243933303
10850234900.0 0.9896600706 0.1098812781
10900234600.0 0.9918038004 0.0948621125
10950234300.0 0.9933875687 0.0818582129
11000234000.0 0.995282978 0.0666347634
11050233700.0 0.9971721784 0.0504353834
11100233400.0 0.9984549557 0.0327960704
11150233100.0 0.9998572009 0.0169251218
11200232800.0 0.9999159679 0.0015154507
11250232500.0 1.000998149 -0.0155279353
11300232200.0 1.002008108 -0.0323887511
11350231900.0 1.002293706 -0.0483312594
11400231600.0 1.001543059 -0.0652462983
11450231300.0 1.000950325 -0.0793531737
11500231000.0 1.0000012 -0.0956335091
11550230700.0 0.9982166476 -0.1094846024
11600230400.0 0.9971585092 -0.1218661183
11650230100.0 0.9950921372 -0.1338319411
11700229800.0 0.9929490984 -0.1482099604
11750229500.0 0.9904978248 -0.1627135436
11800229200.0 0.9881098366 -0.1762262559
11850228900.0 0.9845689627 -0.1885351655
11900228600.0 0.9812768706 -0.1982151139
11950228300.0 0.9777221661 -0.2092700423
12000228000.0 0.9750564245 -0.2180489098
12050227700.0 0.9716231137 -0.2310952463
12100227400.0 0.9684204316 -0.2415393565
12150227100.0 0.9636476947 -0.2577572442
12200226800.0 0.9592105176 -0.2696389826
12250226500.0 0.9557913664 -0.2818157643
12300226200.0 0.9514146682 -0.2941869829
12350225900.0 0.9466699439 -0.3078719993
12400225600.0 0.9421809136 -0.3205921261
12450225300.0 0.9379102496 -0.3334952078
12500225000.0 0.9318073697 -0.3486897633
12550224700.0 0.9268957536 -0.3622768984
12600224400.0 0.9219510446 -0.3751968631
12650224100.0 0.9162134146 -0.3897963918
12700223800.0 0.9109183941 -0.4023602825
12750223500.0 0.9053664399 -0.4154544711
12800223200.0 0.9002750417 -0.4280289151
12850222900.0 0.894669739 -0.4402816301
12900222600.0 0.8890597469 -0.4521819425
12950222300.0 0.8827768941 -0.4649818705
13000222000.0 0.8762927463 -0.4766130469
13050221700.0 0.8698910688 -0.4890197312
13100221400.0 0.8633948689 -0.5011141236
13150221100.0 0.8567384461 -0.5133862571
13200220800.0 0.8495739866 -0.5247684638
13250220500.0 0.8424507477 -0.5371312717
13300220200.0 0.8349490414 -0.5478972142
13350219900.0 0.8270046231 -0.5595774294
13400219600.0 0.8184416115 -0.5719345379
13450219300.0 0.8092427918 -0.5855073756
13500219000.0 0.7986103785 -0.5994211931
13550218700.0 0.789161501 -0.611967104
13600218400.0 0.7788687043 -0.6245906732
13650218100.0 0.7692315225 -0.6355575499
13700217800.0 0.7580944402 -0.6473824332
13750217500.0 0.7478363187 -0.6591746913
13800217200.0 0.7377565154 -0.6702958084
13850216900.0 0.7264647134 -0.6818789677
13900216600.0 0.7157541222 -0.6911515137
13950216300.0 0.7056723059 -0.7013051011
14000216000.0 0.6953427508 -0.7108182128
14050215700.0 0.6857222395 -0.7184208213
14100215400.0 0.6758581806 -0.7279870018
14150215100.0 0.6663718751 -0.736364473
14200214800.0 0.6572405833 -0.7451966533
14250214500.0 0.6468749029 -0.7545085054
14300214200.0 0.6365161187 -0.763901023
14350213900.0 0.6253650497 -0.7732507655
14400213600.0 0.6138297593 -0.7832769876
14450213300.0 0.6002938067 -0.7932887968
14500213000.0 0.5876425912 -0.8031754797
14550212700.0 0.575256915 -0.8127089312
14600212400.0 0.5623094437 -0.821137367
14650212100.0 0.5492800579 -0.8303000186
14700211800.0 0.5356915072 -0.83976247
14750211500.0 0.5233435149 -0.8479452203
14800211200.0 0.5111646939 -0.8560183253
14850210900.0 0.4989532425 -0.863540182
14900210600.0 0.4858593612 -0.8714816243
14950210300.0 0.4723000882 -0.8788706476
15000210000.0 0.4596885416 -0.8858535372
15050209700.0 0.4475025766 -0.8916870791
15100209400.0 0.4350245367 -0.8977555849
15150209100.0 0.4226856359 -0.9036792078
15200208800.0 0.4092956779 -0.908709694
15250208500.0 0.3985730725 -0.9135595625
15300208200.0 0.3862059815 -0.9175935928
15350207900.0 0.3721036305 -0.9227226007
15400207600.0 0.3581744699 -0.9277500677
15450207300.0 0.3440478901 -0.9328809998
15500207000.0 0.3290144949 -0.9379691898
15550206700.0 0.3141907787 -0.9425514561
15600206400.0 0.2978269445 -0.9471841787
15650206100.0 0.2826866163 -0.9516975815
15700205800.0 0.2688680275 -0.9549195736
15750205500.0 0.2542470133 -0.9586622241
15800205200.0 0.2398765081 -0.9620616737
15850204900.0 0.2254865775 -0.9655960942
15900204600.0 0.2104206056 -0.9690935944
15950204300.0 0.1962214031 -0.9720696422
16000204000.0 0.1820477502 -0.9751612815
16050203700.0 0.1667755783 -0.9780135798
16100203400.0 0.1527195271 -0.9799945485
16150203100.0 0.1383735537 -0.9824762236
16200202800.0 0.124036745 -0.9847117987
16250202500.0 0.1092938803 -0.9860749563
16300202200.0 0.0942373826 -0.9879643434
16350201900.0 0.0790178724 -0.9891961087
16400201600.0 0.0644909149 -0.9901038631
16450201300.0 0.0491027491 -0.9912234368
16500201000.0 0.0324199016 -0.992060445
16550200700.0 0.0168878038 -0.9925899079
16600200400.0 0.0013880147 -0.9927949836
16650200100.0 -0.0148916673 -0.9926963294
16700199800.0 -0.0313123871 -0.9923960628
16750199500.0 -0.0500319509 -0.9919846402
16800199200.0 -0.0660365226 -0.9904506555
16850198900.0 -0.080436284 -0.9898429818
16900198600.0 -0.0946650281 -0.9879736127
16950198300.0 -0.1085569138 -0.9883149171
17000198000.0 -0.1216434733 -0.9863878551
17050197700.0 -0.1338397325 -0.9842828923
17100197400.0 -0.1466482197 -0.9822741194
17150197100.0 -0.1592029607 -0.9797981152
17200196800.0 -0.1722483074 -0.9782937902
17250196500.0 -0.1853816694 -0.975728119
17300196200.0 -0.1973191549 -0.9733704166
17350195900.0 -0.2091267851 -0.9711725771
17400195600.0 -0.2212879508 -0.9688125083
17450195300.0 -0.2346312553 -0.9658384523
17500195000.0 -0.2480735702 -0.9625344446
17550194700.0 -0.2617981629 -0.95883696
17600194400.0 -0.2755848061 -0.9549083776
17650194100.0 -0.2892712403 -0.9509045412
17700193800.0 -0.3023743688 -0.9466892156
17750193500.0 -0.3166663642 -0.942145481
17800193200.0 -0.3315796692 -0.9367115026
17850192900.0 -0.3461020394 -0.9315482085
17900192600.0 -0.3613933597 -0.9251937189
17950192300.0 -0.3770845853 -0.9182789596
18000192000.0 -0.3916725895 -0.9109789743
18050191700.0 -0.40581851 -0.9030600303
18100191400.0 -0.4198504824 -0.8954098947
18150191100.0 -0.4348697888 -0.8873356919
18200190800.0 -0.4518202104 -0.8782612573
18250190500.0 -0.4688661423 -0.8688813428
18300190200.0 -0.4843292145 -0.8600502291
18350189900.0 -0.4995785939 -0.8516898164
18400189600.0 -0.5138896578 -0.8434132709
18450189300.0 -0.5274658104 -0.8354864122
18500189000.0 -0.5405911343 -0.8274771143
18550188700.0 -0.5533031101 -0.8200379661
18600188400.0 -0.5646514766 -0.8132591772
18650188100.0 -0.5759397433 -0.8067285709
18700187800.0 -0.5866816541 -0.8000638731
18750187500.0 -0.5973776627 -0.7936776573
18800187200.0 -0.6079585403 -0.7864793289
18850186900.0 -0.6179798487 -0.779654301
18900186600.0 -0.628236567 -0.772281158
18950186300.0 -0.6381826732 -0.7646906059
19000186000.0 -0.6454870706 -0.758778594
19050185700.0 -0.6546378609 -0.751439616
19100185400.0 -0.6645255381 -0.7430722925
19150185100.0 -0.6740512687 -0.7346273822
19200184800.0 -0.6842877959 -0.7261131922
19250184500.0 -0.6946835678 -0.7168833092
19300184200.0 -0.7056992105 -0.70738833
19350183900.0 -0.7164830956 -0.6975529528
19400183600.0 -0.7261788096 -0.6879456297
19450183300.0 -0.7352283468 -0.6775529246
19500183000.0 -0.7432988986 -0.6678461465
19550182700.0 -0.7526260451 -0.6572728768
19600182400.0 -0.7631609375 -0.6452437086
19650182100.0 -0.7741409849 -0.632838544
19700181800.0 -0.7850746897 -0.6194883309
19750181500.0 -0.7954496483 -0.6055953461
19800181200.0 -0.805877817 -0.5905823719
19850180900.0 -0.8157150276 -0.5752133436
19900180600.0 -0.823561385 -0.5608831051
19950180300.0 -0.8327085774 -0.5445137594
20000180000.0 -0.8257393317 -0.546292042
20050179700.0 -0.8335160512 -0.5335975349
20100179400.0 -0.8417174638 -0.5193932141
20150179100.0 -0.8506483621 -0.5072236505
20200178800.0 -0.8595016852 -0.4955198787
20250178500.0 -0.8692471465 -0.4817231478
20300178200.0 -0.8784564494 -0.4662424148
20350177900.0 -0.8878769666 -0.4519694047
20400177600.0 -0.8967035403 -0.4376589688
20450177300.0 -0.9048109616 -0.42344804
20500177000.0 -0.9128201814 -0.4093546746
20550176700.0 -0.9206785669 -0.3959509169
20600176400.0 -0.9279668981 -0.3828886833
20650176100.0 -0.9345684803 -0.3702482185
20700175800.0 -0.9408933288 -0.3581579364
20750175500.0 -0.9476088112 -0.3470635287
20800175200.0 -0.9524439628 -0.3356231027
20850174900.0 -0.9572036539 -0.3249916501
20900174600.0 -0.9618387851 -0.3135103531
20950174300.0 -0.9656115719 -0.3021202118
21000174000.0 -0.9688024841 -0.2906790203
21050173700.0 -0.971730984 -0.2805870592
21100173400.0 -0.9759638968 -0.2675061461
21150173100.0 -0.9803144893 -0.255803986
21200172800.0 -0.9835790651 -0.2422801909
21250172500.0 -0.9865090808 -0.2280274747
21300172200.0 -0.9894349184 -0.2143841696
21350171900.0 -0.99110292 -0.199379374
21400171600.0 -0.9928761686 -0.1859703743
21450171300.0 -0.9930303809 -0.1710260842
21500171000.0 -0.9926628525 -0.1556689197
21550170700.0 -0.9922998278 -0.1397429739
21600170400.0 -0.9926384797 -0.1239111035
21650170100.0 -0.9919110069 -0.1084221322
21700169800.0 -0.9899091678 -0.0932921407
21750169500.0 -0.9886974018 -0.0775337718
21800169200.0 -0.9885434658 -0.0609659611
21850168900.0 -0.9874324928 -0.0449081024
21900168600.0 -0.9863046302 -0.0273766717
21950168300.0 -0.984758912 -0.0125347823
22000168000.0 -0.9839549463 0.0022949712
22050167700.0 -0.9837281069 0.0167963016
22100167400.0 -0.9836423199 0.03228329
22150167100.0 -0.9846325897 0.0478598561
22200166800.0 -0.9848611799 0.0639730876
22250166500.0 -0.9845189544 0.0810273386
22300166200.0 -0.9831709017 0.0979939099
22350165900.0 -0.9821524646 0.1139703036
22400165600.0 -0.9809458593 0.130042106
22450165300.0 -0.9787893126 0.1447104118
22500165000.0 -0.9761142543 0.1595321503
22550164700.0 -0.9755735525 0.1746012854
22600164400.0 -0.9746610749 0.1896862257
22650164100.0 -0.9726363622 0.2039508408
22700163800.0 -0.9686591114 0.2201788351
22750163500.0 -0.9670554821 0.2351774516
22800163200.0 -0.9634837333 0.2488599703
22850162900.0 -0.9611595884 0.2621795241
22900162600.0 -0.9597409092 0.2754873957
22950162300.0 -0.9588750873 0.2883764634
23000162000.0 -0.9574209068 0.3000492718
23050161700.0 -0.9554257521 0.3125212718
23100161400.0 -0.9534943629 0.3253915975
23150161100.0 -0.9506222807 0.3374148108
23200160800.0 -0.9473485875 0.3501734482
23250160500.0 -0.9448175103 0.3618288753
23300160200.0 -0.94238177 0.37344872
23350159900.0 -0.9390062537 0.3864943939
23400159600.0 -0.9343297122 0.3999844694
23450159300.0 -0.9292244832 0.4132797659
23500159000.0 -0.9242603738 0.426297144
23550158700.0 -0.9200918653 0.4398614899
23600158400.0 -0.9146734011 0.4530473097
23650158100.0 -0.908356618 0.4670544536
23700157800.0 -0.9005239254 0.4808651185
23750157500.0 -0.8920837988 0.4949927526
23800157200.0 -0.8835748593 0.5085119323
23850156900.0 -0.8747221255 0.5210259818
23900156600.0 -0.8652421597 0.5336959883
23950156300.0 -0.8559673634 0.5455850333
24000156000.0 -0.8468352678 0.5586260166
24050155700.0 -0.8365597785 0.5700809325
24100155400.0 -0.8273777965 0.5818515622
24150155100.0 -0.8165442787 0.5934314108
24200154800.0 -0.8058110302 0.6041233449
24250154500.0 -0.7943691014 0.6162902594
24300154200.0 -0.7831973952 0.6280716038
24350153900.0 -0.7709926808 0.6387596594
24400153600.0 -0.7590419855 0.6487038662
24450153300.0 -0.7468944456 0.6588982699
24500153000.0 -0.7352121473 0.668576185
24550152700.0 -0.7242934157 0.677986223
24600152400.0 -0.7131366004 0.6873380655
24650152100.0 -0.7005089952 0.6964115746
