!Created with skrf (http://scikit-rf.org).
# Hz S RI R 50.0 
!freq ReS11 ImS11
300000.0 -0.9751254209 -0.1200699947
50299700.0 -0.9998181377 0.0152884229
100299400.0 -0.9979463344 0.0282691604
150299100.0 -1.002743426 0.0451416971
200298800.0 -0.9997252878 0.0583448304
250298500.0 -0.9974047488 0.071840442
300298200.0 -0.9859404162 0.0874574787
350297900.0 -0.9940758192 0.0984350585
400297600.0 -0.9930699001 0.1150541675
450297300.0 -0.9911325229 0.1288745981
500297000.0 -0.9895367337 0.1437829684
550296700.0 -0.9842716107 0.1558878164
600296400.0 -1.017498658 0.1895366965
650296100.0 -0.9819758048 0.1858722597
700295800.0 -0.9792895383 0.2002264832
750295500.0 -0.976151558 0.2144891849
800295200.0 -0.972910306 0.2283098481
850294900.0 -0.9696569481 0.2421960171
900294600.0 -0.9658957927 0.255919242
950294300.0 -0.9621255926 0.2695790945
1000294000.0 -0.9580840201 0.2836550874
1050293700.0 -0.9538032443 0.2975399572
1100293400.0 -0.9492671841 0.3118482582
1150293100.0 -0.945474891 0.323616181
1200292800.0 -0.9403170445 0.3380838181
1250292500.0 -0.9348867096 0.3514876877
1300292200.0 -0.9290785398 0.3647198979
1350291900.0 -0.9234792609 0.3787361816
1400291600.0 -0.9180258526 0.3919607473
1450291300.0 -0.9124815036 0.4042108064
1500291000.0 -0.906240271 0.4176552191
1550290700.0 -0.8997820323 0.4310716753
1600290400.0 -0.893433416 0.4441311141
1650290100.0 -0.8867842807 0.4560239538
1700289800.0 -0.8799048974 0.4694596158
1750289500.0 -0.8730157221 0.4816736623
1800289200.0 -0.8656206845 0.4946310951
1850288900.0 -0.8586549018 0.5060619835
1900288600.0 -0.851017653 0.518925161
1950288300.0 -0.84284694 0.5314397855
2000288000.0 -0.8354344153 0.5429995787
2050287700.0 -0.8271579793 0.5552349377
2100287400.0 -0.8191668133 0.5668972423
2150287100.0 -0.8105347598 0.5789760993
2200286800.0 -0.8028705043 0.5893907144
2250286500.0 -0.794104328 0.6013627542
2300286200.0 -0.7852168808 0.6128723854
2350285900.0 -0.77657366 0.6238521617
2400285600.0 -0.7675897889 0.6351050221
2450285300.0 -0.7589230393 0.6453872452
2500285000.0 -0.7491481778 0.6567178738
2550284700.0 -0.7403027817 0.6670684263
2600284400.0 -0.7310594603 0.6771423888
2650284100.0 -0.7221619606 0.6874931437
2700283800.0 -0.7115414501 0.6981213926
2750283500.0 -0.7010797752 0.7087843674
2800283200.0 -0.6913267969 0.7183713183
2850282900.0 -0.6810193292 0.7283780689
2900282600.0 -0.6708530213 0.7379185966
2950282300.0 -0.6605029263 0.7470524169
3000282000.0 -0.6497224333 0.7567346945
3050281700.0 -0.6386194392 0.7659331174
3100281400.0 -0.6268031388 0.7753175879
3150281100.0 -0.6149916865 0.7845871173
3200280800.0 -0.603345248 0.7931390408
3250280500.0 -0.5925326793 0.8006826781
3300280200.0 -0.5810248631 0.8088234605
3350279900.0 -0.5695615494 0.8163258868
3400279600.0 -0.5575134235 0.8239632898
3450279300.0 -0.5460540036 0.8310551166
3500279000.0 -0.5342820109 0.838358371
3550278700.0 -0.5219628654 0.8458917769
3600278400.0 -0.509712987 0.8524781366
3650278100.0 -0.496337826 0.8602385075
3700277800.0 -0.4843376676 0.8666854086
3750277500.0 -0.4722074707 0.8733635415
3800277200.0 -0.4598026511 0.8799969013
3850276900.0 -0.4476717469 0.8857244028
3900276600.0 -0.4368885461 0.891233079
3950276300.0 -0.4244434636 0.8975779793
4000276000.0 -0.4122609016 0.9035439547
4050275700.0 -0.3997478473 0.9094127872
4100275400.0 -0.3884142507 0.9148841435
4150275100.0 -0.3757390657 0.9206773958
4200274800.0 -0.3628838143 0.9260880229
4250274500.0 -0.3503576106 0.9311869107
4300274200.0 -0.337456552 0.9366205728
4350273900.0 -0.3234820233 0.9420036137
4400273600.0 -0.3087340332 0.9472083118
4450273300.0 -0.2935433256 0.9521247978
4500273000.0 -0.2800588166 0.956455291
4550272700.0 -0.2659621407 0.9609650451
4600272400.0 -0.2505084407 0.9650275574
4650272100.0 -0.2388262342 0.9683791555
4700271800.0 -0.2255900387 0.9714316575
4750271500.0 -0.2137512034 0.9745119952
4800271200.0 -0.2013669647 0.9771729623
4850270900.0 -0.1874889088 0.9800621247
4900270600.0 -0.1736897024 0.9823417574
4950270300.0 -0.1591806175 0.9849777774
5000270000.0 -0.1449244574 0.9872663857
5050269700.0 -0.1314000558 0.9886830311
5100269400.0 -0.117821706 0.990043853
5150269100.0 -0.1041033541 0.9918048573
5200268800.0 -0.0908877896 0.9930439231
5250268500.0 -0.0777837971 0.9940071737
5300268200.0 -0.0646929132 0.9944305541
5350267900.0 -0.0522747146 0.9954419274
5400267600.0 -0.0359554923 0.996182349
5450267300.0 -0.0230080345 0.9967282816
5500267000.0 -0.0077271816 0.9971113637
5550266700.0 0.0070009908 0.9971973502
5600266400.0 0.0226501965 0.9973840086
5650266100.0 0.0391429669 0.9969426878
5700265800.0 0.0532734405 0.9959659515
5750265500.0 0.0688864725 0.9954998346
5800265200.0 0.0823455725 0.9939025844
5850264900.0 0.0963356511 0.9941289878
5900264600.0 0.1126814297 0.991963296
5950264300.0 0.1247657404 0.9900194793
6000264000.0 0.138652227 0.9884640242
6050263700.0 0.150776309 0.9867240549
6100263400.0 0.1629458436 0.9851842672
6150263100.0 0.1774965479 0.9827470852
6200262800.0 0.1878964804 0.9809949079
6250262500.0 0.2006709969 0.9785845198
6300262200.0 0.2130932604 0.9757867536
6350261900.0 0.2262657424 0.9729491343
6400261600.0 0.2401914289 0.9696465912
6450261300.0 0.2515304436 0.9667986839
6500261000.0 0.2643296516 0.9633858357
6550260700.0 0.2775127439 0.9594349573
6600260400.0 0.2907083109 0.9550593238
6650260100.0 0.304404537 0.9508706014
6700259800.0 0.3166214875 0.9464797135
6750259500.0 0.3302153287 0.9415589559
6800259200.0 0.3436914432 0.9369458697
6850258900.0 0.3557776285 0.9317366366
6900258600.0 0.3678478523 0.9263830606
6950258300.0 0.3805052591 0.9210744337
7000258000.0 0.3925582476 0.9158340845
7050257700.0 0.4047424289 0.9097439562
7100257400.0 0.4175308146 0.9034693965
7150257100.0 0.4281553817 0.8983932757
7200256800.0 0.4409235226 0.8918305099
7250256500.0 0.4531071721 0.8854220439
7300256200.0 0.4659095636 0.8787658704
7350255900.0 0.4785879525 0.8717751883
7400255600.0 0.4914562531 0.8646186991
7450255300.0 0.507371253 0.8554726003
7500255000.0 0.5184624948 0.8483197934
7550254700.0 0.5327269867 0.8399675152
7600254400.0 0.545472121 0.8316913012
7650254100.0 0.5569283181 0.8238416428
7700253800.0 0.5688142121 0.8157446678
7750253500.0 0.5798342712 0.8080823545
7800253200.0 0.59057984 0.8004114928
7850252900.0 0.6003897678 0.7935375523
7900252600.0 0.6119181066 0.7845663075
7950252300.0 0.6206535251 0.7780659999
8000252000.0 0.6308246221 0.770319196
8050251700.0 0.6414468346 0.7621069967
8100251400.0 0.651244606 0.754232497
8150251100.0 0.6614709918 0.7454308986
8200250800.0 0.6707513287 0.7373445149
8250250500.0 0.6796485443 0.7294020505
8300250200.0 0.6890566606 0.7210636342
8350249900.0 0.69807961 0.7122466555
8400249600.0 0.7066374882 0.7042594965
8450249300.0 0.7154570633 0.6949989609
8500249000.0 0.7238774456 0.686143097
8550248700.0 0.7322856126 0.6771356526
8600248400.0 0.7407391011 0.6675829577
8650248100.0 0.7484648214 0.658190151
8700247800.0 0.7578376601 0.6470098536
8750247500.0 0.7662597651 0.6368985322
8800247200.0 0.7745959111 0.6263593435
8850246900.0 0.7834908898 0.6150124861
8900246600.0 0.7918287967 0.6033787132
8950246300.0 0.8012514587 0.5908445681
9000246000.0 0.8103916219 0.5781104962
9050245700.0 0.8196631062 0.5651235751
9100245400.0 0.8277892808 0.5529339276
9150245100.0 0.8371861217 0.5391589101
9200244800.0 0.8469380192 0.5243532152
9250244500.0 0.8562185833 0.5090182836
9300244200.0 0.8645311072 0.4945482827
9350243900.0 0.872398341 0.4808496776
9400243600.0 0.8790911309 0.4684989203
9450243300.0 0.884848619 0.4570565614
9500243000.0 0.8911358475 0.4449553279
9550242700.0 0.8949723744 0.4371582453
9600242400.0 0.8988565945 0.4299040044
9650242100.0 0.9027718571 0.4233572041
9700241800.0 0.9076215675 0.4148570928
9750241500.0 0.9112842954 0.4076573358
9800241200.0 0.9161398771 0.3983498436
9850240900.0 0.9216404102 0.3866038428
9900240600.0 0.9272848671 0.3752522252
9950240300.0 0.9338732259 0.3590852301
10000240000.0 0.9384243826 0.3474287116
10050239700.0 0.944361759 0.3318912331
10100239400.0 0.9493588498 0.3164840957
10150239100.0 0.9539835886 0.3014788871
10200238800.0 0.9582225935 0.2862958472
10250238500.0 0.9614930844 0.2729953687
10300238200.0 0.9645480418 0.259053195
10350237900.0 0.9672513206 0.2458990509
10400237600.0 0.9697492892 0.23245219
10450237300.0 0.9724321423 0.2190319142
10500237000.0 0.9746866624 0.2067419014
10550236700.0 0.9772990452 0.1920913438
10600236400.0 0.9792842172 0.178402084
10650236100.0 0.9815992407 0.164130702
10700235800.0 0.9832386243 0.1521106679
10750235500.0 0.9856133314 0.1383364127
10800235200.0 0.9880182766 0.1246140642
10850234900.0 0.9897763115 0.1098193802
10900234600.0 0.9915083855 0.0952480109
10950234300.0 0.9932110921 0.0819055195
11000234000.0 0.9952359349 0.066709939
11050233700.0 0.9970071113 0.0502212721
11100233400.0 0.9986179029 0.0328328938
11150233100.0 0.9994806945 0.0163056925
11200232800.0 1.000376817 0.001645965
11250232500.0 1.001320501 -0.0155262273
11300232200.0 1.001623734 -0.0330686818
11350231900.0 1.00137244 -0.0490733422
11400231600.0 1.001629248 -0.06467525
11450231300.0 1.00069245 -0.0784009477
11500231000.0 0.9996335367 -0.096459204
11550230700.0 0.9979514919 -0.1099036858
11600230400.0 0.9968186556 -0.1222645292
11650230100.0 0.9949890399 -0.1335927829
11700229800.0 0.9929514433 -0.1480748447
11750229500.0 0.9907146743 -0.1628431392
11800229200.0 0.9881316679 -0.1764439896
11850228900.0 0.9845668579 -0.188675374
11900228600.0 0.9810269787 -0.19835032
11950228300.0 0.977826782 -0.2092262787
12000228000.0 0.9748281331 -0.2181412078
12050227700.0 0.9712721891 -0.2310016735
12100227400.0 0.9678946948 -0.2414481817
12150227100.0 0.963063748 -0.2588195136
12200226800.0 0.9598755668 -0.2694310505
12250226500.0 0.955451795 -0.2819754319
12300226200.0 0.9507946567 -0.2948671275
12350225900.0 0.9464952016 -0.3078722799
12400225600.0 0.9426092237 -0.320954487
12450225300.0 0.9377733359 -0.3338609116
12500225000.0 0.9321328577 -0.3488216216
12550224700.0 0.9268174948 -0.3627302738
12600224400.0 0.9217977619 -0.3753191929
12650224100.0 0.9161422459 -0.3898321234
12700223800.0 0.9108777072 -0.4024987944
12750223500.0 0.9053812117 -0.4157812016
12800223200.0 0.8997863381 -0.4280273777
12850222900.0 0.8942974517 -0.4401815482
12900222600.0 0.8888730295 -0.452555122
12950222300.0 0.8824100749 -0.4656935837
13000222000.0 0.8767637103 -0.4768630074
13050221700.0 0.8698109094 -0.4897391928
13100221400.0 0.8630184898 -0.5012660851
13150221100.0 0.8566217679 -0.5137935999
13200220800.0 0.8492621478 -0.5246988894
13250220500.0 0.8421452802 -0.5372428317
13300220200.0 0.8349668457 -0.54802935
13350219900.0 0.8268029699 -0.5601185686
13400219600.0 0.8182343437 -0.5722091287
13450219300.0 0.8092238683 -0.58562186
13500219000.0 0.7990968717 -0.5992101318
13550218700.0 0.7890992293 -0.6118973937
13600218400.0 0.7787072356 -0.6243604499
13650218100.0 0.7694137373 -0.6349324176
13700217800.0 0.7583234464 -0.6475962324
13750217500.0 0.748508753 -0.6583334
13800217200.0 0.7370567241 -0.6704132514
13850216900.0 0.7257015587 -0.6818286674
13900216600.0 0.7169000986 -0.6907706327
13950216300.0 0.705714915 -0.7005138712
14000216000.0 0.6955707548 -0.7101624541
14050215700.0 0.6858116027 -0.7181242459
14100215400.0 0.6759875733 -0.7274769029
14150215100.0 0.6669216671 -0.736152357
14200214800.0 0.6575169358 -0.7449028933
14250214500.0 0.6472095417 -0.7541749436
14300214200.0 0.6367345945 -0.7634068971
14350213900.0 0.6257183489 -0.7732067209
14400213600.0 0.6139149188 -0.7830004255
14450213300.0 0.6011090098 -0.7930809491
14500213000.0 0.5879428646 -0.8027549051
14550212700.0 0.575326014 -0.8124288549
14600212400.0 0.5626493011 -0.8215239915
14650212100.0 0.5499271658 -0.8305066804
14700211800.0 0.5356992007 -0.8397210557
14750211500.0 0.523520145 -0.8478049938
14800211200.0 0.5116939949 -0.8560047642
14850210900.0 0.4994111787 -0.8633788839
14900210600.0 0.4861067008 -0.8712883317
14950210300.0 0.4726299087 -0.8788213473
15000210000.0 0.4598269935 -0.8855883906
15050209700.0 0.4477260127 -0.8919217811
15100209400.0 0.4352230197 -0.8977466901
15150209100.0 0.422164253 -0.9027306506
15200208800.0 0.4100763849 -0.9082903053
15250208500.0 0.3992147947 -0.9133102228
15300208200.0 0.386329597 -0.9179787618
15350207900.0 0.3726914675 -0.9220702127
15400207600.0 0.3585231141 -0.9281720473
15450207300.0 0.3438015177 -0.9326609567
15500207000.0 0.3297886997 -0.9374834239
15550206700.0 0.314366873 -0.9427673297
15600206400.0 0.2991353529 -0.9472512242
15650206100.0 0.2831768401 -0.9514413949
15700205800.0 0.2690798428 -0.9550465117
15750205500.0 0.2549753013 -0.9583402694
15800205200.0 0.2405327851 -0.9618415876
15850204900.0 0.2261432221 -0.9654788422
15900204600.0 0.2109595029 -0.9690342041
15950204300.0 0.1968480832 -0.9717299248
16000204000.0 0.1829842039 -0.9747291708
16050203700.0 0.1678242019 -0.9776458442
16100203400.0 0.1531788623 -0.9799196462
16150203100.0 0.1388499688 -0.982367836
16200202800.0 0.1240869668 -0.9840795645
16250202500.0 0.1094547817 -0.9859648441
16300202200.0 0.0941344426 -0.9877529778
16350201900.0 0.0792829975 -0.9889686581
16400201600.0 0.0644316203 -0.9901669457
16450201300.0 0.0492342561 -0.991215477
16500201000.0 0.0325915517 -0.9919837533
16550200700.0 0.0168721197 -0.9925692067
16600200400.0 0.0010497957 -0.9927763216
16650200100.0 -0.0146361162 -0.9926436912
16700199800.0 -0.0310136127 -0.9922887317
16750199500.0 -0.0502694541 -0.9920858865
16800199200.0 -0.0660890078 -0.9908943657
16850198900.0 -0.0808662898 -0.9894829035
16900198600.0 -0.0947837515 -0.9883644465
16950198300.0 -0.1085372305 -0.9872473136
17000198000.0 -0.1201938935 -0.9857266089
17050197700.0 -0.1339753914 -0.9845123405
17100197400.0 -0.1467550994 -0.9821423341
17150197100.0 -0.1589382007 -0.9799073613
17200196800.0 -0.1722776965 -0.9784498066
17250196500.0 -0.1846353097 -0.9755634315
17300196200.0 -0.1970183376 -0.9734706473
17350195900.0 -0.2087999485 -0.9712575145
17400195600.0 -0.2209637131 -0.968676453
17450195300.0 -0.2341098965 -0.9661420623
17500195000.0 -0.2475758647 -0.9625587128
17550194700.0 -0.2613695193 -0.9591135897
17600194400.0 -0.2749243943 -0.9551351098
17650194100.0 -0.2888422334 -0.9508502124
17700193800.0 -0.3022946986 -0.9464632094
17750193500.0 -0.3164958997 -0.9420184592
17800193200.0 -0.330885321 -0.936876658
17850192900.0 -0.3463160087 -0.9315139352
17900192600.0 -0.3610314249 -0.9253612587
17950192300.0 -0.3765939689 -0.9181375353
18000192000.0 -0.3915414301 -0.9110908844
18050191700.0 -0.4055644141 -0.903388109
18100191400.0 -0.4196650621 -0.8956322621
18150191100.0 -0.4346377625 -0.8875776855
18200190800.0 -0.4514845116 -0.8783901834
18250190500.0 -0.4685492421 -0.8689354639
18300190200.0 -0.483850138 -0.8603414925
18350189900.0 -0.4989117583 -0.8518744783
18400189600.0 -0.5138625389 -0.8433008237
18450189300.0 -0.5270277068 -0.8358766405
18500189000.0 -0.5400900744 -0.8276998836
18550188700.0 -0.5526609356 -0.8206194282
18600188400.0 -0.5641410207 -0.8136574951
18650188100.0 -0.5755414963 -0.8068025582
18700187800.0 -0.5861993849 -0.8008482057
18750187500.0 -0.5970575165 -0.7938071297
18800187200.0 -0.6074537029 -0.7869413218
18850186900.0 -0.6177386019 -0.7799340907
18900186600.0 -0.6280655423 -0.7726849347
18950186300.0 -0.6380504339 -0.7650219646
19000186000.0 -0.6452923461 -0.7585304116
19050185700.0 -0.6543335271 -0.7516146532
19100185400.0 -0.6644767985 -0.7433838016
19150185100.0 -0.6745420962 -0.7349458768
19200184800.0 -0.6837371037 -0.7265962312
19250184500.0 -0.6939483217 -0.7174804233
19300184200.0 -0.7053515241 -0.7076649437
19350183900.0 -0.7157469108 -0.6980522646
19400183600.0 -0.7260613389 -0.6881238906
19450183300.0 -0.7347180481 -0.6783359463
19500183000.0 -0.7433058318 -0.6678346324
19550182700.0 -0.7528457277 -0.656901185
19600182400.0 -0.7632268847 -0.6454286647
19650182100.0 -0.7741970363 -0.6330690967
19700181800.0 -0.7846073325 -0.6198263458
19750181500.0 -0.7953983741 -0.6057718437
19800181200.0 -0.8059239236 -0.5908677535
19850180900.0 -0.8155719466 -0.5751019442
19900180600.0 -0.823440007 -0.5606912722
19950180300.0 -0.8327982726 -0.5445893044
20000180000.0 -0.8259337821 -0.5468893978
20050179700.0 -0.8336114372 -0.5343099436
20100179400.0 -0.8422218813 -0.5203361534
20150179100.0 -0.8496837862 -0.5081949828
20200178800.0 -0.8586518444 -0.4957151425
20250178500.0 -0.8687680057 -0.4819658485
20300178200.0 -0.8787174358 -0.4673639682
20350177900.0 -0.886920966 -0.4536683795
20400177600.0 -0.8960652363 -0.4388136063
20450177300.0 -0.9044104849 -0.4244675165
20500177000.0 -0.9123394671 -0.4107430333
20550176700.0 -0.9202551413 -0.397090865
20600176400.0 -0.9272646319 -0.3839748777
20650176100.0 -0.9341002441 -0.3716805723
20700175800.0 -0.9409362024 -0.3597239293
20750175500.0 -0.9470668014 -0.3482700869
20800175200.0 -0.9518153766 -0.3367150183
20850174900.0 -0.9567228536 -0.326760554
20900174600.0 -0.9608797984 -0.3153008004
20950174300.0 -0.9645335458 -0.3038012444
21000174000.0 -0.9683014217 -0.2932816034
21050173700.0 -0.9701597507 -0.2818359131
21100173400.0 -0.9750845599 -0.2704209565
21150173100.0 -0.9781554844 -0.2578463223
21200172800.0 -0.9825791097 -0.2442525427
21250172500.0 -0.9852917848 -0.2304330421
21300172200.0 -0.9886264368 -0.2164387561
21350171900.0 -0.9899514409 -0.2017882504
21400171600.0 -0.9919153361 -0.1878905614
21450171300.0 -0.9925914578 -0.1725052819
21500171000.0 -0.991625946 -0.1574689262
21550170700.0 -0.9919888324 -0.1435502888
21600170400.0 -0.9923689552 -0.1267621616
21650170100.0 -0.9916729472 -0.1114402818
21700169800.0 -0.9903010875 -0.0956521931
21750169500.0 -0.9895939913 -0.0793598027
21800169200.0 -0.9882523654 -0.0631794535
21850168900.0 -0.9881108252 -0.0471411742
21900168600.0 -0.9864627083 -0.0306964455
21950168300.0 -0.9854757641 -0.0146080534
22000168000.0 -0.9846044475 0.0004713712
22050167700.0 -0.9845832067 0.0146123585
22100167400.0 -0.9847054473 0.0298646583
22150167100.0 -0.9855960421 0.0456341112
22200166800.0 -0.9856976296 0.0617679502
22250166500.0 -0.9846692677 0.0786648035
22300166200.0 -0.9849544606 0.0952769672
22350165900.0 -0.9828479494 0.1120170042
22400165600.0 -0.9810740233 0.1280356751
22450165300.0 -0.9792525669 0.1424251383
22500165000.0 -0.9777080015 0.1570255962
22550164700.0 -0.9766943938 0.1721769917
22600164400.0 -0.9750279478 0.1874021966
22650164100.0 -0.9721231384 0.203332019
22700163800.0 -0.9697912729 0.2179829722
22750163500.0 -0.9673448195 0.2330526127
22800163200.0 -0.9643733015 0.2467262952
22850162900.0 -0.9619057414 0.2601552383
22900162600.0 -0.9602668191 0.2732580077
22950162300.0 -0.9588984464 0.2865121886
23000162000.0 -0.9584139669 0.298060807
23050161700.0 -0.9563306156 0.3111971067
23100161400.0 -0.9535569923 0.3237022402
23150161100.0 -0.9506184357 0.3363927361
23200160800.0 -0.9480270355 0.3493501882
23250160500.0 -0.9458488991 0.3603966842
23300160200.0 -0.9424023667 0.3728770859
23350159900.0 -0.9381945444 0.3854554186
23400159600.0 -0.9340946588 0.3991992101
23450159300.0 -0.9294728618 0.4127728344
23500159000.0 -0.9243895431 0.4257593638
23550158700.0 -0.9207289004 0.4390397407
23600158400.0 -0.9151026733 0.4524693433
23650158100.0 -0.9084502534 0.4666517378
23700157800.0 -0.900918604 0.480473067
23750157500.0 -0.8920602985 0.494290825
23800157200.0 -0.882807487 0.5077353334
23850156900.0 -0.8745171557 0.5204325203
23900156600.0 -0.8648801213 0.5331665633
23950156300.0 -0.8557150295 0.5462636831
24000156000.0 -0.8464673336 0.5579080644
24050155700.0 -0.8369574065 0.5694456026
24100155400.0 -0.8267682427 0.5816935514
24150155100.0 -0.8163778823 0.5932934495
24200154800.0 -0.8051339314 0.6047661153
24250154500.0 -0.7936919535 0.6164769689
24300154200.0 -0.7827361143 0.6283122178
24350153900.0 -0.7706823647 0.6388621443
24400153600.0 -0.7583244448 0.6491891616
24450153300.0 -0.7466084216 0.6588986451
24500153000.0 -0.7352367478 0.6683079189
24550152700.0 -0.7239700776 0.6784209524
24600152400.0 -0.7123824474 0.6875243355
24650152100.0 -0.700375877 0.6964451727
