!Created with skrf (http://scikit-rf.org).
# Hz S RI R 50.0 
!freq ReS11 ImS11
300000.0 -0.9773510487 -0.1128233811
50299700.0 -0.9999187737 0.0156519236
100299400.0 -0.9980475376 0.02850959
150299100.0 -1.002709432 0.0454553633
200298800.0 -0.9997366717 0.0587727337
250298500.0 -0.9974044938 0.0722654923
300298200.0 -0.986227792 0.0882051578
350297900.0 -0.9942075959 0.098977953
400297600.0 -0.9931637396 0.11578133
450297300.0 -0.9911891525 0.1294742623
500297000.0 -0.9895183129 0.1441720256
550296700.0 -0.9845526152 0.1564935382
600296400.0 -1.017621154 0.1899833325
650296100.0 -0.9822817286 0.1864865242
700295800.0 -0.97958917 0.2010154749
750295500.0 -0.9765651947 0.214892352
800295200.0 -0.9729459795 0.2290711923
850294900.0 -0.9696471667 0.2429680231
900294600.0 -0.9657751184 0.2565421017
950294300.0 -0.9621039371 0.2704002492
1000294000.0 -0.9580151829 0.2841939763
1050293700.0 -0.9535094837 0.2980498975
1100293400.0 -0.9492649411 0.3124084355
1150293100.0 -0.945364256 0.3242735074
1200292800.0 -0.9402472749 0.3388119696
1250292500.0 -0.9345704862 0.3519623316
1300292200.0 -0.9287348999 0.3653089782
1350291900.0 -0.9233105501 0.3792421194
1400291600.0 -0.9178835109 0.3924150697
1450291300.0 -0.9124846203 0.4048811989
1500291000.0 -0.9059170219 0.418168512
1550290700.0 -0.8996151079 0.4315961067
1600290400.0 -0.8931753673 0.4445143423
1650290100.0 -0.8867388093 0.4565368445
1700289800.0 -0.8797195507 0.4700226281
1750289500.0 -0.8727912802 0.4821929985
1800289200.0 -0.8654588533 0.4951159336
1850288900.0 -0.8585630343 0.5065835583
1900288600.0 -0.8507243401 0.5195151521
1950288300.0 -0.8426134454 0.5322379399
2000288000.0 -0.8352150829 0.5435050277
2050287700.0 -0.8268887967 0.5559850681
2100287400.0 -0.8189661996 0.567564302
2150287100.0 -0.810376636 0.5795952852
2200286800.0 -0.802786879 0.5900715822
2250286500.0 -0.7936955504 0.6018731621
2300286200.0 -0.7848703854 0.6135308104
2350285900.0 -0.7761482479 0.6247958014
2400285600.0 -0.7671274476 0.6356494159
2450285300.0 -0.7585798713 0.645875961
2500285000.0 -0.7488222444 0.6572909846
2550284700.0 -0.7398690137 0.6676226212
2600284400.0 -0.7305330899 0.6777192742
2650284100.0 -0.7215292696 0.6881402486
2700283800.0 -0.71108208 0.6989442434
2750283500.0 -0.700370906 0.7093904323
2800283200.0 -0.6908888607 0.719135118
2850282900.0 -0.6806513393 0.7289719227
2900282600.0 -0.670162217 0.738446481
2950282300.0 -0.6600815316 0.7476166485
3000282000.0 -0.6495715636 0.757073512
3050281700.0 -0.6382274778 0.7663958897
3100281400.0 -0.6260839017 0.7758112156
3150281100.0 -0.6143981695 0.7851175552
3200280800.0 -0.6027611699 0.7937585934
3250280500.0 -0.5918731728 0.8014472558
3300280200.0 -0.5806803205 0.8093115704
3350279900.0 -0.5691790311 0.8165917245
3400279600.0 -0.5571337603 0.8245545864
3450279300.0 -0.5458986071 0.8312984263
3500279000.0 -0.5338678189 0.8386866708
3550278700.0 -0.5215968662 0.8458966617
3600278400.0 -0.5094016083 0.8531296544
3650278100.0 -0.4958581805 0.8606432168
3700277800.0 -0.4838708387 0.8671407737
3750277500.0 -0.4716509229 0.8736904543
3800277200.0 -0.459322762 0.8802613501
3850276900.0 -0.4470988133 0.8860776482
3900276600.0 -0.4365418287 0.8915520407
3950276300.0 -0.4237459545 0.8977418556
4000276000.0 -0.4118364867 0.9037918067
4050275700.0 -0.3990608114 0.9096931983
4100275400.0 -0.3877262383 0.9152457876
4150275100.0 -0.3747724131 0.921050766
4200274800.0 -0.3621501522 0.9264760493
4250274500.0 -0.349852706 0.9317378857
4300274200.0 -0.3369548722 0.9367674439
4350273900.0 -0.3231448355 0.9420494094
4400273600.0 -0.3080597909 0.9475477944
4450273300.0 -0.2926850301 0.9525777411
4500273000.0 -0.2789345022 0.9570570401
4550272700.0 -0.2647950548 0.9610230853
4600272400.0 -0.2493388649 0.9653534435
4650272100.0 -0.2376788617 0.9684736907
4700271800.0 -0.2244144712 0.9717277173
4750271500.0 -0.2127885217 0.9746695316
4800271200.0 -0.2002510902 0.9774578546
4850270900.0 -0.1864396248 0.9801048916
4900270600.0 -0.1723396343 0.9826797724
4950270300.0 -0.1580003705 0.9852960311
5000270000.0 -0.143960643 0.9871287215
5050269700.0 -0.1305627949 0.9889018715
5100269400.0 -0.1170058065 0.9907127271
5150269100.0 -0.1037259005 0.9920824694
5200268800.0 -0.0902303082 0.9931396232
5250268500.0 -0.0773349438 0.994291215
5300268200.0 -0.0641678404 0.9951000374
5350267900.0 -0.051969255 0.995511152
5400267600.0 -0.0358395313 0.996511003
5450267300.0 -0.0226918131 0.9968567902
5500267000.0 -0.0075908248 0.996999495
5550266700.0 0.0075138738 0.9973089078
5600266400.0 0.023047508 0.9972391848
5650266100.0 0.0398499671 0.9970432752
5700265800.0 0.0543472668 0.9961846947
5750265500.0 0.0692835867 0.9951342674
5800265200.0 0.0835289465 0.994310294
5850264900.0 0.0966506314 0.9937239537
5900264600.0 0.1126962552 0.9911900787
5950264300.0 0.1253244803 0.9901880933
6000264000.0 0.1392591055 0.9882452576
6050263700.0 0.1517408001 0.9866357564
6100263400.0 0.164131305 0.9847570133
6150263100.0 0.1786294984 0.9825931121
6200262800.0 0.1893491095 0.9805398343
6250262500.0 0.2018310382 0.978310851
6300262200.0 0.2146516818 0.9755639829
6350261900.0 0.2275069261 0.9726405541
6400261600.0 0.2415957394 0.9693858732
6450261300.0 0.2530396346 0.9667144415
6500261000.0 0.2658348695 0.9632198806
6550260700.0 0.2786598974 0.9592637969
6600260400.0 0.2920351874 0.9550466585
6650260100.0 0.3060622472 0.9506051368
6700259800.0 0.3181760196 0.9466301478
6750259500.0 0.3317699012 0.9413496287
6800259200.0 0.3444686518 0.9362831725
6850258900.0 0.3570409586 0.9314582434
6900258600.0 0.3690577504 0.9264864527
6950258300.0 0.3814938117 0.9208668734
7000258000.0 0.3935276863 0.9155569424
7050257700.0 0.4058341215 0.9095810694
7100257400.0 0.4184704113 0.9032049864
7150257100.0 0.4286602129 0.8980456895
7200256800.0 0.4416176983 0.8915434312
7250256500.0 0.4536076861 0.8852215908
7300256200.0 0.466512848 0.8784976875
7350255900.0 0.4789576544 0.8716889648
7400255600.0 0.4924087629 0.8644287973
7450255300.0 0.5080682719 0.8552416077
7500255000.0 0.5192443312 0.8481081232
7550254700.0 0.533168066 0.8395766042
7600254400.0 0.5458893088 0.831163977
7650254100.0 0.5572486325 0.8231199179
7700253800.0 0.569107903 0.8154467928
7750253500.0 0.5805177172 0.8077777194
7800253200.0 0.5912348346 0.7999517988
7850252900.0 0.6008735095 0.7926296914
7900252600.0 0.6124111619 0.7839962433
7950252300.0 0.6213270742 0.7775702784
8000252000.0 0.6315538986 0.7699725306
8050251700.0 0.6419530628 0.7617456228
8100251400.0 0.6520699512 0.7535049135
8150251100.0 0.6621949353 0.7447605231
8200250800.0 0.6714629366 0.7368432524
8250250500.0 0.6802876295 0.7291609669
8300250200.0 0.6893789439 0.720300573
8350249900.0 0.6984793019 0.7116524893
8400249600.0 0.706844861 0.7036612337
8450249300.0 0.7162023771 0.6943331275
8500249000.0 0.7245205813 0.6855277059
8550248700.0 0.7329625011 0.67669447
8600248400.0 0.7412159452 0.6672271863
8650248100.0 0.7489934182 0.6579258618
8700247800.0 0.7583450738 0.6466305369
8750247500.0 0.766927767 0.6363094431
8800247200.0 0.7749407644 0.6259272181
8850246900.0 0.7836877223 0.6146114449
8900246600.0 0.7921810719 0.6033120759
8950246300.0 0.8018696523 0.5901974667
9000246000.0 0.8114939403 0.5770095057
9050245700.0 0.8201521953 0.5647855648
9100245400.0 0.8289752652 0.5517558916
9150245100.0 0.8379650782 0.5383739998
9200244800.0 0.8479136561 0.5230681181
9250244500.0 0.8576088915 0.5071034071
9300244200.0 0.8660533911 0.4925422277
9350243900.0 0.8737304343 0.4789188627
9400243600.0 0.8802062903 0.4665041704
9450243300.0 0.886162001 0.4548004727
9500243000.0 0.892064575 0.4427146126
9550242700.0 0.8961070211 0.4349203048
9600242400.0 0.9001144921 0.4275532886
9650242100.0 0.9035982292 0.4212672556
9700241800.0 0.9080547639 0.4130305517
9750241500.0 0.9123044291 0.40561034
9800241200.0 0.9167814622 0.3964230497
9850240900.0 0.9222002592 0.3849349156
9900240600.0 0.928457494 0.3728775361
9950240300.0 0.9347541383 0.356874166
10000240000.0 0.9394156749 0.3452572873
10050239700.0 0.94511913 0.3299258771
10100239400.0 0.9500988987 0.3145278499
10150239100.0 0.9541635851 0.2998865519
10200238800.0 0.9586208841 0.2848878004
10250238500.0 0.9619373532 0.2714610514
10300238200.0 0.9650936823 0.2577421452
10350237900.0 0.9675800617 0.2445877612
10400237600.0 0.9699763867 0.2315594957
10450237300.0 0.9728642844 0.2174752115
10500237000.0 0.9749542359 0.205483037
10550236700.0 0.9772760199 0.1917312285
10600236400.0 0.9793345946 0.1775642595
10650236100.0 0.9817467107 0.1630017528
10700235800.0 0.9838248596 0.1506323899
10750235500.0 0.9854130813 0.1378957826
10800235200.0 0.98761031 0.1233830127
10850234900.0 0.9898529259 0.1088097497
10900234600.0 0.9917391234 0.0943628621
10950234300.0 0.9936495191 0.0811240841
11000234000.0 0.9953085003 0.0661944463
11050233700.0 0.9969856602 0.0498070432
11100233400.0 0.9985186833 0.0320780493
11150233100.0 0.9995290287 0.0158897565
11200232800.0 1.00054646 0.0001082426
11250232500.0 1.001933192 -0.0159696357
11300232200.0 1.00123777 -0.0338879716
11350231900.0 1.001540286 -0.0490260602
11400231600.0 1.002057394 -0.0656690978
11450231300.0 1.001215062 -0.0804683495
11500231000.0 1.000402558 -0.0966769888
11550230700.0 0.998746468 -0.1104405225
11600230400.0 0.9969597692 -0.1231584859
11650230100.0 0.994928439 -0.134831085
11700229800.0 0.9933208666 -0.149137724
11750229500.0 0.9906015312 -0.1636471886
11800229200.0 0.9881177409 -0.1775129637
11850228900.0 0.9842715546 -0.1897596722
11900228600.0 0.9809980371 -0.1996436896
11950228300.0 0.9774342042 -0.2097077713
12000228000.0 0.9748077019 -0.2182483319
12050227700.0 0.9713725967 -0.2314109145
12100227400.0 0.9678808567 -0.2429140846
12150227100.0 0.9629201959 -0.2591269148
12200226800.0 0.9595861178 -0.2694998714
12250226500.0 0.9548771939 -0.2824260736
12300226200.0 0.9510830462 -0.2953958103
12350225900.0 0.946526994 -0.3093479241
12400225600.0 0.9414854145 -0.3214599498
12450225300.0 0.9373916046 -0.33436774
12500225000.0 0.9318694243 -0.349098601
12550224700.0 0.9266608758 -0.3626241595
12600224400.0 0.9216680885 -0.3758865649
12650224100.0 0.9159700692 -0.3902724214
12700223800.0 0.9107180588 -0.4028928596
12750223500.0 0.9052907383 -0.4158910531
12800223200.0 0.8998777889 -0.4285049255
12850222900.0 0.8946184138 -0.440250729
12900222600.0 0.8887591926 -0.4523206495
12950222300.0 0.8827924905 -0.4653756173
13000222000.0 0.8765369158 -0.476717521
13050221700.0 0.8699841671 -0.489536126
13100221400.0 0.8631465624 -0.5014483432
13150221100.0 0.8561462945 -0.5143378173
13200220800.0 0.8492048407 -0.5251544077
13250220500.0 0.8420292685 -0.5375202248
13300220200.0 0.834807781 -0.5484522958
13350219900.0 0.8265612081 -0.5603975384
13400219600.0 0.8180164418 -0.5727768061
13450219300.0 0.808739517 -0.5862570851
13500219000.0 0.7984020239 -0.5999887304
13550218700.0 0.7883690029 -0.6131671727
13600218400.0 0.7778089272 -0.625100378
13650218100.0 0.7685377687 -0.6361421513
13700217800.0 0.7578819361 -0.6485371899
13750217500.0 0.7472490122 -0.6597621435
13800217200.0 0.7365655021 -0.6718302954
13850216900.0 0.7249072892 -0.6827417831
13900216600.0 0.7146557519 -0.6932563513
13950216300.0 0.7037416171 -0.702354893
14000216000.0 0.6946515877 -0.7116339359
14050215700.0 0.6844731238 -0.7201357222
14100215400.0 0.674882308 -0.7290101743
14150215100.0 0.6657798291 -0.7371960005
14200214800.0 0.6563803612 -0.7460260573
14250214500.0 0.6460963146 -0.7551498623
14300214200.0 0.6356557281 -0.7644834536
14350213900.0 0.6245951792 -0.7741112622
14400213600.0 0.6127067328 -0.7837997649
14450213300.0 0.5996897856 -0.7940028783
14500213000.0 0.5864961584 -0.8039277926
14550212700.0 0.5744694909 -0.8131913096
14600212400.0 0.5612683207 -0.8218082985
14650212100.0 0.5489466815 -0.8309184277
14700211800.0 0.5346480111 -0.8403140125
14750211500.0 0.5224966045 -0.848587575
14800211200.0 0.5104006347 -0.8565796473
14850210900.0 0.4980170923 -0.8639143857
14900210600.0 0.4849207481 -0.8719056775
14950210300.0 0.4715881019 -0.8796166417
15000210000.0 0.4585052103 -0.8862802206
15050209700.0 0.4466197114 -0.8923467746
15100209400.0 0.4333615966 -0.8987337819
15150209100.0 0.4206463777 -0.9039322205
15200208800.0 0.4080438049 -0.909414953
15250208500.0 0.3970060064 -0.9134687241
15300208200.0 0.3854066193 -0.9185570322
15350207900.0 0.3721032956 -0.9236825457
15400207600.0 0.3565882587 -0.9275742383
15450207300.0 0.3418647349 -0.9329002409
15500207000.0 0.3280335982 -0.9379055335
15550206700.0 0.312790617 -0.942948891
15600206400.0 0.2962901106 -0.9478254459
15650206100.0 0.2807021595 -0.9519023498
15700205800.0 0.2668363446 -0.9554355115
15750205500.0 0.2524261291 -0.9591083234
15800205200.0 0.2380225104 -0.9626237869
15850204900.0 0.2234589186 -0.9660503404
15900204600.0 0.2085504977 -0.9696076946
15950204300.0 0.1944339522 -0.9724100368
16000204000.0 0.1805018981 -0.9754272516
16050203700.0 0.1657330285 -0.9782988764
16100203400.0 0.1510716608 -0.9801897206
16150203100.0 0.1365200562 -0.982816354
16200202800.0 0.1222469868 -0.9846943851
16250202500.0 0.107878742 -0.9859664207
16300202200.0 0.0927191094 -0.9881874941
16350201900.0 0.0778586209 -0.989421473
16400201600.0 0.0630385938 -0.9906246987
16450201300.0 0.0479927964 -0.9915164198
16500201000.0 0.0313671851 -0.9920876544
16550200700.0 0.0156922811 -0.9924950707
16600200400.0 -2.56736e-05 -0.9928569356
16650200100.0 -0.0163601046 -0.9927010172
16700199800.0 -0.0327832214 -0.9923573666
16750199500.0 -0.0512386945 -0.9917748806
16800199200.0 -0.0676196984 -0.990517425
16850198900.0 -0.0822984329 -0.989252452
16900198600.0 -0.09582976 -0.988477203
16950198300.0 -0.1098819596 -0.987148185
17000198000.0 -0.1225846841 -0.9859558545
17050197700.0 -0.1352073235 -0.9840506086
17100197400.0 -0.1481450192 -0.9820983298
17150197100.0 -0.1604903189 -0.9795157736
17200196800.0 -0.1730849639 -0.9779668028
17250196500.0 -0.1864482223 -0.9753642466
17300196200.0 -0.1986231163 -0.9731549347
17350195900.0 -0.2104782783 -0.9706682176
17400195600.0 -0.2228912046 -0.9682462749
17450195300.0 -0.2357575798 -0.9657900681
17500195000.0 -0.2494319026 -0.9621810746
17550194700.0 -0.2636851478 -0.9586841157
17600194400.0 -0.2769584818 -0.95454594
17650194100.0 -0.2906487904 -0.9502901521
17700193800.0 -0.3039931862 -0.9464246411
17750193500.0 -0.318253072 -0.9413193234
17800193200.0 -0.3330152497 -0.9366047836
17850192900.0 -0.3479731005 -0.9309913027
17900192600.0 -0.3632662454 -0.9251306743
17950192300.0 -0.3787177439 -0.9178276321
18000192000.0 -0.3930591572 -0.9105729212
18050191700.0 -0.4069281344 -0.9025985986
18100191400.0 -0.4212074785 -0.8948352355
18150191100.0 -0.436051021 -0.8867817422
18200190800.0 -0.4530336491 -0.8776102643
18250190500.0 -0.4699569805 -0.8678970576
18300190200.0 -0.4853562778 -0.8593503691
18350189900.0 -0.5001655498 -0.8508952435
18400189600.0 -0.5150803688 -0.8423536739
18450189300.0 -0.5282200357 -0.8344570513
18500189000.0 -0.5412445355 -0.8266850184
18550188700.0 -0.5538598483 -0.8192275626
18600188400.0 -0.5657162754 -0.8119579661
18650188100.0 -0.5765493041 -0.8058832109
18700187800.0 -0.5873682792 -0.7990778239
18750187500.0 -0.5980711733 -0.7925588762
18800187200.0 -0.6086329543 -0.7856148923
18850186900.0 -0.618935381 -0.7785361858
18900186600.0 -0.6292564653 -0.7712905637
18950186300.0 -0.639288089 -0.763641372
19000186000.0 -0.6465435109 -0.7573294539
19050185700.0 -0.6559135587 -0.7497261679
19100185400.0 -0.6655423565 -0.7418013673
19150185100.0 -0.6759240718 -0.7333523386
19200184800.0 -0.6852879589 -0.7253658828
19250184500.0 -0.6956431114 -0.7159739862
19300184200.0 -0.7071899355 -0.7068634769
19350183900.0 -0.7184261053 -0.6962291147
19400183600.0 -0.7280422017 -0.6865678261
19450183300.0 -0.7367859246 -0.6765626134
19500183000.0 -0.7442921158 -0.6669025007
19550182700.0 -0.7540293339 -0.6555154974
19600182400.0 -0.7652264144 -0.6440475865
19650182100.0 -0.7758755914 -0.6315413978
19700181800.0 -0.786101507 -0.618609479
19750181500.0 -0.7969085851 -0.6043494568
19800181200.0 -0.8071968113 -0.5893129069
19850180900.0 -0.8167863464 -0.5738583986
19900180600.0 -0.8245760724 -0.5593873261
19950180300.0 -0.8338666238 -0.5430664421
20000180000.0 -0.826959323 -0.5458851583
20050179700.0 -0.8346455433 -0.5327306234
20100179400.0 -0.8436428608 -0.5188347363
20150179100.0 -0.8510426062 -0.505796035
20200178800.0 -0.8602179563 -0.4935350703
20250178500.0 -0.8702179648 -0.479850369
20300178200.0 -0.8793213022 -0.4656556359
20350177900.0 -0.8879646472 -0.4513004065
20400177600.0 -0.8972401304 -0.4364836014
20450177300.0 -0.9053963089 -0.4218573107
20500177000.0 -0.9136757664 -0.4076446054
20550176700.0 -0.9212468299 -0.394119824
20600176400.0 -0.9286938185 -0.3813855817
20650176100.0 -0.9352342876 -0.368397396
20700175800.0 -0.9418572136 -0.3568592427
20750175500.0 -0.9486143878 -0.3459527887
20800175200.0 -0.9536141568 -0.3342598679
20850174900.0 -0.9571451057 -0.3238360507
20900174600.0 -0.9624507121 -0.3118750434
20950174300.0 -0.9664493382 -0.2999283003
21000174000.0 -0.9699458944 -0.289011474
21050173700.0 -0.9726604837 -0.2779508785
21100173400.0 -0.9768248637 -0.2663252555
21150173100.0 -0.9811111928 -0.2535700162
21200172800.0 -0.9850999572 -0.2398710145
21250172500.0 -0.9873934438 -0.2259793391
21300172200.0 -0.9906498871 -0.2118017479
21350171900.0 -0.9918662469 -0.1972995411
21400171600.0 -0.9934656903 -0.1827743302
21450171300.0 -0.9938266059 -0.1683308398
21500171000.0 -0.9937895808 -0.153458678
21550170700.0 -0.9934129191 -0.1383548523
21600170400.0 -0.9932057365 -0.1220254487
21650170100.0 -0.9925767675 -0.1058687466
21700169800.0 -0.9904095605 -0.0910241821
21750169500.0 -0.9891826359 -0.0757244641
21800169200.0 -0.9874439548 -0.0590967252
21850168900.0 -0.9868904839 -0.0427537652
21900168600.0 -0.9849908268 -0.0258973546
21950168300.0 -0.9843234139 -0.0104666141
22000168000.0 -0.9831203953 0.0046010816
22050167700.0 -0.9825020355 0.0191621333
22100167400.0 -0.9825284233 0.034349127
22150167100.0 -0.9836458651 0.0496131834
22200166800.0 -0.9834359986 0.0657799789
22250166500.0 -0.9832564643 0.0826873238
22300166200.0 -0.9819800196 0.1006560153
22350165900.0 -0.9812340792 0.1163058228
22400165600.0 -0.9796380883 0.1323774932
22450165300.0 -0.9778729258 0.1464288172
22500165000.0 -0.9764447421 0.1605893339
22550164700.0 -0.9749735143 0.1760162413
22600164400.0 -0.9729652214 0.1912232181
22650164100.0 -0.971102178 0.2070219034
22700163800.0 -0.9683289278 0.2220601097
22750163500.0 -0.9659257519 0.2373335622
22800163200.0 -0.9628925235 0.2509129946
22850162900.0 -0.960548087 0.2643160621
22900162600.0 -0.9592289647 0.2776143937
22950162300.0 -0.9578424406 0.290575621
23000162000.0 -0.9569884179 0.3020969938
23050161700.0 -0.9551885757 0.3143677969
23100161400.0 -0.9529328777 0.3273501212
23150161100.0 -0.949696727 0.3400177746
23200160800.0 -0.946695019 0.351599409
23250160500.0 -0.9441610093 0.3634556853
23300160200.0 -0.9418988295 0.3769522419
23350159900.0 -0.9381580414 0.3890932145
23400159600.0 -0.933157224 0.402333315
23450159300.0 -0.9282025993 0.4150867334
23500159000.0 -0.923340673 0.4285484299
23550158700.0 -0.9195754831 0.4417949623
23600158400.0 -0.9143183342 0.4545883074
23650158100.0 -0.907625833 0.4687888967
23700157800.0 -0.8998561291 0.4826548975
23750157500.0 -0.8913331453 0.4963293925
23800157200.0 -0.8825848908 0.5103025622
23850156900.0 -0.8739021728 0.5228053602
23900156600.0 -0.8645594311 0.5349542784
23950156300.0 -0.8549239908 0.5478111739
24000156000.0 -0.8461886296 0.5595488106
24050155700.0 -0.836551633 0.5710312815
24100155400.0 -0.8268359201 0.5830943898
24150155100.0 -0.8152088182 0.5959707064
24200154800.0 -0.8043107185 0.6063123696
24250154500.0 -0.7923969241 0.6181235647
24300154200.0 -0.781502032 0.6291361715
24350153900.0 -0.7695836502 0.6403867623
24400153600.0 -0.7572689861 0.6504648927
24450153300.0 -0.7453965685 0.6601161259
24500153000.0 -0.733988613 0.6701240814
24550152700.0 -0.7230286918 0.6797860013
24600152400.0 -0.7109734489 0.6884000625
24650152100.0 -0.6989727188 0.697038397
