!Created with skrf (http://scikit-rf.org).
# Hz S RI R 50.0 
!freq ReS11 ImS11
300000.0 -0.9785891107 -0.1069602574
50299700.0 -1.000064294 0.0161581171
100299400.0 -0.9980708026 0.028811386
150299100.0 -1.002868539 0.0456105797
200298800.0 -0.9994995056 0.0591221867
250298500.0 -0.9975379171 0.0726546057
300298200.0 -0.9860069291 0.0884916989
350297900.0 -0.9941633563 0.0994050377
400297600.0 -0.9931427207 0.116179524
450297300.0 -0.9912641247 0.1297507062
500297000.0 -0.9894030329 0.1443165357
550296700.0 -0.9845376643 0.1568801627
600296400.0 -1.017217987 0.190409942
650296100.0 -0.981790529 0.186894828
700295800.0 -0.9792553095 0.2011955794
750295500.0 -0.9763038967 0.2149087959
800295200.0 -0.9730184556 0.2293368084
850294900.0 -0.9695146099 0.2431557275
900294600.0 -0.9657251797 0.2568661667
950294300.0 -0.9619631592 0.27050889
1000294000.0 -0.9579661503 0.2846291172
1050293700.0 -0.9533007975 0.2982954413
1100293400.0 -0.9489419884 0.3126823545
1150293100.0 -0.9450814647 0.3245356642
1200292800.0 -0.9399806673 0.3389212878
1250292500.0 -0.9344297985 0.3521866694
1300292200.0 -0.9287930626 0.3656511569
1350291900.0 -0.9231376575 0.3796975838
1400291600.0 -0.9178387392 0.3926807097
1450291300.0 -0.9122967269 0.4050792953
1500291000.0 -0.9059029386 0.4184308368
1550290700.0 -0.8992496355 0.4318152628
1600290400.0 -0.8931247576 0.4447133323
1650290100.0 -0.886478278 0.4569135387
1700289800.0 -0.8796560498 0.4701571139
1750289500.0 -0.8724999019 0.482666338
1800289200.0 -0.8653067926 0.4955795779
1850288900.0 -0.8584297167 0.5067885765
1900288600.0 -0.8506237075 0.5199300884
1950288300.0 -0.842418062 0.5322923876
2000288000.0 -0.8349568219 0.5437356252
2050287700.0 -0.8267085726 0.5560714379
2100287400.0 -0.8187857913 0.5677547347
2150287100.0 -0.8101803721 0.5797343312
2200286800.0 -0.8027401641 0.5900914139
2250286500.0 -0.7935882399 0.6021968966
2300286200.0 -0.7845469104 0.6138147979
2350285900.0 -0.7758938124 0.6247958256
2400285600.0 -0.7668528639 0.6360010696
2450285300.0 -0.7583834101 0.6462751056
2500285000.0 -0.7484829527 0.6574793928
2550284700.0 -0.7396938133 0.6678693926
2600284400.0 -0.7302037024 0.6780118408
2650284100.0 -0.7210100427 0.6884713798
2700283800.0 -0.710421725 0.6990057583
2750283500.0 -0.7002488859 0.7095145276
2800283200.0 -0.6904754376 0.7194287573
2850282900.0 -0.6802255452 0.7291163562
2900282600.0 -0.6698743656 0.7387740601
2950282300.0 -0.659614749 0.747981291
3000282000.0 -0.6491301892 0.7575285076
3050281700.0 -0.6378655061 0.7664802324
3100281400.0 -0.6259925935 0.7761091777
3150281100.0 -0.6141188665 0.7853122476
3200280800.0 -0.6024538871 0.7939102673
3250280500.0 -0.5916881555 0.8014961911
3300280200.0 -0.580611586 0.8094144302
3350279900.0 -0.5690183544 0.8168559197
3400279600.0 -0.5570187977 0.824629607
3450279300.0 -0.5458128823 0.8316757267
3500279000.0 -0.5337996312 0.8389078844
3550278700.0 -0.5214381465 0.8462318839
3600278400.0 -0.5091824122 0.8534079608
3650278100.0 -0.4957460485 0.8608148103
3700277800.0 -0.4838295181 0.8673732519
3750277500.0 -0.471470223 0.8741086537
3800277200.0 -0.4588957018 0.8802192806
3850276900.0 -0.4468360279 0.8861733187
3900276600.0 -0.4361673963 0.8920026687
3950276300.0 -0.4234850235 0.8981290569
4000276000.0 -0.411283813 0.9041049825
4050275700.0 -0.3984066911 0.9100071906
4100275400.0 -0.3871665968 0.9153399544
4150275100.0 -0.3747469949 0.9210758298
4200274800.0 -0.3614921029 0.9268451924
4250274500.0 -0.3491656895 0.9317139117
4300274200.0 -0.3363106958 0.9370488587
4350273900.0 -0.3224780496 0.9422452753
4400273600.0 -0.3075511677 0.9475213299
4450273300.0 -0.2920410083 0.9526380987
4500273000.0 -0.2785408665 0.9569506225
4550272700.0 -0.2643058168 0.9610533141
4600272400.0 -0.2488785081 0.9652962849
4650272100.0 -0.2371024362 0.9686172624
4700271800.0 -0.2239448727 0.971971904
4750271500.0 -0.212276165 0.9746706843
4800271200.0 -0.1997794436 0.9773977501
4850270900.0 -0.1858281878 0.9802563055
4900270600.0 -0.171867758 0.9826459859
4950270300.0 -0.1577000042 0.9851532273
5000270000.0 -0.143416341 0.9872767781
5050269700.0 -0.130177037 0.9888985694
5100269400.0 -0.1166222191 0.9903906253
5150269100.0 -0.1031923327 0.9921872509
5200268800.0 -0.0898458942 0.993128408
5250268500.0 -0.0767772747 0.9941851112
5300268200.0 -0.0638537848 0.9951484464
5350267900.0 -0.0517129701 0.995543222
5400267600.0 -0.035556732 0.9966245808
5450267300.0 -0.0223785232 0.9966545658
5500267000.0 -0.0073602988 0.9971432505
5550266700.0 0.0077358246 0.9973272964
5600266400.0 0.0232941253 0.997312032
5650266100.0 0.0398583366 0.9969615708
5700265800.0 0.0544174236 0.9962032466
5750265500.0 0.0697078808 0.9954595951
5800265200.0 0.0836395674 0.9941410578
5850264900.0 0.0969017806 0.9931263573
5900264600.0 0.1134780994 0.9915946621
5950264300.0 0.1255923014 0.9901063175
6000264000.0 0.1393815156 0.9881754965
6050263700.0 0.1520771756 0.9865716348
6100263400.0 0.1644411109 0.9843494901
6150263100.0 0.1790368284 0.9822405196
6200262800.0 0.1895214781 0.98050841
6250262500.0 0.2022382099 0.9780542274
6300262200.0 0.2152988289 0.9752332029
6350261900.0 0.2283286673 0.9723276583
6400261600.0 0.2420691096 0.9688964539
6450261300.0 0.2532925746 0.9661402392
6500261000.0 0.2661493378 0.9626964797
6550260700.0 0.2791263123 0.9589262362
6600260400.0 0.2926055379 0.9546711692
6650260100.0 0.3062411736 0.9501916857
6700259800.0 0.3182136158 0.9459519167
6750259500.0 0.3323808845 0.9412193064
6800259200.0 0.3454153519 0.9364110011
6850258900.0 0.3572546412 0.9311618744
6900258600.0 0.3694201857 0.9262724023
6950258300.0 0.3819658668 0.9208568905
7000258000.0 0.3939736062 0.9154355874
7050257700.0 0.4061184179 0.9093486382
7100257400.0 0.4188297104 0.9029937086
7150257100.0 0.4290726248 0.8978659155
7200256800.0 0.4418142089 0.8913979338
7250256500.0 0.4538727222 0.8850833781
7300256200.0 0.4669113535 0.8783083014
7350255900.0 0.4790925648 0.8713495397
7400255600.0 0.4926753418 0.8643005048
7450255300.0 0.5080989739 0.8553840916
7500255000.0 0.5193160088 0.8481336241
7550254700.0 0.5331539817 0.8395181738
7600254400.0 0.545821815 0.8311386329
7650254100.0 0.5575128933 0.8232454272
7700253800.0 0.5693822889 0.8155200593
7750253500.0 0.5803922641 0.8074823734
7800253200.0 0.5912454749 0.7997941565
7850252900.0 0.6008650616 0.7925644426
7900252600.0 0.612572674 0.7838237813
7950252300.0 0.6216549082 0.777129871
8000252000.0 0.63152483 0.7694140047
8050251700.0 0.6421008046 0.7614841168
8100251400.0 0.6523933237 0.7531778389
8150251100.0 0.6622551596 0.7445372239
8200250800.0 0.6716470524 0.7365607375
8250250500.0 0.6807877371 0.728536304
8300250200.0 0.6898535802 0.7199611798
8350249900.0 0.698957407 0.7111441337
8400249600.0 0.7074516185 0.7031885077
8450249300.0 0.7164045114 0.6938566702
8500249000.0 0.7251252659 0.6851852464
8550248700.0 0.7332700362 0.6761469515
8600248400.0 0.7417993993 0.6666467653
8650248100.0 0.749300624 0.6572092457
8700247800.0 0.7589214901 0.6459354431
8750247500.0 0.7672044617 0.6359391257
8800247200.0 0.7753387857 0.625754301
8850246900.0 0.7841661045 0.6141379131
8900246600.0 0.7927149941 0.6029370112
8950246300.0 0.8020507293 0.5898293954
9000246000.0 0.8117538619 0.5773491212
9050245700.0 0.8203288269 0.5641168774
9100245400.0 0.8290880381 0.5516145316
9150245100.0 0.838428278 0.5381637822
9200244800.0 0.8484403654 0.5224459428
9250244500.0 0.8574953537 0.5071849407
9300244200.0 0.8659496288 0.4924050463
9350243900.0 0.8738641203 0.4786058696
9400243600.0 0.8803982572 0.4660828084
9450243300.0 0.8864454526 0.4541465777
9500243000.0 0.8926401564 0.441885833
9550242700.0 0.8962792468 0.434449995
9600242400.0 0.9003702416 0.4267709531
9650242100.0 0.903893291 0.420378599
9700241800.0 0.9087267852 0.4119593247
9750241500.0 0.9126183886 0.4045684548
9800241200.0 0.9173321834 0.3952712964
9850240900.0 0.922652595 0.3835428619
9900240600.0 0.9283164118 0.37188457
9950240300.0 0.9350705151 0.3558944156
10000240000.0 0.9393697619 0.3442661628
10050239700.0 0.9452119394 0.3286832639
10100239400.0 0.9498653474 0.3138203568
10150239100.0 0.9540331158 0.2991783182
10200238800.0 0.9583708178 0.2839293808
10250238500.0 0.9618774441 0.2708244064
10300238200.0 0.9649917511 0.2567764539
10350237900.0 0.9674885288 0.2437218336
10400237600.0 0.970208452 0.2307111886
10450237300.0 0.9727461924 0.2170965575
10500237000.0 0.975024774 0.2047957104
10550236700.0 0.9771594142 0.1911327869
10600236400.0 0.9793133322 0.1769885739
10650236100.0 0.9811470591 0.1632205693
10700235800.0 0.9836656883 0.1505251504
10750235500.0 0.985803035 0.1369036806
10800235200.0 0.9879468288 0.1235920165
10850234900.0 0.9895482056 0.1087580528
10900234600.0 0.9918862899 0.094302383
10950234300.0 0.9934560837 0.081027484
11000234000.0 0.9952438139 0.0659242627
11050233700.0 0.996968187 0.0495987679
11100233400.0 0.9981446054 0.0321436
11150233100.0 0.9994545568 0.0156885666
11200232800.0 0.9999260549 0.0010823257
11250232500.0 1.00078096 -0.0158485422
11300232200.0 1.00145922 -0.0332507796
11350231900.0 1.002008987 -0.0491263754
11400231600.0 1.001722196 -0.0657046294
11450231300.0 1.000616617 -0.0808868071
11500231000.0 0.9999749832 -0.0977328062
11550230700.0 0.9976520408 -0.1101398005
11600230400.0 0.9967059374 -0.1229284572
11650230100.0 0.9944195153 -0.1347548771
11700229800.0 0.9925612714 -0.1494199446
11750229500.0 0.9904462507 -0.1643319916
11800229200.0 0.9875231008 -0.1779993496
11850228900.0 0.9840526258 -0.1903279829
11900228600.0 0.9805335437 -0.2000723589
11950228300.0 0.9771269231 -0.2107297434
12000228000.0 0.9745779456 -0.2197364117
12050227700.0 0.9708195596 -0.2326298341
12100227400.0 0.9678121612 -0.2431873982
12150227100.0 0.9625650873 -0.2600772502
12200226800.0 0.9591986585 -0.2711252616
12250226500.0 0.9558825641 -0.2826495367
12300226200.0 0.9504491231 -0.2958563636
12350225900.0 0.9460001525 -0.3094076651
12400225600.0 0.9417317954 -0.3219318711
12450225300.0 0.9376368857 -0.3348343781
12500225000.0 0.9315759527 -0.3495811991
12550224700.0 0.9262691915 -0.3632199072
12600224400.0 0.9216053009 -0.3759744947
12650224100.0 0.9159079723 -0.3904097416
12700223800.0 0.9106255387 -0.4031687945
12750223500.0 0.9053266104 -0.4157874168
12800223200.0 0.9001584643 -0.4283187205
12850222900.0 0.8945103015 -0.4403369592
12900222600.0 0.888709973 -0.4528840206
12950222300.0 0.8826947012 -0.4654675205
13000222000.0 0.8765722291 -0.4774613509
13050221700.0 0.8696310878 -0.4894805587
13100221400.0 0.8629293051 -0.5023798421
13150221100.0 0.8560974416 -0.5140179227
13200220800.0 0.8490969645 -0.5259901544
13250220500.0 0.8418447855 -0.5378851125
13300220200.0 0.8340630487 -0.5490693995
13350219900.0 0.8261168818 -0.5609048816
13400219600.0 0.8175624135 -0.5730017457
13450219300.0 0.8082507917 -0.5865451072
13500219000.0 0.7980499021 -0.6005450617
13550218700.0 0.7874674521 -0.6134817158
13600218400.0 0.7771820956 -0.6260131588
13650218100.0 0.76808552 -0.6370892887
13700217800.0 0.7566240611 -0.6493118956
13750217500.0 0.7471879075 -0.6608472205
13800217200.0 0.7344960603 -0.6722453355
13850216900.0 0.7239216029 -0.6834568339
13900216600.0 0.7137639663 -0.6929148764
13950216300.0 0.7032228339 -0.7026130312
14000216000.0 0.6934948927 -0.7125491126
14050215700.0 0.6841945846 -0.7203202057
14100215400.0 0.6740712352 -0.7295464004
14150215100.0 0.6648287549 -0.7379156666
14200214800.0 0.6556622171 -0.7463944513
14250214500.0 0.6455949437 -0.7555849925
14300214200.0 0.6351834624 -0.7648700896
14350213900.0 0.624238705 -0.7743383289
14400213600.0 0.6122233859 -0.7841521017
14450213300.0 0.5996293949 -0.7941326021
14500213000.0 0.5861395166 -0.8037355762
14550212700.0 0.5735196254 -0.8132150204
14600212400.0 0.5613408317 -0.822470935
14650212100.0 0.5480913646 -0.8312956483
14700211800.0 0.5346397458 -0.8403943872
14750211500.0 0.5225665361 -0.8486548839
14800211200.0 0.5099091464 -0.8565314298
14850210900.0 0.497903244 -0.8640726651
14900210600.0 0.4844836096 -0.87197931
14950210300.0 0.4709803371 -0.8797561751
15000210000.0 0.4581703844 -0.8865197185
15050209700.0 0.4460153418 -0.8926078683
15100209400.0 0.4329045597 -0.8990283878
15150209100.0 0.4203786722 -0.9039786295
15200208800.0 0.407737492 -0.9100067605
15250208500.0 0.3958700399 -0.9143010436
15300208200.0 0.3829029866 -0.9190500335
15350207900.0 0.3700643877 -0.9237759241
15400207600.0 0.3559812026 -0.928653713
15450207300.0 0.3415592031 -0.9339122021
15500207000.0 0.3265893747 -0.938351424
15550206700.0 0.3115536429 -0.9436659868
15600206400.0 0.2953004777 -0.9481912346
15650206100.0 0.2795553913 -0.9524456944
15700205800.0 0.2659069247 -0.955910659
15750205500.0 0.2513851009 -0.9595865155
15800205200.0 0.2370038412 -0.9627870999
15850204900.0 0.22248816 -0.9662911222
15900204600.0 0.2077114686 -0.9698220976
15950204300.0 0.1935868204 -0.9726446577
16000204000.0 0.1796909031 -0.9755196825
16050203700.0 0.1646591263 -0.9782725362
16100203400.0 0.1508102115 -0.9804960068
16150203100.0 0.1357056191 -0.9827384534
16200202800.0 0.122309007 -0.9847646509
16250202500.0 0.1077700567 -0.9865069077
16300202200.0 0.0923854097 -0.9875837795
16350201900.0 0.077611619 -0.9892326485
16400201600.0 0.062700864 -0.9901083226
16450201300.0 0.0478789503 -0.9912405575
16500201000.0 0.0312532207 -0.9919967026
16550200700.0 0.0156271745 -0.9926122187
16600200400.0 -0.0001722046 -0.9926940692
16650200100.0 -0.016344457 -0.9925322616
16700199800.0 -0.0328215141 -0.9922479501
16750199500.0 -0.0520887512 -0.9913381471
16800199200.0 -0.0679819303 -0.9903621636
16850198900.0 -0.0838071495 -0.9891895814
16900198600.0 -0.097373171 -0.988392438
16950198300.0 -0.1098758308 -0.9873558022
17000198000.0 -0.1235424647 -0.9856637272
17050197700.0 -0.1356943986 -0.9839307187
17100197400.0 -0.1491236856 -0.9817006604
17150197100.0 -0.161709284 -0.979486179
17200196800.0 -0.1742197143 -0.9776472002
17250196500.0 -0.1872093253 -0.9751666561
17300196200.0 -0.1995372953 -0.9728938531
17350195900.0 -0.2113860239 -0.970667667
17400195600.0 -0.2235327788 -0.968283801
17450195300.0 -0.2367581938 -0.9654118887
17500195000.0 -0.2501695485 -0.9619564497
17550194700.0 -0.2639445038 -0.9583714769
17600194400.0 -0.2775792212 -0.9541800138
17650194100.0 -0.2914419541 -0.9501411645
17700193800.0 -0.3044015715 -0.9461494579
17750193500.0 -0.3187078723 -0.941285792
17800193200.0 -0.33364996 -0.9361970683
17850192900.0 -0.3481853387 -0.9310990867
17900192600.0 -0.3634116612 -0.9248374807
17950192300.0 -0.3788635427 -0.9177824661
18000192000.0 -0.3933428043 -0.9107889295
18050191700.0 -0.4073058625 -0.9025224066
18100191400.0 -0.4212392233 -0.8949031967
18150191100.0 -0.436188465 -0.886847554
18200190800.0 -0.4530104012 -0.8776488381
18250190500.0 -0.4699671905 -0.8681342423
18300190200.0 -0.4853759694 -0.8593659749
18350189900.0 -0.5006270439 -0.8513340268
18400189600.0 -0.5149959299 -0.842119246
18450189300.0 -0.5281865008 -0.8344184438
18500189000.0 -0.5414657222 -0.826112701
18550188700.0 -0.5540688283 -0.8190534795
18600188400.0 -0.5656992557 -0.8114552765
18650188100.0 -0.5768925589 -0.8051012508
18700187800.0 -0.5879626089 -0.7987055129
18750187500.0 -0.5987416918 -0.7922612922
18800187200.0 -0.609414654 -0.7849358644
18850186900.0 -0.6198132652 -0.7778230679
18900186600.0 -0.6301206466 -0.770476596
18950186300.0 -0.6401403199 -0.7626786132
19000186000.0 -0.647489475 -0.756226533
19050185700.0 -0.6574138093 -0.7490598985
19100185400.0 -0.666924707 -0.7405267305
19150185100.0 -0.6775676857 -0.7317970769
19200184800.0 -0.6868895449 -0.7240561413
19250184500.0 -0.6968890506 -0.714669132
19300184200.0 -0.7083484947 -0.7048646677
19350183900.0 -0.7194651876 -0.6949755718
19400183600.0 -0.7289730939 -0.6854662231
19450183300.0 -0.7379227518 -0.6748016527
19500183000.0 -0.7460470626 -0.6651366327
19550182700.0 -0.7555688911 -0.6543885264
19600182400.0 -0.7660244144 -0.6428919213
19650182100.0 -0.7768083984 -0.6304396428
19700181800.0 -0.7873943417 -0.6171046302
19750181500.0 -0.7975736367 -0.6031361738
19800181200.0 -0.8078473338 -0.5883154921
19850180900.0 -0.8174119914 -0.5730874364
19900180600.0 -0.8249984508 -0.5585626795
19950180300.0 -0.8340517439 -0.5425295599
20000180000.0 -0.826758158 -0.5445220782
20050179700.0 -0.8350303151 -0.532255601
20100179400.0 -0.8434345931 -0.5184918559
20150179100.0 -0.8519291036 -0.5052698999
20200178800.0 -0.8605725877 -0.4932243396
20250178500.0 -0.8699809755 -0.4796977295
20300178200.0 -0.879168586 -0.4644469784
20350177900.0 -0.8882125272 -0.4505081537
20400177600.0 -0.8969806863 -0.4360372773
20450177300.0 -0.9053614943 -0.4212927909
20500177000.0 -0.9131628316 -0.4076317092
20550176700.0 -0.921504884 -0.3939552255
20600176400.0 -0.9285611027 -0.380606697
20650176100.0 -0.935155222 -0.3683075199
20700175800.0 -0.9418305291 -0.3563806784
20750175500.0 -0.9480810135 -0.3445414267
20800175200.0 -0.9524232509 -0.3336939933
20850174900.0 -0.957723109 -0.3231363611
20900174600.0 -0.9626795966 -0.3110846833
20950174300.0 -0.9667441267 -0.2992380238
21000174000.0 -0.9699185964 -0.2876911611
21050173700.0 -0.973236423 -0.2759990802
21100173400.0 -0.9773302944 -0.2634917272
21150173100.0 -0.9812393479 -0.2515224468
21200172800.0 -0.9845314459 -0.2381418986
21250172500.0 -0.9876089407 -0.2243305656
21300172200.0 -0.9904285639 -0.2103417409
21350171900.0 -0.9920298723 -0.1954722025
21400171600.0 -0.9934026379 -0.1814212645
21450171300.0 -0.9941275575 -0.1674591591
21500171000.0 -0.9937461348 -0.1507603158
21550170700.0 -0.9932456737 -0.1363505257
21600170400.0 -0.9927184506 -0.1209965778
21650170100.0 -0.9916700447 -0.1042580168
21700169800.0 -0.9901519437 -0.0895262492
21750169500.0 -0.9890474168 -0.0738330766
21800169200.0 -0.9887060043 -0.0577808837
21850168900.0 -0.987344827 -0.0417448001
21900168600.0 -0.9858878765 -0.0249459169
21950168300.0 -0.984390485 -0.00933633
22000168000.0 -0.9831126204 0.0058689759
22050167700.0 -0.9828186052 0.0200939676
22100167400.0 -0.9825554983 0.0350989656
22150167100.0 -0.9832305653 0.0503549788
22200166800.0 -0.9837039851 0.067011294
22250166500.0 -0.9831230828 0.0837670217
22300166200.0 -0.9827338846 0.1001694854
22350165900.0 -0.9806318933 0.1175241008
22400165600.0 -0.9794484974 0.1331518542
22450165300.0 -0.9773619142 0.1471512993
22500165000.0 -0.9755078811 0.1607346193
22550164700.0 -0.974648202 0.1767221687
22600164400.0 -0.972908028 0.191960937
22650164100.0 -0.9703798749 0.2068323324
22700163800.0 -0.9669554923 0.2225457471
22750163500.0 -0.9645015778 0.237912639
22800163200.0 -0.9620254381 0.2514454572
22850162900.0 -0.9599642609 0.2650738756
22900162600.0 -0.9587091875 0.2782757009
22950162300.0 -0.9573014527 0.2911568503
23000162000.0 -0.9565244235 0.3029363537
23050161700.0 -0.9543567465 0.3150760589
23100161400.0 -0.951805021 0.3279627173
23150161100.0 -0.9489438907 0.3401594071
23200160800.0 -0.9466769477 0.3526084513
23250160500.0 -0.9437138199 0.3634796129
23300160200.0 -0.9410843399 0.3763117277
23350159900.0 -0.937063395 0.3890728964
23400159600.0 -0.9327101711 0.4019592931
23450159300.0 -0.9278308816 0.4156931825
23500159000.0 -0.9233997355 0.4285079393
23550158700.0 -0.9189535272 0.4414985384
23600158400.0 -0.9135568739 0.4544370524
23650158100.0 -0.9072626881 0.468522151
23700157800.0 -0.899407902 0.4825191227
23750157500.0 -0.8909836484 0.4963776838
23800157200.0 -0.8822670968 0.5093134274
23850156900.0 -0.8737114206 0.5224337087
23900156600.0 -0.8640980702 0.5348288917
23950156300.0 -0.8547472384 0.5472007719
24000156000.0 -0.8461433824 0.5589543294
24050155700.0 -0.8358421407 0.5707810955
24100155400.0 -0.8262350361 0.5831455916
24150155100.0 -0.8154561724 0.5943181761
24200154800.0 -0.8041301457 0.6062584212
24250154500.0 -0.7924664965 0.6170018349
24300154200.0 -0.7809658365 0.6292364916
24350153900.0 -0.7696930264 0.6395361139
24400153600.0 -0.7574666531 0.6498557455
24450153300.0 -0.7452677543 0.6601485965
24500153000.0 -0.7340006965 0.6694762302
24550152700.0 -0.7224497697 0.6788414289
24600152400.0 -0.7109467414 0.6891164203
24650152100.0 -0.699082937 0.6973727689
