!Created with skrf (http://scikit-rf.org).
# Hz S RI R 50.0 
!freq ReS11 ImS11
300000.0 -0.9744142442 -0.1223751797
50299700.0 -0.9999575173 0.0150518167
100299400.0 -0.998164398 0.0279362447
150299100.0 -1.002765432 0.0448092093
200298800.0 -0.9996953605 0.0580705553
250298500.0 -0.9974676056 0.0717132717
300298200.0 -0.985911984 0.0873155159
350297900.0 -0.9939651643 0.0983814412
400297600.0 -0.9931038579 0.1150043547
450297300.0 -0.9908564558 0.1287039559
500297000.0 -0.9892772787 0.1435082414
550296700.0 -0.9842157859 0.155910656
600296400.0 -1.017178528 0.1890323961
650296100.0 -0.9821223038 0.1857047704
700295800.0 -0.9791269749 0.1999703619
750295500.0 -0.9763959249 0.2140225236
800295200.0 -0.972893875 0.2281421661
850294900.0 -0.9696587635 0.2420079351
900294600.0 -0.9656893059 0.2557027567
950294300.0 -0.9621426149 0.2692403671
1000294000.0 -0.9581625791 0.2833008699
1050293700.0 -0.9535175592 0.2970988236
1100293400.0 -0.9493979266 0.3115224561
1150293100.0 -0.945533974 0.3234360138
1200292800.0 -0.9403194488 0.3377530651
1250292500.0 -0.9347646433 0.3511105235
1300292200.0 -0.9290262749 0.3643006439
1350291900.0 -0.9236090304 0.3785129257
1400291600.0 -0.9180102728 0.3915342568
1450291300.0 -0.9127748699 0.4041242377
1500291000.0 -0.9062624112 0.4173372031
1550290700.0 -0.8996267765 0.4307096144
1600290400.0 -0.8933457678 0.4436629371
1650290100.0 -0.8870514745 0.4556912149
1700289800.0 -0.8798485212 0.4689728654
1750289500.0 -0.8731792687 0.4817079289
1800289200.0 -0.8655566712 0.4945063151
1850288900.0 -0.8588295765 0.5056312339
1900288600.0 -0.851178841 0.5188624544
1950288300.0 -0.8428412217 0.5313071946
2000288000.0 -0.8355377114 0.5428822246
2050287700.0 -0.8272486687 0.5550907144
2100287400.0 -0.8194717199 0.5665317676
2150287100.0 -0.8108425042 0.5785913191
2200286800.0 -0.8031329859 0.5890110493
2250286500.0 -0.7939412107 0.6013710996
2300286200.0 -0.7851357972 0.6130072497
2350285900.0 -0.7769733332 0.6234662717
2400285600.0 -0.7679680094 0.6343143008
2450285300.0 -0.7592909456 0.6451905006
2500285000.0 -0.7491044562 0.6568102623
2550284700.0 -0.7401211167 0.6668565073
2600284400.0 -0.7310998237 0.6768574728
2650284100.0 -0.7225085909 0.6872130956
2700283800.0 -0.7119662345 0.697358345
2750283500.0 -0.7016687141 0.7083009843
2800283200.0 -0.6918204613 0.7178631117
2850282900.0 -0.6811774597 0.7280692529
2900282600.0 -0.6706644284 0.7380120023
2950282300.0 -0.6603925233 0.747209222
3000282000.0 -0.6495749158 0.7566666179
3050281700.0 -0.638424588 0.7659545474
3100281400.0 -0.6267912456 0.7750158799
3150281100.0 -0.6156835599 0.7838488986
3200280800.0 -0.6041716887 0.7923985835
3250280500.0 -0.5929931303 0.8001782456
3300280200.0 -0.5815008475 0.8083202614
3350279900.0 -0.5692408179 0.8165106456
3400279600.0 -0.5566264464 0.824538644
3450279300.0 -0.5457967027 0.8316744031
3500279000.0 -0.5335981235 0.8384407753
3550278700.0 -0.5216823484 0.8455093126
3600278400.0 -0.5098741573 0.8523699024
3650278100.0 -0.4969708623 0.8600468892
3700277800.0 -0.4849382731 0.8663999983
3750277500.0 -0.4723662386 0.8733723725
3800277200.0 -0.4597854933 0.8797557029
3850276900.0 -0.4478689086 0.8855002533
3900276600.0 -0.4368752938 0.8914052477
3950276300.0 -0.4247964367 0.8974241526
4000276000.0 -0.4131858854 0.9032355493
4050275700.0 -0.4002278818 0.9092707871
4100275400.0 -0.3893499924 0.9144252348
4150275100.0 -0.3761174202 0.9206504535
4200274800.0 -0.3627621374 0.9258916523
4250274500.0 -0.3499324456 0.9314494937
4300274200.0 -0.3367851119 0.936528817
4350273900.0 -0.322676291 0.9423247492
4400273600.0 -0.307916471 0.9471858132
4450273300.0 -0.2929304996 0.9522531653
4500273000.0 -0.2797140061 0.9562920025
4550272700.0 -0.2661440478 0.9606507827
4600272400.0 -0.2511115662 0.9646361596
4650272100.0 -0.239711065 0.9677953457
4700271800.0 -0.2268068502 0.9712602775
4750271500.0 -0.2151918844 0.9740810682
4800271200.0 -0.2028248328 0.9766565796
4850270900.0 -0.1891743797 0.9795383814
4900270600.0 -0.1753873898 0.9817995388
4950270300.0 -0.1607865866 0.9846710003
5000270000.0 -0.1462460738 0.9867123526
5050269700.0 -0.1328305578 0.9883001411
5100269400.0 -0.118559975 0.9897800462
5150269100.0 -0.1047127352 0.9917232594
5200268800.0 -0.0913010782 0.9926764263
5250268500.0 -0.0782445515 0.994023714
5300268200.0 -0.0644920399 0.9945400579
5350267900.0 -0.0516443914 0.995168167
5400267600.0 -0.0358318472 0.9962474401
5450267300.0 -0.0221726908 0.9967755021
5500267000.0 -0.0069255376 0.9969585575
5550266700.0 0.0080517624 0.9973179122
5600266400.0 0.0238241433 0.9971436115
5650266100.0 0.0403929493 0.9968961454
5700265800.0 0.0548117262 0.9961129196
5750265500.0 0.0698377551 0.9951730737
5800265200.0 0.0828355039 0.9938319417
5850264900.0 0.0963015875 0.9934121206
5900264600.0 0.1130217623 0.9914755824
5950264300.0 0.1244328702 0.9896751291
6000264000.0 0.1379852419 0.9880873063
6050263700.0 0.1496319465 0.9869944075
6100263400.0 0.1618631742 0.98503405
6150263100.0 0.1765399736 0.9826487843
6200262800.0 0.1861327425 0.9810470701
6250262500.0 0.1985986696 0.9787809138
6300262200.0 0.2108729034 0.9761467757
6350261900.0 0.2239503707 0.9733835551
6400261600.0 0.2376820369 0.9704000902
6450261300.0 0.2487482962 0.9678039698
6500261000.0 0.2620370615 0.9640391652
6550260700.0 0.2749981696 0.9601105453
6600260400.0 0.2886241491 0.9560055144
6650260100.0 0.3027130483 0.9519112628
6700259800.0 0.3144111768 0.9470461979
6750259500.0 0.3286760776 0.94256064
6800259200.0 0.3421553895 0.9373773248
6850258900.0 0.3549493958 0.9319551715
6900258600.0 0.3668818423 0.9269850916
6950258300.0 0.3798657365 0.9215439504
7000258000.0 0.3913575865 0.9162522183
7050257700.0 0.4032026003 0.9105017258
7100257400.0 0.4166097684 0.9040664525
7150257100.0 0.4273062631 0.8986423486
7200256800.0 0.4402000769 0.8921585053
7250256500.0 0.4530560655 0.8855412802
7300256200.0 0.4659279922 0.8789775843
7350255900.0 0.4785352725 0.8715817688
7400255600.0 0.493344575 0.8640609571
7450255300.0 0.5087316071 0.8552464722
7500255000.0 0.5213415734 0.8476288701
7550254700.0 0.5351484094 0.8382804936
7600254400.0 0.5475573495 0.8300161814
7650254100.0 0.5591085553 0.8221426666
7700253800.0 0.5711455243 0.8141229847
7750253500.0 0.5816747179 0.8065690306
7800253200.0 0.5924322008 0.7985376862
7850252900.0 0.6022995849 0.7914560104
7900252600.0 0.6137452635 0.7828172871
7950252300.0 0.6223120254 0.7764324368
8000252000.0 0.6320006873 0.7689439035
8050251700.0 0.6422374841 0.7607787612
8100251400.0 0.6523633838 0.7526592039
8150251100.0 0.6624514661 0.7442336899
8200250800.0 0.6721660674 0.7359603212
8250250500.0 0.6803890486 0.7282246955
8300250200.0 0.6896693951 0.7197880443
8350249900.0 0.6985649762 0.7109043321
8400249600.0 0.7071254357 0.7030139305
8450249300.0 0.7159205011 0.6941402299
8500249000.0 0.7245313497 0.6853821993
8550248700.0 0.7326682423 0.6762782918
8600248400.0 0.7412125034 0.666931254
8650248100.0 0.7485719347 0.6573357998
8700247800.0 0.7579204059 0.6463381467
8750247500.0 0.7661656956 0.6364057172
8800247200.0 0.7741621684 0.6260211899
8850246900.0 0.7831481461 0.6145682755
8900246600.0 0.7915302326 0.6031727363
8950246300.0 0.8006812893 0.59035491
9000246000.0 0.8091308006 0.5783300226
9050245700.0 0.8175969026 0.5663157541
9100245400.0 0.825851426 0.5541111387
9150245100.0 0.8347939958 0.5412040084
9200244800.0 0.8441606654 0.5266976446
9250244500.0 0.8534482613 0.5119716551
9300244200.0 0.8614431284 0.4985709461
9350243900.0 0.8690740366 0.4853615911
9400243600.0 0.8758965145 0.4735707841
9450243300.0 0.8811460451 0.4629963717
9500243000.0 0.8875323672 0.4513546137
9550242700.0 0.891389261 0.4439812899
9600242400.0 0.8957620747 0.4362740414
9650242100.0 0.899854004 0.4293075568
9700241800.0 0.9047823916 0.4207558997
9750241500.0 0.9091248262 0.4130985799
9800241200.0 0.9138790133 0.4039366922
9850240900.0 0.9199424593 0.3921702726
9900240600.0 0.9259287782 0.3797815556
9950240300.0 0.9329111975 0.3632785513
10000240000.0 0.9378761963 0.3511351232
10050239700.0 0.9439144379 0.3352373064
10100239400.0 0.9493736172 0.3189125069
10150239100.0 0.9540502372 0.3033867919
10200238800.0 0.9583122994 0.2875781764
10250238500.0 0.9616708124 0.2742525423
10300238200.0 0.9645101206 0.2602728358
10350237900.0 0.9675603574 0.2466970914
10400237600.0 0.970091391 0.2332533572
10450237300.0 0.9726894441 0.2199554303
10500237000.0 0.9752276407 0.2074466135
10550236700.0 0.9771391388 0.1934808755
10600236400.0 0.9792881009 0.1794886806
10650236100.0 0.9818372104 0.1644887953
10700235800.0 0.9838301842 0.152468029
10750235500.0 0.9858787166 0.1390191204
10800235200.0 0.9881885926 0.124084696
10850234900.0 0.9899558731 0.1094338087
10900234600.0 0.9919858776 0.0948700118
10950234300.0 0.9935661733 0.0812752726
11000234000.0 0.9956734396 0.0657033328
11050233700.0 0.9973614464 0.0489722364
11100233400.0 0.9989088374 0.0311655383
11150233100.0 0.9998476603 0.0145233013
11200232800.0 1.000765467 -0.0008366889
11250232500.0 1.002016251 -0.0196606381
11300232200.0 1.002359775 -0.0380174512
11350231900.0 1.002456464 -0.0545916573
11400231600.0 1.002179161 -0.0704810423
11450231300.0 1.00089059 -0.0855462885
11500231000.0 0.9994208498 -0.1008736772
11550230700.0 0.998408211 -0.114941439
11600230400.0 0.9971545085 -0.127445332
11650230100.0 0.9946459228 -0.1395549599
11700229800.0 0.9924278323 -0.1546720461
11750229500.0 0.9903132261 -0.1683702899
11800229200.0 0.9870932281 -0.182016062
11850228900.0 0.9834232156 -0.1936157621
11900228600.0 0.9799628101 -0.2031933963
11950228300.0 0.976512279 -0.2129622189
12000228000.0 0.9736529446 -0.2215143352
12050227700.0 0.9701565592 -0.234567061
12100227400.0 0.9665993097 -0.2464107283
12150227100.0 0.9617783015 -0.2628610421
12200226800.0 0.958048872 -0.2728079996
12250226500.0 0.9535505159 -0.2865556473
12300226200.0 0.9498379554 -0.298370314
12350225900.0 0.9447119109 -0.311565457
12400225600.0 0.9407424708 -0.3243078062
12450225300.0 0.9357484664 -0.3368731008
12500225000.0 0.9304031363 -0.3518454548
12550224700.0 0.9248729362 -0.3655004229
12600224400.0 0.920080245 -0.3782051916
12650224100.0 0.9141674492 -0.3925344956
12700223800.0 0.9089317675 -0.4052875079
12750223500.0 0.9033694153 -0.418458701
12800223200.0 0.898077133 -0.4309897173
12850222900.0 0.892898092 -0.44309345
12900222600.0 0.8872160865 -0.4549065303
12950222300.0 0.880974126 -0.4679987539
13000222000.0 0.8751651888 -0.4795016042
13050221700.0 0.8682332306 -0.4921610121
13100221400.0 0.86126617 -0.5046308119
13150221100.0 0.8546699463 -0.5164240339
13200220800.0 0.8476362668 -0.528047113
13250220500.0 0.8403966293 -0.5404102731
13300220200.0 0.8326316322 -0.5512887523
13350219900.0 0.8248548375 -0.5631321257
13400219600.0 0.8160253567 -0.5753396539
13450219300.0 0.8070358641 -0.5881047224
13500219000.0 0.7971649831 -0.6010297963
13550218700.0 0.787406487 -0.6135075585
13600218400.0 0.7775978327 -0.6252172421
13650218100.0 0.7678595501 -0.6359550679
13700217800.0 0.7574620218 -0.6484409563
13750217500.0 0.7472515264 -0.6589146161
13800217200.0 0.7366787383 -0.6707364701
13850216900.0 0.7251639878 -0.6813478407
13900216600.0 0.7155822584 -0.6906459054
13950216300.0 0.7045769641 -0.7006940413
14000216000.0 0.6951370686 -0.7094300382
14050215700.0 0.6862412879 -0.7173960519
14100215400.0 0.6765164554 -0.7263996639
14150215100.0 0.6673977016 -0.7351072243
14200214800.0 0.6579180619 -0.7439821995
14250214500.0 0.6475895959 -0.7535676146
14300214200.0 0.6369838712 -0.7629065016
14350213900.0 0.626104175 -0.7727053531
14400213600.0 0.6142605189 -0.7822644322
14450213300.0 0.6012492568 -0.7924416409
14500213000.0 0.5879188568 -0.8021029374
14550212700.0 0.5759341433 -0.811852148
14600212400.0 0.5636366135 -0.8206488802
14650212100.0 0.550746187 -0.8293519446
14700211800.0 0.5367113917 -0.8388875936
14750211500.0 0.5246234647 -0.8472943073
14800211200.0 0.512109943 -0.8552168586
14850210900.0 0.4997635095 -0.863089674
14900210600.0 0.4866690477 -0.8712164816
14950210300.0 0.4733409885 -0.8786443338
15000210000.0 0.460558981 -0.8853852851
15050209700.0 0.4481687004 -0.8915410365
15100209400.0 0.4356689142 -0.8974426158
15150209100.0 0.422965284 -0.9029265763
15200208800.0 0.4108787237 -0.9084196569
15250208500.0 0.3999161093 -0.9130079181
15300208200.0 0.3874236147 -0.9171190849
15350207900.0 0.3738815906 -0.9218613146
15400207600.0 0.3596374175 -0.9275642234
15450207300.0 0.3444996776 -0.9324839872
15500207000.0 0.3304905083 -0.9375990713
15550206700.0 0.3158728446 -0.9422101253
15600206400.0 0.2995791112 -0.9466911074
15650206100.0 0.2836378032 -0.951046726
15700205800.0 0.2698925926 -0.954618846
15750205500.0 0.2563655507 -0.9580137154
15800205200.0 0.2422528484 -0.9613018317
15850204900.0 0.2282325742 -0.9646938177
15900204600.0 0.2130882738 -0.9684183373
15950204300.0 0.198771094 -0.9713726592
16000204000.0 0.1842388885 -0.9744109921
16050203700.0 0.1695067297 -0.9773174909
16100203400.0 0.1538970181 -0.9796394692
16150203100.0 0.1398298613 -0.9823353303
16200202800.0 0.1255138659 -0.9840614246
16250202500.0 0.1104179851 -0.9860817746
16300202200.0 0.0949837513 -0.9875067424
16350201900.0 0.0798125117 -0.9890492279
16400201600.0 0.0651810152 -0.9899790559
16450201300.0 0.0496745445 -0.9910809872
16500201000.0 0.0326488918 -0.9919496236
16550200700.0 0.0164867106 -0.9925591392
16600200400.0 0.0003919573 -0.9925809196
16650200100.0 -0.0155129217 -0.9928385565
16700199800.0 -0.0314836067 -0.9922208563
16750199500.0 -0.0509271677 -0.9915152182
16800199200.0 -0.066575521 -0.9909816083
16850198900.0 -0.0825835005 -0.9897181211
16900198600.0 -0.0959430399 -0.9890614993
16950198300.0 -0.109935881 -0.9865946438
17000198000.0 -0.123703508 -0.9861205513
17050197700.0 -0.1359657985 -0.9844570063
17100197400.0 -0.1489222772 -0.9819715792
17150197100.0 -0.161669296 -0.9797711535
17200196800.0 -0.174498124 -0.9778523084
17250196500.0 -0.1873944779 -0.9754019239
17300196200.0 -0.1995598336 -0.9731025286
17350195900.0 -0.2115730981 -0.9707938258
17400195600.0 -0.2235249184 -0.9682018196
17450195300.0 -0.2362476771 -0.965405808
17500195000.0 -0.2493734238 -0.961914531
17550194700.0 -0.2631479459 -0.9582682633
17600194400.0 -0.2771531434 -0.954674184
17650194100.0 -0.290617247 -0.9505331913
17700193800.0 -0.3033820747 -0.9458327702
17750193500.0 -0.3180757225 -0.9418070783
17800193200.0 -0.3317423819 -0.9361405478
17850192900.0 -0.3467928008 -0.9308142453
17900192600.0 -0.3617244351 -0.9246971722
17950192300.0 -0.3773442717 -0.9173690076
18000192000.0 -0.3922790772 -0.9106513855
18050191700.0 -0.4060969693 -0.9025666405
18100191400.0 -0.420094216 -0.8949033041
18150191100.0 -0.4350041197 -0.8869970795
18200190800.0 -0.4517258131 -0.8777598945
18250190500.0 -0.4688414083 -0.868517048
18300190200.0 -0.4843790754 -0.8594271572
18350189900.0 -0.4998434218 -0.8510125938
18400189600.0 -0.5140811343 -0.8428301431
18450189300.0 -0.5277163593 -0.8348613146
18500189000.0 -0.540735592 -0.827007294
18550188700.0 -0.5538878072 -0.8192683556
18600188400.0 -0.5656779899 -0.8119800081
18650188100.0 -0.5769015296 -0.8052917429
18700187800.0 -0.5877204625 -0.7985543972
18750187500.0 -0.598721822 -0.7921444451
18800187200.0 -0.6094614714 -0.7851182834
18850186900.0 -0.6196214644 -0.7783088456
18900186600.0 -0.6299495494 -0.7710817123
18950186300.0 -0.6402005864 -0.7633297085
19000186000.0 -0.6478008026 -0.7566761392
19050185700.0 -0.6568302966 -0.7502847393
19100185400.0 -0.6666041245 -0.7412765366
19150185100.0 -0.6768918807 -0.7334673849
19200184800.0 -0.6864894688 -0.7246340854
19250184500.0 -0.6958803446 -0.7153583206
19300184200.0 -0.7073686183 -0.7058322156
19350183900.0 -0.7177273706 -0.6962057992
19400183600.0 -0.729032218 -0.68626389
19450183300.0 -0.7373164051 -0.6764832138
19500183000.0 -0.7451716269 -0.6661911939
19550182700.0 -0.7550594506 -0.6560134361
19600182400.0 -0.7659315388 -0.6438461419
19650182100.0 -0.7763789149 -0.6317284418
19700181800.0 -0.7866078764 -0.6180100369
19750181500.0 -0.7970271339 -0.6041482265
19800181200.0 -0.8072294171 -0.5892502921
19850180900.0 -0.8167408505 -0.5738373305
19900180600.0 -0.8244309713 -0.5595620589
19950180300.0 -0.8336276711 -0.5433917926
20000180000.0 -0.8236838444 -0.5470140627
20050179700.0 -0.8312289299 -0.5344846565
20100179400.0 -0.8398449582 -0.5210336388
20150179100.0 -0.8486000554 -0.5097954258
20200178800.0 -0.8561829796 -0.4979534847
20250178500.0 -0.8658157804 -0.4850183248
20300178200.0 -0.875074973 -0.4712261138
20350177900.0 -0.8850517595 -0.4577940119
20400177600.0 -0.8930581019 -0.4436495694
20450177300.0 -0.902134044 -0.4294300651
20500177000.0 -0.9101566993 -0.4153485086
20550176700.0 -0.9178946286 -0.4020749596
20600176400.0 -0.9245805745 -0.388989674
20650176100.0 -0.9315777261 -0.377069554
20700175800.0 -0.9377193921 -0.3650857348
20750175500.0 -0.9448528614 -0.3527291823
20800175200.0 -0.9483189692 -0.3425364969
20850174900.0 -0.9536152627 -0.3311899061
20900174600.0 -0.958689342 -0.3202995174
20950174300.0 -0.960978653 -0.3101449444
21000174000.0 -0.9639811476 -0.2990063915
21050173700.0 -0.9652574794 -0.2892298946
21100173400.0 -0.9692453238 -0.278076177
21150173100.0 -0.9733418492 -0.2664938978
21200172800.0 -0.9767771946 -0.2532568725
21250172500.0 -0.9809923707 -0.239886618
21300172200.0 -0.9837373686 -0.2257638047
21350171900.0 -0.9859542312 -0.2110205442
21400171600.0 -0.9876932925 -0.1968182561
21450171300.0 -0.9893123669 -0.1826324956
21500171000.0 -0.9890489794 -0.1675352496
21550170700.0 -0.989775355 -0.1529743043
21600170400.0 -0.9917384059 -0.1368535245
21650170100.0 -0.9914358885 -0.1225222067
21700169800.0 -0.990754942 -0.1062869059
21750169500.0 -0.9909459802 -0.0907819841
21800169200.0 -0.9898432524 -0.0738584405
21850168900.0 -0.9901438186 -0.0573065385
21900168600.0 -0.9897337203 -0.0408106615
21950168300.0 -0.9889828551 -0.02491456
22000168000.0 -0.9892036125 -0.0104688818
22050167700.0 -0.9896170421 0.0045690752
22100167400.0 -0.9903419416 0.0198049374
22150167100.0 -0.9911635355 0.0359334356
22200166800.0 -0.9917533871 0.0524084841
22250166500.0 -0.991012833 0.0700036226
22300166200.0 -0.9909392029 0.0858547702
22350165900.0 -0.9895804006 0.1025729911
22400165600.0 -0.9883498003 0.1183803657
22450165300.0 -0.9856199245 0.1340723653
22500165000.0 -0.9845078287 0.1468016032
22550164700.0 -0.9833140542 0.1630258825
22600164400.0 -0.9812154984 0.180515259
22650164100.0 -0.9777352892 0.1959941257
22700163800.0 -0.9747140841 0.2119800573
22750163500.0 -0.971923237 0.2261604923
22800163200.0 -0.9690202662 0.2390571896
22850162900.0 -0.9660850509 0.253060774
22900162600.0 -0.9647763861 0.2670017474
22950162300.0 -0.9627773802 0.2808509593
23000162000.0 -0.9610595738 0.2931091214
23050161700.0 -0.9581525749 0.306822082
23100161400.0 -0.9555960416 0.3198229555
23150161100.0 -0.9524446514 0.333020639
23200160800.0 -0.9498160146 0.3454831221
23250160500.0 -0.9471342094 0.358936326
23300160200.0 -0.9442403503 0.3714213441
23350159900.0 -0.9395574551 0.3843600466
23400159600.0 -0.9345222342 0.3987542312
23450159300.0 -0.9299100658 0.4120072602
23500159000.0 -0.9253288277 0.4258294365
23550158700.0 -0.9200831442 0.4398385595
23600158400.0 -0.9139437659 0.4537958831
23650158100.0 -0.9070940629 0.4684480828
23700157800.0 -0.8985761044 0.4828541912
23750157500.0 -0.8889920717 0.4971204502
23800157200.0 -0.8795614397 0.5107617252
23850156900.0 -0.8696874152 0.5233217461
23900156600.0 -0.8597121936 0.5357122355
23950156300.0 -0.849499192 0.5486726856
24000156000.0 -0.8406641353 0.5602942623
24050155700.0 -0.8297761755 0.5729845478
24100155400.0 -0.8199747109 0.5861089957
24150155100.0 -0.8083337022 0.5978120954
24200154800.0 -0.7974187132 0.6097405062
24250154500.0 -0.7857751659 0.6217009113
24300154200.0 -0.774491931 0.6333663132
24350153900.0 -0.7624831698 0.644617556
24400153600.0 -0.7500619538 0.6553528472
24450153300.0 -0.7381353731 0.6658059483
24500153000.0 -0.7265315643 0.6755439489
24550152700.0 -0.714644901 0.6859699132
24600152400.0 -0.7034763937 0.6955338989
24650152100.0 -0.6906972258 0.70438213
