!Created with skrf (http://scikit-rf.org).
# Hz S RI R 50.0 
!freq ReS11 ImS11
300000.0 -0.9759867567 -0.1169652737
50299700.0 -1.000064688 0.0154858236
100299400.0 -0.9978987031 0.0284632472
150299100.0 -1.002811406 0.045493263
200298800.0 -0.999742831 0.0587937563
250298500.0 -0.9974407616 0.072248375
300298200.0 -0.9861115018 0.0879953379
350297900.0 -0.9942061057 0.0991456247
400297600.0 -0.9933603359 0.1153348127
450297300.0 -0.9909020709 0.1294669218
500297000.0 -0.9894742054 0.1440032468
550296700.0 -0.9842189725 0.1564147771
600296400.0 -1.017596944 0.1898731219
650296100.0 -0.9823553174 0.1862901863
700295800.0 -0.9792090429 0.2008384891
750295500.0 -0.9761855507 0.214830014
800295200.0 -0.9730641835 0.228665227
850294900.0 -0.9698826785 0.2427335766
900294600.0 -0.9658334132 0.2565820974
950294300.0 -0.9622035574 0.2702374412
1000294000.0 -0.9582150516 0.2842031396
1050293700.0 -0.9537773255 0.297870175
1100293400.0 -0.9491901534 0.3122498045
1150293100.0 -0.945451839 0.3241157582
1200292800.0 -0.9400808547 0.3386455225
1250292500.0 -0.9344054515 0.3520212392
1300292200.0 -0.9288824436 0.3652321252
1350291900.0 -0.9234539151 0.3794858627
1400291600.0 -0.9178251299 0.3923432184
1450291300.0 -0.9125210366 0.404838617
1500291000.0 -0.9061118261 0.4181496785
1550290700.0 -0.8996492848 0.4314908364
1600290400.0 -0.8932529491 0.4442014222
1650290100.0 -0.8867200955 0.4564923764
1700289800.0 -0.8798591312 0.4698862011
1750289500.0 -0.8728371646 0.4822373248
1800289200.0 -0.8651918983 0.4951714374
1850288900.0 -0.8586006301 0.5064617077
1900288600.0 -0.8508549695 0.5195533989
1950288300.0 -0.8427155857 0.5319600938
2000288000.0 -0.835145046 0.5433661954
2050287700.0 -0.8270567544 0.5558560022
2100287400.0 -0.8189208885 0.5674867878
2150287100.0 -0.8104432564 0.5795748709
2200286800.0 -0.8026112228 0.5898972854
2250286500.0 -0.7937323905 0.6017823232
2300286200.0 -0.7850589558 0.6134710649
2350285900.0 -0.7760645322 0.6244441486
2400285600.0 -0.7672455693 0.6354830978
2450285300.0 -0.7587117623 0.6457181668
2500285000.0 -0.7490105059 0.6572125273
2550284700.0 -0.7399288151 0.6675104166
2600284400.0 -0.7306754176 0.6774270532
2650284100.0 -0.7216881359 0.6880518087
2700283800.0 -0.7110073823 0.6986082706
2750283500.0 -0.7006258718 0.7089247088
2800283200.0 -0.6909262221 0.7191507431
2850282900.0 -0.6808750746 0.7288468826
2900282600.0 -0.6702659097 0.73832933
2950282300.0 -0.6602693636 0.7477320358
3000282000.0 -0.6495371559 0.7569331408
3050281700.0 -0.6381654237 0.7662916779
3100281400.0 -0.6263326441 0.7757295643
3150281100.0 -0.6144782424 0.7851966397
3200280800.0 -0.6028102042 0.7934012444
3250280500.0 -0.5920455087 0.8013875128
3300280200.0 -0.5808266475 0.8091408653
3350279900.0 -0.5692842807 0.8167058228
3400279600.0 -0.5571814711 0.8244419028
3450279300.0 -0.5460393139 0.831394864
3500279000.0 -0.5339869501 0.8384042926
3550278700.0 -0.5214163217 0.8458258061
3600278400.0 -0.5094512501 0.8531113082
3650278100.0 -0.4960530686 0.8606426646
3700277800.0 -0.4838560124 0.8671191324
3750277500.0 -0.4719813148 0.8737396753
3800277200.0 -0.4593103468 0.8800847672
3850276900.0 -0.4471055724 0.8861534958
3900276600.0 -0.4362718831 0.8915673056
3950276300.0 -0.4237313481 0.8979940328
4000276000.0 -0.411927503 0.9038705275
4050275700.0 -0.3988758616 0.9098553182
4100275400.0 -0.3876802044 0.915217231
4150275100.0 -0.3751544659 0.9208586205
4200274800.0 -0.3621944813 0.9264575645
4250274500.0 -0.3498366736 0.9315798385
4300274200.0 -0.3368628086 0.936721816
4350273900.0 -0.3230467155 0.9423869986
4400273600.0 -0.3082126426 0.9475140252
4450273300.0 -0.2929787559 0.9523501595
4500273000.0 -0.2793507936 0.956882451
4550272700.0 -0.2649461603 0.9611690273
4600272400.0 -0.2497361019 0.9653056185
4650272100.0 -0.2378006202 0.9685824242
4700271800.0 -0.2245783428 0.9718339088
4750271500.0 -0.2129082023 0.9746041611
4800271200.0 -0.2003585041 0.9774553822
4850270900.0 -0.1864995672 0.9802957094
4900270600.0 -0.1726646459 0.9826178673
4950270300.0 -0.1583498552 0.9851753945
5000270000.0 -0.1440464422 0.9874493197
5050269700.0 -0.1306736819 0.9888565678
5100269400.0 -0.1169316545 0.9902142291
5150269100.0 -0.1038581272 0.9920487483
5200268800.0 -0.0905452734 0.9931911613
5250268500.0 -0.0772337474 0.9938647728
5300268200.0 -0.0644462252 0.9948794092
5350267900.0 -0.0519323727 0.9956922227
5400267600.0 -0.0357268163 0.9965452755
5450267300.0 -0.0226733698 0.9968001449
5500267000.0 -0.0073889633 0.9970276413
5550266700.0 0.0074809753 0.9974359076
5600266400.0 0.0228563139 0.997398282
5650266100.0 0.0394549975 0.9970729238
5700265800.0 0.0541873825 0.9963641004
5750265500.0 0.0691171999 0.9954445495
5800265200.0 0.0832581836 0.994439382
5850264900.0 0.0967061819 0.9934603061
5900264600.0 0.1132574268 0.9917476462
5950264300.0 0.1253892742 0.989859501
6000264000.0 0.1392101045 0.9882286366
6050263700.0 0.1516095416 0.9871061334
6100263400.0 0.1639276472 0.9848735179
6150263100.0 0.1782630272 0.9826727026
6200262800.0 0.1889624165 0.9809824392
6250262500.0 0.2016589396 0.9783107815
6300262200.0 0.2145612165 0.9756754458
6350261900.0 0.2275510652 0.9725671675
6400261600.0 0.2411650302 0.9691445717
6450261300.0 0.2527844122 0.9665907657
6500261000.0 0.2654438474 0.9632677207
6550260700.0 0.2783620295 0.959134108
6600260400.0 0.291760774 0.9550424145
6650260100.0 0.3056355084 0.9505666091
6700259800.0 0.3180002505 0.9462776908
6750259500.0 0.3317436004 0.9415646527
6800259200.0 0.3446463252 0.9363779099
6850258900.0 0.3568426924 0.9312589242
6900258600.0 0.3688741672 0.9261679153
6950258300.0 0.381574444 0.9210640816
7000258000.0 0.3934150889 0.9157266938
7050257700.0 0.4057073835 0.9093511909
7100257400.0 0.4185558742 0.9033539877
7150257100.0 0.4286193166 0.8979709231
7200256800.0 0.4413795334 0.8914841202
7250256500.0 0.4533256427 0.8851149696
7300256200.0 0.4663567846 0.8784596537
7350255900.0 0.4795244981 0.8715899607
7400255600.0 0.4923122778 0.8642427537
7450255300.0 0.5074614021 0.8551337674
7500255000.0 0.5191501524 0.8481648441
7550254700.0 0.5328321767 0.8396544418
7600254400.0 0.5455494778 0.8312031237
7650254100.0 0.5574779004 0.8234899678
7700253800.0 0.5691643661 0.8156173097
7750253500.0 0.5802145716 0.8078176223
7800253200.0 0.5911044849 0.8001117962
7850252900.0 0.600607713 0.7930271498
7900252600.0 0.6124175418 0.7843690845
7950252300.0 0.6210348671 0.7776781893
8000252000.0 0.6313105902 0.7698741066
8050251700.0 0.6418268046 0.7617618751
8100251400.0 0.651802403 0.7536197655
8150251100.0 0.6621031794 0.7450551718
8200250800.0 0.6714520729 0.736813796
8250250500.0 0.680036484 0.7290455982
8300250200.0 0.6895554434 0.7205589142
8350249900.0 0.6986807721 0.7118186237
8400249600.0 0.7064850744 0.7036125447
8450249300.0 0.7160931497 0.6945019944
8500249000.0 0.7245155711 0.6856753501
8550248700.0 0.7329017662 0.6768656965
8600248400.0 0.7412097106 0.6669963975
8650248100.0 0.7489965825 0.6576914663
8700247800.0 0.7584688677 0.646333313
8750247500.0 0.7669593416 0.6364096407
8800247200.0 0.7750098977 0.6260210732
8850246900.0 0.7837868002 0.6143481257
8900246600.0 0.792033546 0.6032051826
8950246300.0 0.8016923847 0.5900988743
9000246000.0 0.8109162537 0.5775217963
9050245700.0 0.8200503607 0.5643922133
9100245400.0 0.8285515077 0.551963232
9150245100.0 0.8380042185 0.5379980927
9200244800.0 0.8481615717 0.5229196426
9250244500.0 0.8575310802 0.5072575153
9300244200.0 0.8657475058 0.4926112464
9350243900.0 0.8736281774 0.4788702601
9400243600.0 0.8803205008 0.4664028935
9450243300.0 0.8861364227 0.4548694609
9500243000.0 0.8924249187 0.4426354043
9550242700.0 0.8961697715 0.4349172409
9600242400.0 0.899828227 0.4277846892
9650242100.0 0.9035413981 0.4213882849
9700241800.0 0.908256228 0.4129587171
9750241500.0 0.9121376847 0.4054872673
9800241200.0 0.9166814712 0.3964084879
9850240900.0 0.922555262 0.3843891989
9900240600.0 0.9278634884 0.3730457864
9950240300.0 0.9345421747 0.3571315547
10000240000.0 0.939587604 0.3454694614
10050239700.0 0.9448660262 0.330291497
10100239400.0 0.9497133362 0.3146907837
10150239100.0 0.9540895531 0.2999782344
10200238800.0 0.958354339 0.2849000586
10250238500.0 0.9616894958 0.2716420272
10300238200.0 0.9648301691 0.257741973
10350237900.0 0.9674605983 0.2448280951
10400237600.0 0.9699806455 0.2315583144
10450237300.0 0.9726417059 0.2175986078
10500237000.0 0.9748798654 0.2053774125
10550236700.0 0.9769721885 0.1917941459
10600236400.0 0.9790246442 0.1780287695
10650236100.0 0.981533552 0.1630198784
10700235800.0 0.9835210927 0.1510360301
10750235500.0 0.9855783755 0.1380672507
10800235200.0 0.988131327 0.1235698745
10850234900.0 0.9895879012 0.1092380517
10900234600.0 0.9916835673 0.0942866045
10950234300.0 0.9934907146 0.0812228619
11000234000.0 0.9952438159 0.0661704923
11050233700.0 0.9968920315 0.0497826675
11100233400.0 0.99819112 0.0325602336
11150233100.0 0.9996652947 0.0159689096
11200232800.0 1.000216489 0.0006477561
11250232500.0 1.00153422 -0.016216757
11300232200.0 1.001739514 -0.0333226082
11350231900.0 1.001648463 -0.0494350134
11400231600.0 1.001687067 -0.0646415017
11450231300.0 1.001349849 -0.0807427056
11500231000.0 0.9995512077 -0.0961347676
11550230700.0 0.9983682407 -0.1102594731
11600230400.0 0.9971055324 -0.123090869
11650230100.0 0.9947336531 -0.1346642979
11700229800.0 0.9926220778 -0.1495619518
11750229500.0 0.9903131182 -0.1636514392
11800229200.0 0.9880735733 -0.1775338342
11850228900.0 0.9839055884 -0.189765534
11900228600.0 0.9804184231 -0.1994185415
11950228300.0 0.977494719 -0.2096704234
12000228000.0 0.9749657062 -0.218449521
12050227700.0 0.9705896943 -0.2319229362
12100227400.0 0.9676353675 -0.2434957991
12150227100.0 0.9628608113 -0.2595461569
12200226800.0 0.9595903454 -0.2703460293
12250226500.0 0.9557369887 -0.2826831639
12300226200.0 0.9515551266 -0.2953401001
12350225900.0 0.9462392752 -0.3088044785
12400225600.0 0.9424579424 -0.3219621812
12450225300.0 0.9375868403 -0.3340135924
12500225000.0 0.9318310296 -0.3488222432
12550224700.0 0.926607361 -0.3630189122
12600224400.0 0.9218293205 -0.3757727909
12650224100.0 0.9159990147 -0.3901824443
12700223800.0 0.9107179457 -0.4029726853
12750223500.0 0.9051986744 -0.4158506486
12800223200.0 0.9000033381 -0.4281874399
12850222900.0 0.8943325291 -0.4410343492
12900222600.0 0.888985694 -0.4526160326
12950222300.0 0.8822936541 -0.4654294496
13000222000.0 0.8764155126 -0.4769863831
13050221700.0 0.8697047413 -0.4898880878
13100221400.0 0.862959733 -0.5016627003
13150221100.0 0.8563904958 -0.5139081142
13200220800.0 0.8492350156 -0.5255967784
13250220500.0 0.8421720149 -0.5372273533
13300220200.0 0.8346377116 -0.5484518265
13350219900.0 0.8264434791 -0.5605772697
13400219600.0 0.8179527759 -0.5727299706
13450219300.0 0.80862957 -0.5861628868
13500219000.0 0.7986810817 -0.6002147383
13550218700.0 0.788080766 -0.6131268201
13600218400.0 0.777769754 -0.6253166873
13650218100.0 0.7686478785 -0.6365511418
13700217800.0 0.7575087185 -0.6487621899
13750217500.0 0.7478719095 -0.6598547713
13800217200.0 0.7365335042 -0.6715402247
13850216900.0 0.7247354177 -0.6831073667
13900216600.0 0.7151472178 -0.6916424129
13950216300.0 0.7042031012 -0.701534604
14000216000.0 0.6949336209 -0.7113613859
14050215700.0 0.6847924373 -0.7195624531
14100215400.0 0.6751571064 -0.728735957
14150215100.0 0.6658907157 -0.7373003117
14200214800.0 0.65640954 -0.7457480547
14250214500.0 0.6463391871 -0.7549492963
14300214200.0 0.635846436 -0.7643906709
14350213900.0 0.6245124146 -0.7739934502
14400213600.0 0.6130767671 -0.783339726
14450213300.0 0.5996595938 -0.7939224254
14500213000.0 0.5867140642 -0.8037904873
14550212700.0 0.5740619196 -0.8131963463
14600212400.0 0.5613777622 -0.8220346219
14650212100.0 0.5487879523 -0.8306228942
14700211800.0 0.534674429 -0.8403493099
14750211500.0 0.5226591821 -0.8485454803
14800211200.0 0.5108161813 -0.8566364238
14850210900.0 0.498102638 -0.8639896887
14900210600.0 0.4847564319 -0.8719206417
14950210300.0 0.4715308018 -0.8796546954
15000210000.0 0.4585051285 -0.8862183007
15050209700.0 0.4461134075 -0.8925154883
15100209400.0 0.4336868392 -0.8985884856
15150209100.0 0.4214432645 -0.9042217685
15200208800.0 0.4083438463 -0.9090225888
15250208500.0 0.396703771 -0.913479973
15300208200.0 0.3850240539 -0.9189314646
15350207900.0 0.3717664043 -0.9238554393
15400207600.0 0.3565527646 -0.9285232202
15450207300.0 0.3427878001 -0.9340055913
15500207000.0 0.3283049352 -0.9383280318
15550206700.0 0.3129773108 -0.9430695818
15600206400.0 0.2967770398 -0.9475888995
15650206100.0 0.2813128972 -0.9516338077
15700205800.0 0.2674083873 -0.9552920279
15750205500.0 0.2528565338 -0.9590297824
15800205200.0 0.2384156402 -0.9623778336
15850204900.0 0.2240512274 -0.9658470879
15900204600.0 0.2090860112 -0.9694773426
15950204300.0 0.1948596829 -0.972505637
16000204000.0 0.1807270415 -0.9753026688
16050203700.0 0.1660462436 -0.978200573
16100203400.0 0.1514793785 -0.9800418853
16150203100.0 0.1369623029 -0.982229883
16200202800.0 0.1227567835 -0.9845712699
16250202500.0 0.1085548263 -0.9864147862
16300202200.0 0.093054523 -0.9880638879
16350201900.0 0.0778989915 -0.9888927462
16400201600.0 0.0634835027 -0.9901192281
16450201300.0 0.0481377865 -0.9910972806
16500201000.0 0.0314511356 -0.9919522241
16550200700.0 0.0156934082 -0.9924347853
16600200400.0 3.08211e-05 -0.9927769072
16650200100.0 -0.0162282819 -0.9925142674
16700199800.0 -0.0326114689 -0.9918898209
16750199500.0 -0.0509061185 -0.9915923734
16800199200.0 -0.0674112469 -0.9906468174
16850198900.0 -0.0821549619 -0.9893512516
16900198600.0 -0.0960088231 -0.9883506682
16950198300.0 -0.1092549329 -0.9869395315
17000198000.0 -0.1224577033 -0.9861111553
17050197700.0 -0.1349753557 -0.9839469698
17100197400.0 -0.1478447455 -0.9818072195
17150197100.0 -0.1608924622 -0.9804390355
17200196800.0 -0.1737082657 -0.9778289084
17250196500.0 -0.1864663874 -0.975670258
17300196200.0 -0.1982677576 -0.9731653797
17350195900.0 -0.2102124662 -0.9711433768
17400195600.0 -0.2222466576 -0.9684831504
17450195300.0 -0.2355097022 -0.9656749701
17500195000.0 -0.2489948376 -0.9622863648
17550194700.0 -0.2628187223 -0.9586024055
17600194400.0 -0.2767620182 -0.9548283041
17650194100.0 -0.290255325 -0.950531211
17700193800.0 -0.3034958988 -0.9465663438
17750193500.0 -0.317701138 -0.9417224081
17800193200.0 -0.3323023358 -0.9363449481
17850192900.0 -0.347114346 -0.9311542997
17900192600.0 -0.3625742406 -0.9250122177
17950192300.0 -0.3779604923 -0.918147934
18000192000.0 -0.3926900128 -0.9105591184
18050191700.0 -0.4065557134 -0.9027252717
18100191400.0 -0.4207464809 -0.8948470712
18150191100.0 -0.435772457 -0.8867138716
18200190800.0 -0.4528119508 -0.8774741255
18250190500.0 -0.4699236938 -0.8681981525
18300190200.0 -0.4848894532 -0.8593540611
18350189900.0 -0.500096845 -0.8509963902
18400189600.0 -0.5151016378 -0.8425127677
18450189300.0 -0.527576271 -0.8348477648
18500189000.0 -0.5406115341 -0.8266780933
18550188700.0 -0.5539109027 -0.8192217191
18600188400.0 -0.5657831712 -0.8125169698
18650188100.0 -0.5760853808 -0.8060079348
18700187800.0 -0.5870668175 -0.7996343546
18750187500.0 -0.5981256806 -0.7929904651
18800187200.0 -0.6083610555 -0.7859338649
18850186900.0 -0.6188156381 -0.7789640359
18900186600.0 -0.6289713309 -0.7716186629
18950186300.0 -0.6389037867 -0.7640767379
19000186000.0 -0.6461573623 -0.7579769559
19050185700.0 -0.6551527248 -0.7511472974
19100185400.0 -0.6649820359 -0.7421148181
19150185100.0 -0.6756084867 -0.7337159133
19200184800.0 -0.6848430517 -0.7256423479
19250184500.0 -0.6949683595 -0.716359495
19300184200.0 -0.7065707715 -0.7062733361
19350183900.0 -0.7175519313 -0.6970204704
19400183600.0 -0.7273442869 -0.6863017799
19450183300.0 -0.7357480041 -0.6768289358
19500183000.0 -0.7438691538 -0.6665861963
19550182700.0 -0.7540769552 -0.6561299481
19600182400.0 -0.7646231613 -0.6439812676
19650182100.0 -0.7753097485 -0.6318982132
19700181800.0 -0.7859353393 -0.6186521454
19750181500.0 -0.7965043375 -0.6045780643
19800181200.0 -0.8070494503 -0.5895640228
19850180900.0 -0.8164885732 -0.5741168132
19900180600.0 -0.8242350723 -0.5597771345
19950180300.0 -0.833273753 -0.5431081203
20000180000.0 -0.826753226 -0.5459585575
20050179700.0 -0.8344200637 -0.5327511093
20100179400.0 -0.8432265732 -0.5190869149
20150179100.0 -0.8508715453 -0.5071276285
20200178800.0 -0.8594580012 -0.4938695477
20250178500.0 -0.8691729037 -0.4806936524
20300178200.0 -0.8789012627 -0.4656934121
20350177900.0 -0.8883050864 -0.4511291756
20400177600.0 -0.8971358088 -0.4369286738
20450177300.0 -0.9052651719 -0.4223070686
20500177000.0 -0.9132018628 -0.4086230281
20550176700.0 -0.9212824712 -0.3947366118
20600176400.0 -0.9279508436 -0.3820998673
20650176100.0 -0.934716609 -0.3692497592
20700175800.0 -0.9413374723 -0.3575614197
20750175500.0 -0.9484287505 -0.3456543278
20800175200.0 -0.9531623022 -0.3356409594
20850174900.0 -0.9574649915 -0.3241002167
20900174600.0 -0.9627236918 -0.3126382945
20950174300.0 -0.9671584364 -0.3009584719
21000174000.0 -0.9697931311 -0.2894802052
21050173700.0 -0.9717011937 -0.2789150083
21100173400.0 -0.9768035133 -0.267008441
21150173100.0 -0.9804207601 -0.2542119029
21200172800.0 -0.9841131978 -0.2404958105
21250172500.0 -0.9874145292 -0.2268908695
21300172200.0 -0.9898649584 -0.2127430494
21350171900.0 -0.9913051848 -0.1983338862
21400171600.0 -0.9927259032 -0.1838445335
21450171300.0 -0.9934212311 -0.169534973
21500171000.0 -0.992689309 -0.1537365236
21550170700.0 -0.9926313935 -0.1397704463
21600170400.0 -0.9929874809 -0.1234007706
21650170100.0 -0.9923301339 -0.1074284043
21700169800.0 -0.9899007954 -0.0920187215
21750169500.0 -0.9892952611 -0.0763563956
21800169200.0 -0.9883691385 -0.0598916399
21850168900.0 -0.9874127541 -0.0425661237
21900168600.0 -0.985969441 -0.0266129283
21950168300.0 -0.9840793052 -0.0115200068
22000168000.0 -0.9834430753 0.0036013089
22050167700.0 -0.9834936172 0.0180177661
22100167400.0 -0.9834296843 0.033025468
22150167100.0 -0.9838300032 0.0484756883
22200166800.0 -0.9845638338 0.0646381068
22250166500.0 -0.9837724016 0.0828515934
22300166200.0 -0.9830553372 0.0987709813
22350165900.0 -0.9816068386 0.1163013395
22400165600.0 -0.9799070668 0.1312855059
22450165300.0 -0.9780395133 0.1460712326
22500165000.0 -0.9756178143 0.1602883764
22550164700.0 -0.9756721976 0.175309519
22600164400.0 -0.9732906113 0.19061686
22650164100.0 -0.9711522082 0.2051980767
22700163800.0 -0.9685079054 0.2212886918
22750163500.0 -0.965510197 0.2368027184
22800163200.0 -0.9628023945 0.2501760438
22850162900.0 -0.9607967713 0.2633335141
22900162600.0 -0.9590487749 0.2768140933
22950162300.0 -0.9579976703 0.2895826581
23000162000.0 -0.9570817199 0.3011693781
23050161700.0 -0.9552287913 0.314319186
23100161400.0 -0.9528372916 0.3270647328
23150161100.0 -0.9499798533 0.3389208098
23200160800.0 -0.9473142538 0.3513472783
23250160500.0 -0.9444037366 0.3628409049
23300160200.0 -0.9422489383 0.3755235043
23350159900.0 -0.9379485544 0.388928462
23400159600.0 -0.9337410502 0.4017599534
23450159300.0 -0.929121672 0.4144350098
23500159000.0 -0.9242261347 0.4275625881
23550158700.0 -0.9194482023 0.4408141311
23600158400.0 -0.9143476418 0.4540365742
23650158100.0 -0.9079861082 0.4682087582
23700157800.0 -0.9003535266 0.4820782941
23750157500.0 -0.8916952592 0.4958807865
23800157200.0 -0.8830268113 0.5095488853
23850156900.0 -0.8742344418 0.5215908547
23900156600.0 -0.8652268875 0.533993138
23950156300.0 -0.8547206395 0.5474042192
24000156000.0 -0.8462984093 0.5588489368
24050155700.0 -0.8360717781 0.5717550468
24100155400.0 -0.8265247426 0.5835658362
24150155100.0 -0.8153763084 0.5947573299
24200154800.0 -0.8045331007 0.60530047
24250154500.0 -0.7929995508 0.6177408216
24300154200.0 -0.7821512685 0.6293455077
24350153900.0 -0.7694686034 0.6396715067
24400153600.0 -0.7575960364 0.6499552644
24450153300.0 -0.7455868798 0.659928033
24500153000.0 -0.7338868831 0.6702057452
24550152700.0 -0.7228459133 0.6793457425
24600152400.0 -0.7117987444 0.6884126838
24650152100.0 -0.6995589791 0.6960842198
