!Created with skrf (http://scikit-rf.org).
# Hz S RI R 50.0 
!freq ReS11 ImS11
300000.0 -0.9812454619 -0.1003055266
50299700.0 -0.9999795322 0.0163599299
100299400.0 -0.998111322 0.0293395938
150299100.0 -1.002777208 0.0460733022
200298800.0 -0.9995345838 0.0593597771
250298500.0 -0.9973341809 0.0726742829
300298200.0 -0.9860117267 0.088672658
350297900.0 -0.9939833496 0.0995335785
400297600.0 -0.9930876023 0.116227409
450297300.0 -0.9910544828 0.1299530838
500297000.0 -0.9893620102 0.1446746499
550296700.0 -0.984291473 0.1570899469
600296400.0 -1.017150263 0.1907728842
650296100.0 -0.9818242572 0.1870819269
700295800.0 -0.9793297302 0.2015086037
750295500.0 -0.976077676 0.2155390607
800295200.0 -0.9729510376 0.2295744687
850294900.0 -0.9694592977 0.2433414052
900294600.0 -0.9654559468 0.2570635812
950294300.0 -0.9618336892 0.2708434713
1000294000.0 -0.9578439061 0.2847865032
1050293700.0 -0.9532866732 0.298635017
1100293400.0 -0.9489722207 0.3130467795
1150293100.0 -0.9450306541 0.3248586276
1200292800.0 -0.9398636355 0.3391811285
1250292500.0 -0.9343879101 0.3526276102
1300292200.0 -0.9285471106 0.3658845406
1350291900.0 -0.9231019564 0.3799303623
1400291600.0 -0.9174436266 0.3928765511
1450291300.0 -0.9119667308 0.4052779365
1500291000.0 -0.9058678266 0.418579952
1550290700.0 -0.8992541198 0.4318610425
1600290400.0 -0.893014612 0.4449135293
1650290100.0 -0.886407945 0.4570470326
1700289800.0 -0.8795101542 0.4704793361
1750289500.0 -0.8724644612 0.4827505373
1800289200.0 -0.865001746 0.4954755185
1850288900.0 -0.858349066 0.5068536932
1900288600.0 -0.8505938326 0.5198169263
1950288300.0 -0.842498405 0.5326118978
2000288000.0 -0.8349357942 0.5438893531
2050287700.0 -0.8268903794 0.5562509271
2100287400.0 -0.8188050731 0.5680967697
2150287100.0 -0.810233017 0.5799463305
2200286800.0 -0.8022949378 0.5903728168
2250286500.0 -0.7933364332 0.6024074206
2300286200.0 -0.7844463826 0.6139738365
2350285900.0 -0.7758876855 0.6250249084
2400285600.0 -0.7666641831 0.6360351535
2450285300.0 -0.7578141179 0.6462606215
2500285000.0 -0.7482762445 0.6576066863
2550284700.0 -0.7392458336 0.6680547412
2600284400.0 -0.7295862944 0.6779698685
2650284100.0 -0.7210833707 0.6889017619
2700283800.0 -0.7103456307 0.6992190465
2750283500.0 -0.7000811043 0.7097161266
2800283200.0 -0.6903907481 0.7195902323
2850282900.0 -0.6800551855 0.7294575362
2900282600.0 -0.6696162195 0.7387098507
2950282300.0 -0.6594618311 0.7479448794
3000282000.0 -0.6487544495 0.7575428852
3050281700.0 -0.6375187473 0.7666528765
3100281400.0 -0.6257233062 0.7760338695
3150281100.0 -0.6139641909 0.7854460988
3200280800.0 -0.6024314705 0.7940439421
3250280500.0 -0.5917674365 0.8017682162
3300280200.0 -0.5804480531 0.8093798924
3350279900.0 -0.5690208638 0.817049236
3400279600.0 -0.5569774463 0.8243790793
3450279300.0 -0.5457749002 0.8318355704
3500279000.0 -0.5337681326 0.8388929082
3550278700.0 -0.5213388801 0.8462478564
3600278400.0 -0.5090900971 0.8532969186
3650278100.0 -0.4957123841 0.860996239
3700277800.0 -0.4834776511 0.8672353194
3750277500.0 -0.4717587579 0.8741476884
3800277200.0 -0.4589606956 0.8805021755
3850276900.0 -0.4468999719 0.8863857431
3900276600.0 -0.4357650479 0.8920071129
3950276300.0 -0.423217293 0.8982582897
4000276000.0 -0.4112210422 0.9042936062
4050275700.0 -0.3982808704 0.9102209082
4100275400.0 -0.3867953827 0.9153896394
4150275100.0 -0.3740159519 0.9212683417
4200274800.0 -0.3613039775 0.9268823081
4250274500.0 -0.3489202374 0.9317860422
4300274200.0 -0.3359679494 0.9372182799
4350273900.0 -0.3219925402 0.9422986397
4400273600.0 -0.3074192902 0.947347144
4450273300.0 -0.2920101063 0.9527416295
4500273000.0 -0.2782645881 0.9570451477
4550272700.0 -0.2641733666 0.9612763718
4600272400.0 -0.2487349441 0.9652633763
4650272100.0 -0.2369153096 0.9684924148
4700271800.0 -0.2235123361 0.9718212983
4750271500.0 -0.2117991155 0.9747720406
4800271200.0 -0.1992766403 0.977353499
4850270900.0 -0.1854637938 0.9802667356
4900270600.0 -0.1717010128 0.9824053365
4950270300.0 -0.1573773304 0.985282656
5000270000.0 -0.1433879857 0.9872116368
5050269700.0 -0.1298935514 0.9888468508
5100269400.0 -0.1162486296 0.9904482474
5150269100.0 -0.1029796498 0.9920115551
5200268800.0 -0.0897777814 0.9932488877
5250268500.0 -0.0767422756 0.9938107192
5300268200.0 -0.0637704763 0.9946610456
5350267900.0 -0.0515195583 0.9953515363
5400267600.0 -0.0351282089 0.9964769378
5450267300.0 -0.0223152583 0.9968238514
5500267000.0 -0.0072077118 0.9970243278
5550266700.0 0.0078448119 0.9974071987
5600266400.0 0.0232425419 0.9973991325
5650266100.0 0.040018253 0.9968142368
5700265800.0 0.0543653517 0.9959918608
5750265500.0 0.0695685334 0.9954377165
5800265200.0 0.0832052892 0.9941692096
5850264900.0 0.0966824723 0.9932719506
5900264600.0 0.1133420482 0.9915959113
5950264300.0 0.1254427488 0.9895224301
6000264000.0 0.1395084408 0.9880822767
6050263700.0 0.151814511 0.9863006238
6100263400.0 0.1646185788 0.984414075
6150263100.0 0.179089068 0.9819046014
6200262800.0 0.189863004 0.9801588254
6250262500.0 0.2026004893 0.977839267
6300262200.0 0.2153873495 0.9749709061
6350261900.0 0.2284421255 0.972115085
6400261600.0 0.2426330611 0.9689472134
6450261300.0 0.2538364614 0.9660729849
6500261000.0 0.2664604199 0.9624071138
6550260700.0 0.2794231503 0.9585190478
6600260400.0 0.2928992564 0.9543603355
6650260100.0 0.3065599908 0.9498639487
6700259800.0 0.3185146018 0.9458145762
6750259500.0 0.33238127 0.9408094053
6800259200.0 0.3454401399 0.9362317852
6850258900.0 0.3573860035 0.9309418449
6900258600.0 0.3694415302 0.9257415954
6950258300.0 0.3822114627 0.9209050071
7000258000.0 0.3941201368 0.9153635935
7050257700.0 0.4063455592 0.9093929231
7100257400.0 0.4189508099 0.9031534457
7150257100.0 0.4295325867 0.8979218819
7200256800.0 0.4421063838 0.8914803302
7250256500.0 0.4541704004 0.8851727491
7300256200.0 0.4665165359 0.8780751565
7350255900.0 0.4792157699 0.871525099
7400255600.0 0.4921036554 0.864379352
7450255300.0 0.5075557198 0.8554882987
7500255000.0 0.5188739728 0.8481600075
7550254700.0 0.5329705284 0.8399095136
7600254400.0 0.5457984068 0.8314386964
7650254100.0 0.5573991578 0.8234749808
7700253800.0 0.5692012535 0.815587716
7750253500.0 0.5805002456 0.8076444925
7800253200.0 0.5909766724 0.7999720166
7850252900.0 0.6008595783 0.7927778833
7900252600.0 0.6124772427 0.7839751424
7950252300.0 0.6214159239 0.7774275692
8000252000.0 0.6316368147 0.7693755254
8050251700.0 0.6420655258 0.7612003696
8100251400.0 0.6521575493 0.7530591109
8150251100.0 0.6622307895 0.7442176982
8200250800.0 0.6716413465 0.7361632332
8250250500.0 0.6807514615 0.7284249254
8300250200.0 0.690541776 0.719415769
8350249900.0 0.699356672 0.7107483434
8400249600.0 0.7079818975 0.7027082194
8450249300.0 0.7166775345 0.693627764
8500249000.0 0.7254129857 0.6845912396
8550248700.0 0.7335108387 0.6758247222
8600248400.0 0.7420624967 0.6662125538
8650248100.0 0.7497152936 0.6569521585
8700247800.0 0.7593218654 0.6455758021
8750247500.0 0.7675123173 0.6356341865
8800247200.0 0.7756791545 0.6254136622
8850246900.0 0.7842023993 0.6140856083
8900246600.0 0.792702789 0.6026971242
8950246300.0 0.8021099789 0.5897767806
9000246000.0 0.8117946896 0.5770594253
9050245700.0 0.820399933 0.5644882206
9100245400.0 0.8286424538 0.551994532
9150245100.0 0.8380389516 0.5381887172
9200244800.0 0.8479832999 0.5229849148
9250244500.0 0.8574145675 0.5077351521
9300244200.0 0.8658541411 0.4930553847
9350243900.0 0.8736116817 0.4789832704
9400243600.0 0.8802257336 0.4665278682
9450243300.0 0.8862216415 0.4544848327
9500243000.0 0.892586314 0.4421170581
9550242700.0 0.8964566184 0.4340667888
9600242400.0 0.9002174924 0.4264009199
9650242100.0 0.9037980189 0.419953405
9700241800.0 0.9085652445 0.4111539913
9750241500.0 0.9125018333 0.4039322776
9800241200.0 0.9173637182 0.3945210048
9850240900.0 0.9226645052 0.3830145135
9900240600.0 0.9283127452 0.3710793197
9950240300.0 0.9348130616 0.3550509554
10000240000.0 0.9395504401 0.343425878
10050239700.0 0.9449408523 0.3283005952
10100239400.0 0.9498077487 0.3131624144
10150239100.0 0.9542741736 0.2986284104
10200238800.0 0.9585918887 0.2835690994
10250238500.0 0.961762444 0.270312958
10300238200.0 0.965066662 0.2562061739
10350237900.0 0.9675739351 0.2431929565
10400237600.0 0.9701876114 0.230242733
10450237300.0 0.9727205535 0.216594202
10500237000.0 0.9750219041 0.2042256414
10550236700.0 0.9772315115 0.1906838104
10600236400.0 0.9795069659 0.1770906728
10650236100.0 0.9813362538 0.1631061417
10700235800.0 0.9838419194 0.150668594
10750235500.0 0.9858807013 0.1375182656
10800235200.0 0.9876114729 0.1238034497
10850234900.0 0.9896307133 0.1090039779
10900234600.0 0.9917732337 0.0942677291
10950234300.0 0.9935795713 0.0811656675
11000234000.0 0.9951592573 0.0662250486
11050233700.0 0.9970037627 0.0499558792
11100233400.0 0.9982303844 0.0328469204
11150233100.0 0.9993128021 0.0161597012
11200232800.0 1.000183165 0.001183353
11250232500.0 1.00129345 -0.0155025792
11300232200.0 1.001091462 -0.0321205617
11350231900.0 1.001391967 -0.0488174967
11400231600.0 1.000806287 -0.0647432705
11450231300.0 1.000493759 -0.0797656087
11500231000.0 0.9992330882 -0.0965538365
11550230700.0 0.9980665723 -0.1104161793
11600230400.0 0.9962595038 -0.1224993324
11650230100.0 0.9939633417 -0.1342845058
11700229800.0 0.9922760832 -0.1493545426
11750229500.0 0.9896139698 -0.1634157954
11800229200.0 0.9871115935 -0.1778713547
11850228900.0 0.9836818305 -0.1905300235
11900228600.0 0.9802739642 -0.2004721087
11950228300.0 0.976764901 -0.2114842134
12000228000.0 0.9741371527 -0.2199651302
12050227700.0 0.9701787652 -0.2327774601
12100227400.0 0.9674100275 -0.2441113037
12150227100.0 0.9622390502 -0.2609363232
12200226800.0 0.9589122238 -0.2712313427
12250226500.0 0.9548426349 -0.2834602334
12300226200.0 0.9510232265 -0.2954063654
12350225900.0 0.9458524599 -0.3092619637
12400225600.0 0.9417613371 -0.3225067617
12450225300.0 0.9376014128 -0.3354210257
12500225000.0 0.9319350442 -0.3497752087
12550224700.0 0.9265116816 -0.3633967246
12600224400.0 0.9218727778 -0.3759782494
12650224100.0 0.916083782 -0.3900504951
12700223800.0 0.9107905057 -0.4029051033
12750223500.0 0.9053200397 -0.4157188105
12800223200.0 0.900113447 -0.4281901791
12850222900.0 0.894753508 -0.4403262294
12900222600.0 0.8884986738 -0.4526087309
12950222300.0 0.8822574068 -0.4656449395
13000222000.0 0.876606997 -0.4767272279
13050221700.0 0.8697893 -0.489333241
13100221400.0 0.8629688289 -0.5015947914
13150221100.0 0.8562518991 -0.5140158754
13200220800.0 0.8489435311 -0.5256369184
13250220500.0 0.8418356828 -0.5379739174
13300220200.0 0.8338246947 -0.5488033427
13350219900.0 0.825977373 -0.5607456238
13400219600.0 0.8172690295 -0.5731609167
13450219300.0 0.8076950088 -0.5867278526
13500219000.0 0.7979002254 -0.600695618
13550218700.0 0.7876163124 -0.6136639032
13600218400.0 0.7770600988 -0.625887001
13650218100.0 0.7677350414 -0.6377591897
13700217800.0 0.7562790024 -0.6498363071
13750217500.0 0.7457675835 -0.660258859
13800217200.0 0.7357923218 -0.6730956981
13850216900.0 0.723788325 -0.6839909818
13900216600.0 0.714770163 -0.6929923266
13950216300.0 0.7030897767 -0.7028793253
14000216000.0 0.693325223 -0.712355481
14050215700.0 0.6841824016 -0.7209161166
14100215400.0 0.6741012616 -0.7296522676
14150215100.0 0.6649939662 -0.7381212777
14200214800.0 0.6557944241 -0.7466161496
14250214500.0 0.6456330479 -0.755653042
14300214200.0 0.6353852276 -0.7649907264
14350213900.0 0.6241713133 -0.7743708305
14400213600.0 0.6125345419 -0.7840271904
14450213300.0 0.5996949415 -0.7941798774
14500213000.0 0.5866826357 -0.8043465277
14550212700.0 0.57426046 -0.813217485
14600212400.0 0.5621422699 -0.8219236726
14650212100.0 0.5488535588 -0.8308411585
14700211800.0 0.5346552382 -0.8401299803
14750211500.0 0.5230194491 -0.8484315837
14800211200.0 0.5105833948 -0.8559850006
14850210900.0 0.4984915271 -0.8637661251
14900210600.0 0.4848142355 -0.8716724113
14950210300.0 0.4714881735 -0.8794428424
15000210000.0 0.4586120839 -0.8862716036
15050209700.0 0.4458136056 -0.8924064883
15100209400.0 0.4328060152 -0.8983874094
15150209100.0 0.4211134855 -0.9039921938
15200208800.0 0.4073565874 -0.9096645694
15250208500.0 0.3963578214 -0.914177299
15300208200.0 0.38312922 -0.9185714076
15350207900.0 0.3707661021 -0.9240762061
15400207600.0 0.3552128925 -0.9294710988
15450207300.0 0.3417688231 -0.9346146104
15500207000.0 0.3256823484 -0.9388898307
15550206700.0 0.3113811068 -0.9434038206
15600206400.0 0.2958292982 -0.9474558863
15650206100.0 0.2800454529 -0.95251297
15700205800.0 0.2656584407 -0.9560328751
15750205500.0 0.2512235109 -0.9596157837
15800205200.0 0.2369697914 -0.963004202
15850204900.0 0.2227095146 -0.9664664788
15900204600.0 0.2076483222 -0.9699582677
15950204300.0 0.193547085 -0.9726869135
16000204000.0 0.1800345681 -0.9756725168
16050203700.0 0.1651890553 -0.9781484746
16100203400.0 0.1507083771 -0.980540361
16150203100.0 0.1365797994 -0.9826499022
16200202800.0 0.1224624406 -0.9844695661
16250202500.0 0.1082189473 -0.986030886
16300202200.0 0.0927034383 -0.9874663689
16350201900.0 0.0780641772 -0.9895667007
16400201600.0 0.063586484 -0.9903076964
16450201300.0 0.048388606 -0.9911469724
16500201000.0 0.0318938889 -0.9920527295
16550200700.0 0.0163946759 -0.9926532273
16600200400.0 0.0005786396 -0.992707979
16650200100.0 -0.0157259434 -0.9925771609
16700199800.0 -0.0324692162 -0.9922810538
16750199500.0 -0.0512685195 -0.9914740498
16800199200.0 -0.06668066 -0.9910747886
16850198900.0 -0.0822642124 -0.9899219218
16900198600.0 -0.0959000178 -0.9883539278
16950198300.0 -0.1096146398 -0.9871680353
17000198000.0 -0.1229466208 -0.9857330211
17050197700.0 -0.1349662595 -0.9836569689
17100197400.0 -0.148580139 -0.981483818
17150197100.0 -0.1614792095 -0.9791377894
17200196800.0 -0.174445905 -0.9774857125
17250196500.0 -0.1873758265 -0.9751280687
17300196200.0 -0.199799016 -0.9726049865
17350195900.0 -0.2116829928 -0.9704781247
17400195600.0 -0.2238728695 -0.9679602674
17450195300.0 -0.2369439881 -0.9651402323
17500195000.0 -0.2502764305 -0.9618626255
17550194700.0 -0.2643143369 -0.9579702613
17600194400.0 -0.2778816802 -0.9539141852
17650194100.0 -0.2917678262 -0.9499756237
17700193800.0 -0.3049964411 -0.945955378
17750193500.0 -0.3190554283 -0.9414557597
17800193200.0 -0.3334134876 -0.9360741007
17850192900.0 -0.3479551374 -0.9306459668
17900192600.0 -0.363121255 -0.9247830367
17950192300.0 -0.3786369292 -0.9176377905
18000192000.0 -0.3932084473 -0.9106192321
18050191700.0 -0.4068497124 -0.9025165371
18100191400.0 -0.4210680672 -0.8950474775
18150191100.0 -0.4359652608 -0.8870387194
18200190800.0 -0.4527732046 -0.8779747396
18250190500.0 -0.4695303166 -0.8685667572
18300190200.0 -0.484769673 -0.8602240439
18350189900.0 -0.4996671905 -0.851524081
18400189600.0 -0.5142157676 -0.8432626564
18450189300.0 -0.5276131285 -0.8346401911
18500189000.0 -0.5406310252 -0.8268537348
18550188700.0 -0.5534604193 -0.8192657516
18600188400.0 -0.5654334547 -0.8125270579
18650188100.0 -0.5765428775 -0.8055901333
18700187800.0 -0.5874174539 -0.798888586
18750187500.0 -0.5985548321 -0.7921271415
18800187200.0 -0.6092309472 -0.7847990027
18850186900.0 -0.619635731 -0.7776489611
18900186600.0 -0.6301615135 -0.7701852262
18950186300.0 -0.6399484657 -0.7622377885
19000186000.0 -0.6479157313 -0.7558677827
19050185700.0 -0.6569205023 -0.7484492065
19100185400.0 -0.6676749106 -0.7394537642
19150185100.0 -0.6782069657 -0.7315363416
19200184800.0 -0.68677764 -0.7226720587
19250184500.0 -0.6972187181 -0.7138295034
19300184200.0 -0.7090827115 -0.7037176186
19350183900.0 -0.719550419 -0.6935527101
19400183600.0 -0.7296664147 -0.6841513643
19450183300.0 -0.7378516432 -0.6744716521
19500183000.0 -0.746223012 -0.6641853837
19550182700.0 -0.7554310045 -0.6530518748
19600182400.0 -0.7661292826 -0.6418885766
19650182100.0 -0.7768093864 -0.6295162679
19700181800.0 -0.7872559324 -0.6165127725
19750181500.0 -0.7975949816 -0.602973449
19800181200.0 -0.8076481801 -0.5880567202
19850180900.0 -0.8172923511 -0.5729238619
19900180600.0 -0.8249848021 -0.5587042267
19950180300.0 -0.8341509097 -0.5423473855
20000180000.0 -0.8274216213 -0.5444953692
20050179700.0 -0.8356417172 -0.5308232617
20100179400.0 -0.8443423282 -0.5176091358
20150179100.0 -0.8519864297 -0.5060218593
20200178800.0 -0.8608265382 -0.4932075431
20250178500.0 -0.8698242948 -0.4790058266
20300178200.0 -0.8795695846 -0.4639570813
20350177900.0 -0.8880218859 -0.4497850782
20400177600.0 -0.8969191729 -0.4351669449
20450177300.0 -0.9053588101 -0.4210229166
20500177000.0 -0.9133607999 -0.4071062754
20550176700.0 -0.9209368218 -0.393519793
20600176400.0 -0.9280210497 -0.3800904906
20650176100.0 -0.9349181934 -0.3672805881
20700175800.0 -0.9413794413 -0.3555786448
20750175500.0 -0.9478908897 -0.3438377395
20800175200.0 -0.9520041924 -0.3325562023
20850174900.0 -0.9579829017 -0.320742698
20900174600.0 -0.9621799096 -0.3086953072
20950174300.0 -0.9660809512 -0.2972324121
21000174000.0 -0.9705651511 -0.2857431487
21050173700.0 -0.9726308603 -0.2749446171
21100173400.0 -0.9775421753 -0.2624761665
21150173100.0 -0.9810013859 -0.2501449242
21200172800.0 -0.9847119207 -0.2363376476
21250172500.0 -0.9877763133 -0.222337273
21300172200.0 -0.9907339256 -0.2080839269
21350171900.0 -0.9921458692 -0.1934274544
21400171600.0 -0.9936745318 -0.179096215
21450171300.0 -0.9942553937 -0.1651198195
21500171000.0 -0.9932641243 -0.1493115548
21550170700.0 -0.9937473328 -0.1340469715
21600170400.0 -0.9932134608 -0.1190479476
21650170100.0 -0.9917764384 -0.1034530845
21700169800.0 -0.9902061414 -0.088524892
21750169500.0 -0.988690397 -0.0716820918
21800169200.0 -0.9883834197 -0.0563182253
21850168900.0 -0.9877714027 -0.0394727033
21900168600.0 -0.9860960016 -0.0239895171
21950168300.0 -0.983447184 -0.0078298985
22000168000.0 -0.9829716952 0.0071868145
22050167700.0 -0.9822094 0.0212562303
22100167400.0 -0.9825678274 0.0359261385
22150167100.0 -0.9828816637 0.0513513065
22200166800.0 -0.9832183606 0.067188202
22250166500.0 -0.9824950647 0.084258487
22300166200.0 -0.9812686235 0.1010092602
22350165900.0 -0.9810007 0.1171003282
22400165600.0 -0.9781130788 0.1327431832
22450165300.0 -0.9765835953 0.1487624634
22500165000.0 -0.9747599278 0.1610453417
22550164700.0 -0.9737907649 0.1762885336
22600164400.0 -0.9727313272 0.1925122038
22650164100.0 -0.9696974446 0.207147272
22700163800.0 -0.9670712395 0.2228415766
22750163500.0 -0.9642650802 0.2382745349
22800163200.0 -0.9612706885 0.2516129009
22850162900.0 -0.9597150004 0.2652001147
22900162600.0 -0.9582809281 0.2784421768
22950162300.0 -0.9569894519 0.2911425879
23000162000.0 -0.9559336942 0.3034401355
23050161700.0 -0.9537691507 0.3154735978
23100161400.0 -0.9516515506 0.3280975127
23150161100.0 -0.9491378108 0.3398692681
23200160800.0 -0.945847502 0.3525393696
23250160500.0 -0.9437934621 0.3644524648
23300160200.0 -0.9406228817 0.37585673
23350159900.0 -0.9371115785 0.3894546387
23400159600.0 -0.932114304 0.4019397255
23450159300.0 -0.9271659071 0.4158847154
23500159000.0 -0.9232206926 0.427619763
23550158700.0 -0.9182555492 0.4413212596
23600158400.0 -0.9129614249 0.4544545868
23650158100.0 -0.9064429596 0.4682370508
23700157800.0 -0.899094616 0.4817862352
23750157500.0 -0.8907838752 0.4953728981
23800157200.0 -0.8817050848 0.508955078
23850156900.0 -0.8728629975 0.5217045072
23900156600.0 -0.8637039122 0.5341682918
23950156300.0 -0.8547252419 0.5455002868
24000156000.0 -0.8454543117 0.5582948341
24050155700.0 -0.8353235225 0.5704066457
24100155400.0 -0.8253951285 0.5819259319
24150155100.0 -0.814312516 0.5942350668
24200154800.0 -0.8037785211 0.6054361901
24250154500.0 -0.7921123947 0.6169294354
24300154200.0 -0.7812121713 0.6283724913
24350153900.0 -0.7692366552 0.6395353998
24400153600.0 -0.7569578159 0.64973156
24450153300.0 -0.7452860596 0.6597282454
24500153000.0 -0.7336847283 0.6693772163
24550152700.0 -0.7223846953 0.6790910793
24600152400.0 -0.7104030286 0.6880645399
24650152100.0 -0.6989453826 0.697187781
