!Created with skrf (http://scikit-rf.org).
# Hz S RI R 50.0 
!freq ReS11 ImS11
300000.0 -0.9819744787 -0.0984763225
50299700.0 -0.9999711397 0.0163695528
100299400.0 -0.9979885071 0.0293723451
150299100.0 -1.002891018 0.0460077699
200298800.0 -0.9997207572 0.0593059767
250298500.0 -0.9973779962 0.0728804226
300298200.0 -0.9861577748 0.0886080073
350297900.0 -0.9940606925 0.0994255942
400297600.0 -0.9930997849 0.116357905
450297300.0 -0.9909114562 0.1300070109
500297000.0 -0.9895096763 0.1449706892
550296700.0 -0.9840181484 0.1571249909
600296400.0 -1.017104829 0.1905049845
650296100.0 -0.9819684417 0.1872622427
700295800.0 -0.9790165381 0.2016011492
750295500.0 -0.9759671178 0.2154844058
800295200.0 -0.9725292501 0.2297043037
850294900.0 -0.969254187 0.2434699499
900294600.0 -0.965318217 0.2571397381
950294300.0 -0.9617357425 0.2708728013
1000294000.0 -0.9576880183 0.2848968736
1050293700.0 -0.9531193709 0.2985770793
1100293400.0 -0.9488940228 0.3130259607
1150293100.0 -0.9450063814 0.3249627424
1200292800.0 -0.9397500936 0.339301903
1250292500.0 -0.9342873272 0.3526374378
1300292200.0 -0.9285716913 0.3657484079
1350291900.0 -0.9230916809 0.3798085607
1400291600.0 -0.9176043642 0.3929767955
1450291300.0 -0.9121821561 0.4052148521
1500291000.0 -0.9056979312 0.4187069283
1550290700.0 -0.8991253213 0.4319367995
1600290400.0 -0.8929155044 0.4447158187
1650290100.0 -0.8861836215 0.4570063219
1700289800.0 -0.8795106871 0.4703826383
1750289500.0 -0.8724767865 0.4825765934
1800289200.0 -0.8651379441 0.4956149958
1850288900.0 -0.8582041575 0.5068618825
1900288600.0 -0.8506396618 0.5198146835
1950288300.0 -0.8422352413 0.5324960014
2000288000.0 -0.8349817887 0.5436803214
2050287700.0 -0.826648789 0.5562957595
2100287400.0 -0.818900466 0.5679919557
2150287100.0 -0.8099541535 0.5799398123
2200286800.0 -0.8023260101 0.5903961702
2250286500.0 -0.7935140738 0.6025458342
2300286200.0 -0.7844597174 0.61411095
2350285900.0 -0.7757189322 0.6250353768
2400285600.0 -0.766451545 0.6359994333
2450285300.0 -0.7580132431 0.6465337847
2500285000.0 -0.7483424026 0.657732258
2550284700.0 -0.7392110877 0.6679889803
2600284400.0 -0.7298855059 0.6780766368
2650284100.0 -0.7210871147 0.6886863646
2700283800.0 -0.7100380719 0.6992688003
2750283500.0 -0.6998549902 0.7098665551
2800283200.0 -0.6899971492 0.7194522315
2850282900.0 -0.6799197866 0.7292212448
2900282600.0 -0.6695260129 0.7389475311
2950282300.0 -0.6594849288 0.7479457624
3000282000.0 -0.6488291108 0.7574865912
3050281700.0 -0.6376560069 0.7667995337
3100281400.0 -0.6257582942 0.77605361
3150281100.0 -0.613887928 0.7854748334
3200280800.0 -0.6023879095 0.7940568656
3250280500.0 -0.5916353467 0.8016602776
3300280200.0 -0.5805853519 0.8093818395
3350279900.0 -0.5689503485 0.8170884672
3400279600.0 -0.5568578482 0.8246726087
3450279300.0 -0.5457486177 0.8317966469
3500279000.0 -0.5337808926 0.8389804304
3550278700.0 -0.5213249294 0.8460724045
3600278400.0 -0.5089186414 0.8531835169
3650278100.0 -0.4956781319 0.8608881095
3700277800.0 -0.483830398 0.8673519762
3750277500.0 -0.4715001701 0.8737714096
3800277200.0 -0.4588549925 0.880579898
3850276900.0 -0.4467432593 0.8864661819
3900276600.0 -0.4357448793 0.8920030049
3950276300.0 -0.4231576626 0.89825137
4000276000.0 -0.4109841497 0.9041732367
4050275700.0 -0.3979956616 0.9101994243
4100275400.0 -0.3868433887 0.9154107882
4150275100.0 -0.3741923064 0.9213221924
4200274800.0 -0.3611071984 0.9266511239
4250274500.0 -0.3487668656 0.9318426629
4300274200.0 -0.3358765348 0.9371992556
4350273900.0 -0.3218201168 0.9423050583
4400273600.0 -0.307286222 0.9476082913
4450273300.0 -0.2918137147 0.9525245496
4500273000.0 -0.2781608493 0.956819669
4550272700.0 -0.2640511287 0.9611741699
4600272400.0 -0.2487197242 0.9655205442
4650272100.0 -0.2368009417 0.9685357517
4700271800.0 -0.2235734764 0.9718662508
4750271500.0 -0.2117792598 0.9747066267
4800271200.0 -0.1992115814 0.9774303787
4850270900.0 -0.1852906517 0.9802990913
4900270600.0 -0.1716164475 0.9826580531
4950270300.0 -0.1575156065 0.9850963894
5000270000.0 -0.143152248 0.9874927143
5050269700.0 -0.1297411563 0.9886446373
5100269400.0 -0.1163359196 0.9903685546
5150269100.0 -0.1029219139 0.9921256421
5200268800.0 -0.0898639987 0.9932621282
5250268500.0 -0.0767386768 0.9939108664
5300268200.0 -0.0637374006 0.9946308243
5350267900.0 -0.0512851591 0.9952026933
5400267600.0 -0.035122267 0.9962782421
5450267300.0 -0.0223741157 0.9968492193
5500267000.0 -0.0071355186 0.9972349495
5550266700.0 0.0077358558 0.9973016613
5600266400.0 0.0235110507 0.997322948
5650266100.0 0.0399013439 0.9968456506
5700265800.0 0.0542337428 0.9962416926
5750265500.0 0.0696668192 0.9956523485
5800265200.0 0.0834196415 0.9941054746
5850264900.0 0.0969038493 0.9934271865
5900264600.0 0.1132412735 0.9911906435
5950264300.0 0.1256519207 0.9897697772
6000264000.0 0.1395902483 0.9879484299
6050263700.0 0.1525440168 0.9864810545
6100263400.0 0.1646842591 0.9844660289
6150263100.0 0.179166242 0.982166562
6200262800.0 0.1900055869 0.9803502995
6250262500.0 0.2026189241 0.9778830324
6300262200.0 0.215285506 0.9750225702
6350261900.0 0.2285640089 0.9721021802
6400261600.0 0.2423689703 0.968865611
6450261300.0 0.2538159287 0.9657798959
6500261000.0 0.2661356322 0.9622915929
6550260700.0 0.2796158012 0.9587138887
6600260400.0 0.2926510308 0.9543538153
6650260100.0 0.3064911984 0.950047081
6700259800.0 0.3185956242 0.9457198364
6750259500.0 0.3325787861 0.9410718389
6800259200.0 0.3455205543 0.936026093
6850258900.0 0.3575686889 0.9309867135
6900258600.0 0.3696212338 0.925920959
6950258300.0 0.3823170336 0.9206087647
7000258000.0 0.3941188975 0.9153096891
7050257700.0 0.4064648226 0.9093316392
7100257400.0 0.4192140212 0.9031109883
7150257100.0 0.4294541384 0.8976666871
7200256800.0 0.4422991182 0.8914225459
7250256500.0 0.4539175887 0.8854187111
7300256200.0 0.4670479187 0.8783793306
7350255900.0 0.4792593755 0.8713481395
7400255600.0 0.4924365265 0.8643755867
7450255300.0 0.5077118088 0.8556389383
7500255000.0 0.5191111325 0.8487056161
7550254700.0 0.5324325859 0.8395752076
7600254400.0 0.5453153662 0.8315279065
7650254100.0 0.5570560349 0.8238191193
7700253800.0 0.5691138496 0.8154416161
7750253500.0 0.5802869141 0.8076865822
7800253200.0 0.5909199082 0.7999438733
7850252900.0 0.6008331296 0.7928651688
7900252600.0 0.6125990768 0.7839871382
7950252300.0 0.6215789231 0.7772683264
8000252000.0 0.6314818963 0.7693650211
8050251700.0 0.6422015338 0.7610019388
8100251400.0 0.6522381675 0.7529564684
8150251100.0 0.6624789409 0.7443766866
8200250800.0 0.6721444543 0.7361777728
8250250500.0 0.6810587501 0.7282457737
8300250200.0 0.6901076915 0.7193983347
8350249900.0 0.698967849 0.7107366345
8400249600.0 0.7073384209 0.7027864603
8450249300.0 0.7168434927 0.6936167187
8500249000.0 0.7252640962 0.6845355246
8550248700.0 0.7336836544 0.6755539424
8600248400.0 0.7420023165 0.6660867811
8650248100.0 0.7498749972 0.6567641056
8700247800.0 0.7593430764 0.6454886739
8750247500.0 0.7674411293 0.6355373907
8800247200.0 0.775724962 0.6253779528
8850246900.0 0.7843234847 0.6139078792
8900246600.0 0.7930160354 0.6027452334
8950246300.0 0.8023448027 0.589794694
9000246000.0 0.8118093651 0.5769271347
9050245700.0 0.8205533487 0.5644149303
9100245400.0 0.8289431611 0.5518051164
9150245100.0 0.8383107112 0.5383228982
9200244800.0 0.8478278345 0.5232348874
9250244500.0 0.8574577607 0.5077369321
9300244200.0 0.8656418183 0.4931928829
9350243900.0 0.8734794423 0.4792248373
9400243600.0 0.8802127022 0.4666125202
9450243300.0 0.8862266877 0.4547269078
9500243000.0 0.8925594931 0.442236009
9550242700.0 0.8962922265 0.4341406034
9600242400.0 0.9003698801 0.4265048601
9650242100.0 0.9039775717 0.4199479078
9700241800.0 0.9087444151 0.411394136
9750241500.0 0.9125251969 0.4035996077
9800241200.0 0.9174187252 0.3944322889
9850240900.0 0.9225722168 0.3828278215
9900240600.0 0.9283271042 0.3712055251
9950240300.0 0.9347677586 0.3549695805
10000240000.0 0.9392502414 0.3433843994
10050239700.0 0.9451971389 0.3279204416
10100239400.0 0.9499383902 0.3131279148
10150239100.0 0.9543601536 0.2982859838
10200238800.0 0.9582153489 0.2834969377
10250238500.0 0.9618007237 0.2701706448
10300238200.0 0.9649114832 0.2561840694
10350237900.0 0.9677265174 0.2433019408
10400237600.0 0.9700622602 0.2302546552
10450237300.0 0.9727376655 0.216611439
10500237000.0 0.9752025069 0.2043318556
10550236700.0 0.9773899316 0.1907418955
10600236400.0 0.9796752988 0.1768707987
10650236100.0 0.9813210754 0.1628340638
10700235800.0 0.9836253239 0.1503101445
10750235500.0 0.9859860111 0.1376044454
10800235200.0 0.9879322395 0.1232305371
10850234900.0 0.9898716915 0.1090260173
10900234600.0 0.9915892868 0.094624794
10950234300.0 0.9934212259 0.0813516039
11000234000.0 0.9953160873 0.0661980663
11050233700.0 0.9969047248 0.0499472217
11100233400.0 0.9982651006 0.0327669163
11150233100.0 0.999307418 0.0164875101
11200232800.0 1.000057449 0.0019461456
11250232500.0 1.000718215 -0.0152410206
11300232200.0 1.001445373 -0.0326274117
11350231900.0 1.000692763 -0.0482958052
11400231600.0 1.000540623 -0.064779742
11450231300.0 1.00033692 -0.0788896861
11500231000.0 0.9992233733 -0.0962110344
11550230700.0 0.9976425725 -0.1097996129
11600230400.0 0.9962774959 -0.1230311753
11650230100.0 0.9940766149 -0.1345630204
11700229800.0 0.9922770076 -0.1496045541
11750229500.0 0.9900362981 -0.164068685
11800229200.0 0.9869661296 -0.1780446069
11850228900.0 0.9836368009 -0.1905495231
11900228600.0 0.9801113731 -0.2005055208
11950228300.0 0.9769291148 -0.211055496
12000228000.0 0.9743642816 -0.2203936731
12050227700.0 0.9703841404 -0.2328954081
12100227400.0 0.9676657448 -0.2435302988
12150227100.0 0.9618512566 -0.2605649198
12200226800.0 0.958719389 -0.2714878707
12250226500.0 0.9553417371 -0.2836185803
12300226200.0 0.9514780111 -0.2961269518
12350225900.0 0.9457332707 -0.3099458478
12400225600.0 0.9416787021 -0.3226405712
12450225300.0 0.9371224415 -0.3354130188
12500225000.0 0.9318633724 -0.349964479
12550224700.0 0.9267626665 -0.3634558529
12600224400.0 0.9217608619 -0.3759584639
12650224100.0 0.9160896826 -0.3900074734
12700223800.0 0.9108782513 -0.4026961528
12750223500.0 0.905398533 -0.415435759
12800223200.0 0.9002231932 -0.4281754493
12850222900.0 0.8945498347 -0.4404933266
12900222600.0 0.8890976828 -0.4524786673
12950222300.0 0.8826192283 -0.4655175055
13000222000.0 0.8765278705 -0.4765428956
13050221700.0 0.8697818807 -0.4892862839
13100221400.0 0.8629105351 -0.5012959189
13150221100.0 0.8561698507 -0.5140898464
13200220800.0 0.8487197239 -0.5257037619
13250220500.0 0.8414086423 -0.5377183879
13300220200.0 0.8338764441 -0.5491018879
13350219900.0 0.8257102333 -0.5610200912
13400219600.0 0.8170901657 -0.5734300801
13450219300.0 0.8075698141 -0.5869164276
13500219000.0 0.7971526841 -0.6012280977
13550218700.0 0.7871262573 -0.6135828593
13600218400.0 0.7774493047 -0.625348945
13650218100.0 0.7670680431 -0.6370996469
13700217800.0 0.756937443 -0.6492351527
13750217500.0 0.7468173792 -0.6617780397
13800217200.0 0.734700675 -0.6725733045
13850216900.0 0.7237219431 -0.6833799929
13900216600.0 0.7141041535 -0.6932939103
13950216300.0 0.7035741777 -0.7031583484
14000216000.0 0.6935859898 -0.7125205493
14050215700.0 0.6838393569 -0.720876058
14100215400.0 0.6739618777 -0.7299415398
14150215100.0 0.6649633113 -0.7382948224
14200214800.0 0.655660262 -0.7469430727
14250214500.0 0.6453848984 -0.7558680478
14300214200.0 0.6353214466 -0.7650657392
14350213900.0 0.6241926407 -0.7743924341
14400213600.0 0.6125876675 -0.7841131686
14450213300.0 0.5993706045 -0.7940600874
14500213000.0 0.586549987 -0.803972558
14550212700.0 0.5741366782 -0.8134334372
14600212400.0 0.5619309999 -0.8218358683
14650212100.0 0.5488491414 -0.8302338905
14700211800.0 0.5348186192 -0.8403833942
14750211500.0 0.5226268337 -0.8480807625
14800211200.0 0.5105136644 -0.8558910715
14850210900.0 0.4983099517 -0.8637391313
14900210600.0 0.4848568341 -0.8715554767
14950210300.0 0.471091437 -0.8794006234
15000210000.0 0.4581070803 -0.8861000216
15050209700.0 0.4457578417 -0.8923016147
15100209400.0 0.4327584609 -0.8985962093
15150209100.0 0.4202100484 -0.9038009155
15200208800.0 0.4071196466 -0.9095739959
15250208500.0 0.395931797 -0.9139117721
15300208200.0 0.3837530903 -0.9189066195
15350207900.0 0.370018525 -0.9241247096
15400207600.0 0.3562778277 -0.9287316361
15450207300.0 0.340696077 -0.9339370639
15500207000.0 0.3263747191 -0.9388008399
15550206700.0 0.3112312327 -0.9441157968
15600206400.0 0.2954378645 -0.9480339775
15650206100.0 0.2794893621 -0.952513795
15700205800.0 0.2657903454 -0.9560506197
15750205500.0 0.2513611511 -0.9597412206
15800205200.0 0.2370021489 -0.9630228145
15850204900.0 0.2226519338 -0.9664292055
15900204600.0 0.207608293 -0.9698201599
15950204300.0 0.1937829771 -0.9728135778
16000204000.0 0.1800016867 -0.9757502657
16050203700.0 0.1649396187 -0.978167617
16100203400.0 0.151011671 -0.9805830449
16150203100.0 0.1366992072 -0.9831463401
16200202800.0 0.1229489729 -0.9846571696
16250202500.0 0.1079098804 -0.9865081432
16300202200.0 0.0931484581 -0.9879557874
16350201900.0 0.0780618932 -0.9892849702
16400201600.0 0.0637463123 -0.9901039055
16450201300.0 0.0485784991 -0.9912182387
16500201000.0 0.0318365375 -0.9919886963
16550200700.0 0.0163894163 -0.9926442724
16600200400.0 0.000385981 -0.9928153488
16650200100.0 -0.0157838352 -0.9925360148
16700199800.0 -0.0326350622 -0.9921401542
16750199500.0 -0.0512372057 -0.9915133278
16800199200.0 -0.066994577 -0.9904786822
16850198900.0 -0.0827086177 -0.9895992535
16900198600.0 -0.0961594603 -0.9886113733
16950198300.0 -0.1099874154 -0.9877322572
17000198000.0 -0.1237631538 -0.9860211088
17050197700.0 -0.1352515576 -0.9835321762
17100197400.0 -0.1489636593 -0.9815471471
17150197100.0 -0.1614449084 -0.9793393793
17200196800.0 -0.1742730361 -0.9773595074
17250196500.0 -0.1871020485 -0.9750239468
17300196200.0 -0.1992619606 -0.9728163555
17350195900.0 -0.2114841125 -0.9703206503
17400195600.0 -0.2237697395 -0.9679385171
17450195300.0 -0.2369437095 -0.9650280732
17500195000.0 -0.2504111104 -0.9617833243
17550194700.0 -0.264512344 -0.9578422296
17600194400.0 -0.2782195399 -0.954006508
17650194100.0 -0.2917645912 -0.9501183841
17700193800.0 -0.3049402227 -0.9460438572
17750193500.0 -0.3192554125 -0.9408382249
17800193200.0 -0.3329879306 -0.9362414103
17850192900.0 -0.3478682068 -0.9308090446
17900192600.0 -0.3634510864 -0.9247268832
17950192300.0 -0.3785098688 -0.9175771375
18000192000.0 -0.3930774058 -0.9103089677
18050191700.0 -0.4069036748 -0.9026242582
18100191400.0 -0.4210592072 -0.8950045818
18150191100.0 -0.4359238933 -0.8871409482
18200190800.0 -0.4526387713 -0.8778297841
18250190500.0 -0.4696204428 -0.8686436289
18300190200.0 -0.4848046726 -0.8600063782
18350189900.0 -0.4996603472 -0.8514934394
18400189600.0 -0.5140618166 -0.8427675301
18450189300.0 -0.5275174543 -0.8351688446
18500189000.0 -0.5413658393 -0.8271099023
18550188700.0 -0.5536562522 -0.8195349107
18600188400.0 -0.5656942128 -0.8122332002
18650188100.0 -0.5765723398 -0.8056092523
18700187800.0 -0.5879393706 -0.7988929572
18750187500.0 -0.5986080282 -0.7919036427
18800187200.0 -0.6093022999 -0.7849638942
18850186900.0 -0.6196353782 -0.777649892
18900186600.0 -0.6302626796 -0.7700646773
18950186300.0 -0.6403183484 -0.762027687
19000186000.0 -0.6478286287 -0.7556255302
19050185700.0 -0.6573429178 -0.7480388972
19100185400.0 -0.66805662 -0.739749487
19150185100.0 -0.67794472 -0.7308338539
19200184800.0 -0.6877455236 -0.722602377
19250184500.0 -0.6978512038 -0.7126674974
19300184200.0 -0.7089655735 -0.7035568482
19350183900.0 -0.7197492747 -0.6935620058
19400183600.0 -0.7300993979 -0.683476933
19450183300.0 -0.7381939187 -0.6740482173
19500183000.0 -0.7459015234 -0.6642708581
19550182700.0 -0.75632692 -0.6532396293
19600182400.0 -0.7663139988 -0.6415629042
19650182100.0 -0.7767003377 -0.6290806988
19700181800.0 -0.7873232142 -0.6161296892
19750181500.0 -0.797629744 -0.6025674533
19800181200.0 -0.8078774531 -0.5879636138
19850180900.0 -0.8172291346 -0.5728076993
19900180600.0 -0.8250353158 -0.558725216
19950180300.0 -0.834091809 -0.5426446309
20000180000.0 -0.8281121897 -0.5449092423
20050179700.0 -0.8354143958 -0.5305930821
20100179400.0 -0.843449748 -0.5176940967
20150179100.0 -0.8528011667 -0.5054737239
20200178800.0 -0.8608480674 -0.4928303578
20250178500.0 -0.8699042465 -0.4793314854
20300178200.0 -0.8792995183 -0.4648842796
20350177900.0 -0.8879838155 -0.4501905267
20400177600.0 -0.8968854359 -0.436121449
20450177300.0 -0.9050455486 -0.4213734138
20500177000.0 -0.9131301538 -0.4071299005
20550176700.0 -0.920881096 -0.3937537796
20600176400.0 -0.9276592855 -0.3802927545
20650176100.0 -0.9341579055 -0.3677332045
20700175800.0 -0.9411102975 -0.3553517901
20750175500.0 -0.9474161082 -0.3441109602
20800175200.0 -0.952538505 -0.3327033136
20850174900.0 -0.9570592361 -0.3212605162
20900174600.0 -0.9625241233 -0.3100781979
20950174300.0 -0.9668326411 -0.2974910807
21000174000.0 -0.9694095438 -0.2852717281
21050173700.0 -0.9725502721 -0.2748727936
21100173400.0 -0.9766552853 -0.2631183392
21150173100.0 -0.9808477314 -0.2498053463
21200172800.0 -0.9846338667 -0.236075917
21250172500.0 -0.9878104455 -0.2225483507
21300172200.0 -0.9904951502 -0.2080494238
21350171900.0 -0.9919313129 -0.1940291737
21400171600.0 -0.9940055122 -0.1800770779
21450171300.0 -0.9936801145 -0.1655143265
21500171000.0 -0.9940630759 -0.1497464933
21550170700.0 -0.9929130524 -0.1341961603
21600170400.0 -0.9934494618 -0.1179848978
21650170100.0 -0.9925069737 -0.103169955
21700169800.0 -0.9903699585 -0.0881050304
21750169500.0 -0.9890237138 -0.0729685269
21800169200.0 -0.9881731882 -0.0571093559
21850168900.0 -0.9872007986 -0.0404674838
21900168600.0 -0.9854237194 -0.0241573403
21950168300.0 -0.9845576182 -0.0084905805
22000168000.0 -0.9833483097 0.0062973325
22050167700.0 -0.982989632 0.0204803867
22100167400.0 -0.9826445724 0.0355182556
22150167100.0 -0.9831979843 0.0507655075
22200166800.0 -0.9830314119 0.0667546688
22250166500.0 -0.982029904 0.0843859946
22300166200.0 -0.9816119215 0.1005017122
22350165900.0 -0.9802254982 0.1172324289
22400165600.0 -0.9785098534 0.1330886831
22450165300.0 -0.9768908776 0.1479486646
22500165000.0 -0.9738986997 0.1610886902
22550164700.0 -0.9741932814 0.1761074088
22600164400.0 -0.9726550021 0.1913052033
22650164100.0 -0.9695858466 0.2061519441
22700163800.0 -0.9674428831 0.2223455496
22750163500.0 -0.9643127044 0.2373924914
22800163200.0 -0.9619692307 0.2514310929
22850162900.0 -0.9593699564 0.2647169049
22900162600.0 -0.9578458476 0.2781587339
22950162300.0 -0.9570043417 0.2910944602
23000162000.0 -0.9556192564 0.302931719
23050161700.0 -0.9540978099 0.3157299195
23100161400.0 -0.9514707883 0.3280436676
23150161100.0 -0.9482861895 0.3408325036
23200160800.0 -0.9455981563 0.3526093486
23250160500.0 -0.9424999396 0.364903079
23300160200.0 -0.9407651438 0.3751613038
23350159900.0 -0.9369785923 0.3894549998
23400159600.0 -0.9323385862 0.4021305213
23450159300.0 -0.926597698 0.4154396897
23500159000.0 -0.9230140955 0.4279469288
23550158700.0 -0.9182498154 0.4408403653
23600158400.0 -0.9126762907 0.4544391654
23650158100.0 -0.9064473037 0.4678711271
23700157800.0 -0.8990633556 0.4815916629
23750157500.0 -0.8904581369 0.4953915742
23800157200.0 -0.881916599 0.508395845
23850156900.0 -0.872843471 0.5210555077
23900156600.0 -0.8642918196 0.5338755914
23950156300.0 -0.8551350645 0.5455202009
24000156000.0 -0.8456618621 0.5580898287
24050155700.0 -0.8357989494 0.569167109
24100155400.0 -0.8250052607 0.5820301079
24150155100.0 -0.8151281971 0.5935338024
24200154800.0 -0.804059952 0.6049521128
24250154500.0 -0.792714508 0.6166525903
24300154200.0 -0.7810135579 0.6275926465
24350153900.0 -0.7696191913 0.6388512708
24400153600.0 -0.7570437625 0.6490664248
24450153300.0 -0.7453561599 0.6590523009
24500153000.0 -0.7339070126 0.6688998797
24550152700.0 -0.722403023 0.6785135994
24600152400.0 -0.7111967496 0.6879815814
24650152100.0 -0.6998068793 0.6963818406
