!Created with skrf (http://scikit-rf.org).
# Hz S RI R 50.0 
!freq ReS11 ImS11
300000.0 -0.9741451031 -0.120553677
50299700.0 -0.9998913665 0.0151583266
100299400.0 -0.997974319 0.0279140396
150299100.0 -1.002702598 0.0449607023
200298800.0 -0.9996108655 0.0582045467
250298500.0 -0.9973489025 0.0715537475
300298200.0 -0.9856565335 0.0873292674
350297900.0 -0.9938043421 0.0983311163
400297600.0 -0.9929549871 0.1147947504
450297300.0 -0.9909992817 0.1287086778
500297000.0 -0.9893256258 0.1436073871
550296700.0 -0.9843243557 0.155775711
600296400.0 -1.017135931 0.1891228639
650296100.0 -0.982210364 0.1859341008
700295800.0 -0.9791652168 0.2000715227
750295500.0 -0.9763654948 0.2140324756
800295200.0 -0.9729223883 0.2280026935
850294900.0 -0.9695527851 0.2419448547
900294600.0 -0.9658585753 0.2556805911
950294300.0 -0.9621275885 0.2693737441
1000294000.0 -0.9580204788 0.2831657891
1050293700.0 -0.9535462591 0.29712935
1100293400.0 -0.9492898695 0.3116387999
1150293100.0 -0.9454850618 0.323335135
1200292800.0 -0.9400723608 0.3378027517
1250292500.0 -0.9347010778 0.3511282868
1300292200.0 -0.9289949676 0.3643461225
1350291900.0 -0.9234507467 0.3783267106
1400291600.0 -0.9179031745 0.3915422862
1450291300.0 -0.9124685786 0.4040767654
1500291000.0 -0.9063295133 0.4174616419
1550290700.0 -0.8997349264 0.4306718587
1600290400.0 -0.893478202 0.4436430269
1650290100.0 -0.8867296223 0.4558413991
1700289800.0 -0.8799082143 0.4693178016
1750289500.0 -0.8729060489 0.481541271
1800289200.0 -0.8656506993 0.4944351388
1850288900.0 -0.8589618316 0.5058896443
1900288600.0 -0.8507998468 0.5185679776
1950288300.0 -0.8428718254 0.5313838581
2000288000.0 -0.835268433 0.5428185522
2050287700.0 -0.8270991887 0.5551435674
2100287400.0 -0.8194221058 0.5664824986
2150287100.0 -0.8107756201 0.5786684944
2200286800.0 -0.8031774865 0.5891452295
2250286500.0 -0.7939832385 0.6014833651
2300286200.0 -0.7851541625 0.6128311261
2350285900.0 -0.7768923014 0.6234059823
2400285600.0 -0.7681293655 0.634150268
2450285300.0 -0.7591137036 0.6450436361
2500285000.0 -0.7490927178 0.6565723277
2550284700.0 -0.7400510034 0.6670701474
2600284400.0 -0.7308138583 0.6767636528
2650284100.0 -0.7222997683 0.687049328
2700283800.0 -0.7119181237 0.6974849637
2750283500.0 -0.7015225137 0.7083340939
2800283200.0 -0.6913385388 0.7179281254
2850282900.0 -0.6812283554 0.7279740604
2900282600.0 -0.6706035913 0.7377431371
2950282300.0 -0.6601552274 0.7470565997
3000282000.0 -0.649633964 0.7567150439
3050281700.0 -0.6382663895 0.7657591869
3100281400.0 -0.6269296735 0.7749936871
3150281100.0 -0.615658978 0.7839690176
3200280800.0 -0.604238904 0.7921136253
3250280500.0 -0.59316332 0.8001916768
3300280200.0 -0.5814889425 0.8084182846
3350279900.0 -0.5692372058 0.8164109661
3400279600.0 -0.5567606711 0.824669805
3450279300.0 -0.5455596439 0.8315276742
3500279000.0 -0.5339733372 0.8384859342
3550278700.0 -0.521711651 0.8456445107
3600278400.0 -0.5100244626 0.8523230754
3650278100.0 -0.4968904522 0.8598676603
3700277800.0 -0.4847603843 0.8664182098
3750277500.0 -0.4722638 0.8734487367
3800277200.0 -0.459965178 0.8797825197
3850276900.0 -0.4479490919 0.8859625715
3900276600.0 -0.4369801103 0.8912399281
3950276300.0 -0.4246623091 0.8973485711
4000276000.0 -0.4132474645 0.9033091307
4050275700.0 -0.4002333292 0.9093311411
4100275400.0 -0.389321792 0.9144899711
4150275100.0 -0.37617907 0.9202857334
4200274800.0 -0.3627655377 0.9262675145
4250274500.0 -0.3501648475 0.9315438112
4300274200.0 -0.3367385073 0.9366633414
4350273900.0 -0.322791867 0.9418421693
4400273600.0 -0.3080761575 0.947190673
4450273300.0 -0.2926726926 0.9522691088
4500273000.0 -0.279902667 0.9565308093
4550272700.0 -0.2660933625 0.960680264
4600272400.0 -0.2511179595 0.9647686175
4650272100.0 -0.2396311158 0.9678395176
4700271800.0 -0.2267595117 0.9711622999
4750271500.0 -0.2149249548 0.9740689113
4800271200.0 -0.2029191276 0.9766952699
4850270900.0 -0.1889992911 0.9795207197
4900270600.0 -0.1753023109 0.9819421577
4950270300.0 -0.1606534566 0.9846452265
5000270000.0 -0.1461727989 0.9865666435
5050269700.0 -0.1326930234 0.9885398157
5100269400.0 -0.1187038688 0.9898917884
5150269100.0 -0.1047454596 0.9913903335
5200268800.0 -0.0912648378 0.9927273693
5250268500.0 -0.0781526052 0.9937797381
5300268200.0 -0.0645109608 0.9942566492
5350267900.0 -0.0516946043 0.9951013197
5400267600.0 -0.0356622544 0.9960972903
5450267300.0 -0.0221761314 0.9965770992
5500267000.0 -0.007050409 0.9969877499
5550266700.0 0.0078792979 0.997240957
5600266400.0 0.0237809486 0.9973392334
5650266100.0 0.0403589104 0.9968002599
5700265800.0 0.054664869 0.9960742817
5750265500.0 0.0692810984 0.9951337105
5800265200.0 0.0831006759 0.9941321982
5850264900.0 0.0961502905 0.9930983116
5900264600.0 0.112579113 0.9910984533
5950264300.0 0.1244257839 0.9898828996
6000264000.0 0.137638883 0.9879809473
6050263700.0 0.149542893 0.986629878
6100263400.0 0.162111779 0.9850121863
6150263100.0 0.1767737482 0.982630686
6200262800.0 0.1863145308 0.9809170973
6250262500.0 0.1988683031 0.9787135555
6300262200.0 0.2111027595 0.976043139
6350261900.0 0.2239820932 0.9734390038
6400261600.0 0.2378768746 0.9699808646
6450261300.0 0.2486099254 0.9676840234
6500261000.0 0.2621815781 0.9641866004
6550260700.0 0.2756385739 0.9601610058
6600260400.0 0.2886809542 0.9561538115
6650260100.0 0.3031243753 0.951794358
6700259800.0 0.3151076696 0.9476703811
6750259500.0 0.3285709357 0.9423376916
6800259200.0 0.3422063358 0.9373108301
6850258900.0 0.3548208102 0.9318277082
6900258600.0 0.3672769409 0.9268009889
6950258300.0 0.3798263907 0.9214812611
7000258000.0 0.3913609175 0.9160817986
7050257700.0 0.4033433636 0.9104012459
7100257400.0 0.4167105265 0.9040011521
7150257100.0 0.4274554641 0.8986365974
7200256800.0 0.440402801 0.8921035285
7250256500.0 0.4530291008 0.8857868886
7300256200.0 0.4659885114 0.878973644
7350255900.0 0.4786328288 0.8716296156
7400255600.0 0.4925248804 0.8643158158
7450255300.0 0.5083874809 0.8552529326
7500255000.0 0.5205428243 0.8473137593
7550254700.0 0.5347157359 0.8382041928
7600254400.0 0.5475643079 0.8302545663
7650254100.0 0.5592115989 0.8223504639
7700253800.0 0.5707698807 0.8142911579
7750253500.0 0.5815987048 0.8068268559
7800253200.0 0.5924201904 0.7988494818
7850252900.0 0.6020040686 0.791535824
7900252600.0 0.6136695727 0.7829128419
7950252300.0 0.622025584 0.7764395156
8000252000.0 0.6320656311 0.7689624259
8050251700.0 0.6425061514 0.7607982253
8100251400.0 0.6521756624 0.7527940134
8150251100.0 0.662326534 0.7443979443
8200250800.0 0.6719945298 0.735928065
8250250500.0 0.6805906298 0.728279921
8300250200.0 0.689786662 0.7201064757
8350249900.0 0.6988858969 0.7110350582
8400249600.0 0.7069944137 0.7031155029
8450249300.0 0.715615303 0.6942914709
8500249000.0 0.7243983055 0.6854504467
8550248700.0 0.7327908321 0.6763135907
8600248400.0 0.7410162632 0.6669137963
8650248100.0 0.7486954475 0.6573536629
8700247800.0 0.7580630038 0.6463479363
8750247500.0 0.7663886536 0.6362105165
8800247200.0 0.774119229 0.626018195
8850246900.0 0.7831846951 0.6145124544
8900246600.0 0.7914933409 0.603006754
8950246300.0 0.8008082005 0.5903990043
9000246000.0 0.8091909658 0.5784797477
9050245700.0 0.8176613868 0.5662681141
9100245400.0 0.8262081644 0.5538089128
9150245100.0 0.8350785614 0.5411262992
9200244800.0 0.8445529743 0.5265996539
9250244500.0 0.8536373306 0.5119151294
9300244200.0 0.8615486041 0.4984839372
9350243900.0 0.8692198338 0.4851932367
9400243600.0 0.8757843442 0.4733838085
9450243300.0 0.8815060255 0.4628848414
9500243000.0 0.8875888796 0.4511028496
9550242700.0 0.891661207 0.443485279
9600242400.0 0.8958165119 0.4362404059
9650242100.0 0.8999668245 0.4290676992
9700241800.0 0.9050588803 0.420586396
9750241500.0 0.9091982497 0.4127722368
9800241200.0 0.9140374066 0.4034058832
9850240900.0 0.9200696096 0.3915202271
9900240600.0 0.9258183305 0.3800194275
9950240300.0 0.9331873741 0.3632715988
10000240000.0 0.9378482194 0.351282774
10050239700.0 0.9441247249 0.3349016605
10100239400.0 0.9494789301 0.3188164282
10150239100.0 0.9539683801 0.303152122
10200238800.0 0.9581659738 0.2879768398
10250238500.0 0.9616397719 0.2743177139
10300238200.0 0.9645083738 0.2603924677
10350237900.0 0.9674424417 0.2471160849
10400237600.0 0.9700461594 0.2333949189
10450237300.0 0.9725619397 0.219968163
10500237000.0 0.9747190491 0.2078570754
10550236700.0 0.9773789949 0.1926713263
10600236400.0 0.9796552783 0.1789278354
10650236100.0 0.9816649105 0.1645599407
10700235800.0 0.9834565922 0.1524415033
10750235500.0 0.9863923114 0.139064846
10800235200.0 0.9883200769 0.1243004792
10850234900.0 0.9901109531 0.109709792
10900234600.0 0.9921863181 0.0946525243
10950234300.0 0.9937292287 0.0812387559
11000234000.0 0.9955613926 0.065831865
11050233700.0 0.9973291489 0.0490275992
11100233400.0 0.998902142 0.0314786486
11150233100.0 0.9998099656 0.0148181179
11200232800.0 1.000934617 -0.0012859276
11250232500.0 1.001863429 -0.0187292572
11300232200.0 1.001464123 -0.0367178306
11350231900.0 1.002414891 -0.053677169
11400231600.0 1.002017593 -0.0691248136
11450231300.0 1.001257 -0.0848000573
11500231000.0 0.9998508976 -0.1011526216
11550230700.0 0.9984002186 -0.1142275798
11600230400.0 0.9973448268 -0.1262203571
11650230100.0 0.9948734094 -0.1389865068
11700229800.0 0.9924079242 -0.1537197245
11750229500.0 0.9902231039 -0.1682460407
11800229200.0 0.9873614564 -0.1814358819
11850228900.0 0.9837632994 -0.1931878928
11900228600.0 0.9799748377 -0.2025756295
11950228300.0 0.9765317491 -0.213387718
12000228000.0 0.9740871269 -0.2213850387
12050227700.0 0.9701493816 -0.2343068212
12100227400.0 0.9670730183 -0.2454862097
12150227100.0 0.962391143 -0.2615184026
12200226800.0 0.9576978347 -0.2727000543
12250226500.0 0.9536065913 -0.2858091203
12300226200.0 0.9501068596 -0.2982296105
12350225900.0 0.944906938 -0.3124410333
12400225600.0 0.9400726112 -0.3243878674
12450225300.0 0.9364534003 -0.3372673872
12500225000.0 0.9305962212 -0.3518362774
12550224700.0 0.9251284075 -0.365209994
12600224400.0 0.9201634812 -0.3782673406
12650224100.0 0.9142866608 -0.3924678151
12700223800.0 0.9090093997 -0.4051918402
12750223500.0 0.9035685804 -0.418095995
12800223200.0 0.8981659061 -0.4311669896
12850222900.0 0.8929757163 -0.4433941238
12900222600.0 0.8872346519 -0.4549171111
12950222300.0 0.8805083278 -0.4680525465
13000222000.0 0.8750811803 -0.479049276
13050221700.0 0.8683683999 -0.492326378
13100221400.0 0.8616377748 -0.5043347569
13150221100.0 0.8547343824 -0.5160282772
13200220800.0 0.8480587362 -0.5278801507
13250220500.0 0.8406440475 -0.5400912556
13300220200.0 0.8329246363 -0.5512575535
13350219900.0 0.8249041583 -0.5628527305
13400219600.0 0.8166484697 -0.5747059738
13450219300.0 0.8074718868 -0.5877829336
13500219000.0 0.7972914934 -0.6010254902
13550218700.0 0.7878026625 -0.613218796
13600218400.0 0.777607447 -0.6249027477
13650218100.0 0.7676917978 -0.6362927788
13700217800.0 0.7574375888 -0.6477423878
13750217500.0 0.747704755 -0.6590399126
13800217200.0 0.7368682114 -0.6698777703
13850216900.0 0.7266578499 -0.6808776627
13900216600.0 0.7159701662 -0.6901275782
13950216300.0 0.7049905537 -0.7002160311
14000216000.0 0.6948782959 -0.7095392193
14050215700.0 0.6863066852 -0.7174062603
14100215400.0 0.6765386102 -0.7265790291
14150215100.0 0.6675060948 -0.734943197
14200214800.0 0.6581378504 -0.7440001232
14250214500.0 0.6477506441 -0.7534187953
14300214200.0 0.6373886093 -0.7627999024
14350213900.0 0.6261786903 -0.7724664583
14400213600.0 0.6146010649 -0.7821994668
14450213300.0 0.6013054221 -0.7927278856
14500213000.0 0.5885209777 -0.8024299759
14550212700.0 0.5761061154 -0.8118238445
14600212400.0 0.563882618 -0.8205780088
14650212100.0 0.5510050366 -0.8287946855
14700211800.0 0.5378134065 -0.8389344118
14750211500.0 0.5250747079 -0.8472854745
14800211200.0 0.5125874946 -0.8554045346
14850210900.0 0.5002169712 -0.8631641349
14900210600.0 0.4869279772 -0.8708130964
14950210300.0 0.4735740439 -0.8786561886
15000210000.0 0.4609471557 -0.8853513002
15050209700.0 0.4486612986 -0.8913138214
15100209400.0 0.4361897717 -0.8976808427
15150209100.0 0.4237067156 -0.9026909951
15200208800.0 0.4111902792 -0.9079584525
15250208500.0 0.4004945236 -0.9132300641
15300208200.0 0.3875968767 -0.9167950406
15350207900.0 0.3747912003 -0.9221214151
15400207600.0 0.3597973117 -0.9275420975
15450207300.0 0.3443905412 -0.9325064761
15500207000.0 0.331329334 -0.9375825055
15550206700.0 0.3161266726 -0.9416764636
15600206400.0 0.2998446342 -0.9468824138
15650206100.0 0.2836914587 -0.9509113113
15700205800.0 0.2703127532 -0.9544040083
15750205500.0 0.2565194388 -0.957697142
15800205200.0 0.2424781714 -0.9612257111
15850204900.0 0.2283141689 -0.9647634312
15900204600.0 0.2131950301 -0.9684243756
15950204300.0 0.1990918796 -0.9714574644
16000204000.0 0.1845437719 -0.9745831685
16050203700.0 0.168947528 -0.9773947987
16100203400.0 0.1541962617 -0.979902472
16150203100.0 0.1393651068 -0.9820356397
16200202800.0 0.1255995903 -0.9841549509
16250202500.0 0.1108423845 -0.9853235253
16300202200.0 0.095305118 -0.9876848977
16350201900.0 0.0802380606 -0.988794416
16400201600.0 0.0659085979 -0.9901280863
16450201300.0 0.0500641834 -0.9914483154
16500201000.0 0.0329464165 -0.9919946493
16550200700.0 0.0169401811 -0.9925210559
16600200400.0 0.0012561954 -0.9928729326
16650200100.0 -0.014834478 -0.9927871344
16700199800.0 -0.0315783155 -0.9921948337
16750199500.0 -0.0505417428 -0.99181299
16800199200.0 -0.065996511 -0.9907994016
16850198900.0 -0.0820496127 -0.9889527761
16900198600.0 -0.0961972127 -0.9885852642
16950198300.0 -0.1094294706 -0.9874790664
17000198000.0 -0.1227665485 -0.9862163545
17050197700.0 -0.1353834413 -0.9844138039
17100197400.0 -0.1481005704 -0.9819870692
17150197100.0 -0.160421555 -0.9799190907
17200196800.0 -0.1738675121 -0.9781320848
17250196500.0 -0.1870009926 -0.9755441639
17300196200.0 -0.1990811955 -0.9732236744
17350195900.0 -0.2107700764 -0.970905626
17400195600.0 -0.2229158905 -0.9682605991
17450195300.0 -0.235614669 -0.9653206802
17500195000.0 -0.2490817172 -0.9621843283
17550194700.0 -0.262699839 -0.9588046133
17600194400.0 -0.2768529162 -0.9546753463
17650194100.0 -0.29002768 -0.9506995627
17700193800.0 -0.3029875409 -0.9462926885
17750193500.0 -0.3173804271 -0.9415302279
17800193200.0 -0.3313918558 -0.936587849
17850192900.0 -0.3465057657 -0.9312365207
17900192600.0 -0.3617771729 -0.925049956
17950192300.0 -0.3767831688 -0.9181143638
18000192000.0 -0.3916080163 -0.9108307906
18050191700.0 -0.4054744821 -0.9030217352
18100191400.0 -0.4195872482 -0.8953816966
18150191100.0 -0.4345713008 -0.8873002579
18200190800.0 -0.4511760329 -0.8781131143
18250190500.0 -0.4683005792 -0.8688008655
18300190200.0 -0.4839077845 -0.8601926708
18350189900.0 -0.4989168325 -0.851876249
18400189600.0 -0.5135673629 -0.8424716732
18450189300.0 -0.5272411142 -0.8352535901
18500189000.0 -0.5399079414 -0.8271710867
18550188700.0 -0.5533868822 -0.8193876042
18600188400.0 -0.5651763766 -0.812548852
18650188100.0 -0.5766450239 -0.806046679
18700187800.0 -0.5874082331 -0.7992761056
18750187500.0 -0.5981652231 -0.7925047592
18800187200.0 -0.6090236473 -0.7857783722
18850186900.0 -0.6192717571 -0.77871828
18900186600.0 -0.6296353101 -0.7714457989
18950186300.0 -0.639829882 -0.7635086575
19000186000.0 -0.6471674094 -0.7574191438
19050185700.0 -0.6566724563 -0.7500007985
19100185400.0 -0.6666798581 -0.7419630966
19150185100.0 -0.6766942425 -0.7334039892
19200184800.0 -0.6861628622 -0.7256462303
19250184500.0 -0.6967087811 -0.7166128555
19300184200.0 -0.7072844046 -0.7059806981
19350183900.0 -0.7181835367 -0.6976443311
19400183600.0 -0.7285814811 -0.6871565702
19450183300.0 -0.7371508933 -0.6770682689
19500183000.0 -0.7459069134 -0.6675139834
19550182700.0 -0.7547983841 -0.656113358
19600182400.0 -0.7652062515 -0.6445086546
19650182100.0 -0.7760329748 -0.6321956415
19700181800.0 -0.7863579414 -0.6187413451
19750181500.0 -0.796908816 -0.6049173845
19800181200.0 -0.806959994 -0.5899077037
19850180900.0 -0.8166513613 -0.5746262364
19900180600.0 -0.8242547863 -0.5601965594
19950180300.0 -0.8335037049 -0.5436078453
20000180000.0 -0.8230260662 -0.5469071757
20050179700.0 -0.8315866714 -0.5339284083
20100179400.0 -0.8399245163 -0.5211993737
20150179100.0 -0.8481731259 -0.509807173
20200178800.0 -0.85625927 -0.4973441558
20250178500.0 -0.8661037529 -0.4859076763
20300178200.0 -0.8747657307 -0.4715897979
20350177900.0 -0.884662098 -0.45861632
20400177600.0 -0.8936251314 -0.4438813465
20450177300.0 -0.9021842638 -0.4291035798
20500177000.0 -0.9099202539 -0.4155010197
20550176700.0 -0.9178244242 -0.4018044667
20600176400.0 -0.9249457129 -0.3891984879
20650176100.0 -0.9314509531 -0.3765459992
20700175800.0 -0.9382189796 -0.3643389463
20750175500.0 -0.9448653094 -0.3533980229
20800175200.0 -0.9500064279 -0.3424936318
20850174900.0 -0.9532657532 -0.3319046156
20900174600.0 -0.9583477658 -0.3201650769
20950174300.0 -0.9605452853 -0.3097890577
21000174000.0 -0.9637666386 -0.2989178695
21050173700.0 -0.9664261383 -0.289722139
21100173400.0 -0.9693507203 -0.2782427637
21150173100.0 -0.9728736408 -0.2660437369
21200172800.0 -0.9767294904 -0.2529240893
21250172500.0 -0.9808077132 -0.240036608
21300172200.0 -0.9841937263 -0.2255098435
21350171900.0 -0.9857581894 -0.2107884616
21400171600.0 -0.9882565738 -0.1972007789
21450171300.0 -0.9891989221 -0.182188355
21500171000.0 -0.9893841723 -0.1671158702
21550170700.0 -0.9901883353 -0.1530162661
21600170400.0 -0.9902846683 -0.137291817
21650170100.0 -0.9907401884 -0.121882186
21700169800.0 -0.9900839161 -0.1064986603
21750169500.0 -0.9904405388 -0.0902972602
21800169200.0 -0.9897525417 -0.07433853
21850168900.0 -0.9897564414 -0.0571324523
21900168600.0 -0.9890706429 -0.0408988721
21950168300.0 -0.9888524397 -0.0246571852
22000168000.0 -0.9887603693 -0.0095703184
22050167700.0 -0.9892275563 0.0044026452
22100167400.0 -0.9900057368 0.0201528689
22150167100.0 -0.9907801555 0.0364617818
22200166800.0 -0.9910575187 0.0528218388
22250166500.0 -0.9905397225 0.070156137
22300166200.0 -0.9897069447 0.0871552703
22350165900.0 -0.9889219107 0.1023492674
22400165600.0 -0.987905825 0.1184156111
22450165300.0 -0.9850506773 0.1336254207
22500165000.0 -0.9833849129 0.1476347072
22550164700.0 -0.9836649384 0.1637660298
22600164400.0 -0.980570157 0.1802649834
22650164100.0 -0.9778719278 0.1958511831
22700163800.0 -0.974722238 0.2120280608
22750163500.0 -0.9715281648 0.2269275923
22800163200.0 -0.9690877076 0.2391050508
22850162900.0 -0.9661307179 0.2529559955
22900162600.0 -0.9642964272 0.2666677444
22950162300.0 -0.962670264 0.2802124282
23000162000.0 -0.9609059875 0.2925663464
23050161700.0 -0.9583286075 0.3060323419
23100161400.0 -0.955649599 0.3196852677
23150161100.0 -0.953341791 0.3328845448
23200160800.0 -0.9504647022 0.3454894768
23250160500.0 -0.946799635 0.3579393246
23300160200.0 -0.9446412154 0.3702917298
23350159900.0 -0.9407661744 0.3841742882
23400159600.0 -0.9356534589 0.3978211076
23450159300.0 -0.9296587192 0.4117951388
23500159000.0 -0.9253040734 0.4251122571
23550158700.0 -0.9206877333 0.4393290624
23600158400.0 -0.9142493127 0.4531737604
23650158100.0 -0.9072644168 0.4677749819
23700157800.0 -0.8989144224 0.4819305423
23750157500.0 -0.8895164611 0.49648539
23800157200.0 -0.8793600451 0.5098032994
23850156900.0 -0.8704685396 0.5228446168
23900156600.0 -0.8605620878 0.5352056789
23950156300.0 -0.8504882609 0.5479842259
24000156000.0 -0.8416630578 0.5603347122
24050155700.0 -0.8312723157 0.5718887291
24100155400.0 -0.8206924813 0.5848389201
24150155100.0 -0.8098401361 0.5978661139
24200154800.0 -0.7984452166 0.6085844996
24250154500.0 -0.7873706046 0.6203413557
24300154200.0 -0.7759187376 0.6328749499
24350153900.0 -0.7641904301 0.6438036202
24400153600.0 -0.7514903721 0.6549607658
24450153300.0 -0.7394208232 0.6647564008
24500153000.0 -0.7277956425 0.6749129019
24550152700.0 -0.7165851298 0.6853502595
24600152400.0 -0.7044385088 0.6944286232
24650152100.0 -0.6922761249 0.7030033574
