!Created with skrf (http://scikit-rf.org).
# Hz S RI R 50.0 
!freq ReS11 ImS11
300000.0 -0.9736384022 -0.1196329452
50299700.0 -1.000008059 0.0152606503
100299400.0 -0.9980442061 0.0281021431
150299100.0 -1.002828083 0.0449710534
200298800.0 -0.9996320939 0.0585136842
250298500.0 -0.9973787132 0.0719208389
300298200.0 -0.9860079145 0.0875523735
350297900.0 -0.9938974909 0.0985613443
400297600.0 -0.9933073877 0.1153877523
450297300.0 -0.9909496201 0.1288443685
500297000.0 -0.9894866347 0.1437092065
550296700.0 -0.9844337674 0.156205004
600296400.0 -1.017331031 0.1894852962
650296100.0 -0.9822082944 0.1857789729
700295800.0 -0.979313076 0.2004194996
750295500.0 -0.9763245547 0.2140971249
800295200.0 -0.9729579754 0.2283758735
850294900.0 -0.9697361953 0.2422735175
900294600.0 -0.9660632993 0.2558298508
950294300.0 -0.9620603865 0.2696262771
1000294000.0 -0.9581312396 0.2835677254
1050293700.0 -0.9537474909 0.2973473502
1100293400.0 -0.9494193063 0.31171315
1150293100.0 -0.9455008558 0.3236133034
1200292800.0 -0.940103361 0.3379451602
1250292500.0 -0.9347539704 0.351432611
1300292200.0 -0.9290270187 0.3647709743
1350291900.0 -0.9236273074 0.3789151758
1400291600.0 -0.9179724412 0.391934975
1450291300.0 -0.9126103863 0.4043157403
1500291000.0 -0.9063397625 0.4177239032
1550290700.0 -0.8996301144 0.4309273237
1600290400.0 -0.8932867488 0.4438173255
1650290100.0 -0.8865330826 0.4559886182
1700289800.0 -0.8799392194 0.4693469834
1750289500.0 -0.8729309751 0.4819335045
1800289200.0 -0.8655122501 0.4945323889
1850288900.0 -0.8587047221 0.5061365309
1900288600.0 -0.8510978126 0.5190604763
1950288300.0 -0.8429152285 0.5313482065
2000288000.0 -0.8353320138 0.5430549117
2050287700.0 -0.8272600633 0.5554233262
2100287400.0 -0.8193509852 0.566745618
2150287100.0 -0.8106708995 0.5790951939
2200286800.0 -0.802915304 0.589304205
2250286500.0 -0.7940272479 0.6014082853
2300286200.0 -0.7851745165 0.6129782197
2350285900.0 -0.776509171 0.6239910829
2400285600.0 -0.7677916423 0.6349031943
2450285300.0 -0.7589984722 0.6452754583
2500285000.0 -0.7493155068 0.656807297
2550284700.0 -0.7404649476 0.6670581171
2600284400.0 -0.7311886198 0.6771765498
2650284100.0 -0.7223650822 0.6876506123
2700283800.0 -0.7116569859 0.6981935604
2750283500.0 -0.7012267353 0.708762754
2800283200.0 -0.6912395854 0.7181926222
2850282900.0 -0.6812010742 0.7283984665
2900282600.0 -0.670771673 0.7378867718
2950282300.0 -0.6605751736 0.7473731919
3000282000.0 -0.6498603579 0.756713996
3050281700.0 -0.6385685371 0.7659158399
3100281400.0 -0.6268551998 0.7753383977
3150281100.0 -0.6151008712 0.7846046378
3200280800.0 -0.603577941 0.7929198712
3250280500.0 -0.5924977753 0.800855878
3300280200.0 -0.5811435834 0.8086281924
3350279900.0 -0.5695831592 0.816253954
3400279600.0 -0.5572656925 0.8239391952
3450279300.0 -0.5460226673 0.8311433479
3500279000.0 -0.5342998563 0.8381039842
3550278700.0 -0.5219816832 0.8454557956
3600278400.0 -0.5096786835 0.8526100841
3650278100.0 -0.496396768 0.860189209
3700277800.0 -0.4844836353 0.8666739997
3750277500.0 -0.4721519804 0.8735040674
3800277200.0 -0.459553672 0.879615359
3850276900.0 -0.447780064 0.8856992367
3900276600.0 -0.4369391375 0.8912199348
3950276300.0 -0.4243032629 0.8973103772
4000276000.0 -0.4127614774 0.90340946
4050275700.0 -0.3998101469 0.9094517404
4100275400.0 -0.3885342937 0.9148535025
4150275100.0 -0.3756986854 0.9205155818
4200274800.0 -0.3628122468 0.9262493845
4250274500.0 -0.3505416739 0.9312498819
4300274200.0 -0.3373080626 0.9367993989
4350273900.0 -0.3236554323 0.9418789096
4400273600.0 -0.3087717128 0.947175055
4450273300.0 -0.2934709162 0.9523762642
4500273000.0 -0.2798082251 0.9566987303
4550272700.0 -0.2659472685 0.9608469576
4600272400.0 -0.2504598518 0.9651339299
4650272100.0 -0.2388689051 0.9683128465
4700271800.0 -0.2255139253 0.9715230404
4750271500.0 -0.2139657006 0.9744317373
4800271200.0 -0.2013856972 0.9770468842
4850270900.0 -0.1875535391 0.9799993571
4900270600.0 -0.1735162573 0.9822575644
4950270300.0 -0.1591177681 0.9847552019
5000270000.0 -0.1449186136 0.9869320831
5050269700.0 -0.131322152 0.9881996621
5100269400.0 -0.1177096453 0.9901275261
5150269100.0 -0.1042510158 0.9917757424
5200268800.0 -0.0909716573 0.992987498
5250268500.0 -0.0781529268 0.9942769871
5300268200.0 -0.0647663641 0.9948832512
5350267900.0 -0.0524621889 0.9950579553
5400267600.0 -0.0362282211 0.996219429
5450267300.0 -0.0229194763 0.996768043
5500267000.0 -0.0077842302 0.9970365955
5550266700.0 0.0069488147 0.9973257643
5600266400.0 0.0224736857 0.9971207276
5650266100.0 0.0389061355 0.9969179691
5700265800.0 0.0535082289 0.9963757222
5750265500.0 0.0685235293 0.995332685
5800265200.0 0.0829296882 0.9947722641
5850264900.0 0.0956709865 0.99346709
5900264600.0 0.1124896983 0.9921096704
5950264300.0 0.1243094012 0.9901473806
6000264000.0 0.1381554046 0.9881993509
6050263700.0 0.1503055478 0.9867092225
6100263400.0 0.1630097683 0.9847306788
6150263100.0 0.177770307 0.9826559195
6200262800.0 0.1878090842 0.9809053313
6250262500.0 0.2004260269 0.9784893579
6300262200.0 0.2132919129 0.9759504139
6350261900.0 0.2262024939 0.9727995465
6400261600.0 0.2399483776 0.9696912461
6450261300.0 0.2513960064 0.9671093387
6500261000.0 0.2642609154 0.9634375475
6550260700.0 0.2771583333 0.9591380583
6600260400.0 0.290454584 0.9554228724
6650260100.0 0.3049048429 0.9513127448
6700259800.0 0.3165132585 0.9467787683
6750259500.0 0.3304344935 0.9416577153
6800259200.0 0.3434091065 0.9365211739
6850258900.0 0.3558606299 0.9317481115
6900258600.0 0.3680324443 0.9267718289
6950258300.0 0.3805492973 0.921390684
7000258000.0 0.3924622176 0.9159430508
7050257700.0 0.4046572036 0.909913975
7100257400.0 0.4175076149 0.9035567258
7150257100.0 0.428040798 0.8983262039
7200256800.0 0.4406784932 0.891821617
7250256500.0 0.4526568068 0.8853960101
7300256200.0 0.4657772552 0.8787595684
7350255900.0 0.4783602845 0.8719182452
7400255600.0 0.4916385206 0.8646732217
7450255300.0 0.5070047157 0.8553981846
7500255000.0 0.5195016684 0.8485922745
7550254700.0 0.5324383338 0.8397644338
7600254400.0 0.5454600913 0.8314690012
7650254100.0 0.5569143835 0.8239593971
7700253800.0 0.5687623075 0.8156572028
7750253500.0 0.5800804493 0.8081572714
7800253200.0 0.5904330211 0.8003305673
7850252900.0 0.6002832754 0.793175713
7900252600.0 0.6118997381 0.7846318447
7950252300.0 0.6205422158 0.778118592
8000252000.0 0.6308406941 0.7704573788
8050251700.0 0.6411663847 0.7622977291
8100251400.0 0.651391079 0.7542046943
8150251100.0 0.6613049887 0.7456287326
8200250800.0 0.6708318101 0.7374556104
8250250500.0 0.6795844651 0.7293859943
8300250200.0 0.6887822156 0.7210557026
8350249900.0 0.6981187932 0.7124717112
8400249600.0 0.7063080505 0.704328681
8450249300.0 0.7150680654 0.6949580442
8500249000.0 0.7238350752 0.686366482
8550248700.0 0.7323113877 0.6770739098
8600248400.0 0.7406545384 0.6677139899
8650248100.0 0.748513804 0.6582180211
8700247800.0 0.7578998647 0.6471282828
8750247500.0 0.7663605443 0.6367391833
8800247200.0 0.7742872785 0.6265771503
8850246900.0 0.7831991311 0.6151812613
8900246600.0 0.7915963505 0.6038166061
8950246300.0 0.8013932505 0.5907490791
9000246000.0 0.8106760772 0.5781700937
9050245700.0 0.8191144104 0.5653410253
9100245400.0 0.8281211757 0.55277157
9150245100.0 0.8370146156 0.539183598
9200244800.0 0.8469483111 0.5244217994
9250244500.0 0.8562343913 0.5090180169
9300244200.0 0.8647862248 0.4945720645
9350243900.0 0.8723596207 0.4808231364
9400243600.0 0.8790528006 0.4686618858
9450243300.0 0.8848007128 0.4572027754
9500243000.0 0.8910377653 0.4450769029
9550242700.0 0.895103538 0.4373432463
9600242400.0 0.8990823829 0.430138294
9650242100.0 0.9025967356 0.4235533513
9700241800.0 0.9072663937 0.4153827852
9750241500.0 0.9112883636 0.4076030446
9800241200.0 0.9161743436 0.3982308185
9850240900.0 0.9216685543 0.3866740083
9900240600.0 0.9272873083 0.3754363668
9950240300.0 0.9338426316 0.3591695504
10000240000.0 0.9383906568 0.3475797376
10050239700.0 0.9443518229 0.3319943502
10100239400.0 0.9495334736 0.3162437017
10150239100.0 0.9540228745 0.3013228759
10200238800.0 0.9582258771 0.2862924982
10250238500.0 0.9614248069 0.2731395426
10300238200.0 0.9645756598 0.2589181979
10350237900.0 0.9672061844 0.2460773273
10400237600.0 0.9698619795 0.2326931685
10450237300.0 0.9726165877 0.2190095584
10500237000.0 0.9747581398 0.2065311696
10550236700.0 0.9770886279 0.1927759689
10600236400.0 0.9789062699 0.178830539
10650236100.0 0.9814039031 0.1643492737
10700235800.0 0.9838754084 0.1514489201
10750235500.0 0.9858704964 0.1383213084
10800235200.0 0.9874089478 0.124667722
10850234900.0 0.9894651999 0.1098645358
10900234600.0 0.99195283 0.0949940547
10950234300.0 0.9935704309 0.0817396519
11000234000.0 0.995175721 0.0665910333
11050233700.0 0.9969792847 0.0501882097
11100233400.0 0.9985808768 0.0328506385
11150233100.0 0.9997516211 0.0164917838
11200232800.0 1.000216733 0.0008373707
11250232500.0 1.002057511 -0.0156709681
11300232200.0 1.002442536 -0.0334814567
11350231900.0 1.001858587 -0.0487400246
11400231600.0 1.002087732 -0.0648641806
11450231300.0 1.000834631 -0.0794864759
11500231000.0 1.000303329 -0.0959019306
11550230700.0 0.9981935254 -0.1091092035
11600230400.0 0.9972118883 -0.1229965003
11650230100.0 0.9950979579 -0.1343791799
11700229800.0 0.9932393489 -0.148527516
11750229500.0 0.9908976702 -0.1632027589
11800229200.0 0.9880898868 -0.1766557385
11850228900.0 0.9846968288 -0.1888222625
11900228600.0 0.9808974634 -0.1986724706
11950228300.0 0.9777443221 -0.2091063303
12000228000.0 0.9747438549 -0.2181021689
12050227700.0 0.9710685179 -0.2309659105
12100227400.0 0.9682072525 -0.2418755184
12150227100.0 0.9631508208 -0.2585143703
12200226800.0 0.9594899665 -0.269140948
12250226500.0 0.9550015009 -0.2827798147
12300226200.0 0.9515769003 -0.294091201
12350225900.0 0.9465054984 -0.3078517341
12400225600.0 0.9422745963 -0.3209672043
12450225300.0 0.9376305647 -0.3337671203
12500225000.0 0.9320601703 -0.3486446507
12550224700.0 0.9265267655 -0.3624344341
12600224400.0 0.9217595585 -0.3753532487
12650224100.0 0.9159923627 -0.3898816986
12700223800.0 0.9107076272 -0.4027047473
12750223500.0 0.905063121 -0.4157268652
12800223200.0 0.9000758235 -0.4279649324
12850222900.0 0.8946396612 -0.440229206
12900222600.0 0.8885739985 -0.4524557129
12950222300.0 0.8827826012 -0.4650141388
13000222000.0 0.87665348 -0.4769487209
13050221700.0 0.8699152762 -0.4893865674
13100221400.0 0.8634518643 -0.5013434393
13150221100.0 0.856562275 -0.5136230952
13200220800.0 0.8497443352 -0.524755222
13250220500.0 0.8423329448 -0.5371657829
13300220200.0 0.8348505459 -0.5480557178
13350219900.0 0.8270208859 -0.5600816111
13400219600.0 0.8186816309 -0.5719307116
13450219300.0 0.8091924476 -0.585672758
13500219000.0 0.7990772452 -0.5987584288
13550218700.0 0.7892348444 -0.6118368876
13600218400.0 0.7789408638 -0.6236770023
13650218100.0 0.7699081063 -0.6343905387
13700217800.0 0.75827039 -0.6468731242
13750217500.0 0.7484832286 -0.6585353566
13800217200.0 0.7369555266 -0.6701952166
13850216900.0 0.7263150666 -0.6815558947
13900216600.0 0.7155461044 -0.690670613
13950216300.0 0.7060181886 -0.7007910983
14000216000.0 0.6955816609 -0.7102686677
14050215700.0 0.6859415285 -0.7182812637
14100215400.0 0.6764648221 -0.7274478144
14150215100.0 0.6670969279 -0.7360361633
14200214800.0 0.6576584221 -0.7446715096
14250214500.0 0.6473792274 -0.7540513044
14300214200.0 0.6369584175 -0.763584973
14350213900.0 0.6259259114 -0.7731643902
14400213600.0 0.6137480574 -0.7828422271
14450213300.0 0.601095194 -0.7931590439
14500213000.0 0.58793435 -0.8030153587
14550212700.0 0.5754650451 -0.8130364539
14600212400.0 0.5623827881 -0.8213469531
14650212100.0 0.5496899972 -0.8302154386
14700211800.0 0.535854454 -0.8396729619
14750211500.0 0.5240921796 -0.8474882636
14800211200.0 0.5119525326 -0.8558304577
14850210900.0 0.4994908792 -0.8633833765
14900210600.0 0.486393414 -0.8711940896
14950210300.0 0.4729657342 -0.8789870522
15000210000.0 0.4601419434 -0.8855240113
15050209700.0 0.447811952 -0.8918922132
15100209400.0 0.4349720307 -0.8974919571
15150209100.0 0.4226223505 -0.9031084991
15200208800.0 0.4098226197 -0.9085946106
15250208500.0 0.3994774653 -0.9128596428
15300208200.0 0.3870709585 -0.9176052617
15350207900.0 0.3735419139 -0.9219017127
15400207600.0 0.3585176385 -0.9281503031
15450207300.0 0.3442412542 -0.9326773538
15500207000.0 0.3294741455 -0.9372208496
15550206700.0 0.3150817146 -0.9423089314
15600206400.0 0.2989236443 -0.9473240026
15650206100.0 0.2829966042 -0.950822849
15700205800.0 0.2693284987 -0.9544199577
15750205500.0 0.2549944277 -0.958579795
15800205200.0 0.240703001 -0.9619683924
15850204900.0 0.2262747294 -0.9653495691
15900204600.0 0.2112693774 -0.9688895471
15950204300.0 0.197136286 -0.9718996019
16000204000.0 0.1827206486 -0.9750568207
16050203700.0 0.1679668403 -0.9777509636
16100203400.0 0.1533484062 -0.9801358301
16150203100.0 0.1386022761 -0.9823110233
16200202800.0 0.1251011095 -0.9845937441
16250202500.0 0.1099164721 -0.9859300805
16300202200.0 0.0942517695 -0.9878611731
16350201900.0 0.0791971798 -0.9893492074
16400201600.0 0.064663123 -0.9901754999
16450201300.0 0.049327621 -0.991028908
16500201000.0 0.0327859116 -0.9921087285
16550200700.0 0.0171349848 -0.9926123258
16600200400.0 0.0014051651 -0.9927682055
16650200100.0 -0.0147766998 -0.9927679741
16700199800.0 -0.0308244906 -0.9924989685
16750199500.0 -0.0495424791 -0.9918055921
16800199200.0 -0.0652352423 -0.9906589424
16850198900.0 -0.0807739063 -0.9898753166
16900198600.0 -0.0944931154 -0.9884292013
16950198300.0 -0.1083327371 -0.9865768858
17000198000.0 -0.1212597893 -0.9860481554
17050197700.0 -0.1338603222 -0.9844920138
17100197400.0 -0.1464603378 -0.9821488247
17150197100.0 -0.159238154 -0.9801889573
17200196800.0 -0.1719229932 -0.9781995445
17250196500.0 -0.1849010827 -0.9758219564
17300196200.0 -0.1970352661 -0.9734123921
17350195900.0 -0.2088428399 -0.9711158969
17400195600.0 -0.2211276955 -0.9686631815
17450195300.0 -0.2340927301 -0.9657281584
17500195000.0 -0.2475992442 -0.9624678253
17550194700.0 -0.2616510816 -0.958956518
17600194400.0 -0.2755574046 -0.9550082072
17650194100.0 -0.2892067721 -0.9508292272
17700193800.0 -0.3024329312 -0.9468658147
17750193500.0 -0.3164899489 -0.9423011922
17800193200.0 -0.3312405983 -0.937260697
17850192900.0 -0.345706361 -0.9316556977
17900192600.0 -0.3612971697 -0.9254390803
17950192300.0 -0.3768021989 -0.9182070276
18000192000.0 -0.3915217674 -0.9113662041
18050191700.0 -0.4053649841 -0.9033722701
18100191400.0 -0.4195046211 -0.8955998046
18150191100.0 -0.4345311007 -0.8877194561
18200190800.0 -0.4514483321 -0.8785336915
18250190500.0 -0.468355968 -0.8688941501
18300190200.0 -0.4841776134 -0.860522115
18350189900.0 -0.4989129867 -0.8518256213
18400189600.0 -0.5132900299 -0.8432765619
18450189300.0 -0.526984427 -0.8350362456
18500189000.0 -0.5399285083 -0.8275833928
18550188700.0 -0.5527541625 -0.8200207525
18600188400.0 -0.564451023 -0.812916936
18650188100.0 -0.5754022753 -0.80693515
18700187800.0 -0.5864800504 -0.8002205669
18750187500.0 -0.5970246977 -0.7937380382
18800187200.0 -0.6076758761 -0.7869113608
18850186900.0 -0.6176493705 -0.7798285677
18900186600.0 -0.6279285118 -0.7726710336
18950186300.0 -0.6380018292 -0.7650373116
19000186000.0 -0.6451172083 -0.7588583972
19050185700.0 -0.6543357332 -0.751852269
19100185400.0 -0.6645552597 -0.7432853604
19150185100.0 -0.6746613116 -0.7347025361
19200184800.0 -0.6834547855 -0.7271494349
19250184500.0 -0.6939261383 -0.7170129114
19300184200.0 -0.7056897221 -0.708122922
19350183900.0 -0.7168013812 -0.6990696834
19400183600.0 -0.7263131734 -0.6882798887
19450183300.0 -0.7351904342 -0.6782270698
19500183000.0 -0.7427478406 -0.6680673147
19550182700.0 -0.7530275011 -0.6573117423
19600182400.0 -0.7631699967 -0.6456504962
19650182100.0 -0.7742216885 -0.6330242847
19700181800.0 -0.7847416282 -0.6199958244
19750181500.0 -0.7953785431 -0.6056424043
19800181200.0 -0.8058509103 -0.5907097236
19850180900.0 -0.8155627127 -0.5753639509
19900180600.0 -0.823314815 -0.5607060569
19950180300.0 -0.83265512 -0.544508162
20000180000.0 -0.8250674582 -0.5464804429
20050179700.0 -0.8333440647 -0.5350330257
20100179400.0 -0.8418031881 -0.5209070421
20150179100.0 -0.8501720952 -0.5080241283
20200178800.0 -0.858966383 -0.4953450225
20250178500.0 -0.8687551961 -0.4821314713
20300178200.0 -0.8779531224 -0.4680156425
20350177900.0 -0.8872883704 -0.4533848821
20400177600.0 -0.8962292374 -0.439396351
20450177300.0 -0.9042670312 -0.4246611482
20500177000.0 -0.9121045895 -0.4106569834
20550176700.0 -0.9203519081 -0.3972829453
20600176400.0 -0.9270137391 -0.3839758555
20650176100.0 -0.9339978085 -0.3721476475
20700175800.0 -0.9403534075 -0.3599725533
20750175500.0 -0.9466374359 -0.3477557841
20800175200.0 -0.9518343286 -0.3371654543
20850174900.0 -0.9567279782 -0.3263698909
20900174600.0 -0.9603187495 -0.3162889079
20950174300.0 -0.9649213128 -0.3038075134
21000174000.0 -0.9681362174 -0.2922913667
21050173700.0 -0.9696671562 -0.2820950471
21100173400.0 -0.9743573836 -0.2702665105
21150173100.0 -0.978558975 -0.2582455124
21200172800.0 -0.9821199166 -0.2447427513
21250172500.0 -0.9852718763 -0.23089183
21300172200.0 -0.9883748304 -0.216968164
21350171900.0 -0.9896112585 -0.2023974962
21400171600.0 -0.9912483731 -0.1882949226
21450171300.0 -0.9917610719 -0.173485379
21500171000.0 -0.9916962913 -0.1579307948
21550170700.0 -0.9919884277 -0.1424878303
21600170400.0 -0.9924396261 -0.1278879609
21650170100.0 -0.9907909619 -0.1110839565
21700169800.0 -0.9904210955 -0.0950290788
21750169500.0 -0.9878353507 -0.0810114221
21800169200.0 -0.9881730631 -0.0633991353
21850168900.0 -0.9871472866 -0.0470770126
21900168600.0 -0.9868248665 -0.0307871581
21950168300.0 -0.9849198689 -0.0151865902
22000168000.0 -0.9845455616 4.77668e-05
22050167700.0 -0.9845350361 0.0145624576
22100167400.0 -0.9846795008 0.0296218937
22150167100.0 -0.9853044937 0.0453409843
22200166800.0 -0.9859257036 0.0616286385
22250166500.0 -0.9858371915 0.0790728126
22300166200.0 -0.9844687442 0.0954160557
22350165900.0 -0.9837278836 0.1131426331
22400165600.0 -0.9812602602 0.1278232372
22450165300.0 -0.980275966 0.1424172275
22500165000.0 -0.9779820999 0.1567528156
22550164700.0 -0.976742792 0.17216852
22600164400.0 -0.9745584779 0.1876321285
22650164100.0 -0.9729448091 0.2026079191
22700163800.0 -0.969203404 0.2178194631
22750163500.0 -0.9675067465 0.2331398085
22800163200.0 -0.9645328328 0.2469109005
22850162900.0 -0.9621954937 0.2604537069
22900162600.0 -0.9605863475 0.2733453357
22950162300.0 -0.9596726828 0.286213088
23000162000.0 -0.9581578696 0.2985002488
23050161700.0 -0.956106626 0.3111653869
23100161400.0 -0.9536068719 0.3236182415
23150161100.0 -0.9511127071 0.336448013
23200160800.0 -0.9473662581 0.3480280146
23250160500.0 -0.9456901954 0.3613189112
23300160200.0 -0.9427291002 0.3724858501
23350159900.0 -0.938736484 0.3862906688
23400159600.0 -0.9340913698 0.3996202846
23450159300.0 -0.9288156215 0.4124833618
23500159000.0 -0.9248333634 0.4257815394
23550158700.0 -0.9206389783 0.43922624
23600158400.0 -0.9150139688 0.4526995611
23650158100.0 -0.908673201 0.4668919546
23700157800.0 -0.9007014225 0.4806778956
23750157500.0 -0.8922041533 0.4948852711
23800157200.0 -0.8830190448 0.5080024478
23850156900.0 -0.8740365046 0.5210754575
23900156600.0 -0.8650968014 0.5334310752
23950156300.0 -0.8555711967 0.5461622708
24000156000.0 -0.8469495916 0.55813678
24050155700.0 -0.8370773491 0.5697405142
24100155400.0 -0.8263203684 0.5820955505
24150155100.0 -0.8157385407 0.5935848083
24200154800.0 -0.8052278505 0.6054859352
24250154500.0 -0.7935381995 0.6169000005
24300154200.0 -0.7820617209 0.6282812485
24350153900.0 -0.7702667262 0.6389407991
24400153600.0 -0.7581916161 0.6495821094
24450153300.0 -0.7464054263 0.6592376944
24500153000.0 -0.7347960791 0.6688536278
24550152700.0 -0.7238859021 0.6780170637
24600152400.0 -0.7120368307 0.687369198
24650152100.0 -0.700710989 0.6961913757
