!Created with skrf (http://scikit-rf.org).
# Hz S RI R 50.0 
!freq ReS11 ImS11
300000.0 -0.9739212171 -0.1235666227
50299700.0 -0.9999247828 0.0148419662
100299400.0 -0.9978983551 0.0279085281
150299100.0 -1.002663346 0.0447942713
200298800.0 -0.9995159872 0.058034844
250298500.0 -0.9974021685 0.0716153638
300298200.0 -0.9859067222 0.0873911245
350297900.0 -0.9938131731 0.0983231215
400297600.0 -0.9929976354 0.114958957
450297300.0 -0.9908781437 0.1287419396
500297000.0 -0.9894412174 0.1434030711
550296700.0 -0.9843675869 0.1558808658
600296400.0 -1.017188389 0.1889827085
650296100.0 -0.9820478522 0.1857217183
700295800.0 -0.979606971 0.1999382885
750295500.0 -0.9762443404 0.2138128813
800295200.0 -0.9728468142 0.2281260361
850294900.0 -0.9697563086 0.2417794732
900294600.0 -0.9657363824 0.2556178491
950294300.0 -0.9620379159 0.2694088745
1000294000.0 -0.9583010211 0.2833560474
1050293700.0 -0.9535267485 0.2971015326
1100293400.0 -0.9493274374 0.3114302356
1150293100.0 -0.9455265019 0.3235002102
1200292800.0 -0.9402078955 0.337733727
1250292500.0 -0.934952182 0.3511863499
1300292200.0 -0.9289072531 0.3644376717
1350291900.0 -0.9234164591 0.3785413248
1400291600.0 -0.9181251018 0.3914613696
1450291300.0 -0.9124062691 0.4042077867
1500291000.0 -0.9063918855 0.4174113449
1550290700.0 -0.899808056 0.4306926602
1600290400.0 -0.893488926 0.44368544
1650290100.0 -0.8869127916 0.4558517627
1700289800.0 -0.8801119463 0.4693060059
1750289500.0 -0.8728033305 0.4815142743
1800289200.0 -0.8657120604 0.4944785404
1850288900.0 -0.8587454827 0.5056928786
1900288600.0 -0.8510523238 0.518890575
1950288300.0 -0.8430989469 0.5314647276
2000288000.0 -0.8353157759 0.5427527841
2050287700.0 -0.8272686238 0.5555005132
2100287400.0 -0.8194573925 0.5668015935
2150287100.0 -0.810928335 0.5786988217
2200286800.0 -0.8030432789 0.5892853443
2250286500.0 -0.7940361424 0.6015178419
2300286200.0 -0.785334935 0.6130079822
2350285900.0 -0.7770304925 0.6235713661
2400285600.0 -0.7679854967 0.634450118
2450285300.0 -0.759233829 0.6452146911
2500285000.0 -0.7490821159 0.6568495471
2550284700.0 -0.740177578 0.66707743
2600284400.0 -0.730841399 0.6768020187
2650284100.0 -0.7224841112 0.6872572286
2700283800.0 -0.7116870945 0.6975481365
2750283500.0 -0.7016983994 0.708258812
2800283200.0 -0.6913683004 0.7182579869
2850282900.0 -0.6811389398 0.7281467805
2900282600.0 -0.6706340924 0.7379081909
2950282300.0 -0.6600545921 0.7473897854
3000282000.0 -0.64942157 0.7566762181
3050281700.0 -0.6383302088 0.7658571133
3100281400.0 -0.6268198261 0.7750396493
3150281100.0 -0.6155368401 0.7838439623
3200280800.0 -0.6040173402 0.7923483754
3250280500.0 -0.5930740296 0.800367958
3300280200.0 -0.5812324956 0.8084847717
3350279900.0 -0.5689966412 0.8164456788
3400279600.0 -0.556685683 0.8247427573
3450279300.0 -0.5454879794 0.831704037
3500279000.0 -0.5337202633 0.8387175818
3550278700.0 -0.52154483 0.8456316995
3600278400.0 -0.5100988898 0.8526965024
3650278100.0 -0.4966210465 0.8599725797
3700277800.0 -0.4844156222 0.8665963701
3750277500.0 -0.4722471478 0.8733812853
3800277200.0 -0.4596282738 0.8798274511
3850276900.0 -0.4478131312 0.885662962
3900276600.0 -0.4367209855 0.891381876
3950276300.0 -0.4246740755 0.8971618533
4000276000.0 -0.4129826216 0.9033703144
4050275700.0 -0.400486792 0.9091336482
4100275400.0 -0.3893863235 0.9144957556
4150275100.0 -0.3758289579 0.9204402431
4200274800.0 -0.362692974 0.9259512485
4250274500.0 -0.3499044445 0.9313713712
4300274200.0 -0.3367233431 0.9369157942
4350273900.0 -0.322395715 0.942197237
4400273600.0 -0.307627323 0.9472594702
4450273300.0 -0.2926065712 0.9522304287
4500273000.0 -0.2796498154 0.9565712222
4550272700.0 -0.2658990872 0.9606546708
4600272400.0 -0.2508034251 0.9647910839
4650272100.0 -0.2395869669 0.9678493366
4700271800.0 -0.2266173842 0.9712215925
4750271500.0 -0.2149831612 0.9740434307
4800271200.0 -0.2027086568 0.9766649307
4850270900.0 -0.1888366414 0.9795096491
4900270600.0 -0.1751618631 0.9819431259
4950270300.0 -0.1605998472 0.9846835235
5000270000.0 -0.146157657 0.9866229213
5050269700.0 -0.1327660176 0.9883257432
5100269400.0 -0.118520942 0.9900388846
5150269100.0 -0.1045890143 0.9912924683
5200268800.0 -0.0911748301 0.9927616001
5250268500.0 -0.0778989485 0.993830004
5300268200.0 -0.0644944995 0.9945887477
5350267900.0 -0.0514733902 0.9952906928
5400267600.0 -0.0356321439 0.9963254865
5450267300.0 -0.0219314142 0.9967193935
5500267000.0 -0.0068085027 0.9970116746
5550266700.0 0.0080991368 0.9972862222
5600266400.0 0.0239335152 0.9969507884
5650266100.0 0.0406362918 0.9968964238
5700265800.0 0.05469215 0.9956357673
5750265500.0 0.0700765962 0.9952772918
5800265200.0 0.0833938388 0.9942289694
5850264900.0 0.096606815 0.9928240135
5900264600.0 0.113403629 0.9912634634
5950264300.0 0.1246453917 0.9897042294
6000264000.0 0.1383482664 0.9878154205
6050263700.0 0.150039137 0.9867387194
6100263400.0 0.1619389383 0.9847671391
6150263100.0 0.1767792955 0.9825701641
6200262800.0 0.1863435492 0.9810580191
6250262500.0 0.1989213254 0.9785297288
6300262200.0 0.211176443 0.9760493868
6350261900.0 0.2240866174 0.9734297141
6400261600.0 0.2380088279 0.9702468326
6450261300.0 0.2489097024 0.9676104262
6500261000.0 0.2622969942 0.9642336851
6550260700.0 0.2754389725 0.9599637134
6600260400.0 0.2886082333 0.955798143
6650260100.0 0.3031882301 0.9514521948
6700259800.0 0.3151661285 0.9473014411
6750259500.0 0.3289900588 0.9424708206
6800259200.0 0.3423842972 0.9371441359
6850258900.0 0.3547796837 0.9320383712
6900258600.0 0.367554224 0.9269638904
6950258300.0 0.3800478571 0.9215178821
7000258000.0 0.3913673459 0.9162261071
7050257700.0 0.4034627021 0.9103911877
7100257400.0 0.416776339 0.9039997204
7150257100.0 0.4276299537 0.89851517
7200256800.0 0.4408033196 0.8920311822
7250256500.0 0.4530693919 0.8853077066
7300256200.0 0.4661219531 0.8787070785
7350255900.0 0.4790906043 0.871669251
7400255600.0 0.4933493396 0.86417042
7450255300.0 0.5085548876 0.8546692914
7500255000.0 0.5212541057 0.8474202617
7550254700.0 0.5351831195 0.8381453978
7600254400.0 0.5478056165 0.8296951558
7650254100.0 0.5592410782 0.821786184
7700253800.0 0.5713249187 0.8138852586
7750253500.0 0.5819803134 0.8062145399
7800253200.0 0.5926570275 0.7984934225
7850252900.0 0.60247544 0.791184777
7900252600.0 0.6138355495 0.7825445258
7950252300.0 0.622332778 0.7760815038
8000252000.0 0.6322683111 0.7685011966
8050251700.0 0.6427143181 0.7603322366
8100251400.0 0.6527624758 0.7526981363
8150251100.0 0.6625226304 0.7439589803
8200250800.0 0.6718197122 0.7356353873
8250250500.0 0.6809205292 0.727702088
8300250200.0 0.6899532919 0.7195598899
8350249900.0 0.6992913355 0.7107972348
8400249600.0 0.7075134572 0.7026679144
8450249300.0 0.716269747 0.6939978421
8500249000.0 0.7245553617 0.6851275449
8550248700.0 0.7330193395 0.6761159887
8600248400.0 0.7412698765 0.6666172028
8650248100.0 0.7488543995 0.6572681769
8700247800.0 0.7581914957 0.6460181801
8750247500.0 0.7663382763 0.6359977943
8800247200.0 0.7744440536 0.6257458051
8850246900.0 0.7829918198 0.6142792833
8900246600.0 0.7916271046 0.6027765902
8950246300.0 0.8007545228 0.590395138
9000246000.0 0.8092494921 0.5784407976
9050245700.0 0.8180034885 0.5659787342
9100245400.0 0.8259677776 0.5539026656
9150245100.0 0.835094288 0.5408666142
9200244800.0 0.8444214418 0.5264045041
9250244500.0 0.8533301597 0.5117322367
9300244200.0 0.8615526606 0.4980723876
9350243900.0 0.8691471642 0.4849610302
9400243600.0 0.8759247962 0.4732522319
9450243300.0 0.8814145892 0.4627498352
9500243000.0 0.8876475135 0.4510554628
9550242700.0 0.8915173903 0.4435960763
9600242400.0 0.8957026819 0.4361638073
9650242100.0 0.900117791 0.4289746545
9700241800.0 0.9049533826 0.4207537529
9750241500.0 0.909307321 0.4127777463
9800241200.0 0.9142313621 0.4032755029
9850240900.0 0.9199311303 0.3918167893
9900240600.0 0.9263323358 0.3796431456
9950240300.0 0.9333207299 0.3628474459
10000240000.0 0.9381570035 0.3505514082
10050239700.0 0.9442188555 0.3344242369
10100239400.0 0.9494412817 0.3184180513
10150239100.0 0.9541881908 0.302923214
10200238800.0 0.9584587303 0.2875446933
10250238500.0 0.9614809315 0.2739829916
10300238200.0 0.9647647654 0.2599987139
10350237900.0 0.9675444002 0.2467357096
10400237600.0 0.9701794331 0.2332708701
10450237300.0 0.9728782334 0.2197366625
10500237000.0 0.9750617504 0.2071162077
10550236700.0 0.9775042971 0.1926068797
10600236400.0 0.9793869157 0.1793974804
10650236100.0 0.9818804662 0.1645104569
10700235800.0 0.9835323995 0.1522313095
10750235500.0 0.9859309731 0.1383013671
10800235200.0 0.9880126102 0.1238488598
10850234900.0 0.9900529765 0.1092281448
10900234600.0 0.991821466 0.0944689038
10950234300.0 0.9937609969 0.0810856514
11000234000.0 0.9955827995 0.0653849427
11050233700.0 0.9973253666 0.0486248036
11100233400.0 0.9986993344 0.0310607575
11150233100.0 1.000067082 0.0144927671
11200232800.0 1.000610224 -0.0024416203
11250232500.0 1.001720232 -0.0198926918
11300232200.0 1.002963618 -0.0382502703
11350231900.0 1.001441998 -0.0542089495
11400231600.0 1.002188164 -0.0706885157
11450231300.0 1.001374011 -0.0866834746
11500231000.0 0.9993982748 -0.102468449
11550230700.0 0.998286567 -0.1156999894
11600230400.0 0.9971908262 -0.1278006965
11650230100.0 0.9948556908 -0.1398382694
11700229800.0 0.9924660125 -0.1548649936
11750229500.0 0.9902342586 -0.1691600048
11800229200.0 0.987397827 -0.1824061972
11850228900.0 0.9834480691 -0.1940798225
11900228600.0 0.9797253895 -0.2037876937
11950228300.0 0.9764477789 -0.213696833
12000228000.0 0.9734168115 -0.2227817631
12050227700.0 0.9696168621 -0.2355477461
12100227400.0 0.9665403713 -0.2460379668
12150227100.0 0.9614502349 -0.263217969
12200226800.0 0.9581001814 -0.2732661293
12250226500.0 0.9540403026 -0.2864669858
12300226200.0 0.9494342362 -0.2982423924
12350225900.0 0.9445288197 -0.3124703387
12400225600.0 0.9398615169 -0.3245422329
12450225300.0 0.9357268765 -0.3368675579
12500225000.0 0.9302520932 -0.3520810697
12550224700.0 0.9248339117 -0.3659843191
12600224400.0 0.9198734197 -0.3785028619
12650224100.0 0.9139713753 -0.3927713133
12700223800.0 0.9089188906 -0.4053547713
12750223500.0 0.9033605585 -0.4185964875
12800223200.0 0.8980361465 -0.4313559529
12850222900.0 0.8926971666 -0.4431998045
12900222600.0 0.8870570042 -0.4553102923
12950222300.0 0.8810772806 -0.4677135794
13000222000.0 0.8752842798 -0.4792496883
13050221700.0 0.8683714053 -0.4926948532
13100221400.0 0.8612520004 -0.5050832617
13150221100.0 0.8542682467 -0.5173113784
13200220800.0 0.8474306206 -0.5283828475
13250220500.0 0.8401385963 -0.5403012272
13300220200.0 0.8324582037 -0.551996899
13350219900.0 0.8246087542 -0.563715506
13400219600.0 0.8161006597 -0.5755244368
13450219300.0 0.8068532514 -0.5883860507
13500219000.0 0.7969672225 -0.6016912988
13550218700.0 0.786540188 -0.6139513749
13600218400.0 0.7769694906 -0.6262067721
13650218100.0 0.767790651 -0.6362461497
13700217800.0 0.7575226083 -0.648109077
13750217500.0 0.7472960512 -0.6599814028
13800217200.0 0.7356231028 -0.6704585281
13850216900.0 0.7256244186 -0.6817080034
13900216600.0 0.7159099744 -0.6907152106
13950216300.0 0.705424011 -0.7001295842
14000216000.0 0.6951472562 -0.7092960948
14050215700.0 0.6862877425 -0.7178213578
14100215400.0 0.6762628726 -0.7263930868
14150215100.0 0.6671451637 -0.7354908941
14200214800.0 0.6576535797 -0.744289837
14250214500.0 0.647280863 -0.7535941831
14300214200.0 0.6367781895 -0.7630760136
14350213900.0 0.6259166756 -0.7728770146
14400213600.0 0.6140156405 -0.7825109804
14450213300.0 0.6011776984 -0.7930240832
14500213000.0 0.5881710256 -0.8022120281
14550212700.0 0.575257279 -0.8121251753
14600212400.0 0.5631594144 -0.8203395694
14650212100.0 0.5500107058 -0.8294423487
14700211800.0 0.5367564161 -0.838838612
14750211500.0 0.5243792951 -0.8474627028
14800211200.0 0.5117952346 -0.8557054369
14850210900.0 0.4994776106 -0.8633625334
14900210600.0 0.4861967717 -0.8712263205
14950210300.0 0.4729270302 -0.8788499815
15000210000.0 0.4602663737 -0.8856006476
15050209700.0 0.4481536547 -0.8918111075
15100209400.0 0.4354398185 -0.8973492547
15150209100.0 0.4229605236 -0.9025771427
15200208800.0 0.4109010212 -0.9079181812
15250208500.0 0.3988073201 -0.9131170715
15300208200.0 0.3868007408 -0.9174113693
15350207900.0 0.3732967846 -0.9222838221
15400207600.0 0.3588415867 -0.9279098586
15450207300.0 0.3447670866 -0.9328386912
15500207000.0 0.3299342149 -0.9375264668
15550206700.0 0.3150526167 -0.9419710118
15600206400.0 0.2990207473 -0.9469255405
15650206100.0 0.2834384384 -0.9509136654
15700205800.0 0.2696507752 -0.9543750716
15750205500.0 0.2560551617 -0.9579556295
15800205200.0 0.2417861287 -0.9612430556
15850204900.0 0.2276350093 -0.9647303166
15900204600.0 0.2124883986 -0.9685105634
15950204300.0 0.1981994065 -0.9715142945
16000204000.0 0.1837945555 -0.9744663679
16050203700.0 0.1683930437 -0.9776011784
16100203400.0 0.1539675613 -0.9798847106
16150203100.0 0.1393120668 -0.9822448718
16200202800.0 0.1250831741 -0.9841906066
16250202500.0 0.1100991639 -0.9859672768
16300202200.0 0.0946877438 -0.9875988201
16350201900.0 0.0794345295 -0.9887726926
16400201600.0 0.0647371775 -0.9901690622
16450201300.0 0.0495000738 -0.9911054381
16500201000.0 0.0323852723 -0.9919808588
16550200700.0 0.0160760951 -0.9925777549
16600200400.0 0.0002267126 -0.9925886856
16650200100.0 -0.0158190638 -0.9924167802
16700199800.0 -0.032494947 -0.9921970665
16750199500.0 -0.0509952989 -0.9914103646
16800199200.0 -0.0676769955 -0.990698181
16850198900.0 -0.0825251561 -0.988891292
16900198600.0 -0.0969827201 -0.9888408515
16950198300.0 -0.1102760301 -0.9870013562
17000198000.0 -0.1237090071 -0.985934286
17050197700.0 -0.1352682331 -0.984019443
17100197400.0 -0.1492913716 -0.981963618
17150197100.0 -0.1623530616 -0.9804643087
17200196800.0 -0.1748505676 -0.977670289
17250196500.0 -0.1882259493 -0.9753398089
17300196200.0 -0.1999201977 -0.9731132405
17350195900.0 -0.21191213 -0.9708078734
17400195600.0 -0.2237263678 -0.9680196678
17450195300.0 -0.2364401863 -0.9653643093
17500195000.0 -0.249918363 -0.962256785
17550194700.0 -0.2636538062 -0.9583625678
17600194400.0 -0.2771558524 -0.954837821
17650194100.0 -0.2911094192 -0.9504801048
17700193800.0 -0.3038161115 -0.9457879629
17750193500.0 -0.3180300185 -0.9417466311
17800193200.0 -0.3324172717 -0.9360327318
17850192900.0 -0.347105531 -0.9305824324
17900192600.0 -0.3623179285 -0.9247318479
17950192300.0 -0.3777660745 -0.917396444
18000192000.0 -0.3923460968 -0.9105108051
18050191700.0 -0.4062740627 -0.902443294
18100191400.0 -0.4202864353 -0.894823145
18150191100.0 -0.4352328849 -0.8868400875
18200190800.0 -0.4520619424 -0.877552559
18250190500.0 -0.4688273618 -0.8680844714
18300190200.0 -0.484637114 -0.8592767618
18350189900.0 -0.4996323784 -0.8511241008
18400189600.0 -0.5143915647 -0.8426140465
18450189300.0 -0.5274550666 -0.834885919
18500189000.0 -0.540910731 -0.8263740884
18550188700.0 -0.5539140078 -0.8189192267
18600188400.0 -0.566137437 -0.8116433304
18650188100.0 -0.5775668452 -0.8052332537
18700187800.0 -0.5886526067 -0.7986436689
18750187500.0 -0.5990512118 -0.7917810419
18800187200.0 -0.6097274933 -0.7849302213
18850186900.0 -0.6200810637 -0.7781836965
18900186600.0 -0.630283916 -0.7706634352
18950186300.0 -0.6407781707 -0.7628646639
19000186000.0 -0.6480476161 -0.7566675328
19050185700.0 -0.6573992201 -0.7495995441
19100185400.0 -0.6675328094 -0.7415538486
19150185100.0 -0.6771423749 -0.7333473203
19200184800.0 -0.6866891332 -0.725201196
19250184500.0 -0.6970736821 -0.7155736028
19300184200.0 -0.7079340568 -0.7059631079
19350183900.0 -0.7190538738 -0.6963144021
19400183600.0 -0.7289719681 -0.6865034423
19450183300.0 -0.7375978017 -0.6761648702
19500183000.0 -0.7457439063 -0.6667585422
19550182700.0 -0.7555114243 -0.6551525662
19600182400.0 -0.7654068291 -0.6438647132
19650182100.0 -0.7766619126 -0.6315767666
19700181800.0 -0.7868581803 -0.6183227985
19750181500.0 -0.7972938718 -0.6041004042
19800181200.0 -0.8075576258 -0.58929676
19850180900.0 -0.8169031908 -0.5738202704
19900180600.0 -0.8245698087 -0.5594694423
19950180300.0 -0.8338152757 -0.5429759458
20000180000.0 -0.8237774299 -0.5470517504
20050179700.0 -0.8316493227 -0.5344328333
20100179400.0 -0.8397951988 -0.5219508992
20150179100.0 -0.8476094251 -0.5104911378
20200178800.0 -0.8569118062 -0.4973783962
20250178500.0 -0.8654409863 -0.4843342738
20300178200.0 -0.8756490127 -0.4714472731
20350177900.0 -0.884529359 -0.4577717365
20400177600.0 -0.8940015619 -0.4436116401
20450177300.0 -0.9023250847 -0.4290331507
20500177000.0 -0.9101194633 -0.4150788913
20550176700.0 -0.9181488168 -0.4013995513
20600176400.0 -0.9248942321 -0.388952309
20650176100.0 -0.9318267394 -0.3765216687
20700175800.0 -0.9380264034 -0.3643460418
20750175500.0 -0.9443087616 -0.3529064395
20800175200.0 -0.9488454729 -0.3421792769
20850174900.0 -0.9535469593 -0.3312313714
20900174600.0 -0.9584980336 -0.3208138793
20950174300.0 -0.9610666485 -0.308750821
21000174000.0 -0.9641075005 -0.2988981047
21050173700.0 -0.9659760054 -0.2897172037
21100173400.0 -0.9690473777 -0.278313361
21150173100.0 -0.9733622659 -0.2663874295
21200172800.0 -0.9769150997 -0.2531894278
21250172500.0 -0.9806642675 -0.2392707667
21300172200.0 -0.9840542688 -0.2250872887
21350171900.0 -0.9865362227 -0.21110102
21400171600.0 -0.9882405745 -0.1972097724
21450171300.0 -0.9887831129 -0.1830860082
21500171000.0 -0.9895198136 -0.1670369943
21550170700.0 -0.989830512 -0.1533982624
21600170400.0 -0.9907684181 -0.1374860716
21650170100.0 -0.9903852654 -0.121443812
21700169800.0 -0.9892220385 -0.1061267152
21750169500.0 -0.9899705019 -0.0898085206
21800169200.0 -0.9902057544 -0.0731433918
21850168900.0 -0.990134665 -0.0565505662
21900168600.0 -0.9895027571 -0.0405713169
21950168300.0 -0.9892445434 -0.0253729063
22000168000.0 -0.9888133852 -0.0101646192
22050167700.0 -0.9892333886 0.0048408998
22100167400.0 -0.9900294455 0.02034869
22150167100.0 -0.9910626694 0.0365694668
22200166800.0 -0.9911366849 0.0529849983
22250166500.0 -0.9909384831 0.0704411895
22300166200.0 -0.9905174477 0.0870060484
22350165900.0 -0.9891403047 0.1029339935
22400165600.0 -0.9873623962 0.1186009033
22450165300.0 -0.9850240082 0.134167041
22500165000.0 -0.9835180526 0.1481142263
22550164700.0 -0.9827651226 0.1647866234
22600164400.0 -0.9796787112 0.1801337478
22650164100.0 -0.9769343403 0.1956614901
22700163800.0 -0.9749613706 0.2118396442
22750163500.0 -0.9719605175 0.227130723
22800163200.0 -0.9688244986 0.2398762614
22850162900.0 -0.9659641557 0.2532849331
22900162600.0 -0.9644200536 0.2671234456
22950162300.0 -0.9623406036 0.2810671088
23000162000.0 -0.9607152505 0.2936440416
23050161700.0 -0.9581950072 0.3070440087
23100161400.0 -0.9552020486 0.3201749416
23150161100.0 -0.9528328718 0.3332783557
23200160800.0 -0.9490776099 0.3459406678
23250160500.0 -0.9469612127 0.358603761
23300160200.0 -0.94365291 0.3711624174
23350159900.0 -0.9407181133 0.3847703485
23400159600.0 -0.9352590884 0.3990376443
23450159300.0 -0.9294232727 0.4119646433
23500159000.0 -0.9248833583 0.4260642677
23550158700.0 -0.9199267745 0.4402322027
23600158400.0 -0.9143515365 0.4540739453
23650158100.0 -0.9069457163 0.4687446251
23700157800.0 -0.8984271522 0.4829908997
23750157500.0 -0.8892323425 0.4970162136
23800157200.0 -0.8792778521 0.5103845689
23850156900.0 -0.8699202936 0.5232485443
23900156600.0 -0.8593742044 0.5358635807
23950156300.0 -0.8504375937 0.5483860808
24000156000.0 -0.8405003443 0.5602964604
24050155700.0 -0.8302017601 0.5732313264
24100155400.0 -0.819824873 0.5855387083
24150155100.0 -0.8089522092 0.5978364186
24200154800.0 -0.7976682833 0.609554257
24250154500.0 -0.786372767 0.6213121336
24300154200.0 -0.7749672296 0.633887588
24350153900.0 -0.7627136696 0.6449678853
24400153600.0 -0.7503998259 0.655376254
24450153300.0 -0.7384109612 0.6657181901
24500153000.0 -0.7268319095 0.6759869547
24550152700.0 -0.7153739242 0.6857982633
24600152400.0 -0.7039541441 0.695311625
24650152100.0 -0.6912347628 0.7039022913
