!Created with skrf (http://scikit-rf.org).
# Hz S RI R 50.0 
!freq ReS11 ImS11
300000.0 -0.9738555606 -0.1186851287
50299700.0 -1.000039485 0.015507934
100299400.0 -0.9979649391 0.0283151244
150299100.0 -1.002896784 0.045203479
200298800.0 -0.9994955557 0.0586812494
250298500.0 -0.9974571856 0.0721289082
300298200.0 -0.9860932777 0.0877058997
350297900.0 -0.9942004023 0.0987444475
400297600.0 -0.9933168563 0.1154754471
450297300.0 -0.991235403 0.1290852926
500297000.0 -0.9895468151 0.1439474205
550296700.0 -0.9845277763 0.1562365932
600296400.0 -1.017318287 0.1894984062
650296100.0 -0.9822732583 0.1863086832
700295800.0 -0.9794306288 0.2004792633
750295500.0 -0.9762710219 0.2144411083
800295200.0 -0.9729050453 0.2286515142
850294900.0 -0.9696988381 0.2424940231
900294600.0 -0.9658393086 0.2561915264
950294300.0 -0.9621447976 0.2698655834
1000294000.0 -0.9580675509 0.2838175178
1050293700.0 -0.9536091015 0.2977255992
1100293400.0 -0.9492702115 0.3120433594
1150293100.0 -0.9454401738 0.3238210399
1200292800.0 -0.9402883072 0.3383683255
1250292500.0 -0.9345904792 0.3516576505
1300292200.0 -0.929012715 0.3648408333
1350291900.0 -0.9233249811 0.3789813368
1400291600.0 -0.9178434261 0.3920489325
1450291300.0 -0.9124590799 0.4045337884
1500291000.0 -0.9061612437 0.4178823978
1550290700.0 -0.8997060231 0.4312545148
1600290400.0 -0.8934418027 0.4440838115
1650290100.0 -0.8868699958 0.4562591549
1700289800.0 -0.8797548128 0.4697509656
1750289500.0 -0.8729507408 0.4820825714
1800289200.0 -0.8654043589 0.4948574488
1850288900.0 -0.858760053 0.5062134718
1900288600.0 -0.8508072977 0.5191836454
1950288300.0 -0.8428542924 0.531884938
2000288000.0 -0.8353984798 0.5432342939
2050287700.0 -0.8272145175 0.5553395334
2100287400.0 -0.8192122298 0.5672419535
2150287100.0 -0.810604244 0.5791609846
2200286800.0 -0.8029858523 0.5897251219
2250286500.0 -0.7938888335 0.6014900557
2300286200.0 -0.7852779334 0.6132111778
2350285900.0 -0.7765315336 0.6240789053
2400285600.0 -0.7676056799 0.63514439
2450285300.0 -0.7588590294 0.6457046497
2500285000.0 -0.7492318603 0.6568497488
2550284700.0 -0.7400991668 0.6671145851
2600284400.0 -0.7305863892 0.6772106831
2650284100.0 -0.7218095212 0.6878565862
2700283800.0 -0.7113037173 0.6983490834
2750283500.0 -0.7010763341 0.7090605126
2800283200.0 -0.6912249359 0.718782843
2850282900.0 -0.680980758 0.728389336
2900282600.0 -0.6706056646 0.7383468974
2950282300.0 -0.6601987932 0.7475025186
3000282000.0 -0.6495930798 0.7567833044
3050281700.0 -0.6385124231 0.7661060339
3100281400.0 -0.6265618739 0.7753753207
3150281100.0 -0.6148753979 0.7849338589
3200280800.0 -0.6030665628 0.7933279425
3250280500.0 -0.5921801953 0.8011222432
3300280200.0 -0.5810514935 0.8088966792
3350279900.0 -0.5693337796 0.8165749402
3400279600.0 -0.5573497484 0.824097495
3450279300.0 -0.5462070804 0.8313598945
3500279000.0 -0.5341565875 0.8385671405
3550278700.0 -0.5217307732 0.8456886081
3600278400.0 -0.5094795093 0.8529322729
3650278100.0 -0.4964207769 0.8603997866
3700277800.0 -0.4841019837 0.8668904318
3750277500.0 -0.4720628101 0.8736229718
3800277200.0 -0.459784006 0.8802184046
3850276900.0 -0.4474211127 0.8859988818
3900276600.0 -0.4365971258 0.8914288884
3950276300.0 -0.4242278492 0.897772561
4000276000.0 -0.4121419541 0.9036567188
4050275700.0 -0.3992570059 0.9098388098
4100275400.0 -0.3882333699 0.9153121278
4150275100.0 -0.3755140349 0.920878364
4200274800.0 -0.3623997818 0.9260645264
4250274500.0 -0.3501736859 0.931463967
4300274200.0 -0.337434451 0.9368323198
4350273900.0 -0.3235092751 0.9420516621
4400273600.0 -0.3085549363 0.9472405671
4450273300.0 -0.293314106 0.9523153598
4500273000.0 -0.2797513038 0.9567008247
4550272700.0 -0.2655016327 0.960698497
4600272400.0 -0.2500575482 0.9652320721
4650272100.0 -0.2384536863 0.9682721376
4700271800.0 -0.2251894127 0.9716460316
4750271500.0 -0.2133952059 0.9744451861
4800271200.0 -0.2009013831 0.9773303573
4850270900.0 -0.1870000111 0.9799894935
4900270600.0 -0.1732108466 0.9823329836
4950270300.0 -0.1588376976 0.9850617032
5000270000.0 -0.1446544172 0.9869791671
5050269700.0 -0.1308571934 0.9885553224
5100269400.0 -0.1173637842 0.9905988973
5150269100.0 -0.1039433138 0.992291522
5200268800.0 -0.0906642378 0.9935958433
5250268500.0 -0.077687649 0.9941196831
5300268200.0 -0.0643554887 0.9948942315
5350267900.0 -0.0520804006 0.9954408638
5400267600.0 -0.0359658058 0.9963845438
5450267300.0 -0.0229003115 0.9967267815
5500267000.0 -0.0076460555 0.9970074337
5550266700.0 0.007310089 0.997244328
5600266400.0 0.0229193963 0.9971810376
5650266100.0 0.03918305 0.9968220082
5700265800.0 0.0538142026 0.9960388689
5750265500.0 0.0691587299 0.9957075497
5800265200.0 0.0830536029 0.9946323319
5850264900.0 0.0958684068 0.9929973398
5900264600.0 0.1128554775 0.9921920254
5950264300.0 0.1246569059 0.9896940719
6000264000.0 0.1388012323 0.9885765058
6050263700.0 0.1511231731 0.9866356544
6100263400.0 0.163587923 0.9848495214
6150263100.0 0.1780027986 0.9824789848
6200262800.0 0.1884603455 0.9807352007
6250262500.0 0.2011478226 0.9783125015
6300262200.0 0.2139154491 0.9756028795
6350261900.0 0.226847508 0.9727448969
6400261600.0 0.2406771525 0.9693317885
6450261300.0 0.2520664511 0.9668301505
6500261000.0 0.2651329295 0.9634185236
6550260700.0 0.2774327726 0.95899823
6600260400.0 0.2910224479 0.9551036473
6650260100.0 0.3051466712 0.9506276223
6700259800.0 0.3170843116 0.946539873
6750259500.0 0.3311242342 0.9417183207
6800259200.0 0.3440323961 0.9368025528
6850258900.0 0.3562047547 0.9314855761
6900258600.0 0.368628531 0.9265817953
6950258300.0 0.3808621127 0.9210245029
7000258000.0 0.3928827836 0.9158545335
7050257700.0 0.4052210813 0.9097236765
7100257400.0 0.4181207168 0.903417133
7150257100.0 0.428326209 0.8982406272
7200256800.0 0.4412747574 0.8916638529
7250256500.0 0.4531323491 0.8852500219
7300256200.0 0.4660024095 0.878485526
7350255900.0 0.4786531223 0.8715242357
7400255600.0 0.4923343663 0.8645230621
7450255300.0 0.5070119485 0.8552015407
7500255000.0 0.5189155882 0.8483736911
7550254700.0 0.532872546 0.8398206982
7600254400.0 0.5458152103 0.8313303444
7650254100.0 0.5571109727 0.8236392936
7700253800.0 0.5687111801 0.815811444
7750253500.0 0.5799372383 0.8079104196
7800253200.0 0.5906180378 0.8003919344
7850252900.0 0.6004176434 0.7934149554
7900252600.0 0.6120633837 0.7845753332
7950252300.0 0.620959161 0.7780350448
8000252000.0 0.6310428269 0.7703087696
8050251700.0 0.6413381521 0.7621467094
8100251400.0 0.6515991249 0.754040097
8150251100.0 0.6616000448 0.7452801854
8200250800.0 0.6708468297 0.737227389
8250250500.0 0.6799275071 0.7292625868
8300250200.0 0.6892702479 0.7205688936
8350249900.0 0.6982874037 0.7122395965
8400249600.0 0.7067814589 0.7041021764
8450249300.0 0.7156899974 0.6948897547
8500249000.0 0.7244884938 0.6858800263
8550248700.0 0.7325847389 0.6768664345
8600248400.0 0.7410792755 0.667428329
8650248100.0 0.7488588889 0.6578328874
8700247800.0 0.7582020407 0.6466559703
8750247500.0 0.7666115702 0.6366537807
8800247200.0 0.7748268771 0.6263228471
8850246900.0 0.7835415974 0.6147236011
8900246600.0 0.7918267274 0.6036182209
8950246300.0 0.8015910222 0.5905566377
9000246000.0 0.8107171825 0.5777458107
9050245700.0 0.8196104698 0.5649434022
9100245400.0 0.8285407903 0.552345941
9150245100.0 0.8378315342 0.5389717608
9200244800.0 0.8471629197 0.5238641491
9250244500.0 0.8569562633 0.5081156506
9300244200.0 0.8651031444 0.4937008545
9350243900.0 0.8729651328 0.4799646415
9400243600.0 0.8796207972 0.4677540323
9450243300.0 0.8855679493 0.4560892331
9500243000.0 0.8917361683 0.4439009387
9550242700.0 0.8956232721 0.43635614
9600242400.0 0.8994674795 0.428924758
9650242100.0 0.903234608 0.4223888129
9700241800.0 0.9077376224 0.4143043791
9750241500.0 0.9118908658 0.4065502813
9800241200.0 0.9163348789 0.397579718
9850240900.0 0.9217486717 0.3857950768
9900240600.0 0.927965831 0.3741846082
9950240300.0 0.9342049694 0.3578277253
10000240000.0 0.9386835534 0.3466385534
10050239700.0 0.9446576004 0.3314505845
10100239400.0 0.9497551326 0.315817476
10150239100.0 0.9541846194 0.3007037643
10200238800.0 0.9581891244 0.2858685577
10250238500.0 0.9616096918 0.2723709476
10300238200.0 0.9646556934 0.258494982
10350237900.0 0.9673313317 0.2453061532
10400237600.0 0.9699680105 0.2320134846
10450237300.0 0.9725787889 0.2185021601
10500237000.0 0.9747666119 0.20621843
10550236700.0 0.9771696419 0.1920874367
10600236400.0 0.9793514694 0.1784618388
10650236100.0 0.9814704235 0.1635475149
10700235800.0 0.9838285168 0.1510536891
10750235500.0 0.9858166858 0.138159966
10800235200.0 0.9873021681 0.1246727773
10850234900.0 0.9897225937 0.1095353931
10900234600.0 0.9918539929 0.0948854625
10950234300.0 0.9933850403 0.0816131684
11000234000.0 0.9952765328 0.0664552454
11050233700.0 0.99715376 0.0501332106
11100233400.0 0.9985020874 0.0325817675
11150233100.0 0.9993972815 0.0161405755
11200232800.0 1.000175255 0.0012963276
11250232500.0 1.00118557 -0.0151495639
11300232200.0 1.001128222 -0.0329270142
11350231900.0 1.001564042 -0.0486536723
11400231600.0 1.001600936 -0.0643417352
11450231300.0 1.001386553 -0.0798549178
11500231000.0 1.000465125 -0.0964452085
11550230700.0 0.9983452595 -0.1094560691
11600230400.0 0.9970559245 -0.1213283614
11650230100.0 0.9950960483 -0.1338772812
11700229800.0 0.9930158431 -0.1487971836
11750229500.0 0.9909026103 -0.1628384815
11800229200.0 0.9882515352 -0.1767934717
11850228900.0 0.9844616669 -0.1890591199
11900228600.0 0.9810280388 -0.1988301374
11950228300.0 0.9778156238 -0.2090870103
12000228000.0 0.9747590153 -0.218302406
12050227700.0 0.9711772372 -0.2310996873
12100227400.0 0.9677671809 -0.2427355195
12150227100.0 0.9628931594 -0.2591177489
12200226800.0 0.9590747781 -0.2703893618
12250226500.0 0.9552566175 -0.2822467083
12300226200.0 0.9508511102 -0.2946596801
12350225900.0 0.9465016558 -0.3086885949
12400225600.0 0.9420157499 -0.3219589708
12450225300.0 0.9373059917 -0.3345229701
12500225000.0 0.9321624211 -0.348845808
12550224700.0 0.9267216602 -0.3625061073
12600224400.0 0.9219076196 -0.3756268339
12650224100.0 0.9159813904 -0.3899884737
12700223800.0 0.9108443157 -0.4026761475
12750223500.0 0.9053604429 -0.4157183723
12800223200.0 0.9001512815 -0.4283382346
12850222900.0 0.8947293801 -0.4403298826
12900222600.0 0.8889872754 -0.4524683815
12950222300.0 0.8825485621 -0.4655213758
13000222000.0 0.876385638 -0.4768526491
13050221700.0 0.8701441234 -0.4893490747
13100221400.0 0.8632992794 -0.5008897734
13150221100.0 0.8568768901 -0.5134009871
13200220800.0 0.8493838919 -0.5253908795
13250220500.0 0.8420434923 -0.5371854635
13300220200.0 0.8348276581 -0.5480049501
13350219900.0 0.8269483297 -0.5601873325
13400219600.0 0.8183285551 -0.5721517924
13450219300.0 0.8092815236 -0.5856397909
13500219000.0 0.7987904798 -0.5998231073
13550218700.0 0.7888178223 -0.6124634859
13600218400.0 0.7783416557 -0.6246004865
13650218100.0 0.7691560007 -0.6354476793
13700217800.0 0.7577179747 -0.6479660006
13750217500.0 0.7479242331 -0.6591290394
13800217200.0 0.7367360819 -0.6706883612
13850216900.0 0.7255083435 -0.6827555238
13900216600.0 0.7159054835 -0.6913921862
13950216300.0 0.7048462385 -0.7013592441
14000216000.0 0.6949076413 -0.7107956031
14050215700.0 0.6856926494 -0.7185168091
14100215400.0 0.6754070999 -0.728397013
14150215100.0 0.6664721801 -0.7364559425
14200214800.0 0.6569979803 -0.7452105722
14250214500.0 0.6468021701 -0.7545671379
14300214200.0 0.6365209003 -0.7639184525
14350213900.0 0.6252099702 -0.7735096828
14400213600.0 0.6133011436 -0.7834225774
14450213300.0 0.6002113157 -0.7936088337
14500213000.0 0.5878891794 -0.8034162775
14550212700.0 0.5746307168 -0.8128871937
14600212400.0 0.5625410433 -0.8214589879
14650212100.0 0.549466948 -0.8303756508
14700211800.0 0.5353316277 -0.8399568705
14750211500.0 0.5229496996 -0.8481492307
14800211200.0 0.5113379993 -0.8560211606
14850210900.0 0.4990267348 -0.8637099364
14900210600.0 0.4856200323 -0.871588206
14950210300.0 0.4722126716 -0.8792459955
15000210000.0 0.4593739273 -0.8858883579
15050209700.0 0.4470233258 -0.8922409454
15100209400.0 0.4343267849 -0.8982678985
15150209100.0 0.4221838897 -0.9036777085
15200208800.0 0.4095556476 -0.9081666805
15250208500.0 0.3984573543 -0.9131767952
15300208200.0 0.3857575525 -0.9188250389
15350207900.0 0.3724471386 -0.9227668642
15400207600.0 0.3577861628 -0.9283734058
15450207300.0 0.3438783064 -0.9327268753
15500207000.0 0.3289284495 -0.9376383554
15550206700.0 0.313679529 -0.9426847726
15600206400.0 0.2985510348 -0.9466980743
15650206100.0 0.2824388736 -0.9515578332
15700205800.0 0.2687593892 -0.954949597
15750205500.0 0.2539430399 -0.9587806589
15800205200.0 0.2395397214 -0.9622307501
15850204900.0 0.2252161694 -0.9656198986
15900204600.0 0.2101091072 -0.9692968527
15950204300.0 0.1960273559 -0.9722401728
16000204000.0 0.1815695665 -0.9753064338
16050203700.0 0.1670739064 -0.9782413787
16100203400.0 0.1524353671 -0.9799723366
16150203100.0 0.1381726008 -0.9826049738
16200202800.0 0.123665341 -0.9846447646
16250202500.0 0.1093115621 -0.9862758597
16300202200.0 0.0937667887 -0.9877270215
16350201900.0 0.0787190301 -0.9891084124
16400201600.0 0.0642329647 -0.9904045136
16450201300.0 0.0487076414 -0.9912792832
16500201000.0 0.032077311 -0.9920528161
16550200700.0 0.0164225149 -0.9925961622
16600200400.0 0.0007461362 -0.9928751697
16650200100.0 -0.0150980347 -0.9929966697
16700199800.0 -0.0319093633 -0.9922329173
16750199500.0 -0.050391507 -0.9914555314
16800199200.0 -0.0658715557 -0.9904881612
16850198900.0 -0.0810081211 -0.9900845305
16900198600.0 -0.0951092734 -0.988468583
16950198300.0 -0.1081083763 -0.9877258708
17000198000.0 -0.1217641344 -0.9862618357
17050197700.0 -0.1337826752 -0.9840869608
17100197400.0 -0.1472663389 -0.9818397521
17150197100.0 -0.1597864718 -0.9800440227
17200196800.0 -0.1722216302 -0.9781036343
17250196500.0 -0.1856905723 -0.9756400524
17300196200.0 -0.1976669689 -0.9734639498
17350195900.0 -0.2095582154 -0.9711217261
17400195600.0 -0.2216772416 -0.968657796
17450195300.0 -0.234911611 -0.9658364336
17500195000.0 -0.2484304149 -0.9625652573
17550194700.0 -0.2623822143 -0.9590666962
17600194400.0 -0.2759763976 -0.9550558364
17650194100.0 -0.2898943435 -0.9509563391
17700193800.0 -0.302945631 -0.946505771
17750193500.0 -0.3173389936 -0.9421809656
17800193200.0 -0.3316367842 -0.9371014257
17850192900.0 -0.3467697129 -0.9315033446
17900192600.0 -0.3619047373 -0.925225674
17950192300.0 -0.3772482022 -0.9182536858
18000192000.0 -0.3921482185 -0.9109585232
18050191700.0 -0.4058166805 -0.9030840646
18100191400.0 -0.4201651328 -0.8954790388
18150191100.0 -0.4352614082 -0.887394055
18200190800.0 -0.4520004092 -0.8780592233
18250190500.0 -0.4690879067 -0.8686952984
18300190200.0 -0.4845514061 -0.8601825174
18350189900.0 -0.4995119444 -0.8518520772
18400189600.0 -0.5136983265 -0.842995924
18450189300.0 -0.5269602318 -0.8351920923
18500189000.0 -0.5403794486 -0.827348969
18550188700.0 -0.5534793202 -0.8196193891
18600188400.0 -0.5653497869 -0.8126144472
18650188100.0 -0.5758615716 -0.8063674582
18700187800.0 -0.5870131367 -0.7999648644
18750187500.0 -0.5977962486 -0.7933310998
18800187200.0 -0.6081743037 -0.7864159002
18850186900.0 -0.6182642814 -0.7795934447
18900186600.0 -0.6285800168 -0.7721589463
18950186300.0 -0.6386440483 -0.7648075051
19000186000.0 -0.6458102493 -0.7583203701
19050185700.0 -0.6551880499 -0.7513986637
19100185400.0 -0.6647561845 -0.7429984261
19150185100.0 -0.6751845927 -0.734355112
19200184800.0 -0.6845967442 -0.7266803774
19250184500.0 -0.6954101943 -0.7169897471
19300184200.0 -0.7058131326 -0.7079907368
19350183900.0 -0.7172452249 -0.6974255696
19400183600.0 -0.7262744506 -0.6872395622
19450183300.0 -0.7359279827 -0.6772603365
19500183000.0 -0.7433117761 -0.6680413545
19550182700.0 -0.7534394984 -0.6567925851
19600182400.0 -0.7639900725 -0.6455077576
19650182100.0 -0.7748996045 -0.6326794158
19700181800.0 -0.7850961286 -0.6197148742
19750181500.0 -0.7958024845 -0.6055487001
19800181200.0 -0.8061395487 -0.5904186374
19850180900.0 -0.8158521658 -0.5752146867
19900180600.0 -0.8238523564 -0.5606019125
19950180300.0 -0.8328142158 -0.5443458291
20000180000.0 -0.8250858606 -0.5469417352
20050179700.0 -0.8349533381 -0.5341938404
20100179400.0 -0.842107231 -0.5192401815
20150179100.0 -0.8507243879 -0.5079175037
20200178800.0 -0.8591313679 -0.4949272751
20250178500.0 -0.8692665018 -0.4811566998
20300178200.0 -0.8787335451 -0.46750735
20350177900.0 -0.8877028302 -0.4528347
20400177600.0 -0.8969192938 -0.4381672534
20450177300.0 -0.9045936557 -0.4236988551
20500177000.0 -0.9126149332 -0.4098232721
20550176700.0 -0.9205216904 -0.3962922816
20600176400.0 -0.9279557866 -0.3831955335
20650176100.0 -0.9343342856 -0.371292076
20700175800.0 -0.9406913705 -0.3585666022
20750175500.0 -0.9476369593 -0.3473540603
20800175200.0 -0.9520314368 -0.3368029117
20850174900.0 -0.957638997 -0.3261030082
20900174600.0 -0.9612788534 -0.313590636
20950174300.0 -0.9649246542 -0.3029986936
21000174000.0 -0.9691357212 -0.2910175956
21050173700.0 -0.9717283971 -0.2802388802
21100173400.0 -0.9760557715 -0.2685845966
21150173100.0 -0.9799297087 -0.2566398133
21200172800.0 -0.9832957107 -0.2427465918
21250172500.0 -0.9861839381 -0.2293543346
21300172200.0 -0.9895173758 -0.2150519551
21350171900.0 -0.9904914307 -0.2009208246
21400171600.0 -0.9924912821 -0.1862078985
21450171300.0 -0.9921599089 -0.1714451942
21500171000.0 -0.9932522903 -0.1558153716
21550170700.0 -0.9922711248 -0.1406039823
21600170400.0 -0.9923566264 -0.1255375826
21650170100.0 -0.9925851742 -0.110405003
21700169800.0 -0.9900769964 -0.0941670583
21750169500.0 -0.9883132686 -0.0782353876
21800169200.0 -0.9875634347 -0.0619994299
21850168900.0 -0.9878149512 -0.0456166436
21900168600.0 -0.9860878274 -0.0291563853
21950168300.0 -0.9850719064 -0.0136373855
22000168000.0 -0.9836910771 0.0020725813
22050167700.0 -0.9836965098 0.0160792612
22100167400.0 -0.9844618576 0.0314906601
22150167100.0 -0.9845606248 0.0475153347
22200166800.0 -0.9849178335 0.0633771238
22250166500.0 -0.9842723372 0.0803787096
22300166200.0 -0.9839327291 0.0973464214
22350165900.0 -0.9827220721 0.1135014235
22400165600.0 -0.9801536623 0.129719339
22450165300.0 -0.9794417871 0.1445872319
22500165000.0 -0.9776574392 0.158579362
22550164700.0 -0.9767017987 0.1727616885
22600164400.0 -0.974981076 0.1886500434
22650164100.0 -0.9722274402 0.2043088141
22700163800.0 -0.9691960605 0.2187422464
22750163500.0 -0.9667928372 0.2343516781
22800163200.0 -0.9642394732 0.2476402897
22850162900.0 -0.9619047084 0.2616483022
22900162600.0 -0.9601570932 0.2752732467
22950162300.0 -0.9590192217 0.28749458
23000162000.0 -0.9581799742 0.2996080832
23050161700.0 -0.9558871005 0.3120260976
23100161400.0 -0.9532041454 0.3245559851
23150161100.0 -0.950401762 0.3370108016
23200160800.0 -0.9477978073 0.3494218627
23250160500.0 -0.9446197877 0.3610552476
23300160200.0 -0.9418865969 0.373457578
23350159900.0 -0.9382570377 0.3868029859
23400159600.0 -0.9341899994 0.3999885492
23450159300.0 -0.9289503302 0.4133858821
23500159000.0 -0.9245810403 0.4262046644
23550158700.0 -0.9200399092 0.4397532515
23600158400.0 -0.9145144643 0.4528619706
23650158100.0 -0.9081136939 0.4670655766
23700157800.0 -0.9007444633 0.480864712
23750157500.0 -0.8921184622 0.4949641587
23800157200.0 -0.8832334782 0.507929553
23850156900.0 -0.8745255266 0.5209681329
23900156600.0 -0.8645993672 0.5338042621
23950156300.0 -0.8559137756 0.5453257759
24000156000.0 -0.847058997 0.5583665982
24050155700.0 -0.8366226615 0.5701572736
24100155400.0 -0.8268015089 0.5822239059
24150155100.0 -0.8162096677 0.593522525
24200154800.0 -0.8053843947 0.6046961686
24250154500.0 -0.794362651 0.6169389686
24300154200.0 -0.7830367963 0.6281883231
24350153900.0 -0.7708152378 0.6390741603
24400153600.0 -0.7588965095 0.6489028978
24450153300.0 -0.7467546983 0.6589051104
24500153000.0 -0.7353049592 0.668725656
24550152700.0 -0.7236525026 0.6783977749
24600152400.0 -0.7124047834 0.6875782449
24650152100.0 -0.7009402948 0.6961388651
