!Created with skrf (http://scikit-rf.org).
# Hz S RI R 50.0 
!freq ReS11 ImS11
300000.0 -0.9764670921 -0.1174229282
50299700.0 -1.00005327 0.0155627384
100299400.0 -0.9980600004 0.0284736713
150299100.0 -1.002837287 0.0454967417
200298800.0 -0.9997142737 0.0586926249
250298500.0 -0.9973939033 0.0721267522
300298200.0 -0.9858994883 0.0879581797
350297900.0 -0.9939098366 0.0989937182
400297600.0 -0.9931896285 0.1155497958
450297300.0 -0.9911278885 0.1294780755
500297000.0 -0.9895619591 0.1440230684
550296700.0 -0.9842339587 0.1565899441
600296400.0 -1.017259915 0.1900588281
650296100.0 -0.9822062385 0.1864679773
700295800.0 -0.97948677 0.200881422
750295500.0 -0.9762590543 0.2147002279
800295200.0 -0.9731458436 0.2289752673
850294900.0 -0.9694547906 0.2425788542
900294600.0 -0.96582283 0.2563073995
950294300.0 -0.9621599868 0.2700039615
1000294000.0 -0.9581460427 0.2840970109
1050293700.0 -0.9536141985 0.2979002255
1100293400.0 -0.9493621447 0.3123876236
1150293100.0 -0.9454395002 0.3242814661
1200292800.0 -0.940104091 0.3383737963
1250292500.0 -0.9344386349 0.3518246222
1300292200.0 -0.9288075359 0.3652072016
1350291900.0 -0.9234088419 0.3791533506
1400291600.0 -0.9178406807 0.3923666553
1450291300.0 -0.9122790698 0.4046253067
1500291000.0 -0.9059920307 0.4182001163
1550290700.0 -0.899549556 0.431380445
1600290400.0 -0.8934316772 0.4443408875
1650290100.0 -0.8867136617 0.4565298917
1700289800.0 -0.8796249578 0.4698647188
1750289500.0 -0.8726711645 0.4822552659
1800289200.0 -0.8654167843 0.4951297671
1850288900.0 -0.8584758078 0.5062763729
1900288600.0 -0.85068233 0.5194614144
1950288300.0 -0.8427389386 0.5320707755
2000288000.0 -0.8351331458 0.5433271421
2050287700.0 -0.8270708808 0.5558236843
2100287400.0 -0.8190857982 0.5674078797
2150287100.0 -0.8105463165 0.5794891009
2200286800.0 -0.8027559302 0.5898275892
2250286500.0 -0.7938939671 0.6017353461
2300286200.0 -0.7851589949 0.6134132214
2350285900.0 -0.7763803193 0.6244694311
2400285600.0 -0.7672951174 0.6353324194
2450285300.0 -0.7587571454 0.6458983226
2500285000.0 -0.7490451552 0.6569122848
2550284700.0 -0.7401604095 0.6674285425
2600284400.0 -0.7306992406 0.6775124755
2650284100.0 -0.7217482483 0.6881932378
2700283800.0 -0.7110770869 0.6987311544
2750283500.0 -0.7007828477 0.7090977007
2800283200.0 -0.691059834 0.7190428379
2850282900.0 -0.6808859381 0.7288462518
2900282600.0 -0.6704296055 0.7384468722
2950282300.0 -0.6602510157 0.7476667207
3000282000.0 -0.6492957148 0.7567964346
3050281700.0 -0.638366069 0.7663071475
3100281400.0 -0.6265072374 0.7755875702
3150281100.0 -0.6146040054 0.7849647825
3200280800.0 -0.602844284 0.7936168514
3250280500.0 -0.5922385334 0.8013662955
3300280200.0 -0.5808323125 0.8090029261
3350279900.0 -0.5691561885 0.8167254903
3400279600.0 -0.5571206496 0.8242543686
3450279300.0 -0.5461393544 0.8315245274
3500279000.0 -0.5339184834 0.8384727147
3550278700.0 -0.5214715164 0.8458714226
3600278400.0 -0.5093391333 0.8530587516
3650278100.0 -0.4959441691 0.8605185144
3700277800.0 -0.4841438106 0.8669683128
3750277500.0 -0.4719359784 0.8733273303
3800277200.0 -0.4591019194 0.8802379877
3850276900.0 -0.4473065822 0.8862415234
3900276600.0 -0.4364471655 0.8914896328
3950276300.0 -0.4240466886 0.8977263577
4000276000.0 -0.4118457343 0.9036482046
4050275700.0 -0.398998574 0.9097306817
4100275400.0 -0.3878574026 0.9151492147
4150275100.0 -0.3753905463 0.9209145478
4200274800.0 -0.3621142992 0.9262006352
4250274500.0 -0.3500489377 0.9315797769
4300274200.0 -0.3369712225 0.9368422665
4350273900.0 -0.3233190662 0.9421739239
4400273600.0 -0.3085223956 0.9475274692
4450273300.0 -0.2928480159 0.9525416743
4500273000.0 -0.2793865578 0.9569671859
4550272700.0 -0.2652911672 0.961098089
4600272400.0 -0.2497035832 0.9654263874
4650272100.0 -0.238021866 0.9685069548
4700271800.0 -0.22465901 0.9716974245
4750271500.0 -0.2129150887 0.9744812081
4800271200.0 -0.2004869518 0.9773886849
4850270900.0 -0.1864651882 0.9803005006
4900270600.0 -0.172575142 0.9824451746
4950270300.0 -0.158358929 0.9852050426
5000270000.0 -0.1441577406 0.9872697502
5050269700.0 -0.1303915336 0.9887285929
5100269400.0 -0.1170195943 0.9906412273
5150269100.0 -0.1037623471 0.9923555779
5200268800.0 -0.0905246254 0.9930521889
5250268500.0 -0.077477187 0.9939804012
5300268200.0 -0.06452385 0.9945194745
5350267900.0 -0.051888875 0.9954221868
5400267600.0 -0.0356616668 0.9964087409
5450267300.0 -0.0227747656 0.9967929265
5500267000.0 -0.0075543862 0.9971330917
5550266700.0 0.0072401229 0.9972398648
5600266400.0 0.0228970748 0.9971582084
5650266100.0 0.0396606453 0.9975147607
5700265800.0 0.0539816195 0.9960813183
5750265500.0 0.0689443752 0.9955450684
5800265200.0 0.0828595958 0.9944656028
5850264900.0 0.0965616584 0.9934493657
5900264600.0 0.1130753287 0.991381327
5950264300.0 0.1250318528 0.9899994536
6000264000.0 0.1394062679 0.9882894777
6050263700.0 0.1517164799 0.986950977
6100263400.0 0.1638679291 0.9849518766
6150263100.0 0.1783543816 0.9828560621
6200262800.0 0.1888146208 0.9806155164
6250262500.0 0.2015487173 0.9783843661
6300262200.0 0.2145373869 0.9754641914
6350261900.0 0.2275680924 0.9726130183
6400261600.0 0.2415918901 0.9693879014
6450261300.0 0.2527073393 0.9666283896
6500261000.0 0.2653981198 0.9630672614
6550260700.0 0.2784182935 0.9588482025
6600260400.0 0.2918235008 0.9549589344
6650260100.0 0.305701346 0.9507622831
6700259800.0 0.3175427191 0.9462106735
6750259500.0 0.3316196385 0.9413763624
6800259200.0 0.3444504004 0.9365857807
6850258900.0 0.356379431 0.9311703565
6900258600.0 0.3686976909 0.9263445722
6950258300.0 0.3814525181 0.9211234622
7000258000.0 0.3932731631 0.9155960551
7050257700.0 0.4055899335 0.9096115346
7100257400.0 0.4182987673 0.9034337058
7150257100.0 0.4285023523 0.8980595517
7200256800.0 0.4412901063 0.8916478129
7250256500.0 0.4532574213 0.8853793924
7300256200.0 0.4665027004 0.8785549138
7350255900.0 0.4789109782 0.8714089114
7400255600.0 0.4917882993 0.8642215893
7450255300.0 0.506944877 0.8554201104
7500255000.0 0.5189773952 0.8482583409
7550254700.0 0.5327490966 0.8398149774
7600254400.0 0.5455972245 0.8314770823
7650254100.0 0.5569926267 0.823655065
7700253800.0 0.5690770852 0.8156526221
7750253500.0 0.5802027057 0.8077477779
7800253200.0 0.5906131842 0.800351773
7850252900.0 0.6006730119 0.793196294
7900252600.0 0.6121351327 0.7845077427
7950252300.0 0.6209215167 0.777795945
8000252000.0 0.6311150238 0.7700889772
8050251700.0 0.6415843452 0.7618912342
8100251400.0 0.6516982761 0.7536817756
8150251100.0 0.6620726856 0.7450006889
8200250800.0 0.6711920453 0.7371188526
8250250500.0 0.6798752274 0.7292839973
8300250200.0 0.6894902404 0.7205997564
8350249900.0 0.6983767372 0.7118669598
8400249600.0 0.7067551177 0.7038931095
8450249300.0 0.7156224489 0.6946293784
8500249000.0 0.7241198746 0.6857249837
8550248700.0 0.7326201777 0.6766307398
8600248400.0 0.7410946935 0.6672093156
8650248100.0 0.7489065732 0.6578703944
8700247800.0 0.7584097389 0.6466151403
8750247500.0 0.7666770931 0.6366279216
8800247200.0 0.7745419002 0.6262778788
8850246900.0 0.7835083259 0.6149115112
8900246600.0 0.7921430029 0.6034088153
8950246300.0 0.8018063897 0.5902073672
9000246000.0 0.8108351045 0.5775815525
9050245700.0 0.8200771177 0.5643528016
9100245400.0 0.8288713337 0.5519911479
9150245100.0 0.838160737 0.5384320824
9200244800.0 0.8480214326 0.5228302103
9250244500.0 0.8574125991 0.5075427325
9300244200.0 0.8658300746 0.4929606334
9350243900.0 0.873676328 0.4791422635
9400243600.0 0.8802932785 0.466712951
9450243300.0 0.8859951133 0.4548674131
9500243000.0 0.89239306 0.4428034419
9550242700.0 0.8959525696 0.4352768336
9600242400.0 0.9000982895 0.4279383765
9650242100.0 0.9036200242 0.4215104385
9700241800.0 0.9079840326 0.4134249334
9750241500.0 0.9120180678 0.4055714516
9800241200.0 0.9167590299 0.3964268263
9850240900.0 0.9221389001 0.3847819589
9900240600.0 0.9279469622 0.3731276103
9950240300.0 0.9344540888 0.3573292185
10000240000.0 0.9390614453 0.3457708129
10050239700.0 0.9449420877 0.330262164
10100239400.0 0.9500956565 0.3144901229
10150239100.0 0.9545903008 0.2999969752
10200238800.0 0.9584932741 0.2849840094
10250238500.0 0.9618561375 0.2717705169
10300238200.0 0.964733497 0.2576711859
10350237900.0 0.9674799088 0.2447973837
10400237600.0 0.9698418044 0.2317002119
10450237300.0 0.9726049806 0.2178822878
10500237000.0 0.9749067508 0.2056713636
10550236700.0 0.9771462259 0.1912397956
10600236400.0 0.9790725061 0.1785106563
10650236100.0 0.9813545537 0.1637938821
10700235800.0 0.9836156643 0.1514569055
10750235500.0 0.9859684452 0.1377679761
10800235200.0 0.9877693073 0.1241567893
10850234900.0 0.9896927996 0.1096394135
10900234600.0 0.9919524757 0.0946618508
10950234300.0 0.993628272 0.0813882381
11000234000.0 0.9952755551 0.0662980625
11050233700.0 0.9970400982 0.0499232506
11100233400.0 0.9984339596 0.0324774777
11150233100.0 0.999391309 0.0165770187
11200232800.0 1.000144591 0.0011522763
11250232500.0 1.00111157 -0.015803462
11300232200.0 1.00114031 -0.0326076731
11350231900.0 1.001581175 -0.0485116312
11400231600.0 1.001804794 -0.0650436864
11450231300.0 1.001207707 -0.0793160156
11500231000.0 0.999319307 -0.0972942926
11550230700.0 0.9987238907 -0.1105983126
11600230400.0 0.9966244111 -0.1230827268
11650230100.0 0.9952347819 -0.1339656586
11700229800.0 0.9929430741 -0.1479891561
11750229500.0 0.9906032757 -0.1633173226
11800229200.0 0.988047759 -0.1769176485
11850228900.0 0.9842554708 -0.1891712175
11900228600.0 0.9806674082 -0.1989686105
11950228300.0 0.9778360706 -0.2089023929
12000228000.0 0.9748842806 -0.218691642
12050227700.0 0.9713506515 -0.2307103216
12100227400.0 0.9681786242 -0.2416993184
12150227100.0 0.9632793053 -0.2587975378
12200226800.0 0.9598904858 -0.2697084905
12250226500.0 0.9548928927 -0.2828495161
12300226200.0 0.9510966103 -0.2943479511
12350225900.0 0.9462469012 -0.30903813
12400225600.0 0.9418725257 -0.321255296
12450225300.0 0.9372304073 -0.3342036147
12500225000.0 0.9320554689 -0.3490995662
12550224700.0 0.9268813682 -0.362796594
12600224400.0 0.9219469364 -0.3756319362
12650224100.0 0.9160942597 -0.3899320426
12700223800.0 0.9108371459 -0.4026163164
12750223500.0 0.9053338634 -0.4155395514
12800223200.0 0.9000616269 -0.4281021734
12850222900.0 0.8946174844 -0.4405567059
12900222600.0 0.8888930986 -0.4525065968
12950222300.0 0.882438286 -0.4649305091
13000222000.0 0.8764017769 -0.4768887981
13050221700.0 0.8701921624 -0.4892449647
13100221400.0 0.8633076566 -0.5013811586
13150221100.0 0.8562772047 -0.5137725556
13200220800.0 0.8497326861 -0.5250330006
13250220500.0 0.8421492216 -0.5371394925
13300220200.0 0.8348511315 -0.5480796088
13350219900.0 0.8266911087 -0.5600705679
13400219600.0 0.818454709 -0.5722351632
13450219300.0 0.8089221392 -0.5856562486
13500219000.0 0.7985196673 -0.6001028079
13550218700.0 0.7881975008 -0.6126834834
13600218400.0 0.7778888265 -0.6244136498
13650218100.0 0.7687148578 -0.6364710973
13700217800.0 0.7575557789 -0.6483099097
13750217500.0 0.7479656135 -0.6591255283
13800217200.0 0.7359134932 -0.6715403824
13850216900.0 0.7254739959 -0.6825189556
13900216600.0 0.7150082392 -0.6921591933
13950216300.0 0.7048533269 -0.702155241
14000216000.0 0.6947551394 -0.7115613874
14050215700.0 0.6850992203 -0.7196074338
14100215400.0 0.6750580658 -0.7288121876
14150215100.0 0.6660690144 -0.7369015451
14200214800.0 0.656584203 -0.7456490765
14250214500.0 0.6462049351 -0.7550479218
14300214200.0 0.6359056424 -0.7644243501
14350213900.0 0.6249322759 -0.7737955961
14400213600.0 0.6129824651 -0.7835314205
14450213300.0 0.5999241206 -0.7935147732
14500213000.0 0.5869186437 -0.8041437432
14550212700.0 0.5743827791 -0.812893714
14600212400.0 0.5612703174 -0.8220015623
14650212100.0 0.5489939617 -0.8309301427
14700211800.0 0.5348808065 -0.8403585546
14750211500.0 0.5231100261 -0.848238247
14800211200.0 0.5107798437 -0.856234642
14850210900.0 0.4983534439 -0.8636813889
14900210600.0 0.4850118097 -0.8718355125
14950210300.0 0.4716598869 -0.8794565689
15000210000.0 0.4589383874 -0.8862743964
15050209700.0 0.4464230483 -0.8924796632
15100209400.0 0.4339559582 -0.8984843448
15150209100.0 0.4212962128 -0.9033979616
15200208800.0 0.4082908361 -0.9095400111
15250208500.0 0.397315286 -0.9135400074
15300208200.0 0.3848302019 -0.9185204284
15350207900.0 0.3719160107 -0.9233081031
15400207600.0 0.3582131318 -0.9289525806
15450207300.0 0.342429566 -0.9332789254
15500207000.0 0.3284142139 -0.9381720183
15550206700.0 0.3136622753 -0.9431879902
15600206400.0 0.2973225932 -0.9474781872
15650206100.0 0.2814587853 -0.9518982317
15700205800.0 0.2675688855 -0.9553259331
15750205500.0 0.2530604837 -0.9588906254
15800205200.0 0.2386125637 -0.962328248
15850204900.0 0.2242047261 -0.9658566117
15900204600.0 0.2089598776 -0.969414293
15950204300.0 0.194965268 -0.9724010547
16000204000.0 0.1810716846 -0.9750939857
16050203700.0 0.1661011844 -0.9778850992
16100203400.0 0.1516552411 -0.980145919
16150203100.0 0.1379093927 -0.982650654
16200202800.0 0.1229642316 -0.9847095122
16250202500.0 0.1086715545 -0.986774033
16300202200.0 0.0931331669 -0.9877572093
16350201900.0 0.0780938493 -0.989375855
16400201600.0 0.0635138628 -0.9903882001
16450201300.0 0.0481316194 -0.9912111682
16500201000.0 0.0315336585 -0.9921308488
16550200700.0 0.0159371875 -0.9925571474
16600200400.0 0.0002790756 -0.9927413396
16650200100.0 -0.0158480986 -0.9927684683
16700199800.0 -0.0325476023 -0.9918818668
16750199500.0 -0.0510328111 -0.9916015355
16800199200.0 -0.0668817832 -0.990976924
16850198900.0 -0.0821364216 -0.9894489797
16900198600.0 -0.0963278884 -0.9889942855
16950198300.0 -0.1091585779 -0.9877913016
17000198000.0 -0.1220226874 -0.9857981057
17050197700.0 -0.1350641811 -0.983925919
17100197400.0 -0.1474075457 -0.982119647
17150197100.0 -0.160393565 -0.9796253168
17200196800.0 -0.173005872 -0.9777780277
17250196500.0 -0.1861661744 -0.9755361377
17300196200.0 -0.1980205688 -0.9730506234
17350195900.0 -0.2100363482 -0.9709999522
17400195600.0 -0.222070073 -0.9685901483
17450195300.0 -0.2352969174 -0.9656739555
17500195000.0 -0.2487910723 -0.9623414782
17550194700.0 -0.2627319716 -0.9588082721
17600194400.0 -0.2765585064 -0.9546085024
17650194100.0 -0.2902034774 -0.9506155564
17700193800.0 -0.3032893478 -0.9462225724
17750193500.0 -0.3176390199 -0.9415314797
17800193200.0 -0.3322680022 -0.9364061292
17850192900.0 -0.3468723379 -0.9313139727
17900192600.0 -0.3622975463 -0.9251893479
17950192300.0 -0.3776145068 -0.9178597521
18000192000.0 -0.3924164628 -0.9106662055
18050191700.0 -0.4062719936 -0.9027922401
18100191400.0 -0.4207033039 -0.89511618
18150191100.0 -0.4357007855 -0.88707372
18200190800.0 -0.4526626773 -0.8777733702
18250190500.0 -0.4696547674 -0.8682251236
18300190200.0 -0.4851815051 -0.8593742959
18350189900.0 -0.4999983297 -0.8510232871
18400189600.0 -0.5145494504 -0.8425293474
18450189300.0 -0.5272358628 -0.8351456471
18500189000.0 -0.5414606495 -0.8267137959
18550188700.0 -0.5538126476 -0.8189278391
18600188400.0 -0.5654770313 -0.8126733247
18650188100.0 -0.5762722842 -0.8060555119
18700187800.0 -0.5869315769 -0.7998889126
18750187500.0 -0.5977689291 -0.7932311331
18800187200.0 -0.608184062 -0.7862550737
18850186900.0 -0.618347704 -0.7793334191
18900186600.0 -0.6287868588 -0.7718398186
18950186300.0 -0.6387574436 -0.7641579237
19000186000.0 -0.6461226944 -0.7579933921
19050185700.0 -0.6553235682 -0.7508714143
19100185400.0 -0.665416539 -0.7422141772
19150185100.0 -0.6755326849 -0.7341946423
19200184800.0 -0.6850754795 -0.7260582432
19250184500.0 -0.6957513802 -0.7163589651
19300184200.0 -0.7061100716 -0.7068678479
19350183900.0 -0.7175388262 -0.6973739902
19400183600.0 -0.7269210768 -0.6869266802
19450183300.0 -0.7359368685 -0.6771218582
19500183000.0 -0.7441615613 -0.6672916501
19550182700.0 -0.7541959371 -0.656027304
19600182400.0 -0.7642576062 -0.6446219968
19650182100.0 -0.7748737758 -0.6323876109
19700181800.0 -0.7861793901 -0.6187454583
19750181500.0 -0.7964730133 -0.6048242194
19800181200.0 -0.8066583935 -0.5898233289
19850180900.0 -0.8165125356 -0.5742830667
19900180600.0 -0.8241487592 -0.5597627177
19950180300.0 -0.8335999577 -0.5433984276
20000180000.0 -0.8268613339 -0.5456526091
20050179700.0 -0.834916953 -0.532417971
20100179400.0 -0.8437104479 -0.5188576144
20150179100.0 -0.8511145244 -0.5064163416
20200178800.0 -0.860252357 -0.493609292
20250178500.0 -0.8695104195 -0.4807859022
20300178200.0 -0.879399977 -0.4652585828
20350177900.0 -0.8881178074 -0.4510718972
20400177600.0 -0.897081309 -0.4365980062
20450177300.0 -0.9052525662 -0.4223161284
20500177000.0 -0.913321914 -0.4083673659
20550176700.0 -0.921498547 -0.3946484374
20600176400.0 -0.928310391 -0.381373625
20650176100.0 -0.9349689488 -0.3691727159
20700175800.0 -0.941231167 -0.356812799
20750175500.0 -0.9488294457 -0.3452197551
20800175200.0 -0.9530955141 -0.3347458827
20850174900.0 -0.9579551227 -0.3236730839
20900174600.0 -0.9629122932 -0.3119112697
20950174300.0 -0.9667043567 -0.3012296953
21000174000.0 -0.9703859277 -0.288880435
21050173700.0 -0.9729766311 -0.2781156602
21100173400.0 -0.9767672629 -0.2667538856
21150173100.0 -0.9811325956 -0.253375239
21200172800.0 -0.9844685714 -0.2398986712
21250172500.0 -0.9878132052 -0.2261909971
21300172200.0 -0.9903520633 -0.2126440723
21350171900.0 -0.99149282 -0.1977871788
21400171600.0 -0.9932761878 -0.1835399171
21450171300.0 -0.9930261627 -0.1685129463
21500171000.0 -0.9930449747 -0.153557153
21550170700.0 -0.9928441007 -0.1380456165
21600170400.0 -0.9925777895 -0.1227586896
21650170100.0 -0.9915179453 -0.1066361191
21700169800.0 -0.9905994239 -0.0925098784
21750169500.0 -0.9889673443 -0.0757487801
21800169200.0 -0.9881868477 -0.0597482808
21850168900.0 -0.9863184583 -0.0425078783
21900168600.0 -0.9858777132 -0.0259984143
21950168300.0 -0.9844390058 -0.010125885
22000168000.0 -0.9830584538 0.0047968846
22050167700.0 -0.9828666339 0.0187114479
22100167400.0 -0.982742194 0.0341190118
22150167100.0 -0.9835183669 0.0496763262
22200166800.0 -0.9838354265 0.0656765682
22250166500.0 -0.9838695498 0.0824428507
22300166200.0 -0.9825866049 0.1001159667
22350165900.0 -0.9820280257 0.1162037013
22400165600.0 -0.9797898334 0.1312157419
22450165300.0 -0.9773159271 0.1469473358
22500165000.0 -0.9750979677 0.1603066357
22550164700.0 -0.9751453569 0.1756910151
22600164400.0 -0.9728280446 0.1918370165
22650164100.0 -0.9709958755 0.2067801812
22700163800.0 -0.967983011 0.2222808178
22750163500.0 -0.9656466844 0.2371616772
22800163200.0 -0.9632041148 0.2506114056
22850162900.0 -0.9605274584 0.2639106542
22900162600.0 -0.9590978115 0.2773956564
22950162300.0 -0.957822848 0.2897681064
23000162000.0 -0.9571970446 0.3017615194
23050161700.0 -0.9547534449 0.3144284721
23100161400.0 -0.9532909046 0.3268109036
23150161100.0 -0.9501498016 0.3393076465
23200160800.0 -0.9473715713 0.3514229774
23250160500.0 -0.9440342603 0.3634111406
23300160200.0 -0.9411504973 0.37433368
23350159900.0 -0.9382122582 0.3888053824
23400159600.0 -0.9332094987 0.4013830107
23450159300.0 -0.9286255254 0.4145071282
23500159000.0 -0.9243628596 0.4272371765
23550158700.0 -0.9198547354 0.4407562369
23600158400.0 -0.9142357883 0.4542133386
23650158100.0 -0.9081006307 0.4682061432
23700157800.0 -0.9002755817 0.4820285973
23750157500.0 -0.8920536066 0.4963171865
23800157200.0 -0.8829456917 0.50937985
23850156900.0 -0.8743003003 0.5217909781
23900156600.0 -0.8653076837 0.533978488
23950156300.0 -0.8558438277 0.546859706
24000156000.0 -0.8468245282 0.5589515828
24050155700.0 -0.8362520627 0.5713919624
24100155400.0 -0.8271680159 0.582584601
24150155100.0 -0.8163598839 0.5947821892
24200154800.0 -0.805479804 0.6058523486
24250154500.0 -0.7936859453 0.6174030119
24300154200.0 -0.7825253261 0.629117769
24350153900.0 -0.7705143447 0.6395764529
24400153600.0 -0.7579911681 0.6498454043
24450153300.0 -0.7463566912 0.6596371989
24500153000.0 -0.7348623327 0.6691496121
24550152700.0 -0.723881624 0.6791741591
24600152400.0 -0.7120693574 0.6876121869
24650152100.0 -0.6996649123 0.6966185656
