!Created with skrf (http://scikit-rf.org).
# Hz S RI R 50.0 
!freq ReS11 ImS11
300000.0 -0.9726243545 -0.1237534669
50299700.0 -0.9999816654 0.015003126
100299400.0 -0.9979564981 0.0280055708
150299100.0 -1.00262702 0.044755956
200298800.0 -0.999486441 0.0581984943
250298500.0 -0.9972773072 0.0715424392
300298200.0 -0.985767087 0.0875066978
350297900.0 -0.9939448053 0.0982826612
400297600.0 -0.9931723314 0.1148674193
450297300.0 -0.9910928276 0.1286128401
500297000.0 -0.9894359654 0.1433700524
550296700.0 -0.9841571527 0.1556238553
600296400.0 -1.017267589 0.1891470999
650296100.0 -0.9821281455 0.1856656565
700295800.0 -0.9791203706 0.1998889982
750295500.0 -0.9763189458 0.2138674844
800295200.0 -0.9730010927 0.2282167246
850294900.0 -0.9696055998 0.2418311035
900294600.0 -0.9658544028 0.2556529806
950294300.0 -0.9621133886 0.269123555
1000294000.0 -0.9581168216 0.2830992914
1050293700.0 -0.9536906006 0.2971525736
1100293400.0 -0.9491448607 0.3115288858
1150293100.0 -0.9454879781 0.3233038758
1200292800.0 -0.9402220992 0.3376248854
1250292500.0 -0.9347563612 0.3511721977
1300292200.0 -0.9290013586 0.3644472243
1350291900.0 -0.9235171728 0.3783446906
1400291600.0 -0.91807967 0.3915711564
1450291300.0 -0.9126041688 0.4038443589
1500291000.0 -0.9060327906 0.4172991671
1550290700.0 -0.8997072498 0.4307510954
1600290400.0 -0.8935046571 0.44356762
1650290100.0 -0.8868242759 0.4556005682
1700289800.0 -0.8798848129 0.4692592895
1750289500.0 -0.8727875284 0.4815169774
1800289200.0 -0.8656814311 0.494472683
1850288900.0 -0.8587407898 0.5058506092
1900288600.0 -0.8510087518 0.5188239055
1950288300.0 -0.843050305 0.5311702658
2000288000.0 -0.8354049222 0.5428293725
2050287700.0 -0.8271883538 0.5550871641
2100287400.0 -0.8194996712 0.566306503
2150287100.0 -0.810791952 0.5784386738
2200286800.0 -0.8028637521 0.5891372099
2250286500.0 -0.7939126045 0.6014039163
2300286200.0 -0.7854037314 0.6128078885
2350285900.0 -0.7770328536 0.623313496
2400285600.0 -0.7680850099 0.6341657397
2450285300.0 -0.759261815 0.6451422164
2500285000.0 -0.7491057002 0.6567895992
2550284700.0 -0.7400920962 0.6670487926
2600284400.0 -0.7309465459 0.6770499965
2650284100.0 -0.7224155352 0.6872285161
2700283800.0 -0.7119807709 0.697530662
2750283500.0 -0.7013470086 0.7082325066
2800283200.0 -0.6916605368 0.7180954333
2850282900.0 -0.6812490511 0.727992105
2900282600.0 -0.6708115042 0.7377510205
2950282300.0 -0.6600579683 0.747202922
3000282000.0 -0.6497164128 0.7565427325
3050281700.0 -0.6385161218 0.766057903
3100281400.0 -0.626864662 0.7749576909
3150281100.0 -0.6156227406 0.7839496241
3200280800.0 -0.6042083812 0.7923290421
3250280500.0 -0.5932473302 0.8001609058
3300280200.0 -0.5816197667 0.8083918057
3350279900.0 -0.5690933755 0.8165855759
3400279600.0 -0.5565689917 0.8246022434
3450279300.0 -0.5454644045 0.8314380107
3500279000.0 -0.5337940321 0.8385073332
3550278700.0 -0.52165477 0.8457958253
3600278400.0 -0.5098199855 0.8524703029
3650278100.0 -0.4967598479 0.8600470698
3700277800.0 -0.4847205205 0.8664279436
3750277500.0 -0.4722007469 0.8733019076
3800277200.0 -0.4597513988 0.8794761885
3850276900.0 -0.4475266592 0.8854214943
3900276600.0 -0.43680127 0.8913104495
3950276300.0 -0.4248091339 0.8971513661
4000276000.0 -0.4133462471 0.9031476845
4050275700.0 -0.4005048955 0.9091333129
4100275400.0 -0.38929897 0.9142974843
4150275100.0 -0.3759514064 0.9203967379
4200274800.0 -0.3628982443 0.9261353002
4250274500.0 -0.3500216857 0.9315214579
4300274200.0 -0.3367349252 0.936868923
4350273900.0 -0.3223432198 0.9420010225
4400273600.0 -0.3077767595 0.9471043991
4450273300.0 -0.2928358283 0.9523322926
4500273000.0 -0.2796363399 0.9563519946
4550272700.0 -0.2660827593 0.9603870356
4600272400.0 -0.2510418939 0.9645747514
4650272100.0 -0.2397577378 0.9677236722
4700271800.0 -0.2267507845 0.9711143441
4750271500.0 -0.2151741522 0.973981082
4800271200.0 -0.2029666147 0.9768128421
4850270900.0 -0.1892185235 0.9794473874
4900270600.0 -0.1755323017 0.9819427764
4950270300.0 -0.1608547355 0.9844745251
5000270000.0 -0.1462929782 0.9865719838
5050269700.0 -0.1328007666 0.9883360188
5100269400.0 -0.1187405893 0.9897455156
5150269100.0 -0.1047661424 0.9916048205
5200268800.0 -0.0910516777 0.9926815795
5250268500.0 -0.0783009224 0.9937657579
5300268200.0 -0.0645704717 0.9943832567
5350267900.0 -0.0517429359 0.9952993925
5400267600.0 -0.0354613363 0.9962275432
5450267300.0 -0.0219666128 0.9964434361
5500267000.0 -0.0067344636 0.9969548458
5550266700.0 0.0080983027 0.9972249962
5600266400.0 0.0239166232 0.9971962078
5650266100.0 0.0407164367 0.9968677938
5700265800.0 0.0547470578 0.9958081664
5750265500.0 0.0697715525 0.9950042739
5800265200.0 0.0831532081 0.9938842609
5850264900.0 0.0966037648 0.9927712703
5900264600.0 0.1131202426 0.991389266
5950264300.0 0.1244818351 0.9894614764
6000264000.0 0.1377745583 0.9876586875
6050263700.0 0.150039466 0.986728219
6100263400.0 0.1617436999 0.9851498476
6150263100.0 0.1764862403 0.9827903386
6200262800.0 0.1858243132 0.9809709071
6250262500.0 0.1986560483 0.9787669967
6300262200.0 0.2107779563 0.9760324943
6350261900.0 0.2237365864 0.9735114482
6400261600.0 0.2376218015 0.970498169
6450261300.0 0.2486748307 0.967799399
6500261000.0 0.2618466149 0.9641234471
6550260700.0 0.2752718009 0.9604024825
6600260400.0 0.2886177878 0.9562290594
6650260100.0 0.3031115297 0.9517544329
6700259800.0 0.3146361217 0.9474425251
6750259500.0 0.3287258515 0.9425779634
6800259200.0 0.3421428549 0.9373461637
6850258900.0 0.3547606986 0.9322969315
6900258600.0 0.3673186193 0.9270747119
6950258300.0 0.379704717 0.9217538758
7000258000.0 0.3911534447 0.9163311537
7050257700.0 0.4031267864 0.910440252
7100257400.0 0.4164954815 0.9039871243
7150257100.0 0.4272866987 0.8985664169
7200256800.0 0.4403682849 0.8921166645
7250256500.0 0.4530432306 0.8857180593
7300256200.0 0.465545156 0.8787191333
7350255900.0 0.4789549754 0.8718179469
7400255600.0 0.4927774426 0.8640839768
7450255300.0 0.5087214954 0.8550666844
7500255000.0 0.5213079298 0.8473104414
7550254700.0 0.535268997 0.8381994983
7600254400.0 0.5482188825 0.8299827049
7650254100.0 0.5595462268 0.8219788645
7700253800.0 0.5711520686 0.8138704576
7750253500.0 0.5820415041 0.806500653
7800253200.0 0.5927931299 0.7983005535
7850252900.0 0.6024176645 0.7912445797
7900252600.0 0.6140883802 0.7825277452
7950252300.0 0.6223770102 0.776209921
8000252000.0 0.632270962 0.7686691629
8050251700.0 0.6427908114 0.7603282002
8100251400.0 0.6523111456 0.7525963476
8150251100.0 0.6625543003 0.7440928807
8200250800.0 0.6719761789 0.735736352
8250250500.0 0.6807114528 0.7280134623
8300250200.0 0.6898034579 0.7196216011
8350249900.0 0.698832436 0.7107615967
8400249600.0 0.7071498205 0.7029316649
8450249300.0 0.7162054758 0.6942168173
8500249000.0 0.724428595 0.6852102327
8550248700.0 0.7327777056 0.6761772022
8600248400.0 0.7409831279 0.6667030801
8650248100.0 0.7486729013 0.6572482433
8700247800.0 0.7580420156 0.6462846928
8750247500.0 0.7660165987 0.6362766434
8800247200.0 0.7740019116 0.6259846198
8850246900.0 0.7829273279 0.6145139816
8900246600.0 0.7913055591 0.6031519575
8950246300.0 0.8005789608 0.590445606
9000246000.0 0.8088617271 0.5785849915
9050245700.0 0.8174213473 0.5662996647
9100245400.0 0.8259393279 0.5540686404
9150245100.0 0.8344808257 0.5413859252
9200244800.0 0.8439157031 0.5270509436
9250244500.0 0.8529282346 0.5123202183
9300244200.0 0.8611654736 0.4987804183
9350243900.0 0.8686889154 0.4856706403
9400243600.0 0.8753294348 0.4738025432
9450243300.0 0.8808874978 0.4634958674
9500243000.0 0.8872426086 0.4520091467
9550242700.0 0.8912581145 0.4446091366
9600242400.0 0.895516236 0.4368874634
9650242100.0 0.8996833168 0.4298050282
9700241800.0 0.9045980225 0.4212885336
9750241500.0 0.9088946565 0.4135759673
9800241200.0 0.9138594126 0.4042987024
9850240900.0 0.919630278 0.3926920946
9900240600.0 0.9258658052 0.3804092003
9950240300.0 0.9327240957 0.3637615018
10000240000.0 0.9378186872 0.35165161
10050239700.0 0.9438450636 0.3355808183
10100239400.0 0.9493708622 0.3188867348
10150239100.0 0.9541604375 0.3032454498
10200238800.0 0.958096006 0.2877053734
10250238500.0 0.9615221238 0.2742328324
10300238200.0 0.9648245439 0.2603359017
10350237900.0 0.9677576891 0.2469540342
10400237600.0 0.9701667439 0.2334538909
10450237300.0 0.9728482149 0.2196107738
10500237000.0 0.9750279439 0.2075798045
10550236700.0 0.9773304654 0.1928196743
10600236400.0 0.979508435 0.1789605155
10650236100.0 0.9817382994 0.164782893
10700235800.0 0.9838008231 0.1524533899
10750235500.0 0.9860401488 0.1388427494
10800235200.0 0.9881940342 0.1245518198
10850234900.0 0.9901255811 0.1093938477
10900234600.0 0.9919819423 0.0946582546
10950234300.0 0.9938398752 0.0811809672
11000234000.0 0.9955771876 0.0654915665
11050233700.0 0.9973107513 0.0487071523
11100233400.0 0.9989537102 0.0310676961
11150233100.0 0.9999161146 0.014132924
11200232800.0 1.000927248 -0.0018306172
11250232500.0 1.001588496 -0.0196564463
11300232200.0 1.002109467 -0.0384060322
11350231900.0 1.002254082 -0.0550099311
11400231600.0 1.001794712 -0.0705763405
11450231300.0 1.001341969 -0.085449789
11500231000.0 0.9994811311 -0.1020709362
11550230700.0 0.9982247808 -0.1154816696
11600230400.0 0.9964020371 -0.128564333
11650230100.0 0.9949107155 -0.1404988438
11700229800.0 0.9923830545 -0.155108233
11750229500.0 0.9899498696 -0.1693140388
11800229200.0 0.9871117329 -0.1824588945
11850228900.0 0.9834543459 -0.1941797907
11900228600.0 0.9795666721 -0.203616339
11950228300.0 0.9762512146 -0.2138570371
12000228000.0 0.9735627622 -0.222540898
12050227700.0 0.9697548397 -0.23495372
12100227400.0 0.9671157317 -0.2458029705
12150227100.0 0.9614648245 -0.2628830226
12200226800.0 0.9579663672 -0.2734528782
12250226500.0 0.9536474639 -0.2867584484
12300226200.0 0.9496739689 -0.2984324221
12350225900.0 0.9445256464 -0.3122933087
12400225600.0 0.939834916 -0.3253361878
12450225300.0 0.9358462574 -0.3376676404
12500225000.0 0.930427198 -0.3521991225
12550224700.0 0.9247267238 -0.3658251144
12600224400.0 0.9197844185 -0.3785953479
12650224100.0 0.9139006126 -0.3928824274
12700223800.0 0.9086051401 -0.405819362
12750223500.0 0.9031881128 -0.4186794535
12800223200.0 0.8979987729 -0.4311540407
12850222900.0 0.8926615598 -0.4432266612
12900222600.0 0.8868144962 -0.4552121767
12950222300.0 0.8809304627 -0.4680783463
13000222000.0 0.8746762475 -0.4799140429
13050221700.0 0.868547 -0.4922125101
13100221400.0 0.8614487491 -0.5049913534
13150221100.0 0.8545442965 -0.5165465151
13200220800.0 0.8473311 -0.5283379988
13250220500.0 0.8402443008 -0.5408584246
13300220200.0 0.8322700231 -0.5516417906
13350219900.0 0.8244627709 -0.563639772
13400219600.0 0.8160895508 -0.5753383601
13450219300.0 0.8064869343 -0.5884545986
13500219000.0 0.7971369368 -0.6013483796
13550218700.0 0.7870729147 -0.6137010301
13600218400.0 0.7770558802 -0.6258756068
13650218100.0 0.7683034105 -0.6358717587
13700217800.0 0.7575206883 -0.6479889205
13750217500.0 0.7468136763 -0.6588538424
13800217200.0 0.7364673769 -0.6705649856
13850216900.0 0.7260244218 -0.6816768564
13900216600.0 0.7162638859 -0.6908769611
13950216300.0 0.7052297943 -0.7006420429
14000216000.0 0.6956500805 -0.7095405836
14050215700.0 0.6864500275 -0.7173247335
14100215400.0 0.6765109349 -0.7262373465
14150215100.0 0.6674929385 -0.7350348933
14200214800.0 0.6580386048 -0.7440629646
14250214500.0 0.6475194676 -0.753474882
14300214200.0 0.6370097566 -0.7628318329
14350213900.0 0.6260081535 -0.7725459264
14400213600.0 0.6138877423 -0.7822903376
14450213300.0 0.6014205036 -0.7926793759
14500213000.0 0.5884023833 -0.8022326065
14550212700.0 0.5758506541 -0.8121342831
14600212400.0 0.5633560719 -0.8205088294
14650212100.0 0.5510483832 -0.8290869917
14700211800.0 0.5372739515 -0.8386799212
14750211500.0 0.524757469 -0.8469681918
14800211200.0 0.5122691348 -0.8554602111
14850210900.0 0.4998385211 -0.8632294646
14900210600.0 0.4865939252 -0.871090847
14950210300.0 0.4732887488 -0.878542058
15000210000.0 0.460799141 -0.8852081351
15050209700.0 0.448395796 -0.8914711103
15100209400.0 0.4355901943 -0.8972888575
15150209100.0 0.4232924931 -0.9027801513
15200208800.0 0.4105074237 -0.9083998515
15250208500.0 0.3997211018 -0.912496814
15300208200.0 0.387147849 -0.9173794686
15350207900.0 0.3742080617 -0.9220281099
15400207600.0 0.3591681489 -0.9281460949
15450207300.0 0.3448843494 -0.9322585669
15500207000.0 0.3304432158 -0.9373560447
15550206700.0 0.3156350751 -0.9423560211
15600206400.0 0.2993911684 -0.9470041381
15650206100.0 0.2837721677 -0.9510465278
15700205800.0 0.2701359719 -0.9544580257
15750205500.0 0.2563039555 -0.9576832205
15800205200.0 0.2422681978 -0.9611053547
15850204900.0 0.2283322903 -0.96470395
15900204600.0 0.2132416566 -0.968310525
15950204300.0 0.1988777784 -0.9716157759
16000204000.0 0.1844705134 -0.9741888631
16050203700.0 0.1689842797 -0.9773089381
16100203400.0 0.1542552107 -0.9797269558
16150203100.0 0.1396578052 -0.9820409276
16200202800.0 0.1254918196 -0.9839613768
16250202500.0 0.1106093051 -0.9857994997
16300202200.0 0.0949278813 -0.9874113354
16350201900.0 0.0799895692 -0.9892026062
16400201600.0 0.0651325531 -0.989959321
16450201300.0 0.0496257098 -0.991157991
16500201000.0 0.0326291066 -0.9919705953
16550200700.0 0.0165265576 -0.9924946243
16600200400.0 0.0006741315 -0.9925923274
16650200100.0 -0.0153964297 -0.9924757563
16700199800.0 -0.0323672717 -0.9924790639
16750199500.0 -0.0513211603 -0.9913615769
16800199200.0 -0.0667382468 -0.9906172628
16850198900.0 -0.0830121659 -0.9892349164
16900198600.0 -0.0966693217 -0.9881921487
16950198300.0 -0.1104771558 -0.9870375432
17000198000.0 -0.1230636746 -0.9860735502
17050197700.0 -0.1362887429 -0.9837718656
17100197400.0 -0.1490401437 -0.981503659
17150197100.0 -0.1614830906 -0.9801804607
17200196800.0 -0.174907232 -0.9779207428
17250196500.0 -0.1875200109 -0.9754105558
17300196200.0 -0.1996258018 -0.9731805474
17350195900.0 -0.2114180829 -0.9707284833
17400195600.0 -0.2233293275 -0.968044752
17450195300.0 -0.2362267412 -0.9653530029
17500195000.0 -0.249563569 -0.9620031295
17550194700.0 -0.2634883116 -0.958238163
17600194400.0 -0.2770793654 -0.954524503
17650194100.0 -0.2906717893 -0.9502761667
17700193800.0 -0.3036241131 -0.9460741048
17750193500.0 -0.3175469524 -0.9418349393
17800193200.0 -0.3321953001 -0.9365605649
17850192900.0 -0.3471236301 -0.9310532837
17900192600.0 -0.3617717667 -0.9246837694
17950192300.0 -0.3771516758 -0.9176960898
18000192000.0 -0.3920488175 -0.9104239033
18050191700.0 -0.4058277869 -0.9024441461
18100191400.0 -0.420171341 -0.8948537148
18150191100.0 -0.4350613618 -0.8869234196
18200190800.0 -0.4518455094 -0.8776691408
18250190500.0 -0.468824495 -0.8683483911
18300190200.0 -0.484325696 -0.8595313507
18350189900.0 -0.4992891281 -0.8510157441
18400189600.0 -0.5140630094 -0.8429670816
18450189300.0 -0.5276805836 -0.8344807819
18500189000.0 -0.5413848727 -0.8261472037
18550188700.0 -0.553612328 -0.818956911
18600188400.0 -0.5654209119 -0.8126316355
18650188100.0 -0.5769544922 -0.8055534544
18700187800.0 -0.5881419064 -0.7986744785
18750187500.0 -0.5988589727 -0.7922015703
18800187200.0 -0.609552322 -0.7849270703
18850186900.0 -0.619855385 -0.7780598495
18900186600.0 -0.6302791402 -0.7709195638
18950186300.0 -0.6403824608 -0.7632435959
19000186000.0 -0.6480082992 -0.7569345181
19050185700.0 -0.6570930581 -0.7498223704
19100185400.0 -0.6674631231 -0.7417258983
19150185100.0 -0.6770821293 -0.7330252188
19200184800.0 -0.6868675502 -0.7242913817
19250184500.0 -0.6970700519 -0.7153861323
19300184200.0 -0.708617709 -0.7056892269
19350183900.0 -0.7187676639 -0.6962723674
19400183600.0 -0.7292084337 -0.6866013903
19450183300.0 -0.7380910491 -0.6763035554
19500183000.0 -0.7464514098 -0.6661812819
19550182700.0 -0.7554999563 -0.6549622224
19600182400.0 -0.7659487228 -0.6430619586
19650182100.0 -0.7766527753 -0.6312834783
19700181800.0 -0.7872061685 -0.6179441399
19750181500.0 -0.7974055074 -0.6038618435
19800181200.0 -0.8077086206 -0.5887973829
19850180900.0 -0.8171861447 -0.5735999962
19900180600.0 -0.8247585051 -0.5591925542
19950180300.0 -0.8336537156 -0.5428983585
20000180000.0 -0.824133257 -0.5467387929
20050179700.0 -0.8312664187 -0.5337033547
20100179400.0 -0.8394725727 -0.5209149431
20150179100.0 -0.8478122389 -0.5096813799
20200178800.0 -0.8568102846 -0.4979715866
20250178500.0 -0.8658011278 -0.4856507214
20300178200.0 -0.8752425588 -0.4715043305
20350177900.0 -0.8840971925 -0.458046152
20400177600.0 -0.8932511439 -0.44368981
20450177300.0 -0.9019296052 -0.4291172542
20500177000.0 -0.9101632394 -0.4153160937
20550176700.0 -0.917927891 -0.4019003007
20600176400.0 -0.9250279624 -0.3887746319
20650176100.0 -0.9314209605 -0.3766897703
20700175800.0 -0.9383353028 -0.3649470657
20750175500.0 -0.9449410996 -0.3527268451
20800175200.0 -0.9487899267 -0.3423691081
20850174900.0 -0.9540709425 -0.3313663237
20900174600.0 -0.9571515937 -0.3204631852
20950174300.0 -0.9613863854 -0.310556426
21000174000.0 -0.9640455147 -0.2993798734
21050173700.0 -0.9658980636 -0.2892852799
21100173400.0 -0.9690214269 -0.278764969
21150173100.0 -0.9732341826 -0.2670287862
21200172800.0 -0.9768800536 -0.2539093567
21250172500.0 -0.9804042975 -0.2396819819
21300172200.0 -0.9841941618 -0.2258153332
21350171900.0 -0.9857690857 -0.2112507537
21400171600.0 -0.9882287268 -0.1973339201
21450171300.0 -0.9888300224 -0.1827472443
21500171000.0 -0.9892446316 -0.1673859369
21550170700.0 -0.9903183631 -0.1530188575
21600170400.0 -0.9905912692 -0.1367029521
21650170100.0 -0.9915038894 -0.1218030433
21700169800.0 -0.9895726911 -0.1068628872
21750169500.0 -0.990946241 -0.0909106134
21800169200.0 -0.9904697613 -0.0740525837
21850168900.0 -0.9901443041 -0.0568545303
21900168600.0 -0.9896634811 -0.0410203019
21950168300.0 -0.9894478123 -0.0256711406
22000168000.0 -0.989241396 -0.0103944879
22050167700.0 -0.9899699527 0.0040893973
22100167400.0 -0.9906733131 0.01972195
22150167100.0 -0.9911755958 0.0359177302
22200166800.0 -0.9918367532 0.0528620288
22250166500.0 -0.9917848182 0.0697490276
22300166200.0 -0.9905835147 0.0859597014
22350165900.0 -0.9896968258 0.1026931239
22400165600.0 -0.9880399706 0.1184866654
22450165300.0 -0.9860782614 0.1327410113
22500165000.0 -0.9843256799 0.14716382
22550164700.0 -0.98266546 0.1642588586
22600164400.0 -0.9811435014 0.1807926531
22650164100.0 -0.9779637448 0.1954036497
22700163800.0 -0.9748326433 0.2114436808
22750163500.0 -0.9721890207 0.226576623
22800163200.0 -0.9691214971 0.2396872122
22850162900.0 -0.9665045546 0.2532580714
22900162600.0 -0.9647678971 0.2673612037
22950162300.0 -0.9628423219 0.2806614152
23000162000.0 -0.96122627 0.2933582199
23050161700.0 -0.9583880756 0.3066544998
23100161400.0 -0.9558266883 0.3206217093
23150161100.0 -0.9526659884 0.3335874674
23200160800.0 -0.9496291122 0.3465103108
23250160500.0 -0.9460995887 0.3590019776
23300160200.0 -0.9444989373 0.3709725745
23350159900.0 -0.940432918 0.384912005
23400159600.0 -0.9352388513 0.3991801513
23450159300.0 -0.9304849529 0.4125131642
23500159000.0 -0.9251163549 0.4262300724
23550158700.0 -0.9201841801 0.4405140862
23600158400.0 -0.913920238 0.4544354447
23650158100.0 -0.9066700906 0.4689556169
23700157800.0 -0.8980035156 0.4833448707
23750157500.0 -0.8886905292 0.4976517492
23800157200.0 -0.8790623459 0.5111192973
23850156900.0 -0.8690748583 0.5237188835
23900156600.0 -0.8588955865 0.5366251235
23950156300.0 -0.8494884543 0.5492273034
24000156000.0 -0.8396985808 0.5615920828
24050155700.0 -0.8295512061 0.5736672108
24100155400.0 -0.8190856577 0.5863337367
24150155100.0 -0.8080645572 0.5986626467
24200154800.0 -0.7971230679 0.6098871567
24250154500.0 -0.785732567 0.6224764733
24300154200.0 -0.7739004732 0.6344823938
24350153900.0 -0.7619173423 0.6453717471
24400153600.0 -0.7492300414 0.6562927576
24450153300.0 -0.7371129675 0.6663483128
24500153000.0 -0.7255056905 0.6765160258
24550152700.0 -0.7145025947 0.6869581295
24600152400.0 -0.7015988672 0.6953294843
24650152100.0 -0.6895235033 0.7045807018
