!Created with skrf (http://scikit-rf.org).
# Hz S RI R 50.0 
!freq ReS11 ImS11
300000.0 -0.972438177 -0.1232787921
50299700.0 -0.9998994696 0.015046983
100299400.0 -0.997849284 0.0277896641
150299100.0 -1.002516644 0.0446054353
200298800.0 -0.9995347816 0.0580436089
250298500.0 -0.9972491527 0.0715268441
300298200.0 -0.9858969196 0.087386375
350297900.0 -0.9937544063 0.0982220313
400297600.0 -0.9931597808 0.1148008467
450297300.0 -0.990780773 0.1286365154
500297000.0 -0.9894580198 0.1432564997
550296700.0 -0.9843735413 0.1556291732
600296400.0 -1.017201287 0.1891400562
650296100.0 -0.9820089515 0.1855499566
700295800.0 -0.9793675758 0.1998624089
750295500.0 -0.9761593199 0.2141664305
800295200.0 -0.9729642226 0.228126469
850294900.0 -0.9696293441 0.2419519672
900294600.0 -0.9658362299 0.2554437701
950294300.0 -0.9621263277 0.26896128
1000294000.0 -0.9581654898 0.2832703355
1050293700.0 -0.9536746366 0.2970039631
1100293400.0 -0.9494151458 0.3114147021
1150293100.0 -0.9454455672 0.3232768386
1200292800.0 -0.9400655632 0.3375511048
1250292500.0 -0.9346366769 0.3511255109
1300292200.0 -0.9289410779 0.36440518
1350291900.0 -0.9234576894 0.3784180067
1400291600.0 -0.9178709568 0.3913640811
1450291300.0 -0.9126680671 0.4039857497
1500291000.0 -0.9061302548 0.4173825915
1550290700.0 -0.8996726085 0.4307174443
1600290400.0 -0.8934616023 0.443620767
1650290100.0 -0.8869506009 0.4555674954
1700289800.0 -0.8799681745 0.4690228734
1750289500.0 -0.8728850385 0.4815771208
1800289200.0 -0.8656745507 0.4943363556
1850288900.0 -0.8587333002 0.5057423098
1900288600.0 -0.8509775229 0.5187141514
1950288300.0 -0.8429293604 0.5309198207
2000288000.0 -0.8354707431 0.5426992841
2050287700.0 -0.8271639353 0.5550427406
2100287400.0 -0.8195219354 0.5663182108
2150287100.0 -0.8109594209 0.5784176264
2200286800.0 -0.8032149604 0.5890024762
2250286500.0 -0.7941424173 0.6013478851
2300286200.0 -0.7853128802 0.612726149
2350285900.0 -0.7768910506 0.6234676353
2400285600.0 -0.7680767222 0.6343744701
2450285300.0 -0.7592255126 0.6449021321
2500285000.0 -0.7491830581 0.6566229034
2550284700.0 -0.7400663205 0.6668693265
2600284400.0 -0.7309037762 0.6766172246
2650284100.0 -0.7223752399 0.6869858369
2700283800.0 -0.7120740725 0.697472621
2750283500.0 -0.7016337084 0.7080020186
2800283200.0 -0.6917204339 0.7180453382
2850282900.0 -0.6811991735 0.7280056971
2900282600.0 -0.6708170274 0.7379419382
2950282300.0 -0.6602615148 0.7470591766
3000282000.0 -0.6495743926 0.7566144226
3050281700.0 -0.6386043429 0.7658693018
3100281400.0 -0.6269422074 0.7748752015
3150281100.0 -0.6157775608 0.7838216138
3200280800.0 -0.6041460758 0.7920275943
3250280500.0 -0.593133112 0.8001823173
3300280200.0 -0.5815394218 0.8083998706
3350279900.0 -0.5693213118 0.8164715859
3400279600.0 -0.5566493355 0.8245635258
3450279300.0 -0.5453955703 0.8315107785
3500279000.0 -0.5338735382 0.8385216464
3550278700.0 -0.5218216211 0.8454591142
3600278400.0 -0.5100842411 0.8522874525
3650278100.0 -0.4968504258 0.859959243
3700277800.0 -0.4849113667 0.8661900837
3750277500.0 -0.4723689526 0.8730887693
3800277200.0 -0.4600377862 0.8796050675
3850276900.0 -0.4479294884 0.8853715023
3900276600.0 -0.4369401222 0.8912137127
3950276300.0 -0.4248328671 0.8971232574
4000276000.0 -0.4132029868 0.9029841231
4050275700.0 -0.4005708808 0.9090030832
4100275400.0 -0.3895624789 0.9146839014
4150275100.0 -0.3762328374 0.9202841673
4200274800.0 -0.3627763297 0.9259290749
4250274500.0 -0.3502826873 0.9312460539
4300274200.0 -0.3368157259 0.9368548592
4350273900.0 -0.3226273268 0.9422167945
4400273600.0 -0.308081501 0.9470988073
4450273300.0 -0.2930311633 0.9519936358
4500273000.0 -0.2797399467 0.9562937938
4550272700.0 -0.2661858912 0.960614472
4600272400.0 -0.2512573363 0.9646838842
4650272100.0 -0.2398059471 0.9677995393
4700271800.0 -0.2269740521 0.9709292922
4750271500.0 -0.2151290434 0.9738506177
4800271200.0 -0.2030705029 0.9767819954
4850270900.0 -0.1891917778 0.9794044761
4900270600.0 -0.1754795314 0.9817314485
4950270300.0 -0.1609057784 0.9844313839
5000270000.0 -0.1462479918 0.9865289163
5050269700.0 -0.132945052 0.9883507077
5100269400.0 -0.1186236255 0.9900846628
5150269100.0 -0.1048025768 0.99149792
5200268800.0 -0.0916069119 0.9927322691
5250268500.0 -0.0781464109 0.9936285081
5300268200.0 -0.0645311667 0.9943813596
5350267900.0 -0.0518445833 0.9953099635
5400267600.0 -0.035733499 0.9963384161
5450267300.0 -0.0222946838 0.9964543701
5500267000.0 -0.0068640559 0.9969823563
5550266700.0 0.0078475444 0.9971054034
5600266400.0 0.0235297825 0.9972604892
5650266100.0 0.0402344971 0.9967161131
5700265800.0 0.0543753945 0.9960371862
5750265500.0 0.0695591973 0.9951631675
5800265200.0 0.0827396762 0.9939283508
5850264900.0 0.0961357735 0.9929430889
5900264600.0 0.1126436801 0.9914362132
5950264300.0 0.1241377851 0.9899997716
6000264000.0 0.1375638869 0.9881542778
6050263700.0 0.1493698963 0.9865369305
6100263400.0 0.1616622242 0.9846924724
6150263100.0 0.1762894888 0.9826975737
6200262800.0 0.1860132427 0.9811555206
6250262500.0 0.1982843794 0.978646835
6300262200.0 0.2107546991 0.9761127281
6350261900.0 0.2235410595 0.9735837198
6400261600.0 0.2373821082 0.9703097871
6450261300.0 0.2482133246 0.9676494263
6500261000.0 0.2617838759 0.9639984779
6550260700.0 0.2751199486 0.9601799858
6600260400.0 0.2882567892 0.9559826073
6650260100.0 0.3027529667 0.9520527169
6700259800.0 0.3144318664 0.9474981159
6750259500.0 0.3281125995 0.942178359
6800259200.0 0.3418759657 0.9372668135
6850258900.0 0.3543131578 0.9319307332
6900258600.0 0.366979519 0.9271429089
6950258300.0 0.3794517906 0.9216401046
7000258000.0 0.3909395643 0.9161837296
7050257700.0 0.4029800606 0.9106661865
7100257400.0 0.4164310749 0.9040297007
7150257100.0 0.4270519416 0.8986910249
7200256800.0 0.4401901221 0.8920924685
7250256500.0 0.4530257152 0.8857220303
7300256200.0 0.4656456293 0.8786589472
7350255900.0 0.4786012574 0.8717688907
7400255600.0 0.4924159142 0.864019172
7450255300.0 0.5081642741 0.8550898605
7500255000.0 0.5209057395 0.8477321869
7550254700.0 0.5348054246 0.8383183735
7600254400.0 0.5477061015 0.8301973841
7650254100.0 0.5591196798 0.8224283963
7700253800.0 0.5705971978 0.8140460748
7750253500.0 0.5818029285 0.8065726768
7800253200.0 0.5922870952 0.7986666295
7850252900.0 0.6020628735 0.7914900818
7900252600.0 0.6134347196 0.7827656066
7950252300.0 0.6219122365 0.7763150831
8000252000.0 0.6319951868 0.7688295591
8050251700.0 0.6420011655 0.760928469
8100251400.0 0.6520136882 0.7529169802
8150251100.0 0.6618254433 0.7443852952
8200250800.0 0.6720934564 0.7360469239
8250250500.0 0.6807715886 0.7281676501
8300250200.0 0.6894006488 0.7199687848
8350249900.0 0.6987191971 0.7110943501
8400249600.0 0.7070004964 0.7030317591
8450249300.0 0.7157063351 0.6942039271
8500249000.0 0.7241122402 0.6855141754
8550248700.0 0.732372196 0.6763521334
8600248400.0 0.7409696912 0.6670511325
8650248100.0 0.748547508 0.6576484868
8700247800.0 0.7578104603 0.6464301847
8750247500.0 0.7659212434 0.6363876854
8800247200.0 0.7739700795 0.6262220404
8850246900.0 0.7828330612 0.6146627158
8900246600.0 0.7910619781 0.603375646
8950246300.0 0.8003035436 0.5906780304
9000246000.0 0.8090262716 0.5786755001
9050245700.0 0.8174903152 0.5664697374
9100245400.0 0.8256076622 0.5542430482
9150245100.0 0.8351056477 0.5412490239
9200244800.0 0.8438895587 0.5270908491
9250244500.0 0.8530975356 0.5125164379
9300244200.0 0.861170591 0.4990253956
9350243900.0 0.8688630987 0.4856976716
9400243600.0 0.8752484277 0.4740231811
9450243300.0 0.8809448089 0.4634497827
9500243000.0 0.8873197787 0.4518948051
9550242700.0 0.8912040126 0.4443892648
9600242400.0 0.8955251579 0.4366356243
9650242100.0 0.8998612372 0.4296265691
9700241800.0 0.9046429614 0.4210787137
9750241500.0 0.908701663 0.4135852813
9800241200.0 0.9140016072 0.404017722
9850240900.0 0.9197423738 0.3920881631
9900240600.0 0.9258800599 0.3800741403
9950240300.0 0.9329275591 0.3635391228
10000240000.0 0.9379299204 0.3514001633
10050239700.0 0.9437864695 0.3354831639
10100239400.0 0.9492114227 0.3192750606
10150239100.0 0.9539713145 0.3034968094
10200238800.0 0.9583011349 0.2880614836
10250238500.0 0.9615586596 0.2746212773
10300238200.0 0.9645896918 0.260726629
10350237900.0 0.967333686 0.2471822838
10400237600.0 0.9699050175 0.2337091185
10450237300.0 0.9727348268 0.2200496816
10500237000.0 0.9749394218 0.2074786186
10550236700.0 0.9773112924 0.1929265546
10600236400.0 0.9796468479 0.1799131652
10650236100.0 0.9812756351 0.1646327559
10700235800.0 0.9838212268 0.1525335164
10750235500.0 0.9856756711 0.1391099742
10800235200.0 0.9880527572 0.1247729409
10850234900.0 0.9901030759 0.1094910236
10900234600.0 0.9920079084 0.0949525381
10950234300.0 0.9937231219 0.0814155858
11000234000.0 0.9955488687 0.0658758859
11050233700.0 0.9974632122 0.0492432129
11100233400.0 0.998927704 0.031519291
11150233100.0 1.000308839 0.0144532266
11200232800.0 1.000976639 -0.00123958
11250232500.0 1.001990083 -0.0195331128
11300232200.0 1.00208596 -0.0367421062
11350231900.0 1.002011115 -0.0530725003
11400231600.0 1.001571627 -0.0689917393
11450231300.0 1.00089364 -0.0840807092
11500231000.0 0.999581617 -0.1011724756
11550230700.0 0.9985768986 -0.1141321903
11600230400.0 0.9971585886 -0.1271427336
11650230100.0 0.9948470784 -0.1386757425
11700229800.0 0.9928276489 -0.1538892538
11750229500.0 0.990126104 -0.167541373
11800229200.0 0.9872280038 -0.1812787038
11850228900.0 0.9836596407 -0.1928919089
11900228600.0 0.9799759551 -0.2025029965
11950228300.0 0.9763234117 -0.2124613114
12000228000.0 0.9736437185 -0.221868442
12050227700.0 0.9703488573 -0.2335930515
12100227400.0 0.9672703967 -0.2450513131
12150227100.0 0.9620974542 -0.2612120253
12200226800.0 0.9584972899 -0.2721677426
12250226500.0 0.9539799526 -0.2863435629
12300226200.0 0.9496558606 -0.2977621754
12350225900.0 0.9442011209 -0.3126797756
12400225600.0 0.9404452195 -0.3243579473
12450225300.0 0.9358701152 -0.3362077266
12500225000.0 0.9302328759 -0.3514741823
12550224700.0 0.9250394314 -0.3654189843
12600224400.0 0.9201545237 -0.377982843
12650224100.0 0.914221038 -0.3922851246
12700223800.0 0.9089943547 -0.4051000367
12750223500.0 0.9035643655 -0.4182521801
12800223200.0 0.8983271354 -0.4307586276
12850222900.0 0.8930551715 -0.4430630814
12900222600.0 0.8876014319 -0.4544228277
12950222300.0 0.8810895079 -0.4676818337
13000222000.0 0.87541153 -0.4790651937
13050221700.0 0.8683814835 -0.4917869439
13100221400.0 0.861633274 -0.5044604555
13150221100.0 0.8550026827 -0.5157483843
13200220800.0 0.8479910806 -0.5275810684
13250220500.0 0.840673028 -0.539981023
13300220200.0 0.8331145614 -0.550894168
13350219900.0 0.8249883224 -0.5628450247
13400219600.0 0.816518503 -0.5747101506
13450219300.0 0.8072126461 -0.5877928551
13500219000.0 0.7974720192 -0.6009450691
13550218700.0 0.7877570079 -0.613224922
13600218400.0 0.7781192497 -0.6247931185
13650218100.0 0.7679761015 -0.6355310199
13700217800.0 0.7576263035 -0.6475488056
13750217500.0 0.7485010876 -0.6586624142
13800217200.0 0.736971151 -0.6693724125
13850216900.0 0.7258012263 -0.6812658193
13900216600.0 0.7166694231 -0.6899632011
13950216300.0 0.7056306194 -0.7001207463
14000216000.0 0.6958601712 -0.7092721654
14050215700.0 0.6866576987 -0.716816006
14100215400.0 0.677076935 -0.7256752398
14150215100.0 0.6676789198 -0.7351754755
14200214800.0 0.658520848 -0.7436481904
14250214500.0 0.6479617502 -0.7531651744
14300214200.0 0.6373532694 -0.7627678805
14350213900.0 0.6267091389 -0.7724800651
14400213600.0 0.6146630693 -0.7820468787
14450213300.0 0.6016517032 -0.7922089677
14500213000.0 0.588863066 -0.8019543655
14550212700.0 0.576002035 -0.8116747329
14600212400.0 0.5635658994 -0.8204398322
14650212100.0 0.5514325234 -0.8287693522
14700211800.0 0.5373814675 -0.8386846836
14750211500.0 0.5254813577 -0.8469607533
14800211200.0 0.5127380723 -0.8553493143
14850210900.0 0.5003711492 -0.8626858889
14900210600.0 0.4870921278 -0.8708914971
14950210300.0 0.4738446718 -0.8782934113
15000210000.0 0.4612295189 -0.8852877791
15050209700.0 0.4490290973 -0.8910630195
15100209400.0 0.4357721329 -0.8974109477
15150209100.0 0.4236703857 -0.9023821868
15200208800.0 0.4114845821 -0.9074742384
15250208500.0 0.4001784475 -0.9123727449
15300208200.0 0.3876936769 -0.916798711
15350207900.0 0.3745914389 -0.9220746268
15400207600.0 0.3596740037 -0.926912063
15450207300.0 0.3452452059 -0.9324428969
15500207000.0 0.3313238255 -0.9366053714
15550206700.0 0.3167875331 -0.941233514
15600206400.0 0.3002560627 -0.9465111873
15650206100.0 0.2849990584 -0.9509874855
15700205800.0 0.2708871296 -0.95420138
15750205500.0 0.2571036367 -0.9576753762
15800205200.0 0.2428914336 -0.9611037399
15850204900.0 0.2287617394 -0.9645717353
15900204600.0 0.2137728687 -0.968287286
15950204300.0 0.1997122171 -0.9714476184
16000204000.0 0.18511475 -0.9744110532
16050203700.0 0.1699553202 -0.9774777628
16100203400.0 0.1550491981 -0.9794326363
16150203100.0 0.1406103976 -0.9818533465
16200202800.0 0.1260270088 -0.9838969782
16250202500.0 0.1108836207 -0.9859170346
16300202200.0 0.0954909508 -0.9875169567
16350201900.0 0.0803676396 -0.9888947232
16400201600.0 0.0660164321 -0.9900213686
16450201300.0 0.0502715583 -0.9911807284
16500201000.0 0.03346251 -0.9919485565
16550200700.0 0.0172855444 -0.9925671226
16600200400.0 0.001330898 -0.9927908651
16650200100.0 -0.0144811847 -0.9925409146
16700199800.0 -0.031042383 -0.9923041189
16750199500.0 -0.0494598855 -0.991780494
16800199200.0 -0.0660062568 -0.9904788318
16850198900.0 -0.0816139746 -0.989443546
16900198600.0 -0.0957065921 -0.9885638856
16950198300.0 -0.1099115991 -0.9873222785
17000198000.0 -0.1221021833 -0.9861279753
17050197700.0 -0.1354273691 -0.984363196
17100197400.0 -0.1481085432 -0.9818559723
17150197100.0 -0.1611869945 -0.9798624804
17200196800.0 -0.1735831591 -0.9781324493
17250196500.0 -0.1867635785 -0.9754086598
17300196200.0 -0.1987570851 -0.9732734911
17350195900.0 -0.2108925679 -0.9708562554
17400195600.0 -0.222871224 -0.9683074708
17450195300.0 -0.2355061727 -0.9653849544
17500195000.0 -0.2488497034 -0.9623010383
17550194700.0 -0.2627019003 -0.9586878436
17600194400.0 -0.2760958395 -0.9552463873
17650194100.0 -0.2899647527 -0.9503438
17700193800.0 -0.3033284769 -0.9466307808
17750193500.0 -0.3170872337 -0.9419976446
17800193200.0 -0.3313356698 -0.9365648784
17850192900.0 -0.3459929373 -0.9312371798
17900192600.0 -0.3610174889 -0.925006005
17950192300.0 -0.3766518627 -0.9180971257
18000192000.0 -0.391369029 -0.9109648958
18050191700.0 -0.4053376785 -0.9029631323
18100191400.0 -0.4195232804 -0.8952989213
18150191100.0 -0.4343185789 -0.8874461527
18200190800.0 -0.4512639767 -0.8783396027
18250190500.0 -0.4680541147 -0.8686799879
18300190200.0 -0.4834415232 -0.8598473815
18350189900.0 -0.4986406402 -0.8516402649
18400189600.0 -0.5128737016 -0.8429616409
18450189300.0 -0.5265774863 -0.8352473959
18500189000.0 -0.5403479679 -0.8271745942
18550188700.0 -0.5529053733 -0.819252949
18600188400.0 -0.5648218861 -0.8124700661
18650188100.0 -0.576182812 -0.8059471897
18700187800.0 -0.5872643263 -0.799213345
18750187500.0 -0.5982053884 -0.7926849593
18800187200.0 -0.6090476901 -0.7856154963
18850186900.0 -0.6191019396 -0.7786884358
18900186600.0 -0.6294329505 -0.7713824559
18950186300.0 -0.6397220834 -0.7636184859
19000186000.0 -0.6471372594 -0.7575314906
19050185700.0 -0.6564534158 -0.750781528
19100185400.0 -0.6664097259 -0.742198736
19150185100.0 -0.6761067792 -0.7341954804
19200184800.0 -0.6854928797 -0.7253794025
19250184500.0 -0.6962638318 -0.7163776859
19300184200.0 -0.7078059246 -0.7062751175
19350183900.0 -0.7187707953 -0.6972436572
19400183600.0 -0.7279174029 -0.686482188
19450183300.0 -0.7368053465 -0.6775123816
19500183000.0 -0.7453121133 -0.6666275488
19550182700.0 -0.7553727081 -0.6561038328
19600182400.0 -0.7653713357 -0.644280399
19650182100.0 -0.7757917478 -0.6321414306
19700181800.0 -0.7862079103 -0.6185867904
19750181500.0 -0.7966538306 -0.6046727256
19800181200.0 -0.8069109622 -0.5898009185
19850180900.0 -0.8162244805 -0.5744537954
19900180600.0 -0.8241768221 -0.5601447825
19950180300.0 -0.8332134494 -0.5439831186
20000180000.0 -0.822926117 -0.5475397781
20050179700.0 -0.8315817786 -0.5348598683
20100179400.0 -0.8394094462 -0.5214721459
20150179100.0 -0.8479475339 -0.5087546002
20200178800.0 -0.8553423047 -0.4981732926
20250178500.0 -0.8654505428 -0.4856085093
20300178200.0 -0.8753639006 -0.4719126588
20350177900.0 -0.8842295159 -0.4581877016
20400177600.0 -0.8933591837 -0.4435365635
20450177300.0 -0.9016155576 -0.4294803776
20500177000.0 -0.9095765979 -0.4157062745
20550176700.0 -0.9179833237 -0.4022813782
20600176400.0 -0.9249403452 -0.3894323964
20650176100.0 -0.930877015 -0.3766858045
20700175800.0 -0.9381994518 -0.3648120832
20750175500.0 -0.9443166092 -0.3535678208
20800175200.0 -0.9490736127 -0.3430102254
20850174900.0 -0.9525637793 -0.331457332
20900174600.0 -0.9571916702 -0.321545957
20950174300.0 -0.9605217841 -0.310108003
21000174000.0 -0.9643118308 -0.2987074457
21050173700.0 -0.9660765604 -0.2893299398
21100173400.0 -0.9694047305 -0.2794748167
21150173100.0 -0.9729392591 -0.2667726788
21200172800.0 -0.9767558281 -0.253832643
21250172500.0 -0.9806906522 -0.2401973583
21300172200.0 -0.9840436186 -0.2261200042
21350171900.0 -0.9859918858 -0.2121797537
21400171600.0 -0.9875209644 -0.1978711677
21450171300.0 -0.9879841116 -0.1835035727
21500171000.0 -0.9889890367 -0.1681018069
21550170700.0 -0.9895628616 -0.1521175393
21600170400.0 -0.9908359153 -0.1387934547
21650170100.0 -0.9912471642 -0.1226981296
21700169800.0 -0.9895457327 -0.1069484116
21750169500.0 -0.9900382722 -0.0904946797
21800169200.0 -0.9905537393 -0.0743738315
21850168900.0 -0.990264252 -0.0574291538
21900168600.0 -0.9888234971 -0.0412280647
21950168300.0 -0.9894528279 -0.0251289495
22000168000.0 -0.9888685458 -0.0102549165
22050167700.0 -0.9897198285 0.0044112716
22100167400.0 -0.9904536691 0.0196932877
22150167100.0 -0.99139865 0.0359876333
22200166800.0 -0.9918571164 0.0524875475
22250166500.0 -0.9912151809 0.0704155166
22300166200.0 -0.9905522717 0.0861635119
22350165900.0 -0.989224895 0.1026333689
22400165600.0 -0.9875365529 0.1174845718
22450165300.0 -0.9859323265 0.1330946191
22500165000.0 -0.9842358927 0.1465306591
22550164700.0 -0.9830982126 0.1631205822
22600164400.0 -0.9817232386 0.1791954898
22650164100.0 -0.9779488708 0.1949479553
22700163800.0 -0.9751643685 0.2115429458
22750163500.0 -0.9719402244 0.2263895062
22800163200.0 -0.9689316803 0.2389058725
22850162900.0 -0.966394561 0.2523142718
22900162600.0 -0.9647871414 0.2663291337
22950162300.0 -0.9628703184 0.2801419511
23000162000.0 -0.9609261985 0.2927884585
23050161700.0 -0.9583165886 0.3062087607
23100161400.0 -0.9561523774 0.3195442289
23150161100.0 -0.9530269298 0.3332787655
23200160800.0 -0.9497995411 0.3458401038
23250160500.0 -0.9467063072 0.3580924219
23300160200.0 -0.9443810035 0.3707435245
23350159900.0 -0.939960439 0.3843605265
23400159600.0 -0.9351729973 0.3985164405
23450159300.0 -0.9302098398 0.4118799871
23500159000.0 -0.9248945528 0.4256073851
23550158700.0 -0.9205414442 0.4396689655
23600158400.0 -0.9140710198 0.4536265546
23650158100.0 -0.9069134263 0.4681035906
23700157800.0 -0.8985427503 0.4823203763
23750157500.0 -0.8892087218 0.4968789233
23800157200.0 -0.8791596747 0.5103358189
23850156900.0 -0.8697076405 0.5230134764
23900156600.0 -0.8603173422 0.5355599694
23950156300.0 -0.8503211409 0.5478849653
24000156000.0 -0.8408688098 0.5605621177
24050155700.0 -0.8302561994 0.572740754
24100155400.0 -0.8192902619 0.5858855498
24150155100.0 -0.8087838524 0.5969928704
24200154800.0 -0.7977790636 0.6085655205
24250154500.0 -0.7864514605 0.6215588088
24300154200.0 -0.7748732219 0.6331922985
24350153900.0 -0.7628881377 0.6442942211
24400153600.0 -0.7507684993 0.6551133543
24450153300.0 -0.7385552053 0.6652399766
24500153000.0 -0.7270013764 0.6749831248
24550152700.0 -0.7151650543 0.685343772
24600152400.0 -0.7036163393 0.6940800368
24650152100.0 -0.6919007698 0.7035228551
