!Created with skrf (http://scikit-rf.org).
# Hz S RI R 50.0 
!freq ReS11 ImS11
300000.0 -0.9970547588 -0.0348308854
50299700.0 -0.9991981059 0.0161511733
100299400.0 -0.9972787848 0.0288735808
150299100.0 -1.001936041 0.0455885423
200298800.0 -0.9989107928 0.0589101222
250298500.0 -0.9964907618 0.072198761
300298200.0 -0.98498446 0.0880248466
350297900.0 -0.9928520162 0.0985719395
400297600.0 -0.9919436925 0.1151031846
450297300.0 -0.9895599686 0.1287233866
500297000.0 -0.9878346325 0.1436314262
550296700.0 -0.9828768375 0.1558364315
600296400.0 -1.015843993 0.1889204857
650296100.0 -0.9805948102 0.1857612008
700295800.0 -0.9776294208 0.1997624375
750295500.0 -0.9747047707 0.2137829308
800295200.0 -0.9714712639 0.2276207871
850294900.0 -0.9678768336 0.2413462163
900294600.0 -0.9642923299 0.2550523326
950294300.0 -0.9604843356 0.2686621637
1000294000.0 -0.9566679623 0.2827130063
1050293700.0 -0.9520571167 0.2963843138
1100293400.0 -0.9478640464 0.3107628327
1150293100.0 -0.9441410727 0.3224803007
1200292800.0 -0.938912712 0.3367498071
1250292500.0 -0.9335290989 0.3502869049
1300292200.0 -0.9278871521 0.3632856391
1350291900.0 -0.9224556016 0.3773736051
1400291600.0 -0.9171290965 0.390609495
1450291300.0 -0.9117447945 0.4026760885
1500291000.0 -0.9054198511 0.4161838971
1550290700.0 -0.8991037383 0.4293622302
1600290400.0 -0.8930431891 0.4420981157
1650290100.0 -0.8866304194 0.454254718
1700289800.0 -0.8794887951 0.4677094266
1750289500.0 -0.8727991469 0.480009437
1800289200.0 -0.8654976867 0.4928190257
1850288900.0 -0.8588991664 0.504106024
1900288600.0 -0.8514909676 0.5169055333
1950288300.0 -0.8431770638 0.5295428999
2000288000.0 -0.8356784351 0.5410536115
2050287700.0 -0.827630969 0.5530735969
2100287400.0 -0.8194108426 0.5648286333
2150287100.0 -0.8110267541 0.5768872831
2200286800.0 -0.803618107 0.5873825557
2250286500.0 -0.7946783542 0.5993640467
2300286200.0 -0.7859206841 0.6107838559
2350285900.0 -0.7773215134 0.621697713
2400285600.0 -0.7679898767 0.6330406298
2450285300.0 -0.7594724665 0.6433761786
2500285000.0 -0.749986882 0.6543054153
2550284700.0 -0.7406696316 0.6646394069
2600284400.0 -0.7310094261 0.6750420184
2650284100.0 -0.72238686 0.6853758505
2700283800.0 -0.711991217 0.6958528218
2750283500.0 -0.7016685628 0.706101998
2800283200.0 -0.6921063409 0.7160634096
2850282900.0 -0.6819197158 0.7259004888
2900282600.0 -0.6709726349 0.7351957424
2950282300.0 -0.6610610512 0.7446135251
3000282000.0 -0.650402635 0.7542924327
3050281700.0 -0.6393186625 0.7633057096
3100281400.0 -0.6281712637 0.772388467
3150281100.0 -0.6171896053 0.7811524173
3200280800.0 -0.6053768608 0.7900677255
3250280500.0 -0.5943846072 0.7981438306
3300280200.0 -0.5830076587 0.8064593856
3350279900.0 -0.5719576549 0.8141624689
3400279600.0 -0.5597015825 0.8220838024
3450279300.0 -0.5483020127 0.8294657444
3500279000.0 -0.5367185361 0.8369526379
3550278700.0 -0.5248068253 0.8443949844
3600278400.0 -0.5131030705 0.8510104868
3650278100.0 -0.4998755765 0.8588065938
3700277800.0 -0.4882825417 0.865574794
3750277500.0 -0.4759216549 0.8722203778
3800277200.0 -0.4632892458 0.878993876
3850276900.0 -0.45095832 0.8852096421
3900276600.0 -0.439797276 0.8910056769
3950276300.0 -0.4267308853 0.8973164682
4000276000.0 -0.4148706982 0.9031034587
4050275700.0 -0.4014791662 0.9091500185
4100275400.0 -0.3898493508 0.9144995958
4150275100.0 -0.3771884162 0.9203843979
4200274800.0 -0.3636222218 0.925902486
4250274500.0 -0.3512843856 0.9308616642
4300274200.0 -0.3384463377 0.9358391786
4350273900.0 -0.3248921598 0.9406280363
4400273600.0 -0.310990891 0.9457327332
4450273300.0 -0.2965887907 0.9505186903
4500273000.0 -0.2833983415 0.9545182576
4550272700.0 -0.2699576658 0.9586538675
4600272400.0 -0.2546648893 0.9628506127
4650272100.0 -0.2423982525 0.9660702965
4700271800.0 -0.2290033627 0.9694997755
4750271500.0 -0.2163837561 0.9724416116
4800271200.0 -0.2032101759 0.9751929652
4850270900.0 -0.1892958266 0.9781621741
4900270600.0 -0.1759305426 0.9806230136
4950270300.0 -0.1623598684 0.9828761766
5000270000.0 -0.1482035845 0.9853047887
5050269700.0 -0.1347590188 0.9868609461
5100269400.0 -0.120849221 0.9888895712
5150269100.0 -0.1069799751 0.9902242168
5200268800.0 -0.0934780091 0.992086407
5250268500.0 -0.0804748453 0.9927997482
5300268200.0 -0.0668010589 0.9935378772
5350267900.0 -0.0545263812 0.9943141274
5400267600.0 -0.0387505058 0.9956314181
5450267300.0 -0.0263210308 0.9955188983
5500267000.0 -0.0116462653 0.9962265513
5550266700.0 0.001741331 0.9963551349
5600266400.0 0.016771723 0.9963403069
5650266100.0 0.0322263682 0.9959351492
5700265800.0 0.0461247572 0.9954675467
5750265500.0 0.060568479 0.9948627888
5800265200.0 0.0744619137 0.9935278333
5850264900.0 0.0879093196 0.9933348496
5900264600.0 0.1039122162 0.9915676513
5950264300.0 0.116123315 0.9900800121
6000264000.0 0.1299378876 0.9880820233
6050263700.0 0.1426073925 0.9863674414
6100263400.0 0.1561235875 0.9844917444
6150263100.0 0.1713982084 0.9822387766
6200262800.0 0.1820225735 0.9803138389
6250262500.0 0.1952530732 0.9777095692
6300262200.0 0.2080422644 0.9749974522
6350261900.0 0.2211635176 0.9722630569
6400261600.0 0.2355680475 0.9687554612
6450261300.0 0.2472997175 0.9661937295
6500261000.0 0.2603782231 0.9625460254
6550260700.0 0.2734806412 0.9585011869
6600260400.0 0.2861268058 0.9546702712
6650260100.0 0.300260026 0.9507848611
6700259800.0 0.3122610918 0.9466041548
6750259500.0 0.3255577161 0.9419563284
6800259200.0 0.3390379421 0.9371739135
6850258900.0 0.3510255107 0.9321342486
6900258600.0 0.3637586572 0.9274035704
6950258300.0 0.3763570162 0.9222986248
7000258000.0 0.388432248 0.9170516647
7050257700.0 0.4005716291 0.9115280561
7100257400.0 0.4141552428 0.9054118631
7150257100.0 0.4247465144 0.9001086717
7200256800.0 0.4375049377 0.8941797216
7250256500.0 0.4491127328 0.8878089762
7300256200.0 0.4621160729 0.8815007482
7350255900.0 0.4744130334 0.8752596861
7400255600.0 0.4855222633 0.8689865557
7450255300.0 0.499859971 0.8607856355
7500255000.0 0.5108337652 0.8537366399
7550254700.0 0.5231734504 0.8463417981
7600254400.0 0.5357589146 0.8382647649
7650254100.0 0.5473500081 0.8311584608
7700253800.0 0.5591642383 0.82310455
7750253500.0 0.5704695612 0.8155065757
7800253200.0 0.5819534672 0.8074699977
7850252900.0 0.5912776848 0.8002057627
7900252600.0 0.6035899602 0.7915276529
7950252300.0 0.612891719 0.7842123199
8000252000.0 0.6235594419 0.7762128399
8050251700.0 0.6342093972 0.7676467222
8100251400.0 0.6442130645 0.7597066681
8150251100.0 0.6546784058 0.7506228404
8200250800.0 0.6641718147 0.7425449488
8250250500.0 0.6740394117 0.7337771757
8300250200.0 0.6837401393 0.724627676
8350249900.0 0.6934808407 0.7158603348
8400249600.0 0.7018415486 0.7073706598
8450249300.0 0.7115486581 0.6978565559
8500249000.0 0.7206147113 0.6884619565
8550248700.0 0.7297111664 0.6786309743
8600248400.0 0.7388404577 0.6686916724
8650248100.0 0.7467203419 0.6593362408
8700247800.0 0.7560868571 0.6486962091
8750247500.0 0.7646502644 0.6384170676
8800247200.0 0.7727203489 0.628214741
8850246900.0 0.781626672 0.6173099139
8900246600.0 0.7899611639 0.6062935262
8950246300.0 0.7987163145 0.5945027941
9000246000.0 0.8071245822 0.5833342244
9050245700.0 0.8152647286 0.5716285425
9100245400.0 0.8233933138 0.5597257656
9150245100.0 0.8321552549 0.5477120861
9200244800.0 0.8397497493 0.5353605504
9250244500.0 0.8485055304 0.521953228
9300244200.0 0.8559268878 0.5095047754
9350243900.0 0.8635494458 0.4964383175
9400243600.0 0.8702817763 0.4841424601
9450243300.0 0.8765575808 0.47275719
9500243000.0 0.8837742859 0.4597009015
9550242700.0 0.8892862943 0.448599712
9600242400.0 0.8946738914 0.438046317
9650242100.0 0.8995277875 0.4284149069
9700241800.0 0.9049153185 0.4182965291
9750241500.0 0.9095911081 0.4079955224
9800241200.0 0.9148908048 0.396821741
9850240900.0 0.919982981 0.3850601194
9900240600.0 0.924584758 0.3749218678
9950240300.0 0.9309077424 0.359823186
10000240000.0 0.9357577303 0.3475155687
10050239700.0 0.9408600508 0.3338355188
10100239400.0 0.9456273802 0.3194747679
10150239100.0 0.9499886424 0.306031185
10200238800.0 0.9544902242 0.291203979
10250238500.0 0.9583381716 0.2779203119
10300238200.0 0.9619704791 0.2641141247
10350237900.0 0.9649059686 0.2512476852
10400237600.0 0.9679710579 0.2378506339
10450237300.0 0.9711567222 0.2239633515
10500237000.0 0.9738041109 0.2118136193
10550236700.0 0.976489505 0.1977864183
10600236400.0 0.9787048925 0.1845445595
10650236100.0 0.980878197 0.169931523
10700235800.0 0.9834714253 0.1569643939
10750235500.0 0.9853826694 0.1437940848
10800235200.0 0.9878018755 0.1295563467
10850234900.0 0.9892362131 0.1155897813
10900234600.0 0.9911488444 0.1015914098
10950234300.0 0.9925539146 0.0883134066
11000234000.0 0.9939438842 0.0744021136
11050233700.0 0.9953974367 0.0601571014
11100233400.0 0.9965183385 0.0442781225
11150233100.0 0.9978288134 0.0292566322
11200232800.0 0.9980419256 0.0153907281
11250232500.0 0.9983258938 -2.81963e-05
11300232200.0 0.9995941398 -0.0160576509
11350231900.0 0.9993042705 -0.0315648521
11400231600.0 0.9983525132 -0.045751858
11450231300.0 0.9979455415 -0.0596490709
11500231000.0 0.9972801937 -0.0753532807
11550230700.0 0.9964069681 -0.0882443735
11600230400.0 0.9949195198 -0.1034666192
11650230100.0 0.9930350584 -0.1145684088
11700229800.0 0.9915315926 -0.1294428107
11750229500.0 0.9895840725 -0.1434549489
11800229200.0 0.9873423888 -0.1572928304
11850228900.0 0.9845534283 -0.1711186529
11900228600.0 0.9816842927 -0.1832624032
11950228300.0 0.9786696 -0.1962040538
12000228000.0 0.9761038976 -0.2074555941
12050227700.0 0.9725554958 -0.220559529
12100227400.0 0.9701615338 -0.2318785986
12150227100.0 0.9652977887 -0.249316509
12200226800.0 0.9619819939 -0.2604184005
12250226500.0 0.9577037525 -0.2736886694
12300226200.0 0.9543889832 -0.2860519795
12350225900.0 0.9497072313 -0.3008001181
12400225600.0 0.9455198718 -0.3125576293
12450225300.0 0.9417309893 -0.325735608
12500225000.0 0.9360680632 -0.3397509245
12550224700.0 0.9310435995 -0.3538744222
12600224400.0 0.9263412692 -0.3662705857
12650224100.0 0.9206832044 -0.3804733984
12700223800.0 0.9152992574 -0.3930316158
12750223500.0 0.9098343129 -0.4059210831
12800223200.0 0.9044303679 -0.4186946445
12850222900.0 0.8990581334 -0.4312028731
12900222600.0 0.8931222712 -0.4429247763
12950222300.0 0.8865403224 -0.4568157262
13000222000.0 0.8803642662 -0.4681646268
13050221700.0 0.8736380942 -0.4816262034
13100221400.0 0.8666428262 -0.493243137
13150221100.0 0.8598770459 -0.5055097596
13200220800.0 0.8527368805 -0.5171219978
13250220500.0 0.8456090645 -0.5295037842
13300220200.0 0.8382158627 -0.5407300096
13350219900.0 0.8300869159 -0.5532529939
13400219600.0 0.8222328236 -0.5646666953
13450219300.0 0.8134491797 -0.5771774176
13500219000.0 0.8046773709 -0.5897397545
13550218700.0 0.7946027077 -0.6026757407
13600218400.0 0.7855071818 -0.6144898682
13650218100.0 0.7770944404 -0.6246576033
13700217800.0 0.7665192317 -0.6367241413
13750217500.0 0.7579726204 -0.6477374321
13800217200.0 0.7464295152 -0.6593708888
13850216900.0 0.7364449141 -0.6714075146
13900216600.0 0.7268384564 -0.6807015408
13950216300.0 0.7155885305 -0.6912740028
14000216000.0 0.7064564278 -0.7011536697
14050215700.0 0.696565321 -0.7098409356
14100215400.0 0.6864012 -0.7203876293
14150215100.0 0.6766613982 -0.7295952286
14200214800.0 0.6669296967 -0.7383955948
14250214500.0 0.6564041001 -0.7482599715
14300214200.0 0.6456197269 -0.7578896143
14350213900.0 0.6347240325 -0.767421061
14400213600.0 0.6237565 -0.7765326197
14450213300.0 0.6121189721 -0.7858875694
14500213000.0 0.5997218874 -0.7952713607
14550212700.0 0.5878176142 -0.8044726273
14600212400.0 0.5756954339 -0.8130641031
14650212100.0 0.5640801731 -0.8211631908
14700211800.0 0.5504929236 -0.8303976134
14750211500.0 0.5382925557 -0.8386364264
14800211200.0 0.5255671298 -0.8469030883
14850210900.0 0.513722107 -0.8543502147
14900210600.0 0.5007172253 -0.8621622852
14950210300.0 0.4877026339 -0.8699446678
15000210000.0 0.4750798608 -0.8769600531
15050209700.0 0.4622142693 -0.8835025811
15100209400.0 0.4493890759 -0.8900269058
15150209100.0 0.4369437588 -0.8960184698
15200208800.0 0.4241109201 -0.902342023
15250208500.0 0.411326171 -0.9075372049
15300208200.0 0.3978877448 -0.9127269104
15350207900.0 0.3856732248 -0.9181701721
15400207600.0 0.3707338053 -0.9245955771
15450207300.0 0.3571873407 -0.9295399713
15500207000.0 0.3425674945 -0.933729081
15550206700.0 0.3289434671 -0.9389451447
15600206400.0 0.3144285777 -0.9442144915
15650206100.0 0.2989351915 -0.9486440795
15700205800.0 0.2852830774 -0.9523457763
15750205500.0 0.2708875151 -0.9563075482
15800205200.0 0.257051446 -0.9600983618
15850204900.0 0.2429932706 -0.9636871754
15900204600.0 0.2281359049 -0.9676301437
15950204300.0 0.2138852748 -0.9705596445
16000204000.0 0.1997037946 -0.9738207906
16050203700.0 0.1851694656 -0.9771575787
16100203400.0 0.1710682996 -0.9789888552
16150203100.0 0.1560374568 -0.9818057613
16200202800.0 0.1419264946 -0.9838563433
16250202500.0 0.1272593818 -0.9860974012
16300202200.0 0.1120400973 -0.9877633848
16350201900.0 0.0968283863 -0.9892090858
16400201600.0 0.0824390203 -0.9905914971
16450201300.0 0.0675540927 -0.9918678038
16500201000.0 0.0517089253 -0.9928528623
16550200700.0 0.0364067488 -0.9938272142
16600200400.0 0.0208585818 -0.9943054039
16650200100.0 0.0051052837 -0.9944476635
16700199800.0 -0.0099753618 -0.9944296842
16750199500.0 -0.026969157 -0.9945811236
16800199200.0 -0.0423772409 -0.9941401478
16850198900.0 -0.0579840599 -0.9928246578
16900198600.0 -0.0727898824 -0.9922400536
16950198300.0 -0.0867092521 -0.9909781707
17000198000.0 -0.1005069874 -0.9894614312
17050197700.0 -0.1145509725 -0.9880507076
17100197400.0 -0.1288159099 -0.985959511
17150197100.0 -0.1422832914 -0.9834884248
17200196800.0 -0.1558805168 -0.9816391811
17250196500.0 -0.1700392329 -0.9793062897
17300196200.0 -0.1836427024 -0.9769434001
17350195900.0 -0.1968473023 -0.9742223125
17400195600.0 -0.2101201972 -0.9715768042
17450195300.0 -0.2234914177 -0.9685742518
17500195000.0 -0.2374195249 -0.9653327059
17550194700.0 -0.2512192566 -0.9618550827
17600194400.0 -0.2653857439 -0.9579404314
17650194100.0 -0.2793643953 -0.95381084
17700193800.0 -0.2925591257 -0.9500913318
17750193500.0 -0.3063726938 -0.9459585609
17800193200.0 -0.320089781 -0.9407313195
17850192900.0 -0.3344785974 -0.9364346739
17900192600.0 -0.3490078888 -0.9307800901
17950192300.0 -0.3640596553 -0.9244191704
18000192000.0 -0.3784379505 -0.9180308668
18050191700.0 -0.3926599017 -0.9111942121
18100191400.0 -0.406889454 -0.9044512217
18150191100.0 -0.4208237178 -0.8974113796
18200190800.0 -0.435956777 -0.8898753435
18250190500.0 -0.4515746367 -0.8816130595
18300190200.0 -0.4663971483 -0.8742016591
18350189900.0 -0.4811222493 -0.8666393559
18400189600.0 -0.4954894346 -0.8589139809
18450189300.0 -0.5087520133 -0.8509028542
18500189000.0 -0.5219588428 -0.8430832849
18550188700.0 -0.5352959545 -0.8354164493
18600188400.0 -0.548068793 -0.8273079963
18650188100.0 -0.5600265318 -0.8201809217
18700187800.0 -0.5717970774 -0.8127143017
18750187500.0 -0.583020281 -0.8051477891
18800187200.0 -0.5944509192 -0.796991097
18850186900.0 -0.6053260607 -0.789065251
18900186600.0 -0.616027359 -0.7810867362
18950186300.0 -0.6271008649 -0.7721425144
19000186000.0 -0.6364229293 -0.7648087259
19050185700.0 -0.6464832376 -0.7567759534
19100185400.0 -0.6568097071 -0.7478023336
19150185100.0 -0.6675263747 -0.7390058379
19200184800.0 -0.6772560341 -0.7297445442
19250184500.0 -0.6869410023 -0.720510745
19300184200.0 -0.6982938703 -0.7107614402
19350183900.0 -0.708132657 -0.7012762873
19400183600.0 -0.718403977 -0.6904585177
19450183300.0 -0.7277224788 -0.6796911036
19500183000.0 -0.7365626356 -0.6698668109
19550182700.0 -0.7453844847 -0.6593213016
19600182400.0 -0.7557146015 -0.6480590193
19650182100.0 -0.7657505183 -0.6361070707
19700181800.0 -0.7753825633 -0.6243793906
19750181500.0 -0.7851709094 -0.6118475962
19800181200.0 -0.7945912179 -0.5987315093
19850180900.0 -0.8043391872 -0.5852283195
19900180600.0 -0.81227903 -0.5725356309
19950180300.0 -0.8220766937 -0.5580535589
20000180000.0 -0.8242592694 -0.5513647272
20050179700.0 -0.8322734789 -0.5396975382
20100179400.0 -0.8409519513 -0.5266444888
20150179100.0 -0.8486128031 -0.513669763
20200178800.0 -0.8569030298 -0.5009433755
20250178500.0 -0.8654161607 -0.4882770426
20300178200.0 -0.8737144506 -0.4745342078
20350177900.0 -0.8816037061 -0.4616236618
20400177600.0 -0.8894101441 -0.4479799263
20450177300.0 -0.8962211276 -0.434580937
20500177000.0 -0.9035299664 -0.4210037015
20550176700.0 -0.9106883209 -0.4080983856
20600176400.0 -0.9173681713 -0.3944919856
20650176100.0 -0.9232316884 -0.3821241169
20700175800.0 -0.9298040718 -0.3692505
20750175500.0 -0.935447998 -0.35744971
20800175200.0 -0.9404137476 -0.3452201133
20850174900.0 -0.945181385 -0.3330823092
20900174600.0 -0.9495303564 -0.3202344268
20950174300.0 -0.9534063431 -0.308035062
21000174000.0 -0.958702839 -0.2958977426
21050173700.0 -0.9600562055 -0.2842677243
21100173400.0 -0.9650549619 -0.2708516573
21150173100.0 -0.9684941143 -0.2575928831
21200172800.0 -0.9713312745 -0.2443333072
21250172500.0 -0.9748346668 -0.2304909736
21300172200.0 -0.9784331679 -0.216650926
21350171900.0 -0.9809715844 -0.2025929016
21400171600.0 -0.9839746359 -0.1884537423
21450171300.0 -0.9845549028 -0.1735834064
21500171000.0 -0.985335713 -0.1597457018
21550170700.0 -0.987954459 -0.1444046803
21600170400.0 -0.9899129612 -0.1301325974
21650170100.0 -0.9897840483 -0.1143296564
21700169800.0 -0.9896214052 -0.0989829496
21750169500.0 -0.9899461169 -0.084756856
21800169200.0 -0.9913743496 -0.0691589962
21850168900.0 -0.990753484 -0.0529313391
21900168600.0 -0.9908690354 -0.0375054213
21950168300.0 -0.9901675761 -0.0218230087
22000168000.0 -0.9902227042 -0.0071140101
22050167700.0 -0.9895829081 0.0072853526
22100167400.0 -0.9894036337 0.0227031615
22150167100.0 -0.9893575722 0.0373339231
22200166800.0 -0.9892639487 0.0523848487
22250166500.0 -0.988365607 0.0683382394
22300166200.0 -0.9874857984 0.0840148234
22350165900.0 -0.9866141834 0.0991093374
22400165600.0 -0.9853178659 0.1134116836
22450165300.0 -0.9828821757 0.1278997862
22500165000.0 -0.9811787461 0.1425174282
22550164700.0 -0.9799218568 0.1569845125
22600164400.0 -0.9785894692 0.1719332863
22650164100.0 -0.9758613355 0.1850555977
22700163800.0 -0.9735378551 0.198980203
22750163500.0 -0.9708352213 0.2144534584
22800163200.0 -0.9679993009 0.2273085086
22850162900.0 -0.9650185887 0.2399438536
22900162600.0 -0.962632333 0.254051469
22950162300.0 -0.9603986243 0.2672024542
23000162000.0 -0.9576856611 0.279659996
23050161700.0 -0.9552069248 0.2926801548
23100161400.0 -0.9518757643 0.3057329848
23150161100.0 -0.9491101081 0.3178549652
23200160800.0 -0.9457527767 0.3316625172
23250160500.0 -0.9419946171 0.3432624632
23300160200.0 -0.9383529844 0.3565169765
23350159900.0 -0.9340808588 0.3684151692
23400159600.0 -0.9295333666 0.3819225509
23450159300.0 -0.9250687757 0.3946335385
23500159000.0 -0.9202730741 0.4074515251
23550158700.0 -0.9153624891 0.4199901731
23600158400.0 -0.9102594511 0.432532973
23650158100.0 -0.9042892851 0.4456682313
23700157800.0 -0.8973879117 0.4585399093
23750157500.0 -0.8899935452 0.4719544345
23800157200.0 -0.88239655 0.4843415396
23850156900.0 -0.8753865782 0.4969362713
23900156600.0 -0.8667120722 0.5093157127
23950156300.0 -0.8590634443 0.5220186041
24000156000.0 -0.8507141125 0.5335622207
24050155700.0 -0.8415386688 0.5457175711
24100155400.0 -0.833092126 0.557562739
24150155100.0 -0.8230783476 0.5696913879
24200154800.0 -0.815095094 0.5806191138
24250154500.0 -0.804640574 0.5924855857
24300154200.0 -0.7959382164 0.6039404453
24350153900.0 -0.7856744252 0.6151424874
24400153600.0 -0.7755178862 0.6262589773
24450153300.0 -0.7648922423 0.6366872334
24500153000.0 -0.7545793018 0.6468461491
24550152700.0 -0.7444193141 0.6579382126
24600152400.0 -0.7343048476 0.6678310682
24650152100.0 -0.7236491476 0.6771487767
