!Created with skrf (http://scikit-rf.org).
# Hz S RI R 50.0 
!freq ReS11 ImS11
300000.0 -0.9774584397 -0.1161518226
50299700.0 -1.000069019 0.0156597093
100299400.0 -0.9981178741 0.0287310568
150299100.0 -1.002673753 0.045668015
200298800.0 -0.9998181345 0.0587387558
250298500.0 -0.9975661766 0.0722031372
300298200.0 -0.9860793978 0.0880374486
350297900.0 -0.9942388519 0.0989837423
400297600.0 -0.9934473183 0.115708977
450297300.0 -0.9912227026 0.129252874
500297000.0 -0.9895501124 0.1442416983
550296700.0 -0.9843599046 0.1567239655
600296400.0 -1.017200904 0.189875994
650296100.0 -0.9820025153 0.1865607974
700295800.0 -0.97918382 0.2008782933
750295500.0 -0.976264617 0.2146563994
800295200.0 -0.9730038715 0.2289795004
850294900.0 -0.9697058175 0.242926507
900294600.0 -0.9659791861 0.2564182844
950294300.0 -0.9620340618 0.2701602986
1000294000.0 -0.9580759798 0.284323994
1050293700.0 -0.9535089851 0.2980268661
1100293400.0 -0.9492180533 0.3124240833
1150293100.0 -0.9453913685 0.3241745234
1200292800.0 -0.9400678322 0.3386362561
1250292500.0 -0.9345405207 0.3520178876
1300292200.0 -0.9289393672 0.3653100373
1350291900.0 -0.9234597512 0.3794408641
1400291600.0 -0.9176992738 0.3924641746
1450291300.0 -0.912241195 0.4047503457
1500291000.0 -0.9060989115 0.4182033386
1550290700.0 -0.8995382612 0.4314993331
1600290400.0 -0.8934520165 0.4443327252
1650290100.0 -0.8866796281 0.4563551151
1700289800.0 -0.8797088395 0.470031191
1750289500.0 -0.8727231075 0.4822615839
1800289200.0 -0.8655036837 0.4950440851
1850288900.0 -0.8586414587 0.5065673476
1900288600.0 -0.8508069607 0.5195078221
1950288300.0 -0.8425900713 0.5321836247
2000288000.0 -0.8353331263 0.5434779339
2050287700.0 -0.8270327088 0.5556504308
2100287400.0 -0.8191261116 0.5674991693
2150287100.0 -0.8103912727 0.5795239116
2200286800.0 -0.8026049078 0.5899006052
2250286500.0 -0.7939273211 0.6019249117
2300286200.0 -0.7849364232 0.6136358582
2350285900.0 -0.7761223461 0.6244369779
2400285600.0 -0.7673438709 0.6355200104
2450285300.0 -0.7585428353 0.6459053708
2500285000.0 -0.7492005728 0.6570875123
2550284700.0 -0.7401592211 0.6676729692
2600284400.0 -0.7307390071 0.6777240864
2650284100.0 -0.7215720528 0.6883394916
2700283800.0 -0.7109339318 0.6986170364
2750283500.0 -0.700669664 0.7092349953
2800283200.0 -0.6910846997 0.7191432311
2850282900.0 -0.6808421017 0.7290278447
2900282600.0 -0.6705344819 0.7385104218
2950282300.0 -0.660373721 0.7476882049
3000282000.0 -0.6494980526 0.7571833668
3050281700.0 -0.638169857 0.7664722925
3100281400.0 -0.6262178947 0.7757996117
3150281100.0 -0.614539407 0.7852668248
3200280800.0 -0.6028443941 0.7936504636
3250280500.0 -0.5921459293 0.8013301535
3300280200.0 -0.5808070235 0.8092072305
3350279900.0 -0.569232084 0.8167514447
3400279600.0 -0.5572902067 0.8244202034
3450279300.0 -0.5460894638 0.8314976622
3500279000.0 -0.5340285724 0.8384702044
3550278700.0 -0.5215788177 0.8460159696
3600278400.0 -0.5092347438 0.8531833684
3650278100.0 -0.4959083855 0.8608636618
3700277800.0 -0.4838841941 0.8670920962
3750277500.0 -0.4719747269 0.8736458195
3800277200.0 -0.4594849422 0.8801591018
3850276900.0 -0.4472013937 0.8862146865
3900276600.0 -0.4364615106 0.8917378879
3950276300.0 -0.4238808585 0.8977824517
4000276000.0 -0.411729206 0.9038880933
4050275700.0 -0.3988604976 0.909800224
4100275400.0 -0.3878200402 0.915325207
4150275100.0 -0.3751348593 0.9208311619
4200274800.0 -0.3624028931 0.9266631314
4250274500.0 -0.3499556438 0.9316076348
4300274200.0 -0.3369590269 0.9368289024
4350273900.0 -0.3232548498 0.9421309926
4400273600.0 -0.3082594094 0.9475398283
4450273300.0 -0.2928941505 0.9525967587
4500273000.0 -0.2791537493 0.9568522438
4550272700.0 -0.2648425985 0.961057941
4600272400.0 -0.2494388562 0.9654195802
4650272100.0 -0.2378427122 0.9685418345
4700271800.0 -0.2245233227 0.971888384
4750271500.0 -0.2126691216 0.9748093948
4800271200.0 -0.2003778913 0.9775839683
4850270900.0 -0.1864084985 0.9801332319
4900270600.0 -0.172518096 0.9824166385
4950270300.0 -0.1582276009 0.985063191
5000270000.0 -0.1441142795 0.9872441505
5050269700.0 -0.1305069743 0.989024289
5100269400.0 -0.1170538647 0.9902366251
5150269100.0 -0.1036799403 0.9920645701
5200268800.0 -0.0902669292 0.9929983818
5250268500.0 -0.0774322225 0.994252251
5300268200.0 -0.0642821959 0.9945382824
5350267900.0 -0.052131615 0.9949732412
5400267600.0 -0.0357882445 0.9963059677
5450267300.0 -0.0226622747 0.9967577262
5500267000.0 -0.0074727504 0.9972244294
5550266700.0 0.0074371587 0.9973452551
5600266400.0 0.0231031374 0.9973218501
5650266100.0 0.0393680348 0.9969872879
5700265800.0 0.054222547 0.9961190339
5750265500.0 0.0691331224 0.9954740092
5800265200.0 0.0833806447 0.9943131323
5850264900.0 0.0962843216 0.9933537453
5900264600.0 0.1134060195 0.9919276601
5950264300.0 0.1250530962 0.9900939184
6000264000.0 0.1392674089 0.9880362905
6050263700.0 0.1516602562 0.9867859784
6100263400.0 0.1639979428 0.9849366208
6150263100.0 0.1787161102 0.9826480635
6200262800.0 0.1891171429 0.9806839299
6250262500.0 0.2016420733 0.9782363784
6300262200.0 0.2146266745 0.9756106588
6350261900.0 0.2275678153 0.9725170844
6400261600.0 0.2412541801 0.9691425625
6450261300.0 0.2527324668 0.9665485584
6500261000.0 0.265692207 0.9631913537
6550260700.0 0.2785346448 0.9590341283
6600260400.0 0.2918607718 0.9551038815
6650260100.0 0.3057669937 0.9506951532
6700259800.0 0.3175318834 0.9461505444
6750259500.0 0.3314400133 0.9410355037
6800259200.0 0.3445877035 0.9365258555
6850258900.0 0.356387295 0.9309791639
6900258600.0 0.3688309458 0.9263067633
6950258300.0 0.3811071791 0.9209467089
7000258000.0 0.3933430916 0.9154885852
7050257700.0 0.4055708249 0.9096782466
7100257400.0 0.4183935913 0.9033846049
7150257100.0 0.4287816827 0.8981008855
7200256800.0 0.4416491323 0.8916771471
7250256500.0 0.4534047968 0.8852908448
7300256200.0 0.4665496487 0.8784763507
7350255900.0 0.4788371877 0.8717428086
7400255600.0 0.4923050293 0.8642154451
7450255300.0 0.5073738028 0.855134306
7500255000.0 0.5191135913 0.8482992574
7550254700.0 0.5324715875 0.8397087005
7600254400.0 0.5454054386 0.8312885823
7650254100.0 0.5572521471 0.823849522
7700253800.0 0.5690578782 0.815761284
7750253500.0 0.5797836997 0.8079408982
7800253200.0 0.5906337145 0.8001714371
7850252900.0 0.6006607847 0.7931244391
7900252600.0 0.612179581 0.7843908935
7950252300.0 0.6209568979 0.7779962619
8000252000.0 0.6310145975 0.7703890015
8050251700.0 0.6419983041 0.7617543963
8100251400.0 0.6519385692 0.7537397556
8150251100.0 0.6621009124 0.745183454
8200250800.0 0.6710392867 0.7373162552
8250250500.0 0.6801238488 0.7292710122
8300250200.0 0.6893427635 0.7205148307
8350249900.0 0.698644021 0.7119150885
8400249600.0 0.7069462584 0.703818607
8450249300.0 0.7160051678 0.6945711463
8500249000.0 0.724219759 0.6859285288
8550248700.0 0.7324819287 0.6769056745
8600248400.0 0.7409428284 0.6672706104
8650248100.0 0.7488315307 0.6579048392
8700247800.0 0.7584363983 0.6465279343
8750247500.0 0.7667730203 0.6367421365
8800247200.0 0.7750178081 0.6261406654
8850246900.0 0.7836592612 0.6147639719
8900246600.0 0.7920521366 0.6034009887
8950246300.0 0.8014753468 0.5902944393
9000246000.0 0.8109148761 0.5778585632
9050245700.0 0.8202586144 0.5644204008
9100245400.0 0.8284219341 0.5520172203
9150245100.0 0.8382061533 0.538148959
9200244800.0 0.8479611193 0.5229802711
9250244500.0 0.8575792924 0.5073625824
9300244200.0 0.8660520259 0.4926671765
9350243900.0 0.8737044932 0.4788258751
9400243600.0 0.880438022 0.4664316534
9450243300.0 0.8862119192 0.4548041636
9500243000.0 0.8923352946 0.4426655435
9550242700.0 0.8961226597 0.4350609782
9600242400.0 0.9000284285 0.4277559447
9650242100.0 0.9034699631 0.421325911
9700241800.0 0.9080761429 0.4130769062
9750241500.0 0.9118527275 0.4055011099
9800241200.0 0.9168221305 0.3965618274
9850240900.0 0.922290273 0.3847022432
9900240600.0 0.9278759113 0.3732045815
9950240300.0 0.9346095222 0.3568901328
10000240000.0 0.9389867349 0.3457184139
10050239700.0 0.9444989158 0.3300921924
10100239400.0 0.9501822562 0.3145744521
10150239100.0 0.9544357969 0.2999121875
10200238800.0 0.9582385995 0.2850902818
10250238500.0 0.9617380898 0.2716631034
10300238200.0 0.9648369915 0.2576440487
10350237900.0 0.9673779408 0.244590289
10400237600.0 0.9698623825 0.2316182687
10450237300.0 0.97283144 0.2179203638
10500237000.0 0.97493082 0.2057085157
10550236700.0 0.9773910841 0.1915454801
10600236400.0 0.9794007487 0.1780577518
10650236100.0 0.9811436952 0.1638922228
10700235800.0 0.9836835781 0.1515230036
10750235500.0 0.9856911474 0.1379847058
10800235200.0 0.9880496937 0.1235721819
10850234900.0 0.9895483388 0.1092714468
10900234600.0 0.9917811974 0.0946636785
10950234300.0 0.9935032505 0.0814163265
11000234000.0 0.9951880737 0.066297636
11050233700.0 0.9969592425 0.049991861
11100233400.0 0.9984968953 0.032650118
11150233100.0 0.9994155669 0.0163128159
11200232800.0 1.000147913 0.001054901
11250232500.0 1.001169442 -0.0154861871
11300232200.0 1.002201832 -0.0331181174
11350231900.0 1.001638435 -0.0482991101
11400231600.0 1.0015021 -0.0644111653
11450231300.0 1.000593255 -0.0798524887
11500231000.0 1.000075081 -0.0961587819
11550230700.0 0.9980355004 -0.1102233904
11600230400.0 0.9968347524 -0.1227575952
11650230100.0 0.9947326896 -0.1336119622
11700229800.0 0.9926939264 -0.1484929986
11750229500.0 0.9908096938 -0.1628296772
11800229200.0 0.9877636846 -0.1768104811
11850228900.0 0.984342752 -0.189511631
11900228600.0 0.9808659756 -0.1987149061
11950228300.0 0.9775250478 -0.2092219588
12000228000.0 0.9746683066 -0.2189816694
12050227700.0 0.970978604 -0.2307603033
12100227400.0 0.9681495545 -0.2423775796
12150227100.0 0.9627283471 -0.2591077983
12200226800.0 0.9591840009 -0.2695140019
12250226500.0 0.9555470739 -0.2826392133
12300226200.0 0.9518300038 -0.2950362075
12350225900.0 0.946582541 -0.3081945721
12400225600.0 0.942391525 -0.3211585282
12450225300.0 0.9375765683 -0.3339769538
12500225000.0 0.9322045011 -0.3484442307
12550224700.0 0.9268333453 -0.3627866989
12600224400.0 0.9220136468 -0.3754123885
12650224100.0 0.9161952246 -0.3897667357
12700223800.0 0.9108860161 -0.4026111147
12750223500.0 0.9054503797 -0.415521236
12800223200.0 0.90025514 -0.428106412
12850222900.0 0.8947940684 -0.4403571598
12900222600.0 0.8891476753 -0.4525117771
12950222300.0 0.8827398134 -0.465772578
13000222000.0 0.8769477702 -0.4763702694
13050221700.0 0.8701139354 -0.4896880753
13100221400.0 0.8632540773 -0.5011593152
13150221100.0 0.8563838901 -0.5136959224
13200220800.0 0.849632368 -0.5249823901
13250220500.0 0.8423048926 -0.5373112833
13300220200.0 0.8348647039 -0.5483590871
13350219900.0 0.8269824798 -0.5601227728
13400219600.0 0.8183168285 -0.5723481399
13450219300.0 0.8085499404 -0.5859656582
13500219000.0 0.7984376813 -0.599970808
13550218700.0 0.7884372681 -0.6127159013
13600218400.0 0.7782643316 -0.6248435559
13650218100.0 0.768463032 -0.6360128413
13700217800.0 0.7576003095 -0.6484586742
13750217500.0 0.7472779309 -0.6594431961
13800217200.0 0.7362176432 -0.6715331015
13850216900.0 0.7253256494 -0.6830965332
13900216600.0 0.7160453301 -0.6914763345
13950216300.0 0.7043265238 -0.7019650294
14000216000.0 0.6949227966 -0.7112935426
14050215700.0 0.6849100531 -0.7197107156
14100215400.0 0.6746513024 -0.7286591635
14150215100.0 0.6657851175 -0.7373682844
14200214800.0 0.6564617084 -0.7457550771
14250214500.0 0.6461300985 -0.7551304337
14300214200.0 0.6358486047 -0.7643136087
14350213900.0 0.6247354641 -0.7741190025
14400213600.0 0.6127657374 -0.7839275377
14450213300.0 0.5993803466 -0.793723452
14500213000.0 0.5866754133 -0.804248702
14550212700.0 0.5740004804 -0.8136561481
14600212400.0 0.5617626181 -0.8221895642
14650212100.0 0.5488766913 -0.8309142668
14700211800.0 0.5349009514 -0.840547586
14750211500.0 0.5227276713 -0.8485893531
14800211200.0 0.5105375623 -0.8564435258
14850210900.0 0.4982593162 -0.8639286147
14900210600.0 0.4850571065 -0.8717178138
14950210300.0 0.471681564 -0.8794356215
15000210000.0 0.4587167436 -0.8862184133
15050209700.0 0.4468028035 -0.8924629888
15100209400.0 0.4335066711 -0.8983971299
15150209100.0 0.4211677799 -0.9038128108
15200208800.0 0.4086777278 -0.9091684126
15250208500.0 0.3972767207 -0.9140411628
15300208200.0 0.3849414405 -0.9184085771
15350207900.0 0.3711490889 -0.9230452385
15400207600.0 0.3567549645 -0.9284888502
15450207300.0 0.3420895705 -0.9338252765
15500207000.0 0.3279220097 -0.938042343
15550206700.0 0.3126028099 -0.9433217647
15600206400.0 0.2968537854 -0.9475857674
15650206100.0 0.2813970518 -0.9521677049
15700205800.0 0.2675282682 -0.9555524528
15750205500.0 0.2530741591 -0.9589699291
15800205200.0 0.2383930806 -0.9625277994
15850204900.0 0.2239300257 -0.9658980471
15900204600.0 0.208966711 -0.9695073248
15950204300.0 0.1948653633 -0.9722409276
16000204000.0 0.1806631482 -0.9751980895
16050203700.0 0.1657748025 -0.9779974415
16100203400.0 0.1512102647 -0.9800348226
16150203100.0 0.1367195049 -0.9827127967
16200202800.0 0.1229057352 -0.9848614797
16250202500.0 0.1088268621 -0.9861813799
16300202200.0 0.092698612 -0.9877357053
16350201900.0 0.0779560739 -0.9891303273
16400201600.0 0.0635237127 -0.9905333495
16450201300.0 0.0482397309 -0.991245344
16500201000.0 0.0315507881 -0.9920829741
16550200700.0 0.0159584095 -0.9925764537
16600200400.0 8.01395e-05 -0.9925998424
16650200100.0 -0.0159043972 -0.9926689897
16700199800.0 -0.0321294957 -0.9922118427
16750199500.0 -0.0511921359 -0.9915343559
16800199200.0 -0.0667939287 -0.9906653269
16850198900.0 -0.0823891785 -0.9895106234
16900198600.0 -0.095965528 -0.9892950056
16950198300.0 -0.1090849566 -0.9869924494
17000198000.0 -0.1226568008 -0.9857579726
17050197700.0 -0.1351473542 -0.9845202478
17100197400.0 -0.1474607464 -0.9822212179
17150197100.0 -0.1604034503 -0.980118106
17200196800.0 -0.1732369367 -0.9778920241
17250196500.0 -0.1858619632 -0.975550932
17300196200.0 -0.1980767916 -0.9732917738
17350195900.0 -0.2102119308 -0.970990726
17400195600.0 -0.2223799245 -0.968398241
17450195300.0 -0.2354397919 -0.9656649157
17500195000.0 -0.2487140825 -0.9623106395
17550194700.0 -0.2629139577 -0.958502263
17600194400.0 -0.2768210883 -0.9547099259
17650194100.0 -0.2904181676 -0.9504665092
17700193800.0 -0.3032957243 -0.9461164189
17750193500.0 -0.3183151808 -0.9416469616
17800193200.0 -0.3324870493 -0.9367775791
17850192900.0 -0.3471854546 -0.9306432962
17900192600.0 -0.3624120194 -0.9249869854
17950192300.0 -0.3780724529 -0.9178839561
18000192000.0 -0.3927354853 -0.9106494711
18050191700.0 -0.4065567211 -0.9027021409
18100191400.0 -0.4208373768 -0.8950119328
18150191100.0 -0.4358228118 -0.8868230609
18200190800.0 -0.4528331827 -0.8774198008
18250190500.0 -0.4696988963 -0.8681300697
18300190200.0 -0.4851867799 -0.8592434312
18350189900.0 -0.5000783463 -0.8509804143
18400189600.0 -0.5148913766 -0.8430729799
18450189300.0 -0.5278479276 -0.8351573778
18500189000.0 -0.5412869167 -0.8270984105
18550188700.0 -0.5537304674 -0.8194831038
18600188400.0 -0.5651384388 -0.812416132
18650188100.0 -0.5768198309 -0.806041466
18700187800.0 -0.5871884453 -0.7994184951
18750187500.0 -0.5978992683 -0.7927361381
18800187200.0 -0.6084054007 -0.7860570287
18850186900.0 -0.6187364414 -0.7788993615
18900186600.0 -0.6290028712 -0.7717444214
18950186300.0 -0.6389825718 -0.7639181792
19000186000.0 -0.6461013511 -0.7575358029
19050185700.0 -0.6552628896 -0.7502821692
19100185400.0 -0.6654223712 -0.7420160252
19150185100.0 -0.6753176255 -0.7337023748
19200184800.0 -0.684872283 -0.7257660282
19250184500.0 -0.6949929378 -0.7160465406
19300184200.0 -0.7064467397 -0.7061523506
19350183900.0 -0.7170700202 -0.6968560137
19400183600.0 -0.7274375615 -0.6876817076
19450183300.0 -0.7357747342 -0.6770415474
19500183000.0 -0.7440821431 -0.6668533687
19550182700.0 -0.7539178175 -0.6563591678
19600182400.0 -0.7642104716 -0.644575095
19650182100.0 -0.7753902723 -0.6317342954
19700181800.0 -0.7861315797 -0.6187403283
19750181500.0 -0.7963535805 -0.6045697776
19800181200.0 -0.8067661705 -0.5893880553
19850180900.0 -0.8164387891 -0.5740047089
19900180600.0 -0.8242704649 -0.559516554
19950180300.0 -0.8334647789 -0.5433625044
20000180000.0 -0.8266947113 -0.5455764019
20050179700.0 -0.834839428 -0.5327659724
20100179400.0 -0.8434121924 -0.5189123863
20150179100.0 -0.851732489 -0.5061966512
20200178800.0 -0.8596528523 -0.4937602799
20250178500.0 -0.8705511896 -0.4806007156
20300178200.0 -0.8793501348 -0.4655552081
20350177900.0 -0.8880684292 -0.450974849
20400177600.0 -0.8970074868 -0.4366388668
20450177300.0 -0.9057233799 -0.4219780913
20500177000.0 -0.9133816254 -0.4082474691
20550176700.0 -0.9216055767 -0.3945686586
20600176400.0 -0.9283385943 -0.3816344079
20650176100.0 -0.9352635589 -0.3688900052
20700175800.0 -0.941603425 -0.3562933627
20750175500.0 -0.9477578147 -0.3456584703
20800175200.0 -0.9534946353 -0.3350415427
20850174900.0 -0.957124011 -0.3232713075
20900174600.0 -0.9618673476 -0.3117981543
20950174300.0 -0.9668598915 -0.3008176134
21000174000.0 -0.9698590678 -0.2895511302
21050173700.0 -0.9731444999 -0.2780988882
21100173400.0 -0.9773516124 -0.2659560009
21150173100.0 -0.9809270063 -0.2540635531
21200172800.0 -0.9841984283 -0.23992247
21250172500.0 -0.9875028532 -0.2258716232
21300172200.0 -0.9900209931 -0.2119353023
21350171900.0 -0.9915255116 -0.1972852334
21400171600.0 -0.9927983902 -0.1831179333
21450171300.0 -0.9931365212 -0.168695039
21500171000.0 -0.9932624052 -0.153236452
21550170700.0 -0.9928813853 -0.1379607467
21600170400.0 -0.9924297649 -0.1214993576
21650170100.0 -0.9914478322 -0.1064650028
21700169800.0 -0.9902441715 -0.0917250272
21750169500.0 -0.9890584059 -0.0753019613
21800169200.0 -0.987455793 -0.0587912126
21850168900.0 -0.9863877387 -0.0424760511
21900168600.0 -0.986102174 -0.0262554999
21950168300.0 -0.9841028929 -0.0102965925
22000168000.0 -0.9826023253 0.0045140168
22050167700.0 -0.9831296859 0.0188582602
22100167400.0 -0.9831548913 0.0340128346
22150167100.0 -0.9834965725 0.0494984616
22200166800.0 -0.9836321423 0.0656581145
22250166500.0 -0.9833188598 0.0835803427
22300166200.0 -0.9834213621 0.0995982832
22350165900.0 -0.981630858 0.1160160595
22400165600.0 -0.9789992531 0.1320272397
22450165300.0 -0.9770618956 0.1472759321
22500165000.0 -0.9758742276 0.1614439357
22550164700.0 -0.9747848122 0.1764354379
22600164400.0 -0.9732629595 0.1911016726
22650164100.0 -0.9706903918 0.2056258195
22700163800.0 -0.9676655719 0.2215715751
22750163500.0 -0.9654950733 0.2368082818
22800163200.0 -0.9626677105 0.2506062164
22850162900.0 -0.9601081217 0.264081154
22900162600.0 -0.9589702544 0.277222658
22950162300.0 -0.9580109232 0.2898952969
23000162000.0 -0.9568066638 0.301977365
23050161700.0 -0.9549966043 0.3146071396
23100161400.0 -0.9525035096 0.3273066493
23150161100.0 -0.950012849 0.3394206921
23200160800.0 -0.946763786 0.3511978266
23250160500.0 -0.9446180969 0.363300874
23300160200.0 -0.9413873442 0.375203272
23350159900.0 -0.9376607897 0.3882155113
23400159600.0 -0.9331128543 0.4012398469
23450159300.0 -0.9286039831 0.4149122595
23500159000.0 -0.923713894 0.4273659295
23550158700.0 -0.9197253818 0.4411860254
23600158400.0 -0.9143559892 0.4541649589
23650158100.0 -0.9079170081 0.4682226504
23700157800.0 -0.9005661867 0.4822469106
23750157500.0 -0.8916077732 0.4964328527
23800157200.0 -0.8832197881 0.5091308351
23850156900.0 -0.8742819212 0.5218765624
23900156600.0 -0.8646501861 0.5345306921
23950156300.0 -0.8557600109 0.5474944841
24000156000.0 -0.8460890184 0.5585145249
24050155700.0 -0.8366125124 0.5696858369
24100155400.0 -0.8262133321 0.5821731423
24150155100.0 -0.8154074717 0.5938783677
24200154800.0 -0.8047945142 0.605705004
24250154500.0 -0.7932394868 0.617788517
24300154200.0 -0.7819072129 0.6284303221
24350153900.0 -0.7702381354 0.6394226989
24400153600.0 -0.7578426654 0.6493992978
24450153300.0 -0.7455107255 0.6594284008
24500153000.0 -0.7345656704 0.6690063785
24550152700.0 -0.7229560091 0.6788661239
24600152400.0 -0.7111631033 0.6879842033
24650152100.0 -0.699628216 0.6955930161
