!Created with skrf (http://scikit-rf.org).
# Hz S RI R 50.0 
!freq ReS11 ImS11
300000.0 -0.9745840798 -0.118464703
50299700.0 -0.9999811839 0.0152850545
100299400.0 -0.997934889 0.0282447153
150299100.0 -1.002613139 0.0451082556
200298800.0 -0.9997672874 0.0583750281
250298500.0 -0.9974654227 0.0719509121
300298200.0 -0.9861777764 0.0877167176
350297900.0 -0.994033784 0.0985309255
400297600.0 -0.9930784326 0.1151167096
450297300.0 -0.9910208879 0.1292755613
500297000.0 -0.9896103357 0.14372147
550296700.0 -0.9843871437 0.1561895153
600296400.0 -1.017239479 0.189469258
650296100.0 -0.9823509978 0.1861823363
700295800.0 -0.9794695457 0.2004951659
750295500.0 -0.9763681279 0.2141907742
800295200.0 -0.9729831986 0.2285094331
850294900.0 -0.9697866816 0.2423119404
900294600.0 -0.9655927842 0.255981626
950294300.0 -0.9622149581 0.2697350561
1000294000.0 -0.9582553038 0.2836727926
1050293700.0 -0.9536524874 0.2974501853
1100293400.0 -0.9494110095 0.311955384
1150293100.0 -0.9454870526 0.3236718847
1200292800.0 -0.9400597067 0.3378856814
1250292500.0 -0.9346135273 0.3515115773
1300292200.0 -0.929142771 0.3647972194
1350291900.0 -0.9233535928 0.3789226984
1400291600.0 -0.9177621037 0.3918177434
1450291300.0 -0.9125613523 0.4043685102
1500291000.0 -0.9062339471 0.4175337121
1550290700.0 -0.8997261617 0.4310514116
1600290400.0 -0.893503421 0.4438209726
1650290100.0 -0.8866923741 0.4562368294
1700289800.0 -0.8800252007 0.4693558573
1750289500.0 -0.8728323575 0.481787153
1800289200.0 -0.8655484695 0.4946491393
1850288900.0 -0.858657095 0.5060384794
1900288600.0 -0.8508710191 0.5190762949
1950288300.0 -0.8429385112 0.5317803231
2000288000.0 -0.8352675509 0.5429401689
2050287700.0 -0.8271895629 0.5554309102
2100287400.0 -0.8193631335 0.5668940844
2150287100.0 -0.8107617586 0.5789727998
2200286800.0 -0.80290435 0.5893555136
2250286500.0 -0.7941800314 0.6013168126
2300286200.0 -0.7851790569 0.6131702922
2350285900.0 -0.7766239877 0.623911873
2400285600.0 -0.7675224534 0.6350168902
2450285300.0 -0.7590642385 0.6453012725
2500285000.0 -0.7493407128 0.6566745927
2550284700.0 -0.7405379735 0.6668852623
2600284400.0 -0.730940257 0.6770419055
2650284100.0 -0.7222350911 0.6878939491
2700283800.0 -0.7115271507 0.6981818785
2750283500.0 -0.7012488683 0.7086055609
2800283200.0 -0.6912241225 0.7184611271
2850282900.0 -0.6809404172 0.7283330763
2900282600.0 -0.6708685793 0.7379597494
2950282300.0 -0.660636246 0.7472007233
3000282000.0 -0.6498694462 0.7566728439
3050281700.0 -0.6386321097 0.7659149718
3100281400.0 -0.6268079774 0.7752091886
3150281100.0 -0.6149798859 0.7847522696
3200280800.0 -0.6032666234 0.7931179905
3250280500.0 -0.5925054259 0.8008551138
3300280200.0 -0.5812726887 0.8087837354
3350279900.0 -0.5696431996 0.8164866538
3400279600.0 -0.5575749369 0.824057357
3450279300.0 -0.5462508268 0.8309546485
3500279000.0 -0.5342791974 0.8383301149
3550278700.0 -0.5220420279 0.8456311281
3600278400.0 -0.5098273675 0.8527045992
3650278100.0 -0.4965549395 0.8604883413
3700277800.0 -0.4845705282 0.8666726256
3750277500.0 -0.4722237845 0.8733572193
3800277200.0 -0.4598575074 0.8799823764
3850276900.0 -0.4478253953 0.8855989698
3900276600.0 -0.4371152159 0.8913219286
3950276300.0 -0.4246572968 0.8975461683
4000276000.0 -0.4124607469 0.9033852442
4050275700.0 -0.3997739078 0.9095715025
4100275400.0 -0.3887879893 0.9150165027
4150275100.0 -0.3757452669 0.9205135272
4200274800.0 -0.3630304726 0.9260925362
4250274500.0 -0.3506125446 0.9312724528
4300274200.0 -0.3376002517 0.9366439593
4350273900.0 -0.3239030563 0.9420351466
4400273600.0 -0.3091963638 0.9470212667
4450273300.0 -0.2937626135 0.9521666898
4500273000.0 -0.2801625036 0.9564949812
4550272700.0 -0.2660162178 0.9608088446
4600272400.0 -0.2504827991 0.9650585938
4650272100.0 -0.2388764256 0.9682278183
4700271800.0 -0.2256766127 0.9715243313
4750271500.0 -0.2137760246 0.9744086422
4800271200.0 -0.201213105 0.9771014998
4850270900.0 -0.1875294211 0.9797675294
4900270600.0 -0.1735558489 0.9824649068
4950270300.0 -0.159182141 0.9848424286
5000270000.0 -0.1448900336 0.98712261
5050269700.0 -0.1315444155 0.9886417903
5100269400.0 -0.1177932592 0.9899058741
5150269100.0 -0.1044161396 0.9916847045
5200268800.0 -0.0911713345 0.9929691332
5250268500.0 -0.0778359117 0.9939645914
5300268200.0 -0.0647862655 0.9948744059
5350267900.0 -0.0523856659 0.995163251
5400267600.0 -0.0364916477 0.9963154581
5450267300.0 -0.02339457 0.9965579861
5500267000.0 -0.0082467806 0.9971171492
5550266700.0 0.0067922825 0.9973435763
5600266400.0 0.0222142984 0.9971622145
5650266100.0 0.038861446 0.9968723343
5700265800.0 0.0533588596 0.9962213768
5750265500.0 0.0683495877 0.9955666779
5800265200.0 0.0823884417 0.99422033
5850264900.0 0.0956897233 0.9932041754
5900264600.0 0.1120936853 0.9917847411
5950264300.0 0.124436066 0.989938985
6000264000.0 0.1380103411 0.9881456365
6050263700.0 0.1507559912 0.9871267995
6100263400.0 0.1627519961 0.9849737075
6150263100.0 0.1773339545 0.9826077202
6200262800.0 0.1879196704 0.9811217809
6250262500.0 0.20056542 0.9785330859
6300262200.0 0.2134284279 0.9758507973
6350261900.0 0.2264685427 0.9728257913
6400261600.0 0.2399377328 0.9695518048
6450261300.0 0.2516081838 0.9668463361
6500261000.0 0.2642293183 0.9633179713
6550260700.0 0.2774105746 0.9592837044
6600260400.0 0.2908417119 0.9555240682
6650260100.0 0.3047346225 0.9510275867
6700259800.0 0.3165132344 0.9468685606
6750259500.0 0.3305235225 0.9417040404
6800259200.0 0.3438848372 0.9370540072
6850258900.0 0.3557978565 0.9316818403
6900258600.0 0.3679291891 0.9266294764
6950258300.0 0.3803876809 0.921311572
7000258000.0 0.3925015364 0.9160087568
7050257700.0 0.4045988216 0.9100943961
7100257400.0 0.4172385112 0.9036668988
7150257100.0 0.4278844801 0.8983048366
7200256800.0 0.4406037541 0.8918908335
7250256500.0 0.4526016323 0.8855991542
7300256200.0 0.4660386739 0.8788349892
7350255900.0 0.4779931201 0.8719865484
7400255600.0 0.4915118583 0.864785402
7450255300.0 0.5066360723 0.8558175784
7500255000.0 0.518400577 0.8488102926
7550254700.0 0.5322689701 0.8399897117
7600254400.0 0.5449553476 0.8318177241
7650254100.0 0.5565485095 0.8241405889
7700253800.0 0.5685766261 0.81611311
7750253500.0 0.5795711375 0.8082874034
7800253200.0 0.5901839954 0.8005124838
7850252900.0 0.6001254869 0.7936472419
7900252600.0 0.6116565002 0.7849139334
7950252300.0 0.6203391986 0.7784179875
8000252000.0 0.630580406 0.7706432751
8050251700.0 0.6410003525 0.7624883544
8100251400.0 0.6512528308 0.7544801469
8150251100.0 0.6609907982 0.7459094112
8200250800.0 0.6706967987 0.7378309486
8250250500.0 0.6796987534 0.7298305503
8300250200.0 0.6890489552 0.7213426541
8350249900.0 0.6980102597 0.7125247899
8400249600.0 0.7064046931 0.7046117066
8450249300.0 0.7153695466 0.6954245202
8500249000.0 0.7236507076 0.6865179407
8550248700.0 0.7321240517 0.677434434
8600248400.0 0.7406522064 0.6679415675
8650248100.0 0.7483084309 0.6584931668
8700247800.0 0.7579596361 0.6472690477
8750247500.0 0.7661183684 0.6371448663
8800247200.0 0.7742712828 0.6267245491
8850246900.0 0.7832972707 0.6153095902
8900246600.0 0.7916433101 0.6037844114
8950246300.0 0.8012906906 0.5909450795
9000246000.0 0.8104875968 0.578381682
9050245700.0 0.819333696 0.5654187421
9100245400.0 0.8279260431 0.5530236675
9150245100.0 0.8371839834 0.5393665354
9200244800.0 0.8467570481 0.5241857204
9250244500.0 0.8566651277 0.5086727831
9300244200.0 0.8645604 0.4944605696
9350243900.0 0.8724733327 0.4807150854
9400243600.0 0.8792807319 0.4683339379
9450243300.0 0.8851194771 0.4568819066
9500243000.0 0.8914254807 0.444641456
9550242700.0 0.8952823363 0.4369867518
9600242400.0 0.8989000335 0.4296769823
9650242100.0 0.9030025346 0.4231056562
9700241800.0 0.9074971234 0.4145898896
9750241500.0 0.9114906977 0.4070824786
9800241200.0 0.9162997021 0.3980296392
9850240900.0 0.9219565013 0.3861769339
9900240600.0 0.927492533 0.3750064348
9950240300.0 0.9344631881 0.3585778423
10000240000.0 0.9386605331 0.3472304642
10050239700.0 0.9443433851 0.3317291595
10100239400.0 0.9493719868 0.3163573389
10150239100.0 0.9537336127 0.3015856373
10200238800.0 0.9580243921 0.2862575708
10250238500.0 0.9615159483 0.2730365138
10300238200.0 0.9646891022 0.2592015341
10350237900.0 0.9672952942 0.2459514581
10400237600.0 0.9696864715 0.2328446974
10450237300.0 0.972670544 0.2187954858
10500237000.0 0.9744078567 0.2070823876
10550236700.0 0.9770730475 0.1927677085
10600236400.0 0.9791981629 0.178917043
10650236100.0 0.9808258024 0.1642957944
10700235800.0 0.982886235 0.1519369501
10750235500.0 0.9857605451 0.1385092446
10800235200.0 0.9877365383 0.1249620473
10850234900.0 0.9896147462 0.1103631993
10900234600.0 0.9914400217 0.0953279392
10950234300.0 0.9933742883 0.082079916
11000234000.0 0.9952218944 0.0669985848
11050233700.0 0.996945745 0.0506324642
11100233400.0 0.9984619849 0.0334733347
11150233100.0 0.9994663386 0.0170574028
11200232800.0 1.000230897 0.0016907258
11250232500.0 1.001266048 -0.0141978464
11300232200.0 1.001981343 -0.032119289
11350231900.0 1.001888731 -0.0476209028
11400231600.0 1.001479062 -0.0637305897
11450231300.0 1.000615165 -0.0794706072
11500231000.0 1.000102956 -0.0950990544
11550230700.0 0.9984486622 -0.1085859709
11600230400.0 0.9969331013 -0.1210096832
11650230100.0 0.9950747587 -0.1321436304
11700229800.0 0.9931108147 -0.1469900269
11750229500.0 0.9909091548 -0.1617010797
11800229200.0 0.9883622934 -0.1754733676
11850228900.0 0.9846541085 -0.1878115413
11900228600.0 0.9811574342 -0.1976044812
11950228300.0 0.9779208677 -0.207850777
12000228000.0 0.9752889199 -0.2169081489
12050227700.0 0.9717901227 -0.2295955602
12100227400.0 0.9681706931 -0.2409528606
12150227100.0 0.9635288396 -0.2574947347
12200226800.0 0.9596348842 -0.2682199612
12250226500.0 0.9556626272 -0.2814275147
12300226200.0 0.951765524 -0.2935716357
12350225900.0 0.9470632029 -0.3074504593
12400225600.0 0.943300413 -0.3198403898
12450225300.0 0.9378801569 -0.3334376893
12500225000.0 0.9324031558 -0.3482166451
12550224700.0 0.9271052032 -0.361911503
12600224400.0 0.922160859 -0.3749056212
12650224100.0 0.9163538239 -0.3891727821
12700223800.0 0.9110969961 -0.4019670849
12750223500.0 0.905869567 -0.4149638566
12800223200.0 0.9002614533 -0.4276373079
12850222900.0 0.8948038867 -0.4396400548
12900222600.0 0.8891900466 -0.4519556758
12950222300.0 0.8828743163 -0.4654476722
13000222000.0 0.8769795121 -0.4762436318
13050221700.0 0.8703733106 -0.4886978515
13100221400.0 0.863727932 -0.5006167252
13150221100.0 0.856912265 -0.5131001901
13200220800.0 0.8498109777 -0.524457763
13250220500.0 0.8427311336 -0.5363882091
13300220200.0 0.835316337 -0.5475694431
13350219900.0 0.8271648116 -0.5593346557
13400219600.0 0.819130967 -0.5713373355
13450219300.0 0.8098815949 -0.5846243145
13500219000.0 0.7993250686 -0.5988470516
13550218700.0 0.789081595 -0.6113203155
13600218400.0 0.7793418926 -0.6235829228
13650218100.0 0.7695681043 -0.6347146934
13700217800.0 0.758271318 -0.6470919191
13750217500.0 0.749800956 -0.6580291199
13800217200.0 0.7366872841 -0.6702858805
13850216900.0 0.7267820328 -0.6813952957
13900216600.0 0.7166072356 -0.690564639
13950216300.0 0.7055263355 -0.7002635011
14000216000.0 0.6960716627 -0.7102221608
14050215700.0 0.6865332951 -0.7179922563
14100215400.0 0.6762450612 -0.7275380262
14150215100.0 0.6671606419 -0.7360457447
14200214800.0 0.6578421783 -0.7449036961
14250214500.0 0.6475332176 -0.7541114995
14300214200.0 0.637075344 -0.7635976124
14350213900.0 0.6260452225 -0.7732204805
14400213600.0 0.6142064986 -0.7830438158
14450213300.0 0.6012339152 -0.7931739378
14500213000.0 0.5880314384 -0.8031759914
14550212700.0 0.5756877672 -0.812761474
14600212400.0 0.5629209249 -0.8210016867
14650212100.0 0.550039008 -0.8297244902
14700211800.0 0.5366331906 -0.83944763
14750211500.0 0.5244419122 -0.8476600875
14800211200.0 0.5117052192 -0.8557568971
14850210900.0 0.4999432791 -0.8631571517
14900210600.0 0.4863698251 -0.8711337982
14950210300.0 0.473178818 -0.8787303752
15000210000.0 0.4602122086 -0.8855136842
15050209700.0 0.4479992566 -0.8917078767
15100209400.0 0.4354418211 -0.8974681118
15150209100.0 0.4234311454 -0.9030495959
15200208800.0 0.4101147949 -0.9086437601
15250208500.0 0.3990171468 -0.9130590721
15300208200.0 0.3867334354 -0.9169517558
15350207900.0 0.3732262284 -0.9226442769
15400207600.0 0.3585707592 -0.9282364956
15450207300.0 0.3438719354 -0.9324877895
15500207000.0 0.3299085706 -0.9380060117
15550206700.0 0.3148412475 -0.9428750477
15600206400.0 0.2991342943 -0.9468645142
15650206100.0 0.2835628801 -0.9513184758
15700205800.0 0.2698058223 -0.9546065391
15750205500.0 0.25516562 -0.9586385306
15800205200.0 0.2406441595 -0.9620957794
15850204900.0 0.2263433848 -0.9654051799
15900204600.0 0.2114127347 -0.9691079129
15950204300.0 0.1971451392 -0.9721650366
16000204000.0 0.18293298 -0.9751425654
16050203700.0 0.1682049116 -0.9780411747
16100203400.0 0.153457972 -0.9797528323
16150203100.0 0.1390268307 -0.9825430354
16200202800.0 0.1248704334 -0.9840448186
16250202500.0 0.1100792323 -0.9860975299
16300202200.0 0.0948933773 -0.9878640922
16350201900.0 0.0798520932 -0.9890930008
16400201600.0 0.064855582 -0.9901537178
16450201300.0 0.0499013826 -0.9913707547
16500201000.0 0.0331043993 -0.9920771117
16550200700.0 0.0175090644 -0.992614856
16600200400.0 0.0018670355 -0.992684608
16650200100.0 -0.0144874612 -0.9928122909
16700199800.0 -0.0303356999 -0.9925123867
16750199500.0 -0.0490999465 -0.9915016106
16800199200.0 -0.0646930751 -0.991074457
16850198900.0 -0.0803972622 -0.9896143338
16900198600.0 -0.0938107399 -0.9888348897
16950198300.0 -0.1073613981 -0.9878166259
17000198000.0 -0.1203801091 -0.9862885786
17050197700.0 -0.1332273482 -0.9845543245
17100197400.0 -0.1461733645 -0.9819711052
17150197100.0 -0.1587458656 -0.9806801575
17200196800.0 -0.1716804531 -0.9783919903
17250196500.0 -0.1843094427 -0.9762812441
17300196200.0 -0.1962192811 -0.9737012884
17350195900.0 -0.2081250159 -0.9713972382
17400195600.0 -0.2202679253 -0.96893468
17450195300.0 -0.2335509339 -0.966191567
17500195000.0 -0.2471271702 -0.9629288877
17550194700.0 -0.2606590583 -0.9592867674
17600194400.0 -0.274867627 -0.9553052892
17650194100.0 -0.2887843094 -0.9509773698
17700193800.0 -0.3014259606 -0.9470179561
17750193500.0 -0.3161375711 -0.9422520363
17800193200.0 -0.3304310749 -0.937292601
17850192900.0 -0.3455394182 -0.9318789322
17900192600.0 -0.3605558461 -0.9257505105
17950192300.0 -0.3764621683 -0.9186004048
18000192000.0 -0.3910138478 -0.9112559315
18050191700.0 -0.4050374249 -0.9035157029
18100191400.0 -0.4192200658 -0.8958160723
18150191100.0 -0.4342124104 -0.8878508563
18200190800.0 -0.4511380187 -0.8787157494
18250190500.0 -0.4680557863 -0.8692433199
18300190200.0 -0.4834902355 -0.8605888844
18350189900.0 -0.4985205098 -0.8519065988
18400189600.0 -0.5129201617 -0.8435261329
18450189300.0 -0.5261594361 -0.8359227396
18500189000.0 -0.5402799682 -0.8284479006
18550188700.0 -0.5522703891 -0.8208146117
18600188400.0 -0.5638562351 -0.8135088373
18650188100.0 -0.575434962 -0.8073083784
18700187800.0 -0.5862356876 -0.8009810529
18750187500.0 -0.5967365937 -0.7939981002
18800187200.0 -0.607234509 -0.7873949846
18850186900.0 -0.6175402937 -0.7803505332
18900186600.0 -0.6277495979 -0.772913201
18950186300.0 -0.6375369206 -0.7653425261
19000186000.0 -0.6449263448 -0.7593897878
19050185700.0 -0.6542307786 -0.7520954655
19100185400.0 -0.6636664245 -0.7437182331
19150185100.0 -0.6740226747 -0.7358679407
19200184800.0 -0.6831378945 -0.7269121489
19250184500.0 -0.6939928501 -0.7179786275
19300184200.0 -0.7052584338 -0.7078574867
19350183900.0 -0.716127864 -0.6983990861
19400183600.0 -0.7253557322 -0.6880283494
19450183300.0 -0.7342088776 -0.6786586711
19500183000.0 -0.7426824165 -0.6688220467
19550182700.0 -0.7527327389 -0.6581304928
19600182400.0 -0.7628722124 -0.6459978449
19650182100.0 -0.7735051956 -0.6337102459
19700181800.0 -0.7844538526 -0.6203392378
19750181500.0 -0.7949557221 -0.6062728195
19800181200.0 -0.8053389405 -0.5911354926
19850180900.0 -0.8150096641 -0.5758897997
19900180600.0 -0.8230609442 -0.5613638595
19950180300.0 -0.8320956938 -0.5449698446
20000180000.0 -0.8248640806 -0.5477559596
20050179700.0 -0.8341036174 -0.5342059027
20100179400.0 -0.842603516 -0.520665451
20150179100.0 -0.8507417392 -0.5075126433
20200178800.0 -0.8592184727 -0.4955406589
20250178500.0 -0.8679558115 -0.481609875
20300178200.0 -0.8782533968 -0.467639761
20350177900.0 -0.8877081587 -0.4530667229
20400177600.0 -0.8962843547 -0.4385480316
20450177300.0 -0.9045638297 -0.4243836772
20500177000.0 -0.9126000431 -0.4102407503
20550176700.0 -0.9203393669 -0.3968521499
20600176400.0 -0.9273784699 -0.3836001438
20650176100.0 -0.9344553456 -0.3716733486
20700175800.0 -0.9405531745 -0.3594444551
20750175500.0 -0.9471241616 -0.3480784233
20800175200.0 -0.9520124906 -0.3369757424
20850174900.0 -0.9569610197 -0.3263838794
20900174600.0 -0.9611916985 -0.3149647905
20950174300.0 -0.9656544306 -0.3039473841
21000174000.0 -0.9694365772 -0.292269368
21050173700.0 -0.9708007268 -0.2813337916
21100173400.0 -0.9753512598 -0.2697806938
21150173100.0 -0.9791380468 -0.257139311
21200172800.0 -0.9827736417 -0.2442964979
21250172500.0 -0.9857396274 -0.230120902
21300172200.0 -0.9887286514 -0.2163919012
21350171900.0 -0.9905346128 -0.2009303359
21400171600.0 -0.9921089941 -0.1871395235
21450171300.0 -0.9928843204 -0.1730388846
21500171000.0 -0.9917164507 -0.1578333435
21550170700.0 -0.9913873866 -0.1427851097
21600170400.0 -0.9918983468 -0.1267571175
21650170100.0 -0.9913824535 -0.1104753076
21700169800.0 -0.9907197288 -0.0957302226
21750169500.0 -0.9891765197 -0.0795192693
21800169200.0 -0.9884677277 -0.0627993217
21850168900.0 -0.9881168725 -0.0458742395
21900168600.0 -0.9867094755 -0.0301278081
21950168300.0 -0.9854797113 -0.0140354093
22000168000.0 -0.9843686539 0.0013257962
22050167700.0 -0.9842708352 0.0152541577
22100167400.0 -0.9845858409 0.0306329734
22150167100.0 -0.9850717892 0.0461145254
22200166800.0 -0.9856909017 0.0621968606
22250166500.0 -0.9850042004 0.0795242835
22300166200.0 -0.9841663191 0.0962506255
22350165900.0 -0.9824241641 0.1131409583
22400165600.0 -0.9809974727 0.1282101953
22450165300.0 -0.9802329784 0.1435350154
22500165000.0 -0.976841664 0.1575682826
22550164700.0 -0.9766437103 0.1733059065
22600164400.0 -0.9740273673 0.1877573999
22650164100.0 -0.9719786301 0.2027305576
22700163800.0 -0.9692706401 0.2182826268
22750163500.0 -0.966945923 0.2336590982
22800163200.0 -0.9639955679 0.2471688381
22850162900.0 -0.9617692298 0.2601046894
22900162600.0 -0.9602906475 0.2738043227
22950162300.0 -0.9592410449 0.2862365471
23000162000.0 -0.9577838881 0.2984217909
23050161700.0 -0.9557625322 0.3106303646
23100161400.0 -0.9529056933 0.3234165332
23150161100.0 -0.9506964274 0.3362005445
23200160800.0 -0.9481762983 0.348962924
23250160500.0 -0.9456419881 0.3606574659
23300160200.0 -0.9427483924 0.3725698726
23350159900.0 -0.9385421513 0.3857949007
23400159600.0 -0.9338804907 0.3994715928
23450159300.0 -0.9291415064 0.4126124335
23500159000.0 -0.9247212008 0.4257719849
23550158700.0 -0.9203158273 0.4388408801
23600158400.0 -0.9148289796 0.4523978319
23650158100.0 -0.9085332256 0.4663382492
23700157800.0 -0.9008364006 0.4804358698
23750157500.0 -0.8921640943 0.4943940236
23800157200.0 -0.8834924918 0.5077671838
23850156900.0 -0.8748516827 0.5201031779
23900156600.0 -0.8653105701 0.5335229038
23950156300.0 -0.8567767237 0.5452865098
24000156000.0 -0.8473465016 0.55731607
24050155700.0 -0.8375740548 0.5696733111
24100155400.0 -0.8277552079 0.5811585598
24150155100.0 -0.8166769594 0.5923712516
24200154800.0 -0.8058355376 0.6042883108
24250154500.0 -0.7950022044 0.6159415301
24300154200.0 -0.783428743 0.6276961322
24350153900.0 -0.7713681968 0.6381352633
24400153600.0 -0.7591528745 0.6482013752
24450153300.0 -0.7476622759 0.6582839408
24500153000.0 -0.7357766616 0.668078597
24550152700.0 -0.724486161 0.677606061
24600152400.0 -0.7122553952 0.6870068168
24650152100.0 -0.7010628939 0.6950551052
