!Created with skrf (http://scikit-rf.org).
# Hz S RI R 50.0 
!freq ReS11 ImS11
300000.0 -0.9769048162 -0.1192875473
50299700.0 -1.000031669 0.0154693864
100299400.0 -0.9982431352 0.02832608
150299100.0 -1.002646863 0.0452718665
200298800.0 -0.9996245786 0.0585016735
250298500.0 -0.9973797561 0.0719760021
300298200.0 -0.9860734511 0.0878440292
350297900.0 -0.9941417735 0.0987311644
400297600.0 -0.9932897078 0.1153312761
450297300.0 -0.9911675951 0.1291116694
500297000.0 -0.9895595078 0.1437857094
550296700.0 -0.9844141506 0.1563706488
600296400.0 -1.017236529 0.1895865578
650296100.0 -0.9822088115 0.1864241445
700295800.0 -0.9792778 0.2007771099
750295500.0 -0.9763299376 0.2145100315
800295200.0 -0.9730051264 0.2285478403
850294900.0 -0.9695723925 0.2424044528
900294600.0 -0.9658325089 0.2560685668
950294300.0 -0.9620874047 0.2696727571
1000294000.0 -0.9581566709 0.2838157401
1050293700.0 -0.9537818325 0.2976663952
1100293400.0 -0.949416516 0.3120600833
1150293100.0 -0.9454755747 0.3239138158
1200292800.0 -0.9401598954 0.3382406291
1250292500.0 -0.9348144178 0.3516613603
1300292200.0 -0.9290681387 0.3647659959
1350291900.0 -0.9234643881 0.3788171969
1400291600.0 -0.9179360124 0.3921050854
1450291300.0 -0.9125684159 0.4044153581
1500291000.0 -0.9061214839 0.4175979381
1550290700.0 -0.8996830019 0.431131806
1600290400.0 -0.8932947381 0.4440902121
1650290100.0 -0.8867829439 0.4562112747
1700289800.0 -0.8798285412 0.4696805126
1750289500.0 -0.8726871967 0.4822783341
1800289200.0 -0.865607134 0.4948167885
1850288900.0 -0.8587282487 0.5061804579
1900288600.0 -0.8510381849 0.5191546149
1950288300.0 -0.842930733 0.5318549925
2000288000.0 -0.8355931687 0.5432459481
2050287700.0 -0.827104363 0.5554971398
2100287400.0 -0.8191272952 0.5672625072
2150287100.0 -0.8107060364 0.5791422855
2200286800.0 -0.8029830097 0.5895957302
2250286500.0 -0.7940425943 0.6015177686
2300286200.0 -0.785132399 0.6131286507
2350285900.0 -0.77651471 0.6242210954
2400285600.0 -0.7674199257 0.6353051989
2450285300.0 -0.7589044897 0.6457689411
2500285000.0 -0.7492167081 0.656966232
2550284700.0 -0.7402053608 0.6671370989
2600284400.0 -0.730712225 0.6772499061
2650284100.0 -0.7217953691 0.6879713948
2700283800.0 -0.7109611151 0.6981532897
2750283500.0 -0.7007650256 0.7087752931
2800283200.0 -0.6910875741 0.718373799
2850282900.0 -0.6809336303 0.7285489923
2900282600.0 -0.6706204584 0.7382831811
2950282300.0 -0.6604591478 0.7472832156
3000282000.0 -0.649545569 0.7569656032
3050281700.0 -0.6385094783 0.7662265172
3100281400.0 -0.6267174374 0.7754412921
3150281100.0 -0.614809947 0.7848097046
3200280800.0 -0.6032186918 0.7932516376
3250280500.0 -0.5924006388 0.800990316
3300280200.0 -0.5811566243 0.8089542184
3350279900.0 -0.5694914243 0.8165349838
3400279600.0 -0.5573393891 0.8242617549
3450279300.0 -0.5459995812 0.8312552503
3500279000.0 -0.534248582 0.8383993872
3550278700.0 -0.5217826365 0.8457620532
3600278400.0 -0.5097864984 0.8528326453
3650278100.0 -0.4964523254 0.8605151234
3700277800.0 -0.4842207457 0.8669962488
3750277500.0 -0.4722426797 0.8735563889
3800277200.0 -0.4593421584 0.8797810342
3850276900.0 -0.4475371773 0.885955372
3900276600.0 -0.43665914 0.891378719
3950276300.0 -0.4243759994 0.8976360083
4000276000.0 -0.4122125009 0.9035005664
4050275700.0 -0.3995743778 0.9097926032
4100275400.0 -0.3884477035 0.9151755953
4150275100.0 -0.3756576663 0.9207175876
4200274800.0 -0.3627139969 0.9261800736
4250274500.0 -0.3503357027 0.9313846522
4300274200.0 -0.3373346615 0.9366184947
4350273900.0 -0.3234040826 0.9418559108
4400273600.0 -0.3087302514 0.9473010203
4450273300.0 -0.2934032264 0.9522900438
4500273000.0 -0.2798243947 0.9567079739
4550272700.0 -0.2656335842 0.9610212408
4600272400.0 -0.2502134744 0.965281662
4650272100.0 -0.2383866939 0.9682842082
4700271800.0 -0.2251483097 0.9716167767
4750271500.0 -0.2134847184 0.9745023048
4800271200.0 -0.2010261073 0.9771730718
4850270900.0 -0.1869814309 0.9800601409
4900270600.0 -0.1731283483 0.9824950821
4950270300.0 -0.1587647895 0.9850131073
5000270000.0 -0.1444843804 0.9869408717
5050269700.0 -0.1312634453 0.9889096434
5100269400.0 -0.1174175608 0.9901994269
5150269100.0 -0.1042585524 0.9922834342
5200268800.0 -0.0907870038 0.9932048411
5250268500.0 -0.0778326227 0.9937692262
5300268200.0 -0.0645118383 0.994330639
5350267900.0 -0.0521034394 0.9957365439
5400267600.0 -0.0360619114 0.9962374938
5450267300.0 -0.0227815157 0.9967777451
5500267000.0 -0.0077603467 0.9971162046
5550266700.0 0.0072653892 0.9972669865
5600266400.0 0.0226957838 0.9972791598
5650266100.0 0.0393668467 0.9969142109
5700265800.0 0.0536898276 0.9960736918
5750265500.0 0.0687271716 0.9953553626
5800265200.0 0.082956937 0.9946716953
5850264900.0 0.0959375579 0.9932469351
5900264600.0 0.1124216044 0.9916499354
5950264300.0 0.1248433162 0.9898976176
6000264000.0 0.138788003 0.9884176983
6050263700.0 0.1512524832 0.9871822141
6100263400.0 0.1634628104 0.9849144259
6150263100.0 0.1778698909 0.9826087573
6200262800.0 0.1882582808 0.9807737356
6250262500.0 0.200970342 0.9783986899
6300262200.0 0.2137956079 0.9756512659
6350261900.0 0.226882132 0.9726852879
6400261600.0 0.2407205144 0.9693576476
6450261300.0 0.2521093675 0.9667744266
6500261000.0 0.2649051871 0.9633449301
6550260700.0 0.2776298952 0.9593625529
6600260400.0 0.2909775672 0.9549725859
6650260100.0 0.305187215 0.9510996331
6700259800.0 0.3170774512 0.9466073024
6750259500.0 0.3311342033 0.9417701119
6800259200.0 0.3442593827 0.9367428772
6850258900.0 0.3558939555 0.9315991213
6900258600.0 0.3684591332 0.9266928847
6950258300.0 0.3808892851 0.9211805271
7000258000.0 0.392885181 0.9158229799
7050257700.0 0.4051976364 0.9098740511
7100257400.0 0.4179445201 0.9035292114
7150257100.0 0.4282606199 0.8981794926
7200256800.0 0.4411209959 0.8918182048
7250256500.0 0.4528331729 0.8853224973
7300256200.0 0.4661838687 0.878425218
7350255900.0 0.4786394383 0.8720086498
7400255600.0 0.4919710756 0.8644131942
7450255300.0 0.506968169 0.8555835267
7500255000.0 0.5189669873 0.8485575861
7550254700.0 0.5326917717 0.8396831305
7600254400.0 0.544840553 0.8314377243
7650254100.0 0.5567675537 0.8237271483
7700253800.0 0.5691581354 0.815901802
7750253500.0 0.580124862 0.8080374662
7800253200.0 0.5905140077 0.8004693064
7850252900.0 0.600476545 0.7932230343
7900252600.0 0.6121357594 0.7844140637
7950252300.0 0.6208573324 0.7781260898
8000252000.0 0.630955524 0.7704247463
8050251700.0 0.6414567592 0.7621421955
8100251400.0 0.6515429944 0.7539564781
8150251100.0 0.6619143368 0.7452452793
8200250800.0 0.6709658795 0.7373334714
8250250500.0 0.6800500386 0.72952575
8300250200.0 0.6892204687 0.72086992
8350249900.0 0.6984202917 0.7121471542
8400249600.0 0.7067431371 0.7041048729
8450249300.0 0.7155446664 0.6948983366
8500249000.0 0.7243671553 0.6859428887
8550248700.0 0.7325147895 0.6768630581
8600248400.0 0.7410441806 0.6675544961
8650248100.0 0.7486757448 0.6578970228
8700247800.0 0.7581840842 0.6467066915
8750247500.0 0.7665673444 0.6365746056
8800247200.0 0.7747063781 0.6263486928
8850246900.0 0.7835646536 0.6148635448
8900246600.0 0.791779696 0.6034373534
8950246300.0 0.8012583554 0.5905874331
9000246000.0 0.8109157643 0.5779202704
9050245700.0 0.8201269373 0.5648902284
9100245400.0 0.8285153459 0.5524680679
9150245100.0 0.8374028817 0.5390446539
9200244800.0 0.8475336462 0.5236887323
9250244500.0 0.8566851386 0.5082114065
9300244200.0 0.8651691744 0.4937541869
9350243900.0 0.8729094784 0.4799647483
9400243600.0 0.8797502805 0.4675597947
9450243300.0 0.885504758 0.4558486274
9500243000.0 0.8917728918 0.4439360998
9550242700.0 0.895447987 0.4361555388
9600242400.0 0.8992206035 0.4289687738
9650242100.0 0.9031713838 0.422407655
9700241800.0 0.9077016645 0.4143972865
9750241500.0 0.9117993627 0.4063753261
9800241200.0 0.9164778922 0.3973169438
9850240900.0 0.9222265242 0.3855709331
9900240600.0 0.9280873093 0.3738191593
9950240300.0 0.9342499562 0.3580510144
10000240000.0 0.9389547755 0.3467511486
10050239700.0 0.9445877232 0.331187279
10100239400.0 0.949710079 0.3154930596
10150239100.0 0.9540409678 0.3006099452
10200238800.0 0.9581165468 0.2856056567
10250238500.0 0.9614653561 0.2724670136
10300238200.0 0.9646081601 0.2585285243
10350237900.0 0.9674926744 0.2452543415
10400237600.0 0.9698291518 0.2324170462
10450237300.0 0.972513173 0.2186471704
10500237000.0 0.9748654315 0.2063644309
10550236700.0 0.9771414576 0.1921973162
10600236400.0 0.9796801917 0.1784006305
10650236100.0 0.9812850853 0.1642725425
10700235800.0 0.9836527907 0.1515725074
10750235500.0 0.9857136289 0.1383227533
10800235200.0 0.987684488 0.1239234874
10850234900.0 0.9893289222 0.1097233924
10900234600.0 0.9914685101 0.0948474252
10950234300.0 0.993564797 0.0815748716
11000234000.0 0.9952590907 0.0665391072
11050233700.0 0.9972269447 0.0501932058
11100233400.0 0.9983339604 0.0326211424
11150233100.0 0.9998169898 0.0163282386
11200232800.0 1.000189522 0.001496619
11250232500.0 1.001133673 -0.0156824656
11300232200.0 1.001593549 -0.0333650251
11350231900.0 1.001850103 -0.049165147
11400231600.0 1.001439595 -0.064533823
11450231300.0 1.001120696 -0.0797897602
11500231000.0 1.000031246 -0.0968785822
11550230700.0 0.9987947262 -0.1096063946
11600230400.0 0.9973678368 -0.1220407234
11650230100.0 0.9951147494 -0.1338060956
11700229800.0 0.9933945893 -0.1483723058
11750229500.0 0.9906031759 -0.163014577
11800229200.0 0.9880659443 -0.1766940791
11850228900.0 0.9847130226 -0.1890449541
11900228600.0 0.9810340891 -0.1990643908
11950228300.0 0.9776933397 -0.2089491718
12000228000.0 0.97530777 -0.2175569664
12050227700.0 0.9710618977 -0.2307299086
12100227400.0 0.9679760812 -0.2422379468
12150227100.0 0.9637444372 -0.2580301167
12200226800.0 0.9599336002 -0.2692672558
12250226500.0 0.9552768955 -0.2821805225
12300226200.0 0.9514252346 -0.2952244196
12350225900.0 0.9463845425 -0.3082845396
12400225600.0 0.9421730543 -0.3211831797
12450225300.0 0.9376596512 -0.3341060327
12500225000.0 0.9321058285 -0.3486658067
12550224700.0 0.9264863429 -0.3623757024
12600224400.0 0.9219306699 -0.375446079
12650224100.0 0.9161584245 -0.3898170713
12700223800.0 0.9108753371 -0.4024980362
12750223500.0 0.9052311133 -0.4158005257
12800223200.0 0.900050024 -0.4282721452
12850222900.0 0.8941935212 -0.4407195223
12900222600.0 0.8894573131 -0.452249843
12950222300.0 0.8824651183 -0.4659337229
13000222000.0 0.8769773272 -0.4763568937
13050221700.0 0.8703279953 -0.4894242886
13100221400.0 0.8634627921 -0.5014359883
13150221100.0 0.8564003178 -0.5136761423
13200220800.0 0.8493786884 -0.5250799101
13250220500.0 0.8421892147 -0.5378326576
13300220200.0 0.8347551596 -0.5481838525
13350219900.0 0.8269245448 -0.5602181604
13400219600.0 0.8183915072 -0.5723805298
13450219300.0 0.8092162416 -0.585771917
13500219000.0 0.7990669796 -0.5995802332
13550218700.0 0.7884527713 -0.6127358087
13600218400.0 0.7786381299 -0.6245672907
13650218100.0 0.7688266812 -0.6358805557
13700217800.0 0.7576988951 -0.6481617453
13750217500.0 0.7481501073 -0.6590792849
13800217200.0 0.7369501838 -0.6709169342
13850216900.0 0.7255065952 -0.6826442883
13900216600.0 0.7155429974 -0.6911449305
13950216300.0 0.7047051958 -0.7017203887
14000216000.0 0.6951983425 -0.7105228632
14050215700.0 0.6854944825 -0.7191778845
14100215400.0 0.675422258 -0.7279715353
14150215100.0 0.6663513289 -0.7367231045
14200214800.0 0.657031786 -0.7453168276
14250214500.0 0.6466759398 -0.7546462079
14300214200.0 0.6364652709 -0.7639337074
14350213900.0 0.6254916465 -0.7733720136
14400213600.0 0.6137279041 -0.7831525143
14450213300.0 0.6004955075 -0.7936695554
14500213000.0 0.5874107639 -0.8032053453
14550212700.0 0.5741757098 -0.8127208499
14600212400.0 0.5624555178 -0.8217562697
14650212100.0 0.5498613536 -0.8298827869
14700211800.0 0.5353781684 -0.8397550557
14750211500.0 0.5232340479 -0.8483679429
14800211200.0 0.5112538151 -0.8561189103
14850210900.0 0.4988239064 -0.8639118448
14900210600.0 0.4855669815 -0.8716230616
14950210300.0 0.4722526081 -0.8791910817
15000210000.0 0.4595948698 -0.8860756221
15050209700.0 0.4474726188 -0.8920390349
15100209400.0 0.4347403125 -0.8980625745
15150209100.0 0.4220856854 -0.903813836
15200208800.0 0.409913364 -0.908952777
15250208500.0 0.3987477168 -0.9129091628
15300208200.0 0.3862903083 -0.9175395885
15350207900.0 0.3725602554 -0.9225197553
15400207600.0 0.358090102 -0.928457636
15450207300.0 0.3442112197 -0.932845496
15500207000.0 0.3289367425 -0.9377104981
15550206700.0 0.3138727907 -0.9425517488
15600206400.0 0.2985917334 -0.9470579299
15650206100.0 0.282472611 -0.9516559071
15700205800.0 0.2688393521 -0.9553509917
15750205500.0 0.2538188015 -0.9587768067
15800205200.0 0.2396260948 -0.9621690058
15850204900.0 0.2252822877 -0.965583978
15900204600.0 0.210207247 -0.9692987927
15950204300.0 0.1960798039 -0.9721720681
16000204000.0 0.1824392488 -0.9752453924
16050203700.0 0.1667293886 -0.97811461
16100203400.0 0.1523514157 -0.979699703
16150203100.0 0.1377249305 -0.9825998247
16200202800.0 0.1238127195 -0.9847057282
16250202500.0 0.1091768354 -0.985861896
16300202200.0 0.0939429855 -0.9876243058
16350201900.0 0.0788610876 -0.9891046524
16400201600.0 0.0641351012 -0.9899675654
16450201300.0 0.0488659926 -0.9913119653
16500201000.0 0.0321438505 -0.9921615635
16550200700.0 0.0164986364 -0.9927135244
16600200400.0 0.0007784129 -0.9928185886
16650200100.0 -0.0153067356 -0.9927251458
16700199800.0 -0.0315709832 -0.9924001459
16750199500.0 -0.0502782251 -0.9913329142
16800199200.0 -0.0661006587 -0.9906479212
16850198900.0 -0.0816757299 -0.9894473494
16900198600.0 -0.0950820636 -0.9888273172
16950198300.0 -0.1085307438 -0.9873357448
17000198000.0 -0.1212939142 -0.9864163493
17050197700.0 -0.1336980438 -0.9845309882
17100197400.0 -0.1470344647 -0.9820913814
17150197100.0 -0.1598684906 -0.9808707156
17200196800.0 -0.1723189209 -0.9787336799
17250196500.0 -0.1853378047 -0.9758122238
17300196200.0 -0.1975969444 -0.9733034703
17350195900.0 -0.2095372097 -0.9712868768
17400195600.0 -0.2216119084 -0.9687328265
17450195300.0 -0.2347121208 -0.9658247321
17500195000.0 -0.2481464648 -0.962632916
17550194700.0 -0.2618752047 -0.9589472381
17600194400.0 -0.2756671172 -0.9549876117
17650194100.0 -0.2896321352 -0.950754333
17700193800.0 -0.3027418202 -0.9467581419
17750193500.0 -0.3169888013 -0.9419778971
17800193200.0 -0.3310803207 -0.9367899855
17850192900.0 -0.3463595454 -0.9315499529
17900192600.0 -0.3613600505 -0.9255053626
17950192300.0 -0.3773837335 -0.9182271634
18000192000.0 -0.3917517347 -0.9110593768
18050191700.0 -0.4058136066 -0.9031952164
18100191400.0 -0.4200992211 -0.8954148206
18150191100.0 -0.4350017086 -0.8874142866
18200190800.0 -0.451916926 -0.8782903519
18250190500.0 -0.4691205521 -0.8686293871
18300190200.0 -0.484257787 -0.8602409254
18350189900.0 -0.4993816208 -0.8518383368
18400189600.0 -0.5138019804 -0.8438253744
18450189300.0 -0.527036944 -0.8357986926
18500189000.0 -0.540338333 -0.8274226749
18550188700.0 -0.5531149089 -0.8196732669
18600188400.0 -0.5649176499 -0.8129982517
18650188100.0 -0.5759024683 -0.8065582411
18700187800.0 -0.5866658567 -0.800200292
18750187500.0 -0.5969132937 -0.7936777413
18800187200.0 -0.6080425874 -0.786741062
18850186900.0 -0.618093689 -0.7797300067
18900186600.0 -0.6281029837 -0.7723602543
18950186300.0 -0.6382456478 -0.7644444938
19000186000.0 -0.6454932417 -0.7585868232
19050185700.0 -0.6547977306 -0.7515409062
19100185400.0 -0.6646413823 -0.7430211334
19150185100.0 -0.6746064431 -0.7348158516
19200184800.0 -0.684858945 -0.7266863666
19250184500.0 -0.6941505879 -0.7173195678
19300184200.0 -0.705894986 -0.7068844243
19350183900.0 -0.716769584 -0.6977316063
19400183600.0 -0.7259311133 -0.6877325965
19450183300.0 -0.7348640212 -0.6780186508
19500183000.0 -0.7434576208 -0.66826697
19550182700.0 -0.7531043049 -0.6567593693
19600182400.0 -0.7636428132 -0.6452938219
19650182100.0 -0.7746592336 -0.6329498401
19700181800.0 -0.7851187198 -0.6199044372
19750181500.0 -0.795666547 -0.6055900133
19800181200.0 -0.8060310948 -0.5905904778
19850180900.0 -0.8158760181 -0.5753793413
19900180600.0 -0.8236279148 -0.5605942842
19950180300.0 -0.8330428589 -0.5441389916
20000180000.0 -0.825914703 -0.5469529824
20050179700.0 -0.8340980251 -0.5337877781
20100179400.0 -0.8419347126 -0.5196195217
20150179100.0 -0.8505353702 -0.5077837936
20200178800.0 -0.8591970603 -0.4955469113
20250178500.0 -0.8686110568 -0.4816961856
20300178200.0 -0.8781079363 -0.4677478183
20350177900.0 -0.8874287044 -0.4525602697
20400177600.0 -0.896327376 -0.4381694994
20450177300.0 -0.9048071256 -0.4238206397
20500177000.0 -0.9128103653 -0.4099068445
20550176700.0 -0.9207353352 -0.3963145444
20600176400.0 -0.9275226637 -0.3831287379
20650176100.0 -0.9337330674 -0.3711187241
20700175800.0 -0.9411313619 -0.3590746473
20750175500.0 -0.9477354837 -0.3476040649
20800175200.0 -0.9522752988 -0.337201652
20850174900.0 -0.9569746324 -0.3253218131
20900174600.0 -0.9617378473 -0.3139517154
20950174300.0 -0.9662276351 -0.3028576195
21000174000.0 -0.9683483422 -0.2916008328
21050173700.0 -0.9725527228 -0.2813291953
21100173400.0 -0.9761946614 -0.2686676339
21150173100.0 -0.9794810741 -0.2559447918
21200172800.0 -0.9832043393 -0.2428155296
21250172500.0 -0.9864247601 -0.2293683108
21300172200.0 -0.9891876525 -0.2151991258
21350171900.0 -0.9906237188 -0.2005534299
21400171600.0 -0.9922962791 -0.1860101589
21450171300.0 -0.9924067128 -0.1719319153
21500171000.0 -0.9920502151 -0.1560087326
21550170700.0 -0.9929295353 -0.1411002756
21600170400.0 -0.991865269 -0.1258663655
21650170100.0 -0.9923739255 -0.1100938868
21700169800.0 -0.9913745341 -0.0938848646
21750169500.0 -0.9888072925 -0.077791233
21800169200.0 -0.9887361422 -0.0625463552
21850168900.0 -0.987927417 -0.0451584037
21900168600.0 -0.9862855871 -0.0290522954
21950168300.0 -0.9847611428 -0.0128911931
22000168000.0 -0.9836334666 0.0017365223
22050167700.0 -0.9836364943 0.0160102645
22100167400.0 -0.98423041 0.0312092724
22150167100.0 -0.9847732961 0.0471903904
22200166800.0 -0.985095334 0.0634446131
22250166500.0 -0.9842261504 0.0805102767
22300166200.0 -0.9836834226 0.09722578
22350165900.0 -0.9823485006 0.113852407
22400165600.0 -0.9808991075 0.1288725138
22450165300.0 -0.9798650252 0.1441924335
22500165000.0 -0.9765232988 0.1576453679
22550164700.0 -0.9758770889 0.1723493792
22600164400.0 -0.9744224491 0.1886662499
22650164100.0 -0.9722801095 0.2032915548
22700163800.0 -0.9696021156 0.2192995205
22750163500.0 -0.9663075298 0.2341849236
22800163200.0 -0.9641362268 0.2479084268
22850162900.0 -0.9614965609 0.2611073727
22900162600.0 -0.9600019208 0.2746508124
22950162300.0 -0.9589987539 0.2874686323
23000162000.0 -0.9578466893 0.2992970441
23050161700.0 -0.9553546595 0.3119261362
23100161400.0 -0.9531109074 0.3246278152
23150161100.0 -0.9505626313 0.3368197348
23200160800.0 -0.947826348 0.3490309094
23250160500.0 -0.9447588618 0.3610055848
23300160200.0 -0.9424811337 0.3732466048
23350159900.0 -0.9382678448 0.3867262267
23400159600.0 -0.9335886186 0.3999019955
23450159300.0 -0.9291261814 0.4126476915
23500159000.0 -0.9249108924 0.4256950444
23550158700.0 -0.9202452419 0.4392836859
23600158400.0 -0.9147035723 0.4527651861
23650158100.0 -0.9082846898 0.467043648
23700157800.0 -0.9006969555 0.480883551
23750157500.0 -0.8919662472 0.495131457
23800157200.0 -0.882931116 0.5082799208
23850156900.0 -0.8742068359 0.5203602755
23900156600.0 -0.8651514782 0.5337569024
23950156300.0 -0.8554871709 0.5452135099
24000156000.0 -0.8472019654 0.5579181972
24050155700.0 -0.836468988 0.5703095851
24100155400.0 -0.8270281357 0.581988887
24150155100.0 -0.8155722728 0.5933070631
24200154800.0 -0.805625203 0.6046336967
24250154500.0 -0.7938464812 0.6162897496
24300154200.0 -0.7827871563 0.6280297845
24350153900.0 -0.7707260173 0.6387026018
24400153600.0 -0.758367255 0.6489750161
24450153300.0 -0.7464573861 0.6591215438
24500153000.0 -0.7354442913 0.668617713
24550152700.0 -0.7239829855 0.6784515616
24600152400.0 -0.7128545741 0.6872036004
24650152100.0 -0.7007297883 0.6959238949
