!Created with skrf (http://scikit-rf.org).
# Hz S RI R 50.0 
!freq ReS11 ImS11
300000.0 -0.9753970138 -0.1205502447
50299700.0 -0.9999116921 0.0150378904
100299400.0 -0.99793744 0.0279553552
150299100.0 -1.002767105 0.0448078629
200298800.0 -0.999485853 0.0582130298
250298500.0 -0.9972802737 0.0715366084
300298200.0 -0.985762754 0.0874459408
350297900.0 -0.9939489378 0.0983757587
400297600.0 -0.9930994543 0.1147477463
450297300.0 -0.9908912783 0.1287675556
500297000.0 -0.9893344563 0.1434247839
550296700.0 -0.9842420506 0.1559945623
600296400.0 -1.017259293 0.1893243871
650296100.0 -0.9822469499 0.1856083918
700295800.0 -0.9792311215 0.2001232808
750295500.0 -0.9762161718 0.2139391775
800295200.0 -0.972968761 0.2281532282
850294900.0 -0.9696438481 0.2417606442
900294600.0 -0.9657487361 0.2556991231
950294300.0 -0.9620039537 0.2692941098
1000294000.0 -0.9582815135 0.2834092075
1050293700.0 -0.9536075501 0.2970260022
1100293400.0 -0.9492154935 0.3117316321
1150293100.0 -0.9455247133 0.3235485744
1200292800.0 -0.9402496587 0.3378776668
1250292500.0 -0.934678234 0.3511410432
1300292200.0 -0.9290814904 0.3645471962
1350291900.0 -0.9233210537 0.3784396684
1400291600.0 -0.9179810455 0.3916208819
1450291300.0 -0.9125682732 0.4041176357
1500291000.0 -0.906166277 0.4173375119
1550290700.0 -0.8996368968 0.4308065693
1600290400.0 -0.8933989296 0.4438438013
1650290100.0 -0.8867985289 0.4558448196
1700289800.0 -0.8796741325 0.4693258521
1750289500.0 -0.8728384526 0.4816427872
1800289200.0 -0.8656034092 0.4945513448
1850288900.0 -0.8586628666 0.5060667378
1900288600.0 -0.8509449323 0.5188596094
1950288300.0 -0.8429166804 0.5313036006
2000288000.0 -0.8352256864 0.5428589594
2050287700.0 -0.8272344008 0.5552243301
2100287400.0 -0.8194263853 0.5666220171
2150287100.0 -0.8107797717 0.5786578177
2200286800.0 -0.8030127559 0.5892554645
2250286500.0 -0.7941525596 0.6012905243
2300286200.0 -0.7851610302 0.6128473835
2350285900.0 -0.7766842881 0.6235129344
2400285600.0 -0.7678209992 0.63448275
2450285300.0 -0.7590310295 0.645197524
2500285000.0 -0.7492152964 0.6567314116
2550284700.0 -0.7401879312 0.6670590158
2600284400.0 -0.7309361397 0.6769367931
2650284100.0 -0.7221037603 0.6871929864
2700283800.0 -0.7119346252 0.6977399163
2750283500.0 -0.7011539894 0.7082953958
2800283200.0 -0.691495705 0.718310957
2850282900.0 -0.6810003689 0.7282366413
2900282600.0 -0.670710758 0.7378596233
2950282300.0 -0.6601991714 0.747327596
3000282000.0 -0.6495649025 0.7567132648
3050281700.0 -0.6384036691 0.7660445593
3100281400.0 -0.6269034948 0.7750745907
3150281100.0 -0.6154271035 0.7840480345
3200280800.0 -0.6041314354 0.7925127631
3250280500.0 -0.5928112876 0.8004291123
3300280200.0 -0.5813635417 0.8085448874
3350279900.0 -0.5693507426 0.8163052956
3400279600.0 -0.5568775229 0.824385273
3450279300.0 -0.5457556 0.8314770103
3500279000.0 -0.5338974989 0.8384755112
3550278700.0 -0.5216562888 0.8454410494
3600278400.0 -0.5096421337 0.8525074725
3650278100.0 -0.4968345527 0.8600713756
3700277800.0 -0.4847315698 0.8663280962
3750277500.0 -0.4721877122 0.8731169388
3800277200.0 -0.4599043653 0.8797200915
3850276900.0 -0.4478481368 0.8857073735
3900276600.0 -0.4367609518 0.8913896345
3950276300.0 -0.4247389371 0.8972189464
4000276000.0 -0.4128352235 0.9032628533
4050275700.0 -0.4000677801 0.9094868617
4100275400.0 -0.3890248757 0.9146761564
4150275100.0 -0.375762162 0.9205983806
4200274800.0 -0.3626344154 0.9263135591
4250274500.0 -0.3502172806 0.9315999771
4300274200.0 -0.3369677734 0.9366775786
4350273900.0 -0.3227895023 0.9421976159
4400273600.0 -0.3080190711 0.9471286444
4450273300.0 -0.2929922255 0.9521032986
4500273000.0 -0.2799212628 0.956528014
4550272700.0 -0.2661131534 0.9605314717
4600272400.0 -0.2508366787 0.9647710249
4650272100.0 -0.2394251794 0.9678676847
4700271800.0 -0.2264928819 0.9712863269
4750271500.0 -0.2147182767 0.9741792616
4800271200.0 -0.2024167597 0.9767903096
4850270900.0 -0.188632493 0.9796650507
4900270600.0 -0.1747064062 0.982079162
4950270300.0 -0.1604166005 0.984690604
5000270000.0 -0.145792239 0.9867878247
5050269700.0 -0.1324708674 0.9881757228
5100269400.0 -0.1184096364 0.9902060569
5150269100.0 -0.1045181939 0.9916342995
5200268800.0 -0.0912162264 0.9925692072
5250268500.0 -0.0782831131 0.9940484856
5300268200.0 -0.064550329 0.9946456377
5350267900.0 -0.0518872161 0.995288624
5400267600.0 -0.0357184591 0.9962517655
5450267300.0 -0.0226109833 0.9967141378
5500267000.0 -0.0071893358 0.9968503092
5550266700.0 0.0076692496 0.9972032421
5600266400.0 0.0234152285 0.9971598871
5650266100.0 0.0398761578 0.996709915
5700265800.0 0.054424581 0.9960208485
5750265500.0 0.0693916907 0.995427039
5800265200.0 0.0828812162 0.993950383
5850264900.0 0.0963935847 0.9927981788
5900264600.0 0.1129404887 0.9913459261
5950264300.0 0.1244726068 0.9898185191
6000264000.0 0.1385465452 0.9884061402
6050263700.0 0.1498914211 0.9864961411
6100263400.0 0.1621294308 0.9849524432
6150263100.0 0.1768049826 0.9827611475
6200262800.0 0.1865854994 0.9811101602
6250262500.0 0.1992710864 0.9787849085
6300262200.0 0.2115972365 0.9759851582
6350261900.0 0.2245028076 0.9731517541
6400261600.0 0.2381165461 0.9701138586
6450261300.0 0.2495529684 0.9675495541
6500261000.0 0.2627143921 0.9637932857
6550260700.0 0.2758961065 0.9598854651
6600260400.0 0.2888643923 0.9558288228
6650260100.0 0.3029957187 0.9514821113
6700259800.0 0.3157678765 0.9475385599
6750259500.0 0.3291092298 0.9421734104
6800259200.0 0.3429452417 0.9372821692
6850258900.0 0.3547139093 0.9318207485
6900258600.0 0.367525034 0.9267163756
6950258300.0 0.3798041554 0.9212082218
7000258000.0 0.3917209007 0.9160883827
7050257700.0 0.4037072231 0.9102500775
7100257400.0 0.4169333351 0.9038922278
7150257100.0 0.4276058647 0.8985700118
7200256800.0 0.4406083571 0.892244008
7250256500.0 0.452713232 0.885447609
7300256200.0 0.4657829933 0.8789804
7350255900.0 0.4787709855 0.8718907392
7400255600.0 0.4925664721 0.8642002186
7450255300.0 0.5079915176 0.8549607455
7500255000.0 0.5202423753 0.8475340163
7550254700.0 0.5346265208 0.8388214043
7600254400.0 0.547298515 0.8303315079
7650254100.0 0.5584659102 0.822565286
7700253800.0 0.5702758583 0.8145222571
7750253500.0 0.5811970499 0.8069490235
7800253200.0 0.5919646417 0.7992096788
7850252900.0 0.6016854254 0.7918487759
7900252600.0 0.6131330606 0.7832480653
7950252300.0 0.6219455522 0.776680034
8000252000.0 0.6318520705 0.7692520042
8050251700.0 0.642069816 0.7610376549
8100251400.0 0.6519415215 0.7530336282
8150251100.0 0.6621843442 0.7445893163
8200250800.0 0.6715833453 0.7363462915
8250250500.0 0.680376446 0.7285314617
8300250200.0 0.6894527091 0.720059961
8350249900.0 0.6986861747 0.71149233
8400249600.0 0.7068613656 0.7033093227
8450249300.0 0.7157990224 0.69452298
8500249000.0 0.7244205981 0.6855072693
8550248700.0 0.7327007071 0.6765276054
8600248400.0 0.741027596 0.6670069877
8650248100.0 0.7485745339 0.6577573793
8700247800.0 0.7579907676 0.6463420015
8750247500.0 0.7663379466 0.6362461853
8800247200.0 0.7742087552 0.6261945228
8850246900.0 0.7830747935 0.6146379808
8900246600.0 0.7915334093 0.6031300336
8950246300.0 0.8006610534 0.5905757519
9000246000.0 0.8095666118 0.5784370225
9050245700.0 0.8182153546 0.5659571598
9100245400.0 0.8266638742 0.5536515117
9150245100.0 0.8353940403 0.5406452661
9200244800.0 0.8448809183 0.5261610938
9250244500.0 0.8541832902 0.5113549915
9300244200.0 0.8623856735 0.4974405905
9350243900.0 0.8699575119 0.484096071
9400243600.0 0.8766021583 0.4722281262
9450243300.0 0.8821871166 0.461461373
9500243000.0 0.888488518 0.4496820042
9550242700.0 0.8925169504 0.4421582801
9600242400.0 0.8966798204 0.4345133854
9650242100.0 0.900788522 0.4276782084
9700241800.0 0.9054765619 0.4192503341
9750241500.0 0.9095221039 0.4118721798
9800241200.0 0.9144472063 0.4021751836
9850240900.0 0.9206596332 0.3902358703
9900240600.0 0.9264067746 0.378720006
9950240300.0 0.9332468483 0.3621258533
10000240000.0 0.9382558916 0.3499725887
10050239700.0 0.9439342302 0.3340000193
10100239400.0 0.9491960452 0.3180515804
10150239100.0 0.9540501952 0.3026880048
10200238800.0 0.9582663609 0.2872867382
10250238500.0 0.9614740194 0.2739858989
10300238200.0 0.9646903062 0.2598707465
10350237900.0 0.9674581412 0.2465361514
10400237600.0 0.9700853907 0.2331813106
10450237300.0 0.9727138541 0.2195340857
10500237000.0 0.9747214431 0.2072701738
10550236700.0 0.9774945033 0.1928135429
10600236400.0 0.9795675074 0.1785712206
10650236100.0 0.9816200384 0.1640761092
10700235800.0 0.9835676447 0.1523355902
10750235500.0 0.9858626593 0.1387157423
10800235200.0 0.9879448919 0.1241465616
10850234900.0 0.9899038201 0.1095402889
10900234600.0 0.9919681565 0.0948673607
10950234300.0 0.9936052575 0.0813496796
11000234000.0 0.9955246469 0.0659074107
11050233700.0 0.9972094437 0.0493628067
11100233400.0 0.9986198058 0.0318412773
11150233100.0 1.000105343 0.0151683136
11200232800.0 1.000246851 -0.0006623832
11250232500.0 1.001634346 -0.0178901485
11300232200.0 1.001587389 -0.0363365823
11350231900.0 1.001931299 -0.052314295
11400231600.0 1.002000824 -0.0685690096
11450231300.0 1.001285747 -0.0840746452
11500231000.0 1.000208768 -0.100009186
11550230700.0 0.9983469594 -0.1138973046
11600230400.0 0.9970953483 -0.1256804313
11650230100.0 0.994930491 -0.1374758216
11700229800.0 0.992685806 -0.1529681932
11750229500.0 0.9906120891 -0.1672228038
11800229200.0 0.9876359966 -0.1805809628
11850228900.0 0.9840759814 -0.1924800797
11900228600.0 0.9802662684 -0.2020101591
11950228300.0 0.977085481 -0.2121746103
12000228000.0 0.9743795764 -0.2210271717
12050227700.0 0.9703965446 -0.2336035346
12100227400.0 0.9673449408 -0.2441574114
12150227100.0 0.9624241873 -0.26089875
12200226800.0 0.9585169394 -0.2726468697
12250226500.0 0.9547744294 -0.285767412
12300226200.0 0.9504972197 -0.2974145441
12350225900.0 0.9448104678 -0.311812386
12400225600.0 0.9405805046 -0.3234464547
12450225300.0 0.9358879463 -0.3361153462
12500225000.0 0.9311643494 -0.3505892043
12550224700.0 0.9254816441 -0.3649451031
12600224400.0 0.9205789038 -0.3776327325
12650224100.0 0.9147063618 -0.3918860701
12700223800.0 0.909179954 -0.4047095168
12750223500.0 0.9039424701 -0.4176767606
12800223200.0 0.8987415737 -0.4301550869
12850222900.0 0.893246819 -0.4420407815
12900222600.0 0.8875369155 -0.4545762847
12950222300.0 0.8813420632 -0.4673435238
13000222000.0 0.8753667065 -0.4790466412
13050221700.0 0.8685542476 -0.4920932004
13100221400.0 0.8618501112 -0.5045937336
13150221100.0 0.8551418669 -0.5158865807
13200220800.0 0.8481559603 -0.5275124107
13250220500.0 0.841027868 -0.5399852999
13300220200.0 0.8332717918 -0.5505590342
13350219900.0 0.8253591847 -0.5623625905
13400219600.0 0.8169951523 -0.5742786937
13450219300.0 0.8074740884 -0.5874488853
13500219000.0 0.7975231034 -0.6010203105
13550218700.0 0.7880221677 -0.6128536454
13600218400.0 0.7783467212 -0.6249296342
13650218100.0 0.7677204952 -0.6362462061
13700217800.0 0.7573847482 -0.648296069
13750217500.0 0.7482779505 -0.6584481329
13800217200.0 0.736252899 -0.6705072663
13850216900.0 0.7256227102 -0.6817381951
13900216600.0 0.7156850861 -0.6902833408
13950216300.0 0.7053975034 -0.7005425129
14000216000.0 0.6958486061 -0.7097660379
14050215700.0 0.6860722039 -0.7176415776
14100215400.0 0.6765159839 -0.7268542298
14150215100.0 0.6673260853 -0.7354410474
14200214800.0 0.657868233 -0.7444026568
14250214500.0 0.6476046041 -0.753611725
14300214200.0 0.637083368 -0.7630956409
14350213900.0 0.6258630531 -0.7726821036
14400213600.0 0.6143241278 -0.7823407075
14450213300.0 0.6013256337 -0.7924366292
14500213000.0 0.5881938699 -0.8027112611
14550212700.0 0.5759527779 -0.8121086555
14600212400.0 0.5636123576 -0.8205018023
14650212100.0 0.550389084 -0.8289273865
14700211800.0 0.537118656 -0.8390142549
14750211500.0 0.5249315355 -0.8473403069
14800211200.0 0.5118765838 -0.8556674294
14850210900.0 0.4996925911 -0.8629866645
14900210600.0 0.4864785079 -0.8712331825
14950210300.0 0.4731991902 -0.8787120113
15000210000.0 0.4603661652 -0.8853744826
15050209700.0 0.4483261138 -0.8916359245
15100209400.0 0.4356122631 -0.897342971
15150209100.0 0.4231838451 -0.9026557727
15200208800.0 0.4106768873 -0.9084819044
15250208500.0 0.3993883219 -0.9132560046
15300208200.0 0.3868704108 -0.9171359826
15350207900.0 0.3744760538 -0.9221624324
15400207600.0 0.3590350754 -0.9278163887
15450207300.0 0.3448158282 -0.931723761
15500207000.0 0.3295933367 -0.9379646889
15550206700.0 0.3150502955 -0.9424656407
15600206400.0 0.2993613839 -0.9472556829
15650206100.0 0.2834611344 -0.9513663232
15700205800.0 0.2697048347 -0.9545176538
15750205500.0 0.2561420469 -0.9578939106
15800205200.0 0.2419163296 -0.9615576137
15850204900.0 0.2278362364 -0.9649183507
15900204600.0 0.2125445281 -0.9684874372
15950204300.0 0.1982878827 -0.9716158071
16000204000.0 0.1841524657 -0.9745972982
16050203700.0 0.1686788981 -0.977642452
16100203400.0 0.153870244 -0.9799134449
16150203100.0 0.1394323995 -0.9821657204
16200202800.0 0.1248516257 -0.9840630778
16250202500.0 0.1102098113 -0.9859719049
16300202200.0 0.0948206119 -0.9874733657
16350201900.0 0.079748281 -0.9889257387
16400201600.0 0.0651261017 -0.9901156739
16450201300.0 0.0496613696 -0.991324639
16500201000.0 0.0327367604 -0.991979517
16550200700.0 0.0167260921 -0.9926199414
16600200400.0 0.0010079714 -0.9929775025
16650200100.0 -0.0154755132 -0.992694625
16700199800.0 -0.0317639808 -0.9924084192
16750199500.0 -0.0508855646 -0.9917792161
16800199200.0 -0.066584724 -0.9907383213
16850198900.0 -0.0821077285 -0.9893008734
16900198600.0 -0.0961987789 -0.988588869
16950198300.0 -0.1099472013 -0.9873549657
17000198000.0 -0.1224805692 -0.9853704737
17050197700.0 -0.1354470568 -0.9848154124
17100197400.0 -0.1485701843 -0.9825563056
17150197100.0 -0.1610855923 -0.9804858244
17200196800.0 -0.1738169712 -0.9783086781
17250196500.0 -0.186467115 -0.9757647865
17300196200.0 -0.1987541466 -0.9733879584
17350195900.0 -0.210629479 -0.9708895262
17400195600.0 -0.2226370018 -0.9684713252
17450195300.0 -0.2356309449 -0.9656304554
17500195000.0 -0.2488128678 -0.9622379886
17550194700.0 -0.2626352054 -0.9588323931
17600194400.0 -0.276671789 -0.9549541844
17650194100.0 -0.2902538823 -0.9509362017
17700193800.0 -0.3028212226 -0.9465047411
17750193500.0 -0.3172888003 -0.9421654763
17800193200.0 -0.3316968507 -0.9365628835
17850192900.0 -0.346534525 -0.931199703
17900192600.0 -0.36192364 -0.9249866921
17950192300.0 -0.377157943 -0.91798187
18000192000.0 -0.3918645612 -0.9108665575
18050191700.0 -0.4058213592 -0.9029212148
18100191400.0 -0.4199948419 -0.895253509
18150191100.0 -0.4347470772 -0.887188587
18200190800.0 -0.4518289032 -0.8780770123
18250190500.0 -0.4688099765 -0.8685993898
18300190200.0 -0.4840514471 -0.8598407937
18350189900.0 -0.4993302192 -0.8514289372
18400189600.0 -0.5140941188 -0.8432976947
18450189300.0 -0.5275322622 -0.8353708621
18500189000.0 -0.5405330741 -0.8270891616
18550188700.0 -0.5537202641 -0.8193536554
18600188400.0 -0.5653146198 -0.8126552859
18650188100.0 -0.5768326723 -0.8057917593
18700187800.0 -0.5876468333 -0.79943788
18750187500.0 -0.5985429616 -0.7928009774
18800187200.0 -0.6089282357 -0.7857304091
18850186900.0 -0.6191740775 -0.7788904695
18900186600.0 -0.6295022132 -0.7715105093
18950186300.0 -0.6395198542 -0.7638991752
19000186000.0 -0.646885719 -0.7575780282
19050185700.0 -0.6569591445 -0.7504342918
19100185400.0 -0.6661386396 -0.7425212547
19150185100.0 -0.676413116 -0.7337567724
19200184800.0 -0.685824336 -0.725671849
19250184500.0 -0.6962653227 -0.7164413183
19300184200.0 -0.7075068832 -0.7074531928
19350183900.0 -0.7182417288 -0.6969614173
19400183600.0 -0.727985709 -0.6869777948
19450183300.0 -0.7366661299 -0.6766158853
19500183000.0 -0.7452635942 -0.666651152
19550182700.0 -0.754627668 -0.6559588752
19600182400.0 -0.764955503 -0.6446817975
19650182100.0 -0.7758142094 -0.6319085458
19700181800.0 -0.7863097705 -0.6189525048
19750181500.0 -0.7966534043 -0.6045587902
19800181200.0 -0.806986544 -0.5898094993
19850180900.0 -0.8164325685 -0.5745793662
19900180600.0 -0.8243362787 -0.5599769529
19950180300.0 -0.8336280008 -0.5436069618
20000180000.0 -0.8239983667 -0.5466156532
20050179700.0 -0.8324961907 -0.534280188
20100179400.0 -0.8403861572 -0.5210087216
20150179100.0 -0.8482719545 -0.509312933
20200178800.0 -0.8573901341 -0.4974705426
20250178500.0 -0.8661140495 -0.4839810098
20300178200.0 -0.8760210262 -0.4704244044
20350177900.0 -0.8853559686 -0.4562550557
20400177600.0 -0.8944044121 -0.4422797616
20450177300.0 -0.9027602273 -0.4277249219
20500177000.0 -0.9106540477 -0.4138961661
20550176700.0 -0.9186179561 -0.4003363026
20600176400.0 -0.9255913799 -0.3876136033
20650176100.0 -0.9321990303 -0.3752560046
20700175800.0 -0.9384515384 -0.3633795289
20750175500.0 -0.9454953726 -0.3517608385
20800175200.0 -0.9496649679 -0.3404369185
20850174900.0 -0.9534141303 -0.3299963128
20900174600.0 -0.9591072288 -0.3188274367
20950174300.0 -0.962052632 -0.3083606967
21000174000.0 -0.9661137615 -0.2967612085
21050173700.0 -0.966709261 -0.2871215067
21100173400.0 -0.9714170626 -0.2754140203
21150173100.0 -0.9750096716 -0.2636024828
21200172800.0 -0.9787520324 -0.250258636
21250172500.0 -0.9821055236 -0.2366429818
21300172200.0 -0.9854473308 -0.222794703
21350171900.0 -0.9873958582 -0.2086699907
21400171600.0 -0.988942583 -0.194051253
21450171300.0 -0.9895752097 -0.1802558819
21500171000.0 -0.9902581205 -0.1652551656
21550170700.0 -0.9901912827 -0.149745259
21600170400.0 -0.9915857495 -0.1341455058
21650170100.0 -0.992146562 -0.1186454299
21700169800.0 -0.990604518 -0.1030491818
21750169500.0 -0.9890836892 -0.0872589372
21800169200.0 -0.9903148824 -0.0708853794
21850168900.0 -0.9891851012 -0.0536028606
21900168600.0 -0.9887688235 -0.0381098606
21950168300.0 -0.9881045593 -0.0223211502
22000168000.0 -0.9877745576 -0.0073865752
22050167700.0 -0.988421078 0.0076320435
22100167400.0 -0.9883915471 0.0230510051
22150167100.0 -0.9892631641 0.0389772123
22200166800.0 -0.9902714244 0.0556520619
22250166500.0 -0.9892017603 0.0726059542
22300166200.0 -0.9888969205 0.0890527516
22350165900.0 -0.9863311227 0.1056682087
22400165600.0 -0.9864074338 0.1209524528
22450165300.0 -0.9847817475 0.1365344957
22500165000.0 -0.9820934806 0.1499490802
22550164700.0 -0.9810033194 0.166281213
22600164400.0 -0.9790573429 0.1816286231
22650164100.0 -0.9765840989 0.197056674
22700163800.0 -0.9735855922 0.2135453642
22750163500.0 -0.9707750457 0.2288057406
22800163200.0 -0.9675541746 0.2418186465
22850162900.0 -0.9653369478 0.2550697698
22900162600.0 -0.9633572991 0.2689350741
22950162300.0 -0.9618220897 0.2824400119
23000162000.0 -0.9603771964 0.2946703543
23050161700.0 -0.9578602529 0.3081540752
23100161400.0 -0.9557376099 0.3211817517
23150161100.0 -0.9515119375 0.334194674
23200160800.0 -0.9494897991 0.3460397478
23250160500.0 -0.9466684836 0.3591945978
23300160200.0 -0.9437716578 0.3713540285
23350159900.0 -0.9403754752 0.3840717383
23400159600.0 -0.9354350919 0.3984874492
23450159300.0 -0.9299334143 0.4118606028
23500159000.0 -0.9254148329 0.4256134396
23550158700.0 -0.9204542533 0.4394170591
23600158400.0 -0.9144835647 0.4533109694
23650158100.0 -0.907206704 0.4675856854
23700157800.0 -0.8991398775 0.4820159126
23750157500.0 -0.8900272867 0.4960474162
23800157200.0 -0.8802792462 0.5095407141
23850156900.0 -0.8709726265 0.522052531
23900156600.0 -0.8611973026 0.5347652429
23950156300.0 -0.8521859226 0.5475643017
24000156000.0 -0.8422612425 0.5598293687
24050155700.0 -0.831883515 0.57230802
24100155400.0 -0.8223387691 0.5839108832
24150155100.0 -0.8108441351 0.5963538746
24200154800.0 -0.7991703179 0.6082700336
24250154500.0 -0.7889717756 0.6199581128
24300154200.0 -0.7771957705 0.6322559046
24350153900.0 -0.7650469853 0.643148667
24400153600.0 -0.7524902085 0.6537662249
24450153300.0 -0.7404575775 0.6637882756
24500153000.0 -0.7293096186 0.6736118027
24550152700.0 -0.7179167882 0.6839052965
24600152400.0 -0.7057783398 0.6926601483
24650152100.0 -0.6934381991 0.7022042385
