!Created with skrf (http://scikit-rf.org).
# Hz S RI R 50.0 
!freq ReS11 ImS11
300000.0 -0.9767111878 -0.1130612317
50299700.0 -1.00006155 0.0159117679
100299400.0 -0.9981000796 0.0287411369
150299100.0 -1.002883565 0.0456449617
200298800.0 -0.9995615999 0.0588609017
250298500.0 -0.9976327904 0.0722219727
300298200.0 -0.9862411089 0.0882237277
350297900.0 -0.9942752392 0.0991486853
400297600.0 -0.9932600558 0.115870123
450297300.0 -0.9912628617 0.1295134609
500297000.0 -0.9894357054 0.1444684736
550296700.0 -0.9845502894 0.156701342
600296400.0 -1.017355424 0.1903255775
650296100.0 -0.982278474 0.186542807
700295800.0 -0.9793869631 0.2010221026
750295500.0 -0.976245948 0.2149671441
800295200.0 -0.9731620952 0.2290228777
850294900.0 -0.9696046595 0.2428343053
900294600.0 -0.9657869114 0.2565869436
950294300.0 -0.9620354952 0.2703648721
1000294000.0 -0.9579545858 0.2843873334
1050293700.0 -0.9536755071 0.2981513263
1100293400.0 -0.9492085967 0.3125239852
1150293100.0 -0.9452233381 0.3244234268
1200292800.0 -0.9400892973 0.3388161721
1250292500.0 -0.9344966692 0.3520486729
1300292200.0 -0.9287856711 0.3653794104
1350291900.0 -0.9233496041 0.3793593824
1400291600.0 -0.9178028432 0.3924405251
1450291300.0 -0.91222375 0.4049766348
1500291000.0 -0.9062088655 0.4184449526
1550290700.0 -0.8996559245 0.431647888
1600290400.0 -0.8931987421 0.4445838074
1650290100.0 -0.8866264191 0.4567473551
1700289800.0 -0.879582261 0.4699249072
1750289500.0 -0.8726443851 0.4825761923
1800289200.0 -0.8654629879 0.4952986754
1850288900.0 -0.8586410477 0.5067340059
1900288600.0 -0.850769134 0.5195160973
1950288300.0 -0.8426160366 0.5320886707
2000288000.0 -0.8350528125 0.5436409331
2050287700.0 -0.8268535336 0.5558666711
2100287400.0 -0.818934647 0.567639546
2150287100.0 -0.8102669783 0.5797870382
2200286800.0 -0.8026857887 0.5900109549
2250286500.0 -0.793630546 0.6020843973
2300286200.0 -0.7847191443 0.6136250324
2350285900.0 -0.7759978598 0.6247257911
2400285600.0 -0.7669970751 0.6354535339
2450285300.0 -0.7584667832 0.6460535509
2500285000.0 -0.7486783232 0.6573966477
2550284700.0 -0.7397617075 0.6676447844
2600284400.0 -0.7303551014 0.6778163956
2650284100.0 -0.7216136473 0.6885318266
2700283800.0 -0.7108128699 0.6990235597
2750283500.0 -0.7003219601 0.7092706084
2800283200.0 -0.6905465981 0.7190561626
2850282900.0 -0.6805835891 0.7290978062
2900282600.0 -0.6703531385 0.7385616869
2950282300.0 -0.6599830629 0.7479016066
3000282000.0 -0.6492590742 0.7574227158
3050281700.0 -0.638029224 0.7665094848
3100281400.0 -0.6261358707 0.7759838803
3150281100.0 -0.6143043456 0.7852685142
3200280800.0 -0.6025590769 0.7938647778
3250280500.0 -0.5918992467 0.8013549851
3300280200.0 -0.5807312585 0.8092628183
3350279900.0 -0.5691499133 0.8167331661
3400279600.0 -0.5570164215 0.8244503275
3450279300.0 -0.5457991554 0.8314340328
3500279000.0 -0.5338396712 0.8385924555
3550278700.0 -0.5215101462 0.8459602194
3600278400.0 -0.5088726149 0.8533077043
3650278100.0 -0.4961374849 0.8610003388
3700277800.0 -0.4837976039 0.867397115
3750277500.0 -0.4716305989 0.8739379489
3800277200.0 -0.4590626377 0.880358978
3850276900.0 -0.4469410801 0.8862415089
3900276600.0 -0.4359572342 0.891882583
3950276300.0 -0.4236626634 0.8980892572
4000276000.0 -0.4116638566 0.904147223
4050275700.0 -0.3986057933 0.910013135
4100275400.0 -0.3875129492 0.9151908821
4150275100.0 -0.3748322519 0.920992679
4200274800.0 -0.3619248967 0.9263475591
4250274500.0 -0.3498007823 0.931632916
4300274200.0 -0.3366601344 0.9367559954
4350273900.0 -0.3229016416 0.9419385152
4400273600.0 -0.3079785898 0.94760281
4450273300.0 -0.2924288752 0.9526762863
4500273000.0 -0.2787837126 0.9570207935
4550272700.0 -0.2646677626 0.9612584855
4600272400.0 -0.2490901481 0.9653397964
4650272100.0 -0.2374300751 0.9685166254
4700271800.0 -0.2241721915 0.9718361734
4750271500.0 -0.2125006826 0.9747006659
4800271200.0 -0.2000163989 0.9773813708
4850270900.0 -0.1861087954 0.9803228706
4900270600.0 -0.1720859658 0.9826925955
4950270300.0 -0.1579186244 0.9851898621
5000270000.0 -0.1439280623 0.9871906374
5050269700.0 -0.1302219253 0.9887514073
5100269400.0 -0.1165346077 0.9905333253
5150269100.0 -0.1033880216 0.9920063861
5200268800.0 -0.0901760504 0.9930128534
5250268500.0 -0.0770236945 0.9942890522
5300268200.0 -0.063853778 0.9948328635
5350267900.0 -0.0515955686 0.9952293795
5400267600.0 -0.0355821366 0.9966498218
5450267300.0 -0.0224834013 0.9969586411
5500267000.0 -0.0073733528 0.9970647872
5550266700.0 0.0078040275 0.9973992428
5600266400.0 0.023341134 0.9970409082
5650266100.0 0.0398027721 0.9970306985
5700265800.0 0.0541347492 0.996097144
5750265500.0 0.0693864649 0.9952307836
5800265200.0 0.0834685776 0.9941014674
5850264900.0 0.0969899528 0.9935077197
5900264600.0 0.1131406218 0.9912328399
5950264300.0 0.1258946644 0.9899992456
6000264000.0 0.1397274657 0.9883245698
6050263700.0 0.1518961841 0.9867361329
6100263400.0 0.1645107112 0.9848292505
6150263100.0 0.1789059483 0.9823883949
6200262800.0 0.1894394575 0.9807958258
6250262500.0 0.2019969203 0.9780735406
6300262200.0 0.2148973423 0.9752202263
6350261900.0 0.2278959994 0.9723621083
6400261600.0 0.241798925 0.9691890433
6450261300.0 0.2532642613 0.9664346704
6500261000.0 0.2660274901 0.962943556
6550260700.0 0.2788704916 0.9588384537
6600260400.0 0.2923030917 0.9547830077
6650260100.0 0.3061731987 0.9506710549
6700259800.0 0.3184401389 0.9463832702
6750259500.0 0.3319556079 0.941390051
6800259200.0 0.3450409197 0.9362402809
6850258900.0 0.3570401151 0.9310661877
6900258600.0 0.3692691766 0.9261652989
6950258300.0 0.3816717855 0.9209168874
7000258000.0 0.3938251727 0.9153986452
7050257700.0 0.406117946 0.9094931618
7100257400.0 0.4188528624 0.9029185909
7150257100.0 0.4290892122 0.8980342845
7200256800.0 0.4418149854 0.8915380611
7250256500.0 0.4536767448 0.8849010777
7300256200.0 0.4665647851 0.8781904722
7350255900.0 0.4794269287 0.8714780908
7400255600.0 0.4923068014 0.8641679821
7450255300.0 0.5076671108 0.8552786216
7500255000.0 0.5192245946 0.8482532024
7550254700.0 0.5330897547 0.8398602864
7600254400.0 0.5464085183 0.8311372912
7650254100.0 0.5572969966 0.823459346
7700253800.0 0.5691629355 0.8153567875
7750253500.0 0.580450072 0.8074590705
7800253200.0 0.5912616751 0.8001073392
7850252900.0 0.600807932 0.7930061982
7900252600.0 0.6125762513 0.7840845427
7950252300.0 0.6213918986 0.7774853047
8000252000.0 0.6315909353 0.7697486577
8050251700.0 0.6419429891 0.761546057
8100251400.0 0.6521492597 0.7532164771
8150251100.0 0.6623830038 0.7445991651
8200250800.0 0.671929169 0.7366900797
8250250500.0 0.6802453112 0.7285622439
8300250200.0 0.6894593817 0.7200582056
8350249900.0 0.6990922969 0.7113650327
8400249600.0 0.7070719762 0.7034940792
8450249300.0 0.7161858938 0.6941751598
8500249000.0 0.7248917947 0.6853889004
8550248700.0 0.7331501319 0.676428708
8600248400.0 0.7415095526 0.6670323403
8650248100.0 0.7490855581 0.6575455106
8700247800.0 0.7588418439 0.6461245453
8750247500.0 0.7671043894 0.6360985388
8800247200.0 0.7750999896 0.6259219863
8850246900.0 0.783948811 0.6144427226
8900246600.0 0.7921882712 0.60300266
8950246300.0 0.8018404555 0.5903124146
9000246000.0 0.8113099879 0.5772822386
9050245700.0 0.8204000043 0.5642869875
9100245400.0 0.8289678976 0.5518811872
9150245100.0 0.8384546467 0.5379231853
9200244800.0 0.8485977692 0.5225188295
9250244500.0 0.8578939237 0.5067986632
9300244200.0 0.8663152157 0.4922525045
9350243900.0 0.8740419387 0.4783297683
9400243600.0 0.8805334424 0.4658128285
9450243300.0 0.8863987157 0.4542908595
9500243000.0 0.8927822434 0.4421406599
9550242700.0 0.8964997164 0.4345917878
9600242400.0 0.9002072593 0.4271972395
9650242100.0 0.9038310071 0.4208382649
9700241800.0 0.9083309085 0.4123923014
9750241500.0 0.9123662956 0.4050636476
9800241200.0 0.917036524 0.3959024701
9850240900.0 0.9224035074 0.3843700089
9900240600.0 0.9282900038 0.3725007654
9950240300.0 0.9349200783 0.3563189503
10000240000.0 0.9397680233 0.344630909
10050239700.0 0.9451442072 0.3293733881
10100239400.0 0.9498698976 0.313975983
10150239100.0 0.9544028578 0.2992637712
10200238800.0 0.9584424382 0.2844114923
10250238500.0 0.9618905088 0.2710532788
10300238200.0 0.9649712331 0.2571779254
10350237900.0 0.9675400397 0.2441760106
10400237600.0 0.9701597458 0.2308698957
10450237300.0 0.9727882073 0.2171599425
10500237000.0 0.9749686169 0.2051603256
10550236700.0 0.9771818848 0.1911436654
10600236400.0 0.979164994 0.1776179272
10650236100.0 0.9813867574 0.1629161974
10700235800.0 0.9833932127 0.151045711
10750235500.0 0.985462153 0.1379820855
10800235200.0 0.9879381882 0.1232893019
10850234900.0 0.9898280636 0.1088350652
10900234600.0 0.991715924 0.0944010597
10950234300.0 0.9936495358 0.0811340275
11000234000.0 0.9951671932 0.066054291
11050233700.0 0.9969177002 0.0495921797
11100233400.0 0.998368037 0.0322433719
11150233100.0 0.99962323 0.0155976597
11200232800.0 1.000084416 0.0007308946
11250232500.0 1.00127633 -0.0164982507
11300232200.0 1.001955209 -0.0342377156
11350231900.0 1.001479962 -0.049518905
11400231600.0 1.001317813 -0.0651089775
11450231300.0 1.000891657 -0.0808589591
11500231000.0 0.9999522363 -0.0974596704
11550230700.0 0.9982499549 -0.1099746896
11600230400.0 0.9966205607 -0.1240855387
11650230100.0 0.9949425795 -0.1342201506
11700229800.0 0.9928476262 -0.149975869
11750229500.0 0.9905382456 -0.1638906403
11800229200.0 0.9875945693 -0.177950129
11850228900.0 0.984137908 -0.1902008768
11900228600.0 0.980763844 -0.19992984
11950228300.0 0.9771353359 -0.2103207546
12000228000.0 0.9747707404 -0.2189873446
12050227700.0 0.9710688574 -0.2320793266
12100227400.0 0.9682946513 -0.2423839
12150227100.0 0.9627602158 -0.2593221547
12200226800.0 0.9595023828 -0.2699944081
12250226500.0 0.9549867409 -0.2841017448
12300226200.0 0.9513085046 -0.2955570579
12350225900.0 0.9463124369 -0.3094254029
12400225600.0 0.9417866883 -0.3224286504
12450225300.0 0.9373506472 -0.3342983534
12500225000.0 0.9318275487 -0.3495312579
12550224700.0 0.9266340908 -0.3631148739
12600224400.0 0.9216936482 -0.3757188245
12650224100.0 0.9159351623 -0.3901689641
12700223800.0 0.9106023451 -0.4030267635
12750223500.0 0.9052928424 -0.4158948281
12800223200.0 0.8995275472 -0.4284502309
12850222900.0 0.8944749025 -0.4406513968
12900222600.0 0.8887351584 -0.4528189381
12950222300.0 0.8823103388 -0.4657468421
13000222000.0 0.8763447811 -0.4767603102
13050221700.0 0.8701969636 -0.4897719041
13100221400.0 0.8631788885 -0.5014977307
13150221100.0 0.8562497389 -0.5137724808
13200220800.0 0.8491857152 -0.525515412
13250220500.0 0.8418435789 -0.5380040718
13300220200.0 0.8343548145 -0.5485224899
13350219900.0 0.826253593 -0.5607935071
13400219600.0 0.8178642425 -0.5728084307
13450219300.0 0.808448554 -0.5863925448
13500219000.0 0.7979633979 -0.6007939058
13550218700.0 0.7874786228 -0.6136863108
13600218400.0 0.7773737173 -0.625329164
13650218100.0 0.7673905661 -0.6372509747
13700217800.0 0.7571807342 -0.6484726081
13750217500.0 0.7461789814 -0.6606248757
13800217200.0 0.7355371889 -0.6723238698
13850216900.0 0.7250715843 -0.6826410037
13900216600.0 0.7151423531 -0.6924809367
13950216300.0 0.7037861149 -0.7028236242
14000216000.0 0.6939439754 -0.7120880459
14050215700.0 0.6845006783 -0.7200469816
14100215400.0 0.6744151876 -0.7291742011
14150215100.0 0.6654643491 -0.7374536943
14200214800.0 0.6559958007 -0.7463243891
14250214500.0 0.6457241797 -0.755419626
14300214200.0 0.635434499 -0.7646018857
14350213900.0 0.6247352429 -0.7741429292
14400213600.0 0.6124964383 -0.7840470744
14450213300.0 0.5993619662 -0.7941115659
14500213000.0 0.5860527903 -0.8037177856
14550212700.0 0.5736583695 -0.8135471119
14600212400.0 0.5614696979 -0.8219744394
14650212100.0 0.5480570301 -0.8308729424
14700211800.0 0.5339554145 -0.8408108745
14750211500.0 0.5222629325 -0.8483346072
14800211200.0 0.5098385859 -0.8568587611
14850210900.0 0.4978253275 -0.8640061279
14900210600.0 0.4842422313 -0.8719788876
14950210300.0 0.4710678033 -0.8797104312
15000210000.0 0.4581106602 -0.8864590504
15050209700.0 0.4454979859 -0.8928366273
15100209400.0 0.4329098971 -0.8987854495
15150209100.0 0.4201750746 -0.9037800321
15200208800.0 0.408233591 -0.9094675052
15250208500.0 0.3964293011 -0.9146085509
15300208200.0 0.3843586171 -0.918777576
15350207900.0 0.3712376931 -0.9234159397
15400207600.0 0.3567760092 -0.928863893
15450207300.0 0.3415886319 -0.9339204586
15500207000.0 0.3269559652 -0.9378555242
15550206700.0 0.3124160619 -0.9431405387
15600206400.0 0.295821875 -0.9480615616
15650206100.0 0.2803324996 -0.9522741618
15700205800.0 0.2664463888 -0.955769943
15750205500.0 0.2519614864 -0.9592790571
15800205200.0 0.237756952 -0.9626827614
15850204900.0 0.2231927197 -0.9659893538
15900204600.0 0.2080541301 -0.9694467411
15950204300.0 0.194113903 -0.9726316084
16000204000.0 0.179875738 -0.9753810562
16050203700.0 0.1650074821 -0.9786389334
16100203400.0 0.1510078971 -0.9802779878
16150203100.0 0.1364252707 -0.9824810417
16200202800.0 0.1220681763 -0.9846842748
16250202500.0 0.1077737841 -0.9865821288
16300202200.0 0.0923568878 -0.9875868729
16350201900.0 0.0774092705 -0.9888635068
16400201600.0 0.0629227575 -0.9901366053
16450201300.0 0.0476320702 -0.9912945142
16500201000.0 0.0310668883 -0.9919314156
16550200700.0 0.0154144165 -0.9924347633
16600200400.0 -0.0004973306 -0.9926350988
16650200100.0 -0.0166864855 -0.9924631534
16700199800.0 -0.0329704249 -0.9923925145
16750199500.0 -0.051912181 -0.9918901417
16800199200.0 -0.0678245034 -0.9909425051
16850198900.0 -0.0829007475 -0.9895715297
16900198600.0 -0.09706733 -0.9881939853
16950198300.0 -0.1103825724 -0.9877753041
17000198000.0 -0.1230444153 -0.9852127153
17050197700.0 -0.1363210153 -0.9837663683
17100197400.0 -0.1485682995 -0.9821717
17150197100.0 -0.1615282115 -0.9797900851
17200196800.0 -0.1736972997 -0.9778399817
17250196500.0 -0.1871180567 -0.9754087494
17300196200.0 -0.1991600229 -0.9730061284
17350195900.0 -0.2108710189 -0.9707634555
17400195600.0 -0.2230933294 -0.9683574028
17450195300.0 -0.2362370921 -0.9653739006
17500195000.0 -0.2496382662 -0.9620222599
17550194700.0 -0.2635577992 -0.9585076253
17600194400.0 -0.2774163837 -0.9542548065
17650194100.0 -0.2909598669 -0.9501616469
17700193800.0 -0.3038598166 -0.9457499429
17750193500.0 -0.3185657443 -0.9415361321
17800193200.0 -0.3327168179 -0.9361182817
17850192900.0 -0.3482281262 -0.9311061033
17900192600.0 -0.3631674536 -0.9244094069
17950192300.0 -0.3783282577 -0.9176285457
18000192000.0 -0.3930935832 -0.9105620519
18050191700.0 -0.4071932276 -0.9024040309
18100191400.0 -0.4213769273 -0.89470651
18150191100.0 -0.4361840682 -0.886595756
18200190800.0 -0.4533242763 -0.8773109724
18250190500.0 -0.4702835668 -0.8677622031
18300190200.0 -0.4855409701 -0.8589059796
18350189900.0 -0.5006597954 -0.850653201
18400189600.0 -0.5153726808 -0.8423481816
18450189300.0 -0.5284963478 -0.8340607454
18500189000.0 -0.5413444031 -0.8266867373
18550188700.0 -0.5544964931 -0.81906599
18600188400.0 -0.5663353003 -0.8118841577
18650188100.0 -0.5770808815 -0.8056554882
18700187800.0 -0.5879832383 -0.7989748058
18750187500.0 -0.5983928097 -0.7923770099
18800187200.0 -0.6089703527 -0.7853755436
18850186900.0 -0.6191359062 -0.7784943062
18900186600.0 -0.6294249639 -0.7711623268
18950186300.0 -0.6395147393 -0.7634334319
19000186000.0 -0.6467047697 -0.7570965581
19050185700.0 -0.6558770403 -0.7501364912
19100185400.0 -0.666105417 -0.7412623885
19150185100.0 -0.6764140976 -0.7328621579
19200184800.0 -0.6852990875 -0.7245016154
19250184500.0 -0.6956439092 -0.7156343382
19300184200.0 -0.707187241 -0.7060323178
19350183900.0 -0.7176628873 -0.6952972369
19400183600.0 -0.7275306678 -0.6861210605
19450183300.0 -0.7362006428 -0.6758904068
19500183000.0 -0.7442571098 -0.665956059
19550182700.0 -0.7542655563 -0.6551431859
19600182400.0 -0.764744159 -0.6437621882
19650182100.0 -0.7758557202 -0.6313720633
19700181800.0 -0.7864747687 -0.6179783857
19750181500.0 -0.7970752363 -0.6038541817
19800181200.0 -0.8073345245 -0.5889516443
19850180900.0 -0.816918797 -0.5735498829
19900180600.0 -0.8247209946 -0.5591189545
19950180300.0 -0.8336437173 -0.5425688178
20000180000.0 -0.8274306067 -0.5447473797
20050179700.0 -0.8347376344 -0.5315537873
20100179400.0 -0.8438125594 -0.5185523937
20150179100.0 -0.8515895613 -0.505342375
20200178800.0 -0.8602915102 -0.4932949868
20250178500.0 -0.8700504829 -0.4797547609
20300178200.0 -0.8790428711 -0.4650259251
20350177900.0 -0.8886502705 -0.4506011445
20400177600.0 -0.8972157601 -0.43623614
20450177300.0 -0.9055976494 -0.4216291733
20500177000.0 -0.913583971 -0.4076527689
20550176700.0 -0.9215885182 -0.3941330232
20600176400.0 -0.928470348 -0.3811028549
20650176100.0 -0.9352880204 -0.3683843876
20700175800.0 -0.9417867616 -0.3569241144
20750175500.0 -0.9482663755 -0.345158619
20800175200.0 -0.9527616481 -0.3345929574
20850174900.0 -0.9575295339 -0.3231347057
20900174600.0 -0.9630210944 -0.3116154901
20950174300.0 -0.9658326953 -0.2999410399
21000174000.0 -0.9691987838 -0.2880163884
21050173700.0 -0.9722551144 -0.2774560278
21100173400.0 -0.9765534866 -0.2653784119
21150173100.0 -0.9808432251 -0.2530027713
21200172800.0 -0.9844484038 -0.2392190506
21250172500.0 -0.9874334771 -0.2249704527
21300172200.0 -0.9905053487 -0.2113033309
21350171900.0 -0.9918683725 -0.1966204005
21400171600.0 -0.9931552861 -0.1825104755
21450171300.0 -0.9931594132 -0.1676651539
21500171000.0 -0.9939601954 -0.153211559
21550170700.0 -0.9937312507 -0.1373775327
21600170400.0 -0.9933036529 -0.1216237582
21650170100.0 -0.9920038092 -0.1062093387
21700169800.0 -0.9896422889 -0.0906552056
21750169500.0 -0.9891276682 -0.0747854282
21800169200.0 -0.9876417298 -0.0580145336
21850168900.0 -0.9865854101 -0.0421520765
21900168600.0 -0.9855495656 -0.0252837912
21950168300.0 -0.9840265334 -0.0094225032
22000168000.0 -0.9830445069 0.0053771012
22050167700.0 -0.9828701357 0.0191149367
22100167400.0 -0.9828137414 0.0344655398
22150167100.0 -0.98336447 0.0499444795
22200166800.0 -0.9836889423 0.065793516
22250166500.0 -0.9827474188 0.0833290625
22300166200.0 -0.9823695333 0.100858532
22350165900.0 -0.9806261373 0.1168037251
22400165600.0 -0.9783939238 0.1329972527
22450165300.0 -0.977347506 0.1474905865
22500165000.0 -0.9763525862 0.1603296276
22550164700.0 -0.9744720203 0.1767129812
22600164400.0 -0.9725654799 0.1920771573
22650164100.0 -0.9704805005 0.2071162634
22700163800.0 -0.9679897638 0.2230367721
22750163500.0 -0.9651785603 0.2383648505
22800163200.0 -0.9623114007 0.2511189342
22850162900.0 -0.9601413403 0.264445868
22900162600.0 -0.9587838101 0.2779467245
22950162300.0 -0.957646024 0.2906819598
23000162000.0 -0.9567838773 0.3022426521
23050161700.0 -0.9547584577 0.314914668
23100161400.0 -0.9524879963 0.3273608025
23150161100.0 -0.9501716371 0.3402971904
23200160800.0 -0.9472115734 0.3520162983
23250160500.0 -0.9440204779 0.3644507039
23300160200.0 -0.9414347842 0.376165958
23350159900.0 -0.9370760938 0.3886878736
23400159600.0 -0.9334477009 0.4029066135
23450159300.0 -0.928366529 0.4152190947
23500159000.0 -0.9236241321 0.4283414316
23550158700.0 -0.9194061339 0.4417023016
23600158400.0 -0.9138794714 0.4546569835
23650158100.0 -0.9075009906 0.4686342714
23700157800.0 -0.899828054 0.4823756442
23750157500.0 -0.8915139593 0.4963755838
23800157200.0 -0.8828085414 0.5096103254
23850156900.0 -0.8737557859 0.5224817898
23900156600.0 -0.8644859331 0.5350700724
23950156300.0 -0.8547018053 0.5471507223
24000156000.0 -0.8453582312 0.5591698988
24050155700.0 -0.8362783797 0.5711082822
24100155400.0 -0.8264449394 0.5834187028
24150155100.0 -0.8144975867 0.5944823153
24200154800.0 -0.8042601167 0.6056793825
24250154500.0 -0.7924992074 0.6178157944
24300154200.0 -0.7815000154 0.6288941364
24350153900.0 -0.7695603201 0.6399435994
24400153600.0 -0.7573699861 0.6499472492
24450153300.0 -0.7456693295 0.6600488596
24500153000.0 -0.7337270685 0.6695877921
24550152700.0 -0.7227049698 0.6794422877
24600152400.0 -0.7107465786 0.6882709317
24650152100.0 -0.6997980307 0.6963891811
