!Created with skrf (http://scikit-rf.org).
# Hz S RI R 50.0 
!freq ReS11 ImS11
300000.0 -0.9751948306 -0.1190984952
50299700.0 -0.9999933953 0.0154599004
100299400.0 -0.99806374 0.0282355259
150299100.0 -1.002968889 0.0451139657
200298800.0 -0.9996876777 0.0585175804
250298500.0 -0.9974362918 0.0719501312
300298200.0 -0.9860470958 0.0878891247
350297900.0 -0.9939931822 0.0987162429
400297600.0 -0.993253939 0.1151725879
450297300.0 -0.9912246647 0.1291259259
500297000.0 -0.9895662878 0.14404281
550296700.0 -0.9842864739 0.1560985753
600296400.0 -1.017376924 0.1897900719
650296100.0 -0.9821419015 0.1862429092
700295800.0 -0.9793702568 0.2005549159
750295500.0 -0.9764395823 0.2146230625
800295200.0 -0.9731075461 0.2287297357
850294900.0 -0.9696356807 0.2424889346
900294600.0 -0.9657087478 0.2561357523
950294300.0 -0.9621047777 0.2698215389
1000294000.0 -0.9580693907 0.2838836355
1050293700.0 -0.9537358488 0.2975326816
1100293400.0 -0.9493849222 0.3122143339
1150293100.0 -0.9455586569 0.324039157
1200292800.0 -0.940169171 0.3383071123
1250292500.0 -0.934662538 0.3516124855
1300292200.0 -0.929072231 0.3648018289
1350291900.0 -0.9233761907 0.3790859108
1400291600.0 -0.9178769076 0.3919862737
1450291300.0 -0.9124694243 0.4045510593
1500291000.0 -0.9061944456 0.4179245003
1550290700.0 -0.8996009581 0.4311796566
1600290400.0 -0.893299624 0.4440152864
1650290100.0 -0.8866365291 0.4561580357
1700289800.0 -0.8798154456 0.4695200474
1750289500.0 -0.8727366994 0.4818091011
1800289200.0 -0.8654688425 0.494858663
1850288900.0 -0.858636003 0.5061611244
1900288600.0 -0.8511703032 0.5193247198
1950288300.0 -0.8428329579 0.5316609635
2000288000.0 -0.8353794307 0.5432361161
2050287700.0 -0.8272711829 0.5553854348
2100287400.0 -0.819149744 0.5671238691
2150287100.0 -0.8106667577 0.5791155748
2200286800.0 -0.8027739615 0.5895873367
2250286500.0 -0.7940048305 0.6014442046
2300286200.0 -0.7852890875 0.6129820012
2350285900.0 -0.7765079232 0.6242570014
2400285600.0 -0.767494413 0.6353750181
2450285300.0 -0.7590020869 0.6456699877
2500285000.0 -0.7490759976 0.656804701
2550284700.0 -0.7404312719 0.6671414683
2600284400.0 -0.7308669332 0.6772262948
2650284100.0 -0.7216751979 0.6876397133
2700283800.0 -0.7113750415 0.6982107695
2750283500.0 -0.7009846307 0.7088990862
2800283200.0 -0.6911774597 0.718562254
2850282900.0 -0.6810942176 0.7286499666
2900282600.0 -0.6707360952 0.7384847427
2950282300.0 -0.6603951523 0.7473362236
3000282000.0 -0.6497210072 0.756737971
3050281700.0 -0.6384116238 0.7661896629
3100281400.0 -0.6264966675 0.7755460629
3150281100.0 -0.6148922238 0.7849152434
3200280800.0 -0.6031819861 0.7933207388
3250280500.0 -0.5922947615 0.800966412
3300280200.0 -0.5809484394 0.8088646629
3350279900.0 -0.5693652555 0.8163168087
3400279600.0 -0.5574001399 0.8242298182
3450279300.0 -0.5462868172 0.8314044358
3500279000.0 -0.5341497469 0.8382934129
3550278700.0 -0.521943777 0.8456902749
3600278400.0 -0.50963029 0.8528570829
3650278100.0 -0.4964547084 0.8606887362
3700277800.0 -0.4844248984 0.8669477383
3750277500.0 -0.4720759689 0.8733540082
3800277200.0 -0.4597065483 0.8801198429
3850276900.0 -0.4476879047 0.8859589593
3900276600.0 -0.4365241749 0.8916950098
3950276300.0 -0.4243006933 0.8974250005
4000276000.0 -0.4124546469 0.9036372894
4050275700.0 -0.3994818548 0.9097619657
4100275400.0 -0.3882542701 0.9151464321
4150275100.0 -0.3756019207 0.9206759659
4200274800.0 -0.3624144755 0.9264057358
4250274500.0 -0.3502635669 0.931584222
4300274200.0 -0.3376741633 0.9365991541
4350273900.0 -0.3233582475 0.9418273717
4400273600.0 -0.3086613683 0.9471323432
4450273300.0 -0.2932757746 0.9522181696
4500273000.0 -0.2797584854 0.9566981811
4550272700.0 -0.265613922 0.9608210956
4600272400.0 -0.2501840659 0.9651196471
4650272100.0 -0.2383092095 0.9683810085
4700271800.0 -0.2252407583 0.9717824949
4750271500.0 -0.2133760262 0.9746272228
4800271200.0 -0.2010290704 0.9772053402
4850270900.0 -0.1871214175 0.9800336346
4900270600.0 -0.1732360699 0.9823368866
4950270300.0 -0.1590475693 0.9849141304
5000270000.0 -0.1446144847 0.9873198754
5050269700.0 -0.1311068275 0.9885521577
5100269400.0 -0.1174209108 0.9905473939
5150269100.0 -0.1042560906 0.9919388152
5200268800.0 -0.0908011582 0.9930850494
5250268500.0 -0.0775608519 0.9938172238
5300268200.0 -0.0644712225 0.9946684301
5350267900.0 -0.0523549708 0.9955005789
5400267600.0 -0.0359478363 0.996169484
5450267300.0 -0.0231170857 0.9965541846
5500267000.0 -0.0078508842 0.9970407926
5550266700.0 0.0071715002 0.9972763379
5600266400.0 0.0225546055 0.9972349383
5650266100.0 0.0392501081 0.9970270417
5700265800.0 0.0536908153 0.9962461982
5750265500.0 0.0688958439 0.9957227147
5800265200.0 0.0826163611 0.9943387692
5850264900.0 0.0961498279 0.9932520918
5900264600.0 0.1124966667 0.9917730253
5950264300.0 0.1246084288 0.9898205075
6000264000.0 0.1388780128 0.9882819812
6050263700.0 0.150947726 0.9869900689
6100263400.0 0.163411009 0.9849631322
6150263100.0 0.1779769711 0.982635396
6200262800.0 0.1882656298 0.980831445
6250262500.0 0.2010963092 0.9784572973
6300262200.0 0.2137376201 0.9757011132
6350261900.0 0.2267770809 0.97288491
6400261600.0 0.2406736171 0.96954849
6450261300.0 0.2521125759 0.9666760263
6500261000.0 0.2651149705 0.9632174977
6550260700.0 0.2780773625 0.959465808
6600260400.0 0.2913769513 0.9553523232
6650260100.0 0.3050669478 0.950948541
6700259800.0 0.3171152967 0.9466697978
6750259500.0 0.3312465783 0.9417639363
6800259200.0 0.3440346364 0.9364609905
6850258900.0 0.3562297451 0.9314918313
6900258600.0 0.368239877 0.926334448
6950258300.0 0.3809714268 0.9210880436
7000258000.0 0.3928042566 0.9158342948
7050257700.0 0.4051385055 0.909728025
7100257400.0 0.4178702636 0.9034855682
7150257100.0 0.4281250515 0.8981784323
7200256800.0 0.4412087822 0.8919454364
7250256500.0 0.4526365086 0.8853555922
7300256200.0 0.4659912369 0.8786872755
7350255900.0 0.4780423361 0.8714806652
7400255600.0 0.4920802303 0.8645916924
7450255300.0 0.5068583093 0.8555437342
7500255000.0 0.5189950413 0.8485179391
7550254700.0 0.5330018773 0.8400327391
7600254400.0 0.5457882919 0.8318182767
7650254100.0 0.5570021854 0.8237863703
7700253800.0 0.5687425674 0.8157964938
7750253500.0 0.5798259324 0.8082645841
7800253200.0 0.5905600603 0.8004644424
7850252900.0 0.6003562831 0.7934133882
7900252600.0 0.6119756142 0.7846344831
7950252300.0 0.6206818537 0.7779740057
8000252000.0 0.6310418205 0.7702963787
8050251700.0 0.641379802 0.76213411
8100251400.0 0.6514761623 0.7540224799
8150251100.0 0.6615273471 0.7454151903
8200250800.0 0.6708858673 0.7373416859
8250250500.0 0.679479204 0.7295056315
8300250200.0 0.6891748997 0.7208517006
8350249900.0 0.6985820363 0.7122218565
8400249600.0 0.7063434718 0.7040244924
8450249300.0 0.7155811766 0.694882644
8500249000.0 0.7242152907 0.6859878428
8550248700.0 0.7323634964 0.6769266196
8600248400.0 0.7408843064 0.667419885
8650248100.0 0.7487626172 0.6580911248
8700247800.0 0.7581697942 0.6467748155
8750247500.0 0.7665216225 0.636690444
8800247200.0 0.7744710801 0.626325559
8850246900.0 0.7835466793 0.6148559632
8900246600.0 0.7920181813 0.6035079836
8950246300.0 0.8016587038 0.5904403849
9000246000.0 0.810775433 0.5776959988
9050245700.0 0.8200018328 0.5648262867
9100245400.0 0.8284339644 0.5524499682
9150245100.0 0.8377529513 0.5389473439
9200244800.0 0.8471600672 0.5237662141
9250244500.0 0.856839383 0.5082917052
9300244200.0 0.865314589 0.4938387767
9350243900.0 0.8729256513 0.4798853783
9400243600.0 0.879761937 0.4674792091
9450243300.0 0.885493262 0.4561215288
9500243000.0 0.8917323675 0.4441732547
9550242700.0 0.8955367176 0.4363461163
9600242400.0 0.8995887692 0.428950892
9650242100.0 0.902987898 0.4224046
9700241800.0 0.9078443147 0.4141716603
9750241500.0 0.9118301288 0.4066705802
9800241200.0 0.9166343695 0.3974278845
9850240900.0 0.9219874434 0.3859739488
9900240600.0 0.927722609 0.3741429498
9950240300.0 0.9343368973 0.3582095906
10000240000.0 0.9392886681 0.3465594874
10050239700.0 0.9447674394 0.3314262369
10100239400.0 0.9497197685 0.3155803559
10150239100.0 0.9539091817 0.3009995287
10200238800.0 0.9582127372 0.2859223503
10250238500.0 0.9615688256 0.2726187286
10300238200.0 0.964726647 0.258806786
10350237900.0 0.9673651892 0.2453711036
10400237600.0 0.969721984 0.2323899841
10450237300.0 0.9723739063 0.2187768512
10500237000.0 0.97489154 0.2062371784
10550236700.0 0.9774366856 0.1916290225
10600236400.0 0.9791184323 0.1783797328
10650236100.0 0.9815090085 0.1639316213
10700235800.0 0.9834129444 0.1518895311
10750235500.0 0.9857967622 0.1386926418
10800235200.0 0.9876869671 0.1242938989
10850234900.0 0.9895553955 0.1095577711
10900234600.0 0.9916068122 0.0952531751
10950234300.0 0.9933930154 0.0818214011
11000234000.0 0.9953737426 0.0667907164
11050233700.0 0.997045603 0.0504495575
11100233400.0 0.9984935621 0.0331153841
11150233100.0 0.9994946897 0.0164888229
11200232800.0 1.000526395 0.0017968645
11250232500.0 1.000942818 -0.0151061274
11300232200.0 1.002150436 -0.0322325356
11350231900.0 1.001632439 -0.0484480962
11400231600.0 1.001504347 -0.0635620537
11450231300.0 1.001030492 -0.0794400901
11500231000.0 0.9995753125 -0.0959406069
11550230700.0 0.9983854221 -0.1096063705
11600230400.0 0.9971660941 -0.1220184877
11650230100.0 0.9956382671 -0.132873775
11700229800.0 0.9929303783 -0.148252992
11750229500.0 0.9910466649 -0.1621256363
11800229200.0 0.9884019538 -0.1763598933
11850228900.0 0.9844834352 -0.1886660625
11900228600.0 0.9808249241 -0.1987449211
11950228300.0 0.9778382392 -0.2089379595
12000228000.0 0.9753242859 -0.2175381407
12050227700.0 0.9712008995 -0.2307107916
12100227400.0 0.9683256708 -0.2417980056
12150227100.0 0.9633117682 -0.2580745311
12200226800.0 0.9594938885 -0.2692908308
12250226500.0 0.9556212215 -0.2815803212
12300226200.0 0.9513964522 -0.2943527258
12350225900.0 0.9462863751 -0.3089604916
12400225600.0 0.9421119202 -0.3214331339
12450225300.0 0.9376081492 -0.333925404
12500225000.0 0.9321440728 -0.3489550667
12550224700.0 0.926986654 -0.3626766249
12600224400.0 0.9219386761 -0.3752898396
12650224100.0 0.916247028 -0.389728187
12700223800.0 0.9108985959 -0.4025188519
12750223500.0 0.9055218296 -0.4153701454
12800223200.0 0.9003846241 -0.4280005243
12850222900.0 0.8947917371 -0.4401917584
12900222600.0 0.8894371624 -0.4522971229
12950222300.0 0.8827563728 -0.4654739128
13000222000.0 0.8768435562 -0.4769244287
13050221700.0 0.8701081226 -0.4893173925
13100221400.0 0.8635174183 -0.5011427221
13150221100.0 0.8565169098 -0.5136477495
13200220800.0 0.8494158093 -0.5247902872
13250220500.0 0.8422937607 -0.5372470037
13300220200.0 0.8348926692 -0.5479789442
13350219900.0 0.8267673552 -0.5600720596
13400219600.0 0.8185476124 -0.5719617519
13450219300.0 0.8090601449 -0.5855405637
13500219000.0 0.7988873113 -0.5994172882
13550218700.0 0.7891634076 -0.6119150675
13600218400.0 0.7786393468 -0.624350868
13650218100.0 0.7689288923 -0.6358922751
13700217800.0 0.7583163263 -0.6476732336
13750217500.0 0.7471597758 -0.6590106553
13800217200.0 0.7373074959 -0.6703106506
13850216900.0 0.7255822261 -0.682385763
13900216600.0 0.7157535356 -0.6908293251
13950216300.0 0.7054364564 -0.7006522139
14000216000.0 0.6950877962 -0.7110272419
14050215700.0 0.6859549483 -0.7190552985
14100215400.0 0.6757954596 -0.72803015
14150215100.0 0.6668165739 -0.7363230907
14200214800.0 0.6571618279 -0.7450574248
14250214500.0 0.6468803945 -0.7545175892
14300214200.0 0.6364067127 -0.7638754233
14350213900.0 0.6254781944 -0.7732825746
14400213600.0 0.613340633 -0.7832537965
14450213300.0 0.6007451344 -0.7934321799
14500213000.0 0.5873708133 -0.803250125
14550212700.0 0.5751606164 -0.8129721978
14600212400.0 0.5628218704 -0.8213174437
14650212100.0 0.5493992904 -0.8302418459
14700211800.0 0.5356478451 -0.839649991
14750211500.0 0.5236108801 -0.848383785
14800211200.0 0.5110624856 -0.8562903082
14850210900.0 0.4991550008 -0.8635037381
14900210600.0 0.4858946939 -0.8714613798
14950210300.0 0.4725101636 -0.8789938344
15000210000.0 0.459498202 -0.8859472686
15050209700.0 0.4475408598 -0.8919040786
15100209400.0 0.4348152582 -0.8978668167
15150209100.0 0.4223449723 -0.903423664
15200208800.0 0.4093558513 -0.9086467436
15250208500.0 0.3982810585 -0.9132860948
15300208200.0 0.3858205129 -0.9177781628
15350207900.0 0.3728023355 -0.9226027201
15400207600.0 0.3589871484 -0.9278211208
15450207300.0 0.3440578919 -0.932681522
15500207000.0 0.3290741117 -0.9374028767
15550206700.0 0.3147987246 -0.94311349
15600206400.0 0.2981184637 -0.9473941002
15650206100.0 0.282385634 -0.9514910405
15700205800.0 0.2687021247 -0.9551035713
15750205500.0 0.2540808949 -0.9586561241
15800205200.0 0.2398475817 -0.9621890208
15850204900.0 0.2253966906 -0.9656091083
15900204600.0 0.2103139717 -0.9692926512
15950204300.0 0.1960497899 -0.9720467827
16000204000.0 0.1820290031 -0.9753043429
16050203700.0 0.1671079293 -0.9781741845
16100203400.0 0.1526265987 -0.9802740148
16150203100.0 0.1382877266 -0.9819595558
16200202800.0 0.1242380129 -0.9844505177
16250202500.0 0.1093478187 -0.9859072102
16300202200.0 0.0936487806 -0.9881011673
16350201900.0 0.0792565159 -0.9893492745
16400201600.0 0.0642529332 -0.9902824479
16450201300.0 0.0491491287 -0.9914208908
16500201000.0 0.0324558636 -0.9921826161
16550200700.0 0.0166952559 -0.9926035612
16600200400.0 0.0008562452 -0.9926996121
16650200100.0 -0.0148797582 -0.9928964859
16700199800.0 -0.0314386854 -0.9923753148
16750199500.0 -0.049895046 -0.9920204236
16800199200.0 -0.0659687857 -0.9910621364
16850198900.0 -0.0806745209 -0.9894526397
16900198600.0 -0.094504209 -0.9889632034
16950198300.0 -0.1084587584 -0.9881086082
17000198000.0 -0.1213124226 -0.9857977205
17050197700.0 -0.1340594265 -0.9838268233
17100197400.0 -0.1463772559 -0.9826324377
17150197100.0 -0.1593162795 -0.9804189748
17200196800.0 -0.1726063623 -0.9781704679
17250196500.0 -0.1851320005 -0.9756275488
17300196200.0 -0.197662127 -0.9735241808
17350195900.0 -0.2093328853 -0.9711537437
17400195600.0 -0.2214825483 -0.9687619762
17450195300.0 -0.2345588281 -0.9659069699
17500195000.0 -0.2482003188 -0.9626998266
17550194700.0 -0.2617169903 -0.9589941556
17600194400.0 -0.2760677461 -0.9550696885
17650194100.0 -0.2892414342 -0.9506530552
17700193800.0 -0.3022088649 -0.9468129954
17750193500.0 -0.3167476478 -0.9419840535
17800193200.0 -0.3311925122 -0.9368315795
17850192900.0 -0.346437915 -0.9313879555
17900192600.0 -0.3617031899 -0.9255227932
17950192300.0 -0.3770791614 -0.9184095503
18000192000.0 -0.3918285967 -0.9108805594
18050191700.0 -0.4058742323 -0.9031885483
18100191400.0 -0.4200452662 -0.895464749
18150191100.0 -0.4350438728 -0.8874339039
18200190800.0 -0.4519283841 -0.8781210004
18250190500.0 -0.4688739839 -0.8685515757
18300190200.0 -0.484203636 -0.8603462309
18350189900.0 -0.49932377 -0.8514764113
18400189600.0 -0.513900454 -0.843112845
18450189300.0 -0.5272212064 -0.8354700582
18500189000.0 -0.5403266316 -0.8273224483
18550188700.0 -0.5529547758 -0.8199581114
18600188400.0 -0.565115012 -0.8131456901
18650188100.0 -0.5760577763 -0.8065953581
18700187800.0 -0.5865512627 -0.8001898247
18750187500.0 -0.5974206463 -0.7934907627
18800187200.0 -0.6080246519 -0.786502228
18850186900.0 -0.6180407632 -0.779788954
18900186600.0 -0.6283139706 -0.7722604019
18950186300.0 -0.6383191768 -0.7649407785
19000186000.0 -0.6458211228 -0.7586211565
19050185700.0 -0.6545192215 -0.7513526742
19100185400.0 -0.6644043349 -0.7434356642
19150185100.0 -0.6742348163 -0.7346945685
19200184800.0 -0.6842859917 -0.7262804134
19250184500.0 -0.6940714392 -0.7169102694
19300184200.0 -0.7063343809 -0.7076691028
19350183900.0 -0.7164114389 -0.6975755099
19400183600.0 -0.7265307072 -0.6880152061
19450183300.0 -0.7349126104 -0.6774223665
19500183000.0 -0.7436975349 -0.6680036356
19550182700.0 -0.7531846738 -0.6569920026
19600182400.0 -0.7636090622 -0.64551894
19650182100.0 -0.7745582466 -0.6331093321
19700181800.0 -0.7852331811 -0.619808252
19750181500.0 -0.79567868 -0.6055427635
19800181200.0 -0.8060132713 -0.5905588653
19850180900.0 -0.8157389278 -0.5754165909
19900180600.0 -0.82363176 -0.5608975985
19950180300.0 -0.8327450114 -0.5441912094
20000180000.0 -0.8247073072 -0.5470526248
20050179700.0 -0.8340790768 -0.5337162681
20100179400.0 -0.8424293508 -0.519549257
20150179100.0 -0.8511996494 -0.5074527487
20200178800.0 -0.8600881046 -0.4947418185
20250178500.0 -0.8688364206 -0.4817291569
20300178200.0 -0.8785587697 -0.466684114
20350177900.0 -0.8878555554 -0.4526195155
20400177600.0 -0.8964036461 -0.4380964322
20450177300.0 -0.9047941107 -0.4233918202
20500177000.0 -0.9127716443 -0.4097358388
20550176700.0 -0.9206445065 -0.3961980917
20600176400.0 -0.9276871763 -0.3830372294
20650176100.0 -0.9341312026 -0.3707851403
20700175800.0 -0.9411307149 -0.3588899737
20750175500.0 -0.9471532503 -0.3477324559
20800175200.0 -0.9519772368 -0.3365190423
20850174900.0 -0.9572209196 -0.3254344854
20900174600.0 -0.9621410576 -0.3145597594
20950174300.0 -0.9655027585 -0.3025645382
21000174000.0 -0.9687165817 -0.2913214878
21050173700.0 -0.971643301 -0.2804982351
21100173400.0 -0.9761966121 -0.2688476212
21150173100.0 -0.979894568 -0.2559245319
21200172800.0 -0.9827886441 -0.2426938515
21250172500.0 -0.9865064911 -0.2284694006
21300172200.0 -0.9892826948 -0.2150738888
21350171900.0 -0.9907965359 -0.2002080234
21400171600.0 -0.9919282408 -0.1852371449
21450171300.0 -0.991675127 -0.1714552543
21500171000.0 -0.993423533 -0.1565223937
21550170700.0 -0.9929806874 -0.1409955312
21600170400.0 -0.992377181 -0.1252164085
21650170100.0 -0.9918713308 -0.1088987493
21700169800.0 -0.9904797245 -0.0948841356
21750169500.0 -0.9894752512 -0.0780793808
21800169200.0 -0.9885319358 -0.0616067462
21850168900.0 -0.9875889773 -0.0447117263
21900168600.0 -0.9862696587 -0.028857838
21950168300.0 -0.9850447017 -0.0129781409
22000168000.0 -0.9845367244 0.0023284373
22050167700.0 -0.9836111472 0.0163186237
22100167400.0 -0.9835715399 0.0314959214
22150167100.0 -0.9842691809 0.0469658778
22200166800.0 -0.9852523904 0.0636169766
22250166500.0 -0.9847619903 0.0809506499
22300166200.0 -0.9839929413 0.0968131906
22350165900.0 -0.9825271849 0.1137630524
22400165600.0 -0.9802911971 0.1302257721
22450165300.0 -0.9791351506 0.1452918783
22500165000.0 -0.9769192048 0.1578969735
22550164700.0 -0.9769906145 0.1737396564
22600164400.0 -0.9742040032 0.1888405649
22650164100.0 -0.972140166 0.2037569256
22700163800.0 -0.9691147202 0.2196617986
22750163500.0 -0.9666741851 0.2351770262
22800163200.0 -0.9639176388 0.2479120168
22850162900.0 -0.9615351811 0.2615055306
22900162600.0 -0.9599628307 0.2750578995
22950162300.0 -0.9587874415 0.2874078102
23000162000.0 -0.95746469 0.2995656147
23050161700.0 -0.9556488833 0.3118130859
23100161400.0 -0.9532039438 0.325708948
23150161100.0 -0.9503978359 0.3374875519
23200160800.0 -0.9474653611 0.3496602277
23250160500.0 -0.9449723196 0.3616631711
23300160200.0 -0.9427187258 0.3737821687
23350159900.0 -0.9388127846 0.3867777584
23400159600.0 -0.9341511582 0.4004138873
23450159300.0 -0.9291741482 0.4134235215
23500159000.0 -0.9249399289 0.4263847116
23550158700.0 -0.9198045381 0.4398338218
23600158400.0 -0.9146432851 0.4530680435
23650158100.0 -0.9081800745 0.4669292996
23700157800.0 -0.9006180902 0.4813079239
23750157500.0 -0.8920449531 0.4949560384
23800157200.0 -0.8828072099 0.508375873
23850156900.0 -0.8745913753 0.5210401958
23900156600.0 -0.8652152485 0.533596298
23950156300.0 -0.8559110006 0.5466099286
24000156000.0 -0.846450589 0.5576999853
24050155700.0 -0.8369319698 0.5695563461
24100155400.0 -0.8267479153 0.5818951705
24150155100.0 -0.8161023374 0.5933044218
24200154800.0 -0.8049195642 0.6048308466
24250154500.0 -0.7937384106 0.6166534832
24300154200.0 -0.7826637783 0.6284501927
24350153900.0 -0.7711652509 0.6386888395
24400153600.0 -0.7584095525 0.6494487489
24450153300.0 -0.7466674829 0.6589744925
24500153000.0 -0.7352652744 0.6685629358
24550152700.0 -0.7242699875 0.6785543217
24600152400.0 -0.7125733345 0.687568032
24650152100.0 -0.7005067661 0.6958807037
