!Created with skrf (http://scikit-rf.org).
# Hz S RI R 50.0 
!freq ReS11 ImS11
300000.0 -0.9785284355 -0.1098473174
50299700.0 -1.000019602 0.015855804
100299400.0 -0.9980018799 0.0288200982
150299100.0 -1.002765695 0.0457601235
200298800.0 -0.9997074067 0.0590327883
250298500.0 -0.9974128503 0.072388669
300298200.0 -0.9861071252 0.0882497239
350297900.0 -0.994158851 0.0991037571
400297600.0 -0.9931827725 0.1157666171
450297300.0 -0.9909636978 0.1296044347
500297000.0 -0.989578918 0.1443184071
550296700.0 -0.9843747974 0.1568399123
600296400.0 -1.017244544 0.1902907183
650296100.0 -0.9822034242 0.1869167017
700295800.0 -0.9794941727 0.2012653658
750295500.0 -0.9761407455 0.2151705126
800295200.0 -0.9728465069 0.2292235393
850294900.0 -0.9694185372 0.2431575115
900294600.0 -0.9655025644 0.2571616507
950294300.0 -0.9619858079 0.270646101
1000294000.0 -0.9580558615 0.2843902561
1050293700.0 -0.9534554923 0.2983075154
1100293400.0 -0.9490668716 0.3128224754
1150293100.0 -0.9453267777 0.3245590652
1200292800.0 -0.9400291368 0.33891905
1250292500.0 -0.9345041549 0.35236125
1300292200.0 -0.9287953671 0.3655575876
1350291900.0 -0.9232648332 0.3794672197
1400291600.0 -0.917784361 0.3926290913
1450291300.0 -0.9123544488 0.4051404774
1500291000.0 -0.9060422119 0.4182714472
1550290700.0 -0.8993723253 0.4317694006
1600290400.0 -0.8933370608 0.4446632642
1650290100.0 -0.8865622089 0.4568062244
1700289800.0 -0.879619646 0.4701308097
1750289500.0 -0.8725552196 0.4824386943
1800289200.0 -0.8652652854 0.4953543848
1850288900.0 -0.858423134 0.5066696347
1900288600.0 -0.8505760024 0.5197203833
1950288300.0 -0.8425533665 0.5323209769
2000288000.0 -0.8349412921 0.5438195939
2050287700.0 -0.8268581084 0.5561516372
2100287400.0 -0.8187325888 0.5677289249
2150287100.0 -0.810266611 0.5798560386
2200286800.0 -0.8025583529 0.589916321
2250286500.0 -0.7937219505 0.6020896506
2300286200.0 -0.7849015105 0.6138313081
2350285900.0 -0.7759666597 0.6248785607
2400285600.0 -0.7668997041 0.6358775628
2450285300.0 -0.7582654764 0.6460409479
2500285000.0 -0.7486774423 0.6573131183
2550284700.0 -0.7396345461 0.6678584789
2600284400.0 -0.7304021677 0.6779866504
2650284100.0 -0.7212316426 0.688481313
2700283800.0 -0.7106690126 0.6989903328
2750283500.0 -0.7002074344 0.7095911197
2800283200.0 -0.6904917664 0.719511154
2850282900.0 -0.6802301132 0.7290474202
2900282600.0 -0.6700429091 0.7387393839
2950282300.0 -0.6598886939 0.7480264055
3000282000.0 -0.6491500198 0.7574893196
3050281700.0 -0.6378865072 0.7666678861
3100281400.0 -0.6260073273 0.7760221319
3150281100.0 -0.6143006351 0.7853481997
3200280800.0 -0.602576266 0.7938594847
3250280500.0 -0.5918004626 0.801539405
3300280200.0 -0.5808441207 0.8094620802
3350279900.0 -0.5690673923 0.8169461989
3400279600.0 -0.5570088321 0.8242777761
3450279300.0 -0.5458888083 0.8316266794
3500279000.0 -0.5340528779 0.8389197944
3550278700.0 -0.5214058279 0.8460166321
3600278400.0 -0.5090988766 0.8531975435
3650278100.0 -0.4959612391 0.8609272214
3700277800.0 -0.4839417702 0.8673432813
3750277500.0 -0.4713841251 0.8738074289
3800277200.0 -0.459112061 0.8804981103
3850276900.0 -0.4468296903 0.8861432599
3900276600.0 -0.4360408694 0.8920086699
3950276300.0 -0.4233942271 0.8980397631
4000276000.0 -0.4113761039 0.903891697
4050275700.0 -0.3984051884 0.9099274752
4100275400.0 -0.3872602883 0.9154823139
4150275100.0 -0.3747773752 0.9210700837
4200274800.0 -0.361759417 0.9266363081
4250274500.0 -0.3495271932 0.9317408932
4300274200.0 -0.3363233602 0.9369931732
4350273900.0 -0.3227404444 0.9422703266
4400273600.0 -0.307788487 0.9474812713
4450273300.0 -0.2924555491 0.9526289476
4500273000.0 -0.2787402205 0.9569429151
4550272700.0 -0.2645577328 0.9612306481
4600272400.0 -0.2490333114 0.9653757615
4650272100.0 -0.2373230836 0.9684641834
4700271800.0 -0.2240724985 0.9718129403
4750271500.0 -0.2123782362 0.9747531145
4800271200.0 -0.199959286 0.9774075156
4850270900.0 -0.1860416581 0.9803524037
4900270600.0 -0.1721246938 0.9826839916
4950270300.0 -0.1578639867 0.9852941089
5000270000.0 -0.1436504905 0.9871176078
5050269700.0 -0.1302281111 0.9888970571
5100269400.0 -0.11663819 0.990502484
5150269100.0 -0.1033967027 0.9921927721
5200268800.0 -0.0900506209 0.9930018145
5250268500.0 -0.077119107 0.9941058932
5300268200.0 -0.0640169599 0.9945566001
5350267900.0 -0.0517252091 0.9953413152
5400267600.0 -0.0354879236 0.9965321595
5450267300.0 -0.0224086125 0.9968457001
5500267000.0 -0.0073287097 0.9969716798
5550266700.0 0.0076947934 0.9972678429
5600266400.0 0.0232501477 0.9973282343
5650266100.0 0.03997067 0.9969217367
5700265800.0 0.0544068355 0.996136714
5750265500.0 0.0693551992 0.9953771224
5800265200.0 0.0835076348 0.9944950972
5850264900.0 0.0966531341 0.9929482531
5900264600.0 0.1131947193 0.9911581726
5950264300.0 0.1255038342 0.9901165266
6000264000.0 0.1392862387 0.9880159925
6050263700.0 0.1519700588 0.9866325418
6100263400.0 0.1646147941 0.9847654624
6150263100.0 0.1790669335 0.9826196411
6200262800.0 0.1895054043 0.9805659076
6250262500.0 0.2021401261 0.9780608502
6300262200.0 0.2151672434 0.9753839675
6350261900.0 0.2280593533 0.9724340446
6400261600.0 0.2420718468 0.9689983268
6450261300.0 0.2533192934 0.9663407126
6500261000.0 0.2660433125 0.9629916087
6550260700.0 0.2791196432 0.9588348536
6600260400.0 0.2921521976 0.9544896098
6650260100.0 0.306346054 0.9503963771
6700259800.0 0.318311439 0.946124833
6750259500.0 0.3321845927 0.9413230743
6800259200.0 0.3452970945 0.9364351941
6850258900.0 0.3573406728 0.9312454435
6900258600.0 0.369132041 0.9261843952
6950258300.0 0.3817728427 0.9208913858
7000258000.0 0.3936436795 0.9154014083
7050257700.0 0.4060531689 0.9093861941
7100257400.0 0.418553643 0.9031116205
7150257100.0 0.4289378064 0.8978910856
7200256800.0 0.4417368002 0.8914005734
7250256500.0 0.4536064717 0.885134943
7300256200.0 0.4664855752 0.8783055511
7350255900.0 0.4792635427 0.8717380845
7400255600.0 0.4921507108 0.8641872936
7450255300.0 0.5076245504 0.8550287541
7500255000.0 0.5195088639 0.8482396692
7550254700.0 0.5330405 0.8397566951
7600254400.0 0.5459328015 0.8312443439
7650254100.0 0.5575133124 0.8234636832
7700253800.0 0.569296437 0.8153520077
7750253500.0 0.580547151 0.8075044972
7800253200.0 0.5910610101 0.7997840331
7850252900.0 0.6008759491 0.7927647927
7900252600.0 0.6125708365 0.7839758609
7950252300.0 0.6213389049 0.7773761838
8000252000.0 0.6313854353 0.7697340026
8050251700.0 0.6419456854 0.7613951592
8100251400.0 0.6522596215 0.7532223712
8150251100.0 0.6622160973 0.7445001715
8200250800.0 0.671483975 0.7365786734
8250250500.0 0.6804326001 0.7288105309
8300250200.0 0.6900750432 0.7201443491
8350249900.0 0.6992545708 0.7112849044
8400249600.0 0.707248772 0.7035967878
8450249300.0 0.7163198243 0.6939579795
8500249000.0 0.7247915435 0.6851569842
8550248700.0 0.7332996037 0.676361861
8600248400.0 0.7415163794 0.6668247492
8650248100.0 0.7492579262 0.6573449738
8700247800.0 0.7588570901 0.6461983223
8750247500.0 0.7668869339 0.6361017352
8800247200.0 0.7752057549 0.625658367
8850246900.0 0.7840600393 0.6142321943
8900246600.0 0.7922728731 0.6030777617
8950246300.0 0.8021172189 0.590060456
9000246000.0 0.8114623088 0.5773646032
9050245700.0 0.8202080512 0.5643950858
9100245400.0 0.8288621935 0.5518725066
9150245100.0 0.8384780337 0.5380454547
9200244800.0 0.8484779552 0.5226101174
9250244500.0 0.8577600045 0.5070928354
9300244200.0 0.8661413664 0.4923244046
9350243900.0 0.8738451177 0.4785433719
9400243600.0 0.8806563665 0.4659982129
9450243300.0 0.8863466754 0.4543887939
9500243000.0 0.8926328638 0.4418796183
9550242700.0 0.896547783 0.4342368659
9600242400.0 0.9003797732 0.4268606272
9650242100.0 0.9037783122 0.4205657482
9700241800.0 0.9087746496 0.4120639199
9750241500.0 0.9121320663 0.4048569332
9800241200.0 0.9170760324 0.3957243364
9850240900.0 0.9226959579 0.3839263961
9900240600.0 0.9281589758 0.3722724757
9950240300.0 0.934767865 0.3562267515
10000240000.0 0.9393535412 0.3446671285
10050239700.0 0.9450848772 0.3294053053
10100239400.0 0.9497761681 0.3138562999
10150239100.0 0.9543232773 0.2989683262
10200238800.0 0.9583600298 0.284213829
10250238500.0 0.961832749 0.2708872631
10300238200.0 0.9649705073 0.2569495225
10350237900.0 0.9675226388 0.2441219053
10400237600.0 0.9701024298 0.2307827421
10450237300.0 0.9727125669 0.217088145
10500237000.0 0.9748416919 0.2052589349
10550236700.0 0.9773431275 0.1913703725
10600236400.0 0.9790330202 0.1774140146
10650236100.0 0.9814529637 0.1626083911
10700235800.0 0.9833662037 0.1510072381
10750235500.0 0.9856847175 0.1381600023
10800235200.0 0.9881934404 0.1237840314
10850234900.0 0.9894048726 0.1093610445
10900234600.0 0.9920200501 0.0940831646
10950234300.0 0.9935678508 0.0810455155
11000234000.0 0.9952513908 0.0659936942
11050233700.0 0.9970031991 0.0496401979
11100233400.0 0.9983570811 0.0321234556
11150233100.0 0.9992824586 0.0161587444
11200232800.0 0.9998983307 0.0013606598
11250232500.0 1.000790847 -0.0159154672
11300232200.0 1.001764291 -0.0336421362
11350231900.0 1.001208363 -0.0490201022
11400231600.0 1.001035088 -0.0655037413
11450231300.0 1.000407516 -0.0808419948
11500231000.0 0.99949681 -0.0968565653
11550230700.0 0.9977439064 -0.1102735157
11600230400.0 0.9964979285 -0.1234683121
11650230100.0 0.9946958238 -0.1347049231
11700229800.0 0.9927422163 -0.149582461
11750229500.0 0.990325098 -0.1639583013
11800229200.0 0.9876482012 -0.1779854532
11850228900.0 0.9841559245 -0.1903570955
11900228600.0 0.9805643812 -0.1997617861
11950228300.0 0.9772241752 -0.210092618
12000228000.0 0.9744124048 -0.2194771295
12050227700.0 0.970676396 -0.2326375346
12100227400.0 0.9671312191 -0.2437888754
12150227100.0 0.9625851668 -0.2599639565
12200226800.0 0.959875597 -0.2701624868
12250226500.0 0.9550644294 -0.2830659954
12300226200.0 0.9507729003 -0.2953799535
12350225900.0 0.9459314843 -0.3095659709
12400225600.0 0.9416684268 -0.3218665414
12450225300.0 0.9373065462 -0.3346346501
12500225000.0 0.9322349652 -0.3494720752
12550224700.0 0.9265689294 -0.3630899269
12600224400.0 0.9216963025 -0.3759403297
12650224100.0 0.9158422198 -0.3902734419
12700223800.0 0.9107473279 -0.402991384
12750223500.0 0.9051722355 -0.4160266614
12800223200.0 0.8996414453 -0.4283310019
12850222900.0 0.8945887933 -0.4408574484
12900222600.0 0.8891010861 -0.4525350407
12950222300.0 0.8824659913 -0.4654478445
13000222000.0 0.8763752163 -0.4771727877
13050221700.0 0.8695876781 -0.4896003213
13100221400.0 0.8631332615 -0.5017339087
13150221100.0 0.8564178197 -0.5138942896
13200220800.0 0.8492221925 -0.5254898273
13250220500.0 0.841638105 -0.5377548843
13300220200.0 0.8341438146 -0.5486329405
13350219900.0 0.8261863503 -0.5608219464
13400219600.0 0.8177688288 -0.5730226562
13450219300.0 0.8082716488 -0.5865731198
13500219000.0 0.7975729168 -0.6009124566
13550218700.0 0.7871920518 -0.6137339211
13600218400.0 0.7769957188 -0.6257705775
13650218100.0 0.7674557896 -0.6368647939
13700217800.0 0.7567857025 -0.6488653846
13750217500.0 0.7466632307 -0.6599651255
13800217200.0 0.7356231931 -0.6724552703
13850216900.0 0.7234700892 -0.683246043
13900216600.0 0.7143581847 -0.6929770533
13950216300.0 0.7037372355 -0.7027704239
14000216000.0 0.6932704309 -0.7121332224
14050215700.0 0.6837891905 -0.7205918974
14100215400.0 0.6739262945 -0.7291398908
14150215100.0 0.6651781336 -0.7379016035
14200214800.0 0.6557010472 -0.7465375829
14250214500.0 0.6456891043 -0.7553988107
14300214200.0 0.6351905007 -0.7647952939
14350213900.0 0.6240686822 -0.7744994538
14400213600.0 0.6126732097 -0.7838406867
14450213300.0 0.5992991735 -0.7942395914
14500213000.0 0.5864501697 -0.8042037875
14550212700.0 0.5737658439 -0.8135607762
14600212400.0 0.5613416725 -0.8221520871
14650212100.0 0.5484505479 -0.831057628
14700211800.0 0.5343149384 -0.8403413747
14750211500.0 0.5224804506 -0.8481841609
14800211200.0 0.5096862858 -0.8565291025
14850210900.0 0.4977868847 -0.864108327
14900210600.0 0.4844679979 -0.8718296105
14950210300.0 0.470903483 -0.8797289964
15000210000.0 0.4580870448 -0.8865902631
15050209700.0 0.445783191 -0.8925015646
15100209400.0 0.4330652231 -0.8984217058
15150209100.0 0.4206804744 -0.9041026057
15200208800.0 0.4074735642 -0.9095283178
15250208500.0 0.3963820635 -0.9141188506
15300208200.0 0.3834276965 -0.91899314
15350207900.0 0.3711020687 -0.92243752
15400207600.0 0.3557869556 -0.9285437938
15450207300.0 0.3417022245 -0.9337219449
15500207000.0 0.3270372485 -0.9382706767
15550206700.0 0.3115865297 -0.9436957915
15600206400.0 0.2953791201 -0.9481778775
15650206100.0 0.2798255146 -0.9521199366
15700205800.0 0.2660905143 -0.9557989472
15750205500.0 0.2516398536 -0.9592489188
15800205200.0 0.2372096353 -0.9626756996
15850204900.0 0.2226379227 -0.9662288662
15900204600.0 0.2076997707 -0.9698275507
15950204300.0 0.1937385849 -0.972561441
16000204000.0 0.179465284 -0.9753845199
16050203700.0 0.1650281157 -0.9786037755
16100203400.0 0.1503540068 -0.9805870455
16150203100.0 0.1359739151 -0.9828010691
16200202800.0 0.1224166518 -0.9844943383
16250202500.0 0.107886475 -0.9862389415
16300202200.0 0.0925560438 -0.98776899
16350201900.0 0.0776445947 -0.9895309197
16400201600.0 0.0630213818 -0.9902521132
16450201300.0 0.0477535898 -0.9913928206
16500201000.0 0.031021954 -0.9920640428
16550200700.0 0.0155210766 -0.9925117299
16600200400.0 -0.000365402 -0.9926485298
16650200100.0 -0.0164059704 -0.9926188254
16700199800.0 -0.0334345516 -0.991824721
16750199500.0 -0.0522058968 -0.9914996305
16800199200.0 -0.067665755 -0.9904375998
16850198900.0 -0.0825936492 -0.989378864
16900198600.0 -0.0974669407 -0.9886358487
16950198300.0 -0.1101099068 -0.9876687786
17000198000.0 -0.1235383433 -0.9859589135
17050197700.0 -0.1356542506 -0.9842254633
17100197400.0 -0.1489035405 -0.9816024635
17150197100.0 -0.1612198742 -0.9797409808
17200196800.0 -0.1743319676 -0.9775237428
17250196500.0 -0.1871755138 -0.9749656696
17300196200.0 -0.1992464606 -0.9729391393
17350195900.0 -0.211304054 -0.9705434217
17400195600.0 -0.223316082 -0.9681396517
17450195300.0 -0.2363354184 -0.9653189247
17500195000.0 -0.2499729929 -0.9622073372
17550194700.0 -0.2639650879 -0.9584727507
17600194400.0 -0.2778777521 -0.9545321357
17650194100.0 -0.2912918848 -0.9503817432
17700193800.0 -0.3046143079 -0.945949037
17750193500.0 -0.3187123885 -0.9415287827
17800193200.0 -0.3329593717 -0.9360893357
17850192900.0 -0.3477767696 -0.9308063595
17900192600.0 -0.3632841197 -0.9248533328
17950192300.0 -0.378895306 -0.9175871019
18000192000.0 -0.3934733687 -0.9103491298
18050191700.0 -0.4069243168 -0.9025626225
18100191400.0 -0.4211384846 -0.8948448458
18150191100.0 -0.4361933186 -0.8867783075
18200190800.0 -0.4532185351 -0.8775292287
18250190500.0 -0.4699869026 -0.8681484949
18300190200.0 -0.4853203036 -0.8592374726
18350189900.0 -0.5002506366 -0.850772336
18400189600.0 -0.5146405734 -0.8426408046
18450189300.0 -0.5283445598 -0.8346988615
18500189000.0 -0.5415722082 -0.8264498534
18550188700.0 -0.5540251406 -0.8188956354
18600188400.0 -0.5660896406 -0.8118597155
18650188100.0 -0.5770008034 -0.8052572636
18700187800.0 -0.5877170458 -0.7987403814
18750187500.0 -0.5987153017 -0.7921737512
18800187200.0 -0.6093787599 -0.7852074845
18850186900.0 -0.6194256853 -0.7779504381
18900186600.0 -0.6299019563 -0.7705464537
18950186300.0 -0.6399769562 -0.762863968
19000186000.0 -0.6472070999 -0.7566138456
19050185700.0 -0.6563992185 -0.7495712358
19100185400.0 -0.666700391 -0.7401827946
19150185100.0 -0.6769684141 -0.7322227912
19200184800.0 -0.686644663 -0.7238538522
19250184500.0 -0.6971410639 -0.7153427176
19300184200.0 -0.7085378496 -0.7050704103
19350183900.0 -0.7189610798 -0.6956626052
19400183600.0 -0.7285951797 -0.685943943
19450183300.0 -0.7375509215 -0.6757951911
19500183000.0 -0.7454822464 -0.6655328198
19550182700.0 -0.7553266743 -0.6546969737
19600182400.0 -0.7658456604 -0.6432619176
19650182100.0 -0.7763996906 -0.630768557
19700181800.0 -0.7870390649 -0.6175882754
19750181500.0 -0.797511434 -0.6034923172
19800181200.0 -0.8077056453 -0.5887575235
19850180900.0 -0.8172378646 -0.5735471669
19900180600.0 -0.8249394536 -0.5589514942
19950180300.0 -0.8340707828 -0.5427234129
20000180000.0 -0.8270574934 -0.5451499563
20050179700.0 -0.8356923135 -0.5321910417
20100179400.0 -0.8438000998 -0.5175510586
20150179100.0 -0.8511232988 -0.505999252
20200178800.0 -0.8605335009 -0.4926309264
20250178500.0 -0.8699966343 -0.4794347449
20300178200.0 -0.8795891682 -0.4649185694
20350177900.0 -0.8884825654 -0.4500943681
20400177600.0 -0.8972920619 -0.4356422186
20450177300.0 -0.9057708262 -0.4211531647
20500177000.0 -0.9134145862 -0.4074845093
20550176700.0 -0.9214963496 -0.3939189463
20600176400.0 -0.9281664679 -0.3804817335
20650176100.0 -0.9354118584 -0.3678679083
20700175800.0 -0.94194281 -0.3558715446
20750175500.0 -0.9488267909 -0.3441597657
20800175200.0 -0.9541997598 -0.3337162072
20850174900.0 -0.9582825003 -0.3228537063
20900174600.0 -0.9627593196 -0.3103865509
20950174300.0 -0.9664165555 -0.2994361591
21000174000.0 -0.9707939651 -0.287847344
21050173700.0 -0.9734304459 -0.2764601756
21100173400.0 -0.977237601 -0.2643587937
21150173100.0 -0.9814927761 -0.2516515028
21200172800.0 -0.9854164551 -0.2382294226
21250172500.0 -0.9881295327 -0.2244341973
21300172200.0 -0.990657671 -0.2105964478
21350171900.0 -0.9922031765 -0.1955636646
21400171600.0 -0.9936427504 -0.1820197489
21450171300.0 -0.9933864969 -0.1670235381
21500171000.0 -0.9935021603 -0.1519176018
21550170700.0 -0.9934843798 -0.1367369926
21600170400.0 -0.9931872899 -0.1202756326
21650170100.0 -0.9920723296 -0.1043860997
21700169800.0 -0.990160355 -0.0890613732
21750169500.0 -0.9889024127 -0.073193078
21800169200.0 -0.9880786822 -0.0580417389
21850168900.0 -0.9871692867 -0.0405368421
21900168600.0 -0.985993041 -0.0243777141
21950168300.0 -0.98420906 -0.0091223251
22000168000.0 -0.9829196983 0.0055079607
22050167700.0 -0.98248769 0.0196157507
22100167400.0 -0.9827378805 0.0350343663
22150167100.0 -0.9831365707 0.0506803684
22200166800.0 -0.9834375021 0.0671284301
22250166500.0 -0.9823354628 0.0840064155
22300166200.0 -0.9826995847 0.1008164198
22350165900.0 -0.9802670331 0.1178786434
22400165600.0 -0.9797206911 0.1328140963
22450165300.0 -0.9756595944 0.14786417
22500165000.0 -0.9751630356 0.1618861694
22550164700.0 -0.9749183159 0.176281365
22600164400.0 -0.9720388286 0.1918893682
22650164100.0 -0.9713069173 0.2071167184
22700163800.0 -0.9679655526 0.2229476463
22750163500.0 -0.9648769501 0.2385691111
22800163200.0 -0.9630906156 0.2511784381
22850162900.0 -0.9599521772 0.2649989005
22900162600.0 -0.958556112 0.2782392855
22950162300.0 -0.9577507791 0.2911215914
23000162000.0 -0.9562632694 0.3029036848
23050161700.0 -0.9543807154 0.3152802425
23100161400.0 -0.9520440815 0.3282581059
23150161100.0 -0.949147394 0.3401216231
23200160800.0 -0.9468271665 0.352624204
23250160500.0 -0.9433530693 0.3646020879
23300160200.0 -0.9413833854 0.3763218423
23350159900.0 -0.9377216734 0.3893063701
23400159600.0 -0.9329649132 0.4022959032
23450159300.0 -0.9276880584 0.4154583168
23500159000.0 -0.9235234938 0.4284554772
23550158700.0 -0.9192247512 0.4415129843
23600158400.0 -0.913771633 0.4549236172
23650158100.0 -0.9071627753 0.468981327
23700157800.0 -0.8997163478 0.4826802098
23750157500.0 -0.8910090075 0.4967561865
23800157200.0 -0.8822165782 0.5097710445
23850156900.0 -0.873493363 0.5216822473
23900156600.0 -0.8641914573 0.5356140544
23950156300.0 -0.8548080279 0.5477380012
24000156000.0 -0.846265555 0.559323469
24050155700.0 -0.8363508606 0.5710745612
24100155400.0 -0.8261227284 0.5836870875
24150155100.0 -0.8156214748 0.5935695991
24200154800.0 -0.8040320138 0.6060253291
24250154500.0 -0.792644281 0.6181854312
24300154200.0 -0.7809970664 0.6294287245
24350153900.0 -0.7696074038 0.6398644216
24400153600.0 -0.757343662 0.6499406978
24450153300.0 -0.7451050612 0.6602192398
24500153000.0 -0.733630546 0.6695597
24550152700.0 -0.7225600005 0.6793825679
24600152400.0 -0.7106262711 0.6885468688
24650152100.0 -0.6995408032 0.6969185992
