!Created with skrf (http://scikit-rf.org).
# Hz S RI R 50.0 
!freq ReS11 ImS11
300000.0 -0.9741280152 -0.1228607162
50299700.0 -0.999933679 0.0149617675
100299400.0 -0.997783179 0.02800645
150299100.0 -1.002741707 0.0447581472
200298800.0 -0.9995706253 0.0579985816
250298500.0 -0.9971704152 0.0716053406
300298200.0 -0.9859410795 0.0873139903
350297900.0 -0.9939888884 0.0982539907
400297600.0 -0.9929736436 0.114617111
450297300.0 -0.9909690563 0.1285864172
500297000.0 -0.9892388194 0.1433899063
550296700.0 -0.9844830991 0.1559593869
600296400.0 -1.017514607 0.1890939684
650296100.0 -0.9822142702 0.18591748
700295800.0 -0.9792409281 0.2000172003
750295500.0 -0.9764139447 0.2141450696
800295200.0 -0.9730574878 0.2281385739
850294900.0 -0.9695089297 0.2418297756
900294600.0 -0.9657698743 0.2556864208
950294300.0 -0.9619794048 0.2692615518
1000294000.0 -0.9581880959 0.2833700175
1050293700.0 -0.9535794296 0.2970423106
1100293400.0 -0.9494580352 0.3115681234
1150293100.0 -0.9456182099 0.3234990602
1200292800.0 -0.9401836439 0.337997481
1250292500.0 -0.934610981 0.3513138346
1300292200.0 -0.9289976739 0.3644479651
1350291900.0 -0.9236338616 0.3785241994
1400291600.0 -0.9179544018 0.391657735
1450291300.0 -0.9124742601 0.4039559753
1500291000.0 -0.9062447338 0.4174482987
1550290700.0 -0.8997947372 0.430689748
1600290400.0 -0.8934726844 0.443728367
1650290100.0 -0.8868070619 0.4557706527
1700289800.0 -0.8797647648 0.4693081124
1750289500.0 -0.8730686189 0.4814496423
1800289200.0 -0.8653104888 0.4943871708
1850288900.0 -0.8588501407 0.5057945625
1900288600.0 -0.8509964662 0.5186616649
1950288300.0 -0.8429619807 0.531414159
2000288000.0 -0.8354108578 0.5429255377
2050287700.0 -0.8272693526 0.5553031829
2100287400.0 -0.8193514448 0.5665583532
2150287100.0 -0.8108598163 0.5787158615
2200286800.0 -0.803069554 0.5892322121
2250286500.0 -0.7940969928 0.601565632
2300286200.0 -0.7852668193 0.6130757138
2350285900.0 -0.7768994974 0.6234798498
2400285600.0 -0.7680088582 0.6344517746
2450285300.0 -0.7591862598 0.6451308769
2500285000.0 -0.7490816004 0.6568218542
2550284700.0 -0.7401549226 0.6671995835
2600284400.0 -0.7309998509 0.6768544153
2650284100.0 -0.7224686117 0.6869891663
2700283800.0 -0.7117095642 0.6974448494
2750283500.0 -0.7013873692 0.7081773676
2800283200.0 -0.6916962468 0.7180357509
2850282900.0 -0.6811516062 0.7281533633
2900282600.0 -0.6707375445 0.7377454115
2950282300.0 -0.6601730572 0.7473362645
3000282000.0 -0.6496864497 0.7566013409
3050281700.0 -0.638195336 0.765836207
3100281400.0 -0.6268489155 0.7750551559
3150281100.0 -0.6155887033 0.7839545033
3200280800.0 -0.6041492231 0.7924446233
3250280500.0 -0.5928661033 0.8001646746
3300280200.0 -0.581448821 0.8084309094
3350279900.0 -0.5692692302 0.8164515935
3400279600.0 -0.5565689819 0.8245050067
3450279300.0 -0.5457631487 0.8317270204
3500279000.0 -0.5338778002 0.8385471871
3550278700.0 -0.5215653111 0.845638114
3600278400.0 -0.5098553596 0.8525113769
3650278100.0 -0.4967274389 0.8599296806
3700277800.0 -0.4847705343 0.8666776718
3750277500.0 -0.4721437027 0.8732274837
3800277200.0 -0.459866081 0.8797371475
3850276900.0 -0.4475429217 0.8856147218
3900276600.0 -0.4368643141 0.8915112387
3950276300.0 -0.4247639516 0.8971470403
4000276000.0 -0.4132867622 0.90316022
4050275700.0 -0.4003824158 0.9090356324
4100275400.0 -0.3894816828 0.9143357288
4150275100.0 -0.3759846795 0.9204542819
4200274800.0 -0.3626370912 0.9263251516
4250274500.0 -0.3500828287 0.9316434928
4300274200.0 -0.336701456 0.9367298689
4350273900.0 -0.3224267574 0.9421547009
4400273600.0 -0.3078650187 0.947308303
4450273300.0 -0.2929165703 0.9521992727
4500273000.0 -0.2795763089 0.9565609064
4550272700.0 -0.2659860743 0.9605885292
4600272400.0 -0.2510641432 0.9646756732
4650272100.0 -0.2396115498 0.9679461524
4700271800.0 -0.2267201448 0.9711628549
4750271500.0 -0.215087597 0.9740718008
4800271200.0 -0.2027980755 0.9766449741
4850270900.0 -0.1890927491 0.9794873643
4900270600.0 -0.1753466763 0.9819901498
4950270300.0 -0.1608499743 0.9846247233
5000270000.0 -0.1463714747 0.9865217863
5050269700.0 -0.1327182457 0.988176541
5100269400.0 -0.1185321272 0.9897878767
5150269100.0 -0.1047744573 0.9918713056
5200268800.0 -0.0911847072 0.9926877052
5250268500.0 -0.0783555425 0.9938139473
5300268200.0 -0.0646008313 0.994568346
5350267900.0 -0.0515120608 0.9953112789
5400267600.0 -0.0355083018 0.9962008722
5450267300.0 -0.0221531827 0.99651163
5500267000.0 -0.0067027226 0.9968054916
5550266700.0 0.0081160556 0.9972257039
5600266400.0 0.0237275533 0.9970891205
5650266100.0 0.0404024864 0.996714577
5700265800.0 0.0544461977 0.9958698809
5750265500.0 0.0697379716 0.9951126881
5800265200.0 0.0830847545 0.9940562484
5850264900.0 0.096620408 0.9933621063
5900264600.0 0.1128026075 0.9913534673
5950264300.0 0.124373097 0.9894843833
6000264000.0 0.1380752858 0.9879993016
6050263700.0 0.1495494321 0.9866382819
6100263400.0 0.1619713718 0.984799456
6150263100.0 0.1765838624 0.9824822519
6200262800.0 0.1860927588 0.980968427
6250262500.0 0.1988130011 0.9787671815
6300262200.0 0.2109393528 0.9761220789
6350261900.0 0.2237895326 0.9736696147
6400261600.0 0.2378698948 0.9702351494
6450261300.0 0.248970345 0.9678908105
6500261000.0 0.2620181033 0.9638658319
6550260700.0 0.2752193166 0.960175375
6600260400.0 0.2885785915 0.9559923033
6650260100.0 0.3029046375 0.9515643722
6700259800.0 0.3150090198 0.9471966581
6750259500.0 0.3289309421 0.9427366266
6800259200.0 0.3420027946 0.9373316883
6850258900.0 0.3545022594 0.9320030323
6900258600.0 0.3672238169 0.926847981
6950258300.0 0.3796187196 0.9215866144
7000258000.0 0.3913337021 0.916182226
7050257700.0 0.4032884835 0.9104569025
7100257400.0 0.4168696316 0.9039240105
7150257100.0 0.4273266664 0.8986143483
7200256800.0 0.4404743073 0.8921625487
7250256500.0 0.4526695325 0.8854428451
7300256200.0 0.4659254625 0.8786320991
7350255900.0 0.4789336485 0.8717394487
7400255600.0 0.4930050971 0.8641969698
7450255300.0 0.5086500832 0.8549488731
7500255000.0 0.5210352884 0.847345238
7550254700.0 0.5349337979 0.8380858185
7600254400.0 0.547829539 0.8300850494
7650254100.0 0.5594278605 0.8221868862
7700253800.0 0.5709308525 0.8140928752
7750253500.0 0.5820106722 0.8064432666
7800253200.0 0.5925405834 0.7984955222
7850252900.0 0.60235486 0.7914596984
7900252600.0 0.6137207078 0.7826461317
7950252300.0 0.6222068265 0.7763131958
8000252000.0 0.6320616674 0.7688097247
8050251700.0 0.6427788074 0.7604873501
8100251400.0 0.6527314102 0.7526630811
8150251100.0 0.6624548823 0.7442191046
8200250800.0 0.6721597218 0.7359024751
8250250500.0 0.6804145882 0.7281163389
8300250200.0 0.6899843692 0.7197801618
8350249900.0 0.6989891621 0.7108815394
8400249600.0 0.7072763213 0.7030677012
8450249300.0 0.7158719603 0.6943215912
8500249000.0 0.7243839478 0.6852147571
8550248700.0 0.7326124241 0.6760751638
8600248400.0 0.7412074483 0.6666792612
8650248100.0 0.7487221042 0.6572980174
8700247800.0 0.7579863581 0.6462147073
8750247500.0 0.7663268177 0.6361612649
8800247200.0 0.7743998725 0.6258887765
8850246900.0 0.7830543325 0.6143469878
8900246600.0 0.7911261302 0.603159599
8950246300.0 0.8004840587 0.590155593
9000246000.0 0.8092879536 0.578521872
9050245700.0 0.8178527569 0.5661383188
9100245400.0 0.8261758736 0.5538709194
9150245100.0 0.8351880677 0.5408735149
9200244800.0 0.8444604268 0.526826463
9250244500.0 0.8534254696 0.5118662358
9300244200.0 0.861636308 0.4983592128
9350243900.0 0.8690283712 0.4851708597
9400243600.0 0.875814424 0.4733484583
9450243300.0 0.8812281784 0.4628214521
9500243000.0 0.8875572173 0.4514186657
9550242700.0 0.8915677707 0.443799838
9600242400.0 0.8958634005 0.4362758084
9650242100.0 0.8997959394 0.4294024079
9700241800.0 0.9049163332 0.420594243
9750241500.0 0.9090975921 0.4130090781
9800241200.0 0.9140175273 0.403776034
9850240900.0 0.9198247606 0.3921309857
9900240600.0 0.9257527457 0.380009212
9950240300.0 0.9329202373 0.3631178587
10000240000.0 0.9380489175 0.3511348632
10050239700.0 0.9441960102 0.3347486936
10100239400.0 0.9493316952 0.3189829922
10150239100.0 0.9541123768 0.3032661977
10200238800.0 0.9582763411 0.2875454859
10250238500.0 0.9616067558 0.2741156331
10300238200.0 0.9647989157 0.260233154
10350237900.0 0.9674660448 0.2469924644
10400237600.0 0.9699013995 0.2335167972
10450237300.0 0.9728194719 0.2194724095
10500237000.0 0.9750747965 0.2074344288
10550236700.0 0.9772788873 0.1929372413
10600236400.0 0.9795012426 0.1792502227
10650236100.0 0.9814008772 0.1650217861
10700235800.0 0.9836425268 0.1523028013
10750235500.0 0.9858111522 0.1382761476
10800235200.0 0.9879300984 0.1246506133
10850234900.0 0.9900616895 0.1094277341
10900234600.0 0.9922632588 0.0943372885
10950234300.0 0.9938902307 0.081106337
11000234000.0 0.9955463268 0.0654952116
11050233700.0 0.9973137944 0.0488316297
11100233400.0 0.9988416046 0.0314123151
11150233100.0 1.000328341 0.0143050713
11200232800.0 1.000884161 -0.0016432273
11250232500.0 1.001728326 -0.0199442619
11300232200.0 1.002131322 -0.0387822554
11350231900.0 1.002267259 -0.0540233164
11400231600.0 1.001329355 -0.0699645987
11450231300.0 1.001045427 -0.0854945878
11500231000.0 1.000005239 -0.1016065851
11550230700.0 0.9982087254 -0.1145294027
11600230400.0 0.9970069857 -0.1276127519
11650230100.0 0.995002731 -0.1390788564
11700229800.0 0.9925049811 -0.1541512465
11750229500.0 0.9903583203 -0.1686863581
11800229200.0 0.9872789823 -0.1819911905
11850228900.0 0.9836906198 -0.1937787916
11900228600.0 0.9797304095 -0.2034157862
11950228300.0 0.9764927065 -0.2136800169
12000228000.0 0.9735705367 -0.2220918025
12050227700.0 0.9698176381 -0.234387634
12100227400.0 0.9665172757 -0.2457544927
12150227100.0 0.961553315 -0.2625237706
12200226800.0 0.9576975594 -0.2736351185
12250226500.0 0.9537473984 -0.2862589224
12300226200.0 0.9496392266 -0.2986503338
12350225900.0 0.9443330411 -0.3123516322
12400225600.0 0.940096883 -0.3245972949
12450225300.0 0.9356544922 -0.3376777217
12500225000.0 0.9303026347 -0.3519443561
12550224700.0 0.9248119626 -0.365527975
12600224400.0 0.9199816899 -0.3782821961
12650224100.0 0.9140410307 -0.3926709297
12700223800.0 0.9087979148 -0.40544955
12750223500.0 0.9033346669 -0.4185152286
12800223200.0 0.8982036056 -0.4309429026
12850222900.0 0.8927113786 -0.4434627223
12900222600.0 0.8869646892 -0.4551385435
12950222300.0 0.8807203957 -0.4682370042
13000222000.0 0.8750511905 -0.4794421912
13050221700.0 0.8684812716 -0.4923585649
13100221400.0 0.8612023732 -0.5047469639
13150221100.0 0.8542562923 -0.5172408528
13200220800.0 0.8479191294 -0.5281421918
13250220500.0 0.8402246072 -0.5404216881
13300220200.0 0.8327353649 -0.5514860578
13350219900.0 0.8247745927 -0.5630811941
13400219600.0 0.8161394805 -0.5750819102
13450219300.0 0.8070235387 -0.5882778493
13500219000.0 0.7974982833 -0.6010500677
13550218700.0 0.7870252377 -0.6137178283
13600218400.0 0.7776919842 -0.6256095329
13650218100.0 0.7688345577 -0.6362528692
13700217800.0 0.7574567329 -0.6483732083
13750217500.0 0.7478162539 -0.6595677588
13800217200.0 0.7361675815 -0.6701079612
13850216900.0 0.7259400009 -0.6812672108
13900216600.0 0.7157882093 -0.6898295584
13950216300.0 0.7053562717 -0.7006112478
14000216000.0 0.6953642657 -0.7092673874
14050215700.0 0.6860287775 -0.7177239997
14100215400.0 0.6766265671 -0.7267144513
14150215100.0 0.667371261 -0.735218558
14200214800.0 0.6580184887 -0.7441234231
14250214500.0 0.6475683733 -0.7536008524
14300214200.0 0.6369729529 -0.7629665032
14350213900.0 0.6258345357 -0.7727198283
14400213600.0 0.6139450079 -0.7826695706
14450213300.0 0.6015858134 -0.7923391878
14500213000.0 0.5879351622 -0.8024255342
14550212700.0 0.5757566678 -0.8122198641
14600212400.0 0.563524323 -0.8211257529
14650212100.0 0.5509825672 -0.8294262838
14700211800.0 0.5371834301 -0.8385927514
14750211500.0 0.5250055206 -0.8472542889
14800211200.0 0.5122219233 -0.8556862695
14850210900.0 0.5000183136 -0.8631808835
14900210600.0 0.4865032254 -0.871127789
14950210300.0 0.4732804005 -0.8788073694
15000210000.0 0.4606612161 -0.8855687435
15050209700.0 0.4484995229 -0.8915099426
15100209400.0 0.4355720381 -0.8971320731
15150209100.0 0.4231880907 -0.9029941624
15200208800.0 0.4108109402 -0.9080540439
15250208500.0 0.3996322277 -0.9122464374
15300208200.0 0.3876689396 -0.9174741849
15350207900.0 0.3737174731 -0.9230029875
15400207600.0 0.3593264226 -0.9278740126
15450207300.0 0.3453217364 -0.9319602221
15500207000.0 0.3302764616 -0.9373030701
15550206700.0 0.315554482 -0.9424877887
15600206400.0 0.2992394462 -0.9468237604
15650206100.0 0.2838465932 -0.9511895297
15700205800.0 0.2703066263 -0.9543738895
15750205500.0 0.2563644093 -0.9577374525
15800205200.0 0.2421820103 -0.9612467565
15850204900.0 0.2278925134 -0.9647351271
15900204600.0 0.2130890188 -0.9683144988
15950204300.0 0.1987120939 -0.971557028
16000204000.0 0.1839791043 -0.9746767173
16050203700.0 0.1689268169 -0.9775252419
16100203400.0 0.1539837227 -0.9797876573
16150203100.0 0.1390584329 -0.9816906905
16200202800.0 0.1249006767 -0.9841632052
16250202500.0 0.1104478468 -0.9860968691
16300202200.0 0.0943290322 -0.9872677098
16350201900.0 0.0800320071 -0.988830196
16400201600.0 0.0654990435 -0.9901176744
16450201300.0 0.049699471 -0.991081477
16500201000.0 0.0326712963 -0.9919715071
16550200700.0 0.0165689836 -0.9925150696
16600200400.0 0.0007643539 -0.992523444
16650200100.0 -0.0154643092 -0.9926723256
16700199800.0 -0.031824266 -0.9919400007
16750199500.0 -0.0504886547 -0.9914415301
16800199200.0 -0.0669293008 -0.9903589697
16850198900.0 -0.0825503318 -0.9893860435
16900198600.0 -0.0964148378 -0.9881827669
16950198300.0 -0.1106442347 -0.9872220299
17000198000.0 -0.1236774984 -0.9857994395
17050197700.0 -0.1355149544 -0.9845486279
17100197400.0 -0.1492016456 -0.981788729
17150197100.0 -0.1614946212 -0.9800732846
17200196800.0 -0.1744735101 -0.9780243652
17250196500.0 -0.1871787745 -0.9754721531
17300196200.0 -0.1995739652 -0.9732025415
17350195900.0 -0.2113252278 -0.9706710126
17400195600.0 -0.2232559969 -0.9681510561
17450195300.0 -0.2361811738 -0.9654109312
17500195000.0 -0.2492831455 -0.9619261591
17550194700.0 -0.2630484581 -0.9584015794
17600194400.0 -0.2769447751 -0.9546381232
17650194100.0 -0.2906574638 -0.9502862774
17700193800.0 -0.3038674129 -0.9464069834
17750193500.0 -0.3178171465 -0.9419803253
17800193200.0 -0.331761973 -0.9364503436
17850192900.0 -0.3469540795 -0.9310243999
17900192600.0 -0.3617677398 -0.9250885392
17950192300.0 -0.3773731376 -0.9177656927
18000192000.0 -0.3920229984 -0.9105081764
18050191700.0 -0.4058444533 -0.902744233
18100191400.0 -0.4200642361 -0.8950344584
18150191100.0 -0.4350213612 -0.8871332892
18200190800.0 -0.4519461785 -0.8779194498
18250190500.0 -0.4688892315 -0.8684178577
18300190200.0 -0.4843021195 -0.8597506551
18350189900.0 -0.499623935 -0.8511454827
18400189600.0 -0.5141595859 -0.8431177442
18450189300.0 -0.5276211671 -0.8345038165
18500189000.0 -0.5409016227 -0.8269258048
18550188700.0 -0.5533937894 -0.8189852482
18600188400.0 -0.5656861364 -0.8121804476
18650188100.0 -0.5773164718 -0.8050616123
18700187800.0 -0.5881088279 -0.7985890529
18750187500.0 -0.5988190892 -0.7922992729
18800187200.0 -0.6093095813 -0.7852140263
18850186900.0 -0.6196757559 -0.778364857
18900186600.0 -0.6300465313 -0.7710950573
18950186300.0 -0.6401094007 -0.7632441563
19000186000.0 -0.6474950372 -0.7569168619
19050185700.0 -0.6567942731 -0.749901505
19100185400.0 -0.6665977827 -0.7417276335
19150185100.0 -0.6766753826 -0.7333308433
19200184800.0 -0.6865878954 -0.7249776674
19250184500.0 -0.6968143498 -0.7152796352
19300184200.0 -0.7078145927 -0.7069152025
19350183900.0 -0.7186987499 -0.6973082265
19400183600.0 -0.7291086253 -0.6862618107
19450183300.0 -0.7374020264 -0.6765937183
19500183000.0 -0.7455399368 -0.6664496854
19550182700.0 -0.7554373445 -0.6557880926
19600182400.0 -0.7655639351 -0.6440985573
19650182100.0 -0.7762603631 -0.6316240945
19700181800.0 -0.7864082951 -0.618616916
19750181500.0 -0.7970649577 -0.6043361633
19800181200.0 -0.8070011742 -0.5895508884
19850180900.0 -0.8167008795 -0.5740070574
19900180600.0 -0.8244674912 -0.5596138028
19950180300.0 -0.8333415672 -0.5433495942
20000180000.0 -0.82390597 -0.5476918728
20050179700.0 -0.8311298118 -0.5340883733
20100179400.0 -0.8389364625 -0.5212916876
20150179100.0 -0.8468578007 -0.5095225811
20200178800.0 -0.8555055152 -0.4975576657
20250178500.0 -0.8659629001 -0.4856616037
20300178200.0 -0.8749479188 -0.4710137032
20350177900.0 -0.884505808 -0.4577214315
20400177600.0 -0.893432439 -0.4436563999
20450177300.0 -0.9024044513 -0.4294097188
20500177000.0 -0.9100362341 -0.4152840724
20550176700.0 -0.917915966 -0.4014577198
20600176400.0 -0.9250505098 -0.388832863
20650176100.0 -0.9310169326 -0.3762370244
20700175800.0 -0.9383471025 -0.364265024
20750175500.0 -0.9450571777 -0.3529259531
20800175200.0 -0.9491711802 -0.3429704063
20850174900.0 -0.9531433837 -0.3309740038
20900174600.0 -0.9581420315 -0.320872253
20950174300.0 -0.9616088299 -0.3096329518
21000174000.0 -0.9645061649 -0.2996937496
21050173700.0 -0.9660883757 -0.2885991822
21100173400.0 -0.9700176174 -0.2779399267
21150173100.0 -0.9736268033 -0.2664635014
21200172800.0 -0.9771521096 -0.2529128396
21250172500.0 -0.9808793181 -0.2393058556
21300172200.0 -0.9839854833 -0.2251679708
21350171900.0 -0.9857976096 -0.2114943829
21400171600.0 -0.9881614436 -0.1976790154
21450171300.0 -0.9888498311 -0.1829959345
21500171000.0 -0.9894240245 -0.1675542572
21550170700.0 -0.9896654148 -0.1528480671
21600170400.0 -0.9903924552 -0.1370039097
21650170100.0 -0.9901692211 -0.1210362431
21700169800.0 -0.9900588472 -0.1061133762
21750169500.0 -0.9888152419 -0.0900145657
21800169200.0 -0.9893237868 -0.0733433439
21850168900.0 -0.9903723831 -0.0574919743
21900168600.0 -0.9893687565 -0.0404911539
21950168300.0 -0.9886651166 -0.0246316465
22000168000.0 -0.9888770602 -0.0102259903
22050167700.0 -0.9892715713 0.0047234488
22100167400.0 -0.9899919237 0.020441621
22150167100.0 -0.9912224401 0.0367317384
22200166800.0 -0.991267157 0.0528166666
22250166500.0 -0.991394172 0.070520502
22300166200.0 -0.9901085551 0.0863155177
22350165900.0 -0.9899660352 0.1030394344
22400165600.0 -0.9879292028 0.1186750545
22450165300.0 -0.98599776 0.1326447813
22500165000.0 -0.9848324921 0.1474782392
22550164700.0 -0.9821078846 0.1645724861
22600164400.0 -0.9805021221 0.1802215477
22650164100.0 -0.9781510411 0.1955817527
22700163800.0 -0.9748585448 0.2114821914
22750163500.0 -0.9716767789 0.2267753432
22800163200.0 -0.9689175611 0.2392727468
22850162900.0 -0.9664534962 0.2533368453
22900162600.0 -0.9642869047 0.2668125343
22950162300.0 -0.96241821 0.2808024181
23000162000.0 -0.9611626544 0.2934200969
23050161700.0 -0.9582089625 0.3067867094
23100161400.0 -0.9556585909 0.3205999617
23150161100.0 -0.9527419931 0.3331228147
23200160800.0 -0.9495088042 0.3460606582
23250160500.0 -0.947137758 0.3587955914
23300160200.0 -0.9441613388 0.3714470329
23350159900.0 -0.9406329052 0.3851165243
23400159600.0 -0.935215252 0.3988138924
23450159300.0 -0.9297584328 0.4125791365
23500159000.0 -0.9249170181 0.4258167588
23550158700.0 -0.9202543408 0.4401124995
23600158400.0 -0.9141615372 0.4540470545
23650158100.0 -0.9070819544 0.4686463929
23700157800.0 -0.8984262521 0.4826585134
23750157500.0 -0.8892917772 0.4972204249
23800157200.0 -0.8796228273 0.5105953845
23850156900.0 -0.8696972231 0.5230593708
23900156600.0 -0.8599364371 0.5357415895
23950156300.0 -0.8509839308 0.548100416
24000156000.0 -0.8414317552 0.5605959587
24050155700.0 -0.8304027221 0.5724028815
24100155400.0 -0.820160769 0.5850510348
24150155100.0 -0.8087605348 0.5974641136
24200154800.0 -0.798333589 0.6093282613
24250154500.0 -0.7871913777 0.621321631
24300154200.0 -0.7754769612 0.6337926011
24350153900.0 -0.7630847397 0.6447715939
24400153600.0 -0.7504021599 0.6553304418
24450153300.0 -0.738468876 0.6655508811
24500153000.0 -0.7266523848 0.6752905832
24550152700.0 -0.715784134 0.6857293923
24600152400.0 -0.7038815929 0.6950704334
24650152100.0 -0.6911843996 0.7037423685
