!Created with skrf (http://scikit-rf.org).
# Hz S RI R 50.0 
!freq ReS11 ImS11
300000.0 -0.9783049793 -0.1086104968
50299700.0 -1.00011706 0.0158979672
100299400.0 -0.9981833295 0.0289295118
150299100.0 -1.002876951 0.045742071
200298800.0 -0.999547167 0.0590165455
250298500.0 -0.9974022381 0.0724210734
300298200.0 -0.9860578746 0.0883532088
350297900.0 -0.9940127136 0.0992579793
400297600.0 -0.9930905256 0.1157207973
450297300.0 -0.991092018 0.1296300942
500297000.0 -0.9896169011 0.1445692658
550296700.0 -0.9842957559 0.1567410714
600296400.0 -1.017432107 0.1902445973
650296100.0 -0.982000895 0.1867500613
700295800.0 -0.9792435978 0.2010884783
750295500.0 -0.976140956 0.2150461105
800295200.0 -0.9729016093 0.2293080387
850294900.0 -0.9695057714 0.2429391073
900294600.0 -0.9656522099 0.2568193097
950294300.0 -0.9617209926 0.2705063257
1000294000.0 -0.9577732409 0.2844741429
1050293700.0 -0.9534937399 0.2982343719
1100293400.0 -0.9491360498 0.312737376
1150293100.0 -0.945167822 0.3247872994
1200292800.0 -0.9398505501 0.3387861535
1250292500.0 -0.9345401444 0.3523025714
1300292200.0 -0.9288741723 0.365405738
1350291900.0 -0.92327753 0.3796406588
1400291600.0 -0.9177720321 0.3925905845
1450291300.0 -0.9120277878 0.4050621045
1500291000.0 -0.9059012959 0.4184400981
1550290700.0 -0.8994625516 0.4318938649
1600290400.0 -0.8930309723 0.4446243407
1650290100.0 -0.8864636497 0.4566589915
1700289800.0 -0.8796286591 0.4701610411
1750289500.0 -0.8727922664 0.4824858443
1800289200.0 -0.8650290481 0.4952567205
1850288900.0 -0.8586209524 0.5068218105
1900288600.0 -0.8508210774 0.5196664969
1950288300.0 -0.842369372 0.532191406
2000288000.0 -0.8352680327 0.5437268186
2050287700.0 -0.8268577657 0.5558092335
2100287400.0 -0.8189173853 0.5677140456
2150287100.0 -0.81030985 0.5797280999
2200286800.0 -0.8024744751 0.5898827536
2250286500.0 -0.7938225628 0.6022689663
2300286200.0 -0.7847769675 0.6138636264
2350285900.0 -0.7759530522 0.6249065376
2400285600.0 -0.7668750381 0.6359804228
2450285300.0 -0.7581966605 0.6462069006
2500285000.0 -0.7486459193 0.6574847931
2550284700.0 -0.7397459299 0.6676916113
2600284400.0 -0.7303435582 0.6778001412
2650284100.0 -0.7210660707 0.6884239284
2700283800.0 -0.710529595 0.6989880333
2750283500.0 -0.7002940248 0.7093298978
2800283200.0 -0.6904587935 0.7192249263
2850282900.0 -0.6805439366 0.7292042636
2900282600.0 -0.6700427618 0.7387455495
2950282300.0 -0.6598471953 0.7476515558
3000282000.0 -0.6491681756 0.757312739
3050281700.0 -0.6379651009 0.7666147747
3100281400.0 -0.6259290227 0.7760405698
3150281100.0 -0.6142153227 0.7853119735
3200280800.0 -0.6026829046 0.793934175
3250280500.0 -0.591824738 0.8015644343
3300280200.0 -0.5806052743 0.8093618228
3350279900.0 -0.5690912638 0.816931206
3400279600.0 -0.5568764763 0.824688792
3450279300.0 -0.5458299858 0.8316367836
3500279000.0 -0.5338756653 0.8386848415
3550278700.0 -0.5213804647 0.8461312434
3600278400.0 -0.5091862375 0.8531770955
3650278100.0 -0.4958555902 0.8608528949
3700277800.0 -0.4837553566 0.8673894813
3750277500.0 -0.4714315587 0.8737812865
3800277200.0 -0.4590840921 0.8804316442
3850276900.0 -0.4467939619 0.8863104617
3900276600.0 -0.4361192985 0.8918461551
3950276300.0 -0.4235984605 0.8981022311
4000276000.0 -0.4115875774 0.9038962077
4050275700.0 -0.3985031268 0.9099859781
4100275400.0 -0.3873711776 0.9153889249
4150275100.0 -0.3746611819 0.9210427956
4200274800.0 -0.3614533304 0.9265120299
4250274500.0 -0.3494169132 0.9316746625
4300274200.0 -0.3364246316 0.937076907
4350273900.0 -0.3224793988 0.942136735
4400273600.0 -0.307774487 0.9473535968
4450273300.0 -0.2922866207 0.9524176884
4500273000.0 -0.2786443537 0.9569221105
4550272700.0 -0.2644733803 0.9612761805
4600272400.0 -0.2489518077 0.9652353044
4650272100.0 -0.2374367338 0.9685164857
4700271800.0 -0.223860889 0.9717499585
4750271500.0 -0.2124662811 0.9746357673
4800271200.0 -0.1997763089 0.9774346159
4850270900.0 -0.1857146565 0.9803135129
4900270600.0 -0.172021943 0.9825672318
4950270300.0 -0.1578901089 0.9852501773
5000270000.0 -0.1436577075 0.9872220239
5050269700.0 -0.1302668385 0.9891366467
5100269400.0 -0.1167223361 0.9903830563
5150269100.0 -0.1032840976 0.9921590832
5200268800.0 -0.0899977651 0.9928816317
5250268500.0 -0.0767954144 0.9940903853
5300268200.0 -0.0638854174 0.9948760216
5350267900.0 -0.0517916485 0.9953887426
5400267600.0 -0.0354420136 0.9965851684
5450267300.0 -0.0224024436 0.99656412
5500267000.0 -0.0074353652 0.9970843404
5550266700.0 0.0078751701 0.9972652023
5600266400.0 0.0235831097 0.9973061197
5650266100.0 0.0397694269 0.9968158933
5700265800.0 0.05443883 0.9961586561
5750265500.0 0.0694411823 0.9954515732
5800265200.0 0.0834396155 0.994064638
5850264900.0 0.0971201738 0.9936139091
5900264600.0 0.1135214366 0.9917529911
5950264300.0 0.1254808727 0.9900014617
6000264000.0 0.1397129655 0.9881147612
6050263700.0 0.1522698716 0.9866247953
6100263400.0 0.1643009514 0.9844976536
6150263100.0 0.178988973 0.9821808246
6200262800.0 0.1896514188 0.9807266314
6250262500.0 0.2018556708 0.9781187471
6300262200.0 0.2151139002 0.9751601879
6350261900.0 0.2282040775 0.9722831911
6400261600.0 0.241978523 0.969014892
6450261300.0 0.253295936 0.966286419
6500261000.0 0.2661754306 0.9625884731
6550260700.0 0.2791683483 0.958658657
6600260400.0 0.2921580555 0.9547119862
6650260100.0 0.306171689 0.9502441484
6700259800.0 0.3183416601 0.9461614539
6750259500.0 0.3321550421 0.9414691297
6800259200.0 0.3452947411 0.9364797058
6850258900.0 0.3570034427 0.9311192824
6900258600.0 0.3688890137 0.9259978774
6950258300.0 0.3816330821 0.9210304308
7000258000.0 0.3937425225 0.9153590568
7050257700.0 0.4060591551 0.9095371974
7100257400.0 0.41861763 0.9032553454
7150257100.0 0.4290476988 0.897926235
7200256800.0 0.4418254429 0.8916524938
7250256500.0 0.4535712244 0.8850218736
7300256200.0 0.4663520056 0.8782018605
7350255900.0 0.4792139564 0.8713178726
7400255600.0 0.4923168536 0.8643303369
7450255300.0 0.5075298433 0.8551325077
7500255000.0 0.5191527682 0.8479736191
7550254700.0 0.5330449234 0.8394683321
7600254400.0 0.5455220313 0.8312416927
7650254100.0 0.5571261053 0.8235104237
7700253800.0 0.569163202 0.8153290339
7750253500.0 0.5804338605 0.8077403394
7800253200.0 0.5910188612 0.7998200463
7850252900.0 0.6008374899 0.7927690161
7900252600.0 0.6124617175 0.7840656859
7950252300.0 0.6213304749 0.7774674009
8000252000.0 0.6316529924 0.7696499597
8050251700.0 0.6420171108 0.7614074005
8100251400.0 0.6520181244 0.7532799955
8150251100.0 0.6620117639 0.7446278577
8200250800.0 0.6715831778 0.7366158921
8250250500.0 0.6808532677 0.7287140177
8300250200.0 0.6900201964 0.720102116
8350249900.0 0.6986768691 0.7112690783
8400249600.0 0.7072552657 0.7033486501
8450249300.0 0.7163440001 0.6941083897
8500249000.0 0.7248532061 0.6853314685
8550248700.0 0.73313057 0.6762931258
8600248400.0 0.7415318218 0.6667166939
8650248100.0 0.7494898606 0.6573478075
8700247800.0 0.7589182003 0.646258676
8750247500.0 0.7670481586 0.6360685935
8800247200.0 0.7752345841 0.6256181184
8850246900.0 0.7838200411 0.6141749053
8900246600.0 0.79256016 0.602846869
8950246300.0 0.8022275578 0.5901092655
9000246000.0 0.8112790506 0.5771497873
9050245700.0 0.8204043397 0.5639601423
9100245400.0 0.8289083998 0.5517171643
9150245100.0 0.8382020018 0.5381398469
9200244800.0 0.8482152558 0.5228185309
9250244500.0 0.8574927724 0.5070191485
9300244200.0 0.8661067323 0.4922976252
9350243900.0 0.8738136328 0.4785205335
9400243600.0 0.8804553768 0.4660278824
9450243300.0 0.8863016182 0.4543081624
9500243000.0 0.892487401 0.4421102722
9550242700.0 0.8962147102 0.4345058592
9600242400.0 0.9000748125 0.4270019878
9650242100.0 0.9037560727 0.4205775745
9700241800.0 0.9083121724 0.4125438268
9750241500.0 0.9122859659 0.4047777446
9800241200.0 0.9171400387 0.3956446248
9850240900.0 0.9227154345 0.384126856
9900240600.0 0.9281691141 0.3725426021
9950240300.0 0.9349350669 0.3560617778
10000240000.0 0.9395159842 0.3443825461
10050239700.0 0.9449692862 0.3293231216
10100239400.0 0.949884772 0.3140050311
10150239100.0 0.9543916141 0.2992888945
10200238800.0 0.9584674738 0.2843431062
10250238500.0 0.9616936973 0.2709408131
10300238200.0 0.9650513358 0.2570359623
10350237900.0 0.9675781297 0.2440882405
10400237600.0 0.9702091337 0.2306939657
10450237300.0 0.9727934207 0.2168403192
10500237000.0 0.9748262299 0.2051365079
10550236700.0 0.9770823963 0.1913431443
10600236400.0 0.9792002001 0.1778548425
10650236100.0 0.9815971617 0.1630118055
10700235800.0 0.9833613584 0.1509547494
10750235500.0 0.9859981155 0.1374237452
10800235200.0 0.9876971283 0.1236120104
10850234900.0 0.9897752886 0.1087635715
10900234600.0 0.9917121992 0.0941803419
10950234300.0 0.9934921591 0.0810692778
11000234000.0 0.9953393918 0.0658421632
11050233700.0 0.9969200178 0.0494809772
11100233400.0 0.9985157883 0.0321708305
11150233100.0 0.9991239651 0.0164674742
11200232800.0 0.9999734215 0.0006882069
11250232500.0 1.001353629 -0.0162310381
11300232200.0 1.00195211 -0.0345252934
11350231900.0 1.001997964 -0.049359234
11400231600.0 1.001289134 -0.0655173089
11450231300.0 1.00034132 -0.0811219585
11500231000.0 0.9999490328 -0.0980020501
11550230700.0 0.9981303947 -0.111016185
11600230400.0 0.996815903 -0.1234151628
11650230100.0 0.9948966747 -0.1354044868
11700229800.0 0.9928284487 -0.1493572375
11750229500.0 0.9903769494 -0.1643709467
11800229200.0 0.9877831617 -0.1781430309
11850228900.0 0.9839120191 -0.1902300313
11900228600.0 0.9804891737 -0.2002339612
11950228300.0 0.9772434176 -0.2106766048
12000228000.0 0.9741073825 -0.2194613552
12050227700.0 0.9710550675 -0.2318819545
12100227400.0 0.9678312777 -0.2432129565
12150227100.0 0.9628359543 -0.2600444718
12200226800.0 0.9588351743 -0.2705665352
12250226500.0 0.9554434766 -0.2840881821
12300226200.0 0.9510925192 -0.2964460193
12350225900.0 0.9456359716 -0.3090792116
12400225600.0 0.941628422 -0.3223060128
12450225300.0 0.9371921723 -0.3348743143
12500225000.0 0.9317166066 -0.3493638761
12550224700.0 0.9266337156 -0.3632924012
12600224400.0 0.9217666413 -0.3761638445
12650224100.0 0.9157220346 -0.3903244961
12700223800.0 0.9105371584 -0.4030890525
12750223500.0 0.9050338862 -0.4161868815
12800223200.0 0.899797617 -0.4289230097
12850222900.0 0.8942826297 -0.4409620419
12900222600.0 0.8888136053 -0.4525362182
12950222300.0 0.8825259768 -0.4655059543
13000222000.0 0.8761564337 -0.4775873177
13050221700.0 0.8697528195 -0.4902421454
13100221400.0 0.8626858747 -0.5019769986
13150221100.0 0.8560494295 -0.5140258042
13200220800.0 0.849431429 -0.5256588956
13250220500.0 0.84189484 -0.5380993421
13300220200.0 0.8342097585 -0.5488670125
13350219900.0 0.8262475927 -0.5608187122
13400219600.0 0.8179708067 -0.5730960608
13450219300.0 0.8085317877 -0.5865776136
13500219000.0 0.7976695154 -0.6006244325
13550218700.0 0.7877091784 -0.6132506293
13600218400.0 0.7776735246 -0.6255573862
13650218100.0 0.7682932481 -0.6368630656
13700217800.0 0.7557831477 -0.6494357936
13750217500.0 0.7470742797 -0.660183027
13800217200.0 0.7355431645 -0.6723779953
13850216900.0 0.7242468997 -0.6835106346
13900216600.0 0.7139586748 -0.6928567081
13950216300.0 0.7037184654 -0.7027140791
14000216000.0 0.6936707919 -0.7122176252
14050215700.0 0.684032203 -0.7206866638
14100215400.0 0.6738529996 -0.7292302298
14150215100.0 0.6649534548 -0.7378661954
14200214800.0 0.6558137316 -0.7464186505
14250214500.0 0.6455631436 -0.7555058827
14300214200.0 0.6352438708 -0.7647117018
14350213900.0 0.6243299755 -0.7742872521
14400213600.0 0.6124819466 -0.7842132992
14450213300.0 0.5992974104 -0.7942384048
14500213000.0 0.5868750976 -0.8039645444
14550212700.0 0.5741177752 -0.8129868904
14600212400.0 0.5617499555 -0.8222574917
14650212100.0 0.548418112 -0.8311674096
14700211800.0 0.5344663608 -0.8408042397
14750211500.0 0.5226941226 -0.8484545332
14800211200.0 0.5099423408 -0.8565007171
14850210900.0 0.4979583649 -0.8640751388
14900210600.0 0.4847102162 -0.8719878264
14950210300.0 0.4711477464 -0.879608769
15000210000.0 0.4581688088 -0.8865856895
15050209700.0 0.4462033382 -0.8925627213
15100209400.0 0.4334514348 -0.8985185812
15150209100.0 0.421109319 -0.9039273181
15200208800.0 0.4077395132 -0.9091462296
15250208500.0 0.3965629545 -0.9142621661
15300208200.0 0.3841815412 -0.9184943647
15350207900.0 0.3705771634 -0.9235043909
15400207600.0 0.3555913249 -0.9280949693
15450207300.0 0.3416023252 -0.9336451623
15500207000.0 0.3260664387 -0.9387943714
15550206700.0 0.3118031139 -0.9434285817
15600206400.0 0.2959490364 -0.9482216839
15650206100.0 0.2800538291 -0.9525036305
15700205800.0 0.2660907734 -0.9555058289
15750205500.0 0.2515305482 -0.9591321188
15800205200.0 0.2371389242 -0.9628207604
15850204900.0 0.2227498402 -0.9661732681
15900204600.0 0.2079793346 -0.969680307
15950204300.0 0.1936810847 -0.9727139405
16000204000.0 0.1799364642 -0.9753991025
16050203700.0 0.1646725545 -0.9782877172
16100203400.0 0.1504546691 -0.980307351
16150203100.0 0.1361503631 -0.9825862585
16200202800.0 0.1223860907 -0.9845540939
16250202500.0 0.1081372657 -0.9863086631
16300202200.0 0.0927775186 -0.9879670845
16350201900.0 0.0775107648 -0.9893494433
16400201600.0 0.0629396888 -0.9903555151
16450201300.0 0.0479816982 -0.9912624385
16500201000.0 0.0312283467 -0.9920871868
16550200700.0 0.0156682472 -0.9925583534
16600200400.0 -0.0001945051 -0.992768097
16650200100.0 -0.0163794176 -0.9925508133
16700199800.0 -0.0329924512 -0.9923807034
16750199500.0 -0.0518422089 -0.9912261642
16800199200.0 -0.0674540051 -0.9904527945
16850198900.0 -0.0833235533 -0.9892902941
16900198600.0 -0.0961823153 -0.9885045115
16950198300.0 -0.11004668 -0.9866786367
17000198000.0 -0.1229816109 -0.9849213165
17050197700.0 -0.1353907126 -0.9843755551
17100197400.0 -0.1482625416 -0.9813970578
17150197100.0 -0.1609507821 -0.9795269727
17200196800.0 -0.1737978684 -0.9779381656
17250196500.0 -0.1871611033 -0.9751201704
17300196200.0 -0.1989966497 -0.9729573208
17350195900.0 -0.2109703678 -0.9706086517
17400195600.0 -0.223178588 -0.9683505588
17450195300.0 -0.2363653228 -0.9653909349
17500195000.0 -0.249716576 -0.9618715322
17550194700.0 -0.2639059266 -0.9583348906
17600194400.0 -0.2773837805 -0.9541906699
17650194100.0 -0.291430633 -0.950536735
17700193800.0 -0.3040654362 -0.9464005676
17750193500.0 -0.3186884228 -0.9416236321
17800193200.0 -0.332768801 -0.9362276802
17850192900.0 -0.3476337868 -0.9309732106
17900192600.0 -0.3628949595 -0.9246665241
17950192300.0 -0.3785412521 -0.9175435264
18000192000.0 -0.3931632514 -0.9106719225
18050191700.0 -0.407012016 -0.9025015086
18100191400.0 -0.4211438359 -0.8948517373
18150191100.0 -0.4360790504 -0.8868049039
18200190800.0 -0.4530110837 -0.8776695246
18250190500.0 -0.4699043328 -0.8680326227
18300190200.0 -0.4852544722 -0.8592245688
18350189900.0 -0.5005362639 -0.8505557589
18400189600.0 -0.514840006 -0.8427377079
18450189300.0 -0.5281723168 -0.8347541507
18500189000.0 -0.5412784963 -0.8261991465
18550188700.0 -0.553912604 -0.8188818839
18600188400.0 -0.5654810013 -0.8119897663
18650188100.0 -0.5766322488 -0.8054812031
18700187800.0 -0.5875523118 -0.7988039647
18750187500.0 -0.5982686579 -0.7924229766
18800187200.0 -0.6090363808 -0.7851218909
18850186900.0 -0.6192590476 -0.7780856251
18900186600.0 -0.6297549109 -0.7706206672
18950186300.0 -0.6396907602 -0.7633002643
19000186000.0 -0.6470286214 -0.7567628815
19050185700.0 -0.656225072 -0.7492182854
19100185400.0 -0.6661857933 -0.7412598196
19150185100.0 -0.6770113009 -0.732443255
19200184800.0 -0.6862433555 -0.7241060053
19250184500.0 -0.697012345 -0.7145676196
19300184200.0 -0.7080611362 -0.7049286179
19350183900.0 -0.7190477398 -0.6954376768
19400183600.0 -0.7283160698 -0.685450301
19450183300.0 -0.7371533185 -0.6757807482
19500183000.0 -0.7456006132 -0.6651397007
19550182700.0 -0.7551274523 -0.6549208795
19600182400.0 -0.765497771 -0.6433630382
19650182100.0 -0.7760212031 -0.6308573813
19700181800.0 -0.7870046824 -0.6179167794
19750181500.0 -0.7971883444 -0.6037012759
19800181200.0 -0.807480694 -0.5888722625
19850180900.0 -0.8171781855 -0.5734743434
19900180600.0 -0.8249626118 -0.5589908709
19950180300.0 -0.8340285855 -0.5426102864
20000180000.0 -0.8266654162 -0.5448469316
20050179700.0 -0.8347446177 -0.5325216251
20100179400.0 -0.8435051409 -0.518028014
20150179100.0 -0.8517669833 -0.5058594763
20200178800.0 -0.8605244364 -0.4929111871
20250178500.0 -0.8693172235 -0.4797620313
20300178200.0 -0.879604593 -0.4649734888
20350177900.0 -0.8884179948 -0.4504601186
20400177600.0 -0.8972224125 -0.4356857387
20450177300.0 -0.9055996867 -0.4216539153
20500177000.0 -0.913457007 -0.4077133726
20550176700.0 -0.9213420769 -0.3937073569
20600176400.0 -0.9282963533 -0.3805836276
20650176100.0 -0.9350548936 -0.3681043251
20700175800.0 -0.9412989042 -0.3556950003
20750175500.0 -0.948415096 -0.3448168342
20800175200.0 -0.9536739471 -0.3338292438
20850174900.0 -0.9584723192 -0.3222760839
20900174600.0 -0.9629174513 -0.3108897313
20950174300.0 -0.9669594863 -0.2994769366
21000174000.0 -0.9702809963 -0.2876978533
21050173700.0 -0.9734686289 -0.2766003479
21100173400.0 -0.976594838 -0.2653898959
21150173100.0 -0.9808020089 -0.2522333955
21200172800.0 -0.9849760428 -0.2379866725
21250172500.0 -0.9876129942 -0.2249809321
21300172200.0 -0.9903492961 -0.2103821293
21350171900.0 -0.9920806213 -0.1960508541
21400171600.0 -0.9937510564 -0.1816639456
21450171300.0 -0.9933206472 -0.1670612165
21500171000.0 -0.994313614 -0.1514949072
21550170700.0 -0.9930264244 -0.1368229264
21600170400.0 -0.9935925365 -0.1212573775
21650170100.0 -0.9926188278 -0.105039215
21700169800.0 -0.9891600092 -0.0890680174
21750169500.0 -0.9886224201 -0.0747455041
21800169200.0 -0.9881438091 -0.0573938581
21850168900.0 -0.986462041 -0.040559826
21900168600.0 -0.9853605697 -0.0245308703
21950168300.0 -0.9842061505 -0.0098783463
22000168000.0 -0.9829417577 0.0052754083
22050167700.0 -0.9828817862 0.0196561569
22100167400.0 -0.9827579058 0.0349273186
22150167100.0 -0.9832402445 0.0505315813
22200166800.0 -0.9834635658 0.0669665593
22250166500.0 -0.982866688 0.0835192219
22300166200.0 -0.9823426255 0.1004315107
22350165900.0 -0.9811831134 0.1170483652
22400165600.0 -0.9794054816 0.1320960385
22450165300.0 -0.9771853918 0.1471170351
22500165000.0 -0.9744719572 0.161735995
22550164700.0 -0.9739541853 0.177091473
22600164400.0 -0.9727258249 0.1914555363
22650164100.0 -0.9704034883 0.2068764105
22700163800.0 -0.9684094048 0.2228404072
22750163500.0 -0.9649858689 0.2374308608
22800163200.0 -0.9623056533 0.250979354
22850162900.0 -0.9599173258 0.264909788
22900162600.0 -0.9586009298 0.2781640782
22950162300.0 -0.9574111681 0.291039534
23000162000.0 -0.9566303387 0.3026755874
23050161700.0 -0.9541559699 0.3155691838
23100161400.0 -0.9522495606 0.3282381604
23150161100.0 -0.9490736991 0.340405096
23200160800.0 -0.9468978181 0.3525727047
23250160500.0 -0.943924373 0.3642243326
23300160200.0 -0.9411253074 0.3765131819
23350159900.0 -0.9380542449 0.3897196472
23400159600.0 -0.9326035067 0.4030073366
23450159300.0 -0.9280010746 0.4150558156
23500159000.0 -0.9236935266 0.4285248518
23550158700.0 -0.919039221 0.4416626593
23600158400.0 -0.913323068 0.4549833142
23650158100.0 -0.9073102937 0.4688494513
23700157800.0 -0.8995193498 0.4827597304
23750157500.0 -0.891204827 0.4968144173
23800157200.0 -0.8823857593 0.5096236012
23850156900.0 -0.8735423891 0.5220721999
23900156600.0 -0.8641284242 0.5349706256
23950156300.0 -0.8545871686 0.5470673036
24000156000.0 -0.8459850882 0.5592654084
24050155700.0 -0.8352689103 0.5701181575
24100155400.0 -0.8263601164 0.5828432817
24150155100.0 -0.8156731166 0.5949743331
24200154800.0 -0.8037035566 0.6060496935
24250154500.0 -0.7924325459 0.6178532173
24300154200.0 -0.7814856815 0.6293955709
24350153900.0 -0.7691801064 0.6401644458
24400153600.0 -0.757190818 0.650073841
24450153300.0 -0.7451643505 0.6599851119
24500153000.0 -0.7335272609 0.6697695198
24550152700.0 -0.7221177441 0.6790727431
24600152400.0 -0.7104653451 0.6881346627
24650152100.0 -0.6992245312 0.6969097454
