!Created with skrf (http://scikit-rf.org).
# Hz S RI R 50.0 
!freq ReS11 ImS11
300000.0 -0.9754709348 -0.120077405
50299700.0 -1.000036177 0.0152994865
100299400.0 -0.9980475333 0.0281807986
150299100.0 -1.002703269 0.0450446935
200298800.0 -0.9997650299 0.0585218223
250298500.0 -0.9975070199 0.0720074203
300298200.0 -0.9859268357 0.0877339913
350297900.0 -0.9942130333 0.0988054424
400297600.0 -0.9933716075 0.1150240751
450297300.0 -0.9909910635 0.1286962558
500297000.0 -0.9895360004 0.1435867537
550296700.0 -0.9843495544 0.1559692034
600296400.0 -1.017213067 0.1895920738
650296100.0 -0.9822163968 0.1860092143
700295800.0 -0.9793045532 0.2002165542
750295500.0 -0.9761360533 0.214230753
800295200.0 -0.9731200587 0.2284608138
850294900.0 -0.9698011581 0.2421649065
900294600.0 -0.9658317873 0.2561617784
950294300.0 -0.9621537274 0.2697079656
1000294000.0 -0.9580878022 0.2836364231
1050293700.0 -0.9538504395 0.2974213262
1100293400.0 -0.9493284294 0.311702665
1150293100.0 -0.9455645336 0.3236826273
1200292800.0 -0.9401911455 0.3380766171
1250292500.0 -0.9348401235 0.3514271537
1300292200.0 -0.9289956254 0.3648755297
1350291900.0 -0.9234725317 0.3787131376
1400291600.0 -0.9180100026 0.3918256172
1450291300.0 -0.9123626602 0.4042410255
1500291000.0 -0.9062177043 0.4176592932
1550290700.0 -0.8996445205 0.4309296441
1600290400.0 -0.8934619973 0.4437762525
1650290100.0 -0.8867789223 0.4560011364
1700289800.0 -0.8801559349 0.469468331
1750289500.0 -0.8727704838 0.4816401389
1800289200.0 -0.8654367164 0.4947190199
1850288900.0 -0.8587658688 0.5061284686
1900288600.0 -0.8511383307 0.5188873499
1950288300.0 -0.8429764891 0.5316066106
2000288000.0 -0.8355431254 0.5429079611
2050287700.0 -0.8271291326 0.5553215517
2100287400.0 -0.8191739973 0.5669176527
2150287100.0 -0.8107869117 0.5790335823
2200286800.0 -0.8030539511 0.5893236276
2250286500.0 -0.7943465977 0.6014252759
2300286200.0 -0.7853718495 0.6130504044
2350285900.0 -0.7765815008 0.6238531581
2400285600.0 -0.7676773991 0.6349204927
2450285300.0 -0.758949821 0.6454534698
2500285000.0 -0.7493039962 0.6566112825
2550284700.0 -0.7403440242 0.6668700901
2600284400.0 -0.7310587701 0.6771712646
2650284100.0 -0.7218607914 0.687575221
2700283800.0 -0.7116219947 0.6981426668
2750283500.0 -0.7013868549 0.7087630068
2800283200.0 -0.6914317124 0.7183797094
2850282900.0 -0.6813018105 0.7282494063
2900282600.0 -0.6705771009 0.737940829
2950282300.0 -0.660619852 0.7472728894
3000282000.0 -0.6499650085 0.7567396146
3050281700.0 -0.6385870771 0.7660419443
3100281400.0 -0.6269063856 0.7753669994
3150281100.0 -0.6151542438 0.7844969133
3200280800.0 -0.603339467 0.7931813619
3250280500.0 -0.5925413377 0.8009835173
3300280200.0 -0.5814006057 0.8087679047
3350279900.0 -0.5696278085 0.816364761
3400279600.0 -0.5574182902 0.8241848215
3450279300.0 -0.5462166265 0.831223631
3500279000.0 -0.5342825945 0.8383478319
3550278700.0 -0.5220907991 0.8455500529
3600278400.0 -0.5098608397 0.8526614242
3650278100.0 -0.4965508196 0.8601317722
3700277800.0 -0.4845701043 0.8666984965
3750277500.0 -0.4723034538 0.8732250678
3800277200.0 -0.4600563043 0.8799985883
3850276900.0 -0.4478898144 0.8856906236
3900276600.0 -0.4368938334 0.8914724639
3950276300.0 -0.424603967 0.8972215235
4000276000.0 -0.4124755315 0.9034857053
4050275700.0 -0.3998571941 0.9096070591
4100275400.0 -0.3885966103 0.9149702695
4150275100.0 -0.375764307 0.9204177909
4200274800.0 -0.3629655139 0.9262622756
4250274500.0 -0.3507133798 0.9312829168
4300274200.0 -0.3374524892 0.9366378229
4350273900.0 -0.323666044 0.9419882938
4400273600.0 -0.3089609451 0.9470657619
4450273300.0 -0.2935606078 0.9521010518
4500273000.0 -0.2800217472 0.9565294122
4550272700.0 -0.2659399769 0.9607139684
4600272400.0 -0.2503918035 0.9651169063
4650272100.0 -0.2388941766 0.9681404301
4700271800.0 -0.2255162656 0.9715133044
4750271500.0 -0.2138544417 0.9744855058
4800271200.0 -0.2013443907 0.9771367681
4850270900.0 -0.1874831667 0.979948382
4900270600.0 -0.1736112095 0.982397599
4950270300.0 -0.1593243084 0.9850599599
5000270000.0 -0.145005999 0.9872777897
5050269700.0 -0.1315851209 0.9886328903
5100269400.0 -0.1177918991 0.990074925
5150269100.0 -0.1043975547 0.9922589159
5200268800.0 -0.0910331617 0.9929012851
5250268500.0 -0.0778913987 0.9937056659
5300268200.0 -0.0648038735 0.9945668268
5350267900.0 -0.0526082719 0.9952164208
5400267600.0 -0.0363751237 0.9962026347
5450267300.0 -0.0230793764 0.9965891531
5500267000.0 -0.0080143028 0.9972374979
5550266700.0 0.0067505371 0.9973319742
5600266400.0 0.0225063736 0.9972277316
5650266100.0 0.0389531266 0.9971138284
5700265800.0 0.0533034838 0.996222129
5750265500.0 0.0685584696 0.9955125105
5800265200.0 0.0824800285 0.9942989268
5850264900.0 0.0959311596 0.9935282595
5900264600.0 0.1122328629 0.9916435233
5950264300.0 0.1241413682 0.9900250866
6000264000.0 0.1382663808 0.9880819753
6050263700.0 0.1502765247 0.986787636
6100263400.0 0.1629823804 0.9851678043
6150263100.0 0.1773823068 0.9828848037
6200262800.0 0.1878681003 0.9810286915
6250262500.0 0.2005739609 0.9787182906
6300262200.0 0.2131636542 0.9757487945
6350261900.0 0.2262888651 0.9729239384
6400261600.0 0.2400689939 0.9693783597
6450261300.0 0.2513685223 0.9670693539
6500261000.0 0.2641874702 0.963296398
6550260700.0 0.2773979417 0.9596224188
6600260400.0 0.2906771737 0.9553523219
6650260100.0 0.3048397008 0.9510687704
6700259800.0 0.316610229 0.946477273
6750259500.0 0.3307942537 0.942063166
6800259200.0 0.3434370677 0.9368418349
6850258900.0 0.3557017922 0.9314695958
6900258600.0 0.368082811 0.926553407
6950258300.0 0.3804905805 0.9213699134
7000258000.0 0.3924755625 0.91594648
7050257700.0 0.4046770114 0.9097995872
7100257400.0 0.417459976 0.9035326087
7150257100.0 0.4280384069 0.8981991476
7200256800.0 0.4407166267 0.891921455
7250256500.0 0.4529987078 0.885612634
7300256200.0 0.4658553399 0.8788264663
7350255900.0 0.4783515192 0.8717077474
7400255600.0 0.4917486635 0.8648105861
7450255300.0 0.5072610895 0.8557384611
7500255000.0 0.5188224736 0.8483904872
7550254700.0 0.5329464738 0.8398180472
7600254400.0 0.5458020741 0.831594074
7650254100.0 0.5566617474 0.8236881925
7700253800.0 0.5687661313 0.8157737345
7750253500.0 0.5798805796 0.8079394152
7800253200.0 0.5903682433 0.8003260119
7850252900.0 0.6002309574 0.7932028704
7900252600.0 0.6120201354 0.7846325709
7950252300.0 0.6205954208 0.7779508253
8000252000.0 0.6309312187 0.7703643884
8050251700.0 0.6413948969 0.7622202128
8100251400.0 0.6513343504 0.7540253444
8150251100.0 0.6614782554 0.7456027613
8200250800.0 0.6708174173 0.7375563419
8250250500.0 0.6797385926 0.7296375556
8300250200.0 0.6889763918 0.7208479481
8350249900.0 0.6981761059 0.7122644684
8400249600.0 0.7065037805 0.7042597612
8450249300.0 0.7154788581 0.6950009063
8500249000.0 0.7242311792 0.6863511794
8550248700.0 0.7321308154 0.6771687348
8600248400.0 0.7407384813 0.6675225595
8650248100.0 0.7485053667 0.6581491254
8700247800.0 0.7579228009 0.6469114912
8750247500.0 0.7661813801 0.6368528385
8800247200.0 0.7741571211 0.6265327454
8850246900.0 0.7834624189 0.6149890395
8900246600.0 0.7917919375 0.6038685204
8950246300.0 0.801110405 0.5906196677
9000246000.0 0.8106902132 0.5779899008
9050245700.0 0.8195104422 0.5654929625
9100245400.0 0.8277947299 0.5529527328
9150245100.0 0.8373592742 0.5394919437
9200244800.0 0.846813623 0.5245062762
9250244500.0 0.8562567366 0.5088458183
9300244200.0 0.8645754235 0.4945606669
9350243900.0 0.8722687511 0.480896606
9400243600.0 0.8791283377 0.4684775465
9450243300.0 0.8848909601 0.4570392281
9500243000.0 0.8912012786 0.4450429409
9550242700.0 0.8949942344 0.4372570662
9600242400.0 0.8989717343 0.4299268958
9650242100.0 0.9023874214 0.4235700089
9700241800.0 0.9074548191 0.4150150767
9750241500.0 0.9112979986 0.4075970824
9800241200.0 0.9158579836 0.3981517164
9850240900.0 0.9217869735 0.3867011557
9900240600.0 0.9278607695 0.3749904004
9950240300.0 0.9342105317 0.3586559616
10000240000.0 0.9389403005 0.3474739555
10050239700.0 0.9444153368 0.3320260262
10100239400.0 0.9497015696 0.3161439321
10150239100.0 0.9539230086 0.3015939617
10200238800.0 0.957990782 0.2864515136
10250238500.0 0.9614604405 0.2730325021
10300238200.0 0.964746766 0.2590608632
10350237900.0 0.967091419 0.2459158594
10400237600.0 0.9697401263 0.2328245771
10450237300.0 0.9724918601 0.2189782829
10500237000.0 0.974608429 0.2071330115
10550236700.0 0.9771068417 0.1924000983
10600236400.0 0.979063083 0.1790985622
10650236100.0 0.9814198483 0.1640846338
10700235800.0 0.9834404196 0.1515677417
10750235500.0 0.9855244248 0.1390820155
10800235200.0 0.9876081939 0.1241600733
10850234900.0 0.9897396123 0.1099818333
10900234600.0 0.991764403 0.094983383
10950234300.0 0.993349639 0.0818386849
11000234000.0 0.995351807 0.0667437332
11050233700.0 0.9970586205 0.0503739311
11100233400.0 0.9984209093 0.0332133689
11150233100.0 0.9993615108 0.0167119404
11200232800.0 1.000476539 0.0013101525
11250232500.0 1.001250011 -0.0152925744
11300232200.0 1.00187368 -0.0334436988
11350231900.0 1.001310586 -0.0486599494
11400231600.0 1.001893391 -0.0646362641
11450231300.0 1.000941469 -0.0800625441
11500231000.0 1.000285195 -0.0964452397
11550230700.0 0.9986913681 -0.110583044
11600230400.0 0.9974710038 -0.1223722549
11650230100.0 0.995400706 -0.1334419207
11700229800.0 0.9930787123 -0.1485418905
11750229500.0 0.9907911886 -0.1628799562
11800229200.0 0.9881900214 -0.1767592186
11850228900.0 0.9846959412 -0.1885901024
11900228600.0 0.98120033 -0.1985441816
11950228300.0 0.9777983067 -0.2083921133
12000228000.0 0.9753369729 -0.2170874478
12050227700.0 0.9715138584 -0.2308869142
12100227400.0 0.9674732538 -0.2422425054
12150227100.0 0.9628420171 -0.2589493263
12200226800.0 0.9593860131 -0.2691860519
12250226500.0 0.9554167582 -0.2815400461
12300226200.0 0.9515288253 -0.2937867589
12350225900.0 0.9466821959 -0.3085219162
12400225600.0 0.9420267876 -0.3205544361
12450225300.0 0.9375424171 -0.3343196369
12500225000.0 0.932266919 -0.3487015965
12550224700.0 0.9270796961 -0.3623340992
12600224400.0 0.9219341772 -0.3753138375
12650224100.0 0.9160582816 -0.38980931
12700223800.0 0.9106792611 -0.4026648201
12750223500.0 0.9052708702 -0.4156147878
12800223200.0 0.8999884544 -0.4282834354
12850222900.0 0.8944107552 -0.4405352183
12900222600.0 0.8889294329 -0.4525438715
12950222300.0 0.8823944243 -0.465606028
13000222000.0 0.8766203332 -0.4766146907
13050221700.0 0.8697909157 -0.4895757167
13100221400.0 0.8633002411 -0.5013912628
13150221100.0 0.8566843351 -0.5136083335
13200220800.0 0.8494577528 -0.5251519061
13250220500.0 0.8423827157 -0.5373494436
13300220200.0 0.8348077526 -0.5482315604
13350219900.0 0.8267818761 -0.5599920263
13400219600.0 0.8184072653 -0.5721445124
13450219300.0 0.8089831721 -0.585617235
13500219000.0 0.7990905937 -0.5992180463
13550218700.0 0.7890873941 -0.6116549837
13600218400.0 0.7784023088 -0.6240546721
13650218100.0 0.7689272149 -0.635152557
13700217800.0 0.757806571 -0.6472037819
13750217500.0 0.7485411056 -0.6586973138
13800217200.0 0.7370175909 -0.6703304181
13850216900.0 0.7268136702 -0.6809191427
13900216600.0 0.7159971855 -0.6905611662
13950216300.0 0.7053416306 -0.7006129439
14000216000.0 0.6956047054 -0.7092785327
14050215700.0 0.6860464549 -0.7184427874
14100215400.0 0.6760945254 -0.7275057343
14150215100.0 0.6669915783 -0.7360403887
14200214800.0 0.6574765873 -0.7448575162
14250214500.0 0.6471856607 -0.7542090672
14300214200.0 0.6367279833 -0.7635518887
14350213900.0 0.6256754906 -0.7730221642
14400213600.0 0.6137670604 -0.7829136241
14450213300.0 0.6007162313 -0.7930918694
14500213000.0 0.5874963872 -0.8032502789
14550212700.0 0.5755404208 -0.8125977316
14600212400.0 0.562881397 -0.8213248068
14650212100.0 0.549852855 -0.8301248754
14700211800.0 0.5356007555 -0.8392791112
14750211500.0 0.5239431535 -0.847815431
14800211200.0 0.5118351519 -0.8558381662
14850210900.0 0.4994860423 -0.8631913798
14900210600.0 0.4861380456 -0.8712576052
14950210300.0 0.4729118856 -0.8790151629
15000210000.0 0.4602401614 -0.8856877057
15050209700.0 0.4480136739 -0.8919383808
15100209400.0 0.4353255776 -0.8975988563
15150209100.0 0.4228762775 -0.9034631987
15200208800.0 0.4106021866 -0.9086375107
15250208500.0 0.3983209346 -0.913228861
15300208200.0 0.3863735512 -0.9175931741
15350207900.0 0.373772642 -0.9228679238
15400207600.0 0.3584437933 -0.9279362054
15450207300.0 0.344290968 -0.9324948449
15500207000.0 0.3297961007 -0.9374737788
15550206700.0 0.3147072306 -0.9421653467
15600206400.0 0.2983080702 -0.9473047635
15650206100.0 0.2835414637 -0.9514686932
15700205800.0 0.2693283843 -0.9548712751
15750205500.0 0.2548755522 -0.958230789
15800205200.0 0.2404811031 -0.9620824779
15850204900.0 0.226132681 -0.9654463669
15900204600.0 0.2108761163 -0.9689704444
15950204300.0 0.1969567596 -0.971936892
16000204000.0 0.1827859365 -0.9751791072
16050203700.0 0.167654472 -0.9777833168
16100203400.0 0.153072146 -0.9799667509
16150203100.0 0.1388219655 -0.9822194077
16200202800.0 0.1246196928 -0.9848319979
16250202500.0 0.10992269 -0.986228313
16300202200.0 0.0941601801 -0.9875323765
16350201900.0 0.0790797538 -0.9889147711
16400201600.0 0.0646204264 -0.9901692073
16450201300.0 0.0493165531 -0.9913447057
16500201000.0 0.0327843142 -0.9921428715
16550200700.0 0.0171070413 -0.9926371378
16600200400.0 0.0012903708 -0.9928283
16650200100.0 -0.0147316675 -0.9926486833
16700199800.0 -0.0308227655 -0.9925602564
16750199500.0 -0.0494851039 -0.991850042
16800199200.0 -0.0649411983 -0.9911822585
16850198900.0 -0.0806120488 -0.9896625782
16900198600.0 -0.0945458982 -0.9883879983
16950198300.0 -0.1077676185 -0.9876433278
17000198000.0 -0.1212293461 -0.9864621168
17050197700.0 -0.133800625 -0.9838469015
17100197400.0 -0.1465897462 -0.9822258973
17150197100.0 -0.1593195345 -0.9801159158
17200196800.0 -0.1718932578 -0.9781817734
17250196500.0 -0.1846487447 -0.9757524469
17300196200.0 -0.197166149 -0.9735421925
17350195900.0 -0.2088289655 -0.9711723142
17400195600.0 -0.220945754 -0.9688412864
17450195300.0 -0.2341809542 -0.9659845067
17500195000.0 -0.2474828275 -0.962572381
17550194700.0 -0.2615460967 -0.9593157527
17600194400.0 -0.2752994659 -0.9549776381
17650194100.0 -0.2893986759 -0.9511735002
17700193800.0 -0.3018552067 -0.9469798343
17750193500.0 -0.3168295545 -0.9419430024
17800193200.0 -0.3306646973 -0.9369539684
17850192900.0 -0.3457569997 -0.9317303989
17900192600.0 -0.3610795235 -0.9257080293
17950192300.0 -0.3765916553 -0.9185688703
18000192000.0 -0.3912682873 -0.9112756201
18050191700.0 -0.4053790328 -0.9034863205
18100191400.0 -0.4194480836 -0.8957486359
18150191100.0 -0.4344665909 -0.8878568621
18200190800.0 -0.4512576241 -0.8782734796
18250190500.0 -0.4683549855 -0.8689023276
18300190200.0 -0.4838639082 -0.8600924021
18350189900.0 -0.4988827708 -0.8520414086
18400189600.0 -0.5131243363 -0.8437343915
18450189300.0 -0.5263005354 -0.836176363
18500189000.0 -0.5396995147 -0.8275538695
18550188700.0 -0.5526615191 -0.8199470509
18600188400.0 -0.564411507 -0.8137920885
18650188100.0 -0.5754287496 -0.8071797578
18700187800.0 -0.5860262507 -0.8003774501
18750187500.0 -0.5969731596 -0.7939082737
18800187200.0 -0.607437194 -0.7869459598
18850186900.0 -0.6177257106 -0.7800064719
18900186600.0 -0.6279253941 -0.7726389989
18950186300.0 -0.6379448099 -0.7650896187
19000186000.0 -0.6448177309 -0.7588063677
19050185700.0 -0.6548424901 -0.7517257633
19100185400.0 -0.6643483482 -0.743524576
19150185100.0 -0.6743275571 -0.735299933
19200184800.0 -0.6834954291 -0.7268738854
19250184500.0 -0.6937268979 -0.7176026464
19300184200.0 -0.7057600075 -0.7077355452
19350183900.0 -0.7165328235 -0.6984922512
19400183600.0 -0.7257868305 -0.6883344066
19450183300.0 -0.735422642 -0.678436271
19500183000.0 -0.7428791198 -0.6678303969
19550182700.0 -0.7535259198 -0.6577775934
19600182400.0 -0.7634510229 -0.6455786406
19650182100.0 -0.7739849985 -0.6337142329
19700181800.0 -0.7851200412 -0.6200577741
19750181500.0 -0.7956177017 -0.6058475853
19800181200.0 -0.8057872135 -0.5910511372
19850180900.0 -0.8157137619 -0.5755231964
19900180600.0 -0.8233982245 -0.560877974
19950180300.0 -0.8325852473 -0.5445977423
20000180000.0 -0.8243660783 -0.5471162949
20050179700.0 -0.8333656942 -0.5334249903
20100179400.0 -0.8424703765 -0.5197045636
20150179100.0 -0.8501699925 -0.5078369061
20200178800.0 -0.8587206782 -0.4956871145
20250178500.0 -0.8680821836 -0.4820547672
20300178200.0 -0.8777767038 -0.4674226293
20350177900.0 -0.8874146679 -0.4531006804
20400177600.0 -0.8962502569 -0.4387169375
20450177300.0 -0.9043987541 -0.4245098607
20500177000.0 -0.9124842348 -0.4104628272
20550176700.0 -0.9201972067 -0.3969734997
20600176400.0 -0.9273482664 -0.3840084756
20650176100.0 -0.9334434622 -0.3719524814
20700175800.0 -0.9407578469 -0.3600919727
20750175500.0 -0.9465184176 -0.3483832212
20800175200.0 -0.9522896402 -0.3377259955
20850174900.0 -0.9569646424 -0.3262290954
20900174600.0 -0.9606238995 -0.3145016168
20950174300.0 -0.964994909 -0.3029869956
21000174000.0 -0.9681631348 -0.2919308495
21050173700.0 -0.9705539311 -0.2824822418
21100173400.0 -0.9747642031 -0.2699739136
21150173100.0 -0.9787580899 -0.2573226141
21200172800.0 -0.9823364463 -0.244001636
21250172500.0 -0.9857675156 -0.2301074528
21300172200.0 -0.9885707613 -0.216415547
21350171900.0 -0.9898166608 -0.2026380514
21400171600.0 -0.9920373201 -0.1872372131
21450171300.0 -0.992398863 -0.1735322602
21500171000.0 -0.9917565699 -0.1576078633
21550170700.0 -0.9928285765 -0.1424113633
21600170400.0 -0.9922285688 -0.1265978025
21650170100.0 -0.9913539486 -0.1107368891
21700169800.0 -0.9891809854 -0.096996899
21750169500.0 -0.9881980793 -0.0792502973
21800169200.0 -0.9879677799 -0.0633848835
21850168900.0 -0.9879612003 -0.0464007644
21900168600.0 -0.9862762695 -0.030874636
21950168300.0 -0.9853552104 -0.014380586
22000168000.0 -0.9839385213 0.0004187146
22050167700.0 -0.9841285621 0.0148742761
22100167400.0 -0.9841654002 0.0300743521
22150167100.0 -0.9848832058 0.0456028624
22200166800.0 -0.985713798 0.0619802976
22250166500.0 -0.9851938795 0.0794479902
22300166200.0 -0.9841564604 0.0954750074
22350165900.0 -0.9828626442 0.1120694313
22400165600.0 -0.9814957189 0.1291127771
22450165300.0 -0.9795317967 0.1427850896
22500165000.0 -0.9776501406 0.1573549848
22550164700.0 -0.9775913642 0.1716215499
22600164400.0 -0.9745764993 0.1873046275
22650164100.0 -0.9727372355 0.2030449774
22700163800.0 -0.9702621833 0.2186381773
22750163500.0 -0.9677846071 0.2335642907
22800163200.0 -0.9639175972 0.2468820371
22850162900.0 -0.9620497228 0.2600460447
22900162600.0 -0.9606141948 0.2736173936
22950162300.0 -0.9593278526 0.2863641714
23000162000.0 -0.9582990576 0.2982841527
23050161700.0 -0.9562423561 0.3111052108
23100161400.0 -0.9537105393 0.3239394533
23150161100.0 -0.9511726152 0.3359711127
23200160800.0 -0.9483590371 0.3490595608
23250160500.0 -0.9453151512 0.3600940924
23300160200.0 -0.9428827501 0.3726373553
23350159900.0 -0.939415617 0.3857521795
23400159600.0 -0.9343246071 0.3989210237
23450159300.0 -0.9292057973 0.4123016938
23500159000.0 -0.9244145222 0.4260034078
23550158700.0 -0.9201808621 0.4391372553
23600158400.0 -0.9146838636 0.4525979508
23650158100.0 -0.9083531599 0.4665973331
23700157800.0 -0.9009398576 0.4806354233
23750157500.0 -0.8920309876 0.4949488048
23800157200.0 -0.8833604379 0.5081462463
23850156900.0 -0.8743028207 0.5213924342
23900156600.0 -0.8649662592 0.5335922
23950156300.0 -0.855738106 0.5455674529
24000156000.0 -0.8464611015 0.5581732931
24050155700.0 -0.836516495 0.5693157874
24100155400.0 -0.8271577357 0.5816988375
24150155100.0 -0.8159793558 0.5939010221
24200154800.0 -0.8046899817 0.6044648037
24250154500.0 -0.7937056261 0.6166737117
24300154200.0 -0.7825126581 0.6280570962
24350153900.0 -0.7707870835 0.6390767198
24400153600.0 -0.7582305304 0.6491503816
24450153300.0 -0.7463645306 0.6593363627
24500153000.0 -0.7347898247 0.6684406889
24550152700.0 -0.7244025598 0.6788009742
24600152400.0 -0.7122305071 0.6881815812
24650152100.0 -0.7011560478 0.6957645232
