!Created with skrf (http://scikit-rf.org).
# Hz S RI R 50.0 
!freq ReS11 ImS11
300000.0 -0.9748685936 -0.1212468347
50299700.0 -0.9999831507 0.0150716839
100299400.0 -0.9978931737 0.028026697
150299100.0 -1.002756048 0.0448768703
200298800.0 -0.9994230957 0.058121537
250298500.0 -0.9974215845 0.071781377
300298200.0 -0.9859249597 0.0874326599
350297900.0 -0.9938885783 0.0984225627
400297600.0 -0.9932053216 0.114825126
450297300.0 -0.990982107 0.1285302357
500297000.0 -0.9893894002 0.1434061201
550296700.0 -0.9841085573 0.1558524429
600296400.0 -1.017298336 0.1893028487
650296100.0 -0.9820351877 0.1858295027
700295800.0 -0.9794924426 0.2001247625
750295500.0 -0.9763024305 0.2141114904
800295200.0 -0.9732280969 0.2280833363
850294900.0 -0.9695356232 0.2419310454
900294600.0 -0.9657687257 0.2555856795
950294300.0 -0.9620218144 0.2694061602
1000294000.0 -0.9580833328 0.2833837071
1050293700.0 -0.9536201876 0.2971741086
1100293400.0 -0.9493061912 0.3115045829
1150293100.0 -0.9455408654 0.3234115248
1200292800.0 -0.9402276173 0.3377172241
1250292500.0 -0.9346238066 0.3511964952
1300292200.0 -0.9289181871 0.364508314
1350291900.0 -0.9234276512 0.3786538784
1400291600.0 -0.9179268278 0.3916208885
1450291300.0 -0.9125524601 0.4039477695
1500291000.0 -0.9062331514 0.4173270463
1550290700.0 -0.8997148261 0.4307537371
1600290400.0 -0.8934301201 0.4438589317
1650290100.0 -0.8866972359 0.4557402499
1700289800.0 -0.8799652855 0.4692930133
1750289500.0 -0.8730174299 0.4817554917
1800289200.0 -0.8655776865 0.4945725255
1850288900.0 -0.8587125887 0.5059043004
1900288600.0 -0.8510578967 0.5187446602
1950288300.0 -0.8427687019 0.5312257169
2000288000.0 -0.835334436 0.5429553294
2050287700.0 -0.8272762734 0.5552519596
2100287400.0 -0.8192854682 0.5665102185
2150287100.0 -0.8106980057 0.57861432
2200286800.0 -0.8029741979 0.5893453289
2250286500.0 -0.7940104784 0.6015293495
2300286200.0 -0.7852485656 0.6127524306
2350285900.0 -0.7768177488 0.6237719666
2400285600.0 -0.7679329333 0.6345226568
2450285300.0 -0.7591120675 0.6451682572
2500285000.0 -0.749276173 0.6567361292
2550284700.0 -0.7403246083 0.6671383554
2600284400.0 -0.7309099894 0.676784115
2650284100.0 -0.7223551442 0.6869855347
2700283800.0 -0.7119943777 0.6977929618
2750283500.0 -0.701431184 0.7083247198
2800283200.0 -0.691459658 0.718103045
2850282900.0 -0.6811375837 0.7282834781
2900282600.0 -0.6708446247 0.7378704034
2950282300.0 -0.6602922087 0.7472927443
3000282000.0 -0.6496359253 0.7566652561
3050281700.0 -0.6383759209 0.7659752098
3100281400.0 -0.6267978112 0.7750064972
3150281100.0 -0.6154057311 0.784178096
3200280800.0 -0.6040355844 0.7925659018
3250280500.0 -0.5929400853 0.8005760727
3300280200.0 -0.5813868055 0.8085645843
3350279900.0 -0.5693656708 0.8165968917
3400279600.0 -0.5569608129 0.8243632808
3450279300.0 -0.5456232145 0.8316754268
3500279000.0 -0.5338353945 0.8383023352
3550278700.0 -0.5217087185 0.845766041
3600278400.0 -0.509791828 0.8524457461
3650278100.0 -0.4967441266 0.8599863912
3700277800.0 -0.4847125397 0.8665094198
3750277500.0 -0.4720254079 0.8732156223
3800277200.0 -0.4597335455 0.8798099844
3850276900.0 -0.4477582779 0.8857692888
3900276600.0 -0.4367034695 0.8913829693
3950276300.0 -0.4246639569 0.8973373581
4000276000.0 -0.4127383054 0.9031562235
4050275700.0 -0.4000709963 0.9093743515
4100275400.0 -0.3891545373 0.9143763656
4150275100.0 -0.3759604701 0.9204129745
4200274800.0 -0.3627070674 0.9262181574
4250274500.0 -0.3499058761 0.9311658142
4300274200.0 -0.3366220064 0.9367094681
4350273900.0 -0.3227764983 0.9421123268
4400273600.0 -0.3080577123 0.947181107
4450273300.0 -0.292904194 0.9521593632
4500273000.0 -0.2797750388 0.956628525
4550272700.0 -0.2660158406 0.960700738
4600272400.0 -0.250843633 0.9646966252
4650272100.0 -0.2393532043 0.967900771
4700271800.0 -0.2263558341 0.97119372
4750271500.0 -0.2147763358 0.9740911704
4800271200.0 -0.2024408052 0.976810978
4850270900.0 -0.1885407684 0.9797204733
4900270600.0 -0.1746421928 0.9819873467
4950270300.0 -0.1602494859 0.9846866048
5000270000.0 -0.145925144 0.9866932418
5050269700.0 -0.1323905663 0.9885424007
5100269400.0 -0.1183062986 0.9902076642
5150269100.0 -0.104689594 0.9919020238
5200268800.0 -0.0910482278 0.9926684936
5250268500.0 -0.0778319377 0.993737556
5300268200.0 -0.0643371845 0.9945832812
5350267900.0 -0.0516935365 0.995571444
5400267600.0 -0.0356627349 0.9965064301
5450267300.0 -0.0222685034 0.9966531296
5500267000.0 -0.0070713123 0.9968801092
5550266700.0 0.0079484736 0.9972346561
5600266400.0 0.0236912162 0.9973280259
5650266100.0 0.0401890294 0.9968597691
5700265800.0 0.0546168198 0.9956958948
5750265500.0 0.0694633875 0.9953365242
5800265200.0 0.0828863603 0.9941529206
5850264900.0 0.0964345024 0.9932978648
5900264600.0 0.1128070888 0.9913265148
5950264300.0 0.1245459264 0.9895328049
6000264000.0 0.1385343403 0.9879888814
6050263700.0 0.1502849104 0.9868418967
6100263400.0 0.162216326 0.9849954251
6150263100.0 0.1768027333 0.9826121533
6200262800.0 0.1867739246 0.9809773018
6250262500.0 0.1993551515 0.97852387
6300262200.0 0.211635282 0.9760594499
6350261900.0 0.2245629309 0.9731994887
6400261600.0 0.238438993 0.9700121912
6450261300.0 0.249659292 0.967406772
6500261000.0 0.2627386434 0.9637174571
6550260700.0 0.2758500003 0.9598052338
6600260400.0 0.2890339702 0.9558058951
6650260100.0 0.303944729 0.9515079956
6700259800.0 0.3153732198 0.9471798955
6750259500.0 0.3291690577 0.9423561719
6800259200.0 0.3425520927 0.9371114124
6850258900.0 0.3550768087 0.9318244616
6900258600.0 0.3676768265 0.9268549813
6950258300.0 0.3797772965 0.9215473637
7000258000.0 0.3916684371 0.9159040714
7050257700.0 0.403896522 0.9102276437
7100257400.0 0.4168800217 0.9037818258
7150257100.0 0.4277440966 0.8985417838
7200256800.0 0.4407988081 0.8920046145
7250256500.0 0.4528044992 0.8854771071
7300256200.0 0.4661639024 0.8785189387
7350255900.0 0.4790464361 0.8716981336
7400255600.0 0.4929671643 0.8641004421
7450255300.0 0.5078957101 0.855020159
7500255000.0 0.5207562921 0.8477339433
7550254700.0 0.5346721852 0.8385122339
7600254400.0 0.5470870237 0.8303117838
7650254100.0 0.5584247446 0.8224325284
7700253800.0 0.5706014325 0.8145192476
7750253500.0 0.5814098861 0.8068531041
7800253200.0 0.5922074918 0.7988472318
7850252900.0 0.6018673303 0.7917425793
7900252600.0 0.613440567 0.7830576937
7950252300.0 0.6217756218 0.7766027096
8000252000.0 0.6318272519 0.7690481799
8050251700.0 0.6426891303 0.760970103
8100251400.0 0.6525980802 0.7528965568
8150251100.0 0.662131269 0.7444250077
8200250800.0 0.6717575357 0.7360066681
8250250500.0 0.6804638885 0.7283036281
8300250200.0 0.6896327911 0.7200812949
8350249900.0 0.6991995613 0.7110067644
8400249600.0 0.7071507321 0.7030896337
8450249300.0 0.7158766051 0.6941712643
8500249000.0 0.7244569717 0.685563944
8550248700.0 0.7325660149 0.676307609
8600248400.0 0.7410764487 0.6668878541
8650248100.0 0.7487263938 0.657342271
8700247800.0 0.7580424713 0.6463357919
8750247500.0 0.7664896071 0.6361735997
8800247200.0 0.7742739732 0.6259780251
8850246900.0 0.7830637458 0.6145777591
8900246600.0 0.7919029796 0.6031305289
8950246300.0 0.8011414201 0.5905071951
9000246000.0 0.8093137184 0.5784521284
9050245700.0 0.8182389742 0.5658233844
9100245400.0 0.8268690606 0.5537665447
9150245100.0 0.8355101738 0.5406718072
9200244800.0 0.8448926334 0.5261688889
9250244500.0 0.8540683104 0.5112380324
9300244200.0 0.8623149597 0.4974898408
9350243900.0 0.8697604423 0.4839930562
9400243600.0 0.8766259737 0.4721090025
9450243300.0 0.8822930004 0.4614937991
9500243000.0 0.8883800066 0.4496197833
9550242700.0 0.8925258319 0.442226853
9600242400.0 0.8967292913 0.4344822693
9650242100.0 0.9007225346 0.4277707415
9700241800.0 0.9054622052 0.419258253
9750241500.0 0.9094727209 0.4118078356
9800241200.0 0.9143817193 0.4022638217
9850240900.0 0.9202178563 0.3908834752
9900240600.0 0.9264469118 0.378799591
9950240300.0 0.9335887832 0.3617538672
10000240000.0 0.9383644646 0.3502572851
10050239700.0 0.9439116643 0.3342733735
10100239400.0 0.949428141 0.3180894424
10150239100.0 0.9538442489 0.302696926
10200238800.0 0.9583617325 0.2873277139
10250238500.0 0.961612673 0.2737555468
10300238200.0 0.9648613304 0.2599087406
10350237900.0 0.9673583311 0.2465345069
10400237600.0 0.9699742331 0.2331609262
10450237300.0 0.972686454 0.2194243472
10500237000.0 0.974833273 0.2070543674
10550236700.0 0.9774446486 0.1924233539
10600236400.0 0.9795699065 0.1785737417
10650236100.0 0.9812949388 0.1647111133
10700235800.0 0.9835892369 0.1523330452
10750235500.0 0.9861848403 0.1382110003
10800235200.0 0.9876707447 0.1241498597
10850234900.0 0.9900823598 0.1092365379
10900234600.0 0.9919638491 0.0947546284
10950234300.0 0.9937865456 0.081283955
11000234000.0 0.9955052827 0.0655764116
11050233700.0 0.9974084011 0.0490785421
11100233400.0 0.9989127472 0.0313939456
11150233100.0 1.000163358 0.0149624572
11200232800.0 1.000722054 -0.0010093361
11250232500.0 1.00141805 -0.0189301458
11300232200.0 1.002119175 -0.0372089904
11350231900.0 1.002282117 -0.052433917
11400231600.0 1.002276669 -0.0692168697
11450231300.0 1.000702261 -0.0833216368
11500231000.0 0.9996151187 -0.1004946753
11550230700.0 0.9981643333 -0.1140396701
11600230400.0 0.9971731319 -0.1266085557
11650230100.0 0.9948895734 -0.1381197009
11700229800.0 0.9928171125 -0.1530201386
11750229500.0 0.9901608218 -0.1672545581
11800229200.0 0.9876790227 -0.1811504769
11850228900.0 0.983915647 -0.1927495768
11900228600.0 0.9801919763 -0.202319115
11950228300.0 0.9766777731 -0.2125813629
12000228000.0 0.9740803298 -0.2211905037
12050227700.0 0.97013362 -0.2341150263
12100227400.0 0.9671123776 -0.2451428943
12150227100.0 0.9623349918 -0.2619637657
12200226800.0 0.9582326193 -0.273086853
12250226500.0 0.9541264665 -0.2854624145
12300226200.0 0.9498688643 -0.2973838831
12350225900.0 0.9448028686 -0.3111631508
12400225600.0 0.9402427089 -0.3242957536
12450225300.0 0.9363926792 -0.3368751077
12500225000.0 0.9307111702 -0.3513806017
12550224700.0 0.9251297329 -0.3647554783
12600224400.0 0.9201913859 -0.3776754008
12650224100.0 0.9145910984 -0.3920525628
12700223800.0 0.9091496199 -0.4050092349
12750223500.0 0.9038456739 -0.4177953852
12800223200.0 0.8982972584 -0.4304419506
12850222900.0 0.8929634697 -0.4425974363
12900222600.0 0.887222403 -0.4548038045
12950222300.0 0.881352778 -0.4677984841
13000222000.0 0.8749455227 -0.4792497834
13050221700.0 0.8687700269 -0.4916758711
13100221400.0 0.861914596 -0.5039557597
13150221100.0 0.8548976048 -0.5160122547
13200220800.0 0.8478352998 -0.5276993385
13250220500.0 0.8406343638 -0.5395354744
13300220200.0 0.8332700588 -0.5505773017
13350219900.0 0.8251719099 -0.5625585686
13400219600.0 0.8167451777 -0.5745699856
13450219300.0 0.8072339212 -0.5877797259
13500219000.0 0.7978057075 -0.6008744824
13550218700.0 0.7875149189 -0.6131816615
13600218400.0 0.7773236262 -0.625347697
13650218100.0 0.7677735649 -0.6364484679
13700217800.0 0.7575682964 -0.6485478557
13750217500.0 0.7477652719 -0.6594432723
13800217200.0 0.7366001892 -0.6708862847
13850216900.0 0.7257100625 -0.6816039925
13900216600.0 0.7162413757 -0.6903773201
13950216300.0 0.7049492749 -0.7008428535
14000216000.0 0.6955058373 -0.709819181
14050215700.0 0.6862259033 -0.7180968811
14100215400.0 0.6764325386 -0.7272678002
14150215100.0 0.6672642353 -0.7356546298
14200214800.0 0.6576809175 -0.7443403582
14250214500.0 0.647310808 -0.7538440493
14300214200.0 0.6369613018 -0.7631927408
14350213900.0 0.6255840938 -0.7727335908
14400213600.0 0.6137017461 -0.7825035171
14450213300.0 0.6008221413 -0.792967107
14500213000.0 0.5877373431 -0.8027416911
14550212700.0 0.5755729102 -0.812057635
14600212400.0 0.5631818531 -0.8207224196
14650212100.0 0.5501787741 -0.8292271778
14700211800.0 0.5363734213 -0.8395011386
14750211500.0 0.524505515 -0.8476274631
14800211200.0 0.5118404382 -0.8555092588
14850210900.0 0.4996167368 -0.863124417
14900210600.0 0.4863472082 -0.8710938709
14950210300.0 0.4731441505 -0.8788282734
15000210000.0 0.4607565245 -0.8856292067
15050209700.0 0.4476949328 -0.8917768835
15100209400.0 0.4350390036 -0.8978271009
15150209100.0 0.423165274 -0.9026844573
15200208800.0 0.4103393611 -0.9083810667
15250208500.0 0.398525658 -0.9126838037
15300208200.0 0.3870146541 -0.9177546499
15350207900.0 0.3737537248 -0.9225544469
15400207600.0 0.3591507766 -0.9278897165
15450207300.0 0.3453969275 -0.9330149244
15500207000.0 0.3298395843 -0.9372282775
15550206700.0 0.315119156 -0.9422160205
15600206400.0 0.2991559566 -0.9469714931
15650206100.0 0.2832944971 -0.9508009057
15700205800.0 0.2698420168 -0.9546103591
15750205500.0 0.2558967768 -0.9579327683
15800205200.0 0.2415769921 -0.9615176667
15850204900.0 0.227478592 -0.9649211459
15900204600.0 0.2123448584 -0.9685331276
15950204300.0 0.1983391172 -0.9716612531
16000204000.0 0.184034858 -0.9745794628
16050203700.0 0.1686216802 -0.9774061078
16100203400.0 0.1542197877 -0.9796149447
16150203100.0 0.1392100272 -0.9821369114
16200202800.0 0.125114263 -0.9841690404
16250202500.0 0.1102800975 -0.9860257452
16300202200.0 0.0947598636 -0.987438587
16350201900.0 0.0798617024 -0.9891596222
16400201600.0 0.0649411681 -0.9901895834
16450201300.0 0.0496102319 -0.9911226193
16500201000.0 0.0326089739 -0.9921101983
16550200700.0 0.0166273339 -0.9925060924
16600200400.0 0.0005426927 -0.9927017688
16650200100.0 -0.015626826 -0.9926059345
16700199800.0 -0.0321215959 -0.9925078978
16750199500.0 -0.0505421194 -0.9919317288
16800199200.0 -0.066267088 -0.9905092166
16850198900.0 -0.081918871 -0.9897520026
16900198600.0 -0.0960511475 -0.9886862696
16950198300.0 -0.1093609199 -0.9873529305
17000198000.0 -0.1235266313 -0.9857129669
17050197700.0 -0.1355425033 -0.9840228829
17100197400.0 -0.1481345916 -0.9824167725
17150197100.0 -0.1609742974 -0.9804974288
17200196800.0 -0.1741012948 -0.9782378827
17250196500.0 -0.1867509719 -0.9754907856
17300196200.0 -0.1986784463 -0.9733836927
17350195900.0 -0.2107851727 -0.9709408882
17400195600.0 -0.2226837612 -0.9684516668
17450195300.0 -0.2356525979 -0.9657539318
17500195000.0 -0.2488419892 -0.9623147242
17550194700.0 -0.2625861843 -0.9587034916
17600194400.0 -0.2762481035 -0.9548634871
17650194100.0 -0.2902571668 -0.9506387408
17700193800.0 -0.3030682815 -0.9464369037
17750193500.0 -0.3172742677 -0.9415375653
17800193200.0 -0.3315720253 -0.9368162866
17850192900.0 -0.346882098 -0.9311144726
17900192600.0 -0.3615659656 -0.9248447629
17950192300.0 -0.3774699982 -0.9180660708
18000192000.0 -0.3919232982 -0.9107268765
18050191700.0 -0.4057943884 -0.9026732317
18100191400.0 -0.4199320758 -0.8953084986
18150191100.0 -0.4347202511 -0.8871808247
18200190800.0 -0.4517582794 -0.8781400253
18250190500.0 -0.4687133976 -0.8688418593
18300190200.0 -0.4843622863 -0.8595363417
18350189900.0 -0.4992738146 -0.8514843219
18400189600.0 -0.5139514655 -0.8429560154
18450189300.0 -0.5274993715 -0.835050441
18500189000.0 -0.5407908442 -0.8269588431
18550188700.0 -0.5535287935 -0.8193740093
18600188400.0 -0.5654238332 -0.812299203
18650188100.0 -0.5767277643 -0.8057367375
18700187800.0 -0.5877667561 -0.7990868197
18750187500.0 -0.5985030404 -0.7926817907
18800187200.0 -0.6090866834 -0.7856097281
18850186900.0 -0.619303491 -0.7786879208
18900186600.0 -0.6296617053 -0.7713910269
18950186300.0 -0.6397024163 -0.7637640419
19000186000.0 -0.6472204459 -0.7577298463
19050185700.0 -0.6567363854 -0.7507809372
19100185400.0 -0.6664407347 -0.7423438545
19150185100.0 -0.6767606465 -0.7338770295
19200184800.0 -0.6861198763 -0.7254182804
19250184500.0 -0.6963630368 -0.7159513329
19300184200.0 -0.7073975586 -0.7069083735
19350183900.0 -0.7182982247 -0.6966432573
19400183600.0 -0.7277347023 -0.6869860775
19450183300.0 -0.7368728914 -0.6771216409
19500183000.0 -0.7453025015 -0.666934025
19550182700.0 -0.7551869679 -0.6559962451
19600182400.0 -0.7650426906 -0.6445104222
19650182100.0 -0.7759253295 -0.6318852869
19700181800.0 -0.7863129104 -0.6188997017
19750181500.0 -0.7968634646 -0.6046497919
19800181200.0 -0.8071745468 -0.5896696844
19850180900.0 -0.8169663808 -0.5744993885
19900180600.0 -0.8243079123 -0.5597614331
19950180300.0 -0.8332684783 -0.5433817058
20000180000.0 -0.8231825375 -0.5458533008
20050179700.0 -0.8316843996 -0.5339829925
20100179400.0 -0.8402267645 -0.521242358
20150179100.0 -0.8482999845 -0.5084649965
20200178800.0 -0.8570008258 -0.4974023921
20250178500.0 -0.866797876 -0.4847847221
20300178200.0 -0.8751855489 -0.4708216091
20350177900.0 -0.8850114258 -0.4563590757
20400177600.0 -0.8941459825 -0.4421401098
20450177300.0 -0.9025580224 -0.4279589032
20500177000.0 -0.9105559681 -0.4141107377
20550176700.0 -0.9185596406 -0.4003395796
20600176400.0 -0.9258672446 -0.387658856
20650176100.0 -0.9314881536 -0.3751629593
20700175800.0 -0.9386360028 -0.3633768749
20750175500.0 -0.9448351126 -0.3521221567
20800175200.0 -0.9489964194 -0.3413956146
20850174900.0 -0.9541679398 -0.3300031389
20900174600.0 -0.9586691858 -0.3196253728
20950174300.0 -0.962311609 -0.3075126243
21000174000.0 -0.9652693475 -0.2968999255
21050173700.0 -0.9677271276 -0.2877672419
21100173400.0 -0.9701026656 -0.2768354128
21150173100.0 -0.9744741066 -0.2649382516
21200172800.0 -0.9785504471 -0.2515623407
21250172500.0 -0.98203243 -0.2369183081
21300172200.0 -0.9850805632 -0.2235434303
21350171900.0 -0.9872184804 -0.2089152232
21400171600.0 -0.9891558607 -0.1943731585
21450171300.0 -0.9896904405 -0.1805708923
21500171000.0 -0.9899804475 -0.1658928592
21550170700.0 -0.9900476962 -0.1508591676
21600170400.0 -0.990873813 -0.1339722537
21650170100.0 -0.9906389355 -0.1194368414
21700169800.0 -0.9897575356 -0.1051400221
21750169500.0 -0.9898462701 -0.0870795705
21800169200.0 -0.9901487609 -0.0717644545
21850168900.0 -0.9902054761 -0.0545982517
21900168600.0 -0.9890249384 -0.037761468
21950168300.0 -0.98865039 -0.0229463993
22000168000.0 -0.9880418137 -0.0073071728
22050167700.0 -0.9882566896 0.0072905493
22100167400.0 -0.988526327 0.0225898803
22150167100.0 -0.9900903471 0.0384505002
22200166800.0 -0.9903505174 0.0551281822
22250166500.0 -0.9899908327 0.0723380575
22300166200.0 -0.9892240596 0.0891789157
22350165900.0 -0.9878398167 0.1052199793
22400165600.0 -0.9861407813 0.1206814315
22450165300.0 -0.985004532 0.1353538045
22500165000.0 -0.9834775409 0.1502875945
22550164700.0 -0.9811990864 0.165602435
22600164400.0 -0.9788097556 0.1814680433
22650164100.0 -0.9763948901 0.1971085631
22700163800.0 -0.9740803275 0.2141708261
22750163500.0 -0.9706104626 0.2286862117
22800163200.0 -0.9684499034 0.2414937422
22850162900.0 -0.9653414033 0.2547470245
22900162600.0 -0.9636290543 0.268831885
22950162300.0 -0.9618672126 0.2823110814
23000162000.0 -0.9604796975 0.2947096371
23050161700.0 -0.9579413643 0.3074747301
23100161400.0 -0.9551784408 0.3212089854
23150161100.0 -0.9523521099 0.3349154262
23200160800.0 -0.9493382156 0.3476608042
23250160500.0 -0.9466446938 0.3594379969
23300160200.0 -0.9433761923 0.3714780449
23350159900.0 -0.9399608129 0.384379941
23400159600.0 -0.9340187087 0.3991777707
23450159300.0 -0.9297715691 0.4119733398
23500159000.0 -0.9248547169 0.4256036908
23550158700.0 -0.9198658045 0.4401579303
23600158400.0 -0.9142266153 0.4539927858
23650158100.0 -0.9072765452 0.4683586622
23700157800.0 -0.8989234816 0.4824846505
23750157500.0 -0.8898338104 0.496886347
23800157200.0 -0.8800907231 0.5096758169
23850156900.0 -0.8704744687 0.5231132572
23900156600.0 -0.8610376911 0.5356439096
23950156300.0 -0.8511278754 0.547623136
24000156000.0 -0.8418015454 0.5605478129
24050155700.0 -0.83117106 0.5719985787
24100155400.0 -0.8213234072 0.585519323
24150155100.0 -0.8099204031 0.5980763192
24200154800.0 -0.799612238 0.6084182807
24250154500.0 -0.7883743991 0.620571586
24300154200.0 -0.7762637794 0.6326810034
24350153900.0 -0.7644539598 0.6438586854
24400153600.0 -0.7522016406 0.6544992881
24450153300.0 -0.740380475 0.6645639958
24500153000.0 -0.7283894099 0.6742174775
24550152700.0 -0.7172090152 0.684217027
24600152400.0 -0.7057524251 0.693581936
24650152100.0 -0.6936635995 0.7021910155
