!Created with skrf (http://scikit-rf.org).
# Hz S RI R 50.0 
!freq ReS11 ImS11
300000.0 -0.9788931227 -0.1129304785
50299700.0 -0.9999705723 0.0158190877
100299400.0 -0.9981191145 0.0286628797
150299100.0 -1.002888928 0.0455941638
200298800.0 -0.999673511 0.0589149771
250298500.0 -0.9974953227 0.0724368665
300298200.0 -0.9861484659 0.088085634
350297900.0 -0.9939847672 0.0992740863
400297600.0 -0.9931683521 0.1156677118
450297300.0 -0.9910703845 0.1294269532
500297000.0 -0.9894288334 0.144293585
550296700.0 -0.9844800661 0.1568341307
600296400.0 -1.017365074 0.1900996274
650296100.0 -0.9822623644 0.18690617
700295800.0 -0.9792907523 0.2011713919
750295500.0 -0.9762522943 0.2150268393
800295200.0 -0.9731022633 0.2292171501
850294900.0 -0.9694698574 0.2428924601
900294600.0 -0.96578389 0.2567225199
950294300.0 -0.9621464493 0.2703982497
1000294000.0 -0.9579935879 0.2844536536
1050293700.0 -0.9536678042 0.2982746753
1100293400.0 -0.9490422034 0.3125966311
1150293100.0 -0.9453696752 0.3245718822
1200292800.0 -0.939966094 0.3387692188
1250292500.0 -0.9344407707 0.3519675922
1300292200.0 -0.9288096638 0.3655961545
1350291900.0 -0.9234539926 0.3796204086
1400291600.0 -0.9175516833 0.3925575459
1450291300.0 -0.9123256603 0.4050225711
1500291000.0 -0.9060346358 0.4183355211
1550290700.0 -0.8994698019 0.43167121
1600290400.0 -0.893295413 0.4446382548
1650290100.0 -0.8864471496 0.4567956242
1700289800.0 -0.8797412957 0.4700733494
1750289500.0 -0.8726274169 0.4823861237
1800289200.0 -0.8652420574 0.4953482631
1850288900.0 -0.8585808381 0.5067132849
1900288600.0 -0.850657255 0.5196276072
1950288300.0 -0.8425821838 0.5323097939
2000288000.0 -0.8351185857 0.5436196403
2050287700.0 -0.8267840511 0.5559474114
2100287400.0 -0.8189388613 0.5676689265
2150287100.0 -0.8101875175 0.5798043617
2200286800.0 -0.8025999556 0.5900050845
2250286500.0 -0.7936162241 0.6018823406
2300286200.0 -0.7848751462 0.6138560136
2350285900.0 -0.7759140469 0.6249399861
2400285600.0 -0.7671184056 0.6358909249
2450285300.0 -0.7584053553 0.6462363662
2500285000.0 -0.7487885417 0.6573902446
2550284700.0 -0.7397142374 0.6675696869
2600284400.0 -0.7303826795 0.6778618249
2650284100.0 -0.7212690593 0.6882611233
2700283800.0 -0.7106059545 0.6988866538
2750283500.0 -0.7003798063 0.7093916267
2800283200.0 -0.6905410503 0.7191398839
2850282900.0 -0.6804915897 0.729263036
2900282600.0 -0.669993933 0.7385119119
2950282300.0 -0.6598912876 0.7479130882
3000282000.0 -0.6492931474 0.7572309474
3050281700.0 -0.6380434161 0.7665588759
3100281400.0 -0.6260268034 0.7761136615
3150281100.0 -0.6141991858 0.7852653818
3200280800.0 -0.602600329 0.7939159239
3250280500.0 -0.5918648538 0.8015760249
3300280200.0 -0.5806153385 0.8093417919
3350279900.0 -0.5688995101 0.8168819835
3400279600.0 -0.5571484388 0.8242566814
3450279300.0 -0.545913552 0.8315815315
3500279000.0 -0.5337964169 0.8387588879
3550278700.0 -0.5213762122 0.8460132004
3600278400.0 -0.5092518328 0.8531061391
3650278100.0 -0.4958422214 0.8610255106
3700277800.0 -0.4836376746 0.8674124346
3750277500.0 -0.4712863752 0.8740028728
3800277200.0 -0.4589167246 0.880276285
3850276900.0 -0.4468869499 0.8861319181
3900276600.0 -0.4357438681 0.8918202878
3950276300.0 -0.4235320045 0.8981450774
4000276000.0 -0.4116425182 0.9040396492
4050275700.0 -0.398505846 0.9100564763
4100275400.0 -0.3872129796 0.9154941836
4150275100.0 -0.3747920436 0.9210114807
4200274800.0 -0.3617162824 0.9264658852
4250274500.0 -0.3496414 0.9318991017
4300274200.0 -0.3364610194 0.9370656424
4350273900.0 -0.3228007614 0.9421769343
4400273600.0 -0.3079471159 0.9476014407
4450273300.0 -0.2925480356 0.9526393203
4500273000.0 -0.2787432578 0.95690443
4550272700.0 -0.2645846027 0.9611399248
4600272400.0 -0.2491345798 0.9653764674
4650272100.0 -0.2372408604 0.9685938422
4700271800.0 -0.2240825832 0.971843034
4750271500.0 -0.2124435554 0.9747604283
4800271200.0 -0.1999626274 0.9774885072
4850270900.0 -0.1860281575 0.9802805561
4900270600.0 -0.1720300281 0.9826377299
4950270300.0 -0.1578323481 0.9851419316
5000270000.0 -0.1436409775 0.9870738589
5050269700.0 -0.1300757294 0.9890315034
5100269400.0 -0.1167080051 0.9905665135
5150269100.0 -0.1033020026 0.9919449261
5200268800.0 -0.090053821 0.9931999243
5250268500.0 -0.0770134423 0.9937685249
5300268200.0 -0.0637497222 0.9947516321
5350267900.0 -0.0516034072 0.9955545684
5400267600.0 -0.0353724163 0.9963946119
5450267300.0 -0.0223375335 0.9967628982
5500267000.0 -0.0070951635 0.9972138241
5550266700.0 0.007922043 0.9973763233
5600266400.0 0.0233472954 0.9971663721
5650266100.0 0.0398033041 0.9967680579
5700265800.0 0.0545046609 0.9962906232
5750265500.0 0.0694763732 0.9954346889
5800265200.0 0.0836064697 0.9944014134
5850264900.0 0.0970843276 0.9933893787
5900264600.0 0.1136919453 0.9917734933
5950264300.0 0.1257637446 0.9900016974
6000264000.0 0.1397725307 0.9882871184
6050263700.0 0.1520841855 0.9868017566
6100263400.0 0.1642490403 0.9845584737
6150263100.0 0.1792719639 0.9826978723
6200262800.0 0.1897330479 0.9808173533
6250262500.0 0.2022518181 0.9782303408
6300262200.0 0.2150926617 0.9752859887
6350261900.0 0.2282253323 0.9724343789
6400261600.0 0.2418267625 0.9690121189
6450261300.0 0.2533317803 0.9664725789
6500261000.0 0.2660113373 0.9628763343
6550260700.0 0.2792827014 0.9590942916
6600260400.0 0.2923269224 0.9549448381
6650260100.0 0.3063556532 0.9506542985
6700259800.0 0.3183295576 0.9464309884
6750259500.0 0.3320084247 0.9408972604
6800259200.0 0.3451955783 0.9364119927
6850258900.0 0.3572197576 0.9313710963
6900258600.0 0.3689943903 0.9260949829
6950258300.0 0.381949444 0.920939075
7000258000.0 0.3938475502 0.9153248417
7050257700.0 0.40625638 0.9093269722
7100257400.0 0.419000962 0.903064961
7150257100.0 0.4291218282 0.897714864
7200256800.0 0.4419521876 0.8913383847
7250256500.0 0.4537289678 0.8850472035
7300256200.0 0.4671263944 0.8784157222
7350255900.0 0.4792513122 0.8711032167
7400255600.0 0.4926383836 0.8643275681
7450255300.0 0.5081902665 0.8552253888
7500255000.0 0.5194112525 0.8480372809
7550254700.0 0.5333417842 0.8393521854
7600254400.0 0.5461022086 0.8310484227
7650254100.0 0.5576333364 0.823348766
7700253800.0 0.5692120929 0.8153022023
7750253500.0 0.5805263026 0.8077731821
7800253200.0 0.5912672331 0.7999542774
7850252900.0 0.6011053455 0.7928822135
7900252600.0 0.6126837664 0.7842201106
7950252300.0 0.6214325799 0.7774399884
8000252000.0 0.6317151872 0.7697606583
8050251700.0 0.6421594383 0.7614339234
8100251400.0 0.6520361643 0.7532706222
8150251100.0 0.6622841946 0.7445971293
8200250800.0 0.6717211232 0.7364647092
8250250500.0 0.680859177 0.7289012765
8300250200.0 0.6897339238 0.7200237793
8350249900.0 0.6992458586 0.7112917098
8400249600.0 0.7072503778 0.7033963861
8450249300.0 0.716355411 0.694020698
8500249000.0 0.7248976285 0.6853317881
8550248700.0 0.7332000068 0.6760751945
8600248400.0 0.7415490557 0.6667812505
8650248100.0 0.7494034613 0.6573489197
8700247800.0 0.7587418729 0.6460776885
8750247500.0 0.7673113764 0.6359832823
8800247200.0 0.7751881599 0.6256531562
8850246900.0 0.7841379385 0.6143770177
8900246600.0 0.792931744 0.6028065931
8950246300.0 0.8020484262 0.5897379025
9000246000.0 0.8116085888 0.5771264309
9050245700.0 0.820501141 0.5640948124
9100245400.0 0.8292916839 0.5515081817
9150245100.0 0.8385959258 0.5376615867
9200244800.0 0.8487271533 0.5222893014
9250244500.0 0.8580323904 0.5065061711
9300244200.0 0.8664912584 0.4920085912
9350243900.0 0.8740624922 0.4783442751
9400243600.0 0.8807364273 0.4656843308
9450243300.0 0.8866135977 0.4539717742
9500243000.0 0.8930199842 0.4416672215
9550242700.0 0.8966709829 0.4339803788
9600242400.0 0.9003686513 0.4266958953
9650242100.0 0.9040375777 0.4203604151
9700241800.0 0.9083965393 0.412054769
9750241500.0 0.9123637801 0.404767769
9800241200.0 0.9169710751 0.3957248087
9850240900.0 0.922972771 0.3838978786
9900240600.0 0.9287713709 0.372015499
9950240300.0 0.9348284796 0.3560217213
10000240000.0 0.9396362176 0.3446534932
10050239700.0 0.9451086774 0.3291690477
10100239400.0 0.9500624827 0.3137439146
10150239100.0 0.9545008136 0.2991526244
10200238800.0 0.9584853165 0.284268495
10250238500.0 0.9619147711 0.2710264241
10300238200.0 0.9648428912 0.2569532896
10350237900.0 0.9675681903 0.2438902398
10400237600.0 0.9701477858 0.2309217539
10450237300.0 0.9728727216 0.2171314453
10500237000.0 0.974776089 0.2051318135
10550236700.0 0.9771623597 0.1915075718
10600236400.0 0.9790483325 0.1779636988
10650236100.0 0.9810037488 0.1631827183
10700235800.0 0.9838109822 0.150402881
10750235500.0 0.9860426709 0.1371697442
10800235200.0 0.9878995526 0.1234251079
10850234900.0 0.9898360588 0.1087046608
10900234600.0 0.9919168172 0.0943541799
10950234300.0 0.9933328863 0.0809469134
11000234000.0 0.9952573078 0.066023264
11050233700.0 0.9970465683 0.0495706773
11100233400.0 0.9982345727 0.0320647624
11150233100.0 0.9990825676 0.0156377546
11200232800.0 1.000154257 0.0008390859
11250232500.0 1.001438877 -0.0157572149
11300232200.0 1.001516076 -0.0341203468
11350231900.0 1.001719714 -0.0499005475
11400231600.0 1.001386733 -0.0649435602
11450231300.0 1.000950548 -0.0810130495
11500231000.0 0.9992383471 -0.0967705372
11550230700.0 0.9979913973 -0.110692795
11600230400.0 0.9971388803 -0.1231957962
11650230100.0 0.9946498089 -0.1344080406
11700229800.0 0.9928296058 -0.1494148153
11750229500.0 0.990473238 -0.164352674
11800229200.0 0.9876499398 -0.1781170983
11850228900.0 0.9840281176 -0.1905375824
11900228600.0 0.9804233196 -0.2002704858
11950228300.0 0.9770909595 -0.2107749108
12000228000.0 0.9746165754 -0.2188248699
12050227700.0 0.9707066425 -0.2323670978
12100227400.0 0.9675065919 -0.2431106836
12150227100.0 0.9627447211 -0.2594946005
12200226800.0 0.9597903134 -0.270248797
12250226500.0 0.955243529 -0.2833590601
12300226200.0 0.950934161 -0.2957382613
12350225900.0 0.9458983092 -0.309243322
12400225600.0 0.9419956513 -0.3231128131
12450225300.0 0.9373761075 -0.3346224241
12500225000.0 0.932044409 -0.3499781884
12550224700.0 0.9265099295 -0.3633299527
12600224400.0 0.9216216348 -0.3760647717
12650224100.0 0.915797161 -0.3903307077
12700223800.0 0.9106065826 -0.4031152302
12750223500.0 0.9051678705 -0.416039059
12800223200.0 0.8999947622 -0.4287542553
12850222900.0 0.8946533956 -0.4406566091
12900222600.0 0.8887496777 -0.4531630677
12950222300.0 0.8824210812 -0.4658102958
13000222000.0 0.8764483315 -0.4771278135
13050221700.0 0.8695627101 -0.4901759943
13100221400.0 0.8628726532 -0.5022304351
13150221100.0 0.8560652625 -0.514287339
13200220800.0 0.8490648677 -0.5258443123
13250220500.0 0.8416867133 -0.5378165864
13300220200.0 0.8341972421 -0.5489993654
13350219900.0 0.8260827248 -0.5610631361
13400219600.0 0.8179073591 -0.5731506802
13450219300.0 0.8082257374 -0.5867726781
13500219000.0 0.797597056 -0.6011484852
13550218700.0 0.7876171205 -0.6137164876
13600218400.0 0.7778846473 -0.62569568
13650218100.0 0.7679811321 -0.6366920807
13700217800.0 0.75678516 -0.6491332273
13750217500.0 0.7470683316 -0.6604682768
13800217200.0 0.7356023021 -0.6724909566
13850216900.0 0.723960679 -0.6839282399
13900216600.0 0.7144123929 -0.6930279075
13950216300.0 0.7037418476 -0.702193945
14000216000.0 0.6938220706 -0.7118607972
14050215700.0 0.6836631824 -0.7205446591
14100215400.0 0.6744454033 -0.729640638
14150215100.0 0.6650086559 -0.7376898624
14200214800.0 0.6558971231 -0.7464736538
14250214500.0 0.6455911339 -0.7557349047
14300214200.0 0.6350857537 -0.7648761796
14350213900.0 0.6240665869 -0.7742268297
14400213600.0 0.61205744 -0.783840874
14450213300.0 0.599408542 -0.7941478379
14500213000.0 0.5859400084 -0.8042504017
14550212700.0 0.5730790209 -0.8135017578
14600212400.0 0.5612794562 -0.8223659015
14650212100.0 0.5483340434 -0.8306028576
14700211800.0 0.5343381886 -0.8404910795
14750211500.0 0.5219983351 -0.8488342594
14800211200.0 0.5094749492 -0.8569942548
14850210900.0 0.4974907295 -0.8642303624
14900210600.0 0.4840837024 -0.8721003525
14950210300.0 0.4707634172 -0.8799459954
15000210000.0 0.4577735672 -0.8868069787
15050209700.0 0.4456009036 -0.8931499163
15100209400.0 0.4325787426 -0.8990801374
15150209100.0 0.4197485206 -0.9044970477
15200208800.0 0.4072753468 -0.9097473463
15250208500.0 0.3962929721 -0.9143747575
15300208200.0 0.38392062 -0.9187833155
15350207900.0 0.3706885913 -0.9233358874
15400207600.0 0.3553738939 -0.9294992091
15450207300.0 0.3406683293 -0.9338673502
15500207000.0 0.3265897072 -0.9380967181
15550206700.0 0.31191549 -0.9439559658
15600206400.0 0.2955769665 -0.9479227765
15650206100.0 0.2805569419 -0.9524820661
15700205800.0 0.2661091982 -0.9559983073
15750205500.0 0.2515449933 -0.9594272029
15800205200.0 0.2371102432 -0.9627101957
15850204900.0 0.2228912422 -0.9661548535
15900204600.0 0.2078112141 -0.9697464934
15950204300.0 0.193858322 -0.9727317683
16000204000.0 0.1797696582 -0.9756388656
16050203700.0 0.1647629836 -0.9782472054
16100203400.0 0.1506072205 -0.9805693057
16150203100.0 0.1360212782 -0.982620599
16200202800.0 0.1220150773 -0.9844085964
16250202500.0 0.1071783069 -0.9862696889
16300202200.0 0.091677117 -0.9877032642
16350201900.0 0.0768735908 -0.9892866115
16400201600.0 0.062351163 -0.9902167505
16450201300.0 0.0474651268 -0.9911804618
16500201000.0 0.0307686549 -0.9918661532
16550200700.0 0.0149758021 -0.9924715998
16600200400.0 -0.0008667912 -0.9924228384
16650200100.0 -0.0171520448 -0.992409571
16700199800.0 -0.0336649195 -0.9922394261
16750199500.0 -0.0521838671 -0.991403092
16800199200.0 -0.0677082281 -0.9907169462
16850198900.0 -0.0833092124 -0.9900569723
16900198600.0 -0.0971531888 -0.9888068233
16950198300.0 -0.1110085597 -0.9874248483
17000198000.0 -0.1235795512 -0.9857057544
17050197700.0 -0.1358557503 -0.9842462506
17100197400.0 -0.148538439 -0.9815489654
17150197100.0 -0.1614883264 -0.9799934499
17200196800.0 -0.1744146291 -0.9778416891
17250196500.0 -0.1870226392 -0.9753989629
17300196200.0 -0.1992974083 -0.972994199
17350195900.0 -0.2111105464 -0.970809961
17400195600.0 -0.2233202266 -0.968202701
17450195300.0 -0.2364902575 -0.9654289799
17500195000.0 -0.2500616889 -0.9618940178
17550194700.0 -0.263888198 -0.95843
17600194400.0 -0.277624194 -0.9545374648
17650194100.0 -0.2913279857 -0.9503069204
17700193800.0 -0.3043215578 -0.9461452788
17750193500.0 -0.3188975243 -0.9414423702
17800193200.0 -0.3329623835 -0.9363631111
17850192900.0 -0.3481151107 -0.9306977362
17900192600.0 -0.3631941221 -0.9247865286
17950192300.0 -0.3788368513 -0.9174868711
18000192000.0 -0.3934239716 -0.910292533
18050191700.0 -0.4073134456 -0.9023107243
18100191400.0 -0.4215032264 -0.8946339435
18150191100.0 -0.4364973025 -0.8865664912
18200190800.0 -0.4533232491 -0.8773035919
18250190500.0 -0.4705034256 -0.8677758143
18300190200.0 -0.4859668193 -0.8589203858
18350189900.0 -0.5012015554 -0.8504820287
18400189600.0 -0.5152449161 -0.8420601743
18450189300.0 -0.528770974 -0.8343295552
18500189000.0 -0.5420983535 -0.8259833233
18550188700.0 -0.555099883 -0.818556353
18600188400.0 -0.5662681625 -0.8114569973
18650188100.0 -0.5778408756 -0.8053883466
18700187800.0 -0.588280325 -0.7988231999
18750187500.0 -0.5989785569 -0.7923960191
18800187200.0 -0.6094209292 -0.785307112
18850186900.0 -0.6196414795 -0.7781864193
18900186600.0 -0.6298851705 -0.7708573467
18950186300.0 -0.6401710035 -0.7630184564
19000186000.0 -0.647077229 -0.7570607729
19050185700.0 -0.6565128607 -0.749342735
19100185400.0 -0.6666074896 -0.7412760046
19150185100.0 -0.6765074048 -0.7326463164
19200184800.0 -0.6865966944 -0.7245573994
19250184500.0 -0.6961353724 -0.7152136324
19300184200.0 -0.7078056283 -0.7051115595
19350183900.0 -0.7180683731 -0.6955695133
19400183600.0 -0.7282784009 -0.6862961873
19450183300.0 -0.7371297478 -0.6753762543
19500183000.0 -0.7446926639 -0.6657183812
19550182700.0 -0.7554958407 -0.6550209161
19600182400.0 -0.7651934016 -0.6435369734
19650182100.0 -0.7760331328 -0.6309543352
19700181800.0 -0.7867998928 -0.6177198148
19750181500.0 -0.7972854015 -0.6036181751
19800181200.0 -0.8076590109 -0.5886547007
19850180900.0 -0.8173149804 -0.5733995068
19900180600.0 -0.8250219219 -0.5587620217
19950180300.0 -0.8340733708 -0.5424472634
20000180000.0 -0.8267611851 -0.5452683153
20050179700.0 -0.8349827601 -0.5322124381
20100179400.0 -0.8432076272 -0.5187151936
20150179100.0 -0.8522706058 -0.5061646561
20200178800.0 -0.8611200987 -0.4927947312
20250178500.0 -0.8693624949 -0.4797939151
20300178200.0 -0.8792235169 -0.4651509621
20350177900.0 -0.8887040001 -0.4508750636
20400177600.0 -0.8971804818 -0.4358731853
20450177300.0 -0.9054710954 -0.4216054948
20500177000.0 -0.9133429712 -0.4077341518
20550176700.0 -0.9214382544 -0.393985997
20600176400.0 -0.9284239139 -0.3808628368
20650176100.0 -0.9349169137 -0.3686076229
20700175800.0 -0.9421200744 -0.3568888259
20750175500.0 -0.9480809609 -0.3446760906
20800175200.0 -0.9530981075 -0.3339956216
20850174900.0 -0.9586357483 -0.3228848254
20900174600.0 -0.9632753398 -0.3119634373
20950174300.0 -0.9670087006 -0.2998363529
21000174000.0 -0.970288593 -0.2891517833
21050173700.0 -0.972979607 -0.278076022
21100173400.0 -0.9772076298 -0.2653746658
21150173100.0 -0.9814843412 -0.2523543535
21200172800.0 -0.9844050133 -0.2390237878
21250172500.0 -0.9877535556 -0.2252315944
21300172200.0 -0.9905935848 -0.2112711549
21350171900.0 -0.9919515221 -0.1967315207
21400171600.0 -0.9934902492 -0.1823671201
21450171300.0 -0.9938657188 -0.1676539558
21500171000.0 -0.9934226686 -0.1524612211
21550170700.0 -0.9940999497 -0.1367627775
21600170400.0 -0.9929468869 -0.1219986813
21650170100.0 -0.9928145883 -0.1058360653
21700169800.0 -0.9909408514 -0.0903328672
21750169500.0 -0.9889448596 -0.0748168881
21800169200.0 -0.9882233621 -0.0582542483
21850168900.0 -0.9866397161 -0.0421604127
21900168600.0 -0.9854265403 -0.0251969018
21950168300.0 -0.9838302509 -0.009765417
22000168000.0 -0.9832783797 0.0048534486
22050167700.0 -0.9824898443 0.0194600112
22100167400.0 -0.9822745956 0.0344974011
22150167100.0 -0.9835838946 0.0497488772
22200166800.0 -0.98356418 0.0665552673
22250166500.0 -0.9831917188 0.0834993841
22300166200.0 -0.9821455002 0.0996897072
22350165900.0 -0.9815703367 0.1173074819
22400165600.0 -0.9794076298 0.1316345201
22450165300.0 -0.9771750659 0.1472568769
22500165000.0 -0.9761684408 0.1608785669
22550164700.0 -0.974414769 0.1759134876
22600164400.0 -0.9720609762 0.1914907313
22650164100.0 -0.9707881717 0.2065521364
22700163800.0 -0.9679003871 0.2222368789
22750163500.0 -0.9655396883 0.2374940289
22800163200.0 -0.9627829315 0.2511089137
22850162900.0 -0.9597780156 0.2648806268
22900162600.0 -0.9589318268 0.2781182607
22950162300.0 -0.9577127714 0.2909512389
23000162000.0 -0.9567663579 0.3024903102
23050161700.0 -0.9545443505 0.3151162626
23100161400.0 -0.952743785 0.3278302051
23150161100.0 -0.9491737561 0.3399502781
23200160800.0 -0.9464905572 0.3521165555
23250160500.0 -0.9442691493 0.3640826859
23300160200.0 -0.9425563344 0.3760286487
23350159900.0 -0.9381843632 0.3889867728
23400159600.0 -0.933302959 0.4014427618
23450159300.0 -0.9281125321 0.415964718
23500159000.0 -0.9240461746 0.4277890923
23550158700.0 -0.9194154236 0.4413387436
23600158400.0 -0.9138493972 0.4543761499
23650158100.0 -0.9076945566 0.4683960652
23700157800.0 -0.9001213798 0.482265164
23750157500.0 -0.8915871089 0.4967519725
23800157200.0 -0.8823963647 0.5094487272
23850156900.0 -0.8738543027 0.5222189276
23900156600.0 -0.864281273 0.5348983916
23950156300.0 -0.8550940209 0.5467599533
24000156000.0 -0.8455815175 0.5595029399
24050155700.0 -0.8360856508 0.5708474551
24100155400.0 -0.8257159652 0.5829107992
24150155100.0 -0.8153530329 0.5946298158
24200154800.0 -0.8041519198 0.605581631
24250154500.0 -0.7931855894 0.6174555424
24300154200.0 -0.7816336389 0.6290263911
24350153900.0 -0.7697795547 0.6396388119
24400153600.0 -0.7575802784 0.6499687633
24450153300.0 -0.745547957 0.6597574401
24500153000.0 -0.7337709057 0.6697938977
24550152700.0 -0.7228594053 0.6796077738
24600152400.0 -0.7119496317 0.6882205182
24650152100.0 -0.6995846212 0.6972509128
