!Created with skrf (http://scikit-rf.org).
# Hz S RI R 50.0 
!freq ReS11 ImS11
300000.0 -0.9750328784 -0.1206285621
50299700.0 -0.9999366415 0.0149299112
100299400.0 -0.9979151222 0.0280130436
150299100.0 -1.002705132 0.0447497143
200298800.0 -0.9994374283 0.0581640555
250298500.0 -0.9971857279 0.0716210231
300298200.0 -0.9859871896 0.0874100843
350297900.0 -0.9940571059 0.098341949
400297600.0 -0.9930967611 0.1149095292
450297300.0 -0.9910156208 0.1287115188
500297000.0 -0.9892870109 0.143534764
550296700.0 -0.9842556006 0.1556630902
600296400.0 -1.017194018 0.1891669278
650296100.0 -0.982167131 0.1855887274
700295800.0 -0.979057129 0.2000614657
750295500.0 -0.9762722823 0.2139926207
800295200.0 -0.9730769862 0.2280001459
850294900.0 -0.9697173339 0.2417385221
900294600.0 -0.9658141218 0.2558344691
950294300.0 -0.9620979991 0.2692924463
1000294000.0 -0.9582522654 0.283122154
1050293700.0 -0.9536567146 0.2970573404
1100293400.0 -0.9492843388 0.3115833446
1150293100.0 -0.945594644 0.3233635383
1200292800.0 -0.9401614025 0.33766058
1250292500.0 -0.9348242805 0.3510680355
1300292200.0 -0.9290277277 0.3643660249
1350291900.0 -0.9235133023 0.3782741346
1400291600.0 -0.9180191068 0.3915408299
1450291300.0 -0.9124842609 0.4038972095
1500291000.0 -0.9061366009 0.4171966686
1550290700.0 -0.8997397983 0.4306236697
1600290400.0 -0.8934941727 0.4436089798
1650290100.0 -0.8868541786 0.4557604745
1700289800.0 -0.8798502662 0.4691584019
1750289500.0 -0.8730120913 0.4814363006
1800289200.0 -0.8656460508 0.4944567102
1850288900.0 -0.8585559832 0.5058183965
1900288600.0 -0.8509979573 0.5187688483
1950288300.0 -0.8429261846 0.5311910095
2000288000.0 -0.835458839 0.5427703249
2050287700.0 -0.8271248229 0.555125909
2100287400.0 -0.8195344699 0.5666273482
2150287100.0 -0.8107163942 0.5785530353
2200286800.0 -0.8030043856 0.5891525255
2250286500.0 -0.7941208039 0.6013171456
2300286200.0 -0.7851560633 0.6129386545
2350285900.0 -0.7771148012 0.623483707
2400285600.0 -0.7680705621 0.6343260174
2450285300.0 -0.7591986466 0.6451622928
2500285000.0 -0.749052624 0.6567075214
2550284700.0 -0.7401816087 0.666997298
2600284400.0 -0.7310296571 0.6768835905
2650284100.0 -0.7223195023 0.6873312849
2700283800.0 -0.7118677612 0.6973877909
2750283500.0 -0.7015516973 0.7081394547
2800283200.0 -0.6914509059 0.7177847495
2850282900.0 -0.681283522 0.7283639144
2900282600.0 -0.6706777153 0.7377551626
2950282300.0 -0.6603311231 0.7474445419
3000282000.0 -0.6496348829 0.7566595054
3050281700.0 -0.6383063596 0.7658139158
3100281400.0 -0.6268688224 0.774926315
3150281100.0 -0.6156569909 0.7839337698
3200280800.0 -0.6041560324 0.7922857077
3250280500.0 -0.5931170376 0.8001611778
3300280200.0 -0.5815500937 0.8084321093
3350279900.0 -0.5694729708 0.8164571224
3400279600.0 -0.556851418 0.8246947672
3450279300.0 -0.5456755119 0.8314195954
3500279000.0 -0.5338353603 0.838510377
3550278700.0 -0.5217108725 0.8456216777
3600278400.0 -0.5098087657 0.8523927563
3650278100.0 -0.4969690431 0.8598812525
3700277800.0 -0.4848347251 0.8667032018
3750277500.0 -0.4722534994 0.8730780542
3800277200.0 -0.4598754573 0.8796491116
3850276900.0 -0.4478389822 0.8855291165
3900276600.0 -0.436885222 0.8912866138
3950276300.0 -0.4247103612 0.8971167188
4000276000.0 -0.4131159199 0.9030358376
4050275700.0 -0.4006335695 0.9090423294
4100275400.0 -0.389462835 0.9144881751
4150275100.0 -0.3761289555 0.9203452957
4200274800.0 -0.3625778937 0.9258614926
4250274500.0 -0.3500154594 0.9312561705
4300274200.0 -0.3369296374 0.936838221
4350273900.0 -0.3228392789 0.9420141397
4400273600.0 -0.308167429 0.9469787861
4450273300.0 -0.2928732039 0.9521841321
4500273000.0 -0.2799263104 0.9563931549
4550272700.0 -0.2662207126 0.9605159479
4600272400.0 -0.2510350831 0.9646792814
4650272100.0 -0.2396722131 0.9678520029
4700271800.0 -0.2266718935 0.971205829
4750271500.0 -0.2150953981 0.9740348106
4800271200.0 -0.2029699193 0.9766836809
4850270900.0 -0.1890616777 0.9795538739
4900270600.0 -0.1752715361 0.9817668437
4950270300.0 -0.1607506963 0.9844884588
5000270000.0 -0.146268221 0.9865225115
5050269700.0 -0.1326626915 0.9882689682
5100269400.0 -0.1188019397 0.9901070151
5150269100.0 -0.1046556771 0.9916757457
5200268800.0 -0.0911886406 0.9925751301
5250268500.0 -0.0781507267 0.994001213
5300268200.0 -0.0647168609 0.9945630661
5350267900.0 -0.0518250035 0.9952626249
5400267600.0 -0.0355988168 0.9963330631
5450267300.0 -0.0224697686 0.9968035796
5500267000.0 -0.0070434883 0.9970363134
5550266700.0 0.0077627358 0.9971421986
5600266400.0 0.023518024 0.9970074186
5650266100.0 0.0404767678 0.996879087
5700265800.0 0.0545297998 0.9960439716
5750265500.0 0.0695405969 0.9951804128
5800265200.0 0.0829724821 0.9939269398
5850264900.0 0.0962597373 0.9930403698
5900264600.0 0.1125939127 0.9911738629
5950264300.0 0.1243061599 0.9897671265
6000264000.0 0.1378041005 0.9879765214
6050263700.0 0.1495367406 0.9866028807
6100263400.0 0.1617153878 0.9850347717
6150263100.0 0.1763392082 0.9824958274
6200262800.0 0.1862577475 0.9810670235
6250262500.0 0.1985885989 0.9787116562
6300262200.0 0.2110824203 0.9761713592
6350261900.0 0.2240311019 0.9734844644
6400261600.0 0.2376934427 0.9700293672
6450261300.0 0.2488435119 0.9675167442
6500261000.0 0.262206759 0.9638831963
6550260700.0 0.2754095845 0.9601288483
6600260400.0 0.2886013132 0.9559260408
6650260100.0 0.302552414 0.9516143234
6700259800.0 0.3149639833 0.9472620901
6750259500.0 0.3284099199 0.9423548132
6800259200.0 0.3423110151 0.9373786711
6850258900.0 0.3546700213 0.9318112838
6900258600.0 0.3674584284 0.9268189573
6950258300.0 0.3796636444 0.9214276288
7000258000.0 0.3911956941 0.9162966394
7050257700.0 0.4030915774 0.9104940903
7100257400.0 0.4166090584 0.9040260706
7150257100.0 0.4273139759 0.8986685453
7200256800.0 0.4405908448 0.8922801264
7250256500.0 0.452797463 0.8854237841
7300256200.0 0.4657307896 0.878884918
7350255900.0 0.4789477314 0.8720638578
7400255600.0 0.4927760121 0.864022749
7450255300.0 0.5080230305 0.8549958756
7500255000.0 0.5211265861 0.8476521041
7550254700.0 0.5347309898 0.8387306993
7600254400.0 0.5471361361 0.830317417
7650254100.0 0.5590266262 0.8222917973
7700253800.0 0.5706632288 0.8144759536
7750253500.0 0.5814388398 0.8067450547
7800253200.0 0.5922317721 0.7989327721
7850252900.0 0.6018512158 0.7916743884
7900252600.0 0.6133892078 0.7829693424
7950252300.0 0.6221479113 0.7765414748
8000252000.0 0.6319026192 0.7689566354
8050251700.0 0.6422638481 0.76087742
8100251400.0 0.6522625945 0.7529148395
8150251100.0 0.6620979207 0.7444030277
8200250800.0 0.6714730268 0.736422098
8250250500.0 0.6803505758 0.7285366005
8300250200.0 0.689662381 0.7199209739
8350249900.0 0.6989456097 0.7109734571
8400249600.0 0.7070003055 0.7031662248
8450249300.0 0.7155415146 0.6943952668
8500249000.0 0.7242178514 0.6854889917
8550248700.0 0.7325854982 0.6764239927
8600248400.0 0.7409711775 0.6669411068
8650248100.0 0.748674082 0.6573829935
8700247800.0 0.7581012233 0.6465310352
8750247500.0 0.7663112372 0.6363614849
8800247200.0 0.7741394824 0.6260900463
8850246900.0 0.7828927582 0.6146927627
8900246600.0 0.7913746083 0.6031376595
8950246300.0 0.8004855679 0.590533965
9000246000.0 0.8088738238 0.5785987274
9050245700.0 0.8175632585 0.5664156634
9100245400.0 0.8263919278 0.5541459667
9150245100.0 0.8350169634 0.5411686415
9200244800.0 0.8442555702 0.5267370134
9250244500.0 0.8533979237 0.5121712528
9300244200.0 0.8617100159 0.4984535586
9350243900.0 0.8691186798 0.4852000862
9400243600.0 0.8758808262 0.4735212568
9450243300.0 0.8812595738 0.4629466243
9500243000.0 0.8876744098 0.4511776051
9550242700.0 0.8916173211 0.4435717837
9600242400.0 0.896040042 0.4358333227
9650242100.0 0.8998751029 0.4292574886
9700241800.0 0.9051611431 0.4205104124
9750241500.0 0.9094237423 0.4126278307
9800241200.0 0.9140440603 0.4035122057
9850240900.0 0.9199337784 0.3915509506
9900240600.0 0.9258042368 0.379881078
9950240300.0 0.9327412806 0.3630388086
10000240000.0 0.937892015 0.3508319321
10050239700.0 0.9439275784 0.3349269457
10100239400.0 0.9493148073 0.3187249464
10150239100.0 0.9537018244 0.3030884825
10200238800.0 0.958094801 0.2876359391
10250238500.0 0.9614373321 0.2740987824
10300238200.0 0.9645636388 0.2603255454
10350237900.0 0.9673080786 0.2469558573
10400237600.0 0.9699839795 0.2331724191
10450237300.0 0.9724771138 0.2200489674
10500237000.0 0.9748073181 0.2071928338
10550236700.0 0.9772254018 0.1932426821
10600236400.0 0.9796116359 0.1788915978
10650236100.0 0.9815338031 0.1651553757
10700235800.0 0.9839903973 0.1524790735
10750235500.0 0.9857438066 0.1390997766
10800235200.0 0.987966306 0.1247369852
10850234900.0 0.9899626766 0.1096019514
10900234600.0 0.9919136693 0.0950196688
10950234300.0 0.9937182889 0.0813354564
11000234000.0 0.9956502044 0.0657162703
11050233700.0 0.9973997295 0.0491632968
11100233400.0 0.9989083938 0.031445894
11150233100.0 0.9999253423 0.0143099073
11200232800.0 1.000502319 -0.0013878811
11250232500.0 1.001870544 -0.0187834308
11300232200.0 1.001778384 -0.0377579701
11350231900.0 1.002281287 -0.0541582713
11400231600.0 1.001672439 -0.0696001877
11450231300.0 1.00063259 -0.0841065685
11500231000.0 0.9995180152 -0.1008838254
11550230700.0 0.9981489645 -0.1140030025
11600230400.0 0.9967400567 -0.1268603004
11650230100.0 0.994520779 -0.1385980212
11700229800.0 0.9927333602 -0.1539168635
11750229500.0 0.9898687789 -0.1681214696
11800229200.0 0.9873609112 -0.1814787739
11850228900.0 0.9836990126 -0.193058104
11900228600.0 0.9798611257 -0.2026221012
11950228300.0 0.9769216445 -0.2122339747
12000228000.0 0.9737003747 -0.2217769917
12050227700.0 0.970235022 -0.2336830401
12100227400.0 0.966960569 -0.2452853797
12150227100.0 0.9617460238 -0.2625103451
12200226800.0 0.9575541597 -0.2731120716
12250226500.0 0.9545067784 -0.2856090771
12300226200.0 0.9499989438 -0.2984295143
12350225900.0 0.9444257684 -0.3118993231
12400225600.0 0.9409941567 -0.3244684487
12450225300.0 0.9362264918 -0.3364402237
12500225000.0 0.9303891712 -0.3513750983
12550224700.0 0.9250295038 -0.3654726374
12600224400.0 0.9200713196 -0.3779340764
12650224100.0 0.9142603324 -0.3921817771
12700223800.0 0.9090045982 -0.4050165883
12750223500.0 0.9035957292 -0.4182439368
12800223200.0 0.8983063463 -0.4309800976
12850222900.0 0.8927937902 -0.4430169439
12900222600.0 0.8873257147 -0.4547374197
12950222300.0 0.8808648132 -0.4682038801
13000222000.0 0.8751915597 -0.4792619143
13050221700.0 0.8682806132 -0.4922277453
13100221400.0 0.8617856737 -0.5046376542
13150221100.0 0.8547275374 -0.5165071686
13200220800.0 0.8476042146 -0.5279559951
13250220500.0 0.8404863878 -0.5400264331
13300220200.0 0.8329138974 -0.5509384317
13350219900.0 0.8247709654 -0.5629120958
13400219600.0 0.8163892928 -0.5747647932
13450219300.0 0.8072885319 -0.5876742888
13500219000.0 0.7978015679 -0.6011755097
13550218700.0 0.7874064176 -0.6134295091
13600218400.0 0.7779729767 -0.6255054034
13650218100.0 0.7682712999 -0.6361094143
13700217800.0 0.7573249508 -0.6482190852
13750217500.0 0.7473709881 -0.6591916337
13800217200.0 0.7370461074 -0.6701792028
13850216900.0 0.725286061 -0.6810849017
13900216600.0 0.7164515807 -0.6898482501
13950216300.0 0.7058167623 -0.6999550126
14000216000.0 0.6951506316 -0.7092959042
14050215700.0 0.6861015333 -0.7171538726
14100215400.0 0.6766383124 -0.7264129896
14150215100.0 0.6674699271 -0.7352327278
14200214800.0 0.6580893892 -0.743898591
14250214500.0 0.6478053813 -0.7533987585
14300214200.0 0.6372033067 -0.7627872835
14350213900.0 0.6260304092 -0.772473564
14400213600.0 0.6143785303 -0.7824772444
14450213300.0 0.6013895066 -0.7923086402
14500213000.0 0.5883782314 -0.8022441213
14550212700.0 0.575962797 -0.8115226822
14600212400.0 0.563330799 -0.8201550058
14650212100.0 0.550841609 -0.8290947747
14700211800.0 0.5374461946 -0.8386140138
14750211500.0 0.5249379831 -0.8473167698
14800211200.0 0.5123226649 -0.8554330498
14850210900.0 0.5002141923 -0.8629753533
14900210600.0 0.486890161 -0.8708429996
14950210300.0 0.4736518775 -0.878672805
15000210000.0 0.460994599 -0.885271144
15050209700.0 0.4485333549 -0.8915287612
15100209400.0 0.4357644499 -0.897263187
15150209100.0 0.4234510325 -0.9026650527
15200208800.0 0.4105895467 -0.9083023895
15250208500.0 0.399976646 -0.9126799988
15300208200.0 0.3876983848 -0.9172654102
15350207900.0 0.3750648837 -0.9224538787
15400207600.0 0.3596146379 -0.9274719482
15450207300.0 0.3448665388 -0.9327560368
15500207000.0 0.3303177901 -0.937105561
15550206700.0 0.3163036375 -0.9422098624
15600206400.0 0.2998034046 -0.9466460021
15650206100.0 0.2836655229 -0.9510938618
15700205800.0 0.270639378 -0.954168331
15750205500.0 0.2564886593 -0.957666709
15800205200.0 0.2426775645 -0.9612282199
15850204900.0 0.2284447258 -0.9647137941
15900204600.0 0.2134378913 -0.9683284072
15950204300.0 0.1991543477 -0.9714990928
16000204000.0 0.1849051498 -0.9745931971
16050203700.0 0.1693308543 -0.9775281303
16100203400.0 0.1550190836 -0.9800505708
16150203100.0 0.1396493025 -0.9822936573
16200202800.0 0.1256957973 -0.9842499389
16250202500.0 0.1107075299 -0.9859081604
16300202200.0 0.0952058704 -0.9877273722
16350201900.0 0.0800303491 -0.9890619523
16400201600.0 0.0654825491 -0.9897599626
16450201300.0 0.0502889892 -0.9910817837
16500201000.0 0.0329487743 -0.9919666922
16550200700.0 0.0169747946 -0.992555764
16600200400.0 0.0012762862 -0.9927084162
16650200100.0 -0.015018512 -0.9924577004
16700199800.0 -0.0314539492 -0.9917531038
16750199500.0 -0.0502863345 -0.9913882034
16800199200.0 -0.0665009804 -0.9910315316
16850198900.0 -0.0812854714 -0.9894175105
16900198600.0 -0.0963195592 -0.9881463025
16950198300.0 -0.1100725366 -0.9878010958
17000198000.0 -0.1227546913 -0.9859323042
17050197700.0 -0.1351538844 -0.9842532186
17100197400.0 -0.1485112696 -0.9822652306
17150197100.0 -0.1609955707 -0.9800823492
17200196800.0 -0.1734830049 -0.9778778467
17250196500.0 -0.18666969 -0.9755032915
17300196200.0 -0.1989185496 -0.9731981911
17350195900.0 -0.2107505716 -0.9709030616
17400195600.0 -0.2227518212 -0.9683772986
17450195300.0 -0.235567987 -0.9657298433
17500195000.0 -0.2489061907 -0.9623125947
17550194700.0 -0.262566695 -0.9585338863
17600194400.0 -0.2766192629 -0.954766133
17650194100.0 -0.2899409858 -0.9501907287
17700193800.0 -0.3026858285 -0.9466923361
17750193500.0 -0.3171864254 -0.9416450923
17800193200.0 -0.331271616 -0.9368512238
17850192900.0 -0.3464819165 -0.9313266142
17900192600.0 -0.361312084 -0.9251983388
17950192300.0 -0.3770044199 -0.917857192
18000192000.0 -0.3916000918 -0.9109099357
18050191700.0 -0.4054152334 -0.9030500064
18100191400.0 -0.4196776674 -0.8953146338
18150191100.0 -0.4345298307 -0.8872876467
18200190800.0 -0.4512919273 -0.8781359541
18250190500.0 -0.4682242713 -0.8686211385
18300190200.0 -0.48383545 -0.8599924911
18350189900.0 -0.4988777336 -0.8517679398
18400189600.0 -0.5133157211 -0.8428904568
18450189300.0 -0.5267969732 -0.8348815168
18500189000.0 -0.5404873907 -0.8275214636
18550188700.0 -0.5535409888 -0.8192429117
18600188400.0 -0.5653190651 -0.8127699213
18650188100.0 -0.5765987353 -0.8059844674
18700187800.0 -0.5875537292 -0.7992508572
18750187500.0 -0.598287647 -0.7926416472
18800187200.0 -0.6088748433 -0.7858233826
18850186900.0 -0.6191152511 -0.7785836686
18900186600.0 -0.6295765294 -0.771568982
18950186300.0 -0.6397908078 -0.7637772994
19000186000.0 -0.6469849096 -0.7575461046
19050185700.0 -0.65635563 -0.7501200792
19100185400.0 -0.6665134312 -0.7421479597
19150185100.0 -0.6762931522 -0.7336526889
19200184800.0 -0.6856876997 -0.7255652315
19250184500.0 -0.695955686 -0.7165911257
19300184200.0 -0.7074571809 -0.7066761705
19350183900.0 -0.7178963957 -0.6966499962
19400183600.0 -0.7276201328 -0.6873080924
19450183300.0 -0.7367430749 -0.6763188016
19500183000.0 -0.7453878962 -0.6669156917
19550182700.0 -0.7548082569 -0.6560187674
19600182400.0 -0.7650669827 -0.644833176
19650182100.0 -0.7756292854 -0.6323465777
19700181800.0 -0.7860060197 -0.6190354185
19750181500.0 -0.7966017528 -0.6047569891
19800181200.0 -0.8067296443 -0.5898691056
19850180900.0 -0.816352286 -0.5746761014
19900180600.0 -0.8241671713 -0.5599706582
19950180300.0 -0.8332253103 -0.5439584139
20000180000.0 -0.823524133 -0.5474055363
20050179700.0 -0.8313817863 -0.5344202425
20100179400.0 -0.8399698087 -0.5215558005
20150179100.0 -0.8477927823 -0.5102312939
20200178800.0 -0.8559586004 -0.4975592024
20250178500.0 -0.8656387651 -0.4853499475
20300178200.0 -0.87545353 -0.4714898049
20350177900.0 -0.8846297746 -0.4577986168
20400177600.0 -0.8935120449 -0.4431320929
20450177300.0 -0.9019760901 -0.429469012
20500177000.0 -0.9097829905 -0.4154797956
20550176700.0 -0.9179394414 -0.4018488443
20600176400.0 -0.924853992 -0.3889167648
20650176100.0 -0.9316593061 -0.3765895879
20700175800.0 -0.9384868286 -0.3645687618
20750175500.0 -0.94470398 -0.3534310161
20800175200.0 -0.9489535001 -0.3426091886
20850174900.0 -0.9538467243 -0.3311255343
20900174600.0 -0.9573538756 -0.320182784
20950174300.0 -0.961432927 -0.3103331384
21000174000.0 -0.9636417057 -0.2984861181
21050173700.0 -0.9660520974 -0.2896863783
21100173400.0 -0.9695245383 -0.2779391937
21150173100.0 -0.9728324095 -0.2664884431
21200172800.0 -0.9771396417 -0.2529435705
21250172500.0 -0.9810556502 -0.2394983962
21300172200.0 -0.9842979821 -0.2252046755
21350171900.0 -0.9863806574 -0.2109340837
21400171600.0 -0.9878399114 -0.1972964322
21450171300.0 -0.9889517928 -0.1828694144
21500171000.0 -0.9896860477 -0.1678825845
21550170700.0 -0.9901516844 -0.1531858819
21600170400.0 -0.9908468419 -0.1370028653
21650170100.0 -0.9908573784 -0.1210926135
21700169800.0 -0.9896008731 -0.1066557735
21750169500.0 -0.9902195193 -0.0895557867
21800169200.0 -0.9898496573 -0.073786401
21850168900.0 -0.9894348593 -0.0569726589
21900168600.0 -0.9887590491 -0.0415129821
21950168300.0 -0.9886973356 -0.0249719083
22000168000.0 -0.9886569176 -0.0099982227
22050167700.0 -0.989286094 0.0046968026
22100167400.0 -0.9897701078 0.0204649697
22150167100.0 -0.990756794 0.0364102987
22200166800.0 -0.9914725951 0.0527640938
22250166500.0 -0.99104449 0.0703037303
22300166200.0 -0.9901910926 0.086646081
22350165900.0 -0.989005357 0.1029770172
22400165600.0 -0.9873254457 0.1179771331
22450165300.0 -0.9854756779 0.1347214122
22500165000.0 -0.9843387729 0.1481048511
22550164700.0 -0.9818071923 0.1631804511
22600164400.0 -0.9811007229 0.179884114
22650164100.0 -0.9772759408 0.1959599836
22700163800.0 -0.9750343401 0.2117396525
22750163500.0 -0.9723785447 0.2262670389
22800163200.0 -0.9687189682 0.2394952153
22850162900.0 -0.9663251434 0.252875456
22900162600.0 -0.9642700122 0.2668357834
22950162300.0 -0.9625934231 0.2805808413
23000162000.0 -0.9609918881 0.2930655146
23050161700.0 -0.9577974509 0.3062208016
23100161400.0 -0.9558041993 0.3195293036
23150161100.0 -0.9523557348 0.3324072934
23200160800.0 -0.9497532226 0.3459905103
23250160500.0 -0.9469264794 0.3574928818
23300160200.0 -0.9441662703 0.3708174071
23350159900.0 -0.9402959257 0.3839431659
23400159600.0 -0.9357680192 0.3982286039
23450159300.0 -0.9300468376 0.4119283815
23500159000.0 -0.925013398 0.4249620295
23550158700.0 -0.9202697423 0.4393245537
23600158400.0 -0.9143638884 0.4532713848
23650158100.0 -0.9074681808 0.4677697543
23700157800.0 -0.8987746687 0.4818451431
23750157500.0 -0.8893736979 0.4957924941
23800157200.0 -0.8797778691 0.5098226949
23850156900.0 -0.8703277538 0.522601604
23900156600.0 -0.860605986 0.5352347473
23950156300.0 -0.8510772331 0.5477660683
24000156000.0 -0.840578861 0.5600481725
24050155700.0 -0.8310523398 0.5723090112
24100155400.0 -0.8203407411 0.5849508843
24150155100.0 -0.8097333421 0.5968199281
24200154800.0 -0.7987139004 0.608539918
24250154500.0 -0.7873466367 0.6202465822
24300154200.0 -0.7766795552 0.6327635376
24350153900.0 -0.7641055945 0.6439687231
24400153600.0 -0.7516525468 0.6545655051
24450153300.0 -0.7395970247 0.6647466627
24500153000.0 -0.7278957986 0.6746116022
24550152700.0 -0.7169132786 0.6847962973
24600152400.0 -0.704852982 0.6937589927
24650152100.0 -0.6925741738 0.702231657
