!Created with skrf (http://scikit-rf.org).
# Hz S RI R 50.0 
!freq ReS11 ImS11
300000.0 -0.9734042945 -0.1216554199
50299700.0 -0.999853096 0.0150973256
100299400.0 -0.9979520089 0.027853895
150299100.0 -1.002704476 0.044680228
200298800.0 -0.9995229194 0.0580922685
250298500.0 -0.9972603318 0.0715991746
300298200.0 -0.9858252137 0.0873517342
350297900.0 -0.9940119928 0.0980975946
400297600.0 -0.9931012026 0.1149692869
450297300.0 -0.9908476912 0.1288170506
500297000.0 -0.9894720632 0.1433015903
550296700.0 -0.9844549937 0.1556834717
600296400.0 -1.01705773 0.1891220822
650296100.0 -0.9820080232 0.1855396675
700295800.0 -0.9792077183 0.2000843723
750295500.0 -0.9762874778 0.2140084528
800295200.0 -0.9728606452 0.2279869555
850294900.0 -0.9697478051 0.2418711124
900294600.0 -0.9657987833 0.2554351869
950294300.0 -0.962140527 0.269284202
1000294000.0 -0.9582393305 0.2832809962
1050293700.0 -0.9536561873 0.2969194494
1100293400.0 -0.9493749317 0.311413039
1150293100.0 -0.9453824479 0.3233590547
1200292800.0 -0.9402253394 0.3375549875
1250292500.0 -0.9347167531 0.3510958906
1300292200.0 -0.9290738752 0.3643860016
1350291900.0 -0.9234106937 0.378391431
1400291600.0 -0.9179226736 0.3914854174
1450291300.0 -0.9125763808 0.4039517448
1500291000.0 -0.9061987145 0.4171660406
1550290700.0 -0.8998130688 0.4305520797
1600290400.0 -0.8935330993 0.4435773265
1650290100.0 -0.8867812454 0.4556137375
1700289800.0 -0.8800071195 0.4691374481
1750289500.0 -0.8729047645 0.4815003612
1800289200.0 -0.865510765 0.4942066423
1850288900.0 -0.8587986575 0.5056044008
1900288600.0 -0.8510790743 0.5188150975
1950288300.0 -0.8429894893 0.531212038
2000288000.0 -0.8354567009 0.5427975305
2050287700.0 -0.8273988006 0.555068515
2100287400.0 -0.8195156059 0.566523173
2150287100.0 -0.8110570654 0.5784831833
2200286800.0 -0.8030183239 0.5891463567
2250286500.0 -0.7939060673 0.6015082904
2300286200.0 -0.7853957563 0.6128507503
2350285900.0 -0.7768741036 0.6233867313
2400285600.0 -0.7679175532 0.6344610307
2450285300.0 -0.7591597011 0.6449367806
2500285000.0 -0.7491116875 0.6566290593
2550284700.0 -0.7401014504 0.6669192526
2600284400.0 -0.7312491406 0.6771102901
2650284100.0 -0.7225058686 0.6870527003
2700283800.0 -0.7118895866 0.6974416544
2750283500.0 -0.7017298161 0.7082085897
2800283200.0 -0.6915241982 0.7178958477
2850282900.0 -0.6810334513 0.7279479509
2900282600.0 -0.6707730256 0.7377854302
2950282300.0 -0.6603190162 0.7472159257
3000282000.0 -0.649556261 0.7567441619
3050281700.0 -0.6383526758 0.7659912994
3100281400.0 -0.6267869643 0.7748972045
3150281100.0 -0.6156552754 0.7837824591
3200280800.0 -0.6042147337 0.7922064466
3250280500.0 -0.5930282085 0.8003686039
3300280200.0 -0.5814874545 0.8086504269
3350279900.0 -0.5693087504 0.8164847632
3400279600.0 -0.5568066416 0.824413676
3450279300.0 -0.5457280857 0.8316929852
3500279000.0 -0.5338850838 0.8383805908
3550278700.0 -0.5215871766 0.8455812337
3600278400.0 -0.5101224231 0.8525256951
3650278100.0 -0.4969200246 0.8600221885
3700277800.0 -0.4845527125 0.8662667685
3750277500.0 -0.47218046 0.8733437993
3800277200.0 -0.4599240898 0.8795211368
3850276900.0 -0.4477455062 0.8855542042
3900276600.0 -0.4367843093 0.8913726276
3950276300.0 -0.424929155 0.8970507298
4000276000.0 -0.4131986112 0.9032461869
4050275700.0 -0.4003881749 0.9091504978
4100275400.0 -0.3894365484 0.9146062587
4150275100.0 -0.3760508685 0.9202212501
4200274800.0 -0.3626557412 0.9261934592
4250274500.0 -0.3501294432 0.9314253582
4300274200.0 -0.3367227013 0.9367581637
4350273900.0 -0.3226889512 0.9422174428
4400273600.0 -0.3077786267 0.9471412578
4450273300.0 -0.2930987514 0.9521591674
4500273000.0 -0.2798255265 0.9563849594
4550272700.0 -0.2662872297 0.9604422729
4600272400.0 -0.2511162957 0.9646298077
4650272100.0 -0.2397907651 0.9677479494
4700271800.0 -0.2268130086 0.9711814369
4750271500.0 -0.2152287036 0.9740738277
4800271200.0 -0.2030684828 0.9766258509
4850270900.0 -0.1891379466 0.9795269409
4900270600.0 -0.1753543607 0.9820443144
4950270300.0 -0.1608473016 0.984529303
5000270000.0 -0.1462999532 0.9866020431
5050269700.0 -0.132854362 0.9880484868
5100269400.0 -0.1184913261 0.9901499868
5150269100.0 -0.1047965577 0.9916508671
5200268800.0 -0.0913588746 0.9928037998
5250268500.0 -0.0781967896 0.99387198
5300268200.0 -0.0648918281 0.9943324099
5350267900.0 -0.0517349384 0.9951857946
5400267600.0 -0.0356665959 0.9961660035
5450267300.0 -0.0222551588 0.9966478564
5500267000.0 -0.0070023537 0.9971879958
5550266700.0 0.0078148918 0.9972739091
5600266400.0 0.0237069072 0.9970671556
5650266100.0 0.0404633705 0.9967996897
5700265800.0 0.0543250458 0.9958181359
5750265500.0 0.0695910707 0.9951820348
5800265200.0 0.0833870195 0.9944588158
5850264900.0 0.096239778 0.9930844155
5900264600.0 0.1129755562 0.9917299945
5950264300.0 0.1242241101 0.9898901328
6000264000.0 0.1379509605 0.9878164035
6050263700.0 0.1497091705 0.9867740153
6100263400.0 0.1616873201 0.9847365075
6150263100.0 0.1764569997 0.9826075762
6200262800.0 0.1859519001 0.9809482956
6250262500.0 0.1985920052 0.9789091501
6300262200.0 0.2108933759 0.9762707108
6350261900.0 0.2236585304 0.9732901633
6400261600.0 0.2375273693 0.9703621006
6450261300.0 0.2486244621 0.9674552419
6500261000.0 0.2621658264 0.9643916597
6550260700.0 0.2753883365 0.9602879124
6600260400.0 0.2886466901 0.9561934653
6650260100.0 0.3024685309 0.9515840426
6700259800.0 0.3148666875 0.9472076161
6750259500.0 0.3284425728 0.9424440233
6800259200.0 0.341982127 0.9372754955
6850258900.0 0.3547199593 0.932124926
6900258600.0 0.3670354742 0.9269360587
6950258300.0 0.379476161 0.9215570097
7000258000.0 0.3912318625 0.9163837198
7050257700.0 0.4032132067 0.9105156814
7100257400.0 0.4166958101 0.9040873872
7150257100.0 0.4271594613 0.8985466494
7200256800.0 0.4403676088 0.8922495698
7250256500.0 0.4528512146 0.8854402165
7300256200.0 0.4662659197 0.8789528425
7350255900.0 0.478680219 0.8719738591
7400255600.0 0.493039998 0.8643615289
7450255300.0 0.5083382981 0.8549497923
7500255000.0 0.5208500887 0.8473791357
7550254700.0 0.5348707019 0.8382038931
7600254400.0 0.5476798416 0.8300424873
7650254100.0 0.5595244099 0.8222829316
7700253800.0 0.5704876509 0.8140869254
7750253500.0 0.581776093 0.8066232935
7800253200.0 0.5922369999 0.7986312703
7850252900.0 0.6022252823 0.7915147763
7900252600.0 0.6137010849 0.7826922965
7950252300.0 0.6220704578 0.7764093117
8000252000.0 0.6319728875 0.7687542835
8050251700.0 0.6426767181 0.7606920829
8100251400.0 0.65233672 0.7527684013
8150251100.0 0.6620273982 0.7443722367
8200250800.0 0.6718174198 0.735790314
8250250500.0 0.6804784391 0.7282598782
8300250200.0 0.6897638736 0.719815636
8350249900.0 0.6988254124 0.7107280142
8400249600.0 0.7069949096 0.7029280982
8450249300.0 0.7156099863 0.6943253098
8500249000.0 0.7242153234 0.6852808481
8550248700.0 0.7326014931 0.6762655013
8600248400.0 0.7409388571 0.6666763749
8650248100.0 0.7486016766 0.6574330757
8700247800.0 0.7578801619 0.6463137848
8750247500.0 0.7663084666 0.6361903682
8800247200.0 0.7742077913 0.6260043508
8850246900.0 0.7828661082 0.6144268268
8900246600.0 0.7912024519 0.6030193996
8950246300.0 0.8006636266 0.5903391714
9000246000.0 0.8093316735 0.5787362618
9050245700.0 0.8174519759 0.5663644965
9100245400.0 0.8257658057 0.5540686862
9150245100.0 0.8345830395 0.541132635
9200244800.0 0.8441681885 0.5268819623
9250244500.0 0.8533618323 0.5121540223
9300244200.0 0.8613256886 0.498676299
9350243900.0 0.8690268217 0.4856013051
9400243600.0 0.8755536374 0.4737248399
9450243300.0 0.8810107666 0.4632904597
9500243000.0 0.8874466042 0.4516480948
9550242700.0 0.8913365406 0.4440016462
9600242400.0 0.895601596 0.4363903047
9650242100.0 0.8998020416 0.4296647131
9700241800.0 0.9046618415 0.4207676507
9750241500.0 0.9087458417 0.4134512645
9800241200.0 0.9141307065 0.4037305569
9850240900.0 0.9198818661 0.3919723613
9900240600.0 0.9258739918 0.3800801871
9950240300.0 0.9330439385 0.3634039108
10000240000.0 0.9377920227 0.3514082153
10050239700.0 0.9437455035 0.3352358804
10100239400.0 0.949227007 0.3188773524
10150239100.0 0.9539535963 0.3030651196
10200238800.0 0.9582230633 0.2880293015
10250238500.0 0.9615737749 0.2743723218
10300238200.0 0.9646771929 0.2604319486
10350237900.0 0.9674210207 0.2472117274
10400237600.0 0.970002481 0.2333233451
10450237300.0 0.9728018606 0.2198182829
10500237000.0 0.9750563866 0.2077867597
10550236700.0 0.9775315014 0.1929059463
10600236400.0 0.9793415289 0.1790126606
10650236100.0 0.9813135134 0.1647616815
10700235800.0 0.9837542236 0.1524681379
10750235500.0 0.9859693616 0.1390620663
10800235200.0 0.987977704 0.1247006837
10850234900.0 0.9900965694 0.1094795284
10900234600.0 0.9917457904 0.0950849916
10950234300.0 0.9937685057 0.0812064538
11000234000.0 0.9955472639 0.0656852067
11050233700.0 0.9973706787 0.0488203709
11100233400.0 0.9987909895 0.0314171154
11150233100.0 1.000108062 0.0141237153
11200232800.0 1.000958609 -0.0020945614
11250232500.0 1.001844094 -0.0190513698
11300232200.0 1.00204092 -0.0374789167
11350231900.0 1.0022475 -0.0541042368
11400231600.0 1.002246213 -0.0696924369
11450231300.0 1.00101937 -0.0853054348
11500231000.0 0.9998894867 -0.1014331014
11550230700.0 0.9985599856 -0.1151440827
11600230400.0 0.9975461113 -0.1272391296
11650230100.0 0.9951212595 -0.1395345818
11700229800.0 0.9927650827 -0.1537508459
11750229500.0 0.9901471995 -0.168224954
11800229200.0 0.9876101532 -0.181584014
11850228900.0 0.9837469002 -0.1936020897
11900228600.0 0.9800002764 -0.2031055058
11950228300.0 0.9767711181 -0.2129722913
12000228000.0 0.9737724251 -0.2219074428
12050227700.0 0.9699818978 -0.2342879999
12100227400.0 0.9664431631 -0.2458090127
12150227100.0 0.9612037883 -0.2626265827
12200226800.0 0.9583918827 -0.2729005723
12250226500.0 0.9542059902 -0.28580441
12300226200.0 0.9495258088 -0.298315219
12350225900.0 0.9442953992 -0.3125735953
12400225600.0 0.9402685373 -0.3245742711
12450225300.0 0.9360517929 -0.3365428679
12500225000.0 0.9299417842 -0.3519875728
12550224700.0 0.925070998 -0.3657472412
12600224400.0 0.9198356757 -0.3781735789
12650224100.0 0.9140461686 -0.3924482737
12700223800.0 0.908791138 -0.4053645145
12750223500.0 0.9033608472 -0.4184794329
12800223200.0 0.8980984874 -0.4309534453
12850222900.0 0.8928904154 -0.4432409935
12900222600.0 0.887209812 -0.4552090946
12950222300.0 0.8810307668 -0.4673786319
13000222000.0 0.8749668486 -0.4794228568
13050221700.0 0.867951044 -0.4930448359
13100221400.0 0.8614551901 -0.5046411014
13150221100.0 0.8544158018 -0.5164953139
13200220800.0 0.8476523645 -0.5280644293
13250220500.0 0.8403623209 -0.5401578491
13300220200.0 0.8328664066 -0.5513252562
13350219900.0 0.8246368547 -0.563266138
13400219600.0 0.816353924 -0.5751165542
13450219300.0 0.8071265964 -0.5881822056
13500219000.0 0.7974194095 -0.6014398782
13550218700.0 0.7876336286 -0.6134581208
13600218400.0 0.7773346171 -0.6253294962
13650218100.0 0.7680093312 -0.635786899
13700217800.0 0.75661193 -0.6482047858
13750217500.0 0.7472386308 -0.6588784782
13800217200.0 0.7364822514 -0.67046871
13850216900.0 0.7258064409 -0.6812794003
13900216600.0 0.7155602347 -0.6898279443
13950216300.0 0.7052345059 -0.7004559155
14000216000.0 0.6957499671 -0.7091444196
14050215700.0 0.6861619672 -0.717047852
14100215400.0 0.6764299113 -0.7264736989
14150215100.0 0.6676510918 -0.7349950753
14200214800.0 0.6580821962 -0.7439315342
14250214500.0 0.6476518269 -0.7534566999
14300214200.0 0.6371285253 -0.7629709243
14350213900.0 0.6259772849 -0.7726895531
14400213600.0 0.6142239135 -0.7821685196
14450213300.0 0.6013774396 -0.7924779766
14500213000.0 0.5884503493 -0.802212012
14550212700.0 0.5762559295 -0.8113398182
14600212400.0 0.5636854371 -0.8204232329
14650212100.0 0.5509555485 -0.8290384512
14700211800.0 0.5372502196 -0.8387067857
14750211500.0 0.525013093 -0.847182561
14800211200.0 0.5125697472 -0.8551800223
14850210900.0 0.4999015627 -0.8629241212
14900210600.0 0.486863712 -0.8709204317
14950210300.0 0.4734706003 -0.8784510239
15000210000.0 0.4607881778 -0.8852046362
15050209700.0 0.4485542931 -0.8914322264
15100209400.0 0.4358201146 -0.8973564309
15150209100.0 0.4236525147 -0.902218323
15200208800.0 0.4111176009 -0.9078864321
15250208500.0 0.4004009336 -0.9123502196
15300208200.0 0.387736024 -0.9171668318
15350207900.0 0.3749014534 -0.9212391798
15400207600.0 0.3595495361 -0.9273830875
15450207300.0 0.3447892589 -0.9322113559
15500207000.0 0.3307202131 -0.9367379847
15550206700.0 0.315699718 -0.9419456427
15600206400.0 0.2995634251 -0.9465016797
15650206100.0 0.2839871718 -0.9508789846
15700205800.0 0.2709054333 -0.9541186391
15750205500.0 0.2567073272 -0.9575862494
15800205200.0 0.2425586557 -0.9612324899
15850204900.0 0.2285233313 -0.9645960279
15900204600.0 0.2132201437 -0.9682615761
15950204300.0 0.1989330015 -0.9714884418
16000204000.0 0.1845558046 -0.9743220602
16050203700.0 0.1696668544 -0.9772106001
16100203400.0 0.1548176199 -0.9799104709
16150203100.0 0.1396358328 -0.9817509984
16200202800.0 0.1255370895 -0.9840107359
16250202500.0 0.1105922161 -0.9861736826
16300202200.0 0.0954133201 -0.9875951001
16350201900.0 0.0803734924 -0.9888484015
16400201600.0 0.0655929933 -0.9902037338
16450201300.0 0.0498293224 -0.9913122442
16500201000.0 0.0330292704 -0.9919074498
16550200700.0 0.0169779425 -0.9926596665
16600200400.0 0.001250018 -0.9926770523
16650200100.0 -0.0151200907 -0.9923917484
16700199800.0 -0.0313439594 -0.9923295954
16750199500.0 -0.0501852572 -0.9918351587
16800199200.0 -0.0667421072 -0.9908589944
16850198900.0 -0.0814187822 -0.9896279714
16900198600.0 -0.0957893077 -0.9881140209
16950198300.0 -0.1098131099 -0.9876599057
17000198000.0 -0.1230753021 -0.9865053254
17050197700.0 -0.1357595407 -0.9843735347
17100197400.0 -0.1489580264 -0.9821833299
17150197100.0 -0.1608227518 -0.9798516007
17200196800.0 -0.1740170004 -0.9780548366
17250196500.0 -0.1869215164 -0.9753531511
17300196200.0 -0.1990815213 -0.9732204474
17350195900.0 -0.2108250917 -0.970874519
17400195600.0 -0.2229260736 -0.9682739928
17450195300.0 -0.2357112495 -0.9654845908
17500195000.0 -0.2488882768 -0.9621970485
17550194700.0 -0.2630385878 -0.9583648781
17600194400.0 -0.2766666816 -0.954825961
17650194100.0 -0.2903392644 -0.9507460184
17700193800.0 -0.3032232178 -0.9464840246
17750193500.0 -0.3178567122 -0.9420424727
17800193200.0 -0.3314323008 -0.9369498417
17850192900.0 -0.3466630719 -0.931417733
17900192600.0 -0.3613168048 -0.9251613439
17950192300.0 -0.37696392 -0.9181040909
18000192000.0 -0.3916746003 -0.9108035671
18050191700.0 -0.4056518124 -0.9029634325
18100191400.0 -0.4196854056 -0.8951796104
18150191100.0 -0.434447933 -0.8871993489
18200190800.0 -0.4513349855 -0.878152817
18250190500.0 -0.4683600789 -0.8687350057
18300190200.0 -0.4841606137 -0.8598960025
18350189900.0 -0.4990493574 -0.8516915954
18400189600.0 -0.5137691247 -0.8432453563
18450189300.0 -0.5267752453 -0.8349438317
18500189000.0 -0.5406047017 -0.8271222918
18550188700.0 -0.5533655721 -0.819266006
18600188400.0 -0.5651753045 -0.8123702146
18650188100.0 -0.5766800104 -0.8059251537
18700187800.0 -0.5876773742 -0.7992318903
18750187500.0 -0.5984666765 -0.7926346241
18800187200.0 -0.608910356 -0.785391761
18850186900.0 -0.6192089704 -0.7785188292
18900186600.0 -0.6295839089 -0.7711650265
18950186300.0 -0.6397631248 -0.7635649623
19000186000.0 -0.6472118155 -0.7572524167
19050185700.0 -0.6563303961 -0.7504707055
19100185400.0 -0.6669250079 -0.7416312759
19150185100.0 -0.6768609063 -0.7337264078
19200184800.0 -0.6867847959 -0.7257365756
19250184500.0 -0.6968049783 -0.7159329602
19300184200.0 -0.7080595554 -0.7061942532
19350183900.0 -0.7192810162 -0.6969093847
19400183600.0 -0.7284258716 -0.6875878276
19450183300.0 -0.7373861744 -0.6766087444
19500183000.0 -0.7458681639 -0.6665943293
19550182700.0 -0.7551630161 -0.6554974326
19600182400.0 -0.7652770279 -0.6445029884
19650182100.0 -0.7760151159 -0.6320505404
19700181800.0 -0.7863881948 -0.6186347646
19750181500.0 -0.7967602213 -0.6046243953
19800181200.0 -0.8071319936 -0.5896661287
19850180900.0 -0.8165177642 -0.5743336461
19900180600.0 -0.824002272 -0.5599463804
19950180300.0 -0.8332130505 -0.5438016388
20000180000.0 -0.8234954225 -0.5476720938
20050179700.0 -0.8310886716 -0.5339287968
20100179400.0 -0.840114954 -0.5217293952
20150179100.0 -0.8479266093 -0.5098973126
20200178800.0 -0.8557762937 -0.4981107417
20250178500.0 -0.8659519742 -0.4859945792
20300178200.0 -0.8750765435 -0.4714951344
20350177900.0 -0.8847339344 -0.4576214818
20400177600.0 -0.8938536577 -0.4437215369
20450177300.0 -0.9020028434 -0.4293860551
20500177000.0 -0.9099912182 -0.4153926143
20550176700.0 -0.9179003536 -0.4021042655
20600176400.0 -0.9244938052 -0.3887316962
20650176100.0 -0.9316788569 -0.3767809271
20700175800.0 -0.9379803443 -0.3647565996
20750175500.0 -0.9447619872 -0.3531343823
20800175200.0 -0.9491894643 -0.3425644523
20850174900.0 -0.9531156952 -0.3308911955
20900174600.0 -0.9583982113 -0.3209621178
20950174300.0 -0.9608847896 -0.3100239771
21000174000.0 -0.9633867032 -0.2991582595
21050173700.0 -0.9656260237 -0.2890150374
21100173400.0 -0.9694484909 -0.2788612286
21150173100.0 -0.9726996828 -0.2666201839
21200172800.0 -0.9768103034 -0.2536388971
21250172500.0 -0.9808781689 -0.2401453825
21300172200.0 -0.9837862876 -0.2261026037
21350171900.0 -0.9861163984 -0.2114368252
21400171600.0 -0.9878503882 -0.1975303963
21450171300.0 -0.9889825521 -0.1834289556
21500171000.0 -0.9888962549 -0.1682836335
21550170700.0 -0.9894829118 -0.1529795961
21600170400.0 -0.9899463655 -0.1376059156
21650170100.0 -0.991360748 -0.1215635021
21700169800.0 -0.9901594381 -0.1068914099
21750169500.0 -0.9902097705 -0.0902694099
21800169200.0 -0.989777879 -0.0740697139
21850168900.0 -0.9898849249 -0.0576750772
21900168600.0 -0.9887251424 -0.0408757674
21950168300.0 -0.9893636148 -0.0249749804
22000168000.0 -0.9889248795 -0.0101745469
22050167700.0 -0.9899376694 0.0044563249
22100167400.0 -0.9902772408 0.0200470177
22150167100.0 -0.9912865048 0.0360532655
22200166800.0 -0.9916619432 0.0526440742
22250166500.0 -0.9909645938 0.0703246671
22300166200.0 -0.9906172213 0.0866161313
22350165900.0 -0.9894700516 0.1023671783
22400165600.0 -0.9873366693 0.1174977911
22450165300.0 -0.9863878982 0.133080468
22500165000.0 -0.9849425016 0.1473101948
22550164700.0 -0.983477731 0.1643732091
22600164400.0 -0.9817873829 0.1803472219
22650164100.0 -0.977984672 0.195418105
22700163800.0 -0.9750907074 0.2118972527
22750163500.0 -0.9724323962 0.2264065922
22800163200.0 -0.9691013107 0.2393985416
22850162900.0 -0.9665979679 0.2527180816
22900162600.0 -0.9644711608 0.266453836
22950162300.0 -0.9628284575 0.2801783798
23000162000.0 -0.9610538884 0.2927385804
23050161700.0 -0.9587265421 0.3066953597
23100161400.0 -0.9556512032 0.3205850393
23150161100.0 -0.9527069796 0.332402106
23200160800.0 -0.94969253 0.3454932484
23250160500.0 -0.9468887487 0.3577864375
23300160200.0 -0.9444750617 0.3702695414
23350159900.0 -0.9402677339 0.3842694025
23400159600.0 -0.9351418801 0.3983712775
23450159300.0 -0.929960029 0.4125532932
23500159000.0 -0.9253012827 0.4254903293
23550158700.0 -0.9201553432 0.4393832437
23600158400.0 -0.9141063239 0.4535110225
23650158100.0 -0.90712324 0.4680815353
23700157800.0 -0.8986997066 0.4825456893
23750157500.0 -0.8891319555 0.4965429722
23800157200.0 -0.8793755987 0.510305509
23850156900.0 -0.8701989043 0.5230268996
23900156600.0 -0.8598619738 0.5355901879
23950156300.0 -0.8497965091 0.5484193319
24000156000.0 -0.8409479459 0.5603434454
24050155700.0 -0.8300077942 0.5730790102
24100155400.0 -0.8198122987 0.5849564145
24150155100.0 -0.8097243593 0.5975276595
24200154800.0 -0.7977037545 0.6092246521
24250154500.0 -0.7868766203 0.621696784
24300154200.0 -0.7754333175 0.6333396221
24350153900.0 -0.763408346 0.6444398216
24400153600.0 -0.7508820287 0.6552583248
24450153300.0 -0.7389309477 0.6657165529
24500153000.0 -0.727435826 0.6757099702
24550152700.0 -0.7156167036 0.685648155
24600152400.0 -0.7034176588 0.6945647046
24650152100.0 -0.6917470826 0.7034700666
