!Created with skrf (http://scikit-rf.org).
# Hz S RI R 50.0 
!freq ReS11 ImS11
300000.0 -0.9735283704 -0.1211010365
50299700.0 -0.9998948714 0.0151456196
100299400.0 -0.9979250721 0.0280640414
150299100.0 -1.002730861 0.0448998624
200298800.0 -0.9997292476 0.058275225
250298500.0 -0.9972181297 0.0718081454
300298200.0 -0.985784295 0.0874586301
350297900.0 -0.993788361 0.0984277584
400297600.0 -0.9930667231 0.1150455884
450297300.0 -0.9909040428 0.1288031812
500297000.0 -0.9892988603 0.143424747
550296700.0 -0.9843319 0.1558282655
600296400.0 -1.017287468 0.18903136
650296100.0 -0.9820730055 0.1858425231
700295800.0 -0.9793051796 0.2003009999
750295500.0 -0.9763943033 0.2140616292
800295200.0 -0.9731361704 0.2281869344
850294900.0 -0.969565639 0.2420585832
900294600.0 -0.9657027309 0.2557803061
950294300.0 -0.9621599404 0.269490129
1000294000.0 -0.9581112649 0.2834546144
1050293700.0 -0.9536305402 0.2972463236
1100293400.0 -0.9494489296 0.3114979565
1150293100.0 -0.9454581558 0.323475644
1200292800.0 -0.9400939489 0.3379159444
1250292500.0 -0.9346946562 0.3513617848
1300292200.0 -0.9290155248 0.3645945983
1350291900.0 -0.9235594835 0.3786693928
1400291600.0 -0.9179722935 0.3917108202
1450291300.0 -0.9124103166 0.4041482207
1500291000.0 -0.9059772416 0.417482062
1550290700.0 -0.8996790728 0.4305826498
1600290400.0 -0.8932110483 0.443791222
1650290100.0 -0.886818755 0.4559133445
1700289800.0 -0.8798254473 0.4694243452
1750289500.0 -0.872892425 0.481730522
1800289200.0 -0.8655480925 0.4946088776
1850288900.0 -0.8587887133 0.5059312637
1900288600.0 -0.8510537572 0.5188366944
1950288300.0 -0.8428514818 0.5314224847
2000288000.0 -0.8351463204 0.5428179394
2050287700.0 -0.8271767941 0.5552479475
2100287400.0 -0.8192842558 0.5667061687
2150287100.0 -0.8108836206 0.5787187111
2200286800.0 -0.8030100437 0.5891322386
2250286500.0 -0.7941389599 0.6012629866
2300286200.0 -0.7851698194 0.6129561168
2350285900.0 -0.7767206033 0.6235871321
2400285600.0 -0.7676996722 0.6346412462
2450285300.0 -0.7590326476 0.6453184837
2500285000.0 -0.7492316001 0.6568495389
2550284700.0 -0.7401968121 0.6670354146
2600284400.0 -0.7309929153 0.67715092
2650284100.0 -0.7220900593 0.6873310522
2700283800.0 -0.7116762983 0.6976230815
2750283500.0 -0.7011232528 0.708427868
2800283200.0 -0.691384253 0.7179196157
2850282900.0 -0.6812747806 0.728269632
2900282600.0 -0.670579609 0.737757313
2950282300.0 -0.660370554 0.7474621024
3000282000.0 -0.649588871 0.7567264484
3050281700.0 -0.6384848354 0.7658461147
3100281400.0 -0.6266755312 0.7750149775
3150281100.0 -0.6153947525 0.7842513264
3200280800.0 -0.6038083869 0.7925540797
3250280500.0 -0.5928810058 0.8005261867
3300280200.0 -0.5813399544 0.8086262876
3350279900.0 -0.569570791 0.8163848713
3400279600.0 -0.5569149604 0.8243667483
3450279300.0 -0.5458577231 0.8314146301
3500279000.0 -0.5340342528 0.8383994249
3550278700.0 -0.5219203297 0.8457254437
3600278400.0 -0.5096636201 0.8521880156
3650278100.0 -0.4965704591 0.8601117599
3700277800.0 -0.4845155757 0.8664214863
3750277500.0 -0.4723560001 0.873442166
3800277200.0 -0.4599193981 0.8797080294
3850276900.0 -0.4477526935 0.8857313009
3900276600.0 -0.4365535787 0.8913174036
3950276300.0 -0.4245518625 0.8973020301
4000276000.0 -0.4130178189 0.9031972455
4050275700.0 -0.4000401992 0.9090668333
4100275400.0 -0.3888295502 0.9144775051
4150275100.0 -0.3759427844 0.9204011896
4200274800.0 -0.362695045 0.9261222978
4250274500.0 -0.3500542475 0.9314072783
4300274200.0 -0.3370471238 0.9365926922
4350273900.0 -0.322855741 0.9420193995
4400273600.0 -0.3081864534 0.9471488034
4450273300.0 -0.2930245551 0.9521588265
4500273000.0 -0.2796340923 0.956474266
4550272700.0 -0.2659916213 0.9606983164
4600272400.0 -0.250815482 0.9648271827
4650272100.0 -0.2392311398 0.9678898391
4700271800.0 -0.2263652838 0.9712729575
4750271500.0 -0.2145914152 0.9741205814
4800271200.0 -0.2022653017 0.9768315837
4850270900.0 -0.1884878791 0.9797229558
4900270600.0 -0.1744958456 0.9820636507
4950270300.0 -0.1601769329 0.9846899324
5000270000.0 -0.1456687538 0.986719055
5050269700.0 -0.1324463512 0.9883746505
5100269400.0 -0.1184185224 0.9899091708
5150269100.0 -0.1046431494 0.9917173131
5200268800.0 -0.0914193238 0.9926168238
5250268500.0 -0.0780486884 0.9937904534
5300268200.0 -0.0644875597 0.9944950558
5350267900.0 -0.0518790827 0.9952791367
5400267600.0 -0.035884798 0.9963462242
5450267300.0 -0.0225545549 0.9966314748
5500267000.0 -0.007327053 0.9969933605
5550266700.0 0.0076871763 0.997181402
5600266400.0 0.0234911835 0.9972605156
5650266100.0 0.039959213 0.9968774352
5700265800.0 0.0543191339 0.9959408388
5750265500.0 0.0694602889 0.9955365463
5800265200.0 0.0829243898 0.9941262392
5850264900.0 0.0961270248 0.9931748806
5900264600.0 0.1126594991 0.991293537
5950264300.0 0.1244557546 0.9895266398
6000264000.0 0.1381191388 0.9876445029
6050263700.0 0.1497742221 0.9865837003
6100263400.0 0.1623192383 0.9849536114
6150263100.0 0.1768274096 0.9829249106
6200262800.0 0.1867707243 0.981186216
6250262500.0 0.1993041041 0.9786643028
6300262200.0 0.2120486488 0.9759474005
6350261900.0 0.2247779067 0.9732195568
6400261600.0 0.2387546532 0.9699901761
6450261300.0 0.2497808461 0.9672376834
6500261000.0 0.2630844907 0.9639164713
6550260700.0 0.2762644189 0.9598732731
6600260400.0 0.2897675179 0.9557446223
6650260100.0 0.3035732423 0.9512341495
6700259800.0 0.3159560049 0.9472807024
6750259500.0 0.3291446951 0.941907349
6800259200.0 0.3427295408 0.9369235875
6850258900.0 0.355015079 0.9318202574
6900258600.0 0.3674755947 0.9265495165
6950258300.0 0.3802376798 0.921364185
7000258000.0 0.391805162 0.9160254401
7050257700.0 0.4039163 0.91017739
7100257400.0 0.417044304 0.9038785364
7150257100.0 0.4276226924 0.8982367778
7200256800.0 0.4405685168 0.8919593382
7250256500.0 0.4529854584 0.8854844705
7300256200.0 0.465801284 0.8788428132
7350255900.0 0.4784855767 0.8716417487
7400255600.0 0.4923949066 0.8642071213
7450255300.0 0.5080347885 0.8550618466
7500255000.0 0.5202168877 0.8476243632
7550254700.0 0.5344944253 0.838750326
7600254400.0 0.5466816258 0.8305338778
7650254100.0 0.5582425497 0.8226386478
7700253800.0 0.5700472506 0.8148068567
7750253500.0 0.5809574039 0.8069202501
7800253200.0 0.5917110435 0.7990825803
7850252900.0 0.6016676083 0.7920109396
7900252600.0 0.6130509421 0.7833728024
7950252300.0 0.6215335708 0.7768986289
8000252000.0 0.6316015275 0.7693586546
8050251700.0 0.6419591157 0.7611883688
8100251400.0 0.652013891 0.7531992406
8150251100.0 0.6621334783 0.7445379082
8200250800.0 0.6712408955 0.7363994343
8250250500.0 0.6802488049 0.7285417899
8300250200.0 0.689611607 0.7201577321
8350249900.0 0.6988939236 0.711225577
8400249600.0 0.7071789148 0.7034203616
8450249300.0 0.7157617675 0.6945005239
8500249000.0 0.7243133634 0.6855427892
8550248700.0 0.7324603571 0.6765547954
8600248400.0 0.7408301066 0.6670090816
8650248100.0 0.7483681066 0.6576340136
8700247800.0 0.7579748735 0.6464866181
8750247500.0 0.7662035871 0.6364899766
8800247200.0 0.7742901833 0.6262187249
8850246900.0 0.7832459559 0.6147881887
8900246600.0 0.7915050331 0.6033129779
8950246300.0 0.8008517324 0.5902899651
9000246000.0 0.8096949591 0.5784837324
9050245700.0 0.8184982493 0.5657791747
9100245400.0 0.8267806359 0.5532929394
9150245100.0 0.8356595505 0.540387902
9200244800.0 0.8452227439 0.5258183165
9250244500.0 0.8543829462 0.5110153212
9300244200.0 0.8627216327 0.4970431377
9350243900.0 0.8703473996 0.4835407837
9400243600.0 0.8767616674 0.4715833156
9450243300.0 0.8826690482 0.460724271
9500243000.0 0.8888330412 0.4489245989
9550242700.0 0.8928693096 0.4413236742
9600242400.0 0.8969415132 0.4338293002
9650242100.0 0.9008541145 0.426952666
9700241800.0 0.9058020308 0.4185789107
9750241500.0 0.9097989507 0.4110373507
9800241200.0 0.9149582714 0.4014488746
9850240900.0 0.9205650751 0.3900140064
9900240600.0 0.9264297808 0.3779587271
9950240300.0 0.9333115605 0.361624057
10000240000.0 0.9379677744 0.3497479884
10050239700.0 0.9439190185 0.3338782957
10100239400.0 0.94942217 0.3175559295
10150239100.0 0.953893472 0.3023493386
10200238800.0 0.9581799495 0.2871310693
10250238500.0 0.9613605472 0.2735594204
10300238200.0 0.9645297722 0.2597756151
10350237900.0 0.9672992661 0.2464698314
10400237600.0 0.9699770812 0.2328992724
10450237300.0 0.9727854224 0.2193064556
10500237000.0 0.9749319661 0.2072075082
10550236700.0 0.9770356158 0.1930374485
10600236400.0 0.979228961 0.1789155331
10650236100.0 0.9812151878 0.1644786851
10700235800.0 0.9834683613 0.1520231084
10750235500.0 0.9860259518 0.1384329633
10800235200.0 0.9881755662 0.124077099
10850234900.0 0.9900171301 0.1091840275
10900234600.0 0.9919004593 0.0947234054
10950234300.0 0.9936962834 0.0812844201
11000234000.0 0.9955099451 0.0659738763
11050233700.0 0.9972606308 0.0493689466
11100233400.0 0.9986644197 0.0315976076
11150233100.0 0.9996746467 0.0150620717
11200232800.0 1.000424256 -0.000428135
11250232500.0 1.001525848 -0.0181950679
11300232200.0 1.001945668 -0.0362202615
11350231900.0 1.0019531 -0.0515724861
11400231600.0 1.001958045 -0.0675221667
11450231300.0 1.000848726 -0.0840492012
11500231000.0 0.9993566262 -0.0996295527
11550230700.0 0.9980922593 -0.1125229473
11600230400.0 0.9970059579 -0.1256799725
11650230100.0 0.9945183804 -0.1376191089
11700229800.0 0.9926759101 -0.1526851584
11750229500.0 0.9902755876 -0.1662605183
11800229200.0 0.9875181642 -0.1797633206
11850228900.0 0.9837383761 -0.1919960114
11900228600.0 0.98008161 -0.2012472865
11950228300.0 0.9768515137 -0.2115699401
12000228000.0 0.9737933171 -0.2210293266
12050227700.0 0.969937752 -0.2330864353
12100227400.0 0.9665643885 -0.2445518093
12150227100.0 0.9621645125 -0.2613106571
12200226800.0 0.9590932929 -0.271470453
12250226500.0 0.9540339656 -0.285505012
12300226200.0 0.9500422162 -0.296509368
12350225900.0 0.9448171685 -0.3107052251
12400225600.0 0.9408771495 -0.3228142614
12450225300.0 0.9363861983 -0.3360492392
12500225000.0 0.9309877896 -0.3505091987
12550224700.0 0.9255517282 -0.3646908836
12600224400.0 0.9204615348 -0.3772111529
12650224100.0 0.9147807014 -0.3915567892
12700223800.0 0.9094490325 -0.404406187
12750223500.0 0.9039389664 -0.4175829746
12800223200.0 0.8985138366 -0.4300294384
12850222900.0 0.8933114589 -0.4426018489
12900222600.0 0.8879279256 -0.4544639035
12950222300.0 0.8812311925 -0.4669422163
13000222000.0 0.8756279373 -0.478544775
13050221700.0 0.8687177977 -0.4912860639
13100221400.0 0.8619476492 -0.5033059063
13150221100.0 0.8552309736 -0.5155967883
13200220800.0 0.8483108363 -0.5268850544
13250220500.0 0.8409375418 -0.5394806017
13300220200.0 0.83344908 -0.5500298383
13350219900.0 0.8252776531 -0.5621945401
13400219600.0 0.8168648592 -0.5742247845
13450219300.0 0.8076837252 -0.5873781071
13500219000.0 0.7977216568 -0.6004750207
13550218700.0 0.7878057658 -0.6132777292
13600218400.0 0.7775311541 -0.6255516778
13650218100.0 0.7685986354 -0.6352405803
13700217800.0 0.7580319707 -0.6475866432
13750217500.0 0.7476611465 -0.6590417684
13800217200.0 0.7369115151 -0.670208738
13850216900.0 0.7258374643 -0.6809098948
13900216600.0 0.7166666158 -0.6907383938
13950216300.0 0.7050475909 -0.7007912832
14000216000.0 0.6955327122 -0.7096830972
14050215700.0 0.6862193224 -0.7178710512
14100215400.0 0.6763483905 -0.727272038
14150215100.0 0.6672299048 -0.7357262172
14200214800.0 0.6577480891 -0.744352831
14250214500.0 0.6473995103 -0.7538649278
14300214200.0 0.6369905678 -0.7631401536
14350213900.0 0.6257970942 -0.7728946295
14400213600.0 0.6140529536 -0.7825223174
14450213300.0 0.6012081966 -0.7927309869
14500213000.0 0.5880343017 -0.8029302994
14550212700.0 0.5752205682 -0.8125306293
14600212400.0 0.563064604 -0.8207561517
14650212100.0 0.5503607035 -0.8300625927
14700211800.0 0.5367236169 -0.8389351302
14750211500.0 0.5245822466 -0.8473122794
14800211200.0 0.5121677839 -0.8556583486
14850210900.0 0.4996095361 -0.8630701162
14900210600.0 0.4863985168 -0.8709494482
14950210300.0 0.473158405 -0.8785951084
15000210000.0 0.4604084977 -0.8852384745
15050209700.0 0.4482669227 -0.8914812245
15100209400.0 0.4354406791 -0.8974717621
15150209100.0 0.4230363268 -0.9030757757
15200208800.0 0.4098239553 -0.9086112582
15250208500.0 0.3989536842 -0.9131230709
15300208200.0 0.3867018361 -0.9172101627
15350207900.0 0.3740883749 -0.9219603405
15400207600.0 0.3590811773 -0.9274126953
15450207300.0 0.344965339 -0.9331218314
15500207000.0 0.3297793117 -0.9374936447
15550206700.0 0.3149865364 -0.9425912206
15600206400.0 0.2995589413 -0.9468766142
15650206100.0 0.2836849295 -0.9510464829
15700205800.0 0.2699222724 -0.9546837381
15750205500.0 0.2553980042 -0.9579689626
15800205200.0 0.241565674 -0.9615345331
15850204900.0 0.2271259225 -0.9649241107
15900204600.0 0.2123234903 -0.9685308525
15950204300.0 0.1977497222 -0.9716620484
16000204000.0 0.183594704 -0.9748146835
16050203700.0 0.1683680214 -0.9777191737
16100203400.0 0.1541121437 -0.9798395144
16150203100.0 0.1387564472 -0.9819841337
16200202800.0 0.1251195283 -0.984310319
16250202500.0 0.1102170903 -0.9861323064
16300202200.0 0.0946229282 -0.9872224513
16350201900.0 0.0797945014 -0.9888335093
16400201600.0 0.0650090557 -0.9900592128
16450201300.0 0.0495319642 -0.9913185468
16500201000.0 0.0326937106 -0.9918776509
16550200700.0 0.0168832854 -0.9927198706
16600200400.0 0.0008333221 -0.9929418072
16650200100.0 -0.0153041972 -0.9923493696
16700199800.0 -0.0315834645 -0.9920714427
16750199500.0 -0.0503740109 -0.991619831
16800199200.0 -0.0661732963 -0.9904987638
16850198900.0 -0.0818935506 -0.9894921822
16900198600.0 -0.095520042 -0.9885300291
16950198300.0 -0.1091007725 -0.9879532435
17000198000.0 -0.1223011321 -0.9862578112
17050197700.0 -0.1348763336 -0.9844258528
17100197400.0 -0.1473412212 -0.9822360267
17150197100.0 -0.1606196816 -0.9800840407
17200196800.0 -0.1736899496 -0.9778683192
17250196500.0 -0.1860992911 -0.9754729953
17300196200.0 -0.1983608134 -0.9733800471
17350195900.0 -0.2103373858 -0.970892033
17400195600.0 -0.2223696773 -0.9683959543
17450195300.0 -0.2353273959 -0.9656203077
17500195000.0 -0.248789908 -0.9622908953
17550194700.0 -0.2626174626 -0.9587297375
17600194400.0 -0.2763093171 -0.9545405461
17650194100.0 -0.289849965 -0.9505985395
17700193800.0 -0.3031501509 -0.9462545354
17750193500.0 -0.3173158417 -0.9418628263
17800193200.0 -0.3316941906 -0.9367969675
17850192900.0 -0.3465680206 -0.9314808044
17900192600.0 -0.3611901914 -0.925041407
17950192300.0 -0.3767777044 -0.9180686407
18000192000.0 -0.3917169447 -0.9111134211
18050191700.0 -0.4056526076 -0.9029716089
18100191400.0 -0.4198958925 -0.8952365407
18150191100.0 -0.4346456935 -0.8871692067
18200190800.0 -0.4516918284 -0.8780260344
18250190500.0 -0.4686458415 -0.8684270656
18300190200.0 -0.4840877616 -0.8601182824
18350189900.0 -0.4991904229 -0.8512876809
18400189600.0 -0.513864218 -0.842971034
18450189300.0 -0.5269317908 -0.8351162923
18500189000.0 -0.5408328245 -0.8270460281
18550188700.0 -0.5529380507 -0.8193547202
18600188400.0 -0.5656099353 -0.8124008709
18650188100.0 -0.5761799299 -0.8064682065
18700187800.0 -0.5874036837 -0.7995288513
18750187500.0 -0.5980851286 -0.7928035247
18800187200.0 -0.6087926436 -0.7857407868
18850186900.0 -0.6190464066 -0.7789184896
18900186600.0 -0.6294386711 -0.771627615
18950186300.0 -0.6395543972 -0.7637112888
19000186000.0 -0.6468877254 -0.7575322465
19050185700.0 -0.6564100214 -0.7501138615
19100185400.0 -0.6660893893 -0.7413757122
19150185100.0 -0.6762528047 -0.7336156594
19200184800.0 -0.6852298017 -0.7256750339
19250184500.0 -0.6957973379 -0.7155782904
19300184200.0 -0.7078524257 -0.7065319891
19350183900.0 -0.7184324972 -0.6977294301
19400183600.0 -0.7275079398 -0.6874912042
19450183300.0 -0.7363251182 -0.6772189378
19500183000.0 -0.7447946593 -0.6673321795
19550182700.0 -0.7539898046 -0.6560774881
19600182400.0 -0.7650888309 -0.6442639227
19650182100.0 -0.7755443821 -0.6319841133
19700181800.0 -0.7861827084 -0.6186596034
19750181500.0 -0.7966986377 -0.6047144223
19800181200.0 -0.8068862512 -0.5897145198
19850180900.0 -0.8164351343 -0.5741919788
19900180600.0 -0.8242208828 -0.5597170327
19950180300.0 -0.8331585103 -0.5434482296
20000180000.0 -0.8237564481 -0.5468838071
20050179700.0 -0.8320356503 -0.5341266775
20100179400.0 -0.8402178267 -0.5208260976
20150179100.0 -0.8485554437 -0.5089121057
20200178800.0 -0.8574595622 -0.4970971386
20250178500.0 -0.86642171 -0.4840515995
20300178200.0 -0.8763292021 -0.4694130181
20350177900.0 -0.8857622434 -0.4554625279
20400177600.0 -0.8945449197 -0.4414683935
20450177300.0 -0.9030725781 -0.427532788
20500177000.0 -0.9106908746 -0.4132967275
20550176700.0 -0.918854688 -0.3997848098
20600176400.0 -0.9258472121 -0.3866723835
20650176100.0 -0.9323212453 -0.37417727
20700175800.0 -0.9387061645 -0.3622546009
20750175500.0 -0.9454387098 -0.3517452527
20800175200.0 -0.9495106165 -0.3400198702
20850174900.0 -0.9541080746 -0.3294226514
20900174600.0 -0.9590458853 -0.3183089446
20950174300.0 -0.9631739843 -0.3070925975
21000174000.0 -0.965645918 -0.2957473746
21050173700.0 -0.9674539576 -0.2862475824
21100173400.0 -0.9715872704 -0.2744895523
21150173100.0 -0.9752759499 -0.2624843501
21200172800.0 -0.9793209784 -0.2494532109
21250172500.0 -0.9823882758 -0.2362516554
21300172200.0 -0.9857974521 -0.2220069164
21350171900.0 -0.9875819127 -0.2074089785
21400171600.0 -0.9896881522 -0.1935317139
21450171300.0 -0.9896727112 -0.1792219657
21500171000.0 -0.9897692452 -0.1633684085
21550170700.0 -0.9900659735 -0.1490655439
21600170400.0 -0.9909272679 -0.1325439391
21650170100.0 -0.9912542617 -0.1184772727
21700169800.0 -0.9900016461 -0.1028264638
21750169500.0 -0.9899636193 -0.0851714433
21800169200.0 -0.9896279287 -0.0690307987
21850168900.0 -0.9885911858 -0.052836705
21900168600.0 -0.9880496921 -0.0366253377
21950168300.0 -0.987916 -0.0201870381
22000168000.0 -0.9872370832 -0.006082133
22050167700.0 -0.9875520898 0.0084171604
22100167400.0 -0.9880264241 0.0240327748
22150167100.0 -0.9891924723 0.0398291063
22200166800.0 -0.9891679365 0.0564480333
22250166500.0 -0.9886293523 0.0739478442
22300166200.0 -0.9882175795 0.0900362842
22350165900.0 -0.9867268702 0.1066382479
22400165600.0 -0.9849892807 0.122114057
22450165300.0 -0.9833291892 0.1365916405
22500165000.0 -0.9819313886 0.1507613131
22550164700.0 -0.9809021503 0.1672867553
22600164400.0 -0.9783607451 0.183062104
22650164100.0 -0.9760787861 0.1980836862
22700163800.0 -0.9730496192 0.2143842376
22750163500.0 -0.9698657223 0.2293981432
22800163200.0 -0.9675169242 0.2425826768
22850162900.0 -0.9647659317 0.2557562359
22900162600.0 -0.9628350097 0.2695255762
22950162300.0 -0.9617272826 0.2827764888
23000162000.0 -0.959894176 0.2951714038
23050161700.0 -0.9577854048 0.3085291802
23100161400.0 -0.955057885 0.3217864836
23150161100.0 -0.9517122278 0.3347455561
23200160800.0 -0.9495476386 0.3472711827
23250160500.0 -0.9463397226 0.3591846785
23300160200.0 -0.9436678685 0.3715368939
23350159900.0 -0.9395311313 0.3856682101
23400159600.0 -0.9342445331 0.3993359084
23450159300.0 -0.9299589241 0.4129334079
23500159000.0 -0.9244091888 0.4255822605
23550158700.0 -0.9202448575 0.4399479372
23600158400.0 -0.9143964743 0.4534304351
23650158100.0 -0.9075876339 0.467998576
23700157800.0 -0.8992715239 0.4820687207
23750157500.0 -0.8899368165 0.4965210132
23800157200.0 -0.8811181144 0.5094369009
23850156900.0 -0.8716292577 0.522684216
23900156600.0 -0.8620754843 0.5349655477
23950156300.0 -0.8528533215 0.5475044865
24000156000.0 -0.8432466734 0.5599118233
24050155700.0 -0.8333389371 0.5721624659
24100155400.0 -0.8226112146 0.584252361
24150155100.0 -0.8118914454 0.5958653887
24200154800.0 -0.8006770296 0.6079198121
24250154500.0 -0.7893646704 0.6197760925
24300154200.0 -0.7778874721 0.6312661119
24350153900.0 -0.7658751405 0.6427507927
24400153600.0 -0.7535526345 0.6530185281
24450153300.0 -0.7420553833 0.6633497832
24500153000.0 -0.7297736902 0.6729373601
24550152700.0 -0.7188718919 0.6830279978
24600152400.0 -0.7067785822 0.6926120171
24650152100.0 -0.694524433 0.7003391805
