!Created with skrf (http://scikit-rf.org).
# Hz S RI R 50.0 
!freq ReS11 ImS11
300000.0 -0.9738461538 -0.1200767918
50299700.0 -1.000076576 0.0151311575
100299400.0 -0.9979760061 0.0281105056
150299100.0 -1.002826898 0.0450362579
200298800.0 -0.9996261665 0.0581444039
250298500.0 -0.99735964 0.0718174192
300298200.0 -0.9858540638 0.0875710476
350297900.0 -0.9941069613 0.0984475417
400297600.0 -0.9931132455 0.1150797976
450297300.0 -0.991022092 0.1288238007
500297000.0 -0.9894696092 0.1435842343
550296700.0 -0.9842114172 0.156061594
600296400.0 -1.017162942 0.1892619543
650296100.0 -0.9822513985 0.1858778841
700295800.0 -0.9793976727 0.2001835838
750295500.0 -0.976189352 0.2140340187
800295200.0 -0.9728685308 0.2281321247
850294900.0 -0.9696777259 0.2418879143
900294600.0 -0.9657873635 0.2556845858
950294300.0 -0.9621404075 0.2695316019
1000294000.0 -0.9581854183 0.2835870147
1050293700.0 -0.9535189548 0.29710413
1100293400.0 -0.9491905762 0.3116582075
1150293100.0 -0.9454182373 0.3236634181
1200292800.0 -0.9400479848 0.3378526414
1250292500.0 -0.9346130494 0.3513460519
1300292200.0 -0.9290577818 0.3644016921
1350291900.0 -0.9236085868 0.3787091121
1400291600.0 -0.9178682152 0.3917338336
1450291300.0 -0.9124138617 0.4041112665
1500291000.0 -0.9061627691 0.4173867139
1550290700.0 -0.8995943191 0.4308759004
1600290400.0 -0.8933781251 0.4436263073
1650290100.0 -0.8867892015 0.4560052938
1700289800.0 -0.8798806544 0.4692687211
1750289500.0 -0.8729986032 0.4816443581
1800289200.0 -0.8654649812 0.4945537208
1850288900.0 -0.8584552999 0.5060769877
1900288600.0 -0.8511409408 0.5187939222
1950288300.0 -0.8428014829 0.5313787605
2000288000.0 -0.8354627798 0.5429529203
2050287700.0 -0.8271618144 0.5552918365
2100287400.0 -0.8192991732 0.5667806432
2150287100.0 -0.8106955539 0.5787729377
2200286800.0 -0.802957027 0.5892111143
2250286500.0 -0.7941175066 0.6014498316
2300286200.0 -0.7851718902 0.6128261783
2350285900.0 -0.7765344587 0.6236826588
2400285600.0 -0.7677424729 0.6346847662
2450285300.0 -0.7588708626 0.6450759356
2500285000.0 -0.749103876 0.6568490842
2550284700.0 -0.740227381 0.6671614462
2600284400.0 -0.7309929167 0.6770191699
2650284100.0 -0.7221788134 0.6872002799
2700283800.0 -0.7115736665 0.6977635749
2750283500.0 -0.701464991 0.7086276176
2800283200.0 -0.6913777238 0.7182520535
2850282900.0 -0.6811209788 0.7282170218
2900282600.0 -0.6707327137 0.7381381661
2950282300.0 -0.6603235798 0.7473879263
3000282000.0 -0.6496608332 0.756796635
3050281700.0 -0.6384922979 0.7660083283
3100281400.0 -0.6267739548 0.7750936917
3150281100.0 -0.6153632688 0.7842442143
3200280800.0 -0.6038677166 0.7926437897
3250280500.0 -0.5927348603 0.8004783858
3300280200.0 -0.5813064275 0.8085689216
3350279900.0 -0.5693307663 0.8164109693
3400279600.0 -0.556820739 0.8243716813
3450279300.0 -0.5459072772 0.8316271207
3500279000.0 -0.5336900117 0.8382052993
3550278700.0 -0.5215805516 0.8455435218
3600278400.0 -0.5097087569 0.8524489527
3650278100.0 -0.4966136194 0.8601336836
3700277800.0 -0.4846942855 0.8667899165
3750277500.0 -0.4719711224 0.8733415987
3800277200.0 -0.4597088056 0.8797533487
3850276900.0 -0.4475863746 0.8857425691
3900276600.0 -0.436847835 0.8912665232
3950276300.0 -0.424341207 0.8970309658
4000276000.0 -0.4126660798 0.9032621237
4050275700.0 -0.4001523334 0.9093332978
4100275400.0 -0.3889085545 0.9146550299
4150275100.0 -0.3757196702 0.9202624596
4200274800.0 -0.3627580704 0.9261258467
4250274500.0 -0.3502018079 0.9313832869
4300274200.0 -0.3367946191 0.9365703416
4350273900.0 -0.3230067544 0.9420832541
4400273600.0 -0.3080960802 0.9471963146
4450273300.0 -0.2930488034 0.9522649213
4500273000.0 -0.2796535158 0.9565614188
4550272700.0 -0.2659335984 0.9607574637
4600272400.0 -0.2507465483 0.9649045939
4650272100.0 -0.2393376205 0.9680197915
4700271800.0 -0.2260767178 0.9712988715
4750271500.0 -0.2144713503 0.9741474359
4800271200.0 -0.2022571171 0.9768816313
4850270900.0 -0.1883573453 0.9797360834
4900270600.0 -0.1744838704 0.9821027604
4950270300.0 -0.160118689 0.9847781916
5000270000.0 -0.1455756155 0.9868176352
5050269700.0 -0.1322269136 0.9884029747
5100269400.0 -0.1181800698 0.9901232765
5150269100.0 -0.1044765021 0.9920315236
5200268800.0 -0.0911320294 0.9928942064
5250268500.0 -0.0779653849 0.9936998992
5300268200.0 -0.0645478682 0.9947291163
5350267900.0 -0.0519081657 0.9950051818
5400267600.0 -0.0358524415 0.9962159705
5450267300.0 -0.0223624063 0.9965186843
5500267000.0 -0.0073408911 0.9969681641
5550266700.0 0.0078034076 0.9974284603
5600266400.0 0.023486838 0.9972392447
5650266100.0 0.0398664245 0.9968883181
5700265800.0 0.0544364682 0.996087797
5750265500.0 0.0695033341 0.9954104072
5800265200.0 0.0832556957 0.9940769053
5850264900.0 0.0961604768 0.9928826028
5900264600.0 0.1126869308 0.9910990603
5950264300.0 0.1246172839 0.9897852335
6000264000.0 0.1382328678 0.9884460852
6050263700.0 0.150078194 0.9865629017
6100263400.0 0.1624844547 0.9850328439
6150263100.0 0.1771727644 0.9825372745
6200262800.0 0.1868944456 0.9808657083
6250262500.0 0.1995522827 0.9786153228
6300262200.0 0.212097989 0.9760744466
6350261900.0 0.2249616968 0.9733843088
6400261600.0 0.2385563259 0.9698982273
6450261300.0 0.2499157924 0.9672615246
6500261000.0 0.2631110882 0.963755525
6550260700.0 0.275991481 0.9598768916
6600260400.0 0.2893518481 0.9557307192
6650260100.0 0.3037115805 0.9514453616
6700259800.0 0.31557197 0.9471349884
6750259500.0 0.3293695151 0.9421042852
6800259200.0 0.342892366 0.9369282135
6850258900.0 0.3551251655 0.9318788309
6900258600.0 0.3675354452 0.9267973631
6950258300.0 0.3800487792 0.9213428743
7000258000.0 0.3918260119 0.9160725425
7050257700.0 0.4038773531 0.9102515944
7100257400.0 0.4170440055 0.9038919132
7150257100.0 0.4275327487 0.8983871701
7200256800.0 0.4407068357 0.8920121933
7250256500.0 0.452819327 0.8855054913
7300256200.0 0.4657246154 0.8786859185
7350255900.0 0.47854031 0.8716398709
7400255600.0 0.4925794045 0.8643183663
7450255300.0 0.5075955472 0.8549294271
7500255000.0 0.5201395294 0.8476090354
7550254700.0 0.5340858408 0.8386521818
7600254400.0 0.5468217461 0.8307636175
7650254100.0 0.5585684356 0.822677712
7700253800.0 0.570122039 0.8146839818
7750253500.0 0.5812688334 0.8068484953
7800253200.0 0.5916971465 0.79940049
7850252900.0 0.6015935474 0.792091346
7900252600.0 0.6129517302 0.7834097609
7950252300.0 0.6216402657 0.7768192676
8000252000.0 0.6317818368 0.7693528807
8050251700.0 0.6421937465 0.7610958049
8100251400.0 0.6519672038 0.7531795529
8150251100.0 0.6619964837 0.7445450626
8200250800.0 0.6717541463 0.7366092011
8250250500.0 0.680403966 0.7283908635
8300250200.0 0.6895159258 0.7202438093
8350249900.0 0.6984015406 0.7114119683
8400249600.0 0.7066826065 0.7032368433
8450249300.0 0.715636097 0.6945024621
8500249000.0 0.7242172342 0.6856959022
8550248700.0 0.7326143546 0.676580062
8600248400.0 0.7410743231 0.6669020703
8650248100.0 0.748595011 0.6576070902
8700247800.0 0.7581655022 0.6465376757
8750247500.0 0.7662752576 0.6365141395
8800247200.0 0.7742350662 0.6262302546
8850246900.0 0.7832062781 0.6146555476
8900246600.0 0.7913739427 0.60329423
8950246300.0 0.8007930053 0.5905978656
9000246000.0 0.8096809231 0.5784141634
9050245700.0 0.8183970327 0.5658562789
9100245400.0 0.8270026936 0.553535816
9150245100.0 0.8359516038 0.5403731244
9200244800.0 0.8452989801 0.5256840142
9250244500.0 0.8545435813 0.5106997217
9300244200.0 0.8625558789 0.4969499074
9350243900.0 0.8705343063 0.483312293
9400243600.0 0.8769097929 0.471552836
9450243300.0 0.8827207357 0.4605911091
9500243000.0 0.8890424137 0.4486434089
9550242700.0 0.8928875587 0.4412798232
9600242400.0 0.8971103155 0.4335092523
9650242100.0 0.9010535862 0.4270139794
9700241800.0 0.9056998594 0.4184612634
9750241500.0 0.9101522123 0.4110098249
9800241200.0 0.9145694471 0.4017975364
9850240900.0 0.9206134909 0.3897724975
9900240600.0 0.9264604232 0.3778799705
9950240300.0 0.933367729 0.3613431263
10000240000.0 0.9382891333 0.349900915
10050239700.0 0.944163994 0.3335855056
10100239400.0 0.9493221894 0.3176261066
10150239100.0 0.9541155258 0.3024735199
10200238800.0 0.9580058668 0.2872146984
10250238500.0 0.9615441949 0.2736452009
10300238200.0 0.9646918584 0.2595406729
10350237900.0 0.9673074606 0.2463447729
10400237600.0 0.9699040393 0.2332243259
10450237300.0 0.9726057468 0.219289725
10500237000.0 0.9751860774 0.2071102899
10550236700.0 0.9769463069 0.1927201421
10600236400.0 0.9791774455 0.1794350919
10650236100.0 0.9813452346 0.1644327721
10700235800.0 0.9834778031 0.1522186729
10750235500.0 0.9863018134 0.1385863026
10800235200.0 0.988111529 0.1237224009
10850234900.0 0.9897207465 0.1095427064
10900234600.0 0.9919048072 0.0949959934
10950234300.0 0.9937015025 0.0813175839
11000234000.0 0.9954758926 0.065957525
11050233700.0 0.9972527399 0.0493431389
11100233400.0 0.9986864738 0.0315833198
11150233100.0 0.999634469 0.0153848472
11200232800.0 1.000434604 -0.0006484104
11250232500.0 1.00159566 -0.0177632004
11300232200.0 1.00175944 -0.0359251248
11350231900.0 1.002470856 -0.0522831528
11400231600.0 1.001648093 -0.0682124583
11450231300.0 1.000792175 -0.0837713849
11500231000.0 0.999517831 -0.1003934348
11550230700.0 0.998628023 -0.1123384484
11600230400.0 0.9973093632 -0.1256873522
11650230100.0 0.995058433 -0.1370722589
11700229800.0 0.9926806509 -0.1523542364
11750229500.0 0.9903812154 -0.1664469499
11800229200.0 0.9877637848 -0.1799755562
11850228900.0 0.9839543366 -0.1920269135
11900228600.0 0.9800797894 -0.2016615358
11950228300.0 0.9771176463 -0.2117781553
12000228000.0 0.9741138724 -0.2205712317
12050227700.0 0.9704706252 -0.233193128
12100227400.0 0.9673123188 -0.244042901
12150227100.0 0.9622594094 -0.2614014788
12200226800.0 0.9586436415 -0.2717464064
12250226500.0 0.9542626129 -0.2848783125
12300226200.0 0.9501545526 -0.2967730847
12350225900.0 0.9452742344 -0.3098560719
12400225600.0 0.9410250641 -0.3229981203
12450225300.0 0.9363125468 -0.3355114897
12500225000.0 0.930853177 -0.3506179565
12550224700.0 0.9257491839 -0.3643816519
12600224400.0 0.9206646285 -0.3772579785
12650224100.0 0.914822907 -0.3915495504
12700223800.0 0.9094934583 -0.4043387761
12750223500.0 0.9041087179 -0.4174258061
12800223200.0 0.8988637893 -0.4301178934
12850222900.0 0.8933340001 -0.4425501053
12900222600.0 0.8881537147 -0.453935393
12950222300.0 0.8816760115 -0.4674851631
13000222000.0 0.8758076811 -0.4785031434
13050221700.0 0.8688499044 -0.491069512
13100221400.0 0.8618356207 -0.5034333053
13150221100.0 0.8553537828 -0.5156049578
13200220800.0 0.848279704 -0.5270018178
13250220500.0 0.8409975891 -0.5391297028
13300220200.0 0.8336099087 -0.5501048653
13350219900.0 0.8254017205 -0.5620271291
13400219600.0 0.817199211 -0.5739744551
13450219300.0 0.8079255186 -0.5872365618
13500219000.0 0.7979310856 -0.600534429
13550218700.0 0.788344272 -0.6128021535
13600218400.0 0.7777276237 -0.6248552781
13650218100.0 0.7687267899 -0.6356690225
13700217800.0 0.7575067401 -0.6481137619
13750217500.0 0.7472678721 -0.6594081778
13800217200.0 0.7365755679 -0.6704148664
13850216900.0 0.7256790583 -0.6812724578
13900216600.0 0.7163609403 -0.6904793035
13950216300.0 0.7049822443 -0.7010189084
14000216000.0 0.6954539671 -0.7100745738
14050215700.0 0.6862212114 -0.7177088179
14100215400.0 0.6763543891 -0.7268837867
14150215100.0 0.6671735524 -0.7357839257
14200214800.0 0.6576638074 -0.7442981914
14250214500.0 0.6473151435 -0.7538478996
14300214200.0 0.6369263359 -0.7632484553
14350213900.0 0.625810702 -0.772967529
14400213600.0 0.6140575672 -0.7825466437
14450213300.0 0.6012772839 -0.7928597458
14500213000.0 0.5879476616 -0.8027937501
14550212700.0 0.5758081227 -0.8119289803
14600212400.0 0.5630658449 -0.8209662491
14650212100.0 0.5505110427 -0.8296018778
14700211800.0 0.5363122711 -0.8390981842
14750211500.0 0.5245403402 -0.8477393908
14800211200.0 0.5120096422 -0.8557007448
14850210900.0 0.4999107362 -0.8634537369
14900210600.0 0.4864633942 -0.8711422021
14950210300.0 0.4729487168 -0.8786623431
15000210000.0 0.460420821 -0.8855684716
15050209700.0 0.4483245038 -0.8916365365
15100209400.0 0.435294243 -0.8976849271
15150209100.0 0.4225495097 -0.9027536646
15200208800.0 0.4102496201 -0.9083010079
15250208500.0 0.3985585762 -0.913006103
15300208200.0 0.38721107 -0.9173374312
15350207900.0 0.3738383567 -0.9228915804
15400207600.0 0.3590082595 -0.9277866112
15450207300.0 0.3447881572 -0.9325435696
15500207000.0 0.3299548983 -0.9370036699
15550206700.0 0.3150870751 -0.9421300987
15600206400.0 0.2991571224 -0.9464587239
15650206100.0 0.283755177 -0.9507939319
15700205800.0 0.2696840557 -0.9543773977
15750205500.0 0.2556885947 -0.9580267083
15800205200.0 0.2414289269 -0.9614290651
15850204900.0 0.2272929913 -0.9650156857
15900204600.0 0.212227957 -0.968536905
15950204300.0 0.1977806988 -0.971884651
16000204000.0 0.1834120394 -0.9746656548
16050203700.0 0.1682870013 -0.9779253162
16100203400.0 0.1542357238 -0.9796519029
16150203100.0 0.139391295 -0.982227212
16200202800.0 0.1246985094 -0.9840020636
16250202500.0 0.1100277087 -0.9858417526
16300202200.0 0.0946703444 -0.9876465898
16350201900.0 0.0796388926 -0.9891225774
16400201600.0 0.0651813848 -0.9900829093
16450201300.0 0.0494351824 -0.991045823
16500201000.0 0.0324784049 -0.9919502166
16550200700.0 0.0164979251 -0.9925264272
16600200400.0 0.000907797 -0.9927743085
16650200100.0 -0.015303591 -0.9926724348
16700199800.0 -0.031349795 -0.9922304164
16750199500.0 -0.0507096023 -0.9917810809
16800199200.0 -0.0664981627 -0.9909600066
16850198900.0 -0.0814408839 -0.98945498
16900198600.0 -0.0957354772 -0.9883641061
16950198300.0 -0.1092564982 -0.9877203734
17000198000.0 -0.1224461518 -0.9859582349
17050197700.0 -0.1348279401 -0.98393571
17100197400.0 -0.14825933 -0.9824621413
17150197100.0 -0.1605708884 -0.9797559827
17200196800.0 -0.1736663113 -0.9779181234
17250196500.0 -0.1862374348 -0.9754148953
17300196200.0 -0.1984477622 -0.9730361661
17350195900.0 -0.2104421582 -0.9706791374
17400195600.0 -0.2224175195 -0.9683288104
17450195300.0 -0.2353201697 -0.9654404416
17500195000.0 -0.2486506135 -0.962221814
17550194700.0 -0.2622317174 -0.9586591772
17600194400.0 -0.2768251515 -0.9545744289
17650194100.0 -0.2901185738 -0.950526517
17700193800.0 -0.3027517277 -0.9467364912
17750193500.0 -0.3173642938 -0.9422286821
17800193200.0 -0.3317915322 -0.9366779723
17850192900.0 -0.3464401108 -0.9310702449
17900192600.0 -0.3613230922 -0.9252990472
17950192300.0 -0.3770985223 -0.9180780712
18000192000.0 -0.3919221051 -0.9110010469
18050191700.0 -0.4056736346 -0.90279506
18100191400.0 -0.4199068196 -0.8952343627
18150191100.0 -0.4347828728 -0.8871602966
18200190800.0 -0.4518751042 -0.8780415904
18250190500.0 -0.4687507006 -0.8685605864
18300190200.0 -0.4841790088 -0.8597117628
18350189900.0 -0.4990447124 -0.8516991649
18400189600.0 -0.5133721047 -0.8428542896
18450189300.0 -0.5272906943 -0.8350750281
18500189000.0 -0.5408645843 -0.8270093821
18550188700.0 -0.5530478951 -0.8198821821
18600188400.0 -0.5651756264 -0.8128043756
18650188100.0 -0.5766464082 -0.8064401387
18700187800.0 -0.5874482863 -0.799513299
18750187500.0 -0.5980226612 -0.7926175947
18800187200.0 -0.6086612567 -0.7857136095
18850186900.0 -0.618997292 -0.7788478582
18900186600.0 -0.6292008688 -0.7715650981
18950186300.0 -0.639352771 -0.7639938697
19000186000.0 -0.6468501958 -0.7577883768
19050185700.0 -0.6562981137 -0.7505592673
19100185400.0 -0.6661514009 -0.7420582382
19150185100.0 -0.6764102283 -0.7334312442
19200184800.0 -0.6857210115 -0.7254125142
19250184500.0 -0.6960284074 -0.716525283
19300184200.0 -0.7075647167 -0.7068268068
19350183900.0 -0.7185871796 -0.6968765883
19400183600.0 -0.7279131117 -0.6864309058
19450183300.0 -0.7368576818 -0.6769303385
19500183000.0 -0.7449298287 -0.6673232671
19550182700.0 -0.7546860398 -0.6556690538
19600182400.0 -0.7650376321 -0.644741098
19650182100.0 -0.7757502113 -0.6319002395
19700181800.0 -0.7863299219 -0.6187483732
19750181500.0 -0.7966858806 -0.6045035158
19800181200.0 -0.8069817096 -0.5895244104
19850180900.0 -0.8166409444 -0.5743844617
19900180600.0 -0.8243723154 -0.5598601848
19950180300.0 -0.8334292874 -0.543664421
20000180000.0 -0.8244250966 -0.5473861642
20050179700.0 -0.8325168513 -0.5345746389
20100179400.0 -0.840592202 -0.5202303537
20150179100.0 -0.8483852145 -0.5087994988
20200178800.0 -0.8572202487 -0.496542588
20250178500.0 -0.8664977164 -0.484002938
20300178200.0 -0.8761652137 -0.4697079855
20350177900.0 -0.8859212506 -0.4551637675
20400177600.0 -0.8948660571 -0.441151855
20450177300.0 -0.9031987672 -0.4268573931
20500177000.0 -0.9111802876 -0.4130134532
20550176700.0 -0.9188350271 -0.3996979843
20600176400.0 -0.9257694379 -0.3865459362
20650176100.0 -0.9321446645 -0.3741280224
20700175800.0 -0.9396157547 -0.3617578504
20750175500.0 -0.946147226 -0.3510589909
20800175200.0 -0.9506905171 -0.339699801
20850174900.0 -0.9549887395 -0.3290623284
20900174600.0 -0.9591158518 -0.318661391
20950174300.0 -0.962686955 -0.3062917429
21000174000.0 -0.965703716 -0.295719714
21050173700.0 -0.9684812444 -0.2866121202
21100173400.0 -0.9716561244 -0.2741681338
21150173100.0 -0.9758773257 -0.2624950457
21200172800.0 -0.9794755755 -0.2495170173
21250172500.0 -0.9827887176 -0.2358570611
21300172200.0 -0.9859903093 -0.2212410272
21350171900.0 -0.9881192625 -0.2070328715
21400171600.0 -0.9897247976 -0.1931167679
21450171300.0 -0.9905792135 -0.1791638911
21500171000.0 -0.9907810071 -0.1639103167
21550170700.0 -0.990356858 -0.148204083
21600170400.0 -0.9905402603 -0.1330637102
21650170100.0 -0.9897151554 -0.1177410854
21700169800.0 -0.9899600793 -0.1015590657
21750169500.0 -0.989704365 -0.0863911539
21800169200.0 -0.9884007392 -0.0688997831
21850168900.0 -0.9886857051 -0.0519058123
21900168600.0 -0.9883653642 -0.0366259009
21950168300.0 -0.987236404 -0.0203962845
22000168000.0 -0.9872379871 -0.0056450833
22050167700.0 -0.9875549809 0.0093199796
22100167400.0 -0.9877658641 0.0245623988
22150167100.0 -0.9887014133 0.0400373808
22200166800.0 -0.9893089269 0.0569198445
22250166500.0 -0.9883874763 0.0741369545
22300166200.0 -0.987975266 0.090657894
22350165900.0 -0.9872845969 0.1069157479
22400165600.0 -0.9845160269 0.1231925617
22450165300.0 -0.9835369129 0.1374073336
22500165000.0 -0.9822979473 0.1514713437
22550164700.0 -0.9805597109 0.1671006574
22600164400.0 -0.9782809417 0.1837662972
22650164100.0 -0.9759828551 0.1993977378
22700163800.0 -0.9731696487 0.214873028
22750163500.0 -0.9705319853 0.2294975048
22800163200.0 -0.9672321838 0.2424742024
22850162900.0 -0.9648873895 0.2563367586
22900162600.0 -0.9631283568 0.2701522519
22950162300.0 -0.9614961501 0.2836181335
23000162000.0 -0.9600742839 0.2956815399
23050161700.0 -0.957482425 0.3087507779
23100161400.0 -0.9551218993 0.3220443993
23150161100.0 -0.9521848531 0.3354768258
23200160800.0 -0.9490716045 0.3474672537
23250160500.0 -0.9458802441 0.3605793906
23300160200.0 -0.943057135 0.3717532839
23350159900.0 -0.9391537324 0.3849401672
23400159600.0 -0.9347080263 0.3983308003
23450159300.0 -0.9296549148 0.4131345823
23500159000.0 -0.9249235556 0.4259082755
23550158700.0 -0.9199523703 0.4402636306
23600158400.0 -0.9143026307 0.4534098536
23650158100.0 -0.9072191655 0.4680658345
23700157800.0 -0.8991248764 0.4823134439
23750157500.0 -0.8898871623 0.4969005957
23800157200.0 -0.8804684886 0.5103394382
23850156900.0 -0.8710033874 0.5226582532
23900156600.0 -0.8616408396 0.535905729
23950156300.0 -0.8524391025 0.5476526864
24000156000.0 -0.8429410778 0.5601114346
24050155700.0 -0.832766302 0.571204309
24100155400.0 -0.8220261963 0.5852001319
24150155100.0 -0.811446986 0.596365151
24200154800.0 -0.8003850849 0.6082167175
24250154500.0 -0.7886856575 0.620281913
24300154200.0 -0.7776849053 0.6317868996
24350153900.0 -0.7654627279 0.6429764997
24400153600.0 -0.753179955 0.6537209504
24450153300.0 -0.7412501734 0.6638018148
24500153000.0 -0.7297851387 0.6735366665
24550152700.0 -0.7185025442 0.683839528
24600152400.0 -0.7062305778 0.6930671332
24650152100.0 -0.6944819738 0.7008988716
