!Created with skrf (http://scikit-rf.org).
# Hz S RI R 50.0 
!freq ReS11 ImS11
300000.0 -0.9728978948 -0.123810437
50299700.0 -0.9998849475 0.0148842967
100299400.0 -0.9980183731 0.0280784856
150299100.0 -1.002611684 0.0446606219
200298800.0 -0.9993925485 0.0582270503
250298500.0 -0.9974056255 0.0715045552
300298200.0 -0.9857818344 0.0876928232
350297900.0 -0.9941779543 0.098416968
400297600.0 -0.9932046029 0.1149589487
450297300.0 -0.9908301782 0.1289016046
500297000.0 -0.9892716974 0.143543638
550296700.0 -0.9843339145 0.1557262196
600296400.0 -1.017192885 0.1893361247
650296100.0 -0.9820903834 0.1858305618
700295800.0 -0.9791586102 0.1999673677
750295500.0 -0.9762268321 0.2139908773
800295200.0 -0.9729882269 0.2280261238
850294900.0 -0.969800103 0.2419887052
900294600.0 -0.9658995431 0.255687878
950294300.0 -0.9621423099 0.2692587331
1000294000.0 -0.9581195411 0.2833186874
1050293700.0 -0.9537407897 0.2969871829
1100293400.0 -0.9493970271 0.3114537632
1150293100.0 -0.9453936173 0.3233270325
1200292800.0 -0.9402296003 0.3377619318
1250292500.0 -0.9346817059 0.3511437255
1300292200.0 -0.9289829428 0.3644781986
1350291900.0 -0.9233508858 0.378384892
1400291600.0 -0.9180338523 0.3916154612
1450291300.0 -0.9123868828 0.4039591165
1500291000.0 -0.9063385612 0.4172894795
1550290700.0 -0.8996767735 0.430704091
1600290400.0 -0.8934536012 0.4437103308
1650290100.0 -0.8868528922 0.4558635812
1700289800.0 -0.8798541448 0.4692141551
1750289500.0 -0.8729008036 0.481554388
1800289200.0 -0.8655563646 0.4943031883
1850288900.0 -0.858981056 0.5058050004
1900288600.0 -0.8511080083 0.5188446543
1950288300.0 -0.842885816 0.5314557589
2000288000.0 -0.8354408944 0.5428598585
2050287700.0 -0.8272431976 0.5552178302
2100287400.0 -0.8192908073 0.5666125675
2150287100.0 -0.8108025271 0.5784815795
2200286800.0 -0.8030487939 0.5892890808
2250286500.0 -0.7940639067 0.6012397331
2300286200.0 -0.7852943026 0.6130131844
2350285900.0 -0.7768762101 0.6236421491
2400285600.0 -0.768105691 0.6343017147
2450285300.0 -0.758980923 0.6450015137
2500285000.0 -0.7489865565 0.6567393654
2550284700.0 -0.7400989951 0.6670582265
2600284400.0 -0.7310304468 0.6769881105
2650284100.0 -0.7221989222 0.6869105205
2700283800.0 -0.7118868166 0.6975667422
2750283500.0 -0.7014975854 0.7081803343
2800283200.0 -0.6913353802 0.7179478347
2850282900.0 -0.6808631127 0.7279874899
2900282600.0 -0.670708301 0.7381817435
2950282300.0 -0.6602480043 0.7471627589
3000282000.0 -0.6495125227 0.7567236363
3050281700.0 -0.6384115678 0.7659316753
3100281400.0 -0.6266340344 0.7748418409
3150281100.0 -0.6153640437 0.7839910618
3200280800.0 -0.604150108 0.7924050837
3250280500.0 -0.59302061 0.8002529227
3300280200.0 -0.5814139604 0.808446545
3350279900.0 -0.5691038599 0.8165628462
3400279600.0 -0.5564949205 0.8244471502
3450279300.0 -0.545493916 0.8316199483
3500279000.0 -0.5337581952 0.8385955976
3550278700.0 -0.5216812955 0.8456012229
3600278400.0 -0.5097553821 0.8524290509
3650278100.0 -0.4967759992 0.8600417056
3700277800.0 -0.4847109688 0.866547185
3750277500.0 -0.472223306 0.8731228585
3800277200.0 -0.4595020498 0.8796109241
3850276900.0 -0.4477758368 0.8855173052
3900276600.0 -0.436704092 0.8913844116
3950276300.0 -0.4248495929 0.897319578
4000276000.0 -0.4131262871 0.9031333285
4050275700.0 -0.4005733181 0.9091450688
4100275400.0 -0.3892350353 0.9144526122
4150275100.0 -0.3761430957 0.9205917341
4200274800.0 -0.3627051025 0.9259398194
4250274500.0 -0.3502173811 0.9312347649
4300274200.0 -0.3368150866 0.9368636065
4350273900.0 -0.3225593395 0.9421269641
4400273600.0 -0.3078687099 0.947311584
4450273300.0 -0.2928000423 0.9520801494
4500273000.0 -0.2797528748 0.9564248158
4550272700.0 -0.2659307518 0.9608153377
4600272400.0 -0.2510206827 0.9647150821
4650272100.0 -0.2395733745 0.9678277276
4700271800.0 -0.2265591614 0.971154893
4750271500.0 -0.215047027 0.9739677364
4800271200.0 -0.2028993935 0.9766549615
4850270900.0 -0.1889824943 0.979483429
4900270600.0 -0.1750758378 0.9820739255
4950270300.0 -0.1606340962 0.9844567192
5000270000.0 -0.1460684067 0.9867409728
5050269700.0 -0.1328625945 0.9882659535
5100269400.0 -0.1185384735 0.9901410326
5150269100.0 -0.1047119775 0.9916638789
5200268800.0 -0.0913049758 0.9925345142
5250268500.0 -0.0783468854 0.9936936455
5300268200.0 -0.0642894689 0.9946931851
5350267900.0 -0.0516780652 0.9952438038
5400267600.0 -0.0354865097 0.9962743514
5450267300.0 -0.0222098108 0.9968464933
5500267000.0 -0.0068637553 0.9970846291
5550266700.0 0.0081052772 0.9973798665
5600266400.0 0.023793794 0.9970376408
5650266100.0 0.0405741486 0.9969532082
5700265800.0 0.0545870746 0.9959325295
5750265500.0 0.0698640252 0.9950512231
5800265200.0 0.0834273738 0.9942678541
5850264900.0 0.0963328737 0.9931059557
5900264600.0 0.1128945245 0.9913645071
5950264300.0 0.1245353998 0.989543099
6000264000.0 0.1381913032 0.9882634836
6050263700.0 0.1497724617 0.9866693466
6100263400.0 0.1620634791 0.9847553671
6150263100.0 0.1766533903 0.9825446472
6200262800.0 0.1863482864 0.9809732585
6250262500.0 0.1988734676 0.9785630946
6300262200.0 0.2110942326 0.9761423509
6350261900.0 0.2239180357 0.9732930624
6400261600.0 0.2379841815 0.9702491019
6450261300.0 0.2490070788 0.9676251509
6500261000.0 0.2623353876 0.9641595057
6550260700.0 0.275325214 0.9599904705
6600260400.0 0.2889038276 0.9560929114
6650260100.0 0.3027868253 0.9514366062
6700259800.0 0.3150341859 0.9474956249
6750259500.0 0.3286384661 0.9423235378
6800259200.0 0.3422217493 0.9373167311
6850258900.0 0.3546497748 0.9319645782
6900258600.0 0.3671298133 0.9268733777
6950258300.0 0.3799505724 0.921561863
7000258000.0 0.3913466455 0.9161579678
7050257700.0 0.4032922529 0.9104298547
7100257400.0 0.4166906766 0.9040781087
7150257100.0 0.4273252296 0.8986160659
7200256800.0 0.4405063498 0.892232304
7250256500.0 0.4527472664 0.8855209788
7300256200.0 0.4658769885 0.8786545391
7350255900.0 0.4789940249 0.8718374713
7400255600.0 0.4926585104 0.8638175525
7450255300.0 0.5088208577 0.8547568282
7500255000.0 0.5208726808 0.8473606412
7550254700.0 0.5350338101 0.8383474894
7600254400.0 0.5476596236 0.8301657722
7650254100.0 0.559455774 0.8224235892
7700253800.0 0.5706949992 0.8141667922
7750253500.0 0.5818244573 0.8065216317
7800253200.0 0.5926792321 0.7987177122
7850252900.0 0.6020782728 0.7914292269
7900252600.0 0.6135673641 0.7826451204
7950252300.0 0.6219896093 0.776374415
8000252000.0 0.6320286487 0.7686711896
8050251700.0 0.6424667175 0.7608063154
8100251400.0 0.6523599245 0.7529038501
8150251100.0 0.6622990835 0.7440092718
8200250800.0 0.6718716597 0.7361602403
8250250500.0 0.6808136884 0.7280055531
8300250200.0 0.6894710833 0.7198257374
8350249900.0 0.6990725235 0.7108187782
8400249600.0 0.7074570432 0.702947669
8450249300.0 0.7157196559 0.6941322556
8500249000.0 0.7243107904 0.6853600815
8550248700.0 0.7326807438 0.6763820215
8600248400.0 0.7410971953 0.6667475208
8650248100.0 0.7486428447 0.6573467231
8700247800.0 0.7579372595 0.646322907
8750247500.0 0.7663085902 0.6362700483
8800247200.0 0.7742126767 0.626053618
8850246900.0 0.7831344188 0.6146002875
8900246600.0 0.7910705509 0.6032943514
8950246300.0 0.8004608035 0.5904568105
9000246000.0 0.8091580669 0.5784252449
9050245700.0 0.8176090179 0.5662247331
9100245400.0 0.8262288158 0.5539035186
9150245100.0 0.8348437158 0.541177314
9200244800.0 0.8442901981 0.5265885856
9250244500.0 0.8532589784 0.5119988633
9300244200.0 0.8614769684 0.4982148755
9350243900.0 0.8693452286 0.4850332435
9400243600.0 0.8756751952 0.4733886694
9450243300.0 0.8812403398 0.4629070984
9500243000.0 0.8875928788 0.4510052682
9550242700.0 0.8915855313 0.4437267867
9600242400.0 0.8959014825 0.4358453929
9650242100.0 0.9000486519 0.428948421
9700241800.0 0.9047072233 0.420589156
9750241500.0 0.9091004294 0.4128491439
9800241200.0 0.9140202082 0.4035539724
9850240900.0 0.9201485459 0.3914556037
9900240600.0 0.9257952423 0.3799787569
9950240300.0 0.9332008906 0.3629731823
10000240000.0 0.9381540447 0.3510762075
10050239700.0 0.9442850854 0.3348166971
10100239400.0 0.9493215192 0.3186561801
10150239100.0 0.9540808738 0.3031360059
10200238800.0 0.9583828838 0.2875125217
10250238500.0 0.9615688328 0.2740532184
10300238200.0 0.9645232949 0.2600991327
10350237900.0 0.9674324827 0.2468613278
10400237600.0 0.970063046 0.2331929601
10450237300.0 0.9726712114 0.2197035523
10500237000.0 0.9750334463 0.2074018457
10550236700.0 0.9775376098 0.1923771687
10600236400.0 0.979176231 0.1792402314
10650236100.0 0.9815241247 0.1644252596
10700235800.0 0.9836737088 0.1521172957
10750235500.0 0.9861794712 0.1387592235
10800235200.0 0.9879562013 0.1244174606
10850234900.0 0.9898684849 0.1096525621
10900234600.0 0.9920414204 0.094741747
10950234300.0 0.993752898 0.0812085641
11000234000.0 0.9955361404 0.0655637328
11050233700.0 0.9972828633 0.0488865459
11100233400.0 0.9986967385 0.0313523795
11150233100.0 1.000054383 0.0143474361
11200232800.0 1.000823936 -0.0014076115
11250232500.0 1.001686306 -0.0188494321
11300232200.0 1.002454794 -0.03736921
11350231900.0 1.001458048 -0.0533147743
11400231600.0 1.001655685 -0.0696400899
11450231300.0 1.001085198 -0.084746083
11500231000.0 0.9997224626 -0.101364518
11550230700.0 0.9984724369 -0.1143403217
11600230400.0 0.9969765714 -0.126811015
11650230100.0 0.9946164787 -0.1391497474
11700229800.0 0.992429705 -0.1542104963
11750229500.0 0.9900165567 -0.1680917135
11800229200.0 0.9871971548 -0.1815819002
11850228900.0 0.9833581767 -0.1936664037
11900228600.0 0.9799337279 -0.2030997487
11950228300.0 0.9766683773 -0.2130685388
12000228000.0 0.9735558701 -0.222244064
12050227700.0 0.9698598075 -0.2344518149
12100227400.0 0.9668130599 -0.2449617657
12150227100.0 0.9628054353 -0.2616327391
12200226800.0 0.9582607991 -0.2728444012
12250226500.0 0.954138069 -0.2864411408
12300226200.0 0.9492290228 -0.2993618731
12350225900.0 0.9446493649 -0.311779555
12400225600.0 0.9400917705 -0.3241170784
12450225300.0 0.9357851949 -0.336693407
12500225000.0 0.9303983619 -0.3518251646
12550224700.0 0.9247732808 -0.3654104309
12600224400.0 0.920058767 -0.378263787
12650224100.0 0.9141488532 -0.3925078299
12700223800.0 0.9088670729 -0.4052811083
12750223500.0 0.9033660493 -0.4184193673
12800223200.0 0.8979646881 -0.4312273897
12850222900.0 0.8929064135 -0.4427760024
12900222600.0 0.8867969459 -0.4555853455
12950222300.0 0.8808975685 -0.4681244118
13000222000.0 0.8752466337 -0.4793238668
13050221700.0 0.8682193681 -0.492297597
13100221400.0 0.8614874374 -0.5043037217
13150221100.0 0.8547646229 -0.5166425928
13200220800.0 0.8475060887 -0.5280624307
13250220500.0 0.8402987647 -0.5402622348
13300220200.0 0.8329652757 -0.5511677068
13350219900.0 0.8246750162 -0.5630549207
13400219600.0 0.8162636059 -0.5750028755
13450219300.0 0.8067432689 -0.5882202356
13500219000.0 0.7973216851 -0.6010476342
13550218700.0 0.7870543772 -0.6135580155
13600218400.0 0.7771575282 -0.625398307
13650218100.0 0.7684407782 -0.6358084523
13700217800.0 0.7570861989 -0.6475726987
13750217500.0 0.7474141277 -0.6592450036
13800217200.0 0.7363008559 -0.6698850847
13850216900.0 0.7258689641 -0.6812823734
13900216600.0 0.7163749483 -0.6902860008
13950216300.0 0.7053889476 -0.7005120161
14000216000.0 0.6955875402 -0.7097313238
14050215700.0 0.6865651083 -0.7173553106
14100215400.0 0.6762488963 -0.7265692469
14150215100.0 0.6674986974 -0.7348652901
14200214800.0 0.6578389341 -0.7440879552
14250214500.0 0.6475265777 -0.7535502873
14300214200.0 0.6370689513 -0.7630022613
14350213900.0 0.6260307255 -0.7725076898
14400213600.0 0.613674402 -0.7824710827
14450213300.0 0.6013801603 -0.7927808879
14500213000.0 0.5881309471 -0.8025489877
14550212700.0 0.575868112 -0.8123139606
14600212400.0 0.5630883915 -0.8208580929
14650212100.0 0.5508714518 -0.8290784437
14700211800.0 0.5369214749 -0.8393077754
14750211500.0 0.5246853659 -0.8472929516
14800211200.0 0.5122672009 -0.855414607
14850210900.0 0.4998983551 -0.8632189399
14900210600.0 0.486442227 -0.8710279737
14950210300.0 0.4732561163 -0.878686618
15000210000.0 0.4603833074 -0.8852800594
15050209700.0 0.4484629152 -0.8914630712
15100209400.0 0.4352498502 -0.8969679996
15150209100.0 0.4229762072 -0.9031607594
15200208800.0 0.4109958574 -0.9085679312
15250208500.0 0.3992789659 -0.9131994539
15300208200.0 0.3874301033 -0.9176653641
15350207900.0 0.3740088327 -0.9219812676
15400207600.0 0.3592997546 -0.9278266151
15450207300.0 0.3441425931 -0.9324980048
15500207000.0 0.330228757 -0.9370290908
15550206700.0 0.3151279616 -0.9417929941
15600206400.0 0.2997809589 -0.9466048645
15650206100.0 0.2839832006 -0.9510327975
15700205800.0 0.2701023045 -0.9541825732
15750205500.0 0.256405029 -0.9576390029
15800205200.0 0.2420259743 -0.9611598095
15850204900.0 0.2277629419 -0.9646568748
15900204600.0 0.2128369869 -0.9681457076
15950204300.0 0.1984158493 -0.9714908982
16000204000.0 0.1840226512 -0.974268194
16050203700.0 0.1687358691 -0.9771471009
16100203400.0 0.154302393 -0.9797231294
16150203100.0 0.139336556 -0.9821387287
16200202800.0 0.1247474662 -0.9839491431
16250202500.0 0.1105390039 -0.9856222286
16300202200.0 0.0949687031 -0.9874515647
16350201900.0 0.0796973047 -0.9892499565
16400201600.0 0.0651966894 -0.9902885871
16450201300.0 0.0496921077 -0.9912630381
16500201000.0 0.0327366261 -0.9920422845
16550200700.0 0.0166322396 -0.9925085752
16600200400.0 0.000830024 -0.9925692278
16650200100.0 -0.0151150305 -0.9923927383
16700199800.0 -0.0317143793 -0.9919848266
16750199500.0 -0.0507811182 -0.9913042699
16800199200.0 -0.0664637885 -0.9907635975
16850198900.0 -0.0823873819 -0.9894457292
16900198600.0 -0.0967682327 -0.9880903349
16950198300.0 -0.1100035034 -0.9872371086
17000198000.0 -0.1227885953 -0.9855796361
17050197700.0 -0.1362893838 -0.9842763088
17100197400.0 -0.1492715959 -0.9818317962
17150197100.0 -0.1616179842 -0.9795665834
17200196800.0 -0.1741252247 -0.9778883986
17250196500.0 -0.1868754845 -0.9752045554
17300196200.0 -0.1992435909 -0.972975919
17350195900.0 -0.2109978988 -0.970574649
17400195600.0 -0.2229259894 -0.9680784238
17450195300.0 -0.2359785374 -0.9652478376
17500195000.0 -0.2492198218 -0.9620221225
17550194700.0 -0.2631117891 -0.958393851
17600194400.0 -0.2768888526 -0.9545747391
17650194100.0 -0.2901493161 -0.9502899443
17700193800.0 -0.3033296558 -0.9463862498
17750193500.0 -0.3173416445 -0.9416591919
17800193200.0 -0.3317758974 -0.9360494541
17850192900.0 -0.3468699072 -0.9313176831
17900192600.0 -0.3617768395 -0.9248310951
17950192300.0 -0.377584896 -0.9177085433
18000192000.0 -0.3922284389 -0.910586456
18050191700.0 -0.4060226721 -0.9027047413
18100191400.0 -0.4200447021 -0.8951222791
18150191100.0 -0.4349361816 -0.8869693942
18200190800.0 -0.4517840667 -0.8779268361
18250190500.0 -0.4685788273 -0.8683693032
18300190200.0 -0.4841515839 -0.8598128145
18350189900.0 -0.4993768785 -0.8513386842
18400189600.0 -0.5137443053 -0.8429896073
18450189300.0 -0.527419054 -0.8350780359
18500189000.0 -0.5406284947 -0.8266759746
18550188700.0 -0.553656589 -0.8191768482
18600188400.0 -0.5653718689 -0.8118295714
18650188100.0 -0.576722476 -0.805406285
18700187800.0 -0.5874098293 -0.7988266745
18750187500.0 -0.5985798152 -0.7922360411
18800187200.0 -0.6092962996 -0.7851755359
18850186900.0 -0.6194662711 -0.7782957225
18900186600.0 -0.6298643864 -0.7709696687
18950186300.0 -0.6400845163 -0.7633724257
19000186000.0 -0.6477625307 -0.7571724416
19050185700.0 -0.6570939088 -0.7500799966
19100185400.0 -0.6665809755 -0.7412190873
19150185100.0 -0.6768246875 -0.7333486979
19200184800.0 -0.6865287132 -0.7249348211
19250184500.0 -0.6963482761 -0.7154334511
19300184200.0 -0.7077853594 -0.7065283987
19350183900.0 -0.7184766394 -0.6967729188
19400183600.0 -0.7283105896 -0.6866267057
19450183300.0 -0.7370628572 -0.6767808343
19500183000.0 -0.7453494495 -0.6664132718
19550182700.0 -0.7550979738 -0.6554611016
19600182400.0 -0.765674376 -0.6440822059
19650182100.0 -0.7762711884 -0.6318132534
19700181800.0 -0.7867648652 -0.6185994242
19750181500.0 -0.7969822266 -0.6044338447
19800181200.0 -0.8072434078 -0.5894246089
19850180900.0 -0.8166386852 -0.5742313659
19900180600.0 -0.8245427072 -0.5595042897
19950180300.0 -0.8335885743 -0.5431243768
20000180000.0 -0.8238542949 -0.5473600755
20050179700.0 -0.8304929516 -0.5336979896
20100179400.0 -0.8391333584 -0.5203298857
20150179100.0 -0.8479650496 -0.509221154
20200178800.0 -0.8566909916 -0.4978037048
20250178500.0 -0.8659402776 -0.4844178322
20300178200.0 -0.874761893 -0.4713446753
20350177900.0 -0.884338512 -0.4572239834
20400177600.0 -0.8931852071 -0.4436133182
20450177300.0 -0.9019129139 -0.4289119891
20500177000.0 -0.9098967581 -0.4149129956
20550176700.0 -0.9181596987 -0.4013013076
20600176400.0 -0.9249795921 -0.3891028891
20650176100.0 -0.9315719978 -0.3761803834
20700175800.0 -0.9380662684 -0.3645302612
20750175500.0 -0.9448751732 -0.3526015878
20800175200.0 -0.9495106376 -0.3419237234
20850174900.0 -0.9536531315 -0.3315510185
20900174600.0 -0.9575182188 -0.3201197541
20950174300.0 -0.9613330351 -0.309405456
21000174000.0 -0.9640780507 -0.298387787
21050173700.0 -0.9664095812 -0.2888962415
21100173400.0 -0.9694662343 -0.2778492634
21150173100.0 -0.9735635068 -0.2658769011
21200172800.0 -0.9774149358 -0.2522027441
21250172500.0 -0.981295956 -0.2391543542
21300172200.0 -0.9845219694 -0.224985357
21350171900.0 -0.9863871836 -0.2103924616
21400171600.0 -0.9881951624 -0.1967448904
21450171300.0 -0.98932449 -0.1823361941
21500171000.0 -0.9891141485 -0.167493534
21550170700.0 -0.9905304582 -0.1516960633
21600170400.0 -0.9916716783 -0.1368292391
21650170100.0 -0.9907577755 -0.1211232014
21700169800.0 -0.989259625 -0.1068380604
21750169500.0 -0.9890163257 -0.0897874672
21800169200.0 -0.9891950013 -0.072067257
21850168900.0 -0.9893767141 -0.0554544351
21900168600.0 -0.9893378038 -0.0400651497
21950168300.0 -0.9887060023 -0.0242519964
22000168000.0 -0.9888223498 -0.0095177429
22050167700.0 -0.9893124898 0.0051254102
22100167400.0 -0.9896637584 0.0209796264
22150167100.0 -0.9908295844 0.0370142568
22200166800.0 -0.9912320986 0.0538961196
22250166500.0 -0.9909712787 0.0707800861
22300166200.0 -0.9905745152 0.0871971798
22350165900.0 -0.9885807694 0.1035693747
22400165600.0 -0.9880669699 0.1192034676
22450165300.0 -0.9857779742 0.1342063184
22500165000.0 -0.9834325378 0.1486308355
22550164700.0 -0.9835155817 0.1649250815
22600164400.0 -0.9802726223 0.1805484019
22650164100.0 -0.9775773526 0.1970081245
22700163800.0 -0.9743691187 0.2126987507
22750163500.0 -0.9713570672 0.2279835155
22800163200.0 -0.9688486292 0.2401252514
22850162900.0 -0.9662485391 0.2537670459
22900162600.0 -0.9644289053 0.2676985733
22950162300.0 -0.9628870327 0.2811679568
23000162000.0 -0.9605201083 0.293392359
23050161700.0 -0.9581356084 0.3071461073
23100161400.0 -0.9560078656 0.3204087723
23150161100.0 -0.9524889079 0.3332558134
23200160800.0 -0.9494757013 0.3466837717
23250160500.0 -0.946890884 0.3584653213
23300160200.0 -0.9435945132 0.3712635841
23350159900.0 -0.9390870442 0.3849590459
23400159600.0 -0.9347385938 0.3980279792
23450159300.0 -0.9300031923 0.4129969394
23500159000.0 -0.9249151467 0.4259664554
23550158700.0 -0.9200845484 0.4400982475
23600158400.0 -0.9141581561 0.4542373598
23650158100.0 -0.9070337662 0.4688639441
23700157800.0 -0.8985958588 0.4831143437
23750157500.0 -0.8889613735 0.4972141831
23800157200.0 -0.8793704967 0.5107891256
23850156900.0 -0.8693344838 0.523325706
23900156600.0 -0.8597597896 0.5362341093
23950156300.0 -0.850415149 0.5489613946
24000156000.0 -0.8401274959 0.5613615937
24050155700.0 -0.830291302 0.5731666823
24100155400.0 -0.819786248 0.5853028936
24150155100.0 -0.8086986664 0.5984432192
24200154800.0 -0.7981171091 0.6097766045
24250154500.0 -0.7863784766 0.6217528172
24300154200.0 -0.7750572234 0.6344429137
24350153900.0 -0.7631797755 0.6450515862
24400153600.0 -0.7506880698 0.6555425213
24450153300.0 -0.7383193136 0.6656298594
24500153000.0 -0.7268419244 0.6758880948
24550152700.0 -0.7154872678 0.6859936107
24600152400.0 -0.7039702124 0.6952604771
24650152100.0 -0.6914006297 0.7031233613
