!Created with skrf (http://scikit-rf.org).
# Hz S RI R 50.0 
!freq ReS11 ImS11
300000.0 -0.9772293636 -0.1130239827
50299700.0 -0.9999513183 0.0156558492
100299400.0 -0.9980226459 0.0286735866
150299100.0 -1.002811799 0.0455464241
200298800.0 -0.9995387372 0.0589069991
250298500.0 -0.9974413954 0.0724159731
300298200.0 -0.9861045121 0.0882707163
350297900.0 -0.9940154295 0.0991491529
400297600.0 -0.9931095713 0.1156275987
450297300.0 -0.9912263645 0.1294301777
500297000.0 -0.9896981337 0.1441190989
550296700.0 -0.9844105687 0.1567620292
600296400.0 -1.017262143 0.1898816845
650296100.0 -0.9824055965 0.1866628869
700295800.0 -0.9793601596 0.2007574835
750295500.0 -0.9762448022 0.2149891475
800295200.0 -0.9728514672 0.2290149407
850294900.0 -0.9695842757 0.2429512833
900294600.0 -0.96575354 0.2566428029
950294300.0 -0.9619971262 0.2703211736
1000294000.0 -0.958071662 0.2844936593
1050293700.0 -0.9535787251 0.298279493
1100293400.0 -0.9491434416 0.3126386107
1150293100.0 -0.9453394407 0.3245451221
1200292800.0 -0.9400219651 0.3389191286
1250292500.0 -0.934429773 0.3521089423
1300292200.0 -0.9288245995 0.3654146986
1350291900.0 -0.9232822513 0.3795068515
1400291600.0 -0.9177972046 0.3926336847
1450291300.0 -0.9124314273 0.4049778109
1500291000.0 -0.9060609695 0.4183567652
1550290700.0 -0.8994582967 0.4316878847
1600290400.0 -0.8933125034 0.4445393158
1650290100.0 -0.8865998049 0.4566123424
1700289800.0 -0.8797490519 0.4701666984
1750289500.0 -0.8725572016 0.482418972
1800289200.0 -0.8653704042 0.4953111909
1850288900.0 -0.8585571028 0.5064726863
1900288600.0 -0.8505766882 0.5196276279
1950288300.0 -0.8426143113 0.5321760715
2000288000.0 -0.8350255929 0.5434695417
2050287700.0 -0.8270903291 0.5558664539
2100287400.0 -0.8190139453 0.5676783956
2150287100.0 -0.8103580356 0.5796055223
2200286800.0 -0.8025625791 0.5898778152
2250286500.0 -0.7937086862 0.6020400882
2300286200.0 -0.7847800889 0.6136523966
2350285900.0 -0.7760184567 0.6246360457
2400285600.0 -0.767189768 0.6356773351
2450285300.0 -0.7586270816 0.6460902908
2500285000.0 -0.7485646849 0.6573244361
2550284700.0 -0.7397739575 0.6677448298
2600284400.0 -0.7303781421 0.6779177862
2650284100.0 -0.7215126999 0.6882568031
2700283800.0 -0.7107788396 0.6990584109
2750283500.0 -0.7004290947 0.7094784013
2800283200.0 -0.6907280513 0.7188850006
2850282900.0 -0.6805281039 0.7291097335
2900282600.0 -0.6702676247 0.7385705053
2950282300.0 -0.6601132073 0.7476562873
3000282000.0 -0.6492415668 0.7572672653
3050281700.0 -0.6381046875 0.7665747208
3100281400.0 -0.6261510734 0.7758927623
3150281100.0 -0.6144412002 0.7853045947
3200280800.0 -0.6027535517 0.7937616548
3250280500.0 -0.5919965422 0.8013254574
3300280200.0 -0.5807467163 0.8092123802
3350279900.0 -0.5692374907 0.8167214604
3400279600.0 -0.5570959619 0.8245794756
3450279300.0 -0.5459641974 0.8313799263
3500279000.0 -0.5337807027 0.8386011183
3550278700.0 -0.5213920167 0.8461325501
3600278400.0 -0.5090969505 0.853273398
3650278100.0 -0.4957226563 0.8608044014
3700277800.0 -0.4837235929 0.866959654
3750277500.0 -0.4715426791 0.8738946137
3800277200.0 -0.4592475793 0.8804390981
3850276900.0 -0.4469372838 0.8863448286
3900276600.0 -0.4363380898 0.891778436
3950276300.0 -0.4237583681 0.8977561606
4000276000.0 -0.4116850263 0.9038241402
4050275700.0 -0.3987715892 0.9099451899
4100275400.0 -0.3875082767 0.9153652258
4150275100.0 -0.3747526074 0.9209437064
4200274800.0 -0.362092429 0.9265410643
4250274500.0 -0.3497190313 0.931732522
4300274200.0 -0.336797654 0.9369461645
4350273900.0 -0.3229389777 0.9422677057
4400273600.0 -0.3080675862 0.9476110533
4450273300.0 -0.2925556095 0.9527307646
4500273000.0 -0.2790534685 0.9568843966
4550272700.0 -0.2648712499 0.9612061554
4600272400.0 -0.2492750993 0.9652866728
4650272100.0 -0.2376289786 0.9684431874
4700271800.0 -0.2242787775 0.9718688577
4750271500.0 -0.2125960376 0.9746698336
4800271200.0 -0.200110884 0.9774423472
4850270900.0 -0.1860931488 0.9802161165
4900270600.0 -0.1723016492 0.9827454983
4950270300.0 -0.1580858178 0.9853000425
5000270000.0 -0.1437757749 0.9873229102
5050269700.0 -0.1303608238 0.9887197204
5100269400.0 -0.1166966858 0.9905795552
5150269100.0 -0.1035788952 0.9919081387
5200268800.0 -0.0899842943 0.9932025307
5250268500.0 -0.0770476201 0.9941625379
5300268200.0 -0.0639794523 0.9944836085
5350267900.0 -0.0519048691 0.9950383954
5400267600.0 -0.035834518 0.9963993948
5450267300.0 -0.0225583123 0.9966728685
5500267000.0 -0.0071701481 0.9970534419
5550266700.0 0.0078519864 0.9974635717
5600266400.0 0.0233195941 0.9973238132
5650266100.0 0.0397844471 0.996732152
5700265800.0 0.0541933241 0.9963072983
5750265500.0 0.0695192776 0.9953796617
5800265200.0 0.083599318 0.9942077731
5850264900.0 0.0965136195 0.9931360406
5900264600.0 0.1133368095 0.9916232731
5950264300.0 0.1256069819 0.9902562493
6000264000.0 0.1395549916 0.9883558899
6050263700.0 0.1520469504 0.9867176111
6100263400.0 0.1645054194 0.9848641471
6150263100.0 0.1788798157 0.9825724553
6200262800.0 0.1895070284 0.9806828731
6250262500.0 0.2018913578 0.9781639647
6300262200.0 0.2147667319 0.9754332441
6350261900.0 0.2280859107 0.9725574168
6400261600.0 0.2418757416 0.969227956
6450261300.0 0.2531208561 0.9664889413
6500261000.0 0.265804518 0.9631827129
6550260700.0 0.2786265929 0.9588584266
6600260400.0 0.2920760943 0.954770144
6650260100.0 0.3059956118 0.9504037481
6700259800.0 0.3184656802 0.94638206
6750259500.0 0.3319641653 0.9413520709
6800259200.0 0.344897579 0.9364570777
6850258900.0 0.3570291414 0.9310909846
6900258600.0 0.3690668801 0.926202686
6950258300.0 0.3817255422 0.9207945999
7000258000.0 0.3936262824 0.9154734466
7050257700.0 0.4058344731 0.9093516887
7100257400.0 0.4184019061 0.9033510861
7150257100.0 0.4288570578 0.8977497274
7200256800.0 0.4417304094 0.8914243535
7250256500.0 0.453634912 0.8851352612
7300256200.0 0.4665849476 0.8784596797
7350255900.0 0.4786362687 0.871455835
7400255600.0 0.4921809446 0.8643258372
7450255300.0 0.5077112133 0.8551976412
7500255000.0 0.5193396328 0.8484115818
7550254700.0 0.5329240536 0.8395265997
7600254400.0 0.545874635 0.831257133
7650254100.0 0.5571860415 0.8234758748
7700253800.0 0.5692213407 0.8155254892
7750253500.0 0.5802875899 0.8078426507
7800253200.0 0.5910509045 0.8001317113
7850252900.0 0.6005853147 0.7929768827
7900252600.0 0.6124132414 0.784197546
7950252300.0 0.6211101518 0.777728345
8000252000.0 0.6314630984 0.7698837872
8050251700.0 0.6420640983 0.7616700197
8100251400.0 0.6518355729 0.7534076332
8150251100.0 0.6620669015 0.7448721758
8200250800.0 0.671490513 0.736937337
8250250500.0 0.6803440547 0.7288327923
8300250200.0 0.6899636295 0.7203290074
8350249900.0 0.6988461774 0.7115984189
8400249600.0 0.7068854963 0.7036173313
8450249300.0 0.7160572899 0.6943776703
8500249000.0 0.7247424883 0.6853766525
8550248700.0 0.7328900829 0.6764110946
8600248400.0 0.7412126415 0.6672074341
8650248100.0 0.7490689288 0.6575251368
8700247800.0 0.7586291789 0.6463289347
8750247500.0 0.7668491685 0.6362301921
8800247200.0 0.7751232571 0.6257694308
8850246900.0 0.7840182139 0.6143393578
8900246600.0 0.7926967511 0.6029193266
8950246300.0 0.8022770378 0.5900584407
9000246000.0 0.8111681578 0.577255477
9050245700.0 0.8203725291 0.5642891778
9100245400.0 0.8289131831 0.5518548264
9150245100.0 0.838409708 0.5381524505
9200244800.0 0.8483790328 0.5226281846
9250244500.0 0.8576736486 0.5071513363
9300244200.0 0.8662621853 0.4924283621
9350243900.0 0.8739806292 0.4785351946
9400243600.0 0.8806460973 0.4660788224
9450243300.0 0.8863574463 0.4544997335
9500243000.0 0.8925620342 0.4423069026
9550242700.0 0.8963221534 0.4345740788
9600242400.0 0.9002786081 0.4271507087
9650242100.0 0.9038198596 0.4207944302
9700241800.0 0.9083270404 0.4125867469
9750241500.0 0.912287116 0.405115785
9800241200.0 0.9166607821 0.3962282016
9850240900.0 0.9222824383 0.3842657145
9900240600.0 0.9282606554 0.3726403768
9950240300.0 0.9347549703 0.3564585861
10000240000.0 0.9392233168 0.3449525034
10050239700.0 0.9449284724 0.3295866769
10100239400.0 0.9498470479 0.3144304903
10150239100.0 0.9541395094 0.299535371
10200238800.0 0.9582049302 0.2847074994
10250238500.0 0.9618283576 0.2712718213
10300238200.0 0.9649147011 0.2573734398
10350237900.0 0.9675437552 0.2442556346
10400237600.0 0.9698849087 0.2314106827
10450237300.0 0.9727007235 0.2172921164
10500237000.0 0.9748091691 0.2052307648
10550236700.0 0.9770167141 0.1913042101
10600236400.0 0.9793015226 0.1777610646
10650236100.0 0.981210009 0.1634185834
10700235800.0 0.9837498583 0.1507814721
10750235500.0 0.9858647367 0.1376174793
10800235200.0 0.9881157893 0.1236722587
10850234900.0 0.989445485 0.1091568867
10900234600.0 0.9920408852 0.0944120818
10950234300.0 0.9934036519 0.081176521
11000234000.0 0.9953474619 0.0660431713
11050233700.0 0.997013712 0.0497258323
11100233400.0 0.9983483241 0.0324441207
11150233100.0 0.999540427 0.0160236675
11200232800.0 1.000457089 0.0007611748
11250232500.0 1.001538173 -0.0159487375
11300232200.0 1.001482564 -0.0330889498
11350231900.0 1.001968506 -0.0494389062
11400231600.0 1.001158573 -0.064344572
11450231300.0 1.000779629 -0.08055807
11500231000.0 0.9997268206 -0.0971473556
11550230700.0 0.9979905997 -0.1105157446
11600230400.0 0.9970822286 -0.1234045028
11650230100.0 0.9950118413 -0.1351821458
11700229800.0 0.9929082801 -0.1485394071
11750229500.0 0.9903800289 -0.1635846906
11800229200.0 0.9876562575 -0.1777602042
11850228900.0 0.9841497273 -0.190007662
11900228600.0 0.9804347998 -0.1998205397
11950228300.0 0.9770940005 -0.2102006238
12000228000.0 0.9744115584 -0.2190169295
12050227700.0 0.971173518 -0.2315397062
12100227400.0 0.9677400546 -0.2427752041
12150227100.0 0.9627561395 -0.258668025
12200226800.0 0.9597356715 -0.2703168736
12250226500.0 0.9552583358 -0.2829943853
12300226200.0 0.9514147255 -0.2950263155
12350225900.0 0.9465029792 -0.3096584462
12400225600.0 0.9421080711 -0.3215676638
12450225300.0 0.9372849063 -0.335155547
12500225000.0 0.9321289432 -0.3489980996
12550224700.0 0.9266054393 -0.3627342143
12600224400.0 0.9218254095 -0.3758586592
12650224100.0 0.9159595991 -0.3900676531
12700223800.0 0.9108595259 -0.4028223638
12750223500.0 0.9051764746 -0.4159597987
12800223200.0 0.8998651107 -0.4285296522
12850222900.0 0.8943669774 -0.4407579135
12900222600.0 0.8887564366 -0.4523920812
12950222300.0 0.8822415887 -0.4654727934
13000222000.0 0.8765065217 -0.4772987751
13050221700.0 0.8696258107 -0.4892010851
13100221400.0 0.8631651762 -0.5016894372
13150221100.0 0.8559691453 -0.5140081139
13200220800.0 0.8491016494 -0.5255233514
13250220500.0 0.8418699469 -0.5377269776
13300220200.0 0.8343155424 -0.5487179201
13350219900.0 0.8262552629 -0.5606082456
13400219600.0 0.8179684219 -0.5727823254
13450219300.0 0.808155726 -0.5866222221
13500219000.0 0.7984272475 -0.6004735674
13550218700.0 0.7876859056 -0.6136113638
13600218400.0 0.7776162333 -0.6260025268
13650218100.0 0.7683568863 -0.6365770936
13700217800.0 0.7573737835 -0.6483479919
13750217500.0 0.7464175125 -0.6606646717
13800217200.0 0.7363617219 -0.6713052484
13850216900.0 0.7244156994 -0.6833932698
13900216600.0 0.7149940393 -0.69198142
13950216300.0 0.7036771598 -0.7022933443
14000216000.0 0.6942041328 -0.7117859152
14050215700.0 0.6841381897 -0.7196507504
14100215400.0 0.6746319617 -0.7295045978
14150215100.0 0.6654605994 -0.7376928292
14200214800.0 0.6560724401 -0.7460721638
14250214500.0 0.6459851511 -0.7553018123
14300214200.0 0.6355888817 -0.764569434
14350213900.0 0.6242506211 -0.774139146
14400213600.0 0.6123946051 -0.784101242
14450213300.0 0.5997033246 -0.7940556665
14500213000.0 0.5865708321 -0.8038127088
14550212700.0 0.5737106251 -0.8135220818
14600212400.0 0.5614604655 -0.8217485699
14650212100.0 0.5482411862 -0.8310819228
14700211800.0 0.5343904424 -0.8407670635
14750211500.0 0.5225335726 -0.8486391969
14800211200.0 0.5102556759 -0.8566168603
14850210900.0 0.4978756861 -0.8641307047
14900210600.0 0.4846448245 -0.8719545082
14950210300.0 0.4711709391 -0.8795854507
15000210000.0 0.4584209555 -0.8865059929
15050209700.0 0.4459923104 -0.892660577
15100209400.0 0.4330254005 -0.8983101753
15150209100.0 0.4210135949 -0.9042420642
15200208800.0 0.4078288265 -0.9092898968
15250208500.0 0.3960276996 -0.9138177816
15300208200.0 0.3839096266 -0.9182905412
15350207900.0 0.3713813559 -0.9226451753
15400207600.0 0.3558710782 -0.928531135
15450207300.0 0.3416303037 -0.9333328551
15500207000.0 0.3270393772 -0.9386116268
15550206700.0 0.3122831928 -0.9429968357
15600206400.0 0.2963621097 -0.9478866027
15650206100.0 0.2807809301 -0.9520469666
15700205800.0 0.2663687109 -0.955571176
15750205500.0 0.2521946322 -0.9592730014
15800205200.0 0.2377270078 -0.9627318272
15850204900.0 0.2233404907 -0.9660198884
15900204600.0 0.2082170118 -0.9695784107
15950204300.0 0.1943119281 -0.9722772521
16000204000.0 0.1802749804 -0.9752055329
16050203700.0 0.1652413219 -0.9782342295
16100203400.0 0.1509108653 -0.9802494156
16150203100.0 0.1367120828 -0.9828130554
16200202800.0 0.1225849162 -0.9845931003
16250202500.0 0.1077680457 -0.986346735
16300202200.0 0.092432139 -0.9876654032
16350201900.0 0.0774494267 -0.9891001366
16400201600.0 0.0628109745 -0.9903834011
16450201300.0 0.0476988478 -0.9910630056
16500201000.0 0.0310707761 -0.9920008889
16550200700.0 0.0155199245 -0.9924256359
16600200400.0 -0.0004020642 -0.992418444
16650200100.0 -0.0162916297 -0.9923777754
16700199800.0 -0.0328773658 -0.9919654298
16750199500.0 -0.0515167468 -0.9916380204
16800199200.0 -0.0674846795 -0.9905249187
16850198900.0 -0.0828630381 -0.9901054372
16900198600.0 -0.0968766455 -0.9877321887
16950198300.0 -0.1102200644 -0.9870818712
17000198000.0 -0.1227671395 -0.9861878361
17050197700.0 -0.1362485366 -0.9840475163
17100197400.0 -0.1482317934 -0.9813805126
17150197100.0 -0.1614533468 -0.9801185042
17200196800.0 -0.1742786148 -0.9774570987
17250196500.0 -0.1866937948 -0.9754158649
17300196200.0 -0.1989408852 -0.9730221863
17350195900.0 -0.2105629686 -0.9708884332
17400195600.0 -0.2227728704 -0.9682186389
17450195300.0 -0.2359557647 -0.9655531762
17500195000.0 -0.2494366638 -0.9621815492
17550194700.0 -0.2631976504 -0.9582832941
17600194400.0 -0.2773822019 -0.9544730721
17650194100.0 -0.2910749052 -0.9504965659
17700193800.0 -0.3042828633 -0.9462280217
17750193500.0 -0.3180365933 -0.9418065689
17800193200.0 -0.332787553 -0.9363893499
17850192900.0 -0.3473058633 -0.930812361
17900192600.0 -0.3625026816 -0.9247529557
17950192300.0 -0.3783542221 -0.9176036352
18000192000.0 -0.3930320521 -0.91035678
18050191700.0 -0.4068842025 -0.9024348542
18100191400.0 -0.4211597939 -0.8947806498
18150191100.0 -0.4361654471 -0.8868315102
18200190800.0 -0.4531626859 -0.8776146445
18250190500.0 -0.4700878354 -0.86810269
18300190200.0 -0.4851532103 -0.8590609065
18350189900.0 -0.5005683795 -0.8504358214
18400189600.0 -0.515036622 -0.842554354
18450189300.0 -0.5284918459 -0.8347877036
18500189000.0 -0.5413657707 -0.8264540796
18550188700.0 -0.5539413588 -0.8190619704
18600188400.0 -0.5660280871 -0.8123181706
18650188100.0 -0.5767571762 -0.8057167334
18700187800.0 -0.5876418917 -0.7993159674
18750187500.0 -0.598117089 -0.7925043217
18800187200.0 -0.6086581382 -0.7855376403
18850186900.0 -0.6191257926 -0.7785339073
18900186600.0 -0.6294037685 -0.771070855
18950186300.0 -0.6394848025 -0.7633246199
19000186000.0 -0.646618572 -0.7574660869
19050185700.0 -0.6558757948 -0.7500538928
19100185400.0 -0.665606518 -0.7412180851
19150185100.0 -0.6759655235 -0.7336718962
19200184800.0 -0.6859288134 -0.7246485238
19250184500.0 -0.6958505508 -0.7149147594
19300184200.0 -0.7073481961 -0.7058330368
19350183900.0 -0.7176636648 -0.6962416843
19400183600.0 -0.727539689 -0.6860313786
19450183300.0 -0.7367739776 -0.6763675688
19500183000.0 -0.7448990454 -0.6662107815
19550182700.0 -0.7542903583 -0.6559212065
19600182400.0 -0.764806807 -0.6436891064
19650182100.0 -0.7757724594 -0.6314801859
19700181800.0 -0.786463844 -0.6181589971
19750181500.0 -0.7968103669 -0.6039906181
19800181200.0 -0.8071442359 -0.5889424134
19850180900.0 -0.8168453525 -0.573842583
19900180600.0 -0.8244800322 -0.5591737423
19950180300.0 -0.8338927689 -0.5428834833
20000180000.0 -0.8266544274 -0.5457027286
20050179700.0 -0.8353302172 -0.5325796283
20100179400.0 -0.8441437485 -0.5186289158
20150179100.0 -0.8517740058 -0.5068628596
20200178800.0 -0.8610380824 -0.4938676512
20250178500.0 -0.870143488 -0.4799588913
20300178200.0 -0.8794696532 -0.465204783
20350177900.0 -0.8884171741 -0.4506498384
20400177600.0 -0.8967747893 -0.4363268204
20450177300.0 -0.9055731742 -0.4216947444
20500177000.0 -0.9133670202 -0.4079280645
20550176700.0 -0.9214768662 -0.3944549827
20600176400.0 -0.928370557 -0.381034627
20650176100.0 -0.9346828371 -0.3684805825
20700175800.0 -0.9417481116 -0.3568038307
20750175500.0 -0.9483833721 -0.3443552579
20800175200.0 -0.9530564574 -0.3338370353
20850174900.0 -0.9568954534 -0.3231951318
20900174600.0 -0.9627715093 -0.3122036327
20950174300.0 -0.9669510413 -0.3008863095
21000174000.0 -0.9700661808 -0.2887332274
21050173700.0 -0.972724391 -0.2771494711
21100173400.0 -0.9769918383 -0.2656840838
21150173100.0 -0.9814343444 -0.2530153555
21200172800.0 -0.9846794605 -0.2395821898
21250172500.0 -0.9879176219 -0.2256575716
21300172200.0 -0.9900566008 -0.2115677544
21350171900.0 -0.9919433196 -0.1967324311
21400171600.0 -0.9936642581 -0.1826942821
21450171300.0 -0.993376331 -0.1679128746
21500171000.0 -0.9935821384 -0.1528973358
21550170700.0 -0.99312857 -0.1377994894
21600170400.0 -0.9928323668 -0.1218139773
21650170100.0 -0.9918249613 -0.1067490495
21700169800.0 -0.9899519398 -0.0908868256
21750169500.0 -0.9894287275 -0.073701046
21800169200.0 -0.9879658788 -0.0585260782
21850168900.0 -0.9879982033 -0.041943902
21900168600.0 -0.9860640025 -0.0250800226
21950168300.0 -0.9839029837 -0.0100023701
22000168000.0 -0.9833913773 0.0049047573
22050167700.0 -0.9824356561 0.0189636398
22100167400.0 -0.9827104541 0.0341118699
22150167100.0 -0.9835397796 0.0496516051
22200166800.0 -0.9838578825 0.0663241085
22250166500.0 -0.98338775 0.0830622603
22300166200.0 -0.9823473687 0.100169682
22350165900.0 -0.981030005 0.1162707522
22400165600.0 -0.9794457991 0.1322764831
22450165300.0 -0.9768456947 0.1470527954
22500165000.0 -0.9759121924 0.1603773283
22550164700.0 -0.9758658639 0.1768438124
22600164400.0 -0.9718722049 0.1906227891
22650164100.0 -0.9711172526 0.2069100065
22700163800.0 -0.9674382011 0.2225824681
22750163500.0 -0.9652780382 0.2377546769
22800163200.0 -0.9628117572 0.2515198404
22850162900.0 -0.9603891105 0.2643658459
22900162600.0 -0.9586448037 0.2776156097
22950162300.0 -0.9578909963 0.2904507189
23000162000.0 -0.9568497976 0.302275765
23050161700.0 -0.9550928678 0.3146877055
23100161400.0 -0.9523533887 0.3272697151
23150161100.0 -0.9494787894 0.339582358
23200160800.0 -0.9468216276 0.3524149718
23250160500.0 -0.9446136085 0.3642099525
23300160200.0 -0.941380909 0.3762393741
23350159900.0 -0.9371806109 0.3889868242
23400159600.0 -0.9333900866 0.4023572643
23450159300.0 -0.9284641551 0.4156530373
23500159000.0 -0.9241625626 0.4277270594
23550158700.0 -0.9194275474 0.4413244028
23600158400.0 -0.9140260775 0.4545963746
23650158100.0 -0.907525566 0.4685069837
23700157800.0 -0.900099752 0.4822996099
23750157500.0 -0.8915502932 0.4964402414
23800157200.0 -0.8829037667 0.5095792955
23850156900.0 -0.8737461709 0.5221270016
23900156600.0 -0.8650653769 0.5342981935
23950156300.0 -0.8558140798 0.5473366419
24000156000.0 -0.8465036054 0.5587042918
24050155700.0 -0.8358330926 0.5706348579
24100155400.0 -0.8261309722 0.5825288819
24150155100.0 -0.8155265098 0.5947276972
24200154800.0 -0.8046350109 0.6055663859
24250154500.0 -0.7931347199 0.6174375692
24300154200.0 -0.7818343346 0.6292933714
24350153900.0 -0.7696248812 0.639990443
24400153600.0 -0.7574238226 0.6498342
24450153300.0 -0.7456802931 0.6599368005
24500153000.0 -0.7339859738 0.6695946672
24550152700.0 -0.7228571265 0.6792577035
24600152400.0 -0.7112125459 0.6886835363
24650152100.0 -0.6996321797 0.6976394447
