!Created with skrf (http://scikit-rf.org).
# Hz S RI R 50.0 
!freq ReS11 ImS11
300000.0 -0.9752048524 -0.1219560423
50299700.0 -0.9998850022 0.0151956124
100299400.0 -0.997913296 0.0280775739
150299100.0 -1.002616656 0.0448948171
200298800.0 -0.9996149615 0.0579773839
250298500.0 -0.9972672237 0.071553943
300298200.0 -0.985812067 0.0873285517
350297900.0 -0.9938219909 0.0982673248
400297600.0 -0.993076865 0.1148786329
450297300.0 -0.9909044865 0.1287489809
500297000.0 -0.989231367 0.1435484104
550296700.0 -0.9840983556 0.1559332971
600296400.0 -1.017423717 0.189153016
650296100.0 -0.981982477 0.1857815489
700295800.0 -0.9792406834 0.1999749899
750295500.0 -0.9762322129 0.2139305989
800295200.0 -0.9728762016 0.2281379841
850294900.0 -0.9694720672 0.2419682868
900294600.0 -0.9657578319 0.2556833001
950294300.0 -0.9621100316 0.269122947
1000294000.0 -0.9582575995 0.2833229726
1050293700.0 -0.9536436377 0.2970998714
1100293400.0 -0.9491519352 0.3116902835
1150293100.0 -0.9455487474 0.3233337408
1200292800.0 -0.9401234161 0.3376869506
1250292500.0 -0.9346168523 0.3511812964
1300292200.0 -0.9289813316 0.364565461
1350291900.0 -0.9234014947 0.3784848722
1400291600.0 -0.9177779778 0.3915944955
1450291300.0 -0.9123865004 0.4041010745
1500291000.0 -0.9062072416 0.4173408166
1550290700.0 -0.8996216254 0.4307602356
1600290400.0 -0.893489178 0.4436014881
1650290100.0 -0.8868487819 0.4558162153
1700289800.0 -0.8797942374 0.4693059319
1750289500.0 -0.8729128002 0.4816231267
1800289200.0 -0.8654311739 0.4945409002
1850288900.0 -0.858611386 0.5058402294
1900288600.0 -0.8511647819 0.5187347499
1950288300.0 -0.8428926281 0.5313945179
2000288000.0 -0.8354372573 0.5428607786
2050287700.0 -0.8273570451 0.5553254691
2100287400.0 -0.819179409 0.5667504085
2150287100.0 -0.8109041525 0.5786057385
2200286800.0 -0.8029182431 0.5891689889
2250286500.0 -0.7939509303 0.6014296875
2300286200.0 -0.7852476299 0.6127699114
2350285900.0 -0.7768387936 0.6235712011
2400285600.0 -0.7678568678 0.6345463821
2450285300.0 -0.7591954473 0.6451232378
2500285000.0 -0.7490556234 0.6566415164
2550284700.0 -0.7401411471 0.6668792938
2600284400.0 -0.7310649102 0.6768024883
2650284100.0 -0.7221899392 0.6872687504
2700283800.0 -0.7119658516 0.6978106553
2750283500.0 -0.701442457 0.7081361686
2800283200.0 -0.6915810527 0.717971775
2850282900.0 -0.6810936957 0.7283958797
2900282600.0 -0.6707227548 0.7378295942
2950282300.0 -0.6601432297 0.7470696512
3000282000.0 -0.6495749218 0.756592388
3050281700.0 -0.6382938232 0.7658466948
3100281400.0 -0.6267434357 0.7751507519
3150281100.0 -0.6155301975 0.7840209412
3200280800.0 -0.6039986356 0.7924286657
3250280500.0 -0.5930173361 0.8003350191
3300280200.0 -0.5815903849 0.8085409015
3350279900.0 -0.5692516609 0.8166261171
3400279600.0 -0.5565974481 0.824453683
3450279300.0 -0.545433722 0.8316047111
3500279000.0 -0.5336861296 0.8382221951
3550278700.0 -0.5214712458 0.8455625553
3600278400.0 -0.5098025827 0.8524249849
3650278100.0 -0.4967171025 0.8598528506
3700277800.0 -0.4845663127 0.8663626051
3750277500.0 -0.4722933364 0.8732365906
3800277200.0 -0.4596687048 0.879692773
3850276900.0 -0.447633682 0.8855455221
3900276600.0 -0.4368865185 0.8912847526
3950276300.0 -0.4246262753 0.8973572901
4000276000.0 -0.4129859579 0.9030671311
4050275700.0 -0.4003923024 0.9093135682
4100275400.0 -0.3891793472 0.914491118
4150275100.0 -0.3760266165 0.9204528964
4200274800.0 -0.3626862708 0.9260395236
4250274500.0 -0.3499506128 0.9313696542
4300274200.0 -0.3367367611 0.9367304718
4350273900.0 -0.3225922729 0.9423692892
4400273600.0 -0.3078146266 0.9471677611
4450273300.0 -0.2928219267 0.9521117739
4500273000.0 -0.2795845451 0.9565521267
4550272700.0 -0.2659601644 0.960596566
4600272400.0 -0.2508927368 0.9647169134
4650272100.0 -0.239479355 0.9676791004
4700271800.0 -0.2266733011 0.9711015844
4750271500.0 -0.2150503659 0.9740247689
4800271200.0 -0.2027302835 0.976703731
4850270900.0 -0.1890651884 0.9795174216
4900270600.0 -0.1751943678 0.9818575319
4950270300.0 -0.1606601781 0.9844718328
5000270000.0 -0.1459871227 0.9867137934
5050269700.0 -0.1328795283 0.988551905
5100269400.0 -0.1183638723 0.9900079171
5150269100.0 -0.1046220061 0.99158067
5200268800.0 -0.0912827492 0.9927703854
5250268500.0 -0.0779771771 0.9940339544
5300268200.0 -0.0644795975 0.9946160515
5350267900.0 -0.0515982109 0.9949973049
5400267600.0 -0.0354970953 0.9963036277
5450267300.0 -0.0219424066 0.9967362319
5500267000.0 -0.0066249333 0.9968044681
5550266700.0 0.0082057586 0.9972209546
5600266400.0 0.0237945425 0.9973414113
5650266100.0 0.0406469319 0.9966901846
5700265800.0 0.0549012404 0.9958821784
5750265500.0 0.069900069 0.9949945373
5800265200.0 0.0831807045 0.9939410544
5850264900.0 0.0967780037 0.9931764987
5900264600.0 0.1133750271 0.9914890959
5950264300.0 0.1248285417 0.9895535467
6000264000.0 0.1379584168 0.9880397732
6050263700.0 0.1497471752 0.9864906303
6100263400.0 0.161991126 0.9846589503
6150263100.0 0.1767948848 0.982646566
6200262800.0 0.1864072585 0.9809167206
6250262500.0 0.1989057112 0.9786939293
6300262200.0 0.2110717362 0.9761199484
6350261900.0 0.2240037534 0.9732794364
6400261600.0 0.2378170625 0.9699673075
6450261300.0 0.248667919 0.9675809669
6500261000.0 0.2624035102 0.9638119396
6550260700.0 0.2754424495 0.960131484
6600260400.0 0.2888126214 0.9561121034
6650260100.0 0.3030787995 0.9517060513
6700259800.0 0.3148288568 0.9471349568
6750259500.0 0.3289701854 0.9424520384
6800259200.0 0.3421123026 0.9373588321
6850258900.0 0.3541959814 0.9316256313
6900258600.0 0.3672405856 0.9266915548
6950258300.0 0.379937433 0.9213425233
7000258000.0 0.3914289519 0.9162751264
7050257700.0 0.4034477165 0.9105199854
7100257400.0 0.4167976749 0.9039181914
7150257100.0 0.4275087177 0.8985285904
7200256800.0 0.440591543 0.8921255769
7250256500.0 0.4531462254 0.885338066
7300256200.0 0.4662196898 0.8785568645
7350255900.0 0.4788230114 0.8716165203
7400255600.0 0.4930649593 0.863792555
7450255300.0 0.5082503901 0.8549549295
7500255000.0 0.5210828002 0.8473150134
7550254700.0 0.5354572756 0.8384335312
7600254400.0 0.5478402573 0.8300851529
7650254100.0 0.5594430086 0.8216603602
7700253800.0 0.5707399937 0.8137957068
7750253500.0 0.5817169583 0.8065203211
7800253200.0 0.5925229062 0.7984259034
7850252900.0 0.602501364 0.7913770128
7900252600.0 0.6136641028 0.7825167644
7950252300.0 0.6223098028 0.7761457123
8000252000.0 0.632300832 0.7685730864
8050251700.0 0.6427312368 0.7604256044
8100251400.0 0.6527197516 0.7524391047
8150251100.0 0.6627393577 0.7439690906
8200250800.0 0.6720868548 0.7357806838
8250250500.0 0.6806924363 0.7280907477
8300250200.0 0.6899466513 0.7197436283
8350249900.0 0.6991675226 0.7109321984
8400249600.0 0.7072465327 0.702794294
8450249300.0 0.7162016782 0.6940428716
8500249000.0 0.7244585239 0.685208503
8550248700.0 0.7329578096 0.6762403179
8600248400.0 0.740965171 0.6667108668
8650248100.0 0.7487429859 0.6573373339
8700247800.0 0.7579457183 0.6463031346
8750247500.0 0.766204887 0.6361782518
8800247200.0 0.7744136515 0.6259924288
8850246900.0 0.7829550799 0.614569583
8900246600.0 0.7913877349 0.6031975517
8950246300.0 0.8005220908 0.5905921817
9000246000.0 0.8094914347 0.5783080915
9050245700.0 0.817691684 0.56585968
9100245400.0 0.8258817258 0.5538333748
9150245100.0 0.8351205206 0.5411382605
9200244800.0 0.8446324078 0.5265189816
9250244500.0 0.8534455291 0.511853139
9300244200.0 0.861631864 0.4981622164
9350243900.0 0.8693201159 0.4850040067
9400243600.0 0.8758231715 0.4733654974
9450243300.0 0.8814095557 0.4627897178
9500243000.0 0.887640679 0.4511738257
9550242700.0 0.891509939 0.4437370857
9600242400.0 0.8956991001 0.4361730019
9650242100.0 0.9001375068 0.4292629335
9700241800.0 0.9048988316 0.4204534272
9750241500.0 0.9090767475 0.4127919145
9800241200.0 0.9141924794 0.403633017
9850240900.0 0.9202287834 0.3919446202
9900240600.0 0.9258896212 0.3800009854
9950240300.0 0.933011651 0.3632839518
10000240000.0 0.9382877921 0.35065366
10050239700.0 0.9442240018 0.334723651
10100239400.0 0.9495813993 0.3183214965
10150239100.0 0.9541316385 0.302817324
10200238800.0 0.9585086729 0.2874470529
10250238500.0 0.9616294123 0.2738981624
10300238200.0 0.9647534569 0.2601650986
10350237900.0 0.967511152 0.2465937926
10400237600.0 0.9700884746 0.2331578979
10450237300.0 0.9728614764 0.2196888195
10500237000.0 0.9746981583 0.2075618424
10550236700.0 0.9775484041 0.1931327569
10600236400.0 0.9798887279 0.1786340781
10650236100.0 0.9816959406 0.1643371523
10700235800.0 0.9837890147 0.1524112857
10750235500.0 0.9864518725 0.138407053
10800235200.0 0.9880194373 0.1242231577
10850234900.0 0.9902767407 0.109108475
10900234600.0 0.9921246312 0.0946260147
10950234300.0 0.9937723502 0.0809682228
11000234000.0 0.9955776882 0.0652484028
11050233700.0 0.9974739469 0.0486793184
11100233400.0 0.9989572229 0.0307091206
11150233100.0 0.9998470368 0.0142798289
11200232800.0 1.000817234 -0.0015606646
11250232500.0 1.002009118 -0.0196902386
11300232200.0 1.002379554 -0.0384177665
11350231900.0 1.002109892 -0.0543144847
11400231600.0 1.001059139 -0.0696810098
11450231300.0 1.001804575 -0.0855761914
11500231000.0 1.000044736 -0.1016414596
11550230700.0 0.9982006213 -0.1144647237
11600230400.0 0.9968657178 -0.1275090256
11650230100.0 0.9945589345 -0.139515484
11700229800.0 0.9925826295 -0.1552283149
11750229500.0 0.9901776347 -0.1688203265
11800229200.0 0.9874152053 -0.1821133415
11850228900.0 0.9834462313 -0.1939877629
11900228600.0 0.9797422128 -0.2035487009
11950228300.0 0.9763936604 -0.2133019038
12000228000.0 0.9733147701 -0.2226804267
12050227700.0 0.9697815347 -0.2350576957
12100227400.0 0.9661599611 -0.2459676703
12150227100.0 0.9621098347 -0.2619855732
12200226800.0 0.9585053415 -0.2736440682
12250226500.0 0.9545768561 -0.2861548927
12300226200.0 0.949583314 -0.2980099371
12350225900.0 0.9446544748 -0.3130848383
12400225600.0 0.9402057738 -0.3247657739
12450225300.0 0.9357327937 -0.3374584397
12500225000.0 0.9300683449 -0.3522533398
12550224700.0 0.9245793196 -0.3658723631
12600224400.0 0.919899003 -0.3786262337
12650224100.0 0.913999548 -0.3925923784
12700223800.0 0.9088118729 -0.4055452598
12750223500.0 0.903267387 -0.4186805812
12800223200.0 0.8979997691 -0.4314101449
12850222900.0 0.892573215 -0.4435733411
12900222600.0 0.8871044275 -0.4549452815
12950222300.0 0.8807752387 -0.4676353674
13000222000.0 0.8748297844 -0.4796643729
13050221700.0 0.868401357 -0.4926801171
13100221400.0 0.8616907695 -0.5041623662
13150221100.0 0.8545913593 -0.5168240625
13200220800.0 0.8474695106 -0.5283027519
13250220500.0 0.8404496685 -0.5405317368
13300220200.0 0.8328523907 -0.5516175755
13350219900.0 0.8247545587 -0.5632969918
13400219600.0 0.816226961 -0.5754134861
13450219300.0 0.8068496606 -0.5884696798
13500219000.0 0.7970688189 -0.6016825049
13550218700.0 0.7869850144 -0.6139954703
13600218400.0 0.7773974995 -0.6253084659
13650218100.0 0.7677110768 -0.636656149
13700217800.0 0.7563592125 -0.6478750829
13750217500.0 0.74749228 -0.6590299423
13800217200.0 0.7357650366 -0.6708415845
13850216900.0 0.7255932516 -0.6819489728
13900216600.0 0.7153706141 -0.6906239909
13950216300.0 0.7046348146 -0.7005630373
14000216000.0 0.6950978604 -0.7091700417
14050215700.0 0.6858538453 -0.7175730688
14100215400.0 0.6763866504 -0.7268907385
14150215100.0 0.6672506723 -0.7352039426
14200214800.0 0.6578028605 -0.7441926091
14250214500.0 0.647355773 -0.7536547495
14300214200.0 0.6369585695 -0.763010974
14350213900.0 0.6257904994 -0.7728390225
14400213600.0 0.6141973215 -0.7823686221
14450213300.0 0.6009995657 -0.792816094
14500213000.0 0.5877634742 -0.8027224344
14550212700.0 0.5759171616 -0.8119352767
14600212400.0 0.5630949846 -0.8207797712
14650212100.0 0.5502817729 -0.8293975563
14700211800.0 0.5364123141 -0.8388997565
14750211500.0 0.5249029934 -0.8473271246
14800211200.0 0.5119627399 -0.8554819243
14850210900.0 0.4996814191 -0.8631705477
14900210600.0 0.4864072641 -0.8711825663
14950210300.0 0.4730605112 -0.8786978163
15000210000.0 0.4602720654 -0.8854161256
15050209700.0 0.448185669 -0.8916168195
15100209400.0 0.4354055531 -0.8977107036
15150209100.0 0.4231201568 -0.9029024819
15200208800.0 0.4101356239 -0.9089579585
15250208500.0 0.3994312344 -0.9132140819
15300208200.0 0.3872129651 -0.9172603415
15350207900.0 0.3738363265 -0.9220907783
15400207600.0 0.3588196969 -0.9274424552
15450207300.0 0.3448582098 -0.9329231456
15500207000.0 0.329636589 -0.9374114538
15550206700.0 0.3153631914 -0.9419897663
15600206400.0 0.2989357438 -0.9467591036
15650206100.0 0.2835286495 -0.9512120677
15700205800.0 0.2700386145 -0.9544354342
15750205500.0 0.2558544303 -0.9578320458
15800205200.0 0.2418720126 -0.9612997329
15850204900.0 0.2276633084 -0.9647846618
15900204600.0 0.2125447541 -0.968539317
15950204300.0 0.1982057815 -0.9714932531
16000204000.0 0.1837032993 -0.9742605707
16050203700.0 0.1683679734 -0.9772299415
16100203400.0 0.1539123494 -0.9799151161
16150203100.0 0.1395830818 -0.9822937878
16200202800.0 0.1248830881 -0.9841719925
16250202500.0 0.1103545176 -0.985849943
16300202200.0 0.0942150537 -0.9873010154
16350201900.0 0.0797848793 -0.9890618409
16400201600.0 0.0651096118 -0.9899793323
16450201300.0 0.0497655476 -0.9912078096
16500201000.0 0.0324803828 -0.992017489
16550200700.0 0.0162206399 -0.9925664506
16600200400.0 0.0002913886 -0.9927980359
16650200100.0 -0.0160020193 -0.9924299322
16700199800.0 -0.0323255318 -0.992440447
16750199500.0 -0.0515082159 -0.9914164589
16800199200.0 -0.0671464481 -0.9906669699
16850198900.0 -0.0832042265 -0.9899815204
16900198600.0 -0.0966617577 -0.9883659646
16950198300.0 -0.1098899227 -0.9869479587
17000198000.0 -0.1237719148 -0.9855234787
17050197700.0 -0.1366869094 -0.9834945399
17100197400.0 -0.149588406 -0.9823478698
17150197100.0 -0.1620438413 -0.9794639138
17200196800.0 -0.1750265687 -0.9779917036
17250196500.0 -0.1876499347 -0.9753416889
17300196200.0 -0.1999576165 -0.9729647302
17350195900.0 -0.2118252154 -0.970563435
17400195600.0 -0.2238404302 -0.9681581468
17450195300.0 -0.2364588599 -0.9653795488
17500195000.0 -0.2499985807 -0.9619264473
17550194700.0 -0.2637646567 -0.9586288926
17600194400.0 -0.2774787323 -0.9547281874
17650194100.0 -0.2914255986 -0.9504124838
17700193800.0 -0.3034569504 -0.9459677472
17750193500.0 -0.3179719648 -0.941316327
17800193200.0 -0.3323039432 -0.9363881391
17850192900.0 -0.3472151775 -0.9310431684
17900192600.0 -0.3622843881 -0.9252465775
17950192300.0 -0.3777064584 -0.9174103045
18000192000.0 -0.3923740284 -0.9105343532
18050191700.0 -0.4061147448 -0.9024850097
18100191400.0 -0.4204210945 -0.8948056279
18150191100.0 -0.4351988921 -0.8868906838
18200190800.0 -0.4520688235 -0.8776083694
18250190500.0 -0.4690994975 -0.8681103515
18300190200.0 -0.4845246779 -0.8594322954
18350189900.0 -0.4999501051 -0.8511224881
18400189600.0 -0.5141486529 -0.8422592728
18450189300.0 -0.5278755142 -0.8345746807
18500189000.0 -0.5414532104 -0.8264919497
18550188700.0 -0.5541146442 -0.8182962665
18600188400.0 -0.5660251606 -0.8115562431
18650188100.0 -0.5771154066 -0.8054848612
18700187800.0 -0.5884386316 -0.7986785806
18750187500.0 -0.598987584 -0.7919402821
18800187200.0 -0.6098654237 -0.7849052381
18850186900.0 -0.6199575517 -0.7778956478
18900186600.0 -0.630300252 -0.7705422043
18950186300.0 -0.6404579199 -0.7630309676
19000186000.0 -0.6478186171 -0.7568404786
19050185700.0 -0.6576263419 -0.7498239326
19100185400.0 -0.6671766134 -0.7419758777
19150185100.0 -0.6770913994 -0.7329750405
19200184800.0 -0.6866892758 -0.7241032872
19250184500.0 -0.6969785096 -0.7156028468
19300184200.0 -0.7083502163 -0.7059268498
19350183900.0 -0.7187653822 -0.6965218979
19400183600.0 -0.7286907166 -0.6867385263
19450183300.0 -0.7378456713 -0.6762917268
19500183000.0 -0.7464735662 -0.6666679847
19550182700.0 -0.7562556566 -0.6554284999
19600182400.0 -0.7656949214 -0.6439932023
19650182100.0 -0.7764320448 -0.6316300219
19700181800.0 -0.7867732588 -0.6183661007
19750181500.0 -0.7972486327 -0.6041140785
19800181200.0 -0.8073785355 -0.5891049513
19850180900.0 -0.8170215889 -0.5740067833
19900180600.0 -0.8246949301 -0.559456091
19950180300.0 -0.8337021692 -0.5430347117
20000180000.0 -0.8235141461 -0.5471434713
20050179700.0 -0.8310809559 -0.5339786057
20100179400.0 -0.8400538402 -0.5206585639
20150179100.0 -0.8473105918 -0.5092175056
20200178800.0 -0.8558128186 -0.4977657952
20250178500.0 -0.8654863003 -0.4858149411
20300178200.0 -0.8755394085 -0.4713600448
20350177900.0 -0.8845038076 -0.4572736382
20400177600.0 -0.8934120135 -0.4436995428
20450177300.0 -0.9020180869 -0.4291267061
20500177000.0 -0.9102030987 -0.4150095658
20550176700.0 -0.9181989725 -0.4013648101
20600176400.0 -0.9247837673 -0.3887186979
20650176100.0 -0.9313385531 -0.3761119094
20700175800.0 -0.9386592367 -0.3644704131
20750175500.0 -0.945023459 -0.3531741629
20800175200.0 -0.9493250931 -0.3415242343
20850174900.0 -0.9535809426 -0.331602046
20900174600.0 -0.9583350027 -0.3207856913
20950174300.0 -0.9609561654 -0.3096728223
21000174000.0 -0.9641685926 -0.298980413
21050173700.0 -0.9660856105 -0.289323984
21100173400.0 -0.9689370111 -0.2789161967
21150173100.0 -0.9730218244 -0.2658062404
21200172800.0 -0.9769547719 -0.2529766112
21250172500.0 -0.9808744824 -0.2396936056
21300172200.0 -0.9841659936 -0.2249654428
21350171900.0 -0.9858970505 -0.2114279087
21400171600.0 -0.9877570014 -0.1973027286
21450171300.0 -0.9880485435 -0.1830063245
21500171000.0 -0.9899121798 -0.1676633207
21550170700.0 -0.9899647185 -0.1522969454
21600170400.0 -0.9911829988 -0.136624567
21650170100.0 -0.9907866847 -0.1217142192
21700169800.0 -0.9902269663 -0.1064058713
21750169500.0 -0.9904810048 -0.0910632266
21800169200.0 -0.9900475643 -0.0743016609
21850168900.0 -0.989574781 -0.0572339639
21900168600.0 -0.9891822922 -0.0403732443
21950168300.0 -0.9888842371 -0.0244585808
22000168000.0 -0.9889461799 -0.0096484745
22050167700.0 -0.9896087281 0.004414943
22100167400.0 -0.9900040741 0.0203848482
22150167100.0 -0.9910336318 0.0366153196
22200166800.0 -0.9919095795 0.0529944664
22250166500.0 -0.9907940224 0.0699823259
22300166200.0 -0.9902383618 0.0863579939
22350165900.0 -0.9884415935 0.1025315249
22400165600.0 -0.9874283963 0.1183326751
22450165300.0 -0.9857295461 0.1332054992
22500165000.0 -0.984544535 0.1482674408
22550164700.0 -0.9837268903 0.1641096173
22600164400.0 -0.9805420626 0.180504887
22650164100.0 -0.977595696 0.1959603741
22700163800.0 -0.9746930551 0.2117429405
22750163500.0 -0.972209567 0.2266309302
22800163200.0 -0.9681471846 0.2397835725
22850162900.0 -0.9663454082 0.2528596662
22900162600.0 -0.9647182125 0.2669249453
22950162300.0 -0.9626849333 0.2807445165
23000162000.0 -0.9608287286 0.2934609368
23050161700.0 -0.9583608453 0.3069821198
23100161400.0 -0.9555814048 0.3206872966
23150161100.0 -0.9516266572 0.3333516252
23200160800.0 -0.9492899617 0.3457791065
23250160500.0 -0.9471001708 0.3583218714
23300160200.0 -0.9441228843 0.3711333084
23350159900.0 -0.9398605101 0.3851023733
23400159600.0 -0.9350913066 0.3981723421
23450159300.0 -0.9305161485 0.4125526636
23500159000.0 -0.925038271 0.4261231842
23550158700.0 -0.9204413962 0.4402779448
23600158400.0 -0.9139858207 0.4541476362
23650158100.0 -0.9068569333 0.4687776917
23700157800.0 -0.898466462 0.4830961215
23750157500.0 -0.8889379272 0.4974205652
23800157200.0 -0.8792404434 0.5104258196
23850156900.0 -0.8693879277 0.5232831626
23900156600.0 -0.8594721768 0.5358361723
23950156300.0 -0.8501535713 0.5484446481
24000156000.0 -0.8400032446 0.5607320583
24050155700.0 -0.8301170626 0.5739079169
24100155400.0 -0.8200762294 0.5859379802
24150155100.0 -0.8081348833 0.5989141613
24200154800.0 -0.7974620174 0.6094973027
24250154500.0 -0.7861265471 0.6215504992
24300154200.0 -0.7745303684 0.6337973092
24350153900.0 -0.7627787005 0.6449350508
24400153600.0 -0.7502094843 0.6553562631
24450153300.0 -0.7379923085 0.6656040646
24500153000.0 -0.7263959632 0.6759591971
24550152700.0 -0.7145373159 0.6859307103
24600152400.0 -0.7030101525 0.6952474352
24650152100.0 -0.6906630786 0.704277712
