!Created with skrf (http://scikit-rf.org).
# Hz S RI R 50.0 
!freq ReS11 ImS11
300000.0 -0.9783409473 -0.1151789486
50299700.0 -0.9999812397 0.0156428233
100299400.0 -0.9980112444 0.0286907974
150299100.0 -1.002864651 0.0455552751
200298800.0 -0.9996373368 0.0587790312
250298500.0 -0.9974808017 0.0723683663
300298200.0 -0.9859896443 0.0882320967
350297900.0 -0.9939672012 0.0988945842
400297600.0 -0.9932076114 0.115764087
450297300.0 -0.9911655474 0.129510611
500297000.0 -0.9895711567 0.1440737265
550296700.0 -0.9845766881 0.156656401
600296400.0 -1.017128376 0.1900139045
650296100.0 -0.9820250193 0.186568541
700295800.0 -0.9792340318 0.2009938031
750295500.0 -0.9763830973 0.2149267166
800295200.0 -0.9728638557 0.2290601143
850294900.0 -0.9696728711 0.2426768595
900294600.0 -0.9658653352 0.256665527
950294300.0 -0.9620763385 0.2701680729
1000294000.0 -0.9579166419 0.2842844291
1050293700.0 -0.9534613533 0.2980642192
1100293400.0 -0.9492675426 0.3125479611
1150293100.0 -0.9453538444 0.3242930129
1200292800.0 -0.9400762993 0.3387155097
1250292500.0 -0.9347066049 0.3520103089
1300292200.0 -0.9290320145 0.3653733634
1350291900.0 -0.9234702437 0.379459286
1400291600.0 -0.9178817911 0.3924459597
1450291300.0 -0.9124017919 0.4049673143
1500291000.0 -0.9061203152 0.418168125
1550290700.0 -0.8996486029 0.4315614467
1600290400.0 -0.8933694904 0.4442925416
1650290100.0 -0.8866675821 0.4565006773
1700289800.0 -0.8797258716 0.4701179397
1750289500.0 -0.8727456147 0.4822841641
1800289200.0 -0.8655016198 0.4953851692
1850288900.0 -0.8585978242 0.5066371879
1900288600.0 -0.8508884492 0.5196786989
1950288300.0 -0.8428550015 0.5319941322
2000288000.0 -0.835103729 0.5434861887
2050287700.0 -0.8271112613 0.555766087
2100287400.0 -0.8190299997 0.5675777144
2150287100.0 -0.8105965403 0.5797350775
2200286800.0 -0.8027186501 0.5899541628
2250286500.0 -0.79379754 0.6019920925
2300286200.0 -0.7849373468 0.6138097795
2350285900.0 -0.7762460914 0.6245133375
2400285600.0 -0.7672388654 0.635561852
2450285300.0 -0.7584466879 0.645874897
2500285000.0 -0.74900573 0.657117766
2550284700.0 -0.7397733434 0.6676064568
2600284400.0 -0.7304388436 0.6776904078
2650284100.0 -0.7215651581 0.688333181
2700283800.0 -0.7109446408 0.6987559025
2750283500.0 -0.7005032058 0.7093081369
2800283200.0 -0.6908263444 0.7192481901
2850282900.0 -0.6806037052 0.7289012693
2900282600.0 -0.6702178462 0.7382967963
2950282300.0 -0.6601724226 0.7476453494
3000282000.0 -0.6493270797 0.7570942861
3050281700.0 -0.638157319 0.7666515121
3100281400.0 -0.6261322244 0.7759754473
3150281100.0 -0.6144492153 0.7852540006
3200280800.0 -0.6028649228 0.7936859651
3250280500.0 -0.5921000058 0.8013847073
3300280200.0 -0.5808059894 0.8091205473
3350279900.0 -0.5691791322 0.8167181689
3400279600.0 -0.5570907731 0.8243445964
3450279300.0 -0.5459830458 0.8314315725
3500279000.0 -0.5338543103 0.8386117492
3550278700.0 -0.5216735924 0.8459802819
3600278400.0 -0.5093253834 0.8530798878
3650278100.0 -0.4957719935 0.8606100684
3700277800.0 -0.4837459766 0.8671818386
3750277500.0 -0.4716459589 0.8737521454
3800277200.0 -0.4593075896 0.8801742797
3850276900.0 -0.4474493178 0.8861739663
3900276600.0 -0.436200841 0.8916785597
3950276300.0 -0.4238963768 0.8978063583
4000276000.0 -0.4118536367 0.9039811112
4050275700.0 -0.398989735 0.909799978
4100275400.0 -0.3877028464 0.9151773848
4150275100.0 -0.3751637134 0.9206939838
4200274800.0 -0.3620574973 0.9262702233
4250274500.0 -0.3498343381 0.9316766463
4300274200.0 -0.3369195527 0.9367813759
4350273900.0 -0.3230100457 0.9422134167
4400273600.0 -0.308306804 0.9473609667
4450273300.0 -0.2926744689 0.9525272787
4500273000.0 -0.2792870526 0.956743278
4550272700.0 -0.264984488 0.9611534364
4600272400.0 -0.2494397427 0.9654109124
4650272100.0 -0.237619748 0.9685410944
4700271800.0 -0.2243424497 0.9718822044
4750271500.0 -0.212708511 0.9747418841
4800271200.0 -0.2003559726 0.977402747
4850270900.0 -0.1862800728 0.9801794314
4900270600.0 -0.1723614668 0.9827369588
4950270300.0 -0.1582464438 0.9851796271
5000270000.0 -0.1440376539 0.9871223409
5050269700.0 -0.1305576814 0.9890290754
5100269400.0 -0.117027722 0.990454491
5150269100.0 -0.103508208 0.992093926
5200268800.0 -0.0904437091 0.9929229289
5250268500.0 -0.0772247425 0.9945367003
5300268200.0 -0.0642764695 0.9946958321
5350267900.0 -0.0516706815 0.9956633276
5400267600.0 -0.0357870868 0.9964363879
5450267300.0 -0.022413167 0.9969490494
5500267000.0 -0.0074528604 0.9971334877
5550266700.0 0.0074179793 0.9972160401
5600266400.0 0.0230329182 0.99733671
5650266100.0 0.0396139688 0.9973881637
5700265800.0 0.0539346246 0.9958287969
5750265500.0 0.0694171608 0.9954658138
5800265200.0 0.0835354681 0.9946921495
5850264900.0 0.0965468933 0.9932485177
5900264600.0 0.113180514 0.9917982649
5950264300.0 0.1249980566 0.9896184192
6000264000.0 0.1393413191 0.9884044882
6050263700.0 0.151873238 0.9867692775
6100263400.0 0.1640013103 0.9845713213
6150263100.0 0.1786701647 0.9825535499
6200262800.0 0.1889396904 0.9807350451
6250262500.0 0.2018026728 0.9784538676
6300262200.0 0.2145991653 0.97546386
6350261900.0 0.2277249589 0.9726413385
6400261600.0 0.2415284288 0.9693814188
6450261300.0 0.2527266299 0.9664180985
6500261000.0 0.2658065993 0.9631049807
6550260700.0 0.278579082 0.958897375
6600260400.0 0.2918434741 0.9547162127
6650260100.0 0.3055479324 0.9503190639
6700259800.0 0.3180833485 0.9464598305
6750259500.0 0.3318352275 0.9414752529
6800259200.0 0.3448016129 0.9366034876
6850258900.0 0.3567874702 0.9312256033
6900258600.0 0.368981328 0.9263988489
6950258300.0 0.3814736772 0.9210363584
7000258000.0 0.3933906801 0.9156963879
7050257700.0 0.405881888 0.9094239198
7100257400.0 0.4184023818 0.9033260955
7150257100.0 0.4288884199 0.8979350177
7200256800.0 0.4415261095 0.8916951309
7250256500.0 0.4532722132 0.8851869997
7300256200.0 0.4663765756 0.8784182314
7350255900.0 0.4790329847 0.871558202
7400255600.0 0.4919187802 0.8642210689
7450255300.0 0.5071880986 0.8553512372
7500255000.0 0.5188987391 0.848315114
7550254700.0 0.5329760064 0.8397474133
7600254400.0 0.5454079921 0.8314782837
7650254100.0 0.5569350607 0.8234681505
7700253800.0 0.56909798 0.8156475176
7750253500.0 0.5801497482 0.8080320999
7800253200.0 0.5907717086 0.8000410948
7850252900.0 0.6006349553 0.7929467489
7900252600.0 0.6121841059 0.784388157
7950252300.0 0.6210611469 0.777669976
8000252000.0 0.6312714825 0.7699627129
8050251700.0 0.6418487295 0.7618127081
8100251400.0 0.652012243 0.7535357768
8150251100.0 0.6619041231 0.7450260173
8200250800.0 0.6711207502 0.7370811573
8250250500.0 0.6803268779 0.7291758103
8300250200.0 0.6896741991 0.7202747844
8350249900.0 0.6984325075 0.7118068354
8400249600.0 0.7069718154 0.7037958636
8450249300.0 0.7161137992 0.6943947864
8500249000.0 0.72444501 0.6857493099
8550248700.0 0.7328113205 0.6767560976
8600248400.0 0.7413836068 0.6673328739
8650248100.0 0.749019839 0.6578699477
8700247800.0 0.7586586242 0.6466462799
8750247500.0 0.7667980724 0.6365342022
8800247200.0 0.7751428329 0.6262279528
8850246900.0 0.7836028314 0.6147892949
8900246600.0 0.7921961765 0.603370005
8950246300.0 0.801708609 0.5903446129
9000246000.0 0.8113903227 0.5775539113
9050245700.0 0.8198408145 0.5646986404
9100245400.0 0.8288337137 0.5517980916
9150245100.0 0.8383228382 0.53810574
9200244800.0 0.8480174477 0.5225027477
9250244500.0 0.8576262998 0.5071612512
9300244200.0 0.8659821814 0.4924045921
9350243900.0 0.8735806088 0.4785683771
9400243600.0 0.8805592875 0.4662580442
9450243300.0 0.8863916436 0.4544657226
9500243000.0 0.8926331081 0.4423354575
9550242700.0 0.8961240277 0.4348546537
9600242400.0 0.9002257329 0.4273503852
9650242100.0 0.9037929725 0.4210378045
9700241800.0 0.9079982701 0.412870873
9750241500.0 0.9121900964 0.4053254834
9800241200.0 0.9168779346 0.3963191373
9850240900.0 0.9225220308 0.3848705071
9900240600.0 0.9282143221 0.3727363663
9950240300.0 0.934664668 0.3568576986
10000240000.0 0.939151181 0.3453257695
10050239700.0 0.9449010551 0.3300373327
10100239400.0 0.9497673046 0.3146561389
10150239100.0 0.9543376781 0.2999600663
10200238800.0 0.9584073603 0.2847616864
10250238500.0 0.9617743344 0.2717510637
10300238200.0 0.9649545889 0.2576929025
10350237900.0 0.9675379731 0.2446485465
10400237600.0 0.9701000736 0.2314841368
10450237300.0 0.9728585116 0.2176065414
10500237000.0 0.9748128256 0.205683531
10550236700.0 0.9771433269 0.1913942956
10600236400.0 0.9792654014 0.177775111
10650236100.0 0.981124614 0.1633626616
10700235800.0 0.983448484 0.1510486057
10750235500.0 0.9857077063 0.1382278131
10800235200.0 0.9879112346 0.1241171367
10850234900.0 0.9896183736 0.1091318543
10900234600.0 0.9917282946 0.094695753
10950234300.0 0.9936643748 0.0812507053
11000234000.0 0.9952189031 0.0661623795
11050233700.0 0.9970827498 0.0497891668
11100233400.0 0.9983703819 0.0327263526
11150233100.0 0.999675315 0.015974822
11200232800.0 1.000071382 0.0013740998
11250232500.0 1.001331566 -0.0157080671
11300232200.0 1.001286054 -0.0331610578
11350231900.0 1.001554282 -0.0494550273
11400231600.0 1.001327039 -0.0653042245
11450231300.0 1.000865547 -0.0806378597
11500231000.0 0.9997924522 -0.0971379956
11550230700.0 0.9987037189 -0.1098886569
11600230400.0 0.9973329388 -0.1230730505
11650230100.0 0.9944085205 -0.1340449095
11700229800.0 0.9929888764 -0.1488029287
11750229500.0 0.9903775057 -0.1632263484
11800229200.0 0.9879900938 -0.177410456
11850228900.0 0.9844264422 -0.1895603035
11900228600.0 0.9809209707 -0.1992679104
11950228300.0 0.9775901299 -0.2094365145
12000228000.0 0.9750936655 -0.2184864509
12050227700.0 0.9715263742 -0.2308989062
12100227400.0 0.9682658348 -0.242458165
12150227100.0 0.9630925407 -0.2591841465
12200226800.0 0.9595267775 -0.2693840872
12250226500.0 0.9556751381 -0.2822863907
12300226200.0 0.9517432508 -0.2944867257
12350225900.0 0.9464577425 -0.3085559518
12400225600.0 0.9418826598 -0.321719385
12450225300.0 0.9372988823 -0.3335530077
12500225000.0 0.9318490091 -0.3496172814
12550224700.0 0.9267090856 -0.3627242272
12600224400.0 0.921752807 -0.3755579279
12650224100.0 0.9160600297 -0.3900755732
12700223800.0 0.910880738 -0.4026327466
12750223500.0 0.9053398328 -0.4155409884
12800223200.0 0.9001474049 -0.4282512974
12850222900.0 0.8947096613 -0.4403582956
12900222600.0 0.8890511226 -0.4530775067
12950222300.0 0.8826035688 -0.4654922332
13000222000.0 0.8765321552 -0.4766941744
13050221700.0 0.869726215 -0.4896986305
13100221400.0 0.8628910091 -0.5017337961
13150221100.0 0.8564658619 -0.5138498407
13200220800.0 0.8493174333 -0.5256305009
13250220500.0 0.8420899055 -0.5376768462
13300220200.0 0.8346806078 -0.5484987635
13350219900.0 0.8266554852 -0.560313629
13400219600.0 0.8180423618 -0.5724471036
13450219300.0 0.8087550971 -0.585982011
13500219000.0 0.7982790708 -0.6000502071
13550218700.0 0.7879729619 -0.6129985013
13600218400.0 0.7774647402 -0.6253218196
13650218100.0 0.7685139202 -0.6359366693
13700217800.0 0.7574185722 -0.6485403165
13750217500.0 0.7468120555 -0.6599332461
13800217200.0 0.7360603589 -0.6718745889
13850216900.0 0.7250651479 -0.6836177983
13900216600.0 0.7145725929 -0.6919030656
13950216300.0 0.7040645681 -0.702349566
14000216000.0 0.6944758348 -0.7117183552
14050215700.0 0.6848540975 -0.7197629387
14100215400.0 0.67483869 -0.729226221
14150215100.0 0.6656687701 -0.7373516035
14200214800.0 0.6564633876 -0.7459236061
14250214500.0 0.646018569 -0.755102527
14300214200.0 0.6358761021 -0.7643423538
14350213900.0 0.6247381509 -0.7739380973
14400213600.0 0.6125346679 -0.7839161878
14450213300.0 0.599894332 -0.7938147267
14500213000.0 0.5864775639 -0.8039758663
14550212700.0 0.5741722525 -0.8130555983
14600212400.0 0.5618485992 -0.8218361197
14650212100.0 0.5487894408 -0.8306573502
14700211800.0 0.5346030201 -0.8404360846
14750211500.0 0.5228343348 -0.8486058514
14800211200.0 0.5104394777 -0.8564516316
14850210900.0 0.4985772989 -0.8640267109
14900210600.0 0.4848965723 -0.871930897
14950210300.0 0.4716842378 -0.8796303468
15000210000.0 0.4587329444 -0.8862570186
15050209700.0 0.4462956723 -0.8923800407
15100209400.0 0.4340169519 -0.8982842132
15150209100.0 0.4212500883 -0.9035385416
15200208800.0 0.4085265854 -0.9089480939
15250208500.0 0.3979644657 -0.9141653848
15300208200.0 0.3841671455 -0.9187525763
15350207900.0 0.3716650436 -0.9228089897
15400207600.0 0.3567206569 -0.9283164989
15450207300.0 0.3420865167 -0.9334332359
15500207000.0 0.3284501949 -0.937921573
15550206700.0 0.3133918393 -0.943139741
15600206400.0 0.2969460389 -0.9474011595
15650206100.0 0.2806964191 -0.9518062458
15700205800.0 0.2668496105 -0.9557698809
15750205500.0 0.252387774 -0.95888583
15800205200.0 0.2381247186 -0.9626224126
15850204900.0 0.2237662746 -0.9659561595
15900204600.0 0.2085533687 -0.9693959438
15950204300.0 0.1945483672 -0.9721519785
16000204000.0 0.181025574 -0.9750996184
16050203700.0 0.1656182239 -0.9785687575
16100203400.0 0.1504339034 -0.9798971784
16150203100.0 0.1364211022 -0.982299773
16200202800.0 0.1225538818 -0.9843857668
16250202500.0 0.1076380872 -0.9862748009
16300202200.0 0.0925632118 -0.9875552882
16350201900.0 0.0776019922 -0.9890726207
16400201600.0 0.063301738 -0.9903771048
16450201300.0 0.0481339147 -0.9912057376
16500201000.0 0.0314172253 -0.9921991895
16550200700.0 0.0157425611 -0.9924169935
16600200400.0 -5.507e-07 -0.9926041031
16650200100.0 -0.0160310159 -0.9927127148
16700199800.0 -0.0325842161 -0.9921238796
16750199500.0 -0.0520857776 -0.9917161282
16800199200.0 -0.0671447823 -0.9914444439
16850198900.0 -0.0826679827 -0.9895945402
16900198600.0 -0.0959905636 -0.9885782787
16950198300.0 -0.1093410535 -0.9874145925
17000198000.0 -0.1226732701 -0.9860746946
17050197700.0 -0.1348941865 -0.9839284365
17100197400.0 -0.1482259168 -0.9816583283
17150197100.0 -0.1607619485 -0.9796510915
17200196800.0 -0.1730888081 -0.9778352949
17250196500.0 -0.186440476 -0.9753382083
17300196200.0 -0.1985514863 -0.9730179283
17350195900.0 -0.2102594055 -0.9709287535
17400195600.0 -0.2225376455 -0.9682290546
17450195300.0 -0.235483849 -0.9655195773
17500195000.0 -0.2491806745 -0.9621929109
17550194700.0 -0.2631197457 -0.9586440457
17600194400.0 -0.2769706885 -0.954306076
17650194100.0 -0.2905862466 -0.9501765208
17700193800.0 -0.3034779432 -0.9464307807
17750193500.0 -0.3178491293 -0.9414803074
17800193200.0 -0.3328247744 -0.9362982122
17850192900.0 -0.3475113872 -0.9309149718
17900192600.0 -0.3628593118 -0.9245270912
17950192300.0 -0.3783545127 -0.9176796415
18000192000.0 -0.3928026904 -0.9104001442
18050191700.0 -0.4068088003 -0.902458682
18100191400.0 -0.4209873665 -0.8949185576
18150191100.0 -0.4359797487 -0.886829294
18200190800.0 -0.4529164279 -0.8775250645
18250190500.0 -0.4698326371 -0.867997246
18300190200.0 -0.4851548571 -0.859144556
18350189900.0 -0.4999699692 -0.851194733
18400189600.0 -0.5146751351 -0.8427675261
18450189300.0 -0.5278406776 -0.8341406024
18500189000.0 -0.5413745229 -0.8265855575
18550188700.0 -0.5533256488 -0.8190058594
18600188400.0 -0.5653724134 -0.8125115819
18650188100.0 -0.5766807771 -0.8057109629
18700187800.0 -0.5872574219 -0.799598184
18750187500.0 -0.5981439078 -0.7924981044
18800187200.0 -0.6085355149 -0.7856117341
18850186900.0 -0.6187036741 -0.7786630952
18900186600.0 -0.6291108904 -0.7712793067
18950186300.0 -0.6390565337 -0.7636471923
19000186000.0 -0.6460378105 -0.7575793653
19050185700.0 -0.6553903473 -0.7501074334
19100185400.0 -0.6651712757 -0.7417889101
19150185100.0 -0.6755873226 -0.733262976
19200184800.0 -0.6854081416 -0.724816718
19250184500.0 -0.6954780082 -0.7155479347
19300184200.0 -0.7068789866 -0.7061922273
19350183900.0 -0.718047845 -0.697188099
19400183600.0 -0.7272534944 -0.6862672532
19450183300.0 -0.7361708559 -0.6763913393
19500183000.0 -0.7446466921 -0.6665696504
19550182700.0 -0.754250534 -0.6555318322
19600182400.0 -0.765001019 -0.6438906653
19650182100.0 -0.7756215719 -0.6314761346
19700181800.0 -0.7861795925 -0.6184948211
19750181500.0 -0.7970197173 -0.6041867213
19800181200.0 -0.8070445775 -0.5892733727
19850180900.0 -0.8168142077 -0.5738444509
19900180600.0 -0.8245223425 -0.5594210112
19950180300.0 -0.8339190622 -0.5431104139
20000180000.0 -0.8274137506 -0.5451184683
20050179700.0 -0.8345434606 -0.5322561132
20100179400.0 -0.843131306 -0.5184694677
20150179100.0 -0.8515073644 -0.5058748082
20200178800.0 -0.8602617364 -0.493446229
20250178500.0 -0.8693736819 -0.4801501658
20300178200.0 -0.8796033907 -0.4647243022
20350177900.0 -0.8881365903 -0.4511231379
20400177600.0 -0.8971692929 -0.4362564067
20450177300.0 -0.9054075648 -0.4215688198
20500177000.0 -0.9135878109 -0.4077875646
20550176700.0 -0.9215942658 -0.3941246698
20600176400.0 -0.9284443588 -0.3808944956
20650176100.0 -0.9352624929 -0.3691170799
20700175800.0 -0.9416127172 -0.3567866736
20750175500.0 -0.9489654764 -0.3448085489
20800175200.0 -0.9528654761 -0.3339341517
20850174900.0 -0.9578036795 -0.3226766024
20900174600.0 -0.9622411231 -0.3120854
20950174300.0 -0.9672763119 -0.3002292693
21000174000.0 -0.9698982568 -0.2889130838
21050173700.0 -0.9732401869 -0.2774558901
21100173400.0 -0.9775190289 -0.2656426805
21150173100.0 -0.9812326132 -0.2523639804
21200172800.0 -0.9850799973 -0.2394383041
21250172500.0 -0.9880146801 -0.2253521674
21300172200.0 -0.9907673348 -0.2113478235
21350171900.0 -0.9917494296 -0.1968517649
21400171600.0 -0.9936104471 -0.1824536375
21450171300.0 -0.9935026338 -0.1687365474
21500171000.0 -0.9932379676 -0.1531533948
21550170700.0 -0.9932474709 -0.1377327123
21600170400.0 -0.9930459457 -0.121413703
21650170100.0 -0.9921746304 -0.1063305763
21700169800.0 -0.9896902542 -0.0912130972
21750169500.0 -0.9892950704 -0.0756499894
21800169200.0 -0.9883620083 -0.0584718415
21850168900.0 -0.9867209213 -0.0418277892
21900168600.0 -0.9852236097 -0.0265030501
21950168300.0 -0.9845905355 -0.0105060021
22000168000.0 -0.9835920295 0.0049264895
22050167700.0 -0.9827685982 0.0189414481
22100167400.0 -0.9828867751 0.0340480847
22150167100.0 -0.983510236 0.0496292271
22200166800.0 -0.9837863711 0.0654587836
22250166500.0 -0.9832473641 0.0830186616
22300166200.0 -0.9827592458 0.0995865686
22350165900.0 -0.9812154871 0.1167762182
22400165600.0 -0.9787814911 0.1321291398
22450165300.0 -0.9774141904 0.1469577674
22500165000.0 -0.975939051 0.1602799524
22550164700.0 -0.9740087754 0.176824338
22600164400.0 -0.9730856918 0.1918252388
22650164100.0 -0.9709645472 0.2067595748
22700163800.0 -0.9680907185 0.2222890017
22750163500.0 -0.9657173009 0.2376567405
22800163200.0 -0.9631655543 0.2507371583
22850162900.0 -0.9601815979 0.2643575687
22900162600.0 -0.9586175976 0.2775888336
22950162300.0 -0.9577362633 0.2906045635
23000162000.0 -0.9567912279 0.3020857572
23050161700.0 -0.9550346897 0.3140882709
23100161400.0 -0.9521457312 0.3276386288
23150161100.0 -0.949986152 0.3399662834
23200160800.0 -0.9467419158 0.352081816
23250160500.0 -0.9446140831 0.3638581836
23300160200.0 -0.9417768602 0.3754724861
23350159900.0 -0.9378655949 0.389070493
23400159600.0 -0.9330974733 0.4024146504
23450159300.0 -0.9284945427 0.4156663969
23500159000.0 -0.9240697797 0.4281860391
23550158700.0 -0.9196233884 0.4414440221
23600158400.0 -0.9139090166 0.4549684281
23650158100.0 -0.9075565722 0.4688861692
23700157800.0 -0.8998698201 0.4825244235
23750157500.0 -0.8912308361 0.4963988005
23800157200.0 -0.8824905016 0.5100681107
23850156900.0 -0.8733765434 0.5224630509
23900156600.0 -0.8642351833 0.5350287819
23950156300.0 -0.8549789155 0.5479835847
24000156000.0 -0.8462803984 0.5598935585
24050155700.0 -0.8367346486 0.5713266014
24100155400.0 -0.8260293862 0.5829813783
24150155100.0 -0.815280059 0.594953447
24200154800.0 -0.8040334797 0.6060787168
24250154500.0 -0.7923310556 0.6181374644
24300154200.0 -0.781230292 0.6296869661
24350153900.0 -0.7691683559 0.6399354548
24400153600.0 -0.7573488124 0.6504789439
24450153300.0 -0.7453756625 0.6602011833
24500153000.0 -0.733949217 0.669921453
24550152700.0 -0.7224858593 0.6794803706
24600152400.0 -0.7109488981 0.688130669
24650152100.0 -0.6996960925 0.6967727119
