!Created with skrf (http://scikit-rf.org).
# Hz S RI R 50.0 
!freq ReS11 ImS11
300000.0 -0.9747320763 -0.1185544263
50299700.0 -0.9999667057 0.0153488928
100299400.0 -0.9979175099 0.0281181203
150299100.0 -1.002804166 0.0451190342
200298800.0 -0.9997338258 0.0584119208
250298500.0 -0.9974613718 0.0719572858
300298200.0 -0.9860640978 0.0876922324
350297900.0 -0.9939588441 0.0985089096
400297600.0 -0.99327126 0.1150677997
450297300.0 -0.991216782 0.1289976948
500297000.0 -0.9895429463 0.1437310729
550296700.0 -0.9843382364 0.1561881865
600296400.0 -1.017266468 0.1896287163
650296100.0 -0.9822727796 0.1863023641
700295800.0 -0.9793066107 0.2004196942
750295500.0 -0.9761970958 0.2143800661
800295200.0 -0.9729221522 0.2285665692
850294900.0 -0.9695891645 0.2422260283
900294600.0 -0.9659318129 0.2561260155
950294300.0 -0.9621587484 0.2697040195
1000294000.0 -0.9582155546 0.2837280612
1050293700.0 -0.9536688555 0.2973429515
1100293400.0 -0.9492312413 0.3119167685
1150293100.0 -0.945613174 0.3237245834
1200292800.0 -0.9403596013 0.3380286393
1250292500.0 -0.9346324353 0.3516168324
1300292200.0 -0.9290156766 0.3647424348
1350291900.0 -0.9233714843 0.3788582931
1400291600.0 -0.9180242418 0.3918649604
1450291300.0 -0.9125073628 0.4042710134
1500291000.0 -0.9062156302 0.4176728948
1550290700.0 -0.8997013893 0.4310624265
1600290400.0 -0.8933518922 0.44408122
1650290100.0 -0.8867027711 0.4561241534
1700289800.0 -0.8798376696 0.469547822
1750289500.0 -0.8728523027 0.4818988083
1800289200.0 -0.8655825369 0.4948998968
1850288900.0 -0.8587088606 0.5061916755
1900288600.0 -0.8509517571 0.5191120888
1950288300.0 -0.842779873 0.5314492778
2000288000.0 -0.8354589981 0.5432008381
2050287700.0 -0.8272632398 0.5555496004
2100287400.0 -0.8194188393 0.5667397782
2150287100.0 -0.8105821427 0.5789835379
2200286800.0 -0.8029394277 0.5893245231
2250286500.0 -0.7941113753 0.6013534094
2300286200.0 -0.7851922829 0.612980393
2350285900.0 -0.7764650077 0.6238582652
2400285600.0 -0.7675222042 0.6349896473
2450285300.0 -0.7591458478 0.6452891042
2500285000.0 -0.7492210329 0.6567144518
2550284700.0 -0.7403829749 0.6670587234
2600284400.0 -0.7310203654 0.6771419734
2650284100.0 -0.7220530843 0.687589629
2700283800.0 -0.711448292 0.698186246
2750283500.0 -0.7011329457 0.7088340933
2800283200.0 -0.691398033 0.7183563185
2850282900.0 -0.6811565131 0.7284666547
2900282600.0 -0.6708999151 0.7378674457
2950282300.0 -0.6605439316 0.7470637936
3000282000.0 -0.6498817884 0.7566306018
3050281700.0 -0.6384800776 0.7660304355
3100281400.0 -0.6268042444 0.7752401385
3150281100.0 -0.6149187936 0.7845095313
3200280800.0 -0.603430756 0.7932213559
3250280500.0 -0.5924232657 0.8007586893
3300280200.0 -0.5811852312 0.8087808016
3350279900.0 -0.569536195 0.8161551933
3400279600.0 -0.5576854156 0.8240487239
3450279300.0 -0.5463078896 0.8313121203
3500279000.0 -0.5343123217 0.8383128668
3550278700.0 -0.5220616506 0.8457638797
3600278400.0 -0.5097331775 0.8526679802
3650278100.0 -0.4964667655 0.8604285892
3700277800.0 -0.4845207942 0.8666283816
3750277500.0 -0.4724956898 0.8732578744
3800277200.0 -0.459728773 0.8799118424
3850276900.0 -0.4475027339 0.8859053153
3900276600.0 -0.4367737943 0.8913657371
3950276300.0 -0.4245498123 0.8975297624
4000276000.0 -0.412423359 0.9035119968
4050275700.0 -0.3996323875 0.9095179562
4100275400.0 -0.3885271889 0.9148156335
4150275100.0 -0.3758555151 0.9206690173
4200274800.0 -0.3626778473 0.9260856386
4250274500.0 -0.350344356 0.9313411501
4300274200.0 -0.3376204987 0.9366455053
4350273900.0 -0.3237728033 0.9420118981
4400273600.0 -0.3089292105 0.9471590283
4450273300.0 -0.2936729321 0.9521191927
4500273000.0 -0.2799431413 0.9567445389
4550272700.0 -0.2659286337 0.9608784237
4600272400.0 -0.2503735235 0.9649776835
4650272100.0 -0.2387591649 0.9682713432
4700271800.0 -0.2255450741 0.9715419098
4750271500.0 -0.2137827082 0.9744507029
4800271200.0 -0.2012064713 0.9770826876
4850270900.0 -0.1872231967 0.9799634071
4900270600.0 -0.1734396898 0.9825899781
4950270300.0 -0.1591973702 0.9849344075
5000270000.0 -0.1448901082 0.9869865155
5050269700.0 -0.131267961 0.9886980401
5100269400.0 -0.1177690954 0.9905265434
5150269100.0 -0.1045524913 0.9918987905
5200268800.0 -0.0909133171 0.9929812405
5250268500.0 -0.0780092615 0.9940765197
5300268200.0 -0.0649205003 0.9944884734
5350267900.0 -0.0524082836 0.9954218575
5400267600.0 -0.0362184626 0.9963208943
5450267300.0 -0.0231555396 0.997073141
5500267000.0 -0.0081222389 0.9971022071
5550266700.0 0.0067485863 0.9972727089
5600266400.0 0.0223529917 0.9970198455
5650266100.0 0.0389874111 0.9968693494
5700265800.0 0.0533430216 0.9961530338
5750265500.0 0.0685870844 0.9953430676
5800265200.0 0.0821293304 0.9940328779
5850264900.0 0.0959622336 0.993227642
5900264600.0 0.1124503069 0.9919451499
5950264300.0 0.1242225748 0.9901888666
6000264000.0 0.1380231283 0.9878275504
6050263700.0 0.1505493426 0.9868228996
6100263400.0 0.1628817697 0.9850547224
6150263100.0 0.1774758713 0.9827133154
6200262800.0 0.1879338616 0.9808501382
6250262500.0 0.2004388852 0.9783872353
6300262200.0 0.213477526 0.9758220334
6350261900.0 0.2263819335 0.9729475482
6400261600.0 0.2404101793 0.9697165552
6450261300.0 0.2515518404 0.9667094858
6500261000.0 0.2644429402 0.963388494
6550260700.0 0.2773929993 0.9594654053
6600260400.0 0.2907772444 0.955235128
6650260100.0 0.3049273389 0.9510294985
6700259800.0 0.3169935162 0.9467569661
6750259500.0 0.3308505575 0.9420889603
6800259200.0 0.343613184 0.9368240123
6850258900.0 0.3554692244 0.9314026113
6900258600.0 0.3679238011 0.9268055831
6950258300.0 0.3807911447 0.9216104527
7000258000.0 0.3923508891 0.9158219693
7050257700.0 0.4046895224 0.9098832913
7100257400.0 0.4175011528 0.9035502535
7150257100.0 0.4278982652 0.8982965136
7200256800.0 0.4407446718 0.892136172
7250256500.0 0.4526914832 0.8856902359
7300256200.0 0.4658741326 0.8789357091
7350255900.0 0.4779107659 0.8718462919
7400255600.0 0.4913467361 0.8648044693
7450255300.0 0.5064909885 0.8555599982
7500255000.0 0.5185046367 0.8486789148
7550254700.0 0.5325966131 0.8402537745
7600254400.0 0.5452940542 0.8319144544
7650254100.0 0.5566123984 0.8238216813
7700253800.0 0.56813618 0.8159909426
7750253500.0 0.5795717462 0.8085284882
7800253200.0 0.5901886478 0.8006419862
7850252900.0 0.6000978932 0.7936433146
7900252600.0 0.6117244592 0.7846998573
7950252300.0 0.6204830771 0.7781580479
8000252000.0 0.6305240569 0.7706580751
8050251700.0 0.6410651491 0.7623079
8100251400.0 0.6512848151 0.7542737129
8150251100.0 0.6609792535 0.7457033407
8200250800.0 0.6706777181 0.7376879701
8250250500.0 0.6798695342 0.7296724808
8300250200.0 0.6887402023 0.721233574
8350249900.0 0.6981776881 0.71259562
8400249600.0 0.7061547035 0.7044052257
8450249300.0 0.7153977003 0.6951926979
8500249000.0 0.7239223662 0.6863235691
8550248700.0 0.7322340494 0.6772133206
8600248400.0 0.7407338931 0.6678632382
8650248100.0 0.7484814338 0.6582483038
8700247800.0 0.7578832359 0.6470724034
8750247500.0 0.7661776061 0.6369781656
8800247200.0 0.7745304183 0.6265426922
8850246900.0 0.7831629646 0.6153194874
8900246600.0 0.7916162217 0.6037192116
8950246300.0 0.8009809538 0.5908075087
9000246000.0 0.8102067867 0.578386519
9050245700.0 0.8196142951 0.565113394
9100245400.0 0.828074895 0.5529439863
9150245100.0 0.8374729628 0.5394002907
9200244800.0 0.8470452312 0.5244150678
9250244500.0 0.8563437638 0.5089408986
9300244200.0 0.864798341 0.494235321
9350243900.0 0.8726037954 0.4805064689
9400243600.0 0.8793020407 0.468301432
9450243300.0 0.8851219899 0.4566489749
9500243000.0 0.891523366 0.4445170681
9550242700.0 0.8951497334 0.4370089344
9600242400.0 0.8990222512 0.4296335156
9650242100.0 0.9030427281 0.422872883
9700241800.0 0.9075661153 0.4145943755
9750241500.0 0.9113453137 0.4070654986
9800241200.0 0.9162383263 0.3979242814
9850240900.0 0.9220774692 0.3862439445
9900240600.0 0.9274545864 0.374849047
9950240300.0 0.9340188672 0.3588000819
10000240000.0 0.9389741561 0.3472011585
10050239700.0 0.9442191207 0.3320504924
10100239400.0 0.9494964041 0.3160745548
10150239100.0 0.9539390877 0.3015674304
10200238800.0 0.9579540571 0.2863512339
10250238500.0 0.9614721217 0.2731694471
10300238200.0 0.9645259432 0.2591694528
10350237900.0 0.9674393654 0.2458066451
10400237600.0 0.9698235536 0.2327260639
10450237300.0 0.9725977213 0.2189875316
10500237000.0 0.9744562464 0.2068642012
10550236700.0 0.9768824352 0.1929797968
10600236400.0 0.9790088021 0.1791595548
10650236100.0 0.9814089609 0.1643365149
10700235800.0 0.9832711253 0.1520727851
10750235500.0 0.9855366995 0.1386833653
10800235200.0 0.98777345 0.1244322632
10850234900.0 0.9898049676 0.1096419513
10900234600.0 0.9917678912 0.0952946987
10950234300.0 0.9935328287 0.0820699145
11000234000.0 0.9951381439 0.0668382546
11050233700.0 0.9969868372 0.050598431
11100233400.0 0.9985449219 0.0333077842
11150233100.0 0.9990769111 0.0173095071
11200232800.0 1.000546528 0.0012034246
11250232500.0 1.001334375 -0.0146663324
11300232200.0 1.00232706 -0.0316605423
11350231900.0 1.001436623 -0.048150837
11400231600.0 1.001467833 -0.0637082839
11450231300.0 1.000703509 -0.0789282008
11500231000.0 0.9995591528 -0.0960054769
11550230700.0 0.9982568774 -0.1085205697
11600230400.0 0.9971091589 -0.1211297391
11650230100.0 0.9950112438 -0.1327904491
11700229800.0 0.9932735172 -0.1474144495
11750229500.0 0.9907881506 -0.1618710612
11800229200.0 0.9882807902 -0.1756074979
11850228900.0 0.9846758747 -0.188068818
11900228600.0 0.9812159416 -0.1978955291
11950228300.0 0.9776552055 -0.2086838503
12000228000.0 0.9754816683 -0.2168314526
12050227700.0 0.9714706753 -0.2298547697
12100227400.0 0.968409536 -0.2415592418
12150227100.0 0.9634336826 -0.258064471
12200226800.0 0.9604760048 -0.268182451
12250226500.0 0.9558801228 -0.2819756668
12300226200.0 0.951340567 -0.2932363226
12350225900.0 0.9463813942 -0.3080720746
12400225600.0 0.9422583963 -0.3208683192
12450225300.0 0.9376030769 -0.3335816572
12500225000.0 0.9321443808 -0.3479112286
12550224700.0 0.9270365763 -0.3622056461
12600224400.0 0.9219414218 -0.3751003721
12650224100.0 0.9161455961 -0.3894060353
12700223800.0 0.9109472001 -0.4022138801
12750223500.0 0.9053081973 -0.415592854
12800223200.0 0.9000681293 -0.4280310438
12850222900.0 0.8948239393 -0.4403534135
12900222600.0 0.8888224268 -0.4522418851
12950222300.0 0.8828036736 -0.4649969365
13000222000.0 0.8769601055 -0.476245891
13050221700.0 0.8700385734 -0.4890119452
13100221400.0 0.8633268311 -0.501309371
13150221100.0 0.8569073906 -0.5131118037
13200220800.0 0.8498043029 -0.5243450322
13250220500.0 0.8425673411 -0.5368968874
13300220200.0 0.8350157419 -0.5478803048
13350219900.0 0.8271841118 -0.5596356857
13400219600.0 0.8189416133 -0.5714819643
13450219300.0 0.8095591578 -0.5848181881
13500219000.0 0.799602102 -0.5989795081
13550218700.0 0.7888815038 -0.6118976994
13600218400.0 0.7794166449 -0.6234204004
13650218100.0 0.7693188522 -0.6346357631
13700217800.0 0.7584942415 -0.6462042237
13750217500.0 0.7491371544 -0.6581624139
13800217200.0 0.738173309 -0.6698135634
13850216900.0 0.7265528402 -0.6812442863
13900216600.0 0.7165770871 -0.690288546
13950216300.0 0.7060914306 -0.7009515654
14000216000.0 0.6958968626 -0.7102268837
14050215700.0 0.6863807051 -0.718106939
14100215400.0 0.6765206017 -0.7272942505
14150215100.0 0.6672090253 -0.7358045144
14200214800.0 0.6578096282 -0.7446074647
14250214500.0 0.6475678307 -0.754084616
14300214200.0 0.6370702221 -0.7633938335
14350213900.0 0.6259030485 -0.7728297984
14400213600.0 0.6139390539 -0.7830024579
14450213300.0 0.6011586719 -0.7931093831
14500213000.0 0.5878929996 -0.8030497295
14550212700.0 0.5752340546 -0.8127218825
14600212400.0 0.5632168161 -0.8209466923
14650212100.0 0.5501570287 -0.8303157579
14700211800.0 0.5360088229 -0.8393402393
14750211500.0 0.5239062453 -0.8479007882
14800211200.0 0.5120008831 -0.8554686681
14850210900.0 0.4997162013 -0.8632402518
14900210600.0 0.4865426029 -0.8711704035
14950210300.0 0.4729996652 -0.8787021404
15000210000.0 0.4603932551 -0.8853665755
15050209700.0 0.4481222051 -0.8917551899
15100209400.0 0.4353596293 -0.8978421437
15150209100.0 0.4232114379 -0.9029738397
15200208800.0 0.4099690539 -0.908665411
15250208500.0 0.3997338927 -0.9131419233
15300208200.0 0.3865505599 -0.9175514833
15350207900.0 0.3738475434 -0.9223617556
15400207600.0 0.3591532632 -0.9274194442
15450207300.0 0.3439795759 -0.932886158
15500207000.0 0.3301120275 -0.9374531793
15550206700.0 0.3157483915 -0.9420279767
15600206400.0 0.2994021011 -0.9470578173
15650206100.0 0.2837635981 -0.9512291773
15700205800.0 0.2695392123 -0.9548305491
15750205500.0 0.2550335126 -0.9584738238
15800205200.0 0.2406178522 -0.9619083522
15850204900.0 0.2261673609 -0.9653999711
15900204600.0 0.2111555416 -0.9690111001
15950204300.0 0.1968925588 -0.9719863685
16000204000.0 0.1830042926 -0.9748149733
16050203700.0 0.1680263324 -0.9779027005
16100203400.0 0.1531217912 -0.9796532891
16150203100.0 0.1390297676 -0.9823549691
16200202800.0 0.1246144247 -0.9847731063
16250202500.0 0.109983249 -0.9859161366
16300202200.0 0.094805325 -0.987752126
16350201900.0 0.079548614 -0.9889286395
16400201600.0 0.0647754664 -0.9902403546
16450201300.0 0.0497104565 -0.9913697763
16500201000.0 0.0329640463 -0.9920183161
16550200700.0 0.0174105826 -0.9927126391
16600200400.0 0.0016285734 -0.9926820944
16650200100.0 -0.0143415082 -0.9927465
16700199800.0 -0.0305805562 -0.9923239957
16750199500.0 -0.0487527509 -0.9918677056
16800199200.0 -0.0645901425 -0.9911075858
16850198900.0 -0.0803310138 -0.9892729323
16900198600.0 -0.0935183287 -0.9885482212
16950198300.0 -0.1074164915 -0.9878797565
17000198000.0 -0.1206682121 -0.9855702399
17050197700.0 -0.1327411233 -0.9843466312
17100197400.0 -0.1459095454 -0.9823347277
17150197100.0 -0.158655751 -0.9803075262
17200196800.0 -0.171354208 -0.9783410175
17250196500.0 -0.1845376475 -0.9760158868
17300196200.0 -0.1966257421 -0.9737726697
17350195900.0 -0.2083985124 -0.9713743241
17400195600.0 -0.2207011644 -0.9686986292
17450195300.0 -0.2338182063 -0.9659630357
17500195000.0 -0.2472773607 -0.9625656223
17550194700.0 -0.2611505987 -0.9592718448
17600194400.0 -0.2750431264 -0.9552243422
17650194100.0 -0.2890067408 -0.9507963119
17700193800.0 -0.3017768007 -0.9468364807
17750193500.0 -0.3164329682 -0.9425530731
17800193200.0 -0.3307497739 -0.9367885536
17850192900.0 -0.3457404809 -0.9316712007
17900192600.0 -0.3609502656 -0.925505434
17950192300.0 -0.3759762085 -0.9185035798
18000192000.0 -0.3912299783 -0.9114484919
18050191700.0 -0.4051191159 -0.9035295034
18100191400.0 -0.4194272644 -0.8957274298
18150191100.0 -0.4343009444 -0.8877995184
18200190800.0 -0.4512886946 -0.8787520188
18250190500.0 -0.4683505305 -0.8691033478
18300190200.0 -0.483592992 -0.8604176038
18350189900.0 -0.499010172 -0.8524450847
18400189600.0 -0.5132826302 -0.8436783581
18450189300.0 -0.5259416262 -0.8362919248
18500189000.0 -0.5399052491 -0.8280039199
18550188700.0 -0.5523814355 -0.8205583101
18600188400.0 -0.5639623417 -0.8139424572
18650188100.0 -0.5752998239 -0.8073841507
18700187800.0 -0.5858393116 -0.8006331677
18750187500.0 -0.5961534347 -0.794206434
18800187200.0 -0.6068048565 -0.7872284853
18850186900.0 -0.6171796432 -0.7803404427
18900186600.0 -0.6272633431 -0.7730889941
18950186300.0 -0.6374101909 -0.7654088521
19000186000.0 -0.6449047616 -0.7595608271
19050185700.0 -0.6538669345 -0.7517128975
19100185400.0 -0.6633200581 -0.7435277275
19150185100.0 -0.6737987889 -0.7349976046
19200184800.0 -0.6828809718 -0.7270407072
19250184500.0 -0.6935045837 -0.7175554216
19300184200.0 -0.7054235973 -0.7075881233
19350183900.0 -0.715905676 -0.6984546321
19400183600.0 -0.72579248 -0.6886671532
19450183300.0 -0.7343625238 -0.678481156
19500183000.0 -0.7426292159 -0.668442272
19550182700.0 -0.7525539272 -0.6573661337
19600182400.0 -0.7633886137 -0.645813836
19650182100.0 -0.7738307235 -0.6336093255
19700181800.0 -0.7845737207 -0.6199939861
19750181500.0 -0.7951839699 -0.6060547579
19800181200.0 -0.8055341492 -0.591168612
19850180900.0 -0.8153179339 -0.5758836053
19900180600.0 -0.8231927601 -0.5612926049
19950180300.0 -0.8325415103 -0.5449695893
20000180000.0 -0.8262244143 -0.5478893595
20050179700.0 -0.8341200685 -0.5336697584
20100179400.0 -0.8421719562 -0.520575134
20150179100.0 -0.8498906794 -0.5079856547
20200178800.0 -0.859156865 -0.4953035243
20250178500.0 -0.8689705966 -0.4819924325
20300178200.0 -0.878781734 -0.4675176453
20350177900.0 -0.8869813064 -0.4527144991
20400177600.0 -0.8962973534 -0.4382749844
20450177300.0 -0.9045766104 -0.4238678274
20500177000.0 -0.9124520836 -0.410206458
20550176700.0 -0.9206808331 -0.3967819258
20600176400.0 -0.927415617 -0.3837797414
20650176100.0 -0.9339681643 -0.3710845102
20700175800.0 -0.9404187985 -0.3594902476
20750175500.0 -0.9471114941 -0.3479135553
20800175200.0 -0.9517930013 -0.3369783604
20850174900.0 -0.9566740438 -0.3266721408
20900174600.0 -0.9607778844 -0.31475129
20950174300.0 -0.9643609458 -0.3032159574
21000174000.0 -0.9685683919 -0.29151286
21050173700.0 -0.9714461942 -0.2813457515
21100173400.0 -0.9759434072 -0.2693767836
21150173100.0 -0.9796140433 -0.2567752542
21200172800.0 -0.9830935611 -0.2431009744
21250172500.0 -0.9860227165 -0.2297094867
21300172200.0 -0.9890969985 -0.2159893679
21350171900.0 -0.9903987462 -0.2013910993
21400171600.0 -0.9918452481 -0.1874444225
21450171300.0 -0.9924707026 -0.1722114693
21500171000.0 -0.9922808285 -0.1573732047
21550170700.0 -0.992317145 -0.1423080057
21600170400.0 -0.992256324 -0.125755324
21650170100.0 -0.9922500243 -0.1101124317
21700169800.0 -0.9887611067 -0.0953008668
21750169500.0 -0.989249964 -0.0799804194
21800169200.0 -0.9889022123 -0.0633155592
21850168900.0 -0.9872852072 -0.0467719989
21900168600.0 -0.9861920869 -0.0301455873
21950168300.0 -0.9854713563 -0.0137976059
22000168000.0 -0.9844965885 0.0015263507
22050167700.0 -0.9842594792 0.0156252669
22100167400.0 -0.9843968532 0.0305090123
22150167100.0 -0.9851999187 0.0465422418
22200166800.0 -0.9859035691 0.062492968
22250166500.0 -0.9849704174 0.0796323935
22300166200.0 -0.9836591344 0.0959208641
22350165900.0 -0.9828841629 0.1137002654
22400165600.0 -0.9812922087 0.1282305325
22450165300.0 -0.9796525918 0.1437943258
22500165000.0 -0.9773339001 0.1578478932
22550164700.0 -0.9762367916 0.1722159598
22600164400.0 -0.9749285813 0.1885909923
22650164100.0 -0.9720607486 0.2031073686
22700163800.0 -0.9695454877 0.2189927095
22750163500.0 -0.9675666186 0.2335046559
22800163200.0 -0.964320837 0.2468315961
22850162900.0 -0.9619232043 0.2605440081
22900162600.0 -0.9606273087 0.2737026649
22950162300.0 -0.9593635394 0.2866618895
23000162000.0 -0.9582026607 0.2989379644
23050161700.0 -0.9561073584 0.3115109958
23100161400.0 -0.953234231 0.3246561812
23150161100.0 -0.9509121136 0.336682574
23200160800.0 -0.9474953414 0.3494048172
23250160500.0 -0.9458224509 0.3613307879
23300160200.0 -0.9428387571 0.3731979017
23350159900.0 -0.9386838055 0.386641934
23400159600.0 -0.9340196391 0.3990161356
23450159300.0 -0.9294799434 0.4130774466
23500159000.0 -0.9250563967 0.4258074835
23550158700.0 -0.9203662953 0.4387784032
23600158400.0 -0.914811909 0.4522764612
23650158100.0 -0.9084356829 0.4665294169
23700157800.0 -0.9008792937 0.4805233063
23750157500.0 -0.891993887 0.4944388719
23800157200.0 -0.8836092281 0.5080521371
23850156900.0 -0.8744852315 0.5210762059
23900156600.0 -0.8654953613 0.5331698679
23950156300.0 -0.8564888328 0.5453207371
24000156000.0 -0.8463085363 0.5573168439
24050155700.0 -0.8369258903 0.5690230913
24100155400.0 -0.8269083812 0.5816641588
24150155100.0 -0.8167671229 0.5939776943
24200154800.0 -0.8061520543 0.6045867875
24250154500.0 -0.7944962006 0.6164888143
24300154200.0 -0.7828651203 0.628151859
24350153900.0 -0.7710873898 0.6387835626
24400153600.0 -0.7589850407 0.6485562368
24450153300.0 -0.7473464203 0.6586756214
24500153000.0 -0.735532019 0.6681534516
24550152700.0 -0.7244379781 0.6776537477
24600152400.0 -0.7132117593 0.6872384946
24650152100.0 -0.7012840737 0.6960236807
