!Created with skrf (http://scikit-rf.org).
# Hz S RI R 50.0 
!freq ReS11 ImS11
300000.0 -0.9765735753 -0.1172472815
50299700.0 -0.9999416335 0.0153630033
100299400.0 -0.9980535766 0.0284439569
150299100.0 -1.002870804 0.0454999206
200298800.0 -0.9995848457 0.058451691
250298500.0 -0.9975645323 0.0719057219
300298200.0 -0.9860400634 0.0879175375
350297900.0 -0.9940953152 0.0988404747
400297600.0 -0.9931261765 0.1154280736
450297300.0 -0.9911319465 0.1291878614
500297000.0 -0.9893177814 0.1438550671
550296700.0 -0.9843605587 0.1562682602
600296400.0 -1.017338314 0.1895577401
650296100.0 -0.9820782916 0.1863780993
700295800.0 -0.9793549326 0.2005391605
750295500.0 -0.9762695407 0.2146167662
800295200.0 -0.9730390599 0.2285345867
850294900.0 -0.969557678 0.2423431388
900294600.0 -0.9659344724 0.255977569
950294300.0 -0.9619651753 0.2698417857
1000294000.0 -0.9580842937 0.2836745374
1050293700.0 -0.9536393092 0.2976482877
1100293400.0 -0.9491787014 0.3119820133
1150293100.0 -0.9455196244 0.3241333449
1200292800.0 -0.9401071957 0.3382704471
1250292500.0 -0.9346768367 0.3515929895
1300292200.0 -0.928866366 0.3649289618
1350291900.0 -0.9233372514 0.3790284056
1400291600.0 -0.9177843514 0.3921290892
1450291300.0 -0.9124749742 0.40444023
1500291000.0 -0.9061517702 0.417859449
1550290700.0 -0.8996316126 0.4310842321
1600290400.0 -0.8933473188 0.4439273235
1650290100.0 -0.8867715313 0.4561452623
1700289800.0 -0.8798283891 0.4696206594
1750289500.0 -0.8728291443 0.4818329352
1800289200.0 -0.8654115799 0.4949292693
1850288900.0 -0.8587125427 0.5062706286
1900288600.0 -0.8509868919 0.5193034189
1950288300.0 -0.8427870898 0.5317185769
2000288000.0 -0.8353627936 0.543119342
2050287700.0 -0.8269618696 0.5553843467
2100287400.0 -0.8192263224 0.5671151745
2150287100.0 -0.8105856174 0.5793012022
2200286800.0 -0.8027786619 0.5895333344
2250286500.0 -0.794239153 0.6014702196
2300286200.0 -0.7851743883 0.6130721644
2350285900.0 -0.7763698384 0.6242123518
2400285600.0 -0.7673171961 0.6351263347
2450285300.0 -0.7588856809 0.6454935226
2500285000.0 -0.7491176981 0.6569054904
2550284700.0 -0.7401575738 0.6671248903
2600284400.0 -0.7309103062 0.6773652038
2650284100.0 -0.7217917835 0.6874934671
2700283800.0 -0.7111037297 0.6984269232
2750283500.0 -0.7008612521 0.7089339372
2800283200.0 -0.6910934474 0.7185577826
2850282900.0 -0.6810228821 0.7286348987
2900282600.0 -0.6705447628 0.7380902026
2950282300.0 -0.6604120263 0.7473403433
3000282000.0 -0.6499091104 0.7567194596
3050281700.0 -0.6386443973 0.766118119
3100281400.0 -0.6266298999 0.7753995668
3150281100.0 -0.6147659068 0.7846771889
3200280800.0 -0.6032747145 0.7933048004
3250280500.0 -0.592158781 0.8009166905
3300280200.0 -0.5810956448 0.8087712001
3350279900.0 -0.5695983693 0.8164276102
3400279600.0 -0.5574274084 0.8242463896
3450279300.0 -0.5463634545 0.8312363609
3500279000.0 -0.5342354215 0.838129655
3550278700.0 -0.52181984 0.8456420815
3600278400.0 -0.5097876564 0.8527617895
3650278100.0 -0.4963456613 0.8601751266
3700277800.0 -0.4843478537 0.8667590673
3750277500.0 -0.4721880683 0.8734133931
3800277200.0 -0.4596838954 0.8799577969
3850276900.0 -0.4474425861 0.8858143496
3900276600.0 -0.4368302184 0.8914834077
3950276300.0 -0.4242758307 0.8974588382
4000276000.0 -0.4121712678 0.9034934518
4050275700.0 -0.3993968847 0.9097108285
4100275400.0 -0.38825412 0.9150352844
4150275100.0 -0.3756968852 0.9208571258
4200274800.0 -0.3626750735 0.9261411516
4250274500.0 -0.3505234177 0.9313954945
4300274200.0 -0.3374166428 0.9367764778
4350273900.0 -0.3236930202 0.9417776359
4400273600.0 -0.3089032814 0.9472486144
4450273300.0 -0.2933158047 0.9521836984
4500273000.0 -0.2798224892 0.9566561045
4550272700.0 -0.2657135068 0.9610607584
4600272400.0 -0.2501659572 0.965079993
4650272100.0 -0.2384960483 0.9683972137
4700271800.0 -0.2251535948 0.9716938335
4750271500.0 -0.213336516 0.9744686667
4800271200.0 -0.2009784174 0.9773830092
4850270900.0 -0.186943222 0.9800799447
4900270600.0 -0.1731954746 0.9824665084
4950270300.0 -0.1588388897 0.984955038
5000270000.0 -0.1447261758 0.9872059574
5050269700.0 -0.1311819537 0.9885216006
5100269400.0 -0.1174338173 0.990555182
5150269100.0 -0.1041212963 0.9920386152
5200268800.0 -0.0909115943 0.9931443101
5250268500.0 -0.0776878238 0.9937721818
5300268200.0 -0.0646039663 0.9945213816
5350267900.0 -0.0522722002 0.9951673556
5400267600.0 -0.0361225282 0.9965744374
5450267300.0 -0.023016817 0.9966236539
5500267000.0 -0.0078773565 0.9971173351
5550266700.0 0.0070245411 0.9974684935
5600266400.0 0.0227044117 0.9975734216
5650266100.0 0.0389478608 0.9969238373
5700265800.0 0.0534885377 0.9961887629
5750265500.0 0.0688165806 0.9955365754
5800265200.0 0.0827935246 0.9944270095
5850264900.0 0.0959824945 0.9933692405
5900264600.0 0.1125071656 0.9916410118
5950264300.0 0.1247655823 0.9899528191
6000264000.0 0.1384509595 0.9882917425
6050263700.0 0.1509597203 0.9869938416
6100263400.0 0.1634018601 0.9849788488
6150263100.0 0.1779342863 0.9826703894
6200262800.0 0.1884508369 0.9807189925
6250262500.0 0.2009937496 0.9784873159
6300262200.0 0.2136493649 0.9757656603
6350261900.0 0.2267588784 0.9727023938
6400261600.0 0.2406506956 0.9695455089
6450261300.0 0.252023388 0.966683561
6500261000.0 0.2649762932 0.9633340348
6550260700.0 0.2776616653 0.959205644
6600260400.0 0.2914250807 0.9551616798
6650260100.0 0.3052465582 0.9505804836
6700259800.0 0.3169643096 0.9467647853
6750259500.0 0.3306351231 0.9413320196
6800259200.0 0.3440824628 0.9366942112
6850258900.0 0.35594566 0.9313858618
6900258600.0 0.3683447866 0.9266038818
6950258300.0 0.3807449747 0.9211404567
7000258000.0 0.392699566 0.9157753088
7050257700.0 0.4050402378 0.9095769245
7100257400.0 0.417724937 0.9035590382
7150257100.0 0.4281966503 0.8982601403
7200256800.0 0.4413063937 0.891833083
7250256500.0 0.4526280484 0.8853153258
7300256200.0 0.4659153485 0.8788562323
7350255900.0 0.4783399438 0.8718294366
7400255600.0 0.4916046904 0.8646735436
7450255300.0 0.5069224632 0.8555733728
7500255000.0 0.5185090482 0.8485839214
7550254700.0 0.5321561175 0.8400985698
7600254400.0 0.5446455542 0.8317950099
7650254100.0 0.5564086692 0.8239750477
7700253800.0 0.568436608 0.816128689
7750253500.0 0.5798907198 0.8084798905
7800253200.0 0.5903383442 0.8007199105
7850252900.0 0.5998259251 0.7935113832
7900252600.0 0.6116851187 0.7848646734
7950252300.0 0.6204876586 0.7783984378
8000252000.0 0.6306468428 0.7706740063
8050251700.0 0.6412016267 0.7623289514
8100251400.0 0.6512683812 0.7541708542
8150251100.0 0.6611433002 0.7455004737
8200250800.0 0.6704762794 0.7376326449
8250250500.0 0.6793008173 0.7298562864
8300250200.0 0.6888621981 0.7212412483
8350249900.0 0.6978651987 0.7125607898
8400249600.0 0.7063799172 0.7044332723
8450249300.0 0.7154459566 0.6951312445
8500249000.0 0.7238398309 0.6863598721
8550248700.0 0.7323615945 0.6773806908
8600248400.0 0.7406466605 0.6677762772
8650248100.0 0.7484111415 0.6581710021
8700247800.0 0.757923752 0.6470803496
8750247500.0 0.7663575503 0.6369963554
8800247200.0 0.7744106014 0.626388559
8850246900.0 0.7832599534 0.6151034524
8900246600.0 0.7918080579 0.6037023828
8950246300.0 0.8015058451 0.5908078232
9000246000.0 0.8105839533 0.5781970817
9050245700.0 0.8199481658 0.5649808241
9100245400.0 0.828464038 0.5525240694
9150245100.0 0.8376130452 0.5389680671
9200244800.0 0.847221754 0.5237730057
9250244500.0 0.8570377397 0.5081423868
9300244200.0 0.8652610592 0.4936823676
9350243900.0 0.8728133926 0.479838466
9400243600.0 0.8797476408 0.4674096734
9450243300.0 0.885593432 0.4557896189
9500243000.0 0.8919447159 0.4436496377
9550242700.0 0.8956163612 0.4360213312
9600242400.0 0.89952468 0.428670581
9650242100.0 0.903148213 0.4222425631
9700241800.0 0.9075909792 0.4140865493
9750241500.0 0.9118899904 0.4064230147
9800241200.0 0.9161779854 0.397416645
9850240900.0 0.9222756891 0.3853531496
9900240600.0 0.9278871287 0.373967539
9950240300.0 0.9344522449 0.3577278116
10000240000.0 0.9386582097 0.3464253136
10050239700.0 0.9443302724 0.3315994126
10100239400.0 0.9494425293 0.3155742907
10150239100.0 0.9538707249 0.3009201586
10200238800.0 0.9582928906 0.286084821
10250238500.0 0.9612887454 0.2727013521
10300238200.0 0.9645636904 0.2587231521
10350237900.0 0.9672950994 0.2455726687
10400237600.0 0.9696159295 0.2325475614
10450237300.0 0.9723579918 0.2189900155
10500237000.0 0.9749865656 0.2057961962
10550236700.0 0.976706542 0.1925054194
10600236400.0 0.9793030917 0.1786139672
10650236100.0 0.9811532255 0.1646569211
10700235800.0 0.9827450837 0.1525554707
10750235500.0 0.9859528917 0.1383822153
10800235200.0 0.987657807 0.1243523503
10850234900.0 0.9895778614 0.109852491
10900234600.0 0.9915385253 0.0953726353
10950234300.0 0.9933684776 0.0822288692
11000234000.0 0.9951367685 0.0669396709
11050233700.0 0.9970021126 0.0504651964
11100233400.0 0.9983422546 0.0331360632
11150233100.0 0.9995775977 0.0169239978
11200232800.0 1.000342131 0.0021467861
11250232500.0 1.001508996 -0.0147504093
11300232200.0 1.001576299 -0.0325341462
11350231900.0 1.001761164 -0.0481074718
11400231600.0 1.001782527 -0.0635648015
11450231300.0 1.001088784 -0.0783263682
11500231000.0 0.9996378579 -0.0959895943
11550230700.0 0.9986915401 -0.1086833347
11600230400.0 0.9968410593 -0.1215754068
11650230100.0 0.9949133501 -0.1326505159
11700229800.0 0.9928303503 -0.1477336943
11750229500.0 0.9908349891 -0.1614960761
11800229200.0 0.9881225049 -0.1757084901
11850228900.0 0.9845901283 -0.187852011
11900228600.0 0.9811620114 -0.1976464615
11950228300.0 0.9775677919 -0.2085759783
12000228000.0 0.9749988753 -0.2167416066
12050227700.0 0.9714953149 -0.2300590915
12100227400.0 0.9684001776 -0.2408807954
12150227100.0 0.9637711454 -0.2576951875
12200226800.0 0.9601459499 -0.2683887769
12250226500.0 0.9562890603 -0.2810830977
12300226200.0 0.9515956803 -0.2937427127
12350225900.0 0.9463817477 -0.3073946237
12400225600.0 0.9421878272 -0.3202303804
12450225300.0 0.93813683 -0.3333421096
12500225000.0 0.9323667965 -0.3482643012
12550224700.0 0.9271434045 -0.3622672392
12600224400.0 0.922199749 -0.3748877787
12650224100.0 0.916343259 -0.3894177263
12700223800.0 0.9110877977 -0.4018872083
12750223500.0 0.9054707782 -0.4152152405
12800223200.0 0.9003497621 -0.4276604206
12850222900.0 0.8948679614 -0.4401238024
12900222600.0 0.8891165877 -0.4523243168
12950222300.0 0.8831658105 -0.4645153134
13000222000.0 0.8770927159 -0.4763843443
13050221700.0 0.870060889 -0.4890445868
13100221400.0 0.8637069972 -0.5008243768
13150221100.0 0.8568740522 -0.5134514134
13200220800.0 0.8496979454 -0.5246508623
13250220500.0 0.8425073973 -0.5367486554
13300220200.0 0.8351494385 -0.5474850125
13350219900.0 0.8272701884 -0.5592194545
13400219600.0 0.8189752669 -0.5714188486
13450219300.0 0.8093864207 -0.5848786904
13500219000.0 0.7996634735 -0.5987988797
13550218700.0 0.7890501671 -0.6113901946
13600218400.0 0.7789748225 -0.6240433816
13650218100.0 0.7689439651 -0.6352843014
13700217800.0 0.757891704 -0.6471731874
13750217500.0 0.7480251608 -0.6584658278
13800217200.0 0.7368413367 -0.6702412081
13850216900.0 0.7261315058 -0.6813901493
13900216600.0 0.7163173998 -0.6899146058
13950216300.0 0.7055035455 -0.7012082217
14000216000.0 0.6954206084 -0.7103306945
14050215700.0 0.6858404997 -0.7185855407
14100215400.0 0.6759638408 -0.7273898552
14150215100.0 0.6667301482 -0.7365106
14200214800.0 0.6573864059 -0.7448920977
14250214500.0 0.6471248267 -0.7543657724
14300214200.0 0.636702433 -0.7638644728
14350213900.0 0.6257375012 -0.7734294863
14400213600.0 0.6137384729 -0.7832614048
14450213300.0 0.6005194163 -0.7933235759
14500213000.0 0.5873420106 -0.8031795186
14550212700.0 0.5751020583 -0.8125444261
14600212400.0 0.5623782769 -0.8216089454
14650212100.0 0.5495773781 -0.8299199626
14700211800.0 0.5357072481 -0.8396610861
14750211500.0 0.5239784649 -0.8476510458
14800211200.0 0.5116317833 -0.8558936372
14850210900.0 0.4992702689 -0.8632102107
14900210600.0 0.4861557417 -0.8712723484
14950210300.0 0.4728901355 -0.8790124331
15000210000.0 0.4601895169 -0.885866941
15050209700.0 0.447458233 -0.8915003382
15100209400.0 0.4352214912 -0.8980960279
15150209100.0 0.4229250161 -0.9032053
15200208800.0 0.4094332695 -0.9086736773
15250208500.0 0.3993785605 -0.9129966323
15300208200.0 0.3864097696 -0.9179294637
15350207900.0 0.3741088419 -0.9223936365
15400207600.0 0.3581193931 -0.9286865002
15450207300.0 0.3437468625 -0.9327733356
15500207000.0 0.328754247 -0.9375882897
15550206700.0 0.3144379755 -0.9427073527
15600206400.0 0.2988643396 -0.9471096225
15650206100.0 0.2832992947 -0.9513183575
15700205800.0 0.2687851109 -0.9550203631
15750205500.0 0.2544932012 -0.9586706151
15800205200.0 0.2400932738 -0.9620382194
15850204900.0 0.2255661953 -0.9655539543
15900204600.0 0.2106642425 -0.9691306671
15950204300.0 0.1963657582 -0.9722050416
16000204000.0 0.1823694857 -0.9749273021
16050203700.0 0.167370229 -0.9775873274
16100203400.0 0.1526981166 -0.9801598809
16150203100.0 0.1382452382 -0.9825087137
16200202800.0 0.1241822053 -0.9843135063
16250202500.0 0.1097771204 -0.9858305093
16300202200.0 0.0944824955 -0.9878189298
16350201900.0 0.0791566223 -0.9896051144
16400201600.0 0.0644992511 -0.990022009
16450201300.0 0.0493666519 -0.9912549533
16500201000.0 0.0327928174 -0.9920808486
16550200700.0 0.017092251 -0.9927155103
16600200400.0 0.0014704443 -0.9925446378
16650200100.0 -0.0146402199 -0.9926721254
16700199800.0 -0.0311005956 -0.9920425219
16750199500.0 -0.0499133238 -0.991657674
16800199200.0 -0.0654793863 -0.9906334499
16850198900.0 -0.0808061217 -0.9894501474
16900198600.0 -0.0943541609 -0.9889132581
16950198300.0 -0.1073793801 -0.9876558941
17000198000.0 -0.1208138177 -0.9857390653
17050197700.0 -0.1328511974 -0.9836747424
17100197400.0 -0.1460391867 -0.9821556577
17150197100.0 -0.1587423147 -0.9801939431
17200196800.0 -0.1717812686 -0.9783251384
17250196500.0 -0.1847439035 -0.9756972814
17300196200.0 -0.1966095615 -0.9734623905
17350195900.0 -0.208500291 -0.9712236732
17400195600.0 -0.2207560229 -0.9687287674
17450195300.0 -0.2340128345 -0.9656974877
17500195000.0 -0.2476582619 -0.9624983293
17550194700.0 -0.261354166 -0.958984898
17600194400.0 -0.2755981716 -0.9547849009
17650194100.0 -0.289304175 -0.9505426576
17700193800.0 -0.302303108 -0.9468810994
17750193500.0 -0.3166093814 -0.9419323498
17800193200.0 -0.3306743313 -0.9364114112
17850192900.0 -0.3459346814 -0.93154736
17900192600.0 -0.3610468856 -0.9252757035
17950192300.0 -0.3766116377 -0.9183399521
18000192000.0 -0.3914614174 -0.9111882617
18050191700.0 -0.4054591201 -0.9032892868
18100191400.0 -0.4197943734 -0.8956680678
18150191100.0 -0.4346516956 -0.8875978692
18200190800.0 -0.451647284 -0.8785148194
18250190500.0 -0.4684715496 -0.8689696402
18300190200.0 -0.4841656161 -0.8603304441
18350189900.0 -0.4987650289 -0.8519394419
18400189600.0 -0.5131859652 -0.8434348848
18450189300.0 -0.5263402438 -0.8353024367
18500189000.0 -0.5401428644 -0.8273711517
18550188700.0 -0.552430823 -0.8200960275
18600188400.0 -0.5647836691 -0.8129959087
18650188100.0 -0.5753834908 -0.8068841851
18700187800.0 -0.5859762482 -0.8004018296
18750187500.0 -0.5968239585 -0.7941191042
18800187200.0 -0.6073596576 -0.7866513704
18850186900.0 -0.6176970885 -0.7797275839
18900186600.0 -0.6279493708 -0.7724600708
18950186300.0 -0.6378950223 -0.7648537514
19000186000.0 -0.6455522611 -0.7586694908
19050185700.0 -0.6541522769 -0.7512801951
19100185400.0 -0.6638688987 -0.7432768038
19150185100.0 -0.6744980009 -0.7349743325
19200184800.0 -0.683712252 -0.7265843083
19250184500.0 -0.6944099812 -0.7166251064
19300184200.0 -0.7056366763 -0.7077488352
19350183900.0 -0.7163051592 -0.698005423
19400183600.0 -0.7258235427 -0.6885282471
19450183300.0 -0.734940905 -0.6782268276
19500183000.0 -0.7430078255 -0.6681345747
19550182700.0 -0.7532094325 -0.6567759688
19600182400.0 -0.7631128579 -0.6455213149
19650182100.0 -0.7740198659 -0.6332919082
19700181800.0 -0.7847476625 -0.6198520476
19750181500.0 -0.7953222417 -0.6057205283
19800181200.0 -0.8056989617 -0.5907535928
19850180900.0 -0.8154346839 -0.5752281472
19900180600.0 -0.8231663561 -0.5607598911
19950180300.0 -0.8326357586 -0.5445530108
20000180000.0 -0.8252159771 -0.5460980636
20050179700.0 -0.8340489793 -0.5339294148
20100179400.0 -0.8422935419 -0.5193770253
20150179100.0 -0.8511983064 -0.507553665
20200178800.0 -0.8593008188 -0.4948390668
20250178500.0 -0.8692396497 -0.4810938718
20300178200.0 -0.8788987078 -0.4659876401
20350177900.0 -0.8874454013 -0.4526963388
20400177600.0 -0.8967247956 -0.4374230102
20450177300.0 -0.9047210778 -0.4230769541
20500177000.0 -0.9129413875 -0.4092065883
20550176700.0 -0.9208532049 -0.3957728684
20600176400.0 -0.9278708186 -0.382885639
20650176100.0 -0.9343631754 -0.370360485
20700175800.0 -0.9411837403 -0.3584390905
20750175500.0 -0.9479193586 -0.3466698845
20800175200.0 -0.9526531289 -0.3357131991
20850174900.0 -0.956439121 -0.3252186907
20900174600.0 -0.9618469288 -0.3137612966
20950174300.0 -0.9652311253 -0.3010888936
21000174000.0 -0.9692375133 -0.2905527587
21050173700.0 -0.9715777019 -0.2803133185
21100173400.0 -0.9761447621 -0.2674959546
21150173100.0 -0.9801441803 -0.25551973
21200172800.0 -0.9837722831 -0.2416018332
21250172500.0 -0.9866089732 -0.2280058716
21300172200.0 -0.9894389486 -0.2146680096
21350171900.0 -0.9912229922 -0.2001724121
21400171600.0 -0.992657498 -0.1856000726
21450171300.0 -0.9925881093 -0.1713722266
21500171000.0 -0.9921745995 -0.1557650835
21550170700.0 -0.9929713718 -0.1401659589
21600170400.0 -0.9920856694 -0.1238478854
21650170100.0 -0.9914285726 -0.1091181389
21700169800.0 -0.9897226073 -0.092685442
21750169500.0 -0.9893496327 -0.075640859
21800169200.0 -0.9885824426 -0.0599962833
21850168900.0 -0.9875543466 -0.0437633081
21900168600.0 -0.9852274934 -0.0273730301
21950168300.0 -0.9847817596 -0.0124084039
22000168000.0 -0.9833070025 0.0030333873
22050167700.0 -0.98312635 0.0177417596
22100167400.0 -0.9835395935 0.0326304832
22150167100.0 -0.9838478699 0.0481543946
22200166800.0 -0.9846495377 0.0640515264
22250166500.0 -0.9842598234 0.0818429546
22300166200.0 -0.983242283 0.0978248229
22350165900.0 -0.9822887182 0.1147081615
22400165600.0 -0.9808567329 0.1290996833
22450165300.0 -0.9782737133 0.1448828766
22500165000.0 -0.9764519433 0.1591716049
22550164700.0 -0.9755046724 0.1741245701
22600164400.0 -0.9739124642 0.1905100744
22650164100.0 -0.9711506469 0.2046202329
22700163800.0 -0.9689922288 0.220417053
22750163500.0 -0.9668279922 0.2354376038
22800163200.0 -0.9637506052 0.2490574318
22850162900.0 -0.9615720289 0.2623928732
22900162600.0 -0.9598794648 0.2755735023
22950162300.0 -0.9589123839 0.2882630269
23000162000.0 -0.9578285013 0.3002458223
23050161700.0 -0.9555803078 0.3127001881
23100161400.0 -0.9534142069 0.3257153188
23150161100.0 -0.9500306474 0.337837275
23200160800.0 -0.9468579836 0.350111616
23250160500.0 -0.9456919299 0.3614973712
23300160200.0 -0.9425176255 0.3745041619
23350159900.0 -0.9383101868 0.3871340971
23400159600.0 -0.9334332877 0.3998641186
23450159300.0 -0.9291013962 0.4130406343
23500159000.0 -0.9245952631 0.4265880508
23550158700.0 -0.9200163307 0.4399282249
23600158400.0 -0.9145155073 0.4531137863
23650158100.0 -0.9082108359 0.4670925477
23700157800.0 -0.900605095 0.4809178636
23750157500.0 -0.8919052228 0.4953849776
23800157200.0 -0.8828413872 0.5083209547
23850156900.0 -0.8746241545 0.5208273578
23900156600.0 -0.8653481462 0.5335768782
23950156300.0 -0.8564551713 0.5456975261
24000156000.0 -0.8476710577 0.5577736808
24050155700.0 -0.8371590401 0.5702322346
24100155400.0 -0.8271507011 0.5823101966
24150155100.0 -0.8165915038 0.5931468415
24200154800.0 -0.8060868827 0.6049693192
24250154500.0 -0.7944695132 0.6158442404
24300154200.0 -0.7828833666 0.6279736107
24350153900.0 -0.7716250557 0.638524893
24400153600.0 -0.759066235 0.6488111585
24450153300.0 -0.7475460245 0.6585762875
24500153000.0 -0.7358233846 0.668350437
24550152700.0 -0.7243436759 0.678151521
24600152400.0 -0.7126463695 0.6874017825
24650152100.0 -0.700940815 0.6954524281
