!Created with skrf (http://scikit-rf.org).
# Hz S RI R 50.0 
!freq ReS11 ImS11
300000.0 -0.9716324609 -0.1238083061
50299700.0 -1.000014772 0.0149888546
100299400.0 -0.9979048855 0.0278277719
150299100.0 -1.002707765 0.0448257436
200298800.0 -0.9993943874 0.0581153942
250298500.0 -0.9972346264 0.0716570505
300298200.0 -0.985846352 0.0873095704
350297900.0 -0.9939530514 0.0982500633
400297600.0 -0.9930805382 0.1148277613
450297300.0 -0.9908610539 0.1286026262
500297000.0 -0.9895123115 0.1432497667
550296700.0 -0.9842738301 0.1557517773
600296400.0 -1.01730265 0.1889943082
650296100.0 -0.9822589632 0.1858098449
700295800.0 -0.9792174306 0.1999584177
750295500.0 -0.9762925345 0.2138028475
800295200.0 -0.9730152992 0.2280026582
850294900.0 -0.9697069343 0.241832853
900294600.0 -0.9659071251 0.2556332427
950294300.0 -0.9621670517 0.2693587169
1000294000.0 -0.9581520116 0.2831507325
1050293700.0 -0.9538684232 0.2970191866
1100293400.0 -0.9491461917 0.3112832113
1150293100.0 -0.9455447149 0.3232417761
1200292800.0 -0.9402145761 0.3376641858
1250292500.0 -0.9348071726 0.3510220646
1300292200.0 -0.9291278001 0.3643929615
1350291900.0 -0.9235929648 0.3783988593
1400291600.0 -0.9179722407 0.3914313294
1450291300.0 -0.9124464516 0.4039065888
1500291000.0 -0.9063021804 0.4173566648
1550290700.0 -0.899778437 0.4307012618
1600290400.0 -0.8936127144 0.4434403259
1650290100.0 -0.8867609532 0.4557001706
1700289800.0 -0.8798555318 0.4693376925
1750289500.0 -0.8729102521 0.481481655
1800289200.0 -0.8656373919 0.4944237554
1850288900.0 -0.8587351563 0.5056821276
1900288600.0 -0.8509887952 0.5186823848
1950288300.0 -0.8428698346 0.5312146064
2000288000.0 -0.8355075673 0.5426919736
2050287700.0 -0.8270061015 0.5551162907
2100287400.0 -0.8194832177 0.5663551117
2150287100.0 -0.8108929805 0.5785550954
2200286800.0 -0.803043611 0.5890719545
2250286500.0 -0.7939985734 0.6013189888
2300286200.0 -0.7853519584 0.6127518672
2350285900.0 -0.7769164314 0.6234525657
2400285600.0 -0.767971056 0.6342891369
2450285300.0 -0.7590984557 0.6451023579
2500285000.0 -0.7492300668 0.6566634616
2550284700.0 -0.7401828671 0.6667999007
2600284400.0 -0.7308767456 0.6768565399
2650284100.0 -0.7222508886 0.6869881539
2700283800.0 -0.7119654286 0.6973664399
2750283500.0 -0.7017617341 0.7083421001
2800283200.0 -0.6917684707 0.7181322367
2850282900.0 -0.6811070333 0.7281040954
2900282600.0 -0.6708655818 0.7379445644
2950282300.0 -0.6601464039 0.7471841888
3000282000.0 -0.6497127873 0.7567302567
3050281700.0 -0.6384439442 0.7660033281
3100281400.0 -0.6266839277 0.774936391
3150281100.0 -0.6157889681 0.7839489235
3200280800.0 -0.6042869159 0.7921488646
3250280500.0 -0.5932071748 0.8002263229
3300280200.0 -0.5815399474 0.8084907802
3350279900.0 -0.5691159648 0.8165574894
3400279600.0 -0.5567493878 0.8245346736
3450279300.0 -0.5455008118 0.831723692
3500279000.0 -0.533859935 0.8383909183
3550278700.0 -0.5218497989 0.8455173176
3600278400.0 -0.5099486488 0.8523514658
3650278100.0 -0.4967337655 0.8597679947
3700277800.0 -0.4847500079 0.8663961996
3750277500.0 -0.4720934598 0.8732183835
3800277200.0 -0.4598025664 0.879848268
3850276900.0 -0.4476920912 0.8856607836
3900276600.0 -0.4368461085 0.8911728583
3950276300.0 -0.4247821383 0.8973358189
4000276000.0 -0.4133810788 0.9032504343
4050275700.0 -0.4003855512 0.9091297298
4100275400.0 -0.389376936 0.9143903299
4150275100.0 -0.3761999586 0.9201882384
4200274800.0 -0.3626959003 0.926301353
4250274500.0 -0.3498477285 0.9315256039
4300274200.0 -0.3368086785 0.9368096115
4350273900.0 -0.322368175 0.9422718076
4400273600.0 -0.3075638486 0.9472445755
4450273300.0 -0.2927017176 0.9520032807
4500273000.0 -0.2796003388 0.9566398577
4550272700.0 -0.2661629021 0.9606120705
4600272400.0 -0.2510265579 0.9645905475
4650272100.0 -0.2397414872 0.9679042502
4700271800.0 -0.2267832075 0.9711080948
4750271500.0 -0.2151887727 0.9740141124
4800271200.0 -0.2030274431 0.9765674434
4850270900.0 -0.1891869254 0.979594507
4900270600.0 -0.1755742663 0.9819810961
4950270300.0 -0.160900456 0.9845257907
5000270000.0 -0.1463970604 0.9867624282
5050269700.0 -0.1329116187 0.9885907529
5100269400.0 -0.1186459582 0.9902516363
5150269100.0 -0.1046735071 0.9917408594
5200268800.0 -0.091187557 0.9927463383
5250268500.0 -0.0782392198 0.9938464829
5300268200.0 -0.0646236615 0.9947968021
5350267900.0 -0.0515212681 0.9954360506
5400267600.0 -0.0355320193 0.9964375751
5450267300.0 -0.0221770279 0.9964636819
5500267000.0 -0.0067695419 0.9969807247
5550266700.0 0.0081393404 0.9973963613
5600266400.0 0.0241351259 0.9973572745
5650266100.0 0.0409327919 0.9970005103
5700265800.0 0.0550177891 0.995790278
5750265500.0 0.0698454145 0.9952372652
5800265200.0 0.0833209678 0.9939926221
5850264900.0 0.0963375393 0.9929145073
5900264600.0 0.1131836313 0.9916187343
5950264300.0 0.1245777425 0.9896967493
6000264000.0 0.1378975776 0.9879927448
6050263700.0 0.149745545 0.9866027958
6100263400.0 0.161783139 0.9849888073
6150263100.0 0.1764270482 0.9824484093
6200262800.0 0.1860845679 0.9811789032
6250262500.0 0.198791736 0.9788323815
6300262200.0 0.2110134021 0.9762569012
6350261900.0 0.2236636859 0.9734846662
6400261600.0 0.237361031 0.9702366165
6450261300.0 0.248365823 0.9678544155
6500261000.0 0.2622044327 0.9644423529
6550260700.0 0.2748841654 0.9603940071
6600260400.0 0.2884977911 0.9562182969
6650260100.0 0.3027942052 0.9517031616
6700259800.0 0.3148736706 0.9476592601
6750259500.0 0.3285610601 0.9426941924
6800259200.0 0.342060281 0.9373392597
6850258900.0 0.3546069683 0.9320324794
6900258600.0 0.367196976 0.927021533
6950258300.0 0.379715576 0.9217789433
7000258000.0 0.391281813 0.9162663258
7050257700.0 0.4032103849 0.9105930435
7100257400.0 0.4165629761 0.9041201729
7150257100.0 0.4272213584 0.8986102618
7200256800.0 0.4404845054 0.8921948013
7250256500.0 0.4529548565 0.8856219735
7300256200.0 0.4661551257 0.8789736568
7350255900.0 0.4785026947 0.8715599258
7400255600.0 0.4930321525 0.8637625315
7450255300.0 0.5083864947 0.8549669765
7500255000.0 0.5212172796 0.8473949646
7550254700.0 0.5352588218 0.8380416733
7600254400.0 0.5480028274 0.8298855469
7650254100.0 0.5595590984 0.82210143
7700253800.0 0.5712110294 0.8139310789
7750253500.0 0.5818240926 0.8063884693
7800253200.0 0.5927410193 0.7984652651
7850252900.0 0.602516523 0.7911845417
7900252600.0 0.6138445203 0.7824026067
7950252300.0 0.6223409837 0.7760664971
8000252000.0 0.6323471669 0.7686077292
8050251700.0 0.6424780259 0.7605111315
8100251400.0 0.6525328187 0.7526116872
8150251100.0 0.6624971667 0.7440201061
8200250800.0 0.6720942707 0.7358567579
8250250500.0 0.6805960301 0.7280328124
8300250200.0 0.6898358325 0.7196954567
8350249900.0 0.6991218774 0.710789025
8400249600.0 0.7070403824 0.7027757606
8450249300.0 0.7158107674 0.694180231
8500249000.0 0.7243077742 0.6853301769
8550248700.0 0.732770508 0.6764370731
8600248400.0 0.7410753126 0.6667391461
8650248100.0 0.7486835171 0.6572609843
8700247800.0 0.7579621754 0.6462666902
8750247500.0 0.7663568622 0.6362523306
8800247200.0 0.7741962731 0.6259264563
8850246900.0 0.782939362 0.61447538
8900246600.0 0.7913577359 0.6030482038
8950246300.0 0.8007695484 0.5903707383
9000246000.0 0.8092443824 0.57846283
9050245700.0 0.8175457533 0.5661582678
9100245400.0 0.8258954454 0.553862864
9150245100.0 0.8348729128 0.5411358308
9200244800.0 0.8439501303 0.5270450135
9250244500.0 0.853228431 0.512240546
9300244200.0 0.860886001 0.4988196586
9350243900.0 0.86884168 0.4856532243
9400243600.0 0.8753867894 0.4739502104
9450243300.0 0.8808631991 0.4635217906
9500243000.0 0.8872666847 0.4519779651
9550242700.0 0.8912931346 0.4445362604
9600242400.0 0.8956139384 0.4368747415
9650242100.0 0.8995073212 0.430074194
9700241800.0 0.9047455337 0.4211013938
9750241500.0 0.9087303617 0.4137966159
9800241200.0 0.9140055574 0.4042627188
9850240900.0 0.9196276024 0.3922353571
9900240600.0 0.9258042946 0.3804636401
9950240300.0 0.9330122081 0.3636326356
10000240000.0 0.9380006923 0.3512200704
10050239700.0 0.9440486609 0.3352941543
10100239400.0 0.9493773794 0.3191185465
10150239100.0 0.9537678555 0.3034818191
10200238800.0 0.9582711842 0.2878169169
10250238500.0 0.9617335751 0.2742045884
10300238200.0 0.964740401 0.2602508658
10350237900.0 0.9675329701 0.2469128875
10400237600.0 0.9701931989 0.2335239627
10450237300.0 0.9727594256 0.2199438383
10500237000.0 0.9748115643 0.2077249317
10550236700.0 0.9777096284 0.1930403004
10600236400.0 0.9794845752 0.1786802314
10650236100.0 0.981851083 0.1644898562
10700235800.0 0.9839358972 0.1522705282
10750235500.0 0.9862158124 0.1387033667
10800235200.0 0.9882792202 0.1241185418
10850234900.0 0.9898030906 0.1094139667
10900234600.0 0.9921054692 0.0946018062
10950234300.0 0.9938818639 0.0809823786
11000234000.0 0.9956765243 0.0654243448
11050233700.0 0.9974482836 0.0487117859
11100233400.0 0.9991437156 0.0309114572
11150233100.0 1.000426086 0.0138963083
11200232800.0 1.001320783 -0.0023986484
11250232500.0 1.002081608 -0.0200763123
11300232200.0 1.002384972 -0.0390071
11350231900.0 1.001945473 -0.0544273481
11400231600.0 1.001239998 -0.0698659502
11450231300.0 1.000975949 -0.0869698892
11500231000.0 0.9998804324 -0.1021363594
11550230700.0 0.9983663307 -0.1154189183
11600230400.0 0.997171988 -0.1291849161
11650230100.0 0.9948270027 -0.1400947348
11700229800.0 0.9927825762 -0.1551717829
11750229500.0 0.9904130161 -0.1693107143
11800229200.0 0.9872230067 -0.1825963485
11850228900.0 0.9833502854 -0.194095481
11900228600.0 0.9797629374 -0.2036007367
11950228300.0 0.9765273531 -0.2137470507
12000228000.0 0.9738180801 -0.2223669396
12050227700.0 0.9699275423 -0.2347855524
12100227400.0 0.9665163224 -0.2463909234
12150227100.0 0.9614155275 -0.2634065215
12200226800.0 0.9580239287 -0.2738547666
12250226500.0 0.9536750384 -0.287633798
12300226200.0 0.9494430614 -0.2987907672
12350225900.0 0.943948656 -0.3124667123
12400225600.0 0.9395785333 -0.324616026
12450225300.0 0.9357515929 -0.3378385843
12500225000.0 0.9301537354 -0.352193698
12550224700.0 0.9245967953 -0.3659266662
12600224400.0 0.9196620805 -0.3785997057
12650224100.0 0.9139193411 -0.392907948
12700223800.0 0.9085184986 -0.4058771496
12750223500.0 0.9030832979 -0.4189275581
12800223200.0 0.8976838811 -0.4317475321
12850222900.0 0.8924200861 -0.4435158473
12900222600.0 0.8870867277 -0.4554658038
12950222300.0 0.8808440083 -0.4684344436
13000222000.0 0.8747264224 -0.4798017405
13050221700.0 0.8678412861 -0.4925661116
13100221400.0 0.8614122873 -0.5050684324
13150221100.0 0.8546067032 -0.5172293268
13200220800.0 0.8473867835 -0.528430131
13250220500.0 0.8399823231 -0.5410653344
13300220200.0 0.8324357896 -0.5519273145
13350219900.0 0.8244520491 -0.5636034423
13400219600.0 0.8161728525 -0.5753242197
13450219300.0 0.806632831 -0.5886171686
13500219000.0 0.7970922721 -0.6013910745
13550218700.0 0.7873095639 -0.6138446561
13600218400.0 0.7777035335 -0.6261408481
13650218100.0 0.7677433041 -0.6367797098
13700217800.0 0.756777127 -0.6481652762
13750217500.0 0.7472893636 -0.658887993
13800217200.0 0.7362744521 -0.6698364415
13850216900.0 0.7248661837 -0.682018688
13900216600.0 0.716138487 -0.6898522842
13950216300.0 0.7046778914 -0.7009056849
14000216000.0 0.6953975831 -0.7094992696
14050215700.0 0.6860146673 -0.7169725871
14100215400.0 0.6764138278 -0.726531697
14150215100.0 0.6672819903 -0.7351617341
14200214800.0 0.6578384055 -0.74417009
14250214500.0 0.6474148683 -0.7535416335
14300214200.0 0.6369958537 -0.7629818882
14350213900.0 0.6259850129 -0.7725628903
14400213600.0 0.613955958 -0.7821692565
14450213300.0 0.6012128688 -0.7925713887
14500213000.0 0.5882321604 -0.8025743042
14550212700.0 0.5760214634 -0.8116513933
14600212400.0 0.5634484187 -0.8203916083
14650212100.0 0.5508972986 -0.8293639412
14700211800.0 0.5367609885 -0.8389432392
14750211500.0 0.5249218772 -0.8473895424
14800211200.0 0.5123742515 -0.8555378068
14850210900.0 0.5000034212 -0.8629603636
14900210600.0 0.4866016807 -0.8710494299
14950210300.0 0.473286204 -0.8788626102
15000210000.0 0.4606284211 -0.8855374045
15050209700.0 0.4486200384 -0.8914255095
15100209400.0 0.4355161727 -0.8976139145
15150209100.0 0.4234012677 -0.9029310793
15200208800.0 0.410652897 -0.9080839804
15250208500.0 0.3993134415 -0.9127054014
15300208200.0 0.3868932697 -0.9170282126
15350207900.0 0.3746926226 -0.9223747995
15400207600.0 0.3599651588 -0.9276084668
15450207300.0 0.3448988909 -0.9322698031
15500207000.0 0.3300752922 -0.9367563988
15550206700.0 0.3152658473 -0.9420707519
15600206400.0 0.299845846 -0.946794763
15650206100.0 0.2837198263 -0.9508746867
15700205800.0 0.2703366162 -0.9543714192
15750205500.0 0.2563011774 -0.9574465387
15800205200.0 0.2421673928 -0.9612096912
15850204900.0 0.2281681692 -0.9645541713
15900204600.0 0.2130549984 -0.968378858
15950204300.0 0.1984899836 -0.9713900921
16000204000.0 0.1842780199 -0.9745255412
16050203700.0 0.1690384645 -0.9774021372
16100203400.0 0.1541657894 -0.9796986561
16150203100.0 0.1389920137 -0.9826403013
16200202800.0 0.1253541539 -0.983893018
16250202500.0 0.1106997064 -0.98621123
16300202200.0 0.09478092 -0.9876347709
16350201900.0 0.0797070968 -0.988877909
16400201600.0 0.0652031277 -0.9902575377
16450201300.0 0.0495272589 -0.991291129
16500201000.0 0.0324772193 -0.9921503484
16550200700.0 0.0162738629 -0.9925871443
16600200400.0 0.0006714278 -0.9928068389
16650200100.0 -0.0154310625 -0.9928848154
16700199800.0 -0.0319322269 -0.9921603671
16750199500.0 -0.0512711864 -0.991466864
16800199200.0 -0.0666411378 -0.9912039805
16850198900.0 -0.0826870244 -0.9900972003
16900198600.0 -0.0963454395 -0.9885943051
16950198300.0 -0.1102724696 -0.9877236807
17000198000.0 -0.1232593892 -0.9856236156
17050197700.0 -0.1359702063 -0.9839258127
17100197400.0 -0.1490562569 -0.9826036231
17150197100.0 -0.1618390959 -0.9796470782
17200196800.0 -0.1744424321 -0.9781445455
17250196500.0 -0.1878102927 -0.9755032706
17300196200.0 -0.1997833321 -0.9730190696
17350195900.0 -0.2115705407 -0.9706235934
17400195600.0 -0.2234951247 -0.9680488387
17450195300.0 -0.2365016039 -0.9652639102
17500195000.0 -0.2499745522 -0.9619595955
17550194700.0 -0.2635615727 -0.9584895817
17600194400.0 -0.2776715171 -0.9545621378
17650194100.0 -0.2910148816 -0.9503998305
17700193800.0 -0.3040237539 -0.9463647028
17750193500.0 -0.318031758 -0.9418807155
17800193200.0 -0.3320441846 -0.9365049399
17850192900.0 -0.3468971851 -0.9314003848
17900192600.0 -0.3621687116 -0.9249063765
17950192300.0 -0.3776361453 -0.9179620065
18000192000.0 -0.3924091287 -0.9106386018
18050191700.0 -0.4061564319 -0.90247712
18100191400.0 -0.4202540439 -0.8948775262
18150191100.0 -0.4351036714 -0.8869011817
18200190800.0 -0.4520652518 -0.8776558062
18250190500.0 -0.4688213182 -0.8685198883
18300190200.0 -0.4841923203 -0.8592991755
18350189900.0 -0.4997249283 -0.8510079706
18400189600.0 -0.5140024286 -0.8425882715
18450189300.0 -0.5274195765 -0.8347104408
18500189000.0 -0.5408087716 -0.8262434363
18550188700.0 -0.5534931717 -0.8187707659
18600188400.0 -0.5659246143 -0.8121193978
18650188100.0 -0.576945761 -0.8054895138
18700187800.0 -0.5881275942 -0.7989323697
18750187500.0 -0.5989673144 -0.7921269254
18800187200.0 -0.6095123021 -0.7851020978
18850186900.0 -0.6198297854 -0.778241767
18900186600.0 -0.6300652708 -0.7708567505
18950186300.0 -0.6404166687 -0.7631941796
19000186000.0 -0.6476710241 -0.756744034
19050185700.0 -0.6568387427 -0.7498230385
19100185400.0 -0.6668738818 -0.7418435236
19150185100.0 -0.6770525299 -0.733323171
19200184800.0 -0.6864993304 -0.724958854
19250184500.0 -0.6965067369 -0.7159424156
19300184200.0 -0.7083947249 -0.7063213409
19350183900.0 -0.7186522027 -0.6967709639
19400183600.0 -0.7289086287 -0.6866796687
19450183300.0 -0.7374192333 -0.6765921224
19500183000.0 -0.7454675793 -0.6666582167
19550182700.0 -0.7557743556 -0.6556901487
19600182400.0 -0.7659766442 -0.6441105954
19650182100.0 -0.7765955775 -0.6318047298
19700181800.0 -0.7870047347 -0.6185550199
19750181500.0 -0.7972935193 -0.6043955513
19800181200.0 -0.8074204287 -0.5893600346
19850180900.0 -0.8170563877 -0.5741374887
19900180600.0 -0.8245035894 -0.5596272757
19950180300.0 -0.8337049402 -0.5432399173
20000180000.0 -0.8239197878 -0.5470242114
20050179700.0 -0.8309255581 -0.5344890039
20100179400.0 -0.83968084 -0.5217505472
20150179100.0 -0.8471654326 -0.5101269344
20200178800.0 -0.8561920364 -0.4981167208
20250178500.0 -0.8651918715 -0.4857385268
20300178200.0 -0.8747065492 -0.4713729256
20350177900.0 -0.8840919195 -0.4575901833
20400177600.0 -0.8932087349 -0.4439362566
20450177300.0 -0.9016888289 -0.4293494255
20500177000.0 -0.9098395294 -0.4154389972
20550176700.0 -0.9177115144 -0.4022890548
20600176400.0 -0.9247966265 -0.3891621285
20650176100.0 -0.931397689 -0.3769880223
20700175800.0 -0.9386028178 -0.365180501
20750175500.0 -0.9445037403 -0.3528051225
20800175200.0 -0.949026614 -0.3431015854
20850174900.0 -0.952772669 -0.3322523278
20900174600.0 -0.9582615206 -0.3203377897
20950174300.0 -0.9613384751 -0.3105025793
21000174000.0 -0.9639632589 -0.298762789
21050173700.0 -0.9657425303 -0.2896769357
21100173400.0 -0.9690118844 -0.2790246792
21150173100.0 -0.9727305814 -0.2667116777
21200172800.0 -0.9765302857 -0.2540406696
21250172500.0 -0.9806211583 -0.2403836671
21300172200.0 -0.983879226 -0.2267283043
21350171900.0 -0.9861127008 -0.2126703717
21400171600.0 -0.9881098346 -0.1972943833
21450171300.0 -0.9885093931 -0.1835884866
21500171000.0 -0.9882956924 -0.1689631041
21550170700.0 -0.9891391064 -0.1541054837
21600170400.0 -0.9900666928 -0.1381766413
21650170100.0 -0.9915818053 -0.1222441055
21700169800.0 -0.9906097612 -0.1079845544
21750169500.0 -0.9900215277 -0.0911756486
21800169200.0 -0.9903017698 -0.0751268309
21850168900.0 -0.9895906631 -0.0576271934
21900168600.0 -0.9895338389 -0.0409908079
21950168300.0 -0.9892463222 -0.0256944334
22000168000.0 -0.9894777458 -0.011230036
22050167700.0 -0.990276369 0.0034487706
22100167400.0 -0.990820946 0.0194154344
22150167100.0 -0.9916287762 0.0354876322
22200166800.0 -0.9918027716 0.051872534
22250166500.0 -0.9919343972 0.0695333829
22300166200.0 -0.9906349564 0.085880455
22350165900.0 -0.9895474768 0.1022741691
22400165600.0 -0.9882952081 0.1180240042
22450165300.0 -0.9869593405 0.1332314213
22500165000.0 -0.9850798262 0.147876697
22550164700.0 -0.9841901864 0.1633051872
22600164400.0 -0.9819328143 0.1791276902
22650164100.0 -0.9788530042 0.1960167693
22700163800.0 -0.9758959168 0.2117534581
22750163500.0 -0.9727602786 0.2262022201
22800163200.0 -0.9693662453 0.2390685653
22850162900.0 -0.9668016375 0.2526099166
22900162600.0 -0.9649951392 0.2664869855
22950162300.0 -0.9630421254 0.2801536667
23000162000.0 -0.961253439 0.2928563794
23050161700.0 -0.9588058761 0.306650901
23100161400.0 -0.9554770688 0.3199651509
23150161100.0 -0.9532266227 0.3328369039
23200160800.0 -0.9498844724 0.3460296831
23250160500.0 -0.9465784831 0.3581176848
23300160200.0 -0.9444563562 0.3710509319
23350159900.0 -0.9400484178 0.3849330603
23400159600.0 -0.9353177933 0.3989837864
23450159300.0 -0.9302846648 0.4119442524
23500159000.0 -0.925118514 0.4262657222
23550158700.0 -0.9202809714 0.4400848075
23600158400.0 -0.9139791659 0.4541486607
23650158100.0 -0.9067922383 0.468978406
23700157800.0 -0.8982862001 0.4832252076
23750157500.0 -0.8887979186 0.4972992724
23800157200.0 -0.8791471804 0.5110467643
23850156900.0 -0.8690259729 0.523818622
23900156600.0 -0.8594039367 0.5365331066
23950156300.0 -0.8500784702 0.5493377949
24000156000.0 -0.8398845116 0.5610891748
24050155700.0 -0.8293923946 0.5728921138
24100155400.0 -0.8184855705 0.5858540556
24150155100.0 -0.8079294587 0.5988491817
24200154800.0 -0.7971709575 0.6099666073
24250154500.0 -0.7853864517 0.6226873065
24300154200.0 -0.7740134058 0.6342704877
24350153900.0 -0.7620853724 0.6454043752
24400153600.0 -0.7495451713 0.6563328338
24450153300.0 -0.7375889114 0.666612382
24500153000.0 -0.7261572259 0.6769342607
24550152700.0 -0.7143104903 0.6865442805
24600152400.0 -0.702386625 0.6957489799
24650152100.0 -0.6907042053 0.704429443
