!Created with skrf (http://scikit-rf.org).
# Hz S RI R 50.0 
!freq ReS11 ImS11
300000.0 -0.9718056243 -0.1226344925
50299700.0 -1.000011858 0.0149288877
100299400.0 -0.9978859656 0.0278608667
150299100.0 -1.002896074 0.0448428121
200298800.0 -0.9996620338 0.0580644249
250298500.0 -0.9973809683 0.071629181
300298200.0 -0.9859697206 0.0873596177
350297900.0 -0.9938497133 0.0982980563
400297600.0 -0.993026809 0.1147884719
450297300.0 -0.9910420297 0.1285946281
500297000.0 -0.9893514416 0.1435263409
550296700.0 -0.9842632795 0.1558607259
600296400.0 -1.017467589 0.1891459912
650296100.0 -0.9821314256 0.1857325578
700295800.0 -0.9791050335 0.1999125254
750295500.0 -0.976380383 0.2138774625
800295200.0 -0.9729159386 0.228183057
850294900.0 -0.9695613905 0.2417527677
900294600.0 -0.9659886771 0.2555986083
950294300.0 -0.9620637763 0.2693882798
1000294000.0 -0.9582623035 0.283242136
1050293700.0 -0.9537013147 0.2970448116
1100293400.0 -0.9491576971 0.3113438871
1150293100.0 -0.9455473129 0.3233690091
1200292800.0 -0.9402283743 0.3376954389
1250292500.0 -0.9347469496 0.3512885371
1300292200.0 -0.9288278705 0.3643941089
1350291900.0 -0.923406231 0.3782896938
1400291600.0 -0.9181442301 0.3915528489
1450291300.0 -0.912497309 0.4038814792
1500291000.0 -0.9063451344 0.4172733038
1550290700.0 -0.8997716107 0.4305549528
1600290400.0 -0.8934182235 0.4435745492
1650290100.0 -0.8868823094 0.4558233704
1700289800.0 -0.8800002932 0.469203167
1750289500.0 -0.8730323739 0.4814678849
1800289200.0 -0.8656411883 0.4943740303
1850288900.0 -0.8588357797 0.5058390747
1900288600.0 -0.8510893521 0.5186590862
1950288300.0 -0.8430454705 0.5312833911
2000288000.0 -0.8355281039 0.5429752292
2050287700.0 -0.8271666209 0.5551839216
2100287400.0 -0.8192840399 0.5663806462
2150287100.0 -0.8107547198 0.578714669
2200286800.0 -0.8029781222 0.5889751471
2250286500.0 -0.7940208884 0.6013594981
2300286200.0 -0.7852824466 0.6127602222
2350285900.0 -0.7770474553 0.6234710306
2400285600.0 -0.7680026371 0.6342978965
2450285300.0 -0.7591396614 0.6451451699
2500285000.0 -0.7492955146 0.6568988659
2550284700.0 -0.7401553659 0.6671432472
2600284400.0 -0.7308343286 0.6769149645
2650284100.0 -0.7222559677 0.6872121801
2700283800.0 -0.7118905163 0.6974958128
2750283500.0 -0.7015939388 0.7081227454
2800283200.0 -0.6918328831 0.7181872014
2850282900.0 -0.6812320805 0.7282041941
2900282600.0 -0.6706397568 0.7378063709
2950282300.0 -0.6602944417 0.7473296851
3000282000.0 -0.6495525228 0.7568738083
3050281700.0 -0.6383649793 0.7660713937
3100281400.0 -0.6268253788 0.7749207135
3150281100.0 -0.6156953112 0.783828803
3200280800.0 -0.6042018338 0.7922713294
3250280500.0 -0.5932096827 0.8002284253
3300280200.0 -0.5814596802 0.808447073
3350279900.0 -0.5691954438 0.8164970704
3400279600.0 -0.556694101 0.8246293319
3450279300.0 -0.545371403 0.8315721775
3500279000.0 -0.5338139573 0.838659905
3550278700.0 -0.521584521 0.8455866151
3600278400.0 -0.5097256031 0.8524386193
3650278100.0 -0.4967242881 0.8598940906
3700277800.0 -0.4848205742 0.866518962
3750277500.0 -0.472235181 0.8729133262
3800277200.0 -0.4597624828 0.8797391346
3850276900.0 -0.4477087392 0.8856133332
3900276600.0 -0.4368179912 0.8912251829
3950276300.0 -0.4247181311 0.897024937
4000276000.0 -0.4134056796 0.903113841
4050275700.0 -0.4006665892 0.909210853
4100275400.0 -0.3895755181 0.9144268647
4150275100.0 -0.376238029 0.9206067702
4200274800.0 -0.3628231928 0.9258794036
4250274500.0 -0.3500749267 0.9314652274
4300274200.0 -0.3366287631 0.9368468802
4350273900.0 -0.3226146907 0.9420116026
4400273600.0 -0.3076787978 0.9472483712
4450273300.0 -0.292728826 0.9520966585
4500273000.0 -0.2796161926 0.9564133861
4550272700.0 -0.2661500241 0.96058716
4600272400.0 -0.2510729311 0.964569691
4650272100.0 -0.2397382685 0.9679339988
4700271800.0 -0.2268826635 0.9711716396
4750271500.0 -0.2152292421 0.9740274815
4800271200.0 -0.2030114504 0.9767392364
4850270900.0 -0.1893729957 0.9794941864
4900270600.0 -0.175528982 0.9819265801
4950270300.0 -0.1608259791 0.9845935852
5000270000.0 -0.1465803205 0.9866218984
5050269700.0 -0.1329180772 0.9879812924
5100269400.0 -0.1188385328 0.9898894529
5150269100.0 -0.1045975759 0.9915607376
5200268800.0 -0.0912682053 0.9929861739
5250268500.0 -0.0782470893 0.9936116073
5300268200.0 -0.0646108274 0.9942537016
5350267900.0 -0.0516761199 0.995029983
5400267600.0 -0.0355265836 0.9961803215
5450267300.0 -0.0223227104 0.9967785066
5500267000.0 -0.0067635667 0.9970069762
5550266700.0 0.0081874443 0.9972515344
5600266400.0 0.0240507478 0.9971760866
5650266100.0 0.0407335938 0.996742244
5700265800.0 0.0549347111 0.9959041447
5750265500.0 0.0698455642 0.9951186038
5800265200.0 0.08331347 0.9939500719
5850264900.0 0.0963123269 0.9930513437
5900264600.0 0.1129834945 0.9911902993
5950264300.0 0.1246594129 0.9899126186
6000264000.0 0.1379766199 0.9881580258
6050263700.0 0.1497135399 0.9866973778
6100263400.0 0.1618130225 0.9848935318
6150263100.0 0.1761705918 0.9824624762
6200262800.0 0.1858660755 0.9812269959
6250262500.0 0.1982874109 0.9787191047
6300262200.0 0.2107294531 0.9762311524
6350261900.0 0.2235370724 0.9735842554
6400261600.0 0.2375452746 0.9703842389
6450261300.0 0.2487043106 0.9678851379
6500261000.0 0.2617517835 0.9641914286
6550260700.0 0.2751315126 0.9604910025
6600260400.0 0.288510002 0.9560073568
6650260100.0 0.3026109273 0.9517693381
6700259800.0 0.3150649443 0.9474283118
6750259500.0 0.3284803871 0.9426239686
6800259200.0 0.3419930965 0.9373501501
6850258900.0 0.3541359942 0.9320256091
6900258600.0 0.3669767877 0.9267828715
6950258300.0 0.3794782021 0.9216870963
7000258000.0 0.391128812 0.9163210866
7050257700.0 0.4030741722 0.9106047338
7100257400.0 0.4164738905 0.9041389099
7150257100.0 0.4271840663 0.8987024379
7200256800.0 0.4403810098 0.8920821616
7250256500.0 0.4530201352 0.8855175908
7300256200.0 0.4659332691 0.8784571469
7350255900.0 0.4789715862 0.8718934114
7400255600.0 0.4929050028 0.8642306246
7450255300.0 0.5089989776 0.855251665
7500255000.0 0.5209008136 0.8471712504
7550254700.0 0.5355766349 0.8381371327
7600254400.0 0.5476350089 0.8300742338
7650254100.0 0.5593719506 0.8218852615
7700253800.0 0.5708219523 0.813942424
7750253500.0 0.5822313064 0.8063451867
7800253200.0 0.5926993492 0.7984863469
7850252900.0 0.6024964677 0.7913335315
7900252600.0 0.6137704015 0.7826458921
7950252300.0 0.6223054778 0.7762314492
8000252000.0 0.6323240304 0.7685276381
8050251700.0 0.6424556756 0.7604731045
8100251400.0 0.652307328 0.7527776358
8150251100.0 0.6625163518 0.7438572839
8200250800.0 0.6719010296 0.7358332769
8250250500.0 0.6807262919 0.727928723
8300250200.0 0.689497275 0.7197373614
8350249900.0 0.6995330734 0.7108899897
8400249600.0 0.7071203152 0.7030014192
8450249300.0 0.7156698004 0.6941971498
8500249000.0 0.7242717364 0.6853452855
8550248700.0 0.7327423624 0.6762871253
8600248400.0 0.7410205259 0.666801381
8650248100.0 0.7485309592 0.6575021866
8700247800.0 0.7579070926 0.64642815
8750247500.0 0.7661439351 0.6364519361
8800247200.0 0.773998164 0.6260901085
8850246900.0 0.783075679 0.6145769949
8900246600.0 0.7912534539 0.6030967043
8950246300.0 0.8001825564 0.5907127045
9000246000.0 0.8087943844 0.5788335459
9050245700.0 0.8179594443 0.56627901
9100245400.0 0.8258856027 0.5542018609
9150245100.0 0.8347544145 0.5412696887
9200244800.0 0.844172602 0.5272529141
9250244500.0 0.8531593408 0.5122020153
9300244200.0 0.8613130069 0.4989135836
9350243900.0 0.8687472837 0.485651433
9400243600.0 0.8752044343 0.474104207
9450243300.0 0.8807597453 0.4635824435
9500243000.0 0.8871874001 0.4520324557
9550242700.0 0.8911452512 0.4446274019
9600242400.0 0.8953437064 0.4369881662
9650242100.0 0.899479437 0.4300163664
9700241800.0 0.904770731 0.4213493683
9750241500.0 0.9086697215 0.4137369984
9800241200.0 0.9138466537 0.4042679024
9850240900.0 0.9197011623 0.3926313014
9900240600.0 0.9254037466 0.3805752491
9950240300.0 0.9326458932 0.3639066694
10000240000.0 0.938072737 0.3516892956
10050239700.0 0.9439555383 0.3352939362
10100239400.0 0.9495361322 0.3187764087
10150239100.0 0.9541513269 0.3032999484
10200238800.0 0.9583219163 0.2879063468
10250238500.0 0.9615077245 0.2742804219
10300238200.0 0.9646004314 0.2603836031
10350237900.0 0.9674559807 0.2469032992
10400237600.0 0.970223296 0.2334475257
10450237300.0 0.9729890711 0.219649535
10500237000.0 0.9747878583 0.2073002993
10550236700.0 0.9774038122 0.1926736421
10600236400.0 0.9796719754 0.1788191835
10650236100.0 0.9819596398 0.1640751882
10700235800.0 0.9833214355 0.1527166345
10750235500.0 0.9858682638 0.1388154163
10800235200.0 0.9879307477 0.1245743878
10850234900.0 0.9900079499 0.1095516099
10900234600.0 0.9922376869 0.0946534681
10950234300.0 0.9937002573 0.0812808686
11000234000.0 0.9955996316 0.0654771949
11050233700.0 0.9973998973 0.0486162163
11100233400.0 0.9989897917 0.0313246086
11150233100.0 0.9997886754 0.0142582348
11200232800.0 1.000921726 -0.0016653946
11250232500.0 1.00177966 -0.0200099557
11300232200.0 1.002255072 -0.039035226
11350231900.0 1.002261418 -0.0542943062
11400231600.0 1.002068876 -0.0700322353
11450231300.0 1.001337995 -0.0861873811
11500231000.0 0.9992469397 -0.1020888521
11550230700.0 0.998065689 -0.114606975
11600230400.0 0.9973182239 -0.1276584792
11650230100.0 0.9948190455 -0.1399174242
11700229800.0 0.9923984438 -0.154822384
11750229500.0 0.9901347646 -0.1691025503
11800229200.0 0.9871917004 -0.1821767462
11850228900.0 0.9835346939 -0.1939428196
11900228600.0 0.9795869855 -0.2035145151
11950228300.0 0.9762655918 -0.2132618228
12000228000.0 0.974009676 -0.2217689917
12050227700.0 0.9701079299 -0.2348711825
12100227400.0 0.9671787125 -0.245115714
12150227100.0 0.9620685547 -0.2621834581
12200226800.0 0.9581145719 -0.273574847
12250226500.0 0.954430264 -0.2858217672
12300226200.0 0.9496458638 -0.2986103471
12350225900.0 0.9444157035 -0.3125646161
12400225600.0 0.9397993089 -0.3246956807
12450225300.0 0.9359830872 -0.3369759722
12500225000.0 0.930217855 -0.3520336426
12550224700.0 0.9249201919 -0.3657259544
12600224400.0 0.9198209592 -0.3783862737
12650224100.0 0.9140909368 -0.3927370591
12700223800.0 0.9086985635 -0.4056781309
12750223500.0 0.9032958708 -0.418503767
12800223200.0 0.8978100244 -0.431206176
12850222900.0 0.8927217773 -0.443485873
12900222600.0 0.8869127438 -0.4552174948
12950222300.0 0.880787341 -0.4674440386
13000222000.0 0.8755421426 -0.4796153655
13050221700.0 0.8678990977 -0.492737425
13100221400.0 0.8612343507 -0.5046606924
13150221100.0 0.8544989789 -0.5170053552
13200220800.0 0.8476111595 -0.5283462299
13250220500.0 0.8402046912 -0.5404821206
13300220200.0 0.8328390382 -0.5513754637
13350219900.0 0.8245536381 -0.5632917358
13400219600.0 0.816294909 -0.5751534209
13450219300.0 0.8072020686 -0.5881149559
13500219000.0 0.7967860234 -0.6012405994
13550218700.0 0.7873076845 -0.61366722
13600218400.0 0.7772590166 -0.6253425228
13650218100.0 0.7669386974 -0.6368791767
13700217800.0 0.7572625475 -0.6479747511
13750217500.0 0.747430311 -0.6583367156
13800217200.0 0.7365286762 -0.6702411509
13850216900.0 0.725603253 -0.6817189339
13900216600.0 0.7155096178 -0.6904945848
13950216300.0 0.7043947471 -0.7000572279
14000216000.0 0.6954934385 -0.7088961836
14050215700.0 0.6863395056 -0.7174254227
14100215400.0 0.6770565744 -0.7264318813
14150215100.0 0.6676354351 -0.734916842
14200214800.0 0.6582009537 -0.7438009856
14250214500.0 0.6477442461 -0.7532857812
14300214200.0 0.6370983313 -0.7628340032
14350213900.0 0.6262187713 -0.7725922298
14400213600.0 0.6142909604 -0.7822553869
14450213300.0 0.6014282987 -0.792609715
14500213000.0 0.5881462758 -0.8022574819
14550212700.0 0.5757465909 -0.8114314558
14600212400.0 0.5638412783 -0.8203251451
14650212100.0 0.5512224134 -0.8292740824
14700211800.0 0.5369748851 -0.8390277747
14750211500.0 0.525170734 -0.8473673857
14800211200.0 0.5122508113 -0.8553535858
14850210900.0 0.5000444191 -0.8630252334
14900210600.0 0.4866366438 -0.8708110968
14950210300.0 0.4734426845 -0.8785065275
15000210000.0 0.4609759103 -0.8853438776
15050209700.0 0.4485256522 -0.8914123585
15100209400.0 0.4354346844 -0.8973709393
15150209100.0 0.4233721513 -0.9024133053
15200208800.0 0.4110328988 -0.9083885145
15250208500.0 0.3996247858 -0.9123531977
15300208200.0 0.3882484058 -0.9168811441
15350207900.0 0.3747674778 -0.922088551
15400207600.0 0.3594935795 -0.9270968198
15450207300.0 0.3454757301 -0.9328684945
15500207000.0 0.329696382 -0.9369322268
15550206700.0 0.3161849697 -0.9413565856
15600206400.0 0.299684584 -0.9466264725
15650206100.0 0.2840231307 -0.9507826391
15700205800.0 0.2704489297 -0.9541748414
15750205500.0 0.2565614069 -0.9576023142
15800205200.0 0.2425495444 -0.9610621118
15850204900.0 0.2285338118 -0.9645382471
15900204600.0 0.2133101854 -0.9682772707
15950204300.0 0.1989643226 -0.9713499512
16000204000.0 0.1844722572 -0.9742353162
16050203700.0 0.1694266283 -0.9775109566
16100203400.0 0.1546601331 -0.9795465175
16150203100.0 0.1392744998 -0.9817774696
16200202800.0 0.1255886812 -0.9840600072
16250202500.0 0.1104433186 -0.9856254573
16300202200.0 0.0951866917 -0.9875276674
16350201900.0 0.0799582409 -0.9889154344
16400201600.0 0.0653897871 -0.9902728597
16450201300.0 0.0499592 -0.9910910036
16500201000.0 0.0328144894 -0.9919687064
16550200700.0 0.0168118402 -0.9925182504
16600200400.0 0.0008029352 -0.9927969108
16650200100.0 -0.0154724517 -0.9926105152
16700199800.0 -0.0317550033 -0.9923604433
16750199500.0 -0.0508425277 -0.9915852571
16800199200.0 -0.0671967737 -0.9908392947
16850198900.0 -0.0822296855 -0.989517132
16900198600.0 -0.0965850815 -0.9881322773
16950198300.0 -0.1097245476 -0.9869982916
17000198000.0 -0.1227258705 -0.9859495609
17050197700.0 -0.1364372934 -0.9838599542
17100197400.0 -0.1489587812 -0.9819724952
17150197100.0 -0.1613115509 -0.9799170727
17200196800.0 -0.1742621346 -0.9778612197
17250196500.0 -0.1873891849 -0.975540311
17300196200.0 -0.1994541792 -0.9731131688
17350195900.0 -0.2111864458 -0.9705188709
17400195600.0 -0.2232350948 -0.9682527252
17450195300.0 -0.2362368715 -0.9652164207
17500195000.0 -0.2493746471 -0.961948854
17550194700.0 -0.2630601721 -0.9585404951
17600194400.0 -0.2769055371 -0.9547043587
17650194100.0 -0.2906016874 -0.9503902166
17700193800.0 -0.3034443712 -0.9460524334
17750193500.0 -0.3176662468 -0.9414961883
17800193200.0 -0.3319688555 -0.9364011976
17850192900.0 -0.346465661 -0.9309361917
17900192600.0 -0.3617137076 -0.9249200165
17950192300.0 -0.3776058968 -0.9179429984
18000192000.0 -0.3920621928 -0.9105178281
18050191700.0 -0.4059567957 -0.9026044249
18100191400.0 -0.4199357788 -0.8949720521
18150191100.0 -0.4349129615 -0.8868417584
18200190800.0 -0.4514608117 -0.8777848694
18250190500.0 -0.4687966034 -0.868240328
18300190200.0 -0.4840029109 -0.8596675391
18350189900.0 -0.4993782677 -0.8513712252
18400189600.0 -0.5140400303 -0.8430410729
18450189300.0 -0.5273453186 -0.834656259
18500189000.0 -0.5412817128 -0.8267186187
18550188700.0 -0.5533321869 -0.8187195909
18600188400.0 -0.5655255812 -0.8120262088
18650188100.0 -0.5768118997 -0.8056950361
18700187800.0 -0.5876824248 -0.7990178565
18750187500.0 -0.5986640006 -0.7922334429
18800187200.0 -0.609164318 -0.7852718598
18850186900.0 -0.6194771252 -0.7783979548
18900186600.0 -0.6296970253 -0.7708955465
18950186300.0 -0.6398264812 -0.7630675077
19000186000.0 -0.6475047671 -0.7573214517
19050185700.0 -0.6566023348 -0.7503178787
19100185400.0 -0.6665406004 -0.741558044
19150185100.0 -0.6767519663 -0.7331268493
19200184800.0 -0.686161847 -0.7248789326
19250184500.0 -0.6965420251 -0.7157658608
19300184200.0 -0.7073767559 -0.7057855011
19350183900.0 -0.719281544 -0.6967879022
19400183600.0 -0.7284726125 -0.6862978586
19450183300.0 -0.7375211853 -0.676080547
19500183000.0 -0.7460095251 -0.6666360291
19550182700.0 -0.7557100947 -0.6551954283
19600182400.0 -0.7657323107 -0.6434058971
19650182100.0 -0.7763217051 -0.6319257988
19700181800.0 -0.7869124207 -0.618355267
19750181500.0 -0.7969379732 -0.6042146131
19800181200.0 -0.8072881877 -0.5891770495
19850180900.0 -0.816601705 -0.5739145306
19900180600.0 -0.8243091649 -0.5596769421
19950180300.0 -0.833566445 -0.5431549719
20000180000.0 -0.8231996534 -0.5464341306
20050179700.0 -0.8313034454 -0.5341049819
20100179400.0 -0.8391956933 -0.5213008224
20150179100.0 -0.8471523845 -0.5093015646
20200178800.0 -0.8569517568 -0.4980188763
20250178500.0 -0.8660757669 -0.4849257351
20300178200.0 -0.874930378 -0.4715010571
20350177900.0 -0.8847733036 -0.4577228646
20400177600.0 -0.8937922706 -0.4435935671
20450177300.0 -0.9017873493 -0.4289010095
20500177000.0 -0.9099041696 -0.4152954942
20550176700.0 -0.9180329852 -0.4018405666
20600176400.0 -0.9250090524 -0.3891638863
20650176100.0 -0.9315106031 -0.3771223191
20700175800.0 -0.9377392053 -0.3649714664
20750175500.0 -0.9449592618 -0.3532412313
20800175200.0 -0.9487164768 -0.3416167293
20850174900.0 -0.9531819439 -0.331899153
20900174600.0 -0.9577524584 -0.3213376689
20950174300.0 -0.9612482043 -0.309313852
21000174000.0 -0.963193184 -0.2993898804
21050173700.0 -0.9652316519 -0.2893550643
21100173400.0 -0.9694311715 -0.2782064909
21150173100.0 -0.9728714798 -0.2667302849
21200172800.0 -0.9765809633 -0.2531965862
21250172500.0 -0.9804724281 -0.2397177537
21300172200.0 -0.9835916575 -0.2257590479
21350171900.0 -0.9859575171 -0.2117616158
21400171600.0 -0.9880619293 -0.1978087823
21450171300.0 -0.9881543759 -0.183178063
21500171000.0 -0.9893063244 -0.1680314987
21550170700.0 -0.9893191698 -0.1530877373
21600170400.0 -0.9901733958 -0.138492575
21650170100.0 -0.9916264715 -0.1223307662
21700169800.0 -0.9910337299 -0.1063651983
21750169500.0 -0.9901802971 -0.0903017763
21800169200.0 -0.9903214155 -0.0745436974
21850168900.0 -0.9901137953 -0.0582948264
21900168600.0 -0.9892686912 -0.0406839019
21950168300.0 -0.9891165295 -0.0254221686
22000168000.0 -0.9893584437 -0.0107489779
22050167700.0 -0.989863841 0.0038621555
22100167400.0 -0.9906353436 0.0196105498
22150167100.0 -0.9916352247 0.0356343049
22200166800.0 -0.99189991 0.0517129843
22250166500.0 -0.991728888 0.0698215762
22300166200.0 -0.9913470705 0.0850666321
22350165900.0 -0.9896416309 0.1022058111
22400165600.0 -0.9879604318 0.1181702593
22450165300.0 -0.9865147203 0.1333553009
22500165000.0 -0.98524772 0.1471775065
22550164700.0 -0.9834020012 0.1626617926
22600164400.0 -0.9811897893 0.1797870687
22650164100.0 -0.9782408546 0.1952279911
22700163800.0 -0.9744269922 0.2117282475
22750163500.0 -0.9725512963 0.226463653
22800163200.0 -0.9690772433 0.239540191
22850162900.0 -0.9664243139 0.2528009025
22900162600.0 -0.9646986899 0.2667206777
22950162300.0 -0.9627975311 0.2808478724
23000162000.0 -0.9611772405 0.2933402214
23050161700.0 -0.958184492 0.3070119666
23100161400.0 -0.9559180958 0.3201011309
23150161100.0 -0.9528954221 0.3330940199
23200160800.0 -0.9497629586 0.346631301
23250160500.0 -0.9468393774 0.3584888759
23300160200.0 -0.9445066381 0.3714999055
23350159900.0 -0.9403445754 0.3851217206
23400159600.0 -0.9352823981 0.3984819986
23450159300.0 -0.9300937424 0.412954844
23500159000.0 -0.9251044769 0.4260171898
23550158700.0 -0.9203459066 0.4405113532
23600158400.0 -0.9139685722 0.4544477128
23650158100.0 -0.9066314324 0.468893345
23700157800.0 -0.8982054167 0.483232395
23750157500.0 -0.8886469138 0.4974251861
23800157200.0 -0.8786617308 0.5106140124
23850156900.0 -0.8690546321 0.5239291935
23900156600.0 -0.8589582168 0.5364265905
23950156300.0 -0.849617667 0.5495858621
24000156000.0 -0.840214677 0.5616800506
24050155700.0 -0.8290052578 0.5738472834
24100155400.0 -0.819402549 0.5860252596
24150155100.0 -0.8079044355 0.5984207767
24200154800.0 -0.7974456721 0.6101336068
24250154500.0 -0.785052276 0.6226857769
24300154200.0 -0.7736640428 0.6345456707
24350153900.0 -0.7619426771 0.6453075319
24400153600.0 -0.7494612303 0.6561137889
24450153300.0 -0.7371508567 0.6665612
24500153000.0 -0.7255970336 0.6765353565
24550152700.0 -0.7146295707 0.6870260756
24600152400.0 -0.7024558136 0.6960969917
24650152100.0 -0.6897057135 0.7044502465
