!Created with skrf (http://scikit-rf.org).
# Hz S RI R 50.0 
!freq ReS11 ImS11
300000.0 -0.9747512144 -0.122673914
50299700.0 -0.9998249031 0.0151344116
100299400.0 -0.9979453196 0.028143494
150299100.0 -1.002735984 0.044868332
200298800.0 -0.9996732144 0.058215937
250298500.0 -0.9973705334 0.0717397554
300298200.0 -0.9857997617 0.0873555928
350297900.0 -0.993974025 0.0983659551
400297600.0 -0.9930908851 0.1149689619
450297300.0 -0.9909479389 0.1287890003
500297000.0 -0.9895506687 0.143425874
550296700.0 -0.984252353 0.1559226989
600296400.0 -1.01734295 0.1893950149
650296100.0 -0.9822244182 0.1857037559
700295800.0 -0.9792584787 0.2000205735
750295500.0 -0.9764060261 0.2139017199
800295200.0 -0.9729252636 0.2282541311
850294900.0 -0.9697010544 0.2420347238
900294600.0 -0.9657245416 0.2557821894
950294300.0 -0.9623456126 0.2693785528
1000294000.0 -0.9582162777 0.2834395018
1050293700.0 -0.9538216113 0.2971392047
1100293400.0 -0.9492046555 0.3115282791
1150293100.0 -0.9454281158 0.3236936604
1200292800.0 -0.9399699065 0.3378039884
1250292500.0 -0.9346018277 0.3511798097
1300292200.0 -0.9289231423 0.3643119656
1350291900.0 -0.9232852187 0.3786742348
1400291600.0 -0.9179858146 0.3917005623
1450291300.0 -0.9124045761 0.403918034
1500291000.0 -0.9061351527 0.4174646301
1550290700.0 -0.899641732 0.4307072848
1600290400.0 -0.8933385091 0.4436614895
1650290100.0 -0.886833617 0.4557705151
1700289800.0 -0.8799774067 0.4694170284
1750289500.0 -0.8728253527 0.4816054978
1800289200.0 -0.8654886611 0.4945759963
1850288900.0 -0.8586643987 0.5057519567
1900288600.0 -0.8508459833 0.5186297986
1950288300.0 -0.8428547915 0.5314152584
2000288000.0 -0.8353952206 0.54284804
2050287700.0 -0.8272160639 0.5550543908
2100287400.0 -0.8193248541 0.5666814706
2150287100.0 -0.8108129317 0.5785971259
2200286800.0 -0.8029366182 0.5891935169
2250286500.0 -0.7940326148 0.6013871745
2300286200.0 -0.7852347803 0.6128443173
2350285900.0 -0.7766495304 0.6236031148
2400285600.0 -0.7678762744 0.6345310394
2450285300.0 -0.7592566749 0.6450550228
2500285000.0 -0.7491826051 0.6568875891
2550284700.0 -0.7402038295 0.66698106
2600284400.0 -0.7309106177 0.67690591
2650284100.0 -0.7221711524 0.6872019302
2700283800.0 -0.7119254973 0.6973349054
2750283500.0 -0.7012946898 0.7081091082
2800283200.0 -0.6917759628 0.7185026497
2850282900.0 -0.6811799505 0.7283412191
2900282600.0 -0.6709234391 0.7379281187
2950282300.0 -0.660245524 0.7473419691
3000282000.0 -0.6495504412 0.7566062474
3050281700.0 -0.6385249146 0.7659893496
3100281400.0 -0.6268751626 0.7750347189
3150281100.0 -0.6155998302 0.7841917165
3200280800.0 -0.6040793609 0.7923522188
3250280500.0 -0.592824306 0.8003245749
3300280200.0 -0.5814695905 0.8084865252
3350279900.0 -0.5692188014 0.8163805369
3400279600.0 -0.5568902499 0.8243882609
3450279300.0 -0.5455933935 0.8315428377
3500279000.0 -0.5340462187 0.8385498906
3550278700.0 -0.5215467217 0.8454974016
3600278400.0 -0.5097198716 0.852406028
3650278100.0 -0.4966563406 0.8600451036
3700277800.0 -0.4846254027 0.8665831601
3750277500.0 -0.4721656328 0.873237675
3800277200.0 -0.459927591 0.8797108339
3850276900.0 -0.4478474269 0.8858683924
3900276600.0 -0.4367985641 0.8915420782
3950276300.0 -0.4246583208 0.8973004576
4000276000.0 -0.4130420455 0.9031844861
4050275700.0 -0.4003750329 0.9093221245
4100275400.0 -0.3892657024 0.9146977111
4150275100.0 -0.3758765774 0.920374224
4200274800.0 -0.362704817 0.9262673761
4250274500.0 -0.3500148902 0.9312469024
4300274200.0 -0.336829142 0.9365652316
4350273900.0 -0.3226429073 0.9420675981
4400273600.0 -0.3081168243 0.9471581838
4450273300.0 -0.2929139271 0.9521717521
4500273000.0 -0.2798677077 0.9564960682
4550272700.0 -0.2660589582 0.9606153043
4600272400.0 -0.2508714096 0.9648426977
4650272100.0 -0.2394998995 0.9677871796
4700271800.0 -0.226430618 0.9712463876
4750271500.0 -0.2148222999 0.9740965065
4800271200.0 -0.2026106052 0.9767725168
4850270900.0 -0.1887327066 0.9795791242
4900270600.0 -0.1749421129 0.9821902148
4950270300.0 -0.1604239348 0.9847022972
5000270000.0 -0.1459746255 0.9868601892
5050269700.0 -0.1326833162 0.9883542917
5100269400.0 -0.1186064185 0.9898364841
5150269100.0 -0.1045212926 0.9917898916
5200268800.0 -0.0911582141 0.9930006477
5250268500.0 -0.0782825071 0.993889639
5300268200.0 -0.0644734269 0.9944736386
5350267900.0 -0.0515321384 0.9953876561
5400267600.0 -0.035634237 0.9963594394
5450267300.0 -0.022455076 0.9965676686
5500267000.0 -0.0071074234 0.9970893504
5550266700.0 0.0078149088 0.9972176391
5600266400.0 0.0236133216 0.9971687013
5650266100.0 0.0402078431 0.9968327844
5700265800.0 0.054287798 0.9961083526
5750265500.0 0.0695958102 0.9951548407
5800265200.0 0.0834348092 0.9948190272
5850264900.0 0.0960808959 0.993307816
5900264600.0 0.1130667315 0.9918040513
5950264300.0 0.1244555717 0.9900272546
6000264000.0 0.1382475665 0.9880760893
6050263700.0 0.150051789 0.9866674987
6100263400.0 0.1617963561 0.9850157163
6150263100.0 0.1766383922 0.9826593088
6200262800.0 0.1863923963 0.9809941438
6250262500.0 0.1989610358 0.9786844886
6300262200.0 0.2114437376 0.976043446
6350261900.0 0.224140486 0.9733665344
6400261600.0 0.2383519785 0.9699666241
6450261300.0 0.2490109353 0.9675293699
6500261000.0 0.2628824606 0.9640962528
6550260700.0 0.2757158472 0.9598715071
6600260400.0 0.2892171727 0.9558794819
6650260100.0 0.3032134349 0.9513551274
6700259800.0 0.3151197394 0.9470380399
6750259500.0 0.3288688979 0.9422646388
6800259200.0 0.3428590015 0.937531807
6850258900.0 0.3548265031 0.9318407655
6900258600.0 0.3676686673 0.9269054336
6950258300.0 0.3799370607 0.9216451368
7000258000.0 0.3915575642 0.9161080188
7050257700.0 0.4035270965 0.9102103251
7100257400.0 0.4167406947 0.9038964883
7150257100.0 0.4274226956 0.8985452715
7200256800.0 0.440380474 0.8921455356
7250256500.0 0.4529028001 0.8854270015
7300256200.0 0.4658617942 0.8789124356
7350255900.0 0.4788593659 0.8717348617
7400255600.0 0.4929323804 0.8643451357
7450255300.0 0.5080317183 0.8550428826
7500255000.0 0.5207270056 0.8477009737
7550254700.0 0.5345790375 0.8386777401
7600254400.0 0.5470381388 0.8302284531
7650254100.0 0.5586723213 0.8224407572
7700253800.0 0.5701662341 0.8144977256
7750253500.0 0.581571736 0.8069376542
7800253200.0 0.5924287664 0.7989725883
7850252900.0 0.6018565561 0.7917858601
7900252600.0 0.6133297538 0.7830608755
7950252300.0 0.6217997386 0.7767637229
8000252000.0 0.6319203929 0.7692096367
8050251700.0 0.6421505294 0.7610361883
8100251400.0 0.6522074913 0.7529473537
8150251100.0 0.6621007432 0.7443369075
8200250800.0 0.6716664548 0.7362947802
8250250500.0 0.6805606949 0.7284438106
8300250200.0 0.6897502713 0.7200411989
8350249900.0 0.6985592826 0.7110872931
8400249600.0 0.7068754862 0.7030898392
8450249300.0 0.7156158842 0.6944182976
8500249000.0 0.7245009409 0.6855222074
8550248700.0 0.7327005427 0.6765789702
8600248400.0 0.7409671779 0.666888298
8650248100.0 0.748488547 0.6576064437
8700247800.0 0.7580922215 0.6465501939
8750247500.0 0.766403329 0.6364402233
8800247200.0 0.7743229006 0.6262061392
8850246900.0 0.783072302 0.614559862
8900246600.0 0.791528468 0.6033371863
8950246300.0 0.80069843 0.5906566644
9000246000.0 0.8093887984 0.5785689863
9050245700.0 0.8179129125 0.5662445569
9100245400.0 0.8264946319 0.5540423196
9150245100.0 0.835402806 0.540827586
9200244800.0 0.8451189285 0.5262754067
9250244500.0 0.8539329098 0.5115312619
9300244200.0 0.8622231864 0.4976966701
9350243900.0 0.8695529638 0.4845395537
9400243600.0 0.8763487025 0.4727380528
9450243300.0 0.8818372276 0.4620372068
9500243000.0 0.8883834432 0.4501531833
9550242700.0 0.8920263892 0.442552145
9600242400.0 0.896258148 0.4351244666
9650242100.0 0.9004717182 0.4280054995
9700241800.0 0.9053344235 0.4195707202
9750241500.0 0.9091596947 0.4123432897
9800241200.0 0.914481476 0.4026904809
9850240900.0 0.9201672273 0.3910454321
9900240600.0 0.9263000518 0.3787520995
9950240300.0 0.9331152711 0.3623180603
10000240000.0 0.938124839 0.3504746403
10050239700.0 0.9438937537 0.3344992837
10100239400.0 0.949660577 0.3182982477
10150239100.0 0.9538646822 0.3029667978
10200238800.0 0.9582049307 0.2875964047
10250238500.0 0.961416588 0.2740313544
10300238200.0 0.9646801982 0.2600452042
10350237900.0 0.9674440277 0.246729186
10400237600.0 0.9700072604 0.2332687748
10450237300.0 0.9727581401 0.2198408072
10500237000.0 0.9750227037 0.2075742883
10550236700.0 0.9776767299 0.1925610575
10600236400.0 0.9793371363 0.1788802511
10650236100.0 0.9813956873 0.1645951547
10700235800.0 0.9835125961 0.1525078665
10750235500.0 0.9857909537 0.1388427194
10800235200.0 0.9877913187 0.1244960903
10850234900.0 0.989823173 0.1098327398
10900234600.0 0.9920204995 0.0949612174
10950234300.0 0.9937234939 0.0814141862
11000234000.0 0.995516334 0.0658120233
11050233700.0 0.9971807903 0.049212351
11100233400.0 0.9989273576 0.0315942281
11150233100.0 0.9999128499 0.0146636118
11200232800.0 1.00063947 -0.0011906006
11250232500.0 1.001780334 -0.0191861166
11300232200.0 1.002088053 -0.0370589616
11350231900.0 1.00209054 -0.0527419738
11400231600.0 1.001901622 -0.0687135442
11450231300.0 1.000898157 -0.0841893819
11500231000.0 0.9997372931 -0.1002547533
11550230700.0 0.998844275 -0.1139961945
11600230400.0 0.9971663293 -0.1268385796
11650230100.0 0.9947575097 -0.1381802294
11700229800.0 0.9926552729 -0.1529244253
11750229500.0 0.9904288502 -0.1673304523
11800229200.0 0.9874071661 -0.1805413266
11850228900.0 0.9835793956 -0.1923543161
11900228600.0 0.9801951731 -0.2015679289
11950228300.0 0.9767933326 -0.2122227188
12000228000.0 0.9740280232 -0.2208418739
12050227700.0 0.9703361969 -0.2332841305
12100227400.0 0.9671962231 -0.2449795838
12150227100.0 0.9621451748 -0.2612391094
12200226800.0 0.9583866923 -0.2724134625
12250226500.0 0.9542842306 -0.2842634072
12300226200.0 0.9500530762 -0.2976741212
12350225900.0 0.9447932775 -0.3110977441
12400225600.0 0.9405519637 -0.3236487928
12450225300.0 0.9361779832 -0.3362558549
12500225000.0 0.9307256889 -0.351354439
12550224700.0 0.9252183889 -0.3651114447
12600224400.0 0.9202833104 -0.3776335081
12650224100.0 0.9145610395 -0.3918802921
12700223800.0 0.9093247244 -0.40474499
12750223500.0 0.9037048722 -0.4178111916
12800223200.0 0.8984419514 -0.4304397709
12850222900.0 0.8931879261 -0.4429077101
12900222600.0 0.8874972319 -0.4548998389
12950222300.0 0.881313057 -0.4678640079
13000222000.0 0.8755540275 -0.4792273603
13050221700.0 0.8684062875 -0.4918775946
13100221400.0 0.8614981026 -0.5041282955
13150221100.0 0.8550280632 -0.5157615293
13200220800.0 0.8481679268 -0.5273819554
13250220500.0 0.840746565 -0.5399049134
13300220200.0 0.8333217439 -0.5505735125
13350219900.0 0.8251211189 -0.562638734
13400219600.0 0.8168417091 -0.5742745336
13450219300.0 0.8074559442 -0.5874093215
13500219000.0 0.7974913901 -0.6009437976
13550218700.0 0.7878094197 -0.6127930449
13600218400.0 0.7773855956 -0.6253578655
13650218100.0 0.7688096334 -0.6358296587
13700217800.0 0.7581956667 -0.6472289189
13750217500.0 0.748178946 -0.6588669857
13800217200.0 0.7367355128 -0.6705477648
13850216900.0 0.7258940601 -0.6812679724
13900216600.0 0.7160774733 -0.6903861629
13950216300.0 0.7052600228 -0.6998552803
14000216000.0 0.6953189875 -0.7091764732
14050215700.0 0.6864405451 -0.717411419
14100215400.0 0.6767601561 -0.7264055916
14150215100.0 0.6674346482 -0.7353792146
14200214800.0 0.6580849826 -0.7442023068
14250214500.0 0.6476498869 -0.7534819337
14300214200.0 0.6371260393 -0.7629704757
14350213900.0 0.6262550773 -0.7724757176
14400213600.0 0.6142636013 -0.7825466145
14450213300.0 0.6011432166 -0.7929592174
14500213000.0 0.588258743 -0.8026647536
14550212700.0 0.5760170598 -0.8118442455
14600212400.0 0.5635273655 -0.8208566766
14650212100.0 0.5507848285 -0.8294649719
14700211800.0 0.5368723266 -0.8391294778
14750211500.0 0.5252075736 -0.8473781425
14800211200.0 0.5122369947 -0.8554846904
14850210900.0 0.4999465877 -0.8630343706
14900210600.0 0.4866114933 -0.8710111357
14950210300.0 0.4736091397 -0.8786425911
15000210000.0 0.4608912505 -0.8852431231
15050209700.0 0.4486055101 -0.8915223177
15100209400.0 0.4354992279 -0.8972399255
15150209100.0 0.4232459921 -0.9022303159
15200208800.0 0.4109050671 -0.9082907273
15250208500.0 0.3994582067 -0.9124409386
15300208200.0 0.3872214661 -0.9174075617
15350207900.0 0.3743326538 -0.9219171138
15400207600.0 0.3593427562 -0.9275863579
15450207300.0 0.3457276648 -0.9322141005
15500207000.0 0.3302567354 -0.9371873052
15550206700.0 0.3151029113 -0.9419109965
15600206400.0 0.2995480582 -0.9471153207
15650206100.0 0.2837519046 -0.9508917728
15700205800.0 0.2698020035 -0.9545213906
15750205500.0 0.2561100812 -0.9580103266
15800205200.0 0.2420032995 -0.9613961094
15850204900.0 0.2278203551 -0.9649193571
15900204600.0 0.2128149386 -0.9685114664
15950204300.0 0.198563627 -0.971845853
16000204000.0 0.1839752338 -0.9745301076
16050203700.0 0.168707386 -0.9775945027
16100203400.0 0.1540705022 -0.9795832978
16150203100.0 0.1398154851 -0.9819602586
16200202800.0 0.125515076 -0.9845768541
16250202500.0 0.1098400762 -0.9855766703
16300202200.0 0.0945634488 -0.9876402337
16350201900.0 0.0800686242 -0.9892327172
16400201600.0 0.065158637 -0.9900315032
16450201300.0 0.049885816 -0.9910962653
16500201000.0 0.0326601729 -0.9920167483
16550200700.0 0.0167161344 -0.9925754323
16600200400.0 0.0010134357 -0.9925908084
16650200100.0 -0.0154744173 -0.9925769311
16700199800.0 -0.0316898535 -0.992210325
16750199500.0 -0.0511148105 -0.9913674954
16800199200.0 -0.0665743713 -0.9905048159
16850198900.0 -0.0824213612 -0.9894653439
16900198600.0 -0.09541511 -0.9884115059
16950198300.0 -0.1096006871 -0.9873785757
17000198000.0 -0.1226121607 -0.986319361
17050197700.0 -0.1354236041 -0.9837832623
17100197400.0 -0.1484359027 -0.9820954797
17150197100.0 -0.1604792327 -0.979800881
17200196800.0 -0.1735624618 -0.9779115736
17250196500.0 -0.186365057 -0.9754678126
17300196200.0 -0.1986865466 -0.9733201972
17350195900.0 -0.2106306295 -0.9707315652
17400195600.0 -0.2225296315 -0.968345463
17450195300.0 -0.2356098226 -0.9653641412
17500195000.0 -0.2489093919 -0.9620441304
17550194700.0 -0.2625593574 -0.9586432644
17600194400.0 -0.2765298433 -0.9546862098
17650194100.0 -0.2902998621 -0.9506160621
17700193800.0 -0.3031405727 -0.946261588
17750193500.0 -0.317247705 -0.9417930597
17800193200.0 -0.3317926168 -0.9369103014
17850192900.0 -0.3464417498 -0.9310861149
17900192600.0 -0.3615042063 -0.9248994414
17950192300.0 -0.3770481363 -0.9179475953
18000192000.0 -0.391766945 -0.9107977291
18050191700.0 -0.4057075098 -0.9028295665
18100191400.0 -0.420010972 -0.8952146606
18150191100.0 -0.4347692928 -0.8871638987
18200190800.0 -0.4516014454 -0.8780204929
18250190500.0 -0.4687422311 -0.8686271759
18300190200.0 -0.4842435868 -0.8597757514
18350189900.0 -0.4989970946 -0.8513096449
18400189600.0 -0.5140132591 -0.8429800908
18450189300.0 -0.5272249163 -0.8349906326
18500189000.0 -0.5414294706 -0.826812668
18550188700.0 -0.5534883311 -0.8193239111
18600188400.0 -0.5652122676 -0.812539687
18650188100.0 -0.5767201768 -0.8061368341
18700187800.0 -0.5871209515 -0.7992086868
18750187500.0 -0.5980568398 -0.7926385288
18800187200.0 -0.6087878264 -0.7857396225
18850186900.0 -0.6190383648 -0.7788286259
18900186600.0 -0.6292912204 -0.7713448811
18950186300.0 -0.6391764827 -0.7637023236
19000186000.0 -0.647005972 -0.757764924
19050185700.0 -0.6558824154 -0.750043322
19100185400.0 -0.6661392366 -0.7419485409
19150185100.0 -0.6758347084 -0.7339049965
19200184800.0 -0.6849540458 -0.725181424
19250184500.0 -0.6957486983 -0.7160814563
19300184200.0 -0.707464798 -0.7070264579
19350183900.0 -0.7179664099 -0.6968061498
19400183600.0 -0.7277726094 -0.6868406845
19450183300.0 -0.7365961853 -0.677130162
19500183000.0 -0.7449231782 -0.6671606425
19550182700.0 -0.7549634124 -0.6557775308
19600182400.0 -0.7648452526 -0.6444652057
19650182100.0 -0.7757137027 -0.6321729671
19700181800.0 -0.7862073597 -0.618896296
19750181500.0 -0.796651209 -0.6048567105
19800181200.0 -0.8068630931 -0.5898200331
19850180900.0 -0.8163650428 -0.5744240042
19900180600.0 -0.8240247409 -0.5601099189
19950180300.0 -0.8334167078 -0.5436433445
20000180000.0 -0.8231555238 -0.546415703
20050179700.0 -0.8317683584 -0.5343961685
20100179400.0 -0.8404947688 -0.5211802973
20150179100.0 -0.8481596822 -0.5085166258
20200178800.0 -0.8572993533 -0.4972231476
20250178500.0 -0.8661679967 -0.4837943634
20300178200.0 -0.8759503248 -0.4702711194
20350177900.0 -0.8851594821 -0.4563562308
20400177600.0 -0.8941795544 -0.4428563782
20450177300.0 -0.9023453956 -0.4278577063
20500177000.0 -0.9105232896 -0.4140322818
20550176700.0 -0.9187624425 -0.4004692893
20600176400.0 -0.9249965852 -0.3875856978
20650176100.0 -0.9317320326 -0.3754260693
20700175800.0 -0.9391153731 -0.3639988276
20750175500.0 -0.9445985163 -0.3516241403
20800175200.0 -0.9495932739 -0.3412421852
20850174900.0 -0.9548449538 -0.3304542018
20900174600.0 -0.9587022279 -0.3194471153
20950174300.0 -0.9623878243 -0.3081053976
21000174000.0 -0.9656880837 -0.2968527546
21050173700.0 -0.9665134924 -0.2872361056
21100173400.0 -0.970700224 -0.2760913509
21150173100.0 -0.9738449848 -0.2641566215
21200172800.0 -0.9783115637 -0.2508673627
21250172500.0 -0.9820343992 -0.2379390188
21300172200.0 -0.9850941351 -0.2231860686
21350171900.0 -0.9874048797 -0.2088985957
21400171600.0 -0.9891877326 -0.1953516753
21450171300.0 -0.9892897763 -0.1811746532
21500171000.0 -0.9902008261 -0.1654459914
21550170700.0 -0.9902641927 -0.1507881369
21600170400.0 -0.9922051505 -0.1344926744
21650170100.0 -0.990588459 -0.1191916782
21700169800.0 -0.9899403052 -0.1047770752
21750169500.0 -0.9900628592 -0.0878375936
21800169200.0 -0.9902778597 -0.0715039048
21850168900.0 -0.9887609555 -0.0539615347
21900168600.0 -0.9895791709 -0.038362869
21950168300.0 -0.9887880395 -0.0228099599
22000168000.0 -0.9879976752 -0.0078568257
22050167700.0 -0.9884285298 0.0066745034
22100167400.0 -0.989291482 0.0222915582
22150167100.0 -0.9897158582 0.0382698218
22200166800.0 -0.9904720731 0.0548435198
22250166500.0 -0.9900719033 0.0716182707
22300166200.0 -0.9894942293 0.0883287426
22350165900.0 -0.9886274444 0.1044797729
22400165600.0 -0.9863551324 0.1200213749
22450165300.0 -0.985229986 0.1353413094
22500165000.0 -0.9827313734 0.1496926429
22550164700.0 -0.9820011188 0.165925652
22600164400.0 -0.9792789986 0.18141972
22650164100.0 -0.9774131412 0.1975119662
22700163800.0 -0.9729843072 0.2137664407
22750163500.0 -0.9710601324 0.2279517177
22800163200.0 -0.9682087428 0.2417615961
22850162900.0 -0.9655179442 0.2549432552
22900162600.0 -0.9637080392 0.2687410438
22950162300.0 -0.962257275 0.2821122554
23000162000.0 -0.9603196764 0.2948678079
23050161700.0 -0.9580359734 0.3078391087
23100161400.0 -0.9552520564 0.3207827505
23150161100.0 -0.9517820388 0.334228824
23200160800.0 -0.9494709423 0.3469783209
23250160500.0 -0.9466231293 0.3586639761
23300160200.0 -0.9439478183 0.3719490561
23350159900.0 -0.9396596687 0.3849990821
23400159600.0 -0.9350113963 0.3993448399
23450159300.0 -0.9291167825 0.412766326
23500159000.0 -0.9252476222 0.4258672646
23550158700.0 -0.920058464 0.4401290274
23600158400.0 -0.9141283981 0.4538102472
23650158100.0 -0.9072448217 0.4683181096
23700157800.0 -0.8990183409 0.4825029946
23750157500.0 -0.8895848378 0.4968785039
23800157200.0 -0.8801023236 0.5104415719
23850156900.0 -0.8704391554 0.523113181
23900156600.0 -0.8607018241 0.5359567437
23950156300.0 -0.8511042963 0.5485265459
24000156000.0 -0.8415894273 0.5608551216
24050155700.0 -0.8314206575 0.5727226226
24100155400.0 -0.8210260788 0.5850595658
24150155100.0 -0.8102047174 0.5971226373
24200154800.0 -0.7986104551 0.6081672373
24250154500.0 -0.787791278 0.6208646309
24300154200.0 -0.7765369428 0.6330558231
24350153900.0 -0.7645596698 0.6445734335
24400153600.0 -0.7515403141 0.654774918
24450153300.0 -0.7396523388 0.6645986709
24500153000.0 -0.728728847 0.6747046983
24550152700.0 -0.7171209678 0.684395373
24600152400.0 -0.7049462142 0.6941517875
24650152100.0 -0.6925979607 0.7028248162
