!Created with skrf (http://scikit-rf.org).
# Hz S RI R 50.0 
!freq ReS11 ImS11
300000.0 -0.973649923 -0.1210057533
50299700.0 -0.9998790028 0.0148837932
100299400.0 -0.9980626205 0.028130047
150299100.0 -1.002825287 0.0449817605
200298800.0 -0.9995576181 0.0582270158
250298500.0 -0.9973467895 0.0717483846
300298200.0 -0.9858324854 0.087447843
350297900.0 -0.9938487107 0.0984471891
400297600.0 -0.9932151469 0.114876368
450297300.0 -0.9908671053 0.1288288244
500297000.0 -0.9893735413 0.1433652923
550296700.0 -0.9843886602 0.1559101787
600296400.0 -1.0173554 0.189145137
650296100.0 -0.9821264998 0.1857623373
700295800.0 -0.9793031325 0.1999985554
750295500.0 -0.9763257585 0.2140250836
800295200.0 -0.9729703075 0.2281911152
850294900.0 -0.9695756435 0.2420926473
900294600.0 -0.965878214 0.2555357398
950294300.0 -0.9620591109 0.2694661385
1000294000.0 -0.9581834452 0.2832891667
1050293700.0 -0.9536024464 0.2973860397
1100293400.0 -0.9493829909 0.3115866013
1150293100.0 -0.9455658497 0.3235466092
1200292800.0 -0.940227487 0.3377919092
1250292500.0 -0.9346181396 0.3514337631
1300292200.0 -0.9290902055 0.364534333
1350291900.0 -0.9234309407 0.378327599
1400291600.0 -0.9180072372 0.3918762925
1450291300.0 -0.9124840218 0.4041132175
1500291000.0 -0.9061548698 0.4173737894
1550290700.0 -0.8998038069 0.4307677024
1600290400.0 -0.893409128 0.4435765899
1650290100.0 -0.8868172532 0.4558121988
1700289800.0 -0.8796637957 0.4693739663
1750289500.0 -0.8730828183 0.481611102
1800289200.0 -0.8656445448 0.4944588894
1850288900.0 -0.8587765706 0.5058330652
1900288600.0 -0.8508622025 0.5187302978
1950288300.0 -0.8429818248 0.5313253286
2000288000.0 -0.8353799329 0.5429284728
2050287700.0 -0.8270093737 0.5551396145
2100287400.0 -0.8193480377 0.5667071708
2150287100.0 -0.8107839417 0.5786594316
2200286800.0 -0.8031743982 0.5891840097
2250286500.0 -0.7940600992 0.601601253
2300286200.0 -0.785241752 0.6130777221
2350285900.0 -0.7768323257 0.6236231569
2400285600.0 -0.7678655977 0.6345975362
2450285300.0 -0.759082396 0.6450810163
2500285000.0 -0.7491508871 0.6566973761
2550284700.0 -0.7400547591 0.6670780003
2600284400.0 -0.7308688999 0.6768566004
2650284100.0 -0.7222224822 0.6871897448
2700283800.0 -0.7118322023 0.6978656096
2750283500.0 -0.7013257642 0.7083602387
2800283200.0 -0.6914227725 0.718173245
2850282900.0 -0.6811466951 0.7282673429
2900282600.0 -0.6706925513 0.7376298233
2950282300.0 -0.6604216045 0.7471441455
3000282000.0 -0.6493935667 0.7564664973
3050281700.0 -0.6383923383 0.7659507574
3100281400.0 -0.6266937542 0.7749355679
3150281100.0 -0.6154447521 0.7838979498
3200280800.0 -0.6041369941 0.7924616282
3250280500.0 -0.5929387844 0.8003766788
3300280200.0 -0.5813364736 0.8084709264
3350279900.0 -0.5694442959 0.8163958157
3400279600.0 -0.5566973406 0.8244111689
3450279300.0 -0.5456235616 0.8314708359
3500279000.0 -0.5339814385 0.8386178522
3550278700.0 -0.5217782055 0.8457229607
3600278400.0 -0.5099314226 0.8525013688
3650278100.0 -0.4966239346 0.8601624753
3700277800.0 -0.4846882963 0.8667420047
3750277500.0 -0.4722457637 0.8732096139
3800277200.0 -0.459999966 0.8797587238
3850276900.0 -0.4474419633 0.8855915399
3900276600.0 -0.4369381417 0.8912033725
3950276300.0 -0.424632002 0.8973122067
4000276000.0 -0.4129355207 0.9031406255
4050275700.0 -0.4003426836 0.9091641168
4100275400.0 -0.3890140169 0.9145349316
4150275100.0 -0.3759779171 0.9204563804
4200274800.0 -0.362476477 0.9260863467
4250274500.0 -0.3501128826 0.9315261109
4300274200.0 -0.3368035517 0.9366421231
4350273900.0 -0.3228695388 0.9419843318
4400273600.0 -0.3078849775 0.947161683
4450273300.0 -0.2929198288 0.9522606756
4500273000.0 -0.2797550088 0.9564396808
4550272700.0 -0.2660117905 0.9606268196
4600272400.0 -0.2507028464 0.9647214323
4650272100.0 -0.2393981163 0.9679679456
4700271800.0 -0.2263952412 0.9711735813
4750271500.0 -0.2148087755 0.9740502996
4800271200.0 -0.2024745446 0.9768032408
4850270900.0 -0.1886787335 0.9795262347
4900270600.0 -0.1747920909 0.9820477443
4950270300.0 -0.1604219334 0.9848241696
5000270000.0 -0.1458490861 0.9870119099
5050269700.0 -0.1324234772 0.9884161797
5100269400.0 -0.1184260474 0.9900174064
5150269100.0 -0.1047248374 0.99187032
5200268800.0 -0.0912086809 0.9925505661
5250268500.0 -0.0780953182 0.9940165572
5300268200.0 -0.0646167849 0.9946655511
5350267900.0 -0.0519166464 0.9954916477
5400267600.0 -0.0357056407 0.996173385
5450267300.0 -0.0225486713 0.9965030198
5500267000.0 -0.0072298084 0.9972190216
5550266700.0 0.0077636207 0.9972046213
5600266400.0 0.0235466116 0.9969970709
5650266100.0 0.0400690426 0.9967452847
5700265800.0 0.0546782549 0.9962496242
5750265500.0 0.0694495411 0.9951539586
5800265200.0 0.0833612955 0.9945569618
5850264900.0 0.0962087828 0.9933189834
5900264600.0 0.1129769913 0.9915102059
5950264300.0 0.1245176033 0.9894558792
6000264000.0 0.1382629657 0.9879940906
6050263700.0 0.1498716863 0.9868647765
6100263400.0 0.1623531358 0.985015177
6150263100.0 0.1765372078 0.9822312066
6200262800.0 0.1866878444 0.9810302653
6250262500.0 0.199290074 0.9786489917
6300262200.0 0.211567586 0.9759774623
6350261900.0 0.2243464345 0.9733270075
6400261600.0 0.238356469 0.970022321
6450261300.0 0.2494122444 0.9675244375
6500261000.0 0.2627568353 0.9639106095
6550260700.0 0.2757510296 0.95976715
6600260400.0 0.2891731321 0.9558723787
6650260100.0 0.3031899232 0.9514365361
6700259800.0 0.3153066039 0.9471314531
6750259500.0 0.3290282849 0.9423222751
6800259200.0 0.3425804371 0.9371454685
6850258900.0 0.3549083455 0.9319568309
6900258600.0 0.3673642739 0.9269443494
6950258300.0 0.3799134095 0.921281044
7000258000.0 0.3917497885 0.9162096222
7050257700.0 0.4036352678 0.9100277477
7100257400.0 0.4168409046 0.9038370613
7150257100.0 0.4274258596 0.8984036782
7200256800.0 0.4403587595 0.8921219635
7250256500.0 0.4529690026 0.8853368219
7300256200.0 0.465945542 0.8787895146
7350255900.0 0.4785602045 0.8715071326
7400255600.0 0.4926944426 0.8641987454
7450255300.0 0.5081176146 0.854884876
7500255000.0 0.5202426762 0.8475577942
7550254700.0 0.5348757418 0.8385248549
7600254400.0 0.5472903048 0.8301811437
7650254100.0 0.5586170231 0.8225476038
7700253800.0 0.5700676646 0.8144667194
7750253500.0 0.5814225642 0.8067140132
7800253200.0 0.5920503869 0.7990656204
7850252900.0 0.6018585163 0.7916992376
7900252600.0 0.6133642727 0.7830383323
7950252300.0 0.6218751629 0.7767100681
8000252000.0 0.631816021 0.7691833624
8050251700.0 0.6423625481 0.7610147577
8100251400.0 0.6519858866 0.7530969868
8150251100.0 0.662161506 0.7445707044
8200250800.0 0.6717016129 0.736258417
8250250500.0 0.6803865264 0.7282929959
8300250200.0 0.6897253092 0.7199569142
8350249900.0 0.6986803536 0.7112760984
8400249600.0 0.7067372405 0.7032222328
8450249300.0 0.7159210434 0.6943842514
8500249000.0 0.7243979872 0.6855395975
8550248700.0 0.7327704822 0.6765006851
8600248400.0 0.7411439955 0.6669218314
8650248100.0 0.7485257295 0.6576219941
8700247800.0 0.7580077621 0.6464238953
8750247500.0 0.7662368899 0.6364387365
8800247200.0 0.7741872987 0.6260812599
8850246900.0 0.7831828548 0.6144884754
8900246600.0 0.7914475553 0.6030488805
8950246300.0 0.8006068482 0.590318161
9000246000.0 0.8099470099 0.5784309218
9050245700.0 0.8181696483 0.5660519627
9100245400.0 0.8265879965 0.5536449691
9150245100.0 0.835469141 0.5406725128
9200244800.0 0.8447536915 0.5261405903
9250244500.0 0.854232846 0.5113593272
9300244200.0 0.8622804826 0.4973406317
9350243900.0 0.870060558 0.4841983411
9400243600.0 0.8764490206 0.4723105372
9450243300.0 0.8822458236 0.461445607
9500243000.0 0.8885026376 0.4496107064
9550242700.0 0.892548618 0.442305683
9600242400.0 0.8966765561 0.4347471073
9650242100.0 0.900796789 0.4278376086
9700241800.0 0.9054139636 0.4193889921
9750241500.0 0.9095797651 0.4117062556
9800241200.0 0.9146442146 0.4023653639
9850240900.0 0.9203743786 0.3904952932
9900240600.0 0.9261134772 0.3789197051
9950240300.0 0.9331096187 0.3620672978
10000240000.0 0.9384122163 0.3501243988
10050239700.0 0.9444032097 0.333993425
10100239400.0 0.9491053835 0.3185715644
10150239100.0 0.9538106895 0.3030507127
10200238800.0 0.9581075946 0.2873040847
10250238500.0 0.9616022646 0.2739275263
10300238200.0 0.9644484436 0.2600806426
10350237900.0 0.9674401258 0.2465126535
10400237600.0 0.9699227321 0.2335626863
10450237300.0 0.9726833339 0.219701471
10500237000.0 0.9748510098 0.2071206704
10550236700.0 0.9773227852 0.193000311
10600236400.0 0.9793259795 0.1791327803
10650236100.0 0.9812065455 0.1649096047
10700235800.0 0.9837595397 0.152037054
10750235500.0 0.9857418185 0.1388643616
10800235200.0 0.987896869 0.1245186202
10850234900.0 0.9900728686 0.1091535602
10900234600.0 0.9919789399 0.0946222497
10950234300.0 0.9935768733 0.0814510763
11000234000.0 0.995480744 0.0658392155
11050233700.0 0.9973753957 0.0491891218
11100233400.0 0.9987047052 0.0316263153
11150233100.0 0.9998898824 0.0149058299
11200232800.0 1.000713263 -0.0009776313
11250232500.0 1.001506814 -0.0187173085
11300232200.0 1.002302916 -0.0365790903
11350231900.0 1.002217917 -0.0531032527
11400231600.0 1.001433778 -0.0687657262
11450231300.0 1.000636549 -0.0832173799
11500231000.0 0.9998723548 -0.101105041
11550230700.0 0.9986528777 -0.1136331258
11600230400.0 0.9972780712 -0.1265929018
11650230100.0 0.995053541 -0.1384692011
11700229800.0 0.992853486 -0.15306384
11750229500.0 0.9902019845 -0.16739482
11800229200.0 0.9875714356 -0.1806455844
11850228900.0 0.983767528 -0.1927198426
11900228600.0 0.9800819322 -0.2022890859
11950228300.0 0.9766450321 -0.2119068549
12000228000.0 0.9740305729 -0.2213742054
12050227700.0 0.97002535 -0.2339152028
12100227400.0 0.9667582695 -0.2455643714
12150227100.0 0.9620068731 -0.2617556524
12200226800.0 0.9585004259 -0.2719272468
12250226500.0 0.9540583584 -0.2854014569
12300226200.0 0.9496138025 -0.2971742811
12350225900.0 0.9449705474 -0.3109876286
12400225600.0 0.9411923382 -0.3242056855
12450225300.0 0.936336706 -0.3364501977
12500225000.0 0.9305372796 -0.3513856514
12550224700.0 0.9252903526 -0.3646848003
12600224400.0 0.9203926163 -0.3777321263
12650224100.0 0.9145615743 -0.3919454245
12700223800.0 0.9092352711 -0.4047962303
12750223500.0 0.9038949756 -0.4178320119
12800223200.0 0.8985106661 -0.4305779782
12850222900.0 0.8933732654 -0.4423499839
12900222600.0 0.8877622817 -0.4547342736
12950222300.0 0.8810273078 -0.4673810268
13000222000.0 0.8751908194 -0.4789821857
13050221700.0 0.8686447333 -0.4917483282
13100221400.0 0.8620256946 -0.503599393
13150221100.0 0.8548797628 -0.516391334
13200220800.0 0.847783791 -0.5278086318
13250220500.0 0.8405877061 -0.5399287527
13300220200.0 0.8331504777 -0.5505730585
13350219900.0 0.8251409085 -0.5625625294
13400219600.0 0.8167640671 -0.5743757878
13450219300.0 0.8074277877 -0.5874152616
13500219000.0 0.7975137631 -0.6007754685
13550218700.0 0.7878357256 -0.6132882493
13600218400.0 0.7774141952 -0.6248837564
13650218100.0 0.7686461342 -0.6358564335
13700217800.0 0.7572528044 -0.647594277
13750217500.0 0.747855968 -0.6591304602
13800217200.0 0.7364346348 -0.6703563974
13850216900.0 0.7258679485 -0.681957612
13900216600.0 0.7162098465 -0.689836432
13950216300.0 0.7050241156 -0.7003826796
14000216000.0 0.6950807751 -0.7099223885
14050215700.0 0.6863435393 -0.7173294961
14100215400.0 0.6765470223 -0.7264763179
14150215100.0 0.6674379897 -0.7354969275
14200214800.0 0.6577421228 -0.7442862193
14250214500.0 0.6474622184 -0.7537409746
14300214200.0 0.637136035 -0.7631071813
14350213900.0 0.6259771173 -0.7728893278
14400213600.0 0.6141739899 -0.7826582866
14450213300.0 0.6012175988 -0.7927690357
14500213000.0 0.5879442084 -0.8023859053
14550212700.0 0.575369835 -0.8120733156
14600212400.0 0.5630161601 -0.8213037577
14650212100.0 0.5502893065 -0.8294972282
14700211800.0 0.5367755421 -0.8390636715
14750211500.0 0.5244145565 -0.8476020567
14800211200.0 0.5119912436 -0.8555870635
14850210900.0 0.4998395656 -0.8631241188
14900210600.0 0.4864614102 -0.8712071354
14950210300.0 0.4730183277 -0.878647121
15000210000.0 0.4606350521 -0.8855939642
15050209700.0 0.4484656829 -0.8917177519
15100209400.0 0.4355421618 -0.897510132
15150209100.0 0.4228790305 -0.90304397
15200208800.0 0.4103100258 -0.9083054605
15250208500.0 0.3996467603 -0.9123897404
15300208200.0 0.387447014 -0.9175038188
15350207900.0 0.3734660815 -0.9221619084
15400207600.0 0.3592549143 -0.9273236422
15450207300.0 0.3452355203 -0.9325539799
15500207000.0 0.3299797191 -0.9371961396
15550206700.0 0.3153314879 -0.9422467061
15600206400.0 0.299274106 -0.9462497487
15650206100.0 0.2837060994 -0.9509804696
15700205800.0 0.2705412288 -0.9544762086
15750205500.0 0.2558469158 -0.9579260823
15800205200.0 0.2417411641 -0.9615333628
15850204900.0 0.2276293838 -0.9648630546
15900204600.0 0.2125416663 -0.9685312058
15950204300.0 0.198130111 -0.9714469034
16000204000.0 0.1839898258 -0.9745347074
16050203700.0 0.1686242921 -0.9777556953
16100203400.0 0.1542431491 -0.9798939241
16150203100.0 0.1394822187 -0.9822347615
16200202800.0 0.1252433379 -0.9840566986
16250202500.0 0.1106078963 -0.9862432124
16300202200.0 0.0949912539 -0.9876184905
16350201900.0 0.0798878569 -0.9889072204
16400201600.0 0.0653585895 -0.9901681557
16450201300.0 0.0494340767 -0.9912323542
16500201000.0 0.0327464072 -0.992086542
16550200700.0 0.0166869874 -0.9925814361
16600200400.0 0.0008240883 -0.9930037507
16650200100.0 -0.0153255753 -0.9926860979
16700199800.0 -0.0316265452 -0.9925752128
16750199500.0 -0.0504341116 -0.9918125719
16800199200.0 -0.0657172549 -0.9910558403
16850198900.0 -0.0816573687 -0.9894533252
16900198600.0 -0.0959026167 -0.9890199075
16950198300.0 -0.1092653171 -0.9876759714
17000198000.0 -0.1226754032 -0.9858733595
17050197700.0 -0.1352242076 -0.9841773193
17100197400.0 -0.1479409242 -0.9820242498
17150197100.0 -0.1605412872 -0.9800877426
17200196800.0 -0.1741460175 -0.977903327
17250196500.0 -0.1868331871 -0.9757472554
17300196200.0 -0.1990191291 -0.9731941138
17350195900.0 -0.2107001199 -0.9708336974
17400195600.0 -0.222737282 -0.9685334481
17450195300.0 -0.2356104253 -0.9655934213
17500195000.0 -0.2490926086 -0.9624713101
17550194700.0 -0.262438223 -0.9588480399
17600194400.0 -0.2763460091 -0.9549289624
17650194100.0 -0.2901980946 -0.9506311769
17700193800.0 -0.3032362957 -0.9467557428
17750193500.0 -0.3171580696 -0.9421049769
17800193200.0 -0.33144231 -0.9365255969
17850192900.0 -0.3463421241 -0.9313116559
17900192600.0 -0.361560232 -0.9253088315
17950192300.0 -0.3770584511 -0.9180566593
18000192000.0 -0.3920162708 -0.9108972933
18050191700.0 -0.4057266756 -0.9027154383
18100191400.0 -0.4198836899 -0.8951879368
18150191100.0 -0.4347963649 -0.8872953368
18200190800.0 -0.451701037 -0.8779819431
18250190500.0 -0.4684862228 -0.8686422501
18300190200.0 -0.484020129 -0.8597856069
18350189900.0 -0.4993537183 -0.8514949132
18400189600.0 -0.5133783647 -0.8431033439
18450189300.0 -0.5272220199 -0.8351650892
18500189000.0 -0.5408895603 -0.8268767248
18550188700.0 -0.5534114438 -0.8192187411
18600188400.0 -0.5656211437 -0.8125162841
18650188100.0 -0.5767938974 -0.805664128
18700187800.0 -0.5878273191 -0.7991519269
18750187500.0 -0.5984677333 -0.7924377636
18800187200.0 -0.6091813395 -0.7856299706
18850186900.0 -0.6194236753 -0.7786707468
18900186600.0 -0.6295834034 -0.7713158773
18950186300.0 -0.6395613411 -0.7637485694
19000186000.0 -0.6472039985 -0.757244715
19050185700.0 -0.6563978296 -0.7506006128
19100185400.0 -0.6662439507 -0.7424000052
19150185100.0 -0.6766296023 -0.7340432158
19200184800.0 -0.6856866795 -0.7256259951
19250184500.0 -0.6957205106 -0.7160544358
19300184200.0 -0.7074535822 -0.7068107879
19350183900.0 -0.718562311 -0.6972985118
19400183600.0 -0.7282509692 -0.6873552446
19450183300.0 -0.736492477 -0.6766792041
19500183000.0 -0.7449320318 -0.6669613827
19550182700.0 -0.7547036576 -0.6558523146
19600182400.0 -0.7651499651 -0.6446644539
19650182100.0 -0.7759032682 -0.6319345047
19700181800.0 -0.7862534075 -0.6189222532
19750181500.0 -0.7966702057 -0.6046209119
19800181200.0 -0.8066494212 -0.5900147967
19850180900.0 -0.8163732723 -0.574557432
19900180600.0 -0.82413212 -0.5601207851
19950180300.0 -0.8333081628 -0.5442164054
20000180000.0 -0.8239823647 -0.5472299696
20050179700.0 -0.8314262686 -0.5341394433
20100179400.0 -0.8403958354 -0.5210163375
20150179100.0 -0.8485842994 -0.5089148352
20200178800.0 -0.8569102822 -0.4974634771
20250178500.0 -0.8662425362 -0.4843548891
20300178200.0 -0.8763107684 -0.4710878785
20350177900.0 -0.8853688225 -0.4565361354
20400177600.0 -0.8943557315 -0.442387003
20450177300.0 -0.9025544559 -0.4281748332
20500177000.0 -0.9107873308 -0.4141579606
20550176700.0 -0.9186735665 -0.4005010382
20600176400.0 -0.9257555421 -0.387943047
20650176100.0 -0.932145345 -0.3752312322
20700175800.0 -0.9380933496 -0.3635970447
20750175500.0 -0.9451951828 -0.352374283
20800175200.0 -0.949493691 -0.3407636423
20850174900.0 -0.9538431682 -0.3308144743
20900174600.0 -0.9586008169 -0.3198748926
20950174300.0 -0.9627081651 -0.3078620106
21000174000.0 -0.9649952767 -0.2979343442
21050173700.0 -0.9672667915 -0.2871643204
21100173400.0 -0.9709230479 -0.2766249787
21150173100.0 -0.9748519144 -0.2646385651
21200172800.0 -0.9779472054 -0.2509456613
21250172500.0 -0.9817349159 -0.2378243214
21300172200.0 -0.9849518295 -0.2233605821
21350171900.0 -0.9869841455 -0.2096366673
21400171600.0 -0.9882817473 -0.1954146018
21450171300.0 -0.9896821534 -0.1810669857
21500171000.0 -0.9897753755 -0.1661781894
21550170700.0 -0.9911341213 -0.1501611314
21600170400.0 -0.9912957705 -0.1352600158
21650170100.0 -0.991255815 -0.1198542889
21700169800.0 -0.9889356977 -0.1043260143
21750169500.0 -0.9886517942 -0.088270611
21800169200.0 -0.989761853 -0.0710068286
21850168900.0 -0.9895755316 -0.0545678637
21900168600.0 -0.9886336708 -0.0380991485
21950168300.0 -0.9881781131 -0.0223110508
22000168000.0 -0.9877721499 -0.0076575321
22050167700.0 -0.9882988258 0.0071704278
22100167400.0 -0.9889265173 0.0229212622
22150167100.0 -0.9896053491 0.0386251544
22200166800.0 -0.9901823689 0.055518361
22250166500.0 -0.9898785382 0.0725787829
22300166200.0 -0.9891898188 0.0884455828
22350165900.0 -0.9872092355 0.1054859546
22400165600.0 -0.986784278 0.1207362046
22450165300.0 -0.9845374157 0.1359522328
22500165000.0 -0.9830169475 0.1494558571
22550164700.0 -0.9817802859 0.1656327591
22600164400.0 -0.9798551988 0.1813268452
22650164100.0 -0.977153496 0.1972545789
22700163800.0 -0.9739514219 0.2136250079
22750163500.0 -0.9706677405 0.2283638687
22800163200.0 -0.9678714417 0.2411222014
22850162900.0 -0.9650696625 0.2544394284
22900162600.0 -0.9635692754 0.2683832372
22950162300.0 -0.9619769718 0.2820953999
23000162000.0 -0.9606010103 0.2946379953
23050161700.0 -0.9579566594 0.3078454506
23100161400.0 -0.9548194508 0.3211286648
23150161100.0 -0.9521103856 0.3335026314
23200160800.0 -0.9492786691 0.3469285224
23250160500.0 -0.9461754179 0.3597423029
23300160200.0 -0.9437515925 0.3710652025
23350159900.0 -0.9391162714 0.3850702976
23400159600.0 -0.9344852521 0.3983016955
23450159300.0 -0.930167256 0.4122547125
23500159000.0 -0.9250168008 0.4258101818
23550158700.0 -0.9199990068 0.4400605861
23600158400.0 -0.914309614 0.4537635343
23650158100.0 -0.9074052363 0.4683400379
23700157800.0 -0.8990343926 0.4823895102
23750157500.0 -0.8898531684 0.4966363425
23800157200.0 -0.88038316 0.5095530708
23850156900.0 -0.8707528406 0.5231048572
23900156600.0 -0.8614014044 0.5356343465
23950156300.0 -0.8514220782 0.5482347148
24000156000.0 -0.8428853363 0.5602146173
24050155700.0 -0.8321362849 0.5717568198
24100155400.0 -0.8212817413 0.5844841768
24150155100.0 -0.8109009554 0.5968124427
24200154800.0 -0.7992331206 0.6079219469
24250154500.0 -0.7887144252 0.6206782411
24300154200.0 -0.777204318 0.632229651
24350153900.0 -0.7648058531 0.6431584514
24400153600.0 -0.7526158761 0.6538947698
24450153300.0 -0.7407650411 0.6639293535
24500153000.0 -0.7290222509 0.6736704883
24550152700.0 -0.7178824634 0.6837145851
24600152400.0 -0.7056310816 0.6926715648
24650152100.0 -0.6936444794 0.7020078011
