!Created with skrf (http://scikit-rf.org).
# Hz S RI R 50.0 
!freq ReS11 ImS11
300000.0 -0.9723268728 -0.1238334037
50299700.0 -0.9998066546 0.0150183344
100299400.0 -0.9979381725 0.0279620787
150299100.0 -1.002643479 0.0448326657
200298800.0 -0.9994469912 0.0583114147
250298500.0 -0.9973153582 0.0717404338
300298200.0 -0.9858834145 0.0873743906
350297900.0 -0.9940873512 0.0983260684
400297600.0 -0.9930975957 0.1147442852
450297300.0 -0.9910317491 0.1285982378
500297000.0 -0.9893387734 0.1433821277
550296700.0 -0.984248408 0.1556516488
600296400.0 -1.017149624 0.1890838531
650296100.0 -0.9820304797 0.1857434962
700295800.0 -0.9793239942 0.199966292
750295500.0 -0.9761661068 0.2138783014
800295200.0 -0.9728317919 0.2279357261
850294900.0 -0.9696147352 0.2419020622
900294600.0 -0.9656465698 0.2557665812
950294300.0 -0.9619392533 0.2692208421
1000294000.0 -0.9581547438 0.2832554099
1050293700.0 -0.95345954 0.2969531519
1100293400.0 -0.9493237904 0.3114087316
1150293100.0 -0.945646083 0.3233467049
1200292800.0 -0.9402211995 0.3377205902
1250292500.0 -0.9346806754 0.3511778038
1300292200.0 -0.9289662487 0.3645812458
1350291900.0 -0.9235661139 0.3783920819
1400291600.0 -0.917926279 0.3915538022
1450291300.0 -0.9125239953 0.4040502654
1500291000.0 -0.9060903017 0.4173843006
1550290700.0 -0.8995953616 0.4305866087
1600290400.0 -0.8934565566 0.443785303
1650290100.0 -0.8869003642 0.455782173
1700289800.0 -0.8798763076 0.469243631
1750289500.0 -0.8728028045 0.4814421197
1800289200.0 -0.8655378968 0.4943949945
1850288900.0 -0.8588258355 0.5057102593
1900288600.0 -0.8509980464 0.5187013227
1950288300.0 -0.8429059366 0.5309909829
2000288000.0 -0.8355369704 0.5428687102
2050287700.0 -0.8271332989 0.5550351851
2100287400.0 -0.8191416468 0.566581531
2150287100.0 -0.8108595017 0.5786360598
2200286800.0 -0.8031429908 0.589193325
2250286500.0 -0.7940693406 0.601500474
2300286200.0 -0.7853617574 0.6127947854
2350285900.0 -0.7769731567 0.6234778439
2400285600.0 -0.7677355137 0.6344289371
2450285300.0 -0.7589544183 0.6451626104
2500285000.0 -0.7490207344 0.6567167599
2550284700.0 -0.7400741011 0.6670303498
2600284400.0 -0.7311861575 0.6769188372
2650284100.0 -0.7223686141 0.6870036405
2700283800.0 -0.7120916641 0.6975458248
2750283500.0 -0.7015226926 0.7081999323
2800283200.0 -0.6917837816 0.7179280351
2850282900.0 -0.6809979594 0.7281728306
2900282600.0 -0.6706508983 0.7376197665
2950282300.0 -0.6602368197 0.7472279888
3000282000.0 -0.6494780691 0.7566767776
3050281700.0 -0.6384819637 0.7659392588
3100281400.0 -0.626594103 0.7750574401
3150281100.0 -0.6156502283 0.7838662712
3200280800.0 -0.6041376586 0.792361989
3250280500.0 -0.5929752115 0.8002258307
3300280200.0 -0.5814999073 0.8084577566
3350279900.0 -0.5692797175 0.8163405333
3400279600.0 -0.5567835136 0.824510578
3450279300.0 -0.5455208726 0.8317968616
3500279000.0 -0.5337479361 0.8385359139
3550278700.0 -0.5213770791 0.8456261119
3600278400.0 -0.5098335771 0.8524132993
3650278100.0 -0.4967651345 0.8599510118
3700277800.0 -0.4848317792 0.8665357301
3750277500.0 -0.4723893258 0.8732176777
3800277200.0 -0.4595896044 0.8795506643
3850276900.0 -0.4475813501 0.8855768991
3900276600.0 -0.4366590697 0.8913038303
3950276300.0 -0.4247794857 0.897217031
4000276000.0 -0.4131675677 0.9028857445
4050275700.0 -0.4003811407 0.9090322475
4100275400.0 -0.3893170878 0.9143462476
4150275100.0 -0.375885567 0.9204500147
4200274800.0 -0.362462882 0.9260389428
4250274500.0 -0.3498397168 0.9313936432
4300274200.0 -0.3367486694 0.9365868759
4350273900.0 -0.3223464407 0.9421216753
4400273600.0 -0.3077265851 0.9471222073
4450273300.0 -0.2928147948 0.9520975891
4500273000.0 -0.2795919018 0.9565808019
4550272700.0 -0.265925371 0.9604299213
4600272400.0 -0.2511053013 0.964544476
4650272100.0 -0.2397388255 0.9678302237
4700271800.0 -0.2267291658 0.9710424772
4750271500.0 -0.215145675 0.9740875761
4800271200.0 -0.2028838482 0.9766241173
4850270900.0 -0.1891383358 0.9794385355
4900270600.0 -0.1754716977 0.9819532328
4950270300.0 -0.160768426 0.9844468426
5000270000.0 -0.1462000627 0.9868037792
5050269700.0 -0.1327519923 0.9881478602
5100269400.0 -0.1186426422 0.9899425613
5150269100.0 -0.1045673595 0.9919207895
5200268800.0 -0.091159476 0.9923871424
5250268500.0 -0.0782927133 0.9934258097
5300268200.0 -0.0644046199 0.9944993774
5350267900.0 -0.0514598195 0.9953592003
5400267600.0 -0.0354138594 0.9963588412
5450267300.0 -0.0221435227 0.9967934288
5500267000.0 -0.0066995361 0.9969052785
5550266700.0 0.0081174412 0.997348895
5600266400.0 0.0242162987 0.9971497827
5650266100.0 0.0406378453 0.9967022316
5700265800.0 0.0547893934 0.9957840475
5750265500.0 0.0696442216 0.9950327125
5800265200.0 0.0835018035 0.9941347813
5850264900.0 0.0964849214 0.993250803
5900264600.0 0.1130326399 0.9914010425
5950264300.0 0.124666901 0.9897204688
6000264000.0 0.1384505691 0.9880900948
6050263700.0 0.1494806416 0.9866768971
6100263400.0 0.1618806633 0.9848156049
6150263100.0 0.1764319309 0.9824195563
6200262800.0 0.1861059946 0.9809424189
6250262500.0 0.1986579329 0.9786561259
6300262200.0 0.2110395538 0.976020466
6350261900.0 0.2235758857 0.9732957348
6400261600.0 0.2375840832 0.9702621849
6450261300.0 0.2484234049 0.9678260829
6500261000.0 0.2618888975 0.9638132122
6550260700.0 0.2751772232 0.9600769762
6600260400.0 0.2884846652 0.956154848
6650260100.0 0.3024762666 0.9516310659
6700259800.0 0.3145488996 0.9472282771
6750259500.0 0.3286644377 0.9425034284
6800259200.0 0.3417836994 0.9372107906
6850258900.0 0.354631674 0.9321003508
6900258600.0 0.3671976221 0.9266165343
6950258300.0 0.3796462789 0.9214048617
7000258000.0 0.391222003 0.9162743204
7050257700.0 0.4032494048 0.9104530697
7100257400.0 0.4166317358 0.9040914547
7150257100.0 0.427346007 0.8988142538
7200256800.0 0.4405423166 0.8920067365
7250256500.0 0.4530405137 0.8856473495
7300256200.0 0.466321992 0.8786568584
7350255900.0 0.4785757311 0.8717574518
7400255600.0 0.4927847852 0.8639392088
7450255300.0 0.5082667353 0.8547639336
7500255000.0 0.5213223209 0.8473029294
7550254700.0 0.5354576054 0.8382295028
7600254400.0 0.5478288027 0.829913768
7650254100.0 0.5597784001 0.8219898083
7700253800.0 0.5712730463 0.8137896555
7750253500.0 0.582063027 0.8063192574
7800253200.0 0.5926610006 0.7983525374
7850252900.0 0.6024764218 0.7911896572
7900252600.0 0.6138802363 0.7822950232
7950252300.0 0.6222798591 0.7760414928
8000252000.0 0.6323622294 0.7684738159
8050251700.0 0.6427558281 0.760283992
8100251400.0 0.652458937 0.7523473048
8150251100.0 0.6623427739 0.7438877965
8200250800.0 0.6722896147 0.7355880987
8250250500.0 0.68095485 0.7278484624
8300250200.0 0.6898558204 0.7196304981
8350249900.0 0.6990414873 0.7106023707
8400249600.0 0.7070887134 0.7028632566
8450249300.0 0.7158729957 0.6939183373
8500249000.0 0.7247083849 0.6852649865
8550248700.0 0.7327946998 0.6760789277
8600248400.0 0.7411810381 0.6666836515
8650248100.0 0.7486748521 0.6574143443
8700247800.0 0.7581028055 0.6462395353
8750247500.0 0.7662194509 0.6363200864
8800247200.0 0.7743399736 0.6257458353
8850246900.0 0.7828500496 0.6145439502
8900246600.0 0.7914766603 0.6031100381
8950246300.0 0.8004297595 0.5903795214
9000246000.0 0.8092783247 0.5785176455
9050245700.0 0.8177863158 0.5662409586
9100245400.0 0.8258015663 0.5540289342
9150245100.0 0.8347878098 0.5411692905
9200244800.0 0.8439204949 0.5267567518
9250244500.0 0.8531431641 0.5121045443
9300244200.0 0.8611444301 0.4985190756
9350243900.0 0.868786234 0.4854381963
9400243600.0 0.8751857444 0.4737788614
9450243300.0 0.8808505148 0.4635125595
9500243000.0 0.8871477493 0.4519400158
9550242700.0 0.891276397 0.4444514409
9600242400.0 0.8955966031 0.4368865772
9650242100.0 0.8995656776 0.429776085
9700241800.0 0.9047596449 0.4208993398
9750241500.0 0.9087830393 0.4136604623
9800241200.0 0.9139853762 0.4042073159
9850240900.0 0.9199149857 0.3924045818
9900240600.0 0.9257979099 0.380303687
9950240300.0 0.9327780023 0.3637352157
10000240000.0 0.9377511766 0.3512949741
10050239700.0 0.9439928868 0.3354659126
10100239400.0 0.9493101269 0.3189603272
10150239100.0 0.9541838028 0.3029655544
10200238800.0 0.9583157122 0.287611826
10250238500.0 0.9616810086 0.2741621568
10300238200.0 0.9647523717 0.2603020942
10350237900.0 0.9674026345 0.2469939814
10400237600.0 0.969980385 0.2335496144
10450237300.0 0.9728240525 0.2197273097
10500237000.0 0.9753783895 0.2069856969
10550236700.0 0.977324213 0.192895785
10600236400.0 0.9794442201 0.1794452883
10650236100.0 0.9815072734 0.1646044669
10700235800.0 0.9840483192 0.1519564666
10750235500.0 0.9857496247 0.138442826
10800235200.0 0.987774765 0.124023918
10850234900.0 0.990071707 0.1093128553
10900234600.0 0.9920713346 0.0946055218
10950234300.0 0.9936157028 0.0812381153
11000234000.0 0.9955561394 0.0652862213
11050233700.0 0.9974696516 0.0486656719
11100233400.0 0.9989969247 0.0309537955
11150233100.0 0.9998324953 0.0139458366
11200232800.0 1.000923622 -0.0021029706
11250232500.0 1.001538258 -0.0199274427
11300232200.0 1.002404532 -0.0390305228
11350231900.0 1.001876579 -0.0549272683
11400231600.0 1.001754017 -0.0708180304
11450231300.0 1.001118682 -0.0862803919
11500231000.0 1.000184906 -0.102361542
11550230700.0 0.9985132657 -0.1154390104
11600230400.0 0.9971581405 -0.1280520107
11650230100.0 0.9948879475 -0.1406567045
11700229800.0 0.9923056033 -0.1551882244
11750229500.0 0.9899999557 -0.169264433
11800229200.0 0.9871046356 -0.182217359
11850228900.0 0.9835891535 -0.1941087955
11900228600.0 0.9796994914 -0.2039667302
11950228300.0 0.9764913832 -0.2136693999
12000228000.0 0.9734109475 -0.2228284606
12050227700.0 0.9701658228 -0.2348950261
12100227400.0 0.9669401144 -0.2455631585
12150227100.0 0.9617512829 -0.2634197199
12200226800.0 0.9579470252 -0.2741585917
12250226500.0 0.95365524 -0.2867017148
12300226200.0 0.9495399266 -0.2981361485
12350225900.0 0.9440414998 -0.3120470806
12400225600.0 0.9401616538 -0.3250437605
12450225300.0 0.9357506986 -0.3380098283
12500225000.0 0.9300724693 -0.3520241601
12550224700.0 0.924835973 -0.3659051675
12600224400.0 0.9197480314 -0.3786038886
12650224100.0 0.9139865222 -0.3929039713
12700223800.0 0.908786396 -0.4055754567
12750223500.0 0.9032278499 -0.418840329
12800223200.0 0.8976671901 -0.4315385355
12850222900.0 0.8925032888 -0.4436560667
12900222600.0 0.8868949454 -0.4550580877
12950222300.0 0.8809658755 -0.4684852871
13000222000.0 0.8747368375 -0.4800181392
13050221700.0 0.8681518108 -0.4926188697
13100221400.0 0.8614480976 -0.5046274552
13150221100.0 0.8541123938 -0.516804266
13200220800.0 0.847495276 -0.5285229181
13250220500.0 0.8400138994 -0.5408110823
13300220200.0 0.8326371388 -0.551460197
13350219900.0 0.8242906515 -0.5633203412
13400219600.0 0.8158337534 -0.5754307817
13450219300.0 0.8067880253 -0.5885489354
13500219000.0 0.797018344 -0.6017248942
13550218700.0 0.7875409313 -0.6136647284
13600218400.0 0.7772856728 -0.6251943862
13650218100.0 0.7675190568 -0.6363351848
13700217800.0 0.7569809096 -0.6484596854
13750217500.0 0.7470190518 -0.6592391368
13800217200.0 0.7363447314 -0.6701765443
13850216900.0 0.7257433806 -0.6819496149
13900216600.0 0.7156485775 -0.6906502937
13950216300.0 0.7048445433 -0.700649502
14000216000.0 0.6947844199 -0.7095499716
14050215700.0 0.6857493315 -0.7170190512
14100215400.0 0.6765289025 -0.726557728
14150215100.0 0.6674532273 -0.7349103311
14200214800.0 0.6580055568 -0.743964027
14250214500.0 0.6475073343 -0.753506882
14300214200.0 0.6371671994 -0.7628671643
14350213900.0 0.6262150139 -0.7724689703
14400213600.0 0.6140270511 -0.7823827558
14450213300.0 0.6009990118 -0.7926766434
14500213000.0 0.5880069437 -0.8027490185
14550212700.0 0.5757823186 -0.8120096124
14600212400.0 0.5631853389 -0.8209144971
14650212100.0 0.5507495232 -0.829222182
14700211800.0 0.5368232942 -0.8387787616
14750211500.0 0.5246068685 -0.8471300144
14800211200.0 0.5122916391 -0.8554262779
14850210900.0 0.4998932283 -0.8632151356
14900210600.0 0.4865633008 -0.8709506083
14950210300.0 0.4731510206 -0.8786841657
15000210000.0 0.4606391463 -0.8852867033
15050209700.0 0.4483561891 -0.8916912803
15100209400.0 0.4353540472 -0.8975453493
15150209100.0 0.4235399752 -0.9027076214
15200208800.0 0.4103021241 -0.9082920119
15250208500.0 0.3996145846 -0.9130882791
15300208200.0 0.3872645246 -0.9169212086
15350207900.0 0.37398434 -0.9220796517
15400207600.0 0.3593854366 -0.9283098278
15450207300.0 0.344459528 -0.9324450567
15500207000.0 0.3303392648 -0.9366588591
15550206700.0 0.3150580841 -0.9420266988
15600206400.0 0.2989735178 -0.9470082938
15650206100.0 0.2837052026 -0.9507626878
15700205800.0 0.2701495939 -0.9544113074
15750205500.0 0.2560785376 -0.957780663
15800205200.0 0.2421401788 -0.9611111879
15850204900.0 0.2278320428 -0.9646684365
15900204600.0 0.2128641539 -0.9683759109
15950204300.0 0.1986047384 -0.9712714322
16000204000.0 0.1844322338 -0.9740718376
16050203700.0 0.1691826281 -0.9775107059
16100203400.0 0.1540475157 -0.9792587284
16150203100.0 0.1392097986 -0.982047383
16200202800.0 0.1252637104 -0.9840443194
16250202500.0 0.1103112525 -0.9860633538
16300202200.0 0.0948065866 -0.9871815037
16350201900.0 0.0799661748 -0.9886363835
16400201600.0 0.0650945283 -0.9898496999
16450201300.0 0.0497934551 -0.9910981487
16500201000.0 0.0325061494 -0.99197639
16550200700.0 0.0164325496 -0.992541332
16600200400.0 0.0003383719 -0.9926819734
16650200100.0 -0.0156250631 -0.9925382881
16700199800.0 -0.0318920135 -0.9921613603
16750199500.0 -0.0511806592 -0.991414665
16800199200.0 -0.0671250873 -0.9910316919
16850198900.0 -0.0829116505 -0.9891976813
16900198600.0 -0.0968491893 -0.9882349481
16950198300.0 -0.1097624956 -0.9878630257
17000198000.0 -0.123250923 -0.9853323214
17050197700.0 -0.1358514164 -0.9836776386
17100197400.0 -0.1487977829 -0.9821823002
17150197100.0 -0.1618773696 -0.9798921345
17200196800.0 -0.1745109247 -0.978131066
17250196500.0 -0.1876048561 -0.975636652
17300196200.0 -0.1998248848 -0.9731865449
17350195900.0 -0.2116647272 -0.970591976
17400195600.0 -0.223434088 -0.9680435607
17450195300.0 -0.236276422 -0.9652090652
17500195000.0 -0.2495291604 -0.9619097818
17550194700.0 -0.2633516928 -0.9584317071
17600194400.0 -0.2771781537 -0.9544891409
17650194100.0 -0.2905636311 -0.950543436
17700193800.0 -0.3033696189 -0.9460644931
17750193500.0 -0.3176480085 -0.9415773104
17800193200.0 -0.3322107704 -0.9363498211
17850192900.0 -0.3469120405 -0.9308473969
17900192600.0 -0.3616669356 -0.9247908442
17950192300.0 -0.377513347 -0.9178390258
18000192000.0 -0.3920971601 -0.910304861
18050191700.0 -0.4061199803 -0.9025545969
18100191400.0 -0.420166104 -0.8949168128
18150191100.0 -0.435186216 -0.8868332268
18200190800.0 -0.4518995065 -0.8775380282
18250190500.0 -0.4688459714 -0.8683662162
18300190200.0 -0.4845636284 -0.8596013873
18350189900.0 -0.4995067867 -0.8509697815
18400189600.0 -0.5145024868 -0.8425855278
18450189300.0 -0.5275838506 -0.8343600703
18500189000.0 -0.5411027068 -0.826177726
18550188700.0 -0.5537302794 -0.8189407651
18600188400.0 -0.5658068403 -0.8117504755
18650188100.0 -0.5767936993 -0.8053931344
18700187800.0 -0.5878539471 -0.7988846447
18750187500.0 -0.5989144645 -0.7921395924
18800187200.0 -0.6094367111 -0.7848904071
18850186900.0 -0.6196531118 -0.7780984887
18900186600.0 -0.6301113467 -0.7709243732
18950186300.0 -0.6402295105 -0.7631680467
19000186000.0 -0.6477653601 -0.7564755183
19050185700.0 -0.6575105159 -0.7493158697
19100185400.0 -0.6667305609 -0.7412956609
19150185100.0 -0.6769780014 -0.7330631886
19200184800.0 -0.68707407 -0.7255104374
19250184500.0 -0.6967712112 -0.7157659552
19300184200.0 -0.7084321488 -0.7063314468
19350183900.0 -0.7188818795 -0.6965614965
19400183600.0 -0.7290255046 -0.6863371062
19450183300.0 -0.7380354477 -0.6758751512
19500183000.0 -0.746051473 -0.6660691019
19550182700.0 -0.7553766149 -0.6556693001
19600182400.0 -0.7659941071 -0.6438818675
19650182100.0 -0.776700866 -0.6312977775
19700181800.0 -0.7868468423 -0.6182411604
19750181500.0 -0.7973155522 -0.6039806628
19800181200.0 -0.807477483 -0.5891660797
19850180900.0 -0.8168591705 -0.5737176377
19900180600.0 -0.82481283 -0.5595278869
19950180300.0 -0.8335693662 -0.5430895229
20000180000.0 -0.8228921916 -0.5468296861
20050179700.0 -0.8315706573 -0.534145358
20100179400.0 -0.8398731006 -0.521043249
20150179100.0 -0.8478420908 -0.5094321608
20200178800.0 -0.8555635997 -0.4982944955
20250178500.0 -0.8656961887 -0.4857238872
20300178200.0 -0.8754411011 -0.4721327555
20350177900.0 -0.8843789521 -0.4579215103
20400177600.0 -0.8938210037 -0.4436446408
20450177300.0 -0.9018799145 -0.429390105
20500177000.0 -0.9099186274 -0.4156479934
20550176700.0 -0.9179557298 -0.4018139447
20600176400.0 -0.9246257755 -0.3887201497
20650176100.0 -0.9308962909 -0.3765879998
20700175800.0 -0.9380636964 -0.3649343934
20750175500.0 -0.9451255693 -0.3538747616
20800175200.0 -0.9486262622 -0.3430140352
20850174900.0 -0.9541532128 -0.3319340708
20900174600.0 -0.9578206648 -0.3208161656
20950174300.0 -0.9614429201 -0.3091162069
21000174000.0 -0.9640905312 -0.2992447142
21050173700.0 -0.9658120195 -0.2895878169
21100173400.0 -0.9689364097 -0.2783476123
21150173100.0 -0.9727899505 -0.2668397161
21200172800.0 -0.9767700902 -0.2539656635
21250172500.0 -0.980330634 -0.2398552112
21300172200.0 -0.9835996927 -0.2259486272
21350171900.0 -0.9860035117 -0.2116111845
21400171600.0 -0.9882593534 -0.1972078352
21450171300.0 -0.988507254 -0.1832731909
21500171000.0 -0.9892412583 -0.1678436745
21550170700.0 -0.9899203096 -0.1540370519
21600170400.0 -0.9899238391 -0.137472816
21650170100.0 -0.9911954918 -0.122714453
21700169800.0 -0.9896644041 -0.1073180254
21750169500.0 -0.9903487563 -0.0908516657
21800169200.0 -0.9909979772 -0.0741206179
21850168900.0 -0.9900669017 -0.0571559574
21900168600.0 -0.9898374139 -0.0414765144
21950168300.0 -0.9897687953 -0.0259105412
22000168000.0 -0.9895344416 -0.0109818901
22050167700.0 -0.9896827727 0.0036503277
22100167400.0 -0.9906075337 0.0195046808
22150167100.0 -0.9920052428 0.0356905693
22200166800.0 -0.9916937136 0.0523334983
22250166500.0 -0.9910466152 0.0690284268
22300166200.0 -0.9908488074 0.0859631704
22350165900.0 -0.9902065668 0.1017627572
22400165600.0 -0.9891125884 0.117928385
22450165300.0 -0.9867111923 0.1332081731
22500165000.0 -0.9852097417 0.1472564486
22550164700.0 -0.9847110815 0.1640795494
22600164400.0 -0.9809222621 0.1801362949
22650164100.0 -0.9786345104 0.1963229923
22700163800.0 -0.9755954802 0.2112777357
22750163500.0 -0.9722383134 0.2263733516
22800163200.0 -0.9690311031 0.2394127628
22850162900.0 -0.96653942 0.2529276747
22900162600.0 -0.9648255241 0.2669480323
22950162300.0 -0.9631607027 0.2803297037
23000162000.0 -0.9612023537 0.2930559185
23050161700.0 -0.9580338066 0.3066954723
23100161400.0 -0.9559179188 0.3201826234
23150161100.0 -0.9529739451 0.3331324151
23200160800.0 -0.9497332034 0.3458621471
23250160500.0 -0.9469242282 0.3588365783
23300160200.0 -0.9440590943 0.3708381818
23350159900.0 -0.9399352203 0.38496775
23400159600.0 -0.9353395052 0.3985050182
23450159300.0 -0.9298530911 0.4120237784
23500159000.0 -0.9249258377 0.4261259816
23550158700.0 -0.9201338317 0.4404373995
23600158400.0 -0.9141466564 0.4543532245
23650158100.0 -0.9070046715 0.4688103473
23700157800.0 -0.8982055947 0.4832620124
23750157500.0 -0.8885112174 0.4975491913
23800157200.0 -0.8788156011 0.5108638566
23850156900.0 -0.8690477896 0.5239314891
23900156600.0 -0.8588799027 0.5364834049
23950156300.0 -0.8492456238 0.548973865
24000156000.0 -0.8399557579 0.5614855084
24050155700.0 -0.8290329798 0.5738709375
24100155400.0 -0.8193318942 0.5857498822
24150155100.0 -0.8080765382 0.5984723658
24200154800.0 -0.7967135003 0.6099431323
24250154500.0 -0.7857504535 0.622311949
24300154200.0 -0.7740302213 0.6345443678
24350153900.0 -0.7619347718 0.645469217
24400153600.0 -0.7493429075 0.6563642719
24450153300.0 -0.7372575959 0.6663674552
24500153000.0 -0.7256469102 0.676625549
24550152700.0 -0.7142971794 0.6871153833
24600152400.0 -0.7024886686 0.6961158605
24650152100.0 -0.6901179101 0.7045562689
