!Created with skrf (http://scikit-rf.org).
# Hz S RI R 50.0 
!freq ReS11 ImS11
300000.0 -0.9794919407 -0.104446478
50299700.0 -1.000083414 0.0161674217
100299400.0 -0.9980555051 0.0289719829
150299100.0 -1.00281538 0.0459371167
200298800.0 -0.9996414707 0.0591680094
250298500.0 -0.9973372901 0.0726115473
300298200.0 -0.9861664682 0.0884721472
350297900.0 -0.993919894 0.0992025691
400297600.0 -0.9930388726 0.1159514505
450297300.0 -0.9909758711 0.1299120103
500297000.0 -0.98943765 0.1445221204
550296700.0 -0.9844796376 0.1570645936
600296400.0 -1.017246118 0.1903359204
650296100.0 -0.9819707969 0.1870797085
700295800.0 -0.9792702041 0.2012834839
750295500.0 -0.9761135064 0.2153687852
800295200.0 -0.9728759807 0.2292487213
850294900.0 -0.9696594977 0.2431659181
900294600.0 -0.9655849007 0.2570785142
950294300.0 -0.9619165794 0.2707122731
1000294000.0 -0.9578957333 0.2848551351
1050293700.0 -0.9533036522 0.2985645106
1100293400.0 -0.9489682042 0.312846654
1150293100.0 -0.9450486267 0.3247569452
1200292800.0 -0.940024872 0.3390522489
1250292500.0 -0.934458359 0.3525343968
1300292200.0 -0.9287067815 0.3656451591
1350291900.0 -0.9231347054 0.3797782741
1400291600.0 -0.9178027263 0.3928080476
1450291300.0 -0.9120649417 0.4050448185
1500291000.0 -0.9057912549 0.4185810099
1550290700.0 -0.8992360191 0.4318382291
1600290400.0 -0.8932067351 0.4447956922
1650290100.0 -0.8864326859 0.4568140322
1700289800.0 -0.8798083278 0.4702396587
1750289500.0 -0.8725562844 0.4827552227
1800289200.0 -0.8652646273 0.4955674024
1850288900.0 -0.8583912527 0.5067666805
1900288600.0 -0.8506676703 0.519716654
1950288300.0 -0.842492617 0.5323336557
2000288000.0 -0.8349856686 0.5438145931
2050287700.0 -0.826897388 0.5562116214
2100287400.0 -0.81861212 0.5679124773
2150287100.0 -0.8101556369 0.5800336205
2200286800.0 -0.8023175878 0.5901094979
2250286500.0 -0.7934999012 0.6021313715
2300286200.0 -0.7844917139 0.6140370566
2350285900.0 -0.7757215962 0.6247738616
2400285600.0 -0.7666784263 0.6357685253
2450285300.0 -0.7580897644 0.6463284645
2500285000.0 -0.7483813433 0.6575023169
2550284700.0 -0.7394635142 0.6677499846
2600284400.0 -0.7302116757 0.6777740015
2650284100.0 -0.7211737865 0.6886666153
2700283800.0 -0.7102585073 0.6991390761
2750283500.0 -0.7003189905 0.7097591832
2800283200.0 -0.6901596786 0.7194966175
2850282900.0 -0.6800901414 0.7291058474
2900282600.0 -0.6696661655 0.7389105254
2950282300.0 -0.6596960961 0.7476856173
3000282000.0 -0.6489822483 0.7574894987
3050281700.0 -0.6378258351 0.7667759264
3100281400.0 -0.6259232911 0.7761007565
3150281100.0 -0.6139515913 0.7854778065
3200280800.0 -0.6022672393 0.7940449301
3250280500.0 -0.5916473469 0.8015436764
3300280200.0 -0.5805702228 0.8093260404
3350279900.0 -0.5690905362 0.8169134951
3400279600.0 -0.5567171698 0.8244558185
3450279300.0 -0.5457498797 0.8317695236
3500279000.0 -0.5337245167 0.8387885209
3550278700.0 -0.5213777478 0.8461734594
3600278400.0 -0.5091981906 0.8532534805
3650278100.0 -0.4957501183 0.8611858568
3700277800.0 -0.4835244226 0.8673610003
3750277500.0 -0.4714958628 0.8739884925
3800277200.0 -0.4589638315 0.8801665301
3850276900.0 -0.44675903 0.8863469242
3900276600.0 -0.4359565951 0.8921700776
3950276300.0 -0.4230767028 0.8981788828
4000276000.0 -0.411190638 0.9039964763
4050275700.0 -0.3981425987 0.9101339943
4100275400.0 -0.3871407154 0.9156036812
4150275100.0 -0.3741185637 0.9212275681
4200274800.0 -0.3614883342 0.9267430954
4250274500.0 -0.3490222952 0.9313872628
4300274200.0 -0.3359209847 0.9371317365
4350273900.0 -0.3225033377 0.9421876751
4400273600.0 -0.3076164721 0.9476219773
4450273300.0 -0.2919618261 0.9526047129
4500273000.0 -0.2784902406 0.9570190032
4550272700.0 -0.2642252515 0.9612037167
4600272400.0 -0.2486590225 0.9653505276
4650272100.0 -0.2370024527 0.9685815753
4700271800.0 -0.2235946303 0.9718872848
4750271500.0 -0.2120541711 0.9749026994
4800271200.0 -0.1994202969 0.9774765457
4850270900.0 -0.1856549211 0.9801238395
4900270600.0 -0.1717951423 0.9825656627
4950270300.0 -0.1575693114 0.9853418487
5000270000.0 -0.1433903489 0.9869426089
5050269700.0 -0.1299205701 0.9885225645
5100269400.0 -0.116325075 0.9905742352
5150269100.0 -0.1030751371 0.9920421095
5200268800.0 -0.0897738592 0.9928358876
5250268500.0 -0.0768216992 0.9939292577
5300268200.0 -0.063955239 0.9950877753
5350267900.0 -0.0515390959 0.9955856308
5400267600.0 -0.0354824564 0.996403821
5450267300.0 -0.0221741575 0.9966214351
5500267000.0 -0.0071377439 0.9971180676
5550266700.0 0.0079126665 0.9973062635
5600266400.0 0.0233064929 0.9974180085
5650266100.0 0.0400726073 0.996775238
5700265800.0 0.0545514162 0.9959762549
5750265500.0 0.0695273115 0.9952292632
5800265200.0 0.0838757714 0.994457652
5850264900.0 0.097201746 0.9933128872
5900264600.0 0.1136616595 0.9916879773
5950264300.0 0.1257016461 0.9896212106
6000264000.0 0.1396549087 0.9877337749
6050263700.0 0.152306631 0.9866801685
6100263400.0 0.1648590639 0.9848574968
6150263100.0 0.1796044563 0.982322958
6200262800.0 0.1897107393 0.9801718427
6250262500.0 0.2026608625 0.9779348889
6300262200.0 0.2154106081 0.9751295538
6350261900.0 0.2282417487 0.9721656183
6400261600.0 0.2424328351 0.968880156
6450261300.0 0.2538449349 0.9662137288
6500261000.0 0.2664771596 0.9627592998
6550260700.0 0.2792482608 0.9584881419
6600260400.0 0.2927264863 0.9544213858
6650260100.0 0.30688352 0.9503447299
6700259800.0 0.3186364678 0.9461645431
6750259500.0 0.3324136582 0.9411309268
6800259200.0 0.3457175551 0.9362856009
6850258900.0 0.3573171135 0.9310362896
6900258600.0 0.3693724771 0.9260788258
6950258300.0 0.3819843598 0.9205761418
7000258000.0 0.3941379816 0.9153348193
7050257700.0 0.4064142053 0.9093173942
7100257400.0 0.4190089559 0.9030801058
7150257100.0 0.4293349329 0.8978240188
7200256800.0 0.4421577709 0.8913634568
7250256500.0 0.4538045439 0.8849631091
7300256200.0 0.4670995507 0.8782115376
7350255900.0 0.4791342113 0.8714294827
7400255600.0 0.4923001747 0.8640943662
7450255300.0 0.5078880014 0.855317022
7500255000.0 0.5194732456 0.8481718712
7550254700.0 0.5325494415 0.8395659394
7600254400.0 0.5459137738 0.8314966037
7650254100.0 0.5574874475 0.8234345557
7700253800.0 0.5693862053 0.8152346567
7750253500.0 0.5805374607 0.8075885605
7800253200.0 0.5910619201 0.7998021317
7850252900.0 0.6008101045 0.7928285781
7900252600.0 0.6126266593 0.7840524605
7950252300.0 0.6213301752 0.7773965402
8000252000.0 0.6314261363 0.7696446639
8050251700.0 0.6421021045 0.7612325996
8100251400.0 0.652248691 0.7530238054
8150251100.0 0.6625956503 0.7443812639
8200250800.0 0.6719435478 0.7363917785
8250250500.0 0.6805483584 0.7284453097
8300250200.0 0.6899012153 0.7197238135
8350249900.0 0.6991493185 0.7111380139
8400249600.0 0.707178423 0.7029434585
8450249300.0 0.7164625895 0.6938918342
8500249000.0 0.7251298319 0.6849244386
8550248700.0 0.7332080058 0.6761305405
8600248400.0 0.741795003 0.6665507232
8650248100.0 0.749450884 0.6572596503
8700247800.0 0.7590216186 0.645824639
8750247500.0 0.7672282021 0.6359764727
8800247200.0 0.7753167961 0.6254321613
8850246900.0 0.784268282 0.6141710575
8900246600.0 0.7925440468 0.6027664104
8950246300.0 0.8022754708 0.5898185338
9000246000.0 0.8118926385 0.5770701475
9050245700.0 0.8206762208 0.5642015377
9100245400.0 0.8292683815 0.5516098343
9150245100.0 0.8384761544 0.5380141171
9200244800.0 0.8483839199 0.5223332449
9250244500.0 0.8581657214 0.5069243151
9300244200.0 0.8663724334 0.4920341136
9350243900.0 0.8741396922 0.4781177284
9400243600.0 0.8807571148 0.4657082703
9450243300.0 0.8867228042 0.4538441812
9500243000.0 0.8929069353 0.4415622774
9550242700.0 0.8964282624 0.4338372422
9600242400.0 0.9003839397 0.4263233114
9650242100.0 0.9040989664 0.4198424838
9700241800.0 0.9085607935 0.4116064111
9750241500.0 0.9125121687 0.4039645314
9800241200.0 0.9168975118 0.3949721149
9850240900.0 0.922829644 0.3829396705
9900240600.0 0.9283693979 0.3717401695
9950240300.0 0.9348416823 0.3554301436
10000240000.0 0.9395694655 0.3439884298
10050239700.0 0.9452514623 0.3290073216
10100239400.0 0.9504990821 0.3131060383
10150239100.0 0.9545638649 0.2987301678
10200238800.0 0.9585064891 0.2839421236
10250238500.0 0.9617958794 0.2705280677
10300238200.0 0.9650845377 0.2565663826
10350237900.0 0.9676110769 0.2435548188
10400237600.0 0.969899417 0.2305265658
10450237300.0 0.9727508527 0.2168693808
10500237000.0 0.9747981719 0.2046210257
10550236700.0 0.9770275138 0.1909832807
10600236400.0 0.9790753934 0.177627999
10650236100.0 0.981242103 0.1621900269
10700235800.0 0.9838632565 0.1505743586
10750235500.0 0.9857323272 0.1373778581
10800235200.0 0.9877185164 0.1231626662
10850234900.0 0.9895593815 0.1088551054
10900234600.0 0.9918143496 0.0943026211
10950234300.0 0.9934544645 0.0811114721
11000234000.0 0.9953566281 0.0659232597
11050233700.0 0.9970625319 0.0496132512
11100233400.0 0.998361822 0.0322038659
11150233100.0 0.9994238998 0.0157024931
11200232800.0 0.9999428298 0.0008077178
11250232500.0 1.001013875 -0.0160238633
11300232200.0 1.001490233 -0.0343765068
11350231900.0 1.001556044 -0.0502869001
11400231600.0 1.000960214 -0.0657782325
11450231300.0 1.000703834 -0.0807024613
11500231000.0 0.9992481933 -0.0971709672
11550230700.0 0.9986968536 -0.1106838245
11600230400.0 0.996635219 -0.1234503765
11650230100.0 0.994678393 -0.1353018686
11700229800.0 0.9924581714 -0.1498453749
11750229500.0 0.9902018464 -0.1641500581
11800229200.0 0.9875166315 -0.1779953016
11850228900.0 0.9838894916 -0.1904707958
11900228600.0 0.9801885808 -0.2006513296
11950228300.0 0.9771854984 -0.2110266711
12000228000.0 0.9741777527 -0.2203547067
12050227700.0 0.9708248762 -0.2329460971
12100227400.0 0.9678532076 -0.2430693641
12150227100.0 0.9626163705 -0.2590851216
12200226800.0 0.959419834 -0.2713672193
12250226500.0 0.954521371 -0.2840448081
12300226200.0 0.9504745768 -0.2955050356
12350225900.0 0.9460138274 -0.3099017592
12400225600.0 0.9413758304 -0.3225402007
12450225300.0 0.9370802997 -0.3349493886
12500225000.0 0.9315912118 -0.3496262528
12550224700.0 0.9265041666 -0.3636234653
12600224400.0 0.9216560634 -0.3760015196
12650224100.0 0.9158540488 -0.3903502746
12700223800.0 0.9106257049 -0.4030210979
12750223500.0 0.9052686575 -0.4160684871
12800223200.0 0.8997179411 -0.4286364832
12850222900.0 0.894685662 -0.4403242835
12900222600.0 0.8884577818 -0.4528883763
12950222300.0 0.8825242227 -0.4659704503
13000222000.0 0.876836842 -0.4770136552
13050221700.0 0.8696414574 -0.4899649901
13100221400.0 0.8627549794 -0.5018906247
13150221100.0 0.8560939491 -0.5143499066
13200220800.0 0.8488417174 -0.5260536178
13250220500.0 0.8418245432 -0.537982615
13300220200.0 0.8341348801 -0.5491594032
13350219900.0 0.8257426711 -0.5611800208
13400219600.0 0.8174967693 -0.5731885767
13450219300.0 0.8078409758 -0.5870518831
13500219000.0 0.7975353222 -0.600664447
13550218700.0 0.7872187195 -0.6139741307
13600218400.0 0.7770644657 -0.6261346284
13650218100.0 0.7664264118 -0.6373250589
13700217800.0 0.756067672 -0.6498590644
13750217500.0 0.7458063513 -0.6610185924
13800217200.0 0.7350621958 -0.6722466316
13850216900.0 0.7240010531 -0.6836368447
13900216600.0 0.7138051035 -0.6930617046
13950216300.0 0.7036452382 -0.7032578844
14000216000.0 0.6935809283 -0.7119388087
14050215700.0 0.6837651966 -0.7204332397
14100215400.0 0.6739162928 -0.7299514264
14150215100.0 0.6647535971 -0.7384762342
14200214800.0 0.6554563795 -0.7466782866
14250214500.0 0.6453635689 -0.7558444586
14300214200.0 0.6348758482 -0.7649369528
14350213900.0 0.6241545082 -0.774600605
14400213600.0 0.6121044639 -0.7840856458
14450213300.0 0.5990352925 -0.7942004706
14500213000.0 0.5860194917 -0.8044956764
14550212700.0 0.573374843 -0.8139876604
14600212400.0 0.5613716994 -0.8223469977
14650212100.0 0.5483974029 -0.831176493
14700211800.0 0.5345087625 -0.8403854566
14750211500.0 0.5224774171 -0.8485365051
14800211200.0 0.509839581 -0.8566531446
14850210900.0 0.4977008834 -0.8641485015
14900210600.0 0.4842666562 -0.8720205427
14950210300.0 0.4708325887 -0.8797741226
15000210000.0 0.4576556782 -0.8866099902
15050209700.0 0.4454569035 -0.8926006683
15100209400.0 0.4330522255 -0.8991336247
15150209100.0 0.4199710424 -0.9039489063
15200208800.0 0.406845792 -0.9096258728
15250208500.0 0.3950608845 -0.9148018446
15300208200.0 0.3833328315 -0.9187221364
15350207900.0 0.3700555843 -0.9233820738
15400207600.0 0.3557384438 -0.928270029
15450207300.0 0.3408125224 -0.9342671984
15500207000.0 0.3260952205 -0.9382622024
15550206700.0 0.3109184417 -0.9436808808
15600206400.0 0.2953857036 -0.9483875313
15650206100.0 0.2794550941 -0.9522193709
15700205800.0 0.2656832277 -0.9561909634
15750205500.0 0.2512009006 -0.9594688951
15800205200.0 0.2368297298 -0.9628456938
15850204900.0 0.2224224632 -0.9663180844
15900204600.0 0.2073683463 -0.9697144981
15950204300.0 0.1935424471 -0.9727712338
16000204000.0 0.1796892039 -0.9754932418
16050203700.0 0.1649008932 -0.9783017687
16100203400.0 0.1500578465 -0.9801514128
16150203100.0 0.1358100056 -0.9828257355
16200202800.0 0.1217910797 -0.9845379662
16250202500.0 0.1074202873 -0.9862974867
16300202200.0 0.0920928944 -0.9874838649
16350201900.0 0.0772527233 -0.9889041043
16400201600.0 0.0628451151 -0.9904161281
16450201300.0 0.047534049 -0.9911240367
16500201000.0 0.0310452405 -0.9920306809
16550200700.0 0.0154446699 -0.9926262223
16600200400.0 -0.0004012034 -0.9926570467
16650200100.0 -0.0166006728 -0.9924051128
16700199800.0 -0.0331241329 -0.9922057488
16750199500.0 -0.0522577664 -0.9914874743
16800199200.0 -0.0681158979 -0.9905060978
16850198900.0 -0.0835374425 -0.9890283031
16900198600.0 -0.0968864617 -0.9880307981
16950198300.0 -0.1111266427 -0.9872454234
17000198000.0 -0.1224937402 -0.9854943131
17050197700.0 -0.136127384 -0.9831496809
17100197400.0 -0.1487099478 -0.9816622618
17150197100.0 -0.1617690706 -0.9799245199
17200196800.0 -0.1747490609 -0.9773921398
17250196500.0 -0.1874315941 -0.9750663526
17300196200.0 -0.1995036362 -0.9728600429
17350195900.0 -0.2115109346 -0.9705459296
17400195600.0 -0.223671403 -0.9679566534
17450195300.0 -0.2369484175 -0.965246595
17500195000.0 -0.2500916518 -0.9617824713
17550194700.0 -0.264179944 -0.958213988
17600194400.0 -0.2780045749 -0.9542542467
17650194100.0 -0.291696237 -0.9500141451
17700193800.0 -0.3047981363 -0.9462886357
17750193500.0 -0.3192782673 -0.9411922244
17800193200.0 -0.3335272065 -0.9359872559
17850192900.0 -0.3480617651 -0.9305607348
17900192600.0 -0.3635167745 -0.9241606877
17950192300.0 -0.378947665 -0.9173775619
18000192000.0 -0.3936042957 -0.9102808186
18050191700.0 -0.4074561197 -0.9023808544
18100191400.0 -0.4215440366 -0.8947710508
18150191100.0 -0.436483026 -0.8866624182
18200190800.0 -0.4533242249 -0.8775424361
18250190500.0 -0.4702442431 -0.8678630949
18300190200.0 -0.4856377733 -0.8590600051
18350189900.0 -0.5006160842 -0.8508681494
18400189600.0 -0.5145487788 -0.8425770144
18450189300.0 -0.5281335175 -0.8343931031
18500189000.0 -0.5413784491 -0.8266158137
18550188700.0 -0.5546075269 -0.8186830188
18600188400.0 -0.5661860714 -0.8124794908
18650188100.0 -0.5774188636 -0.8051290633
18700187800.0 -0.5880727123 -0.798755004
18750187500.0 -0.5989027895 -0.7921646729
18800187200.0 -0.60955322 -0.7848390927
18850186900.0 -0.6198987221 -0.7778690965
18900186600.0 -0.6303340985 -0.7701850963
18950186300.0 -0.6404101744 -0.762433616
19000186000.0 -0.6479840608 -0.7561408344
19050185700.0 -0.6571170609 -0.7487125862
19100185400.0 -0.666789511 -0.7402923304
19150185100.0 -0.6779173229 -0.7313116158
19200184800.0 -0.6865545893 -0.7233469441
19250184500.0 -0.6976113142 -0.7143888772
19300184200.0 -0.7083864438 -0.7046233545
19350183900.0 -0.7189093934 -0.6948164386
19400183600.0 -0.7288844375 -0.6858004213
19450183300.0 -0.7374521172 -0.6747956936
19500183000.0 -0.7462607202 -0.6649178641
19550182700.0 -0.7563542085 -0.6541145258
19600182400.0 -0.7658139637 -0.6426339598
19650182100.0 -0.7763367449 -0.6303445167
19700181800.0 -0.7871654113 -0.6172695126
19750181500.0 -0.7975825378 -0.6032854764
19800181200.0 -0.8077773629 -0.5880868849
19850180900.0 -0.8173237226 -0.5730687287
19900180600.0 -0.8252072005 -0.558737683
19950180300.0 -0.8341541476 -0.5422568396
20000180000.0 -0.8272753157 -0.5451443412
20050179700.0 -0.8356542211 -0.5316164092
20100179400.0 -0.8440173805 -0.5181127024
20150179100.0 -0.8509169484 -0.5059379538
20200178800.0 -0.8602830666 -0.4931268385
20250178500.0 -0.8696422476 -0.4790948678
20300178200.0 -0.8791716359 -0.4645809627
20350177900.0 -0.8885369342 -0.449877353
20400177600.0 -0.8971098346 -0.4357985006
20450177300.0 -0.9053324504 -0.4208476897
20500177000.0 -0.9134730597 -0.4071554884
20550176700.0 -0.9215070328 -0.3936064627
20600176400.0 -0.9282308114 -0.3800644321
20650176100.0 -0.935063327 -0.3677482473
20700175800.0 -0.9415045757 -0.3558624483
20750175500.0 -0.9479415852 -0.3433123925
20800175200.0 -0.953570417 -0.3325127236
20850174900.0 -0.9578281865 -0.3218367521
20900174600.0 -0.9622012511 -0.309411244
20950174300.0 -0.9674661995 -0.2981744296
21000174000.0 -0.9698135297 -0.2870075506
21050173700.0 -0.9737959469 -0.2756987392
21100173400.0 -0.9775435814 -0.2636894189
21150173100.0 -0.9815020224 -0.2510572452
21200172800.0 -0.9846686803 -0.2369569496
21250172500.0 -0.9879834486 -0.2232798576
21300172200.0 -0.9906444651 -0.209209671
21350171900.0 -0.9924718184 -0.1952887723
21400171600.0 -0.9937765708 -0.1810538125
21450171300.0 -0.9934072556 -0.166210281
21500171000.0 -0.9927661564 -0.1502604909
21550170700.0 -0.9938625822 -0.1352755791
21600170400.0 -0.9938585154 -0.1204067841
21650170100.0 -0.9927999969 -0.1044764075
21700169800.0 -0.9909997615 -0.0893148096
21750169500.0 -0.989618462 -0.0735595383
21800169200.0 -0.9884520449 -0.0582928414
21850168900.0 -0.987051523 -0.0405050188
21900168600.0 -0.9853100896 -0.0245619878
21950168300.0 -0.9840938059 -0.0089652992
22000168000.0 -0.9828966701 0.0063927719
22050167700.0 -0.9825215673 0.020122251
22100167400.0 -0.9824085795 0.0352933174
22150167100.0 -0.983206035 0.050629964
22200166800.0 -0.9833998574 0.0667101734
22250166500.0 -0.982044142 0.0842065148
22300166200.0 -0.9823065003 0.1008068557
22350165900.0 -0.9808069784 0.1176319348
22400165600.0 -0.9783938658 0.1329362667
22450165300.0 -0.9761558223 0.1476092793
22500165000.0 -0.975173665 0.1613729763
22550164700.0 -0.9740364205 0.1766033722
22600164400.0 -0.9723954437 0.1924788524
22650164100.0 -0.9701444672 0.2073947524
22700163800.0 -0.9681631699 0.2228289191
22750163500.0 -0.9650293983 0.2384479508
22800163200.0 -0.9619661408 0.252030306
22850162900.0 -0.9599806816 0.2653053083
22900162600.0 -0.9581805972 0.2785740043
22950162300.0 -0.9573739513 0.291508244
23000162000.0 -0.9561739313 0.3026142192
23050161700.0 -0.9539807166 0.3154470193
23100161400.0 -0.952128075 0.3280669123
23150161100.0 -0.9494116974 0.3403924542
23200160800.0 -0.9456934594 0.3525685688
23250160500.0 -0.943675808 0.3647894273
23300160200.0 -0.9404840019 0.3764904756
23350159900.0 -0.9371835585 0.3896780968
23400159600.0 -0.9322906431 0.4024306136
23450159300.0 -0.9284617652 0.4154947242
23500159000.0 -0.9230817494 0.4283781673
23550158700.0 -0.9187068054 0.4418082776
23600158400.0 -0.9135756934 0.4548168871
23650158100.0 -0.9070526124 0.4687220672
23700157800.0 -0.8994573405 0.4823092642
23750157500.0 -0.8909613397 0.4962684391
23800157200.0 -0.8822988932 0.5097886528
23850156900.0 -0.8736338369 0.5219453474
23900156600.0 -0.8640040261 0.5346922606
23950156300.0 -0.8547565093 0.5473695406
24000156000.0 -0.8468895163 0.5587438465
24050155700.0 -0.8359634395 0.5705812162
24100155400.0 -0.8258824769 0.5824629268
24150155100.0 -0.8153900097 0.593803619
24200154800.0 -0.8040713179 0.6056812653
24250154500.0 -0.7930997627 0.6174470302
24300154200.0 -0.7815676355 0.6290092706
24350153900.0 -0.7690799251 0.6401949235
24400153600.0 -0.7572602849 0.6500056308
24450153300.0 -0.7453585316 0.6598372674
24500153000.0 -0.7339364264 0.6695679491
24550152700.0 -0.7231483776 0.6787166444
24600152400.0 -0.7113093803 0.6884983028
