!Created with skrf (http://scikit-rf.org).
# Hz S RI R 50.0 
!freq ReS11 ImS11
300000.0 -0.9756385701 -0.1194747596
50299700.0 -0.9998451833 0.0149133013
100299400.0 -0.9977998507 0.028018561
150299100.0 -1.002871991 0.0449216361
200298800.0 -0.9995197386 0.0582067507
250298500.0 -0.9972267414 0.0717278296
300298200.0 -0.9859656679 0.0875051763
350297900.0 -0.9939613244 0.0985768246
400297600.0 -0.9930355293 0.1150463055
450297300.0 -0.9908887517 0.1287072579
500297000.0 -0.9894046721 0.1434982811
550296700.0 -0.9842413229 0.1559087111
600296400.0 -1.017385096 0.189146456
650296100.0 -0.9821685097 0.1857754081
700295800.0 -0.9793217133 0.2001029283
750295500.0 -0.9762818179 0.2139203937
800295200.0 -0.9730519968 0.2281007432
850294900.0 -0.9695777933 0.241954125
900294600.0 -0.9657856924 0.2555088993
950294300.0 -0.9619817458 0.2692831157
1000294000.0 -0.9581142162 0.2833595422
1050293700.0 -0.9536198128 0.2971717226
1100293400.0 -0.9495256595 0.3114703507
1150293100.0 -0.9456049991 0.3234078238
1200292800.0 -0.9400067941 0.3377762643
1250292500.0 -0.9346511029 0.3513405424
1300292200.0 -0.9289591898 0.3646052658
1350291900.0 -0.9235096619 0.3785508159
1400291600.0 -0.9180253761 0.3917329669
1450291300.0 -0.9125571104 0.4040921793
1500291000.0 -0.9061170479 0.4175875404
1550290700.0 -0.8997920137 0.4308807075
1600290400.0 -0.8935189504 0.443780895
1650290100.0 -0.8867445136 0.4559138353
1700289800.0 -0.8797676993 0.4694311903
1750289500.0 -0.8726024081 0.4815745115
1800289200.0 -0.8654775349 0.4944524738
1850288900.0 -0.8587554386 0.5058653683
1900288600.0 -0.8510681183 0.5188656596
1950288300.0 -0.8429196808 0.5314983629
2000288000.0 -0.8354762175 0.5430906233
2050287700.0 -0.8270842523 0.5552841818
2100287400.0 -0.8192011223 0.5667683165
2150287100.0 -0.8109388763 0.5788226068
2200286800.0 -0.8029916425 0.5893607386
2250286500.0 -0.7940498901 0.6013818137
2300286200.0 -0.7853039593 0.6128861833
2350285900.0 -0.776856652 0.6236455739
2400285600.0 -0.7679368018 0.6346419471
2450285300.0 -0.759052573 0.6452256185
2500285000.0 -0.749019494 0.6566952137
2550284700.0 -0.7400667855 0.6671284785
2600284400.0 -0.7310508972 0.6769716859
2650284100.0 -0.7221188995 0.6873251803
2700283800.0 -0.7118931955 0.6977338702
2750283500.0 -0.7013937001 0.7082890132
2800283200.0 -0.6912043659 0.7180199817
2850282900.0 -0.6810642144 0.7284005487
2900282600.0 -0.6705512732 0.7377220894
2950282300.0 -0.6603708004 0.7472633144
3000282000.0 -0.6496206446 0.7567077159
3050281700.0 -0.6383263691 0.766020611
3100281400.0 -0.6267527879 0.7750833951
3150281100.0 -0.6154557224 0.784152186
3200280800.0 -0.6038496252 0.7924548686
3250280500.0 -0.5929802742 0.8003766861
3300280200.0 -0.5813338169 0.8086067324
3350279900.0 -0.5693256265 0.8164946433
3400279600.0 -0.5569021786 0.8246007569
3450279300.0 -0.5456457814 0.8314269358
3500279000.0 -0.5338189676 0.8384725162
3550278700.0 -0.5215450804 0.8456503681
3600278400.0 -0.5096407251 0.8523577106
3650278100.0 -0.4966537907 0.8599788165
3700277800.0 -0.4846006858 0.8664983462
3750277500.0 -0.4721257317 0.8731979271
3800277200.0 -0.4598041451 0.8799264999
3850276900.0 -0.4476616587 0.8857738701
3900276600.0 -0.4369283277 0.8914665855
3950276300.0 -0.4246422985 0.8974559952
4000276000.0 -0.4127750451 0.9033083593
4050275700.0 -0.4001036275 0.9094932731
4100275400.0 -0.3889572012 0.9147987761
4150275100.0 -0.3757661804 0.920601063
4200274800.0 -0.362598381 0.9260672623
4250274500.0 -0.3502674082 0.9315361601
4300274200.0 -0.3368604557 0.936883709
4350273900.0 -0.3227129703 0.9420549634
4400273600.0 -0.3083006974 0.9468920125
4450273300.0 -0.2931395597 0.9521906459
4500273000.0 -0.2797182291 0.9566043662
4550272700.0 -0.2660083591 0.9606439722
4600272400.0 -0.2507115159 0.9647541363
4650272100.0 -0.2393479521 0.9679765368
4700271800.0 -0.2263088127 0.971281102
4750271500.0 -0.2145959589 0.9741809364
4800271200.0 -0.20218706 0.9767901433
4850270900.0 -0.1883760691 0.9795845758
4900270600.0 -0.1746925139 0.9819970944
4950270300.0 -0.1601782235 0.9848756036
5000270000.0 -0.1457575201 0.9867638506
5050269700.0 -0.1324888869 0.9884201344
5100269400.0 -0.1182352072 0.9902323668
5150269100.0 -0.1045752699 0.99186516
5200268800.0 -0.0911110231 0.9929966687
5250268500.0 -0.0782120768 0.993683988
5300268200.0 -0.0645144893 0.9946410575
5350267900.0 -0.0519138092 0.9951039565
5400267600.0 -0.0357152496 0.9963526061
5450267300.0 -0.0223385227 0.9964975281
5500267000.0 -0.0070997709 0.9970865476
5550266700.0 0.0077985933 0.9971794689
5600266400.0 0.0234541991 0.997066694
5650266100.0 0.0403690006 0.9969193895
5700265800.0 0.0544792837 0.996130926
5750265500.0 0.0696840312 0.9951416117
5800265200.0 0.0830473401 0.994068287
5850264900.0 0.0967046799 0.9932458377
5900264600.0 0.11290169 0.9913689467
5950264300.0 0.124505008 0.9901213276
6000264000.0 0.1381860503 0.9881195277
6050263700.0 0.1502088804 0.9867664589
6100263400.0 0.1621759437 0.9850054722
6150263100.0 0.1771167691 0.9827868577
6200262800.0 0.1866197344 0.9809951594
6250262500.0 0.199440139 0.9786734713
6300262200.0 0.2117725854 0.9759523594
6350261900.0 0.2247275813 0.9732178713
6400261600.0 0.238640274 0.969973561
6450261300.0 0.249685713 0.9674372722
6500261000.0 0.26292252 0.9636765925
6550260700.0 0.2758355299 0.9598874687
6600260400.0 0.2889973175 0.9555633052
6650260100.0 0.3038138372 0.9514587848
6700259800.0 0.315843924 0.9473652526
6750259500.0 0.3293060179 0.9421490153
6800259200.0 0.3427224663 0.9371907648
6850258900.0 0.3551175795 0.9318198729
6900258600.0 0.3677890198 0.9268774056
6950258300.0 0.3801466327 0.9214343904
7000258000.0 0.3918272352 0.9161181498
7050257700.0 0.4038726414 0.9103725054
7100257400.0 0.4170833787 0.903776552
7150257100.0 0.42786762 0.8983775064
7200256800.0 0.4406608571 0.8919017801
7250256500.0 0.4532334777 0.8857371672
7300256200.0 0.4661349519 0.8787953271
7350255900.0 0.4790628079 0.8717698076
7400255600.0 0.4926975229 0.8643899923
7450255300.0 0.5082396584 0.8552849201
7500255000.0 0.520375906 0.8473471331
7550254700.0 0.5345447879 0.8388397319
7600254400.0 0.5468251874 0.8303804868
7650254100.0 0.5584461276 0.8226059642
7700253800.0 0.5701435512 0.8145441884
7750253500.0 0.5811935368 0.8069512002
7800253200.0 0.5919923177 0.7991158629
7850252900.0 0.6018357573 0.7920147662
7900252600.0 0.613244848 0.783211278
7950252300.0 0.6217063348 0.7767730541
8000252000.0 0.6317934489 0.7692046017
8050251700.0 0.6422381477 0.7609473207
8100251400.0 0.6520403554 0.7529404199
8150251100.0 0.6623042875 0.7444949214
8200250800.0 0.6714087531 0.7364039069
8250250500.0 0.680742667 0.7285240128
8300250200.0 0.6894769046 0.7200853903
8350249900.0 0.6987215528 0.7113459978
8400249600.0 0.7068273681 0.7033309225
8450249300.0 0.7158990221 0.6943811577
8500249000.0 0.724472069 0.6855803898
8550248700.0 0.7326020848 0.6764004979
8600248400.0 0.7409379164 0.6669285444
8650248100.0 0.748770899 0.6576207201
8700247800.0 0.7579958901 0.6465261909
8750247500.0 0.7662649336 0.6363069314
8800247200.0 0.7741542179 0.6262333739
8850246900.0 0.7828958771 0.6147355551
8900246600.0 0.7917516028 0.6032275699
8950246300.0 0.8007429108 0.5905816514
9000246000.0 0.8096676071 0.5782185061
9050245700.0 0.8183353479 0.5659269178
9100245400.0 0.8267582952 0.5536856615
9150245100.0 0.835515803 0.5407071694
9200244800.0 0.84531136 0.5261241336
9250244500.0 0.8543274297 0.5110091641
9300244200.0 0.8625428035 0.4971667625
9350243900.0 0.8700904349 0.483835271
9400243600.0 0.8767818752 0.4718765476
9450243300.0 0.8824685498 0.4612050982
9500243000.0 0.8886089422 0.449422565
9550242700.0 0.8926056578 0.4417868746
9600242400.0 0.8968757956 0.4341636518
9650242100.0 0.9008231443 0.4272419487
9700241800.0 0.9058098908 0.4186457707
9750241500.0 0.9097607877 0.4113904655
9800241200.0 0.9149313029 0.4019232754
9850240900.0 0.9205592504 0.3901637116
9900240600.0 0.9263493974 0.3787803927
9950240300.0 0.9333728872 0.361666303
10000240000.0 0.9381048892 0.3502605103
10050239700.0 0.944018433 0.3341096981
10100239400.0 0.9490579651 0.318096801
10150239100.0 0.9540298849 0.3024569993
10200238800.0 0.9584038606 0.2873793962
10250238500.0 0.9615908451 0.2739769698
10300238200.0 0.9646154617 0.2598043119
10350237900.0 0.9674603591 0.2464867688
10400237600.0 0.9700333033 0.2329836467
10450237300.0 0.972489018 0.2194227179
10500237000.0 0.9749194487 0.2073285693
10550236700.0 0.9771772769 0.1932757443
10600236400.0 0.9795873529 0.1790881986
10650236100.0 0.9815514223 0.1644682503
10700235800.0 0.983741763 0.1521867884
10750235500.0 0.9862819395 0.1384141636
10800235200.0 0.9877948854 0.1242973032
10850234900.0 0.9898256926 0.1093312298
10900234600.0 0.9921268964 0.0944591386
10950234300.0 0.9934958088 0.0814027991
11000234000.0 0.9954784475 0.065905924
11050233700.0 0.9973006153 0.0491988288
11100233400.0 0.9988390796 0.0316331176
11150233100.0 0.9998620586 0.015293329
11200232800.0 1.000729589 -0.001075586
11250232500.0 1.001485313 -0.0178326626
11300232200.0 1.002646962 -0.0374267443
11350231900.0 1.002268729 -0.0527616814
11400231600.0 1.001784935 -0.0684486181
11450231300.0 1.00077719 -0.0837045433
11500231000.0 1.000268766 -0.0996348344
11550230700.0 0.9986861235 -0.113040742
11600230400.0 0.9965939394 -0.1258633205
11650230100.0 0.994834543 -0.1380198365
11700229800.0 0.9927888136 -0.1526026368
11750229500.0 0.9904831561 -0.1672068523
11800229200.0 0.9875471442 -0.1805884005
11850228900.0 0.9838418786 -0.1922079409
11900228600.0 0.9800394767 -0.2019681711
11950228300.0 0.9768358148 -0.212113661
12000228000.0 0.9742980157 -0.2206430558
12050227700.0 0.9702311611 -0.2335265101
12100227400.0 0.967629772 -0.2442619415
12150227100.0 0.9619328552 -0.2612053358
12200226800.0 0.9583632232 -0.2720033371
12250226500.0 0.9541015957 -0.2855287272
12300226200.0 0.950222983 -0.2972005701
12350225900.0 0.9447681545 -0.3111761057
12400225600.0 0.9407932953 -0.3235491761
12450225300.0 0.9367459043 -0.3359509331
12500225000.0 0.9309546472 -0.350979176
12550224700.0 0.9253552391 -0.3647891205
12600224400.0 0.9204510944 -0.3775402024
12650224100.0 0.9146505249 -0.3918500582
12700223800.0 0.9093980043 -0.4045276671
12750223500.0 0.9038953384 -0.4175037386
12800223200.0 0.8986866544 -0.4300280069
12850222900.0 0.89330919 -0.4422289044
12900222600.0 0.8876018514 -0.4541564187
12950222300.0 0.8812982774 -0.4672950767
13000222000.0 0.8754988824 -0.4787983141
13050221700.0 0.8686796422 -0.4916558094
13100221400.0 0.8620781448 -0.5036293765
13150221100.0 0.8552996781 -0.5162347369
13200220800.0 0.8479932861 -0.5276535858
13250220500.0 0.8408623824 -0.53932404
13300220200.0 0.8333478929 -0.5508184788
13350219900.0 0.8252252208 -0.5624005598
13400219600.0 0.817032037 -0.5742749139
13450219300.0 0.8075856476 -0.5875528276
13500219000.0 0.7978018014 -0.6009915774
13550218700.0 0.7877102384 -0.6134145937
13600218400.0 0.7776177782 -0.6255851781
13650218100.0 0.7685337309 -0.6359365811
13700217800.0 0.7567599991 -0.6472820015
13750217500.0 0.7473668253 -0.6588275817
13800217200.0 0.7372369547 -0.6704344883
13850216900.0 0.725627637 -0.6813419259
13900216600.0 0.7160756102 -0.6901406237
13950216300.0 0.7053198518 -0.7004951474
14000216000.0 0.6955575737 -0.7094916815
14050215700.0 0.6861429739 -0.7172856054
14100215400.0 0.6761874882 -0.7270287586
14150215100.0 0.6671219423 -0.7359392819
14200214800.0 0.6578072867 -0.7442578825
14250214500.0 0.647327933 -0.7538295944
14300214200.0 0.6370573564 -0.7631998463
14350213900.0 0.6257670308 -0.7728491256
14400213600.0 0.6139723492 -0.7826192564
14450213300.0 0.6014809974 -0.7927641157
14500213000.0 0.5879622283 -0.8028123658
14550212700.0 0.5755845823 -0.8120902125
14600212400.0 0.5633161223 -0.8208364037
14650212100.0 0.5505108366 -0.8289625538
14700211800.0 0.5366086822 -0.8390163794
14750211500.0 0.5244641691 -0.8475638971
14800211200.0 0.5118241848 -0.8554343845
14850210900.0 0.499776603 -0.8631460739
14900210600.0 0.4864820275 -0.8710145624
14950210300.0 0.4732085972 -0.8787825006
15000210000.0 0.4605446859 -0.885342219
15050209700.0 0.4480513348 -0.8918364258
15100209400.0 0.4353825519 -0.8977152841
15150209100.0 0.4229653551 -0.9030901441
15200208800.0 0.4100679219 -0.9081294036
15250208500.0 0.3990982037 -0.9130254235
15300208200.0 0.3874445657 -0.9172911948
15350207900.0 0.374230089 -0.9225274217
15400207600.0 0.3590575233 -0.9275722777
15450207300.0 0.3443649851 -0.9328463834
15500207000.0 0.3298737931 -0.937418238
15550206700.0 0.315220664 -0.9418015612
15600206400.0 0.2990281672 -0.9470883265
15650206100.0 0.283427865 -0.9507092903
15700205800.0 0.269851427 -0.9547591806
15750205500.0 0.2558007352 -0.9579217516
15800205200.0 0.2416882339 -0.961391003
15850204900.0 0.2273923371 -0.9649454993
15900204600.0 0.2122206096 -0.968538175
15950204300.0 0.1980974835 -0.9718418753
16000204000.0 0.1838599918 -0.9745926675
16050203700.0 0.1687353634 -0.977507501
16100203400.0 0.1540511 -0.9797181021
16150203100.0 0.1396246568 -0.9823945392
16200202800.0 0.1252402328 -0.9840796987
16250202500.0 0.1105707151 -0.985754333
16300202200.0 0.0947749432 -0.9878474531
16350201900.0 0.0798489342 -0.9889055705
16400201600.0 0.0650059964 -0.9901052796
16450201300.0 0.0494873831 -0.9913839325
16500201000.0 0.0326103502 -0.9919584993
16550200700.0 0.0166872217 -0.9925339314
16600200400.0 0.0007131929 -0.9927940727
16650200100.0 -0.0155402082 -0.9925958861
16700199800.0 -0.0319400196 -0.9920465726
16750199500.0 -0.0509901332 -0.9922497093
16800199200.0 -0.0659440502 -0.9908834828
16850198900.0 -0.0822929703 -0.9895187295
16900198600.0 -0.0962080661 -0.9886238352
16950198300.0 -0.109834784 -0.9878977357
17000198000.0 -0.1224680737 -0.9864341658
17050197700.0 -0.1351671178 -0.9848025919
17100197400.0 -0.1486965732 -0.9822631378
17150197100.0 -0.160874462 -0.9802975096
17200196800.0 -0.1737536137 -0.9780891744
17250196500.0 -0.1869370128 -0.9755496363
17300196200.0 -0.1989966107 -0.9733045089
17350195900.0 -0.210643441 -0.9708966771
17400195600.0 -0.2225112991 -0.9683312581
17450195300.0 -0.2354234419 -0.9655523826
17500195000.0 -0.2490504718 -0.9622058575
17550194700.0 -0.2625233482 -0.9586100487
17600194400.0 -0.2764588576 -0.9545868501
17650194100.0 -0.2900198818 -0.9504498897
17700193800.0 -0.3027333479 -0.9463543493
17750193500.0 -0.3173854523 -0.9417638223
17800193200.0 -0.3314638667 -0.936777247
17850192900.0 -0.3467110737 -0.9314591689
17900192600.0 -0.3618643188 -0.925132029
17950192300.0 -0.3771311728 -0.9177905547
18000192000.0 -0.3920534214 -0.9108297044
18050191700.0 -0.4057315057 -0.90280935
18100191400.0 -0.4201208872 -0.8951759113
18150191100.0 -0.434887504 -0.8873145781
18200190800.0 -0.451743529 -0.8780091878
18250190500.0 -0.4685447475 -0.868616476
18300190200.0 -0.4842173611 -0.8597373485
18350189900.0 -0.4993028654 -0.8514589863
18400189600.0 -0.5137301804 -0.8430127432
18450189300.0 -0.5274230151 -0.8348565896
18500189000.0 -0.5408036146 -0.8269095041
18550188700.0 -0.5536327402 -0.8193799433
18600188400.0 -0.565175732 -0.8121379588
18650188100.0 -0.5765213802 -0.8056304053
18700187800.0 -0.5875656379 -0.7992568095
18750187500.0 -0.5983376122 -0.7926764549
18800187200.0 -0.608944033 -0.7856542118
18850186900.0 -0.6191195653 -0.7788862761
18900186600.0 -0.6294796148 -0.7714944985
18950186300.0 -0.6395150994 -0.7637319566
19000186000.0 -0.6468384333 -0.7576393466
19050185700.0 -0.6562139446 -0.7502501676
19100185400.0 -0.6661341798 -0.7419812239
19150185100.0 -0.6763494645 -0.7330680272
19200184800.0 -0.6857692156 -0.7253907844
19250184500.0 -0.6967089165 -0.7163980467
19300184200.0 -0.7075136871 -0.7063533437
19350183900.0 -0.718343485 -0.6969145418
19400183600.0 -0.7278125106 -0.6873786496
19450183300.0 -0.7361728034 -0.6768893355
19500183000.0 -0.744945383 -0.6670604244
19550182700.0 -0.7546444414 -0.6561473789
19600182400.0 -0.7649745896 -0.6445115043
19650182100.0 -0.7756255666 -0.6321529787
19700181800.0 -0.7860791405 -0.6186455741
19750181500.0 -0.7964032697 -0.6048229114
19800181200.0 -0.8066582782 -0.5899713508
19850180900.0 -0.8165547324 -0.5744707176
19900180600.0 -0.8242850682 -0.5599954984
19950180300.0 -0.8331192978 -0.543617097
20000180000.0 -0.8232169796 -0.5467821901
20050179700.0 -0.8321942859 -0.5340297185
20100179400.0 -0.840668462 -0.5209341914
20150179100.0 -0.8483847743 -0.508530945
20200178800.0 -0.8564714862 -0.4971108606
20250178500.0 -0.8660593488 -0.4844248121
20300178200.0 -0.8758459678 -0.4705384585
20350177900.0 -0.8851365605 -0.4563988418
20400177600.0 -0.8942967611 -0.441815134
20450177300.0 -0.9025137886 -0.4276731177
20500177000.0 -0.91089071 -0.4138048795
20550176700.0 -0.9186745333 -0.4002186158
20600176400.0 -0.9260240417 -0.3872651705
20650176100.0 -0.9318568478 -0.3755091635
20700175800.0 -0.93888633 -0.3635027577
20750175500.0 -0.9453336335 -0.3519971159
20800175200.0 -0.9501199419 -0.3409115882
20850174900.0 -0.9546811123 -0.3297811149
20900174600.0 -0.9590493867 -0.3184407201
20950174300.0 -0.9625284422 -0.3073442313
21000174000.0 -0.9656124224 -0.2966278087
21050173700.0 -0.966907205 -0.2871491335
21100173400.0 -0.9707171543 -0.2754504291
21150173100.0 -0.9750937182 -0.2639684756
21200172800.0 -0.9788299226 -0.2503644694
21250172500.0 -0.9820023092 -0.2366380836
21300172200.0 -0.9854925987 -0.2225296954
21350171900.0 -0.9871895033 -0.2082472563
21400171600.0 -0.9894298172 -0.1946059167
21450171300.0 -0.9902767536 -0.1799307073
21500171000.0 -0.9900009008 -0.1650470623
21550170700.0 -0.9901179766 -0.1497104185
21600170400.0 -0.991511528 -0.1338695736
21650170100.0 -0.9912235939 -0.1186417796
21700169800.0 -0.9900524246 -0.1035406334
21750169500.0 -0.9895936116 -0.0877237229
21800169200.0 -0.9897716161 -0.0701429847
21850168900.0 -0.9889039909 -0.0539885487
21900168600.0 -0.9881850944 -0.0370554829
21950168300.0 -0.9883280841 -0.021630375
22000168000.0 -0.9874171692 -0.0064139784
22050167700.0 -0.9877106664 0.0077786478
22100167400.0 -0.9884703164 0.0236116567
22150167100.0 -0.9893726213 0.0392814219
22200166800.0 -0.9898714083 0.0555488698
22250166500.0 -0.9896104298 0.072826625
22300166200.0 -0.9885137599 0.0901297516
22350165900.0 -0.9874248148 0.1054660138
22400165600.0 -0.9849203355 0.1215305914
22450165300.0 -0.9834442074 0.1370432641
22500165000.0 -0.9817112383 0.1502849777
22550164700.0 -0.9813955888 0.1661826318
22600164400.0 -0.9791618477 0.1831127592
22650164100.0 -0.9763471818 0.1982759815
22700163800.0 -0.9727954753 0.2132661173
22750163500.0 -0.9704135542 0.228591244
22800163200.0 -0.967986394 0.2416773519
22850162900.0 -0.964833199 0.25535015
22900162600.0 -0.9635485707 0.2691146297
22950162300.0 -0.9617261236 0.2824671152
23000162000.0 -0.9598232939 0.2951615244
23050161700.0 -0.9576275204 0.3080509779
23100161400.0 -0.9549943785 0.3214297048
23150161100.0 -0.9520625374 0.3337062564
23200160800.0 -0.9490949401 0.3464468491
23250160500.0 -0.9462663941 0.3592313355
23300160200.0 -0.9441292279 0.3709788568
23350159900.0 -0.9400485527 0.3856611
23400159600.0 -0.9347793106 0.3985543354
23450159300.0 -0.9294246688 0.4124171777
23500159000.0 -0.9248186117 0.4255259046
23550158700.0 -0.9203586057 0.439449432
23600158400.0 -0.9141322331 0.4535756498
23650158100.0 -0.9073068508 0.4678954473
23700157800.0 -0.8992351549 0.4819989105
23750157500.0 -0.8902058835 0.4962071613
23800157200.0 -0.8805297222 0.509507488
23850156900.0 -0.8710135001 0.52247454
23900156600.0 -0.8620129245 0.5347650293
23950156300.0 -0.8520786191 0.5477780398
24000156000.0 -0.8423980424 0.5594133644
24050155700.0 -0.8316094481 0.571906919
24100155400.0 -0.8216476073 0.5849670338
24150155100.0 -0.8106003589 0.5962206854
24200154800.0 -0.7994071287 0.6079100181
24250154500.0 -0.7885558199 0.6197388027
24300154200.0 -0.7769043738 0.6320502502
24350153900.0 -0.7652282438 0.6428990697
24400153600.0 -0.7530534608 0.6536755838
24450153300.0 -0.7408649465 0.6636211968
24500153000.0 -0.7294534511 0.6735883132
24550152700.0 -0.7177705588 0.6833708025
24600152400.0 -0.705918192 0.6934395988
24650152100.0 -0.6951056273 0.7008280103
