!Created with skrf (http://scikit-rf.org).
# Hz S RI R 50.0 
!freq ReS11 ImS11
300000.0 -0.9810982829 -0.0994534908
50299700.0 -0.9999542904 0.0163571044
100299400.0 -0.9980621344 0.0290628687
150299100.0 -1.002806926 0.0461634619
200298800.0 -0.9996440722 0.0594147586
250298500.0 -0.9974041045 0.0728930783
300298200.0 -0.9861704174 0.0884700534
350297900.0 -0.9940030653 0.0996143909
400297600.0 -0.9931700756 0.1161254748
450297300.0 -0.9910856361 0.1302100144
500297000.0 -0.989313261 0.1447643707
550296700.0 -0.9842506027 0.1571623526
600296400.0 -1.01716376 0.1907108258
650296100.0 -0.9821355035 0.1872059821
700295800.0 -0.9790644985 0.2015430116
750295500.0 -0.9762359818 0.2153906132
800295200.0 -0.9728049074 0.2296608847
850294900.0 -0.9696025448 0.2434351749
900294600.0 -0.9655521855 0.2570926423
950294300.0 -0.9616047693 0.2710242531
1000294000.0 -0.957823651 0.284901719
1050293700.0 -0.9532714807 0.2987272627
1100293400.0 -0.9490740161 0.3129332648
1150293100.0 -0.9450939524 0.3249937378
1200292800.0 -0.9397011117 0.3392746442
1250292500.0 -0.934243016 0.3526320835
1300292200.0 -0.9285109363 0.3658989798
1350291900.0 -0.92311474 0.3801586197
1400291600.0 -0.9175062188 0.3929587573
1450291300.0 -0.912014517 0.4053935811
1500291000.0 -0.9058142731 0.4185675186
1550290700.0 -0.8993505176 0.4321241566
1600290400.0 -0.892904943 0.4448658287
1650290100.0 -0.8866840246 0.4570019886
1700289800.0 -0.8794325576 0.4704547975
1750289500.0 -0.8726189571 0.4826438117
1800289200.0 -0.8650664167 0.4955582256
1850288900.0 -0.8583115689 0.5068948742
1900288600.0 -0.8505521859 0.5199564197
1950288300.0 -0.8422853122 0.5327902962
2000288000.0 -0.834917103 0.5440726419
2050287700.0 -0.8268145275 0.5561690745
2100287400.0 -0.8187009003 0.5678626063
2150287100.0 -0.8101304473 0.5800452677
2200286800.0 -0.8022840713 0.5903061529
2250286500.0 -0.7933334914 0.6023291756
2300286200.0 -0.7845236043 0.6139038572
2350285900.0 -0.7755395787 0.6251267047
2400285600.0 -0.7665368221 0.6360647296
2450285300.0 -0.7581085474 0.6463774743
2500285000.0 -0.7482129178 0.6577939961
2550284700.0 -0.7393712338 0.6679297018
2600284400.0 -0.729833515 0.6780383025
2650284100.0 -0.7209124408 0.6890360679
2700283800.0 -0.7101924435 0.6993501338
2750283500.0 -0.7000797324 0.7098392374
2800283200.0 -0.6898185552 0.7193149233
2850282900.0 -0.6799516663 0.7293118609
2900282600.0 -0.6697170784 0.7390210598
2950282300.0 -0.6593470341 0.7481764587
3000282000.0 -0.6487585926 0.7575919992
3050281700.0 -0.6377230529 0.7669840969
3100281400.0 -0.6257144498 0.7760983413
3150281100.0 -0.6139956532 0.7856107957
3200280800.0 -0.602362673 0.794007361
3250280500.0 -0.5916258367 0.8016262939
3300280200.0 -0.580478042 0.8095406929
3350279900.0 -0.5689901581 0.8169392547
3400279600.0 -0.5567102778 0.8247103014
3450279300.0 -0.5458665993 0.8319483888
3500279000.0 -0.5337559309 0.839109554
3550278700.0 -0.5212030836 0.8462596963
3600278400.0 -0.5090608055 0.8534064053
3650278100.0 -0.4956970928 0.860941551
3700277800.0 -0.4836139182 0.8673844038
3750277500.0 -0.4714720118 0.8741036131
3800277200.0 -0.4588930439 0.8803125422
3850276900.0 -0.4467712167 0.8864587935
3900276600.0 -0.4357400947 0.8921178844
3950276300.0 -0.4233209412 0.8980826149
4000276000.0 -0.41110683 0.9041811944
4050275700.0 -0.3982977192 0.9101907502
4100275400.0 -0.3866677002 0.9153912882
4150275100.0 -0.3740794282 0.9212732186
4200274800.0 -0.3610720012 0.9266104899
4250274500.0 -0.348833392 0.9318293966
4300274200.0 -0.3359019304 0.9371664596
4350273900.0 -0.3221276379 0.9422703073
4400273600.0 -0.3072677453 0.9475492829
4450273300.0 -0.2918554197 0.9526164071
4500273000.0 -0.2780935007 0.9569814834
4550272700.0 -0.2639597456 0.9613338367
4600272400.0 -0.2485153631 0.9654355058
4650272100.0 -0.2365981702 0.9686263777
4700271800.0 -0.2235704645 0.9717929922
4750271500.0 -0.2118259821 0.9746364286
4800271200.0 -0.1992419473 0.977415047
4850270900.0 -0.1852545928 0.9802264815
4900270600.0 -0.1715280379 0.9828727626
4950270300.0 -0.1572967718 0.9853085308
5000270000.0 -0.1431440474 0.9874025668
5050269700.0 -0.1296556791 0.9886387669
5100269400.0 -0.1162757862 0.9908074866
5150269100.0 -0.1028783325 0.9920493394
5200268800.0 -0.0896168909 0.9930745721
5250268500.0 -0.0766459451 0.9939408892
5300268200.0 -0.0636307445 0.9949263242
5350267900.0 -0.0512049862 0.9954838521
5400267600.0 -0.0350220842 0.9965468396
5450267300.0 -0.0219737476 0.9967420818
5500267000.0 -0.0069760702 0.9971046605
5550266700.0 0.007768135 0.9973800456
5600266400.0 0.0236291655 0.9974085758
5650266100.0 0.0398037037 0.9967524491
5700265800.0 0.054436696 0.9960262636
5750265500.0 0.0696523467 0.995384721
5800265200.0 0.0835609265 0.9942356137
5850264900.0 0.0968375975 0.9927619184
5900264600.0 0.1131771831 0.9911370795
5950264300.0 0.1256182839 0.9896971505
6000264000.0 0.1398485682 0.9883306998
6050263700.0 0.1524228055 0.9864033374
6100263400.0 0.1648335847 0.9844288471
6150263100.0 0.1797679363 0.982256782
6200262800.0 0.1900193078 0.9803022187
6250262500.0 0.2027284547 0.9777968357
6300262200.0 0.2156838305 0.9750261742
6350261900.0 0.2286599247 0.9721116948
6400261600.0 0.2424958683 0.9688301681
6450261300.0 0.2538188068 0.9658012939
6500261000.0 0.2667924182 0.9626148843
6550260700.0 0.2795588515 0.9584732031
6600260400.0 0.2929515467 0.9547239776
6650260100.0 0.3070917755 0.9500766713
6700259800.0 0.3186965045 0.9459236627
6750259500.0 0.332613053 0.940917783
6800259200.0 0.3455561238 0.9359123736
6850258900.0 0.3575281268 0.9312493884
6900258600.0 0.3695691379 0.9259425369
6950258300.0 0.3819135276 0.9206468439
7000258000.0 0.3941634906 0.9154342288
7050257700.0 0.4064679388 0.9093654337
7100257400.0 0.4193017096 0.903048265
7150257100.0 0.4295642265 0.8978774681
7200256800.0 0.4420122861 0.8913539692
7250256500.0 0.4541086841 0.8851592926
7300256200.0 0.4670409727 0.8784182495
7350255900.0 0.4794050653 0.8716166371
7400255600.0 0.4922981216 0.8644091769
7450255300.0 0.5074584555 0.8554016168
7500255000.0 0.5195713616 0.8482634135
7550254700.0 0.5329835913 0.8396734891
7600254400.0 0.545553853 0.831399577
7650254100.0 0.5575305771 0.8237251838
7700253800.0 0.569122092 0.8155404947
7750253500.0 0.5806722228 0.8075367139
7800253200.0 0.5910852002 0.7997226961
7850252900.0 0.600947619 0.7926656744
7900252600.0 0.612606062 0.7838727391
7950252300.0 0.6215635379 0.7772319119
8000252000.0 0.6318253907 0.7695076945
8050251700.0 0.6420816328 0.7612073688
8100251400.0 0.6523712252 0.7529559351
8150251100.0 0.6625537954 0.7442239207
8200250800.0 0.6720197145 0.7360929717
8250250500.0 0.680968669 0.7281607118
8300250200.0 0.6903157944 0.7194793268
8350249900.0 0.6992301155 0.7106253301
8400249600.0 0.7075324314 0.7027484112
8450249300.0 0.7168327609 0.6934004199
8500249000.0 0.7252086177 0.6845126277
8550248700.0 0.73397465 0.6756042133
8600248400.0 0.7422393839 0.6661019014
8650248100.0 0.7497507394 0.6567424577
8700247800.0 0.7595220786 0.6455258461
8750247500.0 0.7674101326 0.6356116163
8800247200.0 0.7756046882 0.6252316508
8850246900.0 0.7841289574 0.6141225289
8900246600.0 0.7928468893 0.6028812744
8950246300.0 0.8024292762 0.5899826859
9000246000.0 0.8116316451 0.5771384996
9050245700.0 0.8206680757 0.5640126584
9100245400.0 0.8289637422 0.5516324712
9150245100.0 0.8383448671 0.5381288612
9200244800.0 0.8479162378 0.5230497673
9250244500.0 0.8574307992 0.5075109595
9300244200.0 0.8658321845 0.492872576
9350243900.0 0.873653675 0.4790090742
9400243600.0 0.8803831184 0.4663140861
9450243300.0 0.8863457345 0.4545121552
9500243000.0 0.8925169987 0.4420777618
9550242700.0 0.8965546554 0.4339747708
9600242400.0 0.9004968636 0.4265572303
9650242100.0 0.9042004004 0.4197256707
9700241800.0 0.9087252258 0.4113846449
9750241500.0 0.9124836422 0.4038651364
9800241200.0 0.9170610602 0.394730419
9850240900.0 0.9227704876 0.3825869538
9900240600.0 0.9279087987 0.3713974989
9950240300.0 0.9349314584 0.3549946378
10000240000.0 0.9398536637 0.3432798631
10050239700.0 0.94516301 0.3285778008
10100239400.0 0.9500425105 0.3129316261
10150239100.0 0.9543600177 0.2982109895
10200238800.0 0.958581161 0.2835788389
10250238500.0 0.961979392 0.2701498922
10300238200.0 0.9649921761 0.2563640676
10350237900.0 0.967565889 0.2432918964
10400237600.0 0.9700054009 0.2301785209
10450237300.0 0.972988047 0.216576648
10500237000.0 0.9748328132 0.2045892373
10550236700.0 0.977453078 0.1900783515
10600236400.0 0.9791973799 0.1770400754
10650236100.0 0.9815820167 0.1628951748
10700235800.0 0.9835819957 0.1504074664
10750235500.0 0.9861219733 0.1369141576
10800235200.0 0.988256209 0.1234759716
10850234900.0 0.9898235644 0.108652656
10900234600.0 0.9919256003 0.0939100085
10950234300.0 0.9933772656 0.0809826353
11000234000.0 0.9952457643 0.0660138785
11050233700.0 0.9969664039 0.0496894343
11100233400.0 0.9982483858 0.0323372752
11150233100.0 0.9992274299 0.0163271639
11200232800.0 0.9998313375 0.0013325712
11250232500.0 1.000956778 -0.0152348155
11300232200.0 1.001407052 -0.0335583266
11350231900.0 1.001688575 -0.0493176502
11400231600.0 1.001413587 -0.0645525151
11450231300.0 1.000517883 -0.0798359684
11500231000.0 1.000060087 -0.0973100281
11550230700.0 0.9974462569 -0.1109079409
11600230400.0 0.9963357629 -0.123305309
11650230100.0 0.994312976 -0.1347613233
11700229800.0 0.992178936 -0.1500371315
11750229500.0 0.9898759205 -0.164586889
11800229200.0 0.9872191577 -0.1783779647
11850228900.0 0.9836268068 -0.1908765808
11900228600.0 0.9802921928 -0.2008501908
11950228300.0 0.9768849066 -0.2114590417
12000228000.0 0.9742392612 -0.2203425145
12050227700.0 0.9703774911 -0.233754102
12100227400.0 0.9678644827 -0.2435346409
12150227100.0 0.9632967379 -0.2603752993
12200226800.0 0.9584999816 -0.2723843812
12250226500.0 0.9548594065 -0.2841908631
12300226200.0 0.9506906083 -0.2964569073
12350225900.0 0.9455785505 -0.3101103792
12400225600.0 0.9417460291 -0.3225484211
12450225300.0 0.936945292 -0.3357116107
12500225000.0 0.9317093654 -0.3502778568
12550224700.0 0.9265308669 -0.3636356304
12600224400.0 0.9217572003 -0.3761352279
12650224100.0 0.9158761915 -0.3905186527
12700223800.0 0.9106849046 -0.4030008477
12750223500.0 0.9054348466 -0.4157799459
12800223200.0 0.8997731014 -0.4283957765
12850222900.0 0.8946925922 -0.4405347636
12900222600.0 0.8887092637 -0.4526968207
12950222300.0 0.8822260081 -0.4649898304
13000222000.0 0.8762301529 -0.4767980419
13050221700.0 0.8698990876 -0.4898504431
13100221400.0 0.8631038722 -0.5017257296
13150221100.0 0.855789205 -0.5139643416
13200220800.0 0.8488563698 -0.5258279203
13250220500.0 0.8413595531 -0.5386096618
13300220200.0 0.8339693157 -0.5493118199
13350219900.0 0.8257145166 -0.5613762906
13400219600.0 0.8173615477 -0.5735300446
13450219300.0 0.8078636499 -0.5872597995
13500219000.0 0.7974067029 -0.601470896
13550218700.0 0.7868861851 -0.6138696195
13600218400.0 0.777351757 -0.6258507679
13650218100.0 0.7669198595 -0.6372642156
13700217800.0 0.7561790393 -0.6502619672
13750217500.0 0.7457672759 -0.660806026
13800217200.0 0.7347356325 -0.6723577874
13850216900.0 0.7238197165 -0.6835142933
13900216600.0 0.7141378834 -0.6929021395
13950216300.0 0.7032440976 -0.7034539026
14000216000.0 0.693248232 -0.7130373675
14050215700.0 0.6838040507 -0.7208061251
14100215400.0 0.67382766 -0.7295140381
14150215100.0 0.6647536586 -0.7383262224
14200214800.0 0.6555199544 -0.7469162096
14250214500.0 0.6453865497 -0.7558766108
14300214200.0 0.6350418616 -0.7651618858
14350213900.0 0.6241799532 -0.7744506369
14400213600.0 0.612140181 -0.7841163499
14450213300.0 0.5996912177 -0.7945176727
14500213000.0 0.5861469527 -0.8043416575
14550212700.0 0.5739927163 -0.8131539821
14600212400.0 0.5614437208 -0.8222696029
14650212100.0 0.5487554278 -0.8307036533
14700211800.0 0.5350409215 -0.8406869637
14750211500.0 0.522186323 -0.8487912748
14800211200.0 0.5100488811 -0.8566142286
14850210900.0 0.4980243117 -0.8640003697
14900210600.0 0.4845514063 -0.8718575953
14950210300.0 0.471023869 -0.8797128084
15000210000.0 0.4581425819 -0.8864342221
15050209700.0 0.4455243092 -0.8925857452
15100209400.0 0.4329320437 -0.8984036984
15150209100.0 0.420613609 -0.9038914572
15200208800.0 0.407198684 -0.909457981
15250208500.0 0.3958999454 -0.9142903027
15300208200.0 0.3830473527 -0.9182144749
15350207900.0 0.3702679934 -0.9235929611
15400207600.0 0.355145548 -0.9294525218
15450207300.0 0.3404848509 -0.9341482519
15500207000.0 0.3259127123 -0.9389311271
15550206700.0 0.3113217281 -0.9439002154
15600206400.0 0.2949875245 -0.9482726463
15650206100.0 0.279582745 -0.9526220291
15700205800.0 0.2656151849 -0.9558236988
15750205500.0 0.2512452008 -0.9594381245
15800205200.0 0.2366440402 -0.9629304632
15850204900.0 0.2224119046 -0.9664379062
15900204600.0 0.2073682802 -0.9699340037
15950204300.0 0.1933595731 -0.9727460273
16000204000.0 0.1793457402 -0.9755676647
16050203700.0 0.1651476971 -0.9780483916
16100203400.0 0.1510463404 -0.9803979195
16150203100.0 0.1364821628 -0.9829602185
16200202800.0 0.1221764231 -0.9851541307
16250202500.0 0.1079171132 -0.9859804935
16300202200.0 0.0929760929 -0.9877859031
16350201900.0 0.0778371376 -0.9893321427
16400201600.0 0.0632742815 -0.9905567492
16450201300.0 0.0484011101 -0.9913277126
16500201000.0 0.0317191343 -0.9922321738
16550200700.0 0.016081642 -0.9925883863
16600200400.0 -1.46079e-05 -0.9928866339
16650200100.0 -0.016166682 -0.992800592
16700199800.0 -0.0326547382 -0.9918280765
16750199500.0 -0.05181714 -0.9917209177
16800199200.0 -0.0672110725 -0.9910094158
16850198900.0 -0.0826813804 -0.9896239453
16900198600.0 -0.0970123994 -0.9882885688
16950198300.0 -0.1102306325 -0.9870123933
17000198000.0 -0.1234778635 -0.9853255568
17050197700.0 -0.1360225347 -0.9837087616
17100197400.0 -0.1494424376 -0.9817197301
17150197100.0 -0.1616902333 -0.9795499521
17200196800.0 -0.1748504965 -0.9770230773
17250196500.0 -0.1879522887 -0.9751582235
17300196200.0 -0.1999066287 -0.972677705
17350195900.0 -0.2120416828 -0.9704729253
17400195600.0 -0.2241766647 -0.9678942776
17450195300.0 -0.2375088904 -0.9652936252
17500195000.0 -0.2506635539 -0.961732554
17550194700.0 -0.264643993 -0.9580143696
17600194400.0 -0.2783446671 -0.9540770291
17650194100.0 -0.2921955379 -0.9497844005
17700193800.0 -0.3051625827 -0.9457164319
17750193500.0 -0.3194793557 -0.9416104954
17800193200.0 -0.3332754878 -0.9359434818
17850192900.0 -0.3481077319 -0.9308059172
17900192600.0 -0.3634162728 -0.9245401076
17950192300.0 -0.3788111538 -0.9173991974
18000192000.0 -0.3933599408 -0.9104991092
18050191700.0 -0.4072436159 -0.9026714278
18100191400.0 -0.4212794536 -0.894947387
18150191100.0 -0.4361060386 -0.8868126028
18200190800.0 -0.4528657341 -0.8778794077
18250190500.0 -0.4697118358 -0.8682374438
18300190200.0 -0.4848903201 -0.8593601825
18350189900.0 -0.5001612853 -0.8511821181
18400189600.0 -0.5148360737 -0.8428284231
18450189300.0 -0.527637027 -0.8349905472
18500189000.0 -0.5410479058 -0.8267512561
18550188700.0 -0.5537217653 -0.819459758
18600188400.0 -0.5660341862 -0.8119278858
18650188100.0 -0.5773357296 -0.8055057766
18700187800.0 -0.588348485 -0.7985840839
18750187500.0 -0.5986894614 -0.791842407
18800187200.0 -0.6096567202 -0.7846322766
18850186900.0 -0.6199525037 -0.7774443271
18900186600.0 -0.6304028218 -0.7697946328
18950186300.0 -0.6406080924 -0.7621235255
19000186000.0 -0.6485224174 -0.7556464696
19050185700.0 -0.6577087695 -0.7483120195
19100185400.0 -0.668305929 -0.739923204
19150185100.0 -0.678004756 -0.7312965921
19200184800.0 -0.6879651935 -0.7227732357
19250184500.0 -0.6976806695 -0.713669203
19300184200.0 -0.7098562733 -0.7039026764
19350183900.0 -0.7199734067 -0.6934514635
19400183600.0 -0.7301846107 -0.6839376216
19450183300.0 -0.7386878225 -0.6739701854
19500183000.0 -0.7470240382 -0.6642899822
19550182700.0 -0.7567518169 -0.6531968705
19600182400.0 -0.7665684406 -0.6416946735
19650182100.0 -0.7773257534 -0.6291477792
19700181800.0 -0.7877948668 -0.6164474064
19750181500.0 -0.7979440889 -0.6025058709
19800181200.0 -0.8079207556 -0.5878037236
19850180900.0 -0.8175777481 -0.572797711
19900180600.0 -0.825197223 -0.5584114883
19950180300.0 -0.8342110711 -0.54256586
20000180000.0 -0.8278048967 -0.5444222403
20050179700.0 -0.8359247438 -0.5304997903
20100179400.0 -0.8438719744 -0.5175486928
20150179100.0 -0.8516132853 -0.5052141987
20200178800.0 -0.8611523681 -0.4926972198
20250178500.0 -0.8703780369 -0.479480838
20300178200.0 -0.879228569 -0.4644679545
20350177900.0 -0.8883664819 -0.4498599699
20400177600.0 -0.897133974 -0.4356938734
20450177300.0 -0.9052016091 -0.4211162699
20500177000.0 -0.913013124 -0.4072611374
20550176700.0 -0.9208610548 -0.3935488029
20600176400.0 -0.9280401268 -0.3802234012
20650176100.0 -0.9338844431 -0.3674903958
20700175800.0 -0.9411274172 -0.3555024967
20750175500.0 -0.9476396701 -0.3438471166
20800175200.0 -0.9528947505 -0.3328806403
20850174900.0 -0.9579545166 -0.3212307895
20900174600.0 -0.9627032881 -0.3097136159
20950174300.0 -0.9664666946 -0.2980765632
21000174000.0 -0.9705442606 -0.2857774391
21050173700.0 -0.973139747 -0.2745710642
21100173400.0 -0.9771611559 -0.2629835966
21150173100.0 -0.9812983058 -0.2504790829
21200172800.0 -0.9845167191 -0.2358669335
21250172500.0 -0.9883016627 -0.2223503316
21300172200.0 -0.9905230276 -0.2084507948
21350171900.0 -0.9919552732 -0.1940781991
21400171600.0 -0.9939308931 -0.1799030831
21450171300.0 -0.9943053495 -0.1652054976
21500171000.0 -0.9933533544 -0.1493800827
21550170700.0 -0.9937088749 -0.1343952122
21600170400.0 -0.9935794334 -0.119308678
21650170100.0 -0.9930734768 -0.1031437597
21700169800.0 -0.9906424394 -0.0877883178
21750169500.0 -0.9891364849 -0.0720123379
21800169200.0 -0.987834002 -0.0563153898
21850168900.0 -0.9872242708 -0.0405801832
21900168600.0 -0.9858559206 -0.0241786234
21950168300.0 -0.9842152844 -0.0084729516
22000168000.0 -0.9836407432 0.0061034756
22050167700.0 -0.9825557813 0.0208831679
22100167400.0 -0.9826029178 0.0356935463
22150167100.0 -0.9829720489 0.0511157889
22200166800.0 -0.9835114162 0.0675096363
22250166500.0 -0.9824994614 0.0843392965
22300166200.0 -0.98133101 0.101172806
22350165900.0 -0.9805644829 0.1172529631
22400165600.0 -0.9782365845 0.1326295332
22450165300.0 -0.9764922397 0.1484939635
22500165000.0 -0.9743180001 0.1616820277
22550164700.0 -0.9737902383 0.1766049228
22600164400.0 -0.9723480596 0.1923114444
22650164100.0 -0.9707340627 0.2070730957
22700163800.0 -0.9671737682 0.2233587606
22750163500.0 -0.9642706748 0.2385139252
22800163200.0 -0.9617135874 0.2515430941
22850162900.0 -0.9594900352 0.2648950044
22900162600.0 -0.9579893333 0.278594034
22950162300.0 -0.9567619597 0.2913929669
23000162000.0 -0.9561140694 0.3029655274
23050161700.0 -0.9539809024 0.3157287176
23100161400.0 -0.9518648025 0.3287824513
23150161100.0 -0.9485850429 0.3406787537
23200160800.0 -0.9456966254 0.3532634804
23250160500.0 -0.9432580963 0.3645808439
23300160200.0 -0.9407742449 0.376959744
23350159900.0 -0.9368072513 0.3897392051
23400159600.0 -0.932095503 0.4029574135
23450159300.0 -0.9278270325 0.4155615877
23500159000.0 -0.9229038852 0.4282391627
23550158700.0 -0.9180068791 0.4416336291
23600158400.0 -0.9129162491 0.4544241453
23650158100.0 -0.9064148349 0.468247224
23700157800.0 -0.8989608672 0.482090715
23750157500.0 -0.8903812977 0.4960302326
23800157200.0 -0.8813549524 0.5093184005
23850156900.0 -0.872637037 0.5216207411
23900156600.0 -0.8635014183 0.5345570831
23950156300.0 -0.8543356943 0.5469939207
24000156000.0 -0.8448675615 0.5587621164
24050155700.0 -0.834695045 0.5705171636
24100155400.0 -0.8248637227 0.5823885572
24150155100.0 -0.8147238349 0.5939249484
24200154800.0 -0.8029645846 0.6053035062
24250154500.0 -0.7914909587 0.6165514129
24300154200.0 -0.7809160655 0.6286962048
24350153900.0 -0.7689327466 0.6394191745
24400153600.0 -0.7563164446 0.6500224674
24450153300.0 -0.7446834571 0.659715965
24500153000.0 -0.7334047456 0.6694976137
24550152700.0 -0.7221737587 0.6794444161
24600152400.0 -0.7106847302 0.6882943321
24650152100.0 -0.6989792762 0.6978172163
