!Created with skrf (http://scikit-rf.org).
# Hz S RI R 50.0 
!freq ReS11 ImS11
300000.0 -0.9735900528 -0.1226487336
50299700.0 -0.9998303146 0.0150702309
100299400.0 -0.9977161708 0.0278463992
150299100.0 -1.002680922 0.0447953635
200298800.0 -0.9995270303 0.0581194763
250298500.0 -0.9972290836 0.0716589253
300298200.0 -0.9858816137 0.0874947548
350297900.0 -0.9940076393 0.098196899
400297600.0 -0.9928758814 0.1148779509
450297300.0 -0.9909053872 0.1286696702
500297000.0 -0.9893837478 0.143475546
550296700.0 -0.984248955 0.1557909289
600296400.0 -1.017156648 0.1890845085
650296100.0 -0.9820629978 0.1856235812
700295800.0 -0.9791095998 0.1999249728
750295500.0 -0.976223313 0.2140108519
800295200.0 -0.9729055579 0.2278317351
850294900.0 -0.9696748234 0.2419338544
900294600.0 -0.9657796307 0.2556393257
950294300.0 -0.962274195 0.2693068693
1000294000.0 -0.9581313593 0.2833480989
1050293700.0 -0.9537152601 0.2968266098
1100293400.0 -0.9492923279 0.3114163339
1150293100.0 -0.9456335041 0.3233196184
1200292800.0 -0.9402637628 0.3376532501
1250292500.0 -0.9346759497 0.351065103
1300292200.0 -0.9289197765 0.3643432085
1350291900.0 -0.9234632429 0.3784037611
1400291600.0 -0.9180366332 0.3915151347
1450291300.0 -0.9125716899 0.4037090716
1500291000.0 -0.9062705982 0.417407798
1550290700.0 -0.8997997177 0.4305662629
1600290400.0 -0.8934865956 0.4436928627
1650290100.0 -0.886723698 0.4555709406
1700289800.0 -0.8797070362 0.4691266571
1750289500.0 -0.8729723081 0.4814685576
1800289200.0 -0.8655733702 0.4943539745
1850288900.0 -0.8588842453 0.5057228594
1900288600.0 -0.8510348595 0.5187758542
1950288300.0 -0.8429133688 0.5314025337
2000288000.0 -0.8354067241 0.5428098582
2050287700.0 -0.8271415873 0.5552535467
2100287400.0 -0.8194123351 0.5664458966
2150287100.0 -0.8110298964 0.5785522032
2200286800.0 -0.8030639781 0.5891765386
2250286500.0 -0.7941439673 0.6014192386
2300286200.0 -0.7853509809 0.612697665
2350285900.0 -0.7771733401 0.6233654369
2400285600.0 -0.7682782458 0.6343608403
2450285300.0 -0.7591143422 0.6449253151
2500285000.0 -0.7491105471 0.6566385421
2550284700.0 -0.7401326611 0.6668655236
2600284400.0 -0.73103772 0.6768664558
2650284100.0 -0.7222181154 0.6869108977
2700283800.0 -0.7120757407 0.6974659563
2750283500.0 -0.7015413197 0.7079396091
2800283200.0 -0.6915965078 0.7180291327
2850282900.0 -0.6811777399 0.7281161919
2900282600.0 -0.6706778327 0.7377192924
2950282300.0 -0.6604306451 0.7472208451
3000282000.0 -0.6496500367 0.7565890395
3050281700.0 -0.6385031408 0.7659190549
3100281400.0 -0.6269420942 0.7748577621
3150281100.0 -0.6156141286 0.7837739575
3200280800.0 -0.6042618318 0.7922792784
3250280500.0 -0.5930471832 0.8001921644
3300280200.0 -0.5814423414 0.8082579444
3350279900.0 -0.5692555954 0.8163797664
3400279600.0 -0.556689868 0.8245607562
3450279300.0 -0.5458262382 0.8315137393
3500279000.0 -0.5340785203 0.838328432
3550278700.0 -0.5217991351 0.8456353367
3600278400.0 -0.5100141726 0.8523575436
3650278100.0 -0.4967332987 0.8599675311
3700277800.0 -0.484558157 0.8662903536
3750277500.0 -0.4723835459 0.8732860194
3800277200.0 -0.4598514892 0.8795455215
3850276900.0 -0.4478884128 0.8855785548
3900276600.0 -0.4369275892 0.8911712392
3950276300.0 -0.4249203658 0.896889316
4000276000.0 -0.4133399392 0.9031375488
4050275700.0 -0.4004982018 0.9089214931
4100275400.0 -0.3895256223 0.9144852347
4150275100.0 -0.3762280668 0.9206237747
4200274800.0 -0.3626865359 0.925997571
4250274500.0 -0.3501405146 0.93129902
4300274200.0 -0.3369530464 0.9366253934
4350273900.0 -0.3225125441 0.9420117533
4400273600.0 -0.3078465434 0.9471907046
4450273300.0 -0.2929803724 0.9520273179
4500273000.0 -0.2800127868 0.9564778692
4550272700.0 -0.2661898367 0.9606069736
4600272400.0 -0.251144426 0.964644235
4650272100.0 -0.2397967265 0.9678605933
4700271800.0 -0.226807598 0.9710315927
4750271500.0 -0.2153174875 0.973985545
4800271200.0 -0.2030388335 0.9766564197
4850270900.0 -0.1892507171 0.979450315
4900270600.0 -0.1756217267 0.98180217
4950270300.0 -0.160788435 0.9845133221
5000270000.0 -0.1464563204 0.986661993
5050269700.0 -0.1328957277 0.9881359002
5100269400.0 -0.1190663237 0.98997105
5150269100.0 -0.1047385853 0.991832666
5200268800.0 -0.0915229292 0.9929160645
5250268500.0 -0.0784734777 0.9935066242
5300268200.0 -0.0649202974 0.9944710098
5350267900.0 -0.052014099 0.995049248
5400267600.0 -0.0355538244 0.9965167149
5450267300.0 -0.0223104412 0.9965846653
5500267000.0 -0.0069086052 0.9969046825
5550266700.0 0.0079423898 0.9969856365
5600266400.0 0.0234887721 0.9972244725
5650266100.0 0.0402915919 0.9966523155
5700265800.0 0.0546280052 0.9959295878
5750265500.0 0.0694664466 0.9952856337
5800265200.0 0.0830168627 0.9939599947
5850264900.0 0.0958442112 0.9925661885
5900264600.0 0.1128262255 0.991436338
5950264300.0 0.1244956836 0.989694732
6000264000.0 0.1378970169 0.988039321
6050263700.0 0.1493041806 0.9866357509
6100263400.0 0.1617600991 0.9847049351
6150263100.0 0.176402749 0.982680643
6200262800.0 0.1859951919 0.9809967595
6250262500.0 0.1984840202 0.9787019748
6300262200.0 0.2106391791 0.9762018853
6350261900.0 0.2237203572 0.9734360344
6400261600.0 0.2375246927 0.9703559902
6450261300.0 0.2485655526 0.9677530117
6500261000.0 0.2619521815 0.9640803987
6550260700.0 0.2747289261 0.9600552786
6600260400.0 0.2882795506 0.955839155
6650260100.0 0.3025671771 0.9515408006
6700259800.0 0.3146465212 0.9473860688
6750259500.0 0.3284774848 0.9422403961
6800259200.0 0.3420314178 0.9374369774
6850258900.0 0.3544137681 0.9320201793
6900258600.0 0.3670853672 0.9268646629
6950258300.0 0.3796039858 0.9215270231
7000258000.0 0.391236343 0.9163996003
7050257700.0 0.4029842876 0.9105478601
7100257400.0 0.4164283978 0.9041552929
7150257100.0 0.427150802 0.8986715565
7200256800.0 0.4401039848 0.8919775188
7250256500.0 0.4528314151 0.8854336906
7300256200.0 0.4655660483 0.8786888794
7350255900.0 0.4787989193 0.8716890126
7400255600.0 0.4924243754 0.863961445
7450255300.0 0.5082296322 0.8551004898
7500255000.0 0.5208565825 0.8472627008
7550254700.0 0.535118917 0.8383873725
7600254400.0 0.5475501167 0.8298653589
7650254100.0 0.5591286261 0.8219772514
7700253800.0 0.57085955 0.8141512422
7750253500.0 0.5818760958 0.8067174951
7800253200.0 0.5923202448 0.7987829715
7850252900.0 0.6022041854 0.7913680169
7900252600.0 0.6136750329 0.782758863
7950252300.0 0.6219960141 0.7764136378
8000252000.0 0.6318102613 0.7689125989
8050251700.0 0.6424148977 0.7607125862
8100251400.0 0.652181439 0.7528439156
8150251100.0 0.6624432803 0.7442894816
8200250800.0 0.6720073101 0.7359007298
8250250500.0 0.6804534118 0.7280810796
8300250200.0 0.6894951337 0.7198886737
8350249900.0 0.6987099293 0.7110044923
8400249600.0 0.706978857 0.7030151691
8450249300.0 0.715701265 0.6941370641
8500249000.0 0.7242953696 0.6854529124
8550248700.0 0.7326475107 0.6762658824
8600248400.0 0.7410534153 0.6669487415
8650248100.0 0.748526716 0.6575414721
8700247800.0 0.7578650692 0.6465546994
8750247500.0 0.7660731003 0.6363247604
8800247200.0 0.774029886 0.6260889891
8850246900.0 0.7827374324 0.6147432695
8900246600.0 0.7912961687 0.6032751211
8950246300.0 0.8007729995 0.5904461008
9000246000.0 0.8091812855 0.5786836143
9050245700.0 0.8177512901 0.5663316108
9100245400.0 0.8256708711 0.5540259508
9150245100.0 0.8346735593 0.5413273253
9200244800.0 0.8439130437 0.5271382911
9250244500.0 0.8529365115 0.5123148276
9300244200.0 0.8615047875 0.4988918017
9350243900.0 0.8688634364 0.4856545714
9400243600.0 0.8752898677 0.4739446782
9450243300.0 0.8809887082 0.4635617254
9500243000.0 0.8871145586 0.4519323809
9550242700.0 0.8911756851 0.4442493771
9600242400.0 0.8956394283 0.4366787109
9650242100.0 0.8996812831 0.4295781922
9700241800.0 0.9046052144 0.4211547602
9750241500.0 0.9088333983 0.4134641092
9800241200.0 0.9137837585 0.4040226704
9850240900.0 0.919832288 0.3922546389
9900240600.0 0.9254082104 0.3805630564
9950240300.0 0.932706123 0.3634841144
10000240000.0 0.9381204359 0.3511728504
10050239700.0 0.9437255444 0.3353138277
10100239400.0 0.9492495104 0.3189194952
10150239100.0 0.9538731881 0.3035277819
10200238800.0 0.9579059997 0.2878759061
10250238500.0 0.961551747 0.2744503101
10300238200.0 0.9645738967 0.2604218933
10350237900.0 0.9673442408 0.2467809384
10400237600.0 0.9699445536 0.233697619
10450237300.0 0.9723806829 0.2202403427
10500237000.0 0.9751627573 0.2073085685
10550236700.0 0.9773921904 0.1928555255
10600236400.0 0.9794256716 0.1793170173
10650236100.0 0.9815673165 0.1646584096
10700235800.0 0.9834519489 0.1523980657
10750235500.0 0.9859753698 0.1388667856
10800235200.0 0.9878117763 0.1247887545
10850234900.0 0.9898244739 0.1096862705
10900234600.0 0.9919266436 0.0949397757
10950234300.0 0.9937993589 0.0813301224
11000234000.0 0.9954832697 0.0657188689
11050233700.0 0.9973713883 0.0491425676
11100233400.0 0.9991746008 0.0313022495
11150233100.0 1.000201656 0.0148381918
11200232800.0 1.000616979 -0.0015301619
11250232500.0 1.001719831 -0.0190626622
11300232200.0 1.002383573 -0.0378320515
11350231900.0 1.00206969 -0.0544471995
11400231600.0 1.002080644 -0.0692801783
11450231300.0 1.001213388 -0.0842687021
11500231000.0 0.9999869362 -0.1013435816
11550230700.0 0.9984169216 -0.1142927565
11600230400.0 0.9970515847 -0.1272915719
11650230100.0 0.9947433988 -0.1390556756
11700229800.0 0.9923992091 -0.1538467648
11750229500.0 0.9902628252 -0.1682277689
11800229200.0 0.9871733822 -0.1810047059
11850228900.0 0.9832932932 -0.1932406714
11900228600.0 0.9798837183 -0.2028264649
11950228300.0 0.9765556666 -0.2129112207
12000228000.0 0.9739171075 -0.2213530379
12050227700.0 0.969714891 -0.2347429043
12100227400.0 0.9667380371 -0.2455753791
12150227100.0 0.9617022253 -0.2624246766
12200226800.0 0.9579596441 -0.2728382428
12250226500.0 0.9536422035 -0.2858221093
12300226200.0 0.9497430744 -0.2983733654
12350225900.0 0.944507903 -0.3122010559
12400225600.0 0.9402146088 -0.3244795112
12450225300.0 0.9360205862 -0.3367524805
12500225000.0 0.9299411076 -0.3516782161
12550224700.0 0.9247459732 -0.3653181313
12600224400.0 0.9200093915 -0.3779505732
12650224100.0 0.9141467809 -0.3923879612
12700223800.0 0.9089840493 -0.4052266479
12750223500.0 0.9034489844 -0.4182747602
12800223200.0 0.8981801646 -0.4308408292
12850222900.0 0.8931578331 -0.4433228142
12900222600.0 0.8872730911 -0.4546728434
12950222300.0 0.8811458858 -0.4677861986
13000222000.0 0.8749887367 -0.4792286541
13050221700.0 0.868213477 -0.4927228723
13100221400.0 0.8613737942 -0.50450602
13150221100.0 0.8550713115 -0.5162829235
13200220800.0 0.8476466396 -0.5278480741
13250220500.0 0.8402518292 -0.5400502457
13300220200.0 0.8329550377 -0.5510069948
13350219900.0 0.8248340045 -0.562933234
13400219600.0 0.8163170156 -0.5748728385
13450219300.0 0.8073036152 -0.5878034507
13500219000.0 0.7972206139 -0.6010065417
13550218700.0 0.7873861066 -0.6131268715
13600218400.0 0.7774712559 -0.6251297788
13650218100.0 0.7674214892 -0.6358403678
13700217800.0 0.7576165225 -0.647715972
13750217500.0 0.7480873801 -0.6583623169
13800217200.0 0.7363177945 -0.6697282656
13850216900.0 0.7256130916 -0.6808595646
13900216600.0 0.7157144442 -0.6898551155
13950216300.0 0.7048698113 -0.7001329772
14000216000.0 0.6956261484 -0.7089354092
14050215700.0 0.6864569685 -0.7170155545
14100215400.0 0.6769084315 -0.7259891846
14150215100.0 0.6677259425 -0.7349259701
14200214800.0 0.6583066547 -0.7437159935
14250214500.0 0.6479016824 -0.7533155007
14300214200.0 0.6374785908 -0.7627167682
14350213900.0 0.6261196663 -0.7723634584
14400213600.0 0.6145204443 -0.7819902126
14450213300.0 0.6014609814 -0.7923657622
14500213000.0 0.5886641527 -0.801931718
14550212700.0 0.576227369 -0.8115188002
14600212400.0 0.5636962057 -0.8201536743
14650212100.0 0.5510513455 -0.8291638449
14700211800.0 0.5374852007 -0.8385223925
14750211500.0 0.5252663652 -0.8468971856
14800211200.0 0.5125258517 -0.8549130017
14850210900.0 0.5003929073 -0.8627387854
14900210600.0 0.4869044256 -0.8708251261
14950210300.0 0.4738772227 -0.878458059
15000210000.0 0.4610056494 -0.8851383435
15050209700.0 0.4488884695 -0.8912743402
15100209400.0 0.4360587196 -0.8974610554
15150209100.0 0.4239292565 -0.9026339933
15200208800.0 0.4114812001 -0.9079830427
15250208500.0 0.4004688208 -0.912485333
15300208200.0 0.3880881793 -0.9173132767
15350207900.0 0.3749780224 -0.9218587709
15400207600.0 0.3600299198 -0.9272473262
15450207300.0 0.3446650132 -0.9322951449
15500207000.0 0.3311229441 -0.9366832899
15550206700.0 0.3166022533 -0.9423213583
15600206400.0 0.2997693439 -0.9465949421
15650206100.0 0.2845464829 -0.9503565014
15700205800.0 0.2707279318 -0.9540583126
15750205500.0 0.2567350043 -0.9574503109
15800205200.0 0.2427657589 -0.9611083373
15850204900.0 0.2286716337 -0.9645810083
15900204600.0 0.213880678 -0.968186171
15950204300.0 0.1992020788 -0.9712789398
16000204000.0 0.1846516532 -0.9741571067
16050203700.0 0.1695154088 -0.9770344679
16100203400.0 0.1546672497 -0.9797884651
16150203100.0 0.1399900499 -0.9820582891
16200202800.0 0.1254967586 -0.9840321232
16250202500.0 0.1108060679 -0.9860109301
16300202200.0 0.095530347 -0.9876607787
16350201900.0 0.0805211488 -0.9888225899
16400201600.0 0.065520453 -0.9898288682
16450201300.0 0.050063606 -0.9911291467
16500201000.0 0.0333211815 -0.9920200374
16550200700.0 0.0171849223 -0.9925260429
16600200400.0 0.0013887192 -0.992785935
16650200100.0 -0.0149080846 -0.9925100016
16700199800.0 -0.0312900308 -0.9920390812
16750199500.0 -0.0499901382 -0.9917230983
16800199200.0 -0.0663725308 -0.990197132
16850198900.0 -0.081911596 -0.9890763516
16900198600.0 -0.0961184734 -0.988497532
16950198300.0 -0.1097573636 -0.9873617299
17000198000.0 -0.1231335429 -0.9861465538
17050197700.0 -0.1348183443 -0.9843457093
17100197400.0 -0.1481465729 -0.9816084962
17150197100.0 -0.1609963228 -0.9802000386
17200196800.0 -0.1738808206 -0.9781858371
17250196500.0 -0.1866459819 -0.9755068176
17300196200.0 -0.1987967935 -0.9731063624
17350195900.0 -0.210660036 -0.9708091521
17400195600.0 -0.2226153123 -0.9681735258
17450195300.0 -0.2354404412 -0.9656134405
17500195000.0 -0.2487236095 -0.9621905208
17550194700.0 -0.2626278236 -0.9585352209
17600194400.0 -0.2764289022 -0.9547551626
17650194100.0 -0.2899261035 -0.9508452488
17700193800.0 -0.3030102564 -0.9463378939
17750193500.0 -0.3170646173 -0.9418228044
17800193200.0 -0.3311370634 -0.9365517739
17850192900.0 -0.3462609875 -0.9312554884
17900192600.0 -0.3611035371 -0.9249001584
17950192300.0 -0.3769349406 -0.917903243
18000192000.0 -0.3919205431 -0.9107107532
18050191700.0 -0.4053412796 -0.9028553238
18100191400.0 -0.4194790986 -0.8952335789
18150191100.0 -0.434475309 -0.8872479816
18200190800.0 -0.4511192998 -0.878055696
18250190500.0 -0.467948472 -0.868923562
18300190200.0 -0.4836673795 -0.859944963
18350189900.0 -0.4988360018 -0.8518151154
18400189600.0 -0.51327843 -0.8428853701
18450189300.0 -0.5267023657 -0.8351798701
18500189000.0 -0.5401225577 -0.8267504885
18550188700.0 -0.5526159824 -0.8192959565
18600188400.0 -0.5649581418 -0.8122342626
18650188100.0 -0.5761171391 -0.8061153706
18700187800.0 -0.5875680534 -0.7991093798
18750187500.0 -0.5984293197 -0.7924792006
18800187200.0 -0.6088225132 -0.7854981621
18850186900.0 -0.6190691067 -0.7786228975
18900186600.0 -0.6293638635 -0.7713348942
18950186300.0 -0.6396316421 -0.763594602
19000186000.0 -0.6474208296 -0.7573125291
19050185700.0 -0.6563807857 -0.7504256303
19100185400.0 -0.6663731776 -0.7419213838
19150185100.0 -0.6769006382 -0.733692146
19200184800.0 -0.6853639368 -0.7257810474
19250184500.0 -0.6958145048 -0.7160710177
19300184200.0 -0.7073565447 -0.7068127917
19350183900.0 -0.7184094701 -0.6965125251
19400183600.0 -0.7279857935 -0.6872129379
19450183300.0 -0.7370891284 -0.6769337791
19500183000.0 -0.7456181557 -0.6669918393
19550182700.0 -0.7549326681 -0.6554574606
19600182400.0 -0.7653421985 -0.6443108455
19650182100.0 -0.7757695674 -0.631685707
19700181800.0 -0.7861589904 -0.6182759903
19750181500.0 -0.7968296691 -0.6046094254
19800181200.0 -0.8070136345 -0.589633661
19850180900.0 -0.8163385971 -0.5742848284
19900180600.0 -0.8240349727 -0.5599283019
19950180300.0 -0.8334185079 -0.5435330264
20000180000.0 -0.8236826105 -0.5467638778
20050179700.0 -0.8315759829 -0.5341217051
20100179400.0 -0.8397816563 -0.5220246844
20150179100.0 -0.8482139489 -0.5098956299
20200178800.0 -0.8562998753 -0.4980330865
20250178500.0 -0.8652713553 -0.4856513837
20300178200.0 -0.8750570374 -0.4713426336
20350177900.0 -0.884193524 -0.4577270245
20400177600.0 -0.8933572198 -0.4436877723
20450177300.0 -0.9018047908 -0.4293965886
20500177000.0 -0.9098985341 -0.4155556284
20550176700.0 -0.9178049482 -0.4022732381
20600176400.0 -0.9245934239 -0.3887429421
20650176100.0 -0.9311284298 -0.3770764852
20700175800.0 -0.9376153823 -0.3647318435
20750175500.0 -0.9440576335 -0.3528643503
20800175200.0 -0.9491271386 -0.3426928923
20850174900.0 -0.9535352118 -0.3315596965
20900174600.0 -0.9575779214 -0.3209131789
20950174300.0 -0.9610463048 -0.3092920923
21000174000.0 -0.9636404301 -0.2992454874
21050173700.0 -0.9653665634 -0.2897416958
21100173400.0 -0.9691032616 -0.2783456092
21150173100.0 -0.9727534521 -0.2667521782
21200172800.0 -0.9769969007 -0.2536387254
21250172500.0 -0.9806250793 -0.2399957613
21300172200.0 -0.9839885033 -0.2257843842
21350171900.0 -0.9855086996 -0.2118337825
21400171600.0 -0.987831351 -0.1973586825
21450171300.0 -0.988192089 -0.1834136199
21500171000.0 -0.9888740301 -0.1685766126
21550170700.0 -0.9900181957 -0.1527882835
21600170400.0 -0.9906699292 -0.1379510748
21650170100.0 -0.989707577 -0.1221287851
21700169800.0 -0.9906910785 -0.1073207125
21750169500.0 -0.9899559502 -0.0907347264
21800169200.0 -0.9908414245 -0.0749062412
21850168900.0 -0.989996879 -0.0573670345
21900168600.0 -0.9896600055 -0.0410348339
21950168300.0 -0.9894670224 -0.0256882284
22000168000.0 -0.9892531402 -0.0106470296
22050167700.0 -0.9900778356 0.004055998
22100167400.0 -0.99016676 0.0200898371
22150167100.0 -0.9913006953 0.0359497129
22200166800.0 -0.9918228115 0.0526385573
22250166500.0 -0.991083405 0.0696464663
22300166200.0 -0.9907879347 0.0857045953
22350165900.0 -0.990276661 0.1017967295
22400165600.0 -0.9873091188 0.1184429748
22450165300.0 -0.9859148045 0.132301826
22500165000.0 -0.9850021433 0.147562493
22550164700.0 -0.9831950007 0.1630874051
22600164400.0 -0.9809559313 0.1801176979
22650164100.0 -0.977855741 0.1944450873
22700163800.0 -0.9744824452 0.2116806238
22750163500.0 -0.9719956318 0.2259163801
22800163200.0 -0.9689292826 0.2389240013
22850162900.0 -0.9666638901 0.2522790079
22900162600.0 -0.9646998811 0.2666393641
22950162300.0 -0.9629053175 0.280021322
23000162000.0 -0.9609866141 0.2930363433
23050161700.0 -0.9591440896 0.3060067266
23100161400.0 -0.9556020323 0.3198461618
23150161100.0 -0.952484581 0.3330174366
23200160800.0 -0.949153114 0.3460029204
23250160500.0 -0.9461981984 0.3577303545
23300160200.0 -0.9438471722 0.3711716244
23350159900.0 -0.94000513 0.3846227914
23400159600.0 -0.935493368 0.3980468503
23450159300.0 -0.9299332301 0.4123321223
23500159000.0 -0.9250777738 0.4253126043
23550158700.0 -0.9201026573 0.4394335419
23600158400.0 -0.9140137479 0.4536375364
23650158100.0 -0.9070922524 0.4683410066
23700157800.0 -0.8984751523 0.4824550796
23750157500.0 -0.8890875933 0.4969341053
23800157200.0 -0.8793979249 0.51034377
23850156900.0 -0.8694525079 0.5235976052
23900156600.0 -0.8596619709 0.5352315552
23950156300.0 -0.8503268239 0.549045381
24000156000.0 -0.8405942582 0.5604112904
24050155700.0 -0.8307540987 0.572842597
24100155400.0 -0.8193120525 0.585450997
24150155100.0 -0.8095302625 0.5979772211
24200154800.0 -0.7982478233 0.6093643439
24250154500.0 -0.786651444 0.6214361004
24300154200.0 -0.7750523319 0.6337975229
24350153900.0 -0.7627907216 0.6443732474
24400153600.0 -0.7505537811 0.655290265
24450153300.0 -0.7385310514 0.6653720554
24500153000.0 -0.7265920016 0.6756866892
24550152700.0 -0.7156120128 0.6858938716
24600152400.0 -0.7042588436 0.6945529405
24650152100.0 -0.6917448175 0.7033885014
