!Created with skrf (http://scikit-rf.org).
# Hz S RI R 50.0 
!freq ReS11 ImS11
300000.0 -0.9740670973 -0.1216645393
50299700.0 -1.00004147 0.0153183831
100299400.0 -0.9980307912 0.028196349
150299100.0 -1.002599871 0.045038314
200298800.0 -0.9994574027 0.0582682326
250298500.0 -0.9973537905 0.0718632157
300298200.0 -0.9858981035 0.087562881
350297900.0 -0.9939696469 0.0986223021
400297600.0 -0.993298162 0.1150504443
450297300.0 -0.9910372109 0.1289153399
500297000.0 -0.9895370706 0.143628456
550296700.0 -0.9845236434 0.1561035213
600296400.0 -1.017424374 0.189453967
650296100.0 -0.9823261172 0.1861000136
700295800.0 -0.9794705496 0.2003504057
750295500.0 -0.9762021531 0.2142650256
800295200.0 -0.9731065091 0.2283900436
850294900.0 -0.9697251383 0.2422670285
900294600.0 -0.9660189497 0.2558616073
950294300.0 -0.9621177407 0.2696668963
1000294000.0 -0.9582068987 0.2837058411
1050293700.0 -0.953610616 0.2975134953
1100293400.0 -0.9492405584 0.3119952304
1150293100.0 -0.9455698051 0.3238884807
1200292800.0 -0.9401817023 0.3379400668
1250292500.0 -0.9348353533 0.3514313987
1300292200.0 -0.9289762434 0.3646737424
1350291900.0 -0.9234560268 0.378901142
1400291600.0 -0.9180311995 0.3917776492
1450291300.0 -0.9124788007 0.4042891042
1500291000.0 -0.9063468199 0.4177119377
1550290700.0 -0.8998599098 0.4307923645
1600290400.0 -0.8933970116 0.4439321173
1650290100.0 -0.8867979085 0.4561554311
1700289800.0 -0.8798065912 0.469477849
1750289500.0 -0.8729328709 0.4817499034
1800289200.0 -0.8654973128 0.4945780873
1850288900.0 -0.8587582238 0.5059414433
1900288600.0 -0.8509366091 0.5189464677
1950288300.0 -0.8428165569 0.5316295203
2000288000.0 -0.8354886866 0.5427513319
2050287700.0 -0.8270619355 0.5553686242
2100287400.0 -0.8193033345 0.5669400745
2150287100.0 -0.8108153833 0.5790215738
2200286800.0 -0.8030488578 0.5894053545
2250286500.0 -0.7941559355 0.6013993805
2300286200.0 -0.7852849078 0.6130253561
2350285900.0 -0.7766041202 0.6239697556
2400285600.0 -0.7675919534 0.6348581169
2450285300.0 -0.7589602821 0.6452164091
2500285000.0 -0.7492647261 0.6566651984
2550284700.0 -0.7404402912 0.6668613383
2600284400.0 -0.7307467901 0.6769601955
2650284100.0 -0.7220135628 0.6875945735
2700283800.0 -0.7114618813 0.6980192515
2750283500.0 -0.7012810855 0.7086473672
2800283200.0 -0.691367736 0.7182978155
2850282900.0 -0.6811545671 0.7283336464
2900282600.0 -0.670695947 0.7377959776
2950282300.0 -0.6604847018 0.7471814992
3000282000.0 -0.6499167722 0.7567859243
3050281700.0 -0.6387012282 0.7661533201
3100281400.0 -0.6267187038 0.7752416775
3150281100.0 -0.6149080605 0.7846016994
3200280800.0 -0.6033727878 0.7930630887
3250280500.0 -0.5927047859 0.8008544757
3300280200.0 -0.5811888926 0.808638929
3350279900.0 -0.5694066355 0.8162338393
3400279600.0 -0.5575128904 0.8240785139
3450279300.0 -0.5462913899 0.8309813124
3500279000.0 -0.5343837917 0.8381727197
3550278700.0 -0.5219116753 0.8455055693
3600278400.0 -0.5098577846 0.8525765529
3650278100.0 -0.4965952165 0.8602265323
3700277800.0 -0.4843519518 0.8669010969
3750277500.0 -0.4722551975 0.8733792704
3800277200.0 -0.4596922798 0.8796174358
3850276900.0 -0.4476015932 0.8856417452
3900276600.0 -0.4368108039 0.8912151452
3950276300.0 -0.4245947991 0.8975060023
4000276000.0 -0.4127879423 0.9035100737
4050275700.0 -0.399572174 0.9095152808
4100275400.0 -0.3885750311 0.9150844679
4150275100.0 -0.3756885523 0.9205437877
4200274800.0 -0.3626882238 0.9263001413
4250274500.0 -0.3508153109 0.931393778
4300274200.0 -0.337457817 0.9367563354
4350273900.0 -0.3236508756 0.9419078664
4400273600.0 -0.3089279615 0.9472828056
4450273300.0 -0.2934895055 0.952466018
4500273000.0 -0.2800038407 0.9564085901
4550272700.0 -0.2658775021 0.9609595781
4600272400.0 -0.2504339543 0.9649509132
4650272100.0 -0.2388973477 0.9681451717
4700271800.0 -0.2255768635 0.9714988501
4750271500.0 -0.2139876102 0.9743646255
4800271200.0 -0.2014152553 0.9771790163
4850270900.0 -0.187536937 0.9799113044
4900270600.0 -0.1737187248 0.9823761511
4950270300.0 -0.1595613329 0.9850643424
5000270000.0 -0.1447985387 0.9872487368
5050269700.0 -0.1316100382 0.9884952188
5100269400.0 -0.118098183 0.9903274346
5150269100.0 -0.1042709103 0.9921838394
5200268800.0 -0.0911068301 0.9928288561
5250268500.0 -0.0779227472 0.993827044
5300268200.0 -0.0650247089 0.9944157242
5350267900.0 -0.0525575016 0.9952749908
5400267600.0 -0.0361878342 0.9965718161
5450267300.0 -0.0231417431 0.9966984091
5500267000.0 -0.0079601347 0.9970679839
5550266700.0 0.007024419 0.9971302034
5600266400.0 0.0226313484 0.9970368054
5650266100.0 0.0392819474 0.9970064221
5700265800.0 0.0537228393 0.9965199801
5750265500.0 0.0688143504 0.9956924618
5800265200.0 0.0823324186 0.9945965798
5850264900.0 0.0956088426 0.9935753305
5900264600.0 0.1123833629 0.9914865188
5950264300.0 0.1246805828 0.9901693296
6000264000.0 0.1385326181 0.9885128542
6050263700.0 0.1507472371 0.9869047078
6100263400.0 0.1629743836 0.9852584824
6150263100.0 0.1773732635 0.9827347692
6200262800.0 0.1877955983 0.9809374613
6250262500.0 0.2001586546 0.9784885348
6300262200.0 0.2130201823 0.9757080974
6350261900.0 0.2261677564 0.9729567416
6400261600.0 0.2400856735 0.9697565046
6450261300.0 0.2514661429 0.9670470141
6500261000.0 0.2643378411 0.9635623007
6550260700.0 0.2772537918 0.9595938625
6600260400.0 0.2907054179 0.9553408669
6650260100.0 0.3046740784 0.9512384329
6700259800.0 0.3167030654 0.9468826974
6750259500.0 0.3304536816 0.9419086018
6800259200.0 0.3438687274 0.9368108002
6850258900.0 0.3555788922 0.9316354851
6900258600.0 0.3677232624 0.9265320144
6950258300.0 0.3805772165 0.9213616886
7000258000.0 0.3924227432 0.9159793781
7050257700.0 0.4045766289 0.9098817181
7100257400.0 0.4175373703 0.9034803554
7150257100.0 0.4279471758 0.898390561
7200256800.0 0.4406161992 0.8917767381
7250256500.0 0.4527992502 0.8856660227
7300256200.0 0.4657164401 0.879066062
7350255900.0 0.4783041013 0.8720352488
7400255600.0 0.4917113397 0.8646217317
7450255300.0 0.507284646 0.8558473876
7500255000.0 0.5188790725 0.8484498477
7550254700.0 0.5328782181 0.8398872688
7600254400.0 0.5455048763 0.8316374551
7650254100.0 0.5567273344 0.8235125869
7700253800.0 0.568938215 0.8157233492
7750253500.0 0.5798645676 0.8079123191
7800253200.0 0.5904608466 0.8004054325
7850252900.0 0.6001387678 0.7932300785
7900252600.0 0.6118861727 0.7847413086
7950252300.0 0.6204620497 0.7780337714
8000252000.0 0.6308654756 0.7701978305
8050251700.0 0.6411541035 0.7622377368
8100251400.0 0.6511228582 0.7541507828
8150251100.0 0.6610779635 0.745711819
8200250800.0 0.6703538666 0.7374241928
8250250500.0 0.6797908922 0.7297055031
8300250200.0 0.688782501 0.7210634591
8350249900.0 0.6982151167 0.7121785345
8400249600.0 0.7062953685 0.7041924326
8450249300.0 0.7153506712 0.6951885756
8500249000.0 0.723776135 0.686056002
8550248700.0 0.732301764 0.6771761815
8600248400.0 0.740548342 0.6678512495
8650248100.0 0.748285693 0.6583408889
8700247800.0 0.7579003568 0.6471642604
8750247500.0 0.7661097971 0.6369903837
8800247200.0 0.7743936538 0.6264239977
8850246900.0 0.7828885266 0.6152031268
8900246600.0 0.7914120806 0.6038350434
8950246300.0 0.8011704275 0.5906185479
9000246000.0 0.8103784723 0.5782373878
9050245700.0 0.8190695346 0.5654996177
9100245400.0 0.827830027 0.5530580094
9150245100.0 0.8371130064 0.5392540663
9200244800.0 0.8468368055 0.5242483054
9250244500.0 0.8562442852 0.5091857349
9300244200.0 0.8647063185 0.4947082192
9350243900.0 0.872180392 0.480909506
9400243600.0 0.8789770345 0.4685680619
9450243300.0 0.8848839023 0.4571534798
9500243000.0 0.8909961227 0.445014381
9550242700.0 0.8948721826 0.4375714153
9600242400.0 0.8988436253 0.430062045
9650242100.0 0.9027221163 0.4236657363
9700241800.0 0.9072688338 0.4154513783
9750241500.0 0.9112874312 0.4077389775
9800241200.0 0.9158948266 0.3984636423
9850240900.0 0.9217612614 0.3866087564
9900240600.0 0.9276316597 0.3749089248
9950240300.0 0.9338740707 0.3593211263
10000240000.0 0.9387359016 0.3471540018
10050239700.0 0.9443822664 0.3319384665
10100239400.0 0.9492867619 0.3164857822
10150239100.0 0.9538683904 0.3016931548
10200238800.0 0.9580606832 0.2865055791
10250238500.0 0.9612874085 0.2730171356
10300238200.0 0.9645950845 0.2590696871
10350237900.0 0.9672231571 0.2460371474
10400237600.0 0.9698713719 0.232743801
10450237300.0 0.9725315478 0.2190480078
10500237000.0 0.9747398943 0.2063850778
10550236700.0 0.9766516431 0.1930753732
10600236400.0 0.979166219 0.1783776693
10650236100.0 0.981179387 0.1644211352
10700235800.0 0.9832987231 0.1518355932
10750235500.0 0.9854308926 0.138646667
10800235200.0 0.9875603777 0.1247421718
10850234900.0 0.9894078806 0.1100375224
10900234600.0 0.9918007019 0.0952469046
10950234300.0 0.9935678949 0.0820450151
11000234000.0 0.9952690246 0.0668952964
11050233700.0 0.9970031084 0.0503779565
11100233400.0 0.9984240464 0.0330559433
11150233100.0 0.9996956091 0.0165983479
11200232800.0 1.000043064 0.0016947592
11250232500.0 1.001326641 -0.0149921674
11300232200.0 1.001798645 -0.032989519
11350231900.0 1.001630089 -0.048492349
11400231600.0 1.001473607 -0.0639144656
11450231300.0 1.0008658 -0.0798903948
11500231000.0 1.000140142 -0.0964080635
11550230700.0 0.9982353929 -0.109618393
11600230400.0 0.9970001867 -0.1224912137
11650230100.0 0.9953481118 -0.1335908855
11700229800.0 0.9929717945 -0.1483296101
11750229500.0 0.9907328631 -0.162627546
11800229200.0 0.9881109438 -0.1762333881
11850228900.0 0.9845059857 -0.188621762
11900228600.0 0.9809912174 -0.1984404906
11950228300.0 0.977260997 -0.2088909297
12000228000.0 0.9749713368 -0.2176702864
12050227700.0 0.9715368466 -0.2301231439
12100227400.0 0.9681718461 -0.2416621146
12150227100.0 0.9635971921 -0.2581220537
12200226800.0 0.9591855538 -0.2689405487
12250226500.0 0.9557642533 -0.2816952735
12300226200.0 0.9510583913 -0.2936484949
12350225900.0 0.9461118716 -0.3084551255
12400225600.0 0.9422134603 -0.321625552
12450225300.0 0.9375440928 -0.3333279559
12500225000.0 0.9325319828 -0.3485680647
12550224700.0 0.9268333951 -0.3625275588
12600224400.0 0.9218848051 -0.3752429762
12650224100.0 0.9159917094 -0.3898239639
12700223800.0 0.9106914064 -0.4026322122
12750223500.0 0.9053184161 -0.4156142647
12800223200.0 0.9000888826 -0.4282267608
12850222900.0 0.8942847673 -0.4405387455
12900222600.0 0.8891194026 -0.4524752533
12950222300.0 0.8825225331 -0.4659227262
13000222000.0 0.8766359761 -0.4763263537
13050221700.0 0.870048048 -0.4894945985
13100221400.0 0.8631624248 -0.5014857014
13150221100.0 0.856380247 -0.5136275911
13200220800.0 0.8494210641 -0.5248051244
13250220500.0 0.8420055135 -0.537023012
13300220200.0 0.8348138739 -0.5481022419
13350219900.0 0.8268146281 -0.5599123995
13400219600.0 0.8185515221 -0.571990208
13450219300.0 0.8091204693 -0.5851893519
13500219000.0 0.7988344955 -0.5992887052
13550218700.0 0.7889245036 -0.6121047564
13600218400.0 0.7793467436 -0.6240041343
13650218100.0 0.7693337539 -0.6345390142
13700217800.0 0.7580318299 -0.6472115533
13750217500.0 0.7489519434 -0.658083984
13800217200.0 0.7375538804 -0.6693638104
13850216900.0 0.7267813964 -0.6812896972
13900216600.0 0.7162645519 -0.6897248542
13950216300.0 0.7056864202 -0.7001056901
14000216000.0 0.6957477612 -0.7095451945
14050215700.0 0.6861718728 -0.7182802279
14100215400.0 0.6762684237 -0.7273826761
14150215100.0 0.6671316578 -0.7360878437
14200214800.0 0.6576888015 -0.7447144209
14250214500.0 0.6473572085 -0.7540223434
14300214200.0 0.6370814041 -0.7634377586
14350213900.0 0.625862486 -0.7730263095
14400213600.0 0.6140179696 -0.7828341777
14450213300.0 0.6007401455 -0.7932324518
14500213000.0 0.588042695 -0.8030580919
14550212700.0 0.5751024858 -0.8126697863
14600212400.0 0.5622246534 -0.82135677
14650212100.0 0.5499286953 -0.8300591802
14700211800.0 0.5358336072 -0.8395538154
14750211500.0 0.5240781192 -0.8475921987
14800211200.0 0.5119235017 -0.8556693539
14850210900.0 0.4996131368 -0.8634104252
14900210600.0 0.4862207732 -0.8709621525
14950210300.0 0.4728123296 -0.8786964412
15000210000.0 0.460176604 -0.8855419708
15050209700.0 0.4479887616 -0.8917743046
15100209400.0 0.4352381936 -0.8976238225
15150209100.0 0.4228745517 -0.9032409894
15200208800.0 0.409718403 -0.9089102839
15250208500.0 0.3988011687 -0.9123715945
15300208200.0 0.3870273811 -0.9174884922
15350207900.0 0.3740917642 -0.9227498875
15400207600.0 0.3591055068 -0.9285018946
15450207300.0 0.3444875915 -0.9326865125
15500207000.0 0.3304008786 -0.9372182025
15550206700.0 0.3144259195 -0.9426240349
15600206400.0 0.2988873041 -0.9466342186
15650206100.0 0.2831933382 -0.9510465248
15700205800.0 0.269665253 -0.9545669746
15750205500.0 0.2551024632 -0.958567679
15800205200.0 0.2407172863 -0.9618681842
15850204900.0 0.2262534256 -0.9653494929
15900204600.0 0.2113473152 -0.9689855776
15950204300.0 0.196996907 -0.9719448719
16000204000.0 0.1827143447 -0.9747887975
16050203700.0 0.1677216195 -0.9777566951
16100203400.0 0.1529516175 -0.9801109701
16150203100.0 0.1383676187 -0.9822225714
16200202800.0 0.1247593472 -0.9842158069
16250202500.0 0.1098292849 -0.9864421708
16300202200.0 0.0945657816 -0.9876893735
16350201900.0 0.0796039153 -0.9892952347
16400201600.0 0.0647889478 -0.9901537952
16450201300.0 0.0495435107 -0.9911159034
16500201000.0 0.0328024122 -0.9922138309
16550200700.0 0.0171272361 -0.9926457226
16600200400.0 0.0014089573 -0.9927548371
16650200100.0 -0.014689173 -0.992670787
16700199800.0 -0.0312713712 -0.9923085882
16750199500.0 -0.0499635227 -0.9915699845
16800199200.0 -0.06516251 -0.9907788467
16850198900.0 -0.08041519 -0.9903707417
16900198600.0 -0.0950426828 -0.98845561
16950198300.0 -0.1084568536 -0.98751212
17000198000.0 -0.1211146581 -0.9863018255
17050197700.0 -0.1334937081 -0.983796094
17100197400.0 -0.1468192407 -0.9820478834
17150197100.0 -0.1591392476 -0.9799970528
17200196800.0 -0.1719864844 -0.978203618
17250196500.0 -0.1848401379 -0.9756872808
17300196200.0 -0.1970804403 -0.9736278871
17350195900.0 -0.2089647419 -0.971076793
17400195600.0 -0.2210831581 -0.96877242
17450195300.0 -0.2341654798 -0.9658485716
17500195000.0 -0.247492412 -0.9623494217
17550194700.0 -0.2614631265 -0.9591392035
17600194400.0 -0.2754859115 -0.9548360762
17650194100.0 -0.2890958312 -0.9508266092
17700193800.0 -0.3023083776 -0.9464261389
17750193500.0 -0.3164758597 -0.9419633088
17800193200.0 -0.3307433139 -0.9368468518
17850192900.0 -0.3458635927 -0.9312594896
17900192600.0 -0.3613653903 -0.9256158585
17950192300.0 -0.3767919528 -0.9184236273
18000192000.0 -0.3914256029 -0.9112143205
18050191700.0 -0.4054125908 -0.9031778945
18100191400.0 -0.4195455211 -0.8955890155
18150191100.0 -0.4346884249 -0.8875376668
18200190800.0 -0.4515721555 -0.8782418378
18250190500.0 -0.4682618622 -0.8689873567
18300190200.0 -0.484137434 -0.8603906311
18350189900.0 -0.4986438181 -0.851673244
18400189600.0 -0.5135493222 -0.8435159551
18450189300.0 -0.5263407842 -0.8356306666
18500189000.0 -0.5400623696 -0.8281018212
18550188700.0 -0.5526387592 -0.81983265
18600188400.0 -0.5640047542 -0.8135862534
18650188100.0 -0.5758153623 -0.8066787109
18700187800.0 -0.5865828774 -0.8005739872
18750187500.0 -0.5967154844 -0.7937790847
18800187200.0 -0.6074934816 -0.7868635921
18850186900.0 -0.6178050084 -0.7799030941
18900186600.0 -0.6279284691 -0.7726246663
18950186300.0 -0.6380864491 -0.7651192307
19000186000.0 -0.6452646943 -0.7589770015
19050185700.0 -0.6542575655 -0.7519002246
19100185400.0 -0.6640746157 -0.7435650238
19150185100.0 -0.6743694075 -0.7354757978
19200184800.0 -0.6844079701 -0.726439417
19250184500.0 -0.6937122522 -0.7177010923
19300184200.0 -0.7056830455 -0.7082359514
19350183900.0 -0.7165063822 -0.6980696365
19400183600.0 -0.7255825546 -0.6880216992
19450183300.0 -0.7350532045 -0.6781392547
19500183000.0 -0.743273066 -0.6680674707
19550182700.0 -0.7530392126 -0.6571790655
19600182400.0 -0.7630787672 -0.6455373318
19650182100.0 -0.7737643791 -0.6330706579
19700181800.0 -0.7845715938 -0.6199330142
19750181500.0 -0.7952928577 -0.6056898451
19800181200.0 -0.8058073497 -0.5907062227
19850180900.0 -0.8155663061 -0.5753140768
19900180600.0 -0.8235601332 -0.5607885558
19950180300.0 -0.8326163325 -0.5445066176
20000180000.0 -0.8248548002 -0.5470202186
20050179700.0 -0.8340428868 -0.5343016038
20100179400.0 -0.8418370158 -0.5201541145
20150179100.0 -0.8497761836 -0.5080183312
20200178800.0 -0.8591525819 -0.4951575517
20250178500.0 -0.8686329824 -0.4815148279
20300178200.0 -0.8777808572 -0.4674091223
20350177900.0 -0.8871477476 -0.4533299187
20400177600.0 -0.8962398593 -0.4387643355
20450177300.0 -0.904602678 -0.424561986
20500177000.0 -0.9122271998 -0.410652873
20550176700.0 -0.9203941421 -0.3970976238
20600176400.0 -0.9273170732 -0.3839641666
20650176100.0 -0.9339440644 -0.3715711141
20700175800.0 -0.9407907764 -0.3597558533
20750175500.0 -0.9476800881 -0.3477565425
20800175200.0 -0.9513062567 -0.3371750988
20850174900.0 -0.9567791812 -0.3264660841
20900174600.0 -0.9613878265 -0.3155276656
20950174300.0 -0.9646371889 -0.3039316796
21000174000.0 -0.968294288 -0.2924936088
21050173700.0 -0.9705925362 -0.2817444959
21100173400.0 -0.9740348192 -0.2700154255
21150173100.0 -0.9783046564 -0.2575102003
21200172800.0 -0.9821959014 -0.2447573142
21250172500.0 -0.9857205711 -0.2306302011
21300172200.0 -0.9882647099 -0.2169439751
21350171900.0 -0.9900276029 -0.2024586894
21400171600.0 -0.991843859 -0.188204654
21450171300.0 -0.9921221684 -0.1729541287
21500171000.0 -0.9924155995 -0.1580609593
21550170700.0 -0.9915329818 -0.1426879538
21600170400.0 -0.991765341 -0.1275999482
21650170100.0 -0.9906186493 -0.1099471732
21700169800.0 -0.9910473126 -0.0970603347
21750169500.0 -0.9881839078 -0.080249152
21800169200.0 -0.9892600483 -0.063850353
21850168900.0 -0.9876655481 -0.0478148096
21900168600.0 -0.9866252854 -0.030680649
21950168300.0 -0.9854536433 -0.0148685665
22000168000.0 -0.9850960201 -0.0001687041
22050167700.0 -0.984208908 0.0147341312
22100167400.0 -0.9849692526 0.0294270795
22150167100.0 -0.9854021621 0.0454784086
22200166800.0 -0.9855688445 0.0623846796
22250166500.0 -0.9851345091 0.0789871081
22300166200.0 -0.9849521372 0.0957979316
22350165900.0 -0.9833947237 0.1120137004
22400165600.0 -0.9815147937 0.1280453707
22450165300.0 -0.9794678621 0.1428458976
22500165000.0 -0.9773337145 0.1568443446
22550164700.0 -0.9771036454 0.1716788165
22600164400.0 -0.9753825725 0.1878543081
22650164100.0 -0.9728644408 0.203350293
22700163800.0 -0.9694051721 0.2184461088
22750163500.0 -0.9673302242 0.2331525024
22800163200.0 -0.9643871782 0.2464278683
22850162900.0 -0.961830877 0.2602058063
22900162600.0 -0.9607508588 0.2732748692
22950162300.0 -0.9592086778 0.2863692024
23000162000.0 -0.958076797 0.2983112539
23050161700.0 -0.9562203266 0.3112362954
23100161400.0 -0.9536361464 0.323850308
23150161100.0 -0.9510723711 0.3358993805
23200160800.0 -0.9479916013 0.3489752806
23250160500.0 -0.9449872349 0.3607500462
23300160200.0 -0.9429796236 0.3730825454
23350159900.0 -0.9388866275 0.3858938794
23400159600.0 -0.934385764 0.3994215543
23450159300.0 -0.9290306797 0.4127234755
23500159000.0 -0.9246914332 0.4260433442
23550158700.0 -0.9201844587 0.4392311146
23600158400.0 -0.9146487066 0.4529658036
23650158100.0 -0.9083784808 0.4669041295
23700157800.0 -0.9006830158 0.4809162797
23750157500.0 -0.8921054895 0.4947432959
23800157200.0 -0.8833183713 0.5082965675
23850156900.0 -0.8744751662 0.5213171336
23900156600.0 -0.865211763 0.5332742849
23950156300.0 -0.8557098808 0.5463903513
24000156000.0 -0.8466806777 0.5579635815
24050155700.0 -0.8363795714 0.5700866503
24100155400.0 -0.8263924629 0.581624818
24150155100.0 -0.8156704758 0.5934339288
24200154800.0 -0.8054081025 0.6051409725
24250154500.0 -0.793303986 0.616929938
24300154200.0 -0.7822416415 0.628333252
24350153900.0 -0.7702059767 0.6391657262
24400153600.0 -0.7581698424 0.6491460114
24450153300.0 -0.7463608634 0.6591456449
24500153000.0 -0.7346424524 0.6690375655
24550152700.0 -0.7238772622 0.6783300028
24600152400.0 -0.7122128773 0.688000393
24650152100.0 -0.7000882761 0.6967096106
