!Created with skrf (http://scikit-rf.org).
# Hz S RI R 50.0 
!freq ReS11 ImS11
300000.0 -0.9747555171 -0.1201924039
50299700.0 -1.00000925 0.0151853342
100299400.0 -0.9980047096 0.028160825
150299100.0 -1.002715377 0.0449054393
200298800.0 -0.9997103348 0.0584336602
250298500.0 -0.9973901262 0.0718957773
300298200.0 -0.986001112 0.0876072829
350297900.0 -0.9940412788 0.0985974721
400297600.0 -0.9932129599 0.1149813473
450297300.0 -0.9910434701 0.1287437296
500297000.0 -0.9895999788 0.1435836047
550296700.0 -0.9844669199 0.1561169869
600296400.0 -1.01731124 0.1894343502
650296100.0 -0.9822917017 0.1860699452
700295800.0 -0.9796387326 0.2001244116
750295500.0 -0.9762425325 0.2142410219
800295200.0 -0.9731402683 0.2283946183
850294900.0 -0.9698550171 0.2422537851
900294600.0 -0.9658246674 0.2560927664
950294300.0 -0.9623924552 0.2696919577
1000294000.0 -0.9581638799 0.283735686
1050293700.0 -0.9537130675 0.2973335141
1100293400.0 -0.9493128134 0.3118526819
1150293100.0 -0.9455173586 0.3237548835
1200292800.0 -0.9401825637 0.3378462797
1250292500.0 -0.9348321105 0.3514535661
1300292200.0 -0.9290706675 0.3646355144
1350291900.0 -0.9235892872 0.3787713158
1400291600.0 -0.918057565 0.3917287961
1450291300.0 -0.9126862333 0.4042482972
1500291000.0 -0.9062821084 0.4175694851
1550290700.0 -0.8996910259 0.4310131136
1600290400.0 -0.893500997 0.4438286742
1650290100.0 -0.886954417 0.4559784594
1700289800.0 -0.8801205394 0.4695711758
1750289500.0 -0.8728695256 0.4818472198
1800289200.0 -0.8655029185 0.4948403496
1850288900.0 -0.8587583985 0.5060023932
1900288600.0 -0.8512736524 0.5189766685
1950288300.0 -0.8430272217 0.5315198199
2000288000.0 -0.8355827345 0.5430194881
2050287700.0 -0.8272938584 0.5555221197
2100287400.0 -0.8193447934 0.5669429206
2150287100.0 -0.8109050632 0.5789312924
2200286800.0 -0.802934396 0.5892261755
2250286500.0 -0.7941424218 0.6014433716
2300286200.0 -0.7851896703 0.6129771949
2350285900.0 -0.7765719669 0.6239860768
2400285600.0 -0.7675817657 0.634940893
2450285300.0 -0.7591305662 0.64513902
2500285000.0 -0.7492435351 0.656617334
2550284700.0 -0.7403263709 0.6669123247
2600284400.0 -0.7311778845 0.6769584096
2650284100.0 -0.722102328 0.6874446697
2700283800.0 -0.7114830189 0.6981187622
2750283500.0 -0.7011894231 0.7090050773
2800283200.0 -0.6912788872 0.7184705514
2850282900.0 -0.6811377514 0.7283841444
2900282600.0 -0.6709302444 0.7377338246
2950282300.0 -0.6605008802 0.7471538883
3000282000.0 -0.6496840357 0.7566642493
3050281700.0 -0.6388845399 0.7659058854
3100281400.0 -0.6269631908 0.7754528069
3150281100.0 -0.6150060465 0.7845369755
3200280800.0 -0.6034446199 0.7930556277
3250280500.0 -0.5925562707 0.8007434019
3300280200.0 -0.5812508563 0.8087303567
3350279900.0 -0.5696400101 0.8163303711
3400279600.0 -0.5575397825 0.8241503331
3450279300.0 -0.5462895643 0.8310792456
3500279000.0 -0.534136767 0.8380995525
3550278700.0 -0.521848433 0.8456220419
3600278400.0 -0.5097511436 0.8527056193
3650278100.0 -0.4965749769 0.8604244251
3700277800.0 -0.4845833688 0.8666893143
3750277500.0 -0.4723494957 0.8732158867
3800277200.0 -0.459928832 0.8797450157
3850276900.0 -0.4480387443 0.8858200806
3900276600.0 -0.4369164814 0.8914049946
3950276300.0 -0.4246002246 0.897590069
4000276000.0 -0.4127190826 0.9035716414
4050275700.0 -0.3998378665 0.9094886647
4100275400.0 -0.3886080476 0.9152274588
4150275100.0 -0.3759608343 0.9206654851
4200274800.0 -0.3628225426 0.9260662085
4250274500.0 -0.3506367742 0.9312760852
4300274200.0 -0.3376348612 0.9368651474
4350273900.0 -0.3237732905 0.9420136831
4400273600.0 -0.308908122 0.947088474
4450273300.0 -0.2937318256 0.9523198072
4500273000.0 -0.2800287474 0.9567805815
4550272700.0 -0.2659992522 0.9607426533
4600272400.0 -0.2506265636 0.9650960292
4650272100.0 -0.2387192942 0.9683131337
4700271800.0 -0.2254522761 0.9714596395
4750271500.0 -0.2137500652 0.9744886406
4800271200.0 -0.2014207124 0.9772308813
4850270900.0 -0.1874670794 0.9798351201
4900270600.0 -0.1736322237 0.9824196102
4950270300.0 -0.1593284967 0.9848952949
5000270000.0 -0.1451853667 0.9868533291
5050269700.0 -0.131405374 0.9887093837
5100269400.0 -0.1179356015 0.9900387851
5150269100.0 -0.1045414305 0.9918364187
5200268800.0 -0.0911846653 0.992900243
5250268500.0 -0.0778786546 0.9942200277
5300268200.0 -0.0648347547 0.9946810813
5350267900.0 -0.0526341238 0.9954893319
5400267600.0 -0.036449718 0.9964307776
5450267300.0 -0.0232896938 0.9966460194
5500267000.0 -0.0081000544 0.9970993915
5550266700.0 0.0067318359 0.9973280519
5600266400.0 0.0222475081 0.9972589007
5650266100.0 0.0388958449 0.9970529776
5700265800.0 0.0534341232 0.9963564739
5750265500.0 0.068717536 0.9955054922
5800265200.0 0.0824047226 0.9942714949
5850264900.0 0.0957694641 0.993455177
5900264600.0 0.1120980242 0.9919724479
5950264300.0 0.1242128958 0.9900084294
6000264000.0 0.1380719214 0.9881982911
6050263700.0 0.1505529081 0.986963754
6100263400.0 0.1628098177 0.9850990754
6150263100.0 0.1774940425 0.9827793262
6200262800.0 0.1876029448 0.9810443849
6250262500.0 0.2004120196 0.9785881193
6300262200.0 0.2133510686 0.9758064818
6350261900.0 0.226501793 0.9729586272
6400261600.0 0.2401086719 0.9696458165
6450261300.0 0.2513867517 0.9669888626
6500261000.0 0.2643818976 0.9634010296
6550260700.0 0.2773794341 0.959496695
6600260400.0 0.290965775 0.9557474876
6650260100.0 0.3046246289 0.9511849769
6700259800.0 0.3167182022 0.946877965
6750259500.0 0.3305171069 0.9418066939
6800259200.0 0.3434868275 0.9367368415
6850258900.0 0.3558083355 0.9315666777
6900258600.0 0.3679331473 0.9265425708
6950258300.0 0.3806276568 0.9214391911
7000258000.0 0.3923914886 0.9158361603
7050257700.0 0.4047513043 0.9099687283
7100257400.0 0.4174889444 0.9036912205
7150257100.0 0.4282186244 0.8981140534
7200256800.0 0.4406952027 0.8918693984
7250256500.0 0.452938118 0.8855744277
7300256200.0 0.4655128002 0.8786253524
7350255900.0 0.4785634375 0.8719829659
7400255600.0 0.4914694002 0.8646835
7450255300.0 0.5071394324 0.8556342736
7500255000.0 0.5187083005 0.8484909333
7550254700.0 0.5325127235 0.8400394212
7600254400.0 0.5449862145 0.8319031478
7650254100.0 0.5562013748 0.8239804325
7700253800.0 0.5682199107 0.8159614072
7750253500.0 0.5798282974 0.8082342284
7800253200.0 0.5904692297 0.8006053087
7850252900.0 0.6000997098 0.7933883866
7900252600.0 0.6116157993 0.7848165586
7950252300.0 0.6204666079 0.7782404042
8000252000.0 0.6305089286 0.770651064
8050251700.0 0.6409321233 0.7625830888
8100251400.0 0.6512948763 0.7541712498
8150251100.0 0.6612938799 0.7454621274
8200250800.0 0.670687898 0.7375774785
8250250500.0 0.6794518154 0.7298478387
8300250200.0 0.6890610319 0.7212924314
8350249900.0 0.6979835521 0.7125375194
8400249600.0 0.7062479616 0.7044402944
8450249300.0 0.7153929212 0.6951460263
8500249000.0 0.7239720332 0.6864146662
8550248700.0 0.7321047231 0.6771518913
8600248400.0 0.7405881226 0.6678619175
8650248100.0 0.7485077623 0.6584693961
8700247800.0 0.7580149151 0.647049075
8750247500.0 0.7661086084 0.6368761593
8800247200.0 0.7745875192 0.6265582249
8850246900.0 0.7832500982 0.6152372582
8900246600.0 0.7918242946 0.6038566169
8950246300.0 0.8012407032 0.5907996297
9000246000.0 0.8105504158 0.5781157007
9050245700.0 0.8194054378 0.5653173436
9100245400.0 0.827781911 0.5530204696
9150245100.0 0.8371172717 0.539500484
9200244800.0 0.8468999915 0.524165442
9250244500.0 0.8563760415 0.5087435989
9300244200.0 0.8647525846 0.494533088
9350243900.0 0.8725080436 0.4806450282
9400243600.0 0.8792948925 0.4683667604
9450243300.0 0.8851667028 0.4569059346
9500243000.0 0.89126561 0.4447690794
9550242700.0 0.8951775298 0.4371233353
9600242400.0 0.8990911925 0.4298093336
9650242100.0 0.9026927485 0.4231415408
9700241800.0 0.9074559845 0.4148593127
9750241500.0 0.9114974987 0.4072589038
9800241200.0 0.9161370125 0.3982395446
9850240900.0 0.9219788544 0.3863582929
9900240600.0 0.9275135909 0.3746714099
9950240300.0 0.9342173267 0.358622043
10000240000.0 0.9392424097 0.3467550047
10050239700.0 0.9443086524 0.3318589563
10100239400.0 0.9496677963 0.3161000192
10150239100.0 0.9539423186 0.3013191469
10200238800.0 0.9581272618 0.2864145219
10250238500.0 0.9614167324 0.2729978139
10300238200.0 0.9645755204 0.2589973941
10350237900.0 0.9673114069 0.2461046038
10400237600.0 0.9697626443 0.2328273198
10450237300.0 0.9725770857 0.2193016745
10500237000.0 0.974594118 0.2069145584
10550236700.0 0.9771975492 0.192643041
10600236400.0 0.9792171767 0.1787303371
10650236100.0 0.9816636059 0.1637591962
10700235800.0 0.9834006679 0.1519598637
10750235500.0 0.9856648882 0.1383573405
10800235200.0 0.9876145255 0.1247190355
10850234900.0 0.9895734535 0.1099859376
10900234600.0 0.9916680183 0.0953339086
10950234300.0 0.993343455 0.0820680374
11000234000.0 0.9952241081 0.0669477873
11050233700.0 0.996996443 0.0506000137
11100233400.0 0.9983699177 0.0332348868
11150233100.0 0.9993774419 0.0171949729
11200232800.0 1.000508305 0.0016427169
11250232500.0 1.001275379 -0.015173135
11300232200.0 1.002105538 -0.0328576256
11350231900.0 1.00171387 -0.0481652342
11400231600.0 1.001580693 -0.0636920339
11450231300.0 1.000767821 -0.0792403929
11500231000.0 0.9999589261 -0.0964253461
11550230700.0 0.9985514868 -0.1090307424
11600230400.0 0.9970717051 -0.1210675617
11650230100.0 0.9956256132 -0.1335216161
11700229800.0 0.9931517387 -0.1474980151
11750229500.0 0.990777177 -0.1627003186
11800229200.0 0.9884983752 -0.1759830341
11850228900.0 0.9847790583 -0.1881716967
11900228600.0 0.9809834659 -0.1981613861
11950228300.0 0.9777159515 -0.2081543406
12000228000.0 0.9751307212 -0.2173498726
12050227700.0 0.9714158118 -0.2306879596
12100227400.0 0.967909471 -0.2412076229
12150227100.0 0.9636253397 -0.2583246826
12200226800.0 0.9601528369 -0.2685720273
12250226500.0 0.9558064737 -0.2813899878
12300226200.0 0.9512851012 -0.294012136
12350225900.0 0.9465097625 -0.3073902048
12400225600.0 0.9419771973 -0.3212235718
12450225300.0 0.9376162449 -0.3336104724
12500225000.0 0.9323710229 -0.3483425764
12550224700.0 0.9270504451 -0.3623532885
12600224400.0 0.9221881146 -0.375141796
12650224100.0 0.9163073764 -0.3894990066
12700223800.0 0.910985453 -0.4022005092
12750223500.0 0.9056319559 -0.415082724
12800223200.0 0.9001063529 -0.4280045647
12850222900.0 0.8946477486 -0.4401597701
12900222600.0 0.8888611998 -0.452464587
12950222300.0 0.8830768335 -0.465046585
13000222000.0 0.8768288191 -0.4763653807
13050221700.0 0.8698589698 -0.4891709047
13100221400.0 0.8633909916 -0.5016751535
13150221100.0 0.8568742596 -0.513407707
13200220800.0 0.8499760266 -0.5248878973
13250220500.0 0.8423762044 -0.5367760779
13300220200.0 0.8350907525 -0.5478593706
13350219900.0 0.8270716279 -0.5598026728
13400219600.0 0.8185588157 -0.5718269083
13450219300.0 0.8090161706 -0.5854209613
13500219000.0 0.7992876472 -0.5989245859
13550218700.0 0.7891217864 -0.6117512252
13600218400.0 0.7784668338 -0.6238312554
13650218100.0 0.7693145452 -0.6350727962
13700217800.0 0.7588097159 -0.64733991
13750217500.0 0.7489154862 -0.6586128336
13800217200.0 0.737080753 -0.670198393
13850216900.0 0.7265855484 -0.6813108421
13900216600.0 0.7168122691 -0.6906868583
13950216300.0 0.7057961228 -0.7007770227
14000216000.0 0.6958359003 -0.7099569957
14050215700.0 0.6861401508 -0.7182403468
14100215400.0 0.6761167221 -0.7275198694
14150215100.0 0.6671414976 -0.7359542361
14200214800.0 0.6577125866 -0.7446919973
14250214500.0 0.6473586553 -0.754066183
14300214200.0 0.6369523524 -0.7635200612
14350213900.0 0.6260129005 -0.7729147381
14400213600.0 0.6137863242 -0.7829237291
14450213300.0 0.6010480928 -0.7932376736
14500213000.0 0.5882695813 -0.8031391913
14550212700.0 0.575467836 -0.8124229491
14600212400.0 0.5633163439 -0.8215456031
14650212100.0 0.5499603715 -0.8300508646
14700211800.0 0.535521029 -0.8393904116
14750211500.0 0.5239027186 -0.8476844461
14800211200.0 0.5115394346 -0.8557498759
14850210900.0 0.4994536053 -0.8634827597
14900210600.0 0.4860725255 -0.8712713112
14950210300.0 0.4727342651 -0.8788165053
15000210000.0 0.4600510048 -0.8856368182
15050209700.0 0.44794353 -0.8917907261
15100209400.0 0.4353324577 -0.8979616994
15150209100.0 0.422846584 -0.9028970031
15200208800.0 0.4097010534 -0.9084307792
15250208500.0 0.3980903026 -0.9130453554
15300208200.0 0.3862513881 -0.9178383711
15350207900.0 0.3735711337 -0.9223932392
15400207600.0 0.3589735941 -0.9275218075
15450207300.0 0.3443029745 -0.9326560578
15500207000.0 0.3298640503 -0.9375181522
15550206700.0 0.3147549111 -0.942069741
15600206400.0 0.2985828588 -0.9473095892
15650206100.0 0.2832481253 -0.9513522828
15700205800.0 0.2692894626 -0.9547854436
15750205500.0 0.2550265504 -0.9586015831
15800205200.0 0.2405088785 -0.9620426069
15850204900.0 0.2262631478 -0.9654141271
15900204600.0 0.2108645341 -0.9690622932
15950204300.0 0.1969745482 -0.972202482
16000204000.0 0.1827125859 -0.9751129698
16050203700.0 0.1676806857 -0.9776581209
16100203400.0 0.1532338321 -0.9799378461
16150203100.0 0.1383132913 -0.9819043586
16200202800.0 0.1245271823 -0.9844610335
16250202500.0 0.1092888339 -0.9862897558
16300202200.0 0.0946255025 -0.9874668205
16350201900.0 0.0794498597 -0.9891761091
16400201600.0 0.0648810314 -0.99020201
16450201300.0 0.049641002 -0.9912978843
16500201000.0 0.0328929997 -0.9921166246
16550200700.0 0.0171628806 -0.9925345287
16600200400.0 0.0013763616 -0.9926259089
16650200100.0 -0.0146668366 -0.9926974047
16700199800.0 -0.0306795451 -0.9921681834
16750199500.0 -0.0494419553 -0.9915157461
16800199200.0 -0.0654969127 -0.9910541238
16850198900.0 -0.0805008827 -0.9894615337
16900198600.0 -0.09420132 -0.9883578998
16950198300.0 -0.1072812492 -0.9877962091
17000198000.0 -0.1209782898 -0.9861605094
17050197700.0 -0.1333894537 -0.9843788979
17100197400.0 -0.1464584952 -0.9819765803
17150197100.0 -0.1590787889 -0.9806606863
17200196800.0 -0.1717420502 -0.9781516048
17250196500.0 -0.1848071388 -0.9760607373
17300196200.0 -0.1968725988 -0.9735812806
17350195900.0 -0.2087708301 -0.9714583825
17400195600.0 -0.221023984 -0.968889281
17450195300.0 -0.2339022045 -0.9661091754
17500195000.0 -0.2472646628 -0.9627850336
17550194700.0 -0.2613460112 -0.9591107162
17600194400.0 -0.275123124 -0.9547567681
17650194100.0 -0.288708152 -0.9510554069
17700193800.0 -0.3017480214 -0.9470150219
17750193500.0 -0.3162475685 -0.9421332824
17800193200.0 -0.3306469115 -0.9370084677
17850192900.0 -0.3459259687 -0.9311768408
17900192600.0 -0.3609264945 -0.9256816971
17950192300.0 -0.3762202337 -0.9184940713
18000192000.0 -0.3913857852 -0.9113948785
18050191700.0 -0.4052349382 -0.9035128011
18100191400.0 -0.4194461918 -0.8957717753
18150191100.0 -0.4345111381 -0.8877579767
18200190800.0 -0.4514133452 -0.8785820572
18250190500.0 -0.4684000605 -0.8691955001
18300190200.0 -0.483691094 -0.8603264478
18350189900.0 -0.4989424832 -0.8521973088
18400189600.0 -0.5130143475 -0.8440447313
18450189300.0 -0.5265111223 -0.8354567419
18500189000.0 -0.5397643827 -0.8279467329
18550188700.0 -0.5523476207 -0.8203900002
18600188400.0 -0.5643574071 -0.8139319383
18650188100.0 -0.5755289355 -0.8070022778
18700187800.0 -0.5860582222 -0.8009804679
18750187500.0 -0.5969383611 -0.7940276127
18800187200.0 -0.6073987796 -0.7872107986
18850186900.0 -0.6175706884 -0.7801748093
18900186600.0 -0.627765222 -0.772990838
18950186300.0 -0.6378187701 -0.7653341986
19000186000.0 -0.644868902 -0.7589826924
19050185700.0 -0.6543344777 -0.7518828043
19100185400.0 -0.6641949986 -0.7435468732
19150185100.0 -0.6747045808 -0.7352212793
19200184800.0 -0.6830599716 -0.7269461399
19250184500.0 -0.6942908603 -0.7175830028
19300184200.0 -0.7055056735 -0.7081767489
19350183900.0 -0.7159211022 -0.6976841309
19400183600.0 -0.7259846321 -0.6883510981
19450183300.0 -0.7350185561 -0.6780271481
19500183000.0 -0.7431472933 -0.6686015125
19550182700.0 -0.7528171014 -0.6576477023
19600182400.0 -0.7629822981 -0.646026678
19650182100.0 -0.7741436245 -0.6333318968
19700181800.0 -0.7846615072 -0.6200719727
19750181500.0 -0.7953504272 -0.6059360912
19800181200.0 -0.805590667 -0.5909152717
19850180900.0 -0.8152185583 -0.5758094183
19900180600.0 -0.8233750963 -0.5610332339
19950180300.0 -0.8325360619 -0.5449358726
20000180000.0 -0.8254981689 -0.5468424679
20050179700.0 -0.8332946884 -0.5349244804
20100179400.0 -0.842235309 -0.520242908
20150179100.0 -0.8503871825 -0.5089374987
20200178800.0 -0.8598055344 -0.495131855
20250178500.0 -0.8690187781 -0.4822818517
20300178200.0 -0.877752757 -0.4682158801
20350177900.0 -0.8871845917 -0.4533968187
20400177600.0 -0.8963272159 -0.4385424062
20450177300.0 -0.9046148726 -0.4241072348
20500177000.0 -0.9124477809 -0.4105162782
20550176700.0 -0.920307598 -0.3966506102
20600176400.0 -0.9272135344 -0.3839524089
20650176100.0 -0.9340144226 -0.3714222546
20700175800.0 -0.9403735286 -0.3593330093
20750175500.0 -0.9467041105 -0.3485490985
20800175200.0 -0.9520393041 -0.3376599621
20850174900.0 -0.9560206511 -0.3260312455
20900174600.0 -0.9610305393 -0.3149511652
20950174300.0 -0.965368223 -0.3039473146
21000174000.0 -0.9693191925 -0.2925080463
21050173700.0 -0.9706913398 -0.2819402962
21100173400.0 -0.9748057607 -0.2696954675
21150173100.0 -0.9786216393 -0.2572065508
21200172800.0 -0.9825825998 -0.2437874038
21250172500.0 -0.985907527 -0.2302843853
21300172200.0 -0.9886157301 -0.2159601933
21350171900.0 -0.9900815247 -0.2017182563
21400171600.0 -0.9921465018 -0.1881855517
21450171300.0 -0.9918737971 -0.1730113542
21500171000.0 -0.9913079094 -0.1588245737
21550170700.0 -0.9926766767 -0.1423480957
21600170400.0 -0.9923428048 -0.1270388745
21650170100.0 -0.9917412816 -0.1110489856
21700169800.0 -0.9896588492 -0.0950148536
21750169500.0 -0.9887015445 -0.0793849293
21800169200.0 -0.9883945623 -0.0634161175
21850168900.0 -0.9880873517 -0.0458472229
21900168600.0 -0.9859487267 -0.0296019572
21950168300.0 -0.9849180048 -0.0142607426
22000168000.0 -0.9843728315 0.0005436366
22050167700.0 -0.9842899681 0.0152305915
22100167400.0 -0.9844556669 0.0304555576
22150167100.0 -0.9853993826 0.0461503435
22200166800.0 -0.9856749662 0.062433128
22250166500.0 -0.9851220852 0.0792643697
22300166200.0 -0.9852171669 0.0959605466
22350165900.0 -0.9829845067 0.1126132376
22400165600.0 -0.9815185172 0.1289510573
22450165300.0 -0.9794417492 0.142682836
22500165000.0 -0.9772767991 0.1579815729
22550164700.0 -0.9773223701 0.1731257873
22600164400.0 -0.9756247356 0.1873710536
22650164100.0 -0.9722565756 0.2031641633
22700163800.0 -0.9696502795 0.2179890613
22750163500.0 -0.9675288664 0.2336098559
22800163200.0 -0.9640950052 0.2469326572
22850162900.0 -0.9620183758 0.2602980211
22900162600.0 -0.9605385181 0.2735448743
22950162300.0 -0.9591081352 0.2864411644
23000162000.0 -0.9583370136 0.2980391818
23050161700.0 -0.9560540638 0.3109395727
23100161400.0 -0.9535870008 0.3236345538
23150161100.0 -0.9508151247 0.336359171
23200160800.0 -0.9476624072 0.3486128253
23250160500.0 -0.9451381325 0.3605351276
23300160200.0 -0.9430047856 0.3730005511
23350159900.0 -0.9387086721 0.3857136694
23400159600.0 -0.933940128 0.3993636519
23450159300.0 -0.9293791508 0.4125467384
23500159000.0 -0.9249602409 0.4253152805
23550158700.0 -0.9206880124 0.4390534681
23600158400.0 -0.9147163941 0.4523919569
23650158100.0 -0.9084958286 0.4667626501
23700157800.0 -0.9008000749 0.4806921389
23750157500.0 -0.8922241856 0.4945438233
23800157200.0 -0.8834033267 0.5078917259
23850156900.0 -0.8746702575 0.5206140658
23900156600.0 -0.8657631709 0.5329751028
23950156300.0 -0.8557261007 0.5453146551
24000156000.0 -0.8471437124 0.5576442856
24050155700.0 -0.8368565684 0.5699047679
24100155400.0 -0.8270676084 0.5816965732
24150155100.0 -0.8170458127 0.5941868199
24200154800.0 -0.8047893258 0.6047537628
24250154500.0 -0.794438627 0.6162679715
24300154200.0 -0.7828178037 0.6276004544
24350153900.0 -0.7709626925 0.6385921223
24400153600.0 -0.7587836021 0.6486222738
24450153300.0 -0.74706842 0.6587077477
24500153000.0 -0.7359203851 0.668403201
24550152700.0 -0.7244139372 0.6783412249
24600152400.0 -0.7126223508 0.6871966224
24650152100.0 -0.7008112765 0.6955032084
