!Created with skrf (http://scikit-rf.org).
# Hz S RI R 50.0 
!freq ReS11 ImS11
300000.0 -0.97296597 -0.1226640878
50299700.0 -0.9998323701 0.0149358316
100299400.0 -0.9977864322 0.0279694162
150299100.0 -1.002706114 0.0448003414
200298800.0 -0.9996188967 0.0580752208
250298500.0 -0.9974839061 0.071673516
300298200.0 -0.9860550043 0.0874292445
350297900.0 -0.993755657 0.0980590109
400297600.0 -0.993085223 0.1148922383
450297300.0 -0.9908829373 0.128813115
500297000.0 -0.9894026477 0.1434866227
550296700.0 -0.9842793162 0.1559552671
600296400.0 -1.016991104 0.1891719278
650296100.0 -0.9818892132 0.185678358
700295800.0 -0.9792240237 0.200005235
750295500.0 -0.9762391754 0.2138647683
800295200.0 -0.9730353398 0.2280223164
850294900.0 -0.9694230987 0.2418662312
900294600.0 -0.9658502919 0.2557823974
950294300.0 -0.9619506283 0.2693675446
1000294000.0 -0.9582357846 0.2830407534
1050293700.0 -0.953397522 0.2971490272
1100293400.0 -0.9493902961 0.3114928034
1150293100.0 -0.9453682562 0.3234681534
1200292800.0 -0.9402584343 0.3376669966
1250292500.0 -0.934627401 0.3512278614
1300292200.0 -0.9289488368 0.364522468
1350291900.0 -0.9234410566 0.378435796
1400291600.0 -0.9180736144 0.3914158753
1450291300.0 -0.9124799516 0.4040005752
1500291000.0 -0.9061602797 0.4172647858
1550290700.0 -0.8995490115 0.4307516642
1600290400.0 -0.89357066 0.4436868168
1650290100.0 -0.8867976216 0.4557081333
1700289800.0 -0.8799334339 0.4691758112
1750289500.0 -0.8728328839 0.4813976532
1800289200.0 -0.8654840847 0.4943991932
1850288900.0 -0.8588972013 0.5058370836
1900288600.0 -0.8510801506 0.5186361329
1950288300.0 -0.8427038162 0.5312799327
2000288000.0 -0.8354206855 0.5427549668
2050287700.0 -0.8270177839 0.5552426874
2100287400.0 -0.8194203768 0.5667087996
2150287100.0 -0.8108041735 0.5786068392
2200286800.0 -0.8030119948 0.5892965575
2250286500.0 -0.7939546167 0.601519247
2300286200.0 -0.7851743404 0.6127614021
2350285900.0 -0.7768789755 0.623312395
2400285600.0 -0.7678641659 0.634311994
2450285300.0 -0.7590170269 0.6451827526
2500285000.0 -0.7488801599 0.6568027568
2550284700.0 -0.7402396994 0.666938489
2600284400.0 -0.7309912184 0.676808377
2650284100.0 -0.7225038536 0.6872071227
2700283800.0 -0.7119176006 0.6974843248
2750283500.0 -0.701467857 0.7085074506
2800283200.0 -0.6914873581 0.7179864991
2850282900.0 -0.6810900185 0.7282236162
2900282600.0 -0.6706510056 0.7377831486
2950282300.0 -0.6600362755 0.7474717492
3000282000.0 -0.6496845553 0.7566659358
3050281700.0 -0.6383117184 0.765945584
3100281400.0 -0.6266756555 0.7749296695
3150281100.0 -0.6155990905 0.7839621335
3200280800.0 -0.6041203039 0.7923151858
3250280500.0 -0.593024988 0.8002489068
3300280200.0 -0.5814310803 0.8084927261
3350279900.0 -0.5692317634 0.8167384713
3400279600.0 -0.5565497791 0.8245156294
3450279300.0 -0.5456240341 0.8317684886
3500279000.0 -0.533867832 0.8385434655
3550278700.0 -0.5215933333 0.845709952
3600278400.0 -0.509819425 0.8523732798
3650278100.0 -0.4968339816 0.85979238
3700277800.0 -0.4845312679 0.8663236826
3750277500.0 -0.4719923054 0.8733116397
3800277200.0 -0.459763257 0.8796747937
3850276900.0 -0.4477892873 0.8857310953
3900276600.0 -0.4369249143 0.8912682083
3950276300.0 -0.4250847027 0.8970259164
4000276000.0 -0.4130493027 0.9030177367
4050275700.0 -0.4002962521 0.9089996618
4100275400.0 -0.3892474269 0.9142083288
4150275100.0 -0.376275653 0.9204166263
4200274800.0 -0.3626123477 0.925965826
4250274500.0 -0.3498470136 0.93154528
4300274200.0 -0.3366830713 0.9366334525
4350273900.0 -0.3222428098 0.942126636
4400273600.0 -0.3077772354 0.9469682017
4450273300.0 -0.2926985832 0.9523703164
4500273000.0 -0.2795307096 0.9562598301
4550272700.0 -0.2660813205 0.960580939
4600272400.0 -0.2510810654 0.9646990386
4650272100.0 -0.2396911843 0.9677788429
4700271800.0 -0.2267417846 0.9711068957
4750271500.0 -0.2151784238 0.9740740878
4800271200.0 -0.2028099413 0.9767181103
4850270900.0 -0.1890827122 0.9794531579
4900270600.0 -0.1752271915 0.9819302812
4950270300.0 -0.1606297852 0.9848140703
5000270000.0 -0.1462553271 0.9868301039
5050269700.0 -0.132869268 0.9883972324
5100269400.0 -0.1184495991 0.9900647787
5150269100.0 -0.104816623 0.9917655139
5200268800.0 -0.0913471172 0.9928543399
5250268500.0 -0.0779499064 0.993804861
5300268200.0 -0.0645793395 0.9944544927
5350267900.0 -0.0515459676 0.9953103482
5400267600.0 -0.035236407 0.9964161105
5450267300.0 -0.0220979732 0.9966175372
5500267000.0 -0.0067185691 0.996988974
5550266700.0 0.0083233257 0.9971433808
5600266400.0 0.0238850733 0.9972211311
5650266100.0 0.04067865 0.996582032
5700265800.0 0.0547944789 0.9958020528
5750265500.0 0.07015239 0.995197159
5800265200.0 0.0835485233 0.9941152516
5850264900.0 0.0967844083 0.9933678308
5900264600.0 0.1126399885 0.9912968665
5950264300.0 0.125017045 0.9898565488
6000264000.0 0.1379766585 0.9877876366
6050263700.0 0.1497064413 0.9865840297
6100263400.0 0.161880738 0.9847225672
6150263100.0 0.176613723 0.9826024971
6200262800.0 0.1864544429 0.9811174614
6250262500.0 0.1989327237 0.9787382457
6300262200.0 0.2111325035 0.97607205
6350261900.0 0.2238912249 0.9735227046
6400261600.0 0.237655651 0.9701744223
6450261300.0 0.2486883552 0.9677133344
6500261000.0 0.2622411503 0.9641698416
6550260700.0 0.2754687199 0.960086156
6600260400.0 0.2886936093 0.9560178475
6650260100.0 0.303204995 0.9518094363
6700259800.0 0.3149381506 0.947378497
6750259500.0 0.3286219216 0.942543844
6800259200.0 0.3421757927 0.937190563
6850258900.0 0.3546005673 0.9319674487
6900258600.0 0.3671364715 0.9266743699
6950258300.0 0.3795958995 0.9213293029
7000258000.0 0.3915237653 0.9163844462
7050257700.0 0.4033305789 0.9102414547
7100257400.0 0.416768248 0.9039181201
7150257100.0 0.4275126539 0.8985702451
7200256800.0 0.4404243645 0.8921791181
7250256500.0 0.4533607243 0.8856102351
7300256200.0 0.4664122555 0.8788816195
7350255900.0 0.4792671111 0.8716020979
7400255600.0 0.4928621799 0.8640717757
7450255300.0 0.5085131153 0.8547600474
7500255000.0 0.5210138541 0.8474993791
7550254700.0 0.5351516908 0.838324443
7600254400.0 0.5477105905 0.8300486002
7650254100.0 0.5594007072 0.82201817
7700253800.0 0.5707633797 0.8140076049
7750253500.0 0.5819461603 0.8064366983
7800253200.0 0.5924062577 0.7984972418
7850252900.0 0.6022489808 0.7912217314
7900252600.0 0.6138044201 0.782520897
7950252300.0 0.6221617373 0.7762487859
8000252000.0 0.6321253302 0.768587487
8050251700.0 0.6426016058 0.7604256795
8100251400.0 0.652600319 0.7525475755
8150251100.0 0.6625564762 0.7440958771
8200250800.0 0.6718237224 0.7357007265
8250250500.0 0.6808552783 0.727874946
8300250200.0 0.6897009863 0.7196081752
8350249900.0 0.6991875073 0.710570509
8400249600.0 0.7069176099 0.7028557676
8450249300.0 0.7157372764 0.6940375716
8500249000.0 0.7246016302 0.6853735919
8550248700.0 0.7327502461 0.6763620863
8600248400.0 0.741182486 0.666845575
8650248100.0 0.7486211963 0.6573527562
8700247800.0 0.7581301078 0.64629563
8750247500.0 0.7666005515 0.6362260816
8800247200.0 0.7741817966 0.6258713224
8850246900.0 0.7829783695 0.6145781291
8900246600.0 0.7912519947 0.6030220161
8950246300.0 0.8005582772 0.5903072242
9000246000.0 0.8091401715 0.5784557761
9050245700.0 0.8177454573 0.5660558977
9100245400.0 0.8258961628 0.5539114501
9150245100.0 0.8348309239 0.5411175534
9200244800.0 0.8445698505 0.5266323056
9250244500.0 0.8534120054 0.5117602238
9300244200.0 0.861261011 0.4986305027
9350243900.0 0.8690960253 0.485224091
9400243600.0 0.8755558365 0.4734613608
9450243300.0 0.8812608587 0.4631385512
9500243000.0 0.8873889446 0.4512761859
9550242700.0 0.8915830132 0.4438461004
9600242400.0 0.895804127 0.4360922967
9650242100.0 0.9000090754 0.4291847892
9700241800.0 0.9049927747 0.4205919505
9750241500.0 0.9088821313 0.4130678158
9800241200.0 0.9137798248 0.4037787586
9850240900.0 0.9199352673 0.3917998453
9900240600.0 0.9260735988 0.3798901013
9950240300.0 0.9330285274 0.363364633
10000240000.0 0.9383729736 0.3505224666
10050239700.0 0.9440999193 0.335125375
10100239400.0 0.949632134 0.3185152165
10150239100.0 0.9542606456 0.3029708734
10200238800.0 0.9583540389 0.287491317
10250238500.0 0.9615136554 0.2741564416
10300238200.0 0.9647634195 0.2602218986
10350237900.0 0.9675441417 0.2467663245
10400237600.0 0.9702500122 0.233187421
10450237300.0 0.9725597612 0.2198905476
10500237000.0 0.9746398084 0.2074492654
10550236700.0 0.9779392487 0.1922570014
10600236400.0 0.9797219999 0.1785764899
10650236100.0 0.9815396523 0.1645353832
10700235800.0 0.9838871796 0.1517330536
10750235500.0 0.9857642421 0.1389189194
10800235200.0 0.9879933913 0.1242147248
10850234900.0 0.9898306781 0.1095904761
10900234600.0 0.9919906328 0.0944497149
10950234300.0 0.9938144045 0.080980382
11000234000.0 0.9956168589 0.065418174
11050233700.0 0.9974319513 0.0485369418
11100233400.0 0.9989432457 0.0310065599
11150233100.0 0.9999633079 0.0142139699
11200232800.0 1.000688472 -0.0017305062
11250232500.0 1.001999069 -0.0196228747
11300232200.0 1.002206098 -0.0383901871
11350231900.0 1.00201707 -0.0543887744
11400231600.0 1.001296686 -0.0698522476
11450231300.0 1.000818965 -0.0852714757
11500231000.0 1.000200905 -0.1018960245
11550230700.0 0.998119345 -0.1151104759
11600230400.0 0.9965296688 -0.1279197517
11650230100.0 0.994913702 -0.1405544858
11700229800.0 0.9925541203 -0.1551235981
11750229500.0 0.9899684809 -0.1688105511
11800229200.0 0.9874715973 -0.1822155234
11850228900.0 0.9835565091 -0.1939957791
11900228600.0 0.9799158934 -0.2035447664
11950228300.0 0.9765437464 -0.2135218549
12000228000.0 0.9738329494 -0.2222721105
12050227700.0 0.969915528 -0.2351384564
12100227400.0 0.9671088341 -0.2450446181
12150227100.0 0.9613222984 -0.2632625304
12200226800.0 0.9579734038 -0.2735136775
12250226500.0 0.953090231 -0.2865698588
12300226200.0 0.9493249495 -0.2985988946
12350225900.0 0.9444348959 -0.312765853
12400225600.0 0.9403539341 -0.3246821573
12450225300.0 0.9356497597 -0.336708888
12500225000.0 0.9302055413 -0.3518060109
12550224700.0 0.9247008164 -0.3655018174
12600224400.0 0.9198821213 -0.3784621017
12650224100.0 0.9140409539 -0.3927189252
12700223800.0 0.9087017632 -0.4056854487
12750223500.0 0.903163256 -0.4188477311
12800223200.0 0.8978557422 -0.4314386296
12850222900.0 0.8927463938 -0.4436152619
12900222600.0 0.8864931202 -0.4552084241
12950222300.0 0.8808277409 -0.4681003711
13000222000.0 0.8749247724 -0.4802827166
13050221700.0 0.8682616187 -0.4929002245
13100221400.0 0.86123415 -0.504798739
13150221100.0 0.8544207251 -0.5169206849
13200220800.0 0.8473076931 -0.5285519932
13250220500.0 0.840047748 -0.5405962812
13300220200.0 0.8326049036 -0.5515903901
13350219900.0 0.8244261844 -0.5633454372
13400219600.0 0.8162216545 -0.5754157059
13450219300.0 0.8065166858 -0.5884092767
13500219000.0 0.7974802036 -0.6013040363
13550218700.0 0.7869606038 -0.6140470684
13600218400.0 0.7770581432 -0.6256774111
13650218100.0 0.7681848621 -0.6363002226
13700217800.0 0.7569443918 -0.6482258763
13750217500.0 0.7476766305 -0.6589656254
13800217200.0 0.7369628363 -0.670068231
13850216900.0 0.726108537 -0.6811920058
13900216600.0 0.7161131216 -0.6902393993
13950216300.0 0.7043250345 -0.7000608978
14000216000.0 0.6953518493 -0.709460522
14050215700.0 0.6859270294 -0.7174989666
14100215400.0 0.6761285023 -0.7264058992
14150215100.0 0.6673107419 -0.735248009
14200214800.0 0.6577522983 -0.7439699232
14250214500.0 0.6474513216 -0.7536919444
14300214200.0 0.6369779376 -0.7631399596
14350213900.0 0.6258906366 -0.7728938452
14400213600.0 0.6140943551 -0.7823957608
14450213300.0 0.6011416615 -0.7926593909
14500213000.0 0.5881927772 -0.8026189731
14550212700.0 0.5751583775 -0.8122154593
14600212400.0 0.5633025133 -0.8205854242
14650212100.0 0.5505881482 -0.8295931625
14700211800.0 0.5370516198 -0.8391342536
14750211500.0 0.5245149517 -0.8472952841
14800211200.0 0.5120689695 -0.8555026789
14850210900.0 0.4999411643 -0.8630500936
14900210600.0 0.4865132406 -0.8710006298
14950210300.0 0.4730984708 -0.8786764193
15000210000.0 0.4602895818 -0.8854032138
15050209700.0 0.4483619943 -0.891485516
15100209400.0 0.4355264457 -0.8974727954
15150209100.0 0.423204854 -0.9027613909
15200208800.0 0.4104404748 -0.9079988044
15250208500.0 0.3997955969 -0.9125606631
15300208200.0 0.3874250531 -0.917493132
15350207900.0 0.3741256267 -0.9222599446
15400207600.0 0.3589464055 -0.9270447545
15450207300.0 0.3442271338 -0.9327171865
15500207000.0 0.3298905492 -0.9367915886
15550206700.0 0.3149165447 -0.9417263251
15600206400.0 0.2992791128 -0.9469629997
15650206100.0 0.2837056256 -0.9507342489
15700205800.0 0.2699265232 -0.9541103542
15750205500.0 0.2559835045 -0.9579650754
15800205200.0 0.2423222596 -0.9610912805
15850204900.0 0.2281087018 -0.9646722819
15900204600.0 0.213020929 -0.9684780757
15950204300.0 0.1984696253 -0.9713560649
16000204000.0 0.184390368 -0.9742745569
16050203700.0 0.1689731191 -0.9773052729
16100203400.0 0.1541296564 -0.97977011
16150203100.0 0.1393046087 -0.9818684008
16200202800.0 0.125144808 -0.9840108682
16250202500.0 0.1100133031 -0.9860602392
16300202200.0 0.0948564005 -0.9874599313
16350201900.0 0.0796187749 -0.9888042162
16400201600.0 0.0652342044 -0.9901834719
16450201300.0 0.0497089623 -0.9913661368
16500201000.0 0.0324799045 -0.9920906494
16550200700.0 0.0165264009 -0.9926065833
16600200400.0 0.0008232505 -0.9926916008
16650200100.0 -0.0153160389 -0.9927439164
16700199800.0 -0.0319520091 -0.9923750664
16750199500.0 -0.0507711112 -0.9915168702
16800199200.0 -0.0670934206 -0.9903736058
16850198900.0 -0.0821456107 -0.9891383503
16900198600.0 -0.0967404528 -0.9883382482
16950198300.0 -0.110649749 -0.9878025394
17000198000.0 -0.1236225828 -0.9857725163
17050197700.0 -0.1360814274 -0.9842706685
17100197400.0 -0.1491184402 -0.9821235268
17150197100.0 -0.161807799 -0.9796774707
17200196800.0 -0.1744684712 -0.9777070208
17250196500.0 -0.1875579193 -0.9753758165
17300196200.0 -0.19971679 -0.9730803238
17350195900.0 -0.2114183614 -0.9705834287
17400195600.0 -0.223352145 -0.9681206478
17450195300.0 -0.2363358431 -0.9653554474
17500195000.0 -0.2493279457 -0.9619528725
17550194700.0 -0.2632900721 -0.9583701859
17600194400.0 -0.2768366185 -0.9545844187
17650194100.0 -0.2906790754 -0.9505364039
17700193800.0 -0.3034814581 -0.9465224515
17750193500.0 -0.3176748537 -0.9418523621
17800193200.0 -0.3320752658 -0.9369251115
17850192900.0 -0.3470704056 -0.9312015545
17900192600.0 -0.3619684646 -0.9252013601
17950192300.0 -0.3774312082 -0.9178434491
18000192000.0 -0.3921479952 -0.9106078081
18050191700.0 -0.4059182602 -0.9026985791
18100191400.0 -0.4200603623 -0.8949355226
18150191100.0 -0.4348041798 -0.8870350623
18200190800.0 -0.4519775506 -0.8778577929
18250190500.0 -0.4687091327 -0.8685784619
18300190200.0 -0.4841939486 -0.8593667919
18350189900.0 -0.4994741455 -0.8512325102
18400189600.0 -0.5137409643 -0.8427458239
18450189300.0 -0.5273161931 -0.834617843
18500189000.0 -0.5406974775 -0.8265570796
18550188700.0 -0.5537533276 -0.8188787499
18600188400.0 -0.5655899125 -0.8124969808
18650188100.0 -0.5768415054 -0.8053579778
18700187800.0 -0.5878730452 -0.7987188674
18750187500.0 -0.598724911 -0.7921219171
18800187200.0 -0.609350073 -0.7850605632
18850186900.0 -0.6196795781 -0.7781976005
18900186600.0 -0.6299218565 -0.7710613622
18950186300.0 -0.6400509477 -0.7633399699
19000186000.0 -0.647481777 -0.7570699123
19050185700.0 -0.6569886318 -0.7498700013
19100185400.0 -0.6671574628 -0.7413664695
19150185100.0 -0.6773883653 -0.7332093231
19200184800.0 -0.6869938415 -0.7250577141
19250184500.0 -0.6966187832 -0.7153239393
19300184200.0 -0.7082750854 -0.7061959537
19350183900.0 -0.7191199437 -0.6960887238
19400183600.0 -0.7290165816 -0.6866173636
19450183300.0 -0.7372460225 -0.6768133482
19500183000.0 -0.7458398623 -0.6662009454
19550182700.0 -0.7552470758 -0.6557171564
19600182400.0 -0.7654773595 -0.6437558282
19650182100.0 -0.7762460101 -0.6317350007
19700181800.0 -0.7866941864 -0.6184167342
19750181500.0 -0.7970032787 -0.6041611481
19800181200.0 -0.8073891887 -0.5893463841
19850180900.0 -0.8169619109 -0.57417709
19900180600.0 -0.8246562302 -0.5598559669
19950180300.0 -0.8338450408 -0.5434181432
20000180000.0 -0.8233286678 -0.5468674732
20050179700.0 -0.8317889908 -0.5340654661
20100179400.0 -0.8405402578 -0.5216792561
20150179100.0 -0.8479845793 -0.5093853251
20200178800.0 -0.8564137415 -0.4979067971
20250178500.0 -0.8655781819 -0.4859824568
20300178200.0 -0.8748630166 -0.4713917911
20350177900.0 -0.8842125 -0.457839084
20400177600.0 -0.8935298652 -0.4437108499
20450177300.0 -0.9020442606 -0.4295601525
20500177000.0 -0.9098902233 -0.415375806
20550176700.0 -0.9176161891 -0.4018185969
20600176400.0 -0.9249864585 -0.3890257175
20650176100.0 -0.9309026553 -0.3764307807
20700175800.0 -0.938265463 -0.3651393896
20750175500.0 -0.9442485609 -0.3534312997
20800175200.0 -0.9488505949 -0.3417307094
20850174900.0 -0.953209162 -0.3312746211
20900174600.0 -0.9585912406 -0.3209882699
20950174300.0 -0.9611655941 -0.3099574964
21000174000.0 -0.9642430431 -0.2993311316
21050173700.0 -0.9653734856 -0.2897573724
21100173400.0 -0.9693532168 -0.279132666
21150173100.0 -0.9734314889 -0.2666347457
21200172800.0 -0.9768339419 -0.2536377111
21250172500.0 -0.9806078626 -0.2397079404
21300172200.0 -0.9841818034 -0.2257432602
21350171900.0 -0.985917583 -0.2113649542
21400171600.0 -0.9877737004 -0.1974112628
21450171300.0 -0.9886959205 -0.1840191401
21500171000.0 -0.9894376969 -0.1676708497
21550170700.0 -0.9902630963 -0.1526338172
21600170400.0 -0.9906701137 -0.1371708024
21650170100.0 -0.9911223261 -0.1220934562
21700169800.0 -0.9902858437 -0.106540621
21750169500.0 -0.9896757653 -0.0903445361
21800169200.0 -0.9907318214 -0.0740079621
21850168900.0 -0.989622618 -0.0575011365
21900168600.0 -0.9898456813 -0.0410283427
21950168300.0 -0.9891397473 -0.0251369627
22000168000.0 -0.989057356 -0.0102893824
22050167700.0 -0.9893606465 0.0043621458
22100167400.0 -0.9900947156 0.0203822972
22150167100.0 -0.9913084327 0.0358576341
22200166800.0 -0.9911061219 0.0527602858
22250166500.0 -0.9912412928 0.0694821282
22300166200.0 -0.9907971644 0.0863402718
22350165900.0 -0.989870804 0.1025167399
22400165600.0 -0.9872572419 0.1175378317
22450165300.0 -0.9857671766 0.1332694233
22500165000.0 -0.9847252348 0.1468099247
22550164700.0 -0.9833860034 0.1633655639
22600164400.0 -0.9814391572 0.179759802
22650164100.0 -0.977635239 0.1949376313
22700163800.0 -0.9752473586 0.2112424394
22750163500.0 -0.972244088 0.2262568558
22800163200.0 -0.9688415493 0.2391931673
22850162900.0 -0.966283752 0.2528205178
22900162600.0 -0.964475878 0.2670229516
22950162300.0 -0.9631635449 0.2805067174
23000162000.0 -0.960880797 0.292771829
23050161700.0 -0.9586439975 0.3067391393
23100161400.0 -0.9559844788 0.3200611451
23150161100.0 -0.9526583731 0.3328926551
23200160800.0 -0.9497840712 0.3461161489
23250160500.0 -0.946444515 0.3577251602
23300160200.0 -0.9439483917 0.3708491373
23350159900.0 -0.9402974528 0.3845648365
23400159600.0 -0.9347034537 0.3981909003
23450159300.0 -0.930169403 0.4115733845
23500159000.0 -0.9253272375 0.425582415
23550158700.0 -0.9198982767 0.4397348489
23600158400.0 -0.91402588 0.4537488013
23650158100.0 -0.9068471062 0.4683489068
23700157800.0 -0.8984621516 0.4826689235
23750157500.0 -0.8888540901 0.4968065866
23800157200.0 -0.8793602001 0.5106701242
23850156900.0 -0.8698350142 0.5228301032
23900156600.0 -0.8593450274 0.5362120358
23950156300.0 -0.8503425945 0.5490940132
24000156000.0 -0.8401370067 0.5611161104
24050155700.0 -0.8299187722 0.5727626214
24100155400.0 -0.8193421036 0.5853019453
24150155100.0 -0.8086113546 0.597628978
24200154800.0 -0.7976374341 0.609094578
24250154500.0 -0.786693991 0.6213865944
24300154200.0 -0.7748303458 0.6338156687
24350153900.0 -0.7628397423 0.6446407322
24400153600.0 -0.7503811 0.6553807766
24450153300.0 -0.7385427801 0.6655273302
24500153000.0 -0.726791474 0.6757210806
24550152700.0 -0.715623446 0.685500086
24600152400.0 -0.7038385597 0.6951019627
24650152100.0 -0.6908801283 0.7039237896
24700151800.0 -0.6803115724 0.7120134095
