!Created with skrf (http://scikit-rf.org).
# Hz S RI R 50.0 
!freq ReS11 ImS11
300000.0 -0.9715142683 -0.1213826959
50299700.0 -0.9999411835 0.0148910016
100299400.0 -0.9978083106 0.0277416359
150299100.0 -1.00265002 0.0446266153
200298800.0 -0.9994501034 0.0579914638
250298500.0 -0.9972106141 0.0714566
300298200.0 -0.9860137473 0.0872300586
350297900.0 -0.9940721543 0.0983800824
400297600.0 -0.9932152382 0.1148655418
450297300.0 -0.9910245068 0.1286595047
500297000.0 -0.9894308407 0.1434642644
550296700.0 -0.9842007378 0.1557672226
600296400.0 -1.017265965 0.1890346133
650296100.0 -0.9821909223 0.1857265684
700295800.0 -0.9791674988 0.1998831281
750295500.0 -0.9762435428 0.2140432688
800295200.0 -0.9730247765 0.2280582471
850294900.0 -0.9695865878 0.2417459589
900294600.0 -0.9658964283 0.2555478813
950294300.0 -0.9621226971 0.2691654005
1000294000.0 -0.9581132751 0.2831647154
1050293700.0 -0.9536413942 0.2970596548
1100293400.0 -0.9493138652 0.3114340926
1150293100.0 -0.945577164 0.3232751254
1200292800.0 -0.9402991101 0.337546642
1250292500.0 -0.9347853587 0.3510518715
1300292200.0 -0.9290847378 0.3643587888
1350291900.0 -0.9234499765 0.378265741
1400291600.0 -0.9179332258 0.3915115654
1450291300.0 -0.9124248712 0.4038772737
1500291000.0 -0.9061395998 0.4171549922
1550290700.0 -0.8997638852 0.4304621595
1600290400.0 -0.8935437721 0.4435300867
1650290100.0 -0.886788082 0.4555663751
1700289800.0 -0.8799435835 0.4693255168
1750289500.0 -0.8727905725 0.4813336892
1800289200.0 -0.8655722044 0.494266761
1850288900.0 -0.85887237 0.5055384989
1900288600.0 -0.8508449822 0.5187748262
1950288300.0 -0.8429146175 0.5311923222
2000288000.0 -0.835489742 0.5428749559
2050287700.0 -0.8272507299 0.5552314902
2100287400.0 -0.8194131514 0.5666411524
2150287100.0 -0.8108098095 0.5786131221
2200286800.0 -0.8031619372 0.5890311208
2250286500.0 -0.7940020415 0.6013590596
2300286200.0 -0.7853155919 0.6125910286
2350285900.0 -0.7769590116 0.6234345412
2400285600.0 -0.7680882157 0.634306217
2450285300.0 -0.7591786937 0.6450422878
2500285000.0 -0.7492857674 0.6564776717
2550284700.0 -0.7401782785 0.6669616785
2600284400.0 -0.7312312435 0.6767085996
2650284100.0 -0.7222585093 0.6868697008
2700283800.0 -0.7121481221 0.6972982687
2750283500.0 -0.7017647908 0.708292379
2800283200.0 -0.6917625291 0.7182337387
2850282900.0 -0.6810906555 0.7279927321
2900282600.0 -0.6706802058 0.7377920253
2950282300.0 -0.6604066084 0.7471569636
3000282000.0 -0.6496046875 0.7565680887
3050281700.0 -0.6383949686 0.7658639013
3100281400.0 -0.6269307858 0.7749363214
3150281100.0 -0.6157474403 0.7837940295
3200280800.0 -0.604272761 0.7922452353
3250280500.0 -0.5931071588 0.800172597
3300280200.0 -0.5815660273 0.8084635563
3350279900.0 -0.5694527949 0.8164112606
3400279600.0 -0.5567957422 0.8244281021
3450279300.0 -0.5457487162 0.8316202353
3500279000.0 -0.5338097439 0.8382887043
3550278700.0 -0.5216075687 0.8456566522
3600278400.0 -0.5100194407 0.8524767227
3650278100.0 -0.4969031369 0.8596596278
3700277800.0 -0.4846854778 0.866185568
3750277500.0 -0.4723378236 0.8729261394
3800277200.0 -0.4597604647 0.8794918945
3850276900.0 -0.4479426221 0.8855729071
3900276600.0 -0.4370665134 0.8911645269
3950276300.0 -0.4247604009 0.8973294759
4000276000.0 -0.4133148895 0.9029623139
4050275700.0 -0.4005777789 0.9092243906
4100275400.0 -0.3893448387 0.9144541515
4150275100.0 -0.3762363571 0.920477275
4200274800.0 -0.3627254716 0.926229772
4250274500.0 -0.3502454597 0.9311700731
4300274200.0 -0.336917313 0.9366925346
4350273900.0 -0.3226421263 0.9422480927
4400273600.0 -0.3080568206 0.9469493202
4450273300.0 -0.2928967352 0.9522462294
4500273000.0 -0.2798451086 0.9562496845
4550272700.0 -0.2662175478 0.9604346374
4600272400.0 -0.251297777 0.9646111448
4650272100.0 -0.2398636797 0.9678022795
4700271800.0 -0.2269754384 0.971106061
4750271500.0 -0.2152629 0.9739128142
4800271200.0 -0.2029299331 0.9766745709
4850270900.0 -0.1892482627 0.9795106617
4900270600.0 -0.1755397396 0.9818596574
4950270300.0 -0.1610048015 0.9844612289
5000270000.0 -0.1463982634 0.9868097703
5050269700.0 -0.1329109835 0.9881306237
5100269400.0 -0.1188896432 0.990225578
5150269100.0 -0.1046779268 0.9918279373
5200268800.0 -0.0914905039 0.9930590556
5250268500.0 -0.0783862895 0.9936336784
5300268200.0 -0.0646313866 0.9944871589
5350267900.0 -0.051975283 0.9953073201
5400267600.0 -0.0357923356 0.9962111718
5450267300.0 -0.0223644759 0.9964326666
5500267000.0 -0.0072783407 0.9970366696
5550266700.0 0.0078740931 0.9971672928
5600266400.0 0.0238038671 0.9971183619
5650266100.0 0.0402065235 0.9967791896
5700265800.0 0.0546158742 0.9959435949
5750265500.0 0.0695993665 0.9954618244
5800265200.0 0.083052743 0.9943827057
5850264900.0 0.096050335 0.9931746164
5900264600.0 0.1124742265 0.9911490266
5950264300.0 0.1242429086 0.9901168897
6000264000.0 0.1377184439 0.9874383949
6050263700.0 0.1494798668 0.9868677032
6100263400.0 0.1615822036 0.9849069724
6150263100.0 0.1764216731 0.9826303526
6200262800.0 0.1861697961 0.9809803283
6250262500.0 0.1985685736 0.9787615043
6300262200.0 0.2108999191 0.9761717324
6350261900.0 0.2237070423 0.9734885531
6400261600.0 0.2376982486 0.9703437027
6450261300.0 0.2484732193 0.9677158507
6500261000.0 0.2618273028 0.9638697581
6550260700.0 0.2751563788 0.9602562383
6600260400.0 0.2885728097 0.9560124584
6650260100.0 0.3025740315 0.9516773883
6700259800.0 0.3149990025 0.947350509
6750259500.0 0.3284071506 0.9423093415
6800259200.0 0.3419423782 0.9372805681
6850258900.0 0.3543682347 0.9321315689
6900258600.0 0.3670993876 0.9269958217
6950258300.0 0.3794879465 0.9215055741
7000258000.0 0.3910241813 0.9162113834
7050257700.0 0.4030051186 0.9106901997
7100257400.0 0.4163833634 0.9039341235
7150257100.0 0.4270698659 0.8987172421
7200256800.0 0.4403689536 0.8921178033
7250256500.0 0.4523938147 0.8855941466
7300256200.0 0.4655561728 0.8789492833
7350255900.0 0.4784392832 0.8720264532
7400255600.0 0.4927321802 0.863929688
7450255300.0 0.5083178982 0.854998732
7500255000.0 0.5208143109 0.847642682
7550254700.0 0.5349685401 0.8386909826
7600254400.0 0.5472517754 0.8300855771
7650254100.0 0.5591985855 0.8222076395
7700253800.0 0.5704436705 0.8140566273
7750253500.0 0.5815307961 0.8064286802
7800253200.0 0.5923358125 0.7986761767
7850252900.0 0.6020872868 0.7913297842
7900252600.0 0.6135917725 0.782759379
7950252300.0 0.6220402274 0.7764796439
8000252000.0 0.6319380246 0.7688758751
8050251700.0 0.6424009612 0.7609017366
8100251400.0 0.6524239598 0.752661408
8150251100.0 0.6623892199 0.7443830904
8200250800.0 0.6721304653 0.7359498122
8250250500.0 0.6807841621 0.7283200664
8300250200.0 0.6896105962 0.719912136
8350249900.0 0.6989286867 0.7108650751
8400249600.0 0.7072174853 0.7031415965
8450249300.0 0.7160057575 0.694243376
8500249000.0 0.7243259399 0.6853579731
8550248700.0 0.7324153889 0.6763637739
8600248400.0 0.7409326131 0.6668034851
8650248100.0 0.7484479486 0.6577503563
8700247800.0 0.7578424612 0.6464570987
8750247500.0 0.7661221466 0.63626749
8800247200.0 0.7740906417 0.6261755013
8850246900.0 0.7825891404 0.6145001744
8900246600.0 0.7912735173 0.6031356545
8950246300.0 0.8004498145 0.5905614431
9000246000.0 0.8089194019 0.5787346418
9050245700.0 0.8175905511 0.5663424699
9100245400.0 0.826185136 0.5542265357
9150245100.0 0.8345447777 0.5414436538
9200244800.0 0.844235105 0.527100841
9250244500.0 0.8532854318 0.5121371409
9300244200.0 0.8612908161 0.4986556507
9350243900.0 0.8688390427 0.4855752149
9400243600.0 0.8754293117 0.4737908349
9450243300.0 0.8810527815 0.4633092298
9500243000.0 0.8872121983 0.451653972
9550242700.0 0.8912936254 0.4442843667
9600242400.0 0.895472726 0.436704472
9650242100.0 0.8998262027 0.4294962316
9700241800.0 0.9047985174 0.421060002
9750241500.0 0.9090511597 0.4133819815
9800241200.0 0.9140310114 0.4040078142
9850240900.0 0.919942072 0.392052778
9900240600.0 0.9259356111 0.3803819715
9950240300.0 0.9327618102 0.3635223156
10000240000.0 0.9380161544 0.3513290515
10050239700.0 0.9436804989 0.3354207035
10100239400.0 0.9497080816 0.3190926215
10150239100.0 0.9538202967 0.303769815
10200238800.0 0.9582144974 0.2881873615
10250238500.0 0.961604096 0.2746004602
10300238200.0 0.9643929388 0.2606117502
10350237900.0 0.9673434293 0.2472692652
10400237600.0 0.970081231 0.2336157519
10450237300.0 0.9727392307 0.219982589
10500237000.0 0.974815619 0.2075258157
10550236700.0 0.9773975366 0.1930673408
10600236400.0 0.9791127881 0.1799765463
10650236100.0 0.9815678318 0.1650435417
10700235800.0 0.9837518041 0.1524885178
10750235500.0 0.9858117008 0.1389157694
10800235200.0 0.987874478 0.1246692511
10850234900.0 0.9897311334 0.1096058936
10900234600.0 0.9919999027 0.0948673335
10950234300.0 0.9937197764 0.0811953615
11000234000.0 0.9955959199 0.0657554873
11050233700.0 0.9974522628 0.0490077002
11100233400.0 0.9990645348 0.0311812966
11150233100.0 1.000037591 0.0143905404
11200232800.0 1.000859849 -0.0018554044
11250232500.0 1.001894311 -0.0191382358
11300232200.0 1.00238006 -0.03756605
11350231900.0 1.002217932 -0.0533346367
11400231600.0 1.001652907 -0.0701526121
11450231300.0 1.001315336 -0.085120498
11500231000.0 1.000106786 -0.1011314968
11550230700.0 0.9981789943 -0.114559972
11600230400.0 0.9970519619 -0.1267243832
11650230100.0 0.9948194629 -0.1391511196
11700229800.0 0.9927329116 -0.153835883
11750229500.0 0.9903585757 -0.1679653828
11800229200.0 0.987483866 -0.1812851365
11850228900.0 0.9835318093 -0.1933148254
11900228600.0 0.979843102 -0.2028219079
11950228300.0 0.9765663234 -0.2125580993
12000228000.0 0.973851023 -0.221639659
12050227700.0 0.9703130041 -0.2333743941
12100227400.0 0.9668520617 -0.2456767138
12150227100.0 0.9621501545 -0.2618054471
12200226800.0 0.9584522279 -0.2730265296
12250226500.0 0.9540443951 -0.2858112839
12300226200.0 0.9494915878 -0.2984990893
12350225900.0 0.9450678685 -0.3118084139
12400225600.0 0.9403752281 -0.3243378831
12450225300.0 0.9360827901 -0.3373214847
12500225000.0 0.9303991949 -0.3514175191
12550224700.0 0.9248253493 -0.3655946682
12600224400.0 0.9199801166 -0.377965357
12650224100.0 0.9142338451 -0.3923661195
12700223800.0 0.9089529312 -0.405187131
12750223500.0 0.903444276 -0.4182701483
12800223200.0 0.8982815066 -0.4306614994
12850222900.0 0.8927664698 -0.443331504
12900222600.0 0.8873829964 -0.4551433724
12950222300.0 0.8810270622 -0.4678190314
13000222000.0 0.8750414319 -0.4797866721
13050221700.0 0.8685478894 -0.4919921988
13100221400.0 0.8613758477 -0.504425015
13150221100.0 0.8550652362 -0.5167254911
13200220800.0 0.8478144572 -0.5277359308
13250220500.0 0.840592184 -0.5399781061
13300220200.0 0.8329920221 -0.5510773534
13350219900.0 0.8249014251 -0.563025028
13400219600.0 0.8165387522 -0.574683011
13450219300.0 0.8071932149 -0.5879038594
13500219000.0 0.7974094783 -0.6009565403
13550218700.0 0.7875252897 -0.6133742561
13600218400.0 0.7772338817 -0.6249830387
13650218100.0 0.7685313715 -0.6356404408
13700217800.0 0.7570611599 -0.647461859
13750217500.0 0.7467363759 -0.6591581709
13800217200.0 0.7367166508 -0.6699456734
13850216900.0 0.7258203316 -0.6814390278
13900216600.0 0.7157175879 -0.6903649502
13950216300.0 0.7045660167 -0.7002844182
14000216000.0 0.6957073381 -0.7090449764
14050215700.0 0.6861217634 -0.7176033456
14100215400.0 0.6770263547 -0.7258122336
14150215100.0 0.6677405225 -0.735075812
14200214800.0 0.6580931953 -0.7437586319
14250214500.0 0.647778765 -0.7534005382
14300214200.0 0.637146297 -0.7628760832
14350213900.0 0.6261893152 -0.7724546564
14400213600.0 0.614271825 -0.7822107107
14450213300.0 0.6012388153 -0.7920321549
14500213000.0 0.5885835012 -0.8023363984
14550212700.0 0.576246103 -0.8116938128
14600212400.0 0.5634294891 -0.8205729254
14650212100.0 0.5510630125 -0.8289158597
14700211800.0 0.5372013039 -0.8384866121
14750211500.0 0.5252009118 -0.846934567
14800211200.0 0.5127024323 -0.8552020218
14850210900.0 0.5004032405 -0.8628679117
14900210600.0 0.486955919 -0.870814467
14950210300.0 0.4737309891 -0.8784278983
15000210000.0 0.4610356353 -0.8850258951
15050209700.0 0.4488736619 -0.8910685971
15100209400.0 0.4361867603 -0.8969967895
15150209100.0 0.4237852763 -0.9025337908
15200208800.0 0.4109597121 -0.9080957551
15250208500.0 0.4002817837 -0.9126358107
15300208200.0 0.3881745944 -0.9169453461
15350207900.0 0.3751204187 -0.9216325985
15400207600.0 0.3599897314 -0.9278919048
15450207300.0 0.3450234804 -0.932000945
15500207000.0 0.3312016009 -0.936971188
15550206700.0 0.3164955561 -0.9417561776
15600206400.0 0.3003515825 -0.9469603503
15650206100.0 0.28446778 -0.9506277234
15700205800.0 0.2705503032 -0.9543306394
15750205500.0 0.2564968617 -0.9576506799
15800205200.0 0.2427473184 -0.9609950394
15850204900.0 0.2285833785 -0.964534475
15900204600.0 0.2134765635 -0.9682894331
15950204300.0 0.1994383386 -0.9715753579
16000204000.0 0.1849481506 -0.9744593216
16050203700.0 0.1696837799 -0.977291869
16100203400.0 0.1549548753 -0.9796944383
16150203100.0 0.1400491144 -0.9817923744
16200202800.0 0.1258436322 -0.9842645843
16250202500.0 0.1111645133 -0.9859613445
16300202200.0 0.0951701216 -0.9877107178
16350201900.0 0.0804920734 -0.9890226105
16400201600.0 0.0657823647 -0.9897792421
16450201300.0 0.0502552318 -0.9910546442
16500201000.0 0.0332457743 -0.9921896645
16550200700.0 0.0170611381 -0.9924011278
16600200400.0 0.0012218699 -0.9925114367
16650200100.0 -0.0147504534 -0.9924971892
16700199800.0 -0.0309272854 -0.9921246314
16750199500.0 -0.0502907376 -0.9914202288
16800199200.0 -0.0660159189 -0.9902998182
16850198900.0 -0.0817819595 -0.9891564374
16900198600.0 -0.096117609 -0.9885018145
16950198300.0 -0.1094568744 -0.9870831465
17000198000.0 -0.1226363779 -0.9866231503
17050197700.0 -0.135655074 -0.9841096129
17100197400.0 -0.1485438012 -0.9816623636
17150197100.0 -0.1609200429 -0.9801033073
17200196800.0 -0.1739118482 -0.9778798402
17250196500.0 -0.1868347978 -0.9754858996
17300196200.0 -0.1988893312 -0.9729801234
17350195900.0 -0.2108546626 -0.9708448701
17400195600.0 -0.22274328 -0.9682271487
17450195300.0 -0.2356533272 -0.9654528455
17500195000.0 -0.2488357488 -0.9618655398
17550194700.0 -0.2625630468 -0.9585942132
17600194400.0 -0.2763206829 -0.9548207127
17650194100.0 -0.289882045 -0.9503536107
17700193800.0 -0.3028398118 -0.9462675328
17750193500.0 -0.3172745269 -0.9416563314
17800193200.0 -0.3315074123 -0.9366852798
17850192900.0 -0.346394181 -0.931338911
17900192600.0 -0.3613670013 -0.9252679361
17950192300.0 -0.3769005541 -0.9180471877
18000192000.0 -0.3916281016 -0.9108448003
18050191700.0 -0.40539305 -0.903033503
18100191400.0 -0.419650356 -0.8952359939
18150191100.0 -0.4343794077 -0.887264774
18200190800.0 -0.4513736757 -0.878127577
18250190500.0 -0.4683177601 -0.8686843012
18300190200.0 -0.4840107851 -0.8599021262
18350189900.0 -0.498722519 -0.851920952
18400189600.0 -0.5136992072 -0.8428638753
18450189300.0 -0.5271334521 -0.8350785923
18500189000.0 -0.5402129108 -0.8263395774
18550188700.0 -0.552994257 -0.8194672709
18600188400.0 -0.5647647138 -0.812609097
18650188100.0 -0.5762387228 -0.8058297536
18700187800.0 -0.5877132251 -0.7994177898
18750187500.0 -0.5981860013 -0.7926493674
18800187200.0 -0.6089061377 -0.7856222635
18850186900.0 -0.6191148873 -0.7787942942
18900186600.0 -0.6294260491 -0.7712677242
18950186300.0 -0.6396415653 -0.7634732472
19000186000.0 -0.647232528 -0.7574629233
19050185700.0 -0.6567519232 -0.7501404749
19100185400.0 -0.666529013 -0.7420766112
19150185100.0 -0.6764987029 -0.733153167
19200184800.0 -0.6856519592 -0.7254280184
19250184500.0 -0.6963753153 -0.715836732
19300184200.0 -0.7074981796 -0.7066092153
19350183900.0 -0.718179576 -0.6968895567
19400183600.0 -0.7284075082 -0.6866713591
19450183300.0 -0.7374752157 -0.6766419672
19500183000.0 -0.7460751456 -0.6666699934
19550182700.0 -0.7551834494 -0.6557242959
19600182400.0 -0.7656671022 -0.6441095708
19650182100.0 -0.7763286786 -0.6319894063
19700181800.0 -0.7864878902 -0.6187415006
19750181500.0 -0.7966875501 -0.60476983
19800181200.0 -0.8068547228 -0.589877789
19850180900.0 -0.8164154429 -0.5745373197
19900180600.0 -0.8239805576 -0.5600914789
19950180300.0 -0.8333776478 -0.5438573833
20000180000.0 -0.8234968356 -0.547376855
20050179700.0 -0.8309887018 -0.5355160661
20100179400.0 -0.8392082016 -0.521733818
20150179100.0 -0.8475527684 -0.5100270838
20200178800.0 -0.8561624017 -0.4984466448
20250178500.0 -0.865771076 -0.4860492265
20300178200.0 -0.8749101762 -0.4720181682
20350177900.0 -0.8840633348 -0.4580310949
20400177600.0 -0.8935161606 -0.4441327642
20450177300.0 -0.9018188197 -0.42994615
20500177000.0 -0.9100718232 -0.4155367688
20550176700.0 -0.9179344908 -0.4018610136
20600176400.0 -0.9248452586 -0.3893664436
20650176100.0 -0.9311928351 -0.3770407138
20700175800.0 -0.9380308218 -0.3654467847
20750175500.0 -0.943700818 -0.3538052961
20800175200.0 -0.9482337212 -0.3426561922
20850174900.0 -0.9532976922 -0.332268685
20900174600.0 -0.9573736866 -0.3218473589
20950174300.0 -0.9610973894 -0.3103311199
21000174000.0 -0.9634590427 -0.2991759681
21050173700.0 -0.9648560304 -0.2890547436
21100173400.0 -0.96963203 -0.2789274283
21150173100.0 -0.9730954413 -0.2668379348
21200172800.0 -0.9764381377 -0.2536264766
21250172500.0 -0.9800022416 -0.2401577786
21300172200.0 -0.9837437386 -0.22605949
21350171900.0 -0.9860927699 -0.2120267586
21400171600.0 -0.9878972675 -0.1978758624
21450171300.0 -0.9883783635 -0.1836055877
21500171000.0 -0.9892634126 -0.1684684671
21550170700.0 -0.9898097267 -0.1527282072
21600170400.0 -0.9894740162 -0.1382980271
21650170100.0 -0.9910827022 -0.1228690009
21700169800.0 -0.9896777273 -0.1071112383
21750169500.0 -0.9896690183 -0.0910087838
21800169200.0 -0.989782382 -0.0741851926
21850168900.0 -0.9889282559 -0.0571248555
21900168600.0 -0.9895116582 -0.0409911408
21950168300.0 -0.9891719386 -0.0258235527
22000168000.0 -0.9883874347 -0.010229139
22050167700.0 -0.9898197364 0.0035961125
22100167400.0 -0.9905782961 0.0199831116
22150167100.0 -0.9909999327 0.0360670253
22200166800.0 -0.9916681161 0.0519521431
22250166500.0 -0.9908096684 0.0697137048
22300166200.0 -0.9907996301 0.086424225
22350165900.0 -0.9901857659 0.1022738291
22400165600.0 -0.9880814123 0.1186022349
22450165300.0 -0.9866896793 0.1329377381
22500165000.0 -0.985163846 0.1468814478
22550164700.0 -0.9838271163 0.1630663492
22600164400.0 -0.9813880662 0.1800488177
22650164100.0 -0.9785890793 0.1950466371
22700163800.0 -0.9745672751 0.2111760463
22750163500.0 -0.9726998253 0.2259172642
22800163200.0 -0.9694242773 0.2388621991
22850162900.0 -0.966429543 0.2522638935
22900162600.0 -0.9647659648 0.2662733208
22950162300.0 -0.9628509895 0.2800118143
23000162000.0 -0.9610569642 0.2927319177
23050161700.0 -0.958701171 0.3056968025
23100161400.0 -0.9554630492 0.3195440372
23150161100.0 -0.952687321 0.3331154791
23200160800.0 -0.9487419427 0.345811082
23250160500.0 -0.9465248986 0.3578987039
23300160200.0 -0.9435586896 0.3700341302
23350159900.0 -0.9399538534 0.3847665566
23400159600.0 -0.9344483099 0.3981015841
23450159300.0 -0.9302438539 0.4115347571
23500159000.0 -0.9256814683 0.4253488061
23550158700.0 -0.9200429501 0.4394081768
23600158400.0 -0.9139780058 0.453691679
23650158100.0 -0.9070971247 0.4684795943
23700157800.0 -0.8986849866 0.4825729649
23750157500.0 -0.8892130115 0.4965402439
23800157200.0 -0.8795149061 0.5103610275
23850156900.0 -0.86966708 0.5231113534
23900156600.0 -0.8598904856 0.535781364
23950156300.0 -0.8502283614 0.5479209168
24000156000.0 -0.8408789797 0.5607780765
24050155700.0 -0.8306663997 0.573363957
24100155400.0 -0.8192040887 0.5852715688
24150155100.0 -0.8087274291 0.5976021632
24200154800.0 -0.7978979245 0.6091365044
24250154500.0 -0.7864616955 0.6211313672
24300154200.0 -0.7749434896 0.6333296598
24350153900.0 -0.7630946257 0.6448476633
24400153600.0 -0.7504662721 0.6552372346
24450153300.0 -0.7383943967 0.6653395514
24500153000.0 -0.7271003948 0.6756143779
24550152700.0 -0.7151715455 0.6860313928
24600152400.0 -0.7031568732 0.6946623534
24650152100.0 -0.6911059975 0.7036004955
24700151800.0 -0.6795493222 0.7116283724
