!Created with skrf (http://scikit-rf.org).
# Hz S RI R 50.0 
!freq ReS11 ImS11
300000.0 -0.9730326935 -0.1182978801
50299700.0 -0.9999430363 0.0150446823
100299400.0 -0.9979009183 0.0280477235
150299100.0 -1.002757192 0.0448209574
200298800.0 -0.9996352225 0.058087981
250298500.0 -0.9973110944 0.0716205657
300298200.0 -0.9860577968 0.0875102152
350297900.0 -0.9939485539 0.0985496718
400297600.0 -0.9931269324 0.1148389061
450297300.0 -0.9909840249 0.1286343473
500297000.0 -0.9894774498 0.1434507706
550296700.0 -0.9842965548 0.1558613526
600296400.0 -1.017156525 0.189236104
650296100.0 -0.9822091573 0.185698408
700295800.0 -0.9792713896 0.2000272105
750295500.0 -0.9762563829 0.214118863
800295200.0 -0.972894727 0.2282936126
850294900.0 -0.9695482932 0.2420689735
900294600.0 -0.9657623909 0.2556215951
950294300.0 -0.9620461734 0.2693439251
1000294000.0 -0.9580445711 0.2833086334
1050293700.0 -0.9534932864 0.2972747064
1100293400.0 -0.9494763554 0.3115222108
1150293100.0 -0.9454004964 0.3233654564
1200292800.0 -0.940093214 0.3376959621
1250292500.0 -0.9346911299 0.351230575
1300292200.0 -0.9290293062 0.3645048333
1350291900.0 -0.923442962 0.3784982384
1400291600.0 -0.9178623355 0.3917163835
1450291300.0 -0.9125583791 0.403944659
1500291000.0 -0.9061620356 0.4174953247
1550290700.0 -0.8995860068 0.430702158
1600290400.0 -0.893489721 0.4435704065
1650290100.0 -0.8866845862 0.4558012987
1700289800.0 -0.8798125603 0.4691864672
1750289500.0 -0.8728971018 0.4816299456
1800289200.0 -0.8655747662 0.4945601724
1850288900.0 -0.8586391651 0.5057141599
1900288600.0 -0.8509690552 0.5188394656
1950288300.0 -0.8429050218 0.5314933207
2000288000.0 -0.835212606 0.5428634266
2050287700.0 -0.827196972 0.5551053123
2100287400.0 -0.8194485579 0.5666566898
2150287100.0 -0.81075572 0.5786942094
2200286800.0 -0.8030604484 0.5890965496
2250286500.0 -0.7939701386 0.6013450055
2300286200.0 -0.7853006249 0.6128923223
2350285900.0 -0.7766570384 0.6236287942
2400285600.0 -0.7678245562 0.6344028993
2450285300.0 -0.759230063 0.6452675951
2500285000.0 -0.7492587476 0.65669032
2550284700.0 -0.7402422915 0.6671740474
2600284400.0 -0.7309670478 0.6769806419
2650284100.0 -0.7222324211 0.6872838425
2700283800.0 -0.7119990985 0.6977772592
2750283500.0 -0.7016537722 0.7086179992
2800283200.0 -0.6915448294 0.7177538358
2850282900.0 -0.6812403582 0.7282952247
2900282600.0 -0.6707173774 0.7379022897
2950282300.0 -0.6605023195 0.7471494719
3000282000.0 -0.6496458255 0.7568187696
3050281700.0 -0.6384233574 0.7659611231
3100281400.0 -0.6267657864 0.7750859262
3150281100.0 -0.6153379898 0.7841177625
3200280800.0 -0.6039462473 0.7926013725
3250280500.0 -0.5929889518 0.8004300837
3300280200.0 -0.5814908087 0.8083901894
3350279900.0 -0.5693048439 0.8164582452
3400279600.0 -0.5568697739 0.8243832611
3450279300.0 -0.5459599953 0.8316312111
3500279000.0 -0.5340505526 0.8383128657
3550278700.0 -0.5218855623 0.8455944117
3600278400.0 -0.5099577987 0.8523633948
3650278100.0 -0.4967262956 0.8599465081
3700277800.0 -0.4848206151 0.8664144518
3750277500.0 -0.4723442698 0.8732007058
3800277200.0 -0.459786359 0.8797233847
3850276900.0 -0.4477273858 0.8855115402
3900276600.0 -0.4368686855 0.8911163061
3950276300.0 -0.4246645037 0.8971041294
4000276000.0 -0.4130877737 0.903072517
4050275700.0 -0.4004420027 0.9089994258
4100275400.0 -0.3891035303 0.9144045056
4150275100.0 -0.3759893986 0.9205586721
4200274800.0 -0.3626879595 0.9262343595
4250274500.0 -0.3501415204 0.9314134469
4300274200.0 -0.3371560261 0.9368429249
4350273900.0 -0.3230373881 0.9420232739
4400273600.0 -0.3082949266 0.9472913081
4450273300.0 -0.2931361766 0.9523065443
4500273000.0 -0.2798741581 0.9563604901
4550272700.0 -0.2661955179 0.9604588616
4600272400.0 -0.2510094002 0.964769075
4650272100.0 -0.2394117906 0.9680647968
4700271800.0 -0.2263737561 0.9710965808
4750271500.0 -0.2146647758 0.973940591
4800271200.0 -0.2024116113 0.9766957384
4850270900.0 -0.1886566123 0.9795465031
4900270600.0 -0.1749596224 0.9819895647
4950270300.0 -0.1602782441 0.9847827049
5000270000.0 -0.1460390371 0.9869117648
5050269700.0 -0.1322896061 0.9885055759
5100269400.0 -0.1185374941 0.9900793258
5150269100.0 -0.104480575 0.9918939365
5200268800.0 -0.0912289328 0.9925359484
5250268500.0 -0.078183398 0.9939233869
5300268200.0 -0.0646807294 0.9944157093
5350267900.0 -0.0520318969 0.9951373379
5400267600.0 -0.0355663855 0.9962127368
5450267300.0 -0.0224743034 0.9964445146
5500267000.0 -0.0073265207 0.9968663206
5550266700.0 0.0076908225 0.9971731392
5600266400.0 0.0233350003 0.9972110118
5650266100.0 0.0397586164 0.9968422414
5700265800.0 0.0544604446 0.996032594
5750265500.0 0.0695624876 0.9955534594
5800265200.0 0.0826706485 0.9939519584
5850264900.0 0.096143499 0.9931324814
5900264600.0 0.1128420402 0.9911937613
5950264300.0 0.1242590109 0.989611758
6000264000.0 0.1382016809 0.9881964099
6050263700.0 0.1499964155 0.9866555187
6100263400.0 0.1620349554 0.9851436888
6150263100.0 0.176746222 0.9827191324
6200262800.0 0.1864899731 0.9808716285
6250262500.0 0.1993090777 0.9787243734
6300262200.0 0.2116368776 0.9761037307
6350261900.0 0.2245173149 0.9732589134
6400261600.0 0.2383438404 0.9699556771
6450261300.0 0.2494544884 0.9673703948
6500261000.0 0.2624957625 0.9639345774
6550260700.0 0.2757364265 0.959569433
6600260400.0 0.2888946931 0.9557520297
6650260100.0 0.3033565826 0.951376767
6700259800.0 0.3152752672 0.9470335529
6750259500.0 0.3291178601 0.9422071913
6800259200.0 0.3424901231 0.9369755696
6850258900.0 0.3548326215 0.9317735688
6900258600.0 0.3674687009 0.926826001
6950258300.0 0.3797875266 0.9212887835
7000258000.0 0.3915886231 0.9159838752
7050257700.0 0.403704331 0.9102001343
7100257400.0 0.4168755713 0.9040115236
7150257100.0 0.4275642281 0.8984583096
7200256800.0 0.4403776258 0.8920380243
7250256500.0 0.452965488 0.8854088395
7300256200.0 0.4659346714 0.8787863466
7350255900.0 0.4784894785 0.8717195555
7400255600.0 0.4925168871 0.8642447376
7450255300.0 0.5080128427 0.8553090537
7500255000.0 0.5201689824 0.8476882691
7550254700.0 0.5340933688 0.8388027261
7600254400.0 0.5467534586 0.8307217495
7650254100.0 0.5584503996 0.8227753936
7700253800.0 0.5701195592 0.814542234
7750253500.0 0.5811152845 0.8070841369
7800253200.0 0.5918505007 0.7992739335
7850252900.0 0.6013658818 0.791912776
7900252600.0 0.6129320212 0.7834151776
7950252300.0 0.6215495371 0.7769200229
8000252000.0 0.6315318348 0.7693129565
8050251700.0 0.6420475447 0.7611205062
8100251400.0 0.6518803602 0.7531009259
8150251100.0 0.6620122556 0.7445763474
8200250800.0 0.671610252 0.7365424993
8250250500.0 0.6802399902 0.7285882574
8300250200.0 0.6894761605 0.7202021654
8350249900.0 0.6984482057 0.7113222338
8400249600.0 0.7068242403 0.7033377175
8450249300.0 0.7154658816 0.6944926338
8500249000.0 0.7244003928 0.6856147556
8550248700.0 0.7323061739 0.6766676062
8600248400.0 0.7409055555 0.6671233046
8650248100.0 0.7485348053 0.6576243223
8700247800.0 0.7579456282 0.6464743113
8750247500.0 0.7663557362 0.6363945261
8800247200.0 0.7739379068 0.6261535213
8850246900.0 0.7830232458 0.6146174558
8900246600.0 0.7912696813 0.6032379493
8950246300.0 0.8009119707 0.590601877
9000246000.0 0.8098219699 0.578518537
9050245700.0 0.8180945218 0.5660022937
9100245400.0 0.8264662773 0.55383456
9150245100.0 0.8355903214 0.540719332
9200244800.0 0.8449777094 0.5262706729
9250244500.0 0.853998506 0.5112576764
9300244200.0 0.8621543962 0.497367377
9350243900.0 0.870142915 0.4839887336
9400243600.0 0.8766900025 0.4720910567
9450243300.0 0.8822813938 0.4615055
9500243000.0 0.8883535952 0.4494585798
9550242700.0 0.892352554 0.4420437232
9600242400.0 0.8969423306 0.4343620364
9650242100.0 0.9004392907 0.4276711722
9700241800.0 0.9055733023 0.4191440989
9750241500.0 0.9097282406 0.4114732027
9800241200.0 0.9145198257 0.4019612296
9850240900.0 0.9205323667 0.3902456854
9900240600.0 0.9262322897 0.3785602033
9950240300.0 0.9331639708 0.3619358673
10000240000.0 0.9385619442 0.3497834962
10050239700.0 0.944311812 0.3341990534
10100239400.0 0.9492353487 0.3180548223
10150239100.0 0.9540838255 0.3027730346
10200238800.0 0.9580288854 0.2873818007
10250238500.0 0.9614223315 0.2739793918
10300238200.0 0.9646472492 0.260225612
10350237900.0 0.9673760344 0.2467149878
10400237600.0 0.9700426464 0.2330254571
10450237300.0 0.9725497538 0.220087777
10500237000.0 0.9749165633 0.2073219241
10550236700.0 0.977298526 0.1926786477
10600236400.0 0.9793153407 0.1787186729
10650236100.0 0.9812908433 0.1644683142
10700235800.0 0.9837282707 0.1523898629
10750235500.0 0.9856871509 0.1387913932
10800235200.0 0.9880300599 0.1248254711
10850234900.0 0.9898956494 0.1095198456
10900234600.0 0.9919297819 0.0949534515
10950234300.0 0.9936281079 0.0815448012
11000234000.0 0.9955146403 0.065965887
11050233700.0 0.9971762867 0.0494004109
11100233400.0 0.9986501034 0.0316431342
11150233100.0 1.000063467 0.0153124022
11200232800.0 1.000783713 -0.0007724137
11250232500.0 1.001644563 -0.0182227799
11300232200.0 1.001934444 -0.0362487437
11350231900.0 1.001610708 -0.0521085853
11400231600.0 1.001441176 -0.068316798
11450231300.0 1.000921643 -0.0832131124
11500231000.0 1.000079199 -0.0995470659
11550230700.0 0.9981817121 -0.1123437174
11600230400.0 0.9972280182 -0.1261389331
11650230100.0 0.9947989339 -0.136880905
11700229800.0 0.9930262106 -0.1522247937
11750229500.0 0.9906157872 -0.1665966292
11800229200.0 0.9876198592 -0.1800173381
11850228900.0 0.9838156788 -0.1918922516
11900228600.0 0.980327189 -0.201499302
11950228300.0 0.9770374047 -0.2111816689
12000228000.0 0.9741533047 -0.2204472044
12050227700.0 0.9703554507 -0.2334017692
12100227400.0 0.9667364974 -0.2444136393
12150227100.0 0.9622074385 -0.2612895652
12200226800.0 0.9586674635 -0.2717528228
12250226500.0 0.9550323213 -0.2845286648
12300226200.0 0.9499146414 -0.2974414369
12350225900.0 0.9449765328 -0.3106422348
12400225600.0 0.940518949 -0.323510861
12450225300.0 0.936619706 -0.336237139
12500225000.0 0.9309414978 -0.3507477945
12550224700.0 0.9253761082 -0.3647939202
12600224400.0 0.9205901979 -0.3772759288
12650224100.0 0.9146732374 -0.391688474
12700223800.0 0.90935331 -0.4043318055
12750223500.0 0.9040069624 -0.4174260781
12800223200.0 0.8986476077 -0.4300990595
12850222900.0 0.8936015715 -0.4420832641
12900222600.0 0.8877228442 -0.4543260557
12950222300.0 0.881650855 -0.4668779162
13000222000.0 0.875747634 -0.4786832913
13050221700.0 0.8691898106 -0.4908316862
13100221400.0 0.8623772846 -0.5033285911
13150221100.0 0.8552942372 -0.5157477245
13200220800.0 0.8482689115 -0.5270795522
13250220500.0 0.8408467763 -0.5396023447
13300220200.0 0.8335681663 -0.5501036357
13350219900.0 0.8254121146 -0.5620719796
13400219600.0 0.8168425068 -0.5741842166
13450219300.0 0.8078772406 -0.5871291699
13500219000.0 0.7976481985 -0.6003764186
13550218700.0 0.78791731 -0.6132305253
13600218400.0 0.7782353216 -0.624549482
13650218100.0 0.768525462 -0.6359872984
13700217800.0 0.7582048101 -0.6472766792
13750217500.0 0.748097444 -0.6588486345
13800217200.0 0.7368736046 -0.6700795371
13850216900.0 0.7257784455 -0.6813175472
13900216600.0 0.7156850357 -0.6899462917
13950216300.0 0.7052845396 -0.7007563387
14000216000.0 0.6956716786 -0.7094455314
14050215700.0 0.6858981344 -0.7177505209
14100215400.0 0.6764815705 -0.7265504108
14150215100.0 0.6673905982 -0.7354661364
14200214800.0 0.657956712 -0.7439461226
14250214500.0 0.6475662137 -0.7535561237
14300214200.0 0.6372200288 -0.7631094952
14350213900.0 0.6262068921 -0.7727641325
14400213600.0 0.6141214463 -0.7823944732
14450213300.0 0.6013605834 -0.7926947078
14500213000.0 0.5886495794 -0.8023712118
14550212700.0 0.5763089761 -0.8122022069
14600212400.0 0.5631375646 -0.8207074799
14650212100.0 0.5511757538 -0.8295158556
14700211800.0 0.5365137538 -0.8386725376
14750211500.0 0.5248994081 -0.8474715246
14800211200.0 0.5126415354 -0.8552867484
14850210900.0 0.5002248691 -0.8630409174
14900210600.0 0.4867804334 -0.8708632411
14950210300.0 0.4733606117 -0.8786146753
15000210000.0 0.4606904499 -0.8853718061
15050209700.0 0.4485612025 -0.8913721116
15100209400.0 0.4359866894 -0.8970442536
15150209100.0 0.4235682875 -0.9027389187
15200208800.0 0.4108984034 -0.9080456419
15250208500.0 0.3992195002 -0.9126282552
15300208200.0 0.3874722873 -0.9174659495
15350207900.0 0.3743821457 -0.9214997881
15400207600.0 0.3597417589 -0.927942795
15450207300.0 0.3455638789 -0.9322821459
15500207000.0 0.3303281673 -0.9371570787
15550206700.0 0.316098088 -0.9425114934
15600206400.0 0.2995093128 -0.946676855
15650206100.0 0.2838505823 -0.9510897781
15700205800.0 0.2704816569 -0.9545766772
15750205500.0 0.2561668797 -0.9578662354
15800205200.0 0.2420151832 -0.9613130012
15850204900.0 0.2277880064 -0.9647807351
15900204600.0 0.2126810329 -0.9683701912
15950204300.0 0.1984962001 -0.9717423121
16000204000.0 0.184105646 -0.9743659208
16050203700.0 0.1689066004 -0.9778462657
16100203400.0 0.1541299384 -0.9795410283
16150203100.0 0.1393999545 -0.9814587377
16200202800.0 0.1252626569 -0.9843794128
16250202500.0 0.110428728 -0.9856861312
16300202200.0 0.0950305566 -0.9878308803
16350201900.0 0.0801978707 -0.9892068342
16400201600.0 0.0652881207 -0.990259651
16450201300.0 0.0500769656 -0.9911379393
16500201000.0 0.0328695034 -0.9920502048
16550200700.0 0.0170636999 -0.9926997772
16600200400.0 0.0013168449 -0.9928824188
16650200100.0 -0.0151971111 -0.9925874955
16700199800.0 -0.0313081754 -0.9927443704
16750199500.0 -0.0504467818 -0.992093963
16800199200.0 -0.0661081301 -0.9907878354
16850198900.0 -0.0815123095 -0.9888723622
16900198600.0 -0.0959939314 -0.9885726573
16950198300.0 -0.1090703721 -0.9873681218
17000198000.0 -0.1224828821 -0.9864456399
17050197700.0 -0.1348358888 -0.9835553754
17100197400.0 -0.1477508041 -0.9819447266
17150197100.0 -0.1606069951 -0.9801393741
17200196800.0 -0.173379693 -0.977699118
17250196500.0 -0.1864910869 -0.9757609753
17300196200.0 -0.1985978862 -0.9733295492
17350195900.0 -0.2103073554 -0.9710212557
17400195600.0 -0.2222627393 -0.9683264706
17450195300.0 -0.2352634165 -0.9655787468
17500195000.0 -0.2484988466 -0.9622578155
17550194700.0 -0.2623482858 -0.9587222784
17600194400.0 -0.276278409 -0.954994428
17650194100.0 -0.2900304072 -0.9504486628
17700193800.0 -0.3025760454 -0.9465958409
17750193500.0 -0.3172800036 -0.9419517824
17800193200.0 -0.3310917663 -0.9366070848
17850192900.0 -0.3464315169 -0.9313456579
17900192600.0 -0.3614350245 -0.9253287399
17950192300.0 -0.3767958812 -0.9180238356
18000192000.0 -0.3915469684 -0.9109987494
18050191700.0 -0.4054489949 -0.9030928935
18100191400.0 -0.4197509131 -0.8953399993
18150191100.0 -0.4345692075 -0.8873459942
18200190800.0 -0.4514211652 -0.8782193057
18250190500.0 -0.4681927115 -0.8687880463
18300190200.0 -0.4837912259 -0.8601972836
18350189900.0 -0.4986984566 -0.851639482
18400189600.0 -0.5136888306 -0.843271595
18450189300.0 -0.5270825747 -0.8354997583
18500189000.0 -0.5401424077 -0.8271550271
18550188700.0 -0.552959448 -0.8196740887
18600188400.0 -0.5651025985 -0.8125738543
18650188100.0 -0.5763134147 -0.8058959115
18700187800.0 -0.5870200172 -0.7994706403
18750187500.0 -0.597953033 -0.7929972021
18800187200.0 -0.6084540726 -0.7860774726
18850186900.0 -0.6187459352 -0.7790527857
18900186600.0 -0.6289132736 -0.7716974256
18950186300.0 -0.6392293586 -0.7641211177
19000186000.0 -0.6465437123 -0.7578027577
19050185700.0 -0.6558288492 -0.7508455713
19100185400.0 -0.6661675887 -0.7428106407
19150185100.0 -0.6761558193 -0.7336565198
19200184800.0 -0.685218744 -0.7259217262
19250184500.0 -0.6954908344 -0.7166139858
19300184200.0 -0.7065148853 -0.7071968171
19350183900.0 -0.7180781965 -0.6966543105
19400183600.0 -0.7273960506 -0.6877852294
19450183300.0 -0.7362010057 -0.6767577377
19500183000.0 -0.7447824138 -0.6674245906
19550182700.0 -0.7545175451 -0.6562885709
19600182400.0 -0.764523838 -0.6446043236
19650182100.0 -0.7750021158 -0.6323663599
19700181800.0 -0.7860623821 -0.6192477682
19750181500.0 -0.7961909585 -0.6050292934
19800181200.0 -0.8067558498 -0.5901057913
19850180900.0 -0.8161657938 -0.5748574078
19900180600.0 -0.8239415765 -0.5604038079
19950180300.0 -0.8332773066 -0.543881173
20000180000.0 -0.8241510669 -0.5465577847
20050179700.0 -0.8324107569 -0.5340066598
20100179400.0 -0.8403372107 -0.5206066286
20150179100.0 -0.8485610365 -0.5088427489
20200178800.0 -0.8571886864 -0.4973299731
20250178500.0 -0.866262285 -0.4841674819
20300178200.0 -0.8759920803 -0.4704229214
20350177900.0 -0.8856021146 -0.4565263151
20400177600.0 -0.8944523333 -0.4418440491
20450177300.0 -0.9027066273 -0.4275578582
20500177000.0 -0.910704591 -0.4137551931
20550176700.0 -0.9185253228 -0.4002414264
20600176400.0 -0.9254292813 -0.3876851448
20650176100.0 -0.9321552703 -0.3752382403
20700175800.0 -0.9385276719 -0.3633730985
20750175500.0 -0.9453547222 -0.3516841298
20800175200.0 -0.9497102156 -0.340677396
20850174900.0 -0.9547712249 -0.330213075
20900174600.0 -0.9583020677 -0.3192304586
20950174300.0 -0.9614362521 -0.3075779427
21000174000.0 -0.9651472705 -0.2968398808
21050173700.0 -0.9670878902 -0.2873950339
21100173400.0 -0.971102695 -0.2759418645
21150173100.0 -0.9756262691 -0.2637665807
21200172800.0 -0.9786339514 -0.2507638393
21250172500.0 -0.9823364392 -0.2368030141
21300172200.0 -0.9852737806 -0.2229549929
21350171900.0 -0.9871596939 -0.2082946948
21400171600.0 -0.9897374148 -0.1940959064
21450171300.0 -0.989782275 -0.1797312585
21500171000.0 -0.9902140022 -0.1638445529
21550170700.0 -0.9904221103 -0.1503353626
21600170400.0 -0.9909916295 -0.1348319606
21650170100.0 -0.9913354486 -0.1186000117
21700169800.0 -0.9901308315 -0.1038151052
21750169500.0 -0.9904755758 -0.0878294054
21800169200.0 -0.9903826406 -0.0711387637
21850168900.0 -0.9889590886 -0.0548633324
21900168600.0 -0.989199383 -0.03731273
21950168300.0 -0.9881729584 -0.0222079787
22000168000.0 -0.9876682371 -0.0070947394
22050167700.0 -0.9879860354 0.007493401
22100167400.0 -0.988534127 0.0230567441
22150167100.0 -0.9894615309 0.038809981
22200166800.0 -0.9903335862 0.0554989525
22250166500.0 -0.9892615787 0.0730404619
22300166200.0 -0.9882679215 0.0891058476
22350165900.0 -0.9876824969 0.105182382
22400165600.0 -0.9859228783 0.1216283354
22450165300.0 -0.9844816425 0.1359262468
22500165000.0 -0.982735786 0.1511557186
22550164700.0 -0.9812086733 0.1667930253
22600164400.0 -0.9791091336 0.1826272395
22650164100.0 -0.9761743501 0.1978603476
22700163800.0 -0.9735141344 0.2143817578
22750163500.0 -0.9704611688 0.2289025053
22800163200.0 -0.9676319575 0.2415919644
22850162900.0 -0.9652989158 0.2552093827
22900162600.0 -0.9633352241 0.2689031291
22950162300.0 -0.9615121758 0.2823133235
23000162000.0 -0.9601359959 0.2945471427
23050161700.0 -0.9574699052 0.3080705457
23100161400.0 -0.9549809676 0.3214679239
23150161100.0 -0.9522699599 0.3340786525
23200160800.0 -0.9495145787 0.3467313952
23250160500.0 -0.9462857177 0.3585462605
23300160200.0 -0.943338725 0.3710809697
23350159900.0 -0.9396984351 0.3848534715
23400159600.0 -0.9346745824 0.3985902313
23450159300.0 -0.9296165117 0.4120785431
23500159000.0 -0.924740514 0.4264692254
23550158700.0 -0.9201187906 0.4397580581
23600158400.0 -0.9143272334 0.4533965559
23650158100.0 -0.9073848737 0.4677547674
23700157800.0 -0.8992368254 0.4819253113
23750157500.0 -0.8900361044 0.4962381354
23800157200.0 -0.8804426352 0.5098722734
23850156900.0 -0.8713495342 0.5221348068
23900156600.0 -0.8612140564 0.5347479522
23950156300.0 -0.8519338449 0.5466932478
24000156000.0 -0.8424980298 0.5600940257
24050155700.0 -0.8323966275 0.5723743511
24100155400.0 -0.8219026719 0.5854189648
24150155100.0 -0.8104759103 0.59605609
24200154800.0 -0.7997868153 0.6081543903
24250154500.0 -0.7887098362 0.6209128049
24300154200.0 -0.7774202078 0.6317356594
24350153900.0 -0.7656189919 0.6431654079
24400153600.0 -0.7530056011 0.6536400825
24450153300.0 -0.7410174677 0.6639931494
24500153000.0 -0.7290683783 0.6736773605
24550152700.0 -0.7180266868 0.6838211903
24600152400.0 -0.7061701487 0.6932695287
24650152100.0 -0.6940256557 0.7019792357
