!Created with skrf (http://scikit-rf.org).
# Hz S RI R 50.0 
!freq ReS11 ImS11
300000.0 -0.9733766297 -0.1224392557
50299700.0 -0.9997457932 0.0149832383
100299400.0 -0.9978570299 0.0279265033
150299100.0 -1.002661519 0.0447977282
200298800.0 -0.9994220287 0.0582429648
250298500.0 -0.9972049104 0.0716247278
300298200.0 -0.9857481197 0.0874897201
350297900.0 -0.9938574627 0.0982077522
400297600.0 -0.9931155254 0.114889814
450297300.0 -0.9909167187 0.1286706664
500297000.0 -0.9892989562 0.1433962777
550296700.0 -0.9843149706 0.1560106869
600296400.0 -1.017047316 0.189009168
650296100.0 -0.9822751658 0.1857440339
700295800.0 -0.9792133415 0.1998552239
750295500.0 -0.9761102282 0.2139768501
800295200.0 -0.9730008439 0.228065829
850294900.0 -0.9695076473 0.241819339
900294600.0 -0.9657688682 0.2556781313
950294300.0 -0.9621241218 0.2692374503
1000294000.0 -0.9580627996 0.2831527528
1050293700.0 -0.9535801123 0.2969709094
1100293400.0 -0.949206409 0.3114789104
1150293100.0 -0.9455308313 0.3234891277
1200292800.0 -0.9399513377 0.3376889542
1250292500.0 -0.9346454607 0.3511870189
1300292200.0 -0.9290451257 0.3643332569
1350291900.0 -0.9233988617 0.3783033067
1400291600.0 -0.9180071902 0.3916376524
1450291300.0 -0.912447198 0.4039229504
1500291000.0 -0.9061848368 0.4173932125
1550290700.0 -0.8997869631 0.4306266575
1600290400.0 -0.8935092782 0.4436274447
1650290100.0 -0.8867754244 0.4557340513
1700289800.0 -0.8799954224 0.4692049098
1750289500.0 -0.8728924449 0.4815455846
1800289200.0 -0.8654792012 0.4943453065
1850288900.0 -0.8586353649 0.5057948842
1900288600.0 -0.8511084984 0.5187541307
1950288300.0 -0.8430745171 0.5313174277
2000288000.0 -0.83536466 0.5427253277
2050287700.0 -0.8271034889 0.5552130789
2100287400.0 -0.8195548714 0.5667598358
2150287100.0 -0.8109885423 0.5785494927
2200286800.0 -0.8028694688 0.5891661634
2250286500.0 -0.7940439113 0.6012224831
2300286200.0 -0.7853433483 0.6129259383
2350285900.0 -0.7768335114 0.6235018204
2400285600.0 -0.7680614134 0.6343931412
2450285300.0 -0.7590692182 0.6450214766
2500285000.0 -0.749134693 0.65654433
2550284700.0 -0.7403034648 0.6671739817
2600284400.0 -0.7310548637 0.6770168655
2650284100.0 -0.7224957364 0.6871835662
2700283800.0 -0.7117130943 0.697388932
2750283500.0 -0.7014592276 0.7083798442
2800283200.0 -0.6914438368 0.7177869429
2850282900.0 -0.6811386644 0.7279078413
2900282600.0 -0.6706916151 0.7378983924
2950282300.0 -0.6601690877 0.7472295228
3000282000.0 -0.6495985268 0.7567780536
3050281700.0 -0.6384451723 0.765898179
3100281400.0 -0.6269720448 0.7750246764
3150281100.0 -0.6156019804 0.7840015857
3200280800.0 -0.6041151905 0.7922741251
3250280500.0 -0.5931962525 0.8002973438
3300280200.0 -0.5815253065 0.8084512821
3350279900.0 -0.569384116 0.816436614
3400279600.0 -0.5568491403 0.8246049154
3450279300.0 -0.5455335024 0.8316752123
3500279000.0 -0.5336800782 0.8384083526
3550278700.0 -0.5213695938 0.8455329378
3600278400.0 -0.509917906 0.8524322852
3650278100.0 -0.496962068 0.8599528594
3700277800.0 -0.4847137552 0.8666222592
3750277500.0 -0.4724357143 0.8733498112
3800277200.0 -0.4598873503 0.8797061146
3850276900.0 -0.4476934851 0.885488845
3900276600.0 -0.4369834985 0.8912558846
3950276300.0 -0.4248349743 0.8974078905
4000276000.0 -0.41325777 0.9028636938
4050275700.0 -0.4005615421 0.9092182164
4100275400.0 -0.3895365328 0.9144506106
4150275100.0 -0.3761811016 0.9202682444
4200274800.0 -0.3626251061 0.9260789176
4250274500.0 -0.3501061513 0.93148257
4300274200.0 -0.3367651236 0.9366594166
4350273900.0 -0.3226273919 0.9420641294
4400273600.0 -0.3079538434 0.9470318864
4450273300.0 -0.2929049897 0.9521450733
4500273000.0 -0.2797404896 0.9563874346
4550272700.0 -0.2663069612 0.9605534245
4600272400.0 -0.2510681447 0.9646875795
4650272100.0 -0.2397683855 0.9677885334
4700271800.0 -0.2268566393 0.9711180423
4750271500.0 -0.2152653991 0.973956147
4800271200.0 -0.2029309626 0.9765941807
4850270900.0 -0.1892314359 0.9794741388
4900270600.0 -0.1753378084 0.9819063064
4950270300.0 -0.1609918605 0.9845244533
5000270000.0 -0.1463637372 0.9866646676
5050269700.0 -0.13288967 0.9883980811
5100269400.0 -0.1186968465 0.989750966
5150269100.0 -0.1046660968 0.9918181879
5200268800.0 -0.0910980298 0.9925080114
5250268500.0 -0.0783944907 0.9939171372
5300268200.0 -0.0645249454 0.9947154088
5350267900.0 -0.0516729173 0.9952002656
5400267600.0 -0.035650544 0.9963694913
5450267300.0 -0.0221851211 0.996544898
5500267000.0 -0.0069668138 0.9969745359
5550266700.0 0.0080039651 0.997004335
5600266400.0 0.0237532424 0.9971994362
5650266100.0 0.0404074918 0.9967659999
5700265800.0 0.0544772013 0.9956898067
5750265500.0 0.0695682657 0.9951212936
5800265200.0 0.0830179439 0.9938639217
5850264900.0 0.0960714672 0.9930213065
5900264600.0 0.1127238112 0.9913064105
5950264300.0 0.1245086207 0.9900635624
6000264000.0 0.1382553304 0.9880510005
6050263700.0 0.1495895716 0.9868448654
6100263400.0 0.1621378945 0.9848887452
6150263100.0 0.1764895394 0.9826175226
6200262800.0 0.1859819535 0.9810287648
6250262500.0 0.1985600565 0.9785400993
6300262200.0 0.210984223 0.9762916851
6350261900.0 0.2236576453 0.9735707661
6400261600.0 0.2375121301 0.9702381041
6450261300.0 0.2485950327 0.96771524
6500261000.0 0.2620529329 0.964110722
6550260700.0 0.2747422419 0.9602593536
6600260400.0 0.2884660003 0.9561248341
6650260100.0 0.3030206656 0.9517823117
6700259800.0 0.3146972517 0.9475053674
6750259500.0 0.328486007 0.9424434917
6800259200.0 0.3419934173 0.9374137029
6850258900.0 0.3546625975 0.9318212168
6900258600.0 0.3671736985 0.9269105234
6950258300.0 0.3797807507 0.9215178595
7000258000.0 0.391220815 0.9162117609
7050257700.0 0.4030037559 0.9106207881
7100257400.0 0.4166116805 0.9039770976
7150257100.0 0.4270311929 0.8986059723
7200256800.0 0.4403036443 0.8922791095
7250256500.0 0.4524246177 0.885681003
7300256200.0 0.466095025 0.8788925791
7350255900.0 0.4785596893 0.8718179482
7400255600.0 0.4928953335 0.8642854557
7450255300.0 0.5083908601 0.8550354286
7500255000.0 0.5210743921 0.8471247167
7550254700.0 0.5348066837 0.8381697445
7600254400.0 0.5477198408 0.8300706145
7650254100.0 0.5594977903 0.8222845252
7700253800.0 0.5708646606 0.8141709266
7750253500.0 0.581837233 0.8063701741
7800253200.0 0.5925042053 0.7986207421
7850252900.0 0.6022831627 0.7912261502
7900252600.0 0.6137809766 0.7827008543
7950252300.0 0.622090061 0.7761639477
8000252000.0 0.6319945473 0.7686848988
8050251700.0 0.6425036574 0.7605225641
8100251400.0 0.6523912477 0.7526983268
8150251100.0 0.6624178758 0.7440515667
8200250800.0 0.6719066075 0.7358417079
8250250500.0 0.6809351574 0.7281812525
8300250200.0 0.6898537926 0.7197088282
8350249900.0 0.6991694218 0.7109010234
8400249600.0 0.7071529326 0.7027794656
8450249300.0 0.715995507 0.6941267508
8500249000.0 0.724417738 0.685376272
8550248700.0 0.7327366907 0.6763453457
8600248400.0 0.7410089664 0.6667596624
8650248100.0 0.7486666423 0.6573617142
8700247800.0 0.7579093988 0.646249454
8750247500.0 0.7661015367 0.6363688654
8800247200.0 0.7742761614 0.6259328034
8850246900.0 0.7831284456 0.6145811725
8900246600.0 0.7911470177 0.6032591695
8950246300.0 0.8004502918 0.5907828535
9000246000.0 0.8090684167 0.5785804614
9050245700.0 0.8177923838 0.566453116
9100245400.0 0.8260882194 0.5540293284
9150245100.0 0.8343703667 0.5412475109
9200244800.0 0.8440886311 0.5267948042
9250244500.0 0.8535075551 0.5119565154
9300244200.0 0.861222612 0.4987494337
9350243900.0 0.8688539407 0.4854499099
9400243600.0 0.8753853894 0.4738111469
9450243300.0 0.8811491887 0.4634097385
9500243000.0 0.8872728603 0.451676103
9550242700.0 0.891455878 0.4441263715
9600242400.0 0.8955861454 0.4364260444
9650242100.0 0.8997275552 0.4296480336
9700241800.0 0.9049020714 0.420822136
9750241500.0 0.9089803171 0.4134359373
9800241200.0 0.9138637978 0.4039596914
9850240900.0 0.9200809458 0.3921680464
9900240600.0 0.9260001205 0.3802171961
9950240300.0 0.9326665782 0.363669304
10000240000.0 0.9380965665 0.3511214605
10050239700.0 0.943708689 0.3354445891
10100239400.0 0.9491614194 0.3191397336
10150239100.0 0.9539295645 0.3033693355
10200238800.0 0.9584437998 0.2877583022
10250238500.0 0.9613369707 0.2743109878
10300238200.0 0.9646863533 0.2605626684
10350237900.0 0.9673885964 0.2471507296
10400237600.0 0.9699711475 0.2337562216
10450237300.0 0.9725378508 0.2202895222
10500237000.0 0.9748939065 0.2076292088
10550236700.0 0.977289407 0.1929194118
10600236400.0 0.9795584113 0.1790626648
10650236100.0 0.9815193238 0.1642509137
10700235800.0 0.9837853018 0.1521416664
10750235500.0 0.9858057519 0.1385787639
10800235200.0 0.9883622201 0.1239016898
10850234900.0 0.9899877042 0.1095373659
10900234600.0 0.9921902105 0.0946127699
10950234300.0 0.9937489419 0.0810189697
11000234000.0 0.9955426328 0.0655591131
11050233700.0 0.9973677358 0.0486463709
11100233400.0 0.9989029628 0.0311550375
11150233100.0 1.000116713 0.0142099447
11200232800.0 1.001323772 -0.0015605781
11250232500.0 1.001949869 -0.0191911959
11300232200.0 1.00166005 -0.0384263147
11350231900.0 1.002264044 -0.054317986
11400231600.0 1.001144553 -0.0696553481
11450231300.0 1.000632834 -0.0859868532
11500231000.0 0.9997969525 -0.1023059904
11550230700.0 0.9980945593 -0.1150860963
11600230400.0 0.9968053509 -0.1273956458
11650230100.0 0.9946159805 -0.1395169152
11700229800.0 0.9925039708 -0.1550220224
11750229500.0 0.9898937857 -0.1686192829
11800229200.0 0.9875013788 -0.1818423836
11850228900.0 0.9834576602 -0.1937651708
11900228600.0 0.979710141 -0.2032722579
11950228300.0 0.9760559952 -0.2137374517
12000228000.0 0.973439509 -0.2221884383
12050227700.0 0.9700084609 -0.2346502351
12100227400.0 0.9666133904 -0.2451895665
12150227100.0 0.9620727145 -0.2620510066
12200226800.0 0.9580259832 -0.273516453
12250226500.0 0.9538229747 -0.2866532367
12300226200.0 0.9491919342 -0.2989010254
12350225900.0 0.9441667769 -0.3133741736
12400225600.0 0.9399933837 -0.3248465051
12450225300.0 0.9363265475 -0.3369704139
12500225000.0 0.9301054178 -0.3519515242
12550224700.0 0.924909871 -0.3654585802
12600224400.0 0.9197600039 -0.3783583516
12650224100.0 0.9140510881 -0.3927034125
12700223800.0 0.9086240275 -0.4056553324
12750223500.0 0.9032550676 -0.4187839796
12800223200.0 0.8979952709 -0.4311952451
12850222900.0 0.8928670205 -0.4431790598
12900222600.0 0.8871112827 -0.4554908387
12950222300.0 0.8808134484 -0.4681435596
13000222000.0 0.874827915 -0.4794075673
13050221700.0 0.8681669151 -0.4926925582
13100221400.0 0.8611830238 -0.5048486914
13150221100.0 0.8547481905 -0.5171310652
13200220800.0 0.8474270427 -0.5289026025
13250220500.0 0.8401245787 -0.5407576056
13300220200.0 0.8326486751 -0.5518069132
13350219900.0 0.8245423564 -0.5636014175
13400219600.0 0.8163610167 -0.5754006712
13450219300.0 0.8071194653 -0.5883213458
13500219000.0 0.7971394474 -0.601295601
13550218700.0 0.7871362862 -0.6141700188
13600218400.0 0.7769918803 -0.6257492525
13650218100.0 0.7677880514 -0.6364517762
13700217800.0 0.7575193305 -0.648650003
13750217500.0 0.7472410726 -0.659452947
13800217200.0 0.7365420722 -0.6701479499
13850216900.0 0.7258619822 -0.6813544374
13900216600.0 0.7163113484 -0.6900840545
13950216300.0 0.7047338822 -0.7004586614
14000216000.0 0.6952122903 -0.7095502468
14050215700.0 0.6864688792 -0.717744982
14100215400.0 0.6766063289 -0.7261347992
14150215100.0 0.6672475021 -0.7350676823
14200214800.0 0.657858754 -0.7441426169
14250214500.0 0.6475378781 -0.7534617676
14300214200.0 0.6370514369 -0.7628878755
14350213900.0 0.6259713312 -0.7724611119
14400213600.0 0.6141047809 -0.7824381826
14450213300.0 0.6011277712 -0.7927912143
14500213000.0 0.5882415689 -0.8025307669
14550212700.0 0.5760650752 -0.811835669
14600212400.0 0.5633593073 -0.8205201925
14650212100.0 0.5508381339 -0.8290389756
14700211800.0 0.5372248789 -0.8386777931
14750211500.0 0.5248103068 -0.846844861
14800211200.0 0.5123936843 -0.8554865562
14850210900.0 0.5001421725 -0.8631733405
14900210600.0 0.4867083187 -0.8708702776
14950210300.0 0.4735582067 -0.878630451
15000210000.0 0.460827608 -0.8852969168
15050209700.0 0.448704569 -0.8912620914
15100209400.0 0.4358110457 -0.8973092887
15150209100.0 0.4235665627 -0.9024468228
15200208800.0 0.4108188237 -0.9080132448
15250208500.0 0.3995870875 -0.9125787271
15300208200.0 0.3878070174 -0.9165294989
15350207900.0 0.3738916029 -0.921758315
15400207600.0 0.3598053906 -0.9274611954
15450207300.0 0.344277482 -0.9329201132
15500207000.0 0.3304437114 -0.9368027212
15550206700.0 0.3158066519 -0.9417125081
15600206400.0 0.2996234274 -0.9468082167
15650206100.0 0.2839819388 -0.950881058
15700205800.0 0.270402118 -0.9542898614
15750205500.0 0.2563814521 -0.9578124082
15800205200.0 0.2423898876 -0.9611448317
15850204900.0 0.2282210708 -0.9646488797
15900204600.0 0.2131903428 -0.9682806471
15950204300.0 0.1990443156 -0.9712738022
16000204000.0 0.1846233166 -0.974436719
16050203700.0 0.1692644311 -0.9772264442
16100203400.0 0.1543421402 -0.9800072351
16150203100.0 0.1396542837 -0.9821792197
16200202800.0 0.1255851057 -0.9841117147
16250202500.0 0.1109276062 -0.9859987816
16300202200.0 0.0946812312 -0.9874944568
16350201900.0 0.0801612321 -0.9889592639
16400201600.0 0.0654055204 -0.9902297549
16450201300.0 0.0498887782 -0.9911365238
16500201000.0 0.0329495659 -0.9921167721
16550200700.0 0.0166780712 -0.9925244401
16600200400.0 0.0008068353 -0.9928220675
16650200100.0 -0.0155564741 -0.9925730785
16700199800.0 -0.031858857 -0.9920245908
16750199500.0 -0.050403528 -0.9914262131
16800199200.0 -0.0667930522 -0.9909834147
16850198900.0 -0.0823385616 -0.9895089253
16900198600.0 -0.0964575181 -0.9883823141
16950198300.0 -0.1101073435 -0.9870789122
17000198000.0 -0.122909939 -0.9861308477
17050197700.0 -0.1359354303 -0.9838891026
17100197400.0 -0.1491237366 -0.9822811203
17150197100.0 -0.1611011682 -0.9800814843
17200196800.0 -0.1743121731 -0.9777500284
17250196500.0 -0.1871218467 -0.9755578338
17300196200.0 -0.1994674461 -0.9730595733
17350195900.0 -0.2112777066 -0.9705901916
17400195600.0 -0.223244669 -0.9681561581
17450195300.0 -0.2359554606 -0.9654842544
17500195000.0 -0.2493435925 -0.962124125
17550194700.0 -0.2630676496 -0.9585280491
17600194400.0 -0.2767303927 -0.954738458
17650194100.0 -0.2903897516 -0.9506152914
17700193800.0 -0.3036008379 -0.9462272526
17750193500.0 -0.3174068705 -0.9415378956
17800193200.0 -0.3315648346 -0.9366768426
17850192900.0 -0.3466162595 -0.931051752
17900192600.0 -0.3616805923 -0.9248316482
17950192300.0 -0.377443356 -0.9178874521
18000192000.0 -0.3920582738 -0.9106722769
18050191700.0 -0.405796309 -0.9026261069
18100191400.0 -0.4200035763 -0.8950507255
18150191100.0 -0.4349463894 -0.8870003813
18200190800.0 -0.4519006603 -0.8778494283
18250190500.0 -0.4685024218 -0.8686226436
18300190200.0 -0.4839123243 -0.8594659845
18350189900.0 -0.4991916609 -0.8511144869
18400189600.0 -0.514109762 -0.8431163567
18450189300.0 -0.5277346622 -0.8349111867
18500189000.0 -0.5408757843 -0.8267090824
18550188700.0 -0.5537162785 -0.8191500433
18600188400.0 -0.5655747357 -0.8122277221
18650188100.0 -0.5767729185 -0.8059609738
18700187800.0 -0.5880530683 -0.7988671163
18750187500.0 -0.5987568204 -0.7921569102
18800187200.0 -0.6094347796 -0.7852977027
18850186900.0 -0.6196336686 -0.7784559451
18900186600.0 -0.6298301633 -0.7711893856
18950186300.0 -0.6400671436 -0.7634728499
19000186000.0 -0.6473069181 -0.7571077651
19050185700.0 -0.6571548986 -0.7496683129
19100185400.0 -0.6670971952 -0.7415303774
19150185100.0 -0.677255609 -0.7329154343
19200184800.0 -0.6867841329 -0.7250144324
19250184500.0 -0.6970627087 -0.715894032
19300184200.0 -0.7084353433 -0.7063811462
19350183900.0 -0.7183814944 -0.6969305459
19400183600.0 -0.7285196782 -0.68731887
19450183300.0 -0.7375750214 -0.6768498174
19500183000.0 -0.745575029 -0.6667873818
19550182700.0 -0.755150345 -0.655549025
19600182400.0 -0.7653165078 -0.643781777
19650182100.0 -0.7759485164 -0.631910471
19700181800.0 -0.7863307798 -0.6186279996
19750181500.0 -0.7968747515 -0.6045311688
19800181200.0 -0.8071367648 -0.589538955
19850180900.0 -0.8165493758 -0.5741482623
19900180600.0 -0.824309859 -0.5598561434
19950180300.0 -0.8334255967 -0.5434828545
20000180000.0 -0.823037383 -0.5476332894
20050179700.0 -0.8311885492 -0.5345905953
20100179400.0 -0.839843827 -0.5212011494
20150179100.0 -0.8471512204 -0.5088960839
20200178800.0 -0.8561342779 -0.4983242601
20250178500.0 -0.8654666997 -0.485347815
20300178200.0 -0.8747022128 -0.4717609082
20350177900.0 -0.8838682586 -0.457679565
20400177600.0 -0.8934545692 -0.4435768205
20450177300.0 -0.9017933964 -0.4296326613
20500177000.0 -0.9098147211 -0.4153363878
20550176700.0 -0.9179109635 -0.4020116284
20600176400.0 -0.9247665033 -0.3886014249
20650176100.0 -0.9313481141 -0.3766209763
20700175800.0 -0.9382178166 -0.3649298594
20750175500.0 -0.9444083073 -0.3533488081
20800175200.0 -0.9488172501 -0.3423841769
20850174900.0 -0.9529080788 -0.3318913124
20900174600.0 -0.9581040588 -0.3211699982
20950174300.0 -0.9601228378 -0.3092959865
21000174000.0 -0.9635481777 -0.2988163712
21050173700.0 -0.9658117941 -0.2897665551
21100173400.0 -0.9692155429 -0.2795440104
21150173100.0 -0.9731380074 -0.2669040098
21200172800.0 -0.9766740684 -0.2535221077
21250172500.0 -0.9802486288 -0.2399660942
21300172200.0 -0.9840847802 -0.2259534502
21350171900.0 -0.9859913397 -0.2117311814
21400171600.0 -0.9880549444 -0.1972219344
21450171300.0 -0.988808002 -0.183347876
21500171000.0 -0.9882808764 -0.1676216692
21550170700.0 -0.9899083594 -0.1531011137
21600170400.0 -0.9902674156 -0.1375172861
21650170100.0 -0.9895340086 -0.1215915583
21700169800.0 -0.9894478635 -0.1071006708
21750169500.0 -0.9901624466 -0.0914948713
21800169200.0 -0.9903840718 -0.0735615926
21850168900.0 -0.9895783797 -0.0564127031
21900168600.0 -0.9896958557 -0.0412185238
21950168300.0 -0.9893784913 -0.0249386483
22000168000.0 -0.9893712876 -0.0104085929
22050167700.0 -0.9896439718 0.0039984754
22100167400.0 -0.9902857539 0.0199946121
22150167100.0 -0.9913066229 0.0359562248
22200166800.0 -0.9913420751 0.0521888019
22250166500.0 -0.9911094886 0.069659623
22300166200.0 -0.9904286272 0.0866574167
22350165900.0 -0.9895823041 0.102060836
22400165600.0 -0.9875240867 0.1177967943
22450165300.0 -0.9865153051 0.1329019647
22500165000.0 -0.9848405252 0.1472837218
22550164700.0 -0.983418478 0.1635675108
22600164400.0 -0.980695869 0.1795806061
22650164100.0 -0.9778768102 0.195260822
22700163800.0 -0.9750546908 0.2109824161
22750163500.0 -0.9718567758 0.2262650215
22800163200.0 -0.9688934074 0.238954529
22850162900.0 -0.966213365 0.2524246828
22900162600.0 -0.9643906374 0.2667176072
22950162300.0 -0.963213121 0.2802949298
23000162000.0 -0.9609292834 0.2931873849
23050161700.0 -0.9584606914 0.3064176525
23100161400.0 -0.955497625 0.3199358035
23150161100.0 -0.9527806573 0.3328804227
23200160800.0 -0.9499266614 0.3457147789
23250160500.0 -0.9468398297 0.3585046896
23300160200.0 -0.9446859688 0.37097406
23350159900.0 -0.9403166452 0.3846834751
23400159600.0 -0.9352922872 0.3985008392
23450159300.0 -0.9298649339 0.4116816488
23500159000.0 -0.9245781548 0.4254000817
23550158700.0 -0.9201719521 0.4395695161
23600158400.0 -0.9142501961 0.4538164542
23650158100.0 -0.9068295298 0.4681426802
23700157800.0 -0.8985383401 0.4828717722
23750157500.0 -0.8891931705 0.4970058747
23800157200.0 -0.8795487881 0.5101948346
23850156900.0 -0.8698744062 0.5236851472
23900156600.0 -0.8604998972 0.5363261618
23950156300.0 -0.8495252493 0.5488683945
24000156000.0 -0.8401247628 0.5614361591
24050155700.0 -0.8301851828 0.5729958139
24100155400.0 -0.8198093071 0.5862164326
24150155100.0 -0.8091146377 0.5974754463
24200154800.0 -0.7981207043 0.6093402844
24250154500.0 -0.7860999476 0.6215449456
24300154200.0 -0.7749976742 0.6333310433
24350153900.0 -0.7631126814 0.6444610645
24400153600.0 -0.7506247383 0.655507709
24450153300.0 -0.7383249169 0.665673558
24500153000.0 -0.7265483735 0.6757899092
24550152700.0 -0.715034954 0.6856050565
24600152400.0 -0.7029975704 0.6953454781
24650152100.0 -0.6912828222 0.7030206135
