!Created with skrf (http://scikit-rf.org).
# Hz S RI R 50.0 
!freq ReS11 ImS11
300000.0 -0.9744730708 -0.1202019006
50299700.0 -0.9998376942 0.0149712676
100299400.0 -0.9977388378 0.0279598141
150299100.0 -1.0027852 0.0448428887
200298800.0 -0.9995947206 0.0581351122
250298500.0 -0.9972082621 0.0717317965
300298200.0 -0.9858916511 0.0873709273
350297900.0 -0.9940105458 0.0984947508
400297600.0 -0.9930003191 0.1148040923
450297300.0 -0.9909048306 0.1285330372
500297000.0 -0.9895331808 0.1434374746
550296700.0 -0.9843385715 0.1559122921
600296400.0 -1.01730307 0.1892306335
650296100.0 -0.9819715506 0.1856914844
700295800.0 -0.9793929349 0.2000846049
750295500.0 -0.9761956049 0.2138341265
800295200.0 -0.9729969556 0.2281720249
850294900.0 -0.9695811363 0.2419180583
900294600.0 -0.9658868016 0.2557417105
950294300.0 -0.9620945036 0.2692005129
1000294000.0 -0.9582360252 0.2832999719
1050293700.0 -0.9536443752 0.2971465603
1100293400.0 -0.9493091781 0.3116496823
1150293100.0 -0.945314588 0.3233787677
1200292800.0 -0.9403111543 0.3378563874
1250292500.0 -0.9345593883 0.351129591
1300292200.0 -0.9289901938 0.3644181129
1350291900.0 -0.923530631 0.3785419434
1400291600.0 -0.9179378913 0.3916734316
1450291300.0 -0.9124773474 0.4041208016
1500291000.0 -0.9061876539 0.4173850824
1550290700.0 -0.899619924 0.430807959
1600290400.0 -0.8933850607 0.4436832775
1650290100.0 -0.8866896308 0.4557566043
1700289800.0 -0.879905601 0.4692928298
1750289500.0 -0.8728335598 0.4815928112
1800289200.0 -0.8655364245 0.4943054443
1850288900.0 -0.8587541535 0.505700797
1900288600.0 -0.850809515 0.5189927611
1950288300.0 -0.8429564955 0.531492161
2000288000.0 -0.8354106687 0.542842435
2050287700.0 -0.8272007152 0.5550429793
2100287400.0 -0.8193193553 0.5666025084
2150287100.0 -0.8108817554 0.5788043883
2200286800.0 -0.8027671853 0.5892331326
2250286500.0 -0.7940985681 0.6014640087
2300286200.0 -0.7853398723 0.6128475092
2350285900.0 -0.776792388 0.6234579325
2400285600.0 -0.7679750201 0.634493419
2450285300.0 -0.759105841 0.6453710534
2500285000.0 -0.7488832459 0.6567103126
2550284700.0 -0.7399060264 0.6671438603
2600284400.0 -0.7310187528 0.6769155869
2650284100.0 -0.7222650266 0.6872963752
2700283800.0 -0.7118618763 0.6976409389
2750283500.0 -0.7013749841 0.708357817
2800283200.0 -0.6914020664 0.7180739244
2850282900.0 -0.6811333299 0.7282220436
2900282600.0 -0.6706482421 0.7379817432
2950282300.0 -0.6602276654 0.7473524546
3000282000.0 -0.6494100382 0.7566052987
3050281700.0 -0.6383110239 0.7659033832
3100281400.0 -0.6268484613 0.774961818
3150281100.0 -0.6155116215 0.7839821726
3200280800.0 -0.6040490839 0.7924460155
3250280500.0 -0.5928082648 0.8003345952
3300280200.0 -0.5813227021 0.8083968877
3350279900.0 -0.5693152697 0.816773964
3400279600.0 -0.5564441541 0.8245518921
3450279300.0 -0.5454580997 0.8314036197
3500279000.0 -0.5336960034 0.8384871961
3550278700.0 -0.5217778579 0.8459058794
3600278400.0 -0.5098355132 0.8524335248
3650278100.0 -0.496799053 0.8599260867
3700277800.0 -0.4844833154 0.8663606916
3750277500.0 -0.4721758278 0.873233589
3800277200.0 -0.4598725486 0.8797510241
3850276900.0 -0.4474027865 0.8858901758
3900276600.0 -0.4370154894 0.891545147
3950276300.0 -0.4246879956 0.8973675578
4000276000.0 -0.4128302509 0.9030160591
4050275700.0 -0.4001355362 0.9090814319
4100275400.0 -0.3890391053 0.9146298535
4150275100.0 -0.3761190873 0.920506612
4200274800.0 -0.3628079922 0.9259630905
4250274500.0 -0.3497128603 0.9312897967
4300274200.0 -0.3366640413 0.9367622583
4350273900.0 -0.3223349794 0.9421959766
4400273600.0 -0.3076691145 0.9470320948
4450273300.0 -0.292756202 0.9521904033
4500273000.0 -0.2796623009 0.9564760666
4550272700.0 -0.2661145954 0.9605605024
4600272400.0 -0.2507956342 0.9647034586
4650272100.0 -0.2395991388 0.967765781
4700271800.0 -0.2265176317 0.9711030525
4750271500.0 -0.2148585771 0.9739874872
4800271200.0 -0.202659472 0.9767749674
4850270900.0 -0.1889739689 0.9796187165
4900270600.0 -0.1750175605 0.9820302383
4950270300.0 -0.1606646209 0.9845888687
5000270000.0 -0.1459427851 0.986892977
5050269700.0 -0.132665159 0.9883950673
5100269400.0 -0.118587889 0.990015081
5150269100.0 -0.1045538478 0.9918070229
5200268800.0 -0.0914182559 0.9928268889
5250268500.0 -0.0780928742 0.9939631145
5300268200.0 -0.0644382114 0.9942840942
5350267900.0 -0.0517041241 0.9951944587
5400267600.0 -0.035494248 0.9962270183
5450267300.0 -0.02214392 0.9965771808
5500267000.0 -0.0069501939 0.9969936707
5550266700.0 0.0081112849 0.9970645804
5600266400.0 0.0239271112 0.9970071474
5650266100.0 0.0404587689 0.9965569023
5700265800.0 0.0547078154 0.9957747064
5750265500.0 0.0695092395 0.9949778203
5800265200.0 0.0832536323 0.9937986282
5850264900.0 0.0965696298 0.9937181393
5900264600.0 0.1127282171 0.9910857762
5950264300.0 0.1246009069 0.9898594684
6000264000.0 0.1381840554 0.988117307
6050263700.0 0.1497434181 0.9867723464
6100263400.0 0.162117558 0.9848665202
6150263100.0 0.1765348298 0.9824700121
6200262800.0 0.1864878987 0.9808336387
6250262500.0 0.1990548626 0.9786358194
6300262200.0 0.2111485551 0.9761758863
6350261900.0 0.2240968856 0.9732835213
6400261600.0 0.2378557315 0.9700010228
6450261300.0 0.2490208279 0.9677018131
6500261000.0 0.2622823422 0.9639671197
6550260700.0 0.2755803643 0.9599242109
6600260400.0 0.2888044296 0.9559191084
6650260100.0 0.3028831499 0.951429557
6700259800.0 0.3151683013 0.9473289077
6750259500.0 0.3289129883 0.9423724094
6800259200.0 0.3423610169 0.9370990191
6850258900.0 0.3546422123 0.9318688295
6900258600.0 0.3671517538 0.9269329894
6950258300.0 0.3798692827 0.9214442305
7000258000.0 0.3915382417 0.9161296726
7050257700.0 0.4033189256 0.9104482576
7100257400.0 0.4170124454 0.903817292
7150257100.0 0.4274860468 0.8984723941
7200256800.0 0.4406135721 0.8921313664
7250256500.0 0.4532708741 0.8853505974
7300256200.0 0.4662596746 0.8784599243
7350255900.0 0.4788064373 0.8714900153
7400255600.0 0.4930181103 0.8640429786
7450255300.0 0.5085519308 0.8550055922
7500255000.0 0.5208191664 0.8472986894
7550254700.0 0.5355620022 0.8385604003
7600254400.0 0.5475313275 0.8300538912
7650254100.0 0.5592413144 0.8222435893
7700253800.0 0.5711363922 0.8141466102
7750253500.0 0.5817354576 0.8063699657
7800253200.0 0.5927304355 0.7986763111
7850252900.0 0.6022595746 0.7913036745
7900252600.0 0.6138387522 0.7826476307
7950252300.0 0.6221850969 0.7763471319
8000252000.0 0.6321563457 0.7685411307
8050251700.0 0.6426016749 0.7606245755
8100251400.0 0.6524984982 0.752786744
8150251100.0 0.662511326 0.7439266062
8200250800.0 0.6725328168 0.73575123
8250250500.0 0.6809061153 0.7279766209
8300250200.0 0.6898450515 0.7197617836
8350249900.0 0.6990275365 0.7106664634
8400249600.0 0.7074239342 0.7029089113
8450249300.0 0.7163837859 0.6940288295
8500249000.0 0.7246348731 0.6851832371
8550248700.0 0.7329593352 0.6762077925
8600248400.0 0.7413522813 0.6665791244
8650248100.0 0.7490256449 0.6572131844
8700247800.0 0.7581074292 0.6461711722
8750247500.0 0.7664448168 0.6361163738
8800247200.0 0.7744614018 0.6257612824
8850246900.0 0.7831541219 0.6142806997
8900246600.0 0.7914822823 0.602955794
8950246300.0 0.800686098 0.5903324338
9000246000.0 0.8096802891 0.5783260544
9050245700.0 0.8181199255 0.5658482667
9100245400.0 0.8264011851 0.5538728856
9150245100.0 0.8355134369 0.5407995745
9200244800.0 0.8445270437 0.5264520328
9250244500.0 0.8536279078 0.5116089904
9300244200.0 0.8618295941 0.4978761209
9350243900.0 0.8696635184 0.4846998806
9400243600.0 0.8759877276 0.4730713337
9450243300.0 0.8816503404 0.4625138487
9500243000.0 0.8878990503 0.4507013416
9550242700.0 0.8919915949 0.4431738024
9600242400.0 0.8961132211 0.4357738661
9650242100.0 0.9002560989 0.4286986342
9700241800.0 0.9050770835 0.4200725068
9750241500.0 0.9091219669 0.412464423
9800241200.0 0.9144218276 0.4029688599
9850240900.0 0.9201138668 0.3916107401
9900240600.0 0.9261018261 0.379330094
9950240300.0 0.9331176773 0.3625885347
10000240000.0 0.9379330871 0.3508753647
10050239700.0 0.9443716894 0.3346136047
10100239400.0 0.9494612264 0.3184045778
10150239100.0 0.9539732185 0.3028804705
10200238800.0 0.9583545052 0.2874062655
10250238500.0 0.9615436272 0.2741142062
10300238200.0 0.9648359403 0.2601994035
10350237900.0 0.9674777185 0.2465614698
10400237600.0 0.9701619723 0.2330465664
10450237300.0 0.9727974085 0.2191493908
10500237000.0 0.9752446143 0.2070598319
10550236700.0 0.9773881482 0.1926609139
10600236400.0 0.9793382247 0.1791205749
10650236100.0 0.981583834 0.1642553081
10700235800.0 0.9837540918 0.1521059731
10750235500.0 0.9860351777 0.1388155233
10800235200.0 0.9881817861 0.1239193542
10850234900.0 0.9900202728 0.1091484959
10900234600.0 0.9921954503 0.0943419623
10950234300.0 0.9938763842 0.0810289183
11000234000.0 0.9956557784 0.0653928272
11050233700.0 0.9974220202 0.0488605209
11100233400.0 0.998813539 0.0310151248
11150233100.0 0.9999039856 0.0145571342
11200232800.0 1.000979423 -0.0013269084
11250232500.0 1.001682467 -0.0197060498
11300232200.0 1.002141937 -0.0379653325
11350231900.0 1.002323594 -0.0542123928
11400231600.0 1.002050237 -0.0702315839
11450231300.0 1.00123342 -0.0842346952
11500231000.0 0.9996013143 -0.1006756006
11550230700.0 0.9981467528 -0.1153873082
11600230400.0 0.9966753291 -0.1273233213
11650230100.0 0.9945433853 -0.1399198841
11700229800.0 0.9925208664 -0.1549302974
11750229500.0 0.9900971769 -0.1689000265
11800229200.0 0.9872255854 -0.1818705664
11850228900.0 0.9836191118 -0.1936817365
11900228600.0 0.9797044505 -0.2033254222
11950228300.0 0.9764282656 -0.2135502759
12000228000.0 0.9738460753 -0.2221162303
12050227700.0 0.9702204544 -0.2345415672
12100227400.0 0.9670584653 -0.2458014836
12150227100.0 0.9621085826 -0.2629250083
12200226800.0 0.9578081709 -0.2733197105
12250226500.0 0.9542836345 -0.286531179
12300226200.0 0.9495550753 -0.2982892329
12350225900.0 0.944294538 -0.3119486644
12400225600.0 0.9401589484 -0.3245550358
12450225300.0 0.9356563845 -0.3368555435
12500225000.0 0.9302909368 -0.3517576645
12550224700.0 0.9248293312 -0.3656139047
12600224400.0 0.9199620226 -0.3782207735
12650224100.0 0.9140277736 -0.3925907695
12700223800.0 0.9088717234 -0.405532273
12750223500.0 0.9035486054 -0.4185346909
12800223200.0 0.8980491013 -0.4312288421
12850222900.0 0.8928986948 -0.4433502161
12900222600.0 0.8871594399 -0.4558258075
12950222300.0 0.8811411373 -0.4677153191
13000222000.0 0.8751056907 -0.4792803919
13050221700.0 0.868335364 -0.4920044286
13100221400.0 0.8614542225 -0.5040107599
13150221100.0 0.8543195279 -0.5168563621
13200220800.0 0.8476978595 -0.5282536915
13250220500.0 0.8404653627 -0.5404256208
13300220200.0 0.8328122466 -0.5513586668
13350219900.0 0.8247148771 -0.5632928772
13400219600.0 0.8163141475 -0.5753875672
13450219300.0 0.8069619729 -0.5881359116
13500219000.0 0.7974606118 -0.6016660901
13550218700.0 0.7878743621 -0.6133634873
13600218400.0 0.7774332448 -0.6254316391
13650218100.0 0.7683524261 -0.6362283311
13700217800.0 0.7569088206 -0.6483247553
13750217500.0 0.7475201485 -0.6589510455
13800217200.0 0.7358175514 -0.6706564939
13850216900.0 0.7254109073 -0.6811941621
13900216600.0 0.7161831013 -0.6904547487
13950216300.0 0.7051219865 -0.6997103645
14000216000.0 0.6953462688 -0.7095734201
14050215700.0 0.6860079492 -0.7174887187
14100215400.0 0.6762804498 -0.7265191926
14150215100.0 0.6674664595 -0.735243256
14200214800.0 0.6577254848 -0.744235256
14250214500.0 0.6473770751 -0.7536938755
14300214200.0 0.6368286769 -0.7630809979
14350213900.0 0.6256620647 -0.7725180185
14400213600.0 0.6138757447 -0.7825980071
14450213300.0 0.6010266018 -0.7926927115
14500213000.0 0.5878185481 -0.802253955
14550212700.0 0.5757970821 -0.8116464322
14600212400.0 0.5638561548 -0.8205232287
14650212100.0 0.5503216166 -0.8296354485
14700211800.0 0.5364944711 -0.838770562
14750211500.0 0.5246031686 -0.8473121521
14800211200.0 0.5118085232 -0.85561614
14850210900.0 0.4996632075 -0.863314466
14900210600.0 0.4865037227 -0.8710700484
14950210300.0 0.4729978018 -0.8788569816
15000210000.0 0.4604124332 -0.8855352606
15050209700.0 0.4481356053 -0.8916064731
15100209400.0 0.4354727429 -0.8972022565
15150209100.0 0.4237331675 -0.902979665
15200208800.0 0.4102274338 -0.9087238912
15250208500.0 0.3994753984 -0.912982384
15300208200.0 0.3864263463 -0.9179478698
15350207900.0 0.373828669 -0.9219899476
15400207600.0 0.3593704394 -0.928383501
15450207300.0 0.3440301055 -0.9331505519
15500207000.0 0.3302036098 -0.936968611
15550206700.0 0.3151708733 -0.9422925075
15600206400.0 0.2990247893 -0.9466150854
15650206100.0 0.2835349523 -0.9504953949
15700205800.0 0.2697682218 -0.954183124
15750205500.0 0.2557526286 -0.9578797528
15800205200.0 0.2419033754 -0.9612534143
15850204900.0 0.227870799 -0.9648598975
15900204600.0 0.2125833136 -0.968540351
15950204300.0 0.1982070035 -0.9714977977
16000204000.0 0.1841268358 -0.9744245571
16050203700.0 0.1689488685 -0.9775021398
16100203400.0 0.1545867373 -0.9799360128
16150203100.0 0.1394627864 -0.9823194429
16200202800.0 0.1248477461 -0.9838806757
16250202500.0 0.1107153305 -0.9861046674
16300202200.0 0.0941876746 -0.9874720113
16350201900.0 0.0799859172 -0.988926808
16400201600.0 0.0649992143 -0.9898507635
16450201300.0 0.0495370775 -0.9913458096
16500201000.0 0.0324099796 -0.9920617649
16550200700.0 0.016281903 -0.9925140004
16600200400.0 0.0004660809 -0.9926597081
16650200100.0 -0.015512225 -0.9927016959
16700199800.0 -0.0321882236 -0.9922779461
16750199500.0 -0.0511435253 -0.991417834
16800199200.0 -0.0672948781 -0.9908222265
16850198900.0 -0.0828823185 -0.9895090262
16900198600.0 -0.0967179277 -0.9886343651
16950198300.0 -0.1100280352 -0.9876373695
17000198000.0 -0.1233500089 -0.9864909917
17050197700.0 -0.1363124984 -0.9835372311
17100197400.0 -0.1497875461 -0.9821066318
17150197100.0 -0.1621856289 -0.9798942836
17200196800.0 -0.1743812526 -0.9775011059
17250196500.0 -0.1876776464 -0.975616409
17300196200.0 -0.199354271 -0.9732024655
17350195900.0 -0.2112870662 -0.9708441379
17400195600.0 -0.2235011261 -0.9684277881
17450195300.0 -0.2360977769 -0.9654113288
17500195000.0 -0.2494407795 -0.9621277211
17550194700.0 -0.2630520901 -0.9585556121
17600194400.0 -0.2767846692 -0.9550184384
17650194100.0 -0.29066993 -0.9505733816
17700193800.0 -0.3032842675 -0.9462133832
17750193500.0 -0.3176049932 -0.9416799397
17800193200.0 -0.3320312238 -0.9363444862
17850192900.0 -0.3469238518 -0.9311504451
17900192600.0 -0.3617398538 -0.925113427
17950192300.0 -0.3772186348 -0.9182379249
18000192000.0 -0.3921946679 -0.9107382963
18050191700.0 -0.406036789 -0.9027738656
18100191400.0 -0.4200887057 -0.8950310917
18150191100.0 -0.4350196723 -0.8870609675
18200190800.0 -0.4518469665 -0.877852014
18250190500.0 -0.4688671608 -0.8683725535
18300190200.0 -0.4840232588 -0.8599791309
18350189900.0 -0.4994820185 -0.8510685207
18400189600.0 -0.5140780112 -0.8425315624
18450189300.0 -0.5271747301 -0.8347661102
18500189000.0 -0.5412198232 -0.8266348741
18550188700.0 -0.5537307276 -0.8192845299
18600188400.0 -0.5656797824 -0.8120926047
18650188100.0 -0.5772449367 -0.8053209447
18700187800.0 -0.5883120498 -0.7986216238
18750187500.0 -0.5989860678 -0.7922037297
18800187200.0 -0.6095832745 -0.7851871094
18850186900.0 -0.6196576688 -0.7783611934
18900186600.0 -0.6300579686 -0.7710498084
18950186300.0 -0.6402223345 -0.7631901246
19000186000.0 -0.6479000172 -0.757055792
19050185700.0 -0.6568533261 -0.7498536102
19100185400.0 -0.6667568351 -0.7415507225
19150185100.0 -0.6772696614 -0.732969999
19200184800.0 -0.6861055838 -0.7253633399
19250184500.0 -0.6965085671 -0.7159585763
19300184200.0 -0.7075234968 -0.7060985923
19350183900.0 -0.7192539291 -0.6971988235
19400183600.0 -0.7282507791 -0.6867113062
19450183300.0 -0.7377378346 -0.6772529223
19500183000.0 -0.7461502057 -0.6669546986
19550182700.0 -0.7555102988 -0.655600113
19600182400.0 -0.7659696107 -0.6440159072
19650182100.0 -0.7762065735 -0.6316844537
19700181800.0 -0.7864898079 -0.6184179898
19750181500.0 -0.7967907124 -0.6045290154
19800181200.0 -0.8071397647 -0.5896887025
19850180900.0 -0.8169303597 -0.5741990936
19900180600.0 -0.8244891897 -0.559867519
19950180300.0 -0.8333754391 -0.5435238584
20000180000.0 -0.823521709 -0.5470303313
20050179700.0 -0.8315906813 -0.534592935
20100179400.0 -0.8395838703 -0.5213598613
20150179100.0 -0.8476805908 -0.5095006164
20200178800.0 -0.8562910087 -0.4972521385
20250178500.0 -0.865546318 -0.485207029
20300178200.0 -0.8750616939 -0.470812588
20350177900.0 -0.8846828641 -0.4574299399
20400177600.0 -0.8935561782 -0.4429300639
20450177300.0 -0.9019931842 -0.4289724372
20500177000.0 -0.910025543 -0.415060701
20550176700.0 -0.9181029124 -0.4013287545
20600176400.0 -0.9250583107 -0.388618907
20650176100.0 -0.9315028064 -0.3762544956
20700175800.0 -0.9381767337 -0.3644469582
20750175500.0 -0.9441470681 -0.3527454677
20800175200.0 -0.9493273209 -0.3426286502
20850174900.0 -0.9531589682 -0.3316045478
20900174600.0 -0.9587794045 -0.3203879997
20950174300.0 -0.9616832188 -0.3098702202
21000174000.0 -0.9641544936 -0.2988840967
21050173700.0 -0.966499179 -0.2883986052
21100173400.0 -0.9699668096 -0.278480864
21150173100.0 -0.9729608225 -0.2655417849
21200172800.0 -0.9774890551 -0.2526344781
21250172500.0 -0.981132324 -0.2392369702
21300172200.0 -0.9844681728 -0.2246217353
21350171900.0 -0.9864252156 -0.2107974616
21400171600.0 -0.9889183448 -0.1960590757
21450171300.0 -0.9890751095 -0.1816114619
21500171000.0 -0.9881695141 -0.1674617608
21550170700.0 -0.9892500523 -0.152348528
21600170400.0 -0.9914082685 -0.1370926678
21650170100.0 -0.9910516203 -0.1210453157
21700169800.0 -0.9897561205 -0.1061214242
21750169500.0 -0.9895332323 -0.0896067793
21800169200.0 -0.9896955138 -0.072865636
21850168900.0 -0.9892067865 -0.0560642879
21900168600.0 -0.9892261124 -0.0401602988
21950168300.0 -0.9889637783 -0.0240005276
22000168000.0 -0.9883933243 -0.0097023749
22050167700.0 -0.9892107458 0.0052638762
22100167400.0 -0.990063029 0.0207679731
22150167100.0 -0.9908787532 0.0370429333
22200166800.0 -0.9918627741 0.0536921024
22250166500.0 -0.9905964592 0.0705833438
22300166200.0 -0.9901697625 0.0873399276
22350165900.0 -0.9889398343 0.1032405353
22400165600.0 -0.9871493295 0.1189766168
22450165300.0 -0.9857847634 0.133227075
22500165000.0 -0.9841677664 0.1476003697
22550164700.0 -0.9829893734 0.1645814904
22600164400.0 -0.9799442038 0.180415564
22650164100.0 -0.9781042452 0.1957512963
22700163800.0 -0.9748075213 0.2116807698
22750163500.0 -0.9722523658 0.2265520558
22800163200.0 -0.9686793605 0.2393601083
22850162900.0 -0.9664294986 0.2532564629
22900162600.0 -0.9645071545 0.267077537
22950162300.0 -0.9627441387 0.2808475982
23000162000.0 -0.9608111709 0.2932173429
23050161700.0 -0.9580680848 0.3065698706
23100161400.0 -0.9556928061 0.3200371738
23150161100.0 -0.9530071967 0.3335305522
23200160800.0 -0.9492877825 0.3459938372
23250160500.0 -0.9472403225 0.3575641004
23300160200.0 -0.9441570112 0.3705339216
23350159900.0 -0.9401845295 0.3854417451
23400159600.0 -0.9351125127 0.3980340312
23450159300.0 -0.9299819234 0.4123862765
23500159000.0 -0.9252271612 0.4258456787
23550158700.0 -0.9203692549 0.4396808485
23600158400.0 -0.9138561509 0.4536415895
23650158100.0 -0.9071205399 0.4683271852
23700157800.0 -0.8988468967 0.4826095905
23750157500.0 -0.8892329447 0.4970332261
23800157200.0 -0.8798642549 0.509967313
23850156900.0 -0.8700844798 0.5233743563
23900156600.0 -0.8607911784 0.5355580995
23950156300.0 -0.8504112311 0.5478019838
24000156000.0 -0.8406929136 0.5608109778
24050155700.0 -0.8308781252 0.5730130677
24100155400.0 -0.8197810804 0.5858485459
24150155100.0 -0.8089651653 0.5980031917
24200154800.0 -0.7982865567 0.6094329092
24250154500.0 -0.787167157 0.6216408565
24300154200.0 -0.7754776469 0.6329967887
24350153900.0 -0.7636176603 0.6441767894
24400153600.0 -0.7508922742 0.6552714712
24450153300.0 -0.7391989938 0.6651498247
24500153000.0 -0.7276928115 0.6750627322
24550152700.0 -0.7163082336 0.6854964824
24600152400.0 -0.7044592627 0.6943135356
24650152100.0 -0.6918664816 0.7032196373
