!Created with skrf (http://scikit-rf.org).
# Hz S RI R 50.0 
!freq ReS11 ImS11
300000.0 -0.9750753788 -0.1176568174
50299700.0 -1.000124297 0.0154855625
100299400.0 -0.9980303363 0.0283097285
150299100.0 -1.002995113 0.0451301886
200298800.0 -0.9994316308 0.0584797031
250298500.0 -0.9974599883 0.0721063957
300298200.0 -0.9861900855 0.0876961108
350297900.0 -0.9939225831 0.0987887227
400297600.0 -0.9933161647 0.1152947679
450297300.0 -0.9910687539 0.1291237133
500297000.0 -0.9894439913 0.1438730633
550296700.0 -0.9842844098 0.1561780206
600296400.0 -1.017371612 0.1894430756
650296100.0 -0.9823664336 0.1862709642
700295800.0 -0.9792691052 0.2005919925
750295500.0 -0.976350612 0.2143235223
800295200.0 -0.9731134056 0.2286537719
850294900.0 -0.9695618887 0.242336669
900294600.0 -0.9659118434 0.2562242629
950294300.0 -0.962128093 0.2699799196
1000294000.0 -0.9582237091 0.2839910166
1050293700.0 -0.9537049061 0.2976333252
1100293400.0 -0.9494136358 0.3121280067
1150293100.0 -0.9454190653 0.3239313194
1200292800.0 -0.9400097899 0.3383818497
1250292500.0 -0.9346247458 0.3516931581
1300292200.0 -0.9290409614 0.3649003507
1350291900.0 -0.923382599 0.3789704818
1400291600.0 -0.9180484932 0.3921458696
1450291300.0 -0.9122386081 0.4045340754
1500291000.0 -0.9061997436 0.4177377126
1550290700.0 -0.8996423634 0.4311747071
1600290400.0 -0.8935956425 0.4440104215
1650290100.0 -0.8867773232 0.4562597075
1700289800.0 -0.879914609 0.4698573579
1750289500.0 -0.8726573523 0.4821076352
1800289200.0 -0.8654353907 0.4949936277
1850288900.0 -0.858790907 0.5062561378
1900288600.0 -0.8509914455 0.5193761773
1950288300.0 -0.8428639061 0.5319057037
2000288000.0 -0.8355058906 0.5431599506
2050287700.0 -0.8270358883 0.5556293771
2100287400.0 -0.8192944649 0.5671163276
2150287100.0 -0.8106953954 0.579247069
2200286800.0 -0.8030084384 0.5895720916
2250286500.0 -0.7939303269 0.6015873844
2300286200.0 -0.7851246388 0.6132283929
2350285900.0 -0.7763612537 0.6242685564
2400285600.0 -0.7675728614 0.6351951542
2450285300.0 -0.759139183 0.6455504999
2500285000.0 -0.7489627868 0.656803855
2550284700.0 -0.7401492655 0.6672249052
2600284400.0 -0.7309521133 0.6773220634
2650284100.0 -0.7215436685 0.6876055089
2700283800.0 -0.711145966 0.6982840634
2750283500.0 -0.7008705711 0.7088486943
2800283200.0 -0.6912101164 0.7187797416
2850282900.0 -0.6809220956 0.7285134817
2900282600.0 -0.670585344 0.7380448468
2950282300.0 -0.6601978154 0.7474047835
3000282000.0 -0.6496960408 0.7569935775
3050281700.0 -0.6383983861 0.7658684089
3100281400.0 -0.6265945058 0.7755036668
3150281100.0 -0.6149366835 0.7847134256
3200280800.0 -0.6032446874 0.7931911897
3250280500.0 -0.5922737491 0.8009095143
3300280200.0 -0.5811005071 0.8090827351
3350279900.0 -0.5695390382 0.8164273394
3400279600.0 -0.5572620468 0.8242553482
3450279300.0 -0.5460335795 0.831349913
3500279000.0 -0.5342027913 0.8385445456
3550278700.0 -0.5218776885 0.845776917
3600278400.0 -0.5095196291 0.8529708089
3650278100.0 -0.4962607197 0.8603661462
3700277800.0 -0.4840071172 0.8670116513
3750277500.0 -0.4721437436 0.8734962217
3800277200.0 -0.4595360559 0.8801391443
3850276900.0 -0.447522778 0.8860338027
3900276600.0 -0.4368226415 0.8915426894
3950276300.0 -0.4243447258 0.8973922597
4000276000.0 -0.4124133958 0.903678818
4050275700.0 -0.3994638381 0.909746749
4100275400.0 -0.38832368 0.914836278
4150275100.0 -0.3755860252 0.9208776574
4200274800.0 -0.3623829013 0.9264203306
4250274500.0 -0.3501701623 0.9312229367
4300274200.0 -0.337090157 0.9367423296
4350273900.0 -0.3232802397 0.9419385143
4400273600.0 -0.3085007689 0.9473214775
4450273300.0 -0.2933416887 0.9525661573
4500273000.0 -0.2796604358 0.9566945092
4550272700.0 -0.2656346442 0.961010537
4600272400.0 -0.2501047305 0.9651412173
4650272100.0 -0.238523309 0.9683159811
4700271800.0 -0.2250620229 0.9716593984
4750271500.0 -0.2135350411 0.9744713747
4800271200.0 -0.2010072584 0.9773035858
4850270900.0 -0.1869891667 0.9800070002
4900270600.0 -0.1731712623 0.9824793743
4950270300.0 -0.1588982872 0.9851671052
5000270000.0 -0.144637673 0.9870836802
5050269700.0 -0.1310925107 0.9885811816
5100269400.0 -0.117580386 0.9905274419
5150269100.0 -0.1039536723 0.9923319126
5200268800.0 -0.0906320801 0.9931782415
5250268500.0 -0.0776854711 0.9941112762
5300268200.0 -0.064547414 0.9949722546
5350267900.0 -0.0520631112 0.9953191646
5400267600.0 -0.0359305954 0.9961015875
5450267300.0 -0.0229698592 0.9966415756
5500267000.0 -0.0077431274 0.9970965488
5550266700.0 0.0072028743 0.9973599855
5600266400.0 0.0230005847 0.9970443377
5650266100.0 0.0394159061 0.9969256542
5700265800.0 0.053899132 0.9960544676
5750265500.0 0.0693033116 0.9957997095
5800265200.0 0.0829315196 0.9943721886
5850264900.0 0.096262961 0.9933711604
5900264600.0 0.1128905413 0.9915813497
5950264300.0 0.1246227703 0.9899728289
6000264000.0 0.1386240375 0.9879003683
6050263700.0 0.1509992419 0.9869502524
6100263400.0 0.1634178704 0.9848581706
6150263100.0 0.177944946 0.9828010505
6200262800.0 0.1882847737 0.9810484695
6250262500.0 0.2007678712 0.9785437432
6300262200.0 0.2137720184 0.9758441117
6350261900.0 0.2267887839 0.9727291651
6400261600.0 0.240453423 0.969555421
6450261300.0 0.2518664178 0.9667570683
6500261000.0 0.2647875091 0.9630192499
6550260700.0 0.2778088558 0.9593538925
6600260400.0 0.291110582 0.9552448774
6650260100.0 0.3051155974 0.951062228
6700259800.0 0.3171338423 0.9466128273
6750259500.0 0.3311881847 0.9416370175
6800259200.0 0.3441552098 0.9367561011
6850258900.0 0.355851408 0.9312680426
6900258600.0 0.3685191513 0.9265412298
6950258300.0 0.3810552667 0.9212022694
7000258000.0 0.3929416213 0.915731956
7050257700.0 0.4050338568 0.909680989
7100257400.0 0.4179164469 0.9034957148
7150257100.0 0.4281702666 0.8981064125
7200256800.0 0.4411976154 0.8918903337
7250256500.0 0.4532633197 0.8853447904
7300256200.0 0.466036497 0.8786579596
7350255900.0 0.4784523176 0.8715649742
7400255600.0 0.492160342 0.8645562704
7450255300.0 0.5073788892 0.8554803631
7500255000.0 0.5190356712 0.8483025013
7550254700.0 0.5328134204 0.8397434734
7600254400.0 0.5454939304 0.8313348038
7650254100.0 0.5569890369 0.8235936301
7700253800.0 0.5687763201 0.8155991531
7750253500.0 0.5800599772 0.8079930688
7800253200.0 0.590816583 0.800283128
7850252900.0 0.6004435029 0.7931392864
7900252600.0 0.6120293937 0.7844187376
7950252300.0 0.620866182 0.7778580672
8000252000.0 0.6311310354 0.7701911797
8050251700.0 0.6414003451 0.7619856887
8100251400.0 0.6515804377 0.7539307831
8150251100.0 0.661602942 0.7453472562
8200250800.0 0.670698525 0.7374064121
8250250500.0 0.6801223786 0.7293698344
8300250200.0 0.689652938 0.7206948067
8350249900.0 0.6982933917 0.7120690568
8400249600.0 0.7064765211 0.7038503882
8450249300.0 0.7158555713 0.6948455487
8500249000.0 0.7245059952 0.6859527606
8550248700.0 0.7326474746 0.676893937
8600248400.0 0.7410415717 0.6672971689
8650248100.0 0.7488308254 0.6578956175
8700247800.0 0.7582188602 0.6469201237
8750247500.0 0.7665451076 0.6366268094
8800247200.0 0.7746417539 0.6264601573
8850246900.0 0.7833096588 0.6147182813
8900246600.0 0.792086201 0.603229916
8950246300.0 0.8016442048 0.5907272153
9000246000.0 0.8108773831 0.5778515086
9050245700.0 0.8194781085 0.5648589371
9100245400.0 0.8283497248 0.5523422254
9150245100.0 0.8374654747 0.5387653229
9200244800.0 0.8472420545 0.5236968141
9250244500.0 0.8567988717 0.5083139441
9300244200.0 0.8647995649 0.4938795907
9350243900.0 0.8728004073 0.4801907133
9400243600.0 0.8795800186 0.4678429246
9450243300.0 0.8854823185 0.4562047312
9500243000.0 0.8916852333 0.4442730244
9550242700.0 0.895445003 0.4364243549
9600242400.0 0.8994848783 0.428961995
9650242100.0 0.9031554809 0.4226160585
9700241800.0 0.9076299189 0.4143756701
9750241500.0 0.9118284927 0.4069056718
9800241200.0 0.9164256702 0.3977929419
9850240900.0 0.9219194436 0.386111926
9900240600.0 0.9276191745 0.3746406933
9950240300.0 0.9341924155 0.3582849419
10000240000.0 0.9390563312 0.3465966795
10050239700.0 0.944831695 0.3316203378
10100239400.0 0.9496515269 0.3157543762
10150239100.0 0.9540078032 0.3008741972
10200238800.0 0.9582012404 0.2858722748
10250238500.0 0.9616249503 0.272517844
10300238200.0 0.9647044675 0.258452767
10350237900.0 0.9673692829 0.2458201258
10400237600.0 0.9699243071 0.2323664202
10450237300.0 0.9727376465 0.2182470732
10500237000.0 0.9747647224 0.206519674
10550236700.0 0.976909741 0.1924780076
10600236400.0 0.9794338895 0.1785328323
10650236100.0 0.9812033332 0.164088127
10700235800.0 0.983500572 0.1518280996
10750235500.0 0.9858020115 0.1381119117
10800235200.0 0.9874976746 0.1241051503
10850234900.0 0.989598707 0.1094199871
10900234600.0 0.9916997082 0.0949565331
10950234300.0 0.9934761291 0.0816114142
11000234000.0 0.9952883788 0.0664857347
11050233700.0 0.9970574786 0.0501884275
11100233400.0 0.9982982111 0.0327845078
11150233100.0 0.9994175132 0.0159229836
11200232800.0 1.00033488 0.0011910993
11250232500.0 1.001395525 -0.0155524147
11300232200.0 1.002124621 -0.0329644396
11350231900.0 1.001795195 -0.0494369343
11400231600.0 1.001188959 -0.0650238124
11450231300.0 1.001088132 -0.0798176352
11500231000.0 0.9999847528 -0.09638938
11550230700.0 0.9983710057 -0.1100207557
11600230400.0 0.9972996348 -0.1226490299
11650230100.0 0.9950228118 -0.133288003
11700229800.0 0.9930038788 -0.1486899551
11750229500.0 0.9908078439 -0.1628638312
11800229200.0 0.9882129731 -0.1769338772
11850228900.0 0.9843936376 -0.1890587238
11900228600.0 0.9811487767 -0.1987631176
11950228300.0 0.9776170269 -0.2090912719
12000228000.0 0.9750042146 -0.218108486
12050227700.0 0.9711676407 -0.2314337765
12100227400.0 0.9679236869 -0.2422724965
12150227100.0 0.9632076478 -0.2584434539
12200226800.0 0.959635705 -0.2702018344
12250226500.0 0.9557328259 -0.2819717888
12300226200.0 0.9513733797 -0.2949591129
12350225900.0 0.946057848 -0.3083232413
12400225600.0 0.9416366382 -0.3215609411
12450225300.0 0.9372212605 -0.3338870298
12500225000.0 0.9323322 -0.3486217735
12550224700.0 0.9265571905 -0.3627911864
12600224400.0 0.9217554181 -0.3754263978
12650224100.0 0.9160775335 -0.3898105103
12700223800.0 0.910727739 -0.4027041403
12750223500.0 0.9053051111 -0.4155504137
12800223200.0 0.8999646966 -0.4285154333
12850222900.0 0.8945721898 -0.440354852
12900222600.0 0.8888271861 -0.4519908559
12950222300.0 0.8826146031 -0.4650021337
13000222000.0 0.8765354197 -0.4770768851
13050221700.0 0.8698987146 -0.4897380473
13100221400.0 0.8638645275 -0.5011706894
13150221100.0 0.8566286205 -0.5137316859
13200220800.0 0.8493539085 -0.5254565365
13250220500.0 0.8420603343 -0.5373558117
13300220200.0 0.8347835664 -0.5482990864
13350219900.0 0.8269174251 -0.5603494118
13400219600.0 0.8183459114 -0.572146929
13450219300.0 0.8089770824 -0.5857559937
13500219000.0 0.799034897 -0.5995168971
13550218700.0 0.7886663499 -0.6122861335
13600218400.0 0.7785002563 -0.6242425547
13650218100.0 0.7693131533 -0.6352298467
13700217800.0 0.7583442385 -0.6472784245
13750217500.0 0.7478873268 -0.659982224
13800217200.0 0.7378870785 -0.67052703
13850216900.0 0.7268933378 -0.6814867598
13900216600.0 0.7157755871 -0.6908207808
13950216300.0 0.704728037 -0.7008885302
14000216000.0 0.6951714484 -0.7104415127
14050215700.0 0.6857601681 -0.7187309837
14100215400.0 0.6757723666 -0.7276554766
14150215100.0 0.6666216427 -0.736445162
14200214800.0 0.6572644205 -0.7450490305
14250214500.0 0.6468702502 -0.7544266687
14300214200.0 0.6365292324 -0.7639157966
14350213900.0 0.6251204451 -0.7735102295
14400213600.0 0.6135844622 -0.7832582742
14450213300.0 0.6007038219 -0.7937619009
14500213000.0 0.5869324261 -0.8035953386
14550212700.0 0.5750654671 -0.8125672084
14600212400.0 0.5623205976 -0.8214106824
14650212100.0 0.5498821782 -0.8300858883
14700211800.0 0.5358700845 -0.839600942
14750211500.0 0.5236418519 -0.8481844785
14800211200.0 0.5112866069 -0.856140747
14850210900.0 0.4990695659 -0.8634622879
14900210600.0 0.4857371622 -0.8714870416
14950210300.0 0.4723596177 -0.8792157615
15000210000.0 0.4597881133 -0.8860055735
15050209700.0 0.4476230052 -0.8920340391
15100209400.0 0.4345645722 -0.8979468612
15150209100.0 0.4229474047 -0.9031320859
15200208800.0 0.4102559136 -0.9086415376
15250208500.0 0.3982545414 -0.9131064376
15300208200.0 0.3854321846 -0.9180744027
15350207900.0 0.3723614706 -0.9228028632
15400207600.0 0.3583704642 -0.9279336709
15450207300.0 0.3437170337 -0.9331043369
15500207000.0 0.3284413621 -0.9378721359
15550206700.0 0.3141340885 -0.9426769012
15600206400.0 0.2980751086 -0.947090944
15650206100.0 0.282612363 -0.9513827835
15700205800.0 0.2684765412 -0.9552753018
15750205500.0 0.253859719 -0.9587170653
15800205200.0 0.2396432836 -0.9620951311
15850204900.0 0.2253556869 -0.9655392192
15900204600.0 0.2103491589 -0.9690848892
15950204300.0 0.196261028 -0.9720581701
16000204000.0 0.1819396527 -0.9748224984
16050203700.0 0.1670568147 -0.9778444254
16100203400.0 0.1529105504 -0.9802475697
16150203100.0 0.1385149235 -0.9823121461
16200202800.0 0.1240070444 -0.9845555155
16250202500.0 0.1089859634 -0.9859373737
16300202200.0 0.093729444 -0.9876221887
16350201900.0 0.0787666669 -0.9894157921
16400201600.0 0.0643481911 -0.9903986478
16450201300.0 0.04897575 -0.9912173279
16500201000.0 0.032190963 -0.9921355333
16550200700.0 0.0165862305 -0.9926663342
16600200400.0 0.000987277 -0.9928071275
16650200100.0 -0.0149501462 -0.9927122505
16700199800.0 -0.0313854661 -0.9926589456
16750199500.0 -0.05016917 -0.9917068878
16800199200.0 -0.0660387698 -0.9907860262
16850198900.0 -0.0810153148 -0.9895855262
16900198600.0 -0.094853546 -0.9889316423
16950198300.0 -0.1085752307 -0.9876152095
17000198000.0 -0.1209893813 -0.9856256445
17050197700.0 -0.1339281574 -0.9843330821
17100197400.0 -0.1472128562 -0.9819200163
17150197100.0 -0.1599211709 -0.9803708146
17200196800.0 -0.1723648015 -0.978403052
17250196500.0 -0.1851982094 -0.9755864979
17300196200.0 -0.1971812817 -0.9734768367
17350195900.0 -0.2091657872 -0.9711268262
17400195600.0 -0.2214655698 -0.968764253
17450195300.0 -0.2345229566 -0.9659743429
17500195000.0 -0.2481166971 -0.9626270912
17550194700.0 -0.2618652755 -0.9587893298
17600194400.0 -0.2758508074 -0.9548959791
17650194100.0 -0.2898803702 -0.9505608089
17700193800.0 -0.3023526341 -0.9462813366
17750193500.0 -0.3168735761 -0.9420406566
17800193200.0 -0.331183984 -0.9367036923
17850192900.0 -0.346171683 -0.9318539339
17900192600.0 -0.3614548318 -0.9256986149
17950192300.0 -0.3771888129 -0.9185353915
18000192000.0 -0.3918010175 -0.9108832884
18050191700.0 -0.4057715773 -0.903059549
18100191400.0 -0.419931227 -0.8954300753
18150191100.0 -0.435011135 -0.8875588439
18200190800.0 -0.4517258274 -0.8782812192
18250190500.0 -0.4686455023 -0.8689676489
18300190200.0 -0.4841689957 -0.859979727
18350189900.0 -0.499399969 -0.8517511187
18400189600.0 -0.5140147459 -0.842896195
18450189300.0 -0.5271781171 -0.8357885993
18500189000.0 -0.5404020143 -0.8275539475
18550188700.0 -0.5529539443 -0.8202648054
18600188400.0 -0.5650197016 -0.813053174
18650188100.0 -0.5756643678 -0.8066514246
18700187800.0 -0.5868357418 -0.799956249
18750187500.0 -0.5976684669 -0.7936113955
18800187200.0 -0.6080117574 -0.7864202648
18850186900.0 -0.6182208367 -0.7796103892
18900186600.0 -0.6284072907 -0.7722492758
18950186300.0 -0.6383968179 -0.7644599366
19000186000.0 -0.6460574176 -0.7585335545
19050185700.0 -0.655272977 -0.7512956481
19100185400.0 -0.6653147118 -0.742992754
19150185100.0 -0.6751527078 -0.7349505021
19200184800.0 -0.684736789 -0.7260250694
19250184500.0 -0.6941987795 -0.7167611028
19300184200.0 -0.706354765 -0.708077358
19350183900.0 -0.7165671532 -0.6979426622
19400183600.0 -0.7265271277 -0.688413363
19450183300.0 -0.735743725 -0.6783227443
19500183000.0 -0.743848395 -0.6681911842
19550182700.0 -0.7537513224 -0.6572109714
19600182400.0 -0.76397055 -0.6455085855
19650182100.0 -0.774595955 -0.632683233
19700181800.0 -0.7855629411 -0.6194163417
19750181500.0 -0.7959762358 -0.6053784299
19800181200.0 -0.8062922873 -0.5904624127
19850180900.0 -0.8159234783 -0.5750287296
19900180600.0 -0.8239400669 -0.5606056693
19950180300.0 -0.8328264113 -0.544026419
20000180000.0 -0.826194847 -0.546462198
20050179700.0 -0.83404438 -0.5334986593
20100179400.0 -0.8419810401 -0.5199444302
20150179100.0 -0.8509886655 -0.5079380092
20200178800.0 -0.8597212911 -0.4948485092
20250178500.0 -0.8682381551 -0.4817483372
20300178200.0 -0.8788141161 -0.4676301185
20350177900.0 -0.887414286 -0.4526324585
20400177600.0 -0.8965917787 -0.4382775265
20450177300.0 -0.9045569624 -0.4240337281
20500177000.0 -0.9127932124 -0.4099996695
20550176700.0 -0.9205672985 -0.3964792975
20600176400.0 -0.9277058091 -0.3833819573
20650176100.0 -0.9343167105 -0.3709051972
20700175800.0 -0.9406269661 -0.3591685397
20750175500.0 -0.9477460346 -0.3474830662
20800175200.0 -0.9524043443 -0.3369074856
20850174900.0 -0.9562673912 -0.3258154184
20900174600.0 -0.9613842936 -0.3139717606
20950174300.0 -0.9653535333 -0.3031569255
21000174000.0 -0.9685982275 -0.2924602588
21050173700.0 -0.9714930298 -0.28146866
21100173400.0 -0.9752145256 -0.2691959736
21150173100.0 -0.979101475 -0.2567841251
21200172800.0 -0.9830780102 -0.2431634641
21250172500.0 -0.986238492 -0.2294785395
21300172200.0 -0.9887495903 -0.2154647725
21350171900.0 -0.9907567133 -0.2008128327
21400171600.0 -0.9916235266 -0.1876752437
21450171300.0 -0.9918848479 -0.1716009748
21500171000.0 -0.9928161598 -0.1569289909
21550170700.0 -0.9927571064 -0.1404735438
21600170400.0 -0.9930126186 -0.1267224933
21650170100.0 -0.9914717473 -0.1096756451
21700169800.0 -0.9895637689 -0.0945000127
21750169500.0 -0.9891157184 -0.0795046163
21800169200.0 -0.9886657605 -0.061641424
21850168900.0 -0.9870983253 -0.04555545
21900168600.0 -0.9858582659 -0.02937028
21950168300.0 -0.9848754056 -0.013385378
22000168000.0 -0.9841052957 0.0018142222
22050167700.0 -0.9839002105 0.0160610217
22100167400.0 -0.9839961808 0.0309494528
22150167100.0 -0.9849693023 0.0466953745
22200166800.0 -0.9848099676 0.0633727894
22250166500.0 -0.9843051173 0.0803662667
22300166200.0 -0.9840976456 0.0970702254
22350165900.0 -0.9824090741 0.1128290172
22400165600.0 -0.9813911242 0.1297632759
22450165300.0 -0.9787325227 0.1434988378
22500165000.0 -0.9768639251 0.1579560723
22550164700.0 -0.9765559197 0.1729547566
22600164400.0 -0.9753263585 0.1890517695
22650164100.0 -0.9717250334 0.2033248754
22700163800.0 -0.9693193296 0.2196573969
22750163500.0 -0.9672823978 0.234945325
22800163200.0 -0.9640442097 0.2478268103
22850162900.0 -0.9615389501 0.2615216821
22900162600.0 -0.9601163124 0.2746005325
22950162300.0 -0.958742798 0.2874105115
23000162000.0 -0.957745517 0.2990362775
23050161700.0 -0.9551789645 0.311972749
23100161400.0 -0.9535029125 0.324963816
23150161100.0 -0.9507128595 0.3374929788
23200160800.0 -0.9478465383 0.3489070113
23250160500.0 -0.9441581473 0.3616823301
23300160200.0 -0.9429642782 0.3731951439
23350159900.0 -0.9385209381 0.3874245916
23400159600.0 -0.9337198162 0.3992691312
23450159300.0 -0.9294730472 0.4136206612
23500159000.0 -0.9244469546 0.4259075259
23550158700.0 -0.9201329962 0.4396187937
23600158400.0 -0.9149224498 0.4528773374
23650158100.0 -0.908221237 0.4670546919
23700157800.0 -0.9005391373 0.4808040277
23750157500.0 -0.892310591 0.4951080462
23800157200.0 -0.8830799557 0.5078317485
23850156900.0 -0.8742303024 0.5210280545
23900156600.0 -0.8650036678 0.533669008
23950156300.0 -0.8559944905 0.5460060826
24000156000.0 -0.8469629617 0.558135551
24050155700.0 -0.836118705 0.5704756619
24100155400.0 -0.8271750558 0.5819829941
24150155100.0 -0.8162963244 0.5939218361
24200154800.0 -0.8056610315 0.6046273753
24250154500.0 -0.7944502796 0.6164742035
24300154200.0 -0.7825184055 0.6282124101
24350153900.0 -0.7707435032 0.6388123384
24400153600.0 -0.7582066186 0.6491145351
24450153300.0 -0.7467759945 0.6592496994
24500153000.0 -0.7352922983 0.6685550432
24550152700.0 -0.7234508627 0.6786560143
24600152400.0 -0.7124802501 0.6875874728
24650152100.0 -0.7005775712 0.6956962685
24700151800.0 -0.6908517334 0.70362583
