!Created with skrf (http://scikit-rf.org).
# Hz S RI R 50.0 
!freq ReS11 ImS11
300000.0 -0.9836413033 -0.0940162429
50299700.0 -1.000055736 0.0165036169
100299400.0 -0.9980290018 0.0293181387
150299100.0 -1.002686391 0.0460770776
200298800.0 -0.9995713079 0.0595052393
250298500.0 -0.9975653744 0.0730427265
300298200.0 -0.98606597 0.0886820309
350297900.0 -0.9939918545 0.0997201523
400297600.0 -0.9932196066 0.1162471928
450297300.0 -0.9908407863 0.1301774885
500297000.0 -0.9893251927 0.1448745545
550296700.0 -0.9842987019 0.1571999836
600296400.0 -1.01695373 0.1908388579
650296100.0 -0.9819124526 0.1872309128
700295800.0 -0.9791597621 0.2016198433
750295500.0 -0.9758136569 0.2155677145
800295200.0 -0.9725226766 0.2295486157
850294900.0 -0.9691362219 0.2433780864
900294600.0 -0.9656092924 0.2574781984
950294300.0 -0.9615113978 0.2708885693
1000294000.0 -0.9575971694 0.2850094533
1050293700.0 -0.9531856826 0.2986929907
1100293400.0 -0.9488948764 0.3132384723
1150293100.0 -0.9451654404 0.3248681567
1200292800.0 -0.9397315856 0.3392292348
1250292500.0 -0.9343112371 0.3526326032
1300292200.0 -0.9286002427 0.3659539822
1350291900.0 -0.9228747862 0.3802021786
1400291600.0 -0.9175577822 0.3928247209
1450291300.0 -0.9118213039 0.405405149
1500291000.0 -0.9056349806 0.4186251328
1550290700.0 -0.8992389957 0.431957189
1600290400.0 -0.893220273 0.4448668086
1650290100.0 -0.8863913092 0.456951972
1700289800.0 -0.8795592193 0.470291243
1750289500.0 -0.8726372054 0.4826324309
1800289200.0 -0.8650372585 0.4956968272
1850288900.0 -0.8583114505 0.5067766377
1900288600.0 -0.8504490251 0.5199468786
1950288300.0 -0.8424957909 0.5326821873
2000288000.0 -0.8351348976 0.5438937114
2050287700.0 -0.8268153108 0.5562881503
2100287400.0 -0.8188469969 0.5679726006
2150287100.0 -0.8099510103 0.57995025
2200286800.0 -0.8022590391 0.5902073999
2250286500.0 -0.7934672923 0.6024036125
2300286200.0 -0.784402663 0.6138780476
2350285900.0 -0.7756163035 0.6250955278
2400285600.0 -0.766491786 0.6361026742
2450285300.0 -0.7580687005 0.6464007631
2500285000.0 -0.748221888 0.6577843584
2550284700.0 -0.7392397631 0.6679724715
2600284400.0 -0.7299069076 0.6781097959
2650284100.0 -0.7208543815 0.6888156774
2700283800.0 -0.7101399679 0.6991436835
2750283500.0 -0.6998114209 0.7100056288
2800283200.0 -0.6899801294 0.7194565452
2850282900.0 -0.6798171324 0.7295147251
2900282600.0 -0.6693518477 0.7388704475
2950282300.0 -0.6595595542 0.7481429992
3000282000.0 -0.6487806265 0.7576234158
3050281700.0 -0.6375947764 0.7668324015
3100281400.0 -0.6258334044 0.776087916
3150281100.0 -0.6139165562 0.7853760445
3200280800.0 -0.6023612937 0.7938477135
3250280500.0 -0.5915865975 0.8016525532
3300280200.0 -0.5804748337 0.809435844
3350279900.0 -0.5690665607 0.8170302472
3400279600.0 -0.5570682451 0.8247633991
3450279300.0 -0.5456270513 0.8317537155
3500279000.0 -0.5337402723 0.8388450616
3550278700.0 -0.5214768161 0.8461384202
3600278400.0 -0.5091436085 0.8532432431
3650278100.0 -0.4959163524 0.8608172469
3700277800.0 -0.4838067933 0.8674881621
3750277500.0 -0.4717429834 0.8740338714
3800277200.0 -0.4591392417 0.8805811945
3850276900.0 -0.4466363963 0.8862147373
3900276600.0 -0.435778826 0.891865799
3950276300.0 -0.4231184092 0.8982409581
4000276000.0 -0.4110534776 0.9040370611
4050275700.0 -0.3980000083 0.9101631806
4100275400.0 -0.38672376 0.9155327527
4150275100.0 -0.3740455263 0.9213359663
4200274800.0 -0.3610441966 0.9266908402
4250274500.0 -0.3488650255 0.9318397215
4300274200.0 -0.3357281182 0.9371786978
4350273900.0 -0.3218971043 0.9423542089
4400273600.0 -0.3071417714 0.9475144779
4450273300.0 -0.2915006867 0.9525761361
4500273000.0 -0.2781104954 0.9568504575
4550272700.0 -0.2639708125 0.9611170105
4600272400.0 -0.2485301175 0.9652688103
4650272100.0 -0.2367631139 0.9686483121
4700271800.0 -0.2235698625 0.9718182027
4750271500.0 -0.2116871134 0.9746485089
4800271200.0 -0.1992250947 0.9775283237
4850270900.0 -0.1853321299 0.980150455
4900270600.0 -0.1716863541 0.9826330263
4950270300.0 -0.1576523853 0.9851544067
5000270000.0 -0.1432569845 0.9870143434
5050269700.0 -0.1296648065 0.9888503103
5100269400.0 -0.1164974386 0.990513243
5150269100.0 -0.1028472492 0.9924058299
5200268800.0 -0.0898715836 0.9932854451
5250268500.0 -0.0766610591 0.994379369
5300268200.0 -0.0634254151 0.9947871972
5350267900.0 -0.0515378116 0.9954002601
5400267600.0 -0.0351318055 0.9967423926
5450267300.0 -0.0219746774 0.9967457738
5500267000.0 -0.0071655934 0.997215726
5550266700.0 0.0078758712 0.997239508
5600266400.0 0.0234859198 0.9973096171
5650266100.0 0.0395800133 0.9969581138
5700265800.0 0.0542770499 0.9963781344
5750265500.0 0.0695186363 0.9954090894
5800265200.0 0.0835687863 0.9943819311
5850264900.0 0.0964256549 0.9930982084
5900264600.0 0.1132726818 0.9915292979
5950264300.0 0.1250342977 0.9896096172
6000264000.0 0.1397321423 0.9881256355
6050263700.0 0.1521139739 0.9863786611
6100263400.0 0.1647214307 0.9846201003
6150263100.0 0.1793627846 0.9821693719
6200262800.0 0.1899556443 0.9802047843
6250262500.0 0.2024132618 0.9775670946
6300262200.0 0.2154573172 0.9748056672
6350261900.0 0.2284255493 0.9719893898
6400261600.0 0.2422884549 0.9687211034
6450261300.0 0.253720858 0.9660761481
6500261000.0 0.2665905275 0.9621913249
6550260700.0 0.2794665955 0.9583702388
6600260400.0 0.2928086487 0.9543486004
6650260100.0 0.3068268402 0.9502180495
6700259800.0 0.3184360237 0.9455947599
6750259500.0 0.3327129825 0.9410440141
6800259200.0 0.3453443184 0.9360647736
6850258900.0 0.3575092804 0.9308887464
6900258600.0 0.3697754264 0.926095446
6950258300.0 0.3822153246 0.9206978125
7000258000.0 0.3942030693 0.9154433411
7050257700.0 0.4064622608 0.909422535
7100257400.0 0.4190958603 0.9030816111
7150257100.0 0.4293620591 0.8979143681
7200256800.0 0.4424196472 0.8915987793
7250256500.0 0.4539039195 0.8852382202
7300256200.0 0.4670267106 0.8785134994
7350255900.0 0.4793782946 0.8719293455
7400255600.0 0.4922284634 0.8645672945
7450255300.0 0.5074897914 0.8555726344
7500255000.0 0.518895428 0.8482996256
7550254700.0 0.5327321557 0.8398424861
7600254400.0 0.5456646963 0.8315576096
7650254100.0 0.5573824845 0.8238599206
7700253800.0 0.5689225502 0.8158579564
7750253500.0 0.5803893285 0.8076959546
7800253200.0 0.5909157268 0.799919237
7850252900.0 0.6006932777 0.7928580362
7900252600.0 0.6123952337 0.7840274556
7950252300.0 0.6214076238 0.7772937015
8000252000.0 0.6316787639 0.7691175894
8050251700.0 0.6423799312 0.7611674746
8100251400.0 0.6520845474 0.7529633223
8150251100.0 0.6627124698 0.7439843946
8200250800.0 0.6720234781 0.7359862331
8250250500.0 0.6807645207 0.7280176589
8300250200.0 0.6904384723 0.7193796846
8350249900.0 0.6996950106 0.7105830084
8400249600.0 0.7075482136 0.7026017611
8450249300.0 0.7169053578 0.69334804
8500249000.0 0.7255110736 0.6844666181
8550248700.0 0.7337226327 0.6754372022
8600248400.0 0.7421711246 0.6658566442
8650248100.0 0.7501828695 0.6565543742
8700247800.0 0.7594336074 0.6455315355
8750247500.0 0.7676744933 0.6355746273
8800247200.0 0.7756259926 0.6251590348
8850246900.0 0.7846601651 0.6139467357
8900246600.0 0.7926807709 0.6028661171
8950246300.0 0.8021203382 0.5897965764
9000246000.0 0.8116953941 0.5776289287
9050245700.0 0.8202380007 0.5644621378
9100245400.0 0.8288026898 0.5519163018
9150245100.0 0.8380363149 0.5387432832
9200244800.0 0.8477833197 0.5237969876
9250244500.0 0.8569550127 0.5081990033
9300244200.0 0.8652278662 0.4939460123
9350243900.0 0.8730263537 0.4799840287
9400243600.0 0.8797424548 0.4671632548
9450243300.0 0.8859035391 0.4553877487
9500243000.0 0.892323679 0.4426869304
9550242700.0 0.8959562853 0.4346966211
9600242400.0 0.9002095351 0.4267947779
9650242100.0 0.9038427539 0.4201136569
9700241800.0 0.9084968287 0.4116355682
9750241500.0 0.9127092939 0.4035487393
9800241200.0 0.9173239119 0.3946321477
9850240900.0 0.9227229862 0.3827841167
9900240600.0 0.9282497459 0.3711681423
9950240300.0 0.9345811454 0.3551864546
10000240000.0 0.9395963475 0.3432841674
10050239700.0 0.9445295877 0.328882364
10100239400.0 0.9498024785 0.312829792
10150239100.0 0.9543882816 0.2983794156
10200238800.0 0.9585393425 0.2834156925
10250238500.0 0.961770388 0.2700750675
10300238200.0 0.9649284419 0.2561310656
10350237900.0 0.9675071505 0.2431799077
10400237600.0 0.9701762725 0.2299767003
10450237300.0 0.9730220763 0.2164748423
10500237000.0 0.9753750829 0.2039109691
10550236700.0 0.9772160874 0.1906705316
10600236400.0 0.9795652579 0.1773070239
10650236100.0 0.9812901955 0.1630043979
10700235800.0 0.9836316154 0.150872326
10750235500.0 0.9862441488 0.1371264973
10800235200.0 0.9876000376 0.1236007785
10850234900.0 0.9898222733 0.1091831048
10900234600.0 0.9919724674 0.0942239469
10950234300.0 0.9934635413 0.0811896446
11000234000.0 0.995113055 0.0662738297
11050233700.0 0.9968917736 0.0499784305
11100233400.0 0.9982660854 0.032590174
11150233100.0 0.9991262194 0.0167904537
11200232800.0 0.9998319883 0.001327986
11250232500.0 1.001132206 -0.0155855572
11300232200.0 1.001665021 -0.033229243
11350231900.0 1.001195163 -0.0490714115
11400231600.0 1.001187546 -0.0649037309
11450231300.0 1.000288611 -0.0804478608
11500231000.0 0.9992752055 -0.0973791286
11550230700.0 0.9977845436 -0.109667406
11600230400.0 0.995852867 -0.1228967066
11650230100.0 0.9937724496 -0.1350349905
11700229800.0 0.9920237809 -0.149994897
11750229500.0 0.9894605657 -0.1644805864
11800229200.0 0.9868308231 -0.1786491035
11850228900.0 0.9833438045 -0.1910918889
11900228600.0 0.9798580734 -0.2012034116
11950228300.0 0.9763716754 -0.2119335107
12000228000.0 0.9737451152 -0.2207931386
12050227700.0 0.9702325796 -0.2332890958
12100227400.0 0.9671884848 -0.2439487597
12150227100.0 0.9624335223 -0.2609704281
12200226800.0 0.9588144964 -0.2714595143
12250226500.0 0.9550613623 -0.2852166861
12300226200.0 0.9504961508 -0.2970029467
12350225900.0 0.9456558976 -0.3102404163
12400225600.0 0.9414473048 -0.3228190679
12450225300.0 0.9369494723 -0.3353647367
12500225000.0 0.9318461782 -0.349894633
12550224700.0 0.9264624931 -0.3635821862
12600224400.0 0.921809007 -0.3761611386
12650224100.0 0.9159968154 -0.390242858
12700223800.0 0.9109251086 -0.4028447429
12750223500.0 0.9052347767 -0.4158235459
12800223200.0 0.9000371413 -0.428478461
12850222900.0 0.8945595417 -0.4403594429
12900222600.0 0.8887877426 -0.4526313679
12950222300.0 0.8821643353 -0.465193379
13000222000.0 0.8761883493 -0.4773161635
13050221700.0 0.8694686191 -0.4898908302
13100221400.0 0.8628626992 -0.501679177
13150221100.0 0.8558265876 -0.5142043902
13200220800.0 0.848699007 -0.5257420108
13250220500.0 0.8414258223 -0.5382795266
13300220200.0 0.833563965 -0.5492810655
13350219900.0 0.8253864116 -0.5615952206
13400219600.0 0.8167416532 -0.573780103
13450219300.0 0.8076067372 -0.5870695827
13500219000.0 0.7972867577 -0.6010744624
13550218700.0 0.7864628345 -0.6139392426
13600218400.0 0.7772227549 -0.6257930482
13650218100.0 0.7670390912 -0.6374873383
13700217800.0 0.7561961021 -0.6493622979
13750217500.0 0.7452773395 -0.6614467123
13800217200.0 0.7342605 -0.6727557158
13850216900.0 0.7237834659 -0.6840739004
13900216600.0 0.7137176932 -0.6928501992
13950216300.0 0.7031793749 -0.7030614581
14000216000.0 0.6938670703 -0.7121433023
14050215700.0 0.6840502617 -0.7207309983
14100215400.0 0.6740641146 -0.7297507538
14150215100.0 0.6648901997 -0.738088923
14200214800.0 0.6556764664 -0.7464954809
14250214500.0 0.6455761936 -0.7557740329
14300214200.0 0.6353932594 -0.764914448
14350213900.0 0.6243850365 -0.7743966934
14400213600.0 0.6127227736 -0.784152438
14450213300.0 0.5996035857 -0.7940978248
14500213000.0 0.5874591872 -0.8039091202
14550212700.0 0.5747540481 -0.8129443803
14600212400.0 0.5626694562 -0.8215882322
14650212100.0 0.5489611191 -0.8303928326
14700211800.0 0.5356323626 -0.8394593463
14750211500.0 0.5230816295 -0.8477796641
14800211200.0 0.5106562745 -0.855880183
14850210900.0 0.498619626 -0.8634525529
14900210600.0 0.485154064 -0.8715153273
14950210300.0 0.4717469752 -0.8791751888
15000210000.0 0.4586872255 -0.8861846572
15050209700.0 0.4464138477 -0.8920256915
15100209400.0 0.4331039931 -0.8983148842
15150209100.0 0.4213919732 -0.9035560123
15200208800.0 0.4070244204 -0.9091787674
15250208500.0 0.396455863 -0.9142997131
15300208200.0 0.3836426008 -0.9190204987
15350207900.0 0.370004623 -0.9232695558
15400207600.0 0.3554396129 -0.9291201789
15450207300.0 0.3405109369 -0.9344366702
15500207000.0 0.3262236289 -0.9386773414
15550206700.0 0.3112463101 -0.9437438289
15600206400.0 0.2955471176 -0.9479870809
15650206100.0 0.2800064739 -0.9528803298
15700205800.0 0.2659515172 -0.9562111621
15750205500.0 0.2513010621 -0.9595525124
15800205200.0 0.2369452048 -0.9628169101
15850204900.0 0.2227635483 -0.966264468
15900204600.0 0.2079690595 -0.9700307562
15950204300.0 0.1941914888 -0.9728011538
16000204000.0 0.1803523815 -0.9755534337
16050203700.0 0.1650912388 -0.9782185841
16100203400.0 0.1515888977 -0.9802638227
16150203100.0 0.1369562369 -0.9823906343
16200202800.0 0.1228060835 -0.9849231115
16250202500.0 0.1080361854 -0.9862732348
16300202200.0 0.0931790079 -0.9880381148
16350201900.0 0.0784365198 -0.989189404
16400201600.0 0.0640116036 -0.9902128741
16450201300.0 0.0489901087 -0.991627038
16500201000.0 0.0323657652 -0.9920914728
16550200700.0 0.0167193419 -0.9926163623
16600200400.0 0.0008288153 -0.9929091557
16650200100.0 -0.0154109361 -0.9925401106
16700199800.0 -0.03217898 -0.9924538015
16750199500.0 -0.0509806947 -0.991564549
16800199200.0 -0.0664293127 -0.9906961247
16850198900.0 -0.0824532058 -0.9891429145
16900198600.0 -0.0963069499 -0.9884067728
16950198300.0 -0.1098296246 -0.9867853786
17000198000.0 -0.1227411192 -0.9854440301
17050197700.0 -0.1363030964 -0.9836330746
17100197400.0 -0.1488498553 -0.9816462451
17150197100.0 -0.1621406808 -0.9797708657
17200196800.0 -0.1748136757 -0.9771535832
17250196500.0 -0.1874918224 -0.9749483443
17300196200.0 -0.1999306795 -0.9727251073
17350195900.0 -0.211902696 -0.9703244485
17400195600.0 -0.2242041582 -0.9678459387
17450195300.0 -0.2374556466 -0.9651110308
17500195000.0 -0.2506703575 -0.9616462722
17550194700.0 -0.2647384427 -0.9579304512
17600194400.0 -0.2786090284 -0.9541508726
17650194100.0 -0.2921785343 -0.9498213866
17700193800.0 -0.3048004858 -0.9455078019
17750193500.0 -0.3194585518 -0.9409000815
17800193200.0 -0.3335199107 -0.9360386448
17850192900.0 -0.3484943602 -0.9304969975
17900192600.0 -0.3632305831 -0.9247871056
17950192300.0 -0.3787661766 -0.9175739486
18000192000.0 -0.3932454958 -0.9104716596
18050191700.0 -0.4069817381 -0.9025222785
18100191400.0 -0.4210720803 -0.8950911718
18150191100.0 -0.435808567 -0.8871192053
18200190800.0 -0.4525881323 -0.8781849387
18250190500.0 -0.4693161195 -0.8685893681
18300190200.0 -0.4846223916 -0.8595804398
18350189900.0 -0.499394228 -0.8514779695
18400189600.0 -0.5144264149 -0.8432298097
18450189300.0 -0.5275452303 -0.8349047599
18500189000.0 -0.5405641596 -0.8271766737
18550188700.0 -0.5528240711 -0.8192345417
18600188400.0 -0.565701088 -0.8125309959
18650188100.0 -0.5767185034 -0.8056278201
18700187800.0 -0.5876049695 -0.7990329797
18750187500.0 -0.5983147921 -0.7920515365
18800187200.0 -0.6093880122 -0.7846015709
18850186900.0 -0.6196911005 -0.7772179864
18900186600.0 -0.6302617601 -0.7695888999
18950186300.0 -0.6404047943 -0.7616813466
19000186000.0 -0.6482977432 -0.7549448047
19050185700.0 -0.6578306249 -0.7476922627
19100185400.0 -0.6681525686 -0.7388383233
19150185100.0 -0.6780280559 -0.7303403424
19200184800.0 -0.687560496 -0.7222304804
19250184500.0 -0.698356237 -0.7123973478
19300184200.0 -0.7090816767 -0.7024979788
19350183900.0 -0.7203761767 -0.6932507858
19400183600.0 -0.7295693284 -0.6833916173
19450183300.0 -0.738886215 -0.673107455
19500183000.0 -0.7470164029 -0.663534374
19550182700.0 -0.7563809753 -0.6533193636
19600182400.0 -0.7664791291 -0.6410880872
19650182100.0 -0.7767710536 -0.6289195478
19700181800.0 -0.7875810766 -0.6159781859
19750181500.0 -0.7975455377 -0.6021774862
19800181200.0 -0.807712781 -0.5877171099
19850180900.0 -0.8171431012 -0.5728023291
19900180600.0 -0.8247985617 -0.5586239617
19950180300.0 -0.8339435413 -0.5425164338
20000180000.0 -0.8283307477 -0.5435662803
20050179700.0 -0.8355185907 -0.5315037393
20100179400.0 -0.8445570483 -0.5172575387
20150179100.0 -0.8515852244 -0.5049611011
20200178800.0 -0.8618385246 -0.4926937806
20250178500.0 -0.8693920331 -0.4797077126
20300178200.0 -0.8790993397 -0.4648238482
20350177900.0 -0.8882116801 -0.4495949268
20400177600.0 -0.8966199812 -0.4361156726
20450177300.0 -0.9050685889 -0.4214274907
20500177000.0 -0.9129301466 -0.4077103238
20550176700.0 -0.9206885574 -0.3939316001
20600176400.0 -0.9272220196 -0.380934272
20650176100.0 -0.9341902474 -0.3678171587
20700175800.0 -0.9406590245 -0.355592662
20750175500.0 -0.9470492884 -0.3445420349
20800175200.0 -0.9519201103 -0.3328878187
20850174900.0 -0.9574421359 -0.3211962267
20900174600.0 -0.9614395388 -0.3096534347
20950174300.0 -0.9658392722 -0.2979167061
21000174000.0 -0.9699261838 -0.285873698
21050173700.0 -0.9726097306 -0.2747285717
21100173400.0 -0.9770735336 -0.2620763137
21150173100.0 -0.9801995875 -0.2494559244
21200172800.0 -0.9841123302 -0.236370416
21250172500.0 -0.9874828886 -0.2219751603
21300172200.0 -0.9898666996 -0.2080422677
21350171900.0 -0.9911392767 -0.1936899074
21400171600.0 -0.992952077 -0.1794654547
21450171300.0 -0.9931226565 -0.1652906194
21500171000.0 -0.9932943291 -0.1501514501
21550170700.0 -0.9934245677 -0.1351152062
21600170400.0 -0.994027316 -0.1190368049
21650170100.0 -0.9919360023 -0.1028772582
21700169800.0 -0.99030897 -0.0880484965
21750169500.0 -0.9898818266 -0.0729156252
21800169200.0 -0.9889535357 -0.0575842659
21850168900.0 -0.9878323144 -0.0408066448
21900168600.0 -0.9866681348 -0.0234722391
21950168300.0 -0.9844858668 -0.0085047295
22000168000.0 -0.9832428302 0.0065004987
22050167700.0 -0.9832503059 0.0204478105
22100167400.0 -0.9830109723 0.0351125279
22150167100.0 -0.983161227 0.0505248923
22200166800.0 -0.9832238946 0.0669428147
22250166500.0 -0.9828165786 0.0843116991
22300166200.0 -0.9820299936 0.1006133418
22350165900.0 -0.9801901557 0.116877357
22400165600.0 -0.9784939558 0.1313492794
22450165300.0 -0.9769408886 0.1466556137
22500165000.0 -0.9746419328 0.1607055735
22550164700.0 -0.9743947706 0.175743448
22600164400.0 -0.9720339251 0.1917075207
22650164100.0 -0.9704685286 0.2060396339
22700163800.0 -0.9672427127 0.2222197566
22750163500.0 -0.9645817522 0.2376298596
22800163200.0 -0.9618140033 0.2506883341
22850162900.0 -0.959968977 0.264338773
22900162600.0 -0.9580047654 0.2777493652
22950162300.0 -0.9571291585 0.2905858736
23000162000.0 -0.9558697273 0.3026567089
23050161700.0 -0.9536001904 0.3151995642
23100161400.0 -0.951347933 0.3275663568
23150161100.0 -0.9488337365 0.3396911912
23200160800.0 -0.9468689727 0.3525295518
23250160500.0 -0.9429354968 0.3643971295
23300160200.0 -0.9403580398 0.3757017391
23350159900.0 -0.9361577057 0.3884436492
23400159600.0 -0.9315526079 0.4023727605
23450159300.0 -0.9266377124 0.4155885421
23500159000.0 -0.922490144 0.4276934383
23550158700.0 -0.9177271712 0.4416204165
23600158400.0 -0.912433416 0.4541268981
23650158100.0 -0.9062039896 0.4680042942
23700157800.0 -0.898780554 0.4813818006
23750157500.0 -0.8900463319 0.4954295589
23800157200.0 -0.8812349859 0.5086912805
23850156900.0 -0.872827572 0.5210291182
23900156600.0 -0.8627192007 0.5332304101
23950156300.0 -0.8540075819 0.5456597964
24000156000.0 -0.8441275634 0.5582584671
24050155700.0 -0.8340208144 0.5690773451
24100155400.0 -0.8251041489 0.5811378761
24150155100.0 -0.8134781351 0.5939296357
24200154800.0 -0.8031861329 0.6050063798
24250154500.0 -0.7921573797 0.616765268
24300154200.0 -0.7803747272 0.6283758928
24350153900.0 -0.7689982847 0.6392923768
24400153600.0 -0.7567194003 0.6495436302
24450153300.0 -0.7448498147 0.6595461576
24500153000.0 -0.7336727366 0.669332609
24550152700.0 -0.7220639037 0.679233034
24600152400.0 -0.7109361899 0.6888085179
24650152100.0 -0.7001051151 0.696327738
