!Created with skrf (http://scikit-rf.org).
# Hz S RI R 50.0 
!freq ReS11 ImS11
300000.0 -0.9746918307 -0.1238284791
50299700.0 -1.000007663 0.015014989
100299400.0 -0.997870909 0.0279316957
150299100.0 -1.002636885 0.0447460708
200298800.0 -0.9993470451 0.0580576509
250298500.0 -0.9973388799 0.0714959341
300298200.0 -0.9859364315 0.0873009769
350297900.0 -0.994059782 0.0982640429
400297600.0 -0.9931614242 0.1147525174
450297300.0 -0.9910276076 0.1284437703
500297000.0 -0.9894790516 0.1434055856
550296700.0 -0.9846271906 0.1558062568
600296400.0 -1.017146133 0.1890982656
650296100.0 -0.9822476864 0.1855050841
700295800.0 -0.9792546865 0.1997319342
750295500.0 -0.9762680786 0.2138512727
800295200.0 -0.972832434 0.2279304798
850294900.0 -0.9695140311 0.2419355588
900294600.0 -0.9658624222 0.2554775019
950294300.0 -0.9620435825 0.2691169587
1000294000.0 -0.9580356363 0.2831257332
1050293700.0 -0.9536818128 0.2970742496
1100293400.0 -0.9494116357 0.3114443332
1150293100.0 -0.9455713798 0.3231843105
1200292800.0 -0.9401950058 0.3377602024
1250292500.0 -0.9346715034 0.3509961568
1300292200.0 -0.9289851598 0.3644582647
1350291900.0 -0.9235673558 0.3783418844
1400291600.0 -0.9179149657 0.3915375864
1450291300.0 -0.9126247443 0.4040241578
1500291000.0 -0.9062075311 0.4172452753
1550290700.0 -0.8997055613 0.4305612523
1600290400.0 -0.8933995762 0.4434387725
1650290100.0 -0.8869212917 0.4556436778
1700289800.0 -0.8799217023 0.4690890282
1750289500.0 -0.8727877486 0.4815934835
1800289200.0 -0.8654976531 0.4942412891
1850288900.0 -0.8588775481 0.5057727574
1900288600.0 -0.851156869 0.5188573258
1950288300.0 -0.8429040259 0.5311306629
2000288000.0 -0.8353279135 0.5428467437
2050287700.0 -0.8272468446 0.5551399704
2100287400.0 -0.8196653113 0.5664677248
2150287100.0 -0.8108159388 0.5784193156
2200286800.0 -0.8029949594 0.5891925203
2250286500.0 -0.7940027123 0.6014581971
2300286200.0 -0.785338499 0.6128193011
2350285900.0 -0.7770276681 0.6232777691
2400285600.0 -0.7680829401 0.6343995724
2450285300.0 -0.7590506955 0.6449331541
2500285000.0 -0.749365128 0.6564912689
2550284700.0 -0.7402626324 0.6667073715
2600284400.0 -0.731136826 0.6767782466
2650284100.0 -0.7226046699 0.6871032333
2700283800.0 -0.7119510062 0.6973926944
2750283500.0 -0.7014065834 0.7078973156
2800283200.0 -0.6917297094 0.7178847542
2850282900.0 -0.6811953876 0.728047388
2900282600.0 -0.6706993061 0.7376853183
2950282300.0 -0.6602584358 0.7470292043
3000282000.0 -0.6495471252 0.7565279674
3050281700.0 -0.6385204586 0.7658589276
3100281400.0 -0.6268966636 0.7750097883
3150281100.0 -0.6156649397 0.7837653189
3200280800.0 -0.6042550403 0.792196104
3250280500.0 -0.5931178549 0.8001352222
3300280200.0 -0.5815440525 0.808434342
3350279900.0 -0.5692309399 0.8163471387
3400279600.0 -0.5566540002 0.8244706144
3450279300.0 -0.5456621994 0.8314621571
3500279000.0 -0.5338185521 0.83843982
3550278700.0 -0.5218527385 0.8454375869
3600278400.0 -0.5100324629 0.8522735217
3650278100.0 -0.4971910025 0.8598729536
3700277800.0 -0.485009668 0.8664041965
3750277500.0 -0.4722237032 0.8729647331
3800277200.0 -0.4597517741 0.8795577606
3850276900.0 -0.4477431933 0.8852874731
3900276600.0 -0.4370365541 0.8913523311
3950276300.0 -0.4249956952 0.8970462038
4000276000.0 -0.4129575635 0.9029316458
4050275700.0 -0.4006044012 0.9090490502
4100275400.0 -0.3898690008 0.9142970373
4150275100.0 -0.3763677692 0.920350617
4200274800.0 -0.3627722958 0.9258857756
4250274500.0 -0.3501253248 0.9311136399
4300274200.0 -0.3370200716 0.9368364042
4350273900.0 -0.3227180962 0.9418664974
4400273600.0 -0.3079466632 0.9473993117
4450273300.0 -0.2930291248 0.9521330953
4500273000.0 -0.2798892696 0.9564224347
4550272700.0 -0.2663373813 0.9605723619
4600272400.0 -0.2511370787 0.9647108705
4650272100.0 -0.2398929082 0.967792055
4700271800.0 -0.2269180147 0.9711468207
4750271500.0 -0.2153792669 0.9739774449
4800271200.0 -0.20306364 0.9766048719
4850270900.0 -0.189428882 0.9793605658
4900270600.0 -0.175533366 0.9819496578
4950270300.0 -0.1610168828 0.9845147098
5000270000.0 -0.146468115 0.9866545433
5050269700.0 -0.1328852363 0.9882453674
5100269400.0 -0.1189105435 0.989912685
5150269100.0 -0.1046639285 0.9918912293
5200268800.0 -0.0914907066 0.9930758041
5250268500.0 -0.0784249848 0.9936586748
5300268200.0 -0.0647435634 0.9943791472
5350267900.0 -0.0517885615 0.995016459
5400267600.0 -0.0357620807 0.9961655228
5450267300.0 -0.0222054066 0.9964464228
5500267000.0 -0.0068656924 0.9970070922
5550266700.0 0.0079329124 0.9972154689
5600266400.0 0.0238240052 0.9972166572
5650266100.0 0.0403141295 0.996731365
5700265800.0 0.0545025662 0.9959101049
5750265500.0 0.06967324 0.9950331736
5800265200.0 0.0830269594 0.9937869455
5850264900.0 0.0962331442 0.9933517333
5900264600.0 0.1130305703 0.9909990349
5950264300.0 0.1242855635 0.9894983081
6000264000.0 0.1379072577 0.9880169318
6050263700.0 0.1492920844 0.9863247168
6100263400.0 0.1618159984 0.9850069216
6150263100.0 0.1763063807 0.9826378063
6200262800.0 0.1860681371 0.9810576789
6250262500.0 0.1985102772 0.9787937797
6300262200.0 0.2107073828 0.9762366163
6350261900.0 0.2235565466 0.9734694444
6400261600.0 0.2374852879 0.9702090768
6450261300.0 0.2486860951 0.9680583413
6500261000.0 0.2618120752 0.9640914135
6550260700.0 0.2752002251 0.9603097549
6600260400.0 0.2883711383 0.9561804681
6650260100.0 0.3027158409 0.9515378222
6700259800.0 0.314722826 0.9475521889
6750259500.0 0.3285113193 0.9426123815
6800259200.0 0.3419522084 0.9373297319
6850258900.0 0.3543572233 0.9321511036
6900258600.0 0.3668346162 0.9268373905
6950258300.0 0.3794569176 0.9215394626
7000258000.0 0.3909868423 0.9163065255
7050257700.0 0.4030332678 0.9104598447
7100257400.0 0.4163137104 0.9040989771
7150257100.0 0.4269818723 0.8986220281
7200256800.0 0.4400940666 0.8920937369
7250256500.0 0.4528649616 0.8854186623
7300256200.0 0.4658403263 0.878979828
7350255900.0 0.4784333446 0.8718030619
7400255600.0 0.4926706907 0.8638569545
7450255300.0 0.5080447868 0.854988959
7500255000.0 0.5208800041 0.8474983582
7550254700.0 0.5345587122 0.8382635976
7600254400.0 0.5474031941 0.8300916459
7650254100.0 0.5587386955 0.8221391966
7700253800.0 0.5708330992 0.8139595695
7750253500.0 0.5815889721 0.8067075835
7800253200.0 0.5924119823 0.7987911781
7850252900.0 0.6021365042 0.7915806923
7900252600.0 0.613525945 0.7827906904
7950252300.0 0.6217660443 0.7765239563
8000252000.0 0.6319267731 0.7688384028
8050251700.0 0.6424384167 0.7607100391
8100251400.0 0.6525996765 0.75285393
8150251100.0 0.6624238174 0.744256411
8200250800.0 0.6719278806 0.7360801688
8250250500.0 0.6804198378 0.7282965827
8300250200.0 0.6896100493 0.7199331098
8350249900.0 0.69882364 0.7108650922
8400249600.0 0.706757324 0.7031007207
8450249300.0 0.7156697098 0.694214692
8500249000.0 0.7240650568 0.685488853
8550248700.0 0.7326629454 0.6764200374
8600248400.0 0.740787335 0.6669330166
8650248100.0 0.7485279726 0.6575357025
8700247800.0 0.7577148498 0.6465847251
8750247500.0 0.7660871262 0.6364508551
8800247200.0 0.7738969022 0.6261645978
8850246900.0 0.782673053 0.6146542736
8900246600.0 0.7910213685 0.6032164423
8950246300.0 0.800580334 0.5905051682
9000246000.0 0.8089645455 0.5787695465
9050245700.0 0.8176623692 0.5662564403
9100245400.0 0.8256105963 0.5543158573
9150245100.0 0.8345359274 0.5413108431
9200244800.0 0.844044677 0.5270325414
9250244500.0 0.8531984108 0.5123431583
9300244200.0 0.861148468 0.4987341359
9350243900.0 0.8687400261 0.4855888066
9400243600.0 0.8754135132 0.4737697165
9450243300.0 0.881051796 0.4635336529
9500243000.0 0.8870826739 0.4517381661
9550242700.0 0.8913281158 0.444352552
9600242400.0 0.8955490789 0.4367905704
9650242100.0 0.8996735712 0.4299827618
9700241800.0 0.9045740549 0.4213142565
9750241500.0 0.9087880306 0.4134057214
9800241200.0 0.9138212579 0.4040561828
9850240900.0 0.919979309 0.3921871894
9900240600.0 0.925656498 0.380027592
9950240300.0 0.9331084195 0.3635085266
10000240000.0 0.938006643 0.35150682
10050239700.0 0.9436374741 0.3356668953
10100239400.0 0.9489358449 0.3193316544
10150239100.0 0.9538186558 0.303640688
10200238800.0 0.9581153679 0.2880683248
10250238500.0 0.9615130935 0.2746577209
10300238200.0 0.9645946232 0.2606210105
10350237900.0 0.9673149619 0.2472808881
10400237600.0 0.9699538496 0.2333589499
10450237300.0 0.9728423668 0.2199433552
10500237000.0 0.9750450875 0.2074645953
10550236700.0 0.9772714136 0.1932956315
10600236400.0 0.9794745421 0.1790817067
10650236100.0 0.9816460859 0.1644226984
10700235800.0 0.9837394179 0.1523263791
10750235500.0 0.9863546472 0.1382951229
10800235200.0 0.9883401878 0.1241892491
10850234900.0 0.9901075499 0.1095864895
10900234600.0 0.9922653315 0.0947867264
10950234300.0 0.9936376083 0.0813861161
11000234000.0 0.9955880221 0.0658376456
11050233700.0 0.9973601878 0.0490012691
11100233400.0 0.9988565639 0.0314856985
11150233100.0 1.00019882 0.0145342035
11200232800.0 1.000739551 -0.0015148882
11250232500.0 1.002238782 -0.0193288809
11300232200.0 1.002613638 -0.0381059404
11350231900.0 1.002494377 -0.0535770777
11400231600.0 1.002029022 -0.069693937
11450231300.0 1.001452 -0.0847222281
11500231000.0 0.9995170388 -0.1017314367
11550230700.0 0.9981127598 -0.1151413044
11600230400.0 0.9972802472 -0.1271401406
11650230100.0 0.994873143 -0.139290253
11700229800.0 0.9925006874 -0.1540817734
11750229500.0 0.990016497 -0.1684894142
11800229200.0 0.9872128727 -0.1816454426
11850228900.0 0.983540672 -0.1933647108
11900228600.0 0.980093502 -0.2025665528
11950228300.0 0.9763294515 -0.2128448933
12000228000.0 0.9734708763 -0.2216117471
12050227700.0 0.9700088614 -0.2343761176
12100227400.0 0.9670204946 -0.2448565847
12150227100.0 0.9613642993 -0.2622877412
12200226800.0 0.9578223393 -0.2730416802
12250226500.0 0.9540620619 -0.2853288608
12300226200.0 0.9496450588 -0.298224073
12350225900.0 0.9447189182 -0.3124626488
12400225600.0 0.9400286864 -0.3237764372
12450225300.0 0.9357335621 -0.3367070295
12500225000.0 0.9303121995 -0.3519273487
12550224700.0 0.9249012443 -0.3656629842
12600224400.0 0.9201089295 -0.3783701037
12650224100.0 0.914210596 -0.3923897377
12700223800.0 0.9089151075 -0.4053397599
12750223500.0 0.9035438879 -0.4182175344
12800223200.0 0.8982624698 -0.4304852852
12850222900.0 0.892790989 -0.4430453961
12900222600.0 0.8874078927 -0.4549694394
12950222300.0 0.8811883297 -0.4679178044
13000222000.0 0.8752166772 -0.4793989565
13050221700.0 0.8684518944 -0.4916762656
13100221400.0 0.8614469655 -0.5040681445
13150221100.0 0.8546592415 -0.5164771361
13200220800.0 0.847710652 -0.528038098
13250220500.0 0.840406278 -0.5401790913
13300220200.0 0.8327895894 -0.5511776072
13350219900.0 0.8247179237 -0.5631507771
13400219600.0 0.8162789435 -0.5748205538
13450219300.0 0.8072976184 -0.5879244153
13500219000.0 0.7976384303 -0.6010102588
13550218700.0 0.7873783116 -0.6131346833
13600218400.0 0.7779202852 -0.6253333801
13650218100.0 0.7684330278 -0.6352480085
13700217800.0 0.7572554029 -0.6475489303
13750217500.0 0.7479632738 -0.6586832145
13800217200.0 0.7368836433 -0.6699466468
13850216900.0 0.7254396897 -0.6813985158
13900216600.0 0.7155562111 -0.6896423347
13950216300.0 0.7049993156 -0.7004180824
14000216000.0 0.6958486346 -0.709128805
14050215700.0 0.6869447603 -0.7175112517
14100215400.0 0.6770015761 -0.7265375611
14150215100.0 0.6677684826 -0.735061485
14200214800.0 0.6582533338 -0.7437832639
14250214500.0 0.6478380846 -0.7532976902
14300214200.0 0.6374030132 -0.762735547
14350213900.0 0.6263492866 -0.7724728822
14400213600.0 0.614315528 -0.7823330411
14450213300.0 0.6014139714 -0.7924415235
14500213000.0 0.5884041407 -0.8020306414
14550212700.0 0.5763683559 -0.811206681
14600212400.0 0.5638072541 -0.8206868141
14650212100.0 0.5510152347 -0.8291065056
14700211800.0 0.5374259514 -0.8388391853
14750211500.0 0.5253637195 -0.8470330683
14800211200.0 0.5126795708 -0.8553530319
14850210900.0 0.5002271841 -0.8629349282
14900210600.0 0.4869144407 -0.870677682
14950210300.0 0.4736529614 -0.8784633732
15000210000.0 0.4606691766 -0.8852570425
15050209700.0 0.4488798334 -0.8913114185
15100209400.0 0.4359249138 -0.8971531494
15150209100.0 0.4237908102 -0.9028853327
15200208800.0 0.4111175037 -0.9079273542
15250208500.0 0.399459851 -0.9121151101
15300208200.0 0.3880968295 -0.9168558293
15350207900.0 0.3743812399 -0.9220848848
15400207600.0 0.3591114842 -0.9268800573
15450207300.0 0.3448367542 -0.9323980358
15500207000.0 0.3309407765 -0.9366676677
15550206700.0 0.3162014659 -0.9415941526
15600206400.0 0.2998091039 -0.9467278391
15650206100.0 0.2841487625 -0.9503777742
15700205800.0 0.2708175799 -0.9543327282
15750205500.0 0.2568093109 -0.9577818425
15800205200.0 0.2426852341 -0.9611512693
15850204900.0 0.2288308636 -0.9644365554
15900204600.0 0.2137042123 -0.9683090625
15950204300.0 0.1992463002 -0.9714021479
16000204000.0 0.1847174272 -0.9741932857
16050203700.0 0.1693432159 -0.9769836221
16100203400.0 0.1547069959 -0.9799155456
16150203100.0 0.1401651926 -0.9820932049
16200202800.0 0.1258101872 -0.9841901787
16250202500.0 0.1111083764 -0.9856767372
16300202200.0 0.0951815865 -0.9877345873
16350201900.0 0.0803969577 -0.9888183644
16400201600.0 0.0657141023 -0.990029417
16450201300.0 0.0501710712 -0.9912011916
16500201000.0 0.0331268579 -0.9920411391
16550200700.0 0.0171449007 -0.9925004761
16600200400.0 0.0012408241 -0.9927348498
16650200100.0 -0.0149527551 -0.9927290561
16700199800.0 -0.031361345 -0.9925079055
16750199500.0 -0.0498710886 -0.9916882608
16800199200.0 -0.0663671871 -0.99032233
16850198900.0 -0.0818890084 -0.9893788347
16900198600.0 -0.096225171 -0.988478545
16950198300.0 -0.1098978762 -0.987590843
17000198000.0 -0.122628041 -0.986376174
17050197700.0 -0.1355539655 -0.9836456283
17100197400.0 -0.1486156674 -0.9824239616
17150197100.0 -0.1608914642 -0.9802881058
17200196800.0 -0.1740710287 -0.9778537877
17250196500.0 -0.1869067299 -0.9753940723
17300196200.0 -0.1990412085 -0.9733720253
17350195900.0 -0.2109710754 -0.9708387981
17400195600.0 -0.2229192823 -0.96835328
17450195300.0 -0.2358494967 -0.9655870806
17500195000.0 -0.2490527658 -0.9623411953
17550194700.0 -0.2625584476 -0.9584056057
17600194400.0 -0.2763711302 -0.9546704076
17650194100.0 -0.2899499118 -0.9503809435
17700193800.0 -0.3028140968 -0.9464794409
17750193500.0 -0.3172904454 -0.9419350181
17800193200.0 -0.3314715942 -0.9367739259
17850192900.0 -0.3461636048 -0.9311373515
17900192600.0 -0.3613326935 -0.9249345691
17950192300.0 -0.3770178903 -0.9179117291
18000192000.0 -0.3915470262 -0.9109346735
18050191700.0 -0.4055015965 -0.9029276551
18100191400.0 -0.4197237408 -0.8952072231
18150191100.0 -0.4344261469 -0.8871560101
18200190800.0 -0.4514578915 -0.8780626663
18250190500.0 -0.4684610852 -0.8685875951
18300190200.0 -0.4837769914 -0.8595629924
18350189900.0 -0.4990669798 -0.85124346
18400189600.0 -0.5133879666 -0.843024868
18450189300.0 -0.5270945147 -0.8348568387
18500189000.0 -0.5405306326 -0.8268572937
18550188700.0 -0.5534637318 -0.8192192704
18600188400.0 -0.5648855941 -0.8123756815
18650188100.0 -0.576608986 -0.805758865
18700187800.0 -0.5874204267 -0.7989022423
18750187500.0 -0.5986970972 -0.7925577364
18800187200.0 -0.6091070239 -0.7856218445
18850186900.0 -0.6192883097 -0.7783978264
18900186600.0 -0.6299659885 -0.7711741923
18950186300.0 -0.6402035968 -0.7633576172
19000186000.0 -0.6476198601 -0.7575079059
19050185700.0 -0.6567444602 -0.7499144118
19100185400.0 -0.6666518982 -0.7415603963
19150185100.0 -0.6768772823 -0.7337805861
19200184800.0 -0.6860844182 -0.7255336923
19250184500.0 -0.6965699507 -0.7159406072
19300184200.0 -0.7082831529 -0.7067361122
19350183900.0 -0.7185270458 -0.696604002
19400183600.0 -0.728042894 -0.6864174339
19450183300.0 -0.7372946376 -0.6768353339
19500183000.0 -0.7454711275 -0.6661329162
19550182700.0 -0.7554155719 -0.6557439986
19600182400.0 -0.7653585284 -0.6439039653
19650182100.0 -0.7760332087 -0.6319546751
19700181800.0 -0.7863189983 -0.6184265219
19750181500.0 -0.796953057 -0.6046399158
19800181200.0 -0.8069831611 -0.5895879248
19850180900.0 -0.8164217869 -0.5743217061
19900180600.0 -0.8240867529 -0.5597719908
19950180300.0 -0.8332291815 -0.5435738298
20000180000.0 -0.8227997612 -0.5465671076
20050179700.0 -0.8318070722 -0.5341836278
20100179400.0 -0.840108641 -0.5208957105
20150179100.0 -0.8480106863 -0.5095105296
20200178800.0 -0.8562280807 -0.4977100915
20250178500.0 -0.8650991183 -0.4853575592
20300178200.0 -0.8753462429 -0.4717883598
20350177900.0 -0.8843943849 -0.4575974666
20400177600.0 -0.8937174839 -0.4435309855
20450177300.0 -0.9021902232 -0.4294434619
20500177000.0 -0.909872202 -0.4153379299
20550176700.0 -0.917841217 -0.4018794504
20600176400.0 -0.9246006313 -0.3888049052
20650176100.0 -0.9318188364 -0.3763988724
20700175800.0 -0.9383369278 -0.3650736915
20750175500.0 -0.9450772561 -0.3533881637
20800175200.0 -0.9489691701 -0.3432200998
20850174900.0 -0.9540309994 -0.3320496242
20900174600.0 -0.9569040925 -0.3215095718
20950174300.0 -0.9614525002 -0.3101514848
21000174000.0 -0.9645476436 -0.2997047482
21050173700.0 -0.9658179847 -0.289815132
21100173400.0 -0.9688900053 -0.2786494481
21150173100.0 -0.9723865291 -0.2672720151
21200172800.0 -0.9767268117 -0.254053747
21250172500.0 -0.9803587093 -0.2396673441
21300172200.0 -0.9833502672 -0.2258845015
21350171900.0 -0.9864015727 -0.211693484
21400171600.0 -0.9878776438 -0.197654187
21450171300.0 -0.9883071194 -0.1834052671
21500171000.0 -0.9881418573 -0.1679451798
21550170700.0 -0.9894947484 -0.1536050433
21600170400.0 -0.9901090436 -0.1370654555
21650170100.0 -0.9905083768 -0.1218494132
21700169800.0 -0.9891292191 -0.1059257934
21750169500.0 -0.9908572758 -0.091300479
21800169200.0 -0.9898066587 -0.0745085928
21850168900.0 -0.99017404 -0.0574640903
21900168600.0 -0.9895150452 -0.0410725118
21950168300.0 -0.9890137345 -0.0255317599
22000168000.0 -0.9890642456 -0.010465784
22050167700.0 -0.989708104 0.0040495275
22100167400.0 -0.9900575432 0.0198191586
22150167100.0 -0.9912076863 0.0356319213
22200166800.0 -0.9918825142 0.0519346873
22250166500.0 -0.9909652474 0.0700118073
22300166200.0 -0.991062844 0.0862835151
22350165900.0 -0.9901243568 0.1024970573
22400165600.0 -0.9887593463 0.1188382534
22450165300.0 -0.9866276353 0.1328409139
22500165000.0 -0.9849610261 0.1466534338
22550164700.0 -0.9830660647 0.162867224
22600164400.0 -0.980273467 0.1795516334
22650164100.0 -0.9779070394 0.1954269761
22700163800.0 -0.9746922401 0.2113349157
22750163500.0 -0.9722603475 0.2260453605
22800163200.0 -0.9691145532 0.2389168794
22850162900.0 -0.9665769194 0.2525828212
22900162600.0 -0.9648361164 0.2660502206
22950162300.0 -0.9629901252 0.2802364665
23000162000.0 -0.9608009299 0.2925704231
23050161700.0 -0.9587195091 0.3060852876
23100161400.0 -0.9556102066 0.3194697875
23150161100.0 -0.9526194909 0.3324989323
23200160800.0 -0.9495938954 0.3460676763
23250160500.0 -0.9467443681 0.3570098246
23300160200.0 -0.9439628422 0.3708895372
23350159900.0 -0.9403845925 0.3840182678
23400159600.0 -0.935489971 0.3975636868
23450159300.0 -0.9296120823 0.412052891
23500159000.0 -0.925510798 0.425475605
23550158700.0 -0.9204628736 0.4401617432
23600158400.0 -0.9141016739 0.4538727317
23650158100.0 -0.9069952185 0.4684186607
23700157800.0 -0.89866745 0.4827736436
23750157500.0 -0.8889454928 0.4973040376
23800157200.0 -0.8791287332 0.5104201774
23850156900.0 -0.8699207035 0.5233623024
23900156600.0 -0.8599440905 0.5357821603
23950156300.0 -0.8499243162 0.5486471929
24000156000.0 -0.8403836115 0.5602897265
24050155700.0 -0.8294357519 0.5725938733
24100155400.0 -0.8201018117 0.5854799664
24150155100.0 -0.8089601984 0.5979112753
24200154800.0 -0.7982809994 0.608984104
24250154500.0 -0.7863951709 0.621557501
24300154200.0 -0.7748047851 0.6337217797
24350153900.0 -0.7632159468 0.6448943769
24400153600.0 -0.7505715579 0.6556308099
24450153300.0 -0.7384633086 0.6655933894
24500153000.0 -0.7273067664 0.6753989031
24550152700.0 -0.7155385527 0.6859152052
24600152400.0 -0.7025212701 0.6950383946
24650152100.0 -0.6909700254 0.7035852999
