!Created with skrf (http://scikit-rf.org).
# Hz S RI R 50.0 
!freq ReS11 ImS11
300000.0 -0.9955621619 -0.0443409925
50299700.0 -0.9994067499 0.0163498689
100299400.0 -0.9973428976 0.0289398526
150299100.0 -1.00219575 0.0457686601
200298800.0 -0.998872784 0.0589574902
250298500.0 -0.9966700599 0.072429032
300298200.0 -0.9850709932 0.0881778804
350297900.0 -0.9929793936 0.0988925326
400297600.0 -0.991965896 0.1153905701
450297300.0 -0.9899425283 0.1292817904
500297000.0 -0.9884179109 0.1438525638
550296700.0 -0.9830384394 0.1563483716
600296400.0 -1.016134369 0.1893544519
650296100.0 -0.9808762642 0.1860796164
700295800.0 -0.9777930822 0.2000174857
750295500.0 -0.9748138329 0.2141424055
800295200.0 -0.971770339 0.2281123453
850294900.0 -0.9680864181 0.2419062708
900294600.0 -0.9643563443 0.25556882
950294300.0 -0.9607889775 0.2691829526
1000294000.0 -0.9568063252 0.2831261776
1050293700.0 -0.952164011 0.2968631748
1100293400.0 -0.9479008229 0.3113010231
1150293100.0 -0.944346397 0.3228206211
1200292800.0 -0.9391082702 0.337492474
1250292500.0 -0.9335359196 0.3505901086
1300292200.0 -0.9278746799 0.3637415828
1350291900.0 -0.9225948045 0.3779904556
1400291600.0 -0.9171389998 0.3909921744
1450291300.0 -0.9119004461 0.4032962675
1500291000.0 -0.9054841931 0.4166897082
1550290700.0 -0.8990240969 0.4297035942
1600290400.0 -0.8929186569 0.442754841
1650290100.0 -0.8865023316 0.4549742837
1700289800.0 -0.8795364772 0.4681105022
1750289500.0 -0.8725824806 0.4804233522
1800289200.0 -0.8654334628 0.4934019017
1850288900.0 -0.8589072052 0.5045801197
1900288600.0 -0.8509412707 0.5175844125
1950288300.0 -0.8428847823 0.530082297
2000288000.0 -0.8352364628 0.5415747455
2050287700.0 -0.8275501036 0.5538312387
2100287400.0 -0.8195601536 0.5653868624
2150287100.0 -0.8106929034 0.5777085192
2200286800.0 -0.8031022169 0.5878634732
2250286500.0 -0.7944001435 0.5999730199
2300286200.0 -0.7854972671 0.6112940914
2350285900.0 -0.7769401694 0.6224180822
2400285600.0 -0.7677570629 0.6334710083
2450285300.0 -0.7589370058 0.6439770725
2500285000.0 -0.7494701572 0.6550526633
2550284700.0 -0.7401974452 0.6654458152
2600284400.0 -0.7306776255 0.6758045368
2650284100.0 -0.7221581873 0.6861088016
2700283800.0 -0.7113262938 0.6963963051
2750283500.0 -0.7014730711 0.7069518234
2800283200.0 -0.6913391386 0.7165432504
2850282900.0 -0.6811167033 0.7263115672
2900282600.0 -0.6706858666 0.7361572263
2950282300.0 -0.6607601151 0.7454139153
3000282000.0 -0.6499079735 0.7546878323
3050281700.0 -0.6390173432 0.7639160398
3100281400.0 -0.6277315506 0.773031325
3150281100.0 -0.6164829093 0.7820662523
3200280800.0 -0.6046691676 0.7908308426
3250280500.0 -0.5939012098 0.7989867644
3300280200.0 -0.5824723092 0.8071327022
3350279900.0 -0.5713015451 0.8147414575
3400279600.0 -0.5589996148 0.8225678707
3450279300.0 -0.5479877541 0.8299896009
3500279000.0 -0.5362040059 0.8372775175
3550278700.0 -0.5239968311 0.8445613394
3600278400.0 -0.5123678738 0.8515357823
3650278100.0 -0.499216412 0.8594153845
3700277800.0 -0.4870880894 0.8659915628
3750277500.0 -0.4750693426 0.872555291
3800277200.0 -0.4626917786 0.8790822668
3850276900.0 -0.4501029633 0.8854440459
3900276600.0 -0.4388222225 0.8911675095
3950276300.0 -0.4258354108 0.8975144514
4000276000.0 -0.4139752314 0.9034890777
4050275700.0 -0.4006376684 0.9093811678
4100275400.0 -0.3893570648 0.9149480634
4150275100.0 -0.3762508263 0.9205176538
4200274800.0 -0.363044833 0.9257493734
4250274500.0 -0.3506477733 0.9310412116
4300274200.0 -0.3378895248 0.9360640998
4350273900.0 -0.3243023596 0.9410533347
4400273600.0 -0.3101127435 0.9460382952
4450273300.0 -0.2954222422 0.9509028988
4500273000.0 -0.2822797282 0.9548505544
4550272700.0 -0.2686922825 0.9590977743
4600272400.0 -0.2532284312 0.9632318978
4650272100.0 -0.2410676132 0.9663893395
4700271800.0 -0.2278197277 0.9698171518
4750271500.0 -0.2152764149 0.9728797326
4800271200.0 -0.2022837826 0.9757520706
4850270900.0 -0.1885383166 0.9785535121
4900270600.0 -0.1748856553 0.9807583572
4950270300.0 -0.1612975357 0.9834152072
5000270000.0 -0.1471245192 0.9855080885
5050269700.0 -0.133633998 0.987166996
5100269400.0 -0.1197480536 0.9890766983
5150269100.0 -0.1061707627 0.99103282
5200268800.0 -0.0926765131 0.9919887096
5250268500.0 -0.0797489021 0.9931988477
5300268200.0 -0.066275072 0.9939648248
5350267900.0 -0.0540005267 0.9945295054
5400267600.0 -0.0380065112 0.9959136615
5450267300.0 -0.0254966239 0.9959643037
5500267000.0 -0.010933941 0.9963774135
5550266700.0 0.002988416 0.996454275
5600266400.0 0.0178307669 0.9965351146
5650266100.0 0.0336595435 0.9962127549
5700265800.0 0.0478033169 0.9954741193
5750265500.0 0.0624776901 0.9951337189
5800265200.0 0.0761218437 0.9939251583
5850264900.0 0.0894387572 0.9931226618
5900264600.0 0.1059458868 0.9912288403
5950264300.0 0.1180561867 0.9899901944
6000264000.0 0.131860992 0.9879160792
6050263700.0 0.144888539 0.9866446977
6100263400.0 0.1578204386 0.984322341
6150263100.0 0.1731137549 0.9820692168
6200262800.0 0.1838144433 0.9801769242
6250262500.0 0.1967935558 0.9777104509
6300262200.0 0.2096419533 0.9747330822
6350261900.0 0.2228451925 0.9719321882
6400261600.0 0.2369969822 0.9686824412
6450261300.0 0.2486945855 0.9659062148
6500261000.0 0.2616753083 0.9623366312
6550260700.0 0.2744802988 0.9585153533
6600260400.0 0.2877310346 0.9547072085
6650260100.0 0.3017393107 0.9503580929
6700259800.0 0.3135810671 0.9463049761
6750259500.0 0.3270884796 0.9416469571
6800259200.0 0.3406187785 0.9368102628
6850258900.0 0.3527468796 0.9320167826
6900258600.0 0.3649875611 0.9269592488
6950258300.0 0.377774542 0.9219297409
7000258000.0 0.389893892 0.9166539425
7050257700.0 0.4017921842 0.9109546112
7100257400.0 0.4152050824 0.9047118936
7150257100.0 0.4259054791 0.8995452682
7200256800.0 0.4389798682 0.8934719962
7250256500.0 0.4502454033 0.8877118248
7300256200.0 0.4630566778 0.8809346213
7350255900.0 0.4752450069 0.8746429004
7400255600.0 0.4868929841 0.8680437272
7450255300.0 0.5015879923 0.8593912066
7500255000.0 0.512531725 0.8524997118
7550254700.0 0.5254341982 0.8450883727
7600254400.0 0.5380676622 0.8371501857
7650254100.0 0.5490469952 0.8294613639
7700253800.0 0.5612974153 0.8218827736
7750253500.0 0.5725508806 0.8139322126
7800253200.0 0.5839155897 0.8058629222
7850252900.0 0.5934131809 0.7988426279
7900252600.0 0.6053661933 0.7898641688
7950252300.0 0.6148029607 0.7827622785
8000252000.0 0.6253265133 0.7746396176
8050251700.0 0.6357990123 0.7663135724
8100251400.0 0.6460324388 0.7579860027
8150251100.0 0.6563164385 0.7491826646
8200250800.0 0.6661120453 0.7409204862
8250250500.0 0.6752383835 0.7323076903
8300250200.0 0.6850221033 0.7233034548
8350249900.0 0.6946354089 0.714566911
8400249600.0 0.7030406077 0.7061497365
8450249300.0 0.712514208 0.6964878155
8500249000.0 0.7215171216 0.6873529627
8550248700.0 0.7305646314 0.6775779109
8600248400.0 0.7396298057 0.6679208639
8650248100.0 0.7473501156 0.658665058
8700247800.0 0.7568156236 0.6478093403
8750247500.0 0.7651956293 0.6376886039
8800247200.0 0.7735363231 0.6276411954
8850246900.0 0.7820625709 0.6165705768
8900246600.0 0.7902274486 0.6055323663
8950246300.0 0.7996060096 0.5935789394
9000246000.0 0.8079626155 0.582017362
9050245700.0 0.8161859754 0.5700309737
9100245400.0 0.824680286 0.5581148149
9150245100.0 0.8328388136 0.545989153
9200244800.0 0.8412622726 0.5332088983
9250244500.0 0.8499109679 0.5192969418
9300244200.0 0.8579496347 0.5067444464
9350243900.0 0.8652762982 0.4934702808
9400243600.0 0.8723826603 0.4809428271
9450243300.0 0.8784588743 0.4691693021
9500243000.0 0.8856289954 0.4559757668
9550242700.0 0.89090071 0.4456232522
9600242400.0 0.8959200297 0.4354371219
9650242100.0 0.9005546362 0.4265508793
9700241800.0 0.9055980857 0.4165400926
9750241500.0 0.9101636179 0.4069153474
9800241200.0 0.9151225237 0.3959034361
9850240900.0 0.9203067796 0.3844011588
9900240600.0 0.9252343438 0.3739159832
9950240300.0 0.9313798324 0.3589312554
10000240000.0 0.9360935105 0.346902881
10050239700.0 0.9416610184 0.3324566789
10100239400.0 0.9467233652 0.3178563493
10150239100.0 0.9508693693 0.3039979706
10200238800.0 0.9552264449 0.2894325851
10250238500.0 0.9589311359 0.2761478853
10300238200.0 0.9624017292 0.2622355843
10350237900.0 0.9654296473 0.249165741
10400237600.0 0.9685755076 0.2358205798
10450237300.0 0.9718237803 0.2218851873
10500237000.0 0.9740853532 0.2097703627
10550236700.0 0.9768457866 0.1959649237
10600236400.0 0.9789492208 0.1828186956
10650236100.0 0.9809466335 0.1681039651
10700235800.0 0.9833386919 0.1561315878
10750235500.0 0.985447357 0.1426202087
10800235200.0 0.9874604182 0.1284946146
10850234900.0 0.989350086 0.1146383597
10900234600.0 0.9913806992 0.1001543288
10950234300.0 0.9928564858 0.0868864808
11000234000.0 0.9942776469 0.0728611886
11050233700.0 0.9956993465 0.0581319451
11100233400.0 0.9969766826 0.0419797535
11150233100.0 0.9981044297 0.0269109078
11200232800.0 0.998472612 0.0127057703
11250232500.0 0.998884691 -0.0022982901
11300232200.0 0.9994556765 -0.0187941684
11350231900.0 0.9993718903 -0.0345681129
11400231600.0 0.9989909819 -0.0496087028
11450231300.0 0.9985099758 -0.0642778417
11500231000.0 0.9979616271 -0.0801488828
11550230700.0 0.9960996428 -0.0930769994
11600230400.0 0.9947625538 -0.1071178234
11650230100.0 0.9934274142 -0.1185517645
11700229800.0 0.9913198068 -0.1332898629
11750229500.0 0.9892303547 -0.1477902298
11800229200.0 0.987335841 -0.1618896518
11850228900.0 0.9840165917 -0.1755670676
11900228600.0 0.9810000089 -0.1873113475
11950228300.0 0.9781276551 -0.1998191115
12000228000.0 0.975312491 -0.2103207871
12050227700.0 0.9720657254 -0.2232164182
12100227400.0 0.9684541242 -0.2352531288
12150227100.0 0.9647715243 -0.2517628463
12200226800.0 0.9609409409 -0.2630318317
12250226500.0 0.9576519716 -0.2755513632
12300226200.0 0.9532531454 -0.2882908723
12350225900.0 0.948504411 -0.3028624083
12400225600.0 0.9445577664 -0.3149515759
12450225300.0 0.940767847 -0.3273845264
12500225000.0 0.9353918705 -0.3419705725
12550224700.0 0.9301716827 -0.3559289301
12600224400.0 0.9255761956 -0.3683274721
12650224100.0 0.9196424147 -0.3824053231
12700223800.0 0.9145899191 -0.3950340505
12750223500.0 0.9090157221 -0.4080870344
12800223200.0 0.9036515863 -0.4204666099
12850222900.0 0.8982809072 -0.4329739637
12900222600.0 0.8922116686 -0.4452640106
12950222300.0 0.8856525595 -0.4585957649
13000222000.0 0.8796992542 -0.469482819
13050221700.0 0.8727171385 -0.4828649906
13100221400.0 0.8657327243 -0.4948098912
13150221100.0 0.8593197917 -0.5071248437
13200220800.0 0.8517267579 -0.5189996649
13250220500.0 0.8448965763 -0.5310924441
13300220200.0 0.8370164276 -0.542348507
13350219900.0 0.8288678227 -0.5547855994
13400219600.0 0.8209634904 -0.5664920641
13450219300.0 0.812219482 -0.5791228605
13500219000.0 0.8028182566 -0.5920806106
13550218700.0 0.7930711455 -0.6042665319
13600218400.0 0.7841842253 -0.616290588
13650218100.0 0.7748119716 -0.6270093134
13700217800.0 0.7645064202 -0.6391222776
13750217500.0 0.7550930003 -0.6507898541
13800217200.0 0.7439738875 -0.66265588
13850216900.0 0.7340172253 -0.6743755469
13900216600.0 0.7242704805 -0.6833371907
13950216300.0 0.7133152836 -0.6941205406
14000216000.0 0.7039673619 -0.7034960639
14050215700.0 0.6941069752 -0.7119480046
14100215400.0 0.6837071646 -0.7224136713
14150215100.0 0.6740697735 -0.7315078606
14200214800.0 0.6646551263 -0.7403041772
14250214500.0 0.6542384248 -0.7498303436
14300214200.0 0.6435702241 -0.7594765187
14350213900.0 0.6326866208 -0.7685537694
14400213600.0 0.6214891657 -0.7778772045
14450213300.0 0.6097922957 -0.7877294259
14500213000.0 0.5972171913 -0.7969019118
14550212700.0 0.5854591526 -0.8060805261
14600212400.0 0.5729572192 -0.814686592
14650212100.0 0.5609904144 -0.8228614835
14700211800.0 0.5473974962 -0.832566731
14750211500.0 0.5346915584 -0.8403012641
14800211200.0 0.5224984682 -0.848367317
14850210900.0 0.5107855773 -0.8560511971
14900210600.0 0.4976268814 -0.863819372
14950210300.0 0.4843505109 -0.8715384846
15000210000.0 0.4712798648 -0.8785865749
15050209700.0 0.4589052675 -0.8852985955
15100209400.0 0.4459507136 -0.8915919773
15150209100.0 0.4339196728 -0.8972538158
15200208800.0 0.4204146041 -0.9036709958
15250208500.0 0.4077590732 -0.9091435039
15300208200.0 0.3947977706 -0.9145487542
15350207900.0 0.3814529856 -0.9194246541
15400207600.0 0.3679166402 -0.9247938561
15450207300.0 0.3537445239 -0.9303178731
15500207000.0 0.3387805561 -0.9349205055
15550206700.0 0.3248422862 -0.9402694367
15600206400.0 0.31002989 -0.9447090524
15650206100.0 0.2948402404 -0.9491618158
15700205800.0 0.2811742626 -0.9537062205
15750205500.0 0.2667606333 -0.9571587775
15800205200.0 0.252855901 -0.960695804
15850204900.0 0.2387405768 -0.9642545179
15900204600.0 0.2236225302 -0.9680483933
15950204300.0 0.2098048936 -0.9712347002
16000204000.0 0.1955705541 -0.9740802915
16050203700.0 0.1809586387 -0.9773897988
16100203400.0 0.1670760468 -0.9792485815
16150203100.0 0.1520361932 -0.9822214155
16200202800.0 0.138022967 -0.984386092
16250202500.0 0.1234340901 -0.9857367
16300202200.0 0.1082842395 -0.9875581263
16350201900.0 0.0932519419 -0.9893657714
16400201600.0 0.0788059396 -0.990354373
16450201300.0 0.0640160816 -0.9916905519
16500201000.0 0.0479057565 -0.9926978562
16550200700.0 0.0324259096 -0.9934163936
16600200400.0 0.0169187506 -0.9938099435
16650200100.0 0.0010246746 -0.9940786115
16700199800.0 -0.014379346 -0.9937568948
16750199500.0 -0.0314551736 -0.9939914598
16800199200.0 -0.0481118099 -0.993020256
16850198900.0 -0.0627626823 -0.9920274944
16900198600.0 -0.0775398623 -0.9911808754
16950198300.0 -0.0919424987 -0.9898553579
17000198000.0 -0.1054556806 -0.9889701026
17050197700.0 -0.1190000722 -0.9876023409
17100197400.0 -0.1331274543 -0.9847321948
17150197100.0 -0.1470961794 -0.9830013101
17200196800.0 -0.160587956 -0.9806898311
17250196500.0 -0.173551357 -0.9785545564
17300196200.0 -0.1872127862 -0.9760504911
17350195900.0 -0.2002905371 -0.9733115054
17400195600.0 -0.2131885501 -0.970626251
17450195300.0 -0.2267297765 -0.9678093604
17500195000.0 -0.2401236283 -0.9645649301
17550194700.0 -0.254147815 -0.9608524177
17600194400.0 -0.2681208771 -0.9570208847
17650194100.0 -0.2822853194 -0.9530024222
17700193800.0 -0.2949968467 -0.949150202
17750193500.0 -0.3088888007 -0.9444836048
17800193200.0 -0.322673336 -0.9396118792
17850192900.0 -0.3373934617 -0.9349233738
17900192600.0 -0.3516659167 -0.9291298485
17950192300.0 -0.3667278454 -0.9227754299
18000192000.0 -0.3813010006 -0.9164726304
18050191700.0 -0.395554578 -0.909234203
18100191400.0 -0.4096176647 -0.902502218
18150191100.0 -0.4237917565 -0.8952973841
18200190800.0 -0.4392486379 -0.8874384726
18250190500.0 -0.4551109463 -0.8791227838
18300190200.0 -0.4700059896 -0.8711085415
18350189900.0 -0.485143807 -0.8633159407
18400189600.0 -0.4990964966 -0.8555839754
18450189300.0 -0.5123973958 -0.8482745061
18500189000.0 -0.5262421054 -0.8396731781
18550188700.0 -0.5390297769 -0.8321454724
18600188400.0 -0.5518025249 -0.8244381041
18650188100.0 -0.5636888258 -0.8166180744
18700187800.0 -0.5752635241 -0.8095884499
18750187500.0 -0.5864535553 -0.8024220483
18800187200.0 -0.597917755 -0.7941799687
18850186900.0 -0.6086988105 -0.7862905303
18900186600.0 -0.6192914171 -0.7783275318
18950186300.0 -0.6300154747 -0.7699943044
19000186000.0 -0.6390519794 -0.7623948614
19050185700.0 -0.6491385961 -0.7542475532
19100185400.0 -0.6596118282 -0.7455575648
19150185100.0 -0.6692509566 -0.7364648885
19200184800.0 -0.6792232891 -0.727477564
19250184500.0 -0.6889668644 -0.7180737455
19300184200.0 -0.7003104129 -0.7086775469
19350183900.0 -0.7109939637 -0.6989744652
19400183600.0 -0.7206814118 -0.6885933879
19450183300.0 -0.7299467778 -0.6780107642
19500183000.0 -0.7383048604 -0.6684025957
19550182700.0 -0.7475910526 -0.6577732841
19600182400.0 -0.7574782876 -0.6465398593
19650182100.0 -0.7672309826 -0.6347005672
19700181800.0 -0.7771608665 -0.6225193504
19750181500.0 -0.7870493308 -0.6098532643
19800181200.0 -0.7967581137 -0.5962338532
19850180900.0 -0.8063315647 -0.5827992117
19900180600.0 -0.8144174732 -0.5697561746
19950180300.0 -0.823957669 -0.554904244
20000180000.0 -0.8245037044 -0.550187249
20050179700.0 -0.8338616734 -0.5376960514
20100179400.0 -0.841105475 -0.5239364649
20150179100.0 -0.8489943589 -0.5118131432
20200178800.0 -0.8573412819 -0.4990560732
20250178500.0 -0.8660120493 -0.4863551725
20300178200.0 -0.874594966 -0.4726355203
20350177900.0 -0.882666564 -0.4594305091
20400177600.0 -0.8908522771 -0.4454922567
20450177300.0 -0.8980879001 -0.431948458
20500177000.0 -0.9055762206 -0.418503694
20550176700.0 -0.9126497527 -0.4050621332
20600176400.0 -0.9188811238 -0.392269282
20650176100.0 -0.9252531155 -0.3791027103
20700175800.0 -0.9316262189 -0.3663852061
20750175500.0 -0.9378681627 -0.3541281324
20800175200.0 -0.9416394099 -0.3425544054
20850174900.0 -0.9479559137 -0.3308635406
20900174600.0 -0.9523077375 -0.3181240943
20950174300.0 -0.9559204217 -0.3054527763
21000174000.0 -0.9602464044 -0.2929834335
21050173700.0 -0.9618618118 -0.2809229516
21100173400.0 -0.9668176016 -0.2688837638
21150173100.0 -0.9705090769 -0.256582207
21200172800.0 -0.9741424501 -0.2426595948
21250172500.0 -0.9775292072 -0.2294101652
21300172200.0 -0.9806841419 -0.2153492681
21350171900.0 -0.9829519468 -0.2009949718
21400171600.0 -0.9855233001 -0.186065253
21450171300.0 -0.986142343 -0.172240054
21500171000.0 -0.986963042 -0.1563790411
21550170700.0 -0.9885579405 -0.1428297971
21600170400.0 -0.9903225976 -0.1275469414
21650170100.0 -0.9910062732 -0.1126003722
21700169800.0 -0.9906692307 -0.0971941444
21750169500.0 -0.9908695318 -0.0810797848
21800169200.0 -0.9905694811 -0.0671284514
21850168900.0 -0.9906079291 -0.0501446009
21900168600.0 -0.9892624197 -0.0346301908
21950168300.0 -0.9893496752 -0.0189521524
22000168000.0 -0.9889142311 -0.0042727471
22050167700.0 -0.9880829885 0.0100775622
22100167400.0 -0.9883155054 0.0246584661
22150167100.0 -0.9881061447 0.0399534564
22200166800.0 -0.9883638995 0.0550033131
22250166500.0 -0.9875282916 0.0711113147
22300166200.0 -0.9867305716 0.0864455663
22350165900.0 -0.9854240517 0.102384457
22400165600.0 -0.9839026868 0.1171609917
22450165300.0 -0.98173301 0.131968783
22500165000.0 -0.9805409384 0.1454117906
22550164700.0 -0.9790046167 0.1600213483
22600164400.0 -0.9753324428 0.1743459752
22650164100.0 -0.9741516572 0.1882668829
22700163800.0 -0.9716933352 0.2034411688
22750163500.0 -0.9693487597 0.2186542455
22800163200.0 -0.9666735779 0.2315122758
22850162900.0 -0.9637868338 0.2450487131
22900162600.0 -0.9613073077 0.2583890573
22950162300.0 -0.9593417545 0.2717582316
23000162000.0 -0.9573209812 0.2843261749
23050161700.0 -0.9541505493 0.2974297349
23100161400.0 -0.9515084265 0.3102408394
23150161100.0 -0.9480945125 0.3226175109
23200160800.0 -0.9453402519 0.3352412933
23250160500.0 -0.9415149589 0.3479323771
23300160200.0 -0.9389030209 0.3596290537
23350159900.0 -0.934322772 0.3728320412
23400159600.0 -0.9302811427 0.3861689263
23450159300.0 -0.9255172865 0.3985716185
23500159000.0 -0.9205096333 0.4111543192
23550158700.0 -0.9162211091 0.4238976511
23600158400.0 -0.9108369607 0.4367938976
23650158100.0 -0.904737028 0.449840929
23700157800.0 -0.898014999 0.4629452102
23750157500.0 -0.8903258317 0.4762668796
23800157200.0 -0.8827324598 0.4890160744
23850156900.0 -0.874694906 0.5012057108
23900156600.0 -0.8666248824 0.5137560393
23950156300.0 -0.8583872504 0.5265284273
24000156000.0 -0.8500949494 0.5384147188
24050155700.0 -0.8407305178 0.5507443165
24100155400.0 -0.831815434 0.5625550546
24150155100.0 -0.8219990148 0.5740665668
24200154800.0 -0.8125134762 0.5856348536
24250154500.0 -0.8020583134 0.5968431068
24300154200.0 -0.7930238872 0.6088411995
24350153900.0 -0.7823075018 0.6192319357
24400153600.0 -0.7714101232 0.6306055942
24450153300.0 -0.7609357139 0.6412468936
24500153000.0 -0.7504589569 0.6513513794
24550152700.0 -0.7396602363 0.6618534275
24600152400.0 -0.7296733034 0.6716634763
24650152100.0 -0.7190407036 0.6813019238
