!Created with skrf (http://scikit-rf.org).
# Hz S RI R 50.0 
!freq ReS11 ImS11
300000.0 -0.9965146232 -0.0361684933
50299700.0 -0.9992737508 0.0161305974
100299400.0 -0.9971852204 0.028785615
150299100.0 -1.001821623 0.0456370602
200298800.0 -0.9987394551 0.0588932008
250298500.0 -0.9963932759 0.0723439806
300298200.0 -0.9849207567 0.0880369413
350297900.0 -0.9928680458 0.0988649063
400297600.0 -0.9919397474 0.1152315464
450297300.0 -0.9897658043 0.1289599206
500297000.0 -0.9882773997 0.1436777773
550296700.0 -0.9828220919 0.1560368451
600296400.0 -1.015798888 0.1890942489
650296100.0 -0.9807347547 0.1858209431
700295800.0 -0.9777381827 0.1998513514
750295500.0 -0.9747056577 0.2137688257
800295200.0 -0.9713359607 0.2278747258
850294900.0 -0.968113917 0.241385255
900294600.0 -0.9641643452 0.2552033308
950294300.0 -0.9604710278 0.2687142576
1000294000.0 -0.9566929438 0.2826218658
1050293700.0 -0.9519563615 0.2963327238
1100293400.0 -0.9479152843 0.3108569765
1150293100.0 -0.944000372 0.3224307934
1200292800.0 -0.9388966551 0.3367605139
1250292500.0 -0.9336981319 0.350203904
1300292200.0 -0.9278600178 0.3634440376
1350291900.0 -0.9224960342 0.3773613418
1400291600.0 -0.9170361108 0.3905969217
1450291300.0 -0.9118900713 0.4026694909
1500291000.0 -0.905606312 0.4162099276
1550290700.0 -0.8990735547 0.4293061843
1600290400.0 -0.8930043804 0.4423895168
1650290100.0 -0.8864210357 0.4543112653
1700289800.0 -0.8797187847 0.4678324441
1750289500.0 -0.8728933169 0.4800119586
1800289200.0 -0.8656975885 0.492719639
1850288900.0 -0.8588196081 0.504229776
1900288600.0 -0.8511273447 0.517140673
1950288300.0 -0.8430841348 0.5297552501
2000288000.0 -0.8358266563 0.5410918308
2050287700.0 -0.8273600168 0.5532451332
2100287400.0 -0.8197439834 0.5650436546
2150287100.0 -0.8111169477 0.5772455025
2200286800.0 -0.803296378 0.587682129
2250286500.0 -0.7944748151 0.5994476014
2300286200.0 -0.7857637755 0.6107960073
2350285900.0 -0.7770934132 0.6216615432
2400285600.0 -0.767936707 0.6331682619
2450285300.0 -0.7591555816 0.643494119
2500285000.0 -0.7498589289 0.6545703113
2550284700.0 -0.7406204929 0.6646257291
2600284400.0 -0.7308150325 0.6752570724
2650284100.0 -0.7222923309 0.6854743379
2700283800.0 -0.7117020849 0.6959617657
2750283500.0 -0.7017548947 0.7062074104
2800283200.0 -0.6919967071 0.7162757477
2850282900.0 -0.6815716085 0.725958919
2900282600.0 -0.671127072 0.7355025771
2950282300.0 -0.6610796005 0.7447244266
3000282000.0 -0.6501968345 0.7542708613
3050281700.0 -0.6393927141 0.7634589948
3100281400.0 -0.6282534193 0.7723406085
3150281100.0 -0.6171078449 0.7814591034
3200280800.0 -0.6052724164 0.7902206454
3250280500.0 -0.5942952295 0.7983553919
3300280200.0 -0.5829524122 0.8065585504
3350279900.0 -0.5718028907 0.8139672382
3400279600.0 -0.5595285616 0.822074569
3450279300.0 -0.5485062924 0.8297939011
3500279000.0 -0.5367008415 0.8371423379
3550278700.0 -0.5244063992 0.8441996406
3600278400.0 -0.5129894831 0.8512051015
3650278100.0 -0.4998718953 0.8591096418
3700277800.0 -0.4876261045 0.8654915672
3750277500.0 -0.4756324693 0.8722527837
3800277200.0 -0.4630951214 0.8787924802
3850276900.0 -0.450782921 0.8850351289
3900276600.0 -0.4396505502 0.8910771689
3950276300.0 -0.4267606613 0.8973352904
4000276000.0 -0.4147263827 0.9034046719
4050275700.0 -0.4012022547 0.9095238937
4100275400.0 -0.389851572 0.9147096717
4150275100.0 -0.3767742953 0.9202961728
4200274800.0 -0.3634363298 0.9257577297
4250274500.0 -0.3514323795 0.9307856408
4300274200.0 -0.3382963579 0.9358596288
4350273900.0 -0.3249667989 0.9408596931
4400273600.0 -0.3110583809 0.9454736297
4450273300.0 -0.2962967211 0.9505327554
4500273000.0 -0.2831568436 0.9546332386
4550272700.0 -0.2697138403 0.9587373707
4600272400.0 -0.2545117076 0.9627551306
4650272100.0 -0.2421252932 0.9659596773
4700271800.0 -0.22875238 0.9696017494
4750271500.0 -0.2160474471 0.9724791888
4800271200.0 -0.2028478112 0.9753738017
4850270900.0 -0.1890278151 0.9782028905
4900270600.0 -0.1756428289 0.9805773949
4950270300.0 -0.1621561221 0.9832225669
5000270000.0 -0.1479714407 0.9849643798
5050269700.0 -0.1346109979 0.986879307
5100269400.0 -0.1205295229 0.9888521482
5150269100.0 -0.1069069214 0.9909434605
5200268800.0 -0.0932805021 0.9916744785
5250268500.0 -0.0801184688 0.9929895055
5300268200.0 -0.0668523804 0.9938832385
5350267900.0 -0.0545701573 0.9941341125
5400267600.0 -0.0387623878 0.9956687995
5450267300.0 -0.0261586635 0.995701146
5500267000.0 -0.0117342854 0.9961600505
5550266700.0 0.0018053515 0.9963836962
5600266400.0 0.016781834 0.9963951389
5650266100.0 0.0324261151 0.9959613355
5700265800.0 0.0464725418 0.9953951407
5750265500.0 0.0608698392 0.9946203419
5800265200.0 0.0748439198 0.9939594628
5850264900.0 0.0881314694 0.9930428748
5900264600.0 0.1041803543 0.9912086199
5950264300.0 0.1161719986 0.9898932054
6000264000.0 0.1301990159 0.9881181896
6050263700.0 0.14304747 0.9864560271
6100263400.0 0.1563976366 0.9843868402
6150263100.0 0.1714869235 0.9818889419
6200262800.0 0.1826537002 0.9801509078
6250262500.0 0.1957570419 0.9778336246
6300262200.0 0.2084361784 0.975180583
6350261900.0 0.2215775306 0.972117858
6400261600.0 0.2358926301 0.9687209074
6450261300.0 0.2475935323 0.9658141507
6500261000.0 0.260580097 0.9625965373
6550260700.0 0.2737094277 0.958515253
6600260400.0 0.2866035942 0.9547833651
6650260100.0 0.3003317187 0.9507072333
6700259800.0 0.3127675864 0.9464673604
6750259500.0 0.3263503911 0.9420151305
6800259200.0 0.3393633991 0.9370489261
6850258900.0 0.351696475 0.9323417447
6900258600.0 0.3640783353 0.9273015111
6950258300.0 0.3768096279 0.9221988732
7000258000.0 0.3889170099 0.9170623873
7050257700.0 0.4007247761 0.9114604084
7100257400.0 0.4143497694 0.905226806
7150257100.0 0.4249431327 0.900103267
7200256800.0 0.4379435927 0.8937845292
7250256500.0 0.4494748903 0.8877778384
7300256200.0 0.4621475343 0.8812355416
7350255900.0 0.4740055611 0.8746462301
7400255600.0 0.4855464696 0.8687522039
7450255300.0 0.5001202856 0.8604837851
7500255000.0 0.5113809048 0.8537278666
7550254700.0 0.5238459749 0.8458891332
7600254400.0 0.5361444836 0.8382997433
7650254100.0 0.5479935917 0.8308160607
7700253800.0 0.5598042217 0.8229544334
7750253500.0 0.5707887139 0.8151856135
7800253200.0 0.5821625871 0.8070512598
7850252900.0 0.5916596491 0.8001829938
7900252600.0 0.6037487771 0.791072157
7950252300.0 0.6131096845 0.7841302742
8000252000.0 0.623777012 0.7759681037
8050251700.0 0.6346596175 0.767423321
8100251400.0 0.6444177691 0.7594897043
8150251100.0 0.6548350567 0.7503265068
8200250800.0 0.6645604333 0.7422099919
8250250500.0 0.6739759054 0.733419093
8300250200.0 0.6837539615 0.7245743402
8350249900.0 0.6931837498 0.7158207003
8400249600.0 0.701902922 0.7071448587
8450249300.0 0.7115978536 0.6977360228
8500249000.0 0.720699801 0.6884427314
8550248700.0 0.7298682343 0.6785220355
8600248400.0 0.7389253254 0.6687009181
8650248100.0 0.7466592601 0.6593578208
8700247800.0 0.7561551484 0.6486875999
8750247500.0 0.7647642221 0.6385709211
8800247200.0 0.7728558446 0.6282909521
8850246900.0 0.7813909621 0.6174151206
8900246600.0 0.7897174786 0.606701116
8950246300.0 0.7986180715 0.5945824464
9000246000.0 0.8072856602 0.5830901606
9050245700.0 0.8151379741 0.571418492
9100245400.0 0.8237271159 0.5593350637
9150245100.0 0.8321249634 0.5474289398
9200244800.0 0.8402456243 0.5349201459
9250244500.0 0.8488499859 0.5212936625
9300244200.0 0.8565254567 0.5087135647
9350243900.0 0.8641004983 0.4956663664
9400243600.0 0.8709874886 0.4832553722
9450243300.0 0.8771330638 0.4717725926
9500243000.0 0.8841424306 0.4587099505
9550242700.0 0.889715072 0.4478803529
9600242400.0 0.8950099965 0.4372283664
9650242100.0 0.8998177696 0.427773093
9700241800.0 0.9050028096 0.4176340735
9750241500.0 0.9098963865 0.407462401
9800241200.0 0.9148170797 0.396488231
9850240900.0 0.9203654495 0.3845311166
9900240600.0 0.924888141 0.3745332471
9950240300.0 0.9309305576 0.3596679054
10000240000.0 0.9359998993 0.3473180291
10050239700.0 0.940872058 0.3334219234
10100239400.0 0.9457479173 0.3192945956
10150239100.0 0.9502523485 0.3052196776
10200238800.0 0.9544050538 0.2907180954
10250238500.0 0.9582859911 0.2775568625
10300238200.0 0.9618031093 0.2636007509
10350237900.0 0.965005692 0.2505283865
10400237600.0 0.9680982072 0.237331924
10450237300.0 0.9712763482 0.2234036248
10500237000.0 0.9735731668 0.2112744214
10550236700.0 0.9761687979 0.1971816865
10600236400.0 0.9789041412 0.1842082522
10650236100.0 0.9808637277 0.1692804373
10700235800.0 0.9831603606 0.1568857839
10750235500.0 0.9855240775 0.1434689497
10800235200.0 0.9873251506 0.1295163419
10850234900.0 0.9894584039 0.1156235945
10900234600.0 0.9909255156 0.101329423
10950234300.0 0.992665046 0.0881656811
11000234000.0 0.9941297189 0.0742367378
11050233700.0 0.9954352507 0.0597671573
11100233400.0 0.996660748 0.0439588165
11150233100.0 0.9976167644 0.0290219656
11200232800.0 0.9978087664 0.0153136397
11250232500.0 0.9983105674 -0.0007946707
11300232200.0 0.9996899167 -0.0158564898
11350231900.0 0.9995729999 -0.0310532959
11400231600.0 0.9981921451 -0.0462395795
11450231300.0 0.9980362863 -0.059971453
11500231000.0 0.9972767973 -0.0760745504
11550230700.0 0.9962886348 -0.0900205144
11600230400.0 0.9947011939 -0.1036642496
11650230100.0 0.992997586 -0.1146413885
11700229800.0 0.9914122871 -0.130018392
11750229500.0 0.9894551915 -0.1439521853
11800229200.0 0.9874706074 -0.1578290958
11850228900.0 0.9843368986 -0.1716103813
11900228600.0 0.9814368011 -0.184127205
11950228300.0 0.9784287907 -0.1966053979
12000228000.0 0.9761052603 -0.2072954478
12050227700.0 0.972281169 -0.2206074785
12100227400.0 0.9698688036 -0.231070874
12150227100.0 0.9652122333 -0.2492310268
12200226800.0 0.9617027275 -0.2616956967
12250226500.0 0.9580289958 -0.273819522
12300226200.0 0.9546298719 -0.2857698537
12350225900.0 0.9494152345 -0.3004723018
12400225600.0 0.9457201904 -0.3134757469
12450225300.0 0.9412222932 -0.3257802691
12500225000.0 0.9363519023 -0.3398585612
12550224700.0 0.93090617 -0.3541874447
12600224400.0 0.9263072108 -0.3664486375
12650224100.0 0.9204964538 -0.3808031393
12700223800.0 0.9151638469 -0.3935239963
12750223500.0 0.9098257787 -0.4062677051
12800223200.0 0.9040539724 -0.4193167526
12850222900.0 0.8988766819 -0.4313390464
12900222600.0 0.8930029097 -0.4433928554
12950222300.0 0.8860570531 -0.4568347113
13000222000.0 0.8805979225 -0.468499808
13050221700.0 0.8738053563 -0.4812328943
13100221400.0 0.8668973162 -0.4934329501
13150221100.0 0.8599176155 -0.505593464
13200220800.0 0.8525012833 -0.5175046794
13250220500.0 0.8455888592 -0.5295824521
13300220200.0 0.8376985212 -0.5410561326
13350219900.0 0.8296579883 -0.5535016642
13400219600.0 0.8219499755 -0.5650639822
13450219300.0 0.8129892524 -0.5777417279
13500219000.0 0.8039125492 -0.5899939384
13550218700.0 0.7950667728 -0.6022345567
13600218400.0 0.7860593586 -0.6139973777
13650218100.0 0.7768207227 -0.6247577425
13700217800.0 0.7661945959 -0.6373993286
13750217500.0 0.7562587908 -0.6487197334
13800217200.0 0.7455906701 -0.6606292939
13850216900.0 0.7357770605 -0.6720614592
13900216600.0 0.7262285363 -0.6806141029
13950216300.0 0.7160540646 -0.6917792389
14000216000.0 0.7060488778 -0.7021729039
14050215700.0 0.6967619085 -0.7100770729
14100215400.0 0.6860177997 -0.7204300315
14150215100.0 0.6764083216 -0.7298269191
14200214800.0 0.666630939 -0.7387636692
14250214500.0 0.6558677348 -0.7484594872
14300214200.0 0.6452081537 -0.7581229037
14350213900.0 0.6340375948 -0.7674956468
14400213600.0 0.6231971299 -0.7767511762
14450213300.0 0.6117200095 -0.7861800659
14500213000.0 0.5990117441 -0.7957882041
14550212700.0 0.5873461737 -0.8045813655
14600212400.0 0.5753124 -0.8131747604
14650212100.0 0.5633133825 -0.821152383
14700211800.0 0.5495177071 -0.8307227318
14750211500.0 0.5379367476 -0.8389318418
14800211200.0 0.5249347468 -0.8470533227
14850210900.0 0.5131201672 -0.854749135
14900210600.0 0.5002048173 -0.862383138
14950210300.0 0.4870077823 -0.8699952257
15000210000.0 0.4741157393 -0.8769109359
15050209700.0 0.4618187165 -0.8837856981
15100209400.0 0.4483665186 -0.8905840201
15150209100.0 0.4360165008 -0.8957737729
15200208800.0 0.4229555823 -0.9020631685
15250208500.0 0.4101312564 -0.9075937495
15300208200.0 0.3967610683 -0.9130356783
15350207900.0 0.3843693902 -0.9183622877
15400207600.0 0.3699876848 -0.9244351961
15450207300.0 0.3561666684 -0.9303172879
15500207000.0 0.3417176664 -0.9347222297
15550206700.0 0.328036341 -0.9394505299
15600206400.0 0.3127177795 -0.944073102
15650206100.0 0.2984108475 -0.9487535987
15700205800.0 0.2848263973 -0.9527279861
15750205500.0 0.2702527635 -0.9565156518
15800205200.0 0.2561385167 -0.960357914
15850204900.0 0.2422045023 -0.9637781026
15900204600.0 0.2271187426 -0.9677809528
15950204300.0 0.2128306695 -0.9708161786
16000204000.0 0.1988801436 -0.9739086069
16050203700.0 0.1839141483 -0.9768032927
16100203400.0 0.1704957452 -0.9792342999
16150203100.0 0.1558412616 -0.9820875006
16200202800.0 0.1412837419 -0.9839976017
16250202500.0 0.1264946184 -0.9858341142
16300202200.0 0.1118790425 -0.9879597405
16350201900.0 0.0960471953 -0.9891822671
16400201600.0 0.0816397611 -0.990682679
16450201300.0 0.0668140957 -0.9919174132
16500201000.0 0.0509117477 -0.9929206216
16550200700.0 0.0358189217 -0.9937137385
16600200400.0 0.020311121 -0.9940888485
16650200100.0 0.0048134603 -0.994251978
16700199800.0 -0.0107969699 -0.9941916725
16750199500.0 -0.0280142088 -0.9941423675
16800199200.0 -0.0432776339 -0.9940974393
16850198900.0 -0.0588510546 -0.9923554068
16900198600.0 -0.0738795047 -0.9918949636
16950198300.0 -0.0881503706 -0.9905471574
17000198000.0 -0.1017501547 -0.9896107186
17050197700.0 -0.1150866168 -0.9874933505
17100197400.0 -0.1297462179 -0.985859467
17150197100.0 -0.1439666749 -0.983635399
17200196800.0 -0.1571694865 -0.9816229139
17250196500.0 -0.1710573301 -0.9789227831
17300196200.0 -0.1842324531 -0.9767805124
17350195900.0 -0.1973062521 -0.9741552362
17400195600.0 -0.2105000912 -0.9714477787
17450195300.0 -0.22393874 -0.9684686934
17500195000.0 -0.2376345882 -0.9651126832
17550194700.0 -0.2515899875 -0.962010935
17600194400.0 -0.2658854023 -0.9576718715
17650194100.0 -0.279772225 -0.9538641621
17700193800.0 -0.2928463531 -0.9498704929
17750193500.0 -0.3067209989 -0.9454064271
17800193200.0 -0.320937747 -0.9404226977
17850192900.0 -0.3348840655 -0.936000991
17900192600.0 -0.3492570231 -0.9304149878
17950192300.0 -0.3645737672 -0.9241358874
18000192000.0 -0.3792009801 -0.9177572833
18050191700.0 -0.3930602533 -0.9108310011
18100191400.0 -0.4072520241 -0.9040153677
18150191100.0 -0.4213527461 -0.8969999989
18200190800.0 -0.4367088719 -0.8894843508
18250190500.0 -0.4524542943 -0.8814153197
18300190200.0 -0.4670463755 -0.8733281522
18350189900.0 -0.4820199032 -0.8661801111
18400189600.0 -0.496167485 -0.8584813504
18450189300.0 -0.5096980706 -0.8506706108
18500189000.0 -0.5225670686 -0.8424825279
18550188700.0 -0.5360385085 -0.8349130524
18600188400.0 -0.5490187567 -0.8270813691
18650188100.0 -0.5605029024 -0.8197645582
18700187800.0 -0.5721978664 -0.8123495498
18750187500.0 -0.5835700206 -0.8047474945
18800187200.0 -0.5946719574 -0.7967451828
18850186900.0 -0.6060666531 -0.7887333044
18900186600.0 -0.6164310758 -0.7806829312
18950186300.0 -0.6276115309 -0.7720415098
19000186000.0 -0.6367566544 -0.7641336107
19050185700.0 -0.6469040272 -0.7560397649
19100185400.0 -0.6565792059 -0.747321521
19150185100.0 -0.6678746471 -0.7387434197
19200184800.0 -0.6773558741 -0.72927833
19250184500.0 -0.6870544425 -0.7197810095
19300184200.0 -0.6981389907 -0.7106603918
19350183900.0 -0.708722551 -0.7009514412
19400183600.0 -0.718745241 -0.6907403342
19450183300.0 -0.7279095302 -0.6800939091
19500183000.0 -0.7368549856 -0.6696300315
19550182700.0 -0.7462577666 -0.659490472
19600182400.0 -0.7557540666 -0.6478481446
19650182100.0 -0.7656667059 -0.6366016318
19700181800.0 -0.7752734123 -0.6243121986
19750181500.0 -0.7849473886 -0.6117616807
19800181200.0 -0.7946299349 -0.598363037
19850180900.0 -0.8043138604 -0.5848069787
19900180600.0 -0.8124667214 -0.5718529915
19950180300.0 -0.8222721814 -0.557426292
20000180000.0 -0.8244034083 -0.5512593967
20050179700.0 -0.8325415275 -0.5378692579
20100179400.0 -0.8414401629 -0.5259923618
20150179100.0 -0.8490049539 -0.5137342435
20200178800.0 -0.8574353978 -0.5007183454
20250178500.0 -0.8652428881 -0.487786828
20300178200.0 -0.8742997211 -0.4741929384
20350177900.0 -0.881616878 -0.4607280796
20400177600.0 -0.8895378056 -0.4474380616
20450177300.0 -0.8969953055 -0.4338484864
20500177000.0 -0.9038958184 -0.4202888446
20550176700.0 -0.9111182874 -0.4070014525
20600176400.0 -0.9173351551 -0.3942136212
20650176100.0 -0.9236541787 -0.3811689846
20700175800.0 -0.9297499026 -0.369230443
20750175500.0 -0.9358679751 -0.3564310809
20800175200.0 -0.9405590068 -0.3442264063
20850174900.0 -0.9450303024 -0.3325767045
20900174600.0 -0.9500745317 -0.3199073831
20950174300.0 -0.9545725043 -0.3076881306
21000174000.0 -0.9581199827 -0.2947397787
21050173700.0 -0.9602574719 -0.2832714808
21100173400.0 -0.96512672 -0.2700769548
21150173100.0 -0.9686433205 -0.2567581484
21200172800.0 -0.9721915337 -0.2440057088
21250172500.0 -0.9760674427 -0.2305764444
21300172200.0 -0.9790788171 -0.2165418107
21350171900.0 -0.981141503 -0.2019714864
21400171600.0 -0.9846377081 -0.1879479531
21450171300.0 -0.9851238971 -0.1737863515
21500171000.0 -0.9861889771 -0.1590413759
21550170700.0 -0.988327521 -0.1445340166
21600170400.0 -0.9889895333 -0.128805553
21650170100.0 -0.990855184 -0.1136521808
21700169800.0 -0.9906106795 -0.0986436359
21750169500.0 -0.9896128606 -0.0827420012
21800169200.0 -0.9909331748 -0.06721862
21850168900.0 -0.9911599577 -0.0518827541
21900168600.0 -0.9908412447 -0.036867405
21950168300.0 -0.9903319898 -0.0210547186
22000168000.0 -0.9893851591 -0.0061888413
22050167700.0 -0.9896710514 0.0082477764
22100167400.0 -0.9891802839 0.0229576549
22150167100.0 -0.9890702914 0.0381373121
22200166800.0 -0.988608149 0.0531105887
22250166500.0 -0.98808583 0.0696492859
22300166200.0 -0.9873790761 0.0844595143
22350165900.0 -0.9857314803 0.0999114521
22400165600.0 -0.9851924806 0.1160328266
22450165300.0 -0.9825532147 0.129233109
22500165000.0 -0.9808596188 0.1435261737
22550164700.0 -0.980539785 0.1583592365
22600164400.0 -0.9782359495 0.1724779811
22650164100.0 -0.9751379245 0.1857688449
22700163800.0 -0.972570755 0.20092765
22750163500.0 -0.9705087871 0.2151060025
22800163200.0 -0.9670371007 0.2285575851
22850162900.0 -0.9641824361 0.2414751342
22900162600.0 -0.9621280359 0.2550328271
22950162300.0 -0.959515735 0.2684736303
23000162000.0 -0.9573881936 0.2807155499
23050161700.0 -0.9543810688 0.2939430681
23100161400.0 -0.9519646475 0.306798589
23150161100.0 -0.9483997086 0.3194969835
23200160800.0 -0.9445117169 0.3324066997
23250160500.0 -0.9420447617 0.344816688
23300160200.0 -0.9388478823 0.3569141058
23350159900.0 -0.9343774464 0.3695546025
23400159600.0 -0.9293765164 0.3820636989
23450159300.0 -0.9246886923 0.3955526535
23500159000.0 -0.920333796 0.4077421953
23550158700.0 -0.9155569602 0.4209884101
23600158400.0 -0.910427817 0.4333176373
23650158100.0 -0.9044572368 0.4462221103
23700157800.0 -0.8976464382 0.4594306786
23750157500.0 -0.8903547884 0.472612525
23800157200.0 -0.8828987018 0.4850963415
23850156900.0 -0.8755630271 0.4977326449
23900156600.0 -0.8672255084 0.5099528
23950156300.0 -0.8585711793 0.5225307619
24000156000.0 -0.8513308782 0.5351291521
24050155700.0 -0.84164307 0.5466717711
24100155400.0 -0.8326462237 0.558375979
24150155100.0 -0.8237947035 0.5698913634
24200154800.0 -0.8140488514 0.5812011879
24250154500.0 -0.8046125839 0.5931642328
24300154200.0 -0.7952180055 0.6043740839
24350153900.0 -0.7852963159 0.6154325879
24400153600.0 -0.7747092803 0.6265407109
24450153300.0 -0.7641652499 0.6373078115
24500153000.0 -0.7536489233 0.6473096757
24550152700.0 -0.743895505 0.6579471371
24600152400.0 -0.7335590589 0.6678115387
24650152100.0 -0.7230561441 0.6776288074
