!Created with skrf (http://scikit-rf.org).
# Hz S RI R 50.0 
!freq ReS11 ImS11
300000.0 -0.9738591735 -0.1227321362
50299700.0 -1.000035952 0.0151580527
100299400.0 -0.9979386485 0.0279671155
150299100.0 -1.002738148 0.0448256702
200298800.0 -0.9994744455 0.0580708707
250298500.0 -0.9973439009 0.071582655
300298200.0 -0.9856861092 0.0874399442
350297900.0 -0.9938810491 0.0986144991
400297600.0 -0.9930727865 0.1149361646
450297300.0 -0.9909217441 0.1287483663
500297000.0 -0.9892058306 0.1434845789
550296700.0 -0.9843894686 0.1557590024
600296400.0 -1.0172815 0.1891552484
650296100.0 -0.9821867933 0.1856931395
700295800.0 -0.9792584358 0.2000410152
750295500.0 -0.9763794543 0.2141728486
800295200.0 -0.9730566494 0.2280898512
850294900.0 -0.9696285991 0.2418961825
900294600.0 -0.9658043799 0.2555276805
950294300.0 -0.9620232836 0.269379209
1000294000.0 -0.9580193546 0.2831394791
1050293700.0 -0.9536623502 0.2973871426
1100293400.0 -0.9492715822 0.3114707293
1150293100.0 -0.9455130261 0.323308411
1200292800.0 -0.9402567478 0.3378215491
1250292500.0 -0.9346223234 0.3512425898
1300292200.0 -0.9288480424 0.3644356589
1350291900.0 -0.9235549792 0.3784173216
1400291600.0 -0.9179689221 0.3917257843
1450291300.0 -0.9125307252 0.4038515312
1500291000.0 -0.9061511999 0.4173160581
1550290700.0 -0.8995136101 0.4307543058
1600290400.0 -0.8935905759 0.4437446324
1650290100.0 -0.8869289135 0.4557336747
1700289800.0 -0.8798511628 0.4691984492
1750289500.0 -0.8729415278 0.4814656888
1800289200.0 -0.8655377439 0.4944628863
1850288900.0 -0.8587359078 0.5058187146
1900288600.0 -0.8510707108 0.5186519693
1950288300.0 -0.8428938783 0.5312610154
2000288000.0 -0.8354558295 0.542756834
2050287700.0 -0.8270308881 0.5552900893
2100287400.0 -0.8193850815 0.5666443285
2150287100.0 -0.8108772487 0.578741179
2200286800.0 -0.8030022843 0.5891643107
2250286500.0 -0.79392248 0.6013684143
2300286200.0 -0.785205942 0.6128702936
2350285900.0 -0.7768234637 0.6235634946
2400285600.0 -0.7677784545 0.6343352744
2450285300.0 -0.7590758961 0.6451125857
2500285000.0 -0.7492444782 0.6567970856
2550284700.0 -0.7401615027 0.6670513715
2600284400.0 -0.7310144373 0.6768184706
2650284100.0 -0.7221497756 0.687052241
2700283800.0 -0.7119589416 0.6977561987
2750283500.0 -0.7014554828 0.7082006053
2800283200.0 -0.6914255576 0.7179293641
2850282900.0 -0.6812446421 0.7283611605
2900282600.0 -0.6708764357 0.7379345181
2950282300.0 -0.6602792468 0.7473837823
3000282000.0 -0.6498016631 0.7566339693
3050281700.0 -0.6386145138 0.7661294852
3100281400.0 -0.6267759688 0.7749919571
3150281100.0 -0.6155214463 0.7839777447
3200280800.0 -0.6041598453 0.7924571767
3250280500.0 -0.5930126511 0.800333926
3300280200.0 -0.5814422676 0.8085123692
3350279900.0 -0.5693434352 0.8164699863
3400279600.0 -0.5568036278 0.8246024875
3450279300.0 -0.545658935 0.8315912992
3500279000.0 -0.533933699 0.8386518068
3550278700.0 -0.5216968746 0.8456104818
3600278400.0 -0.5099544289 0.8524131441
3650278100.0 -0.4966697954 0.8600568199
3700277800.0 -0.4844376017 0.8666512627
3750277500.0 -0.4722074703 0.8733836374
3800277200.0 -0.4598098241 0.8796006104
3850276900.0 -0.4479389944 0.8856402306
3900276600.0 -0.4366484754 0.8911967208
3950276300.0 -0.4245868427 0.8970467729
4000276000.0 -0.4131420914 0.9031328436
4050275700.0 -0.4000671233 0.909279727
4100275400.0 -0.3890319172 0.9147102273
4150275100.0 -0.376147331 0.9204047505
4200274800.0 -0.3628344833 0.9258961288
4250274500.0 -0.350163306 0.9314054042
4300274200.0 -0.3369471493 0.9368162446
4350273900.0 -0.3225746031 0.9419293009
4400273600.0 -0.3078601735 0.9471310056
4450273300.0 -0.2928842359 0.9522298021
4500273000.0 -0.2797501267 0.9565819611
4550272700.0 -0.2660277157 0.9606904833
4600272400.0 -0.2508218471 0.9646918117
4650272100.0 -0.2395025631 0.9677652081
4700271800.0 -0.2265055837 0.9711498194
4750271500.0 -0.2148778123 0.974085341
4800271200.0 -0.2026057213 0.9767601457
4850270900.0 -0.1890403511 0.9796669942
4900270600.0 -0.1750729684 0.9819658884
4950270300.0 -0.1606410935 0.9845745959
5000270000.0 -0.1460844543 0.9866098869
5050269700.0 -0.1325441611 0.9885278157
5100269400.0 -0.1184065652 0.9902708333
5150269100.0 -0.1046047873 0.9916643743
5200268800.0 -0.0912660866 0.9929556235
5250268500.0 -0.078277534 0.993870723
5300268200.0 -0.0647529248 0.9944958204
5350267900.0 -0.0516965308 0.9953180896
5400267600.0 -0.0355905822 0.9963443991
5450267300.0 -0.0221940192 0.9965467916
5500267000.0 -0.0071155152 0.9970123241
5550266700.0 0.0079361431 0.9971049318
5600266400.0 0.0237518251 0.9971372958
5650266100.0 0.0401416477 0.9967366765
5700265800.0 0.0546308089 0.9960152104
5750265500.0 0.0695551653 0.99518846
5800265200.0 0.0831739129 0.994066894
5850264900.0 0.0960421069 0.9931588078
5900264600.0 0.1128750709 0.9915020587
5950264300.0 0.1241524275 0.9898255055
6000264000.0 0.1377972786 0.987928096
6050263700.0 0.1497420842 0.9865764
6100263400.0 0.1619191619 0.9847178043
6150263100.0 0.176747953 0.9828301664
6200262800.0 0.1863507147 0.9810494049
6250262500.0 0.198884244 0.9786243069
6300262200.0 0.2113117503 0.9760109169
6350261900.0 0.2240890153 0.9732504557
6400261600.0 0.2381205053 0.9701408457
6450261300.0 0.2490667961 0.9676179656
6500261000.0 0.262471798 0.9639095781
6550260700.0 0.2757412557 0.9601366368
6600260400.0 0.2890698346 0.9558997473
6650260100.0 0.3032456027 0.9517106238
6700259800.0 0.3150537509 0.9472082666
6750259500.0 0.3288954921 0.942464852
6800259200.0 0.3422916105 0.937210577
6850258900.0 0.3548060508 0.9320914334
6900258600.0 0.3670689886 0.9267778629
6950258300.0 0.3798026198 0.9214775151
7000258000.0 0.3915512646 0.9162935005
7050257700.0 0.4034382263 0.9102979993
7100257400.0 0.4166064719 0.9040379381
7150257100.0 0.4272848266 0.8985286938
7200256800.0 0.4404082653 0.8921426242
7250256500.0 0.4530330957 0.8856413047
7300256200.0 0.4662897923 0.8788211033
7350255900.0 0.478738363 0.8716226778
7400255600.0 0.4928627276 0.864170064
7450255300.0 0.5081528872 0.8550110659
7500255000.0 0.5209603445 0.8475197364
7550254700.0 0.5346244633 0.8382205102
7600254400.0 0.5472711948 0.8300263829
7650254100.0 0.5587679847 0.8223464818
7700253800.0 0.5706091391 0.8141501399
7750253500.0 0.5816116841 0.8065859231
7800253200.0 0.592356397 0.7988447852
7850252900.0 0.6021174545 0.7916470675
7900252600.0 0.6135983929 0.7828461384
7950252300.0 0.6219664243 0.7764655352
8000252000.0 0.6319282199 0.7689740428
8050251700.0 0.6423524938 0.7608374571
8100251400.0 0.6523516932 0.7528201206
8150251100.0 0.6624029538 0.7443364218
8200250800.0 0.6718819007 0.7360925201
8250250500.0 0.6805735319 0.7281536766
8300250200.0 0.6895696514 0.7197852892
8350249900.0 0.6991433395 0.7107585512
8400249600.0 0.7071453539 0.7030713164
8450249300.0 0.7156587732 0.6943013494
8500249000.0 0.7245138552 0.6854510493
8550248700.0 0.7328880258 0.6763502931
8600248400.0 0.7411882876 0.6667570403
8650248100.0 0.7486112169 0.6575127512
8700247800.0 0.7580989412 0.646275724
8750247500.0 0.7661660983 0.6361600983
8800247200.0 0.7743856279 0.6259456448
8850246900.0 0.7828478256 0.6145114993
8900246600.0 0.7913758736 0.6031661401
8950246300.0 0.8006491512 0.5905276537
9000246000.0 0.8093243656 0.5783423453
9050245700.0 0.8181507279 0.5658842024
9100245400.0 0.8263448025 0.5539659658
9150245100.0 0.8351377574 0.5409750434
9200244800.0 0.8444688013 0.5263089624
9250244500.0 0.8536579735 0.5115897591
9300244200.0 0.8618081553 0.4978551077
9350243900.0 0.8694183246 0.4846134466
9400243600.0 0.8761522876 0.4729046871
9450243300.0 0.8816341875 0.4623713147
9500243000.0 0.887761674 0.4505361462
9550242700.0 0.8920241514 0.4429505895
9600242400.0 0.8961814258 0.4354796376
9650242100.0 0.9004026679 0.4286420504
9700241800.0 0.9050415935 0.4197697302
9750241500.0 0.9095349321 0.4122446977
9800241200.0 0.9143563887 0.4030729742
9850240900.0 0.9198206559 0.3912229788
9900240600.0 0.9258543783 0.3796080577
9950240300.0 0.9331745848 0.36273634
10000240000.0 0.9382951205 0.3508124861
10050239700.0 0.9442273477 0.334896299
10100239400.0 0.9494233784 0.3181598975
10150239100.0 0.9538672583 0.3029613938
10200238800.0 0.9583764086 0.2874654466
10250238500.0 0.96146576 0.27405528
10300238200.0 0.9646497534 0.2599391186
10350237900.0 0.9674472361 0.2467136247
10400237600.0 0.9702165561 0.2331550561
10450237300.0 0.9727696 0.2195741308
10500237000.0 0.9751600426 0.2071540376
10550236700.0 0.9776020859 0.1926525829
10600236400.0 0.9794491567 0.1787937598
10650236100.0 0.9815158236 0.1644862521
10700235800.0 0.9836895986 0.1517463865
10750235500.0 0.9860276084 0.1384788308
10800235200.0 0.9880395206 0.1245626452
10850234900.0 0.9902154162 0.109100853
10900234600.0 0.9921058126 0.0945557193
10950234300.0 0.9938752829 0.0811639697
11000234000.0 0.9956408816 0.065636734
11050233700.0 0.9974072065 0.0489575227
11100233400.0 0.9986366731 0.0312214992
11150233100.0 1.000014019 0.0143113014
11200232800.0 1.000721314 -0.0010617067
11250232500.0 1.001901989 -0.0193202992
11300232200.0 1.002534699 -0.0372824204
11350231900.0 1.002100211 -0.0540839483
11400231600.0 1.001492169 -0.0694681366
11450231300.0 1.001351774 -0.0849058176
11500231000.0 1.000088605 -0.1005814319
11550230700.0 0.9987283384 -0.1141846603
11600230400.0 0.9969315933 -0.1272832026
11650230100.0 0.9949789688 -0.1388891462
11700229800.0 0.9927849288 -0.1537939631
11750229500.0 0.9903531204 -0.1673124035
11800229200.0 0.9874390123 -0.1810611924
11850228900.0 0.9836811061 -0.1931047358
11900228600.0 0.9800234145 -0.2025778278
11950228300.0 0.9762910521 -0.2128301639
12000228000.0 0.9735784386 -0.2216153284
12050227700.0 0.9702821907 -0.2339384589
12100227400.0 0.9669281953 -0.2452508653
12150227100.0 0.9616525839 -0.2620440172
12200226800.0 0.9580617456 -0.2730521521
12250226500.0 0.9538413817 -0.2856643517
12300226200.0 0.949943698 -0.2981824357
12350225900.0 0.9449195994 -0.3115843261
12400225600.0 0.9403815038 -0.3237023837
12450225300.0 0.9359535472 -0.3370033378
12500225000.0 0.9305540587 -0.3512476835
12550224700.0 0.9250590366 -0.3654323159
12600224400.0 0.9201664441 -0.3778701802
12650224100.0 0.9143087826 -0.3921503709
12700223800.0 0.9091160272 -0.4050901445
12750223500.0 0.9036590487 -0.4180375749
12800223200.0 0.898213456 -0.4310418006
12850222900.0 0.8928554043 -0.4427747552
12900222600.0 0.8872521931 -0.4548570445
12950222300.0 0.881445861 -0.4670346655
13000222000.0 0.875595316 -0.4791815784
13050221700.0 0.8688044018 -0.491930938
13100221400.0 0.8612548506 -0.5041179994
13150221100.0 0.8548630998 -0.5164117964
13200220800.0 0.8476683724 -0.5276262232
13250220500.0 0.8406208821 -0.5400597056
13300220200.0 0.8329775761 -0.5512904273
13350219900.0 0.8249216945 -0.5629095445
13400219600.0 0.8164669842 -0.5747771025
13450219300.0 0.8071654651 -0.587912701
13500219000.0 0.7977272654 -0.6010381583
13550218700.0 0.7870532524 -0.6136116855
13600218400.0 0.7777552204 -0.625035877
13650218100.0 0.7680594149 -0.6356707195
13700217800.0 0.7570652645 -0.6484640138
13750217500.0 0.7468552094 -0.6596362766
13800217200.0 0.7362262578 -0.670324815
13850216900.0 0.7249746936 -0.6820178415
13900216600.0 0.7160723108 -0.6903593507
13950216300.0 0.705052726 -0.7011050852
14000216000.0 0.6950786688 -0.7091763521
14050215700.0 0.6866631909 -0.7175900042
14100215400.0 0.6765384362 -0.726897313
14150215100.0 0.6672486038 -0.7352561947
14200214800.0 0.6580317209 -0.7441170607
14250214500.0 0.6475467994 -0.7536844411
14300214200.0 0.6369398096 -0.7630247213
14350213900.0 0.6258975685 -0.7729561492
14400213600.0 0.6140862392 -0.7824435782
14450213300.0 0.6014132753 -0.7926135527
14500213000.0 0.588245666 -0.8024421914
14550212700.0 0.5757830579 -0.8120300713
14600212400.0 0.5633946701 -0.8206079188
14650212100.0 0.5509375795 -0.8293858395
14700211800.0 0.5368800135 -0.8390319686
14750211500.0 0.524727268 -0.8470279189
14800211200.0 0.5125356689 -0.8555351189
14850210900.0 0.4999211181 -0.8629478595
14900210600.0 0.4866399706 -0.8709597133
14950210300.0 0.4732595565 -0.8785513906
15000210000.0 0.4608950586 -0.8855066467
15050209700.0 0.4485642584 -0.8914988997
15100209400.0 0.4354548087 -0.8975887749
15150209100.0 0.423369631 -0.9029926647
15200208800.0 0.4104990182 -0.9081432803
15250208500.0 0.3991349505 -0.9130538366
15300208200.0 0.3876981573 -0.9179465382
15350207900.0 0.3738279277 -0.9223176663
15400207600.0 0.3598327109 -0.9274319788
15450207300.0 0.3447360982 -0.9322256354
15500207000.0 0.3296385777 -0.9372006058
15550206700.0 0.3158553714 -0.9419070338
15600206400.0 0.2996729926 -0.9461930086
15650206100.0 0.2839529797 -0.9507158978
15700205800.0 0.2701843685 -0.9543253835
15750205500.0 0.2559943465 -0.9577389979
15800205200.0 0.2421470751 -0.9611628046
15850204900.0 0.2278196789 -0.9647477297
15900204600.0 0.212814914 -0.9684346008
15950204300.0 0.19834266 -0.9717073596
16000204000.0 0.1840374805 -0.9745327794
16050203700.0 0.1692411485 -0.9774471514
16100203400.0 0.1544340927 -0.9799730958
16150203100.0 0.139791694 -0.9821619975
16200202800.0 0.1252545489 -0.9843647907
16250202500.0 0.1098929239 -0.9859363559
16300202200.0 0.0945174493 -0.9873842425
16350201900.0 0.0801085958 -0.9887634568
16400201600.0 0.0651231256 -0.9903547096
16450201300.0 0.0498573798 -0.9913280545
16500201000.0 0.0325987264 -0.9921128874
16550200700.0 0.0167545454 -0.992518625
16600200400.0 0.0007472983 -0.9927998937
16650200100.0 -0.0153344662 -0.9927243626
16700199800.0 -0.0319566133 -0.9923925602
16750199500.0 -0.0508887493 -0.9915935403
16800199200.0 -0.0667389525 -0.9905518351
16850198900.0 -0.0824742598 -0.9896232524
16900198600.0 -0.0958904885 -0.9885018992
16950198300.0 -0.1094401989 -0.9879028194
17000198000.0 -0.1231838708 -0.9855747621
17050197700.0 -0.135716866 -0.9841519778
17100197400.0 -0.14859973 -0.9819755934
17150197100.0 -0.1610143414 -0.9799981032
17200196800.0 -0.174218391 -0.9782245933
17250196500.0 -0.1871185465 -0.9752837276
17300196200.0 -0.1990976043 -0.9732531463
17350195900.0 -0.2111159915 -0.9708555246
17400195600.0 -0.2230043682 -0.9683143595
17450195300.0 -0.2358152565 -0.96541047
17500195000.0 -0.2491962434 -0.96220278
17550194700.0 -0.2629788932 -0.9586507897
17600194400.0 -0.2764620188 -0.954643832
17650194100.0 -0.2899650709 -0.9507861607
17700193800.0 -0.3028913456 -0.9463849222
17750193500.0 -0.3172285311 -0.9417120641
17800193200.0 -0.3315345227 -0.9364256685
17850192900.0 -0.3466681504 -0.9313135878
17900192600.0 -0.3615428892 -0.9252007054
17950192300.0 -0.3770979813 -0.9180709628
18000192000.0 -0.3917733056 -0.91076503
18050191700.0 -0.4058527445 -0.9027673829
18100191400.0 -0.4199191563 -0.8952401869
18150191100.0 -0.4347180963 -0.8872130274
18200190800.0 -0.4515741369 -0.8780152867
18250190500.0 -0.4686067868 -0.8685416554
18300190200.0 -0.4843630934 -0.8599118978
18350189900.0 -0.4992647882 -0.851480766
18400189600.0 -0.5137612012 -0.8430976668
18450189300.0 -0.526958754 -0.8350251538
18500189000.0 -0.54025461 -0.8271065174
18550188700.0 -0.5535611545 -0.8192313916
18600188400.0 -0.5658816368 -0.8121438694
18650188100.0 -0.5769426627 -0.8059543563
18700187800.0 -0.587465584 -0.7988865286
18750187500.0 -0.5984016203 -0.7924651224
18800187200.0 -0.6089547394 -0.7855907988
18850186900.0 -0.6191977713 -0.7785490634
18900186600.0 -0.6296779057 -0.7712092915
18950186300.0 -0.6397071744 -0.7635039619
19000186000.0 -0.6473725854 -0.7573970271
19050185700.0 -0.6565736453 -0.7502874519
19100185400.0 -0.6670117452 -0.7417015363
19150185100.0 -0.676617787 -0.7338222509
19200184800.0 -0.6865449658 -0.7254508024
19250184500.0 -0.6959892837 -0.716226321
19300184200.0 -0.7077946033 -0.7066910024
19350183900.0 -0.718681345 -0.697233616
19400183600.0 -0.7286583642 -0.6869888564
19450183300.0 -0.7367115432 -0.6767423905
19500183000.0 -0.7457402664 -0.666581272
19550182700.0 -0.7547024011 -0.6557268746
19600182400.0 -0.7649414009 -0.6444516437
19650182100.0 -0.7762512859 -0.6321588895
19700181800.0 -0.7863365019 -0.618651992
19750181500.0 -0.7968205101 -0.6045689408
19800181200.0 -0.8069927621 -0.5896351165
19850180900.0 -0.8166082893 -0.5743056125
19900180600.0 -0.824159018 -0.5597040482
19950180300.0 -0.8333263335 -0.5434752413
20000180000.0 -0.8240038352 -0.5477964792
20050179700.0 -0.8318067009 -0.533961142
20100179400.0 -0.8394530546 -0.5207888661
20150179100.0 -0.8483689471 -0.5091223697
20200178800.0 -0.8566027279 -0.4966933471
20250178500.0 -0.8660809974 -0.4847941454
20300178200.0 -0.8753198181 -0.4702590454
20350177900.0 -0.8848573809 -0.456855192
20400177600.0 -0.8943005321 -0.4429010975
20450177300.0 -0.9022867543 -0.4285650505
20500177000.0 -0.9106059638 -0.4146231386
20550176700.0 -0.9185004657 -0.4010519752
20600176400.0 -0.9249807109 -0.3881751604
20650176100.0 -0.9317802452 -0.3759059158
20700175800.0 -0.9383984965 -0.3634625925
20750175500.0 -0.9453904306 -0.3526413353
20800175200.0 -0.9493825926 -0.3416360799
20850174900.0 -0.9535530995 -0.3316007149
20900174600.0 -0.958274989 -0.3202486105
20950174300.0 -0.9614167569 -0.3079027859
21000174000.0 -0.9648424546 -0.2976630305
21050173700.0 -0.9665154371 -0.2877377479
21100173400.0 -0.9702097525 -0.2766405004
21150173100.0 -0.9735142657 -0.2652678051
21200172800.0 -0.9776662951 -0.252027001
21250172500.0 -0.9812062141 -0.237786101
21300172200.0 -0.9844795069 -0.2246814372
21350171900.0 -0.9869652427 -0.2101489835
21400171600.0 -0.9883927201 -0.196012883
21450171300.0 -0.9887996356 -0.1809665959
21500171000.0 -0.9891466179 -0.166225238
21550170700.0 -0.9896345532 -0.1522950921
21600170400.0 -0.9901652794 -0.1363119072
21650170100.0 -0.9906767513 -0.1197558688
21700169800.0 -0.9901019712 -0.1050620842
21750169500.0 -0.990503156 -0.088970104
21800169200.0 -0.9896444136 -0.0722491809
21850168900.0 -0.9899917341 -0.0550809641
21900168600.0 -0.9890596036 -0.0391505761
21950168300.0 -0.9885204292 -0.0231174785
22000168000.0 -0.9882228647 -0.0084613378
22050167700.0 -0.9887553576 0.0060594072
22100167400.0 -0.9895094511 0.0217445279
22150167100.0 -0.9906354536 0.0374768207
22200166800.0 -0.9906556194 0.0543265907
22250166500.0 -0.9902274971 0.0715068532
22300166200.0 -0.9902825542 0.0872659777
22350165900.0 -0.9884363171 0.1037858451
22400165600.0 -0.9879930203 0.1204000889
22450165300.0 -0.9857054287 0.1345326351
22500165000.0 -0.9840026032 0.1489223697
22550164700.0 -0.9813618471 0.1653296136
22600164400.0 -0.9794702393 0.180639877
22650164100.0 -0.9769356266 0.1963620683
22700163800.0 -0.9748398714 0.2130353698
22750163500.0 -0.9716065654 0.2276338983
22800163200.0 -0.9683124313 0.2403660155
22850162900.0 -0.9658500068 0.2542001866
22900162600.0 -0.9639131919 0.2678218316
22950162300.0 -0.9625639529 0.2813152967
23000162000.0 -0.9607160322 0.293975668
23050161700.0 -0.9579806653 0.3072467264
23100161400.0 -0.9550967752 0.320679296
23150161100.0 -0.9525694519 0.3334667241
23200160800.0 -0.9494039523 0.3460532046
23250160500.0 -0.9459179733 0.3589223513
23300160200.0 -0.9441774335 0.3714594618
23350159900.0 -0.940072709 0.3853263916
23400159600.0 -0.9347330667 0.3986517949
23450159300.0 -0.9306451273 0.4128715448
23500159000.0 -0.9250900877 0.425977073
23550158700.0 -0.9201605717 0.4396218524
23600158400.0 -0.9143160783 0.453920746
23650158100.0 -0.9070931999 0.4682107821
23700157800.0 -0.8985994462 0.4825311183
23750157500.0 -0.8896078273 0.4969278386
23800157200.0 -0.8800139556 0.5102167416
23850156900.0 -0.8704246005 0.5231281434
23900156600.0 -0.8603715825 0.5354796202
23950156300.0 -0.8506824297 0.5484184332
24000156000.0 -0.841511873 0.5607217018
24050155700.0 -0.8305756586 0.5732486744
24100155400.0 -0.8205534174 0.5857314209
24150155100.0 -0.8092940468 0.5971994138
24200154800.0 -0.7987554935 0.6083044217
24250154500.0 -0.7875760526 0.6210947084
24300154200.0 -0.775964408 0.6330622949
24350153900.0 -0.7639417174 0.6444670057
24400153600.0 -0.7513213272 0.6548338655
24450153300.0 -0.7395614871 0.6650794731
24500153000.0 -0.7277541522 0.6750632615
24550152700.0 -0.7166203072 0.6851825413
24600152400.0 -0.7047274877 0.694626195
24650152100.0 -0.6925812806 0.703105475
