!Created with skrf (http://scikit-rf.org).
# Hz S RI R 50.0 
!freq ReS11 ImS11
300000.0 -0.9741492755 -0.1180853846
50299700.0 -0.9999904966 0.0153444635
100299400.0 -0.9978980106 0.0282195045
150299100.0 -1.002866022 0.045162476
200298800.0 -0.9995536665 0.0583921202
250298500.0 -0.9973917991 0.0718736734
300298200.0 -0.9859690959 0.0878046664
350297900.0 -0.9940659533 0.0986516607
400297600.0 -0.9931759987 0.1153296219
450297300.0 -0.991050784 0.1288810315
500297000.0 -0.9894250968 0.1437386048
550296700.0 -0.9843417445 0.1562844681
600296400.0 -1.017365249 0.1894546268
650296100.0 -0.9822767225 0.1862411651
700295800.0 -0.9794230819 0.2005668666
750295500.0 -0.9765849606 0.2143059189
800295200.0 -0.9728914082 0.2284537723
850294900.0 -0.9696614332 0.2422200745
900294600.0 -0.965799753 0.2559934508
950294300.0 -0.9620148475 0.2698411469
1000294000.0 -0.9581932888 0.2837710315
1050293700.0 -0.9536866777 0.297540368
1100293400.0 -0.9492572642 0.3118957845
1150293100.0 -0.9454956558 0.3238028962
1200292800.0 -0.940130434 0.3381609318
1250292500.0 -0.9346002812 0.3517393819
1300292200.0 -0.9289991534 0.3647598439
1350291900.0 -0.9234069321 0.378633888
1400291600.0 -0.9180276652 0.3919198968
1450291300.0 -0.9124142293 0.4042437242
1500291000.0 -0.9059456172 0.4176948982
1550290700.0 -0.8995595767 0.431042246
1600290400.0 -0.8934695997 0.444001152
1650290100.0 -0.8867497413 0.4562301961
1700289800.0 -0.8798615375 0.4695810282
1750289500.0 -0.8727371257 0.4819438499
1800289200.0 -0.8655075554 0.4947314948
1850288900.0 -0.8588756551 0.5062099306
1900288600.0 -0.8508164951 0.5190078053
1950288300.0 -0.8428668431 0.5315783067
2000288000.0 -0.8355122349 0.5431821138
2050287700.0 -0.8272990377 0.5552781412
2100287400.0 -0.8192224338 0.567003247
2150287100.0 -0.810724681 0.5789384945
2200286800.0 -0.8032054112 0.5894296695
2250286500.0 -0.7939742131 0.6014110579
2300286200.0 -0.7852886368 0.6132082345
2350285900.0 -0.7765075942 0.6242464486
2400285600.0 -0.7676432476 0.6348996883
2450285300.0 -0.7588453547 0.6454814576
2500285000.0 -0.7493144454 0.6565387337
2550284700.0 -0.7402012023 0.6668522392
2600284400.0 -0.730983858 0.6773372784
2650284100.0 -0.7220772537 0.6877786641
2700283800.0 -0.7115117727 0.6982547044
2750283500.0 -0.701124281 0.7088193239
2800283200.0 -0.6911837353 0.7185887122
2850282900.0 -0.6810370618 0.7284161613
2900282600.0 -0.670683636 0.7380241916
2950282300.0 -0.6607494986 0.7472845287
3000282000.0 -0.6498522145 0.7567151832
3050281700.0 -0.6384652632 0.76598796
3100281400.0 -0.6267509767 0.7754289113
3150281100.0 -0.6150059776 0.7846176046
3200280800.0 -0.6035031694 0.7932235315
3250280500.0 -0.5924788299 0.8008672617
3300280200.0 -0.5811975899 0.8086296157
3350279900.0 -0.5696475825 0.8166020401
3400279600.0 -0.5575351778 0.8239526419
3450279300.0 -0.5463097635 0.8310900946
3500279000.0 -0.534390005 0.838172955
3550278700.0 -0.5218465204 0.8454147251
3600278400.0 -0.5096997726 0.8524665936
3650278100.0 -0.4965457288 0.8604129991
3700277800.0 -0.4845267879 0.8667951014
3750277500.0 -0.4722991246 0.8731477847
3800277200.0 -0.4598249577 0.8797413334
3850276900.0 -0.4476521514 0.8858562483
3900276600.0 -0.4369594644 0.8914063896
3950276300.0 -0.4244507208 0.8974748655
4000276000.0 -0.412416151 0.903337586
4050275700.0 -0.3996702785 0.909704221
4100275400.0 -0.3883331099 0.9148410198
4150275100.0 -0.3759620244 0.9205264423
4200274800.0 -0.3628720603 0.9260080388
4250274500.0 -0.3506854612 0.9314958143
4300274200.0 -0.3376771042 0.9366980281
4350273900.0 -0.3237344643 0.941943776
4400273600.0 -0.3087801339 0.9472627341
4450273300.0 -0.2935764874 0.9520519807
4500273000.0 -0.2798779593 0.956458414
4550272700.0 -0.2660390007 0.9606563081
4600272400.0 -0.2503439654 0.9650490948
4650272100.0 -0.2388170302 0.9683107017
4700271800.0 -0.2253965598 0.9714886218
4750271500.0 -0.2138525386 0.974358405
4800271200.0 -0.201280098 0.9770917358
4850270900.0 -0.1871395489 0.979900364
4900270600.0 -0.1733928429 0.9824751406
4950270300.0 -0.1590873934 0.9851014334
5000270000.0 -0.1449976502 0.9868254239
5050269700.0 -0.1313408501 0.9886544217
5100269400.0 -0.1176937065 0.9902107499
5150269100.0 -0.1044115633 0.9922574265
5200268800.0 -0.0910363563 0.992920819
5250268500.0 -0.0779931533 0.9942006959
5300268200.0 -0.0648340145 0.9945313139
5350267900.0 -0.0525049392 0.9950760487
5400267600.0 -0.0362358703 0.9964628289
5450267300.0 -0.0231743991 0.9967120519
5500267000.0 -0.0082210018 0.9970453767
5550266700.0 0.0068390832 0.9971573429
5600266400.0 0.0224031665 0.9972273353
5650266100.0 0.0386355056 0.9968206939
5700265800.0 0.0534187778 0.9963227792
5750265500.0 0.0685142311 0.9954687719
5800265200.0 0.0824512037 0.9945999299
5850264900.0 0.0957657476 0.9935974016
5900264600.0 0.1124014506 0.9919645162
5950264300.0 0.1241990648 0.9900158661
6000264000.0 0.1382461983 0.9884596131
6050263700.0 0.1506186155 0.986868699
6100263400.0 0.1630521794 0.985233778
6150263100.0 0.1775301349 0.982727149
6200262800.0 0.1879396028 0.9808717902
6250262500.0 0.2006656506 0.9783802957
6300262200.0 0.2134098621 0.9758115089
6350261900.0 0.2264377724 0.9727920649
6400261600.0 0.2404367463 0.9695719893
6450261300.0 0.2515480792 0.9666108904
6500261000.0 0.2644152769 0.9632215799
6550260700.0 0.2777665901 0.9595116711
6600260400.0 0.2910466513 0.9555325849
6650260100.0 0.3046999855 0.9509268147
6700259800.0 0.3172380714 0.9467641987
6750259500.0 0.3307291603 0.9418495982
6800259200.0 0.3437650942 0.9368837533
6850258900.0 0.3558733987 0.9315016761
6900258600.0 0.3677927554 0.9266299622
6950258300.0 0.3807606389 0.9213481603
7000258000.0 0.3925838267 0.9158306387
7050257700.0 0.4046705312 0.9097221432
7100257400.0 0.4174331756 0.9035089075
7150257100.0 0.4280219286 0.8982940995
7200256800.0 0.4406001057 0.8917600401
7250256500.0 0.4525029287 0.8853383706
7300256200.0 0.4657974886 0.8787418496
7350255900.0 0.4780716321 0.8718024845
7400255600.0 0.4911539763 0.8645228544
7450255300.0 0.506613871 0.8556879102
7500255000.0 0.5184479101 0.8486426361
7550254700.0 0.532199465 0.8400166281
7600254400.0 0.5454452129 0.8319875278
7650254100.0 0.5565123311 0.8238602313
7700253800.0 0.5684253856 0.8159467495
7750253500.0 0.5797409615 0.8081987245
7800253200.0 0.5902299805 0.8006455417
7850252900.0 0.5999603168 0.7935469323
7900252600.0 0.6115908843 0.7847996397
7950252300.0 0.6204420014 0.7783823829
8000252000.0 0.630551604 0.7706869662
8050251700.0 0.6408313375 0.7625256041
8100251400.0 0.6509659726 0.7545719329
8150251100.0 0.6612172353 0.7456395462
8200250800.0 0.6704637396 0.7378550433
8250250500.0 0.679503574 0.7299388618
8300250200.0 0.6888560084 0.7212721988
8350249900.0 0.6976174951 0.7125646386
8400249600.0 0.7058565146 0.7044512988
8450249300.0 0.7152575014 0.6953289192
8500249000.0 0.7239082079 0.6866110243
8550248700.0 0.7320127502 0.6773139927
8600248400.0 0.7406352066 0.6677188049
8650248100.0 0.7483900136 0.6583156891
8700247800.0 0.7578713971 0.6472119248
8750247500.0 0.7661174519 0.6369974433
8800247200.0 0.7742062802 0.6266489937
8850246900.0 0.7828798722 0.6152819887
8900246600.0 0.7914972618 0.6039365881
8950246300.0 0.8012380778 0.5908977294
9000246000.0 0.8105298342 0.5784385215
9050245700.0 0.8192527979 0.5654550682
9100245400.0 0.8281166882 0.5527150702
9150245100.0 0.8376105386 0.5392908242
9200244800.0 0.8470772384 0.5241633094
9250244500.0 0.8564219265 0.5088216939
9300244200.0 0.8652062969 0.4941425946
9350243900.0 0.8728174336 0.4804728459
9400243600.0 0.8793008255 0.4681262285
9450243300.0 0.8852904497 0.4565208381
9500243000.0 0.891556296 0.444281603
9550242700.0 0.8953172847 0.436759775
9600242400.0 0.8991510319 0.4293591621
9650242100.0 0.9029477439 0.4227534996
9700241800.0 0.9077787811 0.4143899906
9750241500.0 0.9114182953 0.4070993971
9800241200.0 0.9162543054 0.3976198482
9850240900.0 0.9219346309 0.3861098386
9900240600.0 0.927549042 0.3745949823
9950240300.0 0.9341999022 0.358481091
10000240000.0 0.9390697942 0.3464186931
10050239700.0 0.9446509316 0.3317692057
10100239400.0 0.9495392118 0.3161204371
10150239100.0 0.9537164213 0.3013541677
10200238800.0 0.9580932645 0.2864056383
10250238500.0 0.9613064651 0.2729748319
10300238200.0 0.9645551171 0.2590253595
10350237900.0 0.9671414563 0.2459581678
10400237600.0 0.9698270017 0.2325753615
10450237300.0 0.9723850607 0.2190163225
10500237000.0 0.9745879395 0.2063518139
10550236700.0 0.9768820666 0.1928887592
10600236400.0 0.9789595375 0.1792527596
10650236100.0 0.9811731057 0.1644441857
10700235800.0 0.9834891389 0.1519435101
10750235500.0 0.9851582748 0.1392539701
10800235200.0 0.9876241875 0.1248286691
10850234900.0 0.9893431695 0.1097974747
10900234600.0 0.9917206817 0.0953278538
10950234300.0 0.9934604273 0.0819401236
11000234000.0 0.99517536 0.0670097263
11050233700.0 0.9969633722 0.0506250514
11100233400.0 0.9983629367 0.0331279398
11150233100.0 0.999259376 0.0167289709
11200232800.0 1.000148631 0.0019043534
11250232500.0 1.001103735 -0.0145127194
11300232200.0 1.001761412 -0.0322428214
11350231900.0 1.001743674 -0.0480460476
11400231600.0 1.001579277 -0.0629127003
11450231300.0 1.00098063 -0.0794923551
11500231000.0 0.9999888127 -0.0957745774
11550230700.0 0.9987192221 -0.1083977018
11600230400.0 0.9965857819 -0.120648293
11650230100.0 0.9951042856 -0.1325716473
11700229800.0 0.9930591595 -0.147012881
11750229500.0 0.9907985511 -0.1614760607
11800229200.0 0.9881770111 -0.1755352979
11850228900.0 0.9843677182 -0.1877423194
11900228600.0 0.9810944292 -0.1975926731
11950228300.0 0.977926879 -0.2077583001
12000228000.0 0.9750849236 -0.2173261863
12050227700.0 0.971362736 -0.2304111727
12100227400.0 0.9682332625 -0.2410545459
12150227100.0 0.9627184529 -0.2573246925
12200226800.0 0.960043781 -0.2684794759
12250226500.0 0.9556983225 -0.2811654362
12300226200.0 0.9513691149 -0.2938515022
12350225900.0 0.9471117801 -0.3076397868
12400225600.0 0.9422779021 -0.3210242009
12450225300.0 0.9375960287 -0.3332072301
12500225000.0 0.9323399078 -0.3483367001
12550224700.0 0.9269823659 -0.3621732455
12600224400.0 0.9220600807 -0.3747934102
12650224100.0 0.9162437334 -0.3892890622
12700223800.0 0.9110478005 -0.402077714
12750223500.0 0.9056211022 -0.4153173562
12800223200.0 0.9002119476 -0.4280937455
12850222900.0 0.8947145928 -0.4398037375
12900222600.0 0.8890967186 -0.4522991144
12950222300.0 0.8828696574 -0.4651393154
13000222000.0 0.877188763 -0.4764228254
13050221700.0 0.8704952296 -0.4887687793
13100221400.0 0.8634609946 -0.5009643132
13150221100.0 0.856958328 -0.5129851218
13200220800.0 0.8499576874 -0.5248426932
13250220500.0 0.8428179484 -0.5366299256
13300220200.0 0.8352459911 -0.5475613671
13350219900.0 0.8273438193 -0.5593471253
13400219600.0 0.8188637909 -0.5713294541
13450219300.0 0.8096105314 -0.584986709
13500219000.0 0.7990965042 -0.5987419087
13550218700.0 0.7888756033 -0.6117395633
13600218400.0 0.7792840463 -0.6238760279
13650218100.0 0.7693293892 -0.6346007192
13700217800.0 0.7583797036 -0.6469892374
13750217500.0 0.7484232018 -0.6578943197
13800217200.0 0.7374522156 -0.6701329792
13850216900.0 0.7261599581 -0.6820788014
13900216600.0 0.7165561614 -0.6902805231
13950216300.0 0.7063065462 -0.7007087495
14000216000.0 0.6959873695 -0.7100506197
14050215700.0 0.6859990969 -0.7184712867
14100215400.0 0.6762775035 -0.7276714461
14150215100.0 0.6669404324 -0.7360458702
14200214800.0 0.6577523289 -0.7447127118
14250214500.0 0.6473902387 -0.7541282895
14300214200.0 0.63708187 -0.763439271
14350213900.0 0.6257747149 -0.7731675443
14400213600.0 0.6138392743 -0.7827783741
14450213300.0 0.601061172 -0.7932028713
14500213000.0 0.5881365047 -0.8031584292
14550212700.0 0.5753794787 -0.8126951699
14600212400.0 0.5629829218 -0.8213062295
14650212100.0 0.5499904629 -0.8298923502
14700211800.0 0.535777635 -0.8398072795
14750211500.0 0.5238073145 -0.8478927379
14800211200.0 0.5117952278 -0.8557730819
14850210900.0 0.4998011303 -0.8629686223
14900210600.0 0.4864989483 -0.8711436354
14950210300.0 0.4730542169 -0.8786805195
15000210000.0 0.4602044823 -0.8854405008
15050209700.0 0.4479351414 -0.8916130314
15100209400.0 0.4352864562 -0.897970573
15150209100.0 0.4228546529 -0.9028059669
15200208800.0 0.4101397071 -0.9084163633
15250208500.0 0.3987853287 -0.912486682
15300208200.0 0.3869992307 -0.9177447003
15350207900.0 0.3735339132 -0.9226385509
15400207600.0 0.3591958749 -0.9275765289
15450207300.0 0.3442383487 -0.9326587686
15500207000.0 0.3299869832 -0.9375952935
15550206700.0 0.3148496457 -0.9424177621
15600206400.0 0.2993344816 -0.9466375456
15650206100.0 0.2836849997 -0.9512574896
15700205800.0 0.2694207282 -0.954898836
15750205500.0 0.2548960467 -0.9585035675
15800205200.0 0.2405552112 -0.9618887099
15850204900.0 0.2259992523 -0.9653736022
15900204600.0 0.2111017372 -0.9689946008
15950204300.0 0.1966990708 -0.9720126716
16000204000.0 0.1828313626 -0.9752835325
16050203700.0 0.1677692377 -0.9779619732
16100203400.0 0.1531833248 -0.9801326509
16150203100.0 0.1388145644 -0.9821012106
16200202800.0 0.1247383361 -0.9849624492
16250202500.0 0.1097719626 -0.985770205
16300202200.0 0.0944898644 -0.9879171074
16350201900.0 0.0795918119 -0.989454
16400201600.0 0.0646771348 -0.990470625
16450201300.0 0.0495086114 -0.9914811242
16500201000.0 0.0328652279 -0.992232909
16550200700.0 0.0174125258 -0.9926875907
16600200400.0 0.0016740858 -0.9928179671
16650200100.0 -0.0147573343 -0.9925777997
16700199800.0 -0.0310385371 -0.9926446388
16750199500.0 -0.0495175596 -0.9918372775
16800199200.0 -0.0652799891 -0.990817706
16850198900.0 -0.0803900084 -0.9901374479
16900198600.0 -0.0941265603 -0.9885816592
16950198300.0 -0.1074875584 -0.9876087525
17000198000.0 -0.1204278745 -0.9859536447
17050197700.0 -0.1330007512 -0.984195141
17100197400.0 -0.1460238415 -0.9819590283
17150197100.0 -0.1587711815 -0.9801366377
17200196800.0 -0.1714204364 -0.9780138927
17250196500.0 -0.1840558882 -0.9757246473
17300196200.0 -0.1965923198 -0.9733268759
17350195900.0 -0.2085148264 -0.9712928355
17400195600.0 -0.220498317 -0.9686692877
17450195300.0 -0.2339255241 -0.9660461182
17500195000.0 -0.2472757773 -0.9627146227
17550194700.0 -0.2610197485 -0.959004381
17600194400.0 -0.2752565327 -0.9552776871
17650194100.0 -0.2887512552 -0.9508180965
17700193800.0 -0.3024166032 -0.9466517479
17750193500.0 -0.3163615573 -0.9422932624
17800193200.0 -0.3310313253 -0.936910739
17850192900.0 -0.3457621559 -0.9315453038
17900192600.0 -0.3612718952 -0.9253781488
17950192300.0 -0.3766322432 -0.9183600666
18000192000.0 -0.3912880698 -0.9112366564
18050191700.0 -0.4051859021 -0.9033901689
18100191400.0 -0.4194426626 -0.8956663623
18150191100.0 -0.4344135017 -0.8878099691
18200190800.0 -0.4511857341 -0.8786388739
18250190500.0 -0.4682476358 -0.8690672384
18300190200.0 -0.483562538 -0.860797104
18350189900.0 -0.4986411316 -0.8521209797
18400189600.0 -0.5131476556 -0.8435847178
18450189300.0 -0.5264413906 -0.8361247506
18500189000.0 -0.5397527554 -0.8276759776
18550188700.0 -0.5520917518 -0.8201516193
18600188400.0 -0.5639168243 -0.8137860369
18650188100.0 -0.5749820031 -0.8072817668
18700187800.0 -0.5855124735 -0.8009288705
18750187500.0 -0.5963180212 -0.7942572375
18800187200.0 -0.6068925166 -0.7872215726
18850186900.0 -0.6171788086 -0.7801931503
18900186600.0 -0.6274050414 -0.7728780449
18950186300.0 -0.6374483485 -0.7653487923
19000186000.0 -0.6448906672 -0.7592863333
19050185700.0 -0.6538823283 -0.7517644731
19100185400.0 -0.6636117447 -0.7438570512
19150185100.0 -0.6745572913 -0.7351106727
19200184800.0 -0.683030468 -0.7276823117
19250184500.0 -0.6935151807 -0.7174707862
19300184200.0 -0.7050955319 -0.7074854816
19350183900.0 -0.7154629549 -0.6984175628
19400183600.0 -0.725824252 -0.6879589832
19450183300.0 -0.73439275 -0.6784621233
19500183000.0 -0.7429393123 -0.668281678
19550182700.0 -0.752593462 -0.6577278993
19600182400.0 -0.7625254338 -0.6457595903
19650182100.0 -0.7740567153 -0.6335749709
19700181800.0 -0.7847659145 -0.6203217143
19750181500.0 -0.7953257509 -0.6058013188
19800181200.0 -0.8055083064 -0.5909143813
19850180900.0 -0.8154536733 -0.5754773746
19900180600.0 -0.823389251 -0.5608348675
19950180300.0 -0.832527504 -0.5449060225
20000180000.0 -0.8255813708 -0.5472612543
20050179700.0 -0.8341106761 -0.5342972926
20100179400.0 -0.8423776715 -0.5200140915
20150179100.0 -0.850384976 -0.5068404787
20200178800.0 -0.8589243087 -0.4952017617
20250178500.0 -0.8686635214 -0.4813889839
20300178200.0 -0.8782247514 -0.4671560008
20350177900.0 -0.8874172151 -0.4523754292
20400177600.0 -0.8964239223 -0.4380790854
20450177300.0 -0.9049467262 -0.4239878623
20500177000.0 -0.9127748639 -0.4097172607
20550176700.0 -0.920800839 -0.3962092689
20600176400.0 -0.9275653991 -0.3830335002
20650176100.0 -0.9341236796 -0.3709581681
20700175800.0 -0.9407923197 -0.3593024137
20750175500.0 -0.9475086939 -0.3481797864
20800175200.0 -0.9518223675 -0.3367332927
20850174900.0 -0.9570773558 -0.326014864
20900174600.0 -0.96095933 -0.31426497
20950174300.0 -0.9649896264 -0.3018973768
21000174000.0 -0.9680356281 -0.2910576286
21050173700.0 -0.9714241474 -0.2811218417
21100173400.0 -0.9755179226 -0.2689858343
21150173100.0 -0.9796452352 -0.2566805701
21200172800.0 -0.9829057559 -0.2429357803
21250172500.0 -0.9859350731 -0.229348028
21300172200.0 -0.9889737553 -0.2153329471
21350171900.0 -0.990264543 -0.2011708981
21400171600.0 -0.9918497872 -0.1863513491
21450171300.0 -0.9916455603 -0.1726720216
21500171000.0 -0.9913428336 -0.1572530954
21550170700.0 -0.9918636164 -0.1409583567
21600170400.0 -0.9915077579 -0.1259262476
21650170100.0 -0.9916971245 -0.109467576
21700169800.0 -0.9899368348 -0.0947797314
21750169500.0 -0.9883468639 -0.0794805158
21800169200.0 -0.9882218502 -0.0625876341
21850168900.0 -0.9865684013 -0.0455841764
21900168600.0 -0.9857815216 -0.0300286416
21950168300.0 -0.9852367971 -0.0133614441
22000168000.0 -0.9836592278 0.0013915151
22050167700.0 -0.9836995035 0.0158495689
22100167400.0 -0.9838880613 0.0310057259
22150167100.0 -0.9847137175 0.0469988334
22200166800.0 -0.9849794114 0.0632703594
22250166500.0 -0.9840555011 0.080089832
22300166200.0 -0.9839960893 0.0971042537
22350165900.0 -0.9832156736 0.1132576955
22400165600.0 -0.9808378024 0.1290165003
22450165300.0 -0.9790408815 0.1439625509
22500165000.0 -0.9767476148 0.1577240023
22550164700.0 -0.975984725 0.1738088698
22600164400.0 -0.9746963601 0.1887607937
22650164100.0 -0.9721437538 0.2035267142
22700163800.0 -0.9690641364 0.2190117773
22750163500.0 -0.9669401492 0.2346887542
22800163200.0 -0.9638426157 0.2476765267
22850162900.0 -0.9616483199 0.2609526863
22900162600.0 -0.9601456845 0.2743746661
22950162300.0 -0.9592123316 0.2871854026
23000162000.0 -0.9579928742 0.2989560331
23050161700.0 -0.955934276 0.3114955808
23100161400.0 -0.9535234747 0.3240908785
23150161100.0 -0.9504849849 0.3363848627
23200160800.0 -0.9483299314 0.349001576
23250160500.0 -0.9449330218 0.3611373082
23300160200.0 -0.9422287402 0.3734265786
23350159900.0 -0.9376199757 0.3863527909
23400159600.0 -0.9346034892 0.3990157157
23450159300.0 -0.9288874284 0.4123184521
23500159000.0 -0.9249163696 0.4258653425
23550158700.0 -0.9203353964 0.4397916564
23600158400.0 -0.9147568761 0.4526837259
23650158100.0 -0.9082001196 0.4668521896
23700157800.0 -0.9004033482 0.4807651245
23750157500.0 -0.892661395 0.4948959387
23800157200.0 -0.8828824379 0.5080704204
23850156900.0 -0.8738176696 0.5208622719
23900156600.0 -0.8656228555 0.5333174837
23950156300.0 -0.8560359259 0.5459095859
24000156000.0 -0.8472699148 0.5579268902
24050155700.0 -0.8370794607 0.5695535688
24100155400.0 -0.8281820018 0.5814949894
24150155100.0 -0.8167307991 0.5932840036
24200154800.0 -0.8055473477 0.6044157377
24250154500.0 -0.7937525295 0.6165733629
24300154200.0 -0.7826408168 0.6281153174
24350153900.0 -0.7708141533 0.638670243
24400153600.0 -0.7590454158 0.6486774008
24450153300.0 -0.7469648214 0.6586675736
24500153000.0 -0.7358080631 0.6681051116
24550152700.0 -0.7239634583 0.678243501
24600152400.0 -0.7125560939 0.6870610274
24650152100.0 -0.7014484303 0.6957373126
