!Created with skrf (http://scikit-rf.org).
# Hz S RI R 50.0 
!freq ReS11 ImS11
300000.0 -1.000038169 -0.0131251228
50299700.0 -0.998800443 0.0160225538
100299400.0 -0.9968727534 0.028528689
150299100.0 -1.001486702 0.0452186247
200298800.0 -0.9983834723 0.0584178558
250298500.0 -0.9960316239 0.0717159062
300298200.0 -0.9845108676 0.0875931437
350297900.0 -0.9922636124 0.0982591453
400297600.0 -0.9913752342 0.1146193715
450297300.0 -0.9893099593 0.1282128705
500297000.0 -0.9875567502 0.1427309563
550296700.0 -0.9823272112 0.1549644453
600296400.0 -1.015263498 0.1879940477
650296100.0 -0.9799446772 0.1847452864
700295800.0 -0.9771071102 0.1988324458
750295500.0 -0.9741721697 0.2126619035
800295200.0 -0.9708421286 0.2266002314
850294900.0 -0.967682632 0.2401958067
900294600.0 -0.9635267756 0.2538988075
950294300.0 -0.9600524552 0.2674691614
1000294000.0 -0.9561932887 0.2811008649
1050293700.0 -0.9517356655 0.2949592282
1100293400.0 -0.9477311222 0.3095154848
1150293100.0 -0.9438543984 0.3210216992
1200292800.0 -0.9386855409 0.335428349
1250292500.0 -0.9332542046 0.3487733282
1300292200.0 -0.9277527932 0.3620196363
1350291900.0 -0.9224258284 0.3761332443
1400291600.0 -0.9170763299 0.3890082821
1450291300.0 -0.911754926 0.4012098077
1500291000.0 -0.9052960312 0.4146252826
1550290700.0 -0.8992498609 0.4277421706
1600290400.0 -0.8930626571 0.4408490932
1650290100.0 -0.8867095002 0.4529945229
1700289800.0 -0.8799095605 0.4663406784
1750289500.0 -0.8731406636 0.4783730052
1800289200.0 -0.8658106572 0.4912438501
1850288900.0 -0.8594738619 0.5025264575
1900288600.0 -0.8516760314 0.5155365965
1950288300.0 -0.8435103763 0.5280162108
2000288000.0 -0.8359650202 0.5395763326
2050287700.0 -0.8280206444 0.5517119472
2100287400.0 -0.8204661381 0.5632265747
2150287100.0 -0.8119929833 0.5754144195
2200286800.0 -0.8037342973 0.585718522
2250286500.0 -0.7955253131 0.5976210697
2300286200.0 -0.7865147116 0.6090298269
2350285900.0 -0.7779191898 0.6198296218
2400285600.0 -0.7689908397 0.6312095523
2450285300.0 -0.7601328699 0.6418095898
2500285000.0 -0.750942502 0.6526854184
2550284700.0 -0.7416029909 0.6631600877
2600284400.0 -0.7320904805 0.6735393984
2650284100.0 -0.7235190619 0.6837498624
2700283800.0 -0.7130257932 0.6938309376
2750283500.0 -0.7032137594 0.7043810186
2800283200.0 -0.6930023257 0.7140006468
2850282900.0 -0.6828372019 0.7241653925
2900282600.0 -0.6721146138 0.7335613596
2950282300.0 -0.6620828812 0.7427281191
3000282000.0 -0.651487068 0.7524616086
3050281700.0 -0.6404815764 0.7615451811
3100281400.0 -0.6295268993 0.7702853324
3150281100.0 -0.6186309883 0.7792940633
3200280800.0 -0.6071070452 0.7882119202
3250280500.0 -0.596080644 0.7964614454
3300280200.0 -0.5843463983 0.8051007688
3350279900.0 -0.5734000217 0.8126738483
3400279600.0 -0.561111889 0.8207885034
3450279300.0 -0.5498813569 0.8283894319
3500279000.0 -0.5381484834 0.8358475211
3550278700.0 -0.5263366257 0.8433861503
3600278400.0 -0.5150750631 0.8499819909
3650278100.0 -0.5018384256 0.8580959886
3700277800.0 -0.4899872523 0.8646544124
3750277500.0 -0.4778849866 0.8715789225
3800277200.0 -0.4655968889 0.8782002411
3850276900.0 -0.4529376231 0.8846856151
3900276600.0 -0.4416149251 0.8904515969
3950276300.0 -0.4285599884 0.8966211198
4000276000.0 -0.4165826392 0.9028062767
4050275700.0 -0.4030267531 0.9088900367
4100275400.0 -0.3916641338 0.9144037468
4150275100.0 -0.3789285216 0.9199157429
4200274800.0 -0.3651080669 0.9251939384
4250274500.0 -0.3529531124 0.9302540077
4300274200.0 -0.3400974212 0.9353482437
4350273900.0 -0.3264116036 0.9399543534
4400273600.0 -0.3129522057 0.9448035463
4450273300.0 -0.2989806924 0.9496447425
4500273000.0 -0.2858861213 0.9535828549
4550272700.0 -0.2729488916 0.9573563998
4600272400.0 -0.257692597 0.9614748944
4650272100.0 -0.2453652416 0.9649120029
4700271800.0 -0.231984236 0.9682699548
4750271500.0 -0.2188344211 0.9713133717
4800271200.0 -0.2053693456 0.974289355
4850270900.0 -0.1917040697 0.9772525058
4900270600.0 -0.1780797598 0.9794398256
4950270300.0 -0.1650245785 0.9820114615
5000270000.0 -0.1507895206 0.9840704287
5050269700.0 -0.1372004964 0.986164757
5100269400.0 -0.1231218527 0.9879720192
5150269100.0 -0.109047686 0.9897197844
5200268800.0 -0.0956895096 0.9911168218
5250268500.0 -0.082528797 0.9921705584
5300268200.0 -0.0686546726 0.9932247995
5350267900.0 -0.0561549912 0.9940274885
5400267600.0 -0.040368133 0.9952203041
5450267300.0 -0.0280768993 0.9956142371
5500267000.0 -0.0139052238 0.995741049
5550266700.0 -0.0008763043 0.9959393439
5600266400.0 0.0136857426 0.9958900169
5650266100.0 0.0291154065 0.995856055
5700265800.0 0.0428352418 0.9949485931
5750265500.0 0.05689848 0.9946320718
5800265200.0 0.0704205537 0.9934487553
5850264900.0 0.0836787311 0.9926287221
5900264600.0 0.0996139438 0.9916437841
5950264300.0 0.1118922053 0.9903462898
6000264000.0 0.1257715211 0.9884152604
6050263700.0 0.1383294243 0.9866297093
6100263400.0 0.1518818947 0.9848305426
6150263100.0 0.1671641479 0.9820736143
6200262800.0 0.1781071436 0.9804710831
6250262500.0 0.1915516412 0.9778474935
6300262200.0 0.2044063641 0.9753488159
6350261900.0 0.2174203731 0.9725406794
6400261600.0 0.2320278018 0.9689048746
6450261300.0 0.2437144579 0.966152467
6500261000.0 0.257033113 0.9628625392
6550260700.0 0.2700890556 0.9590382772
6600260400.0 0.2831260256 0.9550884777
6650260100.0 0.2966616391 0.9511851532
6700259800.0 0.3090361015 0.9471383833
6750259500.0 0.3223156964 0.9428569576
6800259200.0 0.335518279 0.9377000163
6850258900.0 0.3480443738 0.9330944594
6900258600.0 0.360557979 0.9280636165
6950258300.0 0.3737664542 0.9230479562
7000258000.0 0.3857995479 0.9180744626
7050257700.0 0.3974615116 0.9125862199
7100257400.0 0.4116099699 0.9065757206
7150257100.0 0.4220089402 0.9013656134
7200256800.0 0.4355103052 0.8950318279
7250256500.0 0.4468264262 0.8891795295
7300256200.0 0.4597493566 0.8826849683
7350255900.0 0.4719141014 0.8765421396
7400255600.0 0.4827305262 0.8706530256
7450255300.0 0.4965728787 0.8628013143
7500255000.0 0.5080596684 0.8561766197
7550254700.0 0.5197813171 0.8489841896
7600254400.0 0.5320615894 0.8412717562
7650254100.0 0.5430874971 0.8343218288
7700253800.0 0.5548161009 0.826489085
7750253500.0 0.5662826504 0.8188810592
7800253200.0 0.5779169872 0.8107389262
7850252900.0 0.5869952555 0.8039293097
7900252600.0 0.5991906368 0.7953085441
7950252300.0 0.6089020021 0.7880325162
8000252000.0 0.6196617627 0.779640031
8050251700.0 0.6304685887 0.7710251123
8100251400.0 0.6401825116 0.7630795077
8150251100.0 0.6509839295 0.7538547899
8200250800.0 0.6605880108 0.7455740819
8250250500.0 0.6705641586 0.7367535931
8300250200.0 0.6806976385 0.7275059185
8350249900.0 0.6898007827 0.7187710884
8400249600.0 0.6987784146 0.7097806127
8450249300.0 0.7084928094 0.70008526
8500249000.0 0.7181256462 0.6907183571
8550248700.0 0.7276509881 0.6805710627
8600248400.0 0.7370000449 0.6705947685
8650248100.0 0.7449106838 0.6612548211
8700247800.0 0.7542684786 0.6505166423
8750247500.0 0.7629283825 0.6401865464
8800247200.0 0.7713140334 0.6298735118
8850246900.0 0.7801679145 0.6191123442
8900246600.0 0.7883354544 0.6081824141
8950246300.0 0.7972268028 0.5965244541
9000246000.0 0.8053032509 0.5860614988
9050245700.0 0.8125731828 0.5747078193
9100245400.0 0.8209591342 0.5630772391
9150245100.0 0.8291193125 0.5513207041
9200244800.0 0.8367997432 0.5400962227
9250244500.0 0.845096404 0.5273797283
9300244200.0 0.8520779192 0.5157982304
9350243900.0 0.8595544588 0.5031331756
9400243600.0 0.866651411 0.4910021711
9450243300.0 0.8726461665 0.4799753649
9500243000.0 0.8795822918 0.4676345457
9550242700.0 0.8854184362 0.4564372998
9600242400.0 0.8915013838 0.4447740307
9650242100.0 0.8965874583 0.4340847557
9700241800.0 0.9025851556 0.422874185
9750241500.0 0.9081370766 0.4112575236
9800241200.0 0.9136705238 0.398731764
9850240900.0 0.9188853153 0.3867245541
9900240600.0 0.923289918 0.3767044469
9950240300.0 0.929068654 0.3625954682
10000240000.0 0.9342893363 0.3498711064
10050239700.0 0.9390333961 0.3363775445
10100239400.0 0.9436155586 0.323173246
10150239100.0 0.9478821264 0.3096265272
10200238800.0 0.9524961334 0.2953038492
10250238500.0 0.9565336648 0.2819969797
10300238200.0 0.9602292376 0.2682981252
10350237900.0 0.9635156707 0.2553241347
10400237600.0 0.966692336 0.2424078393
10450237300.0 0.9702403347 0.2278299169
10500237000.0 0.9726581076 0.2155761151
10550236700.0 0.9752675756 0.2019686462
10600236400.0 0.9781105463 0.1886726366
10650236100.0 0.9808248473 0.1732085526
10700235800.0 0.9830913995 0.1597580507
10750235500.0 0.9851047342 0.1469819571
10800235200.0 0.9873253394 0.1331639752
10850234900.0 0.9887489235 0.1197702921
10900234600.0 0.9908640736 0.1052235875
10950234300.0 0.9922793136 0.0916444303
11000234000.0 0.9935871017 0.0779494632
11050233700.0 0.9947853308 0.0643352025
11100233400.0 0.9958693364 0.0493430075
11150233100.0 0.996906691 0.0344552776
11200232800.0 0.9973221552 0.0208575027
11250232500.0 0.9974839593 0.0069507006
11300232200.0 0.9976886869 -0.0085824069
11350231900.0 0.9981195034 -0.0221569006
11400231600.0 0.9975519267 -0.0370105205
11450231300.0 0.9973075544 -0.051183606
11500231000.0 0.9964126488 -0.0653150823
11550230700.0 0.9953238318 -0.0787275621
11600230400.0 0.9945505725 -0.0932887319
11650230100.0 0.9928451804 -0.105346509
11700229800.0 0.9916407094 -0.1203656376
11750229500.0 0.9897252731 -0.1340857158
11800229200.0 0.9876628694 -0.1466392004
11850228900.0 0.9851367094 -0.1614784948
11900228600.0 0.982361707 -0.1748496472
11950228300.0 0.9794327501 -0.1882691984
12000228000.0 0.9772416821 -0.2000628814
12050227700.0 0.9736895303 -0.2134272685
12100227400.0 0.9715740959 -0.2245840054
12150227100.0 0.9668593444 -0.2427284041
12200226800.0 0.9634222004 -0.2547884687
12250226500.0 0.9595807388 -0.2675755034
12300226200.0 0.9558486234 -0.2801774163
12350225900.0 0.9514510347 -0.2956225866
12400225600.0 0.947075694 -0.3092264067
12450225300.0 0.9428960059 -0.3209704602
12500225000.0 0.9385761769 -0.3348483848
12550224700.0 0.9329289197 -0.3491387156
12600224400.0 0.9285579677 -0.3609328883
12650224100.0 0.9227854836 -0.3755242501
12700223800.0 0.917508073 -0.3881102711
12750223500.0 0.9120048348 -0.4013143821
12800223200.0 0.9066480782 -0.4142728552
12850222900.0 0.9009923871 -0.4264179486
12900222600.0 0.8951278901 -0.4388555366
12950222300.0 0.8885654131 -0.4524881325
13000222000.0 0.8818432506 -0.4645749164
13050221700.0 0.8753226762 -0.4767677857
13100221400.0 0.8687126788 -0.4890052685
13150221100.0 0.8619133773 -0.5012061978
13200220800.0 0.8549449704 -0.5134053613
13250220500.0 0.8478331922 -0.5256337342
13300220200.0 0.8401590623 -0.5368298367
13350219900.0 0.832123996 -0.5493598314
13400219600.0 0.8243652441 -0.5608891732
13450219300.0 0.8164219638 -0.572713617
13500219000.0 0.8082365783 -0.5846032731
13550218700.0 0.7990617436 -0.5965314779
13600218400.0 0.7902589875 -0.607961262
13650218100.0 0.7811663989 -0.6181006994
13700217800.0 0.7717928449 -0.6305180654
13750217500.0 0.7633329283 -0.6414072009
13800217200.0 0.7526041528 -0.6534513258
13850216900.0 0.7422679875 -0.6654140947
13900216600.0 0.7334194247 -0.6746152024
13950216300.0 0.7222693314 -0.6856918316
14000216000.0 0.7127479125 -0.6950531195
14050215700.0 0.7035586262 -0.7039325022
14100215400.0 0.6926076112 -0.7148448479
14150215100.0 0.6822064361 -0.7250285421
14200214800.0 0.6725371233 -0.7343133371
14250214500.0 0.6616265548 -0.7443140081
14300214200.0 0.6504452951 -0.7542309677
14350213900.0 0.6396917762 -0.763660616
14400213600.0 0.6286785786 -0.7728642749
14450213300.0 0.6174478594 -0.7819156219
14500213000.0 0.6055979853 -0.791060049
14550212700.0 0.5934842656 -0.8007324479
14600212400.0 0.5818961179 -0.808497718
14650212100.0 0.5704245922 -0.8165624239
14700211800.0 0.5575380673 -0.8257991392
14750211500.0 0.545390965 -0.8339329495
14800211200.0 0.5324302481 -0.8421068038
14850210900.0 0.5205990457 -0.8499002583
14900210600.0 0.5081285721 -0.8576506479
14950210300.0 0.4952394636 -0.865285419
15000210000.0 0.4827554127 -0.8724020129
15050209700.0 0.4698963802 -0.8792128449
15100209400.0 0.4562940917 -0.8858473052
15150209100.0 0.4452031293 -0.8921906747
15200208800.0 0.4313009119 -0.8984079349
15250208500.0 0.419294184 -0.9044807186
15300208200.0 0.405489107 -0.9102148742
15350207900.0 0.3927270385 -0.9161166819
15400207600.0 0.3788517262 -0.9216756054
15450207300.0 0.3644718963 -0.9265949639
15500207000.0 0.3512596395 -0.9317005623
15550206700.0 0.3372626136 -0.9372778895
15600206400.0 0.3232466315 -0.9418454936
15650206100.0 0.3085187313 -0.945993736
15700205800.0 0.2948345133 -0.9505174527
15750205500.0 0.2807183312 -0.9548372772
15800205200.0 0.2665851859 -0.9585125352
15850204900.0 0.252882532 -0.962268833
15900204600.0 0.2375511066 -0.9664783707
15950204300.0 0.2233294069 -0.9700234668
16000204000.0 0.2091103342 -0.9730986806
16050203700.0 0.1939978242 -0.9760892162
16100203400.0 0.1804327676 -0.9788115275
16150203100.0 0.1651756071 -0.9813474737
16200202800.0 0.1506359563 -0.9835967519
16250202500.0 0.1358394741 -0.9861344403
16300202200.0 0.1209612799 -0.9875975709
16350201900.0 0.1054154765 -0.9892580725
16400201600.0 0.0904756875 -0.9908439692
16450201300.0 0.0761007283 -0.9919865712
16500201000.0 0.0604058698 -0.9932116246
16550200700.0 0.0453794358 -0.9941396242
16600200400.0 0.0302415411 -0.9948837029
16650200100.0 0.0145270162 -0.9952151072
16700199800.0 0.0003161087 -0.9955278328
16750199500.0 -0.0153537577 -0.9954919833
16800199200.0 -0.0307528909 -0.995011137
16850198900.0 -0.045989898 -0.994194281
16900198600.0 -0.0609324162 -0.9938819539
16950198300.0 -0.0755284228 -0.9924959256
17000198000.0 -0.0896854802 -0.9920187083
17050197700.0 -0.1036578188 -0.9897679362
17100197400.0 -0.1184528982 -0.9877869862
17150197100.0 -0.1332801084 -0.9862593935
17200196800.0 -0.1464178273 -0.9843403202
17250196500.0 -0.1609282593 -0.981842612
17300196200.0 -0.1749855463 -0.9792579817
17350195900.0 -0.1890826431 -0.9765076017
17400195600.0 -0.2023761572 -0.9738806085
17450195300.0 -0.216323295 -0.9709019322
17500195000.0 -0.2303452034 -0.9676167157
17550194700.0 -0.2444614916 -0.9643526074
17600194400.0 -0.258587841 -0.9603668932
17650194100.0 -0.2730980763 -0.9564538295
17700193800.0 -0.2861437721 -0.9524193013
17750193500.0 -0.3002494568 -0.948371576
17800193200.0 -0.313803761 -0.9435112502
17850192900.0 -0.3280970999 -0.9388020557
17900192600.0 -0.3420115455 -0.9340528248
17950192300.0 -0.3569725813 -0.9280598682
18000192000.0 -0.3716185777 -0.9218139947
18050191700.0 -0.3856387761 -0.9152132995
18100191400.0 -0.3999354989 -0.9088858584
18150191100.0 -0.4136098315 -0.9024362942
18200190800.0 -0.4280902865 -0.8952771426
18250190500.0 -0.4433386873 -0.8879496761
18300190200.0 -0.4577229034 -0.880556442
18350189900.0 -0.4725465307 -0.8736228752
18400189600.0 -0.486151729 -0.8659673626
18450189300.0 -0.4990140422 -0.8592456838
18500189000.0 -0.5128390705 -0.8512867104
18550188700.0 -0.5257492338 -0.843734094
18600188400.0 -0.5387824594 -0.835747685
18650188100.0 -0.5506295795 -0.8280647486
18700187800.0 -0.5625685749 -0.820424313
18750187500.0 -0.5743206396 -0.8124046542
18800187200.0 -0.5857909822 -0.8042419166
18850186900.0 -0.5971032079 -0.7958867237
18900186600.0 -0.6078368441 -0.7878902538
18950186300.0 -0.6192588482 -0.7789645534
19000186000.0 -0.6291636817 -0.7707848686
19050185700.0 -0.6406104001 -0.7621457347
19100185400.0 -0.6510776534 -0.7535079842
19150185100.0 -0.661331435 -0.7438698035
19200184800.0 -0.6713717485 -0.7348402186
19250184500.0 -0.6817971589 -0.7252481295
19300184200.0 -0.6921463078 -0.7155672336
19350183900.0 -0.7035623239 -0.7053300064
19400183600.0 -0.7128173771 -0.6948935283
19450183300.0 -0.7232853118 -0.6847513415
19500183000.0 -0.7317325324 -0.6742492469
19550182700.0 -0.7413731031 -0.6634987222
19600182400.0 -0.7514113556 -0.6522530108
19650182100.0 -0.7608748235 -0.6403457487
19700181800.0 -0.7705866614 -0.6285888113
19750181500.0 -0.7799834331 -0.6164515713
19800181200.0 -0.7894901052 -0.603729106
19850180900.0 -0.7989623535 -0.5908186489
19900180600.0 -0.8071034984 -0.5785525625
19950180300.0 -0.8169898045 -0.5649962555
20000180000.0 -0.822083222 -0.5558301906
20050179700.0 -0.8309702774 -0.5430233367
20100179400.0 -0.839188764 -0.5302460379
20150179100.0 -0.8477929415 -0.5178482339
20200178800.0 -0.8557971351 -0.50564067
20250178500.0 -0.862885147 -0.4922280698
20300178200.0 -0.8711818122 -0.4796062928
20350177900.0 -0.8784340544 -0.4668545431
20400177600.0 -0.8863765804 -0.4537844493
20450177300.0 -0.8928870992 -0.4407030794
20500177000.0 -0.8995866544 -0.4276635003
20550176700.0 -0.9061487634 -0.4145957192
20600176400.0 -0.9126427861 -0.401559374
20650176100.0 -0.9183597392 -0.3889678543
20700175800.0 -0.9244076184 -0.3757529563
20750175500.0 -0.9302292475 -0.3633756053
20800175200.0 -0.9348637808 -0.3511074074
20850174900.0 -0.9399432362 -0.3382690463
20900174600.0 -0.9443354811 -0.3258702914
20950174300.0 -0.9483916261 -0.3134711477
21000174000.0 -0.9522316213 -0.3001049116
21050173700.0 -0.9548767753 -0.2882520929
21100173400.0 -0.9595751829 -0.2757182185
21150173100.0 -0.9624622853 -0.2618329876
21200172800.0 -0.9660730145 -0.2485160314
21250172500.0 -0.9694523113 -0.2348532928
21300172200.0 -0.9730193638 -0.2208820272
21350171900.0 -0.9760746389 -0.2071087913
21400171600.0 -0.97883282 -0.1927354946
21450171300.0 -0.9813117087 -0.1783188437
21500171000.0 -0.9824484581 -0.1629451941
21550170700.0 -0.9847193579 -0.1494930903
21600170400.0 -0.9868892115 -0.1342258405
21650170100.0 -0.9889871598 -0.1192396572
21700169800.0 -0.989813816 -0.1047725259
21750169500.0 -0.989795583 -0.0882422145
21800169200.0 -0.9911855298 -0.0735237275
21850168900.0 -0.9922073211 -0.0587637934
21900168600.0 -0.9923974845 -0.0427773574
21950168300.0 -0.9926820574 -0.0279497723
22000168000.0 -0.9928876771 -0.0128367482
22050167700.0 -0.9932430547 0.0012900522
22100167400.0 -0.9929088001 0.0167000071
22150167100.0 -0.9928466514 0.0317835313
22200166800.0 -0.9925727698 0.0467942312
22250166500.0 -0.9906406852 0.0618594672
22300166200.0 -0.9897456592 0.0767554778
22350165900.0 -0.9902019263 0.0908189928
22400165600.0 -0.9883279358 0.1058187581
22450165300.0 -0.9867495715 0.1195287098
22500165000.0 -0.9852995038 0.1332225756
22550164700.0 -0.9839126055 0.1485292367
22600164400.0 -0.9806775905 0.1622620283
22650164100.0 -0.9792888092 0.1747813933
22700163800.0 -0.9771446572 0.1886141716
22750163500.0 -0.9747713204 0.2029556467
22800163200.0 -0.9712855217 0.2158486587
22850162900.0 -0.9677400075 0.228765633
22900162600.0 -0.9652620311 0.2423001241
22950162300.0 -0.9623196225 0.2557397414
23000162000.0 -0.9595642937 0.2686091392
23050161700.0 -0.9561652315 0.2820122378
23100161400.0 -0.9526871908 0.2947571242
23150161100.0 -0.9489298629 0.3076813154
23200160800.0 -0.9453996977 0.3211589805
23250160500.0 -0.9410611547 0.3337512153
23300160200.0 -0.937296736 0.3470805866
23350159900.0 -0.9324850355 0.3603222763
23400159600.0 -0.9281818957 0.3729480277
23450159300.0 -0.9238070447 0.3857401189
23500159000.0 -0.9187932826 0.3985295082
23550158700.0 -0.9138065323 0.411232985
23600158400.0 -0.9082727826 0.4236055605
23650158100.0 -0.9024428744 0.4363344189
23700157800.0 -0.8960218077 0.4491656871
23750157500.0 -0.888843518 0.4622938268
23800157200.0 -0.8823273747 0.474659811
23850156900.0 -0.8749377613 0.4867329573
23900156600.0 -0.8676007891 0.4988233064
23950156300.0 -0.8600723823 0.511620499
24000156000.0 -0.8528715993 0.523214167
24050155700.0 -0.8440606546 0.5351822694
24100155400.0 -0.8366953657 0.5465614166
24150155100.0 -0.8279819157 0.5582035098
24200154800.0 -0.8193900024 0.5693015395
24250154500.0 -0.8112081915 0.5811758928
24300154200.0 -0.8023050395 0.5926369181
24350153900.0 -0.7931909541 0.6039520555
24400153600.0 -0.7836455632 0.6148705874
24450153300.0 -0.7739850101 0.6256055898
24500153000.0 -0.7643895656 0.6360739729
24550152700.0 -0.7547216542 0.6462281368
24600152400.0 -0.7443663526 0.6564819655
