!Created with skrf (http://scikit-rf.org).
# Hz S RI R 50.0 
!freq ReS11 ImS11
300000.0 -0.97330205 -0.121478798
50299700.0 -0.9998453793 0.015083145
100299400.0 -0.9979403679 0.0278217425
150299100.0 -1.002815962 0.0448579216
200298800.0 -0.9995543456 0.0582664195
250298500.0 -0.9972444199 0.0715996285
300298200.0 -0.9861362143 0.0874350809
350297900.0 -0.9938605577 0.0982488368
400297600.0 -0.9929191651 0.1149396572
450297300.0 -0.991092055 0.1286329899
500297000.0 -0.9894027599 0.1432248302
550296700.0 -0.9843189377 0.1558206664
600296400.0 -1.017157289 0.1891323463
650296100.0 -0.9820896696 0.1856792535
700295800.0 -0.9791937157 0.1998775801
750295500.0 -0.9762886701 0.2140492481
800295200.0 -0.9729162853 0.2282519584
850294900.0 -0.9696352454 0.2418355093
900294600.0 -0.9658004005 0.2556579113
950294300.0 -0.9622783751 0.2695218342
1000294000.0 -0.9581077535 0.2833014271
1050293700.0 -0.9535497187 0.2969872999
1100293400.0 -0.9492439992 0.3115964354
1150293100.0 -0.9455223282 0.3233382243
1200292800.0 -0.9401883468 0.337857911
1250292500.0 -0.9346707729 0.3512460295
1300292200.0 -0.9290946875 0.3645288389
1350291900.0 -0.9234477357 0.3784998868
1400291600.0 -0.9179750622 0.3915966614
1450291300.0 -0.912585722 0.4039997768
1500291000.0 -0.9063738011 0.417356135
1550290700.0 -0.899502148 0.4306365653
1600290400.0 -0.8933552527 0.4436884378
1650290100.0 -0.8869087001 0.4558956231
1700289800.0 -0.8798317092 0.4691226031
1750289500.0 -0.8726984657 0.4815170462
1800289200.0 -0.8655090159 0.4944774975
1850288900.0 -0.8589108001 0.5057834499
1900288600.0 -0.8510252161 0.5187998991
1950288300.0 -0.843020961 0.5315202903
2000288000.0 -0.8353427884 0.5427513442
2050287700.0 -0.8270487671 0.5553120482
2100287400.0 -0.8193612106 0.5665437468
2150287100.0 -0.8109061143 0.5786888522
2200286800.0 -0.8030502087 0.5891998588
2250286500.0 -0.7941274066 0.6014355362
2300286200.0 -0.7853445273 0.612763004
2350285900.0 -0.7768379004 0.6235720041
2400285600.0 -0.767959498 0.6344790919
2450285300.0 -0.7592017586 0.6452437252
2500285000.0 -0.7491126662 0.6568802465
2550284700.0 -0.7401630604 0.6669788267
2600284400.0 -0.7309130857 0.6769880799
2650284100.0 -0.7224948387 0.6873283249
2700283800.0 -0.7118379423 0.6977999511
2750283500.0 -0.7014368634 0.7083559976
2800283200.0 -0.691516643 0.7181951588
2850282900.0 -0.6811404296 0.7282159822
2900282600.0 -0.6706590281 0.7379454319
2950282300.0 -0.6603213525 0.7471951794
3000282000.0 -0.6493610671 0.7567503343
3050281700.0 -0.6383259494 0.7660657784
3100281400.0 -0.6267346032 0.7750551031
3150281100.0 -0.6155957325 0.784000529
3200280800.0 -0.6040408605 0.7924887916
3250280500.0 -0.5931346841 0.8001645598
3300280200.0 -0.5814345724 0.8084700864
3350279900.0 -0.5694230322 0.8165499545
3400279600.0 -0.556753762 0.8244834568
3450279300.0 -0.5456565462 0.8315797993
3500279000.0 -0.5338605068 0.8385086559
3550278700.0 -0.5215845932 0.8455498043
3600278400.0 -0.5097220233 0.8524684609
3650278100.0 -0.4969107588 0.8599599816
3700277800.0 -0.4847554326 0.8665747414
3750277500.0 -0.472118356 0.8730375682
3800277200.0 -0.4598185823 0.8797467934
3850276900.0 -0.447770733 0.885765678
3900276600.0 -0.4368277973 0.8913071998
3950276300.0 -0.4246599685 0.8973199343
4000276000.0 -0.4131555178 0.9032821183
4050275700.0 -0.4002421141 0.9093411276
4100275400.0 -0.3890631269 0.9145506994
4150275100.0 -0.3761351909 0.9203707762
4200274800.0 -0.3625556718 0.9261435941
4250274500.0 -0.350232897 0.9315667941
4300274200.0 -0.3368220823 0.9365786187
4350273900.0 -0.3226246095 0.9422139672
4400273600.0 -0.3077349822 0.9472658811
4450273300.0 -0.2927698677 0.9520851834
4500273000.0 -0.2796918035 0.9564950757
4550272700.0 -0.2659966834 0.9604565851
4600272400.0 -0.2509962519 0.9645885339
4650272100.0 -0.2395022785 0.9678681851
4700271800.0 -0.2265590955 0.9711529661
4750271500.0 -0.2150153279 0.9741128993
4800271200.0 -0.2027728629 0.9766256687
4850270900.0 -0.1889086306 0.97950537
4900270600.0 -0.1750646254 0.981967109
4950270300.0 -0.1605115176 0.9846228745
5000270000.0 -0.1461374609 0.9867241801
5050269700.0 -0.1326460401 0.9883131658
5100269400.0 -0.1184763769 0.9899646715
5150269100.0 -0.1046284295 0.9915036792
5200268800.0 -0.0913079224 0.9928333538
5250268500.0 -0.0780925485 0.9935990953
5300268200.0 -0.0646215823 0.9946489242
5350267900.0 -0.0516682645 0.9952991436
5400267600.0 -0.0355654178 0.9964226913
5450267300.0 -0.0222870149 0.9962830169
5500267000.0 -0.0069544227 0.997081676
5550266700.0 0.0081650579 0.9974738276
5600266400.0 0.02364446 0.9973504782
5650266100.0 0.0402977471 0.9966357621
5700265800.0 0.054350734 0.9960556811
5750265500.0 0.0693580003 0.9951451869
5800265200.0 0.0832605847 0.9944638285
5850264900.0 0.0962027139 0.993177099
5900264600.0 0.1130056006 0.9916050272
5950264300.0 0.1244083215 0.989566251
6000264000.0 0.138236783 0.9881267027
6050263700.0 0.1498314913 0.9865585852
6100263400.0 0.1622558712 0.984922996
6150263100.0 0.1769564983 0.982682632
6200262800.0 0.1861804276 0.9810894118
6250262500.0 0.1989141214 0.9786324639
6300262200.0 0.2112213889 0.9760855983
6350261900.0 0.2241693731 0.9734279477
6400261600.0 0.2380630583 0.9702320965
6450261300.0 0.249122242 0.9676450376
6500261000.0 0.2625650199 0.9638684586
6550260700.0 0.2755897084 0.9601799903
6600260400.0 0.2887093117 0.9559299733
6650260100.0 0.3025721324 0.95145928
6700259800.0 0.315085964 0.947071377
6750259500.0 0.3288122059 0.9424936541
6800259200.0 0.3422852802 0.9373666851
6850258900.0 0.3549639592 0.9319298981
6900258600.0 0.3674312823 0.9268404222
6950258300.0 0.3794776013 0.9214732841
7000258000.0 0.3914429466 0.916288676
7050257700.0 0.4033400892 0.9104732054
7100257400.0 0.4168968306 0.9039969573
7150257100.0 0.4274735499 0.8985169036
7200256800.0 0.4404375565 0.8921723778
7250256500.0 0.4530144071 0.8855707119
7300256200.0 0.4661302468 0.8790113373
7350255900.0 0.4788324879 0.8719963209
7400255600.0 0.4930888102 0.8640900989
7450255300.0 0.508698071 0.8552494047
7500255000.0 0.520755388 0.8474265411
7550254700.0 0.5348076158 0.8383350796
7600254400.0 0.5475547103 0.8301735004
7650254100.0 0.5589131177 0.8222208813
7700253800.0 0.5708501869 0.8143896244
7750253500.0 0.5816811553 0.8066887541
7800253200.0 0.5923333995 0.7988419237
7850252900.0 0.6021113227 0.7916708984
7900252600.0 0.6135214078 0.7828510428
7950252300.0 0.622022239 0.77644857
8000252000.0 0.6320634723 0.7689605656
8050251700.0 0.6425673675 0.7608027403
8100251400.0 0.6521884428 0.7527800724
8150251100.0 0.6622586027 0.7441478812
8200250800.0 0.6716411965 0.7360929324
8250250500.0 0.6803278138 0.7281681992
8300250200.0 0.6898807336 0.7199227086
8350249900.0 0.6986654967 0.7109311943
8400249600.0 0.7070858285 0.7030931323
8450249300.0 0.7157816266 0.6942963655
8500249000.0 0.7241906418 0.6853009795
8550248700.0 0.7325079961 0.6764052787
8600248400.0 0.7408461456 0.6668986293
8650248100.0 0.7487290338 0.6574368082
8700247800.0 0.7580839367 0.6463494735
8750247500.0 0.7663009774 0.6362990569
8800247200.0 0.7742952534 0.6259797905
8850246900.0 0.7829594927 0.6145411562
8900246600.0 0.791418429 0.6032276776
8950246300.0 0.8006517728 0.5904679388
9000246000.0 0.8092602606 0.5783353148
9050245700.0 0.8177403891 0.5661550199
9100245400.0 0.825958973 0.5540442932
9150245100.0 0.8348819246 0.5411341555
9200244800.0 0.8445497562 0.5264957103
9250244500.0 0.8535475833 0.5117872395
9300244200.0 0.8615975017 0.498326643
9350243900.0 0.8691799896 0.4849560496
9400243600.0 0.8758641741 0.4733262553
9450243300.0 0.8816129278 0.46266128
9500243000.0 0.8877086882 0.4509701278
9550242700.0 0.8916214884 0.4435602278
9600242400.0 0.8960503784 0.435804969
9650242100.0 0.8997611808 0.4289735153
9700241800.0 0.905273605 0.4202010731
9750241500.0 0.9092366545 0.4127349563
9800241200.0 0.9142804158 0.4032630876
9850240900.0 0.9199618463 0.3915219481
9900240600.0 0.9260637811 0.3796403578
9950240300.0 0.9331291321 0.3629465338
10000240000.0 0.9375564301 0.3512436628
10050239700.0 0.9440579331 0.3347835896
10100239400.0 0.9493544325 0.3183719513
10150239100.0 0.9540188493 0.3030516656
10200238800.0 0.9582396729 0.2874937818
10250238500.0 0.9614828998 0.2741300675
10300238200.0 0.9647560173 0.2602183517
10350237900.0 0.9674261961 0.2471494191
10400237600.0 0.9699146422 0.233282633
10450237300.0 0.9726855906 0.2195003029
10500237000.0 0.9750106407 0.2076293014
10550236700.0 0.9774486753 0.1927566089
10600236400.0 0.9798240142 0.1788036806
10650236100.0 0.9812638618 0.1646449414
10700235800.0 0.9835186648 0.152469824
10750235500.0 0.986059443 0.138912778
10800235200.0 0.9877375305 0.1241583149
10850234900.0 0.989806569 0.1091947425
10900234600.0 0.9919316447 0.0948648874
10950234300.0 0.9937031649 0.0810895848
11000234000.0 0.995417565 0.0655408355
11050233700.0 0.9973536777 0.0487592992
11100233400.0 0.9988668091 0.0311861043
11150233100.0 0.9998793928 0.0144379472
11200232800.0 1.000590508 -0.0012776463
11250232500.0 1.001916269 -0.0188884432
11300232200.0 1.002466805 -0.0382300192
11350231900.0 1.002406652 -0.0538127189
11400231600.0 1.001608816 -0.0687595848
11450231300.0 1.000660079 -0.0844453805
11500231000.0 1.000211462 -0.101489053
11550230700.0 0.9979521589 -0.1141091789
11600230400.0 0.9970998208 -0.1268474903
11650230100.0 0.9949752895 -0.1390457922
11700229800.0 0.992716031 -0.1540596062
11750229500.0 0.9902077113 -0.168077167
11800229200.0 0.9875279775 -0.1815398473
11850228900.0 0.9836983687 -0.1931908786
11900228600.0 0.9800790332 -0.2027324468
11950228300.0 0.9764423417 -0.2130579487
12000228000.0 0.9736111981 -0.2216191574
12050227700.0 0.9701299714 -0.2340850494
12100227400.0 0.96687839 -0.2461630275
12150227100.0 0.9619708423 -0.2621801765
12200226800.0 0.9583431682 -0.272933284
12250226500.0 0.9536125204 -0.2860051136
12300226200.0 0.9497366909 -0.2978806971
12350225900.0 0.9449979714 -0.3113343848
12400225600.0 0.9406057654 -0.3246765851
12450225300.0 0.9358894507 -0.3372064483
12500225000.0 0.9300911884 -0.3516101462
12550224700.0 0.9249487031 -0.3652851341
12600224400.0 0.920124095 -0.3780043871
12650224100.0 0.914361217 -0.3923665629
12700223800.0 0.9090068446 -0.4051831811
12750223500.0 0.9036554806 -0.4181815969
12800223200.0 0.8982135948 -0.4306813018
12850222900.0 0.8927140778 -0.4431258269
12900222600.0 0.8873984316 -0.4547412548
12950222300.0 0.881192232 -0.467972379
13000222000.0 0.8751233587 -0.479396793
13050221700.0 0.8682628392 -0.4924419574
13100221400.0 0.8617286143 -0.5043240428
13150221100.0 0.8546988623 -0.5167613792
13200220800.0 0.8478153053 -0.5278949465
13250220500.0 0.8402474766 -0.5400548342
13300220200.0 0.8330548367 -0.5510337205
13350219900.0 0.8247110768 -0.5631646804
13400219600.0 0.8165084984 -0.5749720989
13450219300.0 0.8072562545 -0.5876636443
13500219000.0 0.7971744161 -0.6010882319
13550218700.0 0.7873775333 -0.6134777534
13600218400.0 0.7770302917 -0.6255758336
13650218100.0 0.7681906607 -0.6360821987
13700217800.0 0.75702164 -0.6478035592
13750217500.0 0.7472553627 -0.6590361097
13800217200.0 0.7367350927 -0.6706123388
13850216900.0 0.7258421132 -0.6813996288
13900216600.0 0.7161337105 -0.6903560695
13950216300.0 0.7047401516 -0.7006368966
14000216000.0 0.6949899808 -0.7093794339
14050215700.0 0.6863138536 -0.7171258996
14100215400.0 0.6766403059 -0.7261576734
14150215100.0 0.6673276471 -0.735194821
14200214800.0 0.6579197529 -0.7440245001
14250214500.0 0.6475319964 -0.753615764
14300214200.0 0.6370669509 -0.7629455242
14350213900.0 0.6258045713 -0.7725151191
14400213600.0 0.6140584236 -0.7822086229
14450213300.0 0.6013021589 -0.7924907125
14500213000.0 0.5884427171 -0.8023715526
14550212700.0 0.575533073 -0.8117566562
14600212400.0 0.5632464261 -0.8207555768
14650212100.0 0.550972922 -0.8290129647
14700211800.0 0.5367825286 -0.8387420344
14750211500.0 0.5248790813 -0.8472404976
14800211200.0 0.5122826188 -0.8556028439
14850210900.0 0.4999361282 -0.8631069227
14900210600.0 0.4865958375 -0.8709032187
14950210300.0 0.4732727849 -0.8785049086
15000210000.0 0.4608321633 -0.885267581
15050209700.0 0.4482459761 -0.8913053689
15100209400.0 0.4353503399 -0.897420324
15150209100.0 0.4231479761 -0.9025710949
15200208800.0 0.410729131 -0.9078931342
15250208500.0 0.3992636509 -0.9123866278
15300208200.0 0.3866373 -0.9174651957
15350207900.0 0.3740296238 -0.9214927625
15400207600.0 0.3587398228 -0.9276376179
15450207300.0 0.3443382908 -0.9327152144
15500207000.0 0.3298896103 -0.9374926415
15550206700.0 0.3152757597 -0.9421040303
15600206400.0 0.2999485304 -0.9459232991
15650206100.0 0.2838176637 -0.9506506349
15700205800.0 0.2700421509 -0.9547072228
15750205500.0 0.2562421415 -0.9575997903
15800205200.0 0.2420311009 -0.961334326
15850204900.0 0.2278874657 -0.9647079274
15900204600.0 0.2128673585 -0.9685697928
15950204300.0 0.1986703981 -0.9713073713
16000204000.0 0.1841390754 -0.974277085
16050203700.0 0.1688341924 -0.9774690536
16100203400.0 0.1540556531 -0.9796716098
16150203100.0 0.1393460843 -0.981982528
16200202800.0 0.1251230753 -0.9843017783
16250202500.0 0.1100762308 -0.9856772662
16300202200.0 0.0947515357 -0.9876027466
16350201900.0 0.0801147731 -0.9889186521
16400201600.0 0.0652037056 -0.9902491241
16450201300.0 0.0496617668 -0.9911219154
16500201000.0 0.0326635996 -0.9920044111
16550200700.0 0.0166633292 -0.9925593921
16600200400.0 0.0007864555 -0.9927899425
16650200100.0 -0.0153455428 -0.9926927627
16700199800.0 -0.0316199943 -0.9921753046
16750199500.0 -0.0506067329 -0.9915543951
16800199200.0 -0.0661461001 -0.9907300248
16850198900.0 -0.0818953015 -0.9896019059
16900198600.0 -0.0966013241 -0.9885899442
16950198300.0 -0.1098647981 -0.9874434949
17000198000.0 -0.1230738441 -0.9863983268
17050197700.0 -0.1358640525 -0.983924722
17100197400.0 -0.1485168521 -0.9818858331
17150197100.0 -0.160702013 -0.980212526
17200196800.0 -0.1745871917 -0.9776228232
17250196500.0 -0.1873458577 -0.9754119635
17300196200.0 -0.1991626329 -0.973237877
17350195900.0 -0.2109714401 -0.9707806333
17400195600.0 -0.2229876892 -0.9683122895
17450195300.0 -0.2359567782 -0.9654811493
17500195000.0 -0.2492134618 -0.962158522
17550194700.0 -0.2631002609 -0.9586193477
17600194400.0 -0.2767630735 -0.9545439211
17650194100.0 -0.2907261427 -0.9504405817
17700193800.0 -0.303293322 -0.9464296807
17750193500.0 -0.3173563243 -0.9419086351
17800193200.0 -0.3314986165 -0.9365859276
17850192900.0 -0.3464189135 -0.9310553791
17900192600.0 -0.3616659458 -0.9251402088
17950192300.0 -0.3772331105 -0.9179742292
18000192000.0 -0.3919355905 -0.9108380996
18050191700.0 -0.4058090913 -0.9027820152
18100191400.0 -0.4199505641 -0.8951113782
18150191100.0 -0.4348305235 -0.8871153981
18200190800.0 -0.451695182 -0.8778423253
18250190500.0 -0.4685765046 -0.868306757
18300190200.0 -0.4842893689 -0.8596106423
18350189900.0 -0.4997166222 -0.8509094592
18400189600.0 -0.5141634549 -0.8428450331
18450189300.0 -0.5277040501 -0.8352139742
18500189000.0 -0.5406875278 -0.8266490878
18550188700.0 -0.5533907989 -0.8194817765
18600188400.0 -0.5654999203 -0.812448643
18650188100.0 -0.5766868642 -0.8060063497
18700187800.0 -0.5877398828 -0.7989900534
18750187500.0 -0.5982273464 -0.7922981038
18800187200.0 -0.6091002332 -0.7855367672
18850186900.0 -0.6192788693 -0.778573344
18900186600.0 -0.629677898 -0.7711922675
18950186300.0 -0.6398171457 -0.7634626121
19000186000.0 -0.6473471692 -0.7570939563
19050185700.0 -0.6565382768 -0.7498191595
19100185400.0 -0.6667194848 -0.7421192407
19150185100.0 -0.6761947616 -0.7336817697
19200184800.0 -0.6861649227 -0.7248534312
19250184500.0 -0.6961548151 -0.7157979567
19300184200.0 -0.7073608201 -0.7064344034
19350183900.0 -0.7185265809 -0.6967877568
19400183600.0 -0.7279440176 -0.6868372967
19450183300.0 -0.7366914347 -0.676570675
19500183000.0 -0.7455754003 -0.6667012433
19550182700.0 -0.7549656618 -0.6557717765
19600182400.0 -0.7649988977 -0.6441899023
19650182100.0 -0.775877192 -0.6318243796
19700181800.0 -0.7863470848 -0.6187449338
19750181500.0 -0.7967927378 -0.6046591431
19800181200.0 -0.8070082314 -0.5895781455
19850180900.0 -0.8164748093 -0.57429521
19900180600.0 -0.8241218577 -0.5596624709
19950180300.0 -0.8336447682 -0.5434193458
20000180000.0 -0.8231461956 -0.54711502
20050179700.0 -0.8310447469 -0.5344362322
20100179400.0 -0.8401018071 -0.5212156636
20150179100.0 -0.8482081462 -0.5089762756
20200178800.0 -0.8562818828 -0.4974997239
20250178500.0 -0.866461522 -0.4849637713
20300178200.0 -0.8754308757 -0.4711301624
20350177900.0 -0.8853696908 -0.4574396853
20400177600.0 -0.8938327723 -0.4430506394
20450177300.0 -0.9022857886 -0.4284246923
20500177000.0 -0.9101723709 -0.4150354758
20550176700.0 -0.9182571885 -0.4014109485
20600176400.0 -0.9250032231 -0.3881301824
20650176100.0 -0.9312690171 -0.3760766483
20700175800.0 -0.9385373121 -0.3645284755
20750175500.0 -0.9447496651 -0.3528476545
20800175200.0 -0.9499036419 -0.3427682588
20850174900.0 -0.9544541533 -0.3317434375
20900174600.0 -0.9582894522 -0.3197295326
20950174300.0 -0.9615159564 -0.3096854943
21000174000.0 -0.9645506686 -0.2981408368
21050173700.0 -0.9656573594 -0.2885213706
21100173400.0 -0.9699460125 -0.2778629109
21150173100.0 -0.9736867844 -0.2656094997
21200172800.0 -0.9772089349 -0.2524049429
21250172500.0 -0.9809404406 -0.2383355321
21300172200.0 -0.9843277754 -0.224682154
21350171900.0 -0.9857821608 -0.2102831035
21400171600.0 -0.9885417913 -0.1961444655
21450171300.0 -0.9892287079 -0.1815547816
21500171000.0 -0.9896810397 -0.1676700543
21550170700.0 -0.9902356945 -0.1517381315
21600170400.0 -0.9919163019 -0.1365488314
21650170100.0 -0.9909126822 -0.1218344161
21700169800.0 -0.9893742337 -0.1054975281
21750169500.0 -0.990063504 -0.0893728886
21800169200.0 -0.9899887899 -0.0725866804
21850168900.0 -0.9902725662 -0.0565077059
21900168600.0 -0.9890842302 -0.0403182366
21950168300.0 -0.988022255 -0.0240703675
22000168000.0 -0.9883885005 -0.009002444
22050167700.0 -0.989193715 0.0052561886
22100167400.0 -0.98973411 0.0211382439
22150167100.0 -0.990858728 0.0366142019
22200166800.0 -0.9912604213 0.0536913791
22250166500.0 -0.9906609653 0.0705160213
22300166200.0 -0.9903856195 0.0860403661
22350165900.0 -0.9890821052 0.1033640737
22400165600.0 -0.9871102576 0.1185912953
22450165300.0 -0.9851771144 0.1341702073
22500165000.0 -0.9848444229 0.1482810486
22550164700.0 -0.9827553184 0.1642806906
22600164400.0 -0.9799358432 0.1804466015
22650164100.0 -0.9780380687 0.1951690554
22700163800.0 -0.9751282496 0.2121791409
22750163500.0 -0.9715865437 0.2265437219
22800163200.0 -0.968449822 0.2396587761
22850162900.0 -0.9660103995 0.2537302474
22900162600.0 -0.963981337 0.2672561465
22950162300.0 -0.9625084845 0.2807168429
23000162000.0 -0.9602751003 0.2936473785
23050161700.0 -0.9580177359 0.3068739513
23100161400.0 -0.9554044881 0.3202295972
23150161100.0 -0.9528639262 0.3339347642
23200160800.0 -0.9489761704 0.3467999696
23250160500.0 -0.9468366547 0.3585080914
23300160200.0 -0.9438856708 0.3714377979
23350159900.0 -0.939926841 0.3847859192
23400159600.0 -0.9349995807 0.3984321912
23450159300.0 -0.9296088393 0.4122090236
23500159000.0 -0.9249295802 0.4257674919
23550158700.0 -0.9202425636 0.4399435228
23600158400.0 -0.9139382206 0.4537334122
23650158100.0 -0.9069244254 0.4682101323
23700157800.0 -0.8986997547 0.4825998627
23750157500.0 -0.8889925071 0.4970701813
23800157200.0 -0.8795523763 0.5103193754
23850156900.0 -0.869772725 0.5231056635
23900156600.0 -0.8603493342 0.5355199503
23950156300.0 -0.8506793051 0.548036559
24000156000.0 -0.8405281986 0.5604649989
24050155700.0 -0.8310975777 0.5736620035
24100155400.0 -0.820264096 0.5851701661
24150155100.0 -0.8097270257 0.5968629779
24200154800.0 -0.7979704332 0.6085754662
24250154500.0 -0.7866738159 0.6211259465
24300154200.0 -0.7751468674 0.6331473993
24350153900.0 -0.7634867796 0.644216595
24400153600.0 -0.7506760779 0.6548725839
24450153300.0 -0.7388762716 0.6650905654
24500153000.0 -0.727188204 0.6755634911
24550152700.0 -0.7161762909 0.6855883169
24600152400.0 -0.7042155617 0.6948779634
24650152100.0 -0.6918964801 0.703305992
