!Created with skrf (http://scikit-rf.org).
# Hz S RI R 50.0 
!freq ReS11 ImS11
300000.0 -0.9814924063 -0.1024453438
50299700.0 -1.000014655 0.0162394956
100299400.0 -0.9979885947 0.0292294181
150299100.0 -1.002824952 0.0458120619
200298800.0 -0.9996920456 0.0591256036
250298500.0 -0.9974156864 0.0728745884
300298200.0 -0.9861369757 0.0886452983
350297900.0 -0.9939348434 0.0994284929
400297600.0 -0.9931323538 0.1159641667
450297300.0 -0.9910057793 0.1297697425
500297000.0 -0.989398989 0.1446712758
550296700.0 -0.9842683644 0.1571654874
600296400.0 -1.017178242 0.1906985122
650296100.0 -0.981883262 0.1871080299
700295800.0 -0.9793748681 0.2014545385
750295500.0 -0.9760486976 0.2153769427
800295200.0 -0.972778339 0.2295962511
850294900.0 -0.9693476123 0.2434013782
900294600.0 -0.9655425087 0.2570935476
950294300.0 -0.9617786344 0.2708908993
1000294000.0 -0.9578255014 0.2848126683
1050293700.0 -0.9532373628 0.2984766562
1100293400.0 -0.9489993638 0.3130057688
1150293100.0 -0.9450152021 0.3249229808
1200292800.0 -0.9397755154 0.3391917506
1250292500.0 -0.9343084031 0.3524685385
1300292200.0 -0.928780676 0.3657441213
1350291900.0 -0.9231522048 0.3798349448
1400291600.0 -0.9175819602 0.3927933341
1450291300.0 -0.9122635919 0.4050761992
1500291000.0 -0.9058278313 0.4185664774
1550290700.0 -0.899316821 0.4320723459
1600290400.0 -0.8930976176 0.4446835847
1650290100.0 -0.8864367368 0.4568519243
1700289800.0 -0.879498601 0.4703638951
1750289500.0 -0.8725749602 0.4826573206
1800289200.0 -0.8651090458 0.4955194622
1850288900.0 -0.8585063915 0.5069710252
1900288600.0 -0.8506424292 0.5200486738
1950288300.0 -0.842453333 0.5324800712
2000288000.0 -0.834971742 0.543934979
2050287700.0 -0.8267433077 0.5562275849
2100287400.0 -0.8187018851 0.567950581
2150287100.0 -0.8100836548 0.5799784076
2200286800.0 -0.8024384856 0.5902298698
2250286500.0 -0.7934901302 0.6025123769
2300286200.0 -0.7846511374 0.6139525413
2350285900.0 -0.7758466564 0.6251171685
2400285600.0 -0.7666436653 0.6358301082
2450285300.0 -0.7583376278 0.6463561675
2500285000.0 -0.7484209973 0.6576096273
2550284700.0 -0.7395264745 0.6676454101
2600284400.0 -0.729795245 0.6779984012
2650284100.0 -0.7210124583 0.688466793
2700283800.0 -0.710197064 0.6991967824
2750283500.0 -0.6999498289 0.7096487351
2800283200.0 -0.6902965443 0.7195172115
2850282900.0 -0.6801879553 0.7292543176
2900282600.0 -0.669461165 0.7387193938
2950282300.0 -0.6595665796 0.7479857351
3000282000.0 -0.6489912592 0.7575424746
3050281700.0 -0.6377926648 0.766687208
3100281400.0 -0.6257557141 0.7762181554
3150281100.0 -0.6140769325 0.7853655666
3200280800.0 -0.602251805 0.794009194
3250280500.0 -0.5915815716 0.8016406088
3300280200.0 -0.5804826369 0.8094655303
3350279900.0 -0.569171903 0.8169263161
3400279600.0 -0.5569677433 0.82459284
3450279300.0 -0.5460705243 0.8318020639
3500279000.0 -0.5336491727 0.8389340439
3550278700.0 -0.5212761305 0.8461376324
3600278400.0 -0.5089822879 0.8532966839
3650278100.0 -0.4958176235 0.8609538545
3700277800.0 -0.4839086963 0.8673196513
3750277500.0 -0.4714088021 0.8739401574
3800277200.0 -0.4589967753 0.8803745813
3850276900.0 -0.446862671 0.8864585312
3900276600.0 -0.4359422874 0.8920579119
3950276300.0 -0.4231085213 0.8980827519
4000276000.0 -0.411010909 0.9042973452
4050275700.0 -0.3980993701 0.9101185599
4100275400.0 -0.3871106573 0.9153539106
4150275100.0 -0.3743499923 0.9211724191
4200274800.0 -0.3614890982 0.9268618544
4250274500.0 -0.3489325812 0.9317564215
4300274200.0 -0.3361787745 0.9371076257
4350273900.0 -0.3221870305 0.9422049317
4400273600.0 -0.3073923008 0.9473286586
4450273300.0 -0.2920783691 0.9525157529
4500273000.0 -0.2783301173 0.9570410972
4550272700.0 -0.2642358862 0.9610048618
4600272400.0 -0.2487680541 0.9653834308
4650272100.0 -0.2370268474 0.9685528638
4700271800.0 -0.223730158 0.9719537998
4750271500.0 -0.2119377701 0.9748121341
4800271200.0 -0.1996008882 0.9774864289
4850270900.0 -0.1855563929 0.9803076438
4900270600.0 -0.1716558307 0.982595194
4950270300.0 -0.1576148743 0.9851691172
5000270000.0 -0.1433011884 0.9871109785
5050269700.0 -0.1300434038 0.9890462739
5100269400.0 -0.1163243817 0.9911201775
5150269100.0 -0.1032228049 0.9924661341
5200268800.0 -0.0896621375 0.9931523632
5250268500.0 -0.0768985319 0.99407257
5300268200.0 -0.0638309897 0.9945640365
5350267900.0 -0.0515838431 0.9953224734
5400267600.0 -0.0352790025 0.9964164132
5450267300.0 -0.0222451631 0.9970268439
5500267000.0 -0.0072133962 0.9971009449
5550266700.0 0.0076824855 0.9975337174
5600266400.0 0.0232860938 0.9973255645
5650266100.0 0.0401320202 0.9969676517
5700265800.0 0.0544505456 0.9961617303
5750265500.0 0.0696282397 0.9951639614
5800265200.0 0.083768588 0.9941260304
5850264900.0 0.0967314303 0.9933497083
5900264600.0 0.113454854 0.9913164139
5950264300.0 0.1256052201 0.9899195354
6000264000.0 0.1395638066 0.9881301137
6050263700.0 0.1523724084 0.9865333933
6100263400.0 0.1646672068 0.9848736377
6150263100.0 0.1793364818 0.9819835983
6200262800.0 0.1897238032 0.9803107678
6250262500.0 0.2026136692 0.9778327468
6300262200.0 0.2153436614 0.9750507506
6350261900.0 0.2283639885 0.9721425271
6400261600.0 0.2422027546 0.9689806888
6450261300.0 0.2536953706 0.9661325723
6500261000.0 0.266536224 0.9626678629
6550260700.0 0.2795457867 0.9588133168
6600260400.0 0.2926770259 0.9546307688
6650260100.0 0.3067916793 0.9502397521
6700259800.0 0.3186299902 0.9458903835
6750259500.0 0.3321106894 0.9406807316
6800259200.0 0.3453208043 0.9359254381
6850258900.0 0.3571425059 0.9308023632
6900258600.0 0.3696555672 0.9261808917
6950258300.0 0.3818107877 0.9209093038
7000258000.0 0.3941484021 0.9154038769
7050257700.0 0.4062984404 0.9092166075
7100257400.0 0.4189034617 0.9030160996
7150257100.0 0.4294766731 0.8978358137
7200256800.0 0.4422090428 0.891558925
7250256500.0 0.4539668464 0.8850285104
7300256200.0 0.4670833636 0.8782511635
7350255900.0 0.4787795923 0.8712576245
7400255600.0 0.492339271 0.8642769381
7450255300.0 0.5077447882 0.855363184
7500255000.0 0.5190808482 0.8480775706
7550254700.0 0.5330785241 0.8399733802
7600254400.0 0.5457399793 0.8311763355
7650254100.0 0.5573533477 0.823472369
7700253800.0 0.5692104763 0.8155376867
7750253500.0 0.5803574895 0.8076196412
7800253200.0 0.5912709908 0.7999580897
7850252900.0 0.6009221711 0.7928426471
7900252600.0 0.6126601513 0.7839172665
7950252300.0 0.6214016008 0.7772808964
8000252000.0 0.6316531137 0.7694221632
8050251700.0 0.6421234124 0.7612012885
8100251400.0 0.652430458 0.753125595
8150251100.0 0.6625701738 0.7443847665
8200250800.0 0.6720734154 0.7362454008
8250250500.0 0.6809065418 0.7282863688
8300250200.0 0.690426173 0.7195570742
8350249900.0 0.6992295939 0.7109205608
8400249600.0 0.7073770545 0.7030481501
8450249300.0 0.716535716 0.6936084992
8500249000.0 0.7252964836 0.6848964421
8550248700.0 0.7333497321 0.6759149385
8600248400.0 0.7418472416 0.6662842539
8650248100.0 0.7494368393 0.6571013613
8700247800.0 0.759095129 0.6459058204
8750247500.0 0.767502585 0.6357750836
8800247200.0 0.7754002459 0.6253389579
8850246900.0 0.7841398685 0.6142297665
8900246600.0 0.7927283102 0.6027672096
8950246300.0 0.8020335273 0.5898111624
9000246000.0 0.811446856 0.5773561081
9050245700.0 0.8202964856 0.5643677813
9100245400.0 0.8288826748 0.5518738625
9150245100.0 0.8381621532 0.5383268127
9200244800.0 0.8480915536 0.5228966462
9250244500.0 0.8573652063 0.5073701855
9300244200.0 0.8659593459 0.4927301489
9350243900.0 0.8736298848 0.4785385965
9400243600.0 0.8802741134 0.4664159546
9450243300.0 0.8864287645 0.454520907
9500243000.0 0.8927418334 0.4418489989
9550242700.0 0.8963490445 0.4342129547
9600242400.0 0.9003232037 0.4264961429
9650242100.0 0.9037827494 0.4201532517
9700241800.0 0.9085916574 0.4115152116
9750241500.0 0.9123665902 0.4041758166
9800241200.0 0.9170207318 0.3947417912
9850240900.0 0.9227391366 0.3831256837
9900240600.0 0.9281425004 0.3716618455
9950240300.0 0.9346950231 0.3554114669
10000240000.0 0.9393597215 0.3438652051
10050239700.0 0.9451311077 0.3284132814
10100239400.0 0.9500216546 0.3133356883
10150239100.0 0.9546712885 0.2988260272
10200238800.0 0.9585079659 0.2837863721
10250238500.0 0.9618279392 0.2704311497
10300238200.0 0.9651446942 0.2565203829
10350237900.0 0.9674842443 0.2435826442
10400237600.0 0.9700682772 0.2301429055
10450237300.0 0.9726318489 0.2171578628
10500237000.0 0.975200296 0.2043288529
10550236700.0 0.9774034587 0.1901566713
10600236400.0 0.9792119514 0.1774250381
10650236100.0 0.981749649 0.1621542075
10700235800.0 0.9835875744 0.1508481995
10750235500.0 0.9859564253 0.1373257087
10800235200.0 0.9878333945 0.1234709529
10850234900.0 0.9894720454 0.1086731464
10900234600.0 0.9915349705 0.0945179648
10950234300.0 0.9936564361 0.0809475673
11000234000.0 0.9952644288 0.0660520529
11050233700.0 0.9970160604 0.0496893663
11100233400.0 0.9983093537 0.0324201134
11150233100.0 0.9991559895 0.0162785304
11200232800.0 1.000186619 0.0004857984
11250232500.0 1.001230404 -0.0153911349
11300232200.0 1.001544613 -0.0329616925
11350231900.0 1.001306852 -0.0488248844
11400231600.0 1.000650567 -0.0648783096
11450231300.0 1.000592811 -0.0802471783
11500231000.0 0.999317975 -0.0961288162
11550230700.0 0.9978759211 -0.110342021
11600230400.0 0.9966314627 -0.1230930026
11650230100.0 0.9943814964 -0.1339226354
11700229800.0 0.9927361089 -0.1495399842
11750229500.0 0.9904337673 -0.1640703507
11800229200.0 0.9874751373 -0.177802813
11850228900.0 0.9838486682 -0.190140608
11900228600.0 0.9803267773 -0.2001525339
11950228300.0 0.9773069238 -0.210936849
12000228000.0 0.9743521985 -0.220075855
12050227700.0 0.9705819714 -0.2326649675
12100227400.0 0.9679101482 -0.2431554144
12150227100.0 0.9630283632 -0.2595157499
12200226800.0 0.9591959835 -0.2711005347
12250226500.0 0.9549398599 -0.2836887885
12300226200.0 0.9508588201 -0.2963248154
12350225900.0 0.946312603 -0.309600151
12400225600.0 0.941674238 -0.3221197312
12450225300.0 0.9373899904 -0.3350001756
12500225000.0 0.9316123486 -0.3499069012
12550224700.0 0.9266302819 -0.3638353357
12600224400.0 0.9217128044 -0.376094289
12650224100.0 0.9159748687 -0.3903207145
12700223800.0 0.9107770209 -0.4030555153
12750223500.0 0.9052425655 -0.4158519906
12800223200.0 0.8998811496 -0.4282784063
12850222900.0 0.8946108309 -0.4406396697
12900222600.0 0.8890598037 -0.4521564598
12950222300.0 0.8826228283 -0.4656145223
13000222000.0 0.8763572869 -0.4765843913
13050221700.0 0.8694720784 -0.4897271873
13100221400.0 0.8627852032 -0.5017952656
13150221100.0 0.8561383754 -0.5135961172
13200220800.0 0.8489743869 -0.5252662128
13250220500.0 0.8415256445 -0.5377821092
13300220200.0 0.8339919097 -0.5489128971
13350219900.0 0.8259279627 -0.5609763474
13400219600.0 0.8176154527 -0.5731446284
13450219300.0 0.8078133719 -0.5868867212
13500219000.0 0.7973616727 -0.6011177222
13550218700.0 0.7873856037 -0.6138125654
13600218400.0 0.7774445066 -0.625655265
13650218100.0 0.7668796439 -0.6370148807
13700217800.0 0.7560283076 -0.649018511
13750217500.0 0.7463663028 -0.6607665286
13800217200.0 0.7349893154 -0.6723988001
13850216900.0 0.7243889484 -0.6838123566
13900216600.0 0.7136344978 -0.6932499531
13950216300.0 0.7031617807 -0.7031609469
14000216000.0 0.6929988999 -0.7127042041
14050215700.0 0.6840575162 -0.7204876014
14100215400.0 0.6742542313 -0.7297484124
14150215100.0 0.6648346493 -0.7380546125
14200214800.0 0.6556524613 -0.7464198807
14250214500.0 0.6454529947 -0.755894521
14300214200.0 0.6352367004 -0.7649665176
14350213900.0 0.62429131 -0.7745790022
14400213600.0 0.6124953448 -0.7843531554
14450213300.0 0.5993618301 -0.7943017221
14500213000.0 0.5865408868 -0.8042362936
14550212700.0 0.5738777979 -0.8134506897
14600212400.0 0.5619019547 -0.8222384222
14650212100.0 0.5487170256 -0.8306734108
14700211800.0 0.5347113519 -0.840150142
14750211500.0 0.5227851665 -0.8482869563
14800211200.0 0.5102678094 -0.8563389041
14850210900.0 0.4982386933 -0.8637430443
14900210600.0 0.4847810647 -0.8720075874
14950210300.0 0.471196335 -0.8796386599
15000210000.0 0.4580565454 -0.8865335276
15050209700.0 0.4456156932 -0.8925293868
15100209400.0 0.4332117619 -0.8984337376
15150209100.0 0.4205896772 -0.9041896293
15200208800.0 0.4073990052 -0.9094405675
15250208500.0 0.3956730177 -0.9143709807
15300208200.0 0.3833694907 -0.9180741849
15350207900.0 0.3705973354 -0.9237142077
15400207600.0 0.3558235298 -0.9293390742
15450207300.0 0.3405471659 -0.9338979253
15500207000.0 0.326745447 -0.9389343203
15550206700.0 0.3115177791 -0.9438653171
15600206400.0 0.2953802371 -0.948054744
15650206100.0 0.2800241417 -0.9527065992
15700205800.0 0.2656999248 -0.956003424
15750205500.0 0.2510883268 -0.959566439
15800205200.0 0.2370035573 -0.962976148
15850204900.0 0.2224724628 -0.9663791539
15900204600.0 0.2076543337 -0.9697458367
15950204300.0 0.1936624704 -0.9727200311
16000204000.0 0.1795419715 -0.9758659018
16050203700.0 0.1644251572 -0.9783447548
16100203400.0 0.1506755735 -0.9802774217
16150203100.0 0.1364711181 -0.9828807359
16200202800.0 0.1227718961 -0.9851051711
16250202500.0 0.1073376627 -0.986596322
16300202200.0 0.0925919877 -0.9875748229
16350201900.0 0.0777415856 -0.9891915499
16400201600.0 0.0630699612 -0.9902444332
16450201300.0 0.0480051945 -0.9912853889
16500201000.0 0.0315083535 -0.9920455101
16550200700.0 0.0157151574 -0.9925728593
16600200400.0 1.3324e-06 -0.9927803842
16650200100.0 -0.0161869368 -0.9926412075
16700199800.0 -0.0331523768 -0.9920759038
16750199500.0 -0.0516738435 -0.9912831912
16800199200.0 -0.0677320356 -0.9908863263
16850198900.0 -0.0829124254 -0.9892575504
16900198600.0 -0.0969744398 -0.9878469317
16950198300.0 -0.1097202983 -0.9875682818
17000198000.0 -0.1234922842 -0.9861771746
17050197700.0 -0.1359877983 -0.9840574103
17100197400.0 -0.149147187 -0.9812115093
17150197100.0 -0.1615637446 -0.9794986044
17200196800.0 -0.1744127469 -0.9774476294
17250196500.0 -0.187390428 -0.9750029903
17300196200.0 -0.1995671528 -0.9726877348
17350195900.0 -0.2114793143 -0.9704832438
17400195600.0 -0.223702014 -0.9679329589
17450195300.0 -0.2369907941 -0.9650547038
17500195000.0 -0.2505615257 -0.9618115875
17550194700.0 -0.2645524038 -0.9583618315
17600194400.0 -0.2781180528 -0.9541162219
17650194100.0 -0.2918710626 -0.9501254803
17700193800.0 -0.3050183953 -0.9461081169
17750193500.0 -0.3190277099 -0.9410479106
17800193200.0 -0.3334119427 -0.935894902
17850192900.0 -0.3484414374 -0.930423174
17900192600.0 -0.3634691503 -0.9246153993
17950192300.0 -0.3790187518 -0.9175105658
18000192000.0 -0.3934725702 -0.9103629333
18050191700.0 -0.4072209841 -0.9023844287
18100191400.0 -0.4213064637 -0.8949482217
18150191100.0 -0.4361771486 -0.8868498857
18200190800.0 -0.4529289077 -0.8777265175
18250190500.0 -0.4699633562 -0.8682163647
18300190200.0 -0.4851931981 -0.8592629818
18350189900.0 -0.5001370458 -0.8511978179
18400189600.0 -0.5146441907 -0.8428146303
18450189300.0 -0.5283279149 -0.8342847637
18500189000.0 -0.5412421655 -0.8263303169
18550188700.0 -0.5539830624 -0.8191900877
18600188400.0 -0.5656720968 -0.8121730998
18650188100.0 -0.5771004779 -0.8054002386
18700187800.0 -0.5880256062 -0.7984302724
18750187500.0 -0.5985768602 -0.7919140708
18800187200.0 -0.6093307327 -0.7847877607
18850186900.0 -0.6197634815 -0.7775804626
18900186600.0 -0.629990387 -0.7701138282
18950186300.0 -0.6404336794 -0.7622639603
19000186000.0 -0.647696059 -0.7560973824
19050185700.0 -0.6572145338 -0.7482245541
19100185400.0 -0.6672974502 -0.7402156335
19150185100.0 -0.6775375537 -0.731823117
19200184800.0 -0.6873948745 -0.7226512127
19250184500.0 -0.6969095674 -0.7137351016
19300184200.0 -0.7079059373 -0.7040745178
19350183900.0 -0.7196415249 -0.6945536614
19400183600.0 -0.7295747426 -0.6845598194
19450183300.0 -0.7381771123 -0.6742595261
19500183000.0 -0.7458632839 -0.6644712791
19550182700.0 -0.755720196 -0.6539600593
19600182400.0 -0.7661426388 -0.6423703365
19650182100.0 -0.7767409074 -0.6300426681
19700181800.0 -0.7873494227 -0.6171472181
19750181500.0 -0.7975898531 -0.6028851563
19800181200.0 -0.8078610022 -0.5881686981
19850180900.0 -0.81725798 -0.5730354059
19900180600.0 -0.8249803821 -0.5587276626
19950180300.0 -0.8341638252 -0.5423678445
20000180000.0 -0.827272294 -0.5439787073
20050179700.0 -0.8359831499 -0.5318958948
20100179400.0 -0.8446933901 -0.5176920151
20150179100.0 -0.8521758165 -0.50538871
20200178800.0 -0.860420331 -0.4922912489
20250178500.0 -0.8698947356 -0.4787907127
20300178200.0 -0.8792871242 -0.4641118524
20350177900.0 -0.8884910324 -0.449579184
20400177600.0 -0.8972327557 -0.4353209852
20450177300.0 -0.9055017281 -0.4209822428
20500177000.0 -0.9132364189 -0.407273404
20550176700.0 -0.921029659 -0.3931541886
20600176400.0 -0.9282200974 -0.3804842523
20650176100.0 -0.9345635111 -0.3674436564
20700175800.0 -0.9416516517 -0.3558567518
20750175500.0 -0.947925709 -0.3428504158
20800175200.0 -0.9528259886 -0.3334437462
20850174900.0 -0.9579046527 -0.321783911
20900174600.0 -0.9619820489 -0.3102365619
20950174300.0 -0.9667758531 -0.2974292724
21000174000.0 -0.9696916381 -0.2864223672
21050173700.0 -0.9729408381 -0.2754784462
21100173400.0 -0.9774012533 -0.2628609556
21150173100.0 -0.9816290606 -0.2498726078
21200172800.0 -0.9847904431 -0.2368544231
21250172500.0 -0.9881817735 -0.2231563121
21300172200.0 -0.9907708299 -0.2088724946
21350171900.0 -0.9923665834 -0.1946183322
21400171600.0 -0.9934631726 -0.1797725431
21450171300.0 -0.9941873798 -0.1668193539
21500171000.0 -0.9935344294 -0.1502266069
21550170700.0 -0.992722437 -0.1351878082
21600170400.0 -0.9943400482 -0.1194246709
21650170100.0 -0.9919033242 -0.1051326202
21700169800.0 -0.9909891098 -0.0896094831
21750169500.0 -0.9896051889 -0.0732206745
21800169200.0 -0.987551586 -0.0564941482
21850168900.0 -0.9867796628 -0.0408904055
21900168600.0 -0.9859398832 -0.0237326831
21950168300.0 -0.9840145971 -0.0082942314
22000168000.0 -0.9829218936 0.006449346
22050167700.0 -0.982387882 0.0205381785
22100167400.0 -0.982702083 0.0358203416
22150167100.0 -0.9829899878 0.0507235499
22200166800.0 -0.9832172134 0.0674936737
22250166500.0 -0.9826646226 0.0843232154
22300166200.0 -0.9820415549 0.1009027243
22350165900.0 -0.9801625497 0.1164762658
22400165600.0 -0.978345254 0.1331694068
22450165300.0 -0.9768641785 0.1472464753
22500165000.0 -0.9751327878 0.161817362
22550164700.0 -0.9731879634 0.1769936715
22600164400.0 -0.9719527756 0.1915403855
22650164100.0 -0.9701116207 0.2070617508
22700163800.0 -0.9676879889 0.2237811325
22750163500.0 -0.9647660352 0.2385330847
22800163200.0 -0.9619974227 0.2519983602
22850162900.0 -0.9596521384 0.2651888708
22900162600.0 -0.958127443 0.2786812065
22950162300.0 -0.9572540512 0.2913739809
23000162000.0 -0.956352596 0.3034232973
23050161700.0 -0.9538832711 0.3156072188
23100161400.0 -0.9518279788 0.3284948194
23150161100.0 -0.9494926664 0.340956953
23200160800.0 -0.9463620914 0.3528150082
23250160500.0 -0.9434108023 0.3644994353
23300160200.0 -0.9411156571 0.3766388701
23350159900.0 -0.9371965521 0.3890182046
23400159600.0 -0.9324238574 0.4025767427
23450159300.0 -0.9276277257 0.4158697731
23500159000.0 -0.922992452 0.428728792
23550158700.0 -0.9185059109 0.4415950458
23600158400.0 -0.912838478 0.4549033611
23650158100.0 -0.9066726199 0.4687973607
23700157800.0 -0.898948454 0.4824859302
23750157500.0 -0.890482597 0.496250944
23800157200.0 -0.8815179442 0.5100670135
23850156900.0 -0.8729712365 0.522210529
23900156600.0 -0.863399164 0.5349743199
23950156300.0 -0.8546149268 0.5461217741
24000156000.0 -0.845184671 0.5591211265
24050155700.0 -0.8356961955 0.5710716548
24100155400.0 -0.8250643908 0.5831899138
24150155100.0 -0.8146202705 0.5946621498
24200154800.0 -0.8035108559 0.605248171
24250154500.0 -0.7925872206 0.6172505441
24300154200.0 -0.7812386192 0.6286601346
24350153900.0 -0.7694693191 0.6389935096
24400153600.0 -0.757063837 0.6498940729
24450153300.0 -0.7449819757 0.6598065784
24500153000.0 -0.7336519093 0.669733951
24550152700.0 -0.7226030116 0.6793394979
24600152400.0 -0.7108785162 0.6888439859
24650152100.0 -0.6994775845 0.6969081064
