!Created with skrf (http://scikit-rf.org).
# Hz S RI R 50.0 
!freq ReS11 ImS11
300000.0 -0.9741262374 -0.1217425795
50299700.0 -0.9999735371 0.0151062161
100299400.0 -0.9980838596 0.0279593987
150299100.0 -1.002779844 0.0449211414
200298800.0 -0.9994497276 0.0580171292
250298500.0 -0.9973336728 0.0715852523
300298200.0 -0.9859985491 0.0874587396
350297900.0 -0.9940405362 0.0982336779
400297600.0 -0.9931878615 0.1147889963
450297300.0 -0.9910383965 0.1288533334
500297000.0 -0.9894203469 0.1433129753
550296700.0 -0.9841835548 0.1558905153
600296400.0 -1.017501616 0.1891185885
650296100.0 -0.9821122165 0.1856193584
700295800.0 -0.9791787812 0.1998138526
750295500.0 -0.9763031927 0.214076535
800295200.0 -0.9728563869 0.2279055848
850294900.0 -0.9695791234 0.2418440988
900294600.0 -0.9657221624 0.2557534956
950294300.0 -0.9621003906 0.2693025807
1000294000.0 -0.9581245343 0.2832737486
1050293700.0 -0.953564066 0.2972800841
1100293400.0 -0.9492898807 0.3116787892
1150293100.0 -0.9455672849 0.3234249431
1200292800.0 -0.9402368157 0.3377750248
1250292500.0 -0.9345921739 0.3513559589
1300292200.0 -0.9289308789 0.3644276873
1350291900.0 -0.9234824573 0.3785310877
1400291600.0 -0.917876122 0.3915145875
1450291300.0 -0.9125157355 0.4040638179
1500291000.0 -0.9063506942 0.4173441396
1550290700.0 -0.8997242474 0.4306043511
1600290400.0 -0.893547627 0.4437764051
1650290100.0 -0.8868918029 0.4557753049
1700289800.0 -0.8799831495 0.4692469193
1750289500.0 -0.8728872042 0.4814469732
1800289200.0 -0.8655464543 0.4944253459
1850288900.0 -0.8589203501 0.5058869156
1900288600.0 -0.8511818956 0.5187694725
1950288300.0 -0.8429700821 0.5313238143
2000288000.0 -0.8354427299 0.5428063615
2050287700.0 -0.8271600214 0.5551506884
2100287400.0 -0.8193637619 0.5664838935
2150287100.0 -0.8110049488 0.5786870402
2200286800.0 -0.8031728091 0.5892347765
2250286500.0 -0.7939903311 0.6014861872
2300286200.0 -0.7853443323 0.6129620762
2350285900.0 -0.7768458789 0.6233235929
2400285600.0 -0.7678799842 0.634340543
2450285300.0 -0.759126113 0.645180802
2500285000.0 -0.7490524836 0.6564957184
2550284700.0 -0.7401471374 0.6671206506
2600284400.0 -0.7309665167 0.6768812882
2650284100.0 -0.7224617304 0.6870581297
2700283800.0 -0.7116777101 0.6974420457
2750283500.0 -0.7015547319 0.708112184
2800283200.0 -0.691454902 0.7181061214
2850282900.0 -0.6810284874 0.7283058928
2900282600.0 -0.6706845629 0.7378495421
2950282300.0 -0.6602802411 0.7473050856
3000282000.0 -0.6494593552 0.7565430315
3050281700.0 -0.6385110542 0.7661410552
3100281400.0 -0.6270040855 0.7750753651
3150281100.0 -0.6155007441 0.7839760234
3200280800.0 -0.6043209812 0.7923173882
3250280500.0 -0.5930203368 0.8003507085
3300280200.0 -0.581489279 0.8086218843
3350279900.0 -0.5693106796 0.8166725481
3400279600.0 -0.5566729776 0.8242925765
3450279300.0 -0.5455427622 0.8316688179
3500279000.0 -0.533889615 0.838606795
3550278700.0 -0.5217373619 0.8457649066
3600278400.0 -0.509880797 0.8524637179
3650278100.0 -0.4967641774 0.8599835756
3700277800.0 -0.4845656368 0.866615059
3750277500.0 -0.4720239754 0.873327531
3800277200.0 -0.4599344406 0.8798060066
3850276900.0 -0.4479991374 0.885697364
3900276600.0 -0.4369255175 0.8913219669
3950276300.0 -0.4247380823 0.8972347646
4000276000.0 -0.413011811 0.9031925545
4050275700.0 -0.4004297184 0.9092853059
4100275400.0 -0.3892449618 0.914754291
4150275100.0 -0.3760108505 0.9204823806
4200274800.0 -0.3625182297 0.9259887229
4250274500.0 -0.3499332415 0.9316747762
4300274200.0 -0.3367176513 0.9367553936
4350273900.0 -0.3223365733 0.9421273761
4400273600.0 -0.3077982365 0.9473296927
4450273300.0 -0.2927810558 0.9523395985
4500273000.0 -0.279801662 0.9564815623
4550272700.0 -0.2659598163 0.9606813354
4600272400.0 -0.2508241088 0.9646746632
4650272100.0 -0.2395761871 0.9679435102
4700271800.0 -0.2265912089 0.9711074306
4750271500.0 -0.2151162219 0.9740907923
4800271200.0 -0.2027940549 0.9766818028
4850270900.0 -0.1889708731 0.9795501263
4900270600.0 -0.1751817995 0.9820151454
4950270300.0 -0.1606388923 0.9848883786
5000270000.0 -0.1460803845 0.9867532367
5050269700.0 -0.1326686448 0.9886220131
5100269400.0 -0.1187968109 0.9901124546
5150269100.0 -0.1045701635 0.9917296115
5200268800.0 -0.0913250063 0.9925963647
5250268500.0 -0.0779218124 0.9937195029
5300268200.0 -0.0646583828 0.994483814
5350267900.0 -0.0515427907 0.9950355994
5400267600.0 -0.0355899181 0.9963474531
5450267300.0 -0.0220696865 0.9967819942
5500267000.0 -0.0068421593 0.9970385141
5550266700.0 0.0082348835 0.9972660663
5600266400.0 0.0240919343 0.997483245
5650266100.0 0.0406923174 0.9968082819
5700265800.0 0.0546660963 0.9958961553
5750265500.0 0.070000152 0.9952991069
5800265200.0 0.083098544 0.9940399913
5850264900.0 0.0961317284 0.9929155995
5900264600.0 0.1131896929 0.9913240476
5950264300.0 0.1245590388 0.9895731132
6000264000.0 0.1380819176 0.9880681789
6050263700.0 0.1497439121 0.9869132002
6100263400.0 0.1622898925 0.985001232
6150263100.0 0.1767460097 0.9826418036
6200262800.0 0.1862099295 0.9809371144
6250262500.0 0.1988325111 0.9786961205
6300262200.0 0.211119245 0.9761255077
6350261900.0 0.223851661 0.9735309675
6400261600.0 0.2378941436 0.9701578624
6450261300.0 0.2490340385 0.967752984
6500261000.0 0.2621563362 0.9640197582
6550260700.0 0.2752565712 0.9602334337
6600260400.0 0.2885317226 0.9560814652
6650260100.0 0.303081617 0.9516826872
6700259800.0 0.3150190954 0.9472735654
6750259500.0 0.3287633992 0.9425059534
6800259200.0 0.3422292547 0.937372724
6850258900.0 0.3549937614 0.9322171661
6900258600.0 0.3672701537 0.9268731689
6950258300.0 0.3796681439 0.9216402026
7000258000.0 0.3915274617 0.916196291
7050257700.0 0.4033901661 0.9102726152
7100257400.0 0.4166634196 0.9039022826
7150257100.0 0.4275026212 0.8985183684
7200256800.0 0.4406749316 0.8920935126
7250256500.0 0.453504175 0.8854336665
7300256200.0 0.4659020823 0.8786245589
7350255900.0 0.4791806176 0.8716897988
7400255600.0 0.4930335459 0.8640675502
7450255300.0 0.5085820483 0.8549401712
7500255000.0 0.5211000538 0.8473172071
7550254700.0 0.5356302996 0.8383040351
7600254400.0 0.5478266288 0.8296548465
7650254100.0 0.55938171 0.8219936736
7700253800.0 0.5709580867 0.8140308559
7750253500.0 0.5820919249 0.8063266086
7800253200.0 0.5926747325 0.7985012185
7850252900.0 0.6023716616 0.7913813887
7900252600.0 0.6139533422 0.782488606
7950252300.0 0.6221860576 0.7761831494
8000252000.0 0.6322880022 0.7685168111
8050251700.0 0.6428607987 0.7604895837
8100251400.0 0.6527179328 0.752420754
8150251100.0 0.6622822163 0.7441036051
8200250800.0 0.6722428592 0.7358468428
8250250500.0 0.6810449628 0.7280904321
8300250200.0 0.68990987 0.7196482406
8350249900.0 0.6993151767 0.7107179447
8400249600.0 0.7071916207 0.7027600199
8450249300.0 0.7160044244 0.6940540404
8500249000.0 0.7246694557 0.6854767508
8550248700.0 0.7329261535 0.6764608678
8600248400.0 0.7411044525 0.6667462711
8650248100.0 0.7486992195 0.6573012538
8700247800.0 0.7581796658 0.646397498
8750247500.0 0.7662766382 0.6360731091
8800247200.0 0.7741964231 0.6258912011
8850246900.0 0.7833360796 0.6143522373
8900246600.0 0.7916495804 0.6029059432
8950246300.0 0.8008088459 0.5903335699
9000246000.0 0.8092812019 0.5783861864
9050245700.0 0.817810112 0.5661774393
9100245400.0 0.8261287242 0.5539907252
9150245100.0 0.8349939851 0.541170869
9200244800.0 0.8442463802 0.5265660821
9250244500.0 0.8533120919 0.5119373015
9300244200.0 0.8613639071 0.4984308494
9350243900.0 0.8689585933 0.4851917245
9400243600.0 0.8756165335 0.4733806283
9450243300.0 0.8811569646 0.462997293
9500243000.0 0.8875856591 0.4512505424
9550242700.0 0.8915388068 0.4436542587
9600242400.0 0.8958717154 0.4361583219
9650242100.0 0.9001047188 0.429163464
9700241800.0 0.9049564991 0.4206316084
9750241500.0 0.9090391291 0.4128484242
9800241200.0 0.9141854915 0.4036573849
9850240900.0 0.9199818711 0.3919828527
9900240600.0 0.9259803531 0.3798987797
9950240300.0 0.9333340567 0.3629203199
10000240000.0 0.9380993482 0.3509057842
10050239700.0 0.9440805713 0.335130128
10100239400.0 0.9491304673 0.3189321399
10150239100.0 0.9542028738 0.3030160848
10200238800.0 0.9584632641 0.2876512494
10250238500.0 0.9613691088 0.274230108
10300238200.0 0.9647597474 0.2602441593
10350237900.0 0.9674988053 0.2469153449
10400237600.0 0.9700474439 0.2334308209
10450237300.0 0.9728030938 0.2195680242
10500237000.0 0.9750402225 0.2074331467
10550236700.0 0.9772460693 0.1926904647
10600236400.0 0.9797382702 0.1785030496
10650236100.0 0.9816506511 0.1649109227
10700235800.0 0.983541477 0.1524902668
10750235500.0 0.9859447781 0.1383242879
10800235200.0 0.987959117 0.1243588907
10850234900.0 0.9897867392 0.1093028048
10900234600.0 0.99213195 0.0943672298
10950234300.0 0.9938656385 0.0809606122
11000234000.0 0.9956188444 0.0654286407
11050233700.0 0.9974086692 0.0488032838
11100233400.0 0.9988762102 0.0311995359
11150233100.0 1.000352938 0.0139869165
11200232800.0 1.000494983 -0.0020340528
11250232500.0 1.002009322 -0.019973783
11300232200.0 1.002233864 -0.0381795579
11350231900.0 1.001951021 -0.0539446509
11400231600.0 1.001797085 -0.0698452678
11450231300.0 1.000670182 -0.0851475439
11500231000.0 0.9995516346 -0.1019198205
11550230700.0 0.9983700452 -0.1149239511
11600230400.0 0.9968757386 -0.1285978649
11650230100.0 0.9949534652 -0.1401076933
11700229800.0 0.9926491792 -0.1549570616
11750229500.0 0.9903154423 -0.1685221001
11800229200.0 0.9873478289 -0.1822048935
11850228900.0 0.9836289164 -0.1941371324
11900228600.0 0.9799451145 -0.2035043775
11950228300.0 0.9763545774 -0.2135177465
12000228000.0 0.9739242025 -0.2224030815
12050227700.0 0.9698153025 -0.2347847731
12100227400.0 0.967079996 -0.2455150201
12150227100.0 0.9618592644 -0.2628480174
12200226800.0 0.9578951108 -0.2734897989
12250226500.0 0.9533758191 -0.2866882485
12300226200.0 0.9488026063 -0.2986627731
12350225900.0 0.9448371126 -0.3116531409
12400225600.0 0.9402525207 -0.3246446565
12450225300.0 0.9358614727 -0.3368418161
12500225000.0 0.9301230371 -0.3521586238
12550224700.0 0.9247648591 -0.365932111
12600224400.0 0.9198728143 -0.3782980885
12650224100.0 0.9140989673 -0.3926988686
12700223800.0 0.9087854629 -0.4055590382
12750223500.0 0.9032551664 -0.4185243435
12800223200.0 0.8979846214 -0.4312360197
12850222900.0 0.8926505691 -0.4433821715
12900222600.0 0.8874859463 -0.4553576145
12950222300.0 0.8804708829 -0.4682261505
13000222000.0 0.8749291785 -0.4795727227
13050221700.0 0.868288647 -0.4925726413
13100221400.0 0.8617097867 -0.5049942142
13150221100.0 0.8546675976 -0.5165212578
13200220800.0 0.8478039412 -0.5285364456
13250220500.0 0.8400628164 -0.5407446737
13300220200.0 0.8327652798 -0.5514676769
13350219900.0 0.8246434231 -0.5636334428
13400219600.0 0.8160008145 -0.5755771191
13450219300.0 0.806827144 -0.588427551
13500219000.0 0.7969614187 -0.6017882866
13550218700.0 0.7872667249 -0.6139466255
13600218400.0 0.7776693665 -0.6254871895
13650218100.0 0.7674532123 -0.6370869338
13700217800.0 0.7573545853 -0.6483636561
13750217500.0 0.7468901591 -0.6592726865
13800217200.0 0.7365698914 -0.6707586469
13850216900.0 0.7256556015 -0.6817134782
13900216600.0 0.7159073064 -0.6902004863
13950216300.0 0.7053151671 -0.7007627079
14000216000.0 0.6949104251 -0.7093634338
14050215700.0 0.686124393 -0.7173726106
14100215400.0 0.6765433401 -0.7263289234
14150215100.0 0.6670585013 -0.7349637732
14200214800.0 0.6577941442 -0.7441339481
14250214500.0 0.6474326152 -0.7536085361
14300214200.0 0.6370490297 -0.7630186776
14350213900.0 0.6259237396 -0.7729139392
14400213600.0 0.6141494588 -0.7826035431
14450213300.0 0.6009072824 -0.7927062189
14500213000.0 0.5879935052 -0.8024579481
14550212700.0 0.575715513 -0.8119475508
14600212400.0 0.5634517537 -0.8204640777
14650212100.0 0.5506671051 -0.8294694329
14700211800.0 0.5368577351 -0.8392018734
14750211500.0 0.5247372652 -0.8476617936
14800211200.0 0.512060034 -0.8553358688
14850210900.0 0.4997663934 -0.8634273022
14900210600.0 0.4863818482 -0.8711146769
14950210300.0 0.4731517574 -0.8786176044
15000210000.0 0.4603440726 -0.8854616694
15050209700.0 0.4484202198 -0.8913925411
15100209400.0 0.4353763295 -0.8974204554
15150209100.0 0.4228650688 -0.9028519233
15200208800.0 0.4100194465 -0.9080299351
15250208500.0 0.4001929299 -0.912975632
15300208200.0 0.3874337131 -0.917710229
15350207900.0 0.3734255261 -0.9219675606
15400207600.0 0.3590458664 -0.9268733495
15450207300.0 0.3442648228 -0.9325562081
15500207000.0 0.3305297807 -0.9371933998
15550206700.0 0.3153202015 -0.941742134
15600206400.0 0.2995999593 -0.9463671267
15650206100.0 0.2834544955 -0.9509787125
15700205800.0 0.2702213951 -0.9544947445
15750205500.0 0.2561418299 -0.9576626121
15800205200.0 0.2419992018 -0.9611725169
15850204900.0 0.2280451118 -0.9647366555
15900204600.0 0.2128425387 -0.968286465
15950204300.0 0.1985726505 -0.9715598987
16000204000.0 0.184314587 -0.9746041057
16050203700.0 0.1692166785 -0.9773959479
16100203400.0 0.1540622711 -0.9795284843
16150203100.0 0.1394729169 -0.9821638395
16200202800.0 0.125239631 -0.9839791356
16250202500.0 0.1104995917 -0.9852603395
16300202200.0 0.0944470005 -0.987453428
16350201900.0 0.079744707 -0.9891203052
16400201600.0 0.0651093298 -0.98986282
16450201300.0 0.049744033 -0.9911541006
16500201000.0 0.0325163794 -0.9918903709
16550200700.0 0.0162858579 -0.992361105
16600200400.0 0.0005977779 -0.9927692572
16650200100.0 -0.0156335144 -0.9923813419
16700199800.0 -0.0321501082 -0.9922286253
16750199500.0 -0.0515854073 -0.9910738025
16800199200.0 -0.0671182812 -0.9895327998
16850198900.0 -0.0828450898 -0.9891104455
16900198600.0 -0.0967858603 -0.9885281581
16950198300.0 -0.1100244733 -0.9874893148
17000198000.0 -0.123837217 -0.9856716402
17050197700.0 -0.1357901544 -0.9837693915
17100197400.0 -0.1488462863 -0.9814774087
17150197100.0 -0.1615769434 -0.9800809901
17200196800.0 -0.1746574601 -0.9780348334
17250196500.0 -0.1874794272 -0.9752303423
17300196200.0 -0.1997601786 -0.9728899954
17350195900.0 -0.2113338299 -0.9707406535
17400195600.0 -0.2234552147 -0.9681803027
17450195300.0 -0.2362058382 -0.9652731715
17500195000.0 -0.2493103867 -0.9619062883
17550194700.0 -0.2630331452 -0.9587995524
17600194400.0 -0.2773529824 -0.9548080822
17650194100.0 -0.2905574865 -0.9504602467
17700193800.0 -0.3036186021 -0.9460267728
17750193500.0 -0.3177984902 -0.9414825117
17800193200.0 -0.3317379862 -0.9364698494
17850192900.0 -0.3471653575 -0.9308234935
17900192600.0 -0.3620981098 -0.9247897073
17950192300.0 -0.377293122 -0.917757307
18000192000.0 -0.392295876 -0.9104209764
18050191700.0 -0.4061150366 -0.9026554973
18100191400.0 -0.4202471507 -0.8950643633
18150191100.0 -0.43505178 -0.8869290984
18200190800.0 -0.4519675004 -0.877622958
18250190500.0 -0.4688779165 -0.8681298583
18300190200.0 -0.4847962667 -0.8592812498
18350189900.0 -0.499761462 -0.8509795646
18400189600.0 -0.5140354262 -0.842283135
18450189300.0 -0.5273407034 -0.8347267838
18500189000.0 -0.5413680056 -0.8262419398
18550188700.0 -0.5542268264 -0.8188630844
18600188400.0 -0.5657067479 -0.8115495955
18650188100.0 -0.5772312153 -0.8054475176
18700187800.0 -0.5882397095 -0.7987052707
18750187500.0 -0.5989515554 -0.7921358161
18800187200.0 -0.6094830198 -0.785128336
18850186900.0 -0.6197183494 -0.7782616951
18900186600.0 -0.6299884129 -0.7708410325
18950186300.0 -0.6401739814 -0.763271023
19000186000.0 -0.6478307584 -0.7565390011
19050185700.0 -0.6572596613 -0.7497237344
19100185400.0 -0.6667182734 -0.7412700979
19150185100.0 -0.6772941755 -0.7330828177
19200184800.0 -0.6867114378 -0.7254763829
19250184500.0 -0.6967180445 -0.7158248175
19300184200.0 -0.7081039764 -0.7064171845
19350183900.0 -0.7190367443 -0.6966920212
19400183600.0 -0.727898321 -0.6857332455
19450183300.0 -0.7375870875 -0.6766171573
19500183000.0 -0.7455552608 -0.6663500051
19550182700.0 -0.7554520053 -0.656162096
19600182400.0 -0.7659751978 -0.6440741457
19650182100.0 -0.7764029665 -0.631578297
19700181800.0 -0.7869294114 -0.6184234101
19750181500.0 -0.7969415712 -0.6041285271
19800181200.0 -0.8073227546 -0.5891537286
19850180900.0 -0.8168092747 -0.5739106314
19900180600.0 -0.8244560697 -0.5594485954
19950180300.0 -0.8335915467 -0.5433077759
20000180000.0 -0.8230829754 -0.546869769
20050179700.0 -0.8307118543 -0.5339316356
20100179400.0 -0.8405913082 -0.5215334578
20150179100.0 -0.8481055135 -0.5097968807
20200178800.0 -0.8568183977 -0.4976168626
20250178500.0 -0.8658833699 -0.4856143559
20300178200.0 -0.874909967 -0.4719699666
20350177900.0 -0.8848652585 -0.4573215298
20400177600.0 -0.8932712863 -0.4431894387
20450177300.0 -0.9020501906 -0.4291860697
20500177000.0 -0.9099985971 -0.4150746987
20550176700.0 -0.9180932001 -0.4015705851
20600176400.0 -0.9250556791 -0.3894599651
20650176100.0 -0.9316896596 -0.3767710833
20700175800.0 -0.9378001556 -0.3648928484
20750175500.0 -0.9442313301 -0.3528542816
20800175200.0 -0.9488963541 -0.3415338257
20850174900.0 -0.9532771581 -0.3311580462
20900174600.0 -0.9581131065 -0.320031042
20950174300.0 -0.9609934065 -0.3094550931
21000174000.0 -0.9639845682 -0.2985268284
21050173700.0 -0.9656765899 -0.2892534356
21100173400.0 -0.9688756116 -0.2783658321
21150173100.0 -0.9729004959 -0.2664693449
21200172800.0 -0.9769029964 -0.2533320825
21250172500.0 -0.9807843034 -0.2392816777
21300172200.0 -0.9841598436 -0.2251844901
21350171900.0 -0.9863243056 -0.2110901474
21400171600.0 -0.9878135226 -0.1969612192
21450171300.0 -0.9884896291 -0.1824529632
21500171000.0 -0.9889188583 -0.1674394772
21550170700.0 -0.9896286203 -0.1518678636
21600170400.0 -0.9911174663 -0.137052101
21650170100.0 -0.9911598876 -0.1220313114
21700169800.0 -0.9902168139 -0.1062426363
21750169500.0 -0.9905724062 -0.0899150095
21800169200.0 -0.9906445604 -0.0737722617
21850168900.0 -0.9900647235 -0.0569683876
21900168600.0 -0.989921707 -0.0409459347
21950168300.0 -0.9892528723 -0.0249902568
22000168000.0 -0.9890629936 -0.0103451381
22050167700.0 -0.9895989977 0.0048573214
22100167400.0 -0.9900729925 0.0202306296
22150167100.0 -0.9913653445 0.0363209856
22200166800.0 -0.9914528093 0.0526472015
22250166500.0 -0.9911270679 0.0700167021
22300166200.0 -0.9909753976 0.0862184099
22350165900.0 -0.9891043113 0.1028238062
22400165600.0 -0.9870839761 0.1185260432
22450165300.0 -0.9859583458 0.1340272009
22500165000.0 -0.9846945458 0.1472823445
22550164700.0 -0.9827917375 0.1649474897
22600164400.0 -0.980913099 0.1798099379
22650164100.0 -0.9774456182 0.1959017569
22700163800.0 -0.9746459383 0.2116087193
22750163500.0 -0.9719759135 0.2261288278
22800163200.0 -0.9689651955 0.2396621145
22850162900.0 -0.9661594102 0.2533881572
22900162600.0 -0.9645833136 0.2672601764
22950162300.0 -0.9626967706 0.2808025107
23000162000.0 -0.961051634 0.2935947899
23050161700.0 -0.958005961 0.3071584375
23100161400.0 -0.9552473779 0.320314987
23150161100.0 -0.9526180923 0.3338510883
23200160800.0 -0.9496983876 0.3461380968
23250160500.0 -0.9471764198 0.3583985795
23300160200.0 -0.9440493439 0.3714131049
23350159900.0 -0.9394631983 0.3853127251
23400159600.0 -0.9347887797 0.398357472
23450159300.0 -0.9301462908 0.412539085
23500159000.0 -0.9250106479 0.4261263921
23550158700.0 -0.920148823 0.4403095415
23600158400.0 -0.9139536598 0.454173775
23650158100.0 -0.9069746026 0.4688167214
23700157800.0 -0.8983065668 0.4830196505
23750157500.0 -0.8886209631 0.4975354537
23800157200.0 -0.8791899325 0.5107501154
23850156900.0 -0.8697847039 0.5236250474
23900156600.0 -0.8594664557 0.5361015862
23950156300.0 -0.8502641774 0.5484375085
24000156000.0 -0.8400955983 0.5611900639
24050155700.0 -0.8301592685 0.5731684527
24100155400.0 -0.8192128533 0.585217834
24150155100.0 -0.8090518948 0.5980259842
24200154800.0 -0.7971990723 0.6097672079
24250154500.0 -0.785927887 0.6221201717
24300154200.0 -0.7742701429 0.6340965827
24350153900.0 -0.7627485309 0.6452300898
24400153600.0 -0.7501580874 0.6562246341
24450153300.0 -0.737815862 0.6664740771
24500153000.0 -0.7261486276 0.6763298215
24550152700.0 -0.7150692207 0.6862397376
24600152400.0 -0.7030815056 0.6957051937
24650152100.0 -0.6908168203 0.7043575553
