!Created with skrf (http://scikit-rf.org).
# Hz S RI R 50.0 
!freq ReS11 ImS11
300000.0 -0.9739789734 -0.1195512466
50299700.0 -0.9999859894 0.0153492971
100299400.0 -0.9980222581 0.0282426952
150299100.0 -1.002771699 0.0451611132
200298800.0 -0.9995129695 0.0585103337
250298500.0 -0.9972818765 0.0720261271
300298200.0 -0.985813724 0.0877267897
350297900.0 -0.9941378863 0.0985583304
400297600.0 -0.9932641861 0.1151520833
450297300.0 -0.9910130715 0.1290966118
500297000.0 -0.9894822187 0.1438144249
550296700.0 -0.9844546148 0.1561205547
600296400.0 -1.017183917 0.1896097715
650296100.0 -0.9820436926 0.1861311357
700295800.0 -0.9791972857 0.2005395654
750295500.0 -0.9763195734 0.2144301717
800295200.0 -0.9729886329 0.2285088558
850294900.0 -0.9696598414 0.2422855739
900294600.0 -0.9658160731 0.25599707
950294300.0 -0.9619853201 0.2696286733
1000294000.0 -0.9581892881 0.283683984
1050293700.0 -0.9535948637 0.2974061176
1100293400.0 -0.9492613321 0.3118625572
1150293100.0 -0.9454291672 0.3240438897
1200292800.0 -0.940165815 0.3381567848
1250292500.0 -0.9348391715 0.3515207518
1300292200.0 -0.9288824302 0.3648261182
1350291900.0 -0.9235313792 0.3787324
1400291600.0 -0.917854423 0.3920020108
1450291300.0 -0.9124361062 0.4043048342
1500291000.0 -0.906149472 0.4177232751
1550290700.0 -0.8996147095 0.4310647085
1600290400.0 -0.8934849424 0.443944404
1650290100.0 -0.886681729 0.4561541102
1700289800.0 -0.8798670373 0.469678575
1750289500.0 -0.8728355257 0.4817690452
1800289200.0 -0.865378333 0.4948127697
1850288900.0 -0.8585509151 0.5058554831
1900288600.0 -0.8508987722 0.5192106657
1950288300.0 -0.8427421972 0.5316174527
2000288000.0 -0.8353127964 0.5429052949
2050287700.0 -0.8271891393 0.5554087557
2100287400.0 -0.8191685657 0.5669409577
2150287100.0 -0.8107762181 0.579125446
2200286800.0 -0.802985812 0.5894682299
2250286500.0 -0.794273698 0.6015831592
2300286200.0 -0.7852518546 0.6130414682
2350285900.0 -0.7765777422 0.6240985037
2400285600.0 -0.7675235467 0.6350080604
2450285300.0 -0.7590900465 0.6455240143
2500285000.0 -0.7493802292 0.6567913434
2550284700.0 -0.7402948198 0.6669511514
2600284400.0 -0.7307739587 0.6773312774
2650284100.0 -0.7219464428 0.6876467362
2700283800.0 -0.7115912679 0.6981521515
2750283500.0 -0.7009690408 0.7087433407
2800283200.0 -0.6911076173 0.7186092642
2850282900.0 -0.6811566736 0.7282980337
2900282600.0 -0.67076151 0.7380323694
2950282300.0 -0.660611569 0.7472184211
3000282000.0 -0.6498109211 0.7567879884
3050281700.0 -0.6385044431 0.7660302563
3100281400.0 -0.6267895027 0.7753860498
3150281100.0 -0.614895688 0.7846960257
3200280800.0 -0.6033036039 0.7930648068
3250280500.0 -0.5924614042 0.800877011
3300280200.0 -0.581246948 0.8088167955
3350279900.0 -0.5696184729 0.8162289918
3400279600.0 -0.5572853098 0.8239354731
3450279300.0 -0.5464244201 0.8310296669
3500279000.0 -0.5343968 0.8384124629
3550278700.0 -0.5216806429 0.8454677756
3600278400.0 -0.5098083577 0.8528702386
3650278100.0 -0.4963515518 0.860286091
3700277800.0 -0.484320599 0.8667693585
3750277500.0 -0.4720176911 0.8731958445
3800277200.0 -0.459886715 0.8798794118
3850276900.0 -0.4475642081 0.8859032152
3900276600.0 -0.4368601338 0.8914670777
3950276300.0 -0.4244451041 0.8972618976
4000276000.0 -0.4121892647 0.9031881006
4050275700.0 -0.3995946566 0.9097321498
4100275400.0 -0.3886435277 0.9149257652
4150275100.0 -0.3758764542 0.9206619194
4200274800.0 -0.362749716 0.9259609958
4250274500.0 -0.3503007181 0.9313412847
4300274200.0 -0.3373102506 0.9364384496
4350273900.0 -0.3237208589 0.941852344
4400273600.0 -0.3086403671 0.9471333425
4450273300.0 -0.293449729 0.9523524041
4500273000.0 -0.2797506494 0.956529652
4550272700.0 -0.2657112007 0.9608355108
4600272400.0 -0.2503064042 0.9649463169
4650272100.0 -0.2385394183 0.9682237796
4700271800.0 -0.2254744655 0.9715320886
4750271500.0 -0.2136415784 0.9744731579
4800271200.0 -0.2011374013 0.9771877494
4850270900.0 -0.1872749904 0.9801390801
4900270600.0 -0.1733934398 0.9823785306
4950270300.0 -0.1590074692 0.9849333237
5000270000.0 -0.1448479027 0.9871201679
5050269700.0 -0.1313713146 0.9885772767
5100269400.0 -0.1177483645 0.9902777584
5150269100.0 -0.1042437064 0.9920430863
5200268800.0 -0.0910894643 0.9932229688
5250268500.0 -0.0778127803 0.9941837765
5300268200.0 -0.0647340313 0.9948188676
5350267900.0 -0.0522362926 0.9953677328
5400267600.0 -0.0362391139 0.9963292967
5450267300.0 -0.0231363454 0.9965553078
5500267000.0 -0.0079080026 0.9970371736
5550266700.0 0.0067912945 0.9972467148
5600266400.0 0.0223369629 0.9972272864
5650266100.0 0.0389010381 0.9970260397
5700265800.0 0.0534604919 0.9962352083
5750265500.0 0.0688659579 0.9956976039
5800265200.0 0.0823681603 0.9938147289
5850264900.0 0.0956955529 0.9934097682
5900264600.0 0.1126583332 0.9917152891
5950264300.0 0.1244128202 0.9900496329
6000264000.0 0.1386336352 0.9884700765
6050263700.0 0.1507609233 0.9867316274
6100263400.0 0.1628861013 0.9848798403
6150263100.0 0.1777047103 0.9825169007
6200262800.0 0.188153816 0.9809679056
6250262500.0 0.2007290123 0.9784531791
6300262200.0 0.2134989385 0.9756937451
6350261900.0 0.2266774216 0.9727207712
6400261600.0 0.2403824169 0.9694834258
6450261300.0 0.2520777888 0.9667133505
6500261000.0 0.2644234564 0.963245585
6550260700.0 0.2771082928 0.9591770235
6600260400.0 0.2910090014 0.9554322435
6650260100.0 0.304942046 0.950895265
6700259800.0 0.3168503862 0.9463978615
6750259500.0 0.3307311481 0.9418202299
6800259200.0 0.3437566793 0.9367204181
6850258900.0 0.3557067087 0.931494838
6900258600.0 0.3681439897 0.9263380691
6950258300.0 0.3806753808 0.9211182364
7000258000.0 0.3926254957 0.9158003736
7050257700.0 0.4049951766 0.9096921341
7100257400.0 0.4178062778 0.9034999505
7150257100.0 0.4279825313 0.8982162212
7200256800.0 0.4409047717 0.8917085745
7250256500.0 0.4526518196 0.8853671262
7300256200.0 0.4657571893 0.8786068686
7350255900.0 0.4787635111 0.8719503302
7400255600.0 0.4918364668 0.8646178174
7450255300.0 0.5064150878 0.8557054214
7500255000.0 0.5190603605 0.8485442042
7550254700.0 0.5322341986 0.8398802733
7600254400.0 0.545344548 0.8316489228
7650254100.0 0.5566208143 0.8240686168
7700253800.0 0.5685479329 0.8159497223
7750253500.0 0.5796242652 0.8081542911
7800253200.0 0.5902343203 0.8004562854
7850252900.0 0.6000791389 0.7935940462
7900252600.0 0.6117569641 0.7847170186
7950252300.0 0.6203377918 0.7782064621
8000252000.0 0.6306025764 0.7704732743
8050251700.0 0.6414221598 0.7623736012
8100251400.0 0.6511731107 0.7542312497
8150251100.0 0.6613198396 0.7456403429
8200250800.0 0.6703640637 0.7377270506
8250250500.0 0.6796724009 0.7297775996
8300250200.0 0.6889518892 0.7209955568
8350249900.0 0.6978980266 0.7125189836
8400249600.0 0.7061660598 0.7042679681
8450249300.0 0.7153280845 0.6951302806
8500249000.0 0.7236565577 0.6862866734
8550248700.0 0.7321970631 0.677345975
8600248400.0 0.7406487782 0.6676378947
8650248100.0 0.7483351668 0.6583550973
8700247800.0 0.7581097409 0.6470132937
8750247500.0 0.7661906891 0.6370574868
8800247200.0 0.7744987927 0.6266437994
8850246900.0 0.7831736163 0.6150359687
8900246600.0 0.7916786424 0.6035933126
8950246300.0 0.8012577802 0.5909464378
9000246000.0 0.810357616 0.5780224566
9050245700.0 0.819407495 0.5653148915
9100245400.0 0.828253915 0.5526000534
9150245100.0 0.8376830095 0.5390901036
9200244800.0 0.8472639696 0.52406681
9250244500.0 0.8564677546 0.5085458042
9300244200.0 0.8651085455 0.494054001
9350243900.0 0.8725961696 0.4804494707
9400243600.0 0.8793715666 0.4680237773
9450243300.0 0.8852861382 0.4562766622
9500243000.0 0.8915857418 0.4442445881
9550242700.0 0.8953381985 0.4365216694
9600242400.0 0.8993199961 0.4291704431
9650242100.0 0.9029649978 0.4227384515
9700241800.0 0.9076126175 0.4144708434
9750241500.0 0.9116081268 0.4067876489
9800241200.0 0.9161356648 0.397724309
9850240900.0 0.921848889 0.3861074481
9900240600.0 0.9274061125 0.3745724039
9950240300.0 0.9342991104 0.3581781429
10000240000.0 0.9389968416 0.346453646
10050239700.0 0.9443678294 0.3315359214
10100239400.0 0.9495468402 0.3157506755
10150239100.0 0.9538666184 0.3013162397
10200238800.0 0.9580560481 0.2861968775
10250238500.0 0.9615267759 0.2727327887
10300238200.0 0.9644593456 0.2588596862
10350237900.0 0.9672328223 0.2457773762
10400237600.0 0.9697778148 0.2324241967
10450237300.0 0.9725543691 0.2190667341
10500237000.0 0.9748684143 0.2063376766
10550236700.0 0.9770151084 0.1928387336
10600236400.0 0.9791236359 0.1791145274
10650236100.0 0.9813758676 0.1641576756
10700235800.0 0.9838037026 0.151686349
10750235500.0 0.9860223059 0.1382400577
10800235200.0 0.9873869089 0.1247861794
10850234900.0 0.989759335 0.1096290314
10900234600.0 0.9918014301 0.0950601258
10950234300.0 0.9933760779 0.0818691198
11000234000.0 0.9952155331 0.0667910683
11050233700.0 0.9967896275 0.0504515553
11100233400.0 0.9983508021 0.0330175433
11150233100.0 0.9993205902 0.0169166049
11200232800.0 1.000134307 0.0016922601
11250232500.0 1.001354891 -0.0151174264
11300232200.0 1.001752504 -0.0327412081
11350231900.0 1.001517878 -0.047645746
11400231600.0 1.001242135 -0.0637486235
11450231300.0 1.000635906 -0.0790240653
11500231000.0 0.9999459054 -0.0944842542
11550230700.0 0.9981055439 -0.1087661653
11600230400.0 0.9970746442 -0.1216389232
11650230100.0 0.9954137418 -0.1330682448
11700229800.0 0.9931662234 -0.1479150977
11750229500.0 0.9907740842 -0.1617778699
11800229200.0 0.9884109068 -0.1759686699
11850228900.0 0.9846316835 -0.1881900836
11900228600.0 0.9810160451 -0.1977256215
11950228300.0 0.9780097214 -0.2079764881
12000228000.0 0.9750187921 -0.2171948011
12050227700.0 0.9714304537 -0.2303804823
12100227400.0 0.9680683038 -0.2422334329
12150227100.0 0.9631932212 -0.2579847356
12200226800.0 0.9600080063 -0.2689502375
12250226500.0 0.9556180326 -0.2819757692
12300226200.0 0.9513593066 -0.2936049162
12350225900.0 0.9463468998 -0.3078506098
12400225600.0 0.9423733512 -0.3205529499
12450225300.0 0.9379734034 -0.3337574802
12500225000.0 0.9322616653 -0.3485942447
12550224700.0 0.9269748898 -0.3620599059
12600224400.0 0.92201646 -0.375069481
12650224100.0 0.9163265194 -0.3894072998
12700223800.0 0.9109232874 -0.4022798556
12750223500.0 0.9054378351 -0.4153468015
12800223200.0 0.8999180113 -0.4280538974
12850222900.0 0.8948473986 -0.4400157533
12900222600.0 0.8890294337 -0.4520927546
12950222300.0 0.8828060676 -0.4645988917
13000222000.0 0.8767186271 -0.4764789235
13050221700.0 0.870050366 -0.4889435883
13100221400.0 0.8636851171 -0.5008026195
13150221100.0 0.8566253721 -0.5129167973
13200220800.0 0.8499349998 -0.5245085564
13250220500.0 0.842497088 -0.5366951775
13300220200.0 0.8351148767 -0.5476752686
13350219900.0 0.8270573857 -0.5596348414
13400219600.0 0.8188174813 -0.5716772938
13450219300.0 0.8095785834 -0.5851196712
13500219000.0 0.7996245292 -0.5988715551
13550218700.0 0.7888563436 -0.6117779219
13600218400.0 0.7789216824 -0.6235019909
13650218100.0 0.7698494081 -0.6352427782
13700217800.0 0.7584730928 -0.6468473115
13750217500.0 0.7494289524 -0.6582219158
13800217200.0 0.737706216 -0.6700730364
13850216900.0 0.7260576803 -0.681562227
13900216600.0 0.7164829357 -0.6909727316
13950216300.0 0.7059759108 -0.7011355562
14000216000.0 0.6953470564 -0.7101903717
14050215700.0 0.6861842279 -0.7189159596
14100215400.0 0.6762142668 -0.7276868488
14150215100.0 0.667057754 -0.7363470093
14200214800.0 0.657495145 -0.744761052
14250214500.0 0.6472638238 -0.7542989175
14300214200.0 0.6369275603 -0.7636376186
14350213900.0 0.6258398029 -0.773132111
14400213600.0 0.6139245332 -0.7829459302
14450213300.0 0.6007464294 -0.7934621014
14500213000.0 0.5878708833 -0.8029155649
14550212700.0 0.5757321685 -0.8131428051
14600212400.0 0.5626231072 -0.8211556927
14650212100.0 0.5499451545 -0.8302472526
14700211800.0 0.5360144065 -0.8393609047
14750211500.0 0.5238297366 -0.8479922091
14800211200.0 0.5115406545 -0.8558694824
14850210900.0 0.499697667 -0.8631475764
14900210600.0 0.4862447618 -0.8710782048
14950210300.0 0.4728385272 -0.8788906842
15000210000.0 0.4602514761 -0.8854669483
15050209700.0 0.4481217886 -0.8916517649
15100209400.0 0.4353153376 -0.8978270485
15150209100.0 0.422951784 -0.9028011194
15200208800.0 0.4105463201 -0.9082938151
15250208500.0 0.3993503262 -0.9132943872
15300208200.0 0.3863132752 -0.9180065828
15350207900.0 0.3733209693 -0.9221041401
15400207600.0 0.3591427086 -0.9279796409
15450207300.0 0.3447162319 -0.9327828199
15500207000.0 0.3311204394 -0.9374557667
15550206700.0 0.3148133254 -0.9421564497
15600206400.0 0.298642047 -0.9474772356
15650206100.0 0.2835215951 -0.9508391655
15700205800.0 0.2693723628 -0.9552827435
15750205500.0 0.2548429428 -0.9586319704
15800205200.0 0.2405043456 -0.962007325
15850204900.0 0.2258944267 -0.965541023
15900204600.0 0.2108508063 -0.9690511146
15950204300.0 0.1966281141 -0.9721849951
16000204000.0 0.1824254701 -0.9750737741
16050203700.0 0.167369811 -0.9778590535
16100203400.0 0.1534930714 -0.9800236454
16150203100.0 0.1388002702 -0.9827669111
16200202800.0 0.1242219898 -0.9842645666
16250202500.0 0.1096553227 -0.9862273402
16300202200.0 0.0939359717 -0.9881106418
16350201900.0 0.079101653 -0.9893957328
16400201600.0 0.0648523777 -0.990399703
16450201300.0 0.049455703 -0.9913914918
16500201000.0 0.0327163798 -0.9921886838
16550200700.0 0.01713484 -0.9926758263
16600200400.0 0.0015836645 -0.9928464329
16650200100.0 -0.014785072 -0.9928325183
16700199800.0 -0.0308096321 -0.992260907
16750199500.0 -0.0492440975 -0.9920068134
16800199200.0 -0.0653747541 -0.9908148036
16850198900.0 -0.0804662904 -0.9895260405
16900198600.0 -0.094415029 -0.9886511887
16950198300.0 -0.1083713423 -0.9880147346
17000198000.0 -0.1205397177 -0.9858357922
17050197700.0 -0.1332713387 -0.9843765697
17100197400.0 -0.1458356671 -0.9820042433
17150197100.0 -0.1587794433 -0.9803476648
17200196800.0 -0.1712483857 -0.9782247797
17250196500.0 -0.1845602603 -0.9760213885
17300196200.0 -0.196551243 -0.9734720729
17350195900.0 -0.2087461808 -0.9713396569
17400195600.0 -0.2207509712 -0.9687365775
17450195300.0 -0.2338682004 -0.9659305675
17500195000.0 -0.2474603235 -0.9626892554
17550194700.0 -0.2612601089 -0.958976439
17600194400.0 -0.2753660201 -0.9549250574
17650194100.0 -0.28873205 -0.9509097743
17700193800.0 -0.3019607962 -0.9468182882
17750193500.0 -0.3166723827 -0.9420752965
17800193200.0 -0.3311820003 -0.9368643343
17850192900.0 -0.3459582743 -0.9314928945
17900192600.0 -0.3608056665 -0.9258302473
17950192300.0 -0.3764206248 -0.9182306773
18000192000.0 -0.3914488913 -0.9112766665
18050191700.0 -0.4054465619 -0.9034272339
18100191400.0 -0.4195382632 -0.895645174
18150191100.0 -0.4345979081 -0.8877674638
18200190800.0 -0.4513376659 -0.8785399245
18250190500.0 -0.4685797919 -0.8693021444
18300190200.0 -0.4838881647 -0.8602328005
18350189900.0 -0.4986368685 -0.8519866702
18400189600.0 -0.5133756734 -0.8434801832
18450189300.0 -0.526459614 -0.8360989267
18500189000.0 -0.5398883878 -0.8278645709
18550188700.0 -0.552678407 -0.82036089
18600188400.0 -0.5640811596 -0.8137740773
18650188100.0 -0.5752256957 -0.8073215136
18700187800.0 -0.5861752254 -0.8006503306
18750187500.0 -0.5967750038 -0.7942107177
18800187200.0 -0.6072652066 -0.7870227992
18850186900.0 -0.6173579442 -0.7800276068
18900186600.0 -0.6275984588 -0.7729375395
18950186300.0 -0.6376543303 -0.7651734165
19000186000.0 -0.6450615529 -0.7590031152
19050185700.0 -0.6542210695 -0.7519357233
19100185400.0 -0.6638508644 -0.7434145201
19150185100.0 -0.6740854483 -0.7344465329
19200184800.0 -0.6834018436 -0.7264118536
19250184500.0 -0.6938921662 -0.7173598588
19300184200.0 -0.7047251928 -0.7078240573
19350183900.0 -0.7158056135 -0.6982657528
19400183600.0 -0.7263757235 -0.6889823929
19450183300.0 -0.734747078 -0.6783335772
19500183000.0 -0.7427724977 -0.6680949869
19550182700.0 -0.7524339927 -0.6570818324
19600182400.0 -0.763446958 -0.6458176414
19650182100.0 -0.7739747433 -0.6332618268
19700181800.0 -0.784764074 -0.6201131635
19750181500.0 -0.7954442959 -0.6059286235
19800181200.0 -0.8058329521 -0.5907738237
19850180900.0 -0.8156750573 -0.5756236965
19900180600.0 -0.823407468 -0.5611074789
19950180300.0 -0.8326115899 -0.5446408511
20000180000.0 -0.8256083825 -0.5476177064
20050179700.0 -0.833641202 -0.5350906866
20100179400.0 -0.8417682014 -0.5199369965
20150179100.0 -0.8511971464 -0.5085565177
20200178800.0 -0.8588946906 -0.4947557953
20250178500.0 -0.8691389949 -0.4816063319
20300178200.0 -0.8785024906 -0.466962145
20350177900.0 -0.8873083392 -0.4524095415
20400177600.0 -0.8962925952 -0.4381819445
20450177300.0 -0.9047314036 -0.4236457419
20500177000.0 -0.9128687468 -0.409989174
20550176700.0 -0.920670713 -0.3964120918
20600176400.0 -0.9275691197 -0.3829993741
20650176100.0 -0.9341500366 -0.3715474768
20700175800.0 -0.9409965006 -0.3587628773
20750175500.0 -0.9468615221 -0.3477858354
20800175200.0 -0.9518781196 -0.337102279
20850174900.0 -0.9574453612 -0.3257890274
20900174600.0 -0.9616516396 -0.3147173283
20950174300.0 -0.965862727 -0.302878262
21000174000.0 -0.9696182418 -0.2912142676
21050173700.0 -0.9718734303 -0.2807561664
21100173400.0 -0.9756638045 -0.2692243426
21150173100.0 -0.9796869405 -0.2563093657
21200172800.0 -0.9829514764 -0.2428167426
21250172500.0 -0.9863531742 -0.2294520366
21300172200.0 -0.9892753722 -0.2153679445
21350171900.0 -0.990667323 -0.2008391029
21400171600.0 -0.9922217957 -0.1865391036
21450171300.0 -0.9929979328 -0.1725193624
21500171000.0 -0.9925762362 -0.1564555662
21550170700.0 -0.9921986877 -0.1413277243
21600170400.0 -0.9926479658 -0.1263102052
21650170100.0 -0.9916525975 -0.1100883919
21700169800.0 -0.9894155661 -0.0949260442
21750169500.0 -0.9890739129 -0.0783858107
21800169200.0 -0.9892136731 -0.0618058153
21850168900.0 -0.9876852587 -0.0459713784
21900168600.0 -0.98673258 -0.0288820752
21950168300.0 -0.9846660965 -0.0134890888
22000168000.0 -0.9834891533 0.0016985329
22050167700.0 -0.9839001725 0.0162624794
22100167400.0 -0.9840377292 0.0314242139
22150167100.0 -0.9845079958 0.0468592135
22200166800.0 -0.9850956303 0.0632217503
22250166500.0 -0.9844978153 0.0802746278
22300166200.0 -0.9838651742 0.0967340597
22350165900.0 -0.9828670549 0.1133272518
22400165600.0 -0.9811148707 0.1290640092
22450165300.0 -0.9792485668 0.1441989128
22500165000.0 -0.9772558171 0.1585649171
22550164700.0 -0.9760150004 0.1722839164
22600164400.0 -0.9746989435 0.1887549206
22650164100.0 -0.972277249 0.2035430406
22700163800.0 -0.9699197176 0.2197824262
22750163500.0 -0.9669952352 0.2344118416
22800163200.0 -0.9639613497 0.2476152944
22850162900.0 -0.9616166671 0.2606757592
22900162600.0 -0.9604297846 0.2744356541
22950162300.0 -0.9589700905 0.2871246785
23000162000.0 -0.9577566508 0.2987186889
23050161700.0 -0.9556817081 0.3116825015
23100161400.0 -0.9535787221 0.3246189994
23150161100.0 -0.9509188072 0.3367626976
23200160800.0 -0.9470116762 0.3498725838
23250160500.0 -0.9452433523 0.3614179122
23300160200.0 -0.942830957 0.3732407119
23350159900.0 -0.9389817219 0.3858874967
23400159600.0 -0.9343004011 0.3995862996
23450159300.0 -0.9294706057 0.4128692443
23500159000.0 -0.924773747 0.4259361521
23550158700.0 -0.9200510289 0.439228589
23600158400.0 -0.914640252 0.4525404332
23650158100.0 -0.9083590194 0.4665390472
23700157800.0 -0.9007895896 0.4806683203
23750157500.0 -0.8920240464 0.4950484612
23800157200.0 -0.8831492162 0.5083873802
23850156900.0 -0.8742326331 0.5207010809
23900156600.0 -0.8650984036 0.5334210745
23950156300.0 -0.8560066323 0.545467947
24000156000.0 -0.8469152067 0.5583086741
24050155700.0 -0.8375613672 0.5691958827
24100155400.0 -0.8265533024 0.581360231
24150155100.0 -0.8165234824 0.5940689293
24200154800.0 -0.805519404 0.6048869583
24250154500.0 -0.7941233759 0.6161906831
24300154200.0 -0.7826920345 0.6277744869
24350153900.0 -0.7710181017 0.6383981249
24400153600.0 -0.758927693 0.6491044822
24450153300.0 -0.7470818495 0.6590066546
24500153000.0 -0.7358656224 0.6682369722
24550152700.0 -0.7246853461 0.678343001
24600152400.0 -0.7122643158 0.6872604909
24650152100.0 -0.7005882463 0.6958689765
