!Created with skrf (http://scikit-rf.org).
# Hz S RI R 50.0 
!freq ReS11 ImS11
300000.0 -0.9713228642 -0.1243124054
50299700.0 -0.999869472 0.0149122657
100299400.0 -0.9977948454 0.0280153355
150299100.0 -1.002572884 0.0447085632
200298800.0 -0.9995446221 0.058147641
250298500.0 -0.9973216348 0.0716050517
300298200.0 -0.9857682285 0.0873074224
350297900.0 -0.9939425756 0.0982990804
400297600.0 -0.9930982876 0.1149161335
450297300.0 -0.9909623507 0.128427354
500297000.0 -0.9892992002 0.1433919966
550296700.0 -0.9842995801 0.1558248553
600296400.0 -1.017116501 0.1889488418
650296100.0 -0.982043952 0.1858825107
700295800.0 -0.9793470338 0.2001548494
750295500.0 -0.9763662882 0.2139427922
800295200.0 -0.9728041732 0.2280112038
850294900.0 -0.969435883 0.2417775534
900294600.0 -0.9658713493 0.255343109
950294300.0 -0.9622082277 0.2691074132
1000294000.0 -0.9581371154 0.2831776884
1050293700.0 -0.9535637867 0.2968305725
1100293400.0 -0.9493073048 0.3113639725
1150293100.0 -0.9455280289 0.3234050667
1200292800.0 -0.9401814328 0.3376289138
1250292500.0 -0.9346590941 0.3511851922
1300292200.0 -0.9289842806 0.3642705284
1350291900.0 -0.9233556265 0.3783863947
1400291600.0 -0.9179630706 0.3915872368
1450291300.0 -0.912538764 0.4039442287
1500291000.0 -0.9061541773 0.4171239928
1550290700.0 -0.8996821204 0.4306914182
1600290400.0 -0.8935523627 0.4435769217
1650290100.0 -0.8869881912 0.4556717917
1700289800.0 -0.8799762848 0.4691295046
1750289500.0 -0.8729015333 0.481308509
1800289200.0 -0.865598202 0.4942610224
1850288900.0 -0.8588670244 0.5057776916
1900288600.0 -0.8511798291 0.5185903096
1950288300.0 -0.8430002471 0.5312597613
2000288000.0 -0.8356742151 0.5425971518
2050287700.0 -0.8271274803 0.5551870221
2100287400.0 -0.8193484817 0.5666639285
2150287100.0 -0.810791981 0.5786101444
2200286800.0 -0.8031012024 0.5890968373
2250286500.0 -0.7939909223 0.6013034746
2300286200.0 -0.7854404211 0.6127041105
2350285900.0 -0.7769064853 0.6231713677
2400285600.0 -0.7680033522 0.6340893473
2450285300.0 -0.7591616106 0.6451943897
2500285000.0 -0.7491311214 0.6567401656
2550284700.0 -0.7399524922 0.6669288301
2600284400.0 -0.7309577298 0.6767009945
2650284100.0 -0.7223165726 0.6870679254
2700283800.0 -0.7120736493 0.6972036348
2750283500.0 -0.7016666771 0.708104281
2800283200.0 -0.6916476155 0.7177546065
2850282900.0 -0.6812257497 0.7282441174
2900282600.0 -0.6706222684 0.7376165504
2950282300.0 -0.6601699977 0.7471055936
3000282000.0 -0.6495725866 0.7564683877
3050281700.0 -0.6382919673 0.7659448691
3100281400.0 -0.6269531769 0.7749552015
3150281100.0 -0.6157723519 0.7838634598
3200280800.0 -0.6042640675 0.7921616952
3250280500.0 -0.5932534955 0.8001390853
3300280200.0 -0.5815333288 0.8084754051
3350279900.0 -0.5692754461 0.8164284741
3400279600.0 -0.5565085946 0.8245062812
3450279300.0 -0.5455911003 0.831804739
3500279000.0 -0.5338270582 0.8385210627
3550278700.0 -0.5217613235 0.8455006647
3600278400.0 -0.5097794441 0.8521970568
3650278100.0 -0.4969564698 0.8599226276
3700277800.0 -0.4848286936 0.8665638047
3750277500.0 -0.4722550753 0.8730482194
3800277200.0 -0.4599502858 0.8796809443
3850276900.0 -0.4476975835 0.8856310407
3900276600.0 -0.4369554195 0.8912820151
3950276300.0 -0.424851273 0.897248519
4000276000.0 -0.4132699039 0.9029892788
4050275700.0 -0.4004296579 0.9092178707
4100275400.0 -0.3896951642 0.9143871547
4150275100.0 -0.3762023753 0.9205793313
4200274800.0 -0.3627292531 0.9257906664
4250274500.0 -0.3499883693 0.9313778654
4300274200.0 -0.3365052225 0.9369305446
4350273900.0 -0.3224916255 0.9422103252
4400273600.0 -0.3076558971 0.9474310654
4450273300.0 -0.2928476337 0.9520203902
4500273000.0 -0.2797999805 0.9562976212
4550272700.0 -0.2663305508 0.9604290681
4600272400.0 -0.2511931523 0.9645324291
4650272100.0 -0.2398980265 0.9676959113
4700271800.0 -0.2268304051 0.9709620537
4750271500.0 -0.2153562 0.9740728398
4800271200.0 -0.2030768776 0.9765940889
4850270900.0 -0.1893375686 0.9795388988
4900270600.0 -0.1755409951 0.9819020848
4950270300.0 -0.1609384394 0.9845667571
5000270000.0 -0.1464842685 0.9866314268
5050269700.0 -0.1330266115 0.9884602062
5100269400.0 -0.1188627343 0.9900728056
5150269100.0 -0.1047258993 0.9917197932
5200268800.0 -0.0913229149 0.9926631493
5250268500.0 -0.0784772327 0.9934853687
5300268200.0 -0.0647554165 0.99471162
5350267900.0 -0.051881336 0.9952501958
5400267600.0 -0.035639416 0.9962658032
5450267300.0 -0.0221698813 0.9966572386
5500267000.0 -0.0069123451 0.9970530849
5550266700.0 0.0080895611 0.9971941966
5600266400.0 0.0240285096 0.9972898706
5650266100.0 0.0405953047 0.9968488005
5700265800.0 0.0547532206 0.9956660643
5750265500.0 0.0695168345 0.9952002017
5800265200.0 0.0830317067 0.9940581112
5850264900.0 0.0962977258 0.9932368025
5900264600.0 0.1126274721 0.991048815
5950264300.0 0.1245586535 0.990031369
6000264000.0 0.1379305718 0.9881189293
6050263700.0 0.1497178205 0.9867946513
6100263400.0 0.1618538925 0.9851713546
6150263100.0 0.1763753687 0.9826276381
6200262800.0 0.1857961076 0.9811984328
6250262500.0 0.1984134964 0.9786553407
6300262200.0 0.2107143486 0.9763067457
6350261900.0 0.2234054687 0.9735324318
6400261600.0 0.2374432524 0.9703017513
6450261300.0 0.2482543482 0.9678206247
6500261000.0 0.2615507811 0.964018257
6550260700.0 0.2751349805 0.9600439001
6600260400.0 0.2885424487 0.9560343758
6650260100.0 0.3024613961 0.9516144936
6700259800.0 0.3148663144 0.9473360603
6750259500.0 0.3282918976 0.9424389929
6800259200.0 0.3422121499 0.9374459427
6850258900.0 0.3542626357 0.9319807959
6900258600.0 0.3671855291 0.9267929881
6950258300.0 0.3795957681 0.9213866347
7000258000.0 0.3911255888 0.9162679759
7050257700.0 0.4029227106 0.9103621789
7100257400.0 0.416640781 0.9041642727
7150257100.0 0.4272994139 0.8986623803
7200256800.0 0.4402104649 0.8921661268
7250256500.0 0.4528841931 0.8855937402
7300256200.0 0.4657406085 0.8786547762
7350255900.0 0.4788971646 0.8718440628
7400255600.0 0.4931764181 0.8640009172
7450255300.0 0.5082224589 0.8547550731
7500255000.0 0.5212564244 0.8474066979
7550254700.0 0.5359003757 0.8382135937
7600254400.0 0.547839689 0.830001477
7650254100.0 0.5596373922 0.8220990295
7700253800.0 0.5713143867 0.8137716365
7750253500.0 0.5820082133 0.8064099616
7800253200.0 0.5927902669 0.7983692544
7850252900.0 0.6024117872 0.7911030406
7900252600.0 0.6138362128 0.7825716976
7950252300.0 0.6222360763 0.7761890052
8000252000.0 0.6322770257 0.7687041646
8050251700.0 0.6427037671 0.7605086598
8100251400.0 0.6525409005 0.7525405481
8150251100.0 0.6624309394 0.7439035164
8200250800.0 0.6717971317 0.7358687489
8250250500.0 0.6808848315 0.7278060017
8300250200.0 0.6898305619 0.7195339515
8350249900.0 0.6989549566 0.7106596704
8400249600.0 0.7070202247 0.702719139
8450249300.0 0.71581775 0.6939736466
8500249000.0 0.7244220473 0.6852075489
8550248700.0 0.7328493124 0.676072497
8600248400.0 0.7412353898 0.6666957427
8650248100.0 0.7486018971 0.6572303945
8700247800.0 0.7580023022 0.6463176891
8750247500.0 0.7662797955 0.636013888
8800247200.0 0.7743073024 0.6259835306
8850246900.0 0.7828053355 0.6145125507
8900246600.0 0.7915477204 0.6031866204
8950246300.0 0.8005343347 0.5904791992
9000246000.0 0.8090171144 0.578524232
9050245700.0 0.8177852234 0.5661902052
9100245400.0 0.8258086702 0.5541904831
9150245100.0 0.8348181448 0.5412239099
9200244800.0 0.8442128594 0.5269697137
9250244500.0 0.852917531 0.5122439321
9300244200.0 0.8613120507 0.4989012915
9350243900.0 0.8686318287 0.4857394509
9400243600.0 0.8752094125 0.4741220289
9450243300.0 0.8808320834 0.463854017
9500243000.0 0.88703699 0.4521126103
9550242700.0 0.8909394547 0.444652843
9600242400.0 0.8951766756 0.437061431
9650242100.0 0.899364126 0.4300322974
9700241800.0 0.9047433886 0.4212348504
9750241500.0 0.9085095107 0.414161718
9800241200.0 0.9139122416 0.4041810067
9850240900.0 0.9193822777 0.3929246421
9900240600.0 0.9255797539 0.3806128557
9950240300.0 0.9327348969 0.3636321949
10000240000.0 0.9376532538 0.3515883193
10050239700.0 0.9439118497 0.3353711544
10100239400.0 0.9490773984 0.3189895266
10150239100.0 0.9539653875 0.3036052994
10200238800.0 0.9581121242 0.2880415774
10250238500.0 0.961373568 0.2743957456
10300238200.0 0.9646694449 0.2605630997
10350237900.0 0.9673268093 0.247003718
10400237600.0 0.9701436084 0.2334549682
10450237300.0 0.9726729691 0.219901641
10500237000.0 0.9749681602 0.2075790066
10550236700.0 0.977547235 0.1924213406
10600236400.0 0.9796623646 0.1789196579
10650236100.0 0.9814066559 0.1645882158
10700235800.0 0.983857269 0.1523890174
10750235500.0 0.9860458742 0.1386663922
10800235200.0 0.9880862382 0.124165021
10850234900.0 0.990129854 0.1093562681
10900234600.0 0.9919867659 0.0946014051
10950234300.0 0.993895972 0.0810716054
11000234000.0 0.9956429413 0.0655104605
11050233700.0 0.9973818962 0.0487812222
11100233400.0 0.9986781588 0.0309426395
11150233100.0 0.9996325429 0.0142378069
11200232800.0 1.001006124 -0.0019218268
11250232500.0 1.00161286 -0.0193807888
11300232200.0 1.00187772 -0.0389226221
11350231900.0 1.002764688 -0.0546955441
11400231600.0 1.001408491 -0.0699471375
11450231300.0 1.000820534 -0.085812222
11500231000.0 0.9995770534 -0.1016701723
11550230700.0 0.9986563458 -0.1159109361
11600230400.0 0.9969166525 -0.1276724191
11650230100.0 0.9944212236 -0.1397535805
11700229800.0 0.9924481476 -0.1546098951
11750229500.0 0.9897671075 -0.1687227996
11800229200.0 0.9872876122 -0.1823269128
11850228900.0 0.9835375497 -0.1938789399
11900228600.0 0.979874373 -0.2034598291
11950228300.0 0.9758917844 -0.2135359777
12000228000.0 0.9732610527 -0.2226671434
12050227700.0 0.9696179952 -0.235383627
12100227400.0 0.9666545523 -0.2460756378
12150227100.0 0.9614350569 -0.2624101303
12200226800.0 0.9583673315 -0.2745087022
12250226500.0 0.9535200361 -0.2866095599
12300226200.0 0.9496284398 -0.2986267493
12350225900.0 0.9445976353 -0.3125078053
12400225600.0 0.9401932299 -0.3248083212
12450225300.0 0.9355593569 -0.3371980063
12500225000.0 0.9300027146 -0.3522150298
12550224700.0 0.9246772756 -0.3663469064
12600224400.0 0.9197906337 -0.3787549
12650224100.0 0.9138275674 -0.3929213702
12700223800.0 0.9086821952 -0.4057263388
12750223500.0 0.9030412275 -0.4186663331
12800223200.0 0.8977057968 -0.4315492689
12850222900.0 0.8924620253 -0.4438345557
12900222600.0 0.8870009272 -0.4556484305
12950222300.0 0.880718145 -0.4681110314
13000222000.0 0.8752483528 -0.479770959
13050221700.0 0.8681354276 -0.492292561
13100221400.0 0.8611561183 -0.5052436654
13150221100.0 0.8543504024 -0.5172005025
13200220800.0 0.8473111548 -0.5286555492
13250220500.0 0.8399806995 -0.5405467175
13300220200.0 0.8323519489 -0.5517881388
13350219900.0 0.8242121386 -0.5637951531
13400219600.0 0.8158786545 -0.5753287139
13450219300.0 0.8067826361 -0.5884312812
13500219000.0 0.7966057695 -0.6016999323
13550218700.0 0.7870940669 -0.6142142726
13600218400.0 0.7771557159 -0.6256247156
13650218100.0 0.767920873 -0.6362132821
13700217800.0 0.7559591483 -0.6490640453
13750217500.0 0.7475709367 -0.6593371065
13800217200.0 0.7358455336 -0.6703970137
13850216900.0 0.7259154313 -0.6814179923
13900216600.0 0.715401939 -0.6900347047
13950216300.0 0.7055884848 -0.7006446724
14000216000.0 0.6955551081 -0.7089694168
14050215700.0 0.6865156455 -0.7174851855
14100215400.0 0.6764961847 -0.7264013112
14150215100.0 0.6675069025 -0.7350696458
14200214800.0 0.6580855393 -0.7439464993
14250214500.0 0.6476945249 -0.7534295248
14300214200.0 0.6370741765 -0.7628402926
14350213900.0 0.6258818707 -0.7725877349
14400213600.0 0.6143719486 -0.7822591812
14450213300.0 0.6013024219 -0.7923057433
14500213000.0 0.5879405433 -0.8024895829
14550212700.0 0.5754078812 -0.8118074855
14600212400.0 0.5636486908 -0.820384477
14650212100.0 0.5506909683 -0.8293227624
14700211800.0 0.5371696828 -0.8388290628
14750211500.0 0.5247669422 -0.8474108311
14800211200.0 0.5124806007 -0.8554541525
14850210900.0 0.5000157148 -0.8627677222
14900210600.0 0.4864604381 -0.8708516438
14950210300.0 0.4734172268 -0.8786870636
15000210000.0 0.4608435781 -0.8853492815
15050209700.0 0.4482556488 -0.8914752244
15100209400.0 0.4353421518 -0.897405001
15150209100.0 0.423413017 -0.9022061277
15200208800.0 0.4104538862 -0.9080272893
15250208500.0 0.3997650485 -0.9126815279
15300208200.0 0.3874939079 -0.9176397052
15350207900.0 0.3743363541 -0.9218481683
15400207600.0 0.35965676 -0.9275999352
15450207300.0 0.3448191137 -0.9326471933
15500207000.0 0.3304918993 -0.9372072542
15550206700.0 0.3156018612 -0.9417836031
15600206400.0 0.2999559163 -0.9468565308
15650206100.0 0.2839773716 -0.9508364162
15700205800.0 0.2705372681 -0.9543639511
15750205500.0 0.2563784837 -0.9576775475
15800205200.0 0.2425539314 -0.9611313728
15850204900.0 0.2283237529 -0.9646518799
15900204600.0 0.2133447562 -0.9682673413
15950204300.0 0.1990011468 -0.971401268
16000204000.0 0.1844009275 -0.9742926311
16050203700.0 0.1695265369 -0.9772284347
16100203400.0 0.1542636436 -0.9797203239
16150203100.0 0.1394840602 -0.9820037476
16200202800.0 0.1252948598 -0.9839396345
16250202500.0 0.1105077137 -0.9849555056
16300202200.0 0.0950214963 -0.986977157
16350201900.0 0.0800945166 -0.9892224866
16400201600.0 0.0651848013 -0.989964957
16450201300.0 0.0496849432 -0.9911458535
16500201000.0 0.0323715716 -0.9918519885
16550200700.0 0.0165311924 -0.9924565012
16600200400.0 0.0005900245 -0.992762672
16650200100.0 -0.015748099 -0.9925164903
16700199800.0 -0.0325538295 -0.9921805268
16750199500.0 -0.0508093947 -0.9912168896
16800199200.0 -0.067550372 -0.99043069
16850198900.0 -0.083088278 -0.9895100263
16900198600.0 -0.0965863368 -0.9881285556
16950198300.0 -0.1105663693 -0.9876128105
17000198000.0 -0.123209717 -0.9857717951
17050197700.0 -0.1353346095 -0.9839039557
17100197400.0 -0.1489184337 -0.9821917879
17150197100.0 -0.1618492129 -0.9798045971
17200196800.0 -0.1743763443 -0.9779892083
17250196500.0 -0.1873577048 -0.9754269603
17300196200.0 -0.1995287684 -0.9731324934
17350195900.0 -0.2113962645 -0.9705728579
17400195600.0 -0.223253824 -0.9681129961
17450195300.0 -0.2363311929 -0.965137116
17500195000.0 -0.2495131611 -0.9619877556
17550194700.0 -0.2632025589 -0.9585258612
17600194400.0 -0.2770851586 -0.9544672467
17650194100.0 -0.2908574069 -0.9505655341
17700193800.0 -0.3029948104 -0.9467255185
17750193500.0 -0.3179345241 -0.9418957037
17800193200.0 -0.3317745751 -0.9364131586
17850192900.0 -0.3468192184 -0.93113192
17900192600.0 -0.3619550189 -0.9249939225
17950192300.0 -0.3776066448 -0.9174967056
18000192000.0 -0.3919952194 -0.9103378598
18050191700.0 -0.4060453616 -0.9025364432
18100191400.0 -0.4200814592 -0.8948755102
18150191100.0 -0.4349225578 -0.8867970354
18200190800.0 -0.4517657178 -0.877705283
18250190500.0 -0.4687275537 -0.868441657
18300190200.0 -0.4840768273 -0.8595130532
18350189900.0 -0.4994898494 -0.8511045037
18400189600.0 -0.514076282 -0.8428031756
18450189300.0 -0.5274781787 -0.8347743103
18500189000.0 -0.5410749371 -0.8260419517
18550188700.0 -0.5539943485 -0.8191240544
18600188400.0 -0.5658580057 -0.8118302049
18650188100.0 -0.5769542267 -0.8056386459
18700187800.0 -0.5884342573 -0.7985387956
18750187500.0 -0.5989215974 -0.7920007703
18800187200.0 -0.6096447739 -0.7850590681
18850186900.0 -0.6197817023 -0.7781810048
18900186600.0 -0.6300028343 -0.7709957304
18950186300.0 -0.6401721752 -0.7631066114
19000186000.0 -0.6476255011 -0.7569487517
19050185700.0 -0.6571061646 -0.7495647813
19100185400.0 -0.6669321698 -0.7414440841
19150185100.0 -0.6766457804 -0.7334587803
19200184800.0 -0.6867178264 -0.7250148677
19250184500.0 -0.6966763786 -0.7158256753
19300184200.0 -0.7081006721 -0.7059671269
19350183900.0 -0.7186913063 -0.696052514
19400183600.0 -0.7291165999 -0.6867656784
19450183300.0 -0.7375399711 -0.6767258086
19500183000.0 -0.7455398846 -0.6661161832
19550182700.0 -0.7556113353 -0.6552630263
19600182400.0 -0.7658531247 -0.6437893286
19650182100.0 -0.7762888581 -0.6314781957
19700181800.0 -0.7868698946 -0.61832766
19750181500.0 -0.7970567406 -0.6041931099
19800181200.0 -0.8071659709 -0.5891675906
19850180900.0 -0.8167567575 -0.5739844799
19900180600.0 -0.8245389999 -0.5592576723
19950180300.0 -0.8336959073 -0.5432591129
20000180000.0 -0.8238032307 -0.547149894
20050179700.0 -0.8308729595 -0.5345898682
20100179400.0 -0.8393173927 -0.5204788545
20150179100.0 -0.8473096989 -0.5097989742
20200178800.0 -0.8563960151 -0.498086571
20250178500.0 -0.865306045 -0.4852929935
20300178200.0 -0.8751229206 -0.4714956384
20350177900.0 -0.8842922572 -0.4583183357
20400177600.0 -0.8936148645 -0.4436738388
20450177300.0 -0.9018157605 -0.4296259896
20500177000.0 -0.9098401029 -0.415706473
20550176700.0 -0.9177894654 -0.4022121131
20600176400.0 -0.9241125037 -0.3892473232
20650176100.0 -0.9306230828 -0.3771956861
20700175800.0 -0.9383616051 -0.3650719858
20750175500.0 -0.943773939 -0.3532558396
20800175200.0 -0.9483887385 -0.3428060849
20850174900.0 -0.9534791198 -0.3322968162
20900174600.0 -0.9579735626 -0.3201149678
20950174300.0 -0.9606628494 -0.3101083156
21000174000.0 -0.9631787137 -0.2993433643
21050173700.0 -0.9647254755 -0.2899937377
21100173400.0 -0.9687078749 -0.2786475323
21150173100.0 -0.9730917134 -0.2673295673
21200172800.0 -0.9767072697 -0.2537207769
21250172500.0 -0.9801280584 -0.2401426496
21300172200.0 -0.9834631931 -0.226234534
21350171900.0 -0.985670197 -0.2118923937
21400171600.0 -0.9869736724 -0.1975117448
21450171300.0 -0.9889843279 -0.1830240755
21500171000.0 -0.9888321049 -0.1693050368
21550170700.0 -0.9892422478 -0.1544242835
21600170400.0 -0.9896809342 -0.1379911831
21650170100.0 -0.9911505266 -0.1232185893
21700169800.0 -0.9912572539 -0.1075987546
21750169500.0 -0.990240061 -0.0907585646
21800169200.0 -0.9911015528 -0.0750733279
21850168900.0 -0.9900409367 -0.0578473848
21900168600.0 -0.989859895 -0.0421088857
21950168300.0 -0.9895207125 -0.0265181208
22000168000.0 -0.9892308055 -0.0109233825
22050167700.0 -0.9898006598 0.0036821671
22100167400.0 -0.9907731283 0.0192763623
22150167100.0 -0.9915314536 0.0355447581
22200166800.0 -0.9924794048 0.0519557941
22250166500.0 -0.9914868652 0.0695717298
22300166200.0 -0.9911201945 0.0859370012
22350165900.0 -0.9892068711 0.1016121777
22400165600.0 -0.9878057825 0.1176299115
22450165300.0 -0.9872432709 0.1324965818
22500165000.0 -0.9855337475 0.1463579163
22550164700.0 -0.9842259359 0.1641106893
22600164400.0 -0.9820854737 0.1799023373
22650164100.0 -0.978970027 0.194473387
22700163800.0 -0.9748229507 0.2114386668
22750163500.0 -0.9727037403 0.2263145646
22800163200.0 -0.969223008 0.2388265497
22850162900.0 -0.9665907396 0.2524167292
22900162600.0 -0.9647656285 0.2665501058
22950162300.0 -0.9630060477 0.2802601857
23000162000.0 -0.9608270223 0.2931575348
23050161700.0 -0.9586550516 0.3063780602
23100161400.0 -0.955897931 0.3201324085
23150161100.0 -0.9521672867 0.3335130592
23200160800.0 -0.950066708 0.3460703374
23250160500.0 -0.9470735643 0.3581730853
23300160200.0 -0.9441206074 0.3707647045
23350159900.0 -0.9403795191 0.3843980519
23400159600.0 -0.9354683798 0.3976742285
23450159300.0 -0.9294918379 0.4123969403
23500159000.0 -0.9253367761 0.4259706704
23550158700.0 -0.9202050877 0.4400054875
23600158400.0 -0.9140623954 0.4542475007
23650158100.0 -0.9068290743 0.4689096006
23700157800.0 -0.898268412 0.4829563506
23750157500.0 -0.8888284157 0.4973170447
23800157200.0 -0.8788050602 0.5105997841
23850156900.0 -0.8691922698 0.5237989473
23900156600.0 -0.8587474681 0.5360112564
23950156300.0 -0.849543083 0.5493410278
24000156000.0 -0.8399289076 0.5611645144
24050155700.0 -0.8293210003 0.5739163388
24100155400.0 -0.8192254361 0.5854820074
24150155100.0 -0.807840387 0.598809665
24200154800.0 -0.7969400288 0.6100136688
24250154500.0 -0.785808799 0.6222441383
24300154200.0 -0.7737658606 0.6346474944
24350153900.0 -0.7616420229 0.6454322142
24400153600.0 -0.7492707695 0.6561499329
24450153300.0 -0.7375081014 0.6666726021
24500153000.0 -0.725459706 0.6768911223
24550152700.0 -0.7143558436 0.687369267
24600152400.0 -0.7021183968 0.6962467272
24650152100.0 -0.6898644325 0.7048753347
