!Created with skrf (http://scikit-rf.org).
# Hz S RI R 50.0 
!freq ReS11 ImS11
300000.0 -0.9742332431 -0.1239286236
50299700.0 -0.9998136375 0.0149462794
100299400.0 -0.998006209 0.0277717569
150299100.0 -1.00261174 0.0448485966
200298800.0 -0.9996180423 0.0581254354
250298500.0 -0.9973529417 0.0715208211
300298200.0 -0.986101841 0.0873831869
350297900.0 -0.993877904 0.0983005757
400297600.0 -0.9930790239 0.1147501928
450297300.0 -0.9908749718 0.1286146421
500297000.0 -0.989465217 0.1432671759
550296700.0 -0.9842457738 0.155740789
600296400.0 -1.017254412 0.1888231067
650296100.0 -0.9819455915 0.1855882836
700295800.0 -0.9793758114 0.199993111
750295500.0 -0.9763556581 0.2138730142
800295200.0 -0.9730083319 0.2278994792
850294900.0 -0.969589026 0.2417786809
900294600.0 -0.9658492225 0.2555880294
950294300.0 -0.9621411622 0.2690782444
1000294000.0 -0.958218581 0.28329697
1050293700.0 -0.9537045199 0.2969440891
1100293400.0 -0.9494326601 0.3114762706
1150293100.0 -0.9454437208 0.3235480742
1200292800.0 -0.9403137066 0.3377500382
1250292500.0 -0.9348643598 0.3511562444
1300292200.0 -0.9291035691 0.3642101221
1350291900.0 -0.9233144759 0.3783016094
1400291600.0 -0.91794971 0.3914964897
1450291300.0 -0.9124684401 0.403939269
1500291000.0 -0.9062299634 0.4172470799
1550290700.0 -0.8997834896 0.4304986812
1600290400.0 -0.8935454621 0.4436179284
1650290100.0 -0.8869133779 0.4557854222
1700289800.0 -0.8797954659 0.4690965146
1750289500.0 -0.8729684341 0.4816257337
1800289200.0 -0.8655038862 0.4943732323
1850288900.0 -0.8587839742 0.5055856812
1900288600.0 -0.8511405297 0.5185609726
1950288300.0 -0.842867209 0.5312356715
2000288000.0 -0.8354481268 0.5425800292
2050287700.0 -0.8271742851 0.5553710939
2100287400.0 -0.819327993 0.5664170408
2150287100.0 -0.8108139158 0.5784613048
2200286800.0 -0.8032001837 0.58891608
2250286500.0 -0.794208389 0.6012949189
2300286200.0 -0.7854566825 0.6127830643
2350285900.0 -0.7769959744 0.6232173802
2400285600.0 -0.7679548472 0.6342292398
2450285300.0 -0.7594015749 0.6449241476
2500285000.0 -0.7490828625 0.6565871269
2550284700.0 -0.7402081723 0.6669358954
2600284400.0 -0.7309424161 0.6768010451
2650284100.0 -0.7226977205 0.6869136792
2700283800.0 -0.7116581245 0.6973995116
2750283500.0 -0.701401163 0.7081150153
2800283200.0 -0.691643481 0.7180381149
2850282900.0 -0.6814066167 0.7282708027
2900282600.0 -0.6708270942 0.7376284907
2950282300.0 -0.6602498811 0.7470038215
3000282000.0 -0.6495566509 0.7566564847
3050281700.0 -0.63855774 0.7658425041
3100281400.0 -0.6268885876 0.7750362397
3150281100.0 -0.6156907568 0.7839217107
3200280800.0 -0.6042000231 0.7921232812
3250280500.0 -0.5932728101 0.8001609267
3300280200.0 -0.5814639301 0.8084295522
3350279900.0 -0.5691776723 0.8165495362
3400279600.0 -0.5566545644 0.82456977
3450279300.0 -0.5454926724 0.8317463312
3500279000.0 -0.5337805892 0.8383602525
3550278700.0 -0.5217531634 0.8456839882
3600278400.0 -0.5100360841 0.8522438117
3650278100.0 -0.496759542 0.8597796805
3700277800.0 -0.4848272782 0.8662927307
3750277500.0 -0.4721470021 0.8731494607
3800277200.0 -0.4599227267 0.8795984747
3850276900.0 -0.4477679166 0.885486389
3900276600.0 -0.4368767654 0.8911450729
3950276300.0 -0.4250033121 0.8971128576
4000276000.0 -0.4131789391 0.9030651492
4050275700.0 -0.4006290491 0.9088731353
4100275400.0 -0.3897358255 0.9145270307
4150275100.0 -0.3762945466 0.920587103
4200274800.0 -0.3627563739 0.9261646936
4250274500.0 -0.3502639848 0.9313997275
4300274200.0 -0.3366518463 0.93689868
4350273900.0 -0.3226346929 0.942125842
4400273600.0 -0.3077149959 0.9470163938
4450273300.0 -0.2928955137 0.9524119757
4500273000.0 -0.2798231073 0.9563322968
4550272700.0 -0.2661195194 0.9604083427
4600272400.0 -0.2511947161 0.964629116
4650272100.0 -0.2399576389 0.9676723174
4700271800.0 -0.2269008922 0.9710808495
4750271500.0 -0.2153448512 0.9738683776
4800271200.0 -0.203214206 0.9767001211
4850270900.0 -0.1894768931 0.979343074
4900270600.0 -0.1755174219 0.9819107917
4950270300.0 -0.1611174693 0.9845384667
5000270000.0 -0.1464943764 0.9865414944
5050269700.0 -0.1328208338 0.9879343479
5100269400.0 -0.1187852637 0.9898835938
5150269100.0 -0.1047258878 0.9917697261
5200268800.0 -0.0915126739 0.9925663096
5250268500.0 -0.0780729428 0.9937447829
5300268200.0 -0.0648143443 0.9945684043
5350267900.0 -0.0518485375 0.9953476181
5400267600.0 -0.0355465871 0.9964302827
5450267300.0 -0.0223490225 0.9965493829
5500267000.0 -0.0067414951 0.9969817615
5550266700.0 0.0080688891 0.9971681106
5600266400.0 0.0238796737 0.9971171819
5650266100.0 0.0405748755 0.9966900037
5700265800.0 0.0546106822 0.9959621955
5750265500.0 0.0696128174 0.9951348995
5800265200.0 0.0833648462 0.9941387005
5850264900.0 0.0960613151 0.9929157271
5900264600.0 0.1129230097 0.9912901071
5950264300.0 0.1241996924 0.9896933511
6000264000.0 0.1377525997 0.9879284539
6050263700.0 0.1493790284 0.9865281378
6100263400.0 0.1615770602 0.9849095427
6150263100.0 0.1765086708 0.9828713965
6200262800.0 0.1858973717 0.9811123347
6250262500.0 0.1985325445 0.9787726906
6300262200.0 0.2106334086 0.9764517545
6350261900.0 0.2233858437 0.9735646784
6400261600.0 0.2373611624 0.9702024922
6450261300.0 0.2484749257 0.9677159029
6500261000.0 0.2620106037 0.9642407023
6550260700.0 0.2747421631 0.9602113029
6600260400.0 0.28874359 0.9564789382
6650260100.0 0.3023730851 0.951630971
6700259800.0 0.3145002912 0.9473479512
6750259500.0 0.3284493426 0.9425640333
6800259200.0 0.341765767 0.9374330719
6850258900.0 0.354337493 0.9320595417
6900258600.0 0.3667719203 0.9269211447
6950258300.0 0.3793215343 0.9215452559
7000258000.0 0.3911008017 0.9164062359
7050257700.0 0.4030127405 0.9105818103
7100257400.0 0.4162978977 0.9042540733
7150257100.0 0.4270721137 0.898596277
7200256800.0 0.4402900786 0.8921523379
7250256500.0 0.4529819484 0.8855659572
7300256200.0 0.4660026465 0.8788030324
7350255900.0 0.4790506721 0.8717818149
7400255600.0 0.4931064331 0.8639081607
7450255300.0 0.5085816739 0.8551187006
7500255000.0 0.5212046915 0.8473374275
7550254700.0 0.5347594666 0.8379420685
7600254400.0 0.5480555772 0.8298500006
7650254100.0 0.5596518391 0.82213642
7700253800.0 0.5711757756 0.8138237428
7750253500.0 0.5819591764 0.8063418177
7800253200.0 0.5925838916 0.7985220938
7850252900.0 0.6023782271 0.7911167711
7900252600.0 0.613837855 0.78267079
7950252300.0 0.6222384605 0.7763322377
8000252000.0 0.6321094743 0.768742249
8050251700.0 0.6423566765 0.7605799983
8100251400.0 0.6521283153 0.7525893314
8150251100.0 0.6624452434 0.7440784084
8200250800.0 0.6720025185 0.7357989767
8250250500.0 0.6806768621 0.7281080589
8300250200.0 0.6899328302 0.7198113267
8350249900.0 0.6990591853 0.710681172
8400249600.0 0.7067533978 0.7027611305
8450249300.0 0.7157984607 0.6943865241
8500249000.0 0.7245862874 0.6855059938
8550248700.0 0.7326608095 0.676347973
8600248400.0 0.7409970333 0.6667738252
8650248100.0 0.7485828063 0.6574371208
8700247800.0 0.7578380811 0.646454855
8750247500.0 0.7661916548 0.6363304323
8800247200.0 0.7743274058 0.6260067822
8850246900.0 0.782865984 0.6146944756
8900246600.0 0.7910119769 0.6031194598
8950246300.0 0.8003560937 0.5906165328
9000246000.0 0.8091887012 0.578629227
9050245700.0 0.8172697959 0.5662471609
9100245400.0 0.8256906479 0.554328365
9150245100.0 0.8347637884 0.5414989032
9200244800.0 0.8437725874 0.5271956325
9250244500.0 0.8530499901 0.5125269156
9300244200.0 0.8611409171 0.4990253129
9350243900.0 0.8687232597 0.4857804894
9400243600.0 0.8752023377 0.4741673437
9450243300.0 0.8807476301 0.4639275968
9500243000.0 0.8868649592 0.4523191992
9550242700.0 0.8910541941 0.4446275425
9600242400.0 0.895150126 0.4372598592
9650242100.0 0.8993860539 0.4302155755
9700241800.0 0.9045208123 0.4214124719
9750241500.0 0.9085020465 0.413988523
9800241200.0 0.9135851363 0.4044300265
9850240900.0 0.9194463576 0.3927700729
9900240600.0 0.9257003912 0.3807061549
9950240300.0 0.9327260106 0.3638727182
10000240000.0 0.9377150711 0.3518774271
10050239700.0 0.943899084 0.3356984895
10100239400.0 0.9491085067 0.3189161074
10150239100.0 0.9540022316 0.3033097661
10200238800.0 0.9581048204 0.2879209736
10250238500.0 0.9614385161 0.2744697347
10300238200.0 0.9646987982 0.2607026684
10350237900.0 0.9673686655 0.2471247648
10400237600.0 0.9700531578 0.2335341122
10450237300.0 0.9728445026 0.220131601
10500237000.0 0.9749957202 0.2076206008
10550236700.0 0.9773934836 0.1930527628
10600236400.0 0.9794939468 0.1795153758
10650236100.0 0.981357737 0.1651138735
10700235800.0 0.9837429634 0.1527766098
10750235500.0 0.9861068463 0.139163299
10800235200.0 0.9882776716 0.1241148927
10850234900.0 0.9897744998 0.1096217726
10900234600.0 0.9918982608 0.0946749181
10950234300.0 0.9937609446 0.0812205013
11000234000.0 0.995635011 0.065654018
11050233700.0 0.9973641921 0.0487644718
11100233400.0 0.9988536603 0.0311173162
11150233100.0 1.000132542 0.0141003403
11200232800.0 1.000948405 -0.0018571066
11250232500.0 1.001764813 -0.0194720847
11300232200.0 1.001737797 -0.0378406839
11350231900.0 1.001799277 -0.0541179369
11400231600.0 1.00191627 -0.0701110342
11450231300.0 1.000404491 -0.0858110417
11500231000.0 0.9994341242 -0.1024458906
11550230700.0 0.9982302717 -0.1149615685
11600230400.0 0.9969414782 -0.1280732195
11650230100.0 0.994813426 -0.1403653893
11700229800.0 0.9924965403 -0.1540141752
11750229500.0 0.9898681962 -0.1685552895
11800229200.0 0.9872086186 -0.1821286121
11850228900.0 0.9833311777 -0.1937844338
11900228600.0 0.9798220083 -0.2031186572
11950228300.0 0.9762723265 -0.2131879702
12000228000.0 0.9736472671 -0.2221885753
12050227700.0 0.9697260453 -0.235058127
12100227400.0 0.9669682627 -0.2457760434
12150227100.0 0.9612749786 -0.2620452978
12200226800.0 0.9579707391 -0.2737918666
12250226500.0 0.9538652342 -0.2867017356
12300226200.0 0.9497727406 -0.2985637521
12350225900.0 0.9443142761 -0.3124657682
12400225600.0 0.9404719977 -0.3247725971
12450225300.0 0.9357561904 -0.3370033457
12500225000.0 0.9300460498 -0.3518247366
12550224700.0 0.9246727302 -0.3656792617
12600224400.0 0.9198867823 -0.3783335936
12650224100.0 0.9138870519 -0.3926891158
12700223800.0 0.9086805983 -0.4055324791
12750223500.0 0.9032137495 -0.4187485444
12800223200.0 0.8978545026 -0.4314266047
12850222900.0 0.8926261242 -0.4433669418
12900222600.0 0.8872161072 -0.4552377422
12950222300.0 0.8811642324 -0.4681473953
13000222000.0 0.874785516 -0.479375465
13050221700.0 0.8684670802 -0.4921388877
13100221400.0 0.8612321212 -0.505108473
13150221100.0 0.8543839691 -0.5169712087
13200220800.0 0.8476339421 -0.5287269718
13250220500.0 0.8401771486 -0.5406621679
13300220200.0 0.8325280885 -0.5514308582
13350219900.0 0.8245896271 -0.5633826686
13400219600.0 0.8162551483 -0.5751935397
13450219300.0 0.8069919442 -0.5885421915
13500219000.0 0.7969615765 -0.6012516966
13550218700.0 0.7877435449 -0.6136183162
13600218400.0 0.7775289123 -0.6255020633
13650218100.0 0.7681965124 -0.6362815963
13700217800.0 0.7569243802 -0.6477426858
13750217500.0 0.7478966284 -0.6592615073
13800217200.0 0.7366698698 -0.6708602621
13850216900.0 0.7260757135 -0.6814295615
13900216600.0 0.7163227436 -0.6905099888
13950216300.0 0.705270579 -0.700430943
14000216000.0 0.6950397301 -0.7094947524
14050215700.0 0.6867248407 -0.7170379375
14100215400.0 0.6767869189 -0.7264326723
14150215100.0 0.6677946537 -0.7349290647
14200214800.0 0.6581123114 -0.7437350627
14250214500.0 0.6477222682 -0.7533303195
14300214200.0 0.6372325203 -0.7627092989
14350213900.0 0.6259621647 -0.772404494
14400213600.0 0.6145268079 -0.7823794422
14450213300.0 0.6014011463 -0.7923036905
14500213000.0 0.5880975232 -0.8021627585
14550212700.0 0.5758054735 -0.8122240775
14600212400.0 0.5634005958 -0.8206513008
14650212100.0 0.5511828844 -0.8288229867
14700211800.0 0.5374326967 -0.838715614
14750211500.0 0.5249142472 -0.8472895846
14800211200.0 0.5125281402 -0.8552990001
14850210900.0 0.5000712468 -0.8630377231
14900210600.0 0.4867895435 -0.8710074923
14950210300.0 0.4734473913 -0.8786856777
15000210000.0 0.4609164419 -0.8854584788
15050209700.0 0.4486069226 -0.8915927383
15100209400.0 0.4357951631 -0.8973377955
15150209100.0 0.4234968375 -0.9027101474
15200208800.0 0.4111352977 -0.9077455676
15250208500.0 0.399884363 -0.9121880534
15300208200.0 0.3879883979 -0.9169280895
15350207900.0 0.3753697022 -0.9222308547
15400207600.0 0.3595562415 -0.9273387842
15450207300.0 0.3454485391 -0.9322814263
15500207000.0 0.3303723 -0.9369829451
15550206700.0 0.3156830097 -0.9425652848
15600206400.0 0.2998021815 -0.9471523552
15650206100.0 0.2840786293 -0.9504318598
15700205800.0 0.270390564 -0.9540038473
15750205500.0 0.2564414256 -0.9575049529
15800205200.0 0.2426987537 -0.9609773665
15850204900.0 0.2283213361 -0.9646373164
15900204600.0 0.2133927409 -0.9683259227
15950204300.0 0.1990699811 -0.9714027831
16000204000.0 0.1847783471 -0.9744140309
16050203700.0 0.1692757358 -0.9773500968
16100203400.0 0.1542959606 -0.9796831312
16150203100.0 0.1397408249 -0.9820409242
16200202800.0 0.1256310449 -0.9843794966
16250202500.0 0.1103110833 -0.985693306
16300202200.0 0.0955175995 -0.9878946935
16350201900.0 0.0797490062 -0.9892635419
16400201600.0 0.0655595459 -0.9902501255
16450201300.0 0.0499571555 -0.9913394948
16500201000.0 0.0327563345 -0.9920837055
16550200700.0 0.0166183991 -0.9924996551
16600200400.0 0.0007385722 -0.9926605544
16650200100.0 -0.0151764208 -0.9926674433
16700199800.0 -0.0315583716 -0.9920776386
16750199500.0 -0.0507940101 -0.9918459589
16800199200.0 -0.0668727265 -0.9905737592
16850198900.0 -0.0819036874 -0.9898630055
16900198600.0 -0.0965374288 -0.9886577689
16950198300.0 -0.1100676762 -0.98737058
17000198000.0 -0.1234325665 -0.9860800003
17050197700.0 -0.1357160878 -0.9839984649
17100197400.0 -0.1493400939 -0.9816538759
17150197100.0 -0.1617614225 -0.9800792014
17200196800.0 -0.1748886503 -0.9779657802
17250196500.0 -0.1870837646 -0.9753616513
17300196200.0 -0.1994423478 -0.972951896
17350195900.0 -0.2114282412 -0.9705646764
17400195600.0 -0.2233176326 -0.9681658907
17450195300.0 -0.2360936553 -0.9653183578
17500195000.0 -0.2493013013 -0.9621063522
17550194700.0 -0.2632892965 -0.958538101
17600194400.0 -0.2769329874 -0.9545729837
17650194100.0 -0.2905808914 -0.9505325627
17700193800.0 -0.3034116861 -0.9466216799
17750193500.0 -0.3179393778 -0.9416724767
17800193200.0 -0.3322093273 -0.936351587
17850192900.0 -0.3466935426 -0.9311465821
17900192600.0 -0.3617627065 -0.9248080202
17950192300.0 -0.3774379559 -0.9176001128
18000192000.0 -0.3919846531 -0.9105560472
18050191700.0 -0.4058679757 -0.9024797925
18100191400.0 -0.4199679281 -0.8950082785
18150191100.0 -0.4347968971 -0.8869612511
18200190800.0 -0.451649806 -0.8779299955
18250190500.0 -0.4685914143 -0.8682308478
18300190200.0 -0.4840656942 -0.8595028572
18350189900.0 -0.4993040963 -0.851292311
18400189600.0 -0.5141694581 -0.8428228059
18450189300.0 -0.5274852567 -0.8345007001
18500189000.0 -0.5407937139 -0.8265957678
18550188700.0 -0.5531518777 -0.8191458185
18600188400.0 -0.5651641796 -0.8123091318
18650188100.0 -0.5767055083 -0.8057091572
18700187800.0 -0.5878140282 -0.7990392608
18750187500.0 -0.5985170671 -0.7925053484
18800187200.0 -0.6092015104 -0.7852778513
18850186900.0 -0.6193976246 -0.7784947651
18900186600.0 -0.6297054051 -0.7710643204
18950186300.0 -0.6400403892 -0.7634139537
19000186000.0 -0.6473684463 -0.7571845513
19050185700.0 -0.6567658908 -0.7498514513
19100185400.0 -0.6668552337 -0.7417986609
19150185100.0 -0.6769446001 -0.732720232
19200184800.0 -0.6868903913 -0.7247127551
19250184500.0 -0.6965325096 -0.7157937526
19300184200.0 -0.7074879576 -0.7066190779
19350183900.0 -0.7191823246 -0.6967637657
19400183600.0 -0.7294331089 -0.6859195464
19450183300.0 -0.7372439802 -0.6767685151
19500183000.0 -0.7457285082 -0.6660402975
19550182700.0 -0.7557626506 -0.6557167231
19600182400.0 -0.7658751004 -0.6438752295
19650182100.0 -0.7765110891 -0.6317775082
19700181800.0 -0.7867488715 -0.6183630501
19750181500.0 -0.7972850969 -0.604262575
19800181200.0 -0.8074243565 -0.5892703785
19850180900.0 -0.8168727888 -0.5740068775
19900180600.0 -0.8245313793 -0.559576523
19950180300.0 -0.833669739 -0.5433486481
20000180000.0 -0.8236408011 -0.5469495574
20050179700.0 -0.8318154268 -0.5342694292
20100179400.0 -0.8397183323 -0.5208177186
20150179100.0 -0.8473975159 -0.5097618431
20200178800.0 -0.8552183814 -0.4979055839
20250178500.0 -0.8652271781 -0.4856725505
20300178200.0 -0.8746837235 -0.4719949524
20350177900.0 -0.8842642518 -0.4578308266
20400177600.0 -0.8936325585 -0.4438446836
20450177300.0 -0.9019296193 -0.4295435524
20500177000.0 -0.9098275892 -0.415818683
20550176700.0 -0.9180439655 -0.4019762755
20600176400.0 -0.9245717076 -0.3887798482
20650176100.0 -0.9312385989 -0.3768510787
20700175800.0 -0.9387352779 -0.364754979
20750175500.0 -0.9446259621 -0.353456386
20800175200.0 -0.9482429576 -0.3420655344
20850174900.0 -0.9531614014 -0.33172632
20900174600.0 -0.9575598764 -0.3210962541
20950174300.0 -0.9611163996 -0.310135827
21000174000.0 -0.9644886068 -0.2986879436
21050173700.0 -0.9647467898 -0.2895688314
21100173400.0 -0.9693640601 -0.2790044906
21150173100.0 -0.9728786039 -0.267203194
21200172800.0 -0.9768450575 -0.254153971
21250172500.0 -0.9807476156 -0.2400241939
21300172200.0 -0.9836988123 -0.2263672551
21350171900.0 -0.9864163295 -0.2117050031
21400171600.0 -0.9879725264 -0.1979482438
21450171300.0 -0.9880340922 -0.1833198891
21500171000.0 -0.9884759801 -0.1679477527
21550170700.0 -0.9891160645 -0.1530744747
21600170400.0 -0.9904696214 -0.138098721
21650170100.0 -0.991111578 -0.1225154823
21700169800.0 -0.9910736289 -0.1072879964
21750169500.0 -0.990358163 -0.091020224
21800169200.0 -0.9902998827 -0.0747575271
21850168900.0 -0.9901168618 -0.0583976717
21900168600.0 -0.9893126147 -0.0411739129
21950168300.0 -0.9889077691 -0.0254729791
22000168000.0 -0.9895869724 -0.0106811931
22050167700.0 -0.9900175654 0.0037813156
22100167400.0 -0.9907972055 0.0193923751
22150167100.0 -0.991670521 0.0353926199
22200166800.0 -0.992031222 0.0522923665
22250166500.0 -0.9914584502 0.0692342051
22300166200.0 -0.9905245422 0.0859440517
22350165900.0 -0.9900902619 0.1025859557
22400165600.0 -0.9889790747 0.1173849295
22450165300.0 -0.9872286359 0.1322042852
22500165000.0 -0.9844161369 0.1471905848
22550164700.0 -0.9835434699 0.1634650599
22600164400.0 -0.9815482353 0.1798013929
22650164100.0 -0.9788558983 0.1951582635
22700163800.0 -0.9748180747 0.2111330453
22750163500.0 -0.972409331 0.2263186105
22800163200.0 -0.9688578227 0.2392220368
22850162900.0 -0.9666542011 0.2529679459
22900162600.0 -0.9650029399 0.2669874011
22950162300.0 -0.9628306975 0.2806534913
23000162000.0 -0.9612751891 0.2932230082
23050161700.0 -0.958968782 0.3065668777
23100161400.0 -0.9557547094 0.3199448363
23150161100.0 -0.9522082477 0.3329608262
23200160800.0 -0.9493277131 0.3461733152
23250160500.0 -0.9470862698 0.3588689626
23300160200.0 -0.9438439812 0.3707250676
23350159900.0 -0.9402221137 0.3846395286
23400159600.0 -0.9351940428 0.3989548404
23450159300.0 -0.9296953039 0.4126191153
23500159000.0 -0.9253157224 0.4258604419
23550158700.0 -0.9202882203 0.4402948314
23600158400.0 -0.9140103409 0.4542169967
23650158100.0 -0.9066232099 0.4691189052
23700157800.0 -0.897976473 0.4831376176
23750157500.0 -0.888593479 0.4975665075
23800157200.0 -0.8788477726 0.5110215219
23850156900.0 -0.8692520516 0.5240264563
23900156600.0 -0.8593774513 0.5361909277
23950156300.0 -0.8489919612 0.5491805922
24000156000.0 -0.8386897628 0.5615947107
24050155700.0 -0.8296695283 0.5739293585
24100155400.0 -0.8185270706 0.5860260081
24150155100.0 -0.8078067263 0.5981155146
24200154800.0 -0.796780995 0.6099255444
24250154500.0 -0.7847453301 0.6225677259
24300154200.0 -0.7740820784 0.6352959297
24350153900.0 -0.7618046104 0.6460686176
24400153600.0 -0.7492654848 0.6567639375
24450153300.0 -0.737307211 0.6668731482
24500153000.0 -0.7256609971 0.6768597586
24550152700.0 -0.713888447 0.6865619661
24600152400.0 -0.7018018179 0.6959487525
24650152100.0 -0.6903114753 0.7046396646
