!Created with skrf (http://scikit-rf.org).
# Hz S RI R 50.0 
!freq ReS11 ImS11
300000.0 -0.9739094844 -0.1209910909
50299700.0 -0.9998901258 0.0149125328
100299400.0 -0.9978491996 0.0278271168
150299100.0 -1.002754685 0.0448861984
200298800.0 -0.9994735002 0.0580510619
250298500.0 -0.997436321 0.0716367481
300298200.0 -0.9859471983 0.0874362003
350297900.0 -0.9938947093 0.0982722978
400297600.0 -0.9931869471 0.1150168281
450297300.0 -0.9909346575 0.1286104453
500297000.0 -0.9894012689 0.1435149686
550296700.0 -0.9841299046 0.1556790966
600296400.0 -1.017319696 0.1892003929
650296100.0 -0.9822297008 0.1857402145
700295800.0 -0.9792322358 0.2000096693
750295500.0 -0.9762462871 0.2139009028
800295200.0 -0.9729548864 0.228006668
850294900.0 -0.9696851636 0.2421016848
900294600.0 -0.9659005554 0.2556423347
950294300.0 -0.9621670901 0.2692299558
1000294000.0 -0.958090767 0.2832830546
1050293700.0 -0.9534307677 0.2970161307
1100293400.0 -0.9492729667 0.3114381582
1150293100.0 -0.9454973142 0.3234500163
1200292800.0 -0.9401235719 0.3376329676
1250292500.0 -0.9348536243 0.3510483565
1300292200.0 -0.9290215406 0.3643997699
1350291900.0 -0.9233965259 0.3785569605
1400291600.0 -0.9180393202 0.3916044913
1450291300.0 -0.9124374888 0.4040585386
1500291000.0 -0.9060385764 0.4172837927
1550290700.0 -0.8996981252 0.4305597078
1600290400.0 -0.8933315682 0.4437155069
1650290100.0 -0.8870196508 0.4559625316
1700289800.0 -0.8799897946 0.4691576564
1750289500.0 -0.87289792 0.4816419785
1800289200.0 -0.8656854483 0.4943886156
1850288900.0 -0.85858665 0.5058220303
1900288600.0 -0.8509092394 0.5186390093
1950288300.0 -0.8430477222 0.5313405288
2000288000.0 -0.8353915233 0.5427888341
2050287700.0 -0.827203996 0.5552113524
2100287400.0 -0.8192709137 0.5667450063
2150287100.0 -0.8107593312 0.5786608568
2200286800.0 -0.8032315173 0.5890646435
2250286500.0 -0.7941294197 0.6013292058
2300286200.0 -0.7850040706 0.6129460226
2350285900.0 -0.7768023399 0.6236232952
2400285600.0 -0.7681082221 0.6344647367
2450285300.0 -0.7592065002 0.6449051033
2500285000.0 -0.7491195129 0.6567045107
2550284700.0 -0.7402605811 0.6671332185
2600284400.0 -0.731025698 0.676954135
2650284100.0 -0.7221152356 0.6871473003
2700283800.0 -0.7116728127 0.6973677947
2750283500.0 -0.7015017894 0.7080860798
2800283200.0 -0.6911971166 0.7179789671
2850282900.0 -0.6811652785 0.7281350709
2900282600.0 -0.6707430663 0.7377719047
2950282300.0 -0.6602756121 0.7470548928
3000282000.0 -0.6495417322 0.7568187426
3050281700.0 -0.638547742 0.7659005947
3100281400.0 -0.6268496109 0.7749125751
3150281100.0 -0.6155248362 0.7839135954
3200280800.0 -0.6040892861 0.792343235
3250280500.0 -0.5930499466 0.8003266552
3300280200.0 -0.581441682 0.8084175077
3350279900.0 -0.5695054999 0.8166366142
3400279600.0 -0.5566662213 0.8245510425
3450279300.0 -0.5457335029 0.8316251255
3500279000.0 -0.5339362638 0.8386248202
3550278700.0 -0.5218945637 0.8457084886
3600278400.0 -0.5097433154 0.8523688482
3650278100.0 -0.4969124597 0.8598824088
3700277800.0 -0.4847774149 0.8666444473
3750277500.0 -0.4723079372 0.8732527171
3800277200.0 -0.4597876721 0.8795802463
3850276900.0 -0.4478363616 0.8856398046
3900276600.0 -0.4368355401 0.8914161032
3950276300.0 -0.4248888389 0.897000715
4000276000.0 -0.4130515032 0.9030707191
4050275700.0 -0.4003365686 0.9091923701
4100275400.0 -0.3891605237 0.9145918892
4150275100.0 -0.3759804863 0.9203573025
4200274800.0 -0.3626432383 0.9261395309
4250274500.0 -0.3499928499 0.9315847102
4300274200.0 -0.3366857999 0.9368051212
4350273900.0 -0.3225599217 0.9421349513
4400273600.0 -0.3079357193 0.9471417803
4450273300.0 -0.2928017033 0.9521468805
4500273000.0 -0.2796693776 0.9562441543
4550272700.0 -0.2659407588 0.960611973
4600272400.0 -0.2509544268 0.9647970118
4650272100.0 -0.2395725372 0.9677849788
4700271800.0 -0.2265878574 0.9710911019
4750271500.0 -0.2149239174 0.9739389067
4800271200.0 -0.2026372246 0.9767423425
4850270900.0 -0.1888610798 0.9795763414
4900270600.0 -0.1751771589 0.9819119401
4950270300.0 -0.1605234362 0.9846278829
5000270000.0 -0.146044413 0.9865026589
5050269700.0 -0.1327005233 0.988134274
5100269400.0 -0.118461639 0.9899844985
5150269100.0 -0.1047091482 0.9917629846
5200268800.0 -0.0914485765 0.9926469127
5250268500.0 -0.0781161448 0.9938139028
5300268200.0 -0.0647477354 0.9945159416
5350267900.0 -0.0518093453 0.9949904624
5400267600.0 -0.0357180835 0.9962563514
5450267300.0 -0.0221560581 0.9965121326
5500267000.0 -0.0068124812 0.9969001982
5550266700.0 0.0079771709 0.9971973428
5600266400.0 0.0238038134 0.9971797735
5650266100.0 0.0403744095 0.9966980363
5700265800.0 0.0548232241 0.9962324218
5750265500.0 0.0696888443 0.9951910484
5800265200.0 0.0833320614 0.9940943243
5850264900.0 0.0963494568 0.99326328
5900264600.0 0.1130319044 0.9913713891
5950264300.0 0.1245546988 0.989938817
6000264000.0 0.1381375144 0.9880475291
6050263700.0 0.1498926264 0.9864946598
6100263400.0 0.1621360036 0.9852058973
6150263100.0 0.1763569232 0.9826245773
6200262800.0 0.1863680038 0.9811712402
6250262500.0 0.1988768113 0.9787786363
6300262200.0 0.2112401374 0.9762641225
6350261900.0 0.2240012231 0.9732555596
6400261600.0 0.2378296464 0.9701075309
6450261300.0 0.2488240822 0.967636241
6500261000.0 0.2622371624 0.9640698519
6550260700.0 0.2756091545 0.9600970073
6600260400.0 0.2888740966 0.956130998
6650260100.0 0.3028845558 0.9515631648
6700259800.0 0.3150190466 0.9472801223
6750259500.0 0.3286499501 0.9424265193
6800259200.0 0.3420291192 0.9372303261
6850258900.0 0.3547141264 0.9320626279
6900258600.0 0.3671614767 0.9269464441
6950258300.0 0.3797101767 0.9215491472
7000258000.0 0.3914629183 0.9163505284
7050257700.0 0.4033154356 0.9104374888
7100257400.0 0.416665172 0.9040725369
7150257100.0 0.427331963 0.8985842039
7200256800.0 0.440300524 0.8921791423
7250256500.0 0.4530089799 0.885558871
7300256200.0 0.4656436363 0.8789691945
7350255900.0 0.4788517836 0.8718925189
7400255600.0 0.4927001231 0.8642493283
7450255300.0 0.5086279596 0.855142747
7500255000.0 0.5210161178 0.8474869409
7550254700.0 0.5352082534 0.838333639
7600254400.0 0.5475504933 0.8302035449
7650254100.0 0.5590092062 0.8221647785
7700253800.0 0.5706957498 0.8142340979
7750253500.0 0.5817767928 0.8064682591
7800253200.0 0.5923736787 0.7985958535
7850252900.0 0.6020947285 0.791564525
7900252600.0 0.613613474 0.7825979682
7950252300.0 0.6220873824 0.7763274248
8000252000.0 0.631986998 0.768788899
8050251700.0 0.6422858226 0.7605782956
8100251400.0 0.6524596045 0.7527653832
8150251100.0 0.6621791574 0.7440563822
8200250800.0 0.671540865 0.7360098371
8250250500.0 0.6808118043 0.7282089079
8300250200.0 0.6894563741 0.7199614639
8350249900.0 0.6993288997 0.7111181977
8400249600.0 0.7069893794 0.7028266618
8450249300.0 0.715807035 0.6942688178
8500249000.0 0.7244356952 0.6851917012
8550248700.0 0.7327216566 0.6762704137
8600248400.0 0.7411231534 0.6668422963
8650248100.0 0.7486553081 0.65752482
8700247800.0 0.758085704 0.6462813593
8750247500.0 0.7662628136 0.6362515667
8800247200.0 0.7742604569 0.626048337
8850246900.0 0.7829294601 0.6145805384
8900246600.0 0.7914200524 0.6029679832
8950246300.0 0.8005254914 0.590417903
9000246000.0 0.8093524409 0.5784394893
9050245700.0 0.8178930621 0.5660696205
9100245400.0 0.8260768087 0.5539680435
9150245100.0 0.8349527408 0.5410828154
9200244800.0 0.8447276529 0.526573416
9250244500.0 0.8536985392 0.5119418384
9300244200.0 0.8615339056 0.498417389
9350243900.0 0.8692661781 0.484908975
9400243600.0 0.8756799109 0.4733738132
9450243300.0 0.8813225275 0.4625682561
9500243000.0 0.8878746756 0.450868705
9550242700.0 0.891810167 0.4434107899
9600242400.0 0.8958614973 0.4358643527
9650242100.0 0.9001264665 0.4289493067
9700241800.0 0.9050280119 0.4202446804
9750241500.0 0.9089625719 0.4129529058
9800241200.0 0.9141503728 0.4031986871
9850240900.0 0.9200712634 0.3916321414
9900240600.0 0.9260668504 0.3798078132
9950240300.0 0.9329682202 0.3629596987
10000240000.0 0.9378803433 0.351011598
10050239700.0 0.9439538039 0.3349747484
10100239400.0 0.9494013636 0.3185228246
10150239100.0 0.954030858 0.3030800003
10200238800.0 0.9581259515 0.2876607102
10250238500.0 0.9615045322 0.2740157078
10300238200.0 0.9647265092 0.2602625074
10350237900.0 0.9674817613 0.2467951204
10400237600.0 0.9701864914 0.2330380769
10450237300.0 0.9728640835 0.2196846886
10500237000.0 0.9748470883 0.2080146997
10550236700.0 0.9771151105 0.193244851
10600236400.0 0.9796366124 0.1789261633
10650236100.0 0.9812348848 0.164549634
10700235800.0 0.9837431622 0.152150798
10750235500.0 0.985904044 0.1389961105
10800235200.0 0.9880021872 0.1242696963
10850234900.0 0.9900193332 0.1095937019
10900234600.0 0.9921697277 0.094383988
10950234300.0 0.9938908685 0.0811295004
11000234000.0 0.995578102 0.0655583396
11050233700.0 0.9973929464 0.0491574985
11100233400.0 0.9986880994 0.0314596771
11150233100.0 0.9996361701 0.0146567737
11200232800.0 1.001434779 -0.0013298823
11250232500.0 1.001467251 -0.0189876233
11300232200.0 1.002455312 -0.0378069206
11350231900.0 1.001842995 -0.0546069061
11400231600.0 1.002187489 -0.0694906542
11450231300.0 1.00101041 -0.0841711582
11500231000.0 0.9998103978 -0.1023392007
11550230700.0 0.9984684838 -0.1146510181
11600230400.0 0.9967302967 -0.127168052
11650230100.0 0.9946662532 -0.1388012918
11700229800.0 0.9924200094 -0.1534801003
11750229500.0 0.9901246747 -0.168144943
11800229200.0 0.9874524655 -0.181585827
11850228900.0 0.9838662008 -0.1933987929
11900228600.0 0.9798874149 -0.2028548208
11950228300.0 0.9764654264 -0.2128809363
12000228000.0 0.9735401815 -0.2218765835
12050227700.0 0.9701098287 -0.2347181829
12100227400.0 0.9666036245 -0.2454657477
12150227100.0 0.961674645 -0.262297915
12200226800.0 0.9583326094 -0.272891364
12250226500.0 0.9541521622 -0.2861191119
12300226200.0 0.9502194394 -0.298363718
12350225900.0 0.9443856795 -0.31190398
12400225600.0 0.9406933752 -0.3242401126
12450225300.0 0.9358915628 -0.3368670148
12500225000.0 0.9303822401 -0.3514891883
12550224700.0 0.9249923035 -0.3655360725
12600224400.0 0.920086624 -0.378201583
12650224100.0 0.9141990701 -0.3924245736
12700223800.0 0.9087602925 -0.4053735431
12750223500.0 0.9033079376 -0.4184911608
12800223200.0 0.8979604204 -0.430919573
12850222900.0 0.8928114886 -0.4432413066
12900222600.0 0.8874545329 -0.4548346625
12950222300.0 0.8812784671 -0.467682899
13000222000.0 0.8748940913 -0.4794491921
13050221700.0 0.8687401205 -0.4920295334
13100221400.0 0.8613092967 -0.5045105337
13150221100.0 0.8546894554 -0.5168174716
13200220800.0 0.8481104714 -0.5278493651
13250220500.0 0.8401848655 -0.5404177883
13300220200.0 0.8329622377 -0.5512777528
13350219900.0 0.8248323967 -0.5632348263
13400219600.0 0.8164728919 -0.5750243737
13450219300.0 0.8071514476 -0.5880331718
13500219000.0 0.7974229414 -0.6011801334
13550218700.0 0.7874949373 -0.6135298885
13600218400.0 0.7774769461 -0.6253731634
13650218100.0 0.7678163398 -0.6363529451
13700217800.0 0.7573884557 -0.6482617371
13750217500.0 0.7475493775 -0.6590691158
13800217200.0 0.7364706494 -0.6702603625
13850216900.0 0.7258587053 -0.6807227401
13900216600.0 0.7159918543 -0.6904292154
13950216300.0 0.7051304086 -0.7004539965
14000216000.0 0.695539552 -0.7090023294
14050215700.0 0.6859810025 -0.7180829172
14100215400.0 0.6764837502 -0.7265442178
14150215100.0 0.6672005677 -0.7352814958
14200214800.0 0.6578675809 -0.7439213936
14250214500.0 0.647632093 -0.7534673459
14300214200.0 0.6371168199 -0.7626779294
14350213900.0 0.6262343996 -0.7726839129
14400213600.0 0.6143251585 -0.7824391517
14450213300.0 0.6012955652 -0.7928137616
14500213000.0 0.5885024956 -0.8026088329
14550212700.0 0.5753799059 -0.8119145919
14600212400.0 0.5637398379 -0.8209019393
14650212100.0 0.5508548402 -0.8290960493
14700211800.0 0.5371674035 -0.8388268215
14750211500.0 0.5251970165 -0.8471485673
14800211200.0 0.5124190078 -0.8553923026
14850210900.0 0.5000974537 -0.8631788319
14900210600.0 0.4864859534 -0.8709721621
14950210300.0 0.4731711137 -0.8787439151
15000210000.0 0.4607701185 -0.8855563812
15050209700.0 0.4483177307 -0.8915388834
15100209400.0 0.43494872 -0.8974464898
15150209100.0 0.4232446488 -0.9029488392
15200208800.0 0.410611365 -0.9082178382
15250208500.0 0.3998599939 -0.9124214265
15300208200.0 0.3870231512 -0.9169467569
15350207900.0 0.3736512704 -0.9216788535
15400207600.0 0.3598713313 -0.9278809781
15450207300.0 0.3448811687 -0.9335177331
15500207000.0 0.3309753551 -0.937621642
15550206700.0 0.3159720338 -0.9419743642
15600206400.0 0.3000009017 -0.9471290361
15650206100.0 0.2838395761 -0.9504270582
15700205800.0 0.2702459771 -0.9540555603
15750205500.0 0.2563966266 -0.9575941057
15800205200.0 0.2422406741 -0.9612512858
15850204900.0 0.2279853126 -0.9646586986
15900204600.0 0.2129626569 -0.9684104505
15950204300.0 0.1985556885 -0.9716170162
16000204000.0 0.184161458 -0.9746458256
16050203700.0 0.1691958091 -0.9772923092
16100203400.0 0.1537479813 -0.9795413427
16150203100.0 0.1392253406 -0.9818509726
16200202800.0 0.1250971721 -0.98456348
16250202500.0 0.1104676697 -0.9859925299
16300202200.0 0.0948305139 -0.9873670459
16350201900.0 0.080038406 -0.9891347802
16400201600.0 0.0654801523 -0.9897592633
16450201300.0 0.0497765308 -0.9912244151
16500201000.0 0.0328180851 -0.9921258824
16550200700.0 0.0165658209 -0.9927061112
16600200400.0 0.0006142976 -0.9927255055
16650200100.0 -0.0154637132 -0.9926298521
16700199800.0 -0.0316195411 -0.9922515451
16750199500.0 -0.0507723654 -0.9919057265
16800199200.0 -0.0667241361 -0.9903242678
16850198900.0 -0.0821620442 -0.9895084047
16900198600.0 -0.0963411183 -0.9886882049
16950198300.0 -0.1103228863 -0.9872017121
17000198000.0 -0.1232519292 -0.9860828464
17050197700.0 -0.135988397 -0.9840899964
17100197400.0 -0.1491021464 -0.9814457066
17150197100.0 -0.1621326127 -0.980070494
17200196800.0 -0.174282928 -0.9780143109
17250196500.0 -0.1873462319 -0.9755838833
17300196200.0 -0.1996964999 -0.9732422222
17350195900.0 -0.2112732617 -0.9708196102
17400195600.0 -0.2231781469 -0.9682436461
17450195300.0 -0.2360981836 -0.9654135631
17500195000.0 -0.2494245478 -0.9620888545
17550194700.0 -0.2629784657 -0.9586386379
17600194400.0 -0.2768548881 -0.9549225689
17650194100.0 -0.2903058194 -0.9506468394
17700193800.0 -0.3032854625 -0.9463689297
17750193500.0 -0.3176872159 -0.9416088834
17800193200.0 -0.3318041198 -0.9369395148
17850192900.0 -0.3466196005 -0.9312748646
17900192600.0 -0.3616057255 -0.9252858838
17950192300.0 -0.377299863 -0.9179965102
18000192000.0 -0.3920529511 -0.9108415549
18050191700.0 -0.4060226963 -0.9029123494
18100191400.0 -0.4200622575 -0.8950179667
18150191100.0 -0.4348239169 -0.8870101295
18200190800.0 -0.4517127698 -0.8780891461
18250190500.0 -0.46884388 -0.8684784766
18300190200.0 -0.4843205776 -0.8595734843
18350189900.0 -0.499359795 -0.8509954322
18400189600.0 -0.513964688 -0.8423424951
18450189300.0 -0.5272599872 -0.8349771697
18500189000.0 -0.5408885411 -0.8267281931
18550188700.0 -0.5539617392 -0.8191166295
18600188400.0 -0.565663167 -0.8117478081
18650188100.0 -0.5770751322 -0.8057829533
18700187800.0 -0.5875544895 -0.7989443106
18750187500.0 -0.5987995261 -0.7922649991
18800187200.0 -0.6093483578 -0.7853867382
18850186900.0 -0.6194562323 -0.7784783882
18900186600.0 -0.6298956726 -0.7711041868
18950186300.0 -0.6399524221 -0.7633809242
19000186000.0 -0.6475602709 -0.7572268848
19050185700.0 -0.6566316419 -0.7502039914
19100185400.0 -0.6668485962 -0.7411022127
19150185100.0 -0.6764245506 -0.7337035126
19200184800.0 -0.6863258691 -0.7251150399
19250184500.0 -0.6958773619 -0.7160747247
19300184200.0 -0.7079698815 -0.7062382804
19350183900.0 -0.7186021191 -0.6971146752
19400183600.0 -0.7283686943 -0.6872872188
19450183300.0 -0.7377418123 -0.6770993259
19500183000.0 -0.7453620131 -0.6664734673
19550182700.0 -0.7549585017 -0.6562352847
19600182400.0 -0.7655901963 -0.6442126784
19650182100.0 -0.7759266472 -0.6317033728
19700181800.0 -0.7866112276 -0.6184641232
19750181500.0 -0.7967811662 -0.6043441785
19800181200.0 -0.8072068354 -0.5894177668
19850180900.0 -0.8166803546 -0.5742792645
19900180600.0 -0.8244907186 -0.5599262463
19950180300.0 -0.8334970963 -0.5433013655
20000180000.0 -0.8237156924 -0.547062724
20050179700.0 -0.8321403569 -0.5342523767
20100179400.0 -0.8396027247 -0.5208748508
20150179100.0 -0.8472276132 -0.5098217024
20200178800.0 -0.8565329009 -0.4979188799
20250178500.0 -0.865722958 -0.4852693377
20300178200.0 -0.8757101311 -0.4710280784
20350177900.0 -0.8850040079 -0.4575835017
20400177600.0 -0.8936751813 -0.4431093377
20450177300.0 -0.9021256896 -0.4288305278
20500177000.0 -0.910301065 -0.4149103276
20550176700.0 -0.9180548843 -0.4016037554
20600176400.0 -0.925147372 -0.3886513935
20650176100.0 -0.9314306919 -0.3763664379
20700175800.0 -0.9381453509 -0.3644830994
20750175500.0 -0.9446365089 -0.3528951198
20800175200.0 -0.949162972 -0.3414138236
20850174900.0 -0.9539073309 -0.3307676486
20900174600.0 -0.9580625849 -0.3202868814
20950174300.0 -0.9612658509 -0.3093518272
21000174000.0 -0.9643801827 -0.2986706453
21050173700.0 -0.9656998027 -0.2891092791
21100173400.0 -0.9698329355 -0.2775694211
21150173100.0 -0.9740816031 -0.2660895276
21200172800.0 -0.977591259 -0.2523651472
21250172500.0 -0.9813413258 -0.2390645791
21300172200.0 -0.9845528911 -0.2252110728
21350171900.0 -0.9862835199 -0.2104964376
21400171600.0 -0.9885669965 -0.1961610332
21450171300.0 -0.9891522246 -0.1822771348
21500171000.0 -0.9893549354 -0.1677138549
21550170700.0 -0.9909030958 -0.1517540429
21600170400.0 -0.9912245507 -0.1371670887
21650170100.0 -0.9904553926 -0.1207682731
21700169800.0 -0.9894553779 -0.1064246667
21750169500.0 -0.9902924889 -0.0897756855
21800169200.0 -0.9910035623 -0.0725289872
21850168900.0 -0.9898609475 -0.0555968503
21900168600.0 -0.9893650372 -0.040153752
21950168300.0 -0.9890187698 -0.0240617764
22000168000.0 -0.9885673118 -0.0093082403
22050167700.0 -0.9892855883 0.0052412065
22100167400.0 -0.9897047982 0.0209273282
22150167100.0 -0.9904537444 0.0365910452
22200166800.0 -0.9912980412 0.0533742221
22250166500.0 -0.9910307406 0.0699484167
22300166200.0 -0.9904150456 0.086923516
22350165900.0 -0.9891019616 0.1035334121
22400165600.0 -0.9878362228 0.1187058248
22450165300.0 -0.9860714767 0.1346392077
22500165000.0 -0.9847392563 0.1487458011
22550164700.0 -0.9825656465 0.1646521062
22600164400.0 -0.980825234 0.1800024124
22650164100.0 -0.9776517701 0.1962776933
22700163800.0 -0.9750467252 0.2118548527
22750163500.0 -0.9716040414 0.2267817025
22800163200.0 -0.9686765725 0.2399605874
22850162900.0 -0.9660168017 0.2532451074
22900162600.0 -0.9641962429 0.267340489
22950162300.0 -0.9626203587 0.2810915708
23000162000.0 -0.9607995352 0.2936141374
23050161700.0 -0.95831183 0.3067658497
23100161400.0 -0.9556404674 0.3208481708
23150161100.0 -0.9524077774 0.3334452
23200160800.0 -0.949334765 0.3458764457
23250160500.0 -0.9467746838 0.358242689
23300160200.0 -0.9440610373 0.3704582309
23350159900.0 -0.9401152911 0.3844169876
23400159600.0 -0.935486524 0.3986097447
23450159300.0 -0.9304715652 0.4120868536
23500159000.0 -0.9249804931 0.4255883745
23550158700.0 -0.9201177408 0.4400983011
23600158400.0 -0.9140100056 0.4537158268
23650158100.0 -0.9070592485 0.4682250377
23700157800.0 -0.8984880621 0.4823823619
23750157500.0 -0.8891896977 0.496919751
23800157200.0 -0.8796205546 0.5103821453
23850156900.0 -0.8701727678 0.5229921988
23900156600.0 -0.8600078191 0.535970001
23950156300.0 -0.8499100776 0.5486155304
24000156000.0 -0.8408049559 0.5603516324
24050155700.0 -0.8300080269 0.5730595239
24100155400.0 -0.8207184366 0.5851781654
24150155100.0 -0.8088712525 0.5971970731
24200154800.0 -0.7981830313 0.6088496694
24250154500.0 -0.7865138458 0.6217870728
24300154200.0 -0.7753297737 0.6337365605
24350153900.0 -0.7632788447 0.6443985629
24400153600.0 -0.7507719997 0.6550307885
24450153300.0 -0.7390110081 0.6654440415
24500153000.0 -0.7271598098 0.6757500987
24550152700.0 -0.715621451 0.6852580634
24600152400.0 -0.7036808514 0.6945713499
24650152100.0 -0.6915771037 0.7037125072
