!Created with skrf (http://scikit-rf.org).
# Hz S RI R 50.0 
!freq ReS11 ImS11
300000.0 -0.9734984916 -0.1192840839
50299700.0 -0.999969078 0.0150293418
100299400.0 -0.9979157409 0.0280447393
150299100.0 -1.002792483 0.0447985225
200298800.0 -0.9996728377 0.0582083234
250298500.0 -0.9973451642 0.0715919968
300298200.0 -0.9858975389 0.0874200839
350297900.0 -0.993825376 0.0983193213
400297600.0 -0.9930837981 0.1148811435
450297300.0 -0.9910001405 0.1287334335
500297000.0 -0.98938976 0.1432720059
550296700.0 -0.9843313365 0.1558188179
600296400.0 -1.017135889 0.1894385236
650296100.0 -0.9823159921 0.1857495161
700295800.0 -0.9793991407 0.2000217448
750295500.0 -0.9762213543 0.2140643992
800295200.0 -0.9728200529 0.2282949495
850294900.0 -0.9696083509 0.241853255
900294600.0 -0.9657689869 0.2557704057
950294300.0 -0.9621393131 0.2693132287
1000294000.0 -0.9579973552 0.283159046
1050293700.0 -0.9536796911 0.2972349599
1100293400.0 -0.9493115668 0.3114917804
1150293100.0 -0.945510755 0.3232871067
1200292800.0 -0.9400242365 0.337921987
1250292500.0 -0.9345080513 0.3512461029
1300292200.0 -0.9290053856 0.3643884813
1350291900.0 -0.9234041901 0.3784188821
1400291600.0 -0.9179302561 0.3915600138
1450291300.0 -0.9123810958 0.4041034694
1500291000.0 -0.9061393229 0.4171879212
1550290700.0 -0.8996581412 0.4307911318
1600290400.0 -0.8935719823 0.4436361303
1650290100.0 -0.8868858312 0.4558627361
1700289800.0 -0.87987044 0.4691602509
1750289500.0 -0.8728216792 0.4814477858
1800289200.0 -0.8655072192 0.4944744989
1850288900.0 -0.8587842001 0.5057749665
1900288600.0 -0.8508408402 0.5187111231
1950288300.0 -0.8431119904 0.5313944438
2000288000.0 -0.835600558 0.5429500413
2050287700.0 -0.8271659394 0.5551979446
2100287400.0 -0.8193628982 0.5666329459
2150287100.0 -0.8109359199 0.5785586873
2200286800.0 -0.8030602791 0.589225403
2250286500.0 -0.7942259422 0.6013184197
2300286200.0 -0.7852615274 0.6128774239
2350285900.0 -0.7769413763 0.6233249902
2400285600.0 -0.7678734856 0.6345338831
2450285300.0 -0.7592743249 0.6450677545
2500285000.0 -0.7491943921 0.6564521383
2550284700.0 -0.740316316 0.6670676148
2600284400.0 -0.7311989099 0.6769095061
2650284100.0 -0.7222955563 0.6872595693
2700283800.0 -0.7118221829 0.6977179247
2750283500.0 -0.7012837082 0.7082963003
2800283200.0 -0.6915881877 0.7180639407
2850282900.0 -0.6813583288 0.728251141
2900282600.0 -0.6707448244 0.7378112855
2950282300.0 -0.6603714556 0.7472743831
3000282000.0 -0.6495498696 0.7565688158
3050281700.0 -0.6384157829 0.7657887879
3100281400.0 -0.626882074 0.7749310372
3150281100.0 -0.6154673911 0.7839422099
3200280800.0 -0.6041391381 0.792311513
3250280500.0 -0.593031319 0.8002431625
3300280200.0 -0.5814052471 0.8082963958
3350279900.0 -0.5694763577 0.8162468949
3400279600.0 -0.5569100835 0.8244873567
3450279300.0 -0.5458342445 0.8314274847
3500279000.0 -0.5341255617 0.8384067538
3550278700.0 -0.5217963436 0.845551873
3600278400.0 -0.5100555457 0.8524063192
3650278100.0 -0.4968816519 0.8599070653
3700277800.0 -0.4845864679 0.8664829693
3750277500.0 -0.472305059 0.8731187744
3800277200.0 -0.459914203 0.879787246
3850276900.0 -0.4479238562 0.8855322408
3900276600.0 -0.4368725777 0.8912929959
3950276300.0 -0.4247368942 0.897078835
4000276000.0 -0.4131302872 0.9030647219
4050275700.0 -0.4003130007 0.9093231192
4100275400.0 -0.3891668519 0.9146912144
4150275100.0 -0.3759145774 0.9204097553
4200274800.0 -0.3628673683 0.9258869255
4250274500.0 -0.3502381052 0.9312430351
4300274200.0 -0.337123452 0.936462168
4350273900.0 -0.3228527343 0.9419930433
4400273600.0 -0.3081039077 0.9471022207
4450273300.0 -0.2931227188 0.9522077477
4500273000.0 -0.2800502694 0.9564014093
4550272700.0 -0.2661889618 0.9606650614
4600272400.0 -0.2510525859 0.9645921965
4650272100.0 -0.2396031138 0.9678318669
4700271800.0 -0.2264684993 0.9711020652
4750271500.0 -0.2149380857 0.9741097002
4800271200.0 -0.2025700559 0.9767681836
4850270900.0 -0.1887368164 0.9794922531
4900270600.0 -0.1749808773 0.9820669433
4950270300.0 -0.1603555759 0.9844901766
5000270000.0 -0.1460897865 0.9867541406
5050269700.0 -0.1324162865 0.9882194142
5100269400.0 -0.1184913538 0.9898291059
5150269100.0 -0.1047582543 0.9920121254
5200268800.0 -0.0914878033 0.9926829844
5250268500.0 -0.0784163148 0.9936022204
5300268200.0 -0.0648265116 0.9947613335
5350267900.0 -0.0520436685 0.9953976991
5400267600.0 -0.0358927719 0.996186986
5450267300.0 -0.0224634256 0.9964835574
5500267000.0 -0.00738474 0.9969707556
5550266700.0 0.0075698179 0.9972181787
5600266400.0 0.0230717824 0.9970922435
5650266100.0 0.0400087608 0.9966675849
5700265800.0 0.0541289256 0.9960134427
5750265500.0 0.0690385929 0.9950670574
5800265200.0 0.0826027948 0.9938106294
5850264900.0 0.0959333897 0.9934069625
5900264600.0 0.1124873166 0.9912614018
5950264300.0 0.1244356871 0.990034359
6000264000.0 0.1378901145 0.9878714802
6050263700.0 0.1499799428 0.9869450188
6100263400.0 0.162115048 0.9848487918
6150263100.0 0.1765286836 0.9825989348
6200262800.0 0.1863367564 0.9809900323
6250262500.0 0.1989472165 0.9787086066
6300262200.0 0.211289362 0.9761355472
6350261900.0 0.2243149163 0.9732082894
6400261600.0 0.2380835993 0.9699632468
6450261300.0 0.249220066 0.9674633491
6500261000.0 0.2626778025 0.9640358764
6550260700.0 0.2754222633 0.9600108921
6600260400.0 0.2890910794 0.9559771809
6650260100.0 0.3031698976 0.9514388386
6700259800.0 0.3151740258 0.9472522229
6750259500.0 0.328998992 0.9422947489
6800259200.0 0.3424227488 0.9371507046
6850258900.0 0.3548435272 0.9319988442
6900258600.0 0.3674676871 0.9267864358
6950258300.0 0.379561692 0.9214669613
7000258000.0 0.3914818181 0.9162369017
7050257700.0 0.4034559839 0.9104760028
7100257400.0 0.4167042474 0.9039125824
7150257100.0 0.4272539261 0.8984679383
7200256800.0 0.4401555254 0.8921488546
7250256500.0 0.452667309 0.88539953
7300256200.0 0.4657946099 0.8791464857
7350255900.0 0.4783169198 0.8717503797
7400255600.0 0.4927717586 0.8645096499
7450255300.0 0.5083122391 0.8554765948
7500255000.0 0.5203280016 0.8480243945
7550254700.0 0.534197974 0.8389362681
7600254400.0 0.5468561438 0.8306191738
7650254100.0 0.5584535574 0.8227003242
7700253800.0 0.5698598652 0.8148739058
7750253500.0 0.5812819021 0.8070674205
7800253200.0 0.5917244622 0.7992603506
7850252900.0 0.6014416835 0.7921405654
7900252600.0 0.6129460891 0.7833671792
7950252300.0 0.6216569298 0.7769617606
8000252000.0 0.6317297421 0.7694765272
8050251700.0 0.6419299711 0.7610794559
8100251400.0 0.6519649228 0.7531871142
8150251100.0 0.6617100208 0.7446337574
8200250800.0 0.6710751117 0.7365607098
8250250500.0 0.6802324597 0.7288008934
8300250200.0 0.6897607532 0.7199497292
8350249900.0 0.6989329303 0.7115051034
8400249600.0 0.7067796005 0.7033091707
8450249300.0 0.7156428592 0.6945543542
8500249000.0 0.7242802814 0.685574277
8550248700.0 0.7325570927 0.6766747497
8600248400.0 0.7408767708 0.6671121246
8650248100.0 0.7485684845 0.6577228421
8700247800.0 0.757987168 0.6466927109
8750247500.0 0.7661889044 0.6365020642
8800247200.0 0.7742621495 0.6262372242
8850246900.0 0.7829430194 0.6145729357
8900246600.0 0.7914031029 0.6033456727
8950246300.0 0.800685733 0.59073548
9000246000.0 0.8093807292 0.5785481917
9050245700.0 0.8181665136 0.56599178
9100245400.0 0.8265635411 0.5539080852
9150245100.0 0.835215874 0.5408965929
9200244800.0 0.8448179303 0.5264324808
9250244500.0 0.8540098851 0.5115940341
9300244200.0 0.8620779736 0.4978430306
9350243900.0 0.8699268405 0.4846172166
9400243600.0 0.87636149 0.472551031
9450243300.0 0.8820579824 0.4619051223
9500243000.0 0.8882311197 0.4499886246
9550242700.0 0.8921960758 0.4424025801
9600242400.0 0.8965462614 0.4349723938
9650242100.0 0.9006446463 0.4280467733
9700241800.0 0.9051730291 0.4194706311
9750241500.0 0.9095961781 0.4117279964
9800241200.0 0.9147388199 0.4024641567
9850240900.0 0.9203757796 0.3906257428
9900240600.0 0.9261424771 0.378777307
9950240300.0 0.9331563575 0.3624401867
10000240000.0 0.9376611186 0.3507225368
10050239700.0 0.9443207236 0.3342829465
10100239400.0 0.949392473 0.3184270823
10150239100.0 0.9538122814 0.3030012458
10200238800.0 0.9581561345 0.287477308
10250238500.0 0.9614492153 0.2742412831
10300238200.0 0.9645988673 0.2600796508
10350237900.0 0.9673633409 0.2469383396
10400237600.0 0.9698573211 0.2334945541
10450237300.0 0.9727910936 0.2197363607
10500237000.0 0.9747397982 0.2077721799
10550236700.0 0.9771551533 0.1931887986
10600236400.0 0.9797332321 0.1790292646
10650236100.0 0.9818774408 0.1646355775
10700235800.0 0.9835422102 0.1526807325
10750235500.0 0.9858912771 0.1391079171
10800235200.0 0.988095186 0.1244509173
10850234900.0 0.9900413331 0.1096429221
10900234600.0 0.9917952036 0.0950076446
10950234300.0 0.9935434434 0.0815349619
11000234000.0 0.995520327 0.0660541602
11050233700.0 0.9972872599 0.0496713731
11100233400.0 0.9987488323 0.0318255761
11150233100.0 0.9997864954 0.0151669825
11200232800.0 1.000597522 -0.0002759834
11250232500.0 1.001801076 -0.0178489324
11300232200.0 1.00210418 -0.0358717076
11350231900.0 1.002379375 -0.0520156461
11400231600.0 1.001756152 -0.068008412
11450231300.0 1.000814227 -0.083242916
11500231000.0 0.9995037261 -0.0996423327
11550230700.0 0.9986823834 -0.113229002
11600230400.0 0.9971661481 -0.1261645395
11650230100.0 0.9948756375 -0.1376589169
11700229800.0 0.9928604917 -0.1521981532
11750229500.0 0.9902783761 -0.1666978388
11800229200.0 0.9876075005 -0.1799374008
11850228900.0 0.9839439856 -0.1917455494
11900228600.0 0.9804022309 -0.2013730464
11950228300.0 0.9770857231 -0.2116615883
12000228000.0 0.9738671995 -0.2208474357
12050227700.0 0.9707750316 -0.2326782964
12100227400.0 0.9674361255 -0.244212817
12150227100.0 0.9622864342 -0.2609692766
12200226800.0 0.9581083538 -0.2720719883
12250226500.0 0.9543585425 -0.2850964155
12300226200.0 0.9504227656 -0.2968758409
12350225900.0 0.9456262219 -0.3102063825
12400225600.0 0.9411325783 -0.3234222661
12450225300.0 0.9365138803 -0.3360152831
12500225000.0 0.930950147 -0.3506645566
12550224700.0 0.9253181913 -0.3645666421
12600224400.0 0.920573185 -0.3770419838
12650224100.0 0.9147661315 -0.391564334
12700223800.0 0.9094479605 -0.4044438421
12750223500.0 0.9042138392 -0.4171763341
12800223200.0 0.8983926261 -0.4301678507
12850222900.0 0.8932662922 -0.4422025549
12900222600.0 0.8876638402 -0.4540373251
12950222300.0 0.8814543698 -0.4667245324
13000222000.0 0.8758025819 -0.4782759311
13050221700.0 0.8688884211 -0.4916007109
13100221400.0 0.8621232618 -0.5029932855
13150221100.0 0.8550778516 -0.5152590047
13200220800.0 0.8480488537 -0.5270222646
13250220500.0 0.8409065942 -0.5392371195
13300220200.0 0.8334358535 -0.5504708986
13350219900.0 0.8254554596 -0.5620121235
13400219600.0 0.8170296628 -0.5740581503
13450219300.0 0.8077686972 -0.5872121162
13500219000.0 0.7978180145 -0.6004623492
13550218700.0 0.7879191911 -0.6131552459
13600218400.0 0.7778080526 -0.62484789
13650218100.0 0.7680287019 -0.6358281084
13700217800.0 0.7580563945 -0.6478992724
13750217500.0 0.74794621 -0.659150795
13800217200.0 0.7369868052 -0.6697607473
13850216900.0 0.7257459677 -0.681365133
13900216600.0 0.7162088357 -0.6899846406
13950216300.0 0.7054525055 -0.7002698092
14000216000.0 0.6958520522 -0.7091205244
14050215700.0 0.6862346064 -0.7174117607
14100215400.0 0.6766781675 -0.7263724184
14150215100.0 0.6676158876 -0.7350308539
14200214800.0 0.6583251328 -0.7439509191
14250214500.0 0.6479100168 -0.7534631406
14300214200.0 0.6373918313 -0.7628832145
14350213900.0 0.6260352142 -0.772425186
14400213600.0 0.6147878907 -0.7823041311
14450213300.0 0.6016238822 -0.7922527844
14500213000.0 0.5883772166 -0.8028915796
14550212700.0 0.575660648 -0.8115602868
14600212400.0 0.5640310128 -0.8206611209
14650212100.0 0.5511389393 -0.8294382077
14700211800.0 0.5377235777 -0.8389879168
14750211500.0 0.524829366 -0.8472821879
14800211200.0 0.5121943407 -0.8555601731
14850210900.0 0.5003661854 -0.8627797566
14900210600.0 0.4868322207 -0.8708274821
14950210300.0 0.4736615983 -0.8784397362
15000210000.0 0.4608658945 -0.8852862771
15050209700.0 0.4484767038 -0.8912263464
15100209400.0 0.4359675657 -0.8974759437
15150209100.0 0.4241329029 -0.9026226297
15200208800.0 0.4111891112 -0.9083766471
15250208500.0 0.3999580346 -0.9123836137
15300208200.0 0.3884217926 -0.9173415982
15350207900.0 0.374003374 -0.922539813
15400207600.0 0.3599578695 -0.9275090576
15450207300.0 0.3449564816 -0.9323613729
15500207000.0 0.3312779234 -0.9371159718
15550206700.0 0.3157859497 -0.941981008
15600206400.0 0.2998009595 -0.9467453318
15650206100.0 0.2843801251 -0.9505678216
15700205800.0 0.2704584261 -0.9542680753
15750205500.0 0.2566197362 -0.9576773175
15800205200.0 0.2424586891 -0.9612608951
15850204900.0 0.2281307505 -0.9646248776
15900204600.0 0.213065837 -0.9685519996
15950204300.0 0.1986705798 -0.9715024617
16000204000.0 0.1844041567 -0.9744129727
16050203700.0 0.1689961577 -0.9776154261
16100203400.0 0.1547274369 -0.9796779597
16150203100.0 0.1399756462 -0.9822784198
16200202800.0 0.1259719253 -0.9838568552
16250202500.0 0.1108841633 -0.9862434912
16300202200.0 0.0953738427 -0.9873952954
16350201900.0 0.0801703273 -0.9888223427
16400201600.0 0.065713554 -0.9902208139
16450201300.0 0.0501920828 -0.9913950048
16500201000.0 0.0332789953 -0.9920760607
16550200700.0 0.0171447235 -0.9926625125
16600200400.0 0.0009774878 -0.9926527896
16650200100.0 -0.0147463095 -0.9928187014
16700199800.0 -0.0310754362 -0.9925181808
16750199500.0 -0.0501442363 -0.9919284811
16800199200.0 -0.0658629098 -0.9904546005
16850198900.0 -0.081173843 -0.9895116073
16900198600.0 -0.0954684863 -0.9888266846
16950198300.0 -0.1091103569 -0.9872316756
17000198000.0 -0.1210568136 -0.9858629547
17050197700.0 -0.1347974574 -0.9842138262
17100197400.0 -0.1476255201 -0.9820463416
17150197100.0 -0.1601695937 -0.9806550231
17200196800.0 -0.1731315957 -0.9779578851
17250196500.0 -0.1863392944 -0.9753255748
17300196200.0 -0.198345955 -0.9734718951
17350195900.0 -0.2101974361 -0.9708583959
17400195600.0 -0.2222238674 -0.9684492194
17450195300.0 -0.2350744695 -0.9655074976
17500195000.0 -0.2481981087 -0.9621691617
17550194700.0 -0.262137709 -0.958660119
17600194400.0 -0.2758431728 -0.9548862806
17650194100.0 -0.289877951 -0.950902604
17700193800.0 -0.3029512727 -0.9465898921
17750193500.0 -0.3171515708 -0.9416902582
17800193200.0 -0.3312845852 -0.936576599
17850192900.0 -0.3461099801 -0.9310263771
17900192600.0 -0.36131898 -0.925071287
17950192300.0 -0.376970418 -0.918106196
18000192000.0 -0.3917237137 -0.9108627546
18050191700.0 -0.4055249724 -0.9031218489
18100191400.0 -0.4195688441 -0.8954520784
18150191100.0 -0.4343008068 -0.8874286296
18200190800.0 -0.4511909103 -0.8782183296
18250190500.0 -0.4682680209 -0.8690271554
18300190200.0 -0.4837845647 -0.8602980276
18350189900.0 -0.4993657018 -0.8514719295
18400189600.0 -0.5134139629 -0.8430372225
18450189300.0 -0.5273122648 -0.8353032332
18500189000.0 -0.5401382934 -0.8275059628
18550188700.0 -0.5530189813 -0.8194617115
18600188400.0 -0.5649874815 -0.8130054687
18650188100.0 -0.5762186053 -0.8064028619
18700187800.0 -0.5868670891 -0.7995084997
18750187500.0 -0.5979690696 -0.7930766081
18800187200.0 -0.6086289892 -0.7859586104
18850186900.0 -0.618654316 -0.7790574873
18900186600.0 -0.6289115386 -0.7720853885
18950186300.0 -0.6392085922 -0.7639359137
19000186000.0 -0.6463369738 -0.7577601438
19050185700.0 -0.655505926 -0.7507277456
19100185400.0 -0.6658418397 -0.7425581519
19150185100.0 -0.6761422365 -0.7334491429
19200184800.0 -0.6857595354 -0.7257236202
19250184500.0 -0.6954839446 -0.716126945
19300184200.0 -0.7072248586 -0.7074730932
19350183900.0 -0.7176535244 -0.6976929392
19400183600.0 -0.726725192 -0.6875530891
19450183300.0 -0.7365633753 -0.6772550854
19500183000.0 -0.7449414467 -0.6671105862
19550182700.0 -0.7547666628 -0.6563429284
19600182400.0 -0.7649793367 -0.6448838951
19650182100.0 -0.7753212816 -0.6323575921
19700181800.0 -0.7855628126 -0.6190126244
19750181500.0 -0.7958837746 -0.6051320753
19800181200.0 -0.806247271 -0.5902285163
19850180900.0 -0.8157745218 -0.5751094011
19900180600.0 -0.8236869264 -0.5604568121
19950180300.0 -0.83272731 -0.5439411125
20000180000.0 -0.8235808342 -0.5466623609
20050179700.0 -0.832143323 -0.5348380511
20100179400.0 -0.8398282098 -0.5219613168
20150179100.0 -0.8485711864 -0.5087803224
20200178800.0 -0.8569209143 -0.4968866406
20250178500.0 -0.8660947776 -0.4848935518
20300178200.0 -0.8759911416 -0.4706845525
20350177900.0 -0.8856526837 -0.4567599999
20400177600.0 -0.8940084779 -0.4424103914
20450177300.0 -0.9025714882 -0.4283197989
20500177000.0 -0.9101749777 -0.4142605818
20550176700.0 -0.9184872444 -0.4009656185
20600176400.0 -0.9255570872 -0.3874886322
20650176100.0 -0.9321681502 -0.3750287712
20700175800.0 -0.9389230652 -0.3632086713
20750175500.0 -0.9454015045 -0.3518753417
20800175200.0 -0.9483991875 -0.3404611668
20850174900.0 -0.9547543241 -0.3303752227
20900174600.0 -0.9577621794 -0.3193066615
20950174300.0 -0.9621950154 -0.3081202909
21000174000.0 -0.9645230928 -0.2976445981
21050173700.0 -0.9666226894 -0.2871598543
21100173400.0 -0.9710399925 -0.2764746252
21150173100.0 -0.9740614327 -0.2642204889
21200172800.0 -0.9780352873 -0.2514628441
21250172500.0 -0.9814050376 -0.2375822458
21300172200.0 -0.9845935405 -0.2232212796
21350171900.0 -0.9869834097 -0.2092529076
21400171600.0 -0.989443912 -0.1950919376
21450171300.0 -0.9898610064 -0.1810891575
21500171000.0 -0.9894142861 -0.1649371502
21550170700.0 -0.9900684142 -0.1510428074
21600170400.0 -0.991355605 -0.1358785495
21650170100.0 -0.9902304528 -0.1200421139
21700169800.0 -0.9904476234 -0.1032802755
21750169500.0 -0.9902488834 -0.0887786097
21800169200.0 -0.9898098523 -0.0711746776
21850168900.0 -0.9891916989 -0.0545405916
21900168600.0 -0.9889182983 -0.0380060954
21950168300.0 -0.9879388408 -0.0233579771
22000168000.0 -0.9875886858 -0.0076573072
22050167700.0 -0.9882967886 0.0070095037
22100167400.0 -0.9888491577 0.0224252568
22150167100.0 -0.9894699773 0.0386549615
22200166800.0 -0.9907621939 0.0548746645
22250166500.0 -0.9903271455 0.0721545578
22300166200.0 -0.9893226004 0.0884407856
22350165900.0 -0.9876672748 0.1053706379
22400165600.0 -0.9856779621 0.1202900108
22450165300.0 -0.9845965828 0.1348694754
22500165000.0 -0.9829184901 0.1496677719
22550164700.0 -0.9810276445 0.1641905983
22600164400.0 -0.9797012735 0.1819329038
22650164100.0 -0.9764056421 0.1968371706
22700163800.0 -0.9725678928 0.2130568543
22750163500.0 -0.9706308726 0.2278633529
22800163200.0 -0.9673104979 0.2411437605
22850162900.0 -0.9654002443 0.2547282172
22900162600.0 -0.96355449 0.2683444914
22950162300.0 -0.9617834306 0.281851471
23000162000.0 -0.9605364122 0.2942968319
23050161700.0 -0.9575896535 0.3075853527
23100161400.0 -0.9555852493 0.3205486253
23150161100.0 -0.9518849214 0.3335532512
23200160800.0 -0.9492412964 0.3466540798
23250160500.0 -0.946425286 0.3589164827
23300160200.0 -0.9436311016 0.3709085386
23350159900.0 -0.939962667 0.3845632227
23400159600.0 -0.9345923125 0.3982252503
23450159300.0 -0.9297014544 0.4117243709
23500159000.0 -0.9248029298 0.4251561986
23550158700.0 -0.9200512753 0.4394674838
23600158400.0 -0.9144733601 0.4531110954
23650158100.0 -0.907453327 0.4677545348
23700157800.0 -0.8990820014 0.481793747
23750157500.0 -0.8899748286 0.4962569823
23800157200.0 -0.8799957251 0.5092469084
23850156900.0 -0.8708706578 0.5221223281
23900156600.0 -0.8618099487 0.5348595586
23950156300.0 -0.8526585634 0.5474170767
24000156000.0 -0.8422182874 0.559275559
24050155700.0 -0.8324668402 0.5718171309
24100155400.0 -0.8219434841 0.5843866679
24150155100.0 -0.8113135871 0.5964457123
24200154800.0 -0.7992155273 0.6074785902
24250154500.0 -0.7887415165 0.6193710443
24300154200.0 -0.7770979293 0.6322563398
24350153900.0 -0.7651750437 0.6431035229
24400153600.0 -0.7527421112 0.6538816332
24450153300.0 -0.7406973888 0.6639118235
24500153000.0 -0.7291376454 0.6735943666
24550152700.0 -0.7179312178 0.6840648942
24600152400.0 -0.7063133899 0.6932344451
24650152100.0 -0.6940932624 0.7012231842
