!Created with skrf (http://scikit-rf.org).
# Hz S RI R 50.0 
!freq ReS11 ImS11
300000.0 -0.9749690539 -0.1223589614
50299700.0 -1.000093323 0.0150975076
100299400.0 -0.9980934808 0.0282017351
150299100.0 -1.002714344 0.0450027487
200298800.0 -0.9996562899 0.0582087939
250298500.0 -0.9974445322 0.0719279503
300298200.0 -0.9858788877 0.087644225
350297900.0 -0.9939717047 0.0985255193
400297600.0 -0.9931189103 0.1149828711
450297300.0 -0.9908695627 0.1287952698
500297000.0 -0.9895301266 0.1436914281
550296700.0 -0.9844628013 0.1559982333
600296400.0 -1.017373634 0.1892432361
650296100.0 -0.9823315941 0.1861734294
700295800.0 -0.9793928224 0.2002725556
750295500.0 -0.9763774982 0.2142070586
800295200.0 -0.973131984 0.2282752753
850294900.0 -0.9697724817 0.2421256546
900294600.0 -0.9658321265 0.2560200391
950294300.0 -0.9622004961 0.2697539962
1000294000.0 -0.9582627401 0.2834830533
1050293700.0 -0.9536309725 0.2973762876
1100293400.0 -0.9493046861 0.3116546689
1150293100.0 -0.9453812884 0.323831359
1200292800.0 -0.9402644664 0.3381592469
1250292500.0 -0.9348058129 0.3515198152
1300292200.0 -0.9290731152 0.364765214
1350291900.0 -0.9234540826 0.3786449364
1400291600.0 -0.917946931 0.3918681273
1450291300.0 -0.9125826198 0.4041165408
1500291000.0 -0.9062267884 0.4175768752
1550290700.0 -0.8996540918 0.4308796912
1600290400.0 -0.8934941876 0.4439587643
1650290100.0 -0.8867867574 0.4559450313
1700289800.0 -0.8801143568 0.4697019544
1750289500.0 -0.8728220351 0.4818231613
1800289200.0 -0.8653297704 0.4946430055
1850288900.0 -0.8587099837 0.5059542539
1900288600.0 -0.8510301825 0.518897125
1950288300.0 -0.842821605 0.5315268657
2000288000.0 -0.8354247879 0.5428882924
2050287700.0 -0.8271395772 0.5553315772
2100287400.0 -0.8192610902 0.567060947
2150287100.0 -0.8106786656 0.5791272747
2200286800.0 -0.8030844636 0.5894447088
2250286500.0 -0.7943374147 0.6015039062
2300286200.0 -0.7852984927 0.6129950192
2350285900.0 -0.776594013 0.6238749262
2400285600.0 -0.7676207287 0.6348036976
2450285300.0 -0.7590018928 0.6453098382
2500285000.0 -0.7491708525 0.6566050708
2550284700.0 -0.740424073 0.6669809227
2600284400.0 -0.731105261 0.6770749137
2650284100.0 -0.7222921394 0.687470301
2700283800.0 -0.7115104544 0.6979598303
2750283500.0 -0.70102809 0.7084521797
2800283200.0 -0.691433161 0.7183900167
2850282900.0 -0.6812997287 0.7282096249
2900282600.0 -0.6706730418 0.7379612718
2950282300.0 -0.6605834482 0.7472892483
3000282000.0 -0.6497996141 0.7566804538
3050281700.0 -0.6385723828 0.7658312578
3100281400.0 -0.6267874243 0.7751936517
3150281100.0 -0.6151800552 0.7846393113
3200280800.0 -0.6034972104 0.793006902
3250280500.0 -0.5926257967 0.8007237211
3300280200.0 -0.5813346201 0.8086125463
3350279900.0 -0.5696203474 0.8162762862
3400279600.0 -0.5574308161 0.8240771682
3450279300.0 -0.5463024842 0.8310810389
3500279000.0 -0.5343434833 0.838352392
3550278700.0 -0.5217934511 0.8454506769
3600278400.0 -0.5096827906 0.8525301541
3650278100.0 -0.4965169368 0.8601891749
3700277800.0 -0.4844272991 0.8666436293
3750277500.0 -0.4723214141 0.8733457428
3800277200.0 -0.4598440194 0.8796896158
3850276900.0 -0.4477420034 0.8856278097
3900276600.0 -0.4369436471 0.891330173
3950276300.0 -0.424546489 0.897423036
4000276000.0 -0.4128125285 0.9031067798
4050275700.0 -0.3998170559 0.9095252629
4100275400.0 -0.3886794869 0.9147947941
4150275100.0 -0.376079301 0.9204587978
4200274800.0 -0.3629193332 0.926091866
4250274500.0 -0.3506652514 0.9311823359
4300274200.0 -0.3377879348 0.9367124572
4350273900.0 -0.323691523 0.9417187647
4400273600.0 -0.3089651563 0.9471210952
4450273300.0 -0.2936093926 0.952209486
4500273000.0 -0.2800639991 0.9564775276
4550272700.0 -0.2660481236 0.9607356133
4600272400.0 -0.2505350561 0.9650976422
4650272100.0 -0.2388108485 0.9681535917
4700271800.0 -0.2256644124 0.9715373035
4750271500.0 -0.2138696506 0.9743375745
4800271200.0 -0.2014902878 0.9771403511
4850270900.0 -0.1875890375 0.9799613057
4900270600.0 -0.1737713996 0.9823720427
4950270300.0 -0.1592983695 0.9848981588
5000270000.0 -0.1449727985 0.9870556424
5050269700.0 -0.1315385778 0.9889029644
5100269400.0 -0.1178609272 0.9902931289
5150269100.0 -0.1043112808 0.9918201175
5200268800.0 -0.0912319412 0.9932897812
5250268500.0 -0.0780632016 0.9938822185
5300268200.0 -0.0647555261 0.9943184254
5350267900.0 -0.0526150323 0.9953981268
5400267600.0 -0.0361731969 0.9961305559
5450267300.0 -0.0231618565 0.9966308283
5500267000.0 -0.0080515625 0.9969836616
5550266700.0 0.0069981777 0.9972352179
5600266400.0 0.0224241115 0.9970109457
5650266100.0 0.0390426966 0.996611604
5700265800.0 0.0531392961 0.9957727069
5750265500.0 0.0684652327 0.9954365256
5800265200.0 0.0824428349 0.9945501921
5850264900.0 0.0957226709 0.9935286946
5900264600.0 0.1119915818 0.9914903313
5950264300.0 0.1244610881 0.9903201897
6000264000.0 0.1380907961 0.9883015434
6050263700.0 0.1505279698 0.9867536356
6100263400.0 0.1629245958 0.9850705794
6150263100.0 0.1772820122 0.9827109195
6200262800.0 0.1875478054 0.9810312139
6250262500.0 0.2004438434 0.9786213857
6300262200.0 0.213075151 0.9757164964
6350261900.0 0.2260508312 0.9729593469
6400261600.0 0.2400492999 0.9695088192
6450261300.0 0.2515042327 0.9668785408
6500261000.0 0.2642306152 0.9634398312
6550260700.0 0.2771207696 0.9592252379
6600260400.0 0.2903495119 0.9554159326
6650260100.0 0.304820173 0.9511753875
6700259800.0 0.3169435251 0.947069696
6750259500.0 0.3305257748 0.9419822608
6800259200.0 0.3436299701 0.9368210989
6850258900.0 0.3554818196 0.9315157212
6900258600.0 0.3677260491 0.9264798424
6950258300.0 0.380283282 0.9211505458
7000258000.0 0.3923425935 0.9158834434
7050257700.0 0.4045912767 0.9099120988
7100257400.0 0.4173244625 0.9036939481
7150257100.0 0.4278570338 0.8984554023
7200256800.0 0.4406785464 0.892090692
7250256500.0 0.4526349837 0.8855001622
7300256200.0 0.4658916513 0.8786408061
7350255900.0 0.4784598889 0.871844895
7400255600.0 0.4919008008 0.8646380734
7450255300.0 0.5067399999 0.8555033818
7500255000.0 0.5187954534 0.8485712228
7550254700.0 0.5327083148 0.8397053142
7600254400.0 0.5456029811 0.8316508569
7650254100.0 0.5567849964 0.8238776897
7700253800.0 0.5683163318 0.815900434
7750253500.0 0.5797643982 0.8082793944
7800253200.0 0.5904667724 0.8004814046
7850252900.0 0.6001003447 0.7932534552
7900252600.0 0.6118511811 0.7848050045
7950252300.0 0.6205780437 0.7782215664
8000252000.0 0.630459851 0.7704074179
8050251700.0 0.6410721437 0.7624646007
8100251400.0 0.6508505939 0.7542678833
8150251100.0 0.6615494077 0.7455228939
8200250800.0 0.670631046 0.737443411
8250250500.0 0.6797910336 0.729506676
8300250200.0 0.6889303898 0.7210720575
8350249900.0 0.6976645233 0.7123061294
8400249600.0 0.7062139365 0.7041261797
8450249300.0 0.7154816898 0.6950474515
8500249000.0 0.7238955535 0.6860437492
8550248700.0 0.7321344728 0.6771244181
8600248400.0 0.7406710162 0.6675997384
8650248100.0 0.748343258 0.6581298963
8700247800.0 0.7578722606 0.64696145
8750247500.0 0.7663047337 0.636679196
8800247200.0 0.77438552 0.6262260107
8850246900.0 0.7833512531 0.6150363507
8900246600.0 0.7917035273 0.6035486085
8950246300.0 0.8012054041 0.5907524428
9000246000.0 0.810446413 0.578064017
9050245700.0 0.8194510735 0.5652090208
9100245400.0 0.8279366112 0.5528295069
9150245100.0 0.8372417047 0.5391217663
9200244800.0 0.8469610768 0.5243124121
9250244500.0 0.8562965908 0.5088157651
9300244200.0 0.8646999582 0.49459745
9350243900.0 0.8724688619 0.4807772271
9400243600.0 0.8790904845 0.4686621862
9450243300.0 0.8848812277 0.4571391237
9500243000.0 0.8912968168 0.4448747975
9550242700.0 0.8947773488 0.4375698528
9600242400.0 0.8987749641 0.4299221698
9650242100.0 0.902702746 0.4234624189
9700241800.0 0.9072693696 0.4151590696
9750241500.0 0.9111212549 0.4075820603
9800241200.0 0.9159146557 0.3982103126
9850240900.0 0.9215501778 0.3868645325
9900240600.0 0.9274105197 0.3751541936
9950240300.0 0.9339649463 0.3589627159
10000240000.0 0.9386904067 0.3472416319
10050239700.0 0.9442365705 0.332147308
10100239400.0 0.9493202569 0.3163103566
10150239100.0 0.9539090522 0.3013925768
10200238800.0 0.9582360848 0.28646431
10250238500.0 0.9613801783 0.272993893
10300238200.0 0.9645597998 0.2590504946
10350237900.0 0.9671926351 0.2461228619
10400237600.0 0.9698365376 0.2328093143
10450237300.0 0.9723973405 0.2189217604
10500237000.0 0.9745366115 0.2063426845
10550236700.0 0.9769081199 0.1927648388
10600236400.0 0.9794375341 0.178534161
10650236100.0 0.9812302131 0.1642455763
10700235800.0 0.9836811858 0.1521749888
10750235500.0 0.9855312749 0.1384918567
10800235200.0 0.9876050142 0.1248379549
10850234900.0 0.9894667259 0.1096939352
10900234600.0 0.9918283947 0.0951774934
10950234300.0 0.9933806521 0.0819615354
11000234000.0 0.9953447624 0.066743431
11050233700.0 0.9970844349 0.0503988822
11100233400.0 0.9985325507 0.0330428698
11150233100.0 0.9996196717 0.016459694
11200232800.0 1.000401092 0.0014077321
11250232500.0 1.001150287 -0.014919583
11300232200.0 1.001351517 -0.0330601073
11350231900.0 1.001497341 -0.049136679
11400231600.0 1.00131654 -0.0648738193
11450231300.0 1.001570113 -0.0799033309
11500231000.0 0.9997480474 -0.0958153258
11550230700.0 0.9981992828 -0.1097303393
11600230400.0 0.996977261 -0.1216489448
11650230100.0 0.9953676136 -0.1337179072
11700229800.0 0.9931075791 -0.1482756812
11750229500.0 0.9908307857 -0.1624354753
11800229200.0 0.988027696 -0.1760154514
11850228900.0 0.9846844734 -0.1886277816
11900228600.0 0.9809382217 -0.1981617475
11950228300.0 0.9774054298 -0.2085807564
12000228000.0 0.9750039686 -0.2175734838
12050227700.0 0.9711190275 -0.2304281022
12100227400.0 0.9686131194 -0.2406873201
12150227100.0 0.9629622021 -0.258457211
12200226800.0 0.9590036444 -0.269843827
12250226500.0 0.9553798175 -0.2821988699
12300226200.0 0.9508159397 -0.2945082714
12350225900.0 0.9461463028 -0.3080001829
12400225600.0 0.9418053626 -0.3205095877
12450225300.0 0.938092438 -0.3333102254
12500225000.0 0.9323377261 -0.3483847937
12550224700.0 0.9266632595 -0.362455522
12600224400.0 0.9220936278 -0.375177007
12650224100.0 0.9160503167 -0.3895838495
12700223800.0 0.9108241768 -0.4024103672
12750223500.0 0.9052023123 -0.415561057
12800223200.0 0.9002595422 -0.4279133205
12850222900.0 0.8949158921 -0.4400887855
12900222600.0 0.8889740219 -0.4524024316
12950222300.0 0.8827441739 -0.4650945165
13000222000.0 0.8764784368 -0.4763689993
13050221700.0 0.869743637 -0.4895262365
13100221400.0 0.8631169006 -0.5013267892
13150221100.0 0.8567437831 -0.5136841649
13200220800.0 0.8495578604 -0.5250334755
13250220500.0 0.8423325202 -0.5368517292
13300220200.0 0.8347259464 -0.547926286
13350219900.0 0.8270432851 -0.5598750225
13400219600.0 0.8186094872 -0.572144266
13450219300.0 0.80950765 -0.5852656426
13500219000.0 0.7989204822 -0.5990806426
13550218700.0 0.7886998299 -0.6119277054
13600218400.0 0.7790381609 -0.6237393392
13650218100.0 0.7689057199 -0.6349248766
13700217800.0 0.7580375843 -0.6475086846
13750217500.0 0.7480285853 -0.658884952
13800217200.0 0.7375682322 -0.6702384676
13850216900.0 0.7269017275 -0.6813940925
13900216600.0 0.7169702345 -0.6901991086
13950216300.0 0.7061030879 -0.7007855935
14000216000.0 0.6955119013 -0.7098708004
14050215700.0 0.6862095429 -0.7187549375
14100215400.0 0.6761234871 -0.7273478483
14150215100.0 0.6671805238 -0.7363761174
14200214800.0 0.657789258 -0.7447186563
14250214500.0 0.6473986087 -0.7540059481
14300214200.0 0.637029667 -0.7634078383
14350213900.0 0.6257810004 -0.7730203576
14400213600.0 0.6141429976 -0.7828344897
14450213300.0 0.6009444203 -0.7932198657
14500213000.0 0.5878422335 -0.8026579414
14550212700.0 0.5756488489 -0.8128507688
14600212400.0 0.5628730427 -0.8214306075
14650212100.0 0.5504064077 -0.8300424053
14700211800.0 0.5359578782 -0.8394173703
14750211500.0 0.5242116865 -0.8477948743
14800211200.0 0.511717602 -0.8555057677
14850210900.0 0.4995493092 -0.8632438699
14900210600.0 0.4861664595 -0.8711379833
14950210300.0 0.4728609612 -0.8787591743
15000210000.0 0.4599615875 -0.8856172899
15050209700.0 0.4481176145 -0.8915023407
15100209400.0 0.4350302091 -0.8975878776
15150209100.0 0.4227217855 -0.9029117956
15200208800.0 0.4099566591 -0.9082415065
15250208500.0 0.3982530656 -0.9127556824
15300208200.0 0.3867650382 -0.9172320929
15350207900.0 0.3734276635 -0.9227871311
15400207600.0 0.3586041927 -0.9280420155
15450207300.0 0.3442856024 -0.9328687323
15500207000.0 0.3303225976 -0.93763161
15550206700.0 0.3152957427 -0.9423688903
15600206400.0 0.2991161601 -0.9465900047
15650206100.0 0.2837685119 -0.9508055549
15700205800.0 0.26964335 -0.9545199473
15750205500.0 0.2552179891 -0.9583154219
15800205200.0 0.240700482 -0.9618147354
15850204900.0 0.2263439532 -0.9653131457
15900204600.0 0.2112607963 -0.9690200133
15950204300.0 0.1971188256 -0.9720813542
16000204000.0 0.1829013229 -0.9747798327
16050203700.0 0.1676995875 -0.977634385
16100203400.0 0.1531085326 -0.9799336705
16150203100.0 0.1389247116 -0.9821820429
16200202800.0 0.1243659261 -0.9842543516
16250202500.0 0.1100419685 -0.9856123669
16300202200.0 0.0944589633 -0.9879055345
16350201900.0 0.0795691313 -0.9890306906
16400201600.0 0.0646634088 -0.9903689943
16450201300.0 0.0494675009 -0.9911726481
16500201000.0 0.0327586954 -0.9921558869
16550200700.0 0.0169622435 -0.9925414151
16600200400.0 0.0012365726 -0.9927455237
16650200100.0 -0.0146521872 -0.992866516
16700199800.0 -0.031378855 -0.992355487
16750199500.0 -0.0497272856 -0.9916922023
16800199200.0 -0.0656781991 -0.991081561
16850198900.0 -0.0811632394 -0.9893700255
16900198600.0 -0.0944571807 -0.9890154043
16950198300.0 -0.1080149852 -0.9872242986
17000198000.0 -0.1214697736 -0.9858966099
17050197700.0 -0.1338012523 -0.9840667181
17100197400.0 -0.1468760336 -0.9824793255
17150197100.0 -0.1591782947 -0.9802252211
17200196800.0 -0.1714844396 -0.9780694622
17250196500.0 -0.1846628011 -0.9757912577
17300196200.0 -0.1970035871 -0.9736217722
17350195900.0 -0.2088885003 -0.9712766473
17400195600.0 -0.2209554565 -0.9687261418
17450195300.0 -0.234007658 -0.9659040639
17500195000.0 -0.2473914206 -0.9625560304
17550194700.0 -0.2614638895 -0.9588076262
17600194400.0 -0.2751672438 -0.9548624096
17650194100.0 -0.2887474035 -0.9509625544
17700193800.0 -0.3017132501 -0.9465312909
17750193500.0 -0.3162090669 -0.9419408474
17800193200.0 -0.3308950749 -0.9367105243
17850192900.0 -0.3459533948 -0.9316727869
17900192600.0 -0.3611193109 -0.925314408
17950192300.0 -0.376628991 -0.9183988085
18000192000.0 -0.3916084549 -0.9109740547
18050191700.0 -0.4055091176 -0.9033039976
18100191400.0 -0.4196094 -0.8956073064
18150191100.0 -0.4346035566 -0.8875772089
18200190800.0 -0.451542672 -0.8784075843
18250190500.0 -0.4684939962 -0.8690351772
18300190200.0 -0.4839495369 -0.8601481567
18350189900.0 -0.4991488283 -0.8519099266
18400189600.0 -0.513603375 -0.8434313014
18450189300.0 -0.5269025286 -0.8358773362
18500189000.0 -0.5405193291 -0.8277899243
18550188700.0 -0.5526696001 -0.8199947059
18600188400.0 -0.5648353719 -0.813399636
18650188100.0 -0.5754617212 -0.8068408177
18700187800.0 -0.5864431518 -0.8004460621
18750187500.0 -0.5970840928 -0.7937432051
18800187200.0 -0.6074410359 -0.787055103
18850186900.0 -0.6175767152 -0.7799541634
18900186600.0 -0.6278516384 -0.772671661
18950186300.0 -0.6376696035 -0.7653086011
19000186000.0 -0.644695671 -0.7589813388
19050185700.0 -0.6539045625 -0.7519695809
19100185400.0 -0.6637916749 -0.7433161691
19150185100.0 -0.6744282282 -0.7348540415
19200184800.0 -0.6836072602 -0.7273625512
19250184500.0 -0.6941914698 -0.7175640347
19300184200.0 -0.7046838126 -0.7078268796
19350183900.0 -0.7159501005 -0.6987290683
19400183600.0 -0.7249860034 -0.6884378586
19450183300.0 -0.7347239215 -0.6778842747
19500183000.0 -0.7429461416 -0.6682315666
19550182700.0 -0.7526017875 -0.6576903446
19600182400.0 -0.7630119024 -0.6457075233
19650182100.0 -0.7740589677 -0.6334086857
19700181800.0 -0.7846138041 -0.6201674696
19750181500.0 -0.7952410768 -0.6058103805
19800181200.0 -0.8055533279 -0.5908599793
19850180900.0 -0.8152464014 -0.5755019833
19900180600.0 -0.823326576 -0.5607852078
19950180300.0 -0.8326061252 -0.5446597893
20000180000.0 -0.8249402776 -0.547769506
20050179700.0 -0.833493621 -0.5330247413
20100179400.0 -0.841575223 -0.5198959213
20150179100.0 -0.8500233577 -0.5074612015
20200178800.0 -0.8593038483 -0.4953540362
20250178500.0 -0.8686050937 -0.4817660086
20300178200.0 -0.8778848165 -0.4678405603
20350177900.0 -0.8871723342 -0.45349339
20400177600.0 -0.8955406735 -0.4386958204
20450177300.0 -0.904539136 -0.424500924
20500177000.0 -0.9121372204 -0.4104731069
20550176700.0 -0.9203808246 -0.3971369674
20600176400.0 -0.9271111405 -0.3840309408
20650176100.0 -0.93415481 -0.3718755136
20700175800.0 -0.9409224772 -0.3602572449
20750175500.0 -0.9476794387 -0.3481592669
20800175200.0 -0.9516443257 -0.3376381854
20850174900.0 -0.9567466589 -0.3259447892
20900174600.0 -0.9615010198 -0.3144240541
20950174300.0 -0.9633253142 -0.303293907
21000174000.0 -0.9683493296 -0.2927815625
21050173700.0 -0.9709960933 -0.2815809766
21100173400.0 -0.9749127656 -0.2691857608
21150173100.0 -0.9787052679 -0.2575931944
21200172800.0 -0.9826489075 -0.2439820561
21250172500.0 -0.9856528638 -0.2306020684
21300172200.0 -0.9887539114 -0.216412569
21350171900.0 -0.9903218704 -0.2021566533
21400171600.0 -0.9913495861 -0.1877510886
21450171300.0 -0.9919062323 -0.17281995
21500171000.0 -0.9921663152 -0.1566389269
21550170700.0 -0.9925123213 -0.1418519856
21600170400.0 -0.9914350823 -0.1273335455
21650170100.0 -0.9917755617 -0.1104979447
21700169800.0 -0.9897529064 -0.0950445572
21750169500.0 -0.9887491175 -0.0808745641
21800169200.0 -0.9879109237 -0.0643710143
21850168900.0 -0.9868338644 -0.0463285203
21900168600.0 -0.9858050497 -0.0304161252
21950168300.0 -0.9851051446 -0.0143588819
22000168000.0 -0.9845631174 0.0004421183
22050167700.0 -0.9840776984 0.0147368237
22100167400.0 -0.9845131146 0.0300275425
22150167100.0 -0.9849730919 0.0457876546
22200166800.0 -0.9856294387 0.0619942856
22250166500.0 -0.9843964618 0.0796690413
22300166200.0 -0.9841685629 0.0953886629
22350165900.0 -0.9830837801 0.1116905591
22400165600.0 -0.9818533545 0.1289392372
22450165300.0 -0.9790832441 0.1433751917
22500165000.0 -0.9781440706 0.1567040933
22550164700.0 -0.9768542699 0.1715731873
22600164400.0 -0.9753558769 0.1877294319
22650164100.0 -0.9724982248 0.2028010308
22700163800.0 -0.9693785909 0.2186248202
22750163500.0 -0.9673598619 0.2340928629
22800163200.0 -0.9643088682 0.2473041023
22850162900.0 -0.9621508843 0.2603910088
22900162600.0 -0.9604697864 0.2738522808
22950162300.0 -0.9591669073 0.2864907752
23000162000.0 -0.9581212392 0.2984680231
23050161700.0 -0.9561952202 0.3113138714
23100161400.0 -0.9535148643 0.3243819158
23150161100.0 -0.9507722989 0.3368848888
23200160800.0 -0.948112238 0.3484415775
23250160500.0 -0.945323637 0.3603271706
23300160200.0 -0.9430238562 0.3731070313
23350159900.0 -0.9388953494 0.3862219991
23400159600.0 -0.9338510005 0.3989740881
23450159300.0 -0.9289177543 0.4126396326
23500159000.0 -0.9248090315 0.4254671692
23550158700.0 -0.9204131179 0.4392368948
23600158400.0 -0.9148790068 0.4526434342
23650158100.0 -0.9083190548 0.4667238406
23700157800.0 -0.9006978159 0.4808119821
23750157500.0 -0.8919698678 0.4947652254
23800157200.0 -0.8831144144 0.5082681865
23850156900.0 -0.8747947266 0.5209865791
23900156600.0 -0.8647484734 0.5334060927
23950156300.0 -0.855976079 0.5462867911
24000156000.0 -0.8464269834 0.5571197539
24050155700.0 -0.8362750401 0.5696992269
24100155400.0 -0.8271067653 0.5817353617
24150155100.0 -0.8159377948 0.5936332793
24200154800.0 -0.8044039122 0.6048900536
24250154500.0 -0.7933885502 0.6165992531
24300154200.0 -0.7822198309 0.6286165854
24350153900.0 -0.7707108922 0.6389859139
24400153600.0 -0.7584353155 0.6492936671
24450153300.0 -0.7463156104 0.6593234755
24500153000.0 -0.735058913 0.6689966456
24550152700.0 -0.723528453 0.6789456178
24600152400.0 -0.7120623739 0.6879015508
24650152100.0 -0.7002930858 0.6962949698
